! Created with skrf 1.8.0 (http://scikit-rf.org).
# Hz S RI R 50.0 
!freq ReS11 ImS11
4000000000.0 0.5146227691759424 -0.8624077625679776
4003000000.0 0.5600961708075898 -0.9433879533947229
4006000000.0 0.4668821512117855 -0.9261102183203566
4009000000.0000005 0.5293595596509039 -0.8836988328032535
4011999999.9999995 0.5862084976312074 -0.868220486300102
4016000000.0 0.5299080804492333 -0.8805758165007368
4019000000.0 0.5062063760399171 -0.8870080802902385
4022000000.0000005 0.5583526760290902 -0.8623743753540815
4025000000.0000005 0.481139878468684 -0.9139837917416367
4027999999.9999995 0.5246679158495899 -0.9492274631791898
4030999999.9999995 0.5229415857231177 -0.8577410010414093
4034000000.0 0.5047258809177215 -0.8790258552044707
4038000000.0000005 0.46400863530313674 -0.9001615616599975
4041000000.0000005 0.5056400843059612 -0.9037779034676621
4043999999.9999995 0.506543946302607 -0.9300544841786408
4046999999.9999995 0.5711979656838083 -0.9289452510629165
4050000000.0 0.4950193951912317 -0.9183018852519471
4053000000.0 0.49965144505489806 -0.8732159009259728
4056000000.0 0.4930964474628491 -0.9201312036627576
4059000000.0 0.4730538342641641 -0.8523714959139815
4062000000.0000005 0.49278727014491813 -0.9045901414768858
4066000000.0 0.43116703811965756 -0.8446390805772828
4069000000.0 0.5079705630372944 -0.948224338411639
4072000000.0 0.5369347660857251 -0.8780507643751089
4075000000.0 0.5404060395303911 -0.8782716865484245
4078000000.0000005 0.5309176517948548 -0.9278264498279886
4081000000.0000005 0.5813265352456787 -0.8493273620749694
4083999999.9999995 0.49904850779884785 -0.8887311094183477
4088000000.0 0.5696044269516632 -0.8458046870225688
4091000000.0 0.5413750580024738 -0.9383458508824788
4094000000.0000005 0.5412439657678033 -0.9024566791067887
4097000000.0000005 0.529702061964211 -0.9213205822015369
4099999999.9999995 0.5079286772554791 -0.8982549256109349
4102999999.9999995 0.5202379835231844 -0.8952063858527249
4106000000.0 0.47872836980729705 -0.871741470157876
4109000000.0 0.4980820108067782 -0.8993617178834856
4112000000.0 0.5161358535636421 -0.8665313449045056
4115999999.9999995 0.528792646821706 -0.8863059556460731
4119000000.0 0.49786588239004154 -0.8883038157936812
4122000000.0 0.5253494970891452 -0.8420336815864651
4125000000.0 0.5269876058982839 -0.9053985347012398
4128000000.0 0.5103231728821703 -0.8640140408171587
4131000000.0 0.503268412755972 -0.8817045413155328
4134000000.0000005 0.5124927194571456 -0.8802414537235608
4138000000.0 0.5049529289767986 -0.8647148156049275
4141000000.0 0.5204082872859407 -0.8851552589662185
4144000000.0 0.5373191024724463 -0.8807527876227957
4147000000.0000005 0.514326127383571 -0.9181497501812497
4150000000.0000005 0.5264939974400461 -0.8616565637508475
4152999999.9999995 0.49651776369086925 -0.8645950642356554
4155999999.9999995 0.5136474990663902 -0.9056869890893274
4159000000.0 0.5129583927485749 -0.8730359083408884
4162000000.0 0.5158737584646732 -0.8548664430185753
4166000000.0000005 0.5023415555054425 -0.8886532504555033
4168999999.9999995 0.4853587698302968 -0.8953893978528846
4171999999.9999995 0.5234707293119075 -0.8733934395005841
4175000000.0 0.5013866844685552 -0.8826507249807903
4178000000.0 0.5234735526357313 -0.8706936208621038
4181000000.0 0.5289647123061354 -0.8864760029071289
4184000000.0 0.5029558122040259 -0.8693311909324126
4187999999.9999995 0.5012319121110158 -0.8640241021550248
4191000000.0 0.5310495667736324 -0.857358412383886
4194000000.0 0.5041969467660146 -0.8544858595850084
4197000000.0 0.5066789664994203 -0.880333369308987
4200000000.0 0.5239062397932042 -0.8779573471672615
4203000000.0000005 0.5242303408710869 -0.8754415309869548
4206000000.0000005 0.5291050855972537 -0.8874277371856744
4208999999.9999995 0.5135918792161569 -0.8748149677880509
4211999999.9999995 0.49032660174071596 -0.8775178011243574
4216000000.0 0.5369553150001175 -0.8986869426411923
4219000000.0000005 0.5337347189695557 -0.8758436271620912
4222000000.0000005 0.4931010860555267 -0.8779048736071018
4224999999.9999995 0.529244914324768 -0.8633133763747165
4227999999.9999995 0.5255626427122182 -0.8858732049065532
4231000000.0 0.48923881631382427 -0.8738493069892089
4234000000.0 0.5085653115165221 -0.8959081231152732
4238000000.0000005 0.5081781652143198 -0.8880597453834596
4240999999.9999995 0.48870063066442837 -0.8948844498453885
4244000000.0 0.5138925777663315 -0.8807252942737225
4247000000.0 0.5189539002654319 -0.8762402915940093
4250000000.0 0.5027666762003042 -0.8696449929251446
4253000000.0 0.49442591791089 -0.8668372251032034
4256000000.0 0.509778215386069 -0.9012345832585569
4259000000.0000005 0.48465429839957397 -0.852894573984718
4261999999.9999995 0.4828600228113161 -0.8821795316478149
4266000000.0 0.5087907020701237 -0.9139494224532523
4269000000.0 0.519429592713688 -0.8638192719253741
4272000000.0000005 0.49557993680792123 -0.8700046060687219
4275000000.0000005 0.526188305701035 -0.8627153745641633
4277999999.9999995 0.5431028048617087 -0.8971818300238149
4280999999.9999995 0.5311611336826643 -0.8900406335305969
4284000000.0 0.4732210136181452 -0.9197303631885961
4288000000.0000005 0.5153553362683554 -0.850263020495047
4291000000.0000005 0.5069881534434904 -0.8553091902305829
4293999999.9999995 0.49233363432127764 -0.8712663053800064
4297000000.0 0.536774570672327 -0.8412366209676762
4300000000.0 0.502598711528163 -0.8545018768117645
4303000000.0 0.4790951275790578 -0.8627129772554006
4306000000.0 0.5365765516908643 -0.8506655105816275
4309000000.0 0.46990046203179914 -0.8749153684479494
4312000000.0 0.560699819906434 -0.8670784026751783
4316000000.0 0.5332739113112137 -0.8582165116249277
4319000000.0 0.5040824936419944 -0.8612238429954792
4322000000.0 0.49044458822359016 -0.8925606662602873
4325000000.0 0.501130323474573 -0.891838949408049
4328000000.0 0.47705990144676774 -0.875743410170238
4331000000.0 0.45208380542893756 -0.9007063886545984
4334000000.0 0.4933752602491654 -0.8683464416525417
4338000000.0 0.5277415058321826 -0.8540941948511381
4341000000.0 0.5403805299284796 -0.8743986370282862
4344000000.0 0.5090510371922853 -0.8894243288915891
4347000000.0 0.48489273795414023 -0.8859553626350413
4350000000.0 0.4745279253419101 -0.841718719379104
4353000000.0 0.5003657317337235 -0.8532728523045192
4356000000.0 0.4885943257055686 -0.8948027765796008
4359000000.0 0.47223268552258746 -0.8422821865825022
4362000000.0 0.46137860385916335 -0.9152065621522156
4366000000.0 0.5173327874184082 -0.8723485026884876
4369000000.0 0.46795909605299474 -0.8303789451024183
4372000000.0 0.46126323604412234 -0.8757617669220791
4375000000.0 0.510365396676089 -0.8681196977899142
4378000000.0 0.48029591117958587 -0.8459246811377517
4381000000.0 0.49252358538788166 -0.859934319152651
4384000000.0 0.5105600367412988 -0.934972054112992
4388000000.0 0.514662310879519 -0.8557854332844782
4391000000.0 0.4932444174531997 -0.8862286360776034
4394000000.0 0.4805456433580615 -0.8654615664053771
4397000000.0 0.49027051592610615 -0.8739101712196857
4400000000.0 0.49958650783601777 -0.8997843110827308
4403000000.0 0.4900202256299456 -0.8741221598776268
4406000000.0 0.482684361121014 -0.8919311489739098
4409000000.0 0.4981497945981683 -0.9105890752559463
4412000000.0 0.4405997876583271 -0.9001522449986361
4416000000.0 0.47539826733180135 -0.8867558850058066
4419000000.0 0.467521152596873 -0.8978849423172013
4422000000.0 0.4962049262321748 -0.8669477675400811
4425000000.0 0.5176279311379653 -0.8880558490467593
4428000000.0 0.4889947393107729 -0.87568170420484
4431000000.0 0.4952268316022159 -0.8832291599863327
4434000000.0 0.4682444874491126 -0.8714233566200928
4438000000.0 0.49372371025132283 -0.8995100099851854
4441000000.0 0.506652577429497 -0.8906728518203771
4444000000.0 0.4774545358481341 -0.8649230094692673
4447000000.0 0.4670660343941409 -0.8835966471897054
4450000000.0 0.4799671662109606 -0.8614140366497264
4453000000.0 0.5045773365578353 -0.9065397843635283
4456000000.0 0.44943110126907915 -0.8584740063279954
4459000000.0 0.44464351980851646 -0.856314104861245
4462000000.0 0.5027821953596854 -0.925856670481102
4466000000.0 0.5099348389441707 -0.9232128302299931
4469000000.0 0.5091640867987679 -0.8808589859259222
4472000000.0 0.46835995454595114 -0.9164509012924933
4475000000.0 0.45946166598238686 -0.8720293538546342
4478000000.0 0.48384862893201086 -0.9400453346224529
4481000000.0 0.4499613298910492 -0.8643677719679925
4484000000.0 0.4415877964396483 -0.8861768053186605
4488000000.0 0.45038596035745887 -0.8837686803353246
4491000000.0 0.4821605588084359 -0.890522577544048
4494000000.0 0.4676938926191581 -0.8837489707359371
4497000000.0 0.48172471537624095 -0.8650541931879518
4500000000.0 0.49335096442536036 -0.9065906695218005
4503000000.0 0.4890466778661013 -0.8817412264491505
4506000000.0 0.4549211459911922 -0.8780761533573211
4509000000.0 0.45782341408176486 -0.869344455114987
4512000000.0 0.4516425768473273 -0.8609424841029685
4516000000.0 0.48560197694256413 -0.8965204234235187
4519000000.0 0.47498697238621734 -0.8534476430392031
4522000000.0 0.4515888646406137 -0.8981075577303486
4525000000.0 0.49478418908119776 -0.8731589135738598
4528000000.0 0.48197999033818306 -0.9120628920192546
4531000000.0 0.46910013708901976 -0.8749887656985165
4534000000.0 0.4593149748063313 -0.8627276018232347
4538000000.0 0.46632685766802834 -0.8889855422612346
4541000000.0 0.44008215365970454 -0.8895472597236221
4544000000.0 0.4669406982960044 -0.8740111767719834
4547000000.0 0.48016423248876977 -0.8663694534559228
4550000000.0 0.45746110307546606 -0.9005939165965917
4553000000.0 0.4429523174537413 -0.920001997626893
4556000000.0 0.45089313779739393 -0.869011207259682
4559000000.0 0.451850493561834 -0.8966428205992252
4562000000.0 0.4708300421838309 -0.9126460550303708
4566000000.0 0.4653339295934326 -0.9090557093556408
4569000000.0 0.45131284011609984 -0.8757273282172152
4572000000.0 0.45763166904795916 -0.8857163662713056
4575000000.0 0.4510970021567711 -0.8988834213761736
4578000000.0 0.4797024033065028 -0.917217972546857
4581000000.0 0.45689578017058763 -0.8975423265104179
4584000000.0 0.45321926959818915 -0.8659765945221212
4588000000.0 0.46994184795366445 -0.9089754746274072
4591000000.0 0.4641726916946298 -0.8870509743136747
4594000000.0 0.4513272886634031 -0.894369565050741
4597000000.0 0.4617450123097716 -0.919984943945115
4600000000.0 0.43020334354819484 -0.8940793047614342
4603000000.0 0.4509438251486534 -0.8880095072866051
4606000000.0 0.47156383706243526 -0.9109305730503594
4609000000.0 0.4512855039918787 -0.889245820434256
4612000000.0 0.45653936185401545 -0.9141083830013006
4616000000.0 0.4421370464644079 -0.899929929622767
4619000000.0 0.4547082452081418 -0.9037994747960628
4622000000.0 0.44132129768237116 -0.9071819680686366
4625000000.0 0.4335571953616356 -0.8879183104173755
4628000000.0 0.46110344622803423 -0.8996354199019361
4631000000.0 0.4387075303979928 -0.9019041872400324
4634000000.0 0.45466560996753735 -0.9076854095366358
4638000000.0 0.46368998413307594 -0.8935851434437517
4641000000.0 0.45895502577976904 -0.8942969408702145
4644000000.0 0.4287772261401954 -0.8869502567225102
4647000000.0 0.4510115801672203 -0.9074134286294394
4650000000.0 0.4409462743645084 -0.8831807768983391
4653000000.0 0.46572432873744074 -0.8992541142280068
4656000000.0 0.4365948350083395 -0.9096832383713054
4659000000.0 0.44423292037023115 -0.9031909469060259
4662000000.0 0.4573373246534755 -0.9009207290112038
4666000000.0 0.4221638965981538 -0.8977947808881629
4669000000.0 0.4393021645882357 -0.923725684758129
4672000000.0 0.4311806945505846 -0.9197202457363023
4675000000.0 0.42347693838475686 -0.9039052653901845
4678000000.0 0.43185480453224806 -0.8940641329386507
4681000000.0 0.4207903597763655 -0.9342048210483932
4684000000.0 0.42515898139649927 -0.9385635464303698
4688000000.0 0.43868266166954134 -0.9081371415017626
4691000000.0 0.4635558234128111 -0.9140616378189061
4694000000.0 0.4429318690314868 -0.8829983968392516
4697000000.0 0.418948528423406 -0.9046295067925714
4700000000.0 0.4358521848801074 -0.8918177546631576
4703000000.0 0.43974036299613345 -0.8883021322810852
4706000000.0 0.43021397876967826 -0.9304728693376353
4709000000.0 0.4094096619360602 -0.9158144833573538
4712000000.0 0.4178393105947828 -0.9135136953997188
4716000000.0 0.4378104525907156 -0.9359970352616468
4719000000.0 0.45379935127631504 -0.9270971069478721
4722000000.0 0.4427473849387198 -0.905751759833768
4725000000.0 0.43271083083561296 -0.9323222061189247
4728000000.0 0.4576714899469071 -0.9090630524109832
4731000000.0 0.44644698709839 -0.9274411838160808
4734000000.0 0.46460599437773126 -0.8866852606009756
4738000000.0 0.4514638897824647 -0.9268965806574742
4741000000.0 0.49072110276281294 -0.9560896706888503
4744000000.0 0.4192316886943396 -0.9371169042145425
4747000000.0 0.4469190212494094 -0.8761228679843073
4750000000.0 0.43579750719425964 -0.9334043965670857
4753000000.0 0.4161106030070557 -0.9078690871011718
4756000000.0 0.44973159765362514 -0.903088014500367
4759000000.0 0.4237968621951438 -0.8898873925335976
4762000000.0 0.4166192611814348 -0.9477775766967002
4766000000.0 0.4189275065960119 -0.9352723978710181
4769000000.0 0.44232605950444387 -0.9149595008875292
4772000000.0 0.44198589888070633 -0.9596536108248082
4775000000.0 0.4364764908767146 -0.9432585609015376
4778000000.0 0.4199878952133277 -0.9183854556729991
4781000000.0 0.448552461752289 -0.9091704909642403
4784000000.0 0.4550451785909352 -0.8889184521049047
4788000000.0 0.4328028732764926 -0.936355682124372
4791000000.0 0.42639231124827137 -0.9218203987458806
4794000000.0 0.46738172783044707 -0.9387627385386708
4797000000.0 0.41974079114739227 -0.9081107703257916
4800000000.0 0.3993375812274088 -0.9307305343327719
4803000000.0 0.3919419867102508 -0.932044405715292
4806000000.0 0.43155440521237176 -0.9350547107435266
4809000000.0 0.40505234104360455 -0.9250737453763296
4812000000.0 0.3810468506679734 -0.9262170295917403
4816000000.0 0.4518806942727711 -0.9001345657677968
4819000000.0 0.44862519623458275 -0.9170949909858391
4822000000.0 0.4695172674680471 -0.94805882814206
4825000000.0 0.4809949963760477 -0.9536540095553969
4828000000.0 0.4294714451017499 -0.9271379625102163
4831000000.0 0.40347487824630013 -0.9757590960109899
4834000000.0 0.4533461965166118 -0.9062234910903533
4838000000.0 0.413011237773854 -0.9544154494721383
4841000000.0 0.40644345799322457 -0.9214404110653639
4844000000.0 0.44828387217715454 -0.9242846699251723
4847000000.0 0.43970464024663375 -0.8965409400616479
4850000000.0 0.43474601536816426 -0.958224715439013
4853000000.0 0.4158630600551054 -0.9027378429326665
4856000000.0 0.41915454691620935 -0.9060692694905942
4859000000.0 0.4223090109355232 -0.9730019680842901
4862000000.0 0.45634792792222545 -0.9019063109835457
4866000000.0 0.4242973057433305 -0.9495176938136236
4869000000.0 0.4173610817781987 -0.9319641939414978
4872000000.0 0.43239376997749457 -0.962212523909142
4875000000.0 0.495321865114802 -0.9498807424520825
4878000000.0 0.43188473142626194 -0.9373731063990566
4881000000.0 0.419985467517479 -1.0011413353601533
4884000000.0 0.4338357750841611 -0.9421476382990236
4888000000.0 0.44940272832820566 -0.9152290818104113
4891000000.0 0.46439842247011404 -0.9345855521121018
4894000000.0 0.40024238241769117 -0.9102927025833207
4897000000.0 0.4460919850987998 -0.9306369967280266
4900000000.0 0.4404578888653811 -0.951531665533047
4903000000.0 0.4586449025562293 -0.965007014346417
4906000000.0 0.44092270670142814 -0.9676990457284054
4909000000.0 0.42615325718129116 -0.9425863970467407
4912000000.0 0.4251176810717598 -0.969444744661366
4916000000.0 0.4528293777153995 -0.9470764303074866
4919000000.0 0.4875408813784509 -0.9515050708089643
4922000000.0 0.4775716736820341 -0.9074835503754406
4925000000.0 0.4325314903593881 -0.9148204775628137
4928000000.0 0.49343732741192875 -0.8931494381389355
4931000000.0 0.45651128825570925 -0.9317157330192603
4934000000.0 0.4152986849339494 -0.8745904023804979
4938000000.0 0.40458977089068415 -0.9222852541406615
4941000000.0 0.4352272349260578 -0.9093310471398655
4944000000.0 0.4157687653335622 -0.8531925801150629
4947000000.0 0.4255594260277501 -0.8874699514180083
4950000000.0 0.44892858449437273 -0.8894651070873936
4953000000.0 0.4011817398147358 -0.9580978859895889
4956000000.0 0.3848378632059509 -0.9321541942926186
4959000000.0 0.38086928370385786 -0.931413802379377
4962000000.0 0.4397988418928106 -0.9698845232794512
4966000000.0 0.4837572867899833 -0.9725469441183803
4969000000.0 0.4706558021902666 -0.9575148787375024
4972000000.0 0.4296738552469429 -0.9145758307664826
4975000000.0 0.44725977927875493 -0.883682519089876
4978000000.0 0.43861730866821413 -0.9178175283952787
4981000000.0 0.4281822648724086 -0.9583718504063148
4984000000.0 0.4154618288945017 -0.9183500250930067
4988000000.0 0.4543688394872062 -0.9399093077868507
4991000000.0 0.49792838692946495 -0.9219122361175996
4994000000.0 0.44203943335100404 -0.9148413913083122
4997000000.0 0.39521764429160794 -0.9575852510208651
5000000000.0 0.4800765601524135 -0.9466028224152694
5003000000.0 0.47301544902634374 -0.9289128300030146
5006000000.0 0.43576104396481347 -0.9698821293932977
5009000000.0 0.42889719146887273 -0.9409840563191134
5012000000.0 0.40160677878487205 -0.932709247900251
5016000000.0 0.48724918950154095 -0.9531065834920993
5019000000.0 0.45008374905400794 -0.9269150911621328
5022000000.0 0.42569246597628296 -0.9395810717054032
5025000000.0 0.4765590272331386 -0.9960533302859615
5028000000.0 0.41902938698331327 -0.9310566150626559
5031000000.0 0.4384768947050249 -0.9378406395194039
5034000000.0 0.44728842824949394 -0.9633280118769789
5038000000.0 0.40293364549802213 -0.9339311177745023
5041000000.0 0.492280362703292 -0.9171078997579929
5044000000.0 0.45014662696022056 -0.9064124382190446
5047000000.0 0.4586733449326297 -0.9333718737656402
5050000000.0 0.5204713642973141 -0.8922245798769135
5053000000.0 0.4764101144985708 -0.990632973374061
5056000000.0 0.5072911014890129 -0.8899683160505774
5059000000.0 0.48987246132388884 -0.8777528775143573
5062000000.0 0.417783408147869 -0.9597337402974446
5066000000.0 0.45825923903372306 -0.9008143154637809
5069000000.0 0.42254882957617196 -0.9313520047774242
5072000000.0 0.43799073439215286 -0.9280116363484345
5075000000.0 0.4700570839707887 -0.9211418373348859
5078000000.0 0.4190907767543472 -0.9405785267934725
5081000000.0 0.4285742695692625 -0.9171776120665593
5084000000.0 0.47119366043125643 -0.9665516576847095
5088000000.0 0.475479155657442 -0.8912411269145452
5091000000.0 0.4346871451748816 -0.9655561294966464
5094000000.0 0.4647036644206165 -0.9026739694992132
5097000000.0 0.5012643696445336 -0.9270038460879688
5100000000.0 0.4665253867616471 -0.9498621649264439
5103000000.0 0.41750094249809483 -0.954732632566757
5106000000.0 0.5185959214818527 -0.9315346229421138
5109000000.0 0.5241084378934103 -0.8794341660799168
5112000000.0 0.45234922579708825 -0.9259630365975772
5116000000.0 0.406511352068631 -0.8868459162963747
5119000000.0 0.4306918599842005 -0.9653747579596677
5122000000.0 0.4877480303627416 -0.9340585877508771
5125000000.0 0.46251049748026296 -0.8910394516086098
5128000000.0 0.469671566038295 -0.9020534002355381
5131000000.0 0.4766992648440656 -0.9174842826062379
5134000000.0 0.4692015460212743 -0.9271533989281799
5138000000.0 0.4617624022885435 -0.9174717566158276
5141000000.0 0.4848632333407972 -0.8987219311039261
5144000000.0 0.44497242156147726 -0.8755573734627842
5147000000.0 0.48843964819547026 -0.9104508782679694
5150000000.0 0.45403244734044157 -0.9088603694173841
5153000000.0 0.46221802197822637 -0.9338813508007094
5156000000.0 0.46318785560866904 -0.9357469005272556
5159000000.0 0.4731521684410756 -0.9277382307149245
5162000000.0 0.437005062332426 -0.9233436634211605
5166000000.0 0.4798214229349392 -0.9528745233827915
5169000000.0 0.46711153816662604 -0.9432223312207562
5172000000.0 0.4946751558501129 -0.9024903315844077
