! Created with skrf 1.8.0 (http://scikit-rf.org).
# Hz S RI R 50.0 
!freq ReS11 ImS11
4000000000.0 0.49748289134108165 -0.8437220457662665
4003000000.0 0.5881882909010023 -0.9360661418097422
4006000000.0 0.480220712152168 -0.8637380964087443
4009000000.0000005 0.4845042826182668 -0.9009539608185098
4011999999.9999995 0.5246463490110843 -0.8702066734962102
4016000000.0 0.5115220079637028 -0.8952913922762481
4019000000.0 0.5493938704767435 -0.8875843033557174
4022000000.0000005 0.6007537607220278 -0.8506836880645041
4025000000.0000005 0.48320808620257005 -0.9210035675519894
4027999999.9999995 0.5073267790122238 -0.8910027486648189
4030999999.9999995 0.5169191254509248 -0.8664647821122806
4034000000.0 0.48433323541527085 -0.8332682039498814
4038000000.0000005 0.5199870395997199 -0.9051628060436807
4041000000.0000005 0.4821880108436136 -0.8700358923441762
4043999999.9999995 0.5385643862618977 -0.9370629406184147
4046999999.9999995 0.5780872942440084 -0.8881004967586087
4050000000.0 0.5201309650099151 -0.9351815617637352
4053000000.0 0.5039116509177937 -0.8855558044417061
4056000000.0 0.5307748307217073 -0.9284454911752816
4059000000.0 0.5172761251301039 -0.8366637357912663
4062000000.0000005 0.504190709620159 -0.8421629589121746
4066000000.0 0.5062567312754063 -0.8172346135388586
4069000000.0 0.5017106039251231 -0.9577166903777182
4072000000.0 0.5620902397065639 -0.8314714441098681
4075000000.0 0.5436025451798588 -0.8979262841372296
4078000000.0000005 0.5261237519663678 -0.9196619704317387
4081000000.0000005 0.5937014455035401 -0.8635530068824053
4083999999.9999995 0.5275958957929645 -0.9115057572414201
4088000000.0 0.5425986590866925 -0.8747419461072797
4091000000.0 0.5588976073658485 -0.9284811937092521
4094000000.0000005 0.5538551244020627 -0.8668611046893361
4097000000.0000005 0.5242393078648889 -0.9104550695432457
4099999999.9999995 0.5245751010435998 -0.8785856275325743
4102999999.9999995 0.5366375718794094 -0.896003191363473
4106000000.0 0.517967657973936 -0.9032003293364429
4109000000.0 0.5023788883896042 -0.9021397043408326
4112000000.0 0.5284541777645604 -0.8820191081794589
4115999999.9999995 0.5496507227010659 -0.9088505840627489
4119000000.0 0.5223448433311632 -0.8914798422592433
4122000000.0 0.4865126911226901 -0.8634790710750194
4125000000.0 0.508992968526865 -0.9132691792869231
4128000000.0 0.5419083159853563 -0.8681225087325914
4131000000.0 0.5020687518332607 -0.8514496506454865
4134000000.0000005 0.5386681767927634 -0.8566465856524849
4138000000.0 0.4700114250318467 -0.8653200346292313
4141000000.0 0.514344709116991 -0.851655787023809
4144000000.0 0.5030524484963281 -0.9004908574375933
4147000000.0000005 0.5237103252659288 -0.8666807351870154
4150000000.0000005 0.5534819778538155 -0.949605364894708
4152999999.9999995 0.5296616229857432 -0.9140864089444996
4155999999.9999995 0.5636744203234477 -0.9237077827730886
4159000000.0 0.5222312358115526 -0.8548888428622968
4162000000.0 0.5139893204662203 -0.8651251884620255
4166000000.0000005 0.5255585864170244 -0.8924679418173616
4168999999.9999995 0.5212388096075276 -0.8796614125452394
4171999999.9999995 0.5292988047855908 -0.8688111951150547
4175000000.0 0.5607968174077491 -0.881506673935597
4178000000.0 0.5115224022612112 -0.8801651317937006
4181000000.0 0.5176401805922651 -0.8779559925399687
4184000000.0 0.5186942585735306 -0.857123808659241
4187999999.9999995 0.47961173588171535 -0.9013747207530177
4191000000.0 0.5666975688241961 -0.8559488600991257
4194000000.0 0.5038867420239332 -0.857915287686592
4197000000.0 0.5272767108351055 -0.8699497521109395
4200000000.0 0.5267498828945072 -0.870521512554194
4203000000.0000005 0.5397101648217462 -0.8716927053564046
4206000000.0000005 0.5284434261065675 -0.8957224605242282
4208999999.9999995 0.5198311943721924 -0.8529046391520074
4211999999.9999995 0.49497870443534386 -0.9015732390209878
4216000000.0 0.5391544046857073 -0.8584680464181546
4219000000.0000005 0.5407260919178869 -0.8794020447697147
4222000000.0000005 0.51275755641567 -0.8778166853856134
4224999999.9999995 0.5162834249727463 -0.8664601486967953
4227999999.9999995 0.5386336041653801 -0.8871120787315603
4231000000.0 0.5062219116057886 -0.8834519168705715
4234000000.0 0.5275688147714984 -0.8934928126835976
4238000000.0000005 0.49942283569454987 -0.8806250114409905
4240999999.9999995 0.4991780134416592 -0.8725350536842499
4244000000.0 0.5256611547786589 -0.8636381575425282
4247000000.0 0.528056995293088 -0.8626288073723768
4250000000.0 0.49233840750711055 -0.8577837080861714
4253000000.0 0.5041094126566229 -0.8452818995615166
4256000000.0 0.5274349337097015 -0.8894381710104692
4259000000.0000005 0.4966533234882726 -0.8485465718648608
4261999999.9999995 0.5007909882640414 -0.8817176318306509
4266000000.0 0.49774376662848197 -0.89133852056472
4269000000.0 0.5386257564862169 -0.8699437636999141
4272000000.0000005 0.5142909345989378 -0.8592372054483128
4275000000.0000005 0.5242588871656111 -0.8787930918295881
4277999999.9999995 0.5393876849190444 -0.9082425949657599
4280999999.9999995 0.5127453494947835 -0.8653695434623737
4284000000.0 0.49307392971577574 -0.8836022589185005
4288000000.0000005 0.5590165646458176 -0.851995666419155
4291000000.0000005 0.49626054983735807 -0.8576114139868312
4293999999.9999995 0.5127534580937648 -0.8495031826399067
4297000000.0 0.5239604404749109 -0.8506875500007063
4300000000.0 0.5133827123631032 -0.8461411519591445
4303000000.0 0.491815846506235 -0.862664849606545
4306000000.0 0.538849662951608 -0.87958006479473
4309000000.0 0.5278688613309288 -0.8622421212593107
4312000000.0 0.5746865141886064 -0.8435611910736788
4316000000.0 0.5044190323650759 -0.8847415974277975
4319000000.0 0.4911240770564816 -0.828076953570353
4322000000.0 0.5011731339427802 -0.8751363100130826
4325000000.0 0.5146692224966221 -0.8726944390726872
4328000000.0 0.5045398157452238 -0.8607075342174626
4331000000.0 0.4984484394346526 -0.884307928317046
4334000000.0 0.5065975578199677 -0.8606464753727617
4338000000.0 0.5383822085302249 -0.882384484323174
4341000000.0 0.5627754972088128 -0.867558851644279
4344000000.0 0.5322905130485558 -0.8803940135199133
4347000000.0 0.4891113634532836 -0.9013691980216131
4350000000.0 0.5009271691708205 -0.8325511893962622
4353000000.0 0.5099020020980234 -0.8326404072746056
4356000000.0 0.47434192211536685 -0.8599935274707082
4359000000.0 0.48454793292543863 -0.8433320481903401
4362000000.0 0.46535231980119357 -0.9136913374434975
4366000000.0 0.5007296642381878 -0.8872453342236927
4369000000.0 0.47679765789602113 -0.8608446650431522
4372000000.0 0.4656900695787408 -0.8604280952051442
4375000000.0 0.5198815149369295 -0.8524261275198701
4378000000.0 0.48915492904533253 -0.8497554969806955
4381000000.0 0.5070427312342075 -0.8601193086937197
4384000000.0 0.5273762841006882 -0.9399239777328703
4388000000.0 0.5020939063688774 -0.8416702787868791
4391000000.0 0.5146113014830858 -0.8656713945713863
4394000000.0 0.4783985358028999 -0.8592702784304243
4397000000.0 0.49550061687724967 -0.8814075020996832
4400000000.0 0.4987299146410167 -0.8994323001921888
4403000000.0 0.5038228745222318 -0.8828594155008043
4406000000.0 0.48458961905050135 -0.8867625963945871
4409000000.0 0.5094479183840324 -0.9024762510801237
4412000000.0 0.4445648269021072 -0.8985439001607998
4416000000.0 0.4830559629612531 -0.8820203657496153
4419000000.0 0.481587717345516 -0.8856598362738544
4422000000.0 0.5104399167316765 -0.8704573920926513
4425000000.0 0.5340886817168577 -0.8811176405520327
4428000000.0 0.48714972782780597 -0.8720608665466427
4431000000.0 0.5054600548217607 -0.8996800795019855
4434000000.0 0.4953288746018705 -0.87691333396989
4438000000.0 0.5040599282315071 -0.9015229643815394
4441000000.0 0.516902250560271 -0.8770491985333448
4444000000.0 0.4701347282438126 -0.8427733765592362
4447000000.0 0.47419876586281934 -0.8784321905851316
4450000000.0 0.4938367586081354 -0.8472199301127856
4453000000.0 0.5120602204910023 -0.8947183498424406
4456000000.0 0.4752717603888851 -0.8597841685197851
4459000000.0 0.45390185969265784 -0.8449275217782345
4462000000.0 0.5045580551464554 -0.9381842269090241
4466000000.0 0.5013021237157076 -0.9154331756791327
4469000000.0 0.5169115781830738 -0.8714256623635123
4472000000.0 0.4689102138733867 -0.9121650791783127
4475000000.0 0.4778944832900458 -0.8389695186982493
4478000000.0 0.5014672393824445 -0.9225119479492165
4481000000.0 0.4635310219143531 -0.867403876580609
4484000000.0 0.4615668484042534 -0.8973472233805317
4488000000.0 0.47983839466576 -0.8895358719537059
4491000000.0 0.48848432028363203 -0.8864799499375442
4494000000.0 0.4932218475467717 -0.8640073165613675
4497000000.0 0.5012768893303794 -0.8638299308193371
4500000000.0 0.5001879619251486 -0.9034931889511897
4503000000.0 0.5116078779395496 -0.9055922588099237
4506000000.0 0.47703363751984607 -0.8800355402807928
4509000000.0 0.4842924719100127 -0.8678409292062224
4512000000.0 0.4726412935354017 -0.8682008680976547
4516000000.0 0.4994959313942401 -0.8891883200397162
4519000000.0 0.46538841481016663 -0.8528314388030497
4522000000.0 0.4691716099463411 -0.8923185913483398
4525000000.0 0.5025989145862044 -0.8775386099956319
4528000000.0 0.4925168368187834 -0.9109666979311557
4531000000.0 0.4686188211721853 -0.8647153529865612
4534000000.0 0.46193317579760695 -0.8703634657245248
4538000000.0 0.46802719357614225 -0.8772144587476625
4541000000.0 0.4464001299088342 -0.9039425751858902
4544000000.0 0.48131614109037946 -0.882129946301847
4547000000.0 0.503087946834083 -0.8733987629204654
4550000000.0 0.4820230000204971 -0.9111480951431385
4553000000.0 0.46658050439300225 -0.9001324551144814
4556000000.0 0.44415046977047346 -0.878993335087776
4559000000.0 0.46574310348558334 -0.885260019189249
4562000000.0 0.4852578638788916 -0.878329570057446
4566000000.0 0.47360602144462244 -0.8982161360955015
4569000000.0 0.46194308285763863 -0.8694895240328995
4572000000.0 0.4762157900667906 -0.8861735786889757
4575000000.0 0.4585733707102936 -0.9094364692428696
4578000000.0 0.48953273964667177 -0.8970651265550003
4581000000.0 0.4762908002275242 -0.9233238493982836
4584000000.0 0.4597943404331372 -0.8998608924592428
4588000000.0 0.4891657753885092 -0.8936282464372471
4591000000.0 0.476853504609034 -0.8863024189120355
4594000000.0 0.4500505773157555 -0.8862975669333851
4597000000.0 0.4866652568341487 -0.9098851015590754
4600000000.0 0.4393747728544658 -0.882618018684824
4603000000.0 0.47445327385369473 -0.9201905098142873
4606000000.0 0.47534927307876595 -0.8891852575666911
4609000000.0 0.464947808096753 -0.8969689918104434
4612000000.0 0.4864843556885269 -0.9052990994146757
4616000000.0 0.4601372081652352 -0.8936982402808479
4619000000.0 0.47437513008484866 -0.8926663916942217
4622000000.0 0.4627972138451404 -0.9013376807563258
4625000000.0 0.43125153642454767 -0.8708871928017053
4628000000.0 0.47157470576815413 -0.8851419276364924
4631000000.0 0.43644080065770696 -0.9073913902992359
4634000000.0 0.45918801241357127 -0.8928113830415193
4638000000.0 0.46994867157072506 -0.8924867718811466
4641000000.0 0.47071755802977283 -0.8945266878600053
4644000000.0 0.4561321416384861 -0.892370762692297
4647000000.0 0.45354064473073463 -0.9072433776494522
4650000000.0 0.4377121554368131 -0.887195854926036
4653000000.0 0.4909145798298981 -0.9001727874257637
4656000000.0 0.4588777868657563 -0.916528787638837
4659000000.0 0.4479554569299852 -0.909290552040437
4662000000.0 0.4561565942115199 -0.9122943932675825
4666000000.0 0.42411538721384023 -0.9162259124176392
4669000000.0 0.4844636705977199 -0.9092028126766931
4672000000.0 0.4643598299608749 -0.9188224221521253
4675000000.0 0.4465809008929844 -0.908238558553254
4678000000.0 0.4635970105211786 -0.8862683105014415
4681000000.0 0.43766586069637864 -0.9358087952657219
4684000000.0 0.4212233209961219 -0.9203521082681377
4688000000.0 0.409679723130873 -0.882899216770927
4691000000.0 0.4513349767565413 -0.8971656272841765
4694000000.0 0.4658803350552234 -0.8879217508707977
4697000000.0 0.4161529404053526 -0.8941111397914178
4700000000.0 0.4375494322628633 -0.8972025123487525
4703000000.0 0.45152915532020227 -0.8623902863880883
4706000000.0 0.4383887444875954 -0.9284057212446363
4709000000.0 0.41182668299281855 -0.8940768281698472
4712000000.0 0.43599401075867855 -0.8999189728232673
4716000000.0 0.45879644361338695 -0.9415834209501572
4719000000.0 0.495809718403144 -0.9062372192310326
4722000000.0 0.4564121831521689 -0.9302140250568511
4725000000.0 0.48796113181329726 -0.8909523300072285
4728000000.0 0.4556495369240305 -0.9000021103712519
4731000000.0 0.49813276421248237 -0.9268439720091518
4734000000.0 0.4627911136458949 -0.8964004434005529
4738000000.0 0.4740297336071159 -0.9230696077692093
4741000000.0 0.44257858497505914 -0.9473245942433761
4744000000.0 0.4420719040708928 -0.9075585628947377
4747000000.0 0.4353535786345372 -0.8728478775840945
4750000000.0 0.4645462209515381 -0.9305369693079271
4753000000.0 0.457293472425613 -0.9253759921580843
4756000000.0 0.4213087479055945 -0.9398510973698541
4759000000.0 0.4674892180401268 -0.952167250393419
4762000000.0 0.4443253898614551 -0.9490013739182227
4766000000.0 0.4418630640381986 -0.9129374173289481
4769000000.0 0.45521507010905804 -0.9102233101581081
4772000000.0 0.45862760786309914 -0.8884947877542579
4775000000.0 0.42756380017081824 -0.9385378883049551
4778000000.0 0.4368649601361852 -0.9462963003138779
4781000000.0 0.4687416468895823 -0.8990639686963141
4784000000.0 0.4870183913368357 -0.8877460967593257
4788000000.0 0.41250150963673904 -0.9293037285508542
4791000000.0 0.4673078111935628 -0.9091613695986606
4794000000.0 0.4888786948167385 -0.9585170044220962
4797000000.0 0.42409419088651534 -0.8930640335989082
4800000000.0 0.4027041543646981 -0.8792564698764711
4803000000.0 0.38199041455681665 -0.920144858606396
4806000000.0 0.4319462843285863 -0.9171223485433444
4809000000.0 0.40620871027246036 -0.9179836134004317
4812000000.0 0.4033775892477003 -0.9294521758543675
4816000000.0 0.47252671859765355 -0.8909566255355401
4819000000.0 0.4743986562012235 -0.912470013060616
4822000000.0 0.4747192372209992 -0.9291012520226908
4825000000.0 0.4737721907815426 -0.9301360015090618
4828000000.0 0.44256614666705096 -0.9133875325254553
4831000000.0 0.41211699335463114 -0.9523058623149927
4834000000.0 0.4737437479984666 -0.9177688733355481
4838000000.0 0.4321819501487429 -0.9469882374089174
4841000000.0 0.42651099838099477 -0.9070054122839615
4844000000.0 0.4852208611756357 -0.9151516045481339
4847000000.0 0.4644748098961954 -0.8703347316286493
4850000000.0 0.4463751707600925 -0.9478320152903226
4853000000.0 0.4191001183296494 -0.9015492803036511
4856000000.0 0.4425034464480557 -0.9149490817939168
4859000000.0 0.46900091569434654 -0.9355875332735788
4862000000.0 0.444391653389871 -0.8963258591556605
4866000000.0 0.41595876788625946 -0.9373135439440574
4869000000.0 0.43811902088193444 -0.9031847529900975
4872000000.0 0.4155156114736486 -0.9515375200983422
4875000000.0 0.5119468643048705 -0.9495495222227246
4878000000.0 0.44477113054605316 -0.9180312582524562
4881000000.0 0.4451767123622221 -0.9842093790203517
4884000000.0 0.45870307636115126 -0.9060973086744997
4888000000.0 0.48129418527211587 -0.9052672433594194
4891000000.0 0.49061124589436717 -0.9435450736466761
4894000000.0 0.4241144426216176 -0.9191905695271204
4897000000.0 0.47575279705704154 -0.9171481932714272
4900000000.0 0.4762417012629609 -0.9360135823611291
4903000000.0 0.4806404543012192 -0.9444153337407732
4906000000.0 0.46628342698231307 -0.9506144844562714
4909000000.0 0.446920263699822 -0.9156741196956255
4912000000.0 0.4557386686005661 -0.9581929520858969
4916000000.0 0.46581885824208014 -0.9467098374630871
4919000000.0 0.4984460316923197 -0.9406288446143046
4922000000.0 0.4649078381941709 -0.905363387592329
4925000000.0 0.42745681439711253 -0.9150702802928155
4928000000.0 0.50959139983002 -0.9061586304718534
4931000000.0 0.4982641612359685 -0.9252784696939501
4934000000.0 0.4317248065161471 -0.9118099463970036
4938000000.0 0.37554091575309806 -0.9206593723784188
4941000000.0 0.4254698475417919 -0.917670069019616
4944000000.0 0.434838182983266 -0.8944029033119439
4947000000.0 0.4208339062052804 -0.8903399594058977
4950000000.0 0.4026207533175354 -0.893876096224244
4953000000.0 0.4150063872533819 -0.9910322589467497
4956000000.0 0.41800247281822894 -0.9290405073878105
4959000000.0 0.4128978353600702 -0.9317023486133278
4962000000.0 0.4493669730032548 -0.9326999868225666
4966000000.0 0.46862108805952407 -0.9447430490079218
4969000000.0 0.4696857834738495 -0.9533809126410441
4972000000.0 0.4554223895863101 -0.9330077879563126
4975000000.0 0.5071489562744895 -0.914155328897452
4978000000.0 0.4221383045136782 -0.8956513436165361
4981000000.0 0.46712260532150063 -0.9199591937154014
4984000000.0 0.44764744696198366 -0.8978581488675356
4988000000.0 0.4620468929110847 -0.8904201480212242
4991000000.0 0.5096269019392327 -0.9291540392134616
4994000000.0 0.4543881968694214 -0.9059802766653923
4997000000.0 0.4179652697308394 -0.943499777127749
5000000000.0 0.47970455335632856 -0.9398284033940421
5003000000.0 0.48305349550037857 -0.961767701475862
5006000000.0 0.4496349932659772 -0.9629980249793743
5009000000.0 0.47525898408724365 -0.9021964522289014
5012000000.0 0.4223376757556251 -0.948527657560114
5016000000.0 0.5274952051842282 -0.9464167747387423
5019000000.0 0.4426955150886621 -0.942056768933573
5022000000.0 0.464135736683386 -0.9350940427668815
5025000000.0 0.48792097510374893 -0.9974784113388193
5028000000.0 0.4467535017066035 -0.9316509459204647
5031000000.0 0.4740902113353634 -0.936367854859839
5034000000.0 0.44440724550298727 -0.9710767976241612
5038000000.0 0.4364001672779801 -0.8934618965259402
5041000000.0 0.5147495175924107 -0.8962146254173817
5044000000.0 0.4514535942148938 -0.8820310275064465
5047000000.0 0.5158057626644561 -0.9309134064456341
5050000000.0 0.5137893041712738 -0.8567286797628997
5053000000.0 0.45696580187168023 -0.93508424714114
5056000000.0 0.4915501617500873 -0.8934086407770044
5059000000.0 0.5116249534634887 -0.8844901273554487
5062000000.0 0.4871660124279053 -0.964023244794535
5066000000.0 0.527158181011482 -0.8882825246832246
5069000000.0 0.5012902239062729 -0.9324812676453438
5072000000.0 0.4435371276393638 -0.8981505865625152
5075000000.0 0.47700858050228284 -0.9101087336347806
5078000000.0 0.43840330697643937 -0.9720321781897281
5081000000.0 0.4532751651731088 -0.897463878098701
5084000000.0 0.480746987700522 -0.9239283566261414
5088000000.0 0.4892658646629703 -0.9026601043880138
5091000000.0 0.4717416450877079 -0.9503434318169479
5094000000.0 0.4594139217627538 -0.8982016850457446
5097000000.0 0.5497257847969558 -0.8899651720472215
5100000000.0 0.45797877610888194 -0.9302363759107022
5103000000.0 0.4230748181696553 -0.9511767612284883
5106000000.0 0.5279715655146486 -0.9603078571987957
5109000000.0 0.5386169921074778 -0.9191935438902239
5112000000.0 0.42327340001618485 -0.8902236190274171
5116000000.0 0.4117905455562027 -0.9227829779349773
5119000000.0 0.4936556028907001 -0.9538786410195148
5122000000.0 0.4856464658081428 -0.901968053415038
5125000000.0 0.49217691299347066 -0.8932091572955012
5128000000.0 0.45959219854749717 -0.911803457192349
5131000000.0 0.47437231689363146 -0.8794514105212783
5134000000.0 0.45834667650180605 -0.9402257497320563
5138000000.0 0.5135486167276193 -0.9129640200763104
5141000000.0 0.5501058026883552 -0.9089244289463765
5144000000.0 0.4842041879615051 -0.9296892332901658
5147000000.0 0.4967691257631742 -0.941842703848703
5150000000.0 0.5204047802511986 -0.9418441050297821
5153000000.0 0.48408195249658187 -0.9247738136631514
5156000000.0 0.52172405667402 -0.9146094185259942
5159000000.0 0.511697457666968 -0.9254402977942304
5162000000.0 0.43687530872488645 -0.9500835714836713
5166000000.0 0.47474716493835556 -0.9276778083264469
5169000000.0 0.4823485477730954 -0.939722272709542
5172000000.0 0.5022278123126426 -0.9289275276183795
5175000000.0 0.5000576833562981 -0.9205975645173221
