! Created with skrf 1.8.0 (http://scikit-rf.org).
# Hz S RI R 50.0 
!freq ReS11 ImS11
4000000000.0 0.34815192557386504 -0.9346316804615028
4003000000.0 0.3683608157040902 -1.0082081703925998
4006000000.0 0.3220798532738499 -0.9825426077456509
4009000000.0000005 0.3790077051941788 -0.9589390273217906
4011999999.9999995 0.3856582772836866 -1.000229054340449
4016000000.0 0.2945687667447577 -1.003807833160134
4019000000.0 0.3541571526375862 -0.9420252272911884
4022000000.0000005 0.3823758403341333 -0.9627446616494337
4025000000.0000005 0.28434848901529175 -0.9918563842344058
4027999999.9999995 0.2972172314360834 -0.9896500833718617
4030999999.9999995 0.3423046139766269 -0.9403362884241342
4034000000.0 0.34273080228584285 -0.9519334865828937
4038000000.0000005 0.34103405913296525 -0.9625421776178186
4041000000.0000005 0.3334303105991563 -0.9826357601454072
4043999999.9999995 0.3662838584618632 -1.0192573208644973
4046999999.9999995 0.3697286740537117 -1.0354773932167838
4050000000.0 0.34784162477314956 -0.9972357238033435
4053000000.0 0.3330788951228666 -0.9548081389836168
4056000000.0 0.3589772455264533 -0.9779737557221239
4059000000.0 0.29492438550690514 -0.9631227699949962
4062000000.0000005 0.2915751155519466 -0.9943333340170449
4066000000.0 0.3040510792647334 -0.9406484669937274
4069000000.0 0.32377749474676 -1.052880840147033
4072000000.0 0.35009216644215624 -0.9422161405315179
4075000000.0 0.3353851261391827 -1.0320759167788924
4078000000.0000005 0.3363963948996618 -0.9799773532643746
4081000000.0000005 0.40409543765836986 -0.9633499655074561
4083999999.9999995 0.3229807489757641 -0.9993065705100191
4088000000.0 0.33438808295185274 -0.9692959075243132
4091000000.0 0.3516001628941639 -0.9945907098352191
4094000000.0000005 0.36003324738649334 -0.9763148784716782
4097000000.0000005 0.31336210513148854 -0.9507758191780434
4099999999.9999995 0.312087764946146 -0.9882143658714816
4102999999.9999995 0.33425651668356665 -1.0039538951067177
4106000000.0 0.2844821127806295 -0.9657604691220029
4109000000.0 0.2847132662719515 -0.9641713786320845
4112000000.0 0.3001350700751249 -1.001755112776687
4115999999.9999995 0.3183043595383847 -0.9838973936372523
4119000000.0 0.30325162002038963 -0.9594283602866257
4122000000.0 0.27924224790191127 -0.9832817869159667
4125000000.0 0.3164968980055235 -0.9854928907456867
4128000000.0 0.3029870897077571 -0.9612870302355835
4131000000.0 0.27935567040294856 -0.9649605508336754
4134000000.0000005 0.3085551307760285 -0.9588044724467286
4138000000.0 0.2701589418440323 -0.9438120511481121
4141000000.0 0.300266172781696 -0.9161764337000737
4144000000.0 0.30993531098253657 -0.9571407261231973
4147000000.0000005 0.29062295827068724 -0.9850909456386089
4150000000.0000005 0.3128565005675053 -1.0054108428295974
4152999999.9999995 0.29323395054622325 -0.9869191594152162
4155999999.9999995 0.3240764233476935 -0.9937558181986381
4159000000.0 0.2947583980666268 -0.9658065761448895
4162000000.0 0.30237335049811853 -0.9566580430707669
4166000000.0000005 0.2803385975377014 -0.9815815407012436
4168999999.9999995 0.26924386747774376 -0.9716158200317079
4171999999.9999995 0.28509462212869 -0.9797652166825819
4175000000.0 0.2918266145358298 -0.9917152396062816
4178000000.0 0.27990878802012426 -0.9980329798165064
4181000000.0 0.26320624627773764 -0.9674945264048397
4184000000.0 0.2918702971948085 -0.9757310475723837
4187999999.9999995 0.28433982614615877 -0.9733828475771436
4191000000.0 0.32461362386061643 -0.955015245132269
4194000000.0 0.28681714393470253 -0.9719362613105417
4197000000.0 0.30594883247772997 -0.9795219900232737
4200000000.0 0.30476177851983416 -0.9737514703049833
4203000000.0000005 0.30621436179618255 -0.9906332927398802
4206000000.0000005 0.29661232705537693 -0.990459695352496
4208999999.9999995 0.28975938687132763 -0.969614067178003
4211999999.9999995 0.2561183031487444 -0.983331955835028
4216000000.0 0.3069918021007953 -0.978251043290546
4219000000.0000005 0.2998681102339973 -0.9975201990898497
4222000000.0000005 0.2724520708379496 -0.9736294929025734
4224999999.9999995 0.2600479975565298 -0.9887161097499023
4227999999.9999995 0.27816812396633667 -0.9999916384594952
4231000000.0 0.27795088536773754 -0.9866727615859482
4234000000.0 0.26279729029617455 -0.9934530327730582
4238000000.0000005 0.2610859122950494 -0.9832037318044528
4240999999.9999995 0.23419815648191483 -0.9558435446876706
4244000000.0 0.2701649488655679 -0.9475481126300209
4247000000.0 0.2586459389188313 -0.9503502512155829
4250000000.0 0.2636134096746081 -0.9604193583662353
4253000000.0 0.23569081485431678 -0.9737341917520821
4256000000.0 0.26798292961912906 -1.0233319492848858
4259000000.0000005 0.23166947600677215 -0.9504808046959485
4261999999.9999995 0.227390596614822 -0.9865935644517696
4266000000.0 0.2248016533678494 -0.994649052182389
4269000000.0 0.25282014526243324 -0.9699976578978418
4272000000.0000005 0.2664268377265729 -0.9498740672866592
4275000000.0000005 0.257861410697798 -0.9694451667903025
4277999999.9999995 0.25959039997361255 -1.0132324958741508
4280999999.9999995 0.24673721500456375 -0.9905946737668445
4284000000.0 0.21506310890666464 -1.0090894712183758
4288000000.0000005 0.28687323779369395 -0.9759595522647128
4291000000.0000005 0.22965772814602178 -0.9617298540255373
4293999999.9999995 0.23434965829245274 -0.9618405099690575
4297000000.0 0.2570208054621695 -0.9756941558039085
4300000000.0 0.2368122428518956 -0.9724163901446463
4303000000.0 0.21492477704290838 -0.9795428166572181
4306000000.0 0.26118085775946565 -0.9594584461834034
4309000000.0 0.23982565901860733 -0.977039743977528
4312000000.0 0.2785125485683696 -0.993384568635302
4316000000.0 0.21999733923187975 -1.0039854309438516
4319000000.0 0.2338024382977993 -0.9560514408766507
4322000000.0 0.20126818435167326 -0.9878674199929824
4325000000.0 0.2114443964892121 -0.9833909950886245
4328000000.0 0.21437763641531588 -0.9680721432019803
4331000000.0 0.1985344917551165 -0.9957483231985199
4334000000.0 0.19183958933221945 -0.9970310085446947
4338000000.0 0.26031968940011885 -0.9898581221186027
4341000000.0 0.24423341740779048 -1.0152399989723606
4344000000.0 0.22900742227360865 -1.0054478394001143
4347000000.0 0.19262181880907403 -0.9922308294274244
4350000000.0 0.2039302817008044 -0.9665601841946487
4353000000.0 0.22088239008060778 -0.9694244769222964
4356000000.0 0.17628450251654215 -0.979771372377027
4359000000.0 0.18457159288762104 -0.940697932310363
4362000000.0 0.1568489718684663 -1.007425054734224
4366000000.0 0.20279979586235003 -1.011085351711546
4369000000.0 0.1886803310465744 -0.9524790928995482
4372000000.0 0.1579561743751507 -0.978280597691224
4375000000.0 0.20208346242135194 -0.9776843450405307
4378000000.0 0.17716790872291482 -0.9565790396224331
4381000000.0 0.18294820814081442 -0.9710605691245231
4384000000.0 0.18351765903690553 -1.0588528017116623
4388000000.0 0.19250327378359505 -0.9840353511420508
4391000000.0 0.18818429748206272 -1.0039889692056896
4394000000.0 0.167719078574187 -0.9692182465374224
4397000000.0 0.16437119090949098 -0.9890631606078244
4400000000.0 0.17159416103748543 -1.0006300716671708
4403000000.0 0.16505021348614024 -0.9918451176201541
4406000000.0 0.15330587394303052 -0.9956727212308348
4409000000.0 0.17266437992006628 -1.021256699846163
4412000000.0 0.11229253494515706 -0.9991382245454736
4416000000.0 0.15723705518627035 -0.9828499322317432
4419000000.0 0.13542006016090358 -1.010532570992208
4422000000.0 0.1690342234441954 -0.9924187993369733
4425000000.0 0.16543569721685725 -1.0019982858364544
4428000000.0 0.142374618654719 -1.0033869956284036
4431000000.0 0.15330262213460638 -1.0251112534364295
4434000000.0 0.13085869541356565 -0.9977104965503463
4438000000.0 0.1443476488841957 -1.0129270740754857
4441000000.0 0.13747470374416815 -1.0086369015795227
4444000000.0 0.12697655457732387 -0.9755976399526466
4447000000.0 0.11415749256672436 -0.9947104661086961
4450000000.0 0.1326370412951875 -0.9904591051470326
4453000000.0 0.1459323678223886 -1.0111318470190263
4456000000.0 0.12089931829941819 -0.9669421372672322
4459000000.0 0.0924339324324075 -0.967654605398422
4462000000.0 0.1314244225968259 -1.0544249872553966
4466000000.0 0.13470928593453652 -1.0444251295210536
4469000000.0 0.1455857922919207 -1.0052335595336004
4472000000.0 0.08929007572001824 -1.007806511997876
4475000000.0 0.10948629185871678 -0.9930924237846435
4478000000.0 0.07152231407124499 -1.0375569321216305
4481000000.0 0.091200560318628 -0.9811812470662484
4484000000.0 0.05087667596208301 -0.9904555860693263
4488000000.0 0.07354880633925542 -1.0120177972035842
4491000000.0 0.08548202303649916 -1.015806488047828
4494000000.0 0.11182015293836095 -1.0017569101359673
4497000000.0 0.10004063297533766 -0.9874094385718588
4500000000.0 0.08595468400003864 -1.005836378963775
4503000000.0 0.0862226134238363 -1.0191285307846707
4506000000.0 0.05297120336690336 -1.0291755373689933
4509000000.0 0.07620434761087003 -0.9767025480597027
4512000000.0 0.08508966475333324 -0.9945269900444316
4516000000.0 0.08157746594673948 -1.0206160606432915
4519000000.0 0.06603462745212507 -0.9931253792270671
4522000000.0 0.06080997980371999 -1.0116844994500434
4525000000.0 0.0899045053123208 -1.0251745483637023
4528000000.0 0.07803678463926289 -1.0107729623265165
4531000000.0 0.04386119931170174 -1.0000630150677219
4534000000.0 0.04621047984004295 -1.0034323473654785
4538000000.0 0.06701572740800871 -1.0174139219830207
4541000000.0 0.03567398632628116 -1.0028519496367965
4544000000.0 0.04622853973283242 -1.0191039358725038
4547000000.0 0.047888107387686174 -1.0139816814028608
4550000000.0 0.03951447245335399 -1.0452943389943443
4553000000.0 0.02261821836532263 -1.0111875713490142
4556000000.0 0.01711128043584287 -1.0048974775199098
4559000000.0 0.0181449266375317 -1.0066922814233663
4562000000.0 0.03838172867364947 -1.0247905625145897
4566000000.0 0.03026032172829657 -1.013790108498958
4569000000.0 0.007476712463299617 -1.0162089903253995
4572000000.0 0.0004955459703718801 -1.0105102220507056
4575000000.0 -0.0006675962607778918 -1.0210782823394455
4578000000.0 0.0002547806199234004 -1.0158486719416566
4581000000.0 0.0021174916903638485 -0.9906220875540995
4584000000.0 -0.005139677060212955 -1.0174265913534541
4588000000.0 0.00887316386100584 -1.0174023232159615
4591000000.0 -0.005599687401549203 -1.0245045261120422
4594000000.0 -0.02949701649913894 -0.9998117270584574
4597000000.0 -0.022713531230242057 -1.0344300724794866
4600000000.0 -0.009759730049477222 -1.0283038415588062
4603000000.0 -0.03306394514336042 -1.0099250784312548
4606000000.0 -0.042202558268505774 -1.053609684823387
4609000000.0 -0.009517115019518185 -0.9979149073816704
4612000000.0 -0.03291284373345291 -1.0060745313559427
4616000000.0 -0.03155054308569005 -1.008719822740128
4619000000.0 -0.055956363834400086 -0.9872799566692204
4622000000.0 -0.0884581528102685 -1.029882423573618
4625000000.0 -0.06819635227299425 -1.0260155455874382
4628000000.0 -0.057157385809273265 -1.0675835669292824
4631000000.0 -0.04210616024104319 -1.0264835817134839
4634000000.0 -0.08294771309054785 -1.0159608031570235
4638000000.0 -0.06530649613824213 -1.0290093003504812
4641000000.0 -0.06190405035816074 -1.0254744916632026
4644000000.0 -0.06951846577837917 -0.9827687380636833
4647000000.0 -0.06679468719408979 -0.9998006520440342
4650000000.0 -0.07907281868827408 -1.0174048091668875
4653000000.0 -0.07842149383713978 -1.0139837128219988
4656000000.0 -0.06330733047941678 -1.0298967938133465
4659000000.0 -0.10647465482459148 -1.0399318997152018
4662000000.0 -0.10184947110946141 -1.0527316255047827
4666000000.0 -0.13221090543045555 -0.9922036213550718
4669000000.0 -0.11226455414695648 -1.029076042909224
4672000000.0 -0.11380133913617319 -1.0356075803049551
4675000000.0 -0.121774575314259 -1.0408069736364403
4678000000.0 -0.1260607738855129 -0.9838369453955882
4681000000.0 -0.13210427991976015 -1.02932119218665
4684000000.0 -0.15698417137225523 -1.0260459885579762
4688000000.0 -0.1553374526676048 -1.0158773481076908
4691000000.0 -0.09084212586770045 -1.0622891652849127
4694000000.0 -0.11232347440831236 -0.9963664009994226
4697000000.0 -0.15213829841108448 -0.9348868887276496
4700000000.0 -0.135243225420247 -1.0007359079756675
4703000000.0 -0.04815971487258729 -0.9336394731085678
4706000000.0 -0.18988241887221186 -0.9871490551285534
4709000000.0 -0.1676108694749519 -0.9744931224994506
4712000000.0 -0.15217036376282284 -0.990595291894815
4716000000.0 -0.1515502678282831 -1.0142915144873603
4719000000.0 -0.09337830201959381 -1.0015340158543748
4722000000.0 -0.13743950068013108 -1.0211376478883625
4725000000.0 -0.17840910075439692 -0.994802115044567
4728000000.0 -0.19711862292225862 -1.0086068658629723
4731000000.0 -0.15623833699935386 -1.0664480860631724
4734000000.0 -0.14612381023246834 -1.012561798300133
4738000000.0 -0.15695323118065757 -1.043336745939497
4741000000.0 -0.19296369720212342 -1.037512834356409
4744000000.0 -0.18706399872723245 -1.0136814781636467
4747000000.0 -0.13041466782827987 -0.9727983795431775
4750000000.0 -0.16785982880014733 -1.0278816332105427
4753000000.0 -0.18330605367145822 -0.981184842362904
4756000000.0 -0.20971954390733544 -1.0373857407788634
4759000000.0 -0.17607610911077093 -1.0305077255482487
4762000000.0 -0.27688001051615396 -1.0319639975317572
4766000000.0 -0.20934319672596755 -1.0219032524291272
4769000000.0 -0.2204581222723866 -1.0133258032957144
4772000000.0 -0.21506299156638817 -0.9986610405527445
4775000000.0 -0.2705637351927573 -1.0554044350714684
4778000000.0 -0.28009442237402504 -0.9867972550220164
4781000000.0 -0.20054994128951392 -1.0001299599513584
4784000000.0 -0.24084907155172186 -0.9986167104323096
4788000000.0 -0.29693485225462624 -1.0133962353120496
4791000000.0 -0.26388977054664164 -1.0099625717433711
4794000000.0 -0.24723870415521615 -1.0597840930809095
4797000000.0 -0.2548455694600581 -0.98153771104348
4800000000.0 -0.2630726936127208 -0.9567386013958149
4803000000.0 -0.32617528763476844 -0.9669609493144256
4806000000.0 -0.2923916313112985 -1.0178560277256794
4809000000.0 -0.3434692202142005 -0.996578786615506
4812000000.0 -0.3297248124440686 -0.9573995197614575
4816000000.0 -0.25221345487676944 -0.97670837995258
4819000000.0 -0.2915419800243464 -0.9846271932288233
4822000000.0 -0.28171378186785295 -1.0332204709468575
4825000000.0 -0.26979012522180174 -1.01417123330397
4828000000.0 -0.33925771768629565 -0.9737875135549869
4831000000.0 -0.36520080389749826 -1.0096021983532293
4834000000.0 -0.30370413557706005 -0.9913084610450322
4838000000.0 -0.34307664518783426 -0.9730155052132285
4841000000.0 -0.34091876809113786 -0.9620200683305448
4844000000.0 -0.325161066455817 -1.0036739695057146
4847000000.0 -0.32172666418863255 -0.9496588532469716
4850000000.0 -0.3939475986551887 -0.9968377300258724
4853000000.0 -0.34318499530038976 -0.9426587817157178
4856000000.0 -0.3555573669427511 -0.9462271206397767
4859000000.0 -0.4111468375728513 -0.9807034159833455
4862000000.0 -0.37579000486771563 -0.9750112559600631
4866000000.0 -0.38611829789143837 -0.9694305937227512
4869000000.0 -0.39575205863413176 -0.9678077678587272
4872000000.0 -0.42274069555593163 -0.9727366681622177
4875000000.0 -0.39041568705300195 -1.014042273347095
4878000000.0 -0.40034219560192746 -0.9915217490430259
4881000000.0 -0.42505633936026455 -0.9784830699046296
4884000000.0 -0.4387908977274482 -0.9366198262310745
4888000000.0 -0.42416714555705964 -0.978413171059372
4891000000.0 -0.4166640067396069 -0.9577121426378616
4894000000.0 -0.42084029604543616 -0.9348301632455829
4897000000.0 -0.46297332104787287 -0.9418226900845605
4900000000.0 -0.404705588315231 -0.9765119246951983
4903000000.0 -0.4720352240357157 -0.9473304855636961
4906000000.0 -0.4622761022636126 -0.9383451203451652
4909000000.0 -0.4747556342471325 -0.937197916162847
4912000000.0 -0.518721170008499 -0.9018417869155166
4916000000.0 -0.5181264464929167 -0.964904427055032
4919000000.0 -0.4658003574560776 -0.9039595624132575
4922000000.0 -0.4938000381595161 -0.9005097749756842
4925000000.0 -0.516025549690692 -0.8459021431862428
4928000000.0 -0.48681090603797145 -0.9324755442540711
4931000000.0 -0.5647044324621728 -0.9095571143491051
4934000000.0 -0.47084964774174864 -0.8915389796399571
4938000000.0 -0.5619204934408836 -0.8660847145019662
4941000000.0 -0.49518164373820434 -0.8945035803180927
4944000000.0 -0.5419643836038647 -0.869714221577184
4947000000.0 -0.5012767620946292 -0.8914226296726551
4950000000.0 -0.5433312254102989 -0.8920768239621478
4953000000.0 -0.5866925549501862 -0.8808586987319831
4956000000.0 -0.5688326366182808 -0.8522053546844087
4959000000.0 -0.5864173423886039 -0.8408954869247098
4962000000.0 -0.5944859011292074 -0.8518930849830207
4966000000.0 -0.6058767644199332 -0.8665832395301257
4969000000.0 -0.6098447002739571 -0.8504333151295582
4972000000.0 -0.5906266968737426 -0.8206629598928397
4975000000.0 -0.6121459485301901 -0.8028035803058884
4978000000.0 -0.6384108244403341 -0.8321361751901415
4981000000.0 -0.6351997496445093 -0.8043465321890071
4984000000.0 -0.6633595177368317 -0.8249807856508475
4988000000.0 -0.6312134060145806 -0.8544201042323758
4991000000.0 -0.6608761034909384 -0.7965055235966273
4994000000.0 -0.6686490517264305 -0.7569532547810218
4997000000.0 -0.6758329055096644 -0.7517759352822408
5000000000.0 -0.7128886293615367 -0.7548352377632284
5003000000.0 -0.6985270033500671 -0.7689037951190494
5006000000.0 -0.6948469789066443 -0.7617211252187374
5009000000.0 -0.7109748666321818 -0.7264607496088674
5012000000.0 -0.7669431929244344 -0.7898875386359302
5016000000.0 -0.7095368760569019 -0.7544128644538197
5019000000.0 -0.7390892761137319 -0.7198958508962161
5022000000.0 -0.7912994174997654 -0.7121926783267505
5025000000.0 -0.750991377892029 -0.6885021042099055
5028000000.0 -0.7360783470731836 -0.6996361645396413
5031000000.0 -0.7945798097690391 -0.6630814889607778
5034000000.0 -0.7682107955045846 -0.6965053296171904
5038000000.0 -0.7603436053498407 -0.6595701615335823
5041000000.0 -0.7903818253614077 -0.6819957363998822
5044000000.0 -0.770306114763623 -0.6588721291626752
5047000000.0 -0.8365769591840546 -0.6150278083245123
5050000000.0 -0.804383403829595 -0.6321712678422692
5053000000.0 -0.8299969528200546 -0.6243035632898478
5056000000.0 -0.8090515761941337 -0.6055042835450477
5059000000.0 -0.8615564800150539 -0.5664619362207962
5062000000.0 -0.8693797541916015 -0.5681465631023647
5066000000.0 -0.954324090027559 -0.5631726253565926
5069000000.0 -0.8483147430354607 -0.5697784716338643
5072000000.0 -0.9246627401970728 -0.6116790212129777
5075000000.0 -0.8056934504496871 -0.5202007472927692
5078000000.0 -0.8610316852764359 -0.5449297927492581
5081000000.0 -0.9889046597877543 -0.5197902405118755
5084000000.0 -0.877181533691416 -0.4603762026984143
5088000000.0 -0.9516009306968701 -0.4710984256069938
5091000000.0 -0.8513665994351565 -0.4291457519870904
5094000000.0 -0.8929085626317402 -0.3781747685233684
5097000000.0 -0.8584094664500249 -0.3671101694035375
5100000000.0 -0.9202322105970068 -0.39048462974462844
5103000000.0 -1.008202404151408 -0.32233032780012444
5106000000.0 -0.8954215888415058 -0.30592895307038187
5109000000.0 -0.9610051030294144 -0.3185664329118428
5112000000.0 -0.9777952229241648 -0.2743941132383304
5116000000.0 -1.0317108882485215 -0.289431936358102
5119000000.0 -1.007317805907694 -0.19895833768054705
5122000000.0 -0.9914068300910707 -0.2022706338142985
5125000000.0 -0.9323561181906617 -0.31769758235390094
5128000000.0 -0.9630762601962133 -0.21260501882123511
5131000000.0 -1.058629552036058 -0.21893991115460548
5134000000.0 -0.940581354473884 -0.12182670987779443
5138000000.0 -0.9528069915749094 -0.221455567502594
5141000000.0 -1.044245789714917 -0.12021547250139353
5144000000.0 -0.9651028901852592 -0.08580480182811523
5147000000.0 -0.9863863135093559 -0.06845919333645023
5150000000.0 -1.0654055171467702 -0.081764977355197
5153000000.0 -1.1461393125163641 -0.07495514504089512
5156000000.0 -0.9488174839690282 -0.03458526212519469
