! Created with skrf 1.8.0 (http://scikit-rf.org).
# Hz S RI R 50.0 
!freq ReS11 ImS11
4000000000.0 0.5134270911097547 -0.8937469023952118
4003000000.0 0.4981422120171919 -0.9519479709040514
4006000000.0 0.48882428077132034 -0.9350933193395192
4009000000.0000005 0.4812439384412428 -0.9169361842803447
4011999999.9999995 0.5302856309703936 -0.8904087328529433
4016000000.0 0.4963851714555422 -0.904996428496228
4019000000.0 0.4711615545408596 -0.8627771986758055
4022000000.0000005 0.5766587287866521 -0.8541625183092503
4025000000.0000005 0.4727523078114031 -0.9510633557472452
4027999999.9999995 0.4692858386912414 -0.9087359280384862
4030999999.9999995 0.5036223628707417 -0.8558015535802402
4034000000.0 0.48246923278268306 -0.8970625601311485
4038000000.0000005 0.48635412244337667 -0.9331603574319585
4041000000.0000005 0.5030132450104794 -0.8860236785062428
4043999999.9999995 0.5099696507682505 -0.9205244510894004
4046999999.9999995 0.537170556052359 -0.9027097512608182
4050000000.0 0.48508148012325314 -0.9331708091002933
4053000000.0 0.44722366159921334 -0.9169056790292817
4056000000.0 0.4878653606628102 -0.8574610197418021
4059000000.0 0.5021083942680168 -0.8645207455100755
4062000000.0000005 0.4584266702213591 -0.8944986902857662
4066000000.0 0.4384664220680203 -0.8340673065258573
4069000000.0 0.47725427501293516 -0.9253840896283043
4072000000.0 0.5295323627391069 -0.8806930912763431
4075000000.0 0.5472065440494789 -0.9280333575970342
4078000000.0000005 0.4679426101216721 -0.944997523099249
4081000000.0000005 0.576220254019448 -0.8626192371125352
4083999999.9999995 0.46867843355872985 -0.9003167199456287
4088000000.0 0.5066846781655815 -0.9209973053991976
4091000000.0 0.5478101624333122 -0.9678126188032289
4094000000.0000005 0.4775274211584599 -0.899198243106413
4097000000.0000005 0.4968555508459796 -0.8839415550057159
4099999999.9999995 0.4805733417468429 -0.8566136075151143
4102999999.9999995 0.5258862155004229 -0.8914784848763428
4106000000.0 0.49308982250315664 -0.8825045337350471
4109000000.0 0.48092438476357846 -0.8822864897522132
4112000000.0 0.49348547302146895 -0.9029182849893914
4115999999.9999995 0.5058023895629743 -0.9150912180273097
4119000000.0 0.47382592686684355 -0.8924632156277797
4122000000.0 0.49039427531226604 -0.8966589874322655
4125000000.0 0.511825702650146 -0.9406983885020924
4128000000.0 0.49141799286574606 -0.8753169968532902
4131000000.0 0.47298299514470965 -0.8828354073685625
4134000000.0000005 0.5300856959804249 -0.8867119426116234
4138000000.0 0.4857111448281671 -0.8820807838332928
4141000000.0 0.46420176669484997 -0.8731297168679975
4144000000.0 0.5057417806678626 -0.8782580332999546
4147000000.0000005 0.5178925778333211 -0.9114732427982992
4150000000.0000005 0.5329061306121792 -0.9154931906920931
4152999999.9999995 0.48904367359138085 -0.8922496997532533
4155999999.9999995 0.5240063787421512 -0.9201962953716357
4159000000.0 0.5020281647425707 -0.8752014337824605
4162000000.0 0.4966189332428075 -0.8792522849734544
4166000000.0000005 0.4925829789059058 -0.8971597626004708
4168999999.9999995 0.4578407572963708 -0.8945029886322456
4171999999.9999995 0.4879911141730154 -0.9181759077900356
4175000000.0 0.4990705756757854 -0.897923395740495
4178000000.0 0.49528038963458354 -0.9083151556089061
4181000000.0 0.4644848288013018 -0.8714603194355961
4184000000.0 0.4990775549518862 -0.9110611669814814
4187999999.9999995 0.48524741417812756 -0.8889230430145665
4191000000.0 0.512139499366453 -0.8587476492791297
4194000000.0 0.4901103406399139 -0.863967001700197
4197000000.0 0.5219639503000596 -0.893204971778514
4200000000.0 0.5194136434816918 -0.8695048867513799
4203000000.0000005 0.5077273975557175 -0.9001274547525079
4206000000.0000005 0.5094009356122189 -0.9125275863691507
4208999999.9999995 0.49915518263628006 -0.8817682217840163
4211999999.9999995 0.4659410140820424 -0.8868939711733578
4216000000.0 0.5185473749511839 -0.8923892039480883
4219000000.0000005 0.5106626474292392 -0.8978745638477611
4222000000.0000005 0.4883668490259211 -0.8908008069453848
4224999999.9999995 0.4845940947841383 -0.8643311245425948
4227999999.9999995 0.4903422256245937 -0.8951117243652382
4231000000.0 0.47509236896112184 -0.8796031604997112
4234000000.0 0.48875363173591524 -0.91523159241986
4238000000.0000005 0.4820600791010299 -0.9055624537597655
4240999999.9999995 0.4792548495653902 -0.8882026306258192
4244000000.0 0.4989231544189431 -0.8676081888471168
4247000000.0 0.4921804616902564 -0.8876369379231833
4250000000.0 0.4705972209761941 -0.8792464084729924
4253000000.0 0.47458949472606893 -0.8568411328064849
4256000000.0 0.48285474681264423 -0.9114122410177538
4259000000.0000005 0.4617717304607555 -0.8602310517389286
4261999999.9999995 0.464294227323759 -0.8915417538422338
4266000000.0 0.4829952167167032 -0.907941531968948
4269000000.0 0.4899981327747629 -0.8777986667101393
4272000000.0000005 0.5047764314459114 -0.8914165683521786
4275000000.0000005 0.5010309972893198 -0.8816485972108633
4277999999.9999995 0.5001976582284151 -0.9170550324230853
4280999999.9999995 0.49566800936573097 -0.8907257635656575
4284000000.0 0.4508395418195765 -0.9123361952460562
4288000000.0000005 0.5117953323973484 -0.8602741431077267
4291000000.0000005 0.47710757781604696 -0.8803253211720129
4293999999.9999995 0.48330686689201807 -0.9052165451428066
4297000000.0 0.48710473078611904 -0.8683054026961781
4300000000.0 0.4788121463603325 -0.8800110078404608
4303000000.0 0.457503085281084 -0.8803613911140157
4306000000.0 0.5078742947322267 -0.8877921779530529
4309000000.0 0.49958076280248576 -0.8730319246982238
4312000000.0 0.5103203750868811 -0.8777105903990179
4316000000.0 0.4882369803187173 -0.9018541889137518
4319000000.0 0.4791962357249937 -0.8725791100462228
4322000000.0 0.44814010396692 -0.8717943290525659
4325000000.0 0.4969881177713106 -0.899818405558756
4328000000.0 0.47699840918912784 -0.8681732443547947
4331000000.0 0.4588727923633889 -0.9023193402075389
4334000000.0 0.4560653662544946 -0.8828483815647239
4338000000.0 0.49697156026329964 -0.8653393140512851
4341000000.0 0.5290696933792584 -0.8867493309046631
4344000000.0 0.5098140950871687 -0.9039613893780176
4347000000.0 0.47089110975930804 -0.8989491329112439
4350000000.0 0.4511958860335299 -0.8641637393274635
4353000000.0 0.50400273538714 -0.8484010793057575
4356000000.0 0.4660809141815006 -0.8977192557440197
4359000000.0 0.46751219751076195 -0.8443965899950028
4362000000.0 0.4259086134038734 -0.9293565214122366
4366000000.0 0.48045066034834744 -0.9082046256596207
4369000000.0 0.45466442972609017 -0.8575281001603132
4372000000.0 0.43404984306120475 -0.8770553777202408
4375000000.0 0.4968752150323785 -0.8884123631161437
4378000000.0 0.45953631728757705 -0.861171021248925
4381000000.0 0.45586925409248735 -0.8807091813207667
4384000000.0 0.49458793925224764 -0.9542829999461213
4388000000.0 0.4524847089965225 -0.8671714325291644
4391000000.0 0.4833918476223959 -0.8877791893027407
4394000000.0 0.4473909893865705 -0.8728945761752087
4397000000.0 0.457184197550884 -0.8980795892791884
4400000000.0 0.4759835453126041 -0.9145299354848018
4403000000.0 0.470957905624049 -0.903538129049851
4406000000.0 0.46429307681102905 -0.909678540264798
4409000000.0 0.4820058710614226 -0.916324830106508
4412000000.0 0.4192003684088882 -0.9155568519028704
4416000000.0 0.44538652888671754 -0.8816850698415641
4419000000.0 0.44855695529197087 -0.9147618218232381
4422000000.0 0.4749872854823471 -0.8799592697333151
4425000000.0 0.48381262650943035 -0.8907856586973779
4428000000.0 0.4576632830819667 -0.902926246333064
4431000000.0 0.4794633144026332 -0.8999561607572385
4434000000.0 0.43902813805516966 -0.8771998111040276
4438000000.0 0.48393214364123316 -0.9159777976964982
4441000000.0 0.47194798741845423 -0.9209428610144927
4444000000.0 0.451817195065097 -0.8827719819603366
4447000000.0 0.4399619419590858 -0.888094125843442
4450000000.0 0.4604695328988658 -0.8820279772974093
4453000000.0 0.47859251360627386 -0.9080230768982411
4456000000.0 0.44090010888292486 -0.887035412744844
4459000000.0 0.4055623365670456 -0.8747503802097296
4462000000.0 0.4756783569585158 -0.9495312385691487
4466000000.0 0.4668472811767296 -0.9372793322546967
4469000000.0 0.48159273210934495 -0.908740146476882
4472000000.0 0.45411148562796494 -0.9361615783592405
4475000000.0 0.45086481429852715 -0.8740049563060952
4478000000.0 0.46381473591831324 -0.9459895105481333
4481000000.0 0.42552047840072266 -0.8840518337684651
4484000000.0 0.4136901951631545 -0.8952802501229666
4488000000.0 0.4312134310824489 -0.900277814914875
4491000000.0 0.45071067015693345 -0.9116613368458446
4494000000.0 0.4440207178673562 -0.8970067221478257
4497000000.0 0.46960080346364363 -0.891554976751409
4500000000.0 0.45133433226102865 -0.9010425520412115
4503000000.0 0.45685447042310984 -0.9196324546083305
4506000000.0 0.43900161108133645 -0.9011345008276657
4509000000.0 0.42626385929007765 -0.885409848128557
4512000000.0 0.42490772670260246 -0.8972691867640084
4516000000.0 0.46007920773313427 -0.9267024556390442
4519000000.0 0.4521427171715276 -0.88702261749662
4522000000.0 0.4271566665333365 -0.8902981758103893
4525000000.0 0.45296482734697746 -0.8730875422040612
4528000000.0 0.45958468927025675 -0.9278119568865107
4531000000.0 0.4494461396609365 -0.8880815495085584
4534000000.0 0.43215221530485487 -0.8747465616719287
4538000000.0 0.42982658426086906 -0.9102217091803156
4541000000.0 0.39070519452771507 -0.9064338262785258
4544000000.0 0.43888225911302825 -0.902625851093836
4547000000.0 0.42410926255874226 -0.8931833229606294
4550000000.0 0.409703731517918 -0.9186335839090968
4553000000.0 0.43347231290600324 -0.9253394623918456
4556000000.0 0.4011676969095664 -0.8811713267726453
4559000000.0 0.43030075277866325 -0.9029128213432422
4562000000.0 0.44800982952701973 -0.9002764391710136
4566000000.0 0.44024738109071504 -0.9297810811653431
4569000000.0 0.43786341914966714 -0.8887109030010527
4572000000.0 0.4264937913237184 -0.8946839570284423
4575000000.0 0.4104617484969918 -0.9166253449097442
4578000000.0 0.46494245059651984 -0.9209943830422054
4581000000.0 0.4203935924722201 -0.9169277924214744
4584000000.0 0.4293856258802304 -0.8993351039280971
4588000000.0 0.43597362550104735 -0.915431407271397
4591000000.0 0.440283347342434 -0.9071221217784612
4594000000.0 0.4008667513079802 -0.921702232075353
4597000000.0 0.4324802640877135 -0.9167250983163964
4600000000.0 0.4076854435009817 -0.9234085780118243
4603000000.0 0.4141169896153578 -0.9240977790326648
4606000000.0 0.4138206064818714 -0.9281657669352594
4609000000.0 0.4145393462536454 -0.925015846689941
4612000000.0 0.424141857494567 -0.9359339984147609
4616000000.0 0.4099466142782783 -0.9161883331158162
4619000000.0 0.4345256438986005 -0.9261787557732069
4622000000.0 0.4192889289962498 -0.9012451047379217
4625000000.0 0.3974090382803176 -0.9120813767020624
4628000000.0 0.4173463109422436 -0.9132280194372073
4631000000.0 0.3942496153717581 -0.9159534314764669
4634000000.0 0.4036559561228975 -0.9218798288534763
4638000000.0 0.4194495598099499 -0.9326905995299011
4641000000.0 0.4137688204148593 -0.918937622741479
4644000000.0 0.41579658505212114 -0.9166821987407072
4647000000.0 0.4096723220928856 -0.9253362084996337
4650000000.0 0.4041591782494961 -0.9280787940818582
4653000000.0 0.4298052994833266 -0.9271893583923332
4656000000.0 0.4164115685059141 -0.9210285875569416
4659000000.0 0.40152521993291146 -0.9258326010760791
4662000000.0 0.41396987702993004 -0.9342047320299939
4666000000.0 0.40797515035191023 -0.920325359536432
4669000000.0 0.4342108944439284 -0.9156022343014724
4672000000.0 0.4005502347790219 -0.9370300313929748
4675000000.0 0.4076968848054167 -0.9401782171298588
4678000000.0 0.37880208437093893 -0.9103039817844979
4681000000.0 0.38808025880213093 -0.941556764057631
4684000000.0 0.3815406676108966 -0.9132858333662346
4688000000.0 0.36153651439861034 -0.9218610047420991
4691000000.0 0.42113661214871695 -0.9448328137134138
4694000000.0 0.4187676760589371 -0.9178389578106818
4697000000.0 0.35168573635335393 -0.921446735835926
4700000000.0 0.3984783176961291 -0.9074053830960445
4703000000.0 0.42649202556587373 -0.8729074568142822
4706000000.0 0.3950190134123436 -0.931338138251209
4709000000.0 0.4098052382878646 -0.904721640053262
4712000000.0 0.42005165516560117 -0.9074547872278287
4716000000.0 0.3866056084592894 -0.9188132606584225
4719000000.0 0.4159477149571553 -0.9278460667057514
4722000000.0 0.4219787823393811 -0.9386051305908291
4725000000.0 0.43748447631047915 -0.8940756303856986
4728000000.0 0.3964029233855527 -0.9204674975050853
4731000000.0 0.40924165871852836 -0.9416433680349223
4734000000.0 0.4177323137378102 -0.9017160947890511
4738000000.0 0.44859021801717064 -0.9662823528474105
4741000000.0 0.37857045775835574 -0.9623943503566088
4744000000.0 0.3558019789151587 -0.9497543649050324
4747000000.0 0.4169797732052235 -0.9140708160724078
4750000000.0 0.3977827526750566 -0.9249102538873595
4753000000.0 0.42834284326748634 -0.915216875595134
4756000000.0 0.37549843028206686 -0.966030283896549
4759000000.0 0.3945391376807073 -0.9610683470465169
4762000000.0 0.3922377320518383 -0.9419202220091696
4766000000.0 0.38685520070120605 -0.9221147484253077
4769000000.0 0.39283521026122503 -0.9560026982237972
4772000000.0 0.38618873354001804 -0.9386968971381218
4775000000.0 0.40567525030775076 -1.00479397966572
4778000000.0 0.38656652083081056 -0.9618771214420975
4781000000.0 0.4329868952592081 -0.9274056403615434
4784000000.0 0.41557600035880937 -0.9154241869111589
4788000000.0 0.3779712953420171 -0.965221043551333
4791000000.0 0.3820535505301599 -0.9216595673532398
4794000000.0 0.4204647508038788 -0.9607684712908988
4797000000.0 0.3978062630476408 -0.91800303554292
4800000000.0 0.3738535334636639 -0.9218207241653888
4803000000.0 0.35732902708362513 -0.9443885708086527
4806000000.0 0.40094992071519275 -0.9499799896822312
4809000000.0 0.35810068389772376 -0.957853312397464
4812000000.0 0.3514154674924707 -0.9670876791271645
4816000000.0 0.4246455518387489 -0.9159816571725549
4819000000.0 0.4349068185467211 -0.9370945726471386
4822000000.0 0.41498335614176685 -0.9744969592181218
4825000000.0 0.4191345393694047 -0.9380244076709148
4828000000.0 0.37610973451509133 -0.9278866749410722
4831000000.0 0.3664434227516487 -0.9769929131593363
4834000000.0 0.4127749530744065 -0.9519602892341836
4838000000.0 0.3690929701364186 -0.9625640856612664
4841000000.0 0.359255266203481 -0.9266196554217186
4844000000.0 0.4113281614634654 -0.9458442482291305
4847000000.0 0.4038719626027473 -0.916274119565487
4850000000.0 0.4067318669991467 -0.9579682433982101
4853000000.0 0.3961412939870079 -0.9283276307335866
4856000000.0 0.37835680958329393 -0.9443612304903317
4859000000.0 0.39594386163956613 -0.9826751554010481
4862000000.0 0.4107033498048044 -0.8999072994188477
4866000000.0 0.35121101086926143 -0.9641257744174709
4869000000.0 0.37575392712257333 -0.9444085521523737
4872000000.0 0.37930331923224064 -0.995716279743069
4875000000.0 0.44671563002656434 -0.9687052356802724
4878000000.0 0.36501839473472497 -0.933800666205632
4881000000.0 0.3706725104032381 -1.0425594018137425
4884000000.0 0.4183180361663863 -0.9587062920670497
4888000000.0 0.42357157304384485 -0.9254605130564678
4891000000.0 0.3976486906220288 -0.9355089364984308
4894000000.0 0.36631827119958527 -0.9478795590734517
4897000000.0 0.3736079330143594 -0.9247094094193771
4900000000.0 0.3960120545570852 -0.9637588618169962
4903000000.0 0.39902960222803197 -0.9657430295218763
4906000000.0 0.37915175235538445 -0.9777270620952829
4909000000.0 0.37982235108805096 -0.9850512550347957
4912000000.0 0.3500225388495252 -0.971346041120084
4916000000.0 0.42566228926944427 -0.9873725405609595
4919000000.0 0.4384030818321168 -0.9634320433234579
4922000000.0 0.41042405370147494 -0.9329985846818577
4925000000.0 0.3309630089224923 -0.921630323832831
4928000000.0 0.44989947276761694 -0.9230955873642642
4931000000.0 0.40841316577190234 -0.961987243952258
4934000000.0 0.38582362551080834 -0.9228017192367287
4938000000.0 0.3444804164926345 -0.9701746952210208
4941000000.0 0.3398027577301779 -0.9316172195337598
4944000000.0 0.3996180905805488 -0.9335039322546436
4947000000.0 0.35875814543685414 -0.9688263163274096
4950000000.0 0.37772236396056497 -0.9502866848245713
4953000000.0 0.3887334487722634 -0.9959863816250294
4956000000.0 0.36422263259647186 -0.9521384543562165
4959000000.0 0.3518724036330937 -0.9423109647435695
4962000000.0 0.41229848352368326 -0.9682689476646269
4966000000.0 0.4187342495640272 -0.9524472342973347
4969000000.0 0.437416544873675 -0.9895241962851032
4972000000.0 0.398218590210926 -0.9510722620209806
4975000000.0 0.39287351541971594 -0.9312946830873114
4978000000.0 0.3719041142292393 -0.9593895210510928
4981000000.0 0.3889021542549358 -0.9544532674527167
4984000000.0 0.3816699847649212 -0.918273595060081
4988000000.0 0.4281416788061079 -0.9213613490943062
4991000000.0 0.43814953283105684 -0.9344415529842096
4994000000.0 0.39872347514773215 -0.9485796605143535
4997000000.0 0.3708534114474036 -0.9755842827574224
5000000000.0 0.39585460899533104 -0.96470051063438
5003000000.0 0.4271338545487274 -0.9707776211851933
5006000000.0 0.4382457569196201 -1.0054906392297682
5009000000.0 0.38611018487937654 -0.9762118355856892
5012000000.0 0.40759466147062945 -0.9237799816957629
5016000000.0 0.4381341443483689 -0.9643654192699133
5019000000.0 0.3932858968373242 -0.9245876462502444
5022000000.0 0.405791282170381 -0.9569691635998273
5025000000.0 0.42344422143971505 -1.0070536099846519
5028000000.0 0.35625147024219933 -0.9719028138690526
5031000000.0 0.3725535946256284 -0.9891125915611119
5034000000.0 0.3806559719350419 -0.990221877416444
5038000000.0 0.34184051901787166 -0.9577394703033015
5041000000.0 0.4327345417788493 -0.9441458783139918
5044000000.0 0.4432071705321926 -0.9347894705792631
5047000000.0 0.41705684101279394 -0.9364997830873526
5050000000.0 0.4628516276739504 -0.9312434250531882
5053000000.0 0.3818681504795126 -1.0045426419835937
5056000000.0 0.45314892589546535 -0.9247663540808301
5059000000.0 0.4597893747277726 -0.9256025314382201
5062000000.0 0.36110185637735165 -0.9934319403382816
5066000000.0 0.4249041970766626 -0.9364298901779676
5069000000.0 0.39390937915571417 -0.9384461008839704
5072000000.0 0.40712276809943565 -0.953619924621492
5075000000.0 0.4203103403145942 -0.9238576638352061
5078000000.0 0.33882420366463784 -0.9780102240731469
5081000000.0 0.38307171779915783 -0.9328104145458835
5084000000.0 0.39006376357481837 -0.9492190156816357
5088000000.0 0.4147123765024221 -0.9255368261804516
5091000000.0 0.3336948643017273 -0.9804592863309944
5094000000.0 0.37381414712224653 -0.969630933449212
5097000000.0 0.4067704485267364 -0.9610388547535751
5100000000.0 0.39389245506458054 -0.9203747334090138
5103000000.0 0.34797277901977364 -0.9721130825302584
5106000000.0 0.3934885092477183 -0.9689535599209256
5109000000.0 0.4518801482706648 -0.9478966951730695
5112000000.0 0.3680587197184603 -0.9530139349204846
5116000000.0 0.42445448392735097 -0.9020816612256274
5119000000.0 0.3978710879917347 -0.9947093012111259
5122000000.0 0.38753310086736986 -0.9148267022859302
5125000000.0 0.45770255784489255 -0.9024093288050477
5128000000.0 0.40049778529265606 -0.9658138050255066
5131000000.0 0.411138389813876 -0.9297771325814088
5134000000.0 0.4080028992227214 -0.9428941559011685
5138000000.0 0.3981744156660817 -0.9687125640676182
5141000000.0 0.47888263785326685 -0.9468120982883572
5144000000.0 0.4044011822954632 -0.9528311233949028
5147000000.0 0.42402463158006787 -0.9533627151213561
5150000000.0 0.425908166339073 -0.9679995327769326
5153000000.0 0.3723408901346732 -0.9725853432481855
5156000000.0 0.44943410637903114 -0.9445796202779186
5159000000.0 0.4680605078127314 -0.9777943301368729
5162000000.0 0.3839081587907172 -0.9767714142733124
5166000000.0 0.38265922882252745 -1.00281597202261
5169000000.0 0.3972926611283548 -0.9534071250312006
5172000000.0 0.4150993225302958 -0.9228604055535219
