! Created with skrf 1.8.0 (http://scikit-rf.org).
# Hz S RI R 50.0 
!freq ReS11 ImS11
4000000000.0 0.548822658235798 -0.8865426703359115
4003000000.0 0.5652983019288534 -0.9056179719420308
4006000000.0 0.4928180607063342 -0.881333949531898
4009000000.0000005 0.5828737613156147 -0.913374185759844
4011999999.9999995 0.6112310337281144 -0.868822554743377
4016000000.0 0.5154517447026213 -0.9276947985953489
4019000000.0 0.5107720221511126 -0.9004978617575681
4022000000.0000005 0.6286216095666561 -0.8359856251896184
4025000000.0000005 0.514479783145177 -0.9415619864944715
4027999999.9999995 0.5354806913200832 -0.8772754441128977
4030999999.9999995 0.500450441522368 -0.848120541017854
4034000000.0 0.5256789110380823 -0.8653743813495389
4038000000.0000005 0.5174721072054258 -0.8948936612786782
4041000000.0000005 0.5133981539245299 -0.8998199947158814
4043999999.9999995 0.5663029098642888 -0.9466858902095561
4046999999.9999995 0.5929529769226071 -0.8678235075186602
4050000000.0 0.5235907223954698 -0.9279489699997461
4053000000.0 0.5012874009901335 -0.8983237287677441
4056000000.0 0.5407594682487832 -0.8932963852948295
4059000000.0 0.5085877359944976 -0.8527571004340929
4062000000.0000005 0.5376505975083397 -0.8740447239469036
4066000000.0 0.4991108311469677 -0.8103474791021883
4069000000.0 0.5304017920861162 -0.9410592200781287
4072000000.0 0.572484861738042 -0.8435411684072954
4075000000.0 0.6193569265001585 -0.8835201988265589
4078000000.0000005 0.524513942685752 -0.8914108483004402
4081000000.0000005 0.5859998930994189 -0.9037837115672478
4083999999.9999995 0.5591453509894737 -0.8947128166581356
4088000000.0 0.5874174520351576 -0.8506639191619065
4091000000.0 0.5875611096610278 -0.9273661762129145
4094000000.0000005 0.4975393177739332 -0.8505025533974298
4097000000.0000005 0.5326536240379536 -0.8931196484399854
4099999999.9999995 0.527160121750853 -0.9030410889401423
4102999999.9999995 0.5717119472987247 -0.8861637709041361
4106000000.0 0.5371498168679566 -0.9108635092026137
4109000000.0 0.5446801211703247 -0.8788421508666286
4112000000.0 0.5674164828650414 -0.9199361768258789
4115999999.9999995 0.5541827117764953 -0.8654899888810696
4119000000.0 0.5239480479356883 -0.8598430948811384
4122000000.0 0.5175471602415876 -0.9028566401669844
4125000000.0 0.4785674340624182 -0.9624463219275053
4128000000.0 0.5131807571889315 -0.8302402542798761
4131000000.0 0.5253170702696961 -0.8589056894166943
4134000000.0000005 0.5738072959219973 -0.8401245492015063
4138000000.0 0.5145319743350117 -0.8649352161301378
4141000000.0 0.5491269316583649 -0.8630856596271469
4144000000.0 0.5886843490191143 -0.8941893391582487
4147000000.0000005 0.5167277049879757 -0.9006279722084799
4150000000.0000005 0.5881805351161399 -0.9149503821740581
4152999999.9999995 0.5097112470691639 -0.8896753496175142
4155999999.9999995 0.5681494681273754 -0.9203521556675656
4159000000.0 0.5414125584720236 -0.8623659888566049
4162000000.0 0.5525045292921947 -0.851566578748885
4166000000.0000005 0.5516559362835842 -0.8704060653002677
4168999999.9999995 0.5275435257735502 -0.9096252733107265
4171999999.9999995 0.5774401624225304 -0.8564854714968672
4175000000.0 0.5650062279497889 -0.8485282142449603
4178000000.0 0.5448149700622894 -0.8940035059127788
4181000000.0 0.5365350517478973 -0.8931188967337857
4184000000.0 0.540561324859902 -0.8834500733843442
4187999999.9999995 0.5229487058356834 -0.8802765768644445
4191000000.0 0.5737206044162817 -0.8329915634807068
4194000000.0 0.5256989757578581 -0.8279134223695388
4197000000.0 0.5630200507469513 -0.8632410964742057
4200000000.0 0.5572086173484339 -0.851280792460693
4203000000.0000005 0.5606358868006907 -0.8590005059237903
4206000000.0000005 0.5542818501763545 -0.859866979840627
4208999999.9999995 0.539628309616863 -0.8468738747071844
4211999999.9999995 0.5302739839480572 -0.8960790459306358
4216000000.0 0.5707343744770601 -0.8576278723063011
4219000000.0000005 0.5657338133615208 -0.8747698368030787
4222000000.0000005 0.5324437783276726 -0.8780436491217843
4224999999.9999995 0.5387471285315791 -0.8531948394646545
4227999999.9999995 0.5502784099841629 -0.8634717993229137
4231000000.0 0.5493920314502849 -0.8542363261028005
4234000000.0 0.5538131938831916 -0.8884540464615098
4238000000.0000005 0.5184723576173147 -0.8442758586957249
4240999999.9999995 0.5390305286912456 -0.8443707281105044
4244000000.0 0.5528077780397831 -0.8549364837812425
4247000000.0 0.5483491723920759 -0.8533649353817652
4250000000.0 0.5168345517958849 -0.8542921340188241
4253000000.0 0.522480339800981 -0.8360349041865063
4256000000.0 0.5560429050917939 -0.8890251624157562
4259000000.0000005 0.5120962342480528 -0.8477890091507685
4261999999.9999995 0.5387457043890548 -0.8619694286922523
4266000000.0 0.5208445082867909 -0.8813421559802557
4269000000.0 0.5471793762783315 -0.8537489241995905
4272000000.0000005 0.5467216186864512 -0.848305169935626
4275000000.0000005 0.5547169529796243 -0.8638245009495313
4277999999.9999995 0.5699208456731069 -0.8666862185554804
4280999999.9999995 0.5414196195776367 -0.8572903168356303
4284000000.0 0.5219591237837508 -0.8830766505829415
4288000000.0000005 0.58179764458972 -0.8333936318182698
4291000000.0000005 0.5414739376262507 -0.858170692428239
4293999999.9999995 0.5213768975632908 -0.8592012508038854
4297000000.0 0.5589941671115454 -0.8460315780261872
4300000000.0 0.521841343372254 -0.8352533479309335
4303000000.0 0.5358587831148 -0.8454994625181227
4306000000.0 0.5350580034487341 -0.8511671066913967
4309000000.0 0.5697946864558092 -0.839411238472717
4312000000.0 0.5827611903620247 -0.8614293398556078
4316000000.0 0.5485668075229837 -0.857358396348819
4319000000.0 0.5660681124102999 -0.859146116558898
4322000000.0 0.5201788208884774 -0.8546219018993565
4325000000.0 0.5529532217798441 -0.8497940208783563
4328000000.0 0.5361073486356632 -0.8577901373320068
4331000000.0 0.5113616806380136 -0.8923082674483467
4334000000.0 0.5549992594725817 -0.8600296371587811
4338000000.0 0.5645607042655587 -0.8405743350902695
4341000000.0 0.5673836331050139 -0.8586146104380734
4344000000.0 0.5493462121352793 -0.87467453737369
4347000000.0 0.5239450626109734 -0.8883692216689988
4350000000.0 0.5167432854948414 -0.8423249999528927
4353000000.0 0.5449181181015861 -0.8371287931879663
4356000000.0 0.502482230399387 -0.8737834362732141
4359000000.0 0.49766427297564775 -0.8092785824552033
4362000000.0 0.5016512105255394 -0.9103355998935527
4366000000.0 0.5411892430734375 -0.8892271255743645
4369000000.0 0.5278658122508326 -0.8323641396612937
4372000000.0 0.4853402436879672 -0.871946821983918
4375000000.0 0.5437155797284927 -0.8459708218856923
4378000000.0 0.519011172956699 -0.8302142473611196
4381000000.0 0.5395169638829231 -0.8561410566664552
4384000000.0 0.552786880768787 -0.9161945654744893
4388000000.0 0.5344991059887163 -0.8304055611487956
4391000000.0 0.5417765879800999 -0.8617004235373671
4394000000.0 0.5087135557968867 -0.8381874027526788
4397000000.0 0.5239692429019704 -0.8642082110991461
4400000000.0 0.5425247083045215 -0.8847909497378253
4403000000.0 0.5223809873644081 -0.8649055446224215
4406000000.0 0.5161738688166592 -0.8789350565443442
4409000000.0 0.5533469253661767 -0.8886549300697841
4412000000.0 0.4722769260540732 -0.8750626267380608
4416000000.0 0.5201569490982254 -0.8655373058957997
4419000000.0 0.5108172822491734 -0.8881535067166166
4422000000.0 0.5483242046186023 -0.8505564307995682
4425000000.0 0.5655470250265795 -0.8686206795371038
4428000000.0 0.5269627642927917 -0.8780907437271253
4431000000.0 0.5502940284472804 -0.8703885150228892
4434000000.0 0.5130905088347115 -0.8522060269750183
4438000000.0 0.5317393336301997 -0.8819940891641519
4441000000.0 0.5490120184515329 -0.8795310571283114
4444000000.0 0.5203873587757807 -0.8377176399460107
4447000000.0 0.5063015186101439 -0.8712227877210851
4450000000.0 0.5358874582024313 -0.8505707138939721
4453000000.0 0.5364994648625135 -0.8821010779587035
4456000000.0 0.49492920515586636 -0.8423497348223694
4459000000.0 0.4913601639640795 -0.8325592736335761
4462000000.0 0.5529251669745139 -0.9148631982179006
4466000000.0 0.5295754965669712 -0.8964920007239774
4469000000.0 0.539663842399212 -0.8577163510864789
4472000000.0 0.511157547332199 -0.9090276673893853
4475000000.0 0.5224591078564268 -0.8551222355472166
4478000000.0 0.5178873066756688 -0.9088704626449762
4481000000.0 0.4924155956451576 -0.8516003342474076
4484000000.0 0.4796469362262078 -0.8987426188687856
4488000000.0 0.49894353020583293 -0.8706445576262384
4491000000.0 0.5137627311273065 -0.8699697193254504
4494000000.0 0.5172365697431487 -0.8624220733603576
4497000000.0 0.5318507854202886 -0.8509976997563521
4500000000.0 0.5222971111710315 -0.8463711729424073
4503000000.0 0.5236139582002353 -0.8855736983266379
4506000000.0 0.5084491439898577 -0.8682852430051415
4509000000.0 0.508296284152344 -0.8527809980822509
4512000000.0 0.5205725667821732 -0.8601270018957974
4516000000.0 0.5396691999102183 -0.8706462372312784
4519000000.0 0.5208204141341694 -0.8457119092383186
4522000000.0 0.5088974436770688 -0.874183699040301
4525000000.0 0.5280790249168815 -0.8541378596636093
4528000000.0 0.5404932101069378 -0.8819672618608447
4531000000.0 0.526017186276498 -0.8519280689008901
4534000000.0 0.49629001561644204 -0.8552715528800128
4538000000.0 0.5140477027163232 -0.8685432313988581
4541000000.0 0.46885903631103887 -0.8664103841064664
4544000000.0 0.5112968406544125 -0.8629795639259163
4547000000.0 0.5235443037245141 -0.8442903769609065
4550000000.0 0.48680417777173435 -0.8682394402628775
4553000000.0 0.4936532956314748 -0.883900798944015
4556000000.0 0.4909995489455887 -0.8603588713326089
4559000000.0 0.49323124916932753 -0.890769413259417
4562000000.0 0.5203640898939518 -0.8919633717897277
4566000000.0 0.5014529927164147 -0.9018033000164417
4569000000.0 0.48419758685332315 -0.8477352182641741
4572000000.0 0.4915814640315509 -0.8653340739049837
4575000000.0 0.49571069518115446 -0.894640396468193
4578000000.0 0.5218563931642106 -0.8939681053982819
4581000000.0 0.5020927151499668 -0.8679256675722055
4584000000.0 0.5213090506047302 -0.8795973898296409
4588000000.0 0.5099922451913662 -0.8869740094354301
4591000000.0 0.5258645575212559 -0.8648591690492932
4594000000.0 0.4805080942307337 -0.8919214560070909
4597000000.0 0.5047335439358472 -0.9011085219509385
4600000000.0 0.46752778494174735 -0.8804889765784755
4603000000.0 0.5017384878261586 -0.8858198097077397
4606000000.0 0.5108189246053322 -0.8968269509321471
4609000000.0 0.5172978656698058 -0.881765935392971
4612000000.0 0.49899953948756526 -0.8850269570645022
4616000000.0 0.4841021308032288 -0.8905752018876498
4619000000.0 0.5107993334288206 -0.8654665807885182
4622000000.0 0.4941036671036351 -0.9007371961555302
4625000000.0 0.4791325045430041 -0.870245212228069
4628000000.0 0.49210931585605455 -0.8645802935209074
4631000000.0 0.4703401608600069 -0.8975491921111449
4634000000.0 0.4828192433325921 -0.8785274133549239
4638000000.0 0.4947888196615983 -0.8840485904327411
4641000000.0 0.5163328527271737 -0.878775268186045
4644000000.0 0.48593172961229925 -0.879424005473339
4647000000.0 0.5062756519318456 -0.8959037112355899
4650000000.0 0.4709115234253737 -0.8656475671064363
4653000000.0 0.5152043561441383 -0.8882443763436746
4656000000.0 0.4863607420732253 -0.8924442877194104
4659000000.0 0.48993017436703706 -0.8947432296583212
4662000000.0 0.5043762405514645 -0.8927850379112094
4666000000.0 0.49371079438589954 -0.9011834757056257
4669000000.0 0.5128009946420629 -0.9030001366201204
4672000000.0 0.4894794136710005 -0.9081662365617198
4675000000.0 0.4826823041894266 -0.8968893995367935
4678000000.0 0.481565398800077 -0.8689478156101524
4681000000.0 0.4718904288918544 -0.9090432677253533
4684000000.0 0.46439018677316696 -0.9043855286775725
4688000000.0 0.475805721278736 -0.8980736304859187
4691000000.0 0.5231020534189211 -0.9060534972997557
4694000000.0 0.4989780659526456 -0.8891346556399825
4697000000.0 0.44295328714228577 -0.8652930284943768
4700000000.0 0.46742377740514296 -0.8834307911299403
4703000000.0 0.5060213711943998 -0.8483714205443958
4706000000.0 0.44877707717119547 -0.9021938562216021
4709000000.0 0.4788193236002583 -0.8861798649673543
4712000000.0 0.4799356901776533 -0.9139097997942354
4716000000.0 0.5002918074829502 -0.9257359134709643
4719000000.0 0.5018399658923407 -0.8877438567620156
4722000000.0 0.5279086551432759 -0.8846604973802471
4725000000.0 0.49440956086781485 -0.8819239010297709
4728000000.0 0.4644698573532342 -0.8904122485196878
4731000000.0 0.5059689346039793 -0.9226022550535435
4734000000.0 0.4942309666357348 -0.8895785500064838
4738000000.0 0.5105564762737521 -0.915234360058466
4741000000.0 0.4923899267212632 -0.9203842532809972
4744000000.0 0.4886433680200491 -0.8893722692595715
4747000000.0 0.5001641786786699 -0.8503580238366802
4750000000.0 0.49144701103524735 -0.9063286613801406
4753000000.0 0.49337149878132885 -0.9183395472476741
4756000000.0 0.49800654226110597 -0.8898742077722179
4759000000.0 0.47034882078370444 -0.9107505322079723
4762000000.0 0.47540348844791813 -0.9512968043206871
4766000000.0 0.46617619242532626 -0.8813175826637225
4769000000.0 0.46404626481113764 -0.9445157645766847
4772000000.0 0.48611670230378845 -0.8868096209021877
4775000000.0 0.505285691227807 -0.9460545616739267
4778000000.0 0.5043521566233942 -0.9103593613471952
4781000000.0 0.4955038155586322 -0.891411003159041
4784000000.0 0.51743917742626 -0.85677718882259
4788000000.0 0.4869016539538113 -0.955790917093792
4791000000.0 0.48283059935369155 -0.9062179197505904
4794000000.0 0.5224042905660515 -0.9020640019311736
4797000000.0 0.47638563576388704 -0.8961295468800653
4800000000.0 0.4714264085801221 -0.884185065699618
4803000000.0 0.4390736933598727 -0.9203183014827122
4806000000.0 0.482335282364701 -0.9112012323460579
4809000000.0 0.480050180477948 -0.9164722369890748
4812000000.0 0.4346585880013219 -0.9129965884033769
4816000000.0 0.4956750351077754 -0.8698392089408459
4819000000.0 0.5100334163939897 -0.9327488505020328
4822000000.0 0.5185872984994172 -0.9175587709751076
4825000000.0 0.5227533631904793 -0.9162925864456346
4828000000.0 0.47387897573111004 -0.8957729634394501
4831000000.0 0.4488328374469815 -0.9400732268825237
4834000000.0 0.5223425885906798 -0.9117364357153444
4838000000.0 0.4866019835326233 -0.952160444444575
4841000000.0 0.4442646426303646 -0.9020568550350979
4844000000.0 0.510650865968499 -0.8909795087450856
4847000000.0 0.48622752932755975 -0.8687903048642905
4850000000.0 0.48089528284516153 -0.9525819153902251
4853000000.0 0.4784844588684842 -0.8881814711422322
4856000000.0 0.46928417489182533 -0.8886972460562433
4859000000.0 0.49737841777784214 -0.9383879851463713
4862000000.0 0.5066792801106423 -0.8674121238025103
4866000000.0 0.4701866540718581 -0.9201341469683476
4869000000.0 0.4789280474584561 -0.927267749780608
4872000000.0 0.4781936414416448 -0.9449717073518459
4875000000.0 0.5389168554908923 -0.9330332093939262
4878000000.0 0.4827600529025636 -0.9175333261814924
4881000000.0 0.49823222955657703 -0.9452952134947205
4884000000.0 0.5121966221852008 -0.9002174817781504
4888000000.0 0.5203340920129178 -0.8907774116981478
4891000000.0 0.5223871354365285 -0.9143087639841565
4894000000.0 0.46381631885681573 -0.9104054746939356
4897000000.0 0.5033683045998677 -0.8537076132716379
4900000000.0 0.522126326108156 -0.9234580818024262
4903000000.0 0.5197896425387976 -0.9217346857342862
4906000000.0 0.47692389232155863 -0.9276001242976577
4909000000.0 0.4658752540607375 -0.9083862232682943
4912000000.0 0.4905668410933701 -0.9333430006295458
4916000000.0 0.5257196538809864 -0.9078219547583984
4919000000.0 0.5293917603825645 -0.933097713314543
4922000000.0 0.5377670216772815 -0.9139208179522106
4925000000.0 0.4640228398601487 -0.9103754489719844
4928000000.0 0.5355776194868563 -0.8501837859020092
4931000000.0 0.5304941599827706 -0.9041793542133836
4934000000.0 0.47738855378011436 -0.881965074956271
4938000000.0 0.47830062066887974 -0.9328337454696738
4941000000.0 0.49902810412769816 -0.883163279792861
4944000000.0 0.508780400470519 -0.8508645559610494
4947000000.0 0.516578901478577 -0.8868502232477167
4950000000.0 0.4781205623351804 -0.9174659564097065
4953000000.0 0.46715427329710657 -0.9428228783312599
4956000000.0 0.4568962960363633 -0.9249961124140048
4959000000.0 0.44635165917972647 -0.9358924151156076
4962000000.0 0.5145998174013917 -0.9273206505860091
4966000000.0 0.5320458934645491 -0.9348903776970541
4969000000.0 0.5418952199463305 -0.9087520662989551
4972000000.0 0.45777025213528716 -0.9348765985839294
4975000000.0 0.5366745738936127 -0.8618943358574545
4978000000.0 0.5005345761077983 -0.8981085036415399
4981000000.0 0.4636726857259004 -0.9152938786900655
4984000000.0 0.49860142693678977 -0.8784168960313171
4988000000.0 0.5228307165479503 -0.8821312509979007
4991000000.0 0.5908550956419083 -0.8990848166156046
4994000000.0 0.503331788817693 -0.9005211617436257
4997000000.0 0.5011301745775163 -0.8987481003510347
5000000000.0 0.5486836380591573 -0.9207902911790562
5003000000.0 0.5461783245030267 -0.9357204173089712
5006000000.0 0.5461010872237351 -0.9263745819511593
5009000000.0 0.5150539158161739 -0.8941782717743254
5012000000.0 0.4780584440084513 -0.9050618235936327
5016000000.0 0.5389730472888044 -0.9156138205660156
5019000000.0 0.4906430934876952 -0.8997487104439225
5022000000.0 0.5244433117909378 -0.889856040406159
5025000000.0 0.5585852760737223 -0.9767281962943116
5028000000.0 0.5081712659846285 -0.9156147985724161
5031000000.0 0.49796982591538363 -0.9091343696134053
5034000000.0 0.4890179048846628 -0.995748049624313
5038000000.0 0.4993014281807561 -0.8957723839164826
5041000000.0 0.5413669095504271 -0.8901805172078863
5044000000.0 0.5115197012096175 -0.8587689471946757
5047000000.0 0.5340060690787002 -0.90967869787799
5050000000.0 0.5518929756395263 -0.83920575733068
5053000000.0 0.5364665634876636 -0.9355283638318075
5056000000.0 0.5296168291598984 -0.891514522960881
5059000000.0 0.5860235626933379 -0.8563327802982732
5062000000.0 0.49047148520561895 -0.9387229997782893
5066000000.0 0.552815321061808 -0.8801399948338079
5069000000.0 0.5235014831967577 -0.9151403314886393
5072000000.0 0.49522064019273476 -0.90966329437749
5075000000.0 0.5424547206811461 -0.8887342481086329
5078000000.0 0.5102198316385151 -0.9131387531324158
5081000000.0 0.5009120839352319 -0.843134851357646
5084000000.0 0.5405631847315367 -0.9350568817196436
5088000000.0 0.5013935402434807 -0.861123606962662
5091000000.0 0.509317254781724 -0.9050070435537254
5094000000.0 0.491605310865819 -0.9056401245517558
5097000000.0 0.5518570434445045 -0.9195834936950354
5100000000.0 0.5439414389009916 -0.8960206545555154
5103000000.0 0.5251563090037681 -0.9088237218397597
5106000000.0 0.5471634129279501 -0.9542562740343097
5109000000.0 0.5404709680150245 -0.8370456355478773
5112000000.0 0.516628812426644 -0.9043787701665889
5116000000.0 0.5019706344250223 -0.8794576544740289
5119000000.0 0.5372766814083592 -0.9090679630688603
5122000000.0 0.5304971855593854 -0.8796750150882924
5125000000.0 0.5308987186542857 -0.870333289401992
5128000000.0 0.547322495528501 -0.9380272912532479
5131000000.0 0.495283405621794 -0.9404472902788991
5134000000.0 0.5522909413713692 -0.8622953056250998
5138000000.0 0.511526119958551 -0.9211490221086763
5141000000.0 0.5410343587057274 -0.8916003076229584
5144000000.0 0.5563969896929426 -0.8672609828798064
5147000000.0 0.5004437283101146 -0.9218531129294938
5150000000.0 0.5663724793645345 -0.8767113688917311
5153000000.0 0.5122893223158913 -0.899220366947926
5156000000.0 0.5287936142875661 -0.891700445549152
5159000000.0 0.5512799092677791 -0.959440864510954
5162000000.0 0.5250468870077605 -0.8950599167552242
5166000000.0 0.5176673983807104 -0.9263041989969057
5169000000.0 0.5801956703600039 -0.8694484363868125
5172000000.0 0.5587639511757193 -0.8579188677620916
5175000000.0 0.5771667147634487 -0.9175101171497186
5178000000.0 0.5568031662381043 -0.9105120804573748
