! Created with skrf 1.8.0 (http://scikit-rf.org).
# Hz S RI R 50.0 
!freq ReS11 ImS11
4000000000.0 0.8822966172675532 -0.4213831424541557
4003000000.0 0.9462758360579346 -0.42321238074187334
4006000000.0 0.8778410308950255 -0.46336924143027525
4009000000.0000005 0.9378739372175037 -0.46328058735534183
4011999999.9999995 0.9809108272447835 -0.4148382572422598
4016000000.0 0.9070608230165933 -0.4889660581846977
4019000000.0 0.9521930961958531 -0.47338874472584863
4022000000.0000005 0.9554745705415184 -0.40983846042378186
4025000000.0000005 0.9095963097192608 -0.5374141787878344
4027999999.9999995 0.9015683896207236 -0.44679697836842336
4030999999.9999995 0.8613850305540238 -0.4219336004343666
4034000000.0 0.9420188025442876 -0.4946267160763345
4038000000.0000005 0.9006983488534636 -0.4777716468352793
4041000000.0000005 0.9186476102003562 -0.4840545346361716
4043999999.9999995 0.9773105846559005 -0.4939281335842726
4046999999.9999995 0.9359853143529469 -0.4674114216871312
4050000000.0 0.9365818771836775 -0.5186003663052042
4053000000.0 0.8711770907721627 -0.4833274962881655
4056000000.0 0.8676115287821397 -0.4448584608048589
4059000000.0 0.9428096780556147 -0.42866376612063656
4062000000.0000005 0.9220400797088959 -0.49389776357042503
4066000000.0 0.8108028764554108 -0.44046603516187527
4069000000.0 0.9748264301111672 -0.5010978447760008
4072000000.0 0.9190461573823029 -0.41461148461674013
4075000000.0 0.9873513321007376 -0.4548426220413615
4078000000.0000005 0.9131188586145421 -0.5050754728492152
4081000000.0000005 1.0184734124164072 -0.4296068085062397
4083999999.9999995 0.8915444911929368 -0.49571895608541866
4088000000.0 0.9144264392909519 -0.4433894660992761
4091000000.0 1.0251638224781168 -0.5269537446138788
4094000000.0000005 0.9183003023911908 -0.46915856499488895
4097000000.0000005 0.9422059579435337 -0.48752351184853904
4099999999.9999995 0.9115470292813113 -0.5002291088272541
4102999999.9999995 0.9424742236121508 -0.4918933966441202
4106000000.0 0.9264381238348766 -0.47888118395504714
4109000000.0 0.9029494218828964 -0.5085545466378549
4112000000.0 0.9114057685124091 -0.5271013114070722
4115999999.9999995 0.9468047381004195 -0.455717144628495
4119000000.0 0.8546486688422846 -0.5174916586832462
4122000000.0 0.938836054546592 -0.48271161603698964
4125000000.0 0.9443633023145651 -0.5400471081913369
4128000000.0 0.9069818680661921 -0.43787930504821193
4131000000.0 0.9044015822434145 -0.43608441329369313
4134000000.0000005 0.8767971284112562 -0.47602951530367066
4138000000.0 0.8508752955760023 -0.48746274460525524
4141000000.0 0.8522116195998292 -0.48012161170767487
4144000000.0 0.912852804615101 -0.5037564329052052
4147000000.0000005 0.8844320272542714 -0.5572220525806371
4150000000.0000005 0.9496684717502736 -0.5143071274023839
4152999999.9999995 0.9003030629911856 -0.498483890369665
4155999999.9999995 0.9292342899335352 -0.4771652720361635
4159000000.0 0.8760249761115858 -0.47094180031453853
4162000000.0 0.9251823770271953 -0.47312541451013784
4166000000.0000005 0.9150797106507862 -0.5160201436135156
4168999999.9999995 0.878014279191734 -0.5332104171325047
4171999999.9999995 0.8981115532332562 -0.4746060546270667
4175000000.0 0.8919410001869231 -0.45053624940121184
4178000000.0 0.9029684585428182 -0.5102818598654433
4181000000.0 0.9340981486378039 -0.5364114543381582
4184000000.0 0.9159189013625797 -0.5123803194016905
4187999999.9999995 0.9128687374288933 -0.4858114605230604
4191000000.0 0.9126725712891566 -0.4526124609662499
4194000000.0 0.8860237582756526 -0.4953937241839027
4197000000.0 0.9123494880712812 -0.5120157545705053
4200000000.0 0.9031977442783128 -0.5298251210297649
4203000000.0000005 0.8744288972465855 -0.489942938423237
4206000000.0000005 0.9102834818018768 -0.49212327527476374
4208999999.9999995 0.897066597041173 -0.47208598656982553
4211999999.9999995 0.8886298381545905 -0.5051613541783189
4216000000.0 0.8814105265730356 -0.4901225588233038
4219000000.0000005 0.9136528462358396 -0.4777471876538697
4222000000.0000005 0.9001405808746108 -0.5171939078361689
4224999999.9999995 0.9071970692438169 -0.47707867440936286
4227999999.9999995 0.9198936148482062 -0.49013173689986933
4231000000.0 0.883571545078524 -0.46308063426640733
4234000000.0 0.9143697566208309 -0.4607471046958519
4238000000.0000005 0.8924456496224938 -0.5188161306197541
4240999999.9999995 0.9343607270321503 -0.5181555590889846
4244000000.0 0.9064034636403611 -0.4651708501721872
4247000000.0 0.9178284723742547 -0.491467793846052
4250000000.0 0.8963089157439381 -0.4946080152713242
4253000000.0 0.8969292732722587 -0.49457711224586465
4256000000.0 0.8613770362683765 -0.487036490929117
4259000000.0000005 0.8804697613138234 -0.5006769504399589
4261999999.9999995 0.8920669546834596 -0.5154280368868921
4266000000.0 0.8910447543489215 -0.5119531450649328
4269000000.0 0.9077864612021105 -0.5006855289928823
4272000000.0000005 0.8795989136133762 -0.5141575865668104
4275000000.0000005 0.8829872125638174 -0.5094987198172417
4277999999.9999995 0.8912665347165503 -0.49727275663355996
4280999999.9999995 0.884497242646169 -0.49998089628327935
4284000000.0 0.9019651431773209 -0.5180649598694429
4288000000.0000005 0.8945477797186969 -0.48999501800255746
4291000000.0000005 0.8789195326565088 -0.5102303203798526
4293999999.9999995 0.8796299965568082 -0.5086025013644765
4297000000.0 0.8841636370981171 -0.48941338641625215
4300000000.0 0.880502139023353 -0.49480959435317173
4303000000.0 0.8802288339423814 -0.4875300144695252
4306000000.0 0.9273989264204394 -0.501705257202382
4309000000.0 0.8746012818468702 -0.5048770190787643
4312000000.0 0.8989169906478341 -0.4865558552093441
4316000000.0 0.9160612621336287 -0.4875891297228976
4319000000.0 0.8749053341938673 -0.5072903699137917
4322000000.0 0.8580004591574955 -0.522296609031896
4325000000.0 0.8716941907493754 -0.5158916653549278
4328000000.0 0.8775697555596105 -0.4934148842957907
4331000000.0 0.8693609768872876 -0.5314006829542298
4334000000.0 0.8900847237637015 -0.5044737140423817
4338000000.0 0.8862793494403599 -0.48398715337523607
4341000000.0 0.9232032142615173 -0.48231512083484035
4344000000.0 0.9079861600438406 -0.49718832971603993
4347000000.0 0.8846734382341479 -0.5424296372223927
4350000000.0 0.8424698149228184 -0.5040900891979723
4353000000.0 0.8539663354460736 -0.4910467739099694
4356000000.0 0.8509218139051333 -0.4899869677364209
4359000000.0 0.854436244939918 -0.49045416113445395
4362000000.0 0.8613035515790746 -0.561116767522109
4366000000.0 0.90280003198245 -0.5053395469121702
4369000000.0 0.8654459059123863 -0.4945785872044532
4372000000.0 0.869495337385172 -0.5235919234696296
4375000000.0 0.887542803361157 -0.49397420833665395
4378000000.0 0.8835874942428088 -0.504537094659242
4381000000.0 0.8954968067953516 -0.5159244049537406
4384000000.0 0.9082067134514551 -0.5319931530260573
4388000000.0 0.8672366799385176 -0.49327446426470467
4391000000.0 0.891110339524128 -0.4903518978422308
4394000000.0 0.8601815960949448 -0.4814010222590906
4397000000.0 0.876513583777171 -0.5002546062814968
4400000000.0 0.9048825308788646 -0.5273032963652585
4403000000.0 0.8868439304304998 -0.4873600829403349
4406000000.0 0.8448914961665241 -0.5362588293980466
4409000000.0 0.8909974886116132 -0.5314413228698246
4412000000.0 0.8450711574659713 -0.5590218251451643
4416000000.0 0.8607689208336124 -0.5135276863463856
4419000000.0 0.879286239614502 -0.5253954605917611
4422000000.0 0.8681227340795565 -0.511646847611719
4425000000.0 0.9005896684506252 -0.5247132689864107
4428000000.0 0.8407376702490629 -0.512809301349823
4431000000.0 0.8912153661856572 -0.5334078903081177
4434000000.0 0.8617511536742877 -0.5332713324599309
4438000000.0 0.8970599405591282 -0.531426707014736
4441000000.0 0.8748532484919785 -0.5011856791002881
4444000000.0 0.8685950673636837 -0.5007037261179252
4447000000.0 0.8608930990987085 -0.514561365608944
4450000000.0 0.8584254674231776 -0.4969620208301755
4453000000.0 0.8868251284547846 -0.534966129060662
4456000000.0 0.8447723551037125 -0.5159743483746262
4459000000.0 0.8033171258310473 -0.5125630375270679
4462000000.0 0.927263182014877 -0.5576230965055563
4466000000.0 0.8943709410962699 -0.5567704396565553
4469000000.0 0.8709463631415476 -0.49861206324610685
4472000000.0 0.8848749368032649 -0.5476855889085233
4475000000.0 0.8377011194765519 -0.5109593944504602
4478000000.0 0.8976647648971151 -0.570439069200015
4481000000.0 0.8428957417683415 -0.5088288723339621
4484000000.0 0.824639141189943 -0.572556113567586
4488000000.0 0.8404430320026651 -0.5291483002791927
4491000000.0 0.8558049943814272 -0.5466670229814906
4494000000.0 0.8449894351547325 -0.5300322823677059
4497000000.0 0.8553250751684678 -0.5258187987615717
4500000000.0 0.8738259287262055 -0.5027913012165564
4503000000.0 0.8761862241599302 -0.5267085527504162
4506000000.0 0.8410820790011392 -0.5346640704343889
4509000000.0 0.8302992314369882 -0.5251333278291538
4512000000.0 0.8291630064687701 -0.5268070917416117
4516000000.0 0.892711077541754 -0.5246915633220173
4519000000.0 0.8309687642968248 -0.514583081825344
4522000000.0 0.8526745277323113 -0.5495255685005916
4525000000.0 0.8561242978967082 -0.5105992882741263
4528000000.0 0.8858792715489879 -0.5561403401679411
4531000000.0 0.8695294460814453 -0.5227785686018631
4534000000.0 0.8382680400131346 -0.5068704042994315
4538000000.0 0.8547854890666533 -0.5262659927913997
4541000000.0 0.8177435779220915 -0.5693775640499452
4544000000.0 0.8361139680253268 -0.520940634355656
4547000000.0 0.8754533147331436 -0.5100169792921959
4550000000.0 0.8207941187137432 -0.5713389709308776
4553000000.0 0.8546757340753834 -0.5385562681404181
4556000000.0 0.8088244521645728 -0.5473965664995496
4559000000.0 0.8313544889045523 -0.5515516999926025
4562000000.0 0.8570186358860608 -0.5468170782598013
4566000000.0 0.8508293291366825 -0.5610892859799294
4569000000.0 0.8314169170382026 -0.5289075170182664
4572000000.0 0.8269855701237493 -0.540402194037536
4575000000.0 0.8566741614449828 -0.579871252732044
4578000000.0 0.8885285202817342 -0.5159479034974765
4581000000.0 0.8557923481726439 -0.571440116431164
4584000000.0 0.8358400033459339 -0.5509655695446243
4588000000.0 0.8737979830973552 -0.5471253744825381
4591000000.0 0.8564988273530248 -0.5334618201627498
4594000000.0 0.8286003203543457 -0.5571162817473937
4597000000.0 0.8579466824472833 -0.5753085377669611
4600000000.0 0.787726341959852 -0.5476412878349523
4603000000.0 0.8594110776027188 -0.5621121408149439
4606000000.0 0.8346492148531959 -0.550898678607546
4609000000.0 0.8434132803231834 -0.5666287968255665
4612000000.0 0.860698369744995 -0.5565001946383151
4616000000.0 0.811568916405626 -0.5420473380136606
4619000000.0 0.8412977215430005 -0.5335972232632981
4622000000.0 0.8235661818762643 -0.5262853064344166
4625000000.0 0.7796109539621664 -0.5352429613975598
4628000000.0 0.8120184059753969 -0.5043287648656791
4631000000.0 0.7837040741735766 -0.5681495124165887
4634000000.0 0.8412839083373187 -0.5553659668800173
4638000000.0 0.838888905652912 -0.5528279289068072
4641000000.0 0.859202664896103 -0.557173135694884
4644000000.0 0.8372342113259837 -0.5616163647039012
4647000000.0 0.8486971461793931 -0.5618575386482141
4650000000.0 0.8007401341116028 -0.5839375775707366
4653000000.0 0.8777168353013166 -0.5627131576283395
4656000000.0 0.7993231208905678 -0.5686812544483193
4659000000.0 0.8206419226090195 -0.5674833266370389
4662000000.0 0.8303730750286181 -0.5617336150890939
4666000000.0 0.828057800869887 -0.5684857191884952
4669000000.0 0.8201406230541676 -0.5279762916304359
4672000000.0 0.8099208981277687 -0.5903398025495197
4675000000.0 0.8039572477705317 -0.5936027506360229
4678000000.0 0.8064774248444124 -0.5686022040786748
4681000000.0 0.8197146219088284 -0.6083248574661441
4684000000.0 0.7940357904739711 -0.5769201185135946
4688000000.0 0.8062491989436944 -0.5715275910144858
4691000000.0 0.8259880873823829 -0.545817153895816
4694000000.0 0.8356529302777493 -0.5783396860461353
4697000000.0 0.8140699534445104 -0.5734726797970416
4700000000.0 0.8268410550984501 -0.5726317736820612
4703000000.0 0.8412641058512084 -0.5889982370305843
4706000000.0 0.826834932077667 -0.5819994935820045
4709000000.0 0.8077976920251965 -0.5941647829059342
4712000000.0 0.8154193639313078 -0.5709313583255141
4716000000.0 0.8031079662449343 -0.5735814314314815
4719000000.0 0.8168332023279781 -0.5788702387277356
4722000000.0 0.843224089531584 -0.5733802956691979
4725000000.0 0.812155228088284 -0.5746934231982634
4728000000.0 0.8031072230307131 -0.5829432341153301
4731000000.0 0.825557490596196 -0.5722228199121291
4734000000.0 0.8106105754167084 -0.5719483912501556
4738000000.0 0.8284362790389094 -0.5980180196968785
4741000000.0 0.8163098455780531 -0.5903913915826742
4744000000.0 0.8022117390102445 -0.6189197517403725
4747000000.0 0.7944492426516658 -0.6070432872975242
4750000000.0 0.81628069031826 -0.6102519468309427
4753000000.0 0.8169198863588001 -0.6195180690999977
4756000000.0 0.8135025019229405 -0.6148543317441424
4759000000.0 0.7975262374659617 -0.6208719933154523
4762000000.0 0.8029433966044647 -0.6094543588512236
4766000000.0 0.8176881883605696 -0.6010274601062147
4769000000.0 0.8299983057054229 -0.6139772617428327
4772000000.0 0.830264378657177 -0.6007630828259211
4775000000.0 0.8140796942125558 -0.6325048612507875
4778000000.0 0.802006835718583 -0.5879661097429776
4781000000.0 0.8309289294904345 -0.592399226762547
4784000000.0 0.8176332915647905 -0.5707750037385076
4788000000.0 0.8290580945610353 -0.6052493843695693
4791000000.0 0.8077434268618058 -0.5990109326134887
4794000000.0 0.844374680848006 -0.6025205006560408
4797000000.0 0.8021519954637791 -0.6079681525564936
4800000000.0 0.7990203925571846 -0.6054835909909313
4803000000.0 0.7849138892180331 -0.6168426274877371
4806000000.0 0.811260142251558 -0.6019581475860065
4809000000.0 0.7982497503519566 -0.62637245216743
4812000000.0 0.7831749022282611 -0.628752798207794
4816000000.0 0.8070777844575846 -0.5960590493408072
4819000000.0 0.8144244380256523 -0.6232227577936541
4822000000.0 0.8304252511477206 -0.6227279216079283
4825000000.0 0.8292703317181771 -0.58726492339632
4828000000.0 0.8265147259518648 -0.6051413863168312
4831000000.0 0.8145194504268042 -0.6579596348536951
4834000000.0 0.8166749751484492 -0.6071113632482353
4838000000.0 0.8327284906043583 -0.6445349142331526
4841000000.0 0.8052028595722219 -0.6411237772380123
4844000000.0 0.8249454261764804 -0.5935906763962657
4847000000.0 0.8046497020602746 -0.5841145958409828
4850000000.0 0.7977516750060445 -0.6376140025376356
4853000000.0 0.8067313595340324 -0.5917692918670465
4856000000.0 0.7852260338038572 -0.5919627447245603
4859000000.0 0.8095224944568045 -0.6354245557305706
4862000000.0 0.8100898986570585 -0.5887131941206201
4866000000.0 0.8185471371756654 -0.645930414256054
4869000000.0 0.7988723081570567 -0.6239333013301618
4872000000.0 0.8058061663492614 -0.6487577967941238
4875000000.0 0.848391397288013 -0.6201946157187193
4878000000.0 0.7933181641868927 -0.6387239032961693
4881000000.0 0.8288770813460984 -0.67360747720972
4884000000.0 0.8152649694071734 -0.6097437479075017
4888000000.0 0.8342064688169109 -0.602784268242776
4891000000.0 0.8287817755676605 -0.6124430865018685
4894000000.0 0.780933555473508 -0.6243099374391468
4897000000.0 0.8012235286514044 -0.6044189755370729
4900000000.0 0.7983120236694914 -0.6279313353813318
4903000000.0 0.8165836974514642 -0.6141215067089706
4906000000.0 0.8050694569498653 -0.6146697888412916
4909000000.0 0.7968901574316221 -0.6332213336124516
4912000000.0 0.8099701644960642 -0.6409109280952842
4916000000.0 0.8375202262135353 -0.6172136648019073
4919000000.0 0.8622615615612639 -0.6152243067784894
4922000000.0 0.8170766103941045 -0.5792524797859704
4925000000.0 0.7854269030051917 -0.6099266886810494
4928000000.0 0.8486786617169664 -0.5802800175185383
4931000000.0 0.8161714796512078 -0.5983020664621741
4934000000.0 0.7972096895828285 -0.6157121920656273
4938000000.0 0.7842832761681922 -0.6496632041823315
4941000000.0 0.785008581337306 -0.6168991466522337
4944000000.0 0.76335340189764 -0.5951388589308462
4947000000.0 0.7881911644644911 -0.612602038069052
4950000000.0 0.8013289596391088 -0.6200309447582236
4953000000.0 0.8057315887749829 -0.6943700766743893
4956000000.0 0.8098873023625273 -0.6421521362192418
4959000000.0 0.7489426523598639 -0.6350761651320987
4962000000.0 0.8117862260240957 -0.6603892052762936
4966000000.0 0.8478412079994455 -0.646915580194358
4969000000.0 0.8394520528868397 -0.6523578822983956
4972000000.0 0.8200143186328819 -0.6490243749090162
4975000000.0 0.8263436164867284 -0.5797681194228297
4978000000.0 0.7898291422486166 -0.6462821234518564
4981000000.0 0.7826793211005617 -0.6138450979737865
4984000000.0 0.8046323761214251 -0.5969504028900421
4988000000.0 0.8265310734385192 -0.5877259822477023
4991000000.0 0.8474816565156837 -0.5683880645343462
4994000000.0 0.7872840221824505 -0.6130926100765102
4997000000.0 0.8076644778696436 -0.649690965443452
5000000000.0 0.877777667376787 -0.6438803769654774
5003000000.0 0.8394675781270753 -0.6185434920575166
5006000000.0 0.852419107553851 -0.6883048270333054
5009000000.0 0.8051012279857654 -0.606180718695047
5012000000.0 0.7855008980853287 -0.6307844697261408
5016000000.0 0.8502870265018561 -0.6231390725450506
5019000000.0 0.8152439314309411 -0.6048937927498226
5022000000.0 0.8151586493783495 -0.6188930465443289
5025000000.0 0.8719396632676589 -0.688990834916545
5028000000.0 0.7999497616950556 -0.6599323293086473
5031000000.0 0.7931635472055187 -0.6492323292235941
5034000000.0 0.8100844187949037 -0.690957584285269
5038000000.0 0.7662449972934137 -0.6258084457755249
5041000000.0 0.8587927475314282 -0.6113242181194289
5044000000.0 0.8248667280206009 -0.5946731869736628
5047000000.0 0.8524757890010665 -0.6059671576321931
5050000000.0 0.840732553017577 -0.5177161743392535
5053000000.0 0.8605641565599456 -0.6475787897796725
5056000000.0 0.8685105532446659 -0.5700095191066763
5059000000.0 0.8818764072507356 -0.5868692880786972
5062000000.0 0.8171910526925625 -0.6692755593408168
5066000000.0 0.8381585175657188 -0.5823346418840167
5069000000.0 0.8375189286894701 -0.6486930115165126
5072000000.0 0.7734422340957833 -0.6254596220187785
5075000000.0 0.828777224553557 -0.6033669461079783
5078000000.0 0.7657222186505616 -0.6556021372586113
5081000000.0 0.7890832514486612 -0.6367822916470837
5084000000.0 0.8410916389730849 -0.6644077038216014
5088000000.0 0.8192558843468507 -0.6276234070613312
5091000000.0 0.8001016257276727 -0.7123776311827413
5094000000.0 0.8086556899341246 -0.6609982167373114
5097000000.0 0.825181264182107 -0.6109471672120292
5100000000.0 0.7954910385088115 -0.6191600074523606
5103000000.0 0.8164520254228593 -0.6542644285114749
5106000000.0 0.9174762886413458 -0.6029827702382937
5109000000.0 0.8861142735351495 -0.5798619860404279
5112000000.0 0.8284266022570309 -0.6514184469009651
5116000000.0 0.7487783401414628 -0.602825641037709
5119000000.0 0.8220346029684077 -0.6034316256475317
5122000000.0 0.8286116776910801 -0.6024165071560398
5125000000.0 0.8204710230247314 -0.6010930941125109
5128000000.0 0.8136376341618959 -0.6180051721304324
5131000000.0 0.7850087852206847 -0.5690004285295808
5134000000.0 0.8423012525565594 -0.6205067352490461
5138000000.0 0.8267828357244389 -0.6360915089685981
5141000000.0 0.8484179484135165 -0.545317075732929
5144000000.0 0.8287305804910963 -0.637042546875379
5147000000.0 0.8316605164531002 -0.6039432610609381
5150000000.0 0.8483806677418403 -0.5744884612950246
5153000000.0 0.8279113552242924 -0.5704650978792065
5156000000.0 0.8309757414667815 -0.6157470034056074
5159000000.0 0.8708189076236534 -0.6246377338664291
5162000000.0 0.8323889371419422 -0.6366146467332698
5166000000.0 0.8192291162551038 -0.66361132775124
5169000000.0 0.8495633495265207 -0.6024577414344721
5172000000.0 0.7915212916234852 -0.606788876253666
5175000000.0 0.865074445218636 -0.6557170341408176
5178000000.0 0.8490722253168299 -0.6231736313791114
