! Created with skrf 1.8.0 (http://scikit-rf.org).
# Hz S RI R 50.0 
!freq ReS11 ImS11
4000000000.0 0.5542080985797373 -0.8583206311519045
4003000000.0 0.5839479299395112 -0.8829102033491711
4006000000.0 0.46561771467209867 -0.8694317548020688
4009000000.0000005 0.5702430058204231 -0.8532380537581836
4011999999.9999995 0.5926923922529772 -0.8417178509424983
4016000000.0 0.5297614599231599 -0.8900597067829215
4019000000.0 0.5637004529291862 -0.8693515892754474
4022000000.0000005 0.6406333044011016 -0.9045746213275554
4025000000.0000005 0.5270919690450315 -0.8903772795590604
4027999999.9999995 0.5326940100222641 -0.9003986381623705
4030999999.9999995 0.5113504181062647 -0.8485157256787426
4034000000.0 0.546219348574944 -0.8821928222159277
4038000000.0000005 0.5548371654723667 -0.9128406373776984
4041000000.0000005 0.5676655521184306 -0.841786782375851
4043999999.9999995 0.5770906279657161 -0.8805804912684746
4046999999.9999995 0.6120786447286504 -0.9033389051145333
4050000000.0 0.5098887482867832 -0.9043593852599651
4053000000.0 0.5399588618676833 -0.8697423188377381
4056000000.0 0.5227317275671333 -0.8572697837586154
4059000000.0 0.5690391719554412 -0.8734366970103952
4062000000.0000005 0.49147528545093944 -0.8756140539363476
4066000000.0 0.5092084096920915 -0.8201275806453656
4069000000.0 0.5803826893305707 -0.9227498845233105
4072000000.0 0.5886615359478028 -0.8342758304575959
4075000000.0 0.5912264261146073 -0.8453365472613038
4078000000.0000005 0.5728444829420062 -0.9087474825742039
4081000000.0000005 0.6012310331969021 -0.8201788769597063
4083999999.9999995 0.5284676990026785 -0.8868312700272617
4088000000.0 0.5540127199889151 -0.8379365906185464
4091000000.0 0.5522292410801068 -0.9331686677817798
4094000000.0000005 0.5743794393335458 -0.8630038678729286
4097000000.0000005 0.5272710702970853 -0.8682084811402534
4099999999.9999995 0.5474712125382845 -0.8850567339047042
4102999999.9999995 0.5844190572517136 -0.884357982271001
4106000000.0 0.5797454978116405 -0.8761069105589119
4109000000.0 0.5537343722043427 -0.9009885698765694
4112000000.0 0.5693684515695066 -0.8816030406839176
4115999999.9999995 0.5698067208231219 -0.8318784016300662
4119000000.0 0.5367761587002993 -0.8679624457212725
4122000000.0 0.5616670658032663 -0.8590419509401293
4125000000.0 0.5467162268171673 -0.876897518247455
4128000000.0 0.5613522329042471 -0.8167212490651026
4131000000.0 0.5220201660260815 -0.8743880686709908
4134000000.0000005 0.5391109436921517 -0.8153630982104818
4138000000.0 0.5254661506887858 -0.8520656103544744
4141000000.0 0.5183419532142601 -0.8708200240724133
4144000000.0 0.555960175979382 -0.8397594618012089
4147000000.0000005 0.5053495269502519 -0.863097516828149
4150000000.0000005 0.5491317815561699 -0.880223669352407
4152999999.9999995 0.5640875862954642 -0.8397527023021062
4155999999.9999995 0.5884472923237744 -0.8576074809090681
4159000000.0 0.5567556415925962 -0.8593305470324617
4162000000.0 0.5501491764206308 -0.8417253723227515
4166000000.0000005 0.5467463163674035 -0.8894740153013142
4168999999.9999995 0.5233592487827962 -0.853733232711185
4171999999.9999995 0.5599699185743433 -0.8411888206741956
4175000000.0 0.5744589617433248 -0.8354193060573173
4178000000.0 0.554729810122697 -0.8654583550693448
4181000000.0 0.5425482390801921 -0.835024174980106
4184000000.0 0.5324027655213928 -0.8607544314553744
4187999999.9999995 0.5507074382156117 -0.859657667492283
4191000000.0 0.6096820044668361 -0.8392409890083289
4194000000.0 0.5203113642923157 -0.8439253309994298
4197000000.0 0.5663690200095841 -0.859143490400029
4200000000.0 0.5809389860539047 -0.8707454693917517
4203000000.0000005 0.5858402112628927 -0.848398958878866
4206000000.0000005 0.5532138793029886 -0.8652687829517672
4208999999.9999995 0.5610675555133459 -0.8214803093571215
4211999999.9999995 0.5398808694122534 -0.8865131740966684
4216000000.0 0.5766587089898743 -0.8442885086001244
4219000000.0000005 0.5708251321582949 -0.8467375673607556
4222000000.0000005 0.5587466720280514 -0.8695608412684983
4224999999.9999995 0.5501418357995735 -0.8376321762219647
4227999999.9999995 0.55225343284905 -0.858877357315953
4231000000.0 0.5441770413874346 -0.8558976277033853
4234000000.0 0.5713404478633501 -0.871715032296045
4238000000.0000005 0.5446692690714889 -0.8535785815987448
4240999999.9999995 0.5419324688102033 -0.8522316271717404
4244000000.0 0.5560338955233601 -0.8626740072637732
4247000000.0 0.56108346660087 -0.861660755535597
4250000000.0 0.5343143080704371 -0.8502724006266166
4253000000.0 0.5471901146832525 -0.8441915008998551
4256000000.0 0.5660246815418014 -0.8718072179232941
4259000000.0000005 0.5411033738991615 -0.8248246221138857
4261999999.9999995 0.5274538784542161 -0.8633229045321844
4266000000.0 0.5266314002500145 -0.8755937048876731
4269000000.0 0.5656902035783099 -0.8417101540722648
4272000000.0000005 0.5523938459396311 -0.8586903884750712
4275000000.0000005 0.5503159324973789 -0.8332259337934413
4277999999.9999995 0.5703657949001737 -0.8895088742060584
4280999999.9999995 0.5661566489995067 -0.8557672147669863
4284000000.0 0.5263098195980733 -0.8688133504143889
4288000000.0000005 0.5501545111733284 -0.8287687615630985
4291000000.0000005 0.5258866779579755 -0.834970978869551
4293999999.9999995 0.5417957166406289 -0.8484017815975561
4297000000.0 0.5621364575384262 -0.8165698773362341
4300000000.0 0.5397341616886201 -0.843030458798847
4303000000.0 0.5225800913180375 -0.8493997446617708
4306000000.0 0.5582876171301435 -0.8284244686447064
4309000000.0 0.5424514253700703 -0.8133198702734079
4312000000.0 0.5843608209183334 -0.8557417630978376
4316000000.0 0.5708006820714605 -0.8691016013085502
4319000000.0 0.5349773964083645 -0.8168313763812923
4322000000.0 0.5150082879000624 -0.8192173773993727
4325000000.0 0.5275134226039198 -0.8616322385059423
4328000000.0 0.5482145103037513 -0.8336342736873414
4331000000.0 0.5270814276832858 -0.8871045993762621
4334000000.0 0.5268498064696532 -0.8601887711570037
4338000000.0 0.5747164237166965 -0.827233077012559
4341000000.0 0.5783514526204754 -0.870622536800776
4344000000.0 0.5805352261206509 -0.8675635837969226
4347000000.0 0.5252797958775679 -0.8803908015748956
4350000000.0 0.534840932712453 -0.8334791774801416
4353000000.0 0.5454165942917615 -0.8169343086235611
4356000000.0 0.5318849642141862 -0.8459714439523276
4359000000.0 0.5379526237857255 -0.8068975182453344
4362000000.0 0.5145055570843347 -0.8838512951344838
4366000000.0 0.5631892790422225 -0.8759431181030547
4369000000.0 0.528537322956902 -0.8412677143587797
4372000000.0 0.5071206846580258 -0.8290249494595878
4375000000.0 0.5481725014666784 -0.8360994883890042
4378000000.0 0.5332138686051298 -0.8216851823484768
4381000000.0 0.5344988993300251 -0.8422075599892503
4384000000.0 0.5567530351277913 -0.89804573608029
4388000000.0 0.5586893070400578 -0.8304426839910767
4391000000.0 0.5371060797888803 -0.8624652069842438
4394000000.0 0.5358572345793648 -0.8220499738383408
4397000000.0 0.525694567776813 -0.8407686036154896
4400000000.0 0.5621586971334516 -0.883063436891599
4403000000.0 0.543238695582525 -0.8537046253058945
4406000000.0 0.5233402121125479 -0.8605857099529866
4409000000.0 0.5685710749516938 -0.8734610320856698
4412000000.0 0.48829138846367637 -0.8641776014442536
4416000000.0 0.5183154610873157 -0.8656255291292712
4419000000.0 0.5218666499772986 -0.8586026591615412
4422000000.0 0.5514164498786579 -0.8418399072469103
4425000000.0 0.5692338983008159 -0.8568079190121872
4428000000.0 0.5269081192075993 -0.8497651367326797
4431000000.0 0.548989792957741 -0.8703074427526614
4434000000.0 0.52680071591308 -0.840801540493037
4438000000.0 0.554911534904432 -0.8695123201648004
4441000000.0 0.5539034266175867 -0.8645655846518567
4444000000.0 0.531743381152634 -0.8323288840873961
4447000000.0 0.5201159861593068 -0.8604445911658445
4450000000.0 0.5416699220525888 -0.8260270367135643
4453000000.0 0.5455457774045163 -0.8755996398963926
4456000000.0 0.5081566465531278 -0.8195459321539266
4459000000.0 0.4908965269000879 -0.821723090770057
4462000000.0 0.5662468575552552 -0.8937372536154191
4466000000.0 0.5267943640050821 -0.8984737360615926
4469000000.0 0.544654722541065 -0.8486461622096546
4472000000.0 0.5276853768546297 -0.8840447622613572
4475000000.0 0.5272143917954786 -0.8257508885073896
4478000000.0 0.5404505632975968 -0.8966775849039164
4481000000.0 0.5097796787029251 -0.8398289081163571
4484000000.0 0.4830402402662451 -0.8785946331115035
4488000000.0 0.5210761876807672 -0.8563093852502823
4491000000.0 0.538979919148498 -0.8790830996774238
4494000000.0 0.5350895611140573 -0.8490888653004511
4497000000.0 0.543858050226191 -0.8336802969120714
4500000000.0 0.5336406353128309 -0.8597480977352843
4503000000.0 0.5524190817211518 -0.8730851078389259
4506000000.0 0.5024256824740658 -0.8512114562188782
4509000000.0 0.5290367345510454 -0.8410398093953584
4512000000.0 0.5245822549762216 -0.8352925064620556
4516000000.0 0.5552478972735929 -0.8460775616177797
4519000000.0 0.5305885328096449 -0.8289374152989233
4522000000.0 0.5110497122001247 -0.8511359879339678
4525000000.0 0.5487389360764351 -0.8209915828335034
4528000000.0 0.533159773571209 -0.8675137280391956
4531000000.0 0.547213601101701 -0.8571901831033912
4534000000.0 0.5086698821425538 -0.8329012985303244
4538000000.0 0.5301239340841374 -0.8507024206790783
4541000000.0 0.4838556889571248 -0.8683907748224806
4544000000.0 0.522536371153736 -0.8346033897957978
4547000000.0 0.5352974329385686 -0.8325342165891014
4550000000.0 0.5133369487411135 -0.8833250023497361
4553000000.0 0.5302172195833215 -0.8486090006394729
4556000000.0 0.4937634460101553 -0.8548310696076956
4559000000.0 0.5047659303483792 -0.8717199965468071
4562000000.0 0.5541349277562531 -0.8552693419187358
4566000000.0 0.5271138667155232 -0.8695995147493192
4569000000.0 0.5019282404283906 -0.8410483950403773
4572000000.0 0.5234348783152883 -0.863205908632786
4575000000.0 0.5052340339760484 -0.8759199425927353
4578000000.0 0.5447342017280572 -0.8728698069086877
4581000000.0 0.49213854677391833 -0.8826898404401213
4584000000.0 0.514614355515924 -0.8577809625679352
4588000000.0 0.5491943169699153 -0.8600472511183971
4591000000.0 0.5366567037267661 -0.8347926923468032
4594000000.0 0.5012419943602295 -0.8759848373730841
4597000000.0 0.5164940119309362 -0.8660769193546063
4600000000.0 0.493311408888509 -0.8635547353992298
4603000000.0 0.5183646714608628 -0.8772436521344827
4606000000.0 0.5214334785054913 -0.8811286054542794
4609000000.0 0.5255837562502562 -0.8610882778192883
4612000000.0 0.5212765088160449 -0.8649277494431266
4616000000.0 0.503909744074797 -0.8567186645488979
4619000000.0 0.5216017529924503 -0.8740788842274625
4622000000.0 0.503762227035311 -0.8657124558162966
4625000000.0 0.47570139779608944 -0.8540207864614359
4628000000.0 0.5247759050646132 -0.8613179214578119
4631000000.0 0.4932846042191916 -0.8684267553909604
4634000000.0 0.5149608543012182 -0.8679328819841927
4638000000.0 0.508736837056745 -0.8637378873774382
4641000000.0 0.5203761979788035 -0.8595709927830717
4644000000.0 0.5090357394923092 -0.852858957326565
4647000000.0 0.5323064433373138 -0.8697440313499649
4650000000.0 0.4909615559697914 -0.8687856763886795
4653000000.0 0.5339954815909319 -0.8818195722830194
4656000000.0 0.4975292897650996 -0.871396199689094
4659000000.0 0.5108649604100506 -0.8880228277294537
4662000000.0 0.5094232205964846 -0.8813008755549085
4666000000.0 0.4944119389577729 -0.8724166217398677
4669000000.0 0.5130564229889496 -0.8581549109449502
4672000000.0 0.4865571138642054 -0.8826577824106868
4675000000.0 0.5022562889134374 -0.8836435868611908
4678000000.0 0.49089956740928187 -0.8555491440521379
4681000000.0 0.4901213134670667 -0.8978665064702178
4684000000.0 0.45637799952961733 -0.8810142473363398
4688000000.0 0.46564491903635163 -0.8825481746097155
4691000000.0 0.5231125074511344 -0.8900214758745192
4694000000.0 0.501120788648286 -0.881253577566964
4697000000.0 0.4902476911243866 -0.8481139775012373
4700000000.0 0.5112788549605886 -0.8536193127037679
4703000000.0 0.507408541416592 -0.8555893199770915
4706000000.0 0.4771260101339245 -0.8890428005210083
4709000000.0 0.48170299913448406 -0.8586713422529709
4712000000.0 0.5106069864551881 -0.8598167743507805
4716000000.0 0.5124207112134709 -0.8946769561627573
4719000000.0 0.5161566538283615 -0.8445394028367429
4722000000.0 0.5118514222982626 -0.8705027362336936
4725000000.0 0.5304277730938556 -0.8798354295761445
4728000000.0 0.5269509907103259 -0.8812934490254365
4731000000.0 0.5253186658843536 -0.9179139698061054
4734000000.0 0.5172575003678439 -0.8453001125321743
4738000000.0 0.5134068479517283 -0.8830683687716716
4741000000.0 0.5368362941070814 -0.8993790162427546
4744000000.0 0.4854560231906677 -0.9055819726699336
4747000000.0 0.5230562779538236 -0.8455617648032763
4750000000.0 0.5122240500060016 -0.9165861486181555
4753000000.0 0.5302189863662855 -0.9139920927594419
4756000000.0 0.5025874504294473 -0.9047626892319051
4759000000.0 0.5189507277024635 -0.895169471579937
4762000000.0 0.5022199671541083 -0.914338911413476
4766000000.0 0.4960698362210824 -0.8707715118090864
4769000000.0 0.5119899902177178 -0.916581429129979
4772000000.0 0.511762298520533 -0.8631588544792751
4775000000.0 0.5201198453696054 -0.9218224863419727
4778000000.0 0.5017546803103173 -0.8868578346177476
4781000000.0 0.5120914955537395 -0.8794261052759351
4784000000.0 0.5184557770575741 -0.8775224617185221
4788000000.0 0.5096488516873054 -0.9093555404749085
4791000000.0 0.48798694906773843 -0.8710360555602034
4794000000.0 0.5174064057773847 -0.9125537235073186
4797000000.0 0.47341298720529656 -0.8848185788839297
4800000000.0 0.4710260890242431 -0.868584903413548
4803000000.0 0.43422056458519803 -0.9004949234585251
4806000000.0 0.4994080836482423 -0.8898498580206707
4809000000.0 0.44850058312427465 -0.9221494238902503
4812000000.0 0.4667891463534243 -0.8880300472483644
4816000000.0 0.5238789326490398 -0.8482624398052714
4819000000.0 0.523840156159581 -0.9128021709788785
4822000000.0 0.5149749117921272 -0.8981685746193364
4825000000.0 0.5373335322097147 -0.8785040752069014
4828000000.0 0.5074132276096094 -0.8772749313627275
4831000000.0 0.45821156445312217 -0.9259219080359677
4834000000.0 0.5113937187189213 -0.8805281895684052
4838000000.0 0.47314016777637785 -0.9089039420029598
4841000000.0 0.49901573370808433 -0.8787811092359301
4844000000.0 0.5343019989014512 -0.8781146734996967
4847000000.0 0.50444431970567 -0.8440804876287546
4850000000.0 0.4959399338699705 -0.9318326797698534
4853000000.0 0.49877213907954054 -0.8571088866288427
4856000000.0 0.5050254222866266 -0.8857814828500598
4859000000.0 0.5164807629621305 -0.9198712140335321
4862000000.0 0.5059227353764526 -0.852781079700507
4866000000.0 0.5112717146136391 -0.9048973865536721
4869000000.0 0.5041639435194342 -0.8982868300706365
4872000000.0 0.4972197880861663 -0.9208340503370326
4875000000.0 0.5706341420017917 -0.8851892148539866
4878000000.0 0.49817595095284056 -0.9116512768938574
4881000000.0 0.477452472538005 -0.9643153955620432
4884000000.0 0.4959409107390784 -0.8875969109675542
4888000000.0 0.514191128579128 -0.8680392116074288
4891000000.0 0.5309597059195348 -0.8913026129398927
4894000000.0 0.48063863678915625 -0.9065297911951259
4897000000.0 0.5212820004285768 -0.8852591783372188
4900000000.0 0.5199929145521301 -0.9302980902832518
4903000000.0 0.5275352819816467 -0.9021632082432445
4906000000.0 0.5351102511354007 -0.9055787649447973
4909000000.0 0.5014739765780998 -0.8939795844449663
4912000000.0 0.5102736810739156 -0.9235300168627156
4916000000.0 0.510017519137897 -0.9034092411140459
4919000000.0 0.5776603848721725 -0.8778355484834517
4922000000.0 0.5282982731140957 -0.8876700976811859
4925000000.0 0.46766103175446855 -0.9025324444386519
4928000000.0 0.525946852807931 -0.8279782576987093
4931000000.0 0.554416694170339 -0.8883829801174518
4934000000.0 0.5255605284746311 -0.8431710222202369
4938000000.0 0.4861006589063367 -0.9072637472364196
4941000000.0 0.5039608189130655 -0.8621125171179518
4944000000.0 0.5253882563999763 -0.8364099532815218
4947000000.0 0.502255641885402 -0.8757942233832898
4950000000.0 0.5088771648473681 -0.8711928133495984
4953000000.0 0.4702729318217549 -0.9439897635350473
4956000000.0 0.48050485623614697 -0.9313049922603591
4959000000.0 0.4442038348236687 -0.8834279990822967
4962000000.0 0.49832098242109923 -0.9184411274793882
4966000000.0 0.5415115744387218 -0.9107756541051433
4969000000.0 0.5800412968731025 -0.8778896481272016
4972000000.0 0.5248100969334402 -0.9303295438768355
4975000000.0 0.5268118293528379 -0.8621869398709524
4978000000.0 0.5007910760180464 -0.8902241955756605
4981000000.0 0.5172798295271949 -0.8990848598200687
4984000000.0 0.524144439521739 -0.8727530339879175
4988000000.0 0.5326997693834012 -0.8441133847268345
4991000000.0 0.579654929350222 -0.8524383434778525
4994000000.0 0.5439760352508236 -0.8745011705905119
4997000000.0 0.504073325875186 -0.9029351622830664
5000000000.0 0.5769699505569978 -0.9132889069383916
5003000000.0 0.5371692284948066 -0.9003099098045193
5006000000.0 0.5096719156056113 -0.9723848861009322
5009000000.0 0.5392411660133245 -0.8849118617681377
5012000000.0 0.5133048892649199 -0.8989050414099281
5016000000.0 0.5789513143769971 -0.8992435916866378
5019000000.0 0.5393172607411465 -0.893911042354171
5022000000.0 0.5347237378334958 -0.902686202067738
5025000000.0 0.5474238179515057 -0.9539667763917553
5028000000.0 0.5026810173295622 -0.8978895217951142
5031000000.0 0.509653912650624 -0.8707373364584288
5034000000.0 0.5103139028436785 -0.9225048113801398
5038000000.0 0.5164723482881773 -0.8662124223739076
5041000000.0 0.5622461545868933 -0.8743544327605381
5044000000.0 0.5510504892581057 -0.834566452349699
5047000000.0 0.5575369012139635 -0.8980220959525371
5050000000.0 0.6027814420656284 -0.8401072103517075
5053000000.0 0.5448738146519317 -0.9336975100042388
5056000000.0 0.5723831211574388 -0.8623808124786562
5059000000.0 0.5509638681405267 -0.8570126699973152
5062000000.0 0.5218661461576207 -0.9285906449034281
5066000000.0 0.5448432016706937 -0.839217533456316
5069000000.0 0.5269321232151092 -0.9144857907452486
5072000000.0 0.5157289023809332 -0.8412347170585419
5075000000.0 0.5532156667546769 -0.8442264339504439
5078000000.0 0.5082897823824046 -0.8864075579213049
5081000000.0 0.4968212121949877 -0.8516388647299009
5084000000.0 0.5399101177457237 -0.8339350567020473
5088000000.0 0.5535844354481052 -0.8702181483811048
5091000000.0 0.5131966051665606 -0.910260959179204
5094000000.0 0.5213754160718505 -0.8915472182995007
5097000000.0 0.5838802118229665 -0.8628276793461386
5100000000.0 0.5084807545442975 -0.835798026511942
5103000000.0 0.5059339681179613 -0.9116320691822762
5106000000.0 0.5757360405162437 -0.9227579797256622
5109000000.0 0.5705305736015985 -0.8684486528093044
5112000000.0 0.5092700073606222 -0.8905546216825988
5116000000.0 0.5212315232868735 -0.8397975261855326
5119000000.0 0.5467303338988736 -0.9071758772199208
5122000000.0 0.5179788987136273 -0.8802958238901021
5125000000.0 0.546486277893014 -0.878713065141375
5128000000.0 0.5330914539868092 -0.8881501913748312
5131000000.0 0.49963509449262217 -0.8511348679109552
5134000000.0 0.5134580048546069 -0.8727062255241123
5138000000.0 0.5660298801150169 -0.8750583631110733
5141000000.0 0.5836786192240915 -0.823960771109975
5144000000.0 0.5409387871033302 -0.8625628158328738
5147000000.0 0.5669582460616341 -0.8752334503053418
5150000000.0 0.6268842764555831 -0.8767152677788543
5153000000.0 0.549160674663212 -0.9041897178820928
5156000000.0 0.5507506868702595 -0.8889091897064033
5159000000.0 0.5362033218985417 -0.8982650369655829
5162000000.0 0.532912409950117 -0.8396041530397709
5166000000.0 0.5269775417729414 -0.900014762275444
5169000000.0 0.5742221532434604 -0.8958440828812743
5172000000.0 0.5508483184259808 -0.8539109060233114
5175000000.0 0.6128021505257573 -0.8677264572199372
5178000000.0 0.5573820129943552 -0.8602039781869697
