! Created with skrf 1.8.0 (http://scikit-rf.org).
# Hz S RI R 50.0 
!freq ReS11 ImS11
4000000000.0 0.483878863300093 -0.8790244887067348
4003000000.0 0.47739348671609194 -0.9504297859350714
4006000000.0 0.4429478371400839 -0.9208016199331538
4009000000.0000005 0.4742958222340657 -0.8798279972703164
4011999999.9999995 0.5079260649806867 -0.9248880154961153
4016000000.0 0.4338894680923826 -0.9486240884304245
4019000000.0 0.5126415078479142 -0.9093669156040532
4022000000.0000005 0.5357840952098021 -0.8827199637577707
4025000000.0000005 0.5009784943825184 -0.9420910390676217
4027999999.9999995 0.4791137950477279 -0.9696787289626807
4030999999.9999995 0.4575881551455292 -0.8812404023024367
4034000000.0 0.4732706629695206 -0.8835965330044333
4038000000.0000005 0.46115662427481197 -0.8959879240828732
4041000000.0000005 0.5007753061834186 -0.9309399922331666
4043999999.9999995 0.5040623210727895 -0.9572024866772876
4046999999.9999995 0.500682020567758 -0.9261155126561348
4050000000.0 0.4958368843640187 -0.9292852596702607
4053000000.0 0.41383945999886135 -0.9025983264221469
4056000000.0 0.4855628549736617 -0.8947614351980069
4059000000.0 0.4912376758642534 -0.8801456116452356
4062000000.0000005 0.46847774924512653 -0.9210615352988294
4066000000.0 0.4269775637356024 -0.8632590517116009
4069000000.0 0.46300909304579285 -0.9464063241712246
4072000000.0 0.4932589297891784 -0.9111362753118165
4075000000.0 0.5100426869038387 -0.9200038581211845
4078000000.0000005 0.4565767630766077 -0.9444807222926174
4081000000.0000005 0.5444086621023083 -0.8868858866603412
4083999999.9999995 0.4737169821061319 -0.9299968407989573
4088000000.0 0.4623701704537442 -0.8461283819721426
4091000000.0 0.5218205390613467 -0.959284009012683
4094000000.0000005 0.46990281620937163 -0.9291780500192589
4097000000.0000005 0.5055428874671077 -0.8705401251355966
4099999999.9999995 0.48900805275809256 -0.9026359258500541
4102999999.9999995 0.4767395760474996 -0.9573757755805495
4106000000.0 0.4912058859228141 -0.9294437131420534
4109000000.0 0.43624656440286624 -0.9551591122534311
4112000000.0 0.4508370049343967 -0.9018922492623483
4115999999.9999995 0.491588880914007 -0.8993158826189339
4119000000.0 0.43331964682294855 -0.9309656427540394
4122000000.0 0.4429661929247182 -0.903227458163426
4125000000.0 0.48840347520998095 -0.9482721604300876
4128000000.0 0.49464556216429223 -0.8504336815279501
4131000000.0 0.44260753226209915 -0.9122549352811363
4134000000.0000005 0.4728634401229796 -0.8722333796777977
4138000000.0 0.4556923144358704 -0.8917439877277459
4141000000.0 0.46635808752507213 -0.9095204443123102
4144000000.0 0.4921096775229656 -0.9274295996381053
4147000000.0000005 0.47572800097192725 -0.9085473940215004
4150000000.0000005 0.4637539628178095 -0.9325648727329564
4152999999.9999995 0.4717434008846318 -0.897417218189799
4155999999.9999995 0.47103258351880317 -0.9254225482108622
4159000000.0 0.44828421594688544 -0.8625722584506968
4162000000.0 0.45118288297955 -0.8894484196971825
4166000000.0000005 0.4669081987829347 -0.9242274329534667
4168999999.9999995 0.42973748006146595 -0.899533083969228
4171999999.9999995 0.4613270368867557 -0.9240396908291177
4175000000.0 0.46993503948869025 -0.9248837805233624
4178000000.0 0.4966900950920473 -0.9233416331793933
4181000000.0 0.44732744014621106 -0.918187659825575
4184000000.0 0.46999194636825514 -0.8875069158109372
4187999999.9999995 0.4606247201361804 -0.888005839684188
4191000000.0 0.47025920104990726 -0.8694673530517245
4194000000.0 0.44060427720969125 -0.8871626148004463
4197000000.0 0.47409416250725755 -0.9168189018523942
4200000000.0 0.45871718551961094 -0.9057355554668062
4203000000.0000005 0.4945890222363201 -0.9035364193220612
4206000000.0000005 0.4818759984595037 -0.9357173935002411
4208999999.9999995 0.46040638725049793 -0.9044409467736417
4211999999.9999995 0.45053908855328906 -0.9173654463315353
4216000000.0 0.4907682045401691 -0.9154642168527503
4219000000.0000005 0.473485632266359 -0.9018424502529427
4222000000.0000005 0.48535900228103046 -0.9062562953311476
4224999999.9999995 0.463513558037989 -0.8988480393087267
4227999999.9999995 0.4733164402783857 -0.912075562586847
4231000000.0 0.4660177258806935 -0.9041709685532978
4234000000.0 0.4509471881547941 -0.9152335710877167
4238000000.0000005 0.4638602242442907 -0.9064932929166519
4240999999.9999995 0.44579194646721765 -0.9024931604713133
4244000000.0 0.4665922252745126 -0.8946340211838636
4247000000.0 0.47012881210227875 -0.9070064478314509
4250000000.0 0.42617591578316055 -0.8903663987703317
4253000000.0 0.4275908416644981 -0.8907588183390993
4256000000.0 0.4741002162373785 -0.9259751670674723
4259000000.0000005 0.4380165723142292 -0.8880359539141065
4261999999.9999995 0.4363699909167876 -0.9067172023979502
4266000000.0 0.43274745492508887 -0.9334515666220085
4269000000.0 0.4589248284622587 -0.8891206160296588
4272000000.0000005 0.46281405116504365 -0.9080250741391093
4275000000.0000005 0.46106124206317184 -0.8865959022395486
4277999999.9999995 0.46265452820845443 -0.9284313098842565
4280999999.9999995 0.46488418536043374 -0.9038207045504283
4284000000.0 0.4121005521193408 -0.9545837237108135
4288000000.0000005 0.48260173577159304 -0.8913306378658279
4291000000.0000005 0.4399156210211947 -0.8682822658134249
4293999999.9999995 0.4194797016684179 -0.8963400744270229
4297000000.0 0.4631102869793752 -0.89453204251161
4300000000.0 0.4684381293602046 -0.8635521247760546
4303000000.0 0.4367002341374012 -0.911400653095394
4306000000.0 0.47144055217942965 -0.871943201232534
4309000000.0 0.4686112007390623 -0.8575420200756254
4312000000.0 0.4948014547652311 -0.9059596615334193
4316000000.0 0.49035284717509076 -0.9343053989220499
4319000000.0 0.4695804385116717 -0.8865944025152069
4322000000.0 0.4284652688157304 -0.8880743284794524
4325000000.0 0.46246852880960165 -0.8933112391449436
4328000000.0 0.47163518766158014 -0.9131170756590281
4331000000.0 0.44108047282671803 -0.9274229903470875
4334000000.0 0.4380776176785857 -0.9290192619869853
4338000000.0 0.4794984640520533 -0.9042420349108489
4341000000.0 0.4667603805222722 -0.8833203434738749
4344000000.0 0.45595397376082614 -0.9083450707985812
4347000000.0 0.4285609992564544 -0.915965822751439
4350000000.0 0.4273653080715022 -0.8827506676248669
4353000000.0 0.468316184457008 -0.878383221454211
4356000000.0 0.4140476634960858 -0.8983531774658765
4359000000.0 0.40383609302526574 -0.8654146712905523
4362000000.0 0.4025897514232355 -0.9432710917286122
4366000000.0 0.4642022236955272 -0.9286805177126101
4369000000.0 0.41518179853647064 -0.8940516333874432
4372000000.0 0.4006893727365078 -0.9193081941875492
4375000000.0 0.45568967940613453 -0.9048151671783818
4378000000.0 0.4211023012251587 -0.8868251836592588
4381000000.0 0.4234546872068341 -0.8878378975174405
4384000000.0 0.4525147336597465 -0.9726254629321265
4388000000.0 0.4416317448854567 -0.8902059845231391
4391000000.0 0.4359115305306064 -0.9218760494758684
4394000000.0 0.4128997377207745 -0.8900972201918865
4397000000.0 0.41268493789398547 -0.8912052699987525
4400000000.0 0.42859822128379904 -0.9363554768045053
4403000000.0 0.43184412996057975 -0.9131168745890978
4406000000.0 0.4200076325220399 -0.9188976386680802
4409000000.0 0.43018775048278957 -0.9329228643108816
4412000000.0 0.39067355445979224 -0.9208725468552602
4416000000.0 0.4024089997033894 -0.9133133255643759
4419000000.0 0.40863185879322994 -0.9302468436431656
4422000000.0 0.4267547885169793 -0.9044393603892348
4425000000.0 0.4502385467398208 -0.9247841967142365
4428000000.0 0.42090958859667116 -0.9282903508198055
4431000000.0 0.4318988756038953 -0.923890560494259
4434000000.0 0.40470929195701505 -0.9010168047112028
4438000000.0 0.43657571333505923 -0.9413953997377855
4441000000.0 0.43376053920033797 -0.9131902562922338
4444000000.0 0.4132145515790952 -0.9008802252507194
4447000000.0 0.3999858975584636 -0.9234659210889338
4450000000.0 0.4309078131490439 -0.8905989690497063
4453000000.0 0.43309007805083805 -0.9395465497491182
4456000000.0 0.3892872252139504 -0.8958795308807203
4459000000.0 0.3934997747948762 -0.8905867550772126
4462000000.0 0.4396493009374208 -0.9807096207456236
4466000000.0 0.4138846633678693 -0.9580964669790595
4469000000.0 0.43420816701233267 -0.9001176207796013
4472000000.0 0.40860679951005574 -0.9471272562206949
4475000000.0 0.4053980887300634 -0.8911209480032649
4478000000.0 0.40796967866306805 -0.9432201501082704
4481000000.0 0.405953330416898 -0.8964361776326845
4484000000.0 0.3710008523190602 -0.9305783337638182
4488000000.0 0.4001096181055526 -0.9339375428528847
4491000000.0 0.409898482935199 -0.9293795750872893
4494000000.0 0.41500032068248793 -0.9120602113119836
4497000000.0 0.4108942704116922 -0.9027827824286201
4500000000.0 0.42066603492122107 -0.9363154781869514
4503000000.0 0.440777373559192 -0.9317111762780494
4506000000.0 0.38489111465114156 -0.9172967617003125
4509000000.0 0.3825125709950155 -0.903905199152619
4512000000.0 0.3845065580527275 -0.8992263131576507
4516000000.0 0.4059459419582315 -0.9539875963713774
4519000000.0 0.4035441294439527 -0.8925152315280116
4522000000.0 0.38694400874319834 -0.9172859004875425
4525000000.0 0.43108211693906845 -0.9079537657946104
4528000000.0 0.39205634258408667 -0.9258056711295378
4531000000.0 0.4083047008414723 -0.9407962114813824
4534000000.0 0.39778643662104546 -0.8966271968867876
4538000000.0 0.3920238870934386 -0.926883754820458
4541000000.0 0.3739110603914774 -0.9395718149803145
4544000000.0 0.4029177290918737 -0.9142924775768331
4547000000.0 0.39786393136311754 -0.9024777158996515
4550000000.0 0.3759819987132906 -0.9205839940424234
4553000000.0 0.3674545289512837 -0.9248854859052285
4556000000.0 0.39130333359129926 -0.9189429061091301
4559000000.0 0.38180644119862117 -0.938304977959961
4562000000.0 0.4162345158187801 -0.9495449120207899
4566000000.0 0.3993160707939029 -0.917784775045148
4569000000.0 0.3687370759167343 -0.9295896332321925
4572000000.0 0.37991046275028717 -0.928414772592752
4575000000.0 0.38446363635668107 -0.944323456509259
4578000000.0 0.4116866342089613 -0.9395536725017976
4581000000.0 0.3739985948976984 -0.9301339485331002
4584000000.0 0.375164163046138 -0.9271580417650668
4588000000.0 0.40647691923208745 -0.9277218816147668
4591000000.0 0.3890605865924178 -0.9296539729756641
4594000000.0 0.35730743092838624 -0.9368216140805432
4597000000.0 0.37766602223305146 -0.9542351950688531
4600000000.0 0.34562157722190984 -0.9281083640519685
4603000000.0 0.3549497971949255 -0.9279810080785454
4606000000.0 0.37526778920842463 -0.9498474083730832
4609000000.0 0.377565603294738 -0.9508248698939358
4612000000.0 0.37178526700638087 -0.9324153720335444
4616000000.0 0.38039340477653194 -0.9177421071097784
4619000000.0 0.37306975446003754 -0.9300865376986053
4622000000.0 0.35298696198939983 -0.9454630585725605
4625000000.0 0.3496943273860779 -0.9238798292475587
4628000000.0 0.3846559493882763 -0.9371902647624551
4631000000.0 0.3403915135704635 -0.9353119258372674
4634000000.0 0.34993029511093704 -0.9462158284514084
4638000000.0 0.3590218122626678 -0.9459148240580181
4641000000.0 0.3719169939610316 -0.9231296107693417
4644000000.0 0.37661879101075535 -0.9195585558331607
4647000000.0 0.36911176822479624 -0.95490712393934
4650000000.0 0.3444856803794263 -0.927037969137192
4653000000.0 0.3698094754297355 -0.946891038789662
4656000000.0 0.37228320627045847 -0.945155470705923
4659000000.0 0.33530737079726103 -0.9457664634093579
4662000000.0 0.368113847431406 -0.9418281762634646
4666000000.0 0.34490222713443136 -0.9440645333717297
4669000000.0 0.36873602394613314 -0.943494518072729
4672000000.0 0.33743806237828367 -0.9489661637349631
4675000000.0 0.350400685975742 -0.9685013162486529
4678000000.0 0.3579456537653591 -0.9515187078185847
4681000000.0 0.34111040453660973 -0.9603009825817858
4684000000.0 0.3246030621877221 -0.9593925365939872
4688000000.0 0.33552399169041447 -0.9528873468370912
4691000000.0 0.38292815658206913 -0.9630227936142252
4694000000.0 0.35797672369478856 -0.9406361409009226
4697000000.0 0.316986671632719 -0.9484390854695737
4700000000.0 0.36605521955053316 -0.9456117265265817
4703000000.0 0.4030589452518724 -0.8817087294691682
4706000000.0 0.32917190893212545 -0.95519531764264
4709000000.0 0.33802900225815363 -0.9530540699708185
4712000000.0 0.3482596842573381 -0.942331438827371
4716000000.0 0.33972938163042177 -0.952681913034622
4719000000.0 0.3386228769445582 -0.9525388271935038
4722000000.0 0.37316084168944097 -0.980854026258106
4725000000.0 0.369756497801318 -0.9476477125740685
4728000000.0 0.35446989890990216 -0.9496455200424697
4731000000.0 0.3437516543940539 -0.9876658722213577
4734000000.0 0.3665289435787984 -0.933557072311824
4738000000.0 0.37487085039429385 -0.9792516674733373
4741000000.0 0.3667801934279855 -0.973765009004264
4744000000.0 0.34658413399109994 -0.9650932298180197
4747000000.0 0.3466690052206139 -0.9189131051794545
4750000000.0 0.34484708293985683 -0.9881739138357003
4753000000.0 0.34322141546191953 -0.959477674398334
4756000000.0 0.3482196401581833 -0.9621484615784807
4759000000.0 0.37050678538989823 -0.9789084941886835
4762000000.0 0.32772068177998365 -1.0122201255731693
4766000000.0 0.3378331085820277 -0.9599860755008418
4769000000.0 0.3351270110048338 -0.9478518779514539
4772000000.0 0.3415051624152824 -0.9756588681560167
4775000000.0 0.32831678316850016 -1.0236916899488275
4778000000.0 0.3492201605145963 -0.9570642411551851
4781000000.0 0.3732842413080024 -0.9501048345287312
4784000000.0 0.3431256085321073 -0.9398364503065846
4788000000.0 0.3364237513825037 -0.9820367251188615
4791000000.0 0.29562271408908286 -0.942425579696279
4794000000.0 0.3660741249470293 -0.9970981284410705
4797000000.0 0.3143627666961395 -0.936503475405885
4800000000.0 0.3062413695083989 -0.9406273186679982
4803000000.0 0.2734743897884935 -0.95895657185179
4806000000.0 0.353641472368484 -0.9826456150209739
4809000000.0 0.2981119888068025 -0.9644033557059777
4812000000.0 0.296498547163481 -0.9633950955891966
4816000000.0 0.32350034946894 -0.9493005937813145
4819000000.0 0.35395761816024673 -0.9798145975042215
4822000000.0 0.3512720067667251 -1.0017866357343082
4825000000.0 0.3841064524632172 -0.9668198407290809
4828000000.0 0.3345002615844918 -0.9514982642114573
4831000000.0 0.31747105914875884 -0.9982727898050775
4834000000.0 0.34838472489861594 -0.9533955940525202
4838000000.0 0.30828932447525054 -0.963619413124659
4841000000.0 0.308184381501409 -0.9490017708787994
4844000000.0 0.3454977645117612 -0.9566645062238769
4847000000.0 0.3421579524448797 -0.9273283314989074
4850000000.0 0.3120871674289329 -0.9839616846739657
4853000000.0 0.33465620634381826 -0.9437016083451658
4856000000.0 0.2996022675504426 -0.9506195219877138
4859000000.0 0.3288300044135331 -1.028363561568556
4862000000.0 0.3543302106872187 -0.9424275902230497
4866000000.0 0.30621296088601824 -0.9866205495530391
4869000000.0 0.31600888941933947 -0.98985390110263
4872000000.0 0.30808223036754084 -1.0062930107316714
4875000000.0 0.3780291466910459 -0.9837198558293092
4878000000.0 0.33237856540881056 -0.9894490978753698
4881000000.0 0.30812078469477044 -1.0368760402786916
4884000000.0 0.3360070481968966 -0.9834407548851308
4888000000.0 0.3615881433257137 -0.9664186635877917
4891000000.0 0.35298513627860073 -0.9819207799671085
4894000000.0 0.295199385162641 -0.9631171655652392
4897000000.0 0.36521375451363125 -0.9314653176388429
4900000000.0 0.3367801016873768 -0.9738601356521213
4903000000.0 0.3517780753654851 -0.9793302855146169
4906000000.0 0.3295444650241308 -0.9939583959328491
4909000000.0 0.31744571234496133 -0.9624291497268072
4912000000.0 0.31891070590913534 -1.0250599217863403
4916000000.0 0.3651937021121263 -1.0047284603665607
4919000000.0 0.35720656104799287 -0.9876708108931854
4922000000.0 0.37542516730649234 -1.004902077837185
4925000000.0 0.33323910595408596 -0.9820482916703669
4928000000.0 0.36959284537842185 -0.970925924575285
4931000000.0 0.35369113488586124 -0.9876535668166314
4934000000.0 0.3044959206476326 -0.9222220010217383
4938000000.0 0.29082887206332886 -0.9914395905054165
4941000000.0 0.30202688657272647 -0.9572841159717218
4944000000.0 0.3191654805274836 -0.9062286978476939
4947000000.0 0.3080528372553527 -0.9275631955188666
4950000000.0 0.2907772273218322 -0.9358344404006559
4953000000.0 0.3125355757093668 -0.9936830088945873
4956000000.0 0.31371441480758433 -0.9963829227841202
4959000000.0 0.2284736831085376 -0.9680161587185151
4962000000.0 0.36012355072005786 -1.0005889739062037
4966000000.0 0.3158493109537515 -1.019929555900705
4969000000.0 0.37271599986616716 -1.0175190488757446
4972000000.0 0.30356906105454173 -0.9857319762419925
4975000000.0 0.33419875320413495 -0.9388538023105508
4978000000.0 0.30546213521034893 -0.9772282206656645
4981000000.0 0.2968991661867675 -0.9990112590603082
4984000000.0 0.314145978328222 -0.9630998270157373
4988000000.0 0.3513749010020401 -0.9591965022718173
4991000000.0 0.34793279435830476 -0.9896589471106176
4994000000.0 0.35217113890857465 -0.979541236458864
4997000000.0 0.29601744990522627 -0.9712119287732387
5000000000.0 0.3404098178583563 -1.0416420190590314
5003000000.0 0.3172048049133405 -1.003846188220746
5006000000.0 0.341103062431777 -1.0108308499425407
5009000000.0 0.3080924350555205 -0.9956521095732631
5012000000.0 0.3204844873529149 -1.0015663624328168
5016000000.0 0.36099714936870725 -1.0010408043350998
5019000000.0 0.3443357832066022 -1.0083389968563403
5022000000.0 0.29046041716861587 -0.9989695542566577
5025000000.0 0.3268112752464105 -1.0455669135513905
5028000000.0 0.3185499953188246 -0.9919764404537752
5031000000.0 0.29960046065626905 -1.0073178218777696
5034000000.0 0.2954011553060788 -1.0048415486526694
5038000000.0 0.30109430196944875 -0.9452269492781037
5041000000.0 0.3606259170022982 -0.9607422873972353
5044000000.0 0.3498410268144902 -0.970073791921807
5047000000.0 0.3266137372699223 -0.9907769685278808
5050000000.0 0.4048120599314944 -0.9441934803931182
5053000000.0 0.3263441612807446 -0.9957810317969571
5056000000.0 0.36961380940255933 -0.9554603828985304
5059000000.0 0.3374666371624431 -0.96521895273702
5062000000.0 0.2937456154158681 -1.0307365395552284
5066000000.0 0.33210893399829 -0.9859273584650039
5069000000.0 0.3104569467406031 -0.9781709228442506
5072000000.0 0.314536586745413 -0.9638143705303647
5075000000.0 0.3746039528155696 -0.9445074965034144
5078000000.0 0.283087008935457 -1.0275468164663843
5081000000.0 0.3116830478901053 -0.973351621106949
5084000000.0 0.3206519848770552 -1.0083610439638178
5088000000.0 0.3303695287879563 -0.9613547248737457
5091000000.0 0.3137336978918693 -1.0150864396096484
5094000000.0 0.304932411357518 -0.973879152487504
5097000000.0 0.35050082691696877 -0.9726545588659674
5100000000.0 0.300172355444191 -0.9802001203950488
5103000000.0 0.2880495489569714 -0.982950000472762
5106000000.0 0.33977979876704023 -0.9631387661517796
5109000000.0 0.3754822015186242 -0.951189456526143
5112000000.0 0.29791418621317894 -0.9413494726849121
5116000000.0 0.3309624334778256 -0.9100515759891509
5119000000.0 0.3230865075889163 -0.9851171431512709
5122000000.0 0.33457632148853284 -0.9667225302374065
5125000000.0 0.33593924905570444 -0.9257544573401995
5128000000.0 0.30455841994034555 -0.9969777755005627
5131000000.0 0.3177538072829211 -0.9556837468361423
5134000000.0 0.3544963383239711 -0.9855993192556851
5138000000.0 0.3337244249160665 -0.9774160719727256
5141000000.0 0.3624387980279548 -0.9885078540576795
5144000000.0 0.3080589180393054 -0.9922927918032757
5147000000.0 0.3303435682065544 -1.004806409367287
5150000000.0 0.34352787028195036 -0.9730750213023327
5153000000.0 0.3181188802461909 -1.0309226739832518
5156000000.0 0.3154380054033119 -1.0077929807243422
5159000000.0 0.29747121054449577 -0.9984959645806393
5162000000.0 0.32224924537622057 -1.0247463684191036
5166000000.0 0.31269833001896036 -1.011182531897457
5169000000.0 0.3235807962431899 -0.9870064210404143
5172000000.0 0.2897842932752965 -1.0299727632152111
