! Created with skrf 1.8.0 (http://scikit-rf.org).
# Hz S RI R 50.0 
!freq ReS11 ImS11
4000000000.0 -0.19804630261310413 -0.9862743243137124
4003000000.0 -0.2367265077202929 -1.0285972602837092
4006000000.0 -0.25362742064821625 -1.0071103265167594
4009000000.0000005 -0.23438574609503543 -0.9973026831535261
4011999999.9999995 -0.18612952023622423 -1.0403498215901361
4016000000.0 -0.24247659244868844 -0.9984111923596367
4019000000.0 -0.21983624921754258 -0.9874958226255605
4022000000.0000005 -0.2448091310450464 -1.0333300767214335
4025000000.0000005 -0.25831125132429467 -0.9760886129931804
4027999999.9999995 -0.2813170286874921 -0.9911932964334049
4030999999.9999995 -0.26974378824508843 -0.9866488215837821
4034000000.0 -0.27137620687938824 -0.9601085266904303
4038000000.0000005 -0.3008927293515665 -0.9669045993045604
4041000000.0000005 -0.26713509473624353 -0.955936287415734
4043999999.9999995 -0.2660989716842676 -1.0001113917572464
4046999999.9999995 -0.31666191899633006 -1.0162547953801924
4050000000.0 -0.3043988599806304 -0.9942426832129644
4053000000.0 -0.299535939134135 -0.9770579381512882
4056000000.0 -0.31524926068086695 -0.98538492046474
4059000000.0 -0.3370713178711448 -0.9191176590616229
4062000000.0000005 -0.30550748763474894 -0.988245977854682
4066000000.0 -0.3283982766180799 -0.9670162706642712
4069000000.0 -0.36534261873412277 -0.9628384727809314
4072000000.0 -0.38539794511579734 -0.9485916581101635
4075000000.0 -0.39608675890712 -0.9598871427789535
4078000000.0000005 -0.37991454301349437 -0.936786904687029
4081000000.0000005 -0.4289056303612798 -0.9373742096816874
4083999999.9999995 -0.4189186696394819 -0.9500042233584299
4088000000.0 -0.38873524006207116 -0.9446473311494963
4091000000.0 -0.38171829085366255 -0.955391812953534
4094000000.0000005 -0.3835857084139761 -0.9100098369884221
4097000000.0000005 -0.4138615861604065 -0.915513881675172
4099999999.9999995 -0.4274814241614678 -0.9059514185949504
4102999999.9999995 -0.4203364263637565 -0.9360270016955143
4106000000.0 -0.4670467916823393 -0.9251628531988607
4109000000.0 -0.4696386988074438 -0.9235301860405745
4112000000.0 -0.4671011276562447 -0.8845399313388858
4115999999.9999995 -0.4954299715326483 -0.8827122533421666
4119000000.0 -0.4790832951086619 -0.903735495899846
4122000000.0 -0.5023770749055333 -0.8577653310852819
4125000000.0 -0.47860617754578894 -0.8610314694055082
4128000000.0 -0.4951079706048103 -0.8610044533072079
4131000000.0 -0.5460689834397129 -0.846498947840879
4134000000.0000005 -0.4992188373433001 -0.8607108056281028
4138000000.0 -0.5476048580483335 -0.8506632407499867
4141000000.0 -0.5236053285106149 -0.8607758335696113
4144000000.0 -0.5478719085450883 -0.8777372368863435
4147000000.0000005 -0.5789476312628149 -0.8731186272664994
4150000000.0000005 -0.5994137150954535 -0.8181555388172406
4152999999.9999995 -0.5504375110005265 -0.8202322206454095
4155999999.9999995 -0.591018175197691 -0.8323415195905933
4159000000.0 -0.5873876265304221 -0.7888401519889306
4162000000.0 -0.612396088602216 -0.8119345533091402
4166000000.0000005 -0.6504648869840206 -0.8290740788163671
4168999999.9999995 -0.6172463129881763 -0.7625498647658008
4171999999.9999995 -0.646995387361217 -0.7731529902552898
4175000000.0 -0.6661008870362434 -0.8211085620410108
4178000000.0 -0.6554434404363044 -0.7700900268121739
4181000000.0 -0.6641409622997433 -0.7130279458055853
4184000000.0 -0.6417225120101263 -0.7271328904917205
4187999999.9999995 -0.6757131998080352 -0.7116517596036798
4191000000.0 -0.703833809097281 -0.7393506286578666
4194000000.0 -0.7135330112721029 -0.7173604961669999
4197000000.0 -0.7187609023636307 -0.7382657848151077
4200000000.0 -0.7244543509542245 -0.7462514601116353
4203000000.0000005 -0.7549099899085552 -0.7285479972815981
4206000000.0000005 -0.7447655983794703 -0.6862610670366891
4208999999.9999995 -0.755510311427334 -0.6511275983779568
4211999999.9999995 -0.7950139027139471 -0.6300906403455849
4216000000.0 -0.7804584813386405 -0.7047018877619098
4219000000.0000005 -0.7920784752006382 -0.6345205243917666
4222000000.0000005 -0.7796560894380141 -0.6221045678770591
4224999999.9999995 -0.808232737287423 -0.5992021346721648
4227999999.9999995 -0.830836104897594 -0.5903802824745321
4231000000.0 -0.8495508569050081 -0.5703141403605585
4234000000.0 -0.8583573112499784 -0.545934164278694
4238000000.0000005 -0.8513803751223517 -0.546570288895817
4240999999.9999995 -0.8582208561438648 -0.5037821542316829
4244000000.0 -0.828151951024526 -0.5139719847215687
4247000000.0 -0.8541302622106711 -0.48621346752166017
4250000000.0 -0.8531857717929308 -0.46632512345108335
4253000000.0 -0.8964615628066126 -0.4680355637971274
4256000000.0 -0.9562732577178145 -0.47346408194435285
4259000000.0000005 -0.8976318012660123 -0.40975041294173953
4261999999.9999995 -0.9218457854973161 -0.3835469164103329
4266000000.0 -0.939876372659241 -0.3793308328990434
4269000000.0 -0.9264322990178668 -0.3790004693107172
4272000000.0000005 -0.9212951196822564 -0.385915812445428
4275000000.0000005 -0.9536520159268386 -0.3684346805169324
4277999999.9999995 -0.9505647582294429 -0.3143405940919754
4280999999.9999995 -0.9511621355558947 -0.3198598699654245
4284000000.0 -0.9865116367480589 -0.2824805662979915
4288000000.0000005 -0.9863943795025827 -0.256998856392773
4291000000.0000005 -0.9724622459360104 -0.25193528266912246
4293999999.9999995 -1.026791189211044 -0.22509100687351333
4297000000.0 -0.9854801682115123 -0.22653963290942525
4300000000.0 -1.0179186833359144 -0.1879786221138549
4303000000.0 -0.9965540612213631 -0.17722393144808118
4306000000.0 -1.0260057251945809 -0.14123840413424094
4309000000.0 -1.0515438972545819 -0.1083183738473627
4312000000.0 -1.0024873145190873 -0.08952615320341706
4316000000.0 -1.0039465243258112 -0.06566222582711412
4319000000.0 -1.0404766134223438 -0.07339972530784061
4322000000.0 -1.0303355551434799 -0.005436057928547067
4325000000.0 -1.0180238886074706 -0.003569738826338098
4328000000.0 -1.0394454893613099 0.02677113773047729
4331000000.0 -1.0125189610733705 0.04904124288728867
4334000000.0 -1.056993206447435 0.08329182306151556
4338000000.0 -1.038626176609978 0.07907449451023085
4341000000.0 -1.000718845909255 0.117026458306915
4344000000.0 -0.98461450322042 0.14753678540021403
4347000000.0 -1.0158078858491115 0.15780626747532234
4350000000.0 -1.0245972001675183 0.21872204259886446
4353000000.0 -1.0148788335185241 0.23650214622974963
4356000000.0 -1.0186517070691352 0.22327284842967776
4359000000.0 -1.02043253967762 0.28110139618874447
4362000000.0 -0.9847789711139637 0.2507940452932033
4366000000.0 -0.976242329219652 0.3210908553519833
4369000000.0 -1.0237738957388887 0.3416291307225041
4372000000.0 -0.9960007760579134 0.3930266500682975
4375000000.0 -0.9241994650955472 0.40143861708473366
4378000000.0 -0.9966036377435321 0.4724002812532224
4381000000.0 -0.9207579562176229 0.4765958671365656
4384000000.0 -0.8185065819633219 0.4233670471876087
4388000000.0 -0.9307700334569696 0.5246031767192967
4391000000.0 -0.8585308843163556 0.5349236949817194
4394000000.0 -0.908392043093665 0.5445960678266171
4397000000.0 -0.876398364573828 0.5552449232225822
4400000000.0 -0.8472725473050553 0.5680594049544434
4403000000.0 -0.8505429264391349 0.6236704488510435
4406000000.0 -0.7913977524524739 0.67108129440376
4409000000.0 -0.7354998183823143 0.6306615495182833
4412000000.0 -0.8137845468855722 0.6050749724664868
4416000000.0 -0.70722475543466 0.6607535755627149
4419000000.0 -0.7460378780835428 0.6726153026424259
4422000000.0 -0.7586752709502795 0.7280594970728237
4425000000.0 -0.6706209252676123 0.736615672119439
4428000000.0 -0.7109492851912267 0.8219153344936397
4431000000.0 -0.6225073679255395 0.7348328116915176
4434000000.0 -0.6519657406548257 0.8038536861152203
4438000000.0 -0.6051505526218868 0.7576602711893392
4441000000.0 -0.558314519832475 0.7977621078747865
4444000000.0 -0.5839663305341877 0.8936135025338847
4447000000.0 -0.6029301663462124 0.8410486762592531
4450000000.0 -0.5066606220034676 0.957276831245744
4453000000.0 -0.4987497466891408 0.8665726180754679
4456000000.0 -0.5319979970836501 0.9650765744589034
4459000000.0 -0.49322542047327494 1.0493818662798486
4462000000.0 -0.41760148435134975 0.8994061062474313
4466000000.0 -0.4571868913233457 0.9291311456256044
4469000000.0 -0.35268070572821486 0.9457027042125159
4472000000.0 -0.34440277852713164 0.9643775839661002
4475000000.0 -0.2903288922575653 1.0316509242663017
4478000000.0 -0.3286092967398383 0.9362867587360995
4481000000.0 -0.3085009316613005 1.0408676743925054
4484000000.0 -0.26978277601214895 1.0301988051610347
4488000000.0 -0.24693817817012437 1.0207836560391699
4491000000.0 -0.2554862271907854 1.0302632761750024
4494000000.0 -0.21714157364070064 1.0036663128234793
4497000000.0 -0.16509592664336387 1.044177658537673
4500000000.0 -0.14688248325941156 1.0090315835007828
4503000000.0 -0.09892396694207634 1.0362828536207658
4506000000.0 -0.10289927432037521 1.0217200582764299
4509000000.0 -0.05014743271014127 1.0396791636510816
4512000000.0 -0.07086959480489402 1.0142798913468574
4516000000.0 -0.011208146376302575 1.017053778240927
4519000000.0 0.034517249264625405 1.0193274914868526
4522000000.0 0.004936833468428825 1.0329940466785619
4525000000.0 0.0649596918341182 1.0522173558670094
4528000000.0 0.09352497723709019 1.0629816487217192
4531000000.0 0.13562992287271947 1.0183954925690941
4534000000.0 0.13945796614830203 1.0389269802555563
4538000000.0 0.1724596140561907 0.9833531309839806
4541000000.0 0.16102923313874024 1.0267225491157392
4544000000.0 0.20428949116317147 1.0470956970526022
4547000000.0 0.2358594802162428 0.9995173607102488
4550000000.0 0.23829394361532363 1.0159409272114897
4553000000.0 0.2821220576873392 0.9891537100080274
4556000000.0 0.26358571065329073 0.9993669780094149
4559000000.0 0.2718923490047135 1.0000773690588731
4562000000.0 0.3140389486147492 0.9891095962368343
4566000000.0 0.3183940864878351 0.97589379598728
4569000000.0 0.33916774503540753 0.9514042425561
4572000000.0 0.34910969563763694 0.9473817538409421
4575000000.0 0.38174225594906774 0.9178082716293025
4578000000.0 0.4041322821348069 0.9346688494593294
4581000000.0 0.44698110262952506 0.9445388439813556
4584000000.0 0.4571003942159159 0.9138584759955606
4588000000.0 0.4512941127349088 0.9278400503813277
4591000000.0 0.4631552054244532 0.9373679677435403
4594000000.0 0.4655874273565793 0.9148366824442122
4597000000.0 0.5545345435650415 0.9176559009756786
4600000000.0 0.5183168334334028 0.8082318845575742
4603000000.0 0.513860824322959 0.8827847343690521
4606000000.0 0.5328912413823838 0.8907167054997553
4609000000.0 0.5917600217966297 0.8553015048643788
4612000000.0 0.5877448433746295 0.8839958460665975
4616000000.0 0.5871009211252944 0.8161882600118464
4619000000.0 0.593991776514751 0.8562496768525812
4622000000.0 0.5760311470436821 0.8408792684216277
4625000000.0 0.5750619533314429 0.766568628608448
4628000000.0 0.6007105624011149 0.7745103826765981
4631000000.0 0.6656128307953775 0.7366658641757181
4634000000.0 0.6681060341781271 0.7720694358596579
4638000000.0 0.658901758975695 0.7610191412134654
4641000000.0 0.7085978759652605 0.7815359695195943
4644000000.0 0.710348998726706 0.7502450710454993
4647000000.0 0.7052745158782022 0.7565143802253886
4650000000.0 0.7509292592540382 0.7104539418688897
4653000000.0 0.751570577894933 0.7102068930818988
4656000000.0 0.7684892881726398 0.6475492041659767
4659000000.0 0.7366916414168991 0.6843165943495323
4662000000.0 0.7336222227331917 0.6885362961483855
4666000000.0 0.7432552061929966 0.6956009266527314
4669000000.0 0.7760277529750093 0.6739113454713295
4672000000.0 0.7981249748378079 0.6109814671124013
4675000000.0 0.7710787522101027 0.5780821818431089
4678000000.0 0.772305173169978 0.6350609594204496
4681000000.0 0.8371112725141736 0.5678204687020904
4684000000.0 0.7530815800659293 0.5820365114218862
4688000000.0 0.7949882931284326 0.6244112383704925
4691000000.0 0.7846885936972513 0.5665381493984204
4694000000.0 0.8553220446846822 0.5510422944663754
4697000000.0 0.8868869776855638 0.5797978743764997
4700000000.0 0.8561984879647346 0.5944286276531356
4703000000.0 0.9295816779825102 0.5402253524258008
4706000000.0 0.8168397609348825 0.5818123291751173
4709000000.0 0.8618419934292869 0.51975367303007
4712000000.0 0.8803833379419482 0.4821812956482167
4716000000.0 0.8520400029150317 0.4941491255634194
4719000000.0 0.9140561378508579 0.4579297312937521
4722000000.0 0.9410928584572271 0.4942584136093808
4725000000.0 0.8996749210188498 0.43928826092282186
4728000000.0 0.9055330624812904 0.42500198212182994
4731000000.0 0.8829327390781385 0.45582371685683015
4734000000.0 0.9125548428886663 0.4444669543889905
4738000000.0 0.8709516474252527 0.4045403832990411
4741000000.0 0.8945639204339864 0.4190635320466658
4744000000.0 0.9524235356287998 0.3890251706993309
4747000000.0 0.9637791609378666 0.3923594732138028
4750000000.0 0.9178105224187414 0.34620498644843334
4753000000.0 0.9630080743166233 0.3470831268286955
4756000000.0 0.9344696926982969 0.32936025886906595
4759000000.0 0.9471022427367507 0.34210520288680185
4762000000.0 0.8919959819951357 0.38382049897458725
4766000000.0 0.9296323575314773 0.3162567649349621
4769000000.0 0.9818304924955694 0.35157226235133165
4772000000.0 0.9722737698405851 0.31024210582236816
4775000000.0 0.935072734305432 0.3196222871615009
4778000000.0 0.9180339685002379 0.36527959167363266
4781000000.0 0.9743495391671355 0.30838335558486196
4784000000.0 0.9700401203489386 0.32243289811726406
4788000000.0 0.9656904355750466 0.31217326537148793
4791000000.0 0.9713904057690331 0.24798903697674995
4794000000.0 0.9671583327593005 0.236907964558847
4797000000.0 1.0185150971046952 0.28550760713097134
4800000000.0 1.0106305242110327 0.20598974477849769
4803000000.0 0.9514732087642499 0.2416695563835297
4806000000.0 0.9664674808465082 0.234270553360492
4809000000.0 0.9591193881962502 0.2134798997458018
4812000000.0 0.9754642308763594 0.20453566192383552
4816000000.0 1.0094598035998341 0.1857295509158943
4819000000.0 0.9871085585251513 0.18431849835777275
4822000000.0 0.998280289842749 0.1864427110205374
4825000000.0 0.9867461421177418 0.17177636931144752
4828000000.0 0.9823769093715332 0.1726123365251158
4831000000.0 0.9955552653243094 0.1606994303863597
4834000000.0 0.9979400172873163 0.14559098123662798
4838000000.0 1.020528621689665 0.1532670883913613
4841000000.0 1.0116740687358037 0.150985068808495
4844000000.0 0.9995957691168266 0.11147750070572723
4847000000.0 1.0339077905663014 0.14445728134587582
4850000000.0 1.004303511875032 0.13718367369920217
4853000000.0 1.0107863336630578 0.12953862863037627
4856000000.0 0.9982514175440836 0.10727886662810465
4859000000.0 1.00488130246772 0.10730838391732159
4862000000.0 0.9871198844161534 0.10869156122895052
4866000000.0 1.015045993849225 0.09957177631737651
4869000000.0 1.0140692011796344 0.08317596481400635
4872000000.0 0.9992662660715466 0.06374554100212099
4875000000.0 1.044651362455016 0.08642609422205294
4878000000.0 1.02343926049313 0.056559892283340796
4881000000.0 1.0007419020407256 0.055433438527487944
4884000000.0 1.016219514973198 0.054139105605680915
4888000000.0 1.027491009518666 0.05652835696072345
4891000000.0 1.028828925685632 0.05205017192219624
4894000000.0 1.0214776504019347 0.028150933879978746
4897000000.0 0.9975225223570872 0.0451401938775024
4900000000.0 1.0310855844004791 0.0007996214410019298
4903000000.0 1.0326633181972387 0.012944613496941482
4906000000.0 1.038511361502367 0.0018912008101569233
4909000000.0 1.023409102962363 -0.011436638139053268
4912000000.0 1.0323945721168517 -0.02517701535172967
4916000000.0 1.0381932855017195 0.027719987092890863
4919000000.0 1.0289126379088591 0.0020058204821064574
4922000000.0 1.040717342833515 -0.010688672097643681
4925000000.0 1.0052284297274579 -0.010206467029144128
4928000000.0 1.0051427722596837 -0.0017635503588596668
4931000000.0 1.0465367355726434 -0.009227091646834717
4934000000.0 0.9827499472184613 -0.02091923336430429
4938000000.0 1.0120395774602047 -0.05608839087286732
4941000000.0 1.0101732835395396 -0.03833002120259055
4944000000.0 1.0094347472694876 -0.02267902128603999
4947000000.0 0.9877556613865603 -0.05811777010349356
4950000000.0 1.0076822509697512 -0.09007310841619609
4953000000.0 1.0262893223951304 -0.09037997502553236
4956000000.0 1.0210141641735797 -0.07023797737034937
4959000000.0 1.0063893995648194 -0.10886710797995341
4962000000.0 1.01222943635349 -0.1028815971261392
4966000000.0 1.056210142044556 -0.0837161474984931
4969000000.0 1.0484138414993425 -0.08443188477069935
4972000000.0 1.0394923505377982 -0.1406770452736632
4975000000.0 0.9950070365861071 -0.0928588936663392
4978000000.0 1.0031306297643101 -0.11528620302137099
4981000000.0 1.0089113119250346 -0.1212694502719196
4984000000.0 1.0121633701196202 -0.07599781322731769
4988000000.0 1.0128454134018217 -0.12057176124925134
4991000000.0 1.0380477275220432 -0.07131650923201549
4994000000.0 0.9942791863819559 -0.13730558840960705
4997000000.0 1.025685255691011 -0.1385200792776919
5000000000.0 1.0078134111740047 -0.1107118035681593
5003000000.0 1.0320538861153536 -0.12344025491561877
5006000000.0 1.0485429481351558 -0.12563362601662775
5009000000.0 1.0026089377486223 -0.12898003664814967
5012000000.0 0.9828376607329949 -0.16174260723224687
5016000000.0 1.0568959689906217 -0.10630090150817956
5019000000.0 0.9666394726921368 -0.1471017778782822
5022000000.0 1.0393257168223944 -0.16197126592387984
5025000000.0 1.0769634396728551 -0.14795765213495948
5028000000.0 1.016985574911554 -0.2078839876188019
5031000000.0 1.0029983881189806 -0.17543844195192188
5034000000.0 1.0381148343309543 -0.2076687209108592
5038000000.0 0.970468315814066 -0.1907934578912417
5041000000.0 1.0249855578298543 -0.16588275826247112
5044000000.0 0.9794867245242741 -0.15115896817886548
5047000000.0 1.0127010435720807 -0.14215302144472797
5050000000.0 1.0026758880197038 -0.09966083168981182
5053000000.0 1.0647631946276777 -0.18418292405981962
5056000000.0 1.0366070805349064 -0.1222384282165267
5059000000.0 1.0173928259646932 -0.11746433093820058
5062000000.0 1.0268002833456804 -0.2368134620604737
5066000000.0 0.9969763540344673 -0.15918748234371605
5069000000.0 1.0092069029093185 -0.20281076320721614
5072000000.0 0.9699787428971236 -0.23541444019781177
5075000000.0 1.011278941656429 -0.17556839740388996
5078000000.0 1.0201652569646291 -0.25420018766232866
5081000000.0 0.9811669177757372 -0.21959475329478972
5084000000.0 1.0095987146034067 -0.27042374755916765
5088000000.0 0.9735835269566109 -0.19602824052897494
5091000000.0 1.0620488548022764 -0.2698734441128878
5094000000.0 1.0368277457169945 -0.22399041159163607
5097000000.0 1.0495444755497534 -0.2047525230031353
5100000000.0 0.974015653489977 -0.21361047331684002
5103000000.0 1.0067265392629738 -0.20909268904876088
5106000000.0 1.077540852903441 -0.22804455310779648
5109000000.0 0.9812548831443839 -0.18728717323541766
5112000000.0 0.9536507463252974 -0.22471771833505672
5116000000.0 0.9765301176294463 -0.1699031478669083
5119000000.0 1.018081030455429 -0.24348491623597543
5122000000.0 0.9941357535938293 -0.2231749209797855
5125000000.0 1.0063074988508376 -0.2650031721281305
5128000000.0 0.9859295469365318 -0.2835100993023177
5131000000.0 0.928817096249524 -0.21861183536465723
5134000000.0 0.9860195973411674 -0.25231149519348994
5138000000.0 0.9945485502028122 -0.2626030163499974
5141000000.0 1.0083930385249924 -0.19382410963656402
5144000000.0 1.0416528631871178 -0.21302230793548907
5147000000.0 1.009498347121055 -0.26293960475161887
5150000000.0 0.9884766511447033 -0.22171618876314791
5153000000.0 0.981738291940924 -0.2723884757582848
5156000000.0 1.0494900356152295 -0.26821547106521026
5159000000.0 1.0039952609134657 -0.22580186669099397
5162000000.0 0.9778563405686396 -0.2688162271078524
5166000000.0 1.0541118785301467 -0.3193210275710767
5169000000.0 1.0208056891502983 -0.2799460953874835
