! Created with skrf 1.8.0 (http://scikit-rf.org).
# Hz S RI R 50.0 
!freq ReS11 ImS11
4000000000.0 0.5113896831575362 -0.8509960548286601
4003000000.0 0.5432921199995949 -0.9472546777768867
4006000000.0 0.5079152250079927 -0.9082180325567837
4009000000.0000005 0.5329345941661531 -0.9165513406671774
4011999999.9999995 0.5590414420739463 -0.9145480052002369
4016000000.0 0.5253652403879879 -0.9197832540195723
4019000000.0 0.492576657015907 -0.9210664641653344
4022000000.0000005 0.5439572946151949 -0.8311497655354213
4025000000.0000005 0.4899426924544943 -0.9314818009120835
4027999999.9999995 0.5098474701836818 -0.8762676510088038
4030999999.9999995 0.5143649471822236 -0.8667320252566915
4034000000.0 0.5403511576937456 -0.9210189212860289
4038000000.0000005 0.5084466034139852 -0.9241520811963488
4041000000.0000005 0.5153040653429214 -0.8679765642375787
4043999999.9999995 0.5555113213815304 -0.8906775072225164
4046999999.9999995 0.5628276133004477 -0.8946639707123573
4050000000.0 0.5139024842404287 -0.9308803329055909
4053000000.0 0.49610906775627694 -0.9041262450498834
4056000000.0 0.5250901394909699 -0.9029263106270253
4059000000.0 0.5062764845418841 -0.9037286034576086
4062000000.0000005 0.5217518622732482 -0.8997476677599903
4066000000.0 0.5099093163723221 -0.8335926255326158
4069000000.0 0.4971358613677401 -0.922214317809494
4072000000.0 0.5594078324963736 -0.8797419834500757
4075000000.0 0.575710600551194 -0.9133701946819401
4078000000.0000005 0.5371594964232325 -0.8780066366942261
4081000000.0000005 0.5488024798681695 -0.8968873989301674
4083999999.9999995 0.5260862433293629 -0.936998119471039
4088000000.0 0.548539704669826 -0.8263229192466488
4091000000.0 0.5546983771534755 -0.9683207808193603
4094000000.0000005 0.5146668287603686 -0.8888954046523403
4097000000.0000005 0.5257209750792575 -0.8935596199045351
4099999999.9999995 0.5196473925969811 -0.8673653217448613
4102999999.9999995 0.5497713842368519 -0.9122742750514052
4106000000.0 0.5329081964015685 -0.8892161284204455
4109000000.0 0.534096501536163 -0.9399704272276981
4112000000.0 0.5489437481573443 -0.902311037072734
4115999999.9999995 0.5552268908175785 -0.8960581773423466
4119000000.0 0.5150579474478263 -0.8991115010310029
4122000000.0 0.5553326095055602 -0.904093193467027
4125000000.0 0.5080196110977786 -0.9152572234089803
4128000000.0 0.5299398220828787 -0.8872017999674353
4131000000.0 0.5041129741650348 -0.8784186433092236
4134000000.0000005 0.5440557913170142 -0.8826128842050213
4138000000.0 0.47922218435704933 -0.9061778835417447
4141000000.0 0.5041176599434543 -0.8954459638108581
4144000000.0 0.5479686209801318 -0.9073850189647474
4147000000.0000005 0.5238241340319995 -0.8752339143714528
4150000000.0000005 0.5568309618707811 -0.9163867545391619
4152999999.9999995 0.509044325528936 -0.892392842383987
4155999999.9999995 0.5668518882182114 -0.91286308089927
4159000000.0 0.5274940497482346 -0.8991128858134261
4162000000.0 0.5292112982366871 -0.8655576927540789
4166000000.0000005 0.523351221045761 -0.8972817928673535
4168999999.9999995 0.5037074391323852 -0.8801968639506561
4171999999.9999995 0.5291528253913799 -0.9063903688965415
4175000000.0 0.5361857784352957 -0.8691030408140075
4178000000.0 0.5235537024218373 -0.8923006966842254
4181000000.0 0.522982278928785 -0.897660072460874
4184000000.0 0.5338046144644903 -0.903596701519039
4187999999.9999995 0.5231298288656381 -0.8915110841372261
4191000000.0 0.5428793102251697 -0.859980803635828
4194000000.0 0.5262785328398684 -0.8677289188715821
4197000000.0 0.5309933911068653 -0.8932888752312319
4200000000.0 0.546228047397759 -0.8728363967572458
4203000000.0000005 0.549684674380659 -0.8657717441302445
4206000000.0000005 0.5192336938685268 -0.8954747739757476
4208999999.9999995 0.5328879056546831 -0.8645482961962749
4211999999.9999995 0.4920862721765171 -0.8949115461510339
4216000000.0 0.5205902027686518 -0.8846073083540356
4219000000.0000005 0.5388232009335208 -0.8860429192985115
4222000000.0000005 0.5075749969359433 -0.904618413285232
4224999999.9999995 0.5242834799321958 -0.8804691049050468
4227999999.9999995 0.5293735850482737 -0.8726216404051963
4231000000.0 0.5321388237241822 -0.8754518841338635
4234000000.0 0.5321019331041278 -0.8918081683136188
4238000000.0000005 0.514561965198505 -0.8821193537030894
4240999999.9999995 0.5186742238486102 -0.8759000907100908
4244000000.0 0.518886984649964 -0.8633975553446451
4247000000.0 0.5463902755745885 -0.8683719094495275
4250000000.0 0.49469278015288864 -0.8612298577386217
4253000000.0 0.5085980967824759 -0.8650654136209239
4256000000.0 0.5399563653872964 -0.8989578782324149
4259000000.0000005 0.48871707476028914 -0.8617404845844686
4261999999.9999995 0.5117984183164465 -0.8690194362193281
4266000000.0 0.5071014218102294 -0.8906626012360435
4269000000.0 0.5327940186151974 -0.8671844823614624
4272000000.0000005 0.509363018982367 -0.8629554989723148
4275000000.0000005 0.5131839563271755 -0.8813998596734965
4277999999.9999995 0.5343146321353316 -0.8936447465914027
4280999999.9999995 0.5356778868932788 -0.8661508444114352
4284000000.0 0.5021051948222154 -0.9116069326785615
4288000000.0000005 0.5431472680001928 -0.8770463830509373
4291000000.0000005 0.5145034034855877 -0.861682311184223
4293999999.9999995 0.5016389484922295 -0.8788583304830039
4297000000.0 0.537325060046828 -0.8475626037675436
4300000000.0 0.528220705153841 -0.8752520892430362
4303000000.0 0.5130585639331444 -0.894566484959977
4306000000.0 0.5432296287848639 -0.8581633421122447
4309000000.0 0.5204083736755639 -0.863724057232962
4312000000.0 0.5740008002237719 -0.8727795346624904
4316000000.0 0.5536141024796295 -0.8666041671832977
4319000000.0 0.518112690446447 -0.8682874114625868
4322000000.0 0.4884211767367565 -0.8703985208433045
4325000000.0 0.5210607188108293 -0.8597979316948763
4328000000.0 0.5079624514216491 -0.8591942655080567
4331000000.0 0.4816983873063373 -0.9080182044787718
4334000000.0 0.5002127653776915 -0.9001821001337889
4338000000.0 0.5599883626480728 -0.8648890110036868
4341000000.0 0.5478168508828033 -0.8751376580832824
4344000000.0 0.5420845846554222 -0.8743833570811944
4347000000.0 0.5079720986955801 -0.9132414222680366
4350000000.0 0.5044731556926636 -0.8578560694160444
4353000000.0 0.5170102681275789 -0.8537464807759306
4356000000.0 0.5134533867800624 -0.8556243760237479
4359000000.0 0.49502830984776547 -0.8276734092387728
4362000000.0 0.4697764389918563 -0.9097232705148419
4366000000.0 0.5103305720801676 -0.8967278249515176
4369000000.0 0.49042374727972554 -0.8592182897571062
4372000000.0 0.4651935796836812 -0.8789681733847046
4375000000.0 0.5128376800736086 -0.8696404351822571
4378000000.0 0.49495534746907816 -0.8443394199500311
4381000000.0 0.5172754622749931 -0.8576066527142987
4384000000.0 0.5287420361145452 -0.9326672612795025
4388000000.0 0.517400165573472 -0.8440267763218494
4391000000.0 0.5108721663464666 -0.8750054546605583
4394000000.0 0.49357371268548067 -0.8485988101297759
4397000000.0 0.49450782572214474 -0.8726053859151963
4400000000.0 0.5130669132859678 -0.9001581995019972
4403000000.0 0.5219767469256047 -0.878766904191221
4406000000.0 0.4841028001307611 -0.88096751572293
4409000000.0 0.522614187967042 -0.8954063421649391
4412000000.0 0.46458814168329055 -0.8906627973174994
4416000000.0 0.48874484551435765 -0.8734345997547885
4419000000.0 0.49959553312188404 -0.9000807861647432
4422000000.0 0.5096191151417918 -0.8601937274504972
4425000000.0 0.535578165144321 -0.8765778200327752
4428000000.0 0.4905035717340064 -0.8804582345701124
4431000000.0 0.5105705331618731 -0.8863688407076042
4434000000.0 0.4940421519526816 -0.861130545063741
4438000000.0 0.5163801549746063 -0.8959823566273044
4441000000.0 0.5115069606740065 -0.8881892322856259
4444000000.0 0.4908782487680008 -0.8597767695188905
4447000000.0 0.4845506713142514 -0.8817788083025417
4450000000.0 0.4943452010010986 -0.8656789188916663
4453000000.0 0.5061084278742901 -0.89422713506939
4456000000.0 0.4755743774847363 -0.8639174358068378
4459000000.0 0.4590835539234346 -0.8551550143846056
4462000000.0 0.5247696747427405 -0.9324129416224736
4466000000.0 0.5013915700399574 -0.9302562388817068
4469000000.0 0.5087698761288606 -0.8676903879253259
4472000000.0 0.5045983211816464 -0.8986901983340014
4475000000.0 0.4838349716969407 -0.8527033116121694
4478000000.0 0.512316072302158 -0.9323091116199205
4481000000.0 0.4626798544189734 -0.8607007093361458
4484000000.0 0.4681409347113186 -0.9185610727992181
4488000000.0 0.4719215271662251 -0.8806975692920865
4491000000.0 0.49038015741156143 -0.894051847797489
4494000000.0 0.48781758823210225 -0.8749193731785172
4497000000.0 0.48951540617191297 -0.8717768899370268
4500000000.0 0.4973338696868093 -0.9023724469413359
4503000000.0 0.5253068610053084 -0.9037393126435576
4506000000.0 0.46319206703997295 -0.8891432749974779
4509000000.0 0.48351454688461404 -0.8833316029894227
4512000000.0 0.48102426237120355 -0.8834419881622592
4516000000.0 0.497915669899994 -0.9102837884495096
4519000000.0 0.4881587527453257 -0.875355380471253
4522000000.0 0.49194597816356034 -0.8861858929540688
4525000000.0 0.5069579263002166 -0.8739747831385016
4528000000.0 0.509524489110204 -0.8936177496201534
4531000000.0 0.5112064041333191 -0.8830677099555521
4534000000.0 0.48392150455034044 -0.8791247908380848
4538000000.0 0.4720184466490418 -0.8845203290384509
4541000000.0 0.4290351971601365 -0.9037773001957066
4544000000.0 0.4801562806124884 -0.8510062973411704
4547000000.0 0.5082577301577126 -0.8713299910316457
4550000000.0 0.4775403819201969 -0.9005494848433422
4553000000.0 0.4797821065436288 -0.8923074163740423
4556000000.0 0.45231932881885195 -0.8781169513752753
4559000000.0 0.4640104771414744 -0.8878806492335639
4562000000.0 0.5062269610618786 -0.9061847582270637
4566000000.0 0.4910097476989913 -0.9128751390598778
4569000000.0 0.4619186524858161 -0.8620573904450634
4572000000.0 0.4610606153506989 -0.8927142504200896
4575000000.0 0.4630199986766268 -0.8900264149306136
4578000000.0 0.4913821094046461 -0.9106082973576686
4581000000.0 0.4607181343376765 -0.8902684778874042
4584000000.0 0.47102636113434115 -0.8982520888639005
4588000000.0 0.4784739402211574 -0.895005569522294
4591000000.0 0.49373074759604996 -0.8880629302174656
4594000000.0 0.43593356794171556 -0.8884495420550553
4597000000.0 0.4660594381033104 -0.8992671483998544
4600000000.0 0.4523963447399484 -0.8938943118873671
4603000000.0 0.4671253932188123 -0.9007184140624517
4606000000.0 0.4676893306194011 -0.9355191881730589
4609000000.0 0.48143848417739776 -0.8792406169662123
4612000000.0 0.46731222331353434 -0.9219949824250537
4616000000.0 0.458184201146298 -0.8837496224767465
4619000000.0 0.4833598225496313 -0.8810547966852869
4622000000.0 0.4681143715235061 -0.9085974338190219
4625000000.0 0.44264007566169294 -0.888157186073349
4628000000.0 0.47993674116720736 -0.8911400568434397
4631000000.0 0.4448498958921723 -0.8904904396342093
4634000000.0 0.4587115510729839 -0.8964660939902069
4638000000.0 0.4654420833813485 -0.8998439093258925
4641000000.0 0.4602372355279702 -0.9071439638207952
4644000000.0 0.4720804428594759 -0.8799923168697287
4647000000.0 0.463479316741061 -0.9166725209389623
4650000000.0 0.4508064265532329 -0.8888583746697982
4653000000.0 0.46901786461799955 -0.9253618290067899
4656000000.0 0.43844274762528246 -0.9215578503093655
4659000000.0 0.4304010792547084 -0.9075691236359947
4662000000.0 0.4684527323803429 -0.9164339473174239
4666000000.0 0.4629989663793348 -0.9259607767168531
4669000000.0 0.46330849726751966 -0.9088457044216209
4672000000.0 0.45942223146588546 -0.9340471312437053
4675000000.0 0.46275774399107006 -0.9297975254384477
4678000000.0 0.4570059304866033 -0.8880284844592304
4681000000.0 0.4393989712670793 -0.9137493607418612
4684000000.0 0.43019156655921736 -0.9164310315487505
4688000000.0 0.4204013617248625 -0.9072815329396756
4691000000.0 0.4912945417380209 -0.919454641055695
4694000000.0 0.44560019331632583 -0.9037281810107157
4697000000.0 0.4148115950245362 -0.8851061722466321
4700000000.0 0.44200549849493564 -0.9083588453446458
4703000000.0 0.45398009896259045 -0.8818660841903408
4706000000.0 0.42217518989417535 -0.9152758193328225
4709000000.0 0.4257328827762602 -0.9154835224439531
4712000000.0 0.46770014395809584 -0.8820097122027261
4716000000.0 0.45485939342393994 -0.9434419215935363
4719000000.0 0.5013763339394026 -0.8821255664412445
4722000000.0 0.4744315361594011 -0.8984591864896708
4725000000.0 0.46260242235737453 -0.9209421068337365
4728000000.0 0.4358759091701648 -0.8901112039660327
4731000000.0 0.49533657902350525 -0.9305252840678603
4734000000.0 0.46874429004376406 -0.9058644753451205
4738000000.0 0.5151010317682987 -0.9467243370562655
4741000000.0 0.46948388583817424 -0.9476045719972845
4744000000.0 0.4388190221970211 -0.9335001596571186
4747000000.0 0.4615103620338743 -0.8867483588520095
4750000000.0 0.45671318568090885 -0.9459975054132929
4753000000.0 0.4839220371214129 -0.9270597770859097
4756000000.0 0.4361304258968916 -0.9262154450016481
4759000000.0 0.49398105500141337 -0.9335254944040737
4762000000.0 0.43944202902213214 -0.949760507274818
4766000000.0 0.448199723913299 -0.9335745103708906
4769000000.0 0.45777906881030034 -0.9308385418290538
4772000000.0 0.45112293980411644 -0.9248337950086603
4775000000.0 0.4247298621565221 -0.9775618772129516
4778000000.0 0.45231110252425544 -0.9318324358293547
4781000000.0 0.4752627046015757 -0.921724350407976
4784000000.0 0.4870890642652309 -0.874555791197255
4788000000.0 0.45416464882844015 -0.9143115638963529
4791000000.0 0.4594537699799647 -0.9231840382042382
4794000000.0 0.46961885852871343 -0.9288237205700959
4797000000.0 0.4337345324282732 -0.8989578379891708
4800000000.0 0.442803638203848 -0.906572450877577
4803000000.0 0.3988880872113384 -0.9325587754502072
4806000000.0 0.43728408975440314 -0.9526482163711154
4809000000.0 0.4030257907931136 -0.9504342643125203
4812000000.0 0.4145903890806379 -0.9577483193336825
4816000000.0 0.4685131227762842 -0.917851074727697
4819000000.0 0.46492332029352146 -0.9242696066185323
4822000000.0 0.4815922205937761 -0.967133268205946
4825000000.0 0.4689619297401871 -0.9233781566167502
4828000000.0 0.44976684604509437 -0.9028451578756481
4831000000.0 0.40765272717822587 -0.9591252305298581
4834000000.0 0.4625324244414971 -0.9287073209113946
4838000000.0 0.4415631024288541 -0.9552731717632849
4841000000.0 0.44659642558462564 -0.9076207403262542
4844000000.0 0.49213347248404615 -0.911704070235684
4847000000.0 0.45784829917901676 -0.9009445400328883
4850000000.0 0.4492652468547232 -0.9652747707359879
4853000000.0 0.44147751566173277 -0.8908084988849965
4856000000.0 0.47175170501976343 -0.9134999096691526
4859000000.0 0.4823108790030475 -0.977645522037957
4862000000.0 0.45287542718343615 -0.8833929894719954
4866000000.0 0.44951796554577494 -0.9448935143608729
4869000000.0 0.4224052722801898 -0.9354257208282717
4872000000.0 0.4333132326731632 -0.9652337611764462
4875000000.0 0.5086877729115824 -0.9490878812699467
4878000000.0 0.4593051379541577 -0.9269710895662288
4881000000.0 0.42594717742784616 -0.9934273099444056
4884000000.0 0.4726168579300894 -0.9199262431447299
4888000000.0 0.4712635578967792 -0.9125985882615196
4891000000.0 0.4800206922789575 -0.9656482345211341
4894000000.0 0.41645860036924426 -0.9205405008216614
4897000000.0 0.4503102853590163 -0.9155161716492751
4900000000.0 0.4627932044251931 -0.9412363661310759
4903000000.0 0.4866787579805684 -0.9204115548551061
4906000000.0 0.46414143095689653 -0.9557373363855883
4909000000.0 0.45308994643136363 -0.9211034923511247
4912000000.0 0.4733377127892362 -0.9927719845459535
4916000000.0 0.4719890344297091 -0.9499077233696822
4919000000.0 0.5320568774650155 -0.94427949920584
4922000000.0 0.4966006949038828 -0.9211165636502971
4925000000.0 0.4144839477442966 -0.9341734913026835
4928000000.0 0.490151336256653 -0.8827534753024661
4931000000.0 0.5242802406341965 -0.9328736606776948
4934000000.0 0.45466222323773764 -0.8790239525533057
4938000000.0 0.40291858013298787 -0.9626736514595223
4941000000.0 0.47360122299766244 -0.9181938297215431
4944000000.0 0.4644525259700193 -0.88480637109351
4947000000.0 0.4409707135681583 -0.8997699851772518
4950000000.0 0.4495974657881147 -0.9136486352210137
4953000000.0 0.4255320536035876 -0.9701022707322621
4956000000.0 0.44742182246537776 -0.9358745580546988
4959000000.0 0.4024474150448118 -0.9365632211148849
4962000000.0 0.4347913287609462 -0.9930037548450972
4966000000.0 0.5044248011974413 -0.9152477094023248
4969000000.0 0.5089417050977612 -0.9919076190506751
4972000000.0 0.46610915183116763 -0.9444464634378792
4975000000.0 0.5056124891674141 -0.9135481972454305
4978000000.0 0.4492191986619052 -0.9450742135004695
4981000000.0 0.43646813720336713 -0.9599753997244258
4984000000.0 0.43105313006194607 -0.9188760709705869
4988000000.0 0.4656986931518641 -0.8927379118560193
4991000000.0 0.5069511068017141 -0.9093362210105895
4994000000.0 0.4818671314464195 -0.9514685475054743
4997000000.0 0.3995056831299826 -0.9453740517030425
5000000000.0 0.49433111813245334 -0.9510025563824613
5003000000.0 0.49618750752486895 -0.9460125082413919
5006000000.0 0.46278918033904537 -0.9732153422654981
5009000000.0 0.4940053231731438 -0.9194209912298974
5012000000.0 0.42629827879641624 -0.9359846341746121
5016000000.0 0.516251055669767 -0.9518783624478542
5019000000.0 0.4802592440158048 -0.9329212501827241
5022000000.0 0.46414674133566186 -0.9431730442405811
5025000000.0 0.48380257872620147 -0.9812064589446667
5028000000.0 0.4351033919697197 -0.9458373812839171
5031000000.0 0.45518591724182556 -0.9560201661040919
5034000000.0 0.47124295432612273 -0.9880461101605
5038000000.0 0.43094993654513913 -0.9302535345925513
5041000000.0 0.5159447344618782 -0.9557741630862933
5044000000.0 0.5039415374938048 -0.8858982908396609
5047000000.0 0.47546627455738033 -0.9714253250131876
5050000000.0 0.5390511621895457 -0.884004525296143
5053000000.0 0.47403870255571834 -0.963854918901331
5056000000.0 0.4743054087083974 -0.9110981482156897
5059000000.0 0.5279626729809529 -0.9077875437958638
5062000000.0 0.45701112189007026 -0.9646564551105005
5066000000.0 0.5078867047248592 -0.9208142294088145
5069000000.0 0.492368148958791 -0.9035577869276701
5072000000.0 0.45284668113358556 -0.8935383407677228
5075000000.0 0.4966169963706764 -0.8944184510446171
5078000000.0 0.43974737165943933 -0.9407918902492886
5081000000.0 0.42623794701478607 -0.9391788131372609
5084000000.0 0.4952947133521665 -0.9648488426047275
5088000000.0 0.4731972500111645 -0.8890958660111983
5091000000.0 0.47799618341803074 -0.9258014318419435
5094000000.0 0.4774729621595427 -0.9278554373571819
5097000000.0 0.5178235132430725 -0.9383052583904461
5100000000.0 0.46238287756693963 -0.8966975398150526
5103000000.0 0.5012863433221193 -0.9418067703698363
5106000000.0 0.5156636157431553 -0.95284091013693
5109000000.0 0.5160630424528337 -0.8954957259585183
5112000000.0 0.3985217277769666 -0.9241867632768481
5116000000.0 0.4904823178881488 -0.888595633165844
5119000000.0 0.46926031754848324 -0.9747036026090685
5122000000.0 0.5037812950288576 -0.9141520766814437
5125000000.0 0.5321292624515856 -0.9100920953295571
5128000000.0 0.49094268585843837 -0.9567929580243293
5131000000.0 0.48324521069054677 -0.9210251651010884
5134000000.0 0.511642038545937 -0.9331655018670977
5138000000.0 0.517522557459971 -0.9223215249934135
5141000000.0 0.547202347000697 -0.901086926079716
5144000000.0 0.5322119290841312 -0.9186725426712923
5147000000.0 0.4839837013389478 -0.9461054232847952
5150000000.0 0.5191784803552215 -0.9560849035582809
5153000000.0 0.5019120343193622 -0.9090721866511893
5156000000.0 0.4932664349217873 -0.9352692251986081
5159000000.0 0.524064899504757 -0.9804824180892759
5162000000.0 0.44832972446427094 -0.9009847687242105
5166000000.0 0.48607641597583173 -0.9559063555676268
5169000000.0 0.5085171261111211 -0.928681983785071
5172000000.0 0.5068573909140677 -0.9285270682819177
5175000000.0 0.5535798809959772 -0.9473613901310494
