! Created with skrf 1.8.0 (http://scikit-rf.org).
# Hz S RI R 50.0 
!freq ReS11 ImS11
4000000000.0 0.5726801183567487 -0.9114604030998799
4003000000.0 0.6235706205647884 -0.9237655020862043
4006000000.0 0.5268253211124179 -0.8875956689407722
4009000000.0000005 0.5838432681408153 -0.8611267298591225
4011999999.9999995 0.5984447590712954 -0.8968726421015645
4016000000.0 0.5542536306168309 -0.9311787098246784
4019000000.0 0.5479401938973409 -0.8842857814736239
4022000000.0000005 0.6472254434133998 -0.8877592661444773
4025000000.0000005 0.5472778886899434 -0.9348170612550399
4027999999.9999995 0.5403148209390527 -0.9370132388784369
4030999999.9999995 0.5917412651565589 -0.8243860345704057
4034000000.0 0.5276979026036103 -0.8907549296790905
4038000000.0000005 0.5235383542404113 -0.8822639005711967
4041000000.0000005 0.5789601096103676 -0.8827966361647838
4043999999.9999995 0.6095392970157364 -0.9344751922916317
4046999999.9999995 0.6201291776462032 -0.957499689008654
4050000000.0 0.5796766371587798 -0.917730623913421
4053000000.0 0.5158616779239058 -0.9061865846565775
4056000000.0 0.5460875803602193 -0.8673908245433215
4059000000.0 0.5755961259638644 -0.8936318970623627
4062000000.0000005 0.5709595180669801 -0.8947800039566651
4066000000.0 0.4877978140169633 -0.8811458969223811
4069000000.0 0.5472630705323287 -0.9266435540262802
4072000000.0 0.5746686971541366 -0.8528748984742319
4075000000.0 0.5990225358233059 -0.8937334190700702
4078000000.0000005 0.5475406902882538 -0.8963813751631574
4081000000.0000005 0.5736430249911978 -0.8602065875380172
4083999999.9999995 0.5437713182095747 -0.9177438210365916
4088000000.0 0.5818765525068845 -0.8574067174419757
4091000000.0 0.5999673843056522 -0.9500701503293151
4094000000.0000005 0.5816058534956711 -0.8648984068988603
4097000000.0000005 0.5332951196734242 -0.916869163421686
4099999999.9999995 0.5917805727791549 -0.904554736796458
4102999999.9999995 0.5784902814923852 -0.9206850083151094
4106000000.0 0.5588972056385986 -0.9091735978439855
4109000000.0 0.5260377290044064 -0.91554455680965
4112000000.0 0.5807106057119032 -0.9134185796056453
4115999999.9999995 0.5886510556680261 -0.9025111143287873
4119000000.0 0.5633546408509413 -0.9107881547829307
4122000000.0 0.5653073295734503 -0.8951985607950043
4125000000.0 0.544431167970103 -0.9245874528131858
4128000000.0 0.5879769211475891 -0.875098932127686
4131000000.0 0.5513241179033617 -0.895266552057363
4134000000.0000005 0.5753844789690048 -0.8807237098213553
4138000000.0 0.5528822258676732 -0.878900512760839
4141000000.0 0.561156720131065 -0.9029494990199891
4144000000.0 0.5419084197839451 -0.8932176904480115
4147000000.0000005 0.5583837983601809 -0.8843043889458924
4150000000.0000005 0.5838095879646106 -0.9397784239358945
4152999999.9999995 0.5618367104481226 -0.8759110857072675
4155999999.9999995 0.577652542500471 -0.896047551500947
4159000000.0 0.543627317960845 -0.859638743852841
4162000000.0 0.5565494245373672 -0.858073303026367
4166000000.0000005 0.5541550562350501 -0.8829168795630183
4168999999.9999995 0.5565293586954351 -0.8853788808349401
4171999999.9999995 0.5913603539815782 -0.8903425235553698
4175000000.0 0.5866353915560147 -0.8752014907913634
4178000000.0 0.5526443481060763 -0.8720112195721166
4181000000.0 0.5680200133730046 -0.891347101620301
4184000000.0 0.5804702123147404 -0.8730377862935024
4187999999.9999995 0.5487068600037834 -0.867878575629567
4191000000.0 0.5631894622721323 -0.8415578107024729
4194000000.0 0.5683835904287139 -0.8750993246503771
4197000000.0 0.5852620891271036 -0.8863910574426039
4200000000.0 0.592698106786532 -0.8692879650708532
4203000000.0000005 0.5729118407134329 -0.8545602496878496
4206000000.0000005 0.5889213697678669 -0.8898160004699254
4208999999.9999995 0.576285458542396 -0.8541498118198548
4211999999.9999995 0.5296531990204998 -0.8812762639853333
4216000000.0 0.5700659763701759 -0.8744480497025396
4219000000.0000005 0.5682434364340472 -0.8743438428247263
4222000000.0000005 0.5602233956705904 -0.8786257174710311
4224999999.9999995 0.5708186013967889 -0.8722386328839724
4227999999.9999995 0.5711208655557823 -0.8798127369340186
4231000000.0 0.542985633125728 -0.8605970099449324
4234000000.0 0.5836415824307686 -0.8775317390052123
4238000000.0000005 0.5529104080344882 -0.867326177610317
4240999999.9999995 0.5559614691903485 -0.8922250310577009
4244000000.0 0.573984186492575 -0.8605953061883705
4247000000.0 0.5838215859200149 -0.8594216722713981
4250000000.0 0.5497161457850261 -0.8481054639641379
4253000000.0 0.5518046025016975 -0.8644477049290611
4256000000.0 0.5705171836728327 -0.8783889079553999
4259000000.0000005 0.5427019798080248 -0.8369829796044971
4261999999.9999995 0.5543363317369254 -0.8820165671939743
4266000000.0 0.5579607296013286 -0.8828245148298471
4269000000.0 0.5890529977326928 -0.8597600091870418
4272000000.0000005 0.5603928094277879 -0.8709200114566323
4275000000.0000005 0.5621052845347796 -0.8768064880580063
4277999999.9999995 0.5927920949300676 -0.8807382226820307
4280999999.9999995 0.5586315312619063 -0.8663386904019573
4284000000.0 0.525558659119977 -0.8899300793297714
4288000000.0000005 0.607207667258205 -0.8351370204125081
4291000000.0000005 0.5479345575935373 -0.8273365864966593
4293999999.9999995 0.5556468499822562 -0.8724692727540918
4297000000.0 0.5742371207588158 -0.8242587443049502
4300000000.0 0.5632356840074884 -0.8386242244485596
4303000000.0 0.5441301521593531 -0.8473657721825748
4306000000.0 0.5961602316813674 -0.8599170365489758
4309000000.0 0.5668500705727854 -0.8723241574053922
4312000000.0 0.5998755731762735 -0.8435741415262514
4316000000.0 0.5914875171721918 -0.8656830709932998
4319000000.0 0.5756409296419986 -0.8462071977720416
4322000000.0 0.5280082055775426 -0.8769422839512522
4325000000.0 0.5775311242045047 -0.8350146576384498
4328000000.0 0.5214164980929176 -0.856162978088322
4331000000.0 0.5465754686145153 -0.8875229401725431
4334000000.0 0.5692348789862947 -0.8724307859650994
4338000000.0 0.5778876385767194 -0.8680154514573091
4341000000.0 0.5832140124203846 -0.8581519527702008
4344000000.0 0.5913113219171581 -0.8730950099828585
4347000000.0 0.550418532748092 -0.8800686417447848
4350000000.0 0.5164405907428231 -0.8371682222952826
4353000000.0 0.5700814647687792 -0.830956164483172
4356000000.0 0.5552280592165573 -0.8695171375812317
4359000000.0 0.5227188262360462 -0.8210320078755118
4362000000.0 0.5090813552423101 -0.8837223732347737
4366000000.0 0.5686040081239802 -0.8785658341155759
4369000000.0 0.5511384363602877 -0.8187668094135209
4372000000.0 0.5164794399876331 -0.8697597701374874
4375000000.0 0.5578230623947675 -0.8430670279939981
4378000000.0 0.5481682407320484 -0.8354127288857169
4381000000.0 0.5428144155157287 -0.8342580713828476
4384000000.0 0.588005654894449 -0.9154778437507443
4388000000.0 0.5555301214660335 -0.8461043846134771
4391000000.0 0.5589230267459973 -0.8537885331240056
4394000000.0 0.5306485355124988 -0.846271805843217
4397000000.0 0.5311749793268823 -0.8746915206583029
4400000000.0 0.5496503314938999 -0.8869518121087248
4403000000.0 0.5504642163016146 -0.852979912707215
4406000000.0 0.5446120447457494 -0.8627537298052266
4409000000.0 0.5632408071043624 -0.8779959350585104
4412000000.0 0.49404519473487263 -0.8849038990261152
4416000000.0 0.5215695021367139 -0.845980073976987
4419000000.0 0.535807281267054 -0.8726160820293967
4422000000.0 0.5473089513941474 -0.8448185348898714
4425000000.0 0.5710639526722832 -0.8613358420128102
4428000000.0 0.5290517776803743 -0.8560333564675559
4431000000.0 0.5565024615212165 -0.8783047800698062
4434000000.0 0.5293845803366115 -0.8639138146485777
4438000000.0 0.5678080698738511 -0.8818232145973737
4441000000.0 0.5642210401772939 -0.8805070148662879
4444000000.0 0.5364026563010521 -0.8400535983234274
4447000000.0 0.522630097675489 -0.861943765974263
4450000000.0 0.5547214135866292 -0.8324808303801348
4453000000.0 0.5668872722938798 -0.8701791823091206
4456000000.0 0.5253018771010107 -0.8402171877345848
4459000000.0 0.5074000639115852 -0.8393224777317936
4462000000.0 0.5741984842560572 -0.9137248419315402
4466000000.0 0.5466544327075278 -0.8989065314028362
4469000000.0 0.5589857147215403 -0.857301920981582
4472000000.0 0.5314148962617209 -0.8970786575598406
4475000000.0 0.5314475318903692 -0.8418461832799062
4478000000.0 0.5337237213287267 -0.9246884127869139
4481000000.0 0.5034377679013907 -0.8529854372160188
4484000000.0 0.5030374105774463 -0.8775754205191316
4488000000.0 0.5222384684101684 -0.8680363497835772
4491000000.0 0.5218791715510819 -0.8790256270484641
4494000000.0 0.5344425076781965 -0.8492935762965625
4497000000.0 0.5434181626770833 -0.8565055497928848
4500000000.0 0.5513329587935484 -0.8770538749533225
4503000000.0 0.5371168197303466 -0.8757491387322487
4506000000.0 0.5142129263439107 -0.8709476117368526
4509000000.0 0.515379698091594 -0.8466623537899314
4512000000.0 0.5267678465675996 -0.8630360497213673
4516000000.0 0.5469581153710258 -0.8825298005026565
4519000000.0 0.5168828161866323 -0.8324241095291547
4522000000.0 0.5279577254477628 -0.8689066741630864
4525000000.0 0.5396842898201458 -0.849856015927183
4528000000.0 0.5533655135097819 -0.8762949046315764
4531000000.0 0.5514779103141738 -0.8706148352714234
4534000000.0 0.5170704846597822 -0.8630218468967912
4538000000.0 0.542071238434021 -0.8674879793373155
4541000000.0 0.48896317096313385 -0.8825268982689438
4544000000.0 0.5194087968674477 -0.8517708289276178
4547000000.0 0.549915012855834 -0.8505697976579993
4550000000.0 0.5246050430788064 -0.8696840964249087
4553000000.0 0.513740820040923 -0.8744507660395111
4556000000.0 0.5026608406636458 -0.8710612572412508
4559000000.0 0.5153728078102556 -0.880895751870804
4562000000.0 0.5426061974933263 -0.8800025409265351
4566000000.0 0.5369860623492344 -0.888268627275662
4569000000.0 0.5228386273714325 -0.856418039675089
4572000000.0 0.5150308457879552 -0.8665187603985786
4575000000.0 0.5123351782383221 -0.8929546582295497
4578000000.0 0.5478219631233046 -0.8972999504791073
4581000000.0 0.49953770098054384 -0.885216514391195
4584000000.0 0.5073533717346385 -0.8750899277471043
4588000000.0 0.5475085729509095 -0.8806430153538
4591000000.0 0.540067602253125 -0.8704774500493913
4594000000.0 0.5138487344710898 -0.8710531420435262
4597000000.0 0.5056026111927754 -0.8999297178282095
4600000000.0 0.4869597344977509 -0.8768855436122257
4603000000.0 0.525444239425494 -0.8852484957929593
4606000000.0 0.5272491803881854 -0.8741338452921913
4609000000.0 0.5275727815755995 -0.8939134192298546
4612000000.0 0.5245423355361196 -0.8961820658998141
4616000000.0 0.5162824375073464 -0.8740427697237112
4619000000.0 0.5268155426897838 -0.8856021149417798
4622000000.0 0.524130096086365 -0.882123995132323
4625000000.0 0.48383538567873163 -0.8896393214104515
4628000000.0 0.5241015352527914 -0.8704147677388678
4631000000.0 0.5019063096320633 -0.8860894059377368
4634000000.0 0.49675778991198094 -0.8801285441480207
4638000000.0 0.5184255671694701 -0.8903583659288681
4641000000.0 0.5358701256870358 -0.8805177560209221
4644000000.0 0.5015345923617286 -0.8590063277923525
4647000000.0 0.528946042356115 -0.884423619125271
4650000000.0 0.49660594154124826 -0.8899831876917617
4653000000.0 0.521469155258443 -0.8936535376748089
4656000000.0 0.5022755724486365 -0.8951192338030299
4659000000.0 0.5069016590140186 -0.8842789016303599
4662000000.0 0.5260814121108722 -0.9236464834485111
4666000000.0 0.5145634929435539 -0.8884402963276615
4669000000.0 0.5229188366606456 -0.8812710089775138
4672000000.0 0.512460567468302 -0.9074798289101755
4675000000.0 0.4984321836397929 -0.8868235685621881
4678000000.0 0.4978982023892436 -0.8859931069862683
4681000000.0 0.48800696394291065 -0.9192921700692871
4684000000.0 0.4695783358115785 -0.9046857873724659
4688000000.0 0.49247919574175825 -0.8654280490457278
4691000000.0 0.5288155374415819 -0.8745617670510492
4694000000.0 0.5134156438851908 -0.8756962011695024
4697000000.0 0.46120089412776755 -0.8556735510342549
4700000000.0 0.5192101902528717 -0.869637677370416
4703000000.0 0.5159181144476584 -0.8629718722292967
4706000000.0 0.4924991438622679 -0.8971158359899865
4709000000.0 0.5022426152879689 -0.8964277940091029
4712000000.0 0.5342981939714392 -0.9087109748472076
4716000000.0 0.5067149919576991 -0.9016365819779948
4719000000.0 0.5339921009241931 -0.9006438029350635
4722000000.0 0.5267890925073195 -0.8691324944833766
4725000000.0 0.5011484027785998 -0.9053147355691774
4728000000.0 0.49581217701010194 -0.8863970272200548
4731000000.0 0.5155937579981901 -0.9075034441576357
4734000000.0 0.5235701669450025 -0.8808290279052566
4738000000.0 0.5241908005520542 -0.9061624344165816
4741000000.0 0.5293993602716662 -0.9371286609352136
4744000000.0 0.5090776415076547 -0.9217605877286092
4747000000.0 0.5257404993300214 -0.853728189823076
4750000000.0 0.49802185442962843 -0.9036257450534111
4753000000.0 0.5100610342169274 -0.9079421298733998
4756000000.0 0.5491126360403717 -0.8846740200290789
4759000000.0 0.5182060430461664 -0.8895638821754884
4762000000.0 0.49608937873155273 -0.9228957813596393
4766000000.0 0.5373435208525892 -0.9011005432611846
4769000000.0 0.5085697535927712 -0.9373804340750876
4772000000.0 0.5182992405983993 -0.9022420742233056
4775000000.0 0.5222147775136431 -0.9412049423292018
4778000000.0 0.4984718399522362 -0.9006112771953573
4781000000.0 0.5392556813534075 -0.8947528541322736
4784000000.0 0.5264942294771195 -0.9115797428806481
4788000000.0 0.5007916154094114 -0.9624892839637756
4791000000.0 0.5162579355926713 -0.8936537920783044
4794000000.0 0.5205895880192538 -0.9037114268244392
4797000000.0 0.4831374738435873 -0.8825746734947548
4800000000.0 0.4965123764106334 -0.8878070876472288
4803000000.0 0.47042700889586764 -0.9124683490712399
4806000000.0 0.4911328795678325 -0.9037325713172114
4809000000.0 0.4704278904661975 -0.9259711417312028
4812000000.0 0.45235890667398093 -0.9288874986755644
4816000000.0 0.5140962403763008 -0.8847717644207227
4819000000.0 0.5439552420805613 -0.9140672449158362
4822000000.0 0.5437446768761818 -0.9207736467153885
4825000000.0 0.515315013296699 -0.9113636163173029
4828000000.0 0.4990978494815982 -0.9069160871085187
4831000000.0 0.4761936291583064 -0.9305163685009364
4834000000.0 0.517565713709932 -0.9031269359450832
4838000000.0 0.5083949832965806 -0.9320824448274455
4841000000.0 0.49699184552392517 -0.8878024736498396
4844000000.0 0.5419272887738972 -0.8961755374200048
4847000000.0 0.515751094702014 -0.8619689198353157
4850000000.0 0.5052931365790613 -0.931222618361734
4853000000.0 0.4921910093567098 -0.886308827028948
4856000000.0 0.49106705710244436 -0.8927041532442592
4859000000.0 0.5161150352405366 -0.9238727608927964
4862000000.0 0.5329623941032735 -0.878073296464944
4866000000.0 0.49431117367698674 -0.952289612913324
4869000000.0 0.503028958418759 -0.9192690016589722
4872000000.0 0.5104472799350486 -0.9411337621443336
4875000000.0 0.5703411457116736 -0.9119425335666704
4878000000.0 0.5223771005328698 -0.9151980615777963
4881000000.0 0.5128653281166511 -0.9681095724520742
4884000000.0 0.5370570295525084 -0.9078968441202566
4888000000.0 0.5319958909272889 -0.8712455365109987
4891000000.0 0.5544581968206121 -0.8982922455633999
4894000000.0 0.5083485045001606 -0.9394055387538217
4897000000.0 0.5426529974254315 -0.8916992396351237
4900000000.0 0.5334183750732754 -0.9356091609315959
4903000000.0 0.4994705619110673 -0.911827563087615
4906000000.0 0.5178112431376043 -0.9250875836001047
4909000000.0 0.4704177811316316 -0.9108138141473602
4912000000.0 0.5205162142555764 -0.9526975661549621
4916000000.0 0.5536479442753897 -0.9222019460427834
4919000000.0 0.5733173856012711 -0.9023648846797798
4922000000.0 0.5627218983742943 -0.8875253466109206
4925000000.0 0.5021555688390422 -0.922266170923269
4928000000.0 0.5563997022007019 -0.8473465319252617
4931000000.0 0.5532295497464899 -0.9097398056098521
4934000000.0 0.49072196942021934 -0.8613281674047357
4938000000.0 0.5198658132178355 -0.9191480577363913
4941000000.0 0.5252546945830152 -0.8685173790787291
4944000000.0 0.5158872733565601 -0.8818850019091257
4947000000.0 0.5135580098160509 -0.9099905088847781
4950000000.0 0.48670499260997147 -0.902407195551207
4953000000.0 0.4963145577727833 -0.9839692345303948
4956000000.0 0.5129379832899027 -0.9294380821374496
4959000000.0 0.48140008847789745 -0.9073485466030748
4962000000.0 0.5204765684121558 -0.9532724332238282
4966000000.0 0.561735934268472 -0.9201876191915962
4969000000.0 0.5941862627177835 -0.9213882544502905
4972000000.0 0.5040327197429593 -0.9123586477427034
4975000000.0 0.5291996246761573 -0.8686783245482211
4978000000.0 0.5268467710452699 -0.8847333718576054
4981000000.0 0.494594623949408 -0.9355537882988565
4984000000.0 0.4907990572962295 -0.886940583755252
4988000000.0 0.5395308251677753 -0.9069780407587896
4991000000.0 0.5827518329724286 -0.8849153386838766
4994000000.0 0.5685004026638283 -0.9108643034596567
4997000000.0 0.5044106401310086 -0.9507061984388523
5000000000.0 0.5490664331576649 -0.9411626688809673
5003000000.0 0.5521325809496436 -0.9539994950710211
5006000000.0 0.5547370026552605 -0.9716980032635119
5009000000.0 0.5384094591107778 -0.9050622141244326
5012000000.0 0.5112470305765345 -0.909280449745631
5016000000.0 0.561513598517563 -0.9363759530095339
5019000000.0 0.49830724558478917 -0.8998167428204701
5022000000.0 0.5364753420113505 -0.9096745355981612
5025000000.0 0.5752944017535203 -0.979911371078587
5028000000.0 0.5184528330679854 -0.945302882301017
5031000000.0 0.5060867236416415 -0.9230763308496487
5034000000.0 0.510178236647717 -0.9323255446215191
5038000000.0 0.5095986675839277 -0.868838343069282
5041000000.0 0.5576487801769137 -0.9174771114242256
5044000000.0 0.546585255359461 -0.8470842272088956
5047000000.0 0.5263356140046181 -0.9090950170846909
5050000000.0 0.6110810471342369 -0.8283700857233195
5053000000.0 0.5480210046986631 -0.9654709807308899
5056000000.0 0.6058449947413711 -0.8867830332656653
5059000000.0 0.59492683120761 -0.8844737052062308
5062000000.0 0.5547561498149252 -0.9502162819577787
5066000000.0 0.6021868868599163 -0.9031375319133039
5069000000.0 0.5714357728334294 -0.9057965033946731
5072000000.0 0.5619073478286659 -0.8505035305232198
5075000000.0 0.5753240285632456 -0.9016626350382239
5078000000.0 0.4942924788645063 -0.9348823031188224
5081000000.0 0.5020051955407537 -0.8769891621604756
5084000000.0 0.5437350510363952 -0.9021307084178318
5088000000.0 0.5696783134423062 -0.8920856526556464
5091000000.0 0.5484074825425977 -0.9055639624546449
5094000000.0 0.5740816488937848 -0.9255883628827698
5097000000.0 0.581068477034773 -0.9162278183130194
5100000000.0 0.5525303502310532 -0.8746222317657849
5103000000.0 0.5178579395806195 -0.9150519737793472
5106000000.0 0.5784903289822014 -0.9432964752544728
5109000000.0 0.6431424338261248 -0.8866910435092712
5112000000.0 0.5377285624540316 -0.8947389696779213
5116000000.0 0.5136003977748965 -0.8576302632560129
5119000000.0 0.5705635236205875 -0.9311132848491872
5122000000.0 0.5914706971605059 -0.8548948735900157
5125000000.0 0.571494302870351 -0.8908631884025292
5128000000.0 0.5650129815428911 -0.9011024200889326
5131000000.0 0.5543089624262096 -0.887299563444097
5134000000.0 0.5347871131580297 -0.8728990799902789
5138000000.0 0.5478594109556766 -0.9229585991770064
5141000000.0 0.6090519300164675 -0.8521044911095923
5144000000.0 0.6021663237639088 -0.889411545329254
5147000000.0 0.6058657116617234 -0.9137457337470607
5150000000.0 0.6079887913951995 -0.876432422477872
5153000000.0 0.5944472291857371 -0.9327941391101404
5156000000.0 0.5939999163723827 -0.8877986344728921
5159000000.0 0.5869390838818012 -0.9320105930334228
5162000000.0 0.5661441521582484 -0.8955855907199355
5166000000.0 0.5698968798086075 -0.9103611418799991
5169000000.0 0.5942763252064313 -0.8921780948575269
5172000000.0 0.5488237033141186 -0.8333490898515046
5175000000.0 0.5864459457042892 -0.8963832064874512
5178000000.0 0.5760796089755973 -0.9143652625374107
