! Created with skrf 1.8.0 (http://scikit-rf.org).
# Hz S RI R 50.0 
!freq ReS11 ImS11
4000000000.0 0.5211318632756989 -0.8358996476636356
4003000000.0 0.5558759012030747 -0.9333919695145212
4006000000.0 0.5319186559402802 -0.8766133847787799
4009000000.0000005 0.533349507722249 -0.9341772837709281
4011999999.9999995 0.5588055043354565 -0.8724306070612767
4016000000.0 0.5620344530086657 -0.9229075618030007
4019000000.0 0.5412443488212684 -0.8518255837129713
4022000000.0000005 0.5649694695275173 -0.8756756562910655
4025000000.0000005 0.5227776448105548 -0.877868436308862
4027999999.9999995 0.5306682108911451 -0.9147071057916314
4030999999.9999995 0.5337864175866454 -0.8443742882866622
4034000000.0 0.5557555513923369 -0.870376692797367
4038000000.0000005 0.5325044156630414 -0.8933366074445698
4041000000.0000005 0.5329551581038958 -0.8951850626561502
4043999999.9999995 0.6016634991109933 -0.9426781665567135
4046999999.9999995 0.563186552597359 -0.8785310713741709
4050000000.0 0.5358398525734893 -0.9475376372744693
4053000000.0 0.493538664665821 -0.8712617559329677
4056000000.0 0.5463287055819455 -0.9029782961439112
4059000000.0 0.5517994637338113 -0.8765407408647656
4062000000.0000005 0.5217700362067959 -0.8916889036405218
4066000000.0 0.5081363449105814 -0.8668564779394312
4069000000.0 0.5317218681870266 -0.9573569239013291
4072000000.0 0.5932531840963812 -0.8930273115003878
4075000000.0 0.5640486816829977 -0.9268717116862589
4078000000.0000005 0.5442694269535507 -0.9208274853366355
4081000000.0000005 0.618007843591685 -0.8475332722727957
4083999999.9999995 0.5303104600707941 -0.9178933526140803
4088000000.0 0.5805790980837927 -0.8477515075796949
4091000000.0 0.5957492374631052 -0.9475492661563949
4094000000.0000005 0.54398421786924 -0.8769879990893018
4097000000.0000005 0.5395714945150301 -0.876558514282795
4099999999.9999995 0.5490277574145571 -0.8903106940717868
4102999999.9999995 0.5858237909873282 -0.8892366518836564
4106000000.0 0.5380326057664339 -0.9094946162061993
4109000000.0 0.5291404491850016 -0.8981375533456007
4112000000.0 0.5567389119900386 -0.8975475776363188
4115999999.9999995 0.5812995502233829 -0.915125020314114
4119000000.0 0.5861039856444406 -0.8857289837942989
4122000000.0 0.5169664699012088 -0.8696462831230415
4125000000.0 0.5051931163451422 -0.9212286611745791
4128000000.0 0.5437747007435121 -0.8453757828578818
4131000000.0 0.5094723571763987 -0.8521275686300008
4134000000.0000005 0.5356261688241837 -0.9001257014660612
4138000000.0 0.5110491475143379 -0.8825797678676526
4141000000.0 0.560352876780006 -0.8658153665661084
4144000000.0 0.5492305018970918 -0.8829658549836117
4147000000.0000005 0.5132308622727256 -0.896019795230091
4150000000.0000005 0.539780860726311 -0.9108819689990894
4152999999.9999995 0.5604849670977424 -0.8815363448086825
4155999999.9999995 0.5564810447854069 -0.9182934998389083
4159000000.0 0.548911175024543 -0.8674912798205869
4162000000.0 0.5529751209438164 -0.8825823141396818
4166000000.0000005 0.5352224822025323 -0.8701809306653769
4168999999.9999995 0.5276756536140833 -0.8797372615366602
4171999999.9999995 0.5563596248662659 -0.8743512736941329
4175000000.0 0.5428594388094957 -0.8683408291001181
4178000000.0 0.5491164582727538 -0.904680001029446
4181000000.0 0.5495967133420787 -0.8848026769960584
4184000000.0 0.5592447450549345 -0.8661975712773571
4187999999.9999995 0.543706849218177 -0.870401052313685
4191000000.0 0.5935344322570942 -0.8382985503252041
4194000000.0 0.5482205042649293 -0.8497057596115768
4197000000.0 0.5547947819920287 -0.8848491671373132
4200000000.0 0.580429741472415 -0.8611348883334168
4203000000.0000005 0.56170268727281 -0.8597066182423725
4206000000.0000005 0.5492633926578019 -0.8575386668742899
4208999999.9999995 0.5520453293193336 -0.8558473447198659
4211999999.9999995 0.517301957726638 -0.9022675608177922
4216000000.0 0.5503291706588332 -0.8603494927522504
4219000000.0000005 0.5640229173310208 -0.8550353183184456
4222000000.0000005 0.5383744171742374 -0.8827782511026145
4224999999.9999995 0.5369510063446703 -0.862763351839479
4227999999.9999995 0.5531771338837755 -0.8760987733670552
4231000000.0 0.5449894454864601 -0.8729510512906538
4234000000.0 0.5534291170013841 -0.8748661357824361
4238000000.0000005 0.5476023462941346 -0.869469420749212
4240999999.9999995 0.524793185994169 -0.8635859790765029
4244000000.0 0.5453525951122273 -0.8588965154413951
4247000000.0 0.5343623465226759 -0.8561294922531972
4250000000.0 0.5422979573984517 -0.8488553704729178
4253000000.0 0.5080471083778372 -0.8534060742303375
4256000000.0 0.5455119115573489 -0.8770490096063983
4259000000.0000005 0.5177039609355403 -0.8482003067863769
4261999999.9999995 0.5249047526988078 -0.8707260006738256
4266000000.0 0.5222001520842143 -0.8925531137099602
4269000000.0 0.5373354284914771 -0.8664483754727039
4272000000.0000005 0.5396973871670647 -0.8531951923373174
4275000000.0000005 0.5616659793656977 -0.8725619150165873
4277999999.9999995 0.5635400573979524 -0.8577169237996342
4280999999.9999995 0.5610590819035791 -0.8720578819633307
4284000000.0 0.5084170496625331 -0.8880893722394045
4288000000.0000005 0.5602192614595187 -0.8239674817408617
4291000000.0000005 0.5397781776008584 -0.8411328940232339
4293999999.9999995 0.5425041680947539 -0.8549739130865586
4297000000.0 0.5654335594573451 -0.8442404369209069
4300000000.0 0.5598879654998873 -0.8464933908444097
4303000000.0 0.5369287760092827 -0.8732626049313835
4306000000.0 0.5618308770465656 -0.863456351826731
4309000000.0 0.5465930038275805 -0.8367389594021235
4312000000.0 0.5762789110093199 -0.8535416865907111
4316000000.0 0.5632646357017381 -0.8678887803046305
4319000000.0 0.5545891183360387 -0.8375448803720579
4322000000.0 0.5255742338412376 -0.8452162017973458
4325000000.0 0.5703392485228269 -0.8782232550092764
4328000000.0 0.5269624242921981 -0.8552433587054422
4331000000.0 0.5081013573673402 -0.8608979807915854
4334000000.0 0.5299112069718345 -0.86747949536653
4338000000.0 0.5718851612119427 -0.8578673759530013
4341000000.0 0.5797507422577799 -0.8603053211799394
4344000000.0 0.5550105387833701 -0.8890748561127553
4347000000.0 0.5290372519988296 -0.8826578321049308
4350000000.0 0.5234907392832845 -0.831585260660686
4353000000.0 0.5484476341187149 -0.8334696289790712
4356000000.0 0.5059475802977065 -0.8574907691308183
4359000000.0 0.5114729710721813 -0.8225718424465366
4362000000.0 0.5084686097060502 -0.9058975530494311
4366000000.0 0.5523635009544492 -0.8981925292456598
4369000000.0 0.5133033283395837 -0.8528525350270517
4372000000.0 0.4974011538186879 -0.8565018560450235
4375000000.0 0.5247492046148042 -0.8366683082073902
4378000000.0 0.5203016273968566 -0.8473893762971119
4381000000.0 0.5300785723683218 -0.8430347270340081
4384000000.0 0.5591954677456358 -0.9212564650318039
4388000000.0 0.5186730717851237 -0.841856471808968
4391000000.0 0.5625748363481183 -0.8887459399804623
4394000000.0 0.5213793873961569 -0.8429161511086997
4397000000.0 0.5269810119347709 -0.8607079906731556
4400000000.0 0.5555102047602768 -0.904836023455208
4403000000.0 0.5317244845822319 -0.8715726642776817
4406000000.0 0.5058066966066493 -0.8711612791753403
4409000000.0 0.5433042577587712 -0.8980143739063511
4412000000.0 0.47396768772090064 -0.8821009251344413
4416000000.0 0.5176822884111133 -0.8536567033708982
4419000000.0 0.5094240026707518 -0.8799475950063135
4422000000.0 0.542895590933538 -0.8550422829307378
4425000000.0 0.5607245153091904 -0.8639614187348119
4428000000.0 0.5315324168886268 -0.8662930380431684
4431000000.0 0.5419361774509155 -0.8638700446175097
4434000000.0 0.5109876249606461 -0.8639329809010103
4438000000.0 0.5524142572370332 -0.8889593654270638
4441000000.0 0.5258395936877791 -0.8741048754238049
4444000000.0 0.5215125058832452 -0.842847910895059
4447000000.0 0.4956199820908821 -0.8752006426621306
4450000000.0 0.5357114042953957 -0.849204925103872
4453000000.0 0.5372107089782081 -0.8932869087760936
4456000000.0 0.49446565809274023 -0.8461094896489098
4459000000.0 0.4817131608229569 -0.8372619271679724
4462000000.0 0.5466116851113567 -0.9156994114612091
4466000000.0 0.543285356532358 -0.9087381233830553
4469000000.0 0.5390440652052942 -0.8411174119273842
4472000000.0 0.5232753146757485 -0.8823570619428975
4475000000.0 0.5106956768557406 -0.8475392144334497
4478000000.0 0.5298268442943305 -0.9140793444092388
4481000000.0 0.49561003281818555 -0.8659030800692205
4484000000.0 0.4786455209039462 -0.9043573789315577
4488000000.0 0.4994577736431407 -0.8785788749489011
4491000000.0 0.5069020639542541 -0.8595744307978781
4494000000.0 0.4984003394639869 -0.844238467095231
4497000000.0 0.525096336295501 -0.8691943684305439
4500000000.0 0.5272669132602483 -0.8639317649915497
4503000000.0 0.5390030463647849 -0.894018964618299
4506000000.0 0.5013865700274616 -0.874653822922483
4509000000.0 0.4955829681696091 -0.8703415691672218
4512000000.0 0.4874277664766292 -0.8619816198219894
4516000000.0 0.5328224786866348 -0.8803887104135508
4519000000.0 0.5244471484429417 -0.8584255787038741
4522000000.0 0.5119227881638538 -0.9018748075687388
4525000000.0 0.5406276612516587 -0.8554976798927398
4528000000.0 0.5461222821799798 -0.8990701664556844
4531000000.0 0.5189047414106542 -0.8467416683900703
4534000000.0 0.5141536717692137 -0.8658194503855035
4538000000.0 0.5259468791609558 -0.8711852748914142
4541000000.0 0.47020735946674913 -0.8967387608298104
4544000000.0 0.5039749527857634 -0.8666431974566332
4547000000.0 0.5163594560880017 -0.8637723930002261
4550000000.0 0.49982491550033575 -0.9035111030268843
4553000000.0 0.521592501854811 -0.8860249415760466
4556000000.0 0.49331587547677813 -0.8680236159353523
4559000000.0 0.49808578620412686 -0.8920193501618254
4562000000.0 0.5301968575767729 -0.8845280852623028
4566000000.0 0.5032375666388922 -0.8907970646920265
4569000000.0 0.5067076611864554 -0.8696359197535346
4572000000.0 0.48812149815322525 -0.8665208201716956
4575000000.0 0.4936641698971639 -0.8788971053126002
4578000000.0 0.5212179353753263 -0.9026400403361492
4581000000.0 0.48373962422613714 -0.8951476296252101
4584000000.0 0.49139587668421136 -0.8759207929498654
4588000000.0 0.5184981765065241 -0.8867479457515455
4591000000.0 0.5232023280152661 -0.8725286285358606
4594000000.0 0.47769572066426136 -0.8877538952133041
4597000000.0 0.5118063917412135 -0.897866540370773
4600000000.0 0.4714055522190915 -0.8787292710545908
4603000000.0 0.5022543617185256 -0.8923840303361112
4606000000.0 0.5061450716895319 -0.9049200592771385
4609000000.0 0.48279161266570947 -0.8763632232598324
4612000000.0 0.5134846071911161 -0.9087827106185515
4616000000.0 0.484101540212883 -0.8748171579866851
4619000000.0 0.5098426305263075 -0.8784288773423562
4622000000.0 0.4901259942325426 -0.8747411448374585
4625000000.0 0.4690567740463387 -0.8889124928306721
4628000000.0 0.5046986424759166 -0.8762347573968978
4631000000.0 0.4980446359146616 -0.8853129167606876
4634000000.0 0.48985403296560376 -0.901774293303313
4638000000.0 0.49018443207279583 -0.9050264824893811
4641000000.0 0.49787290144975604 -0.8954840160649332
4644000000.0 0.4801942174723395 -0.8723669031490906
4647000000.0 0.503181387377146 -0.889914486507192
4650000000.0 0.49355467003803144 -0.8870282482381038
4653000000.0 0.5161541322955013 -0.898722264991313
4656000000.0 0.4799140585931505 -0.9042183051687623
4659000000.0 0.4733434100169298 -0.8826776273976286
4662000000.0 0.49066448372469584 -0.8937018121963836
4666000000.0 0.4806279136972471 -0.8872207816309567
4669000000.0 0.5034996948437798 -0.8948598404795365
4672000000.0 0.47911500396406737 -0.9098297555325159
4675000000.0 0.47650636328883644 -0.9166541065252275
4678000000.0 0.48140961887393485 -0.8798403361157111
4681000000.0 0.47477436092668646 -0.9184662770115118
4684000000.0 0.4563151799506195 -0.9037217651073475
4688000000.0 0.4507210846031323 -0.8994839890464086
4691000000.0 0.5018356887138298 -0.8947352263845261
4694000000.0 0.4988664303189144 -0.8920059628878199
4697000000.0 0.45735421475073557 -0.8797084937236728
4700000000.0 0.4831034867404017 -0.8865177214346592
4703000000.0 0.48628922618416465 -0.8463768532093172
4706000000.0 0.4697105197140918 -0.897309065249445
4709000000.0 0.4761522824527065 -0.8828175329196746
4712000000.0 0.49318730981169906 -0.8928217857846856
4716000000.0 0.4708681510311487 -0.9145166176320989
4719000000.0 0.5080068922109431 -0.907307711222993
4722000000.0 0.5186187533379981 -0.8759437711319362
4725000000.0 0.48778696575681063 -0.8778907415772891
4728000000.0 0.4768213884215149 -0.8864130570497272
4731000000.0 0.5132227851761002 -0.9391901554223021
4734000000.0 0.47897767552446896 -0.8953247972574324
4738000000.0 0.5068721818103785 -0.9116499182576714
4741000000.0 0.4832445488034274 -0.912179096338914
4744000000.0 0.4580383109607964 -0.9171943686835083
4747000000.0 0.5024544829233373 -0.8882635733049078
4750000000.0 0.5060069014231382 -0.9089410528697915
4753000000.0 0.4912858229148461 -0.8855056609494146
4756000000.0 0.4953442263237083 -0.9210541911594566
4759000000.0 0.500735659602906 -0.9049969941513598
4762000000.0 0.4578485598730186 -0.9404168102927798
4766000000.0 0.49281223318706563 -0.8945772455218535
4769000000.0 0.4881228132593486 -0.9070655387609161
4772000000.0 0.47161915077603705 -0.9158449989766598
4775000000.0 0.4976716179410503 -0.9473141408268777
4778000000.0 0.4481719703822373 -0.9054345446135724
4781000000.0 0.5164408577298876 -0.915021075013789
4784000000.0 0.5039135662520694 -0.8735610952055894
4788000000.0 0.498036721029136 -0.9051503344541079
4791000000.0 0.4886276011235485 -0.9121373703119525
4794000000.0 0.524765287368456 -0.9224571463899937
4797000000.0 0.4869213584481196 -0.8977944175356714
4800000000.0 0.4851128101321259 -0.9197930800633345
4803000000.0 0.4145843755698031 -0.9216176159485809
4806000000.0 0.4941761797273363 -0.9395606623119684
4809000000.0 0.45622970468463364 -0.9330670592702298
4812000000.0 0.4537083561667284 -0.9100355838139275
4816000000.0 0.5165996460238111 -0.8795897838190392
4819000000.0 0.49960911651250683 -0.907185740273402
4822000000.0 0.5235534934705233 -0.9261861719074848
4825000000.0 0.5091683686243216 -0.9194492811083474
4828000000.0 0.47594131620098434 -0.8963100519007078
4831000000.0 0.44337480822266084 -0.9353170700180199
4834000000.0 0.5149628266992637 -0.9113794222652546
4838000000.0 0.4821281261474776 -0.9216974664102948
4841000000.0 0.4653002950859474 -0.917814202454092
4844000000.0 0.5302792288025822 -0.8919262703504419
4847000000.0 0.501728809944791 -0.8770468435442178
4850000000.0 0.4751611003277655 -0.9125051480183299
4853000000.0 0.4779058860248676 -0.8848942376525057
4856000000.0 0.4719714220402279 -0.90872807758164
4859000000.0 0.5191891752882986 -0.94952756137063
4862000000.0 0.5081151483963652 -0.8995552776403857
4866000000.0 0.49636989532568165 -0.9356971851123111
4869000000.0 0.4755210580097788 -0.9266135272323837
4872000000.0 0.4560809614075272 -0.9384433881785467
4875000000.0 0.5370527599659206 -0.9179145147131784
4878000000.0 0.47653759146441665 -0.9152067303064401
4881000000.0 0.4990620019291116 -0.9904816430792686
4884000000.0 0.5018329724471144 -0.9204934451243298
4888000000.0 0.5229715056109003 -0.8772751906678699
4891000000.0 0.5331148647302312 -0.9254491262769531
4894000000.0 0.47639671538447437 -0.9260104280217405
4897000000.0 0.5148468332716757 -0.8989518973342022
4900000000.0 0.4986738329067851 -0.9178081238862424
4903000000.0 0.5201691546603662 -0.9138886301938773
4906000000.0 0.48409328053983985 -0.9271750417745371
4909000000.0 0.4822412610752877 -0.9201138820672886
4912000000.0 0.47439486070015136 -0.9690794828617305
4916000000.0 0.4905448769472303 -0.9432853513621925
4919000000.0 0.5211631579062166 -0.9047536446423914
4922000000.0 0.5365487696887585 -0.9034321054722634
4925000000.0 0.4612204179447916 -0.9122992440482447
4928000000.0 0.5383794868500056 -0.8589959304214572
4931000000.0 0.541783872647091 -0.9179670127183335
4934000000.0 0.4837295894344139 -0.8919778776685453
4938000000.0 0.4599736057743662 -0.9650240698873409
4941000000.0 0.48052510079025 -0.8935035201967614
4944000000.0 0.49286249461853415 -0.8352947337737059
4947000000.0 0.4699907537458078 -0.8831572989387804
4950000000.0 0.4656407418647256 -0.8799785637802288
4953000000.0 0.46687828005018983 -0.9896518112582967
4956000000.0 0.4952876886284461 -0.9407281218071626
4959000000.0 0.44388293564291614 -0.91757186398071
4962000000.0 0.4943498418786777 -0.9650460852829056
4966000000.0 0.49955670465739355 -0.923977211163401
4969000000.0 0.5089494787678194 -0.953898333068178
4972000000.0 0.49774065875920614 -0.9332709713265638
4975000000.0 0.5210050530936381 -0.9151739324556533
4978000000.0 0.48389472210765344 -0.9198731493885837
4981000000.0 0.5041547922517958 -0.9512689597324047
4984000000.0 0.5048341529139322 -0.90649135017471
4988000000.0 0.520848012882507 -0.9009555522368836
4991000000.0 0.5549715931710542 -0.8961526010912684
4994000000.0 0.5210505497299277 -0.9132925496502035
4997000000.0 0.4701808084815483 -0.9127899542103468
5000000000.0 0.5288667761507713 -0.9148646911341298
5003000000.0 0.5335751004677658 -0.9128014678778201
5006000000.0 0.513731030925781 -0.9622335686584226
5009000000.0 0.5132560709630228 -0.9234900479744734
5012000000.0 0.4824015214047558 -0.9433598000109247
5016000000.0 0.5493863841905559 -0.9343104498114058
5019000000.0 0.5095023470031191 -0.9059660798167675
5022000000.0 0.504436966223407 -0.9213553397617311
5025000000.0 0.5393780426941737 -0.9618042805683686
5028000000.0 0.527525943042756 -0.9514269503429487
5031000000.0 0.49761831269956774 -0.9141190054416959
5034000000.0 0.4864383538635348 -0.9456728859584586
5038000000.0 0.4835777093830582 -0.8879097280508875
5041000000.0 0.542526333400072 -0.9010217036079626
5044000000.0 0.5126402636903256 -0.879082841671712
5047000000.0 0.5122309185432452 -0.896955953425411
5050000000.0 0.6085044165737516 -0.8448276512415098
5053000000.0 0.5404075726578719 -0.9597408806775314
5056000000.0 0.5483079840467193 -0.9093360177204081
5059000000.0 0.5823131694451207 -0.8964454874053538
5062000000.0 0.5160304465767553 -0.9457049881547742
5066000000.0 0.5517318482728538 -0.8613477237889038
5069000000.0 0.5502454368367994 -0.9149711421712621
5072000000.0 0.5079175137246044 -0.8788063514260707
5075000000.0 0.5395880649126255 -0.8642553260494211
5078000000.0 0.4732243872866073 -0.9085464124945909
5081000000.0 0.4612967826315425 -0.8811385794748935
5084000000.0 0.5488100757774583 -0.9467875118752634
5088000000.0 0.5581527459548874 -0.8960779887375064
5091000000.0 0.500030590958767 -0.960083612728192
5094000000.0 0.48373145054187744 -0.9140939670183652
5097000000.0 0.559209422889004 -0.8777522548053749
5100000000.0 0.5132819027221773 -0.8945377839684341
5103000000.0 0.4811313730092373 -0.9328050649186028
5106000000.0 0.5544720417146205 -0.9636168510896487
5109000000.0 0.5521311305829599 -0.9127744651741823
5112000000.0 0.49850176316206324 -0.9076375175057798
5116000000.0 0.5098243053354926 -0.8992141732612497
5119000000.0 0.5135141356248076 -0.8959907779767182
5122000000.0 0.4971304334343227 -0.8644668504242938
5125000000.0 0.5617804930560668 -0.8945698878089645
5128000000.0 0.5368973814375508 -0.9048274726452712
5131000000.0 0.4978174681166983 -0.8786199839699254
5134000000.0 0.5749396003547107 -0.8980917574803824
5138000000.0 0.5687352813807265 -0.8912262210018765
5141000000.0 0.5738727779557988 -0.8766361765833408
5144000000.0 0.5626797399298772 -0.8687199523762146
5147000000.0 0.5564938176483328 -0.9009916239196651
5150000000.0 0.5599856056610478 -0.9192342215820428
5153000000.0 0.54037568985623 -0.8969455552228267
5156000000.0 0.5404525703623067 -0.835737203911943
5159000000.0 0.5618508107334623 -0.9246928984924978
5162000000.0 0.5051353217967383 -0.9480091973897649
5166000000.0 0.5102959040256168 -0.9253135701404304
5169000000.0 0.5568006461604874 -0.9370887626648714
5172000000.0 0.5618426811986439 -0.9028082410778754
5175000000.0 0.5671359846944931 -0.9291032571182801
5178000000.0 0.5180003331216256 -0.9436334017368542
