! Created with skrf 1.8.0 (http://scikit-rf.org).
# Hz S RI R 50.0 
!freq ReS11 ImS11
4000000000.0 0.547971619001595 -0.8896031746989533
4003000000.0 0.5597554195851902 -0.9034413249780874
4006000000.0 0.5306669512351543 -0.9006941187303703
4009000000.0000005 0.5523645763735776 -0.951070578209487
4011999999.9999995 0.6329320983629962 -0.8842846899560024
4016000000.0 0.5061289114514974 -0.9353524615453653
4019000000.0 0.5368950793152929 -0.9100139166554149
4022000000.0000005 0.5706813639898217 -0.8759563432200519
4025000000.0000005 0.4858919395001519 -0.9821893847040251
4027999999.9999995 0.488003776524081 -0.9146879753897453
4030999999.9999995 0.48522736801601407 -0.8394327330188298
4034000000.0 0.4946261365944228 -0.892880795215619
4038000000.0000005 0.501709746909635 -0.9175456736580027
4041000000.0000005 0.5242396973360939 -0.9059234108257357
4043999999.9999995 0.5514253862665115 -0.9875238157771724
4046999999.9999995 0.5409107090754476 -0.929957285715707
4050000000.0 0.5498799465949008 -0.904176235102164
4053000000.0 0.49705746646609916 -0.8946352153859117
4056000000.0 0.5227586210388535 -0.9311902228547897
4059000000.0 0.49184377234373555 -0.8951591626892689
4062000000.0000005 0.5174883708684708 -0.8710220376267956
4066000000.0 0.4839583320248835 -0.8495572917123961
4069000000.0 0.5343081537736225 -0.9721695951001387
4072000000.0 0.5878502497352645 -0.8801699302514764
4075000000.0 0.5884190710227158 -0.9466201277424913
4078000000.0000005 0.5264973643180197 -0.9028376985986915
4081000000.0000005 0.5811498383007474 -0.8826406570375419
4083999999.9999995 0.5427004546104803 -0.94063315352212
4088000000.0 0.5392159967012743 -0.8752925427469718
4091000000.0 0.5632074698492835 -0.9755101351295298
4094000000.0000005 0.5147609952737986 -0.9320546929529147
4097000000.0000005 0.5413914480550371 -0.9509338458804155
4099999999.9999995 0.5204055201862592 -0.9098444472858271
4102999999.9999995 0.5370482550342969 -0.9059198897059609
4106000000.0 0.5225225107292458 -0.9221937145361002
4109000000.0 0.5367508884342824 -0.9309465066125137
4112000000.0 0.5345450132920748 -0.8964015091914698
4115999999.9999995 0.562934223867747 -0.8720538956620915
4119000000.0 0.5085080154661581 -0.9195915976012583
4122000000.0 0.4881531019284584 -0.9107040932925127
4125000000.0 0.5474734833366367 -0.9305857899029859
4128000000.0 0.5282605596269622 -0.8475981892437496
4131000000.0 0.5259548517539127 -0.9115334757543296
4134000000.0000005 0.5615811981888564 -0.8861754273207346
4138000000.0 0.4995847548354829 -0.8794662384800391
4141000000.0 0.4994849604884886 -0.9109754173280296
4144000000.0 0.5323263684519361 -0.8933745016875542
4147000000.0000005 0.5351722127829844 -0.8959223979114601
4150000000.0000005 0.5167385094438117 -0.928103002367124
4152999999.9999995 0.5319207698448283 -0.9166331785662849
4155999999.9999995 0.5323177580464616 -0.9150844697824277
4159000000.0 0.5174367768759266 -0.9179009265593119
4162000000.0 0.5220221255353779 -0.8668692346450223
4166000000.0000005 0.5377609218136593 -0.9206450122655535
4168999999.9999995 0.4857025641750039 -0.9136332917875735
4171999999.9999995 0.5440609292232294 -0.897504413569432
4175000000.0 0.5523774421337447 -0.8888168530753868
4178000000.0 0.4968374695876803 -0.8935177801868307
4181000000.0 0.5210939948434905 -0.8953567457577378
4184000000.0 0.5228133206055259 -0.8866314139039237
4187999999.9999995 0.5161203733262082 -0.9018506158653727
4191000000.0 0.54665822890913 -0.8694970133265411
4194000000.0 0.5238887642154474 -0.8816029315802744
4197000000.0 0.5565894887995829 -0.9036419421702278
4200000000.0 0.5384586597889045 -0.8852411889185956
4203000000.0000005 0.5313771292641232 -0.8931040106825839
4206000000.0000005 0.529801190781721 -0.894895578795637
4208999999.9999995 0.5390785813577376 -0.8642457523483443
4211999999.9999995 0.4806981349003908 -0.9258091756474239
4216000000.0 0.5385939721604088 -0.893964972781186
4219000000.0000005 0.5493003626074888 -0.8973635518880135
4222000000.0000005 0.5150183779699318 -0.8997331345834549
4224999999.9999995 0.5332792160320989 -0.8741703226735544
4227999999.9999995 0.5348174781117248 -0.9077220881678217
4231000000.0 0.5213210047878339 -0.8892749299705877
4234000000.0 0.5172516077128056 -0.8810654546679798
4238000000.0000005 0.4981665706039277 -0.8928955847826919
4240999999.9999995 0.5128267129105448 -0.8914047260851878
4244000000.0 0.5125204822940579 -0.8915551927904544
4247000000.0 0.5362870082085341 -0.8699827768595186
4250000000.0 0.5147021588717892 -0.8634820501036086
4253000000.0 0.5071523696169706 -0.8691406509909272
4256000000.0 0.5177645003760964 -0.9094417773201007
4259000000.0000005 0.5004985492874502 -0.8544221557792158
4261999999.9999995 0.5011002512050944 -0.9000584717303317
4266000000.0 0.5009883161202255 -0.899519425591062
4269000000.0 0.5263924027443723 -0.8644623741809268
4272000000.0000005 0.5097902816509494 -0.8776281768231924
4275000000.0000005 0.5123424532863466 -0.8756197369329747
4277999999.9999995 0.5483576744769559 -0.9198562331958298
4280999999.9999995 0.5497855367289757 -0.8849647460533357
4284000000.0 0.48902705955371606 -0.9164962278836077
4288000000.0000005 0.5392893470744803 -0.8783434798232163
4291000000.0000005 0.5082924517247225 -0.864377949191794
4293999999.9999995 0.5030309502268574 -0.8790885063251875
4297000000.0 0.5152623963696372 -0.849918869692499
4300000000.0 0.542562067392388 -0.8644075310066528
4303000000.0 0.5078698409757356 -0.8885570749516281
4306000000.0 0.5531647522838047 -0.8766363747606077
4309000000.0 0.539052951898749 -0.8916655612831168
4312000000.0 0.5568248311511111 -0.8903759326698377
4316000000.0 0.5403363333346232 -0.8967313039828609
4319000000.0 0.5247093145339969 -0.8704263911565271
4322000000.0 0.5049793803010432 -0.8718928198411863
4325000000.0 0.5746900535847752 -0.8655480798763923
4328000000.0 0.4837272302035452 -0.866509654857864
4331000000.0 0.5192924795372559 -0.8951938411274524
4334000000.0 0.5183246220178798 -0.8869531553339998
4338000000.0 0.5553462225398631 -0.873524224943598
4341000000.0 0.556218107673581 -0.8949153563370349
4344000000.0 0.5197598418962333 -0.8911102983320616
4347000000.0 0.5000395047484657 -0.9212324844394576
4350000000.0 0.4952433389263565 -0.8540255072363846
4353000000.0 0.5190906437364319 -0.8577373900748688
4356000000.0 0.47538190718707296 -0.9092654886128415
4359000000.0 0.49442521062440836 -0.8353245032800821
4362000000.0 0.4853992979814282 -0.9046328249723476
4366000000.0 0.5142206308869726 -0.8891355718429734
4369000000.0 0.4862990779173816 -0.8487269096611015
4372000000.0 0.46905143201755467 -0.8986772907492817
4375000000.0 0.5346947821404691 -0.8729492000552371
4378000000.0 0.5027048986051001 -0.8632688553090276
4381000000.0 0.5119131845134194 -0.8607324401156093
4384000000.0 0.5390099485203314 -0.9357197250273066
4388000000.0 0.4992526983747145 -0.8722456323596592
4391000000.0 0.5248468515286663 -0.8945177759010675
4394000000.0 0.4873008216096084 -0.8579643288410059
4397000000.0 0.4854493881553136 -0.8952769373772043
4400000000.0 0.5131749319335979 -0.8902220729173531
4403000000.0 0.5158741663494602 -0.888170561699419
4406000000.0 0.48036866972244063 -0.8999627219033667
4409000000.0 0.4980234250406995 -0.9049154835901582
4412000000.0 0.4459242791500488 -0.9188683930399484
4416000000.0 0.49291538060546103 -0.8930770709261937
4419000000.0 0.48626176516222064 -0.900948793197363
4422000000.0 0.511179655706609 -0.8745827687624086
4425000000.0 0.5258801002988931 -0.8923802433667787
4428000000.0 0.48691180378477816 -0.8934286782051539
4431000000.0 0.5154787718830196 -0.9100236967980275
4434000000.0 0.49352859702083524 -0.8834719540012543
4438000000.0 0.5254661843128393 -0.8970382066508061
4441000000.0 0.5040352555071732 -0.8904729433348021
4444000000.0 0.48831638477323447 -0.8739309970166732
4447000000.0 0.48228957641396863 -0.89165146175825
4450000000.0 0.4962767712473553 -0.8599454923522932
4453000000.0 0.5095563603371696 -0.892332070359732
4456000000.0 0.4773899403026206 -0.863783702308522
4459000000.0 0.4609977919038825 -0.864313168272256
4462000000.0 0.5108982082934412 -0.9401384739417173
4466000000.0 0.5164402282290256 -0.9284906920775193
4469000000.0 0.528443483746997 -0.8790370097562364
4472000000.0 0.4793059977745689 -0.926543811054922
4475000000.0 0.48204670537599814 -0.8748760115613134
4478000000.0 0.5101495433567622 -0.9246850119028782
4481000000.0 0.4750040235174363 -0.8628763724504815
4484000000.0 0.4505026484457867 -0.9107522639410186
4488000000.0 0.47846034563250006 -0.8957793834322062
4491000000.0 0.4947641643340012 -0.8892252160910546
4494000000.0 0.49923748676684426 -0.8858560907065403
4497000000.0 0.4898265243739532 -0.8707578928470949
4500000000.0 0.4989736770643071 -0.8757628180148191
4503000000.0 0.5049777964760711 -0.925745737281058
4506000000.0 0.4861423990855966 -0.8832910062719772
4509000000.0 0.4755984091860053 -0.8840345204650923
4512000000.0 0.46352317534355153 -0.8835560777820389
4516000000.0 0.4983074269470899 -0.9220949565312939
4519000000.0 0.4781255377724577 -0.8774055363235745
4522000000.0 0.4767285422109031 -0.8910310429426451
4525000000.0 0.5141744451670873 -0.8779799372135781
4528000000.0 0.49961691926223234 -0.9180349539637721
4531000000.0 0.4843741873085736 -0.8986538109988316
4534000000.0 0.4569554852719613 -0.8806850601164689
4538000000.0 0.48239085638896906 -0.8898774311583142
4541000000.0 0.42986225127293404 -0.8921664408419467
4544000000.0 0.4705198422246878 -0.8878390533970475
4547000000.0 0.5011537563877153 -0.87480689438172
4550000000.0 0.47398513925368746 -0.9008696470240969
4553000000.0 0.4673339799065606 -0.9061192558515286
4556000000.0 0.4585937399531381 -0.8893190555582184
4559000000.0 0.46655207724163017 -0.9048458722323955
4562000000.0 0.4840450592003255 -0.9141015220378081
4566000000.0 0.4546401001640746 -0.9069469213698067
4569000000.0 0.4611685273423498 -0.8869874853610952
4572000000.0 0.48356014808442593 -0.8852604291373567
4575000000.0 0.44165949179908864 -0.907666960291347
4578000000.0 0.5000190621821374 -0.9185482715876891
4581000000.0 0.4599686652249755 -0.9200409009272321
4584000000.0 0.4606968087493238 -0.9116860993456251
4588000000.0 0.4906014267665062 -0.9231788806595866
4591000000.0 0.5113239731242767 -0.892280305488586
4594000000.0 0.4449934991242505 -0.9099832092455185
4597000000.0 0.4901015845602408 -0.9308346424984416
4600000000.0 0.44436932481314984 -0.9087771096096313
4603000000.0 0.45322968517912265 -0.9278604461371598
4606000000.0 0.48331664052437184 -0.9137598727010283
4609000000.0 0.47672599482020994 -0.9014347655316255
4612000000.0 0.46406868645221344 -0.9050124875357811
4616000000.0 0.4627508978115116 -0.8975584668822044
4619000000.0 0.4721524357061918 -0.8992069604678306
4622000000.0 0.46691035270466097 -0.9248684679449688
4625000000.0 0.4292539528206384 -0.89762337198086
4628000000.0 0.48792077710539883 -0.9039749277713887
4631000000.0 0.44569851860528353 -0.9211162478929131
4634000000.0 0.4562009044371766 -0.9188358155246108
4638000000.0 0.48332313236608526 -0.9217993564531654
4641000000.0 0.4758892603959257 -0.8960206949301682
4644000000.0 0.4702258007291622 -0.9116914805882997
4647000000.0 0.47007289559098053 -0.9163173066221674
4650000000.0 0.44819856599678276 -0.9093051841840007
4653000000.0 0.47860971482953735 -0.9111557684624847
4656000000.0 0.44462329649057414 -0.9043425784684441
4659000000.0 0.45934699674812934 -0.9112153368798599
4662000000.0 0.45570175907839294 -0.9345119548908478
4666000000.0 0.43661806973170575 -0.9187345404988785
4669000000.0 0.4715250055729018 -0.911303152813614
4672000000.0 0.4381921891159254 -0.930035457293795
4675000000.0 0.4503897616788018 -0.916298969770267
4678000000.0 0.4507485314057234 -0.8981229237560939
4681000000.0 0.43664056360221426 -0.9128714099012815
4684000000.0 0.4303313415770718 -0.9396773505889586
4688000000.0 0.4404570258282125 -0.9124364935724405
4691000000.0 0.4859992575827855 -0.8990008754958247
4694000000.0 0.46579261645450076 -0.8971304479949612
4697000000.0 0.419716296262965 -0.8869382022748507
4700000000.0 0.45940396144838547 -0.888117975046218
4703000000.0 0.4672740386878905 -0.8759294258555327
4706000000.0 0.4486641841791222 -0.91494379468174
4709000000.0 0.4272312330789185 -0.9404767584802991
4712000000.0 0.4683002682846879 -0.9188480993543144
4716000000.0 0.4425042201354781 -0.9209753349966336
4719000000.0 0.5009219147244081 -0.8935371052443081
4722000000.0 0.4730854806438105 -0.9298240043789698
4725000000.0 0.44249581070536725 -0.9102969421900726
4728000000.0 0.4385162072987488 -0.9135985751470294
4731000000.0 0.47806167364853924 -0.928427366724382
4734000000.0 0.4392125369277394 -0.8983651300252046
4738000000.0 0.48166191532988567 -0.9466637657718571
4741000000.0 0.46339347996932495 -0.9392742095260591
4744000000.0 0.4251993142352926 -0.9331952566922275
4747000000.0 0.46468150382289786 -0.9082586120873888
4750000000.0 0.42968237562991596 -0.9283011829227658
4753000000.0 0.46285981652292907 -0.9344261372892996
4756000000.0 0.42873858761660977 -0.9162422047230924
4759000000.0 0.46950339135959646 -0.9357386000068283
4762000000.0 0.44164775393949207 -0.9635573598683134
4766000000.0 0.4383933464527385 -0.9426596289537887
4769000000.0 0.46494525310389895 -0.9259036916894864
4772000000.0 0.4464449451886813 -0.936149389901522
4775000000.0 0.45324729748930004 -0.9850037350043394
4778000000.0 0.47183348564013095 -0.9428037056202326
4781000000.0 0.4561155982130814 -0.92508685728856
4784000000.0 0.4810293363283399 -0.9126186671652419
4788000000.0 0.44153411639440887 -0.9414389290787987
4791000000.0 0.4329179195426529 -0.9263352621504801
4794000000.0 0.4898966840819913 -0.9650931800347382
4797000000.0 0.44481222024860334 -0.935860181940534
4800000000.0 0.4378376710807656 -0.9239489348987384
4803000000.0 0.40891704121550104 -0.9069523467038795
4806000000.0 0.45972146317215745 -0.9375429036400961
4809000000.0 0.40028051552118804 -0.9563020898681871
4812000000.0 0.4227233160401428 -0.9502923055108624
4816000000.0 0.4529095847137935 -0.9047056255944089
4819000000.0 0.4669059423657667 -0.9683987048186999
4822000000.0 0.46365869380274083 -0.9435364610452172
4825000000.0 0.48326989537608034 -0.9498543234473097
4828000000.0 0.44631351097647376 -0.9345054637640345
4831000000.0 0.41737712007496847 -0.9763454814197821
4834000000.0 0.4649027472705652 -0.9310260684964404
4838000000.0 0.4304683441560462 -0.9580243659933463
4841000000.0 0.44572517674191325 -0.9415087881079478
4844000000.0 0.4878171734855436 -0.929392170520503
4847000000.0 0.46264129416396266 -0.9105135604781542
4850000000.0 0.44206370402416445 -0.9586301069561521
4853000000.0 0.4358574667716915 -0.9135933715565425
4856000000.0 0.4340043057289006 -0.9349816474658964
4859000000.0 0.4448855079228595 -0.9869953846773245
4862000000.0 0.4746993296283714 -0.9052197915643465
4866000000.0 0.42998493480008687 -0.9622778342655084
4869000000.0 0.431727871297912 -0.9397373972176163
4872000000.0 0.4191481560383826 -0.9621009569298863
4875000000.0 0.513116020941913 -0.9588611287426706
4878000000.0 0.444569100225188 -0.9634706040716462
4881000000.0 0.4453932670601316 -1.0105485814182742
4884000000.0 0.4927965309227101 -0.9245640936551627
4888000000.0 0.4971897644290058 -0.9178631641197598
4891000000.0 0.495603263177825 -0.9711468073584105
4894000000.0 0.4566320728514578 -0.9443129783215646
4897000000.0 0.47186328484385126 -0.9296306764357496
4900000000.0 0.46143982248762766 -0.9458433537095443
4903000000.0 0.47280824674830324 -0.9561200157795742
4906000000.0 0.4747192935358702 -0.9695727172586361
4909000000.0 0.46311557651818674 -0.9497005736176634
4912000000.0 0.431855038036093 -0.9717034553277112
4916000000.0 0.49220186380809183 -0.9381084958435595
4919000000.0 0.4988155252221599 -0.9564781813198238
4922000000.0 0.5132602468165491 -0.943594267438256
4925000000.0 0.41742639211026505 -0.9150072581570864
4928000000.0 0.5140668038949856 -0.902954249959823
4931000000.0 0.478198061904029 -0.9212730299563867
4934000000.0 0.44049137417745415 -0.8843609890429689
4938000000.0 0.4348796431301136 -0.9418447984468985
4941000000.0 0.4636228703578259 -0.9122663653150398
4944000000.0 0.4368468558984093 -0.9064159817531202
4947000000.0 0.4661859031435061 -0.9121512951296168
4950000000.0 0.4304356810912233 -0.9114225088135542
4953000000.0 0.4206837255518564 -0.9911989952713091
4956000000.0 0.41418943328521873 -0.9626367579330086
4959000000.0 0.392834547422659 -0.9391890787108638
4962000000.0 0.4586579392983823 -0.9412161690535799
4966000000.0 0.47435018169756193 -0.9367671531827544
4969000000.0 0.474354296389945 -0.997911294159909
4972000000.0 0.4356714137680451 -0.9635548105222682
4975000000.0 0.48539219279480383 -0.9101385898819949
4978000000.0 0.4182900430780341 -0.9404625858940863
4981000000.0 0.4428593994995238 -0.9867912738103185
4984000000.0 0.4589548147406261 -0.9386799147164264
4988000000.0 0.46021285704451087 -0.941991184495845
4991000000.0 0.5057075673593894 -0.9262687992561899
4994000000.0 0.4953282557482359 -0.9121333072112845
4997000000.0 0.3904458764185346 -0.9498290892595767
5000000000.0 0.47926783998920663 -0.9580400335549745
5003000000.0 0.48998941725841016 -0.9666038842438971
5006000000.0 0.4773001022605248 -0.994449873553322
5009000000.0 0.48006712733109813 -0.933439070680127
5012000000.0 0.4582767555852719 -0.9725775561595387
5016000000.0 0.5264561855970252 -0.9621560018752188
5019000000.0 0.45066212499156433 -0.9626568069402437
5022000000.0 0.4683030390352566 -0.929991028365863
5025000000.0 0.4964517295953372 -0.9940696271233325
5028000000.0 0.4539884441395674 -0.9600569855843502
5031000000.0 0.4651181541965597 -0.9441012410583312
5034000000.0 0.4723442968353822 -0.9766789922202648
5038000000.0 0.44886305274833144 -0.9298846961198017
5041000000.0 0.5051442340089658 -0.9395240546470465
5044000000.0 0.4877283510625684 -0.9170735786238314
5047000000.0 0.47467351848055045 -0.970741762764177
5050000000.0 0.5335498744800595 -0.9100667524843836
5053000000.0 0.49474998678310256 -0.9950991765442811
5056000000.0 0.5198229109784205 -0.936843277714799
5059000000.0 0.5330809118719744 -0.9362467068134162
5062000000.0 0.44340321597005944 -0.9768638400957327
5066000000.0 0.5136919655714682 -0.9240555892575614
5069000000.0 0.4832469442836213 -0.9291648704897022
5072000000.0 0.46856473917428876 -0.9403694900443595
5075000000.0 0.4797871866325495 -0.9154000078229512
5078000000.0 0.45922671736038645 -0.952967534184133
5081000000.0 0.4348398185938029 -0.9213041093236807
5084000000.0 0.47239230849317304 -0.9659081178636911
5088000000.0 0.5129329271092646 -0.9326703005540329
5091000000.0 0.43557425504600533 -0.971872257221023
5094000000.0 0.4424055113281239 -0.9585472429429261
5097000000.0 0.5162591200495459 -0.9080701554821116
5100000000.0 0.47462489016878967 -0.9116227315047788
5103000000.0 0.4467014215767502 -0.9584507974098437
5106000000.0 0.5093730085970603 -0.9755102080470006
5109000000.0 0.4919969189913798 -0.9480085923015766
5112000000.0 0.4822885774690817 -0.9745705201740174
5116000000.0 0.48542946323338254 -0.8700536186630938
5119000000.0 0.49439140640127793 -0.962162164281195
5122000000.0 0.48494757793587345 -0.907997346797127
5125000000.0 0.48827625214509757 -0.897707556434769
5128000000.0 0.4674867888139743 -0.916954489553844
5131000000.0 0.47215070865811753 -0.9393285638442108
5134000000.0 0.46914719243180286 -0.9254765874618958
5138000000.0 0.5229424176584979 -0.9649392914507022
5141000000.0 0.5465885386107484 -0.8855845824425617
5144000000.0 0.5172304323914136 -0.9553163527228428
5147000000.0 0.5256083042618498 -0.9805954944955031
5150000000.0 0.4945596479411605 -0.9522882442644637
5153000000.0 0.5209056698158376 -0.9292550774788758
5156000000.0 0.48638315095979134 -0.9188094608981497
5159000000.0 0.525553969369772 -0.9748391401827696
5162000000.0 0.45465499683411736 -0.9891825276108748
5166000000.0 0.48710868639308447 -0.966520448444494
5169000000.0 0.502527726570033 -0.9684365835437602
5172000000.0 0.5117310418506471 -0.8798718758880282
5175000000.0 0.5129737385405992 -0.9174060107268812
