! Created with skrf 1.8.0 (http://scikit-rf.org).
# Hz S RI R 50.0 
!freq ReS11 ImS11
4000000000.0 0.5758543919450857 -0.8390284859725327
4003000000.0 0.6088171418671963 -0.9092903889984756
4006000000.0 0.5102283469314133 -0.8753359367718397
4009000000.0000005 0.533809462507777 -0.8792467600579484
4011999999.9999995 0.6045791641502629 -0.8613245974138009
4016000000.0 0.5489256276403128 -0.8796801789269642
4019000000.0 0.5739849313355985 -0.8879669908985746
4022000000.0000005 0.5953615702326287 -0.8583292939588391
4025000000.0000005 0.49236363455849447 -0.9211858516282294
4027999999.9999995 0.5331672091820504 -0.8873908780976901
4030999999.9999995 0.5119257706750902 -0.8016845071841
4034000000.0 0.516118303174505 -0.8940236016244512
4038000000.0000005 0.5600691391870956 -0.9020416254210671
4041000000.0000005 0.5559019527977002 -0.8935393671399964
4043999999.9999995 0.6019832228243052 -0.9524387192690437
4046999999.9999995 0.6132358956419897 -0.9098627698951024
4050000000.0 0.5286353721297068 -0.9074558094810217
4053000000.0 0.49178757970308973 -0.8768800925019462
4056000000.0 0.5543347941223938 -0.8822234926340313
4059000000.0 0.5613876197651833 -0.8774617278152352
4062000000.0000005 0.5173668346318618 -0.8834702566423223
4066000000.0 0.5071197131819103 -0.8425969321982494
4069000000.0 0.5477355211215833 -0.9098586200373295
4072000000.0 0.5539132671080595 -0.8523269434217335
4075000000.0 0.6176803240078886 -0.9221287974690224
4078000000.0000005 0.5399274018562097 -0.8830846210578479
4081000000.0000005 0.6638973845311679 -0.8557660593893481
4083999999.9999995 0.5302018603400711 -0.8718678907665081
4088000000.0 0.5958342556478833 -0.845611812147017
4091000000.0 0.5716837326695057 -0.9148098490895424
4094000000.0000005 0.5788284773249109 -0.8576310226138524
4097000000.0000005 0.544438818853883 -0.8730841704607976
4099999999.9999995 0.540310908433889 -0.8718846128116473
4102999999.9999995 0.5625265934518091 -0.8804080178821523
4106000000.0 0.526689333227577 -0.8763172979354917
4109000000.0 0.5254550706045086 -0.9198305703426838
4112000000.0 0.5690890015685518 -0.8662372888519061
4115999999.9999995 0.583647674292396 -0.8824064114668858
4119000000.0 0.5559210566043047 -0.8549281996617207
4122000000.0 0.5039171351561197 -0.9035831781345016
4125000000.0 0.4978483435133273 -0.9060937434070816
4128000000.0 0.5721317766838805 -0.8635680895232106
4131000000.0 0.5404306915911299 -0.8558887902074889
4134000000.0000005 0.5103912756341937 -0.8693518480230301
4138000000.0 0.5568344441957244 -0.849876039807626
4141000000.0 0.5516943015229359 -0.8481220784401455
4144000000.0 0.588003654376626 -0.8417901750709454
4147000000.0000005 0.5374409985650994 -0.86009147412213
4150000000.0000005 0.5623736185955337 -0.9242269424778091
4152999999.9999995 0.5516776536818108 -0.8932223446942619
4155999999.9999995 0.5560290866438066 -0.8871578457771992
4159000000.0 0.5402481207507316 -0.8358587118700853
4162000000.0 0.5814692151747913 -0.8606918817268279
4166000000.0000005 0.5475896708418397 -0.8902697507936095
4168999999.9999995 0.5085738135812858 -0.8442504550813678
4171999999.9999995 0.5743476719261151 -0.8441127742715065
4175000000.0 0.5866996046431587 -0.8750381700907797
4178000000.0 0.5781290249474198 -0.8858246770543123
4181000000.0 0.5299839099764451 -0.894601446513302
4184000000.0 0.5493121570763972 -0.8842499107513918
4187999999.9999995 0.5326151679883837 -0.8533419945686944
4191000000.0 0.5856429186427674 -0.830597784465833
4194000000.0 0.5598616464941554 -0.857976661435654
4197000000.0 0.5811926925803488 -0.8694104930202585
4200000000.0 0.5757872473807472 -0.8751380081028544
4203000000.0000005 0.5711926296919508 -0.8495807418333521
4206000000.0000005 0.5560615059291051 -0.8716248526297357
4208999999.9999995 0.561930110744399 -0.841775743177155
4211999999.9999995 0.5311967346098627 -0.8901250725679565
4216000000.0 0.5704158578037846 -0.8464393761434877
4219000000.0000005 0.5612711152177055 -0.8736106858521011
4222000000.0000005 0.545372793749142 -0.857828599517504
4224999999.9999995 0.5497561847449066 -0.8452704094713157
4227999999.9999995 0.5604142344672398 -0.8601990220712915
4231000000.0 0.5578585105506091 -0.869151124828868
4234000000.0 0.5603794779736576 -0.8622995081300768
4238000000.0000005 0.5437118919001269 -0.863996790331505
4240999999.9999995 0.5484681593792093 -0.8570174809254063
4244000000.0 0.5603798644742137 -0.8426291857164641
4247000000.0 0.5642293575810622 -0.8683271501725152
4250000000.0 0.5436277876773502 -0.8540930882863593
4253000000.0 0.5327559603559768 -0.8584697799052714
4256000000.0 0.5665305429772186 -0.8692954334599466
4259000000.0000005 0.5111004192204163 -0.829622577756804
4261999999.9999995 0.5133708795023946 -0.8832592032350336
4266000000.0 0.5337726980168255 -0.8968682554408357
4269000000.0 0.5752727774103019 -0.8531024678872757
4272000000.0000005 0.5588252963425744 -0.840551017162814
4275000000.0000005 0.5473800085178231 -0.8673131194497661
4277999999.9999995 0.5598711869723254 -0.8788756521394356
4280999999.9999995 0.5583870637766595 -0.8559682446423378
4284000000.0 0.548480651595608 -0.9031310300355762
4288000000.0000005 0.5927593845076623 -0.8610042561724225
4291000000.0000005 0.5594374198469934 -0.8330336955987585
4293999999.9999995 0.537683876079515 -0.8497283792382547
4297000000.0 0.569139767375049 -0.8445089930343082
4300000000.0 0.5412101554453548 -0.8273451061083509
4303000000.0 0.5105601074355877 -0.854287291134355
4306000000.0 0.5901356187431839 -0.8407440682134938
4309000000.0 0.5487124296067308 -0.8838619987572907
4312000000.0 0.5754421265597133 -0.853961746618108
4316000000.0 0.5821540590870924 -0.8383476287582142
4319000000.0 0.5607098913200609 -0.847615741998996
4322000000.0 0.5196243058354894 -0.8799460374190462
4325000000.0 0.5394767350586526 -0.8297928296542251
4328000000.0 0.5467159264885594 -0.8464485600005904
4331000000.0 0.5189580055785129 -0.8857360451211371
4334000000.0 0.5507652721983972 -0.8768354404241456
4338000000.0 0.5679203242331334 -0.8213909844852781
4341000000.0 0.5690509009490414 -0.8652684892366036
4344000000.0 0.5503712250732855 -0.8643987442641333
4347000000.0 0.5471797426537487 -0.853234385010726
4350000000.0 0.5081862998281003 -0.8247950570040289
4353000000.0 0.5445836362289731 -0.8221098878346419
4356000000.0 0.5268786987116137 -0.8475036983361341
4359000000.0 0.5170974312089556 -0.8183258312480678
4362000000.0 0.5072506648187078 -0.8952502366439002
4366000000.0 0.5594969223015083 -0.8855028480165869
4369000000.0 0.5270007198846804 -0.8310020069245703
4372000000.0 0.5035566377506437 -0.8666767711886151
4375000000.0 0.550174127826786 -0.8382502721344419
4378000000.0 0.5251888115678134 -0.8253648074743841
4381000000.0 0.5473516742629652 -0.8553032991946065
4384000000.0 0.5631863089783946 -0.9044468128017357
4388000000.0 0.5548046814305306 -0.8331806173856647
4391000000.0 0.5658936906161375 -0.8394706919938617
4394000000.0 0.5298131295308018 -0.8412502716527154
4397000000.0 0.5227213276627751 -0.8605916588531787
4400000000.0 0.5664060314249401 -0.8776020514681085
4403000000.0 0.563349506252272 -0.8587352239871613
4406000000.0 0.5319724791574496 -0.8738606572690609
4409000000.0 0.5519059596866579 -0.8974670483071692
4412000000.0 0.47882664524288504 -0.879093133080171
4416000000.0 0.5175194956840339 -0.8611321701678329
4419000000.0 0.5315625579441978 -0.8716591793272142
4422000000.0 0.5561282657917135 -0.8547337494067369
4425000000.0 0.5746294798407101 -0.8699364134417207
4428000000.0 0.5129380424530332 -0.8665959859263913
4431000000.0 0.555487652468129 -0.87024977298269
4434000000.0 0.5301765015279261 -0.8588729837764758
4438000000.0 0.5509583371511452 -0.8709205714788777
4441000000.0 0.5508670749505371 -0.879551415441165
4444000000.0 0.5259286284354389 -0.8399571855236575
4447000000.0 0.5290143879746598 -0.8616084446499415
4450000000.0 0.5335231748056042 -0.8497798460351771
4453000000.0 0.5450927249166702 -0.8910428568382827
4456000000.0 0.5081963618003968 -0.8400577518640174
4459000000.0 0.49087685596548025 -0.8383090925465925
4462000000.0 0.5615837460786122 -0.9167601370006861
4466000000.0 0.5421124720290522 -0.8977576986704744
4469000000.0 0.5594283655896085 -0.8467721174368987
4472000000.0 0.5255710364400393 -0.8825847031266596
4475000000.0 0.5153945243809263 -0.8390150229728501
4478000000.0 0.542051208151975 -0.8987884956906051
4481000000.0 0.5013900594990799 -0.8397487684054754
4484000000.0 0.4937217964717252 -0.8810849523622637
4488000000.0 0.5016849129364873 -0.862693697401224
4491000000.0 0.5183393717968122 -0.8566731051454961
4494000000.0 0.5224225924752546 -0.8537154372254953
4497000000.0 0.538861521763317 -0.8530894553465396
4500000000.0 0.5430800508464209 -0.8422580917026231
4503000000.0 0.5390706645457708 -0.8870859197912475
4506000000.0 0.5148169986221077 -0.8652047654604726
4509000000.0 0.5406933704223362 -0.8492228671797182
4512000000.0 0.5027345771540003 -0.8523694522615586
4516000000.0 0.5266901877016763 -0.8733373137203915
4519000000.0 0.5391064529300162 -0.8467123954621472
4522000000.0 0.5069120895626612 -0.8811742150307051
4525000000.0 0.5650481465231953 -0.8205205547998277
4528000000.0 0.539300380672167 -0.8866586092645417
4531000000.0 0.5378669711436727 -0.8423107335508321
4534000000.0 0.5101579491012137 -0.8654693631176513
4538000000.0 0.5129112566962649 -0.8591603082467701
4541000000.0 0.4882595507092906 -0.8639150034725414
4544000000.0 0.513304606461941 -0.8451050810285576
4547000000.0 0.5359965097814516 -0.8420966535833401
4550000000.0 0.5114223929241012 -0.8804078489036354
4553000000.0 0.523873330021243 -0.8725213577715607
4556000000.0 0.5021193029281901 -0.8527338903082029
4559000000.0 0.5225707405783735 -0.8823476216531967
4562000000.0 0.5218728911654416 -0.8781533226278648
4566000000.0 0.5050939934315986 -0.8832183099818871
4569000000.0 0.5127398203131389 -0.8548327628071104
4572000000.0 0.5195132460901621 -0.8786324976297546
4575000000.0 0.5063299632704265 -0.8674202890653127
4578000000.0 0.5648487586200379 -0.8946645876757076
4581000000.0 0.4940608450434481 -0.882596315648494
4584000000.0 0.5057515197597321 -0.8734078501618139
4588000000.0 0.5316600448225686 -0.8707163774724115
4591000000.0 0.5325585985629864 -0.8678147673120518
4594000000.0 0.48602052132373674 -0.8801048235907666
4597000000.0 0.5219692332850419 -0.8943309106314079
4600000000.0 0.47225321352261723 -0.8737155225429559
4603000000.0 0.5191278013038193 -0.8781550782363128
4606000000.0 0.517625990357321 -0.8708352370767211
4609000000.0 0.5058891891908003 -0.8747864825644565
4612000000.0 0.5117163832972964 -0.8985937824500968
4616000000.0 0.49466388523457416 -0.8782563500535918
4619000000.0 0.5153049831574025 -0.8532198511098023
4622000000.0 0.5106865849219129 -0.8633240085944027
4625000000.0 0.47316557298659095 -0.8646721487847003
4628000000.0 0.5064752957547731 -0.8538344456084125
4631000000.0 0.486879510849661 -0.8823167420618525
4634000000.0 0.5041032592001315 -0.8785320112217332
4638000000.0 0.5031288682059799 -0.8791671601279042
4641000000.0 0.5234123513822794 -0.8685940803741038
4644000000.0 0.5106284157619111 -0.8758858055166174
4647000000.0 0.5094263506972763 -0.8737698251171443
4650000000.0 0.49557484862182166 -0.8764318384959309
4653000000.0 0.5211620545481245 -0.891153295480619
4656000000.0 0.4891694154533145 -0.8903411588639591
4659000000.0 0.49685305140128994 -0.8845941448602934
4662000000.0 0.49214539566368376 -0.8940869696999814
4666000000.0 0.48033689725411405 -0.8892647015184648
4669000000.0 0.5016921859674023 -0.8818505764424881
4672000000.0 0.48751072358054276 -0.8907856305367813
4675000000.0 0.4841744236983445 -0.8942234873418403
4678000000.0 0.491760594287515 -0.8907409231870338
4681000000.0 0.47827484825092403 -0.90327551490269
4684000000.0 0.48853291248829506 -0.8832095764927074
4688000000.0 0.485027305035737 -0.8706054683444252
4691000000.0 0.5319617664416297 -0.8797938817996305
4694000000.0 0.4993291581169487 -0.8789341240166203
4697000000.0 0.4648385781475777 -0.8729852739031592
4700000000.0 0.5044721738812981 -0.8963097731054592
4703000000.0 0.48484384675100267 -0.8491400700751793
4706000000.0 0.5026249979946222 -0.877502442863921
4709000000.0 0.49596954603387217 -0.909370217720085
4712000000.0 0.5097262334998545 -0.8863343635528682
4716000000.0 0.4874058175275922 -0.9114444073991127
4719000000.0 0.5115066924435728 -0.8787064719298167
4722000000.0 0.5217718938348754 -0.8696034549826428
4725000000.0 0.47908552177331815 -0.8826472244087543
4728000000.0 0.48404153994054266 -0.8910878671272064
4731000000.0 0.5034787015092604 -0.881433136512135
4734000000.0 0.5108894080260384 -0.8734347095171382
4738000000.0 0.49719413252021244 -0.8907078167198942
4741000000.0 0.4987340573040672 -0.9182747918883614
4744000000.0 0.49400666916238506 -0.9086488595479794
4747000000.0 0.5038993522894428 -0.853115891562177
4750000000.0 0.5201727866740448 -0.9004073052153507
4753000000.0 0.5164913623916232 -0.9185663879204384
4756000000.0 0.4813909849492708 -0.9102490486674191
4759000000.0 0.5032413000310093 -0.8973523591572171
4762000000.0 0.4735196191372866 -0.9362256226908262
4766000000.0 0.47109471567482364 -0.8827428311228821
4769000000.0 0.5038545034059527 -0.9161145372906147
4772000000.0 0.5099144916352665 -0.9135767519461685
4775000000.0 0.49902797486133726 -0.9506449078289732
4778000000.0 0.4985494826435579 -0.9227321681865162
4781000000.0 0.5015456367290353 -0.89404420587753
4784000000.0 0.5155135429451299 -0.8535622306621671
4788000000.0 0.4732055141300157 -0.9439450766614634
4791000000.0 0.4960746670373441 -0.8724798434114488
4794000000.0 0.5296512101576931 -0.9009647863552608
4797000000.0 0.4868498340762498 -0.8749567177839316
4800000000.0 0.4626096774639589 -0.9075527442787418
4803000000.0 0.4703770944272691 -0.92100223237418
4806000000.0 0.49251549973333464 -0.9071776422818686
4809000000.0 0.4828532035838061 -0.917037983670176
4812000000.0 0.4580166567107582 -0.9103734822048335
4816000000.0 0.5187386904886722 -0.8988909267881557
4819000000.0 0.507544856146139 -0.8995947143658297
4822000000.0 0.5273311363647797 -0.9297414407425494
4825000000.0 0.5615038206103644 -0.9101974490638942
4828000000.0 0.4989822353069264 -0.883078979844814
4831000000.0 0.46694814137735874 -0.9559603024538188
4834000000.0 0.5255221150091779 -0.8968488634301136
4838000000.0 0.49939200861246125 -0.9079048707453474
4841000000.0 0.4792283679347142 -0.8874097560655796
4844000000.0 0.5272584524128656 -0.8843939812609733
4847000000.0 0.5004723411528208 -0.869047664094613
4850000000.0 0.49230995074308675 -0.911591689509414
4853000000.0 0.5119563951896566 -0.8854372657858848
4856000000.0 0.4974640735418566 -0.9033832586852215
4859000000.0 0.5233406756197009 -0.9547116478709299
4862000000.0 0.514580486285019 -0.868674280687528
4866000000.0 0.48260757017604466 -0.9156741764313755
4869000000.0 0.47062628244751664 -0.9031231052659227
4872000000.0 0.47791883838460286 -0.9371996441472991
4875000000.0 0.5822697501260619 -0.8966638744855515
4878000000.0 0.5045748157114978 -0.9022305962777268
4881000000.0 0.522145192265882 -0.9626338054380861
4884000000.0 0.5207566056940184 -0.8795868242762388
4888000000.0 0.5297433881287473 -0.8796895215201415
4891000000.0 0.5249276090765058 -0.904270320901932
4894000000.0 0.49340116200225376 -0.9152012384069546
4897000000.0 0.5243013654186383 -0.8888487745265621
4900000000.0 0.5188025910756179 -0.9211289718315391
4903000000.0 0.5573929900075533 -0.9033724714107165
4906000000.0 0.49543291438868675 -0.9167209016793295
4909000000.0 0.4836841628181944 -0.9059391886373417
4912000000.0 0.5150115332229439 -0.9274453517388256
4916000000.0 0.5343334318238233 -0.9024059598936804
4919000000.0 0.5480721658807663 -0.9263945538059998
4922000000.0 0.5526467071461363 -0.8929839181561827
4925000000.0 0.4715455995910611 -0.9064717058152769
4928000000.0 0.570837709216062 -0.8634047985263187
4931000000.0 0.5130965479198881 -0.9450250370623183
4934000000.0 0.4975108001943035 -0.8616301292123565
4938000000.0 0.49525585209245987 -0.9071279048556384
4941000000.0 0.5280336354654587 -0.8868607752414205
4944000000.0 0.4927057572260701 -0.8518109749085092
4947000000.0 0.5317122795476754 -0.8762841485055809
4950000000.0 0.46336983121592434 -0.8843349855081228
4953000000.0 0.4714825659860408 -0.9684597995810038
4956000000.0 0.5061420648214681 -0.9042896951473836
4959000000.0 0.48231124424038435 -0.9111527769848463
4962000000.0 0.5416862715249016 -0.8971699413130202
4966000000.0 0.5081432615516576 -0.9087788826013309
4969000000.0 0.5839533498860916 -0.9313577782080541
4972000000.0 0.5196331438063012 -0.895759846230441
4975000000.0 0.5627855502737218 -0.8705421403473357
4978000000.0 0.5396828738330469 -0.9079801877253837
4981000000.0 0.512591770903908 -0.927523677578691
4984000000.0 0.5385964991239103 -0.8512010079599661
4988000000.0 0.5357356058915539 -0.8801479793283935
4991000000.0 0.5778328555365004 -0.8945737584041825
4994000000.0 0.514873803578639 -0.8940419069253828
4997000000.0 0.4873731710351017 -0.9197074567023609
5000000000.0 0.5433234903124164 -0.9349338285387154
5003000000.0 0.5843240830933761 -0.9142337764900168
5006000000.0 0.5309773955684702 -0.9135348168983186
5009000000.0 0.5025764759948743 -0.9119620508526187
5012000000.0 0.4932553072364648 -0.9062002016906573
5016000000.0 0.5719804054371287 -0.9275768339753151
5019000000.0 0.5181999136273591 -0.9142034089398716
5022000000.0 0.5365455281272424 -0.898636869431128
5025000000.0 0.5526517091011391 -0.9739150681406264
5028000000.0 0.5226505642035245 -0.921649557569827
5031000000.0 0.5173650645680425 -0.8936352646343555
5034000000.0 0.477274100353969 -0.968051901075544
5038000000.0 0.48325297485406205 -0.9092559440751194
5041000000.0 0.5523736148065559 -0.9034248421694155
5044000000.0 0.533811033337875 -0.8558083188071942
5047000000.0 0.5390026676529571 -0.90701901251554
5050000000.0 0.5438344067630572 -0.8055749660051136
5053000000.0 0.5242645726850977 -0.9171354567261769
5056000000.0 0.5927448709587957 -0.8870804148766618
5059000000.0 0.605240140829897 -0.9068480825950443
5062000000.0 0.5234937805746598 -0.9105548500419807
5066000000.0 0.5731695283513598 -0.8802482074214109
5069000000.0 0.5279105432272615 -0.8943972760212051
5072000000.0 0.5228424795629865 -0.8351239302309588
5075000000.0 0.5648561850642431 -0.8659809043688176
5078000000.0 0.5132783820998923 -0.9248434931840586
5081000000.0 0.5002557894231583 -0.8603239866908954
5084000000.0 0.5438852288584559 -0.9394824827953947
5088000000.0 0.5540640179317005 -0.9096792505993037
5091000000.0 0.5416308618868746 -0.8984891938120693
5094000000.0 0.5514633044586756 -0.9024655115865112
5097000000.0 0.5752058754426866 -0.8646251228424293
5100000000.0 0.5212278184475345 -0.8650577953181815
5103000000.0 0.49188166072767436 -0.8887229830319696
5106000000.0 0.5808741666507053 -0.9045596843538228
5109000000.0 0.5606025463216809 -0.8645307453187758
5112000000.0 0.5027748740915607 -0.8605603166451523
5116000000.0 0.5253589333142895 -0.8516494435468529
5119000000.0 0.5835680261274437 -0.9038719006504037
5122000000.0 0.5134648913103789 -0.8557718255973946
5125000000.0 0.5269961536249694 -0.8641080681431162
5128000000.0 0.5475720563756903 -0.9174259259078182
5131000000.0 0.5251410886089258 -0.9049959630597688
5134000000.0 0.5645980724016653 -0.893499461852183
5138000000.0 0.5422380004290492 -0.8506613798407627
5141000000.0 0.6024075448664534 -0.8524679605944976
5144000000.0 0.5414698180766713 -0.8797744960188241
5147000000.0 0.5678804329249557 -0.9279492707869581
5150000000.0 0.5677400314220173 -0.9054373768086542
5153000000.0 0.6030152140221344 -0.9038795887180804
5156000000.0 0.5422511589828848 -0.888669326344508
5159000000.0 0.5851835337590194 -0.96334127820457
5162000000.0 0.5346538714305208 -0.8702606584639685
5166000000.0 0.5076480148669513 -0.9045478247980046
5169000000.0 0.5404479339528315 -0.8700363116871409
5172000000.0 0.5589689643568188 -0.8692436569524243
5175000000.0 0.6092072545373695 -0.8886340584794287
5178000000.0 0.5597181594305323 -0.8763336665255462
