! Created with skrf 1.8.0 (http://scikit-rf.org).
# Hz S RI R 50.0 
!freq ReS11 ImS11
4000000000.0 0.57626894824024 -0.8604460395502294
4003000000.0 0.5928620132094622 -0.9205056803073692
4006000000.0 0.5476492923002275 -0.8927666331583785
4009000000.0000005 0.5128976978933397 -0.8643188480723744
4011999999.9999995 0.6268527329882089 -0.8775546128883009
4016000000.0 0.5457367156778732 -0.8627305550113942
4019000000.0 0.5726941481250177 -0.8865470469825165
4022000000.0000005 0.627138179215221 -0.8607222562822219
4025000000.0000005 0.5371107478831787 -0.9310529629545431
4027999999.9999995 0.516523165394271 -0.8805377368168419
4030999999.9999995 0.5173026717913526 -0.8260416649848367
4034000000.0 0.5149980783713738 -0.8534327814083267
4038000000.0000005 0.542890887511982 -0.8921991078508894
4041000000.0000005 0.5897659257085398 -0.8851874811828321
4043999999.9999995 0.5765773259342802 -0.9481099068161634
4046999999.9999995 0.5822031044853109 -0.8912225770634795
4050000000.0 0.5453438586549334 -0.8972314497843386
4053000000.0 0.5032511871689129 -0.8800765254806852
4056000000.0 0.5449259374174119 -0.882662125447442
4059000000.0 0.500620152672677 -0.8766055070587997
4062000000.0000005 0.5512479961242686 -0.8593837168639793
4066000000.0 0.5047847482181453 -0.8319624369796059
4069000000.0 0.574078471191328 -0.8984510351631837
4072000000.0 0.5799824677648314 -0.8218366472848081
4075000000.0 0.590775460315257 -0.8682030476240515
4078000000.0000005 0.528912609142997 -0.9027921437561954
4081000000.0000005 0.6296327419424542 -0.8415927968193163
4083999999.9999995 0.5246951506838159 -0.8997240365830501
4088000000.0 0.5679998290234554 -0.8475910945906692
4091000000.0 0.6071947681911809 -0.8995358772965483
4094000000.0000005 0.5512615265467942 -0.8686372506621588
4097000000.0000005 0.5354886895415321 -0.8810180245646828
4099999999.9999995 0.5202372400644477 -0.8667537055191541
4102999999.9999995 0.5773922445574768 -0.9076459651666774
4106000000.0 0.5246537001340501 -0.8946451331167581
4109000000.0 0.5433711291316363 -0.8802915584871382
4112000000.0 0.5641446203372505 -0.8725412030487207
4115999999.9999995 0.6034006319697086 -0.8218941169601657
4119000000.0 0.5421209521506509 -0.872156877853219
4122000000.0 0.5495962914985533 -0.866910330580288
4125000000.0 0.5170879771119307 -0.8962851196659515
4128000000.0 0.5716045290992878 -0.8214089897857146
4131000000.0 0.5652218246154042 -0.8544754695863161
4134000000.0000005 0.5234296461256259 -0.8278551665307369
4138000000.0 0.5144334186802142 -0.8426324484457333
4141000000.0 0.5339721170576567 -0.8365774331856174
4144000000.0 0.5664001063733294 -0.8501320343089597
4147000000.0000005 0.5109077376042861 -0.8910301339262853
4150000000.0000005 0.5752461105325225 -0.9047339606291275
4152999999.9999995 0.5539406951363439 -0.8799565741237392
4155999999.9999995 0.5777103804915411 -0.8861403793903202
4159000000.0 0.5620180427571891 -0.8366016551384945
4162000000.0 0.544683033082646 -0.8396543954677408
4166000000.0000005 0.5686201485613034 -0.868755793340804
4168999999.9999995 0.5317702989211922 -0.8493270367690471
4171999999.9999995 0.5603450239532803 -0.8599739499528435
4175000000.0 0.5616352497509356 -0.8697889757829429
4178000000.0 0.5624784740469153 -0.8829785811436992
4181000000.0 0.542383686610005 -0.8519241022789951
4184000000.0 0.5605081273048452 -0.8561938381021653
4187999999.9999995 0.5532649887939397 -0.8391040623366298
4191000000.0 0.5676300618502382 -0.8343839900650635
4194000000.0 0.5170336085058709 -0.824425476119589
4197000000.0 0.5491995051046877 -0.8654408438662307
4200000000.0 0.5753870351810493 -0.8412238344402924
4203000000.0000005 0.5568756631073137 -0.8523117841276797
4206000000.0000005 0.5668999120545198 -0.8575770639623828
4208999999.9999995 0.5542621115528291 -0.8390527315582633
4211999999.9999995 0.5085292127654769 -0.8776356937310628
4216000000.0 0.575889907396789 -0.8521239224444218
4219000000.0000005 0.5549187795257104 -0.8603011439250823
4222000000.0000005 0.5440990523784058 -0.8567887916694005
4224999999.9999995 0.5487180238552707 -0.8435738471299384
4227999999.9999995 0.5571869495809555 -0.8681530753955639
4231000000.0 0.5408377045440443 -0.8602476955803016
4234000000.0 0.5499212512762689 -0.8832838883561895
4238000000.0000005 0.5347376832636228 -0.867840628697727
4240999999.9999995 0.5287565265626808 -0.8723623820638687
4244000000.0 0.5461566198604535 -0.8594523758388912
4247000000.0 0.5533017221396109 -0.8421531399823445
4250000000.0 0.5316406069224834 -0.8552607592873475
4253000000.0 0.5279161694853602 -0.8405837911604233
4256000000.0 0.5596101651790871 -0.8686520767916642
4259000000.0000005 0.5330279997529564 -0.84096620512754
4261999999.9999995 0.5211247712642668 -0.860100076786383
4266000000.0 0.5407659933868015 -0.8757060735835785
4269000000.0 0.55542598817541 -0.8400818696075262
4272000000.0000005 0.5397055819305121 -0.8460533196515212
4275000000.0000005 0.5463392058676062 -0.8511158047216443
4277999999.9999995 0.5720396758959041 -0.8914908172944561
4280999999.9999995 0.5444518264824538 -0.8606742292625039
4284000000.0 0.5154268995892463 -0.8732897697480454
4288000000.0000005 0.5579928735669754 -0.844849753650782
4291000000.0000005 0.543598539690128 -0.8293472148381574
4293999999.9999995 0.5557498723146556 -0.8497797138959051
4297000000.0 0.5440660601133304 -0.8203469025975599
4300000000.0 0.5445919874675184 -0.835005746256311
4303000000.0 0.5483780852452707 -0.8597910826699882
4306000000.0 0.5803315277922934 -0.8591635979809239
4309000000.0 0.5607077934937641 -0.8334867341856185
4312000000.0 0.5952899227449605 -0.8605665757087234
4316000000.0 0.5850801448365088 -0.8525796736116623
4319000000.0 0.5521673363199832 -0.8260368522293472
4322000000.0 0.5090244340877811 -0.8715908310459856
4325000000.0 0.5581253120530894 -0.83916987577508
4328000000.0 0.5531053551730373 -0.848209935175592
4331000000.0 0.5285877116809785 -0.8689282698509303
4334000000.0 0.5290064882452561 -0.8713536885619397
4338000000.0 0.5513483859428921 -0.8288141534613059
4341000000.0 0.567629480289277 -0.8431637760760042
4344000000.0 0.5662857079748986 -0.8421765176363778
4347000000.0 0.5404215802287037 -0.8589814264595416
4350000000.0 0.5197910252101804 -0.8272067409816107
4353000000.0 0.5545155860048835 -0.8269021478851424
4356000000.0 0.5104338570390294 -0.8645387926879469
4359000000.0 0.5258248932435001 -0.8131254955874058
4362000000.0 0.5015365811724677 -0.9047259381488197
4366000000.0 0.5579265522081885 -0.8856584087110159
4369000000.0 0.5187062911510153 -0.8355751598837323
4372000000.0 0.4901540866409027 -0.8648065200339323
4375000000.0 0.5418659716763212 -0.8345866273102285
4378000000.0 0.5179803498639248 -0.833076616917086
4381000000.0 0.5478526600055853 -0.8247112333114512
4384000000.0 0.5597642736299443 -0.899301013593344
4388000000.0 0.5272059187054177 -0.8181659442748086
4391000000.0 0.5513496943271194 -0.8557561121354855
4394000000.0 0.5210437772133248 -0.8521613581108622
4397000000.0 0.5314386979552771 -0.8409164623402218
4400000000.0 0.5212224892596973 -0.8840429741564012
4403000000.0 0.5356341007562286 -0.8608483116687138
4406000000.0 0.5232808961378368 -0.8672617885913756
4409000000.0 0.5524112141679818 -0.877607886484973
4412000000.0 0.4921870354710587 -0.8840196828197325
4416000000.0 0.5186875724176937 -0.8490748458527322
4419000000.0 0.525834977362844 -0.8631867913034788
4422000000.0 0.5416878790305157 -0.84660849379058
4425000000.0 0.5630883832054467 -0.8621843453756229
4428000000.0 0.5279684620690914 -0.8606971716918118
4431000000.0 0.5416497462173726 -0.8650578323267034
4434000000.0 0.5268445362735088 -0.8570611614839604
4438000000.0 0.5421299104176471 -0.8748564227338556
4441000000.0 0.5400450164096251 -0.8645299994924656
4444000000.0 0.5168231104977163 -0.8482887460217251
4447000000.0 0.5199732076348699 -0.8528433332471491
4450000000.0 0.533447807341881 -0.8526031966332542
4453000000.0 0.5537053132037297 -0.8854590325483844
4456000000.0 0.5166449759164747 -0.8401218260926757
4459000000.0 0.48918697180374626 -0.8458589264846372
4462000000.0 0.5597562307710992 -0.902771819240439
4466000000.0 0.5629582951221869 -0.8881964784553498
4469000000.0 0.5423788993343253 -0.8418347082055386
4472000000.0 0.5150794326913746 -0.8748386818867104
4475000000.0 0.5131382852828283 -0.8379062431311117
4478000000.0 0.5480680276007632 -0.9083379998875878
4481000000.0 0.500320885674732 -0.8548642830213644
4484000000.0 0.4880081085315535 -0.8911249293414978
4488000000.0 0.5064629994895469 -0.8500060381707726
4491000000.0 0.5182444748870778 -0.8748898108140599
4494000000.0 0.5165946533028118 -0.8339682661421424
4497000000.0 0.5324428093756144 -0.8395682477206724
4500000000.0 0.5363893820004808 -0.8479155871267432
4503000000.0 0.5435557259028715 -0.8817076709786957
4506000000.0 0.5091483582556984 -0.8342805803453714
4509000000.0 0.5201038674252869 -0.8435850429155378
4512000000.0 0.5143086577939826 -0.8383538626235247
4516000000.0 0.533719843558812 -0.8793577764688467
4519000000.0 0.5216554188346105 -0.8429158783818835
4522000000.0 0.5103831542753025 -0.8772358535609748
4525000000.0 0.5274544802746813 -0.8481461138162043
4528000000.0 0.5362026702126955 -0.8940686954968923
4531000000.0 0.5407612648532041 -0.86150449676289
4534000000.0 0.5105131927418121 -0.8585215769887338
4538000000.0 0.5048670257843052 -0.8495333652836855
4541000000.0 0.47994083054401077 -0.8649779653334506
4544000000.0 0.5158611208145745 -0.8499418808456294
4547000000.0 0.5309152412088343 -0.8306215959942409
4550000000.0 0.5104725375655774 -0.9100211840819312
4553000000.0 0.5040061699077854 -0.8760181347351645
4556000000.0 0.48311731101896904 -0.8419849770275385
4559000000.0 0.514957307487399 -0.8803395750298746
4562000000.0 0.5186588106186151 -0.8718891474910399
4566000000.0 0.5155111063475517 -0.8655187528048538
4569000000.0 0.4927860610740672 -0.8441489882689938
4572000000.0 0.5213484908989843 -0.853802067480814
4575000000.0 0.49616592556843764 -0.8686678901761282
4578000000.0 0.5364944161908733 -0.8903767379276755
4581000000.0 0.49729674705201543 -0.9021676914052714
4584000000.0 0.497263400924729 -0.8745135331079872
4588000000.0 0.5238284430465819 -0.8758515366096737
4591000000.0 0.512454456679192 -0.8656850999868982
4594000000.0 0.48944350629624456 -0.8648433823145899
4597000000.0 0.4972823828609173 -0.8661817634136283
4600000000.0 0.49040744723952656 -0.8579866525442766
4603000000.0 0.4978798636695567 -0.8664365697575354
4606000000.0 0.5132969873724965 -0.8694434103755602
4609000000.0 0.5200106938600648 -0.8780494699576169
4612000000.0 0.5217274622587998 -0.8850205426186151
4616000000.0 0.48472888415076487 -0.8676107223979039
4619000000.0 0.5105895519685093 -0.8754084463855928
4622000000.0 0.5071974795815737 -0.8710249408929631
4625000000.0 0.4876809513414173 -0.8673802982301054
4628000000.0 0.512905947979514 -0.8619490549301986
4631000000.0 0.48726962583160915 -0.8835915421570828
4634000000.0 0.49840811747563163 -0.8767611100881836
4638000000.0 0.5184752984384708 -0.8945928662243713
4641000000.0 0.5216251989748674 -0.857006080467391
4644000000.0 0.5143484629093165 -0.8587462043211926
4647000000.0 0.5139178592966426 -0.8755329158795004
4650000000.0 0.48042813220324504 -0.8704150535859166
4653000000.0 0.5357813955986775 -0.8695024953339054
4656000000.0 0.48201102780258637 -0.876706924381635
4659000000.0 0.4940947310208731 -0.8771930660850056
4662000000.0 0.5101138889492421 -0.881527427755699
4666000000.0 0.49029617333292375 -0.8754471210790993
4669000000.0 0.5195059817122277 -0.8763189467454882
4672000000.0 0.5028361129282118 -0.9054799345928581
4675000000.0 0.48573551386543423 -0.8902510039713942
4678000000.0 0.50167824070534 -0.8632158843874378
4681000000.0 0.47620527496482873 -0.9033493066608393
4684000000.0 0.4784466252349684 -0.8900573552992392
4688000000.0 0.4746570672175828 -0.9000654814453157
4691000000.0 0.5193905615286187 -0.8764734106292562
4694000000.0 0.4865766995008623 -0.8714767595512067
4697000000.0 0.46739828881449036 -0.8274451904470091
4700000000.0 0.4917361402059917 -0.8701769093285436
4703000000.0 0.4954312160285035 -0.811642711736189
4706000000.0 0.49209880174133247 -0.8998272068705324
4709000000.0 0.45512670525987536 -0.8889439797964636
4712000000.0 0.48443250827252565 -0.8766090388719339
4716000000.0 0.5203193047404998 -0.9077801921220302
4719000000.0 0.5191289246756928 -0.858035530341227
4722000000.0 0.5158608550836611 -0.8893737776111998
4725000000.0 0.5127531930227176 -0.8670970975449722
4728000000.0 0.47590632283679424 -0.875184353197366
4731000000.0 0.5045812187713082 -0.8761095509455227
4734000000.0 0.521688489302354 -0.879090063279256
4738000000.0 0.5261970505923838 -0.9150275216708423
4741000000.0 0.4948571518346585 -0.9233131488689572
4744000000.0 0.4630696797464647 -0.8980562094143251
4747000000.0 0.5074878121848835 -0.8807036205838529
4750000000.0 0.532022722185133 -0.9036377004863578
4753000000.0 0.5054341452279744 -0.8922918093094028
4756000000.0 0.48315149755948716 -0.8984518354020324
4759000000.0 0.5129874721971974 -0.8744291359693992
4762000000.0 0.47720048772288826 -0.9443182891986897
4766000000.0 0.485092336860372 -0.8753835720534275
4769000000.0 0.4872916930405349 -0.9141099256536203
4772000000.0 0.5024979139539034 -0.8991423000102398
4775000000.0 0.5108230054826438 -0.9457645698338318
4778000000.0 0.49681220416563254 -0.8839402677166083
4781000000.0 0.5027834628756762 -0.8918712189741824
4784000000.0 0.48973319117317726 -0.8663781805798382
4788000000.0 0.5089685480339252 -0.9132294241209309
4791000000.0 0.48993154737848266 -0.8760981939005222
4794000000.0 0.5228546782359669 -0.9048558990353658
4797000000.0 0.4821812863655433 -0.877636410162812
4800000000.0 0.4658366630808122 -0.8780760344187081
4803000000.0 0.4414312224685331 -0.8879921672999816
4806000000.0 0.49193309028413423 -0.8755610087718008
4809000000.0 0.46206819867191345 -0.9058258363436528
4812000000.0 0.4558937096881611 -0.9019224591985964
4816000000.0 0.5012094626918537 -0.870669225984599
4819000000.0 0.5372074731567797 -0.8881475813709183
4822000000.0 0.5225041348673224 -0.9094762919484424
4825000000.0 0.5349015070345353 -0.893152449256878
4828000000.0 0.47538454013960874 -0.8868061367551073
4831000000.0 0.48463325321939965 -0.9121388064091425
4834000000.0 0.48794781989653596 -0.8781723701707597
4838000000.0 0.4682184269534058 -0.9041258326289974
4841000000.0 0.4807142714205819 -0.8760679182418313
4844000000.0 0.5231532150170495 -0.8989680944032269
4847000000.0 0.49203254355170767 -0.8500401680515035
4850000000.0 0.48227539752473014 -0.9114841905349447
4853000000.0 0.48125390329824697 -0.839922530743879
4856000000.0 0.48128474111173536 -0.8840585961591746
4859000000.0 0.49128120732881053 -0.9398779719497765
4862000000.0 0.5178442484629815 -0.875159130209767
4866000000.0 0.49854691428432235 -0.9229244788283144
4869000000.0 0.48819720996741645 -0.9147418013810988
4872000000.0 0.49333162193676694 -0.9323317974064234
4875000000.0 0.549998301841098 -0.8986948050145884
4878000000.0 0.49865336671139093 -0.9006261738938626
4881000000.0 0.5010867953865821 -0.9861252963520816
4884000000.0 0.4958761749087668 -0.895717015224861
4888000000.0 0.5215841033396406 -0.8607394370149772
4891000000.0 0.505302712017958 -0.9138348871247471
4894000000.0 0.47750218606267175 -0.903701539102677
4897000000.0 0.508487082443462 -0.8338452708298909
4900000000.0 0.5073190291494906 -0.9225864606251364
4903000000.0 0.5141392628200117 -0.9092454979301516
4906000000.0 0.48007926918981614 -0.9230013263563285
4909000000.0 0.5008077829502431 -0.9021525894149326
4912000000.0 0.4898160071501327 -0.9297092081481806
4916000000.0 0.5375242159760918 -0.9107895641606641
4919000000.0 0.5589360142626667 -0.9271172056996063
4922000000.0 0.5249326710690699 -0.8855154680326981
4925000000.0 0.48454343853006077 -0.9190723584232281
4928000000.0 0.5467179618224671 -0.8671110837086208
4931000000.0 0.527435470788881 -0.9038566752987711
4934000000.0 0.4907233254033546 -0.8478662577747841
4938000000.0 0.4804136155048016 -0.9191644555909391
4941000000.0 0.49342477468527135 -0.8454324426459707
4944000000.0 0.4957976349320106 -0.8436821030159419
4947000000.0 0.48019647101565344 -0.8748578879354854
4950000000.0 0.4565440293608167 -0.8955890022587146
4953000000.0 0.4943721243325064 -0.9263511840645025
4956000000.0 0.45610227224587496 -0.9353132275479086
4959000000.0 0.4232778705455382 -0.8684026848118619
4962000000.0 0.5137327213010163 -0.9287692845403864
4966000000.0 0.557682880597949 -0.9015981251280576
4969000000.0 0.5260249994209891 -0.9203219369873263
4972000000.0 0.4789675891454614 -0.9052972553418586
4975000000.0 0.5404813701938377 -0.8561124696335046
4978000000.0 0.4997230577390781 -0.9278239067834622
4981000000.0 0.5034204498836812 -0.9035592622857769
4984000000.0 0.5404842348977883 -0.9060052594031116
4988000000.0 0.5358758818982222 -0.8918105207302416
4991000000.0 0.5413785832597524 -0.878943768732641
4994000000.0 0.5415589272959966 -0.8959606960428187
4997000000.0 0.5012396740276744 -0.905234739215723
5000000000.0 0.5328695141605582 -0.9427920848036149
5003000000.0 0.51954890912126 -0.9201818610904614
5006000000.0 0.5384971190424535 -0.9465457334236229
5009000000.0 0.5210247706709465 -0.8970504834058475
5012000000.0 0.5078283730163391 -0.9018520028501922
5016000000.0 0.5656786415083968 -0.928626327115283
5019000000.0 0.5019612603937249 -0.9006414508239508
5022000000.0 0.5065891387833226 -0.8831608245649761
5025000000.0 0.5400966092858414 -0.9642174090451606
5028000000.0 0.5081727145002309 -0.9146237928611034
5031000000.0 0.5065114691116237 -0.8840658269437178
5034000000.0 0.5389657732284798 -0.9482607372452785
5038000000.0 0.47846039893489445 -0.8522546694134839
5041000000.0 0.5685680850817167 -0.875686313644271
5044000000.0 0.5296568858978885 -0.8761031816613255
5047000000.0 0.5244591789509682 -0.88120102269522
5050000000.0 0.5701704838158126 -0.8342932708290192
5053000000.0 0.5214636134145901 -0.9157006651568129
5056000000.0 0.5691824501968168 -0.866061322713696
5059000000.0 0.5717553125491153 -0.8564557271743007
5062000000.0 0.5160355944131934 -0.9408220854886895
5066000000.0 0.5606974654816236 -0.87288841529861
5069000000.0 0.5142134833639781 -0.8969744034631235
5072000000.0 0.5174367049062274 -0.8810080628136456
5075000000.0 0.5538719624494844 -0.8857973061144989
5078000000.0 0.4999198328756539 -0.8847403912634808
5081000000.0 0.4771701220562673 -0.8429016828704106
5084000000.0 0.5540663476393911 -0.9138494145189635
5088000000.0 0.5473944272438588 -0.8911654277270471
5091000000.0 0.500675466174036 -0.9258846129188808
5094000000.0 0.5204739530478768 -0.9085295925686866
5097000000.0 0.568285325024647 -0.8679142925253658
5100000000.0 0.5205433932235942 -0.9154222601840312
5103000000.0 0.4762697968827032 -0.8753246446462362
5106000000.0 0.5432569195665213 -0.901947974541893
5109000000.0 0.6072503235631632 -0.8550549967257581
5112000000.0 0.5125709849607236 -0.8984258423275266
5116000000.0 0.519809475811433 -0.8482157967707085
5119000000.0 0.538197505411852 -0.9641532429127462
5122000000.0 0.5290505254114886 -0.8702009252692698
5125000000.0 0.5754734083520442 -0.8931599629472635
5128000000.0 0.5212136481833569 -0.9159637617346862
5131000000.0 0.49507109844978825 -0.8831192031768438
5134000000.0 0.5169180629751746 -0.8588469749200454
5138000000.0 0.5351231326351998 -0.8828037474771041
5141000000.0 0.6016986339321094 -0.9132255251648473
5144000000.0 0.5437163961990252 -0.8606152900102663
5147000000.0 0.5557615164145772 -0.903740219132
5150000000.0 0.5404033121777022 -0.8722529221688804
5153000000.0 0.569828549340538 -0.8979082047570042
5156000000.0 0.5246616377445334 -0.8972360064949731
5159000000.0 0.585725717823717 -0.9016365970835719
5162000000.0 0.5245071008805487 -0.854756816679509
5166000000.0 0.50205599862965 -0.8948049773669808
5169000000.0 0.5332968211960831 -0.8862170684964482
5172000000.0 0.5664622558408214 -0.8500467365787531
5175000000.0 0.5672400184147263 -0.8990936900988653
5178000000.0 0.5447553528373095 -0.8877769247322261
