! Created with skrf 1.8.0 (http://scikit-rf.org).
# Hz S RI R 50.0 
!freq ReS11 ImS11
4000000000.0 0.5030209692116222 -0.8543351377250457
4003000000.0 0.540810934886396 -0.924811307599227
4006000000.0 0.45418355579983904 -0.9139980932077749
4009000000.0000005 0.5072937805401477 -0.9038560764867003
4011999999.9999995 0.5502446136877015 -0.9017752743549439
4016000000.0 0.45668769515525953 -0.9206364706256819
4019000000.0 0.5245290900233869 -0.8698421329382795
4022000000.0000005 0.5742091943050767 -0.8583400666953479
4025000000.0000005 0.48606611637489744 -0.9240612951469976
4027999999.9999995 0.4778971351707799 -0.8923005901334132
4030999999.9999995 0.4948447938499967 -0.850344476566218
4034000000.0 0.519318434091606 -0.8980056422636368
4038000000.0000005 0.5054329338145408 -0.9082027001650804
4041000000.0000005 0.5031940104607898 -0.8922424137725267
4043999999.9999995 0.51637563840974 -0.9507481956915331
4046999999.9999995 0.5380406371941246 -0.920673355539238
4050000000.0 0.49762419327619956 -0.922443998787204
4053000000.0 0.48027536818526406 -0.8807606337437361
4056000000.0 0.526557791810588 -0.8844769241767276
4059000000.0 0.5191195233487477 -0.8857831254925614
4062000000.0000005 0.47401103502767017 -0.8811768286696555
4066000000.0 0.4937783779423884 -0.8567245244441533
4069000000.0 0.4568625862364639 -0.9319724902009906
4072000000.0 0.5072208637133174 -0.8474693117576317
4075000000.0 0.5449426355338043 -0.8866082688366926
4078000000.0000005 0.48498839456148607 -0.882793107003947
4081000000.0000005 0.5877870618041908 -0.9165577845428854
4083999999.9999995 0.48541156157230947 -0.9160212817743492
4088000000.0 0.5286571166484978 -0.8751180811161481
4091000000.0 0.5213998485075684 -0.9411908112559011
4094000000.0000005 0.5027399879328309 -0.8680446344242314
4097000000.0000005 0.4830798900826532 -0.8912925874489904
4099999999.9999995 0.5201629450323997 -0.8993235161679787
4102999999.9999995 0.5213562450374228 -0.9029851249955384
4106000000.0 0.48885854476902096 -0.9455948724355211
4109000000.0 0.516008227157464 -0.8898217885090868
4112000000.0 0.4883218514252558 -0.9044922258890215
4115999999.9999995 0.49545815875013244 -0.8901150215451903
4119000000.0 0.4751631774784424 -0.8793241363666024
4122000000.0 0.4772407044191801 -0.9148100889541195
4125000000.0 0.4887742115557379 -0.930175999040072
4128000000.0 0.4921006765844364 -0.8832705368338695
4131000000.0 0.5114078553237078 -0.8933622510303968
4134000000.0000005 0.5062037032182687 -0.879819544563973
4138000000.0 0.4787101092515947 -0.8792264342315075
4141000000.0 0.5103922327279027 -0.8886120941255944
4144000000.0 0.5011705002577159 -0.9127889564264347
4147000000.0000005 0.5057495630481506 -0.8994821187112054
4150000000.0000005 0.5155183099782006 -0.930986754990725
4152999999.9999995 0.5174883973035938 -0.8732556782988776
4155999999.9999995 0.5151859361777507 -0.9092246088393579
4159000000.0 0.502324615677408 -0.8392821892362435
4162000000.0 0.48915195241581155 -0.8717503679953362
4166000000.0000005 0.48805916535527116 -0.905723304097119
4168999999.9999995 0.46433717954878 -0.8722162975597791
4171999999.9999995 0.5173690783373305 -0.8844090561314731
4175000000.0 0.49465388561126766 -0.8817022290100431
4178000000.0 0.5101402244088773 -0.8986618353225072
4181000000.0 0.4919814780443554 -0.8985175579313416
4184000000.0 0.48369819506005496 -0.8949704593051536
4187999999.9999995 0.4917324392736345 -0.8910410823093659
4191000000.0 0.5295352404034558 -0.8537672721043614
4194000000.0 0.5189649778535271 -0.8720767448824324
4197000000.0 0.500323009145603 -0.8955917924671977
4200000000.0 0.5060568933716584 -0.8853731587299302
4203000000.0000005 0.5254079327366667 -0.8819977876865087
4206000000.0000005 0.5063208431453782 -0.9053955601687376
4208999999.9999995 0.4953442633313151 -0.8823943140998329
4211999999.9999995 0.4578483185708607 -0.8935245649341298
4216000000.0 0.5242339998377953 -0.8878297940177906
4219000000.0000005 0.5241072337692044 -0.891949456503067
4222000000.0000005 0.48951800095329007 -0.898683397794323
4224999999.9999995 0.49432658870992274 -0.87097939938965
4227999999.9999995 0.501787630337087 -0.899633574762588
4231000000.0 0.5005976356956554 -0.8978250028865568
4234000000.0 0.49764089629510233 -0.9015654539000961
4238000000.0000005 0.4877443745940079 -0.8965206830837784
4240999999.9999995 0.49516856436842277 -0.8953368908894132
4244000000.0 0.4953729387822956 -0.881817511662193
4247000000.0 0.5039099481377415 -0.8849850534358631
4250000000.0 0.49018521551949384 -0.8657847172260913
4253000000.0 0.47719997429775485 -0.855272871105601
4256000000.0 0.5108491276879918 -0.9131164407234224
4259000000.0000005 0.45927224826332336 -0.8635820808062353
4261999999.9999995 0.4709062643630611 -0.8878317015806892
4266000000.0 0.4806715502949534 -0.9017128186696441
4269000000.0 0.4862205506003041 -0.8805862454480523
4272000000.0000005 0.48909881557697454 -0.8833991894443066
4275000000.0000005 0.4886891730178624 -0.8797854449567043
4277999999.9999995 0.5035491183317328 -0.9121943673748178
4280999999.9999995 0.5067920291651735 -0.8948769465498588
4284000000.0 0.47522284733125314 -0.8955401877305903
4288000000.0000005 0.5378380640640724 -0.8813714525601701
4291000000.0000005 0.4875174079209377 -0.8604433669826035
4293999999.9999995 0.4785496704304298 -0.888202358149955
4297000000.0 0.5116818859140186 -0.8625769270447298
4300000000.0 0.49175085670607555 -0.872976756936982
4303000000.0 0.48072333380151355 -0.895055788766287
4306000000.0 0.5096150700914984 -0.8636626363637324
4309000000.0 0.4968249891768349 -0.8698396295961791
4312000000.0 0.5388250025382232 -0.8899062906173577
4316000000.0 0.5054623493946785 -0.8924971375961209
4319000000.0 0.5118759754389786 -0.8725319042747753
4322000000.0 0.4765475151155655 -0.8785936585582378
4325000000.0 0.4972725494555774 -0.8910259000023861
4328000000.0 0.490291654571391 -0.8918576176468166
4331000000.0 0.4711510947506735 -0.8929776596052144
4334000000.0 0.48125180475419277 -0.8727074412466052
4338000000.0 0.5124637931611715 -0.8600218259349702
4341000000.0 0.5554901974134964 -0.882218599640049
4344000000.0 0.5247181600396078 -0.9091232032048466
4347000000.0 0.466904425733438 -0.9182408596345883
4350000000.0 0.4570426281163186 -0.8605528914868035
4353000000.0 0.49396123766945765 -0.851856237726141
4356000000.0 0.47433313167160646 -0.8645350145221022
4359000000.0 0.4648733353596871 -0.83543035335146
4362000000.0 0.44920623642404434 -0.9026285438743662
4366000000.0 0.48516380272602944 -0.9227968680716927
4369000000.0 0.47315035252813875 -0.8589731645208611
4372000000.0 0.44069568848319285 -0.8890269027691229
4375000000.0 0.49453066035955173 -0.8607243251907423
4378000000.0 0.46355560894594716 -0.862631685476623
4381000000.0 0.48223854591381904 -0.8553520971961175
4384000000.0 0.5056106240558876 -0.9425540495681135
4388000000.0 0.4882960794188801 -0.8598150197221153
4391000000.0 0.4851343197247231 -0.8986132770808894
4394000000.0 0.46068453033283085 -0.8518186218437873
4397000000.0 0.468179048442667 -0.894476757174444
4400000000.0 0.47841169248983306 -0.9198838728852894
4403000000.0 0.49655042938239136 -0.893515827019757
4406000000.0 0.47414148342641105 -0.8972122485110261
4409000000.0 0.4890414879693615 -0.9152012975808306
4412000000.0 0.42848727726559077 -0.9125589501286384
4416000000.0 0.45573005298580893 -0.8766416529147979
4419000000.0 0.43928673876902086 -0.9082411869238585
4422000000.0 0.48663432238762794 -0.8798820290537007
4425000000.0 0.49454092511341086 -0.8982611343523307
4428000000.0 0.46751132548890706 -0.8970793146259887
4431000000.0 0.4954932107784516 -0.9082539446494062
4434000000.0 0.46118934128114686 -0.8874631502622821
4438000000.0 0.4898980715726547 -0.9043613392911004
4441000000.0 0.48602906072530944 -0.8951278955305498
4444000000.0 0.47227370709445754 -0.8596522205558685
4447000000.0 0.45637255584707237 -0.8926328983111874
4450000000.0 0.47474690050016516 -0.8661732016609999
4453000000.0 0.4906976890775734 -0.918560901763227
4456000000.0 0.44539576084344723 -0.8689577459072266
4459000000.0 0.4367022498717773 -0.8564668434114142
4462000000.0 0.4790287221278069 -0.9634040013867526
4466000000.0 0.4597900540789076 -0.9423982644360593
4469000000.0 0.4738150522738489 -0.8911136643264164
4472000000.0 0.43973308788001936 -0.9273140771068944
4475000000.0 0.4466967971087778 -0.8678528363070723
4478000000.0 0.4611803169979346 -0.9472110903246328
4481000000.0 0.42777558494870727 -0.8576549192761
4484000000.0 0.4220439126427495 -0.9147802982744873
4488000000.0 0.4469549925811449 -0.8773001007050263
4491000000.0 0.4562832434797847 -0.905407714186794
4494000000.0 0.44832826245695134 -0.8846307949856788
4497000000.0 0.44119164199304717 -0.897856333152244
4500000000.0 0.47017733550901064 -0.8773365318750908
4503000000.0 0.4835396580672868 -0.9210523143287139
4506000000.0 0.4505366830271225 -0.8917181759423902
4509000000.0 0.4557553789012992 -0.8729585426788071
4512000000.0 0.4326582358380785 -0.8842118460920694
4516000000.0 0.4711011057645967 -0.9238711225829233
4519000000.0 0.456782789894303 -0.8792895584103807
4522000000.0 0.4500149800915031 -0.8972475178252044
4525000000.0 0.4850258656326849 -0.8611275470375662
4528000000.0 0.45359794666369163 -0.9146297615475993
4531000000.0 0.4601604421908871 -0.8929275996481378
4534000000.0 0.4390045090782062 -0.8847647525170095
4538000000.0 0.4530824012683705 -0.8855924967011979
4541000000.0 0.42605947386660303 -0.9014349302941298
4544000000.0 0.4581216646213197 -0.8975648732630064
4547000000.0 0.4510409343204651 -0.8817806386346523
4550000000.0 0.41376341404396827 -0.9080900681107541
4553000000.0 0.45283418066362846 -0.9066124411524821
4556000000.0 0.4312014226879401 -0.8810743182420484
4559000000.0 0.4424260465871664 -0.9161205073805465
4562000000.0 0.4432629369824805 -0.9093903984341751
4566000000.0 0.4312949768847151 -0.926044859853736
4569000000.0 0.43996652508377937 -0.9077400185442474
4572000000.0 0.4337343678743993 -0.8916058556656196
4575000000.0 0.4352694272377241 -0.9112617555348652
4578000000.0 0.4530236431339884 -0.920964969946884
4581000000.0 0.4357525752917941 -0.9157773723371554
4584000000.0 0.42959062378056767 -0.8948667862751878
4588000000.0 0.45146515623073946 -0.9283710560165599
4591000000.0 0.46003776455751016 -0.8913408431779228
4594000000.0 0.4234697911934373 -0.9108284596785307
4597000000.0 0.42311539350329996 -0.9088162330449211
4600000000.0 0.4078691791890444 -0.9149372550206989
4603000000.0 0.43675258880846046 -0.9196262672727802
4606000000.0 0.4578891996013942 -0.9119062588282847
4609000000.0 0.43403115420871635 -0.8916713104835193
4612000000.0 0.4322370194398174 -0.9283430447183414
4616000000.0 0.4280827173580249 -0.899258285232382
4619000000.0 0.43102677298993625 -0.8940082728106846
4622000000.0 0.4318177581254191 -0.9207052658074053
4625000000.0 0.3956181157651001 -0.9075956078892795
4628000000.0 0.4575971139598786 -0.9077561430698902
4631000000.0 0.4202083511610926 -0.9103476404609427
4634000000.0 0.4153413496653505 -0.9059657009017201
4638000000.0 0.45037142206227876 -0.9139977983883105
4641000000.0 0.4325274108156637 -0.9061317841612968
4644000000.0 0.4230754026329552 -0.9032904704548048
4647000000.0 0.4343637614019893 -0.9184872753315771
4650000000.0 0.3928857893095519 -0.9152118390196522
4653000000.0 0.44343593612963716 -0.9243022035593409
4656000000.0 0.403761752174042 -0.9226028397830146
4659000000.0 0.4020570779018182 -0.9169006481825736
4662000000.0 0.41570655618356445 -0.9206262707019801
4666000000.0 0.41872328398722797 -0.9172961431534845
4669000000.0 0.4375269219787615 -0.908945716607003
4672000000.0 0.40157488911493106 -0.9362136408991603
4675000000.0 0.40113034767771694 -0.9267275670020032
4678000000.0 0.40069837396013686 -0.9199278501994761
4681000000.0 0.39963915967648367 -0.9409212462697868
4684000000.0 0.3959518927417337 -0.9228193386521711
4688000000.0 0.39625839054142525 -0.9080816856282737
4691000000.0 0.4355192666257643 -0.9317048038210213
4694000000.0 0.42205034831585164 -0.9267807302015973
4697000000.0 0.3846609167208514 -0.9070568634772255
4700000000.0 0.4277316138999479 -0.9018060002309084
4703000000.0 0.4091766938457009 -0.8513088774900521
4706000000.0 0.41353215392296494 -0.9106507141652183
4709000000.0 0.41244334733157295 -0.9187174863158711
4712000000.0 0.3987442190027369 -0.9260274289806851
4716000000.0 0.39719750501879936 -0.9317250495966197
4719000000.0 0.4360392668880214 -0.9282138690367907
4722000000.0 0.43217960132929595 -0.878739894484337
4725000000.0 0.4150738047113268 -0.9264938058131821
4728000000.0 0.3760715575271124 -0.9111658802451069
4731000000.0 0.4603381423811843 -0.9496763027164455
4734000000.0 0.43483465363684465 -0.923924143172138
4738000000.0 0.4564180029887098 -0.9647855623342573
4741000000.0 0.41616530857243905 -0.9375173976284614
4744000000.0 0.3932275013069417 -0.9520534160554796
4747000000.0 0.436358224968268 -0.8840769345934453
4750000000.0 0.4113593565935601 -0.9320600655397712
4753000000.0 0.4304294728516385 -0.9310172597206496
4756000000.0 0.4215182718910557 -0.9582313629777706
4759000000.0 0.44585256770860776 -0.9171814251374322
4762000000.0 0.40676664528354445 -0.9527564184975366
4766000000.0 0.39379959249651664 -0.9326652844310972
4769000000.0 0.40204311804532805 -0.9392052966636416
4772000000.0 0.4416738455951993 -0.9325669988333046
4775000000.0 0.3913887453974878 -0.982930343766563
4778000000.0 0.388217363742716 -0.9350163121482126
4781000000.0 0.3894231495828705 -0.9152476961567588
4784000000.0 0.4418855621692137 -0.9167883456554863
4788000000.0 0.370303509196361 -0.9551711017730402
4791000000.0 0.38435386919477077 -0.9307928043511967
4794000000.0 0.4452019831831714 -0.9847954906469953
4797000000.0 0.38934646193614053 -0.9076505258681882
4800000000.0 0.40265291734153186 -0.9316222219235488
4803000000.0 0.3532499299915053 -0.9504644094102879
4806000000.0 0.3792613542687843 -0.9488757321465726
4809000000.0 0.369796797288098 -0.9492462163016
4812000000.0 0.37344834282708006 -0.926114563441594
4816000000.0 0.42421257374163923 -0.9073044036765245
4819000000.0 0.42148882310099034 -0.9403170233695035
4822000000.0 0.44751047604771166 -0.9501740580708313
4825000000.0 0.45334907071506886 -0.96184514667205
4828000000.0 0.4034758463636827 -0.9410891474355066
4831000000.0 0.36296677001999605 -0.9941931065347506
4834000000.0 0.41679792516464115 -0.9618588759703506
4838000000.0 0.38178334851580537 -0.9510498656998042
4841000000.0 0.3839453549328505 -0.926884497046885
4844000000.0 0.43843108238250755 -0.9216922334268493
4847000000.0 0.4211959215335942 -0.9108097948699405
4850000000.0 0.4037757783567304 -0.9851944393444833
4853000000.0 0.4146520477330099 -0.9092612718206731
4856000000.0 0.4118406617467601 -0.9193614300164508
4859000000.0 0.4031665959227386 -0.9715226018563241
4862000000.0 0.4253050278243982 -0.8989329980977565
4866000000.0 0.3980711056063142 -0.9714142127392408
4869000000.0 0.39514746302666187 -0.9317192025464462
4872000000.0 0.3709864176549451 -0.9769112915699832
4875000000.0 0.47177763959050084 -0.9618225604369383
4878000000.0 0.40573362534272606 -0.9585946909924161
4881000000.0 0.39840205302177056 -1.0314786260771223
4884000000.0 0.415913254544322 -0.9436684880286814
4888000000.0 0.4392575706174367 -0.9108301370114822
4891000000.0 0.45438439990559676 -0.9628295551122734
4894000000.0 0.3941996796515775 -0.9279425101523862
4897000000.0 0.4128623044299765 -0.9412249019436766
4900000000.0 0.4341002805503877 -0.9293963652620478
4903000000.0 0.4567050615643749 -0.9809782621711852
4906000000.0 0.4058433332526548 -0.975888446674965
4909000000.0 0.4189577963278344 -0.9595620899960245
4912000000.0 0.40840376538322787 -0.9920909492701574
4916000000.0 0.4406084834735913 -0.9627207350053429
4919000000.0 0.44680425935236545 -0.9379248328048128
4922000000.0 0.45690605702553483 -0.9446494618761943
4925000000.0 0.4092262158934059 -0.9522355994425523
4928000000.0 0.44800766523175517 -0.9213431125643352
4931000000.0 0.4183732990394033 -0.9516866180870751
4934000000.0 0.40575612655172094 -0.9171287268936801
4938000000.0 0.3384902195054944 -0.9475664615435955
4941000000.0 0.4126606044825814 -0.8785762136018517
4944000000.0 0.40180804140731363 -0.8500533299412174
4947000000.0 0.39464230275060697 -0.9012276999089843
4950000000.0 0.40555028828382356 -0.9301723664419749
4953000000.0 0.4103381765771491 -0.9846876194859919
4956000000.0 0.3775669354074371 -0.9435973860081729
4959000000.0 0.36107991551823704 -0.9172815352909923
4962000000.0 0.4194195616025437 -0.9662520150215617
4966000000.0 0.43545316712575866 -0.9498401199425578
4969000000.0 0.4440131833015201 -0.9540206907023501
4972000000.0 0.4026386432568463 -0.9654910394124541
4975000000.0 0.42511367593099714 -0.9424921265390385
4978000000.0 0.3944899494958999 -0.9602897157433434
4981000000.0 0.4147143253593323 -0.9313907649540084
4984000000.0 0.42549521153152425 -0.9250647141185486
4988000000.0 0.43084302108778205 -0.929143944353868
4991000000.0 0.46652823314919667 -0.9598408835761437
4994000000.0 0.4274566123782378 -0.9584940524482839
4997000000.0 0.3871562779572619 -0.9694158137619457
5000000000.0 0.45106603490900354 -0.9843929585308104
5003000000.0 0.4440959327881784 -0.9888608617092881
5006000000.0 0.4395335212500551 -0.9926899347246158
5009000000.0 0.4293783869161386 -0.9259375317336391
5012000000.0 0.42112053733505805 -0.9561486954766989
5016000000.0 0.4860227881951118 -0.9688459623332351
5019000000.0 0.4217880223666555 -0.9566983691002844
5022000000.0 0.41103817611215976 -0.9538853843024516
5025000000.0 0.44182978367301823 -1.0037311522473251
5028000000.0 0.4051043869849388 -0.9625810042401943
5031000000.0 0.39539704871045933 -0.9141890878137098
5034000000.0 0.3843716761261497 -0.9886685531039754
5038000000.0 0.41034209502932506 -0.9407263711530197
5041000000.0 0.4309039565036837 -0.952202024719159
5044000000.0 0.44404549813105576 -0.8829835167093363
5047000000.0 0.43934446012782075 -0.9396410914026235
5050000000.0 0.4651943604841752 -0.8875639021861984
5053000000.0 0.43724708258365735 -0.9612603916956124
5056000000.0 0.4807642111075031 -0.9162808806561518
5059000000.0 0.4487510052584001 -0.9535657781414831
5062000000.0 0.40230493943030077 -0.99634110046252
5066000000.0 0.4666704518674858 -0.9330273294404353
5069000000.0 0.42322710798869906 -0.9189249127921102
5072000000.0 0.43764751370524596 -0.9210886569269756
5075000000.0 0.4281726414521465 -0.8943391957793574
5078000000.0 0.3788270719446101 -0.9417912863800566
5081000000.0 0.35754511133893946 -0.9369568724769259
5084000000.0 0.4264199341830476 -0.9477607330135327
5088000000.0 0.41928359542217397 -0.9354120939605579
5091000000.0 0.3730424482435258 -0.9811814441208908
5094000000.0 0.4407688687100143 -0.9632043145530436
5097000000.0 0.45646889703387017 -0.9208768254359018
5100000000.0 0.42396423826656304 -0.9628282819331784
5103000000.0 0.40817365406684003 -0.9535724164570966
5106000000.0 0.4586029988776545 -0.9538804594946115
5109000000.0 0.42094364831236136 -0.9497363424187473
5112000000.0 0.37676465231016065 -0.9562345826875611
5116000000.0 0.43501337520520406 -0.897050557815253
5119000000.0 0.44540288512150616 -0.9414521512744822
5122000000.0 0.40022409261679426 -0.9346246918864123
5125000000.0 0.4411088713928373 -0.906226653568553
5128000000.0 0.4093188003127668 -0.9600938901331146
5131000000.0 0.446436118581908 -0.9315461798217439
5134000000.0 0.4217651651602698 -0.9535717738872532
5138000000.0 0.4125844683945804 -0.9503404243453422
5141000000.0 0.47457989191803746 -0.9263449729132394
5144000000.0 0.44961458671657634 -0.9442379599999674
5147000000.0 0.4309487114427475 -0.9315363987167432
5150000000.0 0.4699384423757676 -0.9977673078944775
5153000000.0 0.42627377517581083 -0.9772105223983991
5156000000.0 0.43186658477718104 -0.9698613100818521
5159000000.0 0.43465689309752414 -0.9802451254140776
5162000000.0 0.42701086157997165 -0.9197764823808381
5166000000.0 0.42306370429589135 -0.9510860298008377
5169000000.0 0.4415011333528572 -0.9413896334556536
5172000000.0 0.42972268583261974 -0.9290205180672524
