! Created with skrf 1.8.0 (http://scikit-rf.org).
# Hz S RI R 50.0 
!freq ReS11 ImS11
4000000000.0 0.5552983906534195 -0.821457764494931
4003000000.0 0.5611747992628884 -0.9669751334715928
4006000000.0 0.5352745868788408 -0.8862930741354731
4009000000.0000005 0.5610894292494386 -0.9112072965926019
4011999999.9999995 0.596534453329987 -0.8362721695641526
4016000000.0 0.5815132635253234 -0.9096887395013571
4019000000.0 0.5677157357663752 -0.8562575170520892
4022000000.0000005 0.637263982649275 -0.8196667109822452
4025000000.0000005 0.5032721731059053 -0.8834641954544351
4027999999.9999995 0.5098610893002842 -0.856847271240349
4030999999.9999995 0.5041515287784244 -0.8179666533198927
4034000000.0 0.5238824111555214 -0.8350710063782655
4038000000.0000005 0.5093490034723551 -0.8760982836019415
4041000000.0000005 0.5666828440786693 -0.8843169780977496
4043999999.9999995 0.5872899774009213 -0.9651047964375821
4046999999.9999995 0.6061809809795784 -0.9384000358730594
4050000000.0 0.5439075616692176 -0.8842898586915555
4053000000.0 0.5119754360125212 -0.8818918792109596
4056000000.0 0.5428490694503177 -0.8797467515499884
4059000000.0 0.5689888643433761 -0.8357575486529296
4062000000.0000005 0.5416364676897325 -0.854592058959885
4066000000.0 0.49020060712165325 -0.8100754379577726
4069000000.0 0.5131061784933724 -0.9393369724629098
4072000000.0 0.5803911726902011 -0.8353121527797923
4075000000.0 0.6050646687715139 -0.8753536438508065
4078000000.0000005 0.5568315965620373 -0.865932610668713
4081000000.0000005 0.566734612757796 -0.8798810640773616
4083999999.9999995 0.5478426801256886 -0.88885864471353
4088000000.0 0.550691877083205 -0.8303711434567977
4091000000.0 0.551713616239147 -0.8969955197698317
4094000000.0000005 0.5577826795162855 -0.8936600666000165
4097000000.0000005 0.5577007707071888 -0.8644037163452498
4099999999.9999995 0.5542019101347875 -0.871214349397614
4102999999.9999995 0.5727969794997786 -0.86176521690077
4106000000.0 0.5131468418516779 -0.9106566579276381
4109000000.0 0.5222231664162724 -0.8807107489599946
4112000000.0 0.5423496841235899 -0.846698140361974
4115999999.9999995 0.5748711084190871 -0.8416930100706619
4119000000.0 0.5180774907747369 -0.8956682062367063
4122000000.0 0.5093845028326017 -0.8408598587284067
4125000000.0 0.5541469129688046 -0.9196172932912935
4128000000.0 0.5121645849981883 -0.8312778123033954
4131000000.0 0.5264379574219068 -0.882965340839129
4134000000.0000005 0.5223810070437387 -0.8675151890519273
4138000000.0 0.522724335123839 -0.8643719499536601
4141000000.0 0.5390849433411061 -0.8376515327693475
4144000000.0 0.5653360393510912 -0.8427653928715159
4147000000.0000005 0.5067951547089543 -0.8678099660219475
4150000000.0000005 0.5393497350468458 -0.8923957570520017
4152999999.9999995 0.5557323782556666 -0.8596509413557135
4155999999.9999995 0.5479400164070476 -0.8678686093665386
4159000000.0 0.5579446551652503 -0.8479270208856461
4162000000.0 0.5503787326248096 -0.849822991881764
4166000000.0000005 0.5238082433557334 -0.8692327695007337
4168999999.9999995 0.5662565021066903 -0.8735060136515156
4171999999.9999995 0.5668471776282433 -0.8749097650826116
4175000000.0 0.5612026594256417 -0.8851871322625937
4178000000.0 0.5484172488480865 -0.8722136959846789
4181000000.0 0.522432492694708 -0.8733018540123946
4184000000.0 0.5507490171971168 -0.8643217177459371
4187999999.9999995 0.5573368365686867 -0.8703469681632617
4191000000.0 0.5564423199550322 -0.8240928873570018
4194000000.0 0.5307675580578387 -0.8719261648109848
4197000000.0 0.5487917755001523 -0.8735355680859684
4200000000.0 0.5358872937541452 -0.8689858557999518
4203000000.0000005 0.5651546249070145 -0.8693377433851042
4206000000.0000005 0.5627537107910033 -0.8648607748644023
4208999999.9999995 0.5224352241872796 -0.8448295540565383
4211999999.9999995 0.5452915179731086 -0.8896229003948753
4216000000.0 0.5779319587504788 -0.8609573808159706
4219000000.0000005 0.5632896304348595 -0.8668329452384684
4222000000.0000005 0.529342462810714 -0.8661489654948659
4224999999.9999995 0.5546632763614391 -0.848876809478944
4227999999.9999995 0.5358225502106093 -0.861322620385395
4231000000.0 0.5558703172394295 -0.8669241589483421
4234000000.0 0.5408712417355102 -0.888116440900695
4238000000.0000005 0.5273423961645771 -0.8669039434265737
4240999999.9999995 0.5308138000030946 -0.8554913203922243
4244000000.0 0.5402227019585261 -0.8640600193078739
4247000000.0 0.5615425227996698 -0.8557146317485954
4250000000.0 0.5234887874619599 -0.8569528703495786
4253000000.0 0.5210508465750133 -0.8157682089397824
4256000000.0 0.5436893194373087 -0.8920094561845544
4259000000.0000005 0.5000602521351412 -0.8339114286396777
4261999999.9999995 0.5181386491894237 -0.8551740488723562
4266000000.0 0.5223036907318656 -0.8793750479164665
4269000000.0 0.5474082711973423 -0.8598593721725519
4272000000.0000005 0.5320066875225286 -0.8680212435197378
4275000000.0000005 0.5485099420636373 -0.8470942404744912
4277999999.9999995 0.5447734316630863 -0.8625610286635869
4280999999.9999995 0.5380795810070538 -0.8335969891566657
4284000000.0 0.5169763951581714 -0.8747707057653942
4288000000.0000005 0.5557456243404592 -0.8364286345624343
4291000000.0000005 0.542682701888148 -0.843465858258504
4293999999.9999995 0.5237044521565882 -0.8441194973517449
4297000000.0 0.5446775564253312 -0.850679438340844
4300000000.0 0.5258534322171179 -0.8230826240423368
4303000000.0 0.5177579571616201 -0.8543237641816208
4306000000.0 0.5868660608039913 -0.8269235169186152
4309000000.0 0.5287905920247629 -0.8466088107012284
4312000000.0 0.5772441782219756 -0.8367345901225574
4316000000.0 0.5281862750366049 -0.8821867255496192
4319000000.0 0.538839887829037 -0.8325821857703573
4322000000.0 0.5109548642904638 -0.8554290009942377
4325000000.0 0.5661249146785923 -0.8684636411072486
4328000000.0 0.5299186471355377 -0.842804738019924
4331000000.0 0.5328945262068128 -0.8802790082536517
4334000000.0 0.5425425782973164 -0.8706411180046607
4338000000.0 0.5477841834937617 -0.8526681799858741
4341000000.0 0.5705853539340636 -0.8274566326554896
4344000000.0 0.5359279357924187 -0.8766711118267472
4347000000.0 0.5351529159118622 -0.8769852272844194
4350000000.0 0.5037125296884728 -0.8350794779286062
4353000000.0 0.5400858300446398 -0.8403486062405146
4356000000.0 0.5060904981993173 -0.8629446512486219
4359000000.0 0.5118059213262446 -0.8092172543454036
4362000000.0 0.5019999661184648 -0.8933314937729436
4366000000.0 0.5628683641053234 -0.8657139734779138
4369000000.0 0.513967459848762 -0.8293200909909619
4372000000.0 0.4743730388046904 -0.854357394389453
4375000000.0 0.5556256954412754 -0.8332428932039911
4378000000.0 0.5263662978014993 -0.8305436131263976
4381000000.0 0.5378288171803216 -0.8394579561142128
4384000000.0 0.5618648049407355 -0.9207931041556648
4388000000.0 0.5333683346802381 -0.8314484462510849
4391000000.0 0.5378717576528099 -0.8671235372119536
4394000000.0 0.5125553998860847 -0.8511507410715882
4397000000.0 0.5221157637332883 -0.8578827879467052
4400000000.0 0.5465601697036541 -0.8787273922198585
4403000000.0 0.5324895169299613 -0.866499736905948
4406000000.0 0.5212190239453575 -0.8686404356940951
4409000000.0 0.537885534673299 -0.8854911945959222
4412000000.0 0.48808433175785904 -0.8871505626805212
4416000000.0 0.509717428370867 -0.8486903927859608
4419000000.0 0.5104468328408235 -0.8694885912394139
4422000000.0 0.532458234078117 -0.8514886269999554
4425000000.0 0.5588286196471876 -0.8585861798658716
4428000000.0 0.5159719827286418 -0.8660855762739365
4431000000.0 0.534653224917703 -0.8778699833797776
4434000000.0 0.5172737160207486 -0.8587908206328012
4438000000.0 0.5272696898230949 -0.8847702821824162
4441000000.0 0.5352261337645001 -0.8689972154517032
4444000000.0 0.5045400788122263 -0.8318716649213003
4447000000.0 0.5143587907458227 -0.8609526921822438
4450000000.0 0.5158023222885917 -0.8484801354157091
4453000000.0 0.5422173660716474 -0.8957197705333574
4456000000.0 0.4877062529401278 -0.8381507645459263
4459000000.0 0.4872610837025799 -0.8407250950155712
4462000000.0 0.5426785673642653 -0.9197563283421925
4466000000.0 0.5307197148681151 -0.8961353107687036
4469000000.0 0.5268997686202285 -0.8441200562192264
4472000000.0 0.5026568192300529 -0.8819667254208089
4475000000.0 0.5055721949649876 -0.8479220945477223
4478000000.0 0.5390772111788087 -0.9203918682766877
4481000000.0 0.4796604792334437 -0.8336116656099146
4484000000.0 0.48158798708423334 -0.8698855831492776
4488000000.0 0.5077854113111724 -0.8585450004629023
4491000000.0 0.5223632939735134 -0.8829996722811618
4494000000.0 0.5107384262017395 -0.8515468905705554
4497000000.0 0.5215116062420347 -0.8392428474405735
4500000000.0 0.5252498868871106 -0.8581870290823098
4503000000.0 0.519723763367153 -0.8748027878446147
4506000000.0 0.506553633255951 -0.8548434890204177
4509000000.0 0.4964150818372114 -0.8403540028333805
4512000000.0 0.49902425902606407 -0.8615859175017249
4516000000.0 0.530036166598761 -0.8852676531854502
4519000000.0 0.520237876242007 -0.8317843342047233
4522000000.0 0.5002869871212292 -0.8779590128273731
4525000000.0 0.5451411664774656 -0.843367702068083
4528000000.0 0.5386479840891287 -0.9039557099398605
4531000000.0 0.5147258117136638 -0.8623259731872799
4534000000.0 0.5064037829402701 -0.8375892293204485
4538000000.0 0.49769489180897375 -0.8565979609612218
4541000000.0 0.4909872271594728 -0.8649799899253001
4544000000.0 0.5163728916901109 -0.8493118099014592
4547000000.0 0.5139973041399372 -0.8326074845729728
4550000000.0 0.48178011826392253 -0.8928485084840336
4553000000.0 0.5106697161168932 -0.8773407900238985
4556000000.0 0.4765350837716576 -0.8848050198781956
4559000000.0 0.5039535592249809 -0.9008538015657647
4562000000.0 0.5189422014794887 -0.8930320925664226
4566000000.0 0.5036342587036546 -0.8930651312398906
4569000000.0 0.48605950177544643 -0.8549510327728972
4572000000.0 0.5073535029638303 -0.8734608757177101
4575000000.0 0.4888642368385864 -0.888312245817852
4578000000.0 0.5310328950419791 -0.881891220424045
4581000000.0 0.48427050112343034 -0.8806135538326172
4584000000.0 0.48102582070230576 -0.8785810939100571
4588000000.0 0.5112572649075061 -0.89103094889287
4591000000.0 0.5237075864087732 -0.86966332703031
4594000000.0 0.47993739631072674 -0.8684648344675174
4597000000.0 0.5013714240016429 -0.8988199284358583
4600000000.0 0.4733575787958809 -0.8727248808965186
4603000000.0 0.4956467371972018 -0.8808551789287828
4606000000.0 0.5136521175534083 -0.8818330370669454
4609000000.0 0.4981376518325411 -0.8683615119581379
4612000000.0 0.4996515627505888 -0.8872495227004011
4616000000.0 0.48594986809581275 -0.8576022561094867
4619000000.0 0.5052677677366582 -0.8638375082212998
4622000000.0 0.4959703893899301 -0.8679797354392536
4625000000.0 0.4698670713803353 -0.8640493467145167
4628000000.0 0.5035050224414757 -0.8679196559350094
4631000000.0 0.47736486038785164 -0.8814596137565575
4634000000.0 0.47695373093117527 -0.8739110595211
4638000000.0 0.5179644735167206 -0.8886132132480589
4641000000.0 0.5014838825426627 -0.8794860665285189
4644000000.0 0.49434034455829123 -0.875023494275289
4647000000.0 0.5109517145768139 -0.8952169698888477
4650000000.0 0.48849707179913915 -0.895716236235822
4653000000.0 0.4926146140179282 -0.8803605576013475
4656000000.0 0.4821024119383731 -0.891732063029088
4659000000.0 0.4899226130542777 -0.8790630197723618
4662000000.0 0.4973672332443879 -0.8837673552888952
4666000000.0 0.47479010027972685 -0.8807338362238345
4669000000.0 0.505394697515482 -0.8839302668291676
4672000000.0 0.4865757360637021 -0.9050902109389374
4675000000.0 0.476510959783099 -0.8946538910952406
4678000000.0 0.48326657317419325 -0.8670778245154662
4681000000.0 0.4720672469135086 -0.920294479620459
4684000000.0 0.45635407050010596 -0.8888226904011541
4688000000.0 0.46568241649540876 -0.8901481595557367
4691000000.0 0.48775751531858896 -0.8637494291324066
4694000000.0 0.48839806916983747 -0.8726037286588794
4697000000.0 0.4655490264093965 -0.8565489729074892
4700000000.0 0.4790100493888857 -0.8805640356782793
4703000000.0 0.49527258173999106 -0.8469348365536981
4706000000.0 0.48257841837181786 -0.8993282667544994
4709000000.0 0.47109373641597335 -0.8839556770916182
4712000000.0 0.47898419332035275 -0.8961249259571082
4716000000.0 0.4972030854800545 -0.9030037529328034
4719000000.0 0.515076904732181 -0.8889878157651776
4722000000.0 0.4822551920718717 -0.8674208748552206
4725000000.0 0.4668216074493651 -0.8915106936147811
4728000000.0 0.4854702134653723 -0.8823464869614899
4731000000.0 0.5001037040999499 -0.9224498049485577
4734000000.0 0.4910695222893642 -0.8730953033942498
4738000000.0 0.5250956817086175 -0.9054015575245395
4741000000.0 0.47301514020534124 -0.903465980325172
4744000000.0 0.4782258272033262 -0.9079832045796362
4747000000.0 0.4890221834284877 -0.8553786725795096
4750000000.0 0.4887195830839074 -0.9136321341946657
4753000000.0 0.4896760240320991 -0.9030785418204065
4756000000.0 0.49290119076362626 -0.9051102312886051
4759000000.0 0.5305072256191659 -0.8851922650361181
4762000000.0 0.4761102636071861 -0.9114709827161782
4766000000.0 0.494562633443539 -0.8778652486230094
4769000000.0 0.49968826646497344 -0.9058436990127173
4772000000.0 0.47871388732940967 -0.903608248138832
4775000000.0 0.500166456172543 -0.9303162446001354
4778000000.0 0.45711506886838055 -0.9065616313474567
4781000000.0 0.49307194703503343 -0.8642335194368201
4784000000.0 0.5037317572699305 -0.8635449828691231
4788000000.0 0.46954409941039127 -0.9176117792930863
4791000000.0 0.47558150361555046 -0.8648755249041139
4794000000.0 0.5218631049587095 -0.9001785806965885
4797000000.0 0.45740890143387775 -0.8956384222374599
4800000000.0 0.46945776357051344 -0.8807039436904085
4803000000.0 0.4398076780113406 -0.9053606451033128
4806000000.0 0.48679004041818763 -0.9083889499393611
4809000000.0 0.43690304163252913 -0.9212276772706901
4812000000.0 0.44805999330263835 -0.901890239180597
4816000000.0 0.48886381948711366 -0.8779909398889135
4819000000.0 0.5062239822377824 -0.9097473966102454
4822000000.0 0.517615364450912 -0.9266590810585545
4825000000.0 0.4967349493618106 -0.9019605044474711
4828000000.0 0.4734488952399161 -0.8646889823481615
4831000000.0 0.44157002516387084 -0.9250301392687201
4834000000.0 0.49799175931234513 -0.8872706892536925
4838000000.0 0.4664562842108866 -0.9202851698777126
4841000000.0 0.4722631353819479 -0.8899526055947269
4844000000.0 0.5144889396228478 -0.8807861508912309
4847000000.0 0.4861526217312056 -0.861556895806017
4850000000.0 0.4868928626413801 -0.9231553806162608
4853000000.0 0.45154401455936144 -0.8723003146192254
4856000000.0 0.4525337552114445 -0.8826624665142556
4859000000.0 0.5060521090256554 -0.9335306586141437
4862000000.0 0.48926408175234587 -0.8741418083777178
4866000000.0 0.47401243382768965 -0.9181093908065163
4869000000.0 0.46858085839643493 -0.9131549439362833
4872000000.0 0.466149402027737 -0.9422805383539884
4875000000.0 0.5390104950955821 -0.9059384756545799
4878000000.0 0.47687256217410834 -0.9276877511827316
4881000000.0 0.49057758363842724 -0.9666880017911963
4884000000.0 0.4949790575935274 -0.8974212174773346
4888000000.0 0.5169910075597955 -0.8788076725455864
4891000000.0 0.5064672767887569 -0.8932653764284572
4894000000.0 0.47540260211580654 -0.8854405697985143
4897000000.0 0.480711374459892 -0.8864623324262179
4900000000.0 0.5107338702292515 -0.9045070152683354
4903000000.0 0.5114626842667719 -0.9130860718273013
4906000000.0 0.47670108812780243 -0.9289354120537385
4909000000.0 0.456380313775708 -0.9441845460971198
4912000000.0 0.4592101031783756 -0.9296682082506682
4916000000.0 0.5349267986132147 -0.9475545926047484
4919000000.0 0.5371359325731777 -0.8998431467934628
4922000000.0 0.4867999608928225 -0.8927834361413077
4925000000.0 0.47766683532288434 -0.8891514415981537
4928000000.0 0.5463916407436945 -0.8590722717788964
4931000000.0 0.5386279147965768 -0.8976272903762719
4934000000.0 0.4747452458968148 -0.8675132171310284
4938000000.0 0.4697501933479083 -0.9012125579163923
4941000000.0 0.4936779011573101 -0.9009898550514439
4944000000.0 0.5132880001523507 -0.8422455429056319
4947000000.0 0.4733341654539241 -0.8787917988327598
4950000000.0 0.46450581391383955 -0.8927083514463078
4953000000.0 0.4929571387270777 -0.9533111204194462
4956000000.0 0.4546252310951464 -0.914971710017235
4959000000.0 0.44920986225179893 -0.8997379507043449
4962000000.0 0.46868333394685996 -0.9209661520200132
4966000000.0 0.5156421758732683 -0.9254656957446384
4969000000.0 0.5142127934233831 -0.9316191956985909
4972000000.0 0.5033887928074363 -0.9211557609403217
4975000000.0 0.5194297873922296 -0.8413477593001145
4978000000.0 0.47649687518421957 -0.919327908372244
4981000000.0 0.49081827118205534 -0.9340903614311695
4984000000.0 0.5102720989636015 -0.9002478139981089
4988000000.0 0.5189216099356493 -0.8632956907281564
4991000000.0 0.5369527315365461 -0.9055532731372054
4994000000.0 0.5023204270603563 -0.8905834082562374
4997000000.0 0.47032927268733726 -0.9241398235964874
5000000000.0 0.5377068078924951 -0.9286955903766452
5003000000.0 0.48671356192854354 -0.9429347049393622
5006000000.0 0.5047657289874947 -0.9487461779422103
5009000000.0 0.512064612419522 -0.8953057057336329
5012000000.0 0.4919907514981884 -0.9196288421901503
5016000000.0 0.5525280367110735 -0.8895053492139048
5019000000.0 0.46339597530142435 -0.9004455869921675
5022000000.0 0.483429164906106 -0.9035946378954228
5025000000.0 0.5148143486912194 -0.9548451640618809
5028000000.0 0.4976638760485862 -0.8879980806605108
5031000000.0 0.5071028071786317 -0.8965029584492938
5034000000.0 0.48555575878127594 -0.9438743598045172
5038000000.0 0.46469244593328934 -0.8801854095823447
5041000000.0 0.5159638066344436 -0.8899926487428673
5044000000.0 0.520214873640144 -0.8838920526762536
5047000000.0 0.5432647083283112 -0.8625170376602986
5050000000.0 0.5728422667938191 -0.8631115753189579
5053000000.0 0.5146249913202482 -0.9454793179124694
5056000000.0 0.5692223692241372 -0.8908955099075
5059000000.0 0.5358096334896015 -0.8663021109719629
5062000000.0 0.49519905064862196 -0.911433473953495
5066000000.0 0.5712959723394923 -0.859436331893062
5069000000.0 0.5150274805108253 -0.8946648944667
5072000000.0 0.48170206215454037 -0.8559532429101722
5075000000.0 0.5443884439503532 -0.8623171360257331
5078000000.0 0.5034545881771297 -0.9099387602262937
5081000000.0 0.46586959456795 -0.8714034655896324
5084000000.0 0.5175326731586147 -0.9028131281136172
5088000000.0 0.5393546151835787 -0.9238091595938307
5091000000.0 0.4611128673203993 -0.9113123753706331
5094000000.0 0.5414854193151089 -0.9317712274542371
5097000000.0 0.5700263107749444 -0.8884629383318536
5100000000.0 0.481659476737048 -0.8739842591898408
5103000000.0 0.46848862080483983 -0.9305638270563161
5106000000.0 0.5566360743522812 -0.8913788591595323
5109000000.0 0.5632681821523934 -0.8632559567632282
5112000000.0 0.5078434491065814 -0.8986572526275589
5116000000.0 0.5064201441385766 -0.8544220221562855
5119000000.0 0.5337367968378827 -0.935821746225297
5122000000.0 0.5041354473895013 -0.8346113788164468
5125000000.0 0.5188600690650711 -0.8740781018442612
5128000000.0 0.47662236583021794 -0.8915565195809507
5131000000.0 0.5252146116884122 -0.9081441894491917
5134000000.0 0.5010814361714041 -0.8807986965789729
5138000000.0 0.559167314993416 -0.9306329501373086
5141000000.0 0.5899156747360504 -0.8229747836030186
5144000000.0 0.5619737131776819 -0.9008634649209825
5147000000.0 0.5098474646554187 -0.888324995756681
5150000000.0 0.5453826170830229 -0.8970181127258092
5153000000.0 0.5674907614469582 -0.8565113612780801
5156000000.0 0.543988790052442 -0.8835003056786477
5159000000.0 0.5374142118516599 -0.8631771306536562
5162000000.0 0.5094121745282922 -0.8855192511884051
5166000000.0 0.507198765107059 -0.8769622358675115
5169000000.0 0.5526172302895904 -0.9091872336098188
5172000000.0 0.49865035314129436 -0.8475920719232078
5175000000.0 0.5359021966855866 -0.9189205080060544
