! Created with skrf 1.8.0 (http://scikit-rf.org).
# Hz S RI R 50.0 
!freq ReS11 ImS11
4000000000.0 0.5719301447412074 -0.874876595519297
4003000000.0 0.55949316174959 -0.9238416367973596
4006000000.0 0.4591195617799848 -0.9240823951423764
4009000000.0000005 0.5422479889055192 -0.8629323014726424
4011999999.9999995 0.5859502831250731 -0.8865451756310976
4016000000.0 0.5166427177279262 -0.8860635384039348
4019000000.0 0.5104361676316148 -0.8644643736112697
4022000000.0000005 0.5909173509055283 -0.8362053643954086
4025000000.0000005 0.5099516804892131 -0.9439698571599247
4027999999.9999995 0.5345838218047438 -0.8952967121562787
4030999999.9999995 0.48588722173024834 -0.8154065418838614
4034000000.0 0.5148237440441782 -0.8943993612214747
4038000000.0000005 0.5476661412084878 -0.9300422032652508
4041000000.0000005 0.547516350510298 -0.852900032794454
4043999999.9999995 0.5758504266947715 -0.9179476191382849
4046999999.9999995 0.6051246944409541 -0.8989797319289443
4050000000.0 0.5417880931953043 -0.9360575099740303
4053000000.0 0.48719223014880064 -0.8811019428114221
4056000000.0 0.5680601947718448 -0.9055113256232722
4059000000.0 0.5500746120705718 -0.8560410564637411
4062000000.0000005 0.531828156052094 -0.8709523144917101
4066000000.0 0.4896206065952172 -0.8315988427190579
4069000000.0 0.555024909409198 -0.9069719285536171
4072000000.0 0.5823315882399587 -0.8874002620445427
4075000000.0 0.5954923345188246 -0.9014830565503217
4078000000.0000005 0.5435382485725018 -0.9037835938189633
4081000000.0000005 0.5826425671141908 -0.8843194833923826
4083999999.9999995 0.51661689176789 -0.8976633991961261
4088000000.0 0.5911809582943999 -0.8271964344585718
4091000000.0 0.5636917658652313 -0.9291532709041462
4094000000.0000005 0.5759469429424912 -0.8653595919542051
4097000000.0000005 0.5603927580946034 -0.8779087408836593
4099999999.9999995 0.5428554199201499 -0.8788478544668334
4102999999.9999995 0.5655859404614028 -0.8950899351664704
4106000000.0 0.5403224712968412 -0.8755405155179228
4109000000.0 0.5461066525421082 -0.9261384114717803
4112000000.0 0.5205692518629842 -0.8639733310782649
4115999999.9999995 0.5499059571076305 -0.8453636769318903
4119000000.0 0.523081102648121 -0.8927309571044705
4122000000.0 0.5623618183360718 -0.9207777498418463
4125000000.0 0.5092198230314152 -0.935916381346496
4128000000.0 0.534446721934163 -0.8323679128216618
4131000000.0 0.510504816427693 -0.8705431620411873
4134000000.0000005 0.5492208178803587 -0.9000996995326053
4138000000.0 0.4963824284737667 -0.8295534788179978
4141000000.0 0.5336730337223865 -0.8700295494324641
4144000000.0 0.5675002755928542 -0.8752029255819266
4147000000.0000005 0.5223021225089638 -0.8677455940042361
4150000000.0000005 0.5695424501169525 -0.9040616408309756
4152999999.9999995 0.5245974347684172 -0.8758932492066833
4155999999.9999995 0.570072906248605 -0.8908728936492095
4159000000.0 0.551244256329078 -0.8628639365670029
4162000000.0 0.5339122610697346 -0.8423721091816812
4166000000.0000005 0.5450988931229408 -0.8805652148397822
4168999999.9999995 0.5447910810347828 -0.8695212328970978
4171999999.9999995 0.5667191434065582 -0.8674125914034869
4175000000.0 0.5436759974677907 -0.880545968475769
4178000000.0 0.5519075218278733 -0.8806345251812098
4181000000.0 0.5258623297449665 -0.8881494523658443
4184000000.0 0.5537459957703982 -0.8706088707485149
4187999999.9999995 0.5362680419420637 -0.8862595109820519
4191000000.0 0.5493192984174965 -0.8190918781323143
4194000000.0 0.5390132475176701 -0.8592214556250695
4197000000.0 0.5455975860897813 -0.8895637702432876
4200000000.0 0.55842948994514 -0.8651463301739353
4203000000.0000005 0.5686881300657589 -0.853599065081418
4206000000.0000005 0.558200833339166 -0.8689782067142541
4208999999.9999995 0.5497900510332417 -0.8640193619879197
4211999999.9999995 0.5224955867503036 -0.8850358168586981
4216000000.0 0.5568673841708885 -0.86922545579126
4219000000.0000005 0.5537679150213451 -0.8923091400730485
4222000000.0000005 0.5440686555835679 -0.8598672188689084
4224999999.9999995 0.5349424260408675 -0.8632340251177297
4227999999.9999995 0.5437037499804691 -0.8765216648751569
4231000000.0 0.5355660862287666 -0.8761811144628877
4234000000.0 0.5326087080272677 -0.8725176286739464
4238000000.0000005 0.5430457202570956 -0.87948637576376
4240999999.9999995 0.520819977023131 -0.872787151717971
4244000000.0 0.5310000977201228 -0.8715160369030536
4247000000.0 0.5383225429495706 -0.8660040556615292
4250000000.0 0.5310504584245723 -0.8579337687284958
4253000000.0 0.5126562584142064 -0.8505002231732597
4256000000.0 0.5348700663824014 -0.8872913615826052
4259000000.0000005 0.5219244797188917 -0.8472239461469683
4261999999.9999995 0.5150906356530233 -0.8821226777129831
4266000000.0 0.529838822319516 -0.8803791405575817
4269000000.0 0.5555443601171295 -0.8594971264607432
4272000000.0000005 0.5477194675764824 -0.8699019865915568
4275000000.0000005 0.5322881795342143 -0.8562772909934283
4277999999.9999995 0.5425030957987146 -0.8745270234236167
4280999999.9999995 0.5506233929021378 -0.8627604718479942
4284000000.0 0.5161937150601221 -0.8846449103160232
4288000000.0000005 0.5794048230558853 -0.8551498565417902
4291000000.0000005 0.5220128312627526 -0.8607631696721616
4293999999.9999995 0.5188326252101028 -0.8497573207034307
4297000000.0 0.5346314903833912 -0.8295121770987594
4300000000.0 0.5412884468145016 -0.8513496134754878
4303000000.0 0.520604867591394 -0.8657546347815945
4306000000.0 0.555069215907029 -0.8592974519950158
4309000000.0 0.5172298770187922 -0.8482645930452704
4312000000.0 0.5852326788802273 -0.8535902421633772
4316000000.0 0.5450429231903373 -0.8546052792285767
4319000000.0 0.5533764029884103 -0.8440178698078795
4322000000.0 0.5194172091639964 -0.8705503322969801
4325000000.0 0.5476238302800562 -0.8789658018345626
4328000000.0 0.5344299199551416 -0.8396148459106146
4331000000.0 0.5257602855995386 -0.872711220306675
4334000000.0 0.5125189389563403 -0.8701736436380714
4338000000.0 0.5684102900802137 -0.8274636357302869
4341000000.0 0.5713213519149208 -0.8593730822623408
4344000000.0 0.5497183877940972 -0.8527932160555817
4347000000.0 0.562315869242614 -0.9061914435558158
4350000000.0 0.5033452244190812 -0.8454926043170516
4353000000.0 0.5715093191206777 -0.8370798242046232
4356000000.0 0.5108150950524606 -0.8651138679770551
4359000000.0 0.5076448145210217 -0.8256318944626083
4362000000.0 0.47560518618824055 -0.9070936566433799
4366000000.0 0.5450485618519775 -0.8898621013613017
4369000000.0 0.5307273186936871 -0.8481733757082599
4372000000.0 0.4919409279397225 -0.8634543351693184
4375000000.0 0.532796007978913 -0.8277269081302967
4378000000.0 0.5132749010058777 -0.8475820247030258
4381000000.0 0.5303528753242166 -0.8360550342853293
4384000000.0 0.5635026540990088 -0.9268183506027207
4388000000.0 0.5290713530265594 -0.8455737213612108
4391000000.0 0.5269290904771868 -0.8770737340827452
4394000000.0 0.5260416350112836 -0.8485015640128927
4397000000.0 0.5130895843981065 -0.8630645576355398
4400000000.0 0.5277927852360942 -0.8992469299494005
4403000000.0 0.5340958617563467 -0.8674600730542712
4406000000.0 0.5054016060770975 -0.8777364866093357
4409000000.0 0.5272761745527075 -0.8972531378268543
4412000000.0 0.4700732410499259 -0.8882167401856103
4416000000.0 0.5157328464524951 -0.8543542396694814
4419000000.0 0.5046785112608819 -0.8807276809188791
4422000000.0 0.533609205859632 -0.857852489891658
4425000000.0 0.5523020565119224 -0.8720250906920965
4428000000.0 0.52005152889108 -0.8727961639492106
4431000000.0 0.5342514879890081 -0.875686227986483
4434000000.0 0.5154036023633976 -0.8590704143150234
4438000000.0 0.5458208300134574 -0.8823932524551659
4441000000.0 0.5323197817208294 -0.8704982789547311
4444000000.0 0.5094189541472938 -0.8502039545888382
4447000000.0 0.5125501385561387 -0.8572971911563314
4450000000.0 0.5297975776758078 -0.8618362980595082
4453000000.0 0.5279986603008802 -0.8876759590992083
4456000000.0 0.5037265884472768 -0.8468685603998567
4459000000.0 0.48170480538157334 -0.8431245484137947
4462000000.0 0.532862951267265 -0.9113804840634783
4466000000.0 0.5305391509711994 -0.9134153525906539
4469000000.0 0.548740277456788 -0.8695590427544814
4472000000.0 0.4968612811255006 -0.90294998246085
4475000000.0 0.5001081428279925 -0.8473048691169518
4478000000.0 0.5205329089429167 -0.9170151013355508
4481000000.0 0.49691766548398275 -0.84520150945983
4484000000.0 0.4692834070550243 -0.9037735805295992
4488000000.0 0.486880059554681 -0.8687853581943976
4491000000.0 0.5103411035992622 -0.8796706315876275
4494000000.0 0.5096332404478598 -0.8688253853681693
4497000000.0 0.5048465739629974 -0.8577958838137125
4500000000.0 0.5442408015338824 -0.8673110900363755
4503000000.0 0.5436020961531625 -0.8943426487886825
4506000000.0 0.502834775526868 -0.8750025868418019
4509000000.0 0.5135793510387318 -0.8459859197430089
4512000000.0 0.4830482470880376 -0.8721627393335796
4516000000.0 0.5153740962306124 -0.8860723648336759
4519000000.0 0.5100702016464934 -0.8526610621160958
4522000000.0 0.4955680586910666 -0.8811514031333473
4525000000.0 0.540090370001286 -0.8532151918856405
4528000000.0 0.5317305159868875 -0.9095034079316768
4531000000.0 0.5148248037327308 -0.8813668393517684
4534000000.0 0.518583751439701 -0.851683264341178
4538000000.0 0.5063955649328051 -0.8756328622876026
4541000000.0 0.47412571870970954 -0.892422957733498
4544000000.0 0.5041701674290264 -0.8594066186058137
4547000000.0 0.5142664505668568 -0.8585429644985232
4550000000.0 0.5039231761104717 -0.8883964738118755
4553000000.0 0.49568046636904933 -0.8867443096557801
4556000000.0 0.47383647123561645 -0.868631082336309
4559000000.0 0.47820638140303556 -0.8876317878585389
4562000000.0 0.5161329659851356 -0.9008088153952347
4566000000.0 0.49487588226888113 -0.8969605481468985
4569000000.0 0.48444213573550804 -0.8520627502357006
4572000000.0 0.5045496050122777 -0.8672588753195256
4575000000.0 0.48663549300072106 -0.8929080596952197
4578000000.0 0.5304961727659491 -0.8986388921062933
4581000000.0 0.4884967441917437 -0.8861878834661739
4584000000.0 0.49354735016682233 -0.8901127442530887
4588000000.0 0.5228577562132601 -0.8907020578186342
4591000000.0 0.5062271394326692 -0.8578451716687863
4594000000.0 0.47500658541533136 -0.8866843559917723
4597000000.0 0.48024493830309817 -0.9135374575242821
4600000000.0 0.46528701350876955 -0.8784840851775606
4603000000.0 0.48018503607022534 -0.8933209641986709
4606000000.0 0.49151534575940403 -0.8999263844868792
4609000000.0 0.4979663276321117 -0.8829334213517822
4612000000.0 0.5096927782233615 -0.9049746344793919
4616000000.0 0.4837242446922602 -0.8814444932710247
4619000000.0 0.5003499463835832 -0.8934100566422706
4622000000.0 0.48153255291403385 -0.8864129832992278
4625000000.0 0.46141374818328906 -0.8524574084566998
4628000000.0 0.49992238413413764 -0.8917238208298592
4631000000.0 0.4738074988964507 -0.8932859174278693
4634000000.0 0.489956831364341 -0.8925389923117291
4638000000.0 0.4705250575816428 -0.8771041658767134
4641000000.0 0.4882317729671972 -0.8940101224681892
4644000000.0 0.4915441742282902 -0.885723753423776
4647000000.0 0.4907519057038165 -0.8964095861991075
4650000000.0 0.47344371988098743 -0.8883025424493343
4653000000.0 0.5129130508654038 -0.8996692229402491
4656000000.0 0.4772030487250001 -0.8962759495648795
4659000000.0 0.4700198048695554 -0.8981281167820148
4662000000.0 0.47585021098938696 -0.9043831996987844
4666000000.0 0.47078969055036324 -0.8945224594517183
4669000000.0 0.49527527974473573 -0.9085837576196795
4672000000.0 0.48422856087508437 -0.9290761247403247
4675000000.0 0.4793583191414021 -0.8871880280983021
4678000000.0 0.4775913253367409 -0.8703460520072659
4681000000.0 0.45407027161723695 -0.9065624325033715
4684000000.0 0.4526425043501793 -0.9212836893562014
4688000000.0 0.45769149375027296 -0.886545418559227
4691000000.0 0.5098058573873817 -0.8874923990804475
4694000000.0 0.48170338193561957 -0.8729749624803537
4697000000.0 0.45920748043414106 -0.873855296548649
4700000000.0 0.4744732871164354 -0.8841444593734437
4703000000.0 0.48887841161312756 -0.8719774242746338
4706000000.0 0.4733076337001896 -0.9120487611644791
4709000000.0 0.4641618137698402 -0.9005077828178684
4712000000.0 0.4717880191079947 -0.9086597541247525
4716000000.0 0.4864449952663343 -0.9166588501834452
4719000000.0 0.5054345201281301 -0.9114454317675365
4722000000.0 0.4977085052158488 -0.8764314417143447
4725000000.0 0.4779223103135049 -0.8800014353236947
4728000000.0 0.4929767125554969 -0.8967023239078431
4731000000.0 0.5196031834349853 -0.9153206785860867
4734000000.0 0.49841373552828283 -0.8740847961384142
4738000000.0 0.5180680551663788 -0.9100960907143149
4741000000.0 0.5030164840263814 -0.9459632211885273
4744000000.0 0.4328607992530239 -0.9328584155072227
4747000000.0 0.4838691649829806 -0.8598128689906429
4750000000.0 0.4809713898835261 -0.9025552832730819
4753000000.0 0.489028938963875 -0.8842353352915663
4756000000.0 0.46754630630052446 -0.9325756549432185
4759000000.0 0.4878260068779203 -0.9031426152221619
4762000000.0 0.4566021758207641 -0.9377239619581834
4766000000.0 0.5433235599972053 -0.8949297190663184
4769000000.0 0.4645401466269251 -0.8946454358442507
4772000000.0 0.48231695100421557 -0.8979649905574677
4775000000.0 0.4794071406012844 -0.969473924632762
4778000000.0 0.4895591236926774 -0.9126300932008863
4781000000.0 0.48786022429490655 -0.901225517574466
4784000000.0 0.4869494038563267 -0.8887887287791181
4788000000.0 0.4548801233189595 -0.9321284628490407
4791000000.0 0.4777557435206591 -0.8863769115414305
4794000000.0 0.5185858500124356 -0.9145061794008603
4797000000.0 0.46692759801145667 -0.8981565463522222
4800000000.0 0.46126893130346847 -0.8745712829559119
4803000000.0 0.44728217140176574 -0.9024139274197926
4806000000.0 0.4606965303642862 -0.920455779547368
4809000000.0 0.41314669676251214 -0.9257587265403084
4812000000.0 0.4396797000197042 -0.9259600886398335
4816000000.0 0.4875975535316518 -0.8946258967593766
4819000000.0 0.49792533995584953 -0.8878388010404028
4822000000.0 0.5088082099928892 -0.9402960207666503
4825000000.0 0.5326716708028327 -0.8884439746370422
4828000000.0 0.49360870760179 -0.8885180495746766
4831000000.0 0.4536138784598663 -0.9689664422692634
4834000000.0 0.5025245664447213 -0.9129890800775989
4838000000.0 0.47540561373080154 -0.937425591809497
4841000000.0 0.4599999014878793 -0.8966554421324221
4844000000.0 0.5202148193220764 -0.8832983217188352
4847000000.0 0.4806227155453814 -0.8706722494295689
4850000000.0 0.46680551761895367 -0.9377238733976355
4853000000.0 0.4660561067143604 -0.8949955565634165
4856000000.0 0.4743040624372584 -0.9015676898685077
4859000000.0 0.4884791919917588 -0.9299013824806465
4862000000.0 0.48241240956872183 -0.8829256166520307
4866000000.0 0.45717762348855545 -0.9292144517028963
4869000000.0 0.4637060939355071 -0.9129792713234489
4872000000.0 0.4500901258778792 -0.9567994444206148
4875000000.0 0.5478153715577186 -0.9186975578148889
4878000000.0 0.5071638014340683 -0.9202124330659148
4881000000.0 0.47375914695842536 -0.9630313018137061
4884000000.0 0.47870742020531576 -0.9131123785322296
4888000000.0 0.5125487549136531 -0.8898363338637304
4891000000.0 0.5313267566585996 -0.9222150171697175
4894000000.0 0.44938646105173785 -0.9172750601403276
4897000000.0 0.4904104307167849 -0.8882449175556231
4900000000.0 0.5060865095267895 -0.9299961173651091
4903000000.0 0.5353001227647632 -0.9034089552460756
4906000000.0 0.522372408510347 -0.9369627055729736
4909000000.0 0.469946065976942 -0.927088586326037
4912000000.0 0.48816530124710367 -0.9505249487595944
4916000000.0 0.5212526581021428 -0.9367887849455074
4919000000.0 0.5386248863582687 -0.9289396525490793
4922000000.0 0.5148212831319195 -0.8789153510135347
4925000000.0 0.4391585438696837 -0.9284495049959715
4928000000.0 0.5175450710642381 -0.9160474106255633
4931000000.0 0.5236409728384032 -0.9058062219373744
4934000000.0 0.46071395129587783 -0.8692237955786791
4938000000.0 0.44661950644912907 -0.936300454592111
4941000000.0 0.47372706218771 -0.9126244362439084
4944000000.0 0.48877680916731403 -0.8658949331741439
4947000000.0 0.4694809296119924 -0.8811523229753521
4950000000.0 0.47662905796803534 -0.8954706950312659
4953000000.0 0.49725184746018614 -0.9505316944009481
4956000000.0 0.4812255411168456 -0.9024902483533215
4959000000.0 0.4265519748089878 -0.8938236588125973
4962000000.0 0.4658948347040034 -0.9444050047046794
4966000000.0 0.4884030750624165 -0.9225106521087136
4969000000.0 0.5465383734281491 -0.9306719887752217
4972000000.0 0.4801725757731251 -0.9192461764561415
4975000000.0 0.525801677749755 -0.8818826581601107
4978000000.0 0.4652568986507345 -0.9185220853095757
4981000000.0 0.4998619448769017 -0.9260764577258288
4984000000.0 0.4622660941526623 -0.8801846883138542
4988000000.0 0.49861676205067806 -0.8986667727136128
4991000000.0 0.5445285120724714 -0.923140094257358
4994000000.0 0.5041400343255461 -0.875232152903122
4997000000.0 0.48309420787831414 -0.9340836287161841
5000000000.0 0.5222992916094206 -0.941555645425284
5003000000.0 0.5293752173416135 -0.9567699555112128
5006000000.0 0.5120842761249993 -0.9751562454884535
5009000000.0 0.5082013286091486 -0.9197399130028086
5012000000.0 0.5066273049678032 -0.925693791572587
5016000000.0 0.551348836198509 -0.9240772287513529
5019000000.0 0.49191803152523095 -0.8935337970030657
5022000000.0 0.5120611690761462 -0.8981061380614853
5025000000.0 0.5179970816024244 -0.9592333516702465
5028000000.0 0.4723959539881721 -0.9494804392878649
5031000000.0 0.511875806864041 -0.9033216466695263
5034000000.0 0.4843326987152739 -0.9661419255785784
5038000000.0 0.4626076286617238 -0.9099001415288538
5041000000.0 0.5621487822832193 -0.9308879212718218
5044000000.0 0.5250662859809989 -0.8858027962786039
5047000000.0 0.5373236284807894 -0.9089814916481483
5050000000.0 0.5875508976651832 -0.8474604683785174
5053000000.0 0.5132163664723792 -0.94169443722167
5056000000.0 0.5175527186467213 -0.8820900545432822
5059000000.0 0.5684275340435684 -0.8827361186906411
5062000000.0 0.47266578172397017 -0.93408032609538
5066000000.0 0.5382815326962285 -0.8538874907527261
5069000000.0 0.507183606188488 -0.9440415184314971
5072000000.0 0.508925496480967 -0.8805872904148007
5075000000.0 0.5420456264618065 -0.908951776514729
5078000000.0 0.4954295414490136 -0.94722732820572
5081000000.0 0.4569623165531379 -0.8963623238940932
5084000000.0 0.47722413429099647 -0.9432754709397404
5088000000.0 0.5317362878560834 -0.9090553432393426
5091000000.0 0.4608572025225665 -0.9645825918300306
5094000000.0 0.48109588336744014 -0.9161836612302499
5097000000.0 0.5502976653054087 -0.8892300614578956
5100000000.0 0.4778874340145988 -0.9264401957239863
5103000000.0 0.4879450283355246 -0.9461931955542846
5106000000.0 0.5566775450747652 -0.9195052483440178
5109000000.0 0.5152934696244201 -0.8900713595068779
5112000000.0 0.46581482647317346 -0.9173328086848588
5116000000.0 0.5198957345674795 -0.8720907710138432
5119000000.0 0.5087123389891987 -0.9308110333046233
5122000000.0 0.4882808351508283 -0.9246110001194112
5125000000.0 0.5411095810750379 -0.8880578206917238
5128000000.0 0.5454731421536909 -0.8918484298064693
5131000000.0 0.5172504142791854 -0.9148522764971334
5134000000.0 0.5287915880371167 -0.8929095018394734
5138000000.0 0.5745184930116507 -0.9031669489377354
5141000000.0 0.5777511670957662 -0.8825485711231205
5144000000.0 0.5423897421415402 -0.8942294902141137
5147000000.0 0.5270960710626097 -0.8963845183658148
5150000000.0 0.5679418295323398 -0.9225548537586504
5153000000.0 0.5162014015613946 -0.9570278002100822
5156000000.0 0.5603286929988054 -0.9167308212792371
5159000000.0 0.5325433309049017 -0.9466447016362847
5162000000.0 0.5561900664090432 -0.9216125474824102
5166000000.0 0.5442457130199462 -0.9149026917373688
5169000000.0 0.5522686413818165 -0.909296586414309
5172000000.0 0.5250526312655621 -0.8759769229639183
5175000000.0 0.5289474815903079 -0.904627193390767
5178000000.0 0.5039771037440854 -0.8948864658836669
