! Created with skrf 1.8.0 (http://scikit-rf.org).
# Hz S RI R 50.0 
!freq ReS11 ImS11
4000000000.0 0.5442626226999834 -0.8200369683655879
4003000000.0 0.6176399746542005 -0.9225320019420113
4006000000.0 0.5377665208695436 -0.8673977073210081
4009000000.0000005 0.5892306087996454 -0.9228044906449617
4011999999.9999995 0.5825048173195247 -0.8831133527351165
4016000000.0 0.5340194770250931 -0.9499768026062828
4019000000.0 0.5567815071855063 -0.906044012787377
4022000000.0000005 0.6352634834956986 -0.8520506917233731
4025000000.0000005 0.5118002255559291 -0.9108851937159059
4027999999.9999995 0.5034048809198161 -0.9169770452422362
4030999999.9999995 0.5356890127112088 -0.8563563594684678
4034000000.0 0.5409546307001798 -0.8823805181895267
4038000000.0000005 0.5193053483399183 -0.9045031186368311
4041000000.0000005 0.5574767924539605 -0.8664574255929715
4043999999.9999995 0.5946498880721328 -0.897682676123571
4046999999.9999995 0.5721019463042551 -0.8848012073379805
4050000000.0 0.5253428383402379 -0.9350231962761661
4053000000.0 0.5102737594687146 -0.844818926661257
4056000000.0 0.5414060669096206 -0.8803902994007796
4059000000.0 0.5342430268448114 -0.8661026166134234
4062000000.0000005 0.5075922268728494 -0.8934129293614945
4066000000.0 0.47777275148050713 -0.8192493991512715
4069000000.0 0.5366712204726778 -0.9276909191222806
4072000000.0 0.5919488883919363 -0.8212374906574689
4075000000.0 0.5881713797579994 -0.8787706947226765
4078000000.0000005 0.5427540387618408 -0.8991698157648126
4081000000.0000005 0.5880876900061618 -0.8972456164502025
4083999999.9999995 0.5595423855464889 -0.8703696411945205
4088000000.0 0.599980834719904 -0.8291243351423093
4091000000.0 0.6044336662086056 -0.9077543069014082
4094000000.0000005 0.5712301703092013 -0.8880031003310923
4097000000.0000005 0.5597684398699455 -0.8845482360156023
4099999999.9999995 0.5693194356352828 -0.920423293509132
4102999999.9999995 0.5877809689611287 -0.8787934597222606
4106000000.0 0.5650078259715562 -0.8686746893912607
4109000000.0 0.5435206064024175 -0.8958052576827715
4112000000.0 0.5265457396117995 -0.8915247354758886
4115999999.9999995 0.5405394902963611 -0.8875830393288002
4119000000.0 0.5685191259578803 -0.8780778357228508
4122000000.0 0.5408403714305605 -0.8843591577093386
4125000000.0 0.5805332569351888 -0.8784209406430095
4128000000.0 0.5086232400158031 -0.8289705651739687
4131000000.0 0.5680684771851277 -0.8375298744009783
4134000000.0000005 0.5603350480735437 -0.8773275409543461
4138000000.0 0.4862026912026751 -0.8464262380930899
4141000000.0 0.5500092102123018 -0.8697210555666075
4144000000.0 0.574368001294673 -0.8459528836801503
4147000000.0000005 0.5128237330460168 -0.8652746092638446
4150000000.0000005 0.5383624354569965 -0.9057660167042053
4152999999.9999995 0.5409584484041225 -0.8641332759525346
4155999999.9999995 0.5646884930025524 -0.8926137189361273
4159000000.0 0.5374886289385874 -0.8847802827068928
4162000000.0 0.5352168449653276 -0.8519221868700818
4166000000.0000005 0.5553184850908881 -0.9047838310819467
4168999999.9999995 0.5499828141225751 -0.8668483200836238
4171999999.9999995 0.5826213055650735 -0.8739208964168781
4175000000.0 0.5651153160858371 -0.8679699351802568
4178000000.0 0.5668774652330781 -0.8799820494580362
4181000000.0 0.5477278675285702 -0.8763104765183957
4184000000.0 0.5380127476916623 -0.872492479548533
4187999999.9999995 0.531766426354902 -0.8615994658001843
4191000000.0 0.5856371016000514 -0.85129934576073
4194000000.0 0.5689368443996965 -0.8193753127879482
4197000000.0 0.5692807600161887 -0.9033550115933152
4200000000.0 0.5719276949866953 -0.8517349745227781
4203000000.0000005 0.5546925967685766 -0.8660091562201591
4206000000.0000005 0.5448742103621493 -0.868379253474043
4208999999.9999995 0.5456857033966385 -0.8482045918850748
4211999999.9999995 0.5327030660746594 -0.8813814969073225
4216000000.0 0.5601642418488791 -0.8671176599099304
4219000000.0000005 0.5603276968080588 -0.8502410914458337
4222000000.0000005 0.5522956038202682 -0.8602777776900249
4224999999.9999995 0.5430517512464413 -0.8551759110337875
4227999999.9999995 0.5730587514413805 -0.8574631035729539
4231000000.0 0.5527627763169698 -0.8605793031274092
4234000000.0 0.5480322597633492 -0.875997550847801
4238000000.0000005 0.5574836166842718 -0.8825831033246766
4240999999.9999995 0.5322008787361818 -0.8570049534646147
4244000000.0 0.5577098986248405 -0.8615475444716378
4247000000.0 0.5587241517520718 -0.8564209099912629
4250000000.0 0.5336226187186522 -0.8517131983377301
4253000000.0 0.522057594439234 -0.8385042293344158
4256000000.0 0.5645965424099663 -0.8892478784287559
4259000000.0000005 0.5205621872280193 -0.8365193061670378
4261999999.9999995 0.5089198683421481 -0.8709260971066002
4266000000.0 0.5459864663814946 -0.8979071295670483
4269000000.0 0.5776725684810686 -0.8616748444625927
4272000000.0000005 0.5695688981944144 -0.8577109815120179
4275000000.0000005 0.5634222269697027 -0.8555082050201648
4277999999.9999995 0.5404230713834215 -0.8859455955719574
4280999999.9999995 0.5582629618937293 -0.857361325868359
4284000000.0 0.5530258774915026 -0.8849465131798923
4288000000.0000005 0.5801846420312279 -0.8535939285804812
4291000000.0000005 0.5326582128096733 -0.8572906520769599
4293999999.9999995 0.5542810415928909 -0.8582386239709509
4297000000.0 0.5614960498990109 -0.8375505648407874
4300000000.0 0.5144259588264816 -0.8240575679115008
4303000000.0 0.533404059028949 -0.8842707704070555
4306000000.0 0.5719136091315281 -0.8376800600457233
4309000000.0 0.5587847044797624 -0.8657683662778493
4312000000.0 0.5824633196819224 -0.8502706063702682
4316000000.0 0.5933126542554081 -0.8650675722337533
4319000000.0 0.5395435546169055 -0.8483353139436898
4322000000.0 0.5063138429832734 -0.8789284452987801
4325000000.0 0.5824541038567068 -0.861260553312438
4328000000.0 0.5640935521534051 -0.8454722981062041
4331000000.0 0.5227587351323442 -0.8735811307291032
4334000000.0 0.5567199572683952 -0.8542577051508465
4338000000.0 0.5841859150619338 -0.8380087202158772
4341000000.0 0.5804286766072206 -0.8597307310734943
4344000000.0 0.5726886210554427 -0.8753829372748254
4347000000.0 0.5335802422502472 -0.8762058039650721
4350000000.0 0.5174019714702116 -0.8251275488694385
4353000000.0 0.5561701893397456 -0.8430086989503776
4356000000.0 0.5210679174138346 -0.8421902709221071
4359000000.0 0.5349503066911322 -0.8243284406055518
4362000000.0 0.48753360274599034 -0.8893991361717297
4366000000.0 0.55608589332098 -0.8968919954683588
4369000000.0 0.527504799175085 -0.8381198299642044
4372000000.0 0.53115428442418 -0.8731301580715843
4375000000.0 0.5540683978581383 -0.835457749177509
4378000000.0 0.5259729381292869 -0.8252619719817156
4381000000.0 0.5403093167609587 -0.8390018455006006
4384000000.0 0.5511778265045942 -0.9192754027671174
4388000000.0 0.5501332699001337 -0.8426206621198299
4391000000.0 0.5315720221898261 -0.8431098853429293
4394000000.0 0.5215653778515884 -0.8342690933744569
4397000000.0 0.5189960641947804 -0.8627404835134569
4400000000.0 0.5433054414265652 -0.8741144139025154
4403000000.0 0.5551277235639461 -0.8662974985761549
4406000000.0 0.5223360546919891 -0.8876438910346488
4409000000.0 0.5599906711455993 -0.8810402554502416
4412000000.0 0.4805614456268241 -0.885731233421176
4416000000.0 0.5303833928974736 -0.8460893680142927
4419000000.0 0.5242035243403381 -0.870914540004388
4422000000.0 0.5444008591049341 -0.8316644347251837
4425000000.0 0.5620171119266272 -0.8556138660934223
4428000000.0 0.5405175275794951 -0.8565089325089059
4431000000.0 0.5634433121353535 -0.8643821266545295
4434000000.0 0.5247845747535363 -0.8549457538784286
4438000000.0 0.5526332294293629 -0.8948334636306345
4441000000.0 0.5404560333753687 -0.878029744867721
4444000000.0 0.5327883483743846 -0.8273901007765836
4447000000.0 0.5188866190172311 -0.872268497790964
4450000000.0 0.5467508186446751 -0.8324828815116001
4453000000.0 0.5529560259907187 -0.888854641444033
4456000000.0 0.4974518062424089 -0.8492587638808098
4459000000.0 0.4928606250548172 -0.828231826175797
4462000000.0 0.5543184383885071 -0.9086507569524325
4466000000.0 0.5468255804326205 -0.8984752138606484
4469000000.0 0.5655315174013136 -0.8511899433662989
4472000000.0 0.5148230355508792 -0.8933502270018371
4475000000.0 0.5241722790912182 -0.8371121323423543
4478000000.0 0.5415109298898476 -0.9095679048267317
4481000000.0 0.49831197411703565 -0.8491939429204753
4484000000.0 0.49751287993918236 -0.8795528722479364
4488000000.0 0.4994232422790127 -0.8558193061375887
4491000000.0 0.5072671967309614 -0.8703450355594551
4494000000.0 0.5287097616803702 -0.8540907496356269
4497000000.0 0.531225934354874 -0.8551762213476825
4500000000.0 0.5342239695169517 -0.8462703421851052
4503000000.0 0.5388043777965208 -0.874710921966334
4506000000.0 0.5101761569420749 -0.8648259191173898
4509000000.0 0.5174218738680076 -0.8622451687884767
4512000000.0 0.49644177545766577 -0.8435651762633226
4516000000.0 0.5464484730816442 -0.8689240903413196
4519000000.0 0.5325137911617481 -0.8584599825744956
4522000000.0 0.5211706273531301 -0.86228641115882
4525000000.0 0.554704987000685 -0.8365046845142735
4528000000.0 0.5353105592487131 -0.9073874766562191
4531000000.0 0.5312445705042413 -0.8769176195471661
4534000000.0 0.5210710667449745 -0.8558481670471529
4538000000.0 0.5174441790703416 -0.8572044237377883
4541000000.0 0.48098076808177587 -0.8449269614351285
4544000000.0 0.5162982068493069 -0.8664180570896093
4547000000.0 0.5379332884646284 -0.8256311112379073
4550000000.0 0.5091176174971861 -0.8760901164355943
4553000000.0 0.5034471369028117 -0.8870066860894432
4556000000.0 0.4829658448116584 -0.8459640286931223
4559000000.0 0.5077649151455184 -0.8755123314294099
4562000000.0 0.5215104489337061 -0.8959056448266861
4566000000.0 0.5190741092282032 -0.8775418047935586
4569000000.0 0.5043710276703953 -0.850908914151774
4572000000.0 0.5095783067357765 -0.8493017922089082
4575000000.0 0.5059954325005721 -0.8847360222633585
4578000000.0 0.5404308906752517 -0.8906829555249417
4581000000.0 0.4970581347565372 -0.8823489607295375
4584000000.0 0.5055508402263296 -0.877210548358875
4588000000.0 0.5298078354775309 -0.8712255126085486
4591000000.0 0.5232124882486581 -0.8617863248821918
4594000000.0 0.48687469271834993 -0.8749116262351835
4597000000.0 0.515719013776568 -0.8887678397625907
4600000000.0 0.4723151066347909 -0.8834006467560744
4603000000.0 0.4982347440658453 -0.8739647182384196
4606000000.0 0.5241882384315135 -0.8802953041514794
4609000000.0 0.5030212047672149 -0.8787577711150991
4612000000.0 0.50224684505714 -0.8884105852436994
4616000000.0 0.5082942332695632 -0.8869980455514643
4619000000.0 0.5150354810534221 -0.8717121056603512
4622000000.0 0.5194619748501177 -0.859501029176361
4625000000.0 0.4857589994305129 -0.8565370548993643
4628000000.0 0.5342935409224161 -0.8599416886827222
4631000000.0 0.4980179725899192 -0.8871786053715691
4634000000.0 0.49965236028070403 -0.8648700952592396
4638000000.0 0.5116977035932966 -0.8766962841763839
4641000000.0 0.5197677865048718 -0.8737332160809382
4644000000.0 0.5011465738524792 -0.8721897701189405
4647000000.0 0.5215826086201136 -0.8663407406736073
4650000000.0 0.4911734476015416 -0.8592690224045271
4653000000.0 0.5130405301064683 -0.8805940774521066
4656000000.0 0.5103705519156534 -0.8786195084399733
4659000000.0 0.49097262274965114 -0.877713253703839
4662000000.0 0.5043982058643887 -0.8771113784028286
4666000000.0 0.49607458051823505 -0.8836817738208188
4669000000.0 0.5062866905717329 -0.866311277485903
4672000000.0 0.49774877941658546 -0.9150575750644944
4675000000.0 0.48935951655760834 -0.8767823863227003
4678000000.0 0.4916679469776 -0.846425693606337
4681000000.0 0.4774849466679627 -0.9141528613153425
4684000000.0 0.48055313340705796 -0.8909315642474092
4688000000.0 0.5004178004994778 -0.8951203120260516
4691000000.0 0.5301660299871325 -0.8997177859722739
4694000000.0 0.5016232774698638 -0.8708024899641525
4697000000.0 0.46680284835720964 -0.8870906012561787
4700000000.0 0.48395419842118137 -0.8603199109644651
4703000000.0 0.5235024112355308 -0.8395933581766769
4706000000.0 0.4819994906070021 -0.8888467423722274
4709000000.0 0.5169303752778942 -0.877917757378785
4712000000.0 0.5080301598554889 -0.8850066429667487
4716000000.0 0.5144399652956375 -0.8893351760445253
4719000000.0 0.5126156751946256 -0.8784288381969726
4722000000.0 0.5156671774512348 -0.8926138947505753
4725000000.0 0.5075600369197621 -0.889180535250476
4728000000.0 0.4879596532963333 -0.8793898042557795
4731000000.0 0.5293510217994507 -0.9160597818516977
4734000000.0 0.5066188716553963 -0.8661637861073552
4738000000.0 0.5038555410270292 -0.909322430045635
4741000000.0 0.5004781804217904 -0.9032738868459074
4744000000.0 0.48390408688651043 -0.899128025561333
4747000000.0 0.5158475735798608 -0.8486554838212654
4750000000.0 0.5085758029631623 -0.9063717319566361
4753000000.0 0.531529872051165 -0.9070110569328589
4756000000.0 0.5192619263992208 -0.9111833228918803
4759000000.0 0.5156888297953852 -0.9138522781830773
4762000000.0 0.4690483599357332 -0.8895626049602964
4766000000.0 0.5074893231739258 -0.8927769795222187
4769000000.0 0.5186832191481457 -0.8867638491849616
4772000000.0 0.5142811211001728 -0.9262881641032886
4775000000.0 0.4902427494433629 -0.9423986975148608
4778000000.0 0.5023691506318465 -0.8937324873783947
4781000000.0 0.5236308630642416 -0.899881794722505
4784000000.0 0.5341526183111753 -0.8738845533783866
4788000000.0 0.518326822023096 -0.9245534754913592
4791000000.0 0.45615986060890334 -0.8689976256477505
4794000000.0 0.5289259317464953 -0.907295602033123
4797000000.0 0.46141413090410166 -0.9003845130276961
4800000000.0 0.47875205928060127 -0.8902989208244867
4803000000.0 0.47788408298601437 -0.9038727579332901
4806000000.0 0.4899600834864256 -0.9030459946784141
4809000000.0 0.45421724265959107 -0.8946206751100575
4812000000.0 0.4341589285521997 -0.9002916316694599
4816000000.0 0.5098173633686987 -0.8843262259065531
4819000000.0 0.5543879568635417 -0.8975993886584976
4822000000.0 0.5437635816917881 -0.9124746087446932
4825000000.0 0.5433779005277175 -0.914861748801456
4828000000.0 0.48802551197928024 -0.8979731809886954
4831000000.0 0.47528085501031236 -0.9577575721796584
4834000000.0 0.519741086466325 -0.8966571461265681
4838000000.0 0.4975486588796874 -0.911375096021343
4841000000.0 0.5029634591567584 -0.9040313301242824
4844000000.0 0.5269264355147101 -0.8851159433916316
4847000000.0 0.5126604563873787 -0.8477417406729074
4850000000.0 0.4900264656966971 -0.9219285874759776
4853000000.0 0.4757452686328963 -0.882855574711989
4856000000.0 0.49196902730928993 -0.8962299941307029
4859000000.0 0.4926941237821908 -0.9462775589274811
4862000000.0 0.5153722119885629 -0.8680845963212035
4866000000.0 0.4867257777451134 -0.9075785962062562
4869000000.0 0.48264574582534436 -0.8888863117373721
4872000000.0 0.4716094632118222 -0.9272789036880202
4875000000.0 0.548830295187716 -0.9240904727015627
4878000000.0 0.4890763501647698 -0.9164513089422907
4881000000.0 0.5131231915805443 -0.9543735256874315
4884000000.0 0.5365002573274082 -0.899325572920318
4888000000.0 0.5314349597307149 -0.8959551095366038
4891000000.0 0.5442609373611693 -0.9016938053837886
4894000000.0 0.49314421814542997 -0.916094701883929
4897000000.0 0.5004759314659468 -0.8772287331508968
4900000000.0 0.5223476056433676 -0.9097959392604144
4903000000.0 0.5226628901917836 -0.9130659546219282
4906000000.0 0.5196144277347303 -0.9307839725117893
4909000000.0 0.5122817780628468 -0.9108871854865427
4912000000.0 0.5048179801749481 -0.9188857824313458
4916000000.0 0.5286962396025502 -0.8935268614992862
4919000000.0 0.5435782387126002 -0.9026596974080573
4922000000.0 0.5219737001341422 -0.8765511882845833
4925000000.0 0.48198659744320266 -0.8969409442356641
4928000000.0 0.5359953414459488 -0.8668703073171916
4931000000.0 0.5089183356461884 -0.9102135317680327
4934000000.0 0.5098099958851461 -0.8632658726486552
4938000000.0 0.48408717769095777 -0.8979249780819002
4941000000.0 0.4986171877507488 -0.8408604542919341
4944000000.0 0.5209508132186426 -0.8249356177079689
4947000000.0 0.5462897996145265 -0.8760955112872021
4950000000.0 0.4884986271452659 -0.8588584261004287
4953000000.0 0.4849825820458329 -0.9270010830189368
4956000000.0 0.49788971877225785 -0.9183649111115323
4959000000.0 0.4819677789431641 -0.9096374521204464
4962000000.0 0.5452545975813206 -0.9244904465495251
4966000000.0 0.5183879953680988 -0.9106945819334482
4969000000.0 0.5547044484407833 -0.9227006951151582
4972000000.0 0.5061330704721849 -0.903176077863861
4975000000.0 0.5146369375085021 -0.8702232656328337
4978000000.0 0.5201322054263587 -0.916644335668962
4981000000.0 0.5075436713564425 -0.8974244085654919
4984000000.0 0.5122967129978748 -0.8943477658498855
4988000000.0 0.5475941171406443 -0.885283323291908
4991000000.0 0.5813550020887038 -0.9196989166100887
4994000000.0 0.5246698814186246 -0.8578867908600252
4997000000.0 0.49849523605140866 -0.894732688693145
5000000000.0 0.5420619885666486 -0.9090309305797164
5003000000.0 0.5316582865753319 -0.91189153226718
5006000000.0 0.5344436566519892 -0.923881104098535
5009000000.0 0.5211046047449539 -0.8745321395634109
5012000000.0 0.5097695290102054 -0.8811517650329175
5016000000.0 0.5936425906790465 -0.8943359443177057
5019000000.0 0.49825842742382626 -0.8934115439277426
5022000000.0 0.5145828550669066 -0.9151343486007137
5025000000.0 0.5526126561972473 -0.9706935327160342
5028000000.0 0.5061663688360499 -0.9179944103744098
5031000000.0 0.4872985773873649 -0.8768182661230662
5034000000.0 0.49951962041132547 -0.939030662562001
5038000000.0 0.48756093612421514 -0.8875556290155819
5041000000.0 0.5491739670066229 -0.8615921849562513
5044000000.0 0.5173270801230196 -0.8626212367628175
5047000000.0 0.529257318653481 -0.8993460423529933
5050000000.0 0.5710733839520886 -0.829842090775788
5053000000.0 0.5512504275103052 -0.951746164701967
5056000000.0 0.5583807285576212 -0.8584783066521222
5059000000.0 0.5969654545423817 -0.8554332377904599
5062000000.0 0.5231515670390605 -0.9131972162096178
5066000000.0 0.5481670111778523 -0.8633935772668198
5069000000.0 0.5346280795670216 -0.9064154870635874
5072000000.0 0.5483367737539916 -0.8549068648900766
5075000000.0 0.5577752425261717 -0.8794470344718781
5078000000.0 0.5340819380812122 -0.9215911300065346
5081000000.0 0.46643782630864794 -0.9192680800894704
5084000000.0 0.537864492284771 -0.9165619848241193
5088000000.0 0.5594688716971905 -0.8658260148290862
5091000000.0 0.5126123353774487 -0.9205078395839031
5094000000.0 0.5513902264719511 -0.904416235035393
5097000000.0 0.5963539376685908 -0.8770247436991832
5100000000.0 0.543304551828635 -0.880663302204109
5103000000.0 0.5358939749255877 -0.9038149720135654
5106000000.0 0.6090194195311512 -0.9215378850516155
5109000000.0 0.5586878316104327 -0.8450203091329589
5112000000.0 0.5465639053159373 -0.8516134361756249
5116000000.0 0.5091688201361251 -0.8198043556926231
5119000000.0 0.5617035015571531 -0.8981069128150472
5122000000.0 0.5639729327460099 -0.8907068150748787
5125000000.0 0.5536819775506505 -0.8509359694668732
5128000000.0 0.543655686810476 -0.8689985934373596
5131000000.0 0.5583548895119644 -0.8823084959188319
5134000000.0 0.4922752799022918 -0.8618632144028964
5138000000.0 0.5817282154230099 -0.8570581556990797
5141000000.0 0.6461685077708883 -0.8749654486881575
5144000000.0 0.5627217665675917 -0.9034214144384078
5147000000.0 0.5401943601641879 -0.9098782001089567
5150000000.0 0.5828215705372002 -0.8565427654606668
5153000000.0 0.6175980732880662 -0.8960050342315672
5156000000.0 0.5496294270077029 -0.8921845922071298
5159000000.0 0.5415855119366013 -0.9017706888998986
5162000000.0 0.5367354702473148 -0.8840390349341422
5166000000.0 0.5119707124991881 -0.9358787826640622
5169000000.0 0.5700519518591696 -0.8946432234974184
5172000000.0 0.5439327990977967 -0.882986062423994
5175000000.0 0.5899118920061509 -0.8826067967170663
5178000000.0 0.5310438969106703 -0.8993141024590308
