! Created with skrf 1.8.0 (http://scikit-rf.org).
# Hz S RI R 50.0 
!freq ReS11 ImS11
4000000000.0 0.9553907833104535 -0.4298099617663919
4003000000.0 1.0023479453856725 -0.38464909311548995
4006000000.0 0.9074916041770644 -0.423637529884308
4009000000.0000005 0.9484063908247908 -0.3858859761665574
4011999999.9999995 0.9668304919587256 -0.3718803306477575
4016000000.0 0.9496608478111996 -0.4233185264776006
4019000000.0 0.9725659830050308 -0.4225116443822432
4022000000.0000005 0.9779946963272937 -0.26733542337486443
4025000000.0000005 0.915076035643681 -0.4640709812853816
4027999999.9999995 0.9945428887782461 -0.43566548298632457
4030999999.9999995 0.9321824611840993 -0.3342553514911835
4034000000.0 0.9474999842120488 -0.4245738740203782
4038000000.0000005 0.9279080709103649 -0.505860398588164
4041000000.0000005 0.9774267941023822 -0.4352339192805975
4043999999.9999995 1.008755898641621 -0.44886832485669476
4046999999.9999995 0.9777001457766977 -0.3884227583814896
4050000000.0 0.9457636582473161 -0.5210373464949503
4053000000.0 0.8778276798439508 -0.4510077087085157
4056000000.0 0.9581102207113379 -0.41511816285720765
4059000000.0 0.9408001438354215 -0.40456376024789553
4062000000.0000005 0.8820672602769335 -0.48529967368133825
4066000000.0 0.8757611600770925 -0.38915576437240185
4069000000.0 0.9976556397095112 -0.49057456200113736
4072000000.0 0.9621128031891838 -0.3772867294395447
4075000000.0 1.0111518933675685 -0.37056385693527005
4078000000.0000005 0.9327709653300069 -0.4248901499458002
4081000000.0000005 1.0475628003221105 -0.3636173239099001
4083999999.9999995 0.9733702925652149 -0.4556306042015761
4088000000.0 0.9633936293411524 -0.3628874446068996
4091000000.0 1.0236684961668898 -0.4656748091451142
4094000000.0000005 1.020454699890994 -0.43037888979682815
4097000000.0000005 0.9270599725498532 -0.4657838752408094
4099999999.9999995 0.9474109100185519 -0.4327262139963611
4102999999.9999995 0.9927073721560782 -0.4439787915470523
4106000000.0 0.9649453366013822 -0.4290389423694695
4109000000.0 0.9232727985107798 -0.4778643402657823
4112000000.0 0.9569297907911678 -0.43515818835960934
4115999999.9999995 0.97257687271568 -0.37430044994080625
4119000000.0 0.9261195392523507 -0.47465008400538794
4122000000.0 0.9507423620168451 -0.4352257521304914
4125000000.0 0.9734703613123917 -0.4593637725442813
4128000000.0 0.8846199091311272 -0.3884929749149645
4131000000.0 0.940262671595792 -0.40163126419010314
4134000000.0000005 0.912664960954427 -0.44459558047551856
4138000000.0 0.8978715186215038 -0.4537718116058065
4141000000.0 0.9089058900804045 -0.45379921307804344
4144000000.0 0.9387978591553332 -0.44267516741870505
4147000000.0000005 0.9251586035738518 -0.46012706235568696
4150000000.0000005 0.9689401439871502 -0.44417321703086265
4152999999.9999995 0.937338818156459 -0.4535455910350457
4155999999.9999995 0.9750364220699593 -0.446180678919867
4159000000.0 0.9206701983387133 -0.4352208557997415
4162000000.0 0.9249571706260877 -0.43634405457599135
4166000000.0000005 0.9425336187446876 -0.46182743649324104
4168999999.9999995 0.913285376714614 -0.4646065837085767
4171999999.9999995 0.9552596601101888 -0.43925747484816824
4175000000.0 0.897228130343624 -0.4169111905478737
4178000000.0 0.9557917412081333 -0.4527185027968589
4181000000.0 0.9855768379665029 -0.5056236831151802
4184000000.0 0.9905005406583104 -0.45356885557256654
4187999999.9999995 0.9391528365857219 -0.44976417700197585
4191000000.0 0.9254567629123162 -0.41428343227655484
4194000000.0 0.8895474601254912 -0.4388993645924982
4197000000.0 0.912945387019493 -0.4333894973744782
4200000000.0 0.9194968096389833 -0.44918422060389696
4203000000.0000005 0.8971397309639002 -0.41345559202855303
4206000000.0000005 0.8952773648809413 -0.47925991716263094
4208999999.9999995 0.9448172859021354 -0.41833398134577215
4211999999.9999995 0.9182403420870583 -0.4593698882776183
4216000000.0 0.8944331722804708 -0.41775301886807936
4219000000.0000005 0.920119534706873 -0.4495229895899697
4222000000.0000005 0.9124566025916506 -0.45458959440006264
4224999999.9999995 0.9314010908871516 -0.431524585387002
4227999999.9999995 0.9360733113735371 -0.45426176158790776
4231000000.0 0.9143979632125956 -0.4411701562674114
4234000000.0 0.94905169193024 -0.44435646124464623
4238000000.0000005 0.9025601980320216 -0.4554619652248958
4240999999.9999995 0.9435540622542015 -0.4719837811217268
4244000000.0 0.916100387887867 -0.4295932359400406
4247000000.0 0.9358874466052927 -0.4663770944954907
4250000000.0 0.9283877644562013 -0.46125398701845544
4253000000.0 0.9150300385064286 -0.46151231871229564
4256000000.0 0.8879179009120084 -0.44043094301816876
4259000000.0000005 0.9018224059427171 -0.44800514737140906
4261999999.9999995 0.9106263596875654 -0.4502202837298312
4266000000.0 0.9272710659252648 -0.47733742429832227
4269000000.0 0.9645903266208475 -0.45826447979688206
4272000000.0000005 0.9162766584521849 -0.47469680930821867
4275000000.0000005 0.9219099565594783 -0.45525866090797723
4277999999.9999995 0.9029249509650913 -0.45202391896592525
4280999999.9999995 0.8985409252651542 -0.43276887097697514
4284000000.0 0.9132615492174061 -0.4562507355283075
4288000000.0000005 0.9474287825990958 -0.4481173961737291
4291000000.0000005 0.9189128381562044 -0.4486765114180529
4293999999.9999995 0.9097584329640042 -0.44577280793178997
4297000000.0 0.8853757979006519 -0.43796286665150963
4300000000.0 0.9069061866714727 -0.4557732046213657
4303000000.0 0.8929381981347378 -0.4588304393407573
4306000000.0 0.9337689036976289 -0.46438242539828417
4309000000.0 0.8972299290436208 -0.46214750634160384
4312000000.0 0.9283245815912058 -0.43522322767133925
4316000000.0 0.8894354867607183 -0.4358234019824609
4319000000.0 0.9299883389128577 -0.4248857142508487
4322000000.0 0.8923865137372841 -0.43938377727868294
4325000000.0 0.8799727673536051 -0.43230348504124283
4328000000.0 0.8803731249127353 -0.4819064232291054
4331000000.0 0.8962030055919885 -0.48478377506136605
4334000000.0 0.9316630995879733 -0.48710461200110416
4338000000.0 0.9221867111996149 -0.4503390289150407
4341000000.0 0.9275289392143913 -0.4495160382286839
4344000000.0 0.9431038542197694 -0.48237490083041096
4347000000.0 0.896442978771304 -0.48627036726981415
4350000000.0 0.8841802052081256 -0.4527409459408115
4353000000.0 0.8804608033622747 -0.4672555150830268
4356000000.0 0.8997311502303094 -0.4673404305612266
4359000000.0 0.8708134418372868 -0.43459729502963723
4362000000.0 0.8805937103124799 -0.4958146211629886
4366000000.0 0.8822822738731435 -0.47876407550726924
4369000000.0 0.8688948425792413 -0.48732847647356614
4372000000.0 0.8848327034640762 -0.4946417876642636
4375000000.0 0.8839386477042408 -0.4692266764601608
4378000000.0 0.8720086037271526 -0.4604891396026405
4381000000.0 0.8987872171149935 -0.47320008351661386
4384000000.0 0.9174690203235396 -0.5323964295508581
4388000000.0 0.8645548134643884 -0.4606608513079165
4391000000.0 0.898372230686099 -0.48308548114987815
4394000000.0 0.8499993417365401 -0.452963971319234
4397000000.0 0.8938024841805532 -0.4589230396947406
4400000000.0 0.9198851819566402 -0.47756682897932506
4403000000.0 0.8980090406592349 -0.45452268156043185
4406000000.0 0.8613916510389107 -0.5063404606622632
4409000000.0 0.9224244437208029 -0.49164985353217416
4412000000.0 0.8615000453575969 -0.5176943555957473
4416000000.0 0.8667765556449353 -0.48991581703533227
4419000000.0 0.8737058309731164 -0.49061002922559893
4422000000.0 0.8902377158958371 -0.4732249413214919
4425000000.0 0.9299213111545634 -0.4594750169221197
4428000000.0 0.8914942733047545 -0.4970262581069671
4431000000.0 0.9197620745643715 -0.48436496959079856
4434000000.0 0.8793342136577728 -0.4856647721559754
4438000000.0 0.9064898001636253 -0.4950205139471445
4441000000.0 0.9093028658306932 -0.48471682609101135
4444000000.0 0.8726708227621989 -0.47470420108854294
4447000000.0 0.8636719472357094 -0.4945347044359222
4450000000.0 0.8771508610025058 -0.47083312698371055
4453000000.0 0.917800696198435 -0.5087899426095297
4456000000.0 0.8547132011958269 -0.4717886795687124
4459000000.0 0.8152418187672743 -0.48635735714549994
4462000000.0 0.9407446271603833 -0.525740799174586
4466000000.0 0.9087499448271472 -0.5210988868595884
4469000000.0 0.8976670132615934 -0.46932127852352973
4472000000.0 0.8906382391225045 -0.5198298760715855
4475000000.0 0.865841513169781 -0.4776152486883646
4478000000.0 0.9182873998452056 -0.5361663495991409
4481000000.0 0.8598219076300262 -0.48877171876096626
4484000000.0 0.8453935109347581 -0.548095872473826
4488000000.0 0.8701623752057426 -0.4894270433053496
4491000000.0 0.8716511401254458 -0.5145948059944688
4494000000.0 0.8761624566711216 -0.4833162545560868
4497000000.0 0.8641530163751217 -0.4869799013187643
4500000000.0 0.8768230487479991 -0.4911988706160081
4503000000.0 0.892019033126943 -0.5120268207073301
4506000000.0 0.8791125546570147 -0.498211188968865
4509000000.0 0.8501758385612079 -0.49696407981503044
4512000000.0 0.8571019435558093 -0.5024972811134519
4516000000.0 0.8954526235489855 -0.5158223981673621
4519000000.0 0.856535571150237 -0.48555764258844614
4522000000.0 0.8768779885076825 -0.5130393782124303
4525000000.0 0.8717048277005425 -0.46652647210739323
4528000000.0 0.9085857115669058 -0.5223752066403026
4531000000.0 0.8821884010304135 -0.48736889586432924
4534000000.0 0.8515019814731298 -0.4873529915148074
4538000000.0 0.8467117230966458 -0.5100655061355812
4541000000.0 0.8333017043476434 -0.5466574615841837
4544000000.0 0.8504313606694319 -0.4939450575667419
4547000000.0 0.8717632603008123 -0.4878352721506542
4550000000.0 0.8452354308152861 -0.5255227141964333
4553000000.0 0.8739328967042951 -0.5330858256698957
4556000000.0 0.8062696317126057 -0.4930031654300552
4559000000.0 0.8612624625083549 -0.544356010651236
4562000000.0 0.8701622879422928 -0.5226398456589926
4566000000.0 0.850974376045098 -0.5381834163551855
4569000000.0 0.834188351825886 -0.507683984548255
4572000000.0 0.8543304272617004 -0.5195066069873233
4575000000.0 0.856488575076813 -0.5270634399126086
4578000000.0 0.8909446143633538 -0.514503626404706
4581000000.0 0.838476980952849 -0.5581313801473222
4584000000.0 0.8365144105079582 -0.530254410276988
4588000000.0 0.8784958241245269 -0.5074085605588838
4591000000.0 0.858142168830423 -0.4845060744702717
4594000000.0 0.8453803952232226 -0.5465007119334658
4597000000.0 0.8569611167873419 -0.5205584311611764
4600000000.0 0.8128699225352027 -0.5520346043621864
4603000000.0 0.8645204406257516 -0.548383665581714
4606000000.0 0.8510693177900626 -0.5192826948914996
4609000000.0 0.8374004062652849 -0.5559424112279459
4612000000.0 0.889930437510465 -0.5549759984750218
4616000000.0 0.843366575911752 -0.5291652474687738
4619000000.0 0.878023915918687 -0.527896636458443
4622000000.0 0.854314356469381 -0.5006200467895995
4625000000.0 0.8053712157580886 -0.5304261935458916
4628000000.0 0.8369635813101325 -0.49405341900044064
4631000000.0 0.8259377619527838 -0.5375175188675915
4634000000.0 0.8479819587127821 -0.5208697133581908
4638000000.0 0.8485374373094657 -0.5368140374221332
4641000000.0 0.8762336401346584 -0.540679781956261
4644000000.0 0.8430875393668723 -0.5394111623554798
4647000000.0 0.8552209719396041 -0.5377992048592256
4650000000.0 0.8385703942111797 -0.5538237598854574
4653000000.0 0.8696399558976616 -0.5379077579671834
4656000000.0 0.8340195589208341 -0.5542809223148342
4659000000.0 0.8215813397089713 -0.5594292876263376
4662000000.0 0.83767706135269 -0.5446432780044614
4666000000.0 0.835458901033995 -0.5328441936532218
4669000000.0 0.8384520346516344 -0.5323757571443443
4672000000.0 0.8232760240637124 -0.5627339590952579
4675000000.0 0.800759820298772 -0.5668317653585857
4678000000.0 0.8370196359410527 -0.5556674458261275
4681000000.0 0.8459621251553782 -0.585099183296229
4684000000.0 0.8005435378415179 -0.5562742245576004
4688000000.0 0.8169750247094707 -0.5560285003259853
4691000000.0 0.8121168828326466 -0.527671274294155
4694000000.0 0.8227861029727314 -0.5479675114853294
4697000000.0 0.8199873746584991 -0.5569843380403388
4700000000.0 0.8530866866353095 -0.5560165105877979
4703000000.0 0.8375109844983006 -0.5747019535981501
4706000000.0 0.8294635562174457 -0.5642086940946964
4709000000.0 0.8273593077113465 -0.5713384362174024
4712000000.0 0.8384318359916653 -0.5432651028293897
4716000000.0 0.8275447215011701 -0.552721539249491
4719000000.0 0.8460290932583427 -0.587740609170044
4722000000.0 0.8471139298694188 -0.5647533080872261
4725000000.0 0.82948506861686 -0.5777272388125535
4728000000.0 0.8231887359754486 -0.5667958981309857
4731000000.0 0.8207307240537303 -0.5489866245057868
4734000000.0 0.8361689271761074 -0.5679374401642079
4738000000.0 0.8443044715086284 -0.5638663797867786
4741000000.0 0.8551284277419096 -0.5812420550684482
4744000000.0 0.8371276498228442 -0.5975356909949701
4747000000.0 0.8297773854146645 -0.6025267511302761
4750000000.0 0.8292293274931178 -0.5775297661340071
4753000000.0 0.8405492612266223 -0.5909948031340937
4756000000.0 0.7950432585619476 -0.5867424004961934
4759000000.0 0.8308806913194409 -0.6094828108769378
4762000000.0 0.819504768144989 -0.5759249063658051
4766000000.0 0.8244996504493476 -0.5640820027497264
4769000000.0 0.8528633452340495 -0.5992223507662084
4772000000.0 0.8143586768878219 -0.589773872287596
4775000000.0 0.848841700258431 -0.6127278813060645
4778000000.0 0.8537118176365498 -0.5851402021436889
4781000000.0 0.8163412162621534 -0.5649400466880358
4784000000.0 0.8281429975947153 -0.557753956385828
4788000000.0 0.8258740224200622 -0.5913940914770992
4791000000.0 0.8050524047029464 -0.6064616687497622
4794000000.0 0.858868296598441 -0.5840666496680162
4797000000.0 0.8239572738202193 -0.5969185479880352
4800000000.0 0.8039468369752605 -0.6005864201085525
4803000000.0 0.7977542615116865 -0.6046718569700555
4806000000.0 0.8272672404059311 -0.5925465677160303
4809000000.0 0.8151052366409386 -0.5937638901220589
4812000000.0 0.8132956738501801 -0.6125337046177844
4816000000.0 0.8176702951846517 -0.5828923997676986
4819000000.0 0.862804145356756 -0.5845308307743777
4822000000.0 0.8516988604098161 -0.5702518619479927
4825000000.0 0.8477925058710294 -0.5874300335483136
4828000000.0 0.810875275626925 -0.5896150109734651
4831000000.0 0.8102664236965047 -0.6347275780653836
4834000000.0 0.8337154912813124 -0.5870934652074112
4838000000.0 0.8485408386188716 -0.6072593434244447
4841000000.0 0.8148605975496079 -0.621104420723643
4844000000.0 0.8358677939564338 -0.5611199196646411
4847000000.0 0.8122099933863798 -0.5672867638900736
4850000000.0 0.8248980782725015 -0.6142498246327667
4853000000.0 0.8196729704466623 -0.5860819508891761
4856000000.0 0.8108394178696277 -0.5981333092834024
4859000000.0 0.8235656692828035 -0.6211129613942301
4862000000.0 0.8057872659558105 -0.5695085152810624
4866000000.0 0.8131250388549379 -0.6134880247734324
4869000000.0 0.8172666662864655 -0.6212633481396026
4872000000.0 0.8236292843835571 -0.6283721972295445
4875000000.0 0.8610196473168652 -0.5937114016274656
4878000000.0 0.8192419765000725 -0.6007012819424105
4881000000.0 0.8492536992945525 -0.6557046152790919
4884000000.0 0.8373033594251418 -0.5964263045260944
4888000000.0 0.8456266070780503 -0.5798287301962448
4891000000.0 0.8291092157181376 -0.616341171308843
4894000000.0 0.803540852394507 -0.6094323498080276
4897000000.0 0.829915392192915 -0.5828946026532434
4900000000.0 0.82477803398082 -0.6118040534995958
4903000000.0 0.8474043627201552 -0.6088575478808356
4906000000.0 0.832743252417594 -0.6259357613724617
4909000000.0 0.8065085059257815 -0.6254409387825568
4912000000.0 0.8373948064403904 -0.6452840787010149
4916000000.0 0.8541648687122821 -0.5874941382331934
4919000000.0 0.8542718472384416 -0.5964598722230832
4922000000.0 0.8439325319928495 -0.5941242388890007
4925000000.0 0.7973147265817221 -0.6242878915884802
4928000000.0 0.8526265505654094 -0.5794493801830428
4931000000.0 0.8376154168838942 -0.6173108646680872
4934000000.0 0.7580965014037104 -0.6080100672366704
4938000000.0 0.7930722895755065 -0.6043934476255868
4941000000.0 0.7992172375144743 -0.5821152506764953
4944000000.0 0.8140565890687852 -0.5579239846984897
4947000000.0 0.7990016152315693 -0.5943381387907427
4950000000.0 0.8031356796535272 -0.6028572649952642
4953000000.0 0.8276344909778744 -0.6478963994030892
4956000000.0 0.8318175000612049 -0.6254220984952578
4959000000.0 0.7874170134494551 -0.63020074065797
4962000000.0 0.8393188975988499 -0.6054563220201021
4966000000.0 0.8566674756475696 -0.6100417616317421
4969000000.0 0.845165442811555 -0.6265677491274934
4972000000.0 0.8240134942250478 -0.6120030203746465
4975000000.0 0.8495387855507592 -0.5885369128574558
4978000000.0 0.8185192174399416 -0.6219481715811035
4981000000.0 0.8132923204817062 -0.6423635322997047
4984000000.0 0.8117762300067806 -0.5902904778950258
4988000000.0 0.8062778551564557 -0.5945917285381557
4991000000.0 0.8794443477030851 -0.5843455862791525
4994000000.0 0.8146105327667772 -0.5807099383504739
4997000000.0 0.8165240722066939 -0.6281521875157903
5000000000.0 0.8577646370809033 -0.6084981875979355
5003000000.0 0.8569919496669808 -0.6261588379076366
5006000000.0 0.8597222035570792 -0.6455687653383677
5009000000.0 0.8209364869326954 -0.6055113509500395
5012000000.0 0.7959819413458639 -0.6270691471267795
5016000000.0 0.8449061322628939 -0.6131805475229459
5019000000.0 0.7967905964507532 -0.6349715200412557
5022000000.0 0.8447284861724351 -0.6224656636729882
5025000000.0 0.8636539243802845 -0.6443725766862375
5028000000.0 0.7930432003155786 -0.6391648482362241
5031000000.0 0.8018224071138319 -0.6023658633754386
5034000000.0 0.8127680176074584 -0.6685615073628777
5038000000.0 0.7534620017127145 -0.6098410818552885
5041000000.0 0.8483393051009382 -0.5712822156434181
5044000000.0 0.8279657476909406 -0.5942680470968154
5047000000.0 0.8541572698459907 -0.6069700594742763
5050000000.0 0.8634494574990015 -0.5339608592506148
5053000000.0 0.8843303486569222 -0.6659992589400647
5056000000.0 0.8748813045028562 -0.575400290523059
5059000000.0 0.8764840644349148 -0.5535477581736681
5062000000.0 0.8044021436798521 -0.6534112654780051
5066000000.0 0.829739968441627 -0.5873818692136856
5069000000.0 0.8459566196663745 -0.6381162170779597
5072000000.0 0.7551557564716673 -0.6078697237793886
5075000000.0 0.8350710052614616 -0.5776800729378977
5078000000.0 0.7934162466326097 -0.6578693604182475
5081000000.0 0.7909298575629793 -0.5851146372060589
5084000000.0 0.8726916123755337 -0.6653234111368783
5088000000.0 0.8244671673230308 -0.6244817079171961
5091000000.0 0.7936799447276757 -0.6672639594733407
5094000000.0 0.8769224189126688 -0.6000372523682902
5097000000.0 0.8554399910434667 -0.5916726490749571
5100000000.0 0.8031518767408025 -0.6093622327743099
5103000000.0 0.8571237338460349 -0.6279791607997779
5106000000.0 0.8983536012272776 -0.6166964357894111
5109000000.0 0.8270517907446957 -0.605585596759415
5112000000.0 0.8094141028303109 -0.5995863865778949
5116000000.0 0.7749603170876309 -0.5848816769380998
5119000000.0 0.8198942169018997 -0.605858088250627
5122000000.0 0.8791104219716485 -0.5906281436738732
5125000000.0 0.8072557244035266 -0.6295459194499214
5128000000.0 0.8050239779679531 -0.6213234135966028
5131000000.0 0.8288869129949034 -0.5915647198131663
5134000000.0 0.8659279818660128 -0.6056723638916325
5138000000.0 0.815497501739472 -0.6019047518578855
5141000000.0 0.874109821435131 -0.5517045622205023
5144000000.0 0.8499361546215168 -0.5889371755988666
5147000000.0 0.8686860038962175 -0.6181150431111363
5150000000.0 0.8570634124971515 -0.5688873204715045
5153000000.0 0.8466393550150135 -0.606683458837262
5156000000.0 0.8706074054107409 -0.6399956408963647
5159000000.0 0.8750151165422935 -0.6011371089824098
5162000000.0 0.8361898860070119 -0.5634243853681422
5166000000.0 0.8512085006857522 -0.6763715525046046
5169000000.0 0.8676523540820371 -0.6058254739301686
5172000000.0 0.818378603801265 -0.6297364843571929
5175000000.0 0.8935949527419588 -0.6024845917944803
