! Created with skrf 1.8.0 (http://scikit-rf.org).
# Hz S RI R 50.0 
!freq ReS11 ImS11
4000000000.0 0.5643283666140222 -0.8366756628400422
4003000000.0 0.6021415175257785 -0.9080566014886198
4006000000.0 0.5322647828941527 -0.9307693922117755
4009000000.0000005 0.5305322170899326 -0.8835043214091197
4011999999.9999995 0.598477509223641 -0.8180856529899185
4016000000.0 0.4738521717176029 -0.9132892897444803
4019000000.0 0.5479736529822292 -0.9346735638505237
4022000000.0000005 0.5891681812296656 -0.8873596186652242
4025000000.0000005 0.4819199417626116 -0.9091869776403936
4027999999.9999995 0.5320757977401007 -0.8895095936735857
4030999999.9999995 0.5635209102140812 -0.8442551208621942
4034000000.0 0.5160740233862449 -0.8490680066561267
4038000000.0000005 0.5364058374954472 -0.8999065401674831
4041000000.0000005 0.5587728767850908 -0.8839241256530728
4043999999.9999995 0.584155066545336 -0.924317314569804
4046999999.9999995 0.5835393298239392 -0.884121072516313
4050000000.0 0.5317457780655328 -0.8895564885019429
4053000000.0 0.4790195792663283 -0.8894448689322456
4056000000.0 0.5260244823330275 -0.8807998903019401
4059000000.0 0.5207537617124041 -0.8717836219343605
4062000000.0000005 0.5314441178373016 -0.8470686749074382
4066000000.0 0.4898766569867955 -0.8084214698406027
4069000000.0 0.5093014990100369 -0.9467153006354835
4072000000.0 0.5800161738781433 -0.8557038126664251
4075000000.0 0.5992069794192744 -0.8516736793969228
4078000000.0000005 0.5548430513869652 -0.8878679789476291
4081000000.0000005 0.5951151899158111 -0.8571405729044483
4083999999.9999995 0.5271762506223717 -0.89890063436126
4088000000.0 0.5682269183615892 -0.852594795462267
4091000000.0 0.5519878629256749 -0.9020718964308801
4094000000.0000005 0.5361779657428356 -0.8450895758224509
4097000000.0000005 0.562782470659893 -0.8162250958528794
4099999999.9999995 0.5275847485737734 -0.9080123895907058
4102999999.9999995 0.5763701302812471 -0.8956280950246267
4106000000.0 0.5727044180404451 -0.8912695782423044
4109000000.0 0.5198721791328027 -0.8917134286825643
4112000000.0 0.5247456337285856 -0.8724591267891506
4115999999.9999995 0.5647094633530465 -0.8648429467094875
4119000000.0 0.512250715939585 -0.868861645901741
4122000000.0 0.49439715444692817 -0.887806832244831
4125000000.0 0.5681548274865116 -0.9263548786388831
4128000000.0 0.5468938650897973 -0.8346849046154141
4131000000.0 0.5035876098631928 -0.8535307935698383
4134000000.0000005 0.5880083072402892 -0.8874159296197873
4138000000.0 0.5032270169445274 -0.8640006417187929
4141000000.0 0.54023175614543 -0.8645374224504674
4144000000.0 0.5574096968200337 -0.8679004727917663
4147000000.0000005 0.5245813218042898 -0.8459508386322554
4150000000.0000005 0.5399628823777826 -0.8967660607750533
4152999999.9999995 0.5742147679900622 -0.8698838495150172
4155999999.9999995 0.5562561737075085 -0.867341033358134
4159000000.0 0.5400756484255422 -0.8547460298030004
4162000000.0 0.5506851190523508 -0.8170828449055657
4166000000.0000005 0.5331414919988166 -0.9022575897042169
4168999999.9999995 0.550288505676457 -0.8570787294413802
4171999999.9999995 0.5543547154944194 -0.8515219391934654
4175000000.0 0.5692740258540698 -0.8495512746828714
4178000000.0 0.5452858569302654 -0.8955956844632292
4181000000.0 0.5417410338108639 -0.8605183523582733
4184000000.0 0.5181472900121435 -0.8592915709897174
4187999999.9999995 0.5608775427325299 -0.878443834027673
4191000000.0 0.5785437803714116 -0.8198025279346858
4194000000.0 0.5302303548661838 -0.8473143348753069
4197000000.0 0.5307678501607094 -0.879085391457319
4200000000.0 0.5591159698407567 -0.8765116678900935
4203000000.0000005 0.5531222968556156 -0.8711850896705333
4206000000.0000005 0.5500744293654067 -0.8905711853916526
4208999999.9999995 0.5421881107973929 -0.8534093674228307
4211999999.9999995 0.5128422031895918 -0.8607559503660295
4216000000.0 0.555631467245871 -0.8804737428348415
4219000000.0000005 0.5573275309406369 -0.8631880052631035
4222000000.0000005 0.53860235822655 -0.8691028186209929
4224999999.9999995 0.5481071364268643 -0.852085990877535
4227999999.9999995 0.551000991139593 -0.8477626093379637
4231000000.0 0.5490307085589841 -0.8718409880276443
4234000000.0 0.5496363921834608 -0.8490343775025653
4238000000.0000005 0.5334149117375893 -0.8634755439392842
4240999999.9999995 0.5254679311685605 -0.8605185188681876
4244000000.0 0.5606555087201482 -0.8705251940669971
4247000000.0 0.5470211082533737 -0.8592538920881221
4250000000.0 0.5323890818562547 -0.8476877260713908
4253000000.0 0.5096059147684263 -0.8521163099787467
4256000000.0 0.5595564709131002 -0.8789676307493465
4259000000.0000005 0.5046211124249004 -0.8217921612779666
4261999999.9999995 0.520440716110824 -0.8658063743765917
4266000000.0 0.5319163423977386 -0.8936865382550027
4269000000.0 0.5444688156526625 -0.8569363832869015
4272000000.0000005 0.5307401817091084 -0.8636385006472839
4275000000.0000005 0.556440065806725 -0.8577615736464087
4277999999.9999995 0.5515876464104126 -0.8824800845894987
4280999999.9999995 0.5652344128464651 -0.8694736981426872
4284000000.0 0.5110090236506682 -0.8733570318365764
4288000000.0000005 0.5556472646976529 -0.8528014538291175
4291000000.0000005 0.5288478730358069 -0.8311747820673898
4293999999.9999995 0.5363579986108111 -0.8493910981365806
4297000000.0 0.5650974702839338 -0.8371967600566469
4300000000.0 0.5134148770758351 -0.8332217142712858
4303000000.0 0.5213700880348322 -0.8661857395860232
4306000000.0 0.5599538991698549 -0.8339948252289561
4309000000.0 0.5388758344254883 -0.8266184797238422
4312000000.0 0.5618328940241017 -0.8407721532283299
4316000000.0 0.552777389695125 -0.8780842069829641
4319000000.0 0.5418352479001778 -0.8296942942002189
4322000000.0 0.5136920111054244 -0.858774734394735
4325000000.0 0.54284156257385 -0.8448506421660723
4328000000.0 0.519881671217486 -0.844296682796355
4331000000.0 0.5171922451452853 -0.8803544522200624
4334000000.0 0.5370888487257993 -0.8526118249025048
4338000000.0 0.5767078711410304 -0.8561213750112591
4341000000.0 0.553330271376136 -0.8482421584451324
4344000000.0 0.557518031481306 -0.8871344927888314
4347000000.0 0.5272142928373048 -0.8676963740348694
4350000000.0 0.5207185244848488 -0.8206774697488767
4353000000.0 0.5262379344341422 -0.8306272026792522
4356000000.0 0.523398313401771 -0.849129226282136
4359000000.0 0.5209099878977348 -0.8171592481828005
4362000000.0 0.5135417831254943 -0.905260649759262
4366000000.0 0.54330325160224 -0.863277930045207
4369000000.0 0.5141633325159597 -0.8380565069931206
4372000000.0 0.4893586898368023 -0.8541243419772477
4375000000.0 0.5702929695179254 -0.8303312856805226
4378000000.0 0.5193145925346603 -0.8428965056827574
4381000000.0 0.5338546306580008 -0.8241085609963064
4384000000.0 0.5500325890960186 -0.9098695526819062
4388000000.0 0.5175332805053944 -0.8296266344088143
4391000000.0 0.5479795892921644 -0.8533512780885244
4394000000.0 0.5137761283947444 -0.8246198494696952
4397000000.0 0.5142251141662351 -0.8405518599589391
4400000000.0 0.5290710636910507 -0.8760794390974372
4403000000.0 0.5273862488499703 -0.8610098975723264
4406000000.0 0.5141421564775707 -0.8756234199922401
4409000000.0 0.5494482735475732 -0.8877460178318396
4412000000.0 0.4777804455204769 -0.8817532365533219
4416000000.0 0.5131800404076836 -0.8577050993220189
4419000000.0 0.5068751587442726 -0.8629304289953658
4422000000.0 0.5312086254509649 -0.8437214268645011
4425000000.0 0.5621220579997259 -0.8586320225627446
4428000000.0 0.522577632573811 -0.8673135798042754
4431000000.0 0.5482724158474029 -0.8786237248847305
4434000000.0 0.5186958885235069 -0.8612418098472518
4438000000.0 0.543002675549466 -0.870104430291345
4441000000.0 0.5295654571683518 -0.8681270621538921
4444000000.0 0.5126201921440828 -0.8489041156040587
4447000000.0 0.4969226751806027 -0.8731770344023047
4450000000.0 0.5512136354068161 -0.8508462073059415
4453000000.0 0.5460880098390696 -0.8784950615593131
4456000000.0 0.48788886720573166 -0.851466020655897
4459000000.0 0.47700967217765455 -0.8361642093540109
4462000000.0 0.5437574073693893 -0.9072626468541662
4466000000.0 0.5367498467897679 -0.9025000971721056
4469000000.0 0.5345019505446714 -0.8603632964862843
4472000000.0 0.5140832565278212 -0.8802884599379655
4475000000.0 0.5064787149175836 -0.8212263790975266
4478000000.0 0.5214366552278067 -0.9071868515466883
4481000000.0 0.4955731479256873 -0.8496698592343185
4484000000.0 0.47387040287189375 -0.875152254413131
4488000000.0 0.49159449704847274 -0.857024340418593
4491000000.0 0.5200598773032554 -0.8896620257014801
4494000000.0 0.515642764165504 -0.8462559242718453
4497000000.0 0.5228104829224426 -0.8440072174398263
4500000000.0 0.5386171643720443 -0.8611402122843352
4503000000.0 0.5379529140662738 -0.8786547002754574
4506000000.0 0.4943938894778377 -0.8527035650488937
4509000000.0 0.4977531507492603 -0.8381375875863815
4512000000.0 0.5004240751084419 -0.8434138972714714
4516000000.0 0.5374860730217202 -0.8654512658751505
4519000000.0 0.5104883988629508 -0.8440764623123931
4522000000.0 0.5009843132982224 -0.8705077072794472
4525000000.0 0.5416072144870429 -0.8507255801486496
4528000000.0 0.5245026640104429 -0.8904472356297581
4531000000.0 0.5215319807790925 -0.8618651368911283
4534000000.0 0.4962586173526566 -0.8470201229635481
4538000000.0 0.5024935616677065 -0.8562168178737155
4541000000.0 0.4726190139492778 -0.8649690495735096
4544000000.0 0.501756941778611 -0.869889607954131
4547000000.0 0.507539679020887 -0.8423012996710346
4550000000.0 0.49316350434909567 -0.8967341507898097
4553000000.0 0.49544990068279904 -0.8602754910888699
4556000000.0 0.4857481860819278 -0.8522988596975606
4559000000.0 0.4979068708664544 -0.8821472137780784
4562000000.0 0.5209978603135907 -0.8847384070746686
4566000000.0 0.5164644786607254 -0.8773939066587777
4569000000.0 0.4780230477090792 -0.857545136502345
4572000000.0 0.5059139811343121 -0.8600540840978868
4575000000.0 0.496496856259379 -0.8886851616350531
4578000000.0 0.5294624216772716 -0.8716672309286443
4581000000.0 0.4942823565682973 -0.891119929239139
4584000000.0 0.4996716901693453 -0.8697836773886178
4588000000.0 0.5267776471254266 -0.88205927130226
4591000000.0 0.5154495939043076 -0.8531473591837815
4594000000.0 0.48965125716919217 -0.880461770401044
4597000000.0 0.5079662428995584 -0.8944486620394996
4600000000.0 0.4659671129533285 -0.8836966295107127
4603000000.0 0.49368917653596467 -0.8731298679194175
4606000000.0 0.49067035250694435 -0.8864119169488347
4609000000.0 0.5047046936263323 -0.8783257594748577
4612000000.0 0.4887998856727461 -0.8857072333438387
4616000000.0 0.4914825213657967 -0.8673375611550317
4619000000.0 0.5074586717083489 -0.863975232955389
4622000000.0 0.49143788941477917 -0.8666433387182095
4625000000.0 0.4550588172394112 -0.8531955324652174
4628000000.0 0.5126851525062696 -0.863113850543772
4631000000.0 0.4763621240711374 -0.8838737989359245
4634000000.0 0.4814307549973746 -0.8731438420928074
4638000000.0 0.49036522536103455 -0.878928490052505
4641000000.0 0.5076142409731169 -0.8874291654406682
4644000000.0 0.48946445713432546 -0.8848563013184667
4647000000.0 0.5252108399987748 -0.8769114620718823
4650000000.0 0.477227937954598 -0.8700678033755739
4653000000.0 0.5042249401068148 -0.8979130856687992
4656000000.0 0.48735978197382235 -0.8859811763650494
4659000000.0 0.47196125462732386 -0.8886094737257573
4662000000.0 0.47992894853969487 -0.8898397783006886
4666000000.0 0.4833925659644233 -0.8859807544028806
4669000000.0 0.49881239119334075 -0.8682939300320537
4672000000.0 0.47054082132177544 -0.9082486640136171
4675000000.0 0.4648919011915196 -0.8997035705648296
4678000000.0 0.48708069135963616 -0.8816314850312004
4681000000.0 0.4615661355884827 -0.903586082730975
4684000000.0 0.45022410051903644 -0.9079576276138467
4688000000.0 0.4800851327665454 -0.8953133625471502
4691000000.0 0.5205860782311219 -0.858461584375361
4694000000.0 0.48829822056622296 -0.8627025571098206
4697000000.0 0.4403032326557741 -0.8686027123150882
4700000000.0 0.48534099326165625 -0.8793277267998634
4703000000.0 0.49276775630991265 -0.8417151322846277
4706000000.0 0.4483853353509345 -0.9074796584404935
4709000000.0 0.4702441976438506 -0.8921591347443135
4712000000.0 0.5034452738161004 -0.8748049796366344
4716000000.0 0.4764904790567958 -0.9029696336435373
4719000000.0 0.51718831106916 -0.8564994349961752
4722000000.0 0.5035542570041073 -0.901392269068277
4725000000.0 0.4860617212010414 -0.8719501289103594
4728000000.0 0.47747239190446217 -0.8584152903997236
4731000000.0 0.49165202853621864 -0.8955403548902596
4734000000.0 0.5077713490465483 -0.8519869724135745
4738000000.0 0.5029185602048228 -0.9155004688528676
4741000000.0 0.4893029908693709 -0.9266074852174906
4744000000.0 0.48484202253863706 -0.902034210995036
4747000000.0 0.4933108733388158 -0.856170704440178
4750000000.0 0.49331036314456156 -0.8936761034903776
4753000000.0 0.4985353770079868 -0.8700104073166983
4756000000.0 0.49296591135280743 -0.9221307266419341
4759000000.0 0.4863039708978747 -0.8885622070387
4762000000.0 0.4717327791806534 -0.9096453370279234
4766000000.0 0.46344541402668665 -0.8868984596414403
4769000000.0 0.5069712778246251 -0.9108556428125067
4772000000.0 0.5063171398051942 -0.8980914359811675
4775000000.0 0.47872217862520977 -0.9204561626013051
4778000000.0 0.4850472638004438 -0.8975311399262877
4781000000.0 0.49969517999410673 -0.8712676224770781
4784000000.0 0.48149812235507383 -0.8647635200939116
4788000000.0 0.46657243287578104 -0.8913731751123937
4791000000.0 0.476370014423963 -0.8871931354650895
4794000000.0 0.5110703296680186 -0.901825144539927
4797000000.0 0.4818635716716813 -0.8859084460244563
4800000000.0 0.466803690196105 -0.8763497284743268
4803000000.0 0.4440041389281605 -0.8977200475294125
4806000000.0 0.4698393698525147 -0.9260178837237262
4809000000.0 0.4632639906720909 -0.9159087926935935
4812000000.0 0.4210608856735525 -0.899332851975456
4816000000.0 0.5084374813079768 -0.8762643679020373
4819000000.0 0.4977084255392571 -0.8910659061930037
4822000000.0 0.5032004789081165 -0.9049270781079207
4825000000.0 0.5203610659073373 -0.8877147818132108
4828000000.0 0.48473558861673405 -0.8792630296148428
4831000000.0 0.4545056881531827 -0.9444927017262318
4834000000.0 0.5002346446015056 -0.9041855452303165
4838000000.0 0.4693397789997692 -0.9125163186190308
4841000000.0 0.4828825391120988 -0.8842992564160143
4844000000.0 0.5134168513179775 -0.8799900702976251
4847000000.0 0.48984851641636334 -0.852375536782794
4850000000.0 0.47562029208228707 -0.9325344045390048
4853000000.0 0.4903341969094918 -0.8725114422828872
4856000000.0 0.46096471104873876 -0.8880173611163259
4859000000.0 0.5059217353020654 -0.9284052120758624
4862000000.0 0.5030051959487609 -0.8710498632414454
4866000000.0 0.4819001775723766 -0.9117998254739774
4869000000.0 0.4682661799675349 -0.9046086314734102
4872000000.0 0.47878077508329037 -0.9480010725012861
4875000000.0 0.5608436002441299 -0.9161675357128887
4878000000.0 0.4857575456393599 -0.910362294243453
4881000000.0 0.4957640459215013 -0.9831377962335381
4884000000.0 0.5040810208383149 -0.9278959310677504
4888000000.0 0.5113287655373204 -0.8891905786373435
4891000000.0 0.5244467043280945 -0.9199502311158828
4894000000.0 0.48684003666623155 -0.8986486278775514
4897000000.0 0.5166626071412733 -0.8950737307516943
4900000000.0 0.5232516579796047 -0.8987798280245328
4903000000.0 0.5247314590331094 -0.9085173794587728
4906000000.0 0.49448983615447406 -0.8976470724714385
4909000000.0 0.4595669381098757 -0.9435505840157921
4912000000.0 0.4749192729640624 -0.9551307783777208
4916000000.0 0.5308368826987838 -0.9141733887671898
4919000000.0 0.5431977150302145 -0.8790149630212228
4922000000.0 0.5577254525733468 -0.8988684178837795
4925000000.0 0.4539563804797061 -0.9214999784078328
4928000000.0 0.5372121911546336 -0.8730775165606847
4931000000.0 0.512137598070893 -0.8762167661498764
4934000000.0 0.49873721558196665 -0.8472584784075149
4938000000.0 0.43624887488003544 -0.8757894937125924
4941000000.0 0.4710927344517234 -0.8482292562495466
4944000000.0 0.4918671560884802 -0.7988852975690122
4947000000.0 0.4623962096861338 -0.8750511790377881
4950000000.0 0.47217981533543363 -0.8490742770221168
4953000000.0 0.45854726205766627 -0.9352813916068958
4956000000.0 0.4945831590316179 -0.9137833661187661
4959000000.0 0.460092770256334 -0.8922298769527994
4962000000.0 0.5051738773790505 -0.930456129692143
4966000000.0 0.5279609729752384 -0.9122907487782151
4969000000.0 0.5114063625421807 -0.9306765312179363
4972000000.0 0.46403943989389623 -0.9207349896103968
4975000000.0 0.5238895665073663 -0.848534583790621
4978000000.0 0.4769044107528654 -0.9132798134617651
4981000000.0 0.4872603209282193 -0.9196559790628773
4984000000.0 0.5179733470435295 -0.8917091078217976
4988000000.0 0.5210807911574922 -0.8874077004229762
4991000000.0 0.5647960225261479 -0.8871428061848396
4994000000.0 0.5206117928173906 -0.8832539788602187
4997000000.0 0.44438034009676597 -0.9072652667210546
5000000000.0 0.5069760513028649 -0.9090709471870941
5003000000.0 0.538699127155149 -0.8970906805980668
5006000000.0 0.5238881894379626 -0.9425396123719656
5009000000.0 0.5080545370960059 -0.8859566439394616
5012000000.0 0.4680318059719333 -0.8988328644617999
5016000000.0 0.5241185064740531 -0.9299407826432775
5019000000.0 0.5024677085361908 -0.8911939261240109
5022000000.0 0.5147056429863752 -0.9000653862504311
5025000000.0 0.5201908047583056 -0.9777828511458774
5028000000.0 0.48267065079993765 -0.9315662100046004
5031000000.0 0.4787243933488902 -0.8998058761162575
5034000000.0 0.48328912520874223 -0.9546183353605069
5038000000.0 0.48635232179017396 -0.8861790449979867
5041000000.0 0.5607953334474607 -0.900424679316686
5044000000.0 0.5269355917905658 -0.8732167422038271
5047000000.0 0.5103677801294397 -0.8975323960819384
5050000000.0 0.5785355611916834 -0.8236268870955291
5053000000.0 0.553065873579364 -0.9158031336027206
5056000000.0 0.5699817981381468 -0.886026849710704
5059000000.0 0.5572415545472847 -0.8740859124478549
5062000000.0 0.5192200995506737 -0.9217598245307377
5066000000.0 0.5363306501498771 -0.8590735897878385
5069000000.0 0.5227246320726446 -0.9218400588085393
5072000000.0 0.5120133842037886 -0.8467615942494118
5075000000.0 0.5017212933978488 -0.874705046657108
5078000000.0 0.48178071905803393 -0.9302386238927313
5081000000.0 0.4747758343594485 -0.8832002216869369
5084000000.0 0.49391816192290483 -0.8932838662690092
5088000000.0 0.543545898039028 -0.8871623884403571
5091000000.0 0.4618642652459797 -0.8857953755970657
5094000000.0 0.4996847969727527 -0.8977634733609572
5097000000.0 0.5288233465252342 -0.8996692799064891
5100000000.0 0.5091383657007937 -0.8586889246899583
5103000000.0 0.49955430651314 -0.9159974735489931
5106000000.0 0.558477994066984 -0.9107388324711927
5109000000.0 0.5748574711976002 -0.8592459449067703
5112000000.0 0.48654540507453153 -0.8924972658324081
5116000000.0 0.5422181685848246 -0.880280139240738
5119000000.0 0.48846234796231497 -0.9461967837677057
5122000000.0 0.5317334431685496 -0.8815891482797436
5125000000.0 0.5135090795786743 -0.9056768975990024
5128000000.0 0.5143856163450152 -0.9351456081896902
5131000000.0 0.49528497705398905 -0.9019161485020046
5134000000.0 0.5522036083680666 -0.8999225077937019
5138000000.0 0.555868915769375 -0.8932319326516829
5141000000.0 0.5438117409796848 -0.8396329353879332
5144000000.0 0.5797334098972222 -0.8714116800759907
5147000000.0 0.5272036632634443 -0.892516687253655
5150000000.0 0.5451931119857713 -0.9346308023898116
5153000000.0 0.5538630274744324 -0.8958578470887922
5156000000.0 0.5475268349382401 -0.8828139551943428
5159000000.0 0.6017887264921884 -0.9087271253556504
5162000000.0 0.5110316722178754 -0.9067171705612016
5166000000.0 0.5245519453270977 -0.9243036263409107
5169000000.0 0.5588607702142012 -0.9045717975535976
5172000000.0 0.5146265735037906 -0.8525526270205819
5175000000.0 0.5619100440583411 -0.9017232432051131
5178000000.0 0.4694174152342978 -0.8847328312093681
