! Created with skrf 1.8.0 (http://scikit-rf.org).
# Hz S RI R 50.0 
!freq ReS11 ImS11
4000000000.0 0.5158131135672201 -0.839137279200218
4003000000.0 0.6478150589191828 -0.9732431918228597
4006000000.0 0.5102750886338615 -0.8964484039335625
4009000000.0000005 0.5572872554202443 -0.8780546167723328
4011999999.9999995 0.6536844215042987 -0.8691884871177551
4016000000.0 0.5615953197655092 -0.9411967583576997
4019000000.0 0.5368606111124639 -0.896338843519839
4022000000.0000005 0.6266228614113629 -0.8611209326455018
4025000000.0000005 0.517008131447048 -0.9068836064611672
4027999999.9999995 0.5460004064509053 -0.877038008588283
4030999999.9999995 0.5670372148125042 -0.8751162629215614
4034000000.0 0.552696070680898 -0.8732112006306818
4038000000.0000005 0.49664691468084043 -0.849493008701948
4041000000.0000005 0.49743843867932735 -0.8934732016644907
4043999999.9999995 0.5949461686451337 -0.9134769530802642
4046999999.9999995 0.5576888309056798 -0.9076064483637789
4050000000.0 0.5696845365796264 -0.8857152336026844
4053000000.0 0.4832953634755235 -0.8672454981497522
4056000000.0 0.551381563383232 -0.8850969259560189
4059000000.0 0.5351014038071038 -0.8921666357851529
4062000000.0000005 0.5050294317693069 -0.8931614777851993
4066000000.0 0.5012934709215904 -0.8164573232159031
4069000000.0 0.5461552938313078 -0.9273008540163666
4072000000.0 0.6006544621709922 -0.8210449513315011
4075000000.0 0.6106694341640896 -0.888601932712036
4078000000.0000005 0.520379947697454 -0.8879776202131198
4081000000.0000005 0.5982055642185163 -0.8868438417128931
4083999999.9999995 0.5586602513119162 -0.9380455213262437
4088000000.0 0.5643269582632425 -0.8176503418945681
4091000000.0 0.5699833964070802 -0.8961524692307151
4094000000.0000005 0.5515008825329359 -0.8718723267672177
4097000000.0000005 0.5709249627590607 -0.8776212393774634
4099999999.9999995 0.5421603357592821 -0.8699645206911032
4102999999.9999995 0.5565231264293135 -0.8943165204442398
4106000000.0 0.5564636316710897 -0.8766160825515035
4109000000.0 0.5247822551609682 -0.8943201027497869
4112000000.0 0.5504777342812401 -0.8806234573633118
4115999999.9999995 0.546013397022269 -0.8611588798646058
4119000000.0 0.5390761501175362 -0.8926119664688923
4122000000.0 0.5056927376546627 -0.8755584126232548
4125000000.0 0.5534598454382689 -0.9096183940931427
4128000000.0 0.529286159704046 -0.8346436218404996
4131000000.0 0.5004666920552651 -0.8558586969468753
4134000000.0000005 0.5443062205265768 -0.871917940492335
4138000000.0 0.47371377752032834 -0.8625155655739163
4141000000.0 0.5259984388707133 -0.8027371542547102
4144000000.0 0.5678025005191055 -0.8529274527353304
4147000000.0000005 0.5117998390917381 -0.8682169801990479
4150000000.0000005 0.5661565353619827 -0.9081551275837215
4152999999.9999995 0.5468873325052139 -0.8596096217513818
4155999999.9999995 0.5879915367294352 -0.8692985456940248
4159000000.0 0.5612360490636975 -0.8595521980099516
4162000000.0 0.5201873747044737 -0.8361649567971469
4166000000.0000005 0.5415202443790135 -0.8810907559066622
4168999999.9999995 0.5207489527994543 -0.8372166865170106
4171999999.9999995 0.5290821819568539 -0.8835849435739263
4175000000.0 0.5547916064070676 -0.8731679413997867
4178000000.0 0.5641592147015652 -0.9014448436384086
4181000000.0 0.524135545898191 -0.8763871442209605
4184000000.0 0.5463557995163812 -0.8771034389388835
4187999999.9999995 0.5118263042007438 -0.8440460195730695
4191000000.0 0.5445155937999573 -0.8334380984369333
4194000000.0 0.5402739707851875 -0.8459143746895635
4197000000.0 0.5534912506350834 -0.8868851614197707
4200000000.0 0.581631724799621 -0.856771599144806
4203000000.0000005 0.5710461553282995 -0.84792078532327
4206000000.0000005 0.544116125872084 -0.8901787096091067
4208999999.9999995 0.5627164793724725 -0.8527666961876977
4211999999.9999995 0.5136681725919394 -0.8726992553614947
4216000000.0 0.5648707569754359 -0.8833558459957157
4219000000.0000005 0.5498774518305655 -0.8759002685653187
4222000000.0000005 0.5441455575259212 -0.8710159412180961
4224999999.9999995 0.5560340486404862 -0.8645855293058424
4227999999.9999995 0.5397947747735043 -0.8562600720746144
4231000000.0 0.5401120284041773 -0.8791502786106727
4234000000.0 0.5601190198550557 -0.884375529613138
4238000000.0000005 0.5405446816239103 -0.8678846048692838
4240999999.9999995 0.5228980116483346 -0.8711473077696432
4244000000.0 0.5517510345598455 -0.8534410462995791
4247000000.0 0.5592784982068801 -0.8490780602755692
4250000000.0 0.5417208469339001 -0.8434388061934827
4253000000.0 0.5188078077202476 -0.8287159465088495
4256000000.0 0.5354153613404884 -0.8832818399116932
4259000000.0000005 0.5305837503871378 -0.8286882387674197
4261999999.9999995 0.5310832912923403 -0.8745142749306896
4266000000.0 0.5322593765211137 -0.8865248488114215
4269000000.0 0.5352802154619483 -0.8650238533080621
4272000000.0000005 0.5520691948241128 -0.8706456343377977
4275000000.0000005 0.5674661018852503 -0.8750781580670561
4277999999.9999995 0.5648705885055022 -0.8693844565310204
4280999999.9999995 0.5555621537674496 -0.8498155512163685
4284000000.0 0.5075412646329464 -0.8879351311837281
4288000000.0000005 0.5742255055196444 -0.8495704867304772
4291000000.0000005 0.5199204301846785 -0.8456100179209234
4293999999.9999995 0.5360056824406407 -0.8433978921065871
4297000000.0 0.5480923108062707 -0.8127026597548968
4300000000.0 0.5381825305491252 -0.8304000490975902
4303000000.0 0.5335347972387549 -0.8583243474143651
4306000000.0 0.5791108706453447 -0.8459767994730355
4309000000.0 0.5331571957196651 -0.8579959753131927
4312000000.0 0.5864397332388627 -0.8697604775181497
4316000000.0 0.5549834641319336 -0.871264722991329
4319000000.0 0.5570680798948358 -0.826010378140949
4322000000.0 0.5213901416813909 -0.8358811519024526
4325000000.0 0.528735732889581 -0.8495703760618849
4328000000.0 0.5359584043262622 -0.8515477960897992
4331000000.0 0.5070381635618891 -0.8928082083488542
4334000000.0 0.5408013053338492 -0.8475719869467375
4338000000.0 0.5633481539276086 -0.8584492900606149
4341000000.0 0.5735748621091665 -0.8520473273185407
4344000000.0 0.5519897067026568 -0.8570586086938256
4347000000.0 0.540972666297709 -0.8800862867447987
4350000000.0 0.5191542933971703 -0.8223410593001297
4353000000.0 0.5400555757710236 -0.8372310955966452
4356000000.0 0.5224007262733091 -0.8596840701437549
4359000000.0 0.5216167106013656 -0.8201033690740374
4362000000.0 0.5059436723139901 -0.8861301769284995
4366000000.0 0.5735976275558948 -0.8765940504049502
4369000000.0 0.5076196889502902 -0.8349103318285171
4372000000.0 0.5066698685918212 -0.8657670746236606
4375000000.0 0.5489191709154437 -0.8382704249138289
4378000000.0 0.5174317643673694 -0.8271577865331254
4381000000.0 0.5396941720846224 -0.8353689141220364
4384000000.0 0.5592025779694085 -0.9155031371047408
4388000000.0 0.5401626116178551 -0.8495918914487021
4391000000.0 0.5390633337952089 -0.8812331944598293
4394000000.0 0.5026278838684796 -0.8256005310975856
4397000000.0 0.5271416399912302 -0.8598144272580699
4400000000.0 0.536662569497748 -0.8874501846790838
4403000000.0 0.5521104878391703 -0.8647237874548852
4406000000.0 0.5139690302939 -0.8674906674360041
4409000000.0 0.541604461885587 -0.8826144386856952
4412000000.0 0.48207026832324007 -0.8794521907617219
4416000000.0 0.5057656636072814 -0.861817149828759
4419000000.0 0.5198989097241864 -0.8751952274532604
4422000000.0 0.534689962845773 -0.8447084975201823
4425000000.0 0.5526923840698321 -0.8692625320610446
4428000000.0 0.5264368351339317 -0.8616129932205637
4431000000.0 0.5505843363040727 -0.8643075871195038
4434000000.0 0.5225452584122515 -0.8618810962412056
4438000000.0 0.5552536124310732 -0.8685090649763271
4441000000.0 0.5248172300641006 -0.8636252100336517
4444000000.0 0.5346718961424192 -0.8446065263826108
4447000000.0 0.5143305606144732 -0.8659340445383628
4450000000.0 0.5337240064004166 -0.8415683658505442
4453000000.0 0.5445106365349611 -0.8859594007122786
4456000000.0 0.48262916680210405 -0.8333983959397508
4459000000.0 0.48847321149874895 -0.8331532993286868
4462000000.0 0.5485975939457413 -0.9180423286757728
4466000000.0 0.5285797995351015 -0.9029273141977638
4469000000.0 0.526611940085039 -0.8586622001240469
4472000000.0 0.5159224988430523 -0.8877011221938986
4475000000.0 0.5175082436087372 -0.8317295977621326
4478000000.0 0.5210488034850479 -0.8881128981191555
4481000000.0 0.4905922461320457 -0.8550682962135392
4484000000.0 0.47513944747028447 -0.8726656078277963
4488000000.0 0.4919133007296155 -0.8624444215875933
4491000000.0 0.5144506754770013 -0.8762820761029819
4494000000.0 0.523605213912018 -0.8435796688094306
4497000000.0 0.527127560326639 -0.841837781650836
4500000000.0 0.5246129239920242 -0.8713974426856921
4503000000.0 0.5415604456964109 -0.8782451131373038
4506000000.0 0.517763920205484 -0.8609021146222138
4509000000.0 0.5103740681253233 -0.8498721134821156
4512000000.0 0.4978158716280975 -0.853531737754431
4516000000.0 0.5226444524565178 -0.8764824729935559
4519000000.0 0.5142424737968339 -0.8295913630626364
4522000000.0 0.5093079891139025 -0.8528115647207726
4525000000.0 0.5125400654626531 -0.8405777770968672
4528000000.0 0.5090761618105919 -0.8822648799788855
4531000000.0 0.5374950832559147 -0.8614451333935895
4534000000.0 0.5132261525687329 -0.8475488069163579
4538000000.0 0.5205505018766694 -0.8498050128053787
4541000000.0 0.47366891477120676 -0.8757921780882125
4544000000.0 0.49938977083147895 -0.850733672106003
4547000000.0 0.5359151710889603 -0.8505387421975116
4550000000.0 0.4856531844901528 -0.8993425290914978
4553000000.0 0.5108680855067149 -0.8724057919676937
4556000000.0 0.5051173948743478 -0.8524573866382548
4559000000.0 0.49500452972001385 -0.8680841014928666
4562000000.0 0.5365304367447099 -0.877994414906601
4566000000.0 0.5120784620010942 -0.8917061688454586
4569000000.0 0.49287435101358434 -0.8529899455231882
4572000000.0 0.5202263353827219 -0.8546788197933567
4575000000.0 0.4816349471943777 -0.8985799304239226
4578000000.0 0.5437902839768606 -0.8889334290031301
4581000000.0 0.4953572392586085 -0.8804801514284357
4584000000.0 0.4891844192792285 -0.8692695546845637
4588000000.0 0.5373535535513972 -0.8737946211743377
4591000000.0 0.5214751674742069 -0.861069031442008
4594000000.0 0.49362880151568855 -0.8714462046925583
4597000000.0 0.5143060888179705 -0.8874651623223986
4600000000.0 0.4583063038289608 -0.8747160719371002
4603000000.0 0.4834722214060524 -0.8826477046682583
4606000000.0 0.512728365300123 -0.8884061936417841
4609000000.0 0.5029401893400374 -0.8693481844867936
4612000000.0 0.511316453863127 -0.888631903223242
4616000000.0 0.49357650154475474 -0.858195633696498
4619000000.0 0.48858998087301597 -0.8728898404641267
4622000000.0 0.4901870805328463 -0.8717852495257872
4625000000.0 0.47585124240902976 -0.8726184959673404
4628000000.0 0.5279974964915473 -0.8524096082489513
4631000000.0 0.48602843044703214 -0.8835638822929069
4634000000.0 0.4970053065290753 -0.8714119275184817
4638000000.0 0.49755518546181854 -0.8814582886700486
4641000000.0 0.5097007853606723 -0.8799463277148803
4644000000.0 0.489189689893329 -0.876686173498985
4647000000.0 0.5057488819351916 -0.8956579375490655
4650000000.0 0.47401310794164864 -0.8766235059077556
4653000000.0 0.5073300727323189 -0.885193512034109
4656000000.0 0.49237300233951165 -0.8975132771754311
4659000000.0 0.4777581332670939 -0.8783580397811243
4662000000.0 0.4869555822941316 -0.876216746129842
4666000000.0 0.4882641614836992 -0.8842229091621652
4669000000.0 0.5006964783333825 -0.8820668604998932
4672000000.0 0.4787302060099621 -0.8980343730303562
4675000000.0 0.4844612922906784 -0.8889244214626951
4678000000.0 0.4660712336402057 -0.8705722388805148
4681000000.0 0.48333800387593984 -0.9102375215468957
4684000000.0 0.4867290349636842 -0.8936308233938769
4688000000.0 0.4673287713343846 -0.8790870476002126
4691000000.0 0.5176771019239235 -0.8843822014419354
4694000000.0 0.4930922650263256 -0.8818394209916247
4697000000.0 0.463965868975556 -0.8685967768833409
4700000000.0 0.5048844219481848 -0.8647615178317338
4703000000.0 0.500870059324462 -0.8601214129312824
4706000000.0 0.4857916739307938 -0.8900686470647796
4709000000.0 0.4663495536435303 -0.8992025086157712
4712000000.0 0.47560671423949363 -0.912023243075268
4716000000.0 0.47971731317462324 -0.9231324189801183
4719000000.0 0.5231278015049006 -0.8990824151856177
4722000000.0 0.5200086116960823 -0.8890929654401789
4725000000.0 0.4913249526435579 -0.8864106920433628
4728000000.0 0.480768381243487 -0.8899431653607295
4731000000.0 0.5191365672811463 -0.8931758938945845
4734000000.0 0.5150135157885565 -0.882888958425921
4738000000.0 0.5360718992533314 -0.9278811902234889
4741000000.0 0.482237078896794 -0.918638126542217
4744000000.0 0.4898739004858997 -0.9335959458272907
4747000000.0 0.5150844475705549 -0.8579854239151866
4750000000.0 0.4932010470517661 -0.9086689476013184
4753000000.0 0.4802097162220214 -0.9109341075419786
4756000000.0 0.4841997576392206 -0.9130101827456955
4759000000.0 0.4777314140843719 -0.9010311313156116
4762000000.0 0.48714068786543185 -0.9530405832736855
4766000000.0 0.46904467838476804 -0.9025874282777298
4769000000.0 0.4855023105500532 -0.8854114556154713
4772000000.0 0.5045006295912041 -0.9064221306887056
4775000000.0 0.4777621630575555 -0.9351750568696648
4778000000.0 0.48953985134015043 -0.9116274997385377
4781000000.0 0.5140543610588897 -0.8710885771003352
4784000000.0 0.5017383154848896 -0.8805421507617509
4788000000.0 0.49187801051296987 -0.9158101070603263
4791000000.0 0.4935540145510632 -0.8936411436265081
4794000000.0 0.5053191630725213 -0.9150016559977622
4797000000.0 0.4798099871378238 -0.8933196618529198
4800000000.0 0.46601552122817913 -0.8893502887833571
4803000000.0 0.45132145051892253 -0.9076449069776763
4806000000.0 0.47627574354236735 -0.9068684467165669
4809000000.0 0.4437922753512776 -0.9145279298085884
4812000000.0 0.44604176486722424 -0.8943172804546778
4816000000.0 0.5071454981513236 -0.8673715833210686
4819000000.0 0.5269335248288685 -0.9106382090001516
4822000000.0 0.5244118164902867 -0.916253895406869
4825000000.0 0.4929493659515821 -0.8953150657409572
4828000000.0 0.4930627511814015 -0.8854020406778236
4831000000.0 0.4585050605063434 -0.9384501889407953
4834000000.0 0.5125688115439515 -0.9010288662492651
4838000000.0 0.48621574240679366 -0.9239170782212847
4841000000.0 0.4966758046821054 -0.9009786749840762
4844000000.0 0.5245018599888743 -0.8938612643960149
4847000000.0 0.5034495188140491 -0.8492722087593452
4850000000.0 0.4908041755191599 -0.9171962412008476
4853000000.0 0.48134110859331325 -0.8734539040605167
4856000000.0 0.4834977407855219 -0.9057478785114412
4859000000.0 0.5092338808602364 -0.9421084030447466
4862000000.0 0.5091650285295821 -0.8807800953083903
4866000000.0 0.4874133797119644 -0.9167894884658093
4869000000.0 0.46051049434156255 -0.9187592437274736
4872000000.0 0.4811459674850973 -0.9335456815985066
4875000000.0 0.5484757403814783 -0.9345759417124947
4878000000.0 0.5022906562591812 -0.9140235647323723
4881000000.0 0.5038816633281861 -0.9723908893997767
4884000000.0 0.5026923259596101 -0.8914668128627592
4888000000.0 0.502378018777136 -0.8886409017657126
4891000000.0 0.5313458267571641 -0.9153141784409197
4894000000.0 0.4683633059767469 -0.9053324645378378
4897000000.0 0.522539548747427 -0.8946166465851918
4900000000.0 0.485357541600739 -0.9102288961642029
4903000000.0 0.4984708080813846 -0.9146621277094417
4906000000.0 0.5028670953092879 -0.9465611291430747
4909000000.0 0.4862120571027598 -0.9022018858524731
4912000000.0 0.5197561645588531 -0.9475584588233267
4916000000.0 0.51919975462452 -0.9239848459028936
4919000000.0 0.5117415059115125 -0.933302237690083
4922000000.0 0.5306142727660428 -0.8844753915440855
4925000000.0 0.4809286160600158 -0.9608518813308081
4928000000.0 0.5282290171591102 -0.8685918822137547
4931000000.0 0.5439118201005136 -0.9338650405673401
4934000000.0 0.4753256421484776 -0.8400453994159959
4938000000.0 0.4603098216556845 -0.9156673365133526
4941000000.0 0.5049540390503311 -0.8589172622378807
4944000000.0 0.4823683874329016 -0.8281927622949595
4947000000.0 0.48886999957138644 -0.881186562993676
4950000000.0 0.4890574876982041 -0.8839283198047401
4953000000.0 0.4766422822287236 -0.9881541023532128
4956000000.0 0.49657688512975956 -0.9155560436060945
4959000000.0 0.4528034270432867 -0.9024326402522005
4962000000.0 0.4884119277651138 -0.9496541446995603
4966000000.0 0.5554637024768359 -0.909822399307457
4969000000.0 0.5138271095640571 -0.9135373899962941
4972000000.0 0.49908525952447247 -0.9245334503516898
4975000000.0 0.5422601142030569 -0.8761849594666482
4978000000.0 0.5089888569192847 -0.9052199660649026
4981000000.0 0.48274738705149833 -0.904403818444994
4984000000.0 0.5013856229566368 -0.9205242874697196
4988000000.0 0.4943131326628353 -0.8829350098659311
4991000000.0 0.5687897257488924 -0.9279695063154985
4994000000.0 0.5268193663686642 -0.9194036827167564
4997000000.0 0.4679799257382343 -0.9034680109285981
5000000000.0 0.5438464750448514 -0.9065929062466094
5003000000.0 0.5510732712102875 -0.9312808082792938
5006000000.0 0.5008829535781882 -0.9317007201568043
5009000000.0 0.5066847587967974 -0.8765987203292385
5012000000.0 0.5176572983838902 -0.9243901509008268
5016000000.0 0.5287912935241952 -0.8874994654570911
5019000000.0 0.5082674253465252 -0.8644894013748174
5022000000.0 0.5168941203958272 -0.8990217554055641
5025000000.0 0.5097159682122427 -0.9526986904613568
5028000000.0 0.5316081701745942 -0.9248121878130415
5031000000.0 0.48819378519059237 -0.9048963112930082
5034000000.0 0.5217467699890497 -0.9469371909348754
5038000000.0 0.4839754266116694 -0.86796362945233
5041000000.0 0.5472222691057818 -0.8906160495786466
5044000000.0 0.540379933926857 -0.8586715090717139
5047000000.0 0.5083082246651185 -0.9094214741319941
5050000000.0 0.586357058354745 -0.8404171549990522
5053000000.0 0.5098245871196455 -0.9658014506625006
5056000000.0 0.5669563214604517 -0.8941782148044084
5059000000.0 0.6193461262039905 -0.889828560760179
5062000000.0 0.4872181767832133 -0.9346813185313425
5066000000.0 0.5206323226068994 -0.8808419124264316
5069000000.0 0.4964723364862564 -0.922774590531295
5072000000.0 0.49852830342711973 -0.865766461809081
5075000000.0 0.5677767530868657 -0.8341799311729231
5078000000.0 0.48067927347541517 -0.978300796024963
5081000000.0 0.4743557190248942 -0.8813041904353401
5084000000.0 0.532449694890519 -0.9307716686109277
5088000000.0 0.5644122558724282 -0.8504060943157301
5091000000.0 0.45714879398988784 -0.9395017299901418
5094000000.0 0.5103402700457753 -0.8971895968060979
5097000000.0 0.5597624501632004 -0.903657520047862
5100000000.0 0.5228281181692305 -0.8515990072425462
5103000000.0 0.5198552870376122 -0.8926082350606265
5106000000.0 0.5252279466494205 -0.9708423325741027
5109000000.0 0.5569725807162933 -0.8581804577088754
5112000000.0 0.5257259600796811 -0.8955038370777514
5116000000.0 0.48090347013256257 -0.8684776638714504
5119000000.0 0.5990589861304962 -0.8795412337921316
5122000000.0 0.5442898550006465 -0.8621787764651676
5125000000.0 0.5343254288549284 -0.9168036513359538
5128000000.0 0.5041957886203599 -0.9087585382617464
5131000000.0 0.5208741744936993 -0.871965502829421
5134000000.0 0.5393419787463061 -0.8749424679634874
5138000000.0 0.5553665520250975 -0.8860884974400813
5141000000.0 0.585448485521723 -0.8696342725167587
5144000000.0 0.5712409107896534 -0.8856089472196342
5147000000.0 0.603373116123186 -0.9506072369734969
5150000000.0 0.5804352675957243 -0.8940697498837629
5153000000.0 0.5718149120045228 -0.9012011685198509
5156000000.0 0.5680620827317735 -0.8913979230465868
5159000000.0 0.58290457772464 -0.9516273030876694
5162000000.0 0.5105047706738415 -0.8883854416731547
5166000000.0 0.5277073788994135 -0.8991773817393529
5169000000.0 0.5617004446172182 -0.8710987536479139
5172000000.0 0.5858656573501833 -0.8939913204712756
5175000000.0 0.596697598890096 -0.9392544430418174
5178000000.0 0.5752364037072295 -0.8960259779714039
