! Created with skrf 1.8.0 (http://scikit-rf.org).
# Hz S RI R 50.0 
!freq ReS11 ImS11
4000000000.0 0.4891623546258209 -0.8736547796904852
4003000000.0 0.5606089994401482 -0.9209757192677869
4006000000.0 0.503262514286261 -0.8975024512651134
4009000000.0000005 0.5348887664153982 -0.9022941820185837
4011999999.9999995 0.5909145608046569 -0.8851820199610326
4016000000.0 0.5044606891991561 -0.9060522756708922
4019000000.0 0.5076553627975676 -0.9127777041278282
4022000000.0000005 0.5922843366413661 -0.8409537257847157
4025000000.0000005 0.4914025639658508 -0.924310966843737
4027999999.9999995 0.527440952646733 -0.8890590441532742
4030999999.9999995 0.5260619110615014 -0.8282297284150909
4034000000.0 0.5140714788769876 -0.8772926531127334
4038000000.0000005 0.47693684227971855 -0.9322500755196599
4041000000.0000005 0.5127103347396489 -0.938542175135761
4043999999.9999995 0.512504193605117 -0.954698346389118
4046999999.9999995 0.6095529239114457 -0.9488820413665725
4050000000.0 0.5168366976639932 -0.9165914320558075
4053000000.0 0.47939531534077273 -0.8917682070122841
4056000000.0 0.5272831270102772 -0.9115099303811814
4059000000.0 0.5860562875161082 -0.8555842154891572
4062000000.0000005 0.49049505889584527 -0.9017823333663294
4066000000.0 0.5133830915789229 -0.8260134477708438
4069000000.0 0.5219713510998416 -0.9482022554698031
4072000000.0 0.565021153571259 -0.8724463555838534
4075000000.0 0.5540985945861633 -0.9355254604127607
4078000000.0000005 0.5256415393602467 -0.9310864372555219
4081000000.0000005 0.5971164405092677 -0.8860777941158181
4083999999.9999995 0.5374013129943982 -0.906608208368531
4088000000.0 0.5865250969551574 -0.8449117843525067
4091000000.0 0.5414874665610048 -0.9323833639257368
4094000000.0000005 0.5398223683242219 -0.8674151598978037
4097000000.0000005 0.5323039799995902 -0.8874185254667681
4099999999.9999995 0.5335438337353932 -0.9019955508647207
4102999999.9999995 0.533529123915463 -0.9033885082604609
4106000000.0 0.5425632150023497 -0.88534840509731
4109000000.0 0.5069756742210274 -0.8844177298510296
4112000000.0 0.5334325095936645 -0.8963624288369677
4115999999.9999995 0.5590402954222701 -0.8828603465213144
4119000000.0 0.5084787863863648 -0.8878961206018384
4122000000.0 0.48066086405854463 -0.8938252301111805
4125000000.0 0.4904441577021804 -0.9229986025179666
4128000000.0 0.5122688216959377 -0.8532965423800222
4131000000.0 0.5150670593371262 -0.8703347120486441
4134000000.0000005 0.5486420622198355 -0.873257576823778
4138000000.0 0.5042178625008285 -0.851122656880577
4141000000.0 0.4982705035960275 -0.8582520927694909
4144000000.0 0.5561690954407918 -0.8749572500320492
4147000000.0000005 0.4797077202756646 -0.8487619424204986
4150000000.0000005 0.5510624239429527 -0.8744622507431402
4152999999.9999995 0.5112449485702918 -0.8670007754888571
4155999999.9999995 0.5569078011977996 -0.8803499876502933
4159000000.0 0.5160277162329273 -0.8471784911949298
4162000000.0 0.4935630684382738 -0.8891981239669156
4166000000.0000005 0.5404379877215422 -0.9130729375380414
4168999999.9999995 0.5281366167946121 -0.8715083929770538
4171999999.9999995 0.538354845386813 -0.8862994269321122
4175000000.0 0.5475407635602051 -0.870484572057846
4178000000.0 0.5548425018240294 -0.8783183664868361
4181000000.0 0.5027768665475818 -0.8907184364896146
4184000000.0 0.5229497720344747 -0.8696246128545714
4187999999.9999995 0.5243489202779643 -0.893892027578968
4191000000.0 0.5508741090660574 -0.856389613032535
4194000000.0 0.5181786265748947 -0.8748847457502021
4197000000.0 0.5416700407616213 -0.8909024667750293
4200000000.0 0.5380626655765178 -0.8758472112241925
4203000000.0000005 0.5298537225192497 -0.8795860579695148
4206000000.0000005 0.5451782046590576 -0.8829103780717906
4208999999.9999995 0.5271303567398362 -0.8571229671553773
4211999999.9999995 0.49602155557542604 -0.883054821979099
4216000000.0 0.5300432288011276 -0.8748037023029058
4219000000.0000005 0.5617707241607048 -0.8798811502164812
4222000000.0000005 0.531164479144566 -0.8800444313889287
4224999999.9999995 0.5242183086376052 -0.8522134009248533
4227999999.9999995 0.5268123751120035 -0.8705269088697206
4231000000.0 0.5275139394604911 -0.8761722609417276
4234000000.0 0.5008502283609546 -0.8838322747387679
4238000000.0000005 0.5297275402590218 -0.8752017502160243
4240999999.9999995 0.514903404543853 -0.8756416106494906
4244000000.0 0.5192410861725651 -0.8659208280689218
4247000000.0 0.5362275172364295 -0.857164380219815
4250000000.0 0.5107409834194662 -0.8659506580472545
4253000000.0 0.5087828267591274 -0.8494588754848509
4256000000.0 0.542866537734638 -0.8837568126768836
4259000000.0000005 0.49981798715273096 -0.8444149912990124
4261999999.9999995 0.5048917751953124 -0.88104893868791
4266000000.0 0.5242896705759689 -0.8996530635498672
4269000000.0 0.5307251935481914 -0.8744041736800817
4272000000.0000005 0.5319025797977531 -0.8761899703032205
4275000000.0000005 0.5334778487918101 -0.8828783436344468
4277999999.9999995 0.5353894078223863 -0.8834315383236708
4280999999.9999995 0.5588979906373105 -0.8812683304334759
4284000000.0 0.5103132819406256 -0.8974485783825908
4288000000.0000005 0.5537700948600014 -0.8602981745859547
4291000000.0000005 0.5027101338385308 -0.8427037676293916
4293999999.9999995 0.4994852197381334 -0.8592086038835787
4297000000.0 0.5290897933099564 -0.8434066091041436
4300000000.0 0.5207543184518928 -0.8473604695146448
4303000000.0 0.46575720920580416 -0.8674536211148968
4306000000.0 0.5299616334186875 -0.8528040692613685
4309000000.0 0.5377959253378962 -0.8666924837036575
4312000000.0 0.5429925305380717 -0.873158958071163
4316000000.0 0.5301266155856428 -0.8580842870675061
4319000000.0 0.516582895676808 -0.8377372269334326
4322000000.0 0.5155030620578642 -0.8674692504179817
4325000000.0 0.5356777626202558 -0.8587383260241208
4328000000.0 0.5274598322377125 -0.8660726378934185
4331000000.0 0.5145143268961264 -0.8980074722429153
4334000000.0 0.5120575888006784 -0.8836708391592011
4338000000.0 0.5250539127569805 -0.8524451054664653
4341000000.0 0.5677916337624183 -0.8720500926526498
4344000000.0 0.5419272796703782 -0.8641935490523289
4347000000.0 0.49132337319361175 -0.8796981579939711
4350000000.0 0.4851266142258283 -0.8366753933791848
4353000000.0 0.522207865336932 -0.8405892863787817
4356000000.0 0.5001154055532318 -0.9002529361511562
4359000000.0 0.48265332066955313 -0.8253667720937078
4362000000.0 0.47338964363484265 -0.9120118211311723
4366000000.0 0.5233401357511018 -0.896954759436663
4369000000.0 0.5074861483217334 -0.8267869243320273
4372000000.0 0.4668295321415049 -0.8846202443651013
4375000000.0 0.539702236955766 -0.8552202524577329
4378000000.0 0.5083473867969565 -0.8558073680049296
4381000000.0 0.5246646739566534 -0.8640716890136714
4384000000.0 0.5355705657113294 -0.9169778386669101
4388000000.0 0.5181225478951388 -0.8599430167478855
4391000000.0 0.5273293904379531 -0.8658867964096014
4394000000.0 0.5007205287686861 -0.849355487310548
4397000000.0 0.492536927582118 -0.8787553337563452
4400000000.0 0.522518613332082 -0.886711005358501
4403000000.0 0.5173250789566649 -0.8908771245283644
4406000000.0 0.4987104250523312 -0.8852089245936176
4409000000.0 0.5207158564271529 -0.9073911936287713
4412000000.0 0.4675482364990887 -0.9080204576835297
4416000000.0 0.48401402615895917 -0.8779305907533553
4419000000.0 0.5053410655458209 -0.8901698068642951
4422000000.0 0.5235217811323539 -0.866758692044686
4425000000.0 0.5288374615747293 -0.8850449626586848
4428000000.0 0.4945884835599058 -0.8746542486332137
4431000000.0 0.519826330872473 -0.8830688975267348
4434000000.0 0.49613540733025774 -0.8695014553886046
4438000000.0 0.5191125692997925 -0.893299432773245
4441000000.0 0.5032359894077689 -0.8932423459088081
4444000000.0 0.4849069402823257 -0.8463067909315725
4447000000.0 0.4948580522940462 -0.8755860427710652
4450000000.0 0.5114412754562209 -0.8548765621841745
4453000000.0 0.5069021927844342 -0.8883388400641241
4456000000.0 0.49260368517216546 -0.8520133625023787
4459000000.0 0.47488356911092267 -0.8563517732053723
4462000000.0 0.530189682848438 -0.9273495288887867
4466000000.0 0.5152874298687712 -0.900931624393404
4469000000.0 0.5033566018727379 -0.8559965272399233
4472000000.0 0.4791840746972215 -0.9132548832606397
4475000000.0 0.5153267143080901 -0.8588419731178978
4478000000.0 0.5044685203879232 -0.9202992962972247
4481000000.0 0.47093813499834825 -0.8609310737683444
4484000000.0 0.45007576882821193 -0.8968105251951402
4488000000.0 0.4759102949281214 -0.8803717188814446
4491000000.0 0.49409843011157084 -0.8754899338240986
4494000000.0 0.504174526332128 -0.8732676007293216
4497000000.0 0.5039126355847341 -0.8637871085692093
4500000000.0 0.5136334842240322 -0.8785473491753673
4503000000.0 0.5226113928885461 -0.9030686456662633
4506000000.0 0.4627465891108034 -0.8637944931135388
4509000000.0 0.4747724370225018 -0.8758224095616786
4512000000.0 0.47252290411154185 -0.8873544674309721
4516000000.0 0.5075836070271202 -0.8805155410234422
4519000000.0 0.5089903998817411 -0.8465553664317186
4522000000.0 0.48174699995567943 -0.871081367289421
4525000000.0 0.5156252590322019 -0.8564442959106955
4528000000.0 0.48867056718201884 -0.8963785185360523
4531000000.0 0.49813914883648747 -0.8917424143744531
4534000000.0 0.471676273493383 -0.8761168398554273
4538000000.0 0.4938792899177311 -0.8812123975910002
4541000000.0 0.45244743072748533 -0.8889251638016233
4544000000.0 0.49020460588621445 -0.8848453291652635
4547000000.0 0.5115203121378774 -0.8723365373773829
4550000000.0 0.45000958359645005 -0.8794425777999746
4553000000.0 0.48765600715422835 -0.8905453211228157
4556000000.0 0.4644545009399978 -0.8755224237604817
4559000000.0 0.4968518688620743 -0.8981976906266833
4562000000.0 0.47832553968099567 -0.8879572318415025
4566000000.0 0.4774724062121907 -0.9047766306026592
4569000000.0 0.4696385925078863 -0.8944657315213844
4572000000.0 0.4562933386730105 -0.8833336684043894
4575000000.0 0.4750812714530601 -0.911523271040445
4578000000.0 0.5025338018015135 -0.9033202176106001
4581000000.0 0.47474221179886045 -0.8836683808503704
4584000000.0 0.47038516063695407 -0.8869976958630864
4588000000.0 0.5067223799746201 -0.8946531787512249
4591000000.0 0.4974375277776615 -0.8913883158782016
4594000000.0 0.46511001187498807 -0.904897893306319
4597000000.0 0.46175844788735587 -0.9031474574289972
4600000000.0 0.4658675756529018 -0.9203729646488596
4603000000.0 0.47538228869226573 -0.9045274075413912
4606000000.0 0.47525581179187004 -0.8927590443254287
4609000000.0 0.4783215065617311 -0.8846256797925836
4612000000.0 0.4758313069947082 -0.9192209817281509
4616000000.0 0.4802342040392849 -0.8826251955653377
4619000000.0 0.4760012499179791 -0.8818238228426674
4622000000.0 0.45266804378337283 -0.8874114950897098
4625000000.0 0.4402469545911871 -0.8974357082883235
4628000000.0 0.4954169226349671 -0.8958780457524986
4631000000.0 0.46495249716164067 -0.8801711395594828
4634000000.0 0.4636411864154756 -0.8949053568532548
4638000000.0 0.4812294066126722 -0.8980933261456292
4641000000.0 0.47539556359569457 -0.906579392988307
4644000000.0 0.47648200057633505 -0.9066500996433561
4647000000.0 0.47215214777198056 -0.89910503408994
4650000000.0 0.4505857569657581 -0.8963419066996686
4653000000.0 0.4879936096066534 -0.9057221977062903
4656000000.0 0.4468480041982321 -0.89780821491557
4659000000.0 0.44925985969394966 -0.9102322609452104
4662000000.0 0.47991899278600153 -0.8995418703670242
4666000000.0 0.4608683376643464 -0.9131370419576916
4669000000.0 0.47705317655400226 -0.9031715741150272
4672000000.0 0.44490826569512526 -0.9372914430958065
4675000000.0 0.4326884432241809 -0.9162002931505397
4678000000.0 0.45139957698162464 -0.894632155968037
4681000000.0 0.44492996898578685 -0.9194417041663409
4684000000.0 0.4434295322664689 -0.9087426574139649
4688000000.0 0.43142947858556147 -0.9014058042671086
4691000000.0 0.46271333371784956 -0.9025712458088523
4694000000.0 0.4740297256590349 -0.9124487650907611
4697000000.0 0.41406324116267157 -0.8837085793434951
4700000000.0 0.45813277700882965 -0.911244059360482
4703000000.0 0.46360687969101977 -0.8711413455362306
4706000000.0 0.4376793162392303 -0.9100511443822727
4709000000.0 0.461914601414868 -0.9190328675007424
4712000000.0 0.4537085256493718 -0.9065605589991388
4716000000.0 0.44122094272154344 -0.939705905115462
4719000000.0 0.48081754706582835 -0.9140868151888664
4722000000.0 0.4802392728731277 -0.9002087437430525
4725000000.0 0.47292477000721084 -0.9126313516490921
4728000000.0 0.4521882816944788 -0.9052829903120561
4731000000.0 0.48438750828025 -0.9295946528860588
4734000000.0 0.47573169708347574 -0.886107138165273
4738000000.0 0.4582453565630575 -0.923122000562638
4741000000.0 0.47834402947732146 -0.9330117338211801
4744000000.0 0.44512547119334134 -0.9241161528237036
4747000000.0 0.44915905930684996 -0.8860292019211917
4750000000.0 0.4548493936131004 -0.9312302214106297
4753000000.0 0.4719007477790923 -0.8888480328436362
4756000000.0 0.4610174219702058 -0.9112335684347601
4759000000.0 0.45631699154635297 -0.9096687555716367
4762000000.0 0.4650071265908334 -0.9347004858963264
4766000000.0 0.44543083667417294 -0.9068525014427371
4769000000.0 0.4885987733496364 -0.935825270819354
4772000000.0 0.4552614514464772 -0.9172786667510017
4775000000.0 0.4352206237122922 -0.9732763381035194
4778000000.0 0.4570370382952306 -0.9126261359605444
4781000000.0 0.47460410326495195 -0.8853526393682449
4784000000.0 0.4908791659761057 -0.8770139708127975
4788000000.0 0.45536259408439883 -0.9298105116844098
4791000000.0 0.4703590743983142 -0.91256092304422
4794000000.0 0.4902353238744263 -0.90885121989055
4797000000.0 0.4625390970912751 -0.9281758107758862
4800000000.0 0.44487041478993256 -0.9100631593935471
4803000000.0 0.425077621512708 -0.9307560588422589
4806000000.0 0.46105679839252 -0.9363208375844199
4809000000.0 0.42282521982508925 -0.9458886248731945
4812000000.0 0.39931781585913073 -0.9354806652236688
4816000000.0 0.4776965901875114 -0.9061213844262931
4819000000.0 0.4807245527377337 -0.9369037728777921
4822000000.0 0.48669688141887646 -0.9623999352600223
4825000000.0 0.5001968533838649 -0.9258911677092407
4828000000.0 0.4521722692274468 -0.9201343296145063
4831000000.0 0.406372085417957 -0.9815487617613071
4834000000.0 0.4607906601945253 -0.9302137106492776
4838000000.0 0.4408983021267783 -0.9550395562663628
4841000000.0 0.4390549406268712 -0.9105830496995792
4844000000.0 0.49658875607142694 -0.8962704720203487
4847000000.0 0.4569021663105053 -0.8786094652752265
4850000000.0 0.46411660471985183 -0.9296041370060845
4853000000.0 0.4434005006067643 -0.9005645256672092
4856000000.0 0.4393898209995803 -0.89014525027961
4859000000.0 0.4675263876022617 -0.9518991416727804
4862000000.0 0.46327898753629887 -0.886496713975625
4866000000.0 0.44996655491123805 -0.9402942286952561
4869000000.0 0.42148099470506134 -0.9456337788433291
4872000000.0 0.45429452264820236 -0.9513489254283333
4875000000.0 0.5372960746913774 -0.950528016980854
4878000000.0 0.45553981361552304 -0.9405428402191857
4881000000.0 0.45551441802727766 -0.9939466671545273
4884000000.0 0.46816524345891775 -0.9275449143832091
4888000000.0 0.48197024805434374 -0.917628686555761
4891000000.0 0.4843727927988043 -0.9304535422442165
4894000000.0 0.4377177086416939 -0.927997358568719
4897000000.0 0.4720270409490783 -0.8805168742064157
4900000000.0 0.4785849332729851 -0.9231073551093028
4903000000.0 0.4858558125535102 -0.9268072182384421
4906000000.0 0.4908251497546298 -0.9305631467344261
4909000000.0 0.4320266157187015 -0.9296626601456853
4912000000.0 0.45039853086779336 -0.9502042740234634
4916000000.0 0.4763379881108296 -0.9083584600297487
4919000000.0 0.5028169539208157 -0.9426684898186488
4922000000.0 0.4993357733118676 -0.9275121475895196
4925000000.0 0.41791597937295016 -0.9149990986795546
4928000000.0 0.5007926728727644 -0.8946228844998015
4931000000.0 0.4943864899367982 -0.9185217356711058
4934000000.0 0.4649052375421105 -0.8937902738232741
4938000000.0 0.4377471128827296 -0.9217097048662914
4941000000.0 0.44541704074609634 -0.8994241342408061
4944000000.0 0.447051392096517 -0.8600087060706831
4947000000.0 0.4489545993335201 -0.9473673329629076
4950000000.0 0.46756827880292073 -0.8980772836272211
4953000000.0 0.4373725563534081 -0.9576777210261945
4956000000.0 0.4157705850625557 -0.9254455570060997
4959000000.0 0.40896813127358145 -0.926700289994727
4962000000.0 0.47592027671743764 -0.9555982185389216
4966000000.0 0.503152901442835 -0.9340570826748676
4969000000.0 0.5131548565099162 -0.9502252371713252
4972000000.0 0.45883071664865993 -0.9323258319899876
4975000000.0 0.4622361389018177 -0.8785300458627605
4978000000.0 0.4617501494340396 -0.9372569849435508
4981000000.0 0.44079436463799293 -0.9268321477152622
4984000000.0 0.4607777557736049 -0.9179493491041977
4988000000.0 0.4916397967667113 -0.921977604178826
4991000000.0 0.5123201003710777 -0.9242090047961752
4994000000.0 0.500442883753255 -0.9002614909919042
4997000000.0 0.41491814484116873 -0.9285982698369206
5000000000.0 0.49678309452207925 -0.9541896503680891
5003000000.0 0.5000798733018812 -0.934957426625701
5006000000.0 0.4773756845620717 -0.9853428012476454
5009000000.0 0.49829368642066546 -0.9411266909542038
5012000000.0 0.4532093544013832 -0.9287144751841963
5016000000.0 0.525131458146535 -0.9502473942237608
5019000000.0 0.4543261558727736 -0.8899313347604438
5022000000.0 0.45977541962050045 -0.9412123827463468
5025000000.0 0.4945642462323559 -0.9768146998119548
5028000000.0 0.44248135045434894 -0.9265242822235087
5031000000.0 0.45392592915477153 -0.9338556262170599
5034000000.0 0.4438530662806692 -0.9811171465107603
5038000000.0 0.43528735709790567 -0.9147040132264432
5041000000.0 0.5009753348232018 -0.8995602312210782
5044000000.0 0.5002959868793105 -0.8975602817582482
5047000000.0 0.5022817999814648 -0.9498643988936561
5050000000.0 0.5430742751456783 -0.8807836616877571
5053000000.0 0.511714013705487 -0.9708646032146506
5056000000.0 0.5234936553025442 -0.9123908297211734
5059000000.0 0.5426541640056508 -0.9273544241350147
5062000000.0 0.5060294335014218 -0.9545071988762528
5066000000.0 0.48302428577888457 -0.8580246187376381
5069000000.0 0.45024046556202735 -0.911827331404621
5072000000.0 0.4678799683976301 -0.8760702582399025
5075000000.0 0.5143451546616153 -0.9048830470500917
5078000000.0 0.45172227948310795 -0.9170959063953841
5081000000.0 0.45845762276157676 -0.8768394296051228
5084000000.0 0.512236428860067 -0.9106606095298009
5088000000.0 0.5037476036419894 -0.897351235840818
5091000000.0 0.46724832094914426 -0.9245538877272628
5094000000.0 0.4630665016777566 -0.9411065054441136
5097000000.0 0.513955967646631 -0.931806937746732
5100000000.0 0.4751106794437092 -0.8672974391706272
5103000000.0 0.4492301649727414 -0.9485036513488672
5106000000.0 0.5166778961127552 -0.9619111125490669
5109000000.0 0.513881419654914 -0.8574096928497394
5112000000.0 0.4468463188429965 -0.9294748568180402
5116000000.0 0.48173874079577905 -0.8837248576247938
5119000000.0 0.4583112630903335 -0.9314312318448321
5122000000.0 0.4895793692526494 -0.9007715027067056
5125000000.0 0.5461516785515597 -0.8791743264835884
5128000000.0 0.5054360039327619 -0.9274475664375759
5131000000.0 0.5027255497286914 -0.9610275434490034
5134000000.0 0.4563480104294623 -0.9183321067078505
5138000000.0 0.4882216188894828 -0.9331324736607107
5141000000.0 0.5903202556135452 -0.8710732632019613
5144000000.0 0.5229834312920877 -0.906899275559857
5147000000.0 0.513312734912686 -0.9281345032684384
5150000000.0 0.5372623614658605 -0.9457938012960121
5153000000.0 0.5021152166659898 -0.9131697994323014
5156000000.0 0.5199018856568998 -0.9447763866596849
5159000000.0 0.5023464070129191 -0.9316877759607542
5162000000.0 0.47223557755651535 -0.8845812166448542
5166000000.0 0.5038593310647923 -0.9262638078345329
5169000000.0 0.5130040147171484 -0.946654901247524
5172000000.0 0.5615849753013868 -0.8951568982299589
5175000000.0 0.5400428854175686 -0.9454613891402757
