! Created with skrf 1.8.0 (http://scikit-rf.org).
# Hz S RI R 50.0 
!freq ReS11 ImS11
4000000000.0 0.5527490473233594 -0.8248217510732487
4003000000.0 0.5400552808843692 -0.9189733497266468
4006000000.0 0.4940781526233057 -0.8956869570051983
4009000000.0000005 0.5092225881275967 -0.8768853533074403
4011999999.9999995 0.5530562006142979 -0.8656078170178433
4016000000.0 0.5124260929395399 -0.9052822093952293
4019000000.0 0.5273580443332424 -0.8835566592371852
4022000000.0000005 0.590057135202652 -0.8705006518761613
4025000000.0000005 0.498551281607887 -0.957442708030243
4027999999.9999995 0.5299574729468797 -0.9005309506625896
4030999999.9999995 0.5009239531900533 -0.8560937833419221
4034000000.0 0.5040643962658672 -0.8575194704646523
4038000000.0000005 0.5156555714637403 -0.8987518660959097
4041000000.0000005 0.48730943231586765 -0.8702812295473505
4043999999.9999995 0.5766259689598846 -0.9657580048922001
4046999999.9999995 0.6121367089123821 -0.9124939843637749
4050000000.0 0.5046295553793946 -0.9057148692250214
4053000000.0 0.4838800615699133 -0.8523049299225218
4056000000.0 0.5675279880698776 -0.8988041528180044
4059000000.0 0.5108577030307919 -0.8728023588422354
4062000000.0000005 0.5365669035630279 -0.8744668581209568
4066000000.0 0.4828352481763416 -0.8447151743276832
4069000000.0 0.5335584374396707 -0.9325116596034182
4072000000.0 0.5608929037854334 -0.8759966940944739
4075000000.0 0.5693327461309929 -0.8878696931333422
4078000000.0000005 0.5184137130996871 -0.9080444005610974
4081000000.0000005 0.5632727781337491 -0.8626295324749551
4083999999.9999995 0.48443034716054695 -0.8782815662414885
4088000000.0 0.5555812006329566 -0.8605913395157184
4091000000.0 0.5438410181744486 -0.9342156012516073
4094000000.0000005 0.5492790475552457 -0.8450397737828633
4097000000.0000005 0.5069861648044353 -0.8612917087363148
4099999999.9999995 0.4902658703474681 -0.8693665703594551
4102999999.9999995 0.5562234760499863 -0.8863230709743581
4106000000.0 0.52730126718714 -0.8923740611241155
4109000000.0 0.5279308503232253 -0.9036559025492559
4112000000.0 0.5122301118401723 -0.8678587997349632
4115999999.9999995 0.5536866853792644 -0.8769638267142879
4119000000.0 0.5183742253563008 -0.8904526612347256
4122000000.0 0.4822039044246886 -0.9130601675705804
4125000000.0 0.5276230661161947 -0.9271992128945541
4128000000.0 0.536951603340133 -0.8581980353465788
4131000000.0 0.47354901537994776 -0.8700130638348705
4134000000.0000005 0.5323034079371282 -0.8580337499369175
4138000000.0 0.4891462612678189 -0.8887609120726311
4141000000.0 0.5192069584303645 -0.8753076790369141
4144000000.0 0.5589095431246103 -0.8419323840464286
4147000000.0000005 0.5172683303305212 -0.8673364779151261
4150000000.0000005 0.5191671594716513 -0.9015983603500238
4152999999.9999995 0.5465266761319529 -0.8821085281016909
4155999999.9999995 0.5356747835833351 -0.9220357571962047
4159000000.0 0.5250963035460596 -0.851274388370831
4162000000.0 0.5162334776469066 -0.8517317027166288
4166000000.0000005 0.515988045019942 -0.8947219191403251
4168999999.9999995 0.5103757009626796 -0.8524643272517568
4171999999.9999995 0.5392769144797114 -0.8693845554687115
4175000000.0 0.5491387971311511 -0.8806476474707549
4178000000.0 0.5372113614143624 -0.8867132696809344
4181000000.0 0.547194592164091 -0.8955244301292574
4184000000.0 0.5448450393023883 -0.8672055902735739
4187999999.9999995 0.5293831404048053 -0.8666569295297728
4191000000.0 0.538495813291004 -0.8468012966040969
4194000000.0 0.5330398102124693 -0.8551931055795413
4197000000.0 0.5493048905350121 -0.8873804358669831
4200000000.0 0.5271270482319292 -0.8678233915382985
4203000000.0000005 0.5786838511078535 -0.8609960721416081
4206000000.0000005 0.523503143933512 -0.8915337989328642
4208999999.9999995 0.5248153572344095 -0.8484623458802513
4211999999.9999995 0.5081971988037941 -0.8809133258017542
4216000000.0 0.537584818762544 -0.8733341165861517
4219000000.0000005 0.5321527801793418 -0.8597798198595058
4222000000.0000005 0.5306221195694569 -0.8722149403344238
4224999999.9999995 0.5339387541377669 -0.8554002547870344
4227999999.9999995 0.531931939263343 -0.8836483664162497
4231000000.0 0.5409655786953679 -0.8574610876554143
4234000000.0 0.515155811079734 -0.8791161272604145
4238000000.0000005 0.5231454761609298 -0.8787893166730425
4240999999.9999995 0.5056264396454434 -0.8508035038323843
4244000000.0 0.5266467056443944 -0.8673747230062805
4247000000.0 0.5306195719758049 -0.8618649920698135
4250000000.0 0.504852424258185 -0.8645359038614031
4253000000.0 0.49914033030029314 -0.8482961224894264
4256000000.0 0.5218082478351065 -0.9067496680042932
4259000000.0000005 0.5030565773701341 -0.8521482748256793
4261999999.9999995 0.5016439491043698 -0.8724503235250233
4266000000.0 0.49506003012902033 -0.9082287606171706
4269000000.0 0.5280184024105272 -0.8750528826593408
4272000000.0000005 0.5247862331781662 -0.8491223277501433
4275000000.0000005 0.5378843618246515 -0.8814223922597092
4277999999.9999995 0.5396546630727015 -0.86549382334309
4280999999.9999995 0.5231436921377655 -0.8766476701084128
4284000000.0 0.4934942829412279 -0.8932934228573997
4288000000.0000005 0.5469160805526175 -0.8286287555741698
4291000000.0000005 0.5171497636056603 -0.8536551404311405
4293999999.9999995 0.5362746199659049 -0.8720978398233601
4297000000.0 0.5319521599832053 -0.8510190653843697
4300000000.0 0.5266345796708942 -0.8557557089352575
4303000000.0 0.5244918187015095 -0.8664082441457124
4306000000.0 0.5130845640077351 -0.8500518242998579
4309000000.0 0.5233535499691411 -0.8434450922723415
4312000000.0 0.5633812112547157 -0.8968216121246478
4316000000.0 0.5418633331606177 -0.8652555247578396
4319000000.0 0.5325853648908128 -0.8412054339503797
4322000000.0 0.5094904899274998 -0.8646297811126853
4325000000.0 0.5349304595533577 -0.8625737275091665
4328000000.0 0.5075908075152242 -0.8597783970222447
4331000000.0 0.4992795581426166 -0.9146640424893734
4334000000.0 0.512826305720327 -0.8694591016462176
4338000000.0 0.5411948557664955 -0.836689298484993
4341000000.0 0.5539042083418448 -0.8714360428138577
4344000000.0 0.553459734850913 -0.8936773184249177
4347000000.0 0.5220937664728184 -0.8909266768377601
4350000000.0 0.48889257430386734 -0.8399306095885057
4353000000.0 0.4965943754898158 -0.8373155036731127
4356000000.0 0.47458734187029566 -0.8573522458162844
4359000000.0 0.5036995401791564 -0.8355816210304337
4362000000.0 0.4990330709237383 -0.8938860491303832
4366000000.0 0.515538365105912 -0.8904357860140899
4369000000.0 0.48082477073911795 -0.8356993352018514
4372000000.0 0.4784712792159112 -0.868789648084203
4375000000.0 0.5245651249086066 -0.867787613179009
4378000000.0 0.5033539189910002 -0.8317038414439586
4381000000.0 0.518072035453486 -0.8421634289999101
4384000000.0 0.5215732538011193 -0.9340204874926443
4388000000.0 0.5100216961713613 -0.8474421916642968
4391000000.0 0.5270201700743962 -0.880516541628936
4394000000.0 0.5015431425883251 -0.8458987749537408
4397000000.0 0.49516754113778255 -0.879211698254944
4400000000.0 0.5160534488017584 -0.894466115799472
4403000000.0 0.5067862936619367 -0.8754744465843735
4406000000.0 0.5046423851523619 -0.8736101664457031
4409000000.0 0.507796472435915 -0.9052883361261406
4412000000.0 0.4711836527381241 -0.8905288795926278
4416000000.0 0.4924883004659871 -0.8772928893386306
4419000000.0 0.4942279133083387 -0.8864029446639922
4422000000.0 0.5130966531822461 -0.8579573730313969
4425000000.0 0.5415181273916513 -0.8711000102178056
4428000000.0 0.49379362293775153 -0.8774437637954491
4431000000.0 0.5108087626840094 -0.892689117212697
4434000000.0 0.49985274181522166 -0.8798236994187105
4438000000.0 0.5012017782680414 -0.8829790401221971
4441000000.0 0.5164210403111277 -0.8750195815094443
4444000000.0 0.5014495611624443 -0.8563952426432435
4447000000.0 0.4930418088993077 -0.8760510649789515
4450000000.0 0.5172186291070836 -0.8516144836080166
4453000000.0 0.5121541013162789 -0.8980741225499308
4456000000.0 0.48138107552410125 -0.8651511839792719
4459000000.0 0.4675957568713811 -0.8383854668669584
4462000000.0 0.5143313956748129 -0.9321735985839245
4466000000.0 0.4945740087969225 -0.907210753585838
4469000000.0 0.5273287185912494 -0.8648413000301554
4472000000.0 0.49353556461316384 -0.9080620987272408
4475000000.0 0.5024984498346629 -0.8576116484554333
4478000000.0 0.5085167547977618 -0.9304352236604335
4481000000.0 0.46505133033889934 -0.8633974500430206
4484000000.0 0.4595418992891022 -0.9027656595014759
4488000000.0 0.4788247803796199 -0.864274591064321
4491000000.0 0.47742187357985183 -0.9005208853796638
4494000000.0 0.47957579643196463 -0.8712937976172679
4497000000.0 0.4932241787401267 -0.8528975598082277
4500000000.0 0.48894145558287777 -0.8687616438962145
4503000000.0 0.5112988229316674 -0.9069654001686007
4506000000.0 0.49681894241906166 -0.8799369847485699
4509000000.0 0.48947843797456453 -0.8714394047932668
4512000000.0 0.47118545141671037 -0.8727081247808635
4516000000.0 0.521242434340762 -0.9122665889951332
4519000000.0 0.49188738485201144 -0.8523403191683243
4522000000.0 0.48062764950913744 -0.8825820448293182
4525000000.0 0.5199584659945024 -0.8643683263485038
4528000000.0 0.4899554044946948 -0.9037026476287462
4531000000.0 0.5161438941920722 -0.8711459775927823
4534000000.0 0.47300375934577266 -0.8626348238329841
4538000000.0 0.49166901790834344 -0.882634173904767
4541000000.0 0.46462050262310667 -0.887698601662853
4544000000.0 0.47756929615373833 -0.871877424467725
4547000000.0 0.507358050000321 -0.8610064975622612
4550000000.0 0.4663063540551661 -0.9183900579163708
4553000000.0 0.4655862651358917 -0.8962905601337084
4556000000.0 0.44743089797158575 -0.8574449947035558
4559000000.0 0.4978279689112586 -0.8822545312314389
4562000000.0 0.5005391069181202 -0.9005937624770921
4566000000.0 0.4887026179038395 -0.8826572518934663
4569000000.0 0.4731936233081818 -0.8822627222149695
4572000000.0 0.4745966916014162 -0.8830338020850825
4575000000.0 0.46283252447685386 -0.8979692330578289
4578000000.0 0.4989609251873556 -0.8889658169566483
4581000000.0 0.4832117657488547 -0.8947821927157771
4584000000.0 0.46474900699875954 -0.8922123072523069
4588000000.0 0.48030016755725125 -0.9117536723630235
4591000000.0 0.48557100840984324 -0.8890953197441807
4594000000.0 0.46212018106480135 -0.8886036725615247
4597000000.0 0.4921763314024884 -0.8816464696625056
4600000000.0 0.45691027524497124 -0.8904854994669879
4603000000.0 0.462807168215301 -0.9005514543615166
4606000000.0 0.48529417392409535 -0.8940699808924493
4609000000.0 0.47331703044593754 -0.8966205180135499
4612000000.0 0.4671608809104048 -0.8868979879479113
4616000000.0 0.4579810312774906 -0.8709681987021781
4619000000.0 0.47578548801837883 -0.8812808036916118
4622000000.0 0.47119375878042696 -0.8925262350131823
4625000000.0 0.4295952878903792 -0.8732907993545301
4628000000.0 0.47228308038706 -0.8706541890170746
4631000000.0 0.4646893782406952 -0.8947401730595514
4634000000.0 0.460772214783844 -0.8987277478862983
4638000000.0 0.4648331463671055 -0.8858701178690639
4641000000.0 0.46783524924450914 -0.891691681220087
4644000000.0 0.46776847803120236 -0.8962110304663939
4647000000.0 0.47165478865471516 -0.8988246771666157
4650000000.0 0.4578933728742737 -0.8952429331834032
4653000000.0 0.4817184697631446 -0.8909039775470786
4656000000.0 0.4540476383032858 -0.9008131414649005
4659000000.0 0.45108962354165405 -0.8988296395431772
4662000000.0 0.459782898109906 -0.8964453263119835
4666000000.0 0.45116642866735485 -0.8840480136955915
4669000000.0 0.4800714835686184 -0.9006523273755768
4672000000.0 0.44455068829522193 -0.9252620653587991
4675000000.0 0.44504388694582425 -0.930140562729459
4678000000.0 0.4562040804703288 -0.8967413437112011
4681000000.0 0.4303156060680715 -0.9343477081563296
4684000000.0 0.43830546331400366 -0.9226982408497443
4688000000.0 0.44463226311936493 -0.8839947198103227
4691000000.0 0.4873510913465878 -0.9158966003153084
4694000000.0 0.47080384252446134 -0.8823599580986904
4697000000.0 0.4242082662618889 -0.8585228188917486
4700000000.0 0.45463971173841317 -0.8969438168131655
4703000000.0 0.459554534681706 -0.8553414303037378
4706000000.0 0.4603853606267463 -0.8949348645700599
4709000000.0 0.4401195731279454 -0.9104754416950697
4712000000.0 0.4556346693598835 -0.9087564135120038
4716000000.0 0.4527004416795855 -0.9236209491477736
4719000000.0 0.4906053779363296 -0.8945649132424909
4722000000.0 0.4760289584680452 -0.9102453524562167
4725000000.0 0.4618745060120303 -0.9166622564953475
4728000000.0 0.4473581039145054 -0.882086485781189
4731000000.0 0.4824277098391483 -0.9057311196301686
4734000000.0 0.47938887183591367 -0.8887318765293764
4738000000.0 0.5064075842810404 -0.952161701209744
4741000000.0 0.4919211657017369 -0.9252578599473066
4744000000.0 0.4322315303718466 -0.9246765959132232
4747000000.0 0.4559743241593942 -0.8943155152085804
4750000000.0 0.4683983106329571 -0.9342482813857665
4753000000.0 0.47954377919304053 -0.9325269570146726
4756000000.0 0.4587406847659087 -0.9152608982583099
4759000000.0 0.4815260272042121 -0.899854826178141
4762000000.0 0.4344696136041576 -0.9505683331796336
4766000000.0 0.47199651820798144 -0.9198030790230374
4769000000.0 0.4710033144539159 -0.904207225107903
4772000000.0 0.45041292049859694 -0.9099963411756035
4775000000.0 0.4634689545088665 -0.9682317845944175
4778000000.0 0.4461188024592149 -0.9331565553695351
4781000000.0 0.4747408544674473 -0.9048442581556935
4784000000.0 0.48051564437786165 -0.8935181691421641
4788000000.0 0.4310683077466252 -0.9305670519390163
4791000000.0 0.4396059340319006 -0.9015387381531701
4794000000.0 0.48349578071883126 -0.9339532219787071
4797000000.0 0.46227888688985985 -0.9031171810744616
4800000000.0 0.4370394611976064 -0.8969672884283756
4803000000.0 0.3941545033328885 -0.9393990036958771
4806000000.0 0.453376414767456 -0.9257526237156529
4809000000.0 0.4043837686831365 -0.9260509979684728
4812000000.0 0.41006970690102185 -0.9114540606532221
4816000000.0 0.46948907478445046 -0.8746957822099746
4819000000.0 0.49001717696887037 -0.9180093166029838
4822000000.0 0.4838806726492557 -0.9354981819820452
4825000000.0 0.49734847650575853 -0.9278822895714285
4828000000.0 0.4398335757151678 -0.9145459534024325
4831000000.0 0.4224299202659364 -0.9569664465349486
4834000000.0 0.48356053932757803 -0.9236514691629752
4838000000.0 0.45528630493956024 -0.9368850122392582
4841000000.0 0.4286056712936076 -0.9153861805724665
4844000000.0 0.4993249345412325 -0.9067985855562648
4847000000.0 0.4604643037720271 -0.8651923979147753
4850000000.0 0.44001630537399344 -0.936339679895529
4853000000.0 0.44592683545622647 -0.8789141730910834
4856000000.0 0.4424364308514813 -0.9118204454104761
4859000000.0 0.46856772111716716 -0.953987732925524
4862000000.0 0.47739400315903446 -0.901317949335755
4866000000.0 0.4291270101854678 -0.9311794573267707
4869000000.0 0.4469517116321374 -0.9327931026431611
4872000000.0 0.43178464590829757 -0.948806395455948
4875000000.0 0.5353794473204652 -0.9139925477104608
4878000000.0 0.4717271456326541 -0.9173026506712119
4881000000.0 0.45652304621513334 -0.9716942487919572
4884000000.0 0.48198306160487686 -0.9054579938734703
4888000000.0 0.4829840518254994 -0.8901241954642789
4891000000.0 0.4870054447711528 -0.924359794305568
4894000000.0 0.44535119879494756 -0.9119841128240511
4897000000.0 0.4761558309472493 -0.902001109503849
4900000000.0 0.4690593039800271 -0.957249477792399
4903000000.0 0.47656947807688615 -0.91619859836928
4906000000.0 0.4788239013572418 -0.9344829193594315
4909000000.0 0.47916593418164505 -0.9413210441581973
4912000000.0 0.4840576165832153 -0.9414148648005765
4916000000.0 0.4887824320232455 -0.9600650481690978
4919000000.0 0.5132643299572611 -0.9338551704656165
4922000000.0 0.4972236385324283 -0.9152481257171776
4925000000.0 0.4193335498964866 -0.9280719457454181
4928000000.0 0.4737686804697023 -0.8807489756522142
4931000000.0 0.47295691817980734 -0.90446610824948
4934000000.0 0.4489339764792683 -0.8693491657136357
4938000000.0 0.4618905299397419 -0.9667066344987375
4941000000.0 0.4679150537356143 -0.8564858944202786
4944000000.0 0.4532501506481349 -0.8691970037448377
4947000000.0 0.4229774780154047 -0.8935649079944845
4950000000.0 0.43481476144386205 -0.8962079141023095
4953000000.0 0.4605122820789389 -0.9524945273355572
4956000000.0 0.42530180671732776 -0.9307300876809225
4959000000.0 0.42440382428777956 -0.9031396254068367
4962000000.0 0.49113400446234623 -0.9643394296286694
4966000000.0 0.4887667437768649 -0.9340848372539802
4969000000.0 0.5225792018596109 -0.9584540650823035
4972000000.0 0.4547106427709812 -0.9429914812585258
4975000000.0 0.5034985134750667 -0.8854565590441484
4978000000.0 0.4673105686678434 -0.9132644751195689
4981000000.0 0.447584013292152 -0.951570524448845
4984000000.0 0.4390678987107154 -0.9140647530828869
4988000000.0 0.48885763586115394 -0.8941558254661855
4991000000.0 0.5202365471488052 -0.9240683109408117
4994000000.0 0.461295337464502 -0.8756820005606685
4997000000.0 0.4609750367315104 -0.9720755026519968
5000000000.0 0.47288875891231347 -0.9279705764886149
5003000000.0 0.48455748262740383 -0.9751738050033171
5006000000.0 0.5362929436572866 -0.9641635430497556
5009000000.0 0.48634291309656663 -0.9290019026070029
5012000000.0 0.4369460532264869 -0.9234072964730744
5016000000.0 0.5108015413409294 -0.9106873018729061
5019000000.0 0.4516864396956159 -0.9049695626887536
5022000000.0 0.49632307099884054 -0.9295537276945984
5025000000.0 0.5104901794692824 -0.9842303881862091
5028000000.0 0.4580624084105288 -0.9244849566371376
5031000000.0 0.4839510685267846 -0.9151183441276433
5034000000.0 0.4482733129922361 -0.9270477558473182
5038000000.0 0.44414365859731725 -0.9218439097808695
5041000000.0 0.51297394791728 -0.8924257236989221
5044000000.0 0.5039956632655649 -0.8994872223327863
5047000000.0 0.4817109325619512 -0.9021500981365183
5050000000.0 0.5508896721816917 -0.85003531770055
5053000000.0 0.5051178011752632 -0.9531525795190512
5056000000.0 0.4681264394260556 -0.8853516923019173
5059000000.0 0.5425650350263184 -0.9204242089049819
5062000000.0 0.4455556409731049 -0.9339553182803111
5066000000.0 0.5140599513744876 -0.9187560070434488
5069000000.0 0.4864805552002843 -0.9125857546144402
5072000000.0 0.5007932821021956 -0.9194993360410697
5075000000.0 0.5063951058187945 -0.8730434453670833
5078000000.0 0.4464623646796717 -0.9387798457358245
5081000000.0 0.4427871518956433 -0.902183924594842
5084000000.0 0.5054334420434643 -0.9118656564521628
5088000000.0 0.5312340749540048 -0.8960508519373468
5091000000.0 0.4842950952471176 -0.8999273650527783
5094000000.0 0.47753566085156396 -0.8952844019311145
5097000000.0 0.5100525082591525 -0.8783307745728073
5100000000.0 0.44281686502550655 -0.9063020104804997
5103000000.0 0.47072672652040276 -0.9211086659702573
5106000000.0 0.552620002927534 -0.9738591340502427
5109000000.0 0.5057299199699461 -0.8846184986222391
5112000000.0 0.4592831272781455 -0.9157944798843815
5116000000.0 0.46623319360829046 -0.8827836547642477
5119000000.0 0.5230998705689662 -0.8798115264271102
5122000000.0 0.5057783468440249 -0.9002904482429028
5125000000.0 0.5144999889558226 -0.8859963929434673
5128000000.0 0.46285365929069894 -0.9475337401276065
5131000000.0 0.5066213439671172 -0.9411937988349545
5134000000.0 0.4692360447457709 -0.926615769991869
5138000000.0 0.4999706236689561 -0.9050727206352965
5141000000.0 0.5220831248981124 -0.8905540329172352
5144000000.0 0.535740281115506 -0.8789585607434445
5147000000.0 0.5198258837179873 -0.94564953515062
5150000000.0 0.5360980254926018 -0.9072029056176644
5153000000.0 0.5035647327254738 -0.9107870770777711
5156000000.0 0.469523784072442 -0.8626273757305665
5159000000.0 0.5663896451052264 -0.9514466134949116
5162000000.0 0.4674059513277745 -0.9064111502346274
5166000000.0 0.4978242893662219 -0.9523843669162814
5169000000.0 0.5321296359096905 -0.9255932775438573
5172000000.0 0.4787342144684299 -0.8633910612971989
5175000000.0 0.5539610419308821 -0.9273861335313394
