! Created with skrf 1.8.0 (http://scikit-rf.org).
# Hz S RI R 50.0 
!freq ReS11 ImS11
4000000000.0 0.5612912248455919 -0.864433436378994
4003000000.0 0.5522563874424392 -0.9283316579900929
4006000000.0 0.5255739793688639 -0.8729562021154341
4009000000.0000005 0.5537515004604256 -0.8814668582454709
4011999999.9999995 0.6261376858352199 -0.8707837273596717
4016000000.0 0.567603320848944 -0.908614787619898
4019000000.0 0.5824713539735907 -0.860857805294559
4022000000.0000005 0.6237342219266628 -0.837467200608956
4025000000.0000005 0.527387331745653 -0.8946248464706056
4027999999.9999995 0.48954584550001534 -0.8457467796009421
4030999999.9999995 0.514713375454585 -0.849754461215149
4034000000.0 0.5306113769390913 -0.8584540762351996
4038000000.0000005 0.5629537536181275 -0.9064035286439878
4041000000.0000005 0.5514450918036945 -0.8659321267588272
4043999999.9999995 0.5642678349591197 -0.9104619086393381
4046999999.9999995 0.5725483971203875 -0.891153869708007
4050000000.0 0.5491098009011857 -0.9026666326297729
4053000000.0 0.5160520031316462 -0.8554843503448156
4056000000.0 0.5184515724948293 -0.8622105934644886
4059000000.0 0.5628502550608427 -0.8678793590909384
4062000000.0000005 0.5381410872902246 -0.8810919685685215
4066000000.0 0.5155645971281149 -0.8497080980784025
4069000000.0 0.4918870013649923 -0.9282501658939154
4072000000.0 0.5529308326245417 -0.8643133607441633
4075000000.0 0.5951720777176616 -0.8928825767963557
4078000000.0000005 0.5221564445442802 -0.8665779625520633
4081000000.0000005 0.5961781261813375 -0.8771617773160745
4083999999.9999995 0.5187451736676212 -0.8821191682062266
4088000000.0 0.5567298213581053 -0.8376558345851924
4091000000.0 0.5595256850098569 -0.9438031470407001
4094000000.0000005 0.5128419340641879 -0.8856698861931818
4097000000.0000005 0.5362478105354216 -0.8905370252288053
4099999999.9999995 0.5510596365279885 -0.8731014554046534
4102999999.9999995 0.5779785315722189 -0.8579466464230561
4106000000.0 0.5526127781500545 -0.884690246139542
4109000000.0 0.5435032187694834 -0.8833630152701966
4112000000.0 0.5481176400586043 -0.8808490233969132
4115999999.9999995 0.5372764214143074 -0.8472718778297126
4119000000.0 0.5328483991513758 -0.8878121980309525
4122000000.0 0.5570044815995004 -0.8687221087609523
4125000000.0 0.5163721245618537 -0.9069389811146102
4128000000.0 0.5293844517620916 -0.8300567605804525
4131000000.0 0.5144173924894012 -0.855119654628623
4134000000.0000005 0.5454112016962722 -0.8652674131874605
4138000000.0 0.5186775635587848 -0.8385367855689718
4141000000.0 0.5458273180412515 -0.8504044440981819
4144000000.0 0.5611423210938524 -0.8543572211929217
4147000000.0000005 0.5219972343926034 -0.8715796028773971
4150000000.0000005 0.5634656398668398 -0.8869574981894431
4152999999.9999995 0.5569001155606567 -0.850046908730006
4155999999.9999995 0.5949362673460838 -0.8825846778403975
4159000000.0 0.52981491882457 -0.8608531642610612
4162000000.0 0.5462475340009456 -0.8462123759042204
4166000000.0000005 0.5526121182420163 -0.8536475010154722
4168999999.9999995 0.5310680818067179 -0.842498979955808
4171999999.9999995 0.5457192351818725 -0.8887140639664561
4175000000.0 0.5409784168677074 -0.8732919183238037
4178000000.0 0.5607123455233929 -0.8699673232933558
4181000000.0 0.5454595622478584 -0.8659679319019892
4184000000.0 0.5347737029701022 -0.8564716190197382
4187999999.9999995 0.5433527485560388 -0.8581612396216309
4191000000.0 0.5774846864762536 -0.8375212717702757
4194000000.0 0.5481830847814576 -0.8406466473248069
4197000000.0 0.5690652019549912 -0.8710618646954936
4200000000.0 0.5594739406168253 -0.8517426579260943
4203000000.0000005 0.5794021660516115 -0.8628382061197301
4206000000.0000005 0.5493395299393313 -0.8777182574375252
4208999999.9999995 0.5325089599681776 -0.8199474129741801
4211999999.9999995 0.5254645820087623 -0.852296609618283
4216000000.0 0.5412000208518408 -0.8570547509330494
4219000000.0000005 0.5597026599310395 -0.8692398589262613
4222000000.0000005 0.5328527209189525 -0.8713413043223771
4224999999.9999995 0.5555884285725345 -0.8606436144049513
4227999999.9999995 0.5457915540338677 -0.8586492948915068
4231000000.0 0.5343016670293272 -0.8536627358312038
4234000000.0 0.5442721707271875 -0.868008202450359
4238000000.0000005 0.5342822450186839 -0.8689455321975422
4240999999.9999995 0.5292116640053904 -0.8545364269893809
4244000000.0 0.5455503100670408 -0.8448958382853429
4247000000.0 0.5414595026917226 -0.8459764925761021
4250000000.0 0.5309248772517645 -0.841869855904284
4253000000.0 0.523471795289338 -0.8315339888426017
4256000000.0 0.5506616212472993 -0.8846467996509555
4259000000.0000005 0.5314155584818028 -0.8453211651027858
4261999999.9999995 0.518234886672787 -0.844997730336323
4266000000.0 0.5362147265275232 -0.8741465827503397
4269000000.0 0.5607908636329834 -0.8295884982398717
4272000000.0000005 0.5649836005703813 -0.8405323268940776
4275000000.0000005 0.5409495227177332 -0.8528771306649179
4277999999.9999995 0.568841661796079 -0.8836376737788797
4280999999.9999995 0.5627423838391657 -0.8657635100718613
4284000000.0 0.5217508759993363 -0.8842457776624928
4288000000.0000005 0.5592494559720147 -0.8420128170932141
4291000000.0000005 0.5369925720613722 -0.8449112927034482
4293999999.9999995 0.543754150089732 -0.8446374740120839
4297000000.0 0.5681827553007026 -0.820738755513406
4300000000.0 0.5357402328132023 -0.8592780585667211
4303000000.0 0.5339761836451379 -0.8559204932713014
4306000000.0 0.5707041805851703 -0.8448287742531292
4309000000.0 0.5256387006393984 -0.8192838803197425
4312000000.0 0.5952506209389128 -0.8581729603600071
4316000000.0 0.5855874268694482 -0.8570686756403875
4319000000.0 0.5321948108623071 -0.8182965451956925
4322000000.0 0.5166346309049303 -0.8424344280059027
4325000000.0 0.5358552563921852 -0.8386452901597462
4328000000.0 0.5501454225862944 -0.8463089410377099
4331000000.0 0.5096794853403178 -0.8803188841449462
4334000000.0 0.5271261907993158 -0.8541059367335087
4338000000.0 0.6014208246247492 -0.8455570145387097
4341000000.0 0.5706108621236596 -0.8479554970558767
4344000000.0 0.5934747179735174 -0.8774913339644835
4347000000.0 0.5361851440481744 -0.8756990693437555
4350000000.0 0.5175668054457372 -0.834151603355852
4353000000.0 0.5327854331024058 -0.82145194727412
4356000000.0 0.5085286931858604 -0.8525690639757724
4359000000.0 0.5323388416410195 -0.8238360323032481
4362000000.0 0.5116332967739193 -0.8901511885074657
4366000000.0 0.5466839393306157 -0.8944321186818478
4369000000.0 0.5187080806418337 -0.8291793793037705
4372000000.0 0.5013063200855521 -0.8669505342241224
4375000000.0 0.5484175308107903 -0.8486130900303754
4378000000.0 0.5285179082129455 -0.8263753871181836
4381000000.0 0.5494039624485227 -0.8475162490340188
4384000000.0 0.5373935024930272 -0.9204169485309063
4388000000.0 0.5385095803794868 -0.8381878232292634
4391000000.0 0.5575569689631833 -0.8569381136380668
4394000000.0 0.5174032604241934 -0.8282210931920532
4397000000.0 0.5359738359247886 -0.854235328584818
4400000000.0 0.5396448818652058 -0.8790844767160885
4403000000.0 0.5414695836786404 -0.8710989181123987
4406000000.0 0.5248890978699389 -0.8733053108947728
4409000000.0 0.5487296830258999 -0.8809102585224289
4412000000.0 0.4745299027680866 -0.8743340400206323
4416000000.0 0.5221294789107667 -0.84125800521967
4419000000.0 0.5111948878259821 -0.8698321344752652
4422000000.0 0.5516918361444954 -0.8472855817835974
4425000000.0 0.5555028848253051 -0.8616222008402872
4428000000.0 0.5255066961088526 -0.8554362783961525
4431000000.0 0.5470163853785809 -0.8853409420330917
4434000000.0 0.5239611105049726 -0.8497452540853999
4438000000.0 0.5449958711985337 -0.8821090319807472
4441000000.0 0.5451324838671311 -0.8770015845658583
4444000000.0 0.519371077365989 -0.8351742107691216
4447000000.0 0.5067525390315863 -0.8555574568273177
4450000000.0 0.5367378394060787 -0.838839392668593
4453000000.0 0.5385594068695618 -0.8870883683397968
4456000000.0 0.5129997361212085 -0.8472549868272505
4459000000.0 0.4878752058806937 -0.8304094703398108
4462000000.0 0.5585959375775043 -0.911806909284852
4466000000.0 0.520752911459746 -0.9037255811912113
4469000000.0 0.5495054377375488 -0.8522304338435167
4472000000.0 0.5205359210168601 -0.8875070129275524
4475000000.0 0.5159445909194549 -0.8444004932390664
4478000000.0 0.5398551197125934 -0.9009059841530282
4481000000.0 0.49424076192700245 -0.8472885187227399
4484000000.0 0.47030024360743206 -0.8782616279601717
4488000000.0 0.5154513542067372 -0.8587379647776232
4491000000.0 0.5145258188573324 -0.8641091459347074
4494000000.0 0.53479308247421 -0.8514584442604282
4497000000.0 0.524022489873825 -0.8320227993346667
4500000000.0 0.5220940250905877 -0.8720033725626087
4503000000.0 0.5437194380987432 -0.8932235833636213
4506000000.0 0.5191463002246397 -0.8712621869977044
4509000000.0 0.4968534380434911 -0.8527876320176706
4512000000.0 0.5094543094689664 -0.8648883903171953
4516000000.0 0.5441539386825084 -0.881537221111075
4519000000.0 0.49853969507140283 -0.8374000262857945
4522000000.0 0.5059405982004959 -0.887021136341172
4525000000.0 0.5442695277345172 -0.828288174302588
4528000000.0 0.5247789399456182 -0.8844369036371684
4531000000.0 0.5292945624232611 -0.8568879740526268
4534000000.0 0.5153938527478324 -0.8518018338552265
4538000000.0 0.5073988890023958 -0.8718892595818353
4541000000.0 0.47570893596125297 -0.8729060799924357
4544000000.0 0.5304161924516047 -0.8468234564474686
4547000000.0 0.5230002784283097 -0.8547732408413611
4550000000.0 0.5076896373845581 -0.8711853642524814
4553000000.0 0.5005401410271417 -0.8773863930908805
4556000000.0 0.4791579566777988 -0.8489710912204286
4559000000.0 0.5031918899109225 -0.8659909771670136
4562000000.0 0.527416752084307 -0.8732171039783867
4566000000.0 0.5105435485269705 -0.8930449190792944
4569000000.0 0.50619565227705 -0.8713657464326798
4572000000.0 0.5056042722210162 -0.8364080407367747
4575000000.0 0.5011081297249209 -0.8848569301984692
4578000000.0 0.5426062224280248 -0.8666318529064354
4581000000.0 0.4999846235125539 -0.8812988446994822
4584000000.0 0.5016571380762042 -0.85182500966235
4588000000.0 0.5128671984013874 -0.8799442400405697
4591000000.0 0.5180141880612253 -0.8717278976180993
4594000000.0 0.48880530882184414 -0.8823973767015492
4597000000.0 0.5066388166989135 -0.9000459865388468
4600000000.0 0.47289214351719944 -0.8829097287587615
4603000000.0 0.48810236989249045 -0.866111537824597
4606000000.0 0.5134812287063641 -0.8812583493832858
4609000000.0 0.5003169187722369 -0.8624774100982109
4612000000.0 0.5052328720091647 -0.8971810853432455
4616000000.0 0.5016338166607822 -0.8731808316073161
4619000000.0 0.5219986535630012 -0.8842827956508248
4622000000.0 0.49401372310597214 -0.8848284356174043
4625000000.0 0.4698538616244244 -0.8490062978340824
4628000000.0 0.5156155688735629 -0.8626736756496574
4631000000.0 0.4856671893762631 -0.8674758795571071
4634000000.0 0.5035889477471251 -0.8958703629184996
4638000000.0 0.4878538355371671 -0.8853744466128691
4641000000.0 0.5000876984110542 -0.8688406050975785
4644000000.0 0.49659269567766806 -0.8715425471331757
4647000000.0 0.5107805263252142 -0.8946394454943036
4650000000.0 0.47745877371687906 -0.8801159255967468
4653000000.0 0.5167778643276782 -0.8760120246530007
4656000000.0 0.47690245925689795 -0.8824045148377104
4659000000.0 0.475764756552848 -0.8702611372168306
4662000000.0 0.4971586043148441 -0.8914316102159828
4666000000.0 0.46827303224658595 -0.8882012827588155
4669000000.0 0.5034047509227979 -0.8826050192800309
4672000000.0 0.4881539177131402 -0.9042522326530257
4675000000.0 0.47414797533979103 -0.8904162652545193
4678000000.0 0.4804562749898839 -0.8489438439982142
4681000000.0 0.4986896617363936 -0.894815199129625
4684000000.0 0.44730915098342117 -0.906039591384542
4688000000.0 0.4533478330783683 -0.8819428802864218
4691000000.0 0.5059920559065854 -0.8759249256233259
4694000000.0 0.4928692467805243 -0.8539294938431016
4697000000.0 0.44510277839523626 -0.8594253953185231
4700000000.0 0.4899773907055439 -0.873584651919183
4703000000.0 0.49471455860790525 -0.861272497743132
4706000000.0 0.49338164864656536 -0.8768155079016055
4709000000.0 0.48418975108711837 -0.8969968981484704
4712000000.0 0.5006637181376974 -0.8792408921870143
4716000000.0 0.4843193190719882 -0.9051875379619283
4719000000.0 0.5054076655283002 -0.88433508283359
4722000000.0 0.5131604454362042 -0.8725578954449127
4725000000.0 0.4693537122435755 -0.8466594329688658
4728000000.0 0.47950299683130265 -0.9022587340017977
4731000000.0 0.5226950508467869 -0.919373311533813
4734000000.0 0.5049297727315831 -0.8818663940621246
4738000000.0 0.5248830712861491 -0.8896007984434701
4741000000.0 0.4866925305975035 -0.9288815769520223
4744000000.0 0.45352642764329903 -0.8978971776693263
4747000000.0 0.47559571706295123 -0.8711728571868604
4750000000.0 0.4769339504497808 -0.896115357082979
4753000000.0 0.5125236995415193 -0.8868366358267274
4756000000.0 0.47180062478716667 -0.8775096970776474
4759000000.0 0.49896054282997826 -0.9002916355191072
4762000000.0 0.4673225856127474 -0.913586442617391
4766000000.0 0.4856670664331979 -0.8945637320331256
4769000000.0 0.4781518089426444 -0.901820085550731
4772000000.0 0.49089673290430014 -0.904134835215846
4775000000.0 0.4987168789791483 -0.933812205117912
4778000000.0 0.5123854283905083 -0.8775154043312853
4781000000.0 0.5112354986263687 -0.8675332576943117
4784000000.0 0.5074561723646407 -0.8781311898321622
4788000000.0 0.49074950769845277 -0.9048468830994154
4791000000.0 0.4990380461064663 -0.8852167364999289
4794000000.0 0.5260547580934594 -0.8859777659450596
4797000000.0 0.4667416565817123 -0.8822654118910613
4800000000.0 0.4600989557757692 -0.8693582905759909
4803000000.0 0.4327870245216636 -0.9063708587112757
4806000000.0 0.4815294684847704 -0.9029554545256455
4809000000.0 0.4583015402274725 -0.904388628852616
4812000000.0 0.42953457718263277 -0.8899397522601817
4816000000.0 0.48903417527492454 -0.852477953701809
4819000000.0 0.5207128565847021 -0.8904243835414799
4822000000.0 0.5166669002948014 -0.9149414035576137
4825000000.0 0.5118820693767944 -0.8899198753506751
4828000000.0 0.5039327288067178 -0.8761098998064365
4831000000.0 0.45591646969687494 -0.9438029106848644
4834000000.0 0.5229078519389639 -0.8898145925732641
4838000000.0 0.4628246944413018 -0.8992535184526264
4841000000.0 0.4735793113688999 -0.8987214176477533
4844000000.0 0.5142526135086394 -0.8963363890506264
4847000000.0 0.4965335116382153 -0.8525030157717388
4850000000.0 0.45999294461533496 -0.9232349748379289
4853000000.0 0.500936190799736 -0.8730645392869203
4856000000.0 0.48999332444536137 -0.8776135494831125
4859000000.0 0.49933169280428447 -0.9177416336439775
4862000000.0 0.4882991188791422 -0.8595330344187324
4866000000.0 0.448535301367201 -0.9193563768865336
4869000000.0 0.4763456351566345 -0.9001666967070147
4872000000.0 0.47785018631009346 -0.9512874129089477
4875000000.0 0.5431445241014664 -0.9234486869793719
4878000000.0 0.5064388002481912 -0.9130464004024029
4881000000.0 0.48917915332067585 -0.9718248006796054
4884000000.0 0.5004082908918405 -0.8952448923558232
4888000000.0 0.5115634129632017 -0.8790459493623999
4891000000.0 0.5265651654418293 -0.8967829170598752
4894000000.0 0.4764016389842152 -0.8878051148094054
4897000000.0 0.5327373087374632 -0.8789209282521948
4900000000.0 0.5002109818397343 -0.9465107356039177
4903000000.0 0.5319659127577154 -0.9381041631603431
4906000000.0 0.5040042302947909 -0.9140803591964765
4909000000.0 0.47983792210952186 -0.9272865907664114
4912000000.0 0.5139259665367961 -0.9610687164913406
4916000000.0 0.5185685534738956 -0.8843915043110627
4919000000.0 0.528500822995485 -0.9023859929038816
4922000000.0 0.5353220532635975 -0.906863289376086
4925000000.0 0.4757768569680424 -0.8850810715718775
4928000000.0 0.5294676971948514 -0.8666541371524947
4931000000.0 0.5278617592491405 -0.8734748020886896
4934000000.0 0.5005982017536036 -0.855859287461545
4938000000.0 0.4603566313580023 -0.927413558194691
4941000000.0 0.5007241805730468 -0.8963463090244838
4944000000.0 0.49385798506835 -0.8439087501105809
4947000000.0 0.5038839969072249 -0.8803058816183005
4950000000.0 0.47319669643070494 -0.8807628816193933
4953000000.0 0.4567341274537753 -0.9358925659851572
4956000000.0 0.4613633378442055 -0.9117085433482791
4959000000.0 0.4701245094922534 -0.8967396314278056
4962000000.0 0.494353727775516 -0.8976319043421723
4966000000.0 0.5245948080296994 -0.8652275053387857
4969000000.0 0.5687111457576147 -0.9117785106937055
4972000000.0 0.4915164808481046 -0.9123133560835832
4975000000.0 0.5061971897293485 -0.8865727093308083
4978000000.0 0.46659200013027136 -0.920574896300175
4981000000.0 0.5011898517054914 -0.9399276947586717
4984000000.0 0.4768902799927573 -0.869869051484985
4988000000.0 0.5280067969266262 -0.8898999789566009
4991000000.0 0.5661612082000882 -0.8715553834416006
4994000000.0 0.5196024612129366 -0.8600084110166646
4997000000.0 0.48356250385284894 -0.9291650420270007
5000000000.0 0.5398334107818918 -0.9194254689782567
5003000000.0 0.5573403931996335 -0.9269731636068965
5006000000.0 0.5252292488078554 -0.937656385696057
5009000000.0 0.5360587732238511 -0.8987158799652704
5012000000.0 0.5236170958253455 -0.8933456349733004
5016000000.0 0.5320984607986773 -0.9059815599010314
5019000000.0 0.4920268359929692 -0.8870049601382677
5022000000.0 0.47479667847998414 -0.8896537962966422
5025000000.0 0.5717938910535524 -0.9660229295269532
5028000000.0 0.5074705597204596 -0.9494835646802484
5031000000.0 0.49553434562370624 -0.9177107803891498
5034000000.0 0.512313711502214 -0.9542251031074498
5038000000.0 0.4915933780343035 -0.8854625529598037
5041000000.0 0.5717572426433251 -0.8782878077796595
5044000000.0 0.5236001854409369 -0.860670157861278
5047000000.0 0.5392205656231903 -0.8909039203710667
5050000000.0 0.5683742684850732 -0.8190124546919209
5053000000.0 0.5481121886497274 -0.9344011994436454
5056000000.0 0.5405049597539042 -0.8969058378918909
5059000000.0 0.5371861523420889 -0.8415513686573692
5062000000.0 0.500405801016582 -0.9288013669604025
5066000000.0 0.559215924393604 -0.8760075115760468
5069000000.0 0.5549256835318008 -0.9159169198718872
5072000000.0 0.5018687431533597 -0.9044952417539902
5075000000.0 0.5438452883918674 -0.8942827061783556
5078000000.0 0.49289667911535817 -0.87112755492575
5081000000.0 0.5004453988183188 -0.8475100184142011
5084000000.0 0.5652570482026184 -0.9476758966095262
5088000000.0 0.5366782043301135 -0.8725790807387108
5091000000.0 0.5023658014296609 -0.930127359271987
5094000000.0 0.5020212007889795 -0.9019846756890999
5097000000.0 0.5447015448022403 -0.898313014222071
5100000000.0 0.5347708426884545 -0.9056550037392992
5103000000.0 0.4846280383325003 -0.9077862447621803
5106000000.0 0.5714784677601837 -0.908296167225991
5109000000.0 0.552784049674082 -0.8241780398317797
5112000000.0 0.5019583542127557 -0.8497372929304432
5116000000.0 0.48980741600317274 -0.8739317125381835
5119000000.0 0.5164091129698405 -0.8702438966688686
5122000000.0 0.5249029158489638 -0.909076727909951
5125000000.0 0.5233985337981938 -0.8728869231520313
5128000000.0 0.5320181313348208 -0.9013612811927554
5131000000.0 0.5298601391343346 -0.8952253658611796
5134000000.0 0.5265704123386847 -0.8651633877849555
5138000000.0 0.5398384270237094 -0.8756363089342292
5141000000.0 0.5630144285745127 -0.8369231990522978
5144000000.0 0.5787148875847521 -0.8946191209429601
5147000000.0 0.5139443419636411 -0.886771557626211
5150000000.0 0.5748525981983622 -0.8954400242960453
5153000000.0 0.5396236312580602 -0.9066642336425117
5156000000.0 0.5643176895405824 -0.8848117916352931
5159000000.0 0.5708174497245064 -0.9294303477948516
5162000000.0 0.5248857879926072 -0.8593586440995196
5166000000.0 0.5330795526235448 -0.9093333424309535
5169000000.0 0.5788496416385533 -0.9163182558811866
5172000000.0 0.5520673110999617 -0.8725100928500632
5175000000.0 0.5767289107103816 -0.906940800751554
5178000000.0 0.5580021707658906 -0.8965184611192462
