! Created with skrf 1.8.0 (http://scikit-rf.org).
# Hz S RI R 50.0 
!freq ReS11 ImS11
4000000000.0 0.5525762613276384 -0.82376836269006
4003000000.0 0.6108243437495063 -0.8866262326140713
4006000000.0 0.5412078339545878 -0.9198461098972184
4009000000.0000005 0.5015537541207441 -0.8543514907388401
4011999999.9999995 0.6094640274516132 -0.8478412199592014
4016000000.0 0.5342859066265797 -0.9102454306101222
4019000000.0 0.5428547452801544 -0.8996138834275753
4022000000.0000005 0.601648124581591 -0.8324892475506364
4025000000.0000005 0.5087179748949608 -0.9052803835426249
4027999999.9999995 0.5353462253697172 -0.9128977780651225
4030999999.9999995 0.5598352533659777 -0.8323644780951883
4034000000.0 0.5650217391168487 -0.8588142186179863
4038000000.0000005 0.5423252556288883 -0.9212379132230544
4041000000.0000005 0.5415451336753407 -0.8285976189375615
4043999999.9999995 0.5992315498303413 -0.9181114211206056
4046999999.9999995 0.5960420115097085 -0.8726383636923151
4050000000.0 0.5395035637720222 -0.9045057828658404
4053000000.0 0.5309523204942842 -0.8560054074965022
4056000000.0 0.5596208046943858 -0.9029043544004431
4059000000.0 0.570934798963474 -0.860940440219921
4062000000.0000005 0.5595250662753365 -0.8939369386725564
4066000000.0 0.51592967688954 -0.8263756676652873
4069000000.0 0.5586403476766226 -0.8843733822972959
4072000000.0 0.5768009905464371 -0.8597573610604693
4075000000.0 0.5979044522796453 -0.9062123547361361
4078000000.0000005 0.5818454683787774 -0.884234439580624
4081000000.0000005 0.621415762635635 -0.8722629552686111
4083999999.9999995 0.5549270803042864 -0.9104190081289772
4088000000.0 0.6334695534435185 -0.8744979538196898
4091000000.0 0.6065833763217096 -0.9013632600762955
4094000000.0000005 0.5630129461059009 -0.862842844104465
4097000000.0000005 0.568713398474885 -0.8822675553026921
4099999999.9999995 0.5470407585583961 -0.8882391505305995
4102999999.9999995 0.5918348580705504 -0.8843109575761832
4106000000.0 0.5752473473978188 -0.916116161588252
4109000000.0 0.5531040643363249 -0.8834770189876495
4112000000.0 0.5616766454062098 -0.8623178549786144
4115999999.9999995 0.5906445980833838 -0.8748798093236109
4119000000.0 0.5156842572697451 -0.884476133607162
4122000000.0 0.5427961261639307 -0.8870466879642079
4125000000.0 0.5514462766201156 -0.9071047122116389
4128000000.0 0.5264401567433006 -0.839029954208172
4131000000.0 0.530515318940242 -0.8355906743502768
4134000000.0000005 0.5533136538769022 -0.8741809745776196
4138000000.0 0.5895821689112042 -0.8684168724768666
4141000000.0 0.5120410551186532 -0.8517337613017218
4144000000.0 0.5826249332710501 -0.8707349940151096
4147000000.0000005 0.553042312641144 -0.8725615239686091
4150000000.0000005 0.5474284020129963 -0.9081934906732085
4152999999.9999995 0.5629993036218726 -0.8751959320097245
4155999999.9999995 0.6016210134438498 -0.8748077064592219
4159000000.0 0.5688849320054041 -0.8637815121008384
4162000000.0 0.5518230435091033 -0.8661353861367442
4166000000.0000005 0.555096477909391 -0.8634185429478727
4168999999.9999995 0.5427713456328446 -0.8708200010252897
4171999999.9999995 0.5645448523416269 -0.8444383369406637
4175000000.0 0.5560855404643569 -0.8501391366057378
4178000000.0 0.5748039476697999 -0.8864424195830773
4181000000.0 0.566509097768788 -0.8667498225364817
4184000000.0 0.5412237729353866 -0.8686258988645766
4187999999.9999995 0.5522343731597918 -0.8782107742334032
4191000000.0 0.5765259685489632 -0.8342213695985363
4194000000.0 0.5438283136810367 -0.838460214874997
4197000000.0 0.5607361571569393 -0.8618909577794066
4200000000.0 0.5672868882306272 -0.8723094462678691
4203000000.0000005 0.5783343150332594 -0.8621160802023389
4206000000.0000005 0.5632287148771675 -0.8753709224396631
4208999999.9999995 0.5639032507933343 -0.8483537433043873
4211999999.9999995 0.5357877032324548 -0.8598275327814524
4216000000.0 0.574516080951762 -0.8364192406047868
4219000000.0000005 0.587835784261154 -0.8670447900827525
4222000000.0000005 0.5598505879711313 -0.8599740658049967
4224999999.9999995 0.5614807537122027 -0.8525033632644944
4227999999.9999995 0.5591179930984035 -0.862428791043556
4231000000.0 0.5347704355962937 -0.8405829557689218
4234000000.0 0.5711698216682438 -0.86696443083939
4238000000.0000005 0.5427418223620419 -0.8541967128726099
4240999999.9999995 0.5386226278429864 -0.8594813121113787
4244000000.0 0.5679301086780928 -0.8525204591282846
4247000000.0 0.5609071202290441 -0.8639423255647891
4250000000.0 0.5466167663514563 -0.8474734219402548
4253000000.0 0.537970911554131 -0.8384860200891294
4256000000.0 0.5733737669796386 -0.8588220391877117
4259000000.0000005 0.5197180267463146 -0.8348500260465647
4261999999.9999995 0.5406422157666916 -0.8740609829420686
4266000000.0 0.5363438148154346 -0.8987405743320321
4269000000.0 0.5771275014952775 -0.8479300191998944
4272000000.0000005 0.5534592783015809 -0.8367696023862964
4275000000.0000005 0.5719858430766744 -0.8571636224375766
4277999999.9999995 0.5497524986736586 -0.8565714145630987
4280999999.9999995 0.5469544678026531 -0.8432835025430878
4284000000.0 0.5279645129630747 -0.8730981208443229
4288000000.0000005 0.5761265843455844 -0.8363825874427493
4291000000.0000005 0.5403625325510426 -0.8435561598131016
4293999999.9999995 0.5458612204657084 -0.8331014155278168
4297000000.0 0.5512516123518347 -0.8410608435855008
4300000000.0 0.5512061421653761 -0.8434627254611831
4303000000.0 0.5404559087777289 -0.8302145293203569
4306000000.0 0.5818958302564631 -0.8513885178164268
4309000000.0 0.559104784252539 -0.8370488120451294
4312000000.0 0.5950372982949359 -0.8469222387662622
4316000000.0 0.5757642955984752 -0.8489746276031827
4319000000.0 0.5586254602243219 -0.8425769184247152
4322000000.0 0.5258638045770354 -0.8274497803847027
4325000000.0 0.5575637762730428 -0.8445082199803412
4328000000.0 0.5460405357115987 -0.8501034131782854
4331000000.0 0.5466166185724509 -0.8889946708992953
4334000000.0 0.5470278251666175 -0.8764379929902751
4338000000.0 0.5757294821616086 -0.8274808353456765
4341000000.0 0.595982596232532 -0.8556885982122328
4344000000.0 0.5665330220039153 -0.8706855513227155
4347000000.0 0.5348512578240046 -0.8668034676546194
4350000000.0 0.5428406989108877 -0.819578018037349
4353000000.0 0.5572199922663081 -0.81383617966558
4356000000.0 0.538823179664254 -0.8405117927455035
4359000000.0 0.5299086699198248 -0.8029551962431223
4362000000.0 0.5139852568454527 -0.8804565343732216
4366000000.0 0.5527788971545654 -0.8489073228426681
4369000000.0 0.5189851133160278 -0.8257424276557516
4372000000.0 0.5131180156999497 -0.8574571699428236
4375000000.0 0.5501659543921403 -0.8344248666409619
4378000000.0 0.5475719710511707 -0.8230872694703825
4381000000.0 0.545455130634065 -0.834313233395335
4384000000.0 0.5732139922613688 -0.9028720251854844
4388000000.0 0.5658864883093253 -0.8279060918636232
4391000000.0 0.5626218791699539 -0.8568248694689259
4394000000.0 0.5264675932353647 -0.8403050145147731
4397000000.0 0.5334003506083104 -0.8555040472760911
4400000000.0 0.5572646434848116 -0.862907782182366
4403000000.0 0.5627769064190296 -0.8534638572776687
4406000000.0 0.5263617915434383 -0.8638431468508887
4409000000.0 0.5559187295194434 -0.8753674728394883
4412000000.0 0.49669876147001946 -0.8826604222476706
4416000000.0 0.5222266990967914 -0.8569332670224836
4419000000.0 0.5226533847878816 -0.8650015147904686
4422000000.0 0.5483243096108624 -0.8483414058373204
4425000000.0 0.571359761985203 -0.8516519873445958
4428000000.0 0.5414029422741125 -0.8538537648676696
4431000000.0 0.5559365810278533 -0.8743235672779605
4434000000.0 0.524501084799362 -0.8596537906296391
4438000000.0 0.5621825108434241 -0.8760045243089627
4441000000.0 0.557095483423921 -0.8740272269887632
4444000000.0 0.534232149839184 -0.8244041275363019
4447000000.0 0.5256735625668159 -0.8497083106181491
4450000000.0 0.5386940033334621 -0.8396174851037738
4453000000.0 0.5513609833665202 -0.8785432695231212
4456000000.0 0.5148395982341913 -0.8381344459859765
4459000000.0 0.48874467029232793 -0.8147382500384315
4462000000.0 0.5576656414600937 -0.9043204447733381
4466000000.0 0.5477221962302078 -0.8987314094433752
4469000000.0 0.5564148262931372 -0.8496684099846711
4472000000.0 0.5282504400035073 -0.888373478635517
4475000000.0 0.5276074413940304 -0.8338260458652159
4478000000.0 0.5458923641887969 -0.9073825338809312
4481000000.0 0.4883945342267553 -0.8530551971551056
4484000000.0 0.4976715152631214 -0.8710155594068673
4488000000.0 0.5226815609956048 -0.8555620289118164
4491000000.0 0.5396600759675325 -0.8685453197039934
4494000000.0 0.5468479831678557 -0.8464495884185463
4497000000.0 0.5345565384062654 -0.8443470242447222
4500000000.0 0.5492352304913525 -0.8561687122484601
4503000000.0 0.5464706695137396 -0.8889372637307941
4506000000.0 0.5241596979646329 -0.874678204689973
4509000000.0 0.5085115026347535 -0.8502933429985482
4512000000.0 0.5238330389285525 -0.8530889767338155
4516000000.0 0.5562833763516554 -0.8818511329182293
4519000000.0 0.5310278496834612 -0.8331556550103747
4522000000.0 0.5193864264293991 -0.8549244075383935
4525000000.0 0.55408147951623 -0.8418169276090277
4528000000.0 0.5390887889236551 -0.8840040481678062
4531000000.0 0.5660249278918188 -0.856319064203444
4534000000.0 0.520709344622768 -0.83745355181529
4538000000.0 0.5154102191038235 -0.8501416596380499
4541000000.0 0.47669255175368125 -0.8816359877035728
4544000000.0 0.5320646402863709 -0.8584743269938367
4547000000.0 0.5339952243869008 -0.8535924548457156
4550000000.0 0.5173541675675422 -0.883089440180653
4553000000.0 0.5253426439838844 -0.8815546874969691
4556000000.0 0.4945656297445073 -0.8514636715875818
4559000000.0 0.517654676848344 -0.8744706416917991
4562000000.0 0.5391594371642253 -0.8667422361943076
4566000000.0 0.5146409484250226 -0.875467674856173
4569000000.0 0.4942796716796318 -0.8545011010674204
4572000000.0 0.5309795807469003 -0.857967828932142
4575000000.0 0.5051387831640742 -0.8736503421877928
4578000000.0 0.5552454433924554 -0.8703589176571782
4581000000.0 0.5153572623205983 -0.8823573317937508
4584000000.0 0.5114754450369314 -0.8594367388390497
4588000000.0 0.5351396930546354 -0.872464919992457
4591000000.0 0.5422815963311474 -0.8556402726008858
4594000000.0 0.5034334021835065 -0.891640141198702
4597000000.0 0.5161679914941619 -0.8690455385837176
4600000000.0 0.47436553778321977 -0.8728624188978776
4603000000.0 0.5016549385102937 -0.8796558447753607
4606000000.0 0.5186907260760864 -0.8654112703016432
4609000000.0 0.5124117431510371 -0.8762186859951706
4612000000.0 0.5174382510289378 -0.8960659069799546
4616000000.0 0.49276223550698117 -0.8487958396763245
4619000000.0 0.5216428887357968 -0.8616542089155134
4622000000.0 0.5101307637413507 -0.871516063234113
4625000000.0 0.4818915362469893 -0.8512072218269364
4628000000.0 0.5237788142332898 -0.842842763777547
4631000000.0 0.5069074016250286 -0.8680384635774209
4634000000.0 0.4993901071604139 -0.8833713800979445
4638000000.0 0.5230558536717917 -0.878834396271722
4641000000.0 0.5374691670670597 -0.8703147891787701
4644000000.0 0.5074166288210878 -0.8828878741987742
4647000000.0 0.5160524909044484 -0.8757778185801803
4650000000.0 0.500549841290496 -0.8850563711054498
4653000000.0 0.5217196418844346 -0.8677316724920252
4656000000.0 0.49522487760132894 -0.8743909226844808
4659000000.0 0.5046489862690289 -0.8637952150438871
4662000000.0 0.5136649108101381 -0.8717749367044713
4666000000.0 0.5083885798856311 -0.8905062669954891
4669000000.0 0.509232240436312 -0.8718397907616501
4672000000.0 0.509013442522888 -0.8923041676679659
4675000000.0 0.4885866009309868 -0.8864047819222295
4678000000.0 0.5038558817211853 -0.8662393841396973
4681000000.0 0.508706951518628 -0.9038025633737234
4684000000.0 0.48899118197695113 -0.8722281913898998
4688000000.0 0.49297367249615887 -0.8621363928439663
4691000000.0 0.4991345172475584 -0.889805546628127
4694000000.0 0.5044606579194658 -0.8651212271625145
4697000000.0 0.473916145232043 -0.8401439224367042
4700000000.0 0.530435000978916 -0.8641098470308938
4703000000.0 0.516362710516254 -0.8469033796641365
4706000000.0 0.4958889341299484 -0.9059990239076858
4709000000.0 0.4708997292835236 -0.8752825355830529
4712000000.0 0.5094927237530784 -0.8731539996347413
4716000000.0 0.48849495008775234 -0.9207494465278511
4719000000.0 0.524818754719023 -0.8842309901261705
4722000000.0 0.54463154923234 -0.8560369007750632
4725000000.0 0.47067290080579577 -0.8836584494060828
4728000000.0 0.4697122180825416 -0.879855350606882
4731000000.0 0.5241872979627338 -0.9194357690220712
4734000000.0 0.5049882646545265 -0.8590845977485848
4738000000.0 0.5121364668580509 -0.936590211315878
4741000000.0 0.48213621844566495 -0.897608794157814
4744000000.0 0.49072575601229684 -0.8797682187785499
4747000000.0 0.5147450228295821 -0.8599896037096216
4750000000.0 0.5210759477554231 -0.8918086877947399
4753000000.0 0.5337009797753731 -0.8940357871373958
4756000000.0 0.5278659416114453 -0.8844476954666519
4759000000.0 0.49909644206644715 -0.8858739684929107
4762000000.0 0.4821662398149266 -0.8904425422467277
4766000000.0 0.5150571119802432 -0.8928183627547402
4769000000.0 0.4987060053821307 -0.8890649549616624
4772000000.0 0.5012121404487051 -0.8881738047527374
4775000000.0 0.5094703524735767 -0.9220527901025768
4778000000.0 0.4937811677813322 -0.8966258409237073
4781000000.0 0.5224827332449609 -0.8603339617850944
4784000000.0 0.5106952060846487 -0.8828296816317399
4788000000.0 0.5212700395367015 -0.9156882701870482
4791000000.0 0.47834703277323914 -0.8798106397444306
4794000000.0 0.5581416890253507 -0.9065067135133382
4797000000.0 0.4977532875693381 -0.88546454782205
4800000000.0 0.4749357126654101 -0.8781446668072087
4803000000.0 0.46990208740530126 -0.9031917015408669
4806000000.0 0.5062925731030394 -0.8706934425404403
4809000000.0 0.4677238627981777 -0.9250457859750276
4812000000.0 0.46156975590162413 -0.8714630165600576
4816000000.0 0.5319057120295548 -0.8638895742518615
4819000000.0 0.5366972798590441 -0.8997305899948408
4822000000.0 0.5430597877944634 -0.8974837336529133
4825000000.0 0.531969404172354 -0.9084016416783925
4828000000.0 0.483511830581839 -0.8905740149432515
4831000000.0 0.48180743124331626 -0.9436037317747245
4834000000.0 0.5114914122634968 -0.887744198065685
4838000000.0 0.47902175554397447 -0.918586729693425
4841000000.0 0.48381631085148685 -0.8889379788877493
4844000000.0 0.546612691905825 -0.8765652865841812
4847000000.0 0.5189714495234432 -0.8688310878242512
4850000000.0 0.5137608843849071 -0.923095158009926
4853000000.0 0.49012936855737543 -0.8813055572650006
4856000000.0 0.4928884383001949 -0.869540419135439
4859000000.0 0.524579564794919 -0.9279474087792264
4862000000.0 0.5235278674962965 -0.8620297077507428
4866000000.0 0.4954897172368226 -0.9189015503471081
4869000000.0 0.49674916722223006 -0.9075102632447309
4872000000.0 0.5064356532960044 -0.935609680777569
4875000000.0 0.5662155728188341 -0.9155110906393804
4878000000.0 0.5029798030232868 -0.8979393186454732
4881000000.0 0.4950415919965844 -0.9728001158646238
4884000000.0 0.5331840940593133 -0.8839627455862629
4888000000.0 0.5379385999175273 -0.868048045620668
4891000000.0 0.5508155118241814 -0.8680348314762699
4894000000.0 0.4829184481222334 -0.8883651160808681
4897000000.0 0.55065572933174 -0.8666866646374454
4900000000.0 0.516571323807713 -0.9387523596284143
4903000000.0 0.5436111369079912 -0.8984407631507249
4906000000.0 0.5148609314023395 -0.9028303477437233
4909000000.0 0.5184250558737563 -0.91840639085378
4912000000.0 0.5383133254109578 -0.9151062951392759
4916000000.0 0.5241342136213881 -0.89782293487738
4919000000.0 0.5499618651137037 -0.8997245242362147
4922000000.0 0.5594160307529381 -0.8778810402368293
4925000000.0 0.483402876540664 -0.8854355722946744
4928000000.0 0.5207583362490947 -0.8453213486948653
4931000000.0 0.5508373477447857 -0.9145484855086653
4934000000.0 0.5046982289486867 -0.8617468567008625
4938000000.0 0.4706646794432403 -0.9144533753882245
4941000000.0 0.4799585836608621 -0.9061595309059737
4944000000.0 0.5259010957220264 -0.8309299863864477
4947000000.0 0.4975589706195017 -0.9166658531451062
4950000000.0 0.5092298036470251 -0.8716745412005185
4953000000.0 0.48719340927796617 -0.9332561371724019
4956000000.0 0.48372449354313996 -0.8983500932420576
4959000000.0 0.45932813090102426 -0.8775937652327058
4962000000.0 0.5169246841510107 -0.9011434244379367
4966000000.0 0.5566649677615546 -0.9093255674818917
4969000000.0 0.5654004456441456 -0.9297906932459997
4972000000.0 0.5068675627791082 -0.9043927213168462
4975000000.0 0.536521802854889 -0.8431973269870643
4978000000.0 0.5112837563073775 -0.9165333253362392
4981000000.0 0.500443954247627 -0.8979133281732744
4984000000.0 0.4882558440256163 -0.8720698428477333
4988000000.0 0.5322486544612208 -0.8846572238895213
4991000000.0 0.5968226225102435 -0.8900295497543763
4994000000.0 0.5363037300226415 -0.8864750795428643
4997000000.0 0.5286757408043293 -0.9012843150233922
5000000000.0 0.5538927100585457 -0.9044346189621335
5003000000.0 0.5668751706934372 -0.9018346884790652
5006000000.0 0.557337975220525 -0.9346301673385027
5009000000.0 0.5212240542453889 -0.8831163947967063
5012000000.0 0.5335552614436521 -0.9157846490911937
5016000000.0 0.5795084860715121 -0.8877780024234287
5019000000.0 0.5196393543803033 -0.8987833884007725
5022000000.0 0.5187437865568814 -0.8959780377407489
5025000000.0 0.56769977451721 -0.9512364619127438
5028000000.0 0.5171163760685086 -0.9406068673241632
5031000000.0 0.5064420537140244 -0.9012173919123465
5034000000.0 0.5347736328471802 -0.9631031827225501
5038000000.0 0.47596885693960495 -0.868450789786587
5041000000.0 0.5412472493797574 -0.8563494676934977
5044000000.0 0.5525020059496574 -0.8557153033658116
5047000000.0 0.5666346252502765 -0.8794216633655074
5050000000.0 0.6029001356080064 -0.8222408705958448
5053000000.0 0.5593930161071483 -0.9544815403580024
5056000000.0 0.5954792044301009 -0.8711604397432064
5059000000.0 0.5976108357179811 -0.8593119726892587
5062000000.0 0.5283564327262691 -0.9684087647551125
5066000000.0 0.577584665792051 -0.8491150451285965
5069000000.0 0.5473127461269984 -0.9151214230677167
5072000000.0 0.5311943687512712 -0.866775735999861
5075000000.0 0.5568668165897181 -0.8809250577480041
5078000000.0 0.5249684218127657 -0.9381165771702417
5081000000.0 0.5241992675121369 -0.8692159422918921
5084000000.0 0.5340192419521957 -0.8925735867613314
5088000000.0 0.5729845822289567 -0.8805432192719737
5091000000.0 0.5269055112815877 -0.9062073337204906
5094000000.0 0.5638114871076472 -0.9059687556810614
5097000000.0 0.5859977756251583 -0.8638673836656918
5100000000.0 0.551138207712129 -0.8845313364984229
5103000000.0 0.5195469737313607 -0.9197534305490942
5106000000.0 0.5527885484155903 -0.8649338898385279
5109000000.0 0.5784278100015202 -0.8654350398356441
5112000000.0 0.5651354254333846 -0.8620576688304751
5116000000.0 0.5079244191396297 -0.8124103663413842
5119000000.0 0.5958507725544497 -0.9300566287675964
5122000000.0 0.5558379442317108 -0.8460795486898309
5125000000.0 0.5668863422316006 -0.8621366024564882
5128000000.0 0.5070397562898683 -0.8878232070091359
5131000000.0 0.5051901452859275 -0.8623233928821079
5134000000.0 0.5349597327280582 -0.8596576750237138
5138000000.0 0.5449463749244706 -0.8566727230485827
5141000000.0 0.6060199309435674 -0.837928154714715
5144000000.0 0.5728752675650643 -0.8639878967806451
5147000000.0 0.5658470186005309 -0.8454653836133652
5150000000.0 0.5666453855749349 -0.8496167341492755
5153000000.0 0.5528522868253002 -0.8862386154536765
5156000000.0 0.5822580040307482 -0.8993135467026507
5159000000.0 0.5579958396725582 -0.8836808007968047
5162000000.0 0.5638930370046505 -0.9009562814062008
5166000000.0 0.5527879698321837 -0.8924700181245255
5169000000.0 0.5632209238166769 -0.9229969072680462
5172000000.0 0.5614429533677509 -0.8449889700030229
5175000000.0 0.5929266628480026 -0.8920484480234958
5178000000.0 0.5628934795818366 -0.8860941033127421
