! Created with skrf 1.8.0 (http://scikit-rf.org).
# Hz S RI R 50.0 
!freq ReS11 ImS11
4000000000.0 0.5314125912941261 -0.8391637621877679
4003000000.0 0.5442474068456288 -0.9201555855938854
4006000000.0 0.5108839983169423 -0.8639715396293455
4009000000.0000005 0.5408207756705015 -0.8696911022387022
4011999999.9999995 0.5742231536737342 -0.8710123604973283
4016000000.0 0.5647117492668573 -0.902888945781372
4019000000.0 0.519948477332145 -0.877080290185892
4022000000.0000005 0.6217386215651507 -0.8801374811945293
4025000000.0000005 0.49252820015302146 -0.9005021254540785
4027999999.9999995 0.5482288772146205 -0.8854414804311995
4030999999.9999995 0.5375180031499948 -0.8195291258324371
4034000000.0 0.5216156264015778 -0.8850981067135179
4038000000.0000005 0.49733970457773236 -0.8727504374012767
4041000000.0000005 0.48415176968892804 -0.8960680387593517
4043999999.9999995 0.5443276931032769 -0.9086253497364535
4046999999.9999995 0.5366246994525949 -0.9267725549120178
4050000000.0 0.48102127492043456 -0.8953181793319142
4053000000.0 0.48312141236294875 -0.8899771760741583
4056000000.0 0.550352008408659 -0.9119508884428319
4059000000.0 0.5322786196549908 -0.886611710949348
4062000000.0000005 0.5054449587951053 -0.9120892918125006
4066000000.0 0.47134915878632067 -0.8202761786191373
4069000000.0 0.536277903444765 -0.9107473465954788
4072000000.0 0.6008863969094735 -0.856291702181651
4075000000.0 0.5592614258339441 -0.9023137975751807
4078000000.0000005 0.5488873673359895 -0.8989728880004588
4081000000.0000005 0.61044960413543 -0.8503986285092179
4083999999.9999995 0.5047843723624812 -0.891269119007144
4088000000.0 0.5192027373024823 -0.849372980550832
4091000000.0 0.5893727555655447 -0.927995271784198
4094000000.0000005 0.5716669395382472 -0.8945414816785716
4097000000.0000005 0.5379833285056606 -0.8954014973593691
4099999999.9999995 0.50506683510024 -0.871600657805427
4102999999.9999995 0.5735968001311611 -0.8909531768725483
4106000000.0 0.523416634921553 -0.911534860219279
4109000000.0 0.514553639752463 -0.9005116853987061
4112000000.0 0.5314437537357111 -0.8672745898109624
4115999999.9999995 0.5467886095694026 -0.8719184418335817
4119000000.0 0.49865361316601015 -0.8811714011822939
4122000000.0 0.5431410907089047 -0.9038272883163745
4125000000.0 0.489865540040104 -0.9207675651923235
4128000000.0 0.5361947657248443 -0.8634023807284351
4131000000.0 0.5217626706565069 -0.8711181951970565
4134000000.0000005 0.5719026391831155 -0.8587506710404238
4138000000.0 0.49855978455157435 -0.864924692992736
4141000000.0 0.5397362698248483 -0.8715178475365545
4144000000.0 0.532469958789644 -0.8814298098855244
4147000000.0000005 0.4837402617302583 -0.8457707074233425
4150000000.0000005 0.5389196328151677 -0.8832308810975107
4152999999.9999995 0.5353135655132154 -0.8501850991237485
4155999999.9999995 0.5658735215742372 -0.8941386515540364
4159000000.0 0.5135609708706953 -0.8507974157693763
4162000000.0 0.5265737251096501 -0.8685174219473529
4166000000.0000005 0.5145048711066351 -0.8796853645662873
4168999999.9999995 0.48523483927775235 -0.8630023450660285
4171999999.9999995 0.5366276347639825 -0.8674336411573114
4175000000.0 0.524940677580024 -0.8724759458777535
4178000000.0 0.5468755787245945 -0.8766274444657804
4181000000.0 0.5110486624927298 -0.8829073831948069
4184000000.0 0.5176047835793591 -0.8713105833574218
4187999999.9999995 0.5373448027877636 -0.8773098192377371
4191000000.0 0.5540704491677917 -0.8431631933321782
4194000000.0 0.5275180705096276 -0.8600537307467444
4197000000.0 0.5439406340850497 -0.8738949203920986
4200000000.0 0.5487514417602816 -0.8544589902576786
4203000000.0000005 0.5304685045979127 -0.8754039542589803
4206000000.0000005 0.5341562296421505 -0.8836625940703172
4208999999.9999995 0.523906287130301 -0.8315058657017225
4211999999.9999995 0.49955955810818164 -0.8993895320553809
4216000000.0 0.529136719293745 -0.8729904133131579
4219000000.0000005 0.545124596183911 -0.8784794488373117
4222000000.0000005 0.5336765776099143 -0.8765608434314931
4224999999.9999995 0.5190016108542806 -0.8500956722408017
4227999999.9999995 0.5216184667169734 -0.8694087397354993
4231000000.0 0.5367554918429371 -0.8770338752381942
4234000000.0 0.5272630866189686 -0.8779358217126315
4238000000.0000005 0.5326021027067671 -0.8536239617098392
4240999999.9999995 0.5087956694405529 -0.8607755497478808
4244000000.0 0.5156269666745948 -0.8634758437623473
4247000000.0 0.5403898688512367 -0.8482179009958912
4250000000.0 0.5262689766652089 -0.8605777679740797
4253000000.0 0.5080812341501434 -0.859533284840844
4256000000.0 0.517195086246349 -0.8896725148303347
4259000000.0000005 0.5045341250167275 -0.8534950869860402
4261999999.9999995 0.5015459220995944 -0.8654549569650267
4266000000.0 0.5176406461850607 -0.8972360453652143
4269000000.0 0.5404817705333329 -0.8662948092155144
4272000000.0000005 0.520213218618765 -0.8585608747090351
4275000000.0000005 0.5252450264874791 -0.8492014052113483
4277999999.9999995 0.5470722693486609 -0.8836593552427167
4280999999.9999995 0.5450028563176004 -0.8649417396158257
4284000000.0 0.5058361992997491 -0.907468106278458
4288000000.0000005 0.5384231915244927 -0.8425574132549675
4291000000.0000005 0.5182923452096014 -0.8475095794537537
4293999999.9999995 0.5126182758776594 -0.8734075609854691
4297000000.0 0.5282402566884016 -0.8326211691894022
4300000000.0 0.536315534141845 -0.8595748897137596
4303000000.0 0.4918019926557058 -0.8345805355503388
4306000000.0 0.5332054783157334 -0.8630577377381025
4309000000.0 0.527425055490323 -0.8775096827001346
4312000000.0 0.567772731848074 -0.8647837444464075
4316000000.0 0.5486887927738019 -0.8738754497882014
4319000000.0 0.5426180747629621 -0.8461828762446436
4322000000.0 0.5035632284158066 -0.8584838353495532
4325000000.0 0.5422919724852584 -0.8879834401768885
4328000000.0 0.5254334025299138 -0.8433531071408973
4331000000.0 0.4953802896285562 -0.867625905882945
4334000000.0 0.5241021038559147 -0.8790542791037922
4338000000.0 0.5346723879733641 -0.8697161770756358
4341000000.0 0.5674038061454023 -0.8614322613240095
4344000000.0 0.5380189907557489 -0.8681585543197216
4347000000.0 0.49827958103698616 -0.8834102221152084
4350000000.0 0.4931054805890845 -0.8280844180965364
4353000000.0 0.5130780882294534 -0.8221714386947802
4356000000.0 0.4900873758202398 -0.8794528689303299
4359000000.0 0.4959012258248724 -0.8292702768532431
4362000000.0 0.4885311560123454 -0.9006789490778924
4366000000.0 0.5165804192302239 -0.8809981046865615
4369000000.0 0.4894660394082703 -0.8476838375486343
4372000000.0 0.4751129368260407 -0.8629570733709925
4375000000.0 0.511317306245632 -0.8489449273245845
4378000000.0 0.5111766047519473 -0.8548773475248268
4381000000.0 0.5154504214380322 -0.8500775549849172
4384000000.0 0.5443413297123563 -0.9127215324172343
4388000000.0 0.5175196034813718 -0.8402715009472788
4391000000.0 0.5263527034344511 -0.8774147419203256
4394000000.0 0.48424713785599555 -0.8381558007588366
4397000000.0 0.49883977179931 -0.8766066440090484
4400000000.0 0.5299617835855869 -0.8939243333280027
4403000000.0 0.5176412173008216 -0.8855446109069477
4406000000.0 0.5064911337719096 -0.878301393545891
4409000000.0 0.5273150530923175 -0.9029553864064845
4412000000.0 0.44742107170314094 -0.9003528140092709
4416000000.0 0.4943676912180557 -0.8728976993133154
4419000000.0 0.5086082654304984 -0.8831869014146093
4422000000.0 0.5272834892123996 -0.8587626307577682
4425000000.0 0.5289971370343264 -0.8757981143894841
4428000000.0 0.5011233750017856 -0.8732344243702649
4431000000.0 0.515004308545 -0.8925716947233029
4434000000.0 0.4902013895637373 -0.8641399036129145
4438000000.0 0.5236019462472882 -0.881535552389561
4441000000.0 0.5266774377550891 -0.8790292102179503
4444000000.0 0.5011848072281322 -0.8383076893532986
4447000000.0 0.49247103471650877 -0.8717724026124604
4450000000.0 0.5068603200081202 -0.8532664310629867
4453000000.0 0.5216125814780839 -0.8983198268585935
4456000000.0 0.4858635574192497 -0.8660733781753829
4459000000.0 0.4653453073253472 -0.8343061817906212
4462000000.0 0.5401922981049769 -0.9234042958874576
4466000000.0 0.5247363457034938 -0.9037998486229355
4469000000.0 0.5253148616172151 -0.8705297040750004
4472000000.0 0.4992199645444201 -0.899634461894131
4475000000.0 0.47973929725692344 -0.854095746660868
4478000000.0 0.4975094782600147 -0.9133598971082617
4481000000.0 0.4839766248310515 -0.8550868988402085
4484000000.0 0.4568605123372715 -0.9105347345543235
4488000000.0 0.48194182327119894 -0.8706359284023739
4491000000.0 0.4743667008231659 -0.8867326372345417
4494000000.0 0.4988468364623022 -0.8579532916800339
4497000000.0 0.49907282609554104 -0.8508701856828468
4500000000.0 0.4991501195320419 -0.8631566253243115
4503000000.0 0.5134336805540511 -0.8770303869666607
4506000000.0 0.4871756656019946 -0.8622652643845546
4509000000.0 0.5023623744572395 -0.8641502897301748
4512000000.0 0.48628182411762205 -0.86963008715725
4516000000.0 0.5050909898846305 -0.8864405629201851
4519000000.0 0.5010209036086164 -0.8380751304701247
4522000000.0 0.49049693014396 -0.8832038345794605
4525000000.0 0.5128454321111032 -0.8478707123527747
4528000000.0 0.5217963397991074 -0.9012000097117576
4531000000.0 0.5154482440431783 -0.8526290266562876
4534000000.0 0.48972132854230216 -0.861083712705381
4538000000.0 0.4909957687301576 -0.8828228888618621
4541000000.0 0.467360229995681 -0.8880389295801744
4544000000.0 0.4857386437264047 -0.8605187426341074
4547000000.0 0.5133399439251719 -0.8524674045478884
4550000000.0 0.4687625957892851 -0.8813277836727798
4553000000.0 0.4810291482667816 -0.8834730304830212
4556000000.0 0.48100786775341 -0.8731781062395985
4559000000.0 0.462262088916612 -0.8760474552824464
4562000000.0 0.4881766625091766 -0.8938978269273554
4566000000.0 0.48603698108032034 -0.8995000643825423
4569000000.0 0.482323942193364 -0.86129231196082
4572000000.0 0.47957612631082747 -0.8911099096079796
4575000000.0 0.4770958712211101 -0.8797886586383363
4578000000.0 0.5033663784986984 -0.90002369841038
4581000000.0 0.4718594492439513 -0.8882250945025355
4584000000.0 0.4757877000383015 -0.871710309701755
4588000000.0 0.4923925157161218 -0.889630959944602
4591000000.0 0.47934314115618804 -0.8643821813445707
4594000000.0 0.46328532411960177 -0.8791902961311302
4597000000.0 0.4763957699690199 -0.8947614997935338
4600000000.0 0.4528033494946062 -0.8956465590830698
4603000000.0 0.4749370273422932 -0.8907896976086127
4606000000.0 0.47846004283117205 -0.8882619667687475
4609000000.0 0.4643121882931931 -0.8861398735608317
4612000000.0 0.47082979235629274 -0.9020956702563001
4616000000.0 0.4773355965796054 -0.8766153877074767
4619000000.0 0.46918116952143774 -0.8836375704776165
4622000000.0 0.4850094623177766 -0.8899069471873204
4625000000.0 0.4422035779316231 -0.8901221673314816
4628000000.0 0.4764989756433693 -0.8797131182739572
4631000000.0 0.45877380375011145 -0.889439960777598
4634000000.0 0.4658636774358755 -0.904671525498677
4638000000.0 0.46723355150779955 -0.8888293974544254
4641000000.0 0.463311822431471 -0.8930388523344337
4644000000.0 0.46457958670559757 -0.8794023733494425
4647000000.0 0.47424950817286526 -0.8986054006022326
4650000000.0 0.47050553907734016 -0.8773734721329057
4653000000.0 0.48068333989795936 -0.8965960527784469
4656000000.0 0.45354492636665444 -0.9032681536922658
4659000000.0 0.4493027102608925 -0.904258833266121
4662000000.0 0.45793348160262715 -0.9103621992136115
4666000000.0 0.45229414056414413 -0.8932518870286613
4669000000.0 0.4793161490987156 -0.9105599889788913
4672000000.0 0.46755944020356394 -0.8973895053728664
4675000000.0 0.4418782655455609 -0.894329665871004
4678000000.0 0.47097988318117373 -0.8688372949353834
4681000000.0 0.45478099983844056 -0.8991664011031297
4684000000.0 0.4282417778444672 -0.9089936286151715
4688000000.0 0.4482677761779338 -0.9041152791160776
4691000000.0 0.467283436797865 -0.8910782369295013
4694000000.0 0.4703048175288128 -0.870647313635426
4697000000.0 0.4449708298448358 -0.8699954590115571
4700000000.0 0.4645528167501396 -0.9018410455818539
4703000000.0 0.4860739333009427 -0.8625298270350215
4706000000.0 0.437107832473081 -0.8934217903259525
4709000000.0 0.44192010005731386 -0.9054683355862321
4712000000.0 0.46065885391805433 -0.8873967957189159
4716000000.0 0.45780564266997287 -0.9581300766991895
4719000000.0 0.49119307217785446 -0.9091368189235692
4722000000.0 0.5114211605129232 -0.9041285028278014
4725000000.0 0.4836383261568495 -0.8805772407298394
4728000000.0 0.4483517338472756 -0.9025332059839182
4731000000.0 0.4923994991086299 -0.9295988327159536
4734000000.0 0.49396938439550575 -0.8855898579451501
4738000000.0 0.5013420614520776 -0.9399584798290582
4741000000.0 0.45652140248982576 -0.9389962193377158
4744000000.0 0.44880110566176573 -0.8895166968434358
4747000000.0 0.4749777239692074 -0.8560249227995871
4750000000.0 0.4772066924523901 -0.9007329112361736
4753000000.0 0.4666699890686701 -0.9187864939733595
4756000000.0 0.4881643024149503 -0.918264106617542
4759000000.0 0.47899945804100474 -0.8990120101679387
4762000000.0 0.4495079827520694 -0.9329336445975113
4766000000.0 0.47425162099237017 -0.9313339606372403
4769000000.0 0.4995518296779331 -0.9249560672107865
4772000000.0 0.4715703086291175 -0.9084479775018081
4775000000.0 0.481539927481131 -0.9495120364241753
4778000000.0 0.4336841643617936 -0.916550592762797
4781000000.0 0.46266767755760474 -0.872416401276217
4784000000.0 0.4827089276096189 -0.8713305679952108
4788000000.0 0.4304536513889965 -0.9123214017784003
4791000000.0 0.44957427112538756 -0.9154666375410574
4794000000.0 0.4920280884675794 -0.9163972931053311
4797000000.0 0.4486548862034593 -0.8936322371379855
4800000000.0 0.4284505878154392 -0.8829805700539896
4803000000.0 0.424366985832648 -0.9061615858084031
4806000000.0 0.45864619253813366 -0.9302657641287296
4809000000.0 0.4343631389380073 -0.924368404998754
4812000000.0 0.42143486828807863 -0.9093280414955607
4816000000.0 0.4727831607544347 -0.8705714259919686
4819000000.0 0.5034239713355753 -0.9343152423258956
4822000000.0 0.486375534379694 -0.9314649083520287
4825000000.0 0.4903675828400009 -0.9127047265546055
4828000000.0 0.458039637241362 -0.8873869999011422
4831000000.0 0.4339717519005535 -0.9408686478236262
4834000000.0 0.4708533140632388 -0.9010103512896724
4838000000.0 0.454835828483489 -0.9383851338933363
4841000000.0 0.4307963000005546 -0.9034378865261653
4844000000.0 0.4740688936827196 -0.9102345685865415
4847000000.0 0.47023403976783745 -0.8819904532548701
4850000000.0 0.4501585061598168 -0.9425813647524818
4853000000.0 0.4627019019980192 -0.8906650238041599
4856000000.0 0.43902662536597536 -0.8934444560167367
4859000000.0 0.46520768608530366 -0.9807644706400371
4862000000.0 0.473314293417312 -0.8834477038296782
4866000000.0 0.44865933195808716 -0.928631716096918
4869000000.0 0.4550920154598341 -0.9225512018311359
4872000000.0 0.45469400455304737 -0.9323717491108638
4875000000.0 0.5171892647299413 -0.9277416157680088
4878000000.0 0.46825956406557434 -0.9036478696985809
4881000000.0 0.46017446306968063 -0.9835917079308268
4884000000.0 0.4854481666334979 -0.8997225227281418
4888000000.0 0.48317245029835426 -0.9021290625999796
4891000000.0 0.4953608698793506 -0.9221812839418071
4894000000.0 0.4735035431308635 -0.911215767024324
4897000000.0 0.47254737442330447 -0.8735281905178258
4900000000.0 0.4746754280704715 -0.9121259403688161
4903000000.0 0.48340975367765604 -0.9288229541719484
4906000000.0 0.4577471411208227 -0.9329940032497287
4909000000.0 0.43290435172860264 -0.9286566131856375
4912000000.0 0.4753674618748829 -0.9636023867039896
4916000000.0 0.45509863639849146 -0.9435281183378385
4919000000.0 0.47462476403327236 -0.9350945026816044
4922000000.0 0.4869562439439325 -0.9225944992157454
4925000000.0 0.44475917566831685 -0.9144431504675002
4928000000.0 0.49063506262907564 -0.8633824082792017
4931000000.0 0.48424061617995484 -0.9206676047508888
4934000000.0 0.4586126302020936 -0.8666014456229753
4938000000.0 0.4408540762586374 -0.895819623238999
4941000000.0 0.4453571444807856 -0.9136167121104635
4944000000.0 0.4702307021512344 -0.827870795485698
4947000000.0 0.45235302349861806 -0.8717632313440106
4950000000.0 0.46592518111710785 -0.8909724337817497
4953000000.0 0.4738449059694797 -0.9773042876859804
4956000000.0 0.4608446076057237 -0.9175170350860311
4959000000.0 0.4258112444540399 -0.9146052399667645
4962000000.0 0.46371391086345004 -0.9198678419290762
4966000000.0 0.5127170285038848 -0.9239304025247346
4969000000.0 0.5321203132770809 -0.9416593944758953
4972000000.0 0.4664956453546319 -0.9423696298985742
4975000000.0 0.4866635671245879 -0.9055702107497049
4978000000.0 0.4579187761403415 -0.917931458117999
4981000000.0 0.456123455488731 -0.9520984992268264
4984000000.0 0.47193920450278826 -0.8807353115741776
4988000000.0 0.4761479710065344 -0.8900185272541915
4991000000.0 0.5504366499009585 -0.9186173577862391
4994000000.0 0.4896804726467669 -0.8906629850909753
4997000000.0 0.41527913936986693 -0.9210365357146587
5000000000.0 0.5081993344398698 -0.9100835610332665
5003000000.0 0.508852094791955 -0.9281106461340792
5006000000.0 0.5189916658897002 -0.9597040986603722
5009000000.0 0.4696935838137879 -0.9097724603749049
5012000000.0 0.47637611305808114 -0.9105907521293565
5016000000.0 0.5189039262091567 -0.9427965789284467
5019000000.0 0.44866060591345946 -0.9100409183279049
5022000000.0 0.47268644075101446 -0.9400196063690945
5025000000.0 0.5016685994738244 -0.9766555026070698
5028000000.0 0.4573454861593002 -0.958404095866308
5031000000.0 0.46115015682725885 -0.9131518251387541
5034000000.0 0.45662849704177894 -0.9648249799400783
5038000000.0 0.4463106538516614 -0.906745234639942
5041000000.0 0.5097050709023909 -0.8898529602092733
5044000000.0 0.5130892663722397 -0.868434294390192
5047000000.0 0.4901848334591175 -0.924059559324139
5050000000.0 0.5470327242646181 -0.8616589850132714
5053000000.0 0.4780031721928678 -0.9593420375632469
5056000000.0 0.5533016324725213 -0.9298928717869245
5059000000.0 0.5034938426731793 -0.8776046350148039
5062000000.0 0.46435154488629415 -0.9368501431631682
5066000000.0 0.5480708234837078 -0.8727846264276713
5069000000.0 0.5012720759025124 -0.903109056771153
5072000000.0 0.47530913448114154 -0.8501816954542123
5075000000.0 0.507136744542284 -0.8950583841601101
5078000000.0 0.4762821871096385 -0.9382540860838007
5081000000.0 0.4547728820652082 -0.8994260243160805
5084000000.0 0.4951433910290071 -0.91121478660034
5088000000.0 0.4735422985506977 -0.898297147196853
5091000000.0 0.47451843403839716 -0.9411368898767443
5094000000.0 0.4918291198768209 -0.8903835257260801
5097000000.0 0.4999981779131314 -0.8947325156248223
5100000000.0 0.4940551102647225 -0.8923169696625219
5103000000.0 0.4391943506188063 -0.9347695124027441
5106000000.0 0.5220921732972251 -0.9463469933620234
5109000000.0 0.5104139922124428 -0.8870110430835347
5112000000.0 0.48425529785886456 -0.8982709641437898
5116000000.0 0.42532851047903697 -0.8761304393693151
5119000000.0 0.499564917358371 -0.937614613337125
5122000000.0 0.504242543029199 -0.89501016459809
5125000000.0 0.5257865926010871 -0.8673062886290008
5128000000.0 0.5272419018536141 -0.9472079867524895
5131000000.0 0.5194093502915018 -0.8580598517222631
5134000000.0 0.4950913501216772 -0.9056763501284584
5138000000.0 0.5572554664202551 -0.9476698227522768
5141000000.0 0.5133670674298002 -0.8683719959140679
5144000000.0 0.5080279412514345 -0.9213557179438339
5147000000.0 0.49205363871926766 -0.8953993314806354
5150000000.0 0.5245583933782377 -0.8836129943040965
5153000000.0 0.5051857477785608 -0.9036892815480821
5156000000.0 0.5204482569871431 -0.9115896771416978
5159000000.0 0.5224744994022824 -0.9416273753421924
5162000000.0 0.49726448916203886 -0.957663639130773
5166000000.0 0.4886607407664778 -0.9589660264392548
5169000000.0 0.5086335873511003 -0.9451108083051798
5172000000.0 0.4830237411362125 -0.842600773576756
5175000000.0 0.5453456243414425 -0.8992231877747189
