! Created with skrf 1.8.0 (http://scikit-rf.org).
# Hz S RI R 50.0 
!freq ReS11 ImS11
4000000000.0 0.5094484053051609 -0.8910871270520986
4003000000.0 0.4693135305700017 -0.9640258476864154
4006000000.0 0.44846704512987157 -0.8996682483123929
4009000000.0000005 0.5226315255635494 -0.8561863551670146
4011999999.9999995 0.550590320099962 -0.8876804652315968
4016000000.0 0.45618451186179265 -0.9317514064096861
4019000000.0 0.5075931430549279 -0.8857566487801118
4022000000.0000005 0.5953026495452779 -0.8351148659863787
4025000000.0000005 0.45518716164915507 -0.9415680440992015
4027999999.9999995 0.5036699423474545 -0.8919810136148606
4030999999.9999995 0.4893507347053805 -0.8701248103056806
4034000000.0 0.44997276354744176 -0.9110899997711386
4038000000.0000005 0.4976194052964399 -0.8743458306761401
4041000000.0000005 0.5386232003203185 -0.8920884601701072
4043999999.9999995 0.5092763970504988 -0.9276291893265397
4046999999.9999995 0.5416327313899627 -0.9291450825803489
4050000000.0 0.46636614957533795 -0.9144212491250053
4053000000.0 0.44252600006769877 -0.9017128461184342
4056000000.0 0.4987515952897358 -0.8797145782590801
4059000000.0 0.47017251171530455 -0.8620848635048647
4062000000.0000005 0.48481215620472595 -0.9045527614405252
4066000000.0 0.4622444448033728 -0.8593124317941988
4069000000.0 0.47379691164392795 -0.9548182287062271
4072000000.0 0.5114123158162704 -0.8875463929440208
4075000000.0 0.5309545800617372 -0.9329104197281822
4078000000.0000005 0.4657851162328403 -0.9236018727625602
4081000000.0000005 0.5600858318477213 -0.9064374028372238
4083999999.9999995 0.4551102625736944 -0.9434797453044294
4088000000.0 0.5173772889578196 -0.8892950789607671
4091000000.0 0.5090238662643664 -0.9032296835824446
4094000000.0000005 0.48530141377768277 -0.8742940493288052
4097000000.0000005 0.50597203611436 -0.8752436989997099
4099999999.9999995 0.45793120110719066 -0.8653399279515903
4102999999.9999995 0.5200704534286438 -0.8873085699251906
4106000000.0 0.45515580053626953 -0.9065034890620711
4109000000.0 0.45018150449881633 -0.9105553686938457
4112000000.0 0.4960439103922941 -0.8947060905643743
4115999999.9999995 0.5253427102241047 -0.9137973356302158
4119000000.0 0.47154600284532733 -0.9314307543070462
4122000000.0 0.5169540881006918 -0.8851770331292295
4125000000.0 0.48602266333187527 -0.9414243445967743
4128000000.0 0.4713306162771166 -0.8805234594581378
4131000000.0 0.47853232186299494 -0.8826357534250949
4134000000.0000005 0.4951097669122669 -0.9153569877253592
4138000000.0 0.46785408440353227 -0.8750576935452145
4141000000.0 0.4882246579534514 -0.8779549363325135
4144000000.0 0.49388754896833864 -0.9100130224266254
4147000000.0000005 0.45482640803093743 -0.915679546837072
4150000000.0000005 0.4832637368297823 -0.9174013184246004
4152999999.9999995 0.4944171973269436 -0.8935696292551354
4155999999.9999995 0.5002665537440713 -0.9159350787869472
4159000000.0 0.4923750900114008 -0.8947890051762402
4162000000.0 0.4923482977915784 -0.8787324593057064
4166000000.0000005 0.4898756636894964 -0.8949016455210372
4168999999.9999995 0.4677067634586356 -0.8821146176327356
4171999999.9999995 0.4950517852861431 -0.9143839659810908
4175000000.0 0.5035006643140334 -0.8770465581913222
4178000000.0 0.48419273045148625 -0.8961070197588389
4181000000.0 0.47690920147237037 -0.8898860391108995
4184000000.0 0.499080346138567 -0.8754155478721793
4187999999.9999995 0.4826344625945321 -0.8507458980655154
4191000000.0 0.5173665957385357 -0.8643693588425352
4194000000.0 0.48569636319615117 -0.8599450767586969
4197000000.0 0.5003144022004201 -0.8944033201572622
4200000000.0 0.5202910882483054 -0.8981659475484887
4203000000.0000005 0.5058501688552519 -0.8940843917127765
4206000000.0000005 0.48294858927232764 -0.9154696471452588
4208999999.9999995 0.4830561267121055 -0.8664264658790477
4211999999.9999995 0.46380808450411737 -0.8912231866743411
4216000000.0 0.49489024002482107 -0.8806236769737498
4219000000.0000005 0.50003917578005 -0.8955053134264938
4222000000.0000005 0.4702273067482272 -0.9057701750230673
4224999999.9999995 0.4868446015653958 -0.8845911561487332
4227999999.9999995 0.4850420461398687 -0.8978615745763624
4231000000.0 0.5028008647159458 -0.9159697820169453
4234000000.0 0.4937042674345685 -0.914349395607687
4238000000.0000005 0.49063307775163645 -0.9002105367025238
4240999999.9999995 0.45475476832794853 -0.8868349539326854
4244000000.0 0.4986004847449946 -0.8789395865436438
4247000000.0 0.4885371703492659 -0.8666922370931655
4250000000.0 0.47551451348557494 -0.8678847328354499
4253000000.0 0.47487110235964025 -0.8718685220572737
4256000000.0 0.4899910784888347 -0.9138650112936393
4259000000.0000005 0.4540878270386397 -0.8812450313288861
4261999999.9999995 0.4749760123573935 -0.8767123642501132
4266000000.0 0.4645910704192518 -0.9175775465007325
4269000000.0 0.5043880847863152 -0.8956261630290824
4272000000.0000005 0.485354428747875 -0.9008576794324721
4275000000.0000005 0.49088364361767645 -0.8988859223648045
4277999999.9999995 0.5006875285054745 -0.90844530150123
4280999999.9999995 0.48418034453686026 -0.8788642514167154
4284000000.0 0.45151753933272804 -0.9118535248925921
4288000000.0000005 0.5122742596370969 -0.8883407429094162
4291000000.0000005 0.4774250033806313 -0.8754689901866444
4293999999.9999995 0.47305208670787147 -0.891523929204068
4297000000.0 0.4951967643418842 -0.8530627264638869
4300000000.0 0.48428717997537984 -0.8918572094103148
4303000000.0 0.4705966454484345 -0.8823308152822174
4306000000.0 0.5051707207657972 -0.8750959029625318
4309000000.0 0.4772028857345152 -0.8751231268927557
4312000000.0 0.5236505791490185 -0.8826218930407072
4316000000.0 0.5039139933809264 -0.8813263130287926
4319000000.0 0.48691887450378163 -0.8732562835088409
4322000000.0 0.4548845597276046 -0.8778493908407856
4325000000.0 0.49285597842405665 -0.8662165361668048
4328000000.0 0.4778134185577216 -0.8809212997496416
4331000000.0 0.46579195386444633 -0.9304554341578737
4334000000.0 0.49678714710373395 -0.8992846022377783
4338000000.0 0.5183176208527396 -0.8737860207039427
4341000000.0 0.5079386112644494 -0.8840848431490936
4344000000.0 0.5250864484550832 -0.9221953434265407
4347000000.0 0.4637600000614648 -0.9083032461359369
4350000000.0 0.4412337016706147 -0.8525942657769625
4353000000.0 0.47250912753433105 -0.8560179507419345
4356000000.0 0.4396838205833017 -0.9090449949370435
4359000000.0 0.4467217916748684 -0.8535213566702501
4362000000.0 0.4471964484179125 -0.91024412488952
4366000000.0 0.46845216233104603 -0.902422013170664
4369000000.0 0.45529725603858767 -0.8731201393246566
4372000000.0 0.42533399610248707 -0.899746595806062
4375000000.0 0.47940649022922766 -0.896710959654068
4378000000.0 0.4575602687715661 -0.8612164219666197
4381000000.0 0.46487934376195233 -0.8648798688256443
4384000000.0 0.5008473169001036 -0.945152762817551
4388000000.0 0.47472664457579183 -0.8700293161626179
4391000000.0 0.4764366521244444 -0.9036916570267287
4394000000.0 0.45686800509174375 -0.8752899057144184
4397000000.0 0.4635075914376292 -0.8992632758293533
4400000000.0 0.4682465741290365 -0.9159418115534695
4403000000.0 0.4685704662196041 -0.9085443344119051
4406000000.0 0.44922715139428715 -0.916786335294137
4409000000.0 0.4818028784606606 -0.923114266136734
4412000000.0 0.41287129178537685 -0.9289239063396862
4416000000.0 0.44331215036235677 -0.8963620983722396
4419000000.0 0.4361818486536551 -0.9122160975252601
4422000000.0 0.4796640240457856 -0.87594271340093
4425000000.0 0.48818173833234296 -0.900730195744774
4428000000.0 0.4622575407487928 -0.910090902720694
4431000000.0 0.4707706814413131 -0.9180695775486927
4434000000.0 0.4506134520698922 -0.9018747681094408
4438000000.0 0.4673564575896437 -0.9163626620990215
4441000000.0 0.4598032205129884 -0.9054180399978179
4444000000.0 0.44640520486154944 -0.8812507329112644
4447000000.0 0.4503082067564095 -0.9062438673308484
4450000000.0 0.4610848768876046 -0.8850929131150462
4453000000.0 0.4681277009239755 -0.9308402283941064
4456000000.0 0.4372832448654751 -0.8701598512655832
4459000000.0 0.4156264574481972 -0.8766235485569956
4462000000.0 0.4677063941940436 -0.9471675761622964
4466000000.0 0.4591076240163054 -0.9444233420266559
4469000000.0 0.48354148336151465 -0.9051394555846586
4472000000.0 0.4457800384723987 -0.9285363685211889
4475000000.0 0.4370721778983789 -0.8914041906167585
4478000000.0 0.4632072708949158 -0.9554212400882223
4481000000.0 0.42638705451402537 -0.8751892077369376
4484000000.0 0.4134223098620562 -0.9322018625974116
4488000000.0 0.427329799159619 -0.9010268597075488
4491000000.0 0.444086267954176 -0.9078651851627996
4494000000.0 0.45789131682224743 -0.8959691791046145
4497000000.0 0.45935994157037285 -0.8961220268826793
4500000000.0 0.4302206908617589 -0.9052165093952127
4503000000.0 0.44681729032106293 -0.9166022125066717
4506000000.0 0.4292059611671233 -0.9057611402514112
4509000000.0 0.43798220169825786 -0.8911930041450493
4512000000.0 0.43846572104372183 -0.882620609060363
4516000000.0 0.4561915625413592 -0.9292323413685372
4519000000.0 0.4428576165761798 -0.8994685708071672
4522000000.0 0.4160162040156241 -0.8914506998368599
4525000000.0 0.47348517245849436 -0.8779351908629817
4528000000.0 0.45936554615526715 -0.9345397577232283
4531000000.0 0.4423802573713257 -0.9017401581326046
4534000000.0 0.42037363368748815 -0.8946661265248368
4538000000.0 0.4251164489614385 -0.8969921348195049
4541000000.0 0.3920192841141888 -0.9229171663647646
4544000000.0 0.43582848164541926 -0.9025859892043755
4547000000.0 0.4535770351792994 -0.8747743544935243
4550000000.0 0.41844200192767717 -0.9159967900154917
4553000000.0 0.430463324909176 -0.9234357407619238
4556000000.0 0.41911855310403195 -0.9135649500004794
4559000000.0 0.411035914023988 -0.9201233515236071
4562000000.0 0.429182136326198 -0.9089451204251303
4566000000.0 0.42877317468314025 -0.9301145933830234
4569000000.0 0.4394071732355292 -0.9117580899708665
4572000000.0 0.4284972261873202 -0.9286017178754558
4575000000.0 0.41517241447255776 -0.932204063568935
4578000000.0 0.4609193686496862 -0.9267779009057058
4581000000.0 0.41378948847259456 -0.9084080071729945
4584000000.0 0.4164744144639765 -0.8962554217602999
4588000000.0 0.4351711589311474 -0.9130006245203448
4591000000.0 0.4297387580798937 -0.8983298448647914
4594000000.0 0.4106342676065504 -0.9137578482807412
4597000000.0 0.4168682638800857 -0.9366404528880359
4600000000.0 0.3949013435126911 -0.919879603942856
4603000000.0 0.4056992133632215 -0.9221528888407353
4606000000.0 0.4162569389281841 -0.9200821034873311
4609000000.0 0.4315797989862694 -0.9053444368779224
4612000000.0 0.4172089687680078 -0.9301094915581118
4616000000.0 0.40815250528746744 -0.916700903296286
4619000000.0 0.40987923797027226 -0.9165795589649998
4622000000.0 0.41596051158499575 -0.9145101058791372
4625000000.0 0.38076502063423734 -0.9159070623188839
4628000000.0 0.41376394930177507 -0.920396016862707
4631000000.0 0.40577310238189324 -0.9185237938414088
4634000000.0 0.4116336896065025 -0.9232730573929322
4638000000.0 0.42318353796284947 -0.9167337038731174
4641000000.0 0.4186556728977553 -0.9139318052436721
4644000000.0 0.41313119561947087 -0.9108758705784061
4647000000.0 0.42548033272190633 -0.9305893433844851
4650000000.0 0.40282938212616276 -0.9330824146218103
4653000000.0 0.41708343233473577 -0.9230541785058399
4656000000.0 0.40953320461226317 -0.9325159712731723
4659000000.0 0.3872751375314818 -0.9211214265631164
4662000000.0 0.41698831764190836 -0.9197175008510727
4666000000.0 0.39063203666992213 -0.944521962171018
4669000000.0 0.4069983538806608 -0.9305799376839387
4672000000.0 0.39433967819504234 -0.9425861993217264
4675000000.0 0.39171020951364866 -0.9270155902804295
4678000000.0 0.38935084808328463 -0.9142954348618979
4681000000.0 0.3601185239526654 -0.9406957266642085
4684000000.0 0.37118794618185774 -0.9472866154365981
4688000000.0 0.3744485915566086 -0.9158078079584628
4691000000.0 0.41331805965786644 -0.9357938489921791
4694000000.0 0.3962756858615329 -0.9210450778683942
4697000000.0 0.36804546732002147 -0.9030371566196644
4700000000.0 0.39056579495578997 -0.9008484378766526
4703000000.0 0.4349105332217169 -0.884506786528577
4706000000.0 0.3751087985222721 -0.9102080618398597
4709000000.0 0.3823387536734761 -0.9220493974093875
4712000000.0 0.40063497181571395 -0.9253028444506962
4716000000.0 0.3980077333779592 -0.9578954629020057
4719000000.0 0.4178805194214984 -0.9105469503851394
4722000000.0 0.4125107080765742 -0.9310400755532937
4725000000.0 0.41048769659395967 -0.9136294511705984
4728000000.0 0.3920144900353799 -0.9319043029830594
4731000000.0 0.40628905290058465 -0.9639222261259186
4734000000.0 0.4075025597034376 -0.895646203840511
4738000000.0 0.4289935316936818 -0.974112085977126
4741000000.0 0.36804748746511534 -0.954875622639358
4744000000.0 0.38964192365498707 -0.9549867257613263
4747000000.0 0.40534379267349 -0.9341620541333463
4750000000.0 0.39221262621450925 -0.9446735992193666
4753000000.0 0.3956801092299521 -0.9243902598788413
4756000000.0 0.3802432390561383 -0.955675711930293
4759000000.0 0.42742339038246846 -0.9414716753230039
4762000000.0 0.39016118861700544 -0.9760091507021944
4766000000.0 0.3821530993475311 -0.9281002621940446
4769000000.0 0.3909375380516571 -0.9537768124382916
4772000000.0 0.4070280696052359 -0.9485314002547579
4775000000.0 0.3725157702371345 -0.974509339776159
4778000000.0 0.39940223905161965 -0.972546504356942
4781000000.0 0.3923625602624551 -0.9256989663891808
4784000000.0 0.43253675296328953 -0.9114826295850978
4788000000.0 0.3844811672907813 -0.9340384128774111
4791000000.0 0.39542158844798003 -0.9253604017341784
4794000000.0 0.44264812271596143 -0.9491575186288196
4797000000.0 0.3615456928891285 -0.9222797683865428
4800000000.0 0.37447273768534606 -0.9209497353752787
4803000000.0 0.3570227835038376 -0.9457277828786522
4806000000.0 0.4001313325702546 -0.9709110650757268
4809000000.0 0.32569934861552763 -0.959785040963693
4812000000.0 0.36295530742529275 -0.9464073706378281
4816000000.0 0.38081464388098607 -0.9194053866657437
4819000000.0 0.42282256450113 -0.9581083057074891
4822000000.0 0.4250022750915069 -0.992691958247754
4825000000.0 0.423847492936853 -0.96102499088879
4828000000.0 0.39507803868715297 -0.9438500425656203
4831000000.0 0.3589518381188058 -0.9723385540056398
4834000000.0 0.3982065614734477 -0.9454908624342718
4838000000.0 0.3754174673947575 -0.965579555586104
4841000000.0 0.3760577433825202 -0.9408806200709544
4844000000.0 0.4303408785386414 -0.9267102785494611
4847000000.0 0.3817795743238439 -0.9250320605860033
4850000000.0 0.3712573219706657 -0.9811421985712449
4853000000.0 0.38061720621810635 -0.9076552742307642
4856000000.0 0.4005992321980817 -0.9247298458739481
4859000000.0 0.39522006045869895 -0.9957868455000216
4862000000.0 0.40100948136779907 -0.9112066297698111
4866000000.0 0.3692261285291897 -0.9864523866094772
4869000000.0 0.3673924802442878 -0.9410659766321847
4872000000.0 0.36794945971461857 -0.9904604459498084
4875000000.0 0.457796747850399 -0.9969384214244312
4878000000.0 0.3794587939723178 -0.952907464111225
4881000000.0 0.38424036869775435 -1.014136023939203
4884000000.0 0.4004149056993357 -0.9538017086956774
4888000000.0 0.42126329109229044 -0.9534530205785602
4891000000.0 0.4240206471229256 -0.9770720153830086
4894000000.0 0.38537209105273446 -0.9656764726251131
4897000000.0 0.4072820796352965 -0.9313912587013985
4900000000.0 0.413904683200866 -0.9596755788293316
4903000000.0 0.42012545007220375 -0.9581359070314265
4906000000.0 0.41047892072714615 -0.9835306595382282
4909000000.0 0.4056796582908769 -0.938273239889541
4912000000.0 0.3802486276386474 -0.9693821376416956
4916000000.0 0.40931062016523795 -0.974647253989082
4919000000.0 0.39984715588708664 -0.9692384342492637
4922000000.0 0.43980815824557945 -0.983769792284471
4925000000.0 0.3554234341503655 -0.9741029877653373
4928000000.0 0.42702554065695764 -0.9229551503701672
4931000000.0 0.3931092164363118 -0.9572940857561715
4934000000.0 0.36573108374925534 -0.9332540511848385
4938000000.0 0.3592449370932669 -0.9579157282545454
4941000000.0 0.37057186331412445 -0.9363551807436821
4944000000.0 0.4068585232010006 -0.9063953346192898
4947000000.0 0.3966365887876603 -0.921791128852152
4950000000.0 0.37067984476424887 -0.919165766236334
4953000000.0 0.36341203591224547 -0.9924648417721184
4956000000.0 0.39489711747951517 -0.9534716477936797
4959000000.0 0.31635921774887366 -0.9340813422919649
4962000000.0 0.3953990247127487 -1.0328548568810179
4966000000.0 0.43250939247089365 -0.9664691928535789
4969000000.0 0.41059813976045756 -1.0086521454020927
4972000000.0 0.37325940709288086 -0.9495062548441634
4975000000.0 0.41226100448180236 -0.956235029640244
4978000000.0 0.3823272326013238 -0.955863959058066
4981000000.0 0.3955072165463017 -0.9848540738251697
4984000000.0 0.3818745209756622 -0.9367513155693721
4988000000.0 0.41303862602919916 -0.9634499553062654
4991000000.0 0.4585003387218878 -0.9380911540588368
4994000000.0 0.39743266951423284 -0.9439080617280462
4997000000.0 0.3541875828060367 -0.9831813598227093
5000000000.0 0.4389850825377586 -0.9762386990887202
5003000000.0 0.3934781046482987 -0.9781383671597765
5006000000.0 0.4151080795338232 -1.0021557613374679
5009000000.0 0.39457911379151506 -0.9577250012850873
5012000000.0 0.36610963824751247 -0.9698114074281043
5016000000.0 0.45514786032630217 -0.9803132605621382
5019000000.0 0.38564934930084493 -0.9321030033383446
5022000000.0 0.38956233102715876 -0.9733314256426577
5025000000.0 0.3965078168348502 -1.0056183139172727
5028000000.0 0.36817106324972176 -0.9816133153021999
5031000000.0 0.36679011504427717 -0.9505924702449751
5034000000.0 0.38390339315009564 -1.006335953093755
5038000000.0 0.34460310541457256 -0.9347296011489641
5041000000.0 0.44512345407123965 -0.9328783828861014
5044000000.0 0.4160578361455361 -0.9200538982049603
5047000000.0 0.3811763911872173 -0.9485917123692411
5050000000.0 0.4271426819756128 -0.9005647582320073
5053000000.0 0.39386144932603745 -1.023762749488994
5056000000.0 0.4398978438566558 -0.9396005327474951
5059000000.0 0.4294455161167872 -0.924090386305537
5062000000.0 0.35102566708273647 -0.994673414387407
5066000000.0 0.4119784572178925 -0.9838519417260077
5069000000.0 0.4037426349040892 -0.9667923071267128
5072000000.0 0.38574582658199885 -0.9393013125197813
5075000000.0 0.42178490681696973 -0.9584017132916118
5078000000.0 0.3360059126877687 -0.98419398509205
5081000000.0 0.33631038944861447 -0.9188711476176314
5084000000.0 0.39214602964701634 -0.9456541591695504
5088000000.0 0.402587863264203 -0.940469669857247
5091000000.0 0.35202333016437337 -0.9651671282298202
5094000000.0 0.3769980746303448 -0.960333396530428
5097000000.0 0.39975751429406103 -0.9435272404664787
5100000000.0 0.3822173908713487 -0.9569571810604711
5103000000.0 0.3517692341702166 -0.9463094815272648
5106000000.0 0.42076490076906514 -0.9513930057029591
5109000000.0 0.42855619430509523 -0.9610995295351396
5112000000.0 0.3509835320012637 -0.9677542962717991
5116000000.0 0.39309947852515376 -0.9044463287912259
5119000000.0 0.38025756863832505 -0.9645722182567014
5122000000.0 0.3871432386460638 -0.957625849116263
5125000000.0 0.4264839268659911 -0.9430230127750148
5128000000.0 0.4002151242186109 -0.9582693563109873
5131000000.0 0.40620686309623744 -0.9555742783809905
5134000000.0 0.3879422638349175 -0.921302958065998
5138000000.0 0.45387138046086123 -0.8988354469807909
5141000000.0 0.39740645111697703 -0.9191912444798203
5144000000.0 0.39846642662011184 -0.9031792817870281
5147000000.0 0.4436293205653523 -1.0022764964558295
5150000000.0 0.41452056607378757 -0.9704106868752398
5153000000.0 0.4110441453633184 -0.9545531583986713
5156000000.0 0.3958797959377402 -0.9518573475793954
5159000000.0 0.43920349653703306 -0.9874994905692946
5162000000.0 0.35845101971101967 -0.9583242197936876
5166000000.0 0.3878376480129484 -0.9765606886180478
5169000000.0 0.38258122422688134 -0.9659382087516191
