! Created with skrf 1.8.0 (http://scikit-rf.org).
# Hz S RI R 50.0 
!freq ReS11 ImS11
4000000000.0 0.5665152391536126 -0.8709199692071903
4003000000.0 0.5884692347443479 -0.9026294155421917
4006000000.0 0.5479196664738016 -0.8816928410864375
4009000000.0000005 0.5563471586907835 -0.868856144035388
4011999999.9999995 0.5952727777673891 -0.8730102193441427
4016000000.0 0.5405567955366047 -0.9072101539636551
4019000000.0 0.5078076281483584 -0.8759813349864429
4022000000.0000005 0.6257348083573866 -0.8075382162968712
4025000000.0000005 0.4959254150117742 -0.9077874409015536
4027999999.9999995 0.5015004066478768 -0.9298106305837652
4030999999.9999995 0.5260619110615014 -0.8282297284150909
4034000000.0 0.5247822458853659 -0.843837506011131
4038000000.0000005 0.5677682508742083 -0.8819170524183003
4041000000.0000005 0.5207980339796721 -0.8833175961571905
4043999999.9999995 0.5915222019046995 -0.9411473755509892
4046999999.9999995 0.5819991659842721 -0.916558860034328
4050000000.0 0.5599456607355757 -0.9270466864136551
4053000000.0 0.5494154489784426 -0.922741945426948
4056000000.0 0.5696051232847121 -0.9017561083949407
4059000000.0 0.5457514219389384 -0.8919195133829654
4062000000.0000005 0.5284291859956486 -0.9108431816909702
4066000000.0 0.5298115010575314 -0.8107739013581539
4069000000.0 0.5632346291537909 -0.9193825175712522
4072000000.0 0.5939647055614256 -0.8384075263618181
4075000000.0 0.6086258039455206 -0.8877036793001676
4078000000.0000005 0.5336078953003021 -0.8696900026612098
4081000000.0000005 0.6229345786177213 -0.8606435622868602
4083999999.9999995 0.5937476108947416 -0.8918941791707918
4088000000.0 0.5622132788694173 -0.8227688679395445
4091000000.0 0.6093824225847746 -0.9349567008354118
4094000000.0000005 0.5701902600111028 -0.8852892398618311
4097000000.0000005 0.5758170239053431 -0.8597211789783977
4099999999.9999995 0.5512892344325201 -0.8783717268015336
4102999999.9999995 0.5811565373912277 -0.8675917109591971
4106000000.0 0.5391776300332272 -0.8830946954912671
4109000000.0 0.5370882473353242 -0.8988103250136836
4112000000.0 0.5416705557428589 -0.8536871546662097
4115999999.9999995 0.6043919858743231 -0.8469971424546573
4119000000.0 0.52145560835368 -0.8825676301340173
4122000000.0 0.5499806427431726 -0.878531192352816
4125000000.0 0.5586835519212806 -0.8972584794335748
4128000000.0 0.5587725938414991 -0.8331239671124356
4131000000.0 0.5640553311780279 -0.8444952431336068
4134000000.0000005 0.552931065426138 -0.8711904354292361
4138000000.0 0.5120837282131723 -0.881325010773803
4141000000.0 0.550664813246366 -0.8478995214832642
4144000000.0 0.5461603820159436 -0.8775300744120659
4147000000.0000005 0.5574391815448165 -0.8444487261729491
4150000000.0000005 0.5635403973932585 -0.8916800971063724
4152999999.9999995 0.5290417101905507 -0.8565650903273564
4155999999.9999995 0.5876892252908629 -0.878295881383775
4159000000.0 0.5805272586800827 -0.8392075944166235
4162000000.0 0.5541794028408822 -0.839877193031037
4166000000.0000005 0.5372509806213905 -0.8662144438195807
4168999999.9999995 0.5323381889842568 -0.8808096788278418
4171999999.9999995 0.546889623214241 -0.8660752614316144
4175000000.0 0.5572004970817184 -0.8619976706860999
4178000000.0 0.553874162213945 -0.8741820474704598
4181000000.0 0.563428540183902 -0.8801147038682499
4184000000.0 0.5617157797327917 -0.8891736051184005
4187999999.9999995 0.5545275231007754 -0.8815373301858281
4191000000.0 0.5601676740388936 -0.8253195571430396
4194000000.0 0.5462381816635898 -0.8367233931897238
4197000000.0 0.5627566734211498 -0.8748117592603137
4200000000.0 0.5766882022735735 -0.8631183016999514
4203000000.0000005 0.5819479648411439 -0.8609154404574828
4206000000.0000005 0.560389074552801 -0.8750602754720362
4208999999.9999995 0.5396540503536199 -0.8172825238150272
4211999999.9999995 0.5268969885195368 -0.872749795978009
4216000000.0 0.5601553792178088 -0.8447497963020923
4219000000.0000005 0.5731976435829909 -0.8746570600191791
4222000000.0000005 0.5654937901964701 -0.8761960152249431
4224999999.9999995 0.5583026106250287 -0.855561004719979
4227999999.9999995 0.5556734262048328 -0.854324479521349
4231000000.0 0.560344799593003 -0.8532611345202301
4234000000.0 0.5600870115722318 -0.8786203631454559
4238000000.0000005 0.5383605018628044 -0.8613908074533391
4240999999.9999995 0.543449452892369 -0.8622499870008072
4244000000.0 0.5530719958789034 -0.8536525527395771
4247000000.0 0.5696013870089234 -0.8586592343174788
4250000000.0 0.5533694977171274 -0.8280012011185486
4253000000.0 0.5396108686444788 -0.8381487468765019
4256000000.0 0.5625444050544677 -0.8804240165737165
4259000000.0000005 0.526931929226355 -0.8376419468746796
4261999999.9999995 0.5409355563216354 -0.8657411313608374
4266000000.0 0.5330558130247175 -0.8933807754681443
4269000000.0 0.5630366778319714 -0.8545950966259198
4272000000.0000005 0.5507291731302331 -0.8655261469364035
4275000000.0000005 0.5468609447139012 -0.8476309910353492
4277999999.9999995 0.5599580569142532 -0.8647612336382355
4280999999.9999995 0.5607954810626719 -0.8531607038181515
4284000000.0 0.5217283063178446 -0.8809844920186256
4288000000.0000005 0.5858145057555724 -0.8392967644383278
4291000000.0000005 0.5268893042554125 -0.8355404855774986
4293999999.9999995 0.5566208347925189 -0.8571964536806432
4297000000.0 0.5863202417086231 -0.8345681667015286
4300000000.0 0.5456034405835939 -0.8330385826288517
4303000000.0 0.5236617746166919 -0.8236574768747148
4306000000.0 0.5579288325190052 -0.849247314768882
4309000000.0 0.55505597513274 -0.8572817587463153
4312000000.0 0.5785452266131236 -0.8532672338567284
4316000000.0 0.5697089792987438 -0.8582776510050399
4319000000.0 0.5240290403152481 -0.824827037333702
4322000000.0 0.49768437210935706 -0.8651919281961145
4325000000.0 0.565195889718689 -0.8514219030905235
4328000000.0 0.543265597553492 -0.8230005250302689
4331000000.0 0.5289835433814097 -0.8613914057778594
4334000000.0 0.5492618660736333 -0.8749192530706388
4338000000.0 0.553806113702595 -0.8258998465378807
4341000000.0 0.5929079791540446 -0.8579276741667454
4344000000.0 0.5739136601102632 -0.8752953566863113
4347000000.0 0.5322275797737642 -0.8929820406014393
4350000000.0 0.5245171869838995 -0.8332612786484285
4353000000.0 0.5318375343207009 -0.8341159268053265
4356000000.0 0.5129425577382664 -0.8854620850691576
4359000000.0 0.5157534841496436 -0.8275456838332014
4362000000.0 0.5140126727831225 -0.8864407691870504
4366000000.0 0.5422867285395376 -0.8817866639438374
4369000000.0 0.5200227701653786 -0.8306302589339946
4372000000.0 0.5025444466435962 -0.8716269626276724
4375000000.0 0.5607582381297531 -0.8490430644997101
4378000000.0 0.5536925770254254 -0.8323770502187854
4381000000.0 0.5502349674914394 -0.8409649813900297
4384000000.0 0.5767783302850771 -0.9077279311942663
4388000000.0 0.534632259068556 -0.8425578523307806
4391000000.0 0.5572605362545124 -0.8543415839549653
4394000000.0 0.5231197964108514 -0.8393695371892695
4397000000.0 0.5304880678360537 -0.8517967009072497
4400000000.0 0.5466066157221344 -0.8793701452475431
4403000000.0 0.5382670970043946 -0.8516934298019387
4406000000.0 0.5446444716906412 -0.8672114229595456
4409000000.0 0.5563477241749811 -0.896199791374334
4412000000.0 0.4962141497899872 -0.8812842137393778
4416000000.0 0.5266161282205072 -0.847823475719883
4419000000.0 0.522133233034402 -0.8638291917084249
4422000000.0 0.5565183084179455 -0.8475541324479012
4425000000.0 0.5625615743107696 -0.85715428356506
4428000000.0 0.5349592504910734 -0.8608071582139909
4431000000.0 0.5557476864681933 -0.8744525995104114
4434000000.0 0.5244140472432431 -0.851757834584185
4438000000.0 0.5496461848489256 -0.8779840596200325
4441000000.0 0.539533424373934 -0.8765411077527328
4444000000.0 0.5388780084144251 -0.8412827823173404
4447000000.0 0.5293905854726677 -0.8641120310840846
4450000000.0 0.5443527887296908 -0.8475075277652334
4453000000.0 0.5412701122648004 -0.8791885579602886
4456000000.0 0.510056498137134 -0.8457442883892734
4459000000.0 0.49325347738722103 -0.8255151022837284
4462000000.0 0.5718370284866927 -0.9066913554032145
4466000000.0 0.5448159372406027 -0.8947266850421172
4469000000.0 0.5557756604584725 -0.8484302202376729
4472000000.0 0.5334020442717766 -0.8935742652521947
4475000000.0 0.5119966986048892 -0.8449478654518952
4478000000.0 0.5542787494297331 -0.9162995655031738
4481000000.0 0.5155904387826606 -0.8376135122359116
4484000000.0 0.480094298648282 -0.8777766034462791
4488000000.0 0.5082561982621807 -0.8369102317903593
4491000000.0 0.5235883827739252 -0.8763144578469048
4494000000.0 0.5225114113207141 -0.8541198980735191
4497000000.0 0.5279545478837167 -0.8579537765399319
4500000000.0 0.5144172032936145 -0.8565740400346324
4503000000.0 0.5391296490844286 -0.873348424104673
4506000000.0 0.5157231159672293 -0.8650345922000326
4509000000.0 0.5285159908021474 -0.8429225579254538
4512000000.0 0.5002235472304164 -0.8604863778780714
4516000000.0 0.5469938015227732 -0.871265498029254
4519000000.0 0.5280083301491976 -0.8516079291374907
4522000000.0 0.502734473445364 -0.8775395763692613
4525000000.0 0.5407902201214845 -0.8346126097844434
4528000000.0 0.5368855014130847 -0.8720803828193546
4531000000.0 0.5370922627157549 -0.8585857249734253
4534000000.0 0.5265595646661584 -0.8640319485274267
4538000000.0 0.5309765044290345 -0.8587825330050434
4541000000.0 0.482663651359136 -0.8604352485481995
4544000000.0 0.5247776650225824 -0.8548378369587073
4547000000.0 0.5123528444327399 -0.8616119770330952
4550000000.0 0.5202725460467685 -0.8678390521680824
4553000000.0 0.5255554740517268 -0.8794625828217506
4556000000.0 0.4992786935102336 -0.8726965318645448
4559000000.0 0.5058647377984136 -0.8780836763141937
4562000000.0 0.5319795473287807 -0.8784304619012201
4566000000.0 0.5126374651839392 -0.8782229418487085
4569000000.0 0.5068204901130049 -0.8511586960514799
4572000000.0 0.5245916389593319 -0.8635066919163985
4575000000.0 0.5050751587449385 -0.8892199800821954
4578000000.0 0.5480216803556271 -0.897315799847525
4581000000.0 0.5142225704654415 -0.8947069416008382
4584000000.0 0.523144581607988 -0.8516791554241867
4588000000.0 0.5286829798818451 -0.8766264293144416
4591000000.0 0.5254775139114397 -0.8710350405637874
4594000000.0 0.4935450441391152 -0.8745451916437254
4597000000.0 0.5160693385296979 -0.8920421459667368
4600000000.0 0.47633132103895093 -0.8839403730500569
4603000000.0 0.5044358452849491 -0.8827551554929737
4606000000.0 0.5195801888566315 -0.8742110020332015
4609000000.0 0.5235421053574935 -0.8478747400385249
4612000000.0 0.5116657434545426 -0.8563741033370297
4616000000.0 0.5047686451403326 -0.8686914710559618
4619000000.0 0.5073893270628895 -0.8653265296361748
4622000000.0 0.5140854803386852 -0.8810246673567435
4625000000.0 0.4839703228481381 -0.8447918174947266
4628000000.0 0.5173314777079636 -0.8601583512199407
4631000000.0 0.49407960131569406 -0.8663700968237708
4634000000.0 0.5111743536512647 -0.8770380840640792
4638000000.0 0.5191895963121311 -0.8682876564553133
4641000000.0 0.5200457957070513 -0.8961598226947344
4644000000.0 0.4806971326459608 -0.876424423509528
4647000000.0 0.5208641586834666 -0.8794265174388896
4650000000.0 0.4922744688978922 -0.867663505243459
4653000000.0 0.5202805865141706 -0.8885292522869265
4656000000.0 0.500455323568483 -0.8852994307735206
4659000000.0 0.4781638976718352 -0.8684677230346226
4662000000.0 0.5073653270648993 -0.9010131513349832
4666000000.0 0.49345778734274626 -0.8750351832055551
4669000000.0 0.5158580560470744 -0.8663988544472798
4672000000.0 0.49054230335309457 -0.8979916905917333
4675000000.0 0.49671012764094175 -0.8863134501365117
4678000000.0 0.48181985737883387 -0.8669471331480979
4681000000.0 0.48341261049679407 -0.8900229070378565
4684000000.0 0.48043543292016977 -0.889472008281793
4688000000.0 0.4654238445039004 -0.8569003603738428
4691000000.0 0.5163792688619672 -0.8868762133258401
4694000000.0 0.4988368083872131 -0.8805661174895524
4697000000.0 0.47233957223043355 -0.8552856364472886
4700000000.0 0.4958911449441319 -0.8739244487707326
4703000000.0 0.5100011181253582 -0.852075400614262
4706000000.0 0.4685582598686149 -0.8954401275040179
4709000000.0 0.5028114823222625 -0.897737754619239
4712000000.0 0.507178510384966 -0.8838651723602858
4716000000.0 0.4780431690291758 -0.9118947776957841
4719000000.0 0.5161856844333851 -0.8724390047856214
4722000000.0 0.5322046765467826 -0.8780168217402625
4725000000.0 0.5132523587722325 -0.8809185487740251
4728000000.0 0.5093867572668926 -0.8932875477466427
4731000000.0 0.5361141316337854 -0.8897652489804662
4734000000.0 0.5426794298130123 -0.8720963327213787
4738000000.0 0.5349049393919223 -0.9088738566487468
4741000000.0 0.5018526275419137 -0.9037191263537868
4744000000.0 0.49305289343146314 -0.8884666212446475
4747000000.0 0.5130480922739992 -0.8478056171805918
4750000000.0 0.4986399894136987 -0.9062649422109914
4753000000.0 0.5055153804523098 -0.8964339910887505
4756000000.0 0.49150199242917786 -0.8917631312953062
4759000000.0 0.49826269138099566 -0.8971367875684967
4762000000.0 0.4768079607835982 -0.9190902054072454
4766000000.0 0.48093958112116 -0.9106946866815576
4769000000.0 0.501441477732013 -0.9068406200749363
4772000000.0 0.5180678095408171 -0.8857737730547193
4775000000.0 0.5129992653557657 -0.9611754416455005
4778000000.0 0.49244097572084744 -0.8969197273704692
4781000000.0 0.5051588415819968 -0.8543540595334004
4784000000.0 0.5300219919036431 -0.8705980356078569
4788000000.0 0.47788721647580323 -0.8952431508819441
4791000000.0 0.4773761545580266 -0.8959385498069535
4794000000.0 0.520129450387818 -0.9128271776565695
4797000000.0 0.5087961200592825 -0.8684039750878269
4800000000.0 0.46919774044684154 -0.8807020322597604
4803000000.0 0.440548245410386 -0.8904140740917458
4806000000.0 0.4840066868694599 -0.8996294147040957
4809000000.0 0.46568195892993175 -0.9057131108607561
4812000000.0 0.4399365873713106 -0.9074774937326078
4816000000.0 0.518467280592066 -0.8793078381359616
4819000000.0 0.5362722273093143 -0.914334770710084
4822000000.0 0.5397348274603266 -0.940449577629495
4825000000.0 0.516312822752833 -0.8994187757281771
4828000000.0 0.4944898443795639 -0.8892042878060518
4831000000.0 0.4718361637461397 -0.9385071069316641
4834000000.0 0.5056606225118347 -0.9004707107191998
4838000000.0 0.5046993315971963 -0.911742760605022
4841000000.0 0.49795047247706237 -0.901925598694214
4844000000.0 0.5298193443682223 -0.9000159292293345
4847000000.0 0.49484049561604404 -0.861591110923948
4850000000.0 0.5016415352889403 -0.9171749959601381
4853000000.0 0.5017942301485105 -0.8800391067688372
4856000000.0 0.5131070918137445 -0.8903841686041597
4859000000.0 0.5036972312596677 -0.9473854706439822
4862000000.0 0.5133540259236982 -0.8713744765538902
4866000000.0 0.5176133635518751 -0.9265509152850119
4869000000.0 0.4783973291182152 -0.9100794339005644
4872000000.0 0.4970546301243124 -0.9472582757372431
4875000000.0 0.5770049284314329 -0.919705136934253
4878000000.0 0.5076318780514515 -0.9150184888493699
4881000000.0 0.48560951779634187 -0.968836835933594
4884000000.0 0.49592634590184065 -0.900735711985994
4888000000.0 0.5524869845107967 -0.876351932170162
4891000000.0 0.5126970675833736 -0.903213867279082
4894000000.0 0.46855710325052313 -0.8967961506023854
4897000000.0 0.5166957337470398 -0.8750564418101726
4900000000.0 0.5079745551744056 -0.8845552086242754
4903000000.0 0.5157945456234171 -0.9130056391346782
4906000000.0 0.5249847104802934 -0.9327022828748441
4909000000.0 0.5215075185467671 -0.8997616544574972
4912000000.0 0.5037611796021588 -0.9522864051878679
4916000000.0 0.5340405718948121 -0.9018165958548641
4919000000.0 0.5621332219378181 -0.9102760419070897
4922000000.0 0.5466662677719714 -0.9075922758265503
4925000000.0 0.48346349842762026 -0.9009304135303606
4928000000.0 0.5468209872631664 -0.8623823478494561
4931000000.0 0.502679882563287 -0.9001617235449371
4934000000.0 0.5050806684456203 -0.8857953087244204
4938000000.0 0.49397412819111414 -0.909939877441785
4941000000.0 0.522022981977374 -0.8921264453436283
4944000000.0 0.5009295889314626 -0.8259955218706991
4947000000.0 0.5039485682196231 -0.8670857128783839
4950000000.0 0.5150109444763608 -0.8992529764886841
4953000000.0 0.501478350024618 -0.9304271104131187
4956000000.0 0.488835671564218 -0.9020371613256314
4959000000.0 0.46417738688000554 -0.8813806592396058
4962000000.0 0.5165401597321847 -0.928279512173971
4966000000.0 0.5199151958040048 -0.9091842827448922
4969000000.0 0.5658834619178824 -0.921551322981161
4972000000.0 0.5202822671542147 -0.8999238350918135
4975000000.0 0.5374220196751225 -0.8854331644476638
4978000000.0 0.5403134327710357 -0.9185469426690014
4981000000.0 0.4955247088219716 -0.9357517201791345
4984000000.0 0.520651152532253 -0.884270225907037
4988000000.0 0.5281440348251987 -0.8664690437421468
4991000000.0 0.5892594637644143 -0.882773150895277
4994000000.0 0.5257654808846026 -0.8764448010975536
4997000000.0 0.48541387787351264 -0.9364692571691988
5000000000.0 0.5368082865683008 -0.8982840211092974
5003000000.0 0.5752787143477691 -0.9237360801978207
5006000000.0 0.5538962059139266 -0.9469092930274873
5009000000.0 0.5378653845377789 -0.9117950414832396
5012000000.0 0.47553878062529503 -0.8959943491867062
5016000000.0 0.5639186019014625 -0.8967070090213282
5019000000.0 0.5181223630125589 -0.885862127526405
5022000000.0 0.5441180048918062 -0.8964722318936152
5025000000.0 0.5673812473551392 -0.9483451351928888
5028000000.0 0.5105458398306207 -0.9220798816167083
5031000000.0 0.516201270744329 -0.9354478061085808
5034000000.0 0.48360910682963865 -0.943613570923904
5038000000.0 0.5048959016244303 -0.8866832857588967
5041000000.0 0.5667503492253126 -0.9020737635113159
5044000000.0 0.5469613512765045 -0.8634552689900363
5047000000.0 0.5426472771446362 -0.9011704314174769
5050000000.0 0.5737530736485661 -0.861803955637208
5053000000.0 0.5729148597617484 -0.9232955490073858
5056000000.0 0.5845653132745159 -0.8862543775884493
5059000000.0 0.5680588049025064 -0.8777941634156332
5062000000.0 0.5187280149946952 -0.9196422829496438
5066000000.0 0.5625751550761751 -0.8937926996441806
5069000000.0 0.5425232411764301 -0.9290225221654937
5072000000.0 0.5469227246548565 -0.8503023933859066
5075000000.0 0.5532225998022137 -0.8693387169006398
5078000000.0 0.5005388694016463 -0.9034596198952629
5081000000.0 0.5247145525722892 -0.8928720259569582
5084000000.0 0.5611879987320505 -0.924875770576467
5088000000.0 0.5680328846815955 -0.8822307055691391
5091000000.0 0.4977864221989064 -0.943605890078272
5094000000.0 0.5692604331829609 -0.9350551000874919
5097000000.0 0.5639620825997177 -0.9039529436589177
5100000000.0 0.5529673425868751 -0.9019767445741931
5103000000.0 0.5199254685097718 -0.9404001153115464
5106000000.0 0.5663739537348171 -0.9089724243897406
5109000000.0 0.5720427265665615 -0.9058714808997123
5112000000.0 0.48490825489188655 -0.8992783978195713
5116000000.0 0.5439021762179774 -0.8575245572555052
5119000000.0 0.5504384595523826 -0.8982195059148722
5122000000.0 0.5469266497678541 -0.834471378845324
5125000000.0 0.55107568064532 -0.8859835324084967
5128000000.0 0.5589695223301138 -0.8826598564161083
5131000000.0 0.5123367360519906 -0.8613059611665472
5134000000.0 0.523169694557504 -0.8782490613474949
5138000000.0 0.5595320511657783 -0.8695953132726908
5141000000.0 0.5974914950257029 -0.8661802123830193
5144000000.0 0.5766903241328972 -0.8936857780305981
5147000000.0 0.5649346326765047 -0.8820479756138031
5150000000.0 0.5767577323654112 -0.9033416053291774
5153000000.0 0.5861050803907211 -0.9141797735174866
5156000000.0 0.562316159293224 -0.89926988766827
5159000000.0 0.5756220637821906 -0.9106260684217515
5162000000.0 0.5593548818529778 -0.893266156471898
5166000000.0 0.5443370660121981 -0.9253410972779954
5169000000.0 0.6144043504205751 -0.9030284221747711
5172000000.0 0.5482558876916224 -0.8596717798186666
5175000000.0 0.618214366764211 -0.872412929659332
5178000000.0 0.5274561484577709 -0.8998874499249249
