! Created with skrf 1.8.0 (http://scikit-rf.org).
# Hz S RI R 50.0 
!freq ReS11 ImS11
4000000000.0 0.509884349918006 -0.8814220215856761
4003000000.0 0.469835614919751 -0.9669147462872216
4006000000.0 0.45476539031305496 -0.9235790550260501
4009000000.0000005 0.5095129452046443 -0.893387577665932
4011999999.9999995 0.5479877738900168 -0.886686561012312
4016000000.0 0.4932679207804954 -0.8837440736266072
4019000000.0 0.47044370377252365 -0.9182812699602801
4022000000.0000005 0.5558433643444208 -0.8517102193064177
4025000000.0000005 0.436138120019842 -0.9489439325128894
4027999999.9999995 0.5024611355663344 -0.9233949856874252
4030999999.9999995 0.4772799965653379 -0.8705624393653891
4034000000.0 0.46914052439327236 -0.8837811482742026
4038000000.0000005 0.4824915780893576 -0.8960120713324651
4041000000.0000005 0.48108592750030976 -0.8817775690955214
4043999999.9999995 0.5247768474612611 -0.9837943540350208
4046999999.9999995 0.5067022226241159 -0.9472308973151964
4050000000.0 0.4665955339440171 -0.9404686441511625
4053000000.0 0.44097112391839133 -0.9357392054774165
4056000000.0 0.4952863657862083 -0.9126187566225212
4059000000.0 0.4603523803046796 -0.8914029530810276
4062000000.0000005 0.4605283654932036 -0.9015913292873131
4066000000.0 0.43685938070516545 -0.8422423608292577
4069000000.0 0.4669637720677957 -0.9126706651109753
4072000000.0 0.5244773670996911 -0.8557122880397627
4075000000.0 0.4768382720329636 -0.885297116276268
4078000000.0000005 0.45186401202701615 -0.9365993246601221
4081000000.0000005 0.5175875240542701 -0.9134821268872536
4083999999.9999995 0.4427267645189572 -0.9240288855945872
4088000000.0 0.4824260820370393 -0.8812639859581196
4091000000.0 0.5239862226050207 -0.9750955987998438
4094000000.0000005 0.46139488803938 -0.8923981330849933
4097000000.0000005 0.4633401320253248 -0.9147144486550972
4099999999.9999995 0.48280136440149657 -0.8876592104058382
4102999999.9999995 0.5018563178893903 -0.8897525197720834
4106000000.0 0.5066039515919452 -0.948057635990389
4109000000.0 0.4554619145880345 -0.953897950167388
4112000000.0 0.4564102901644947 -0.9113584276929576
4115999999.9999995 0.4925746968124655 -0.9060375952396834
4119000000.0 0.4887010721362869 -0.8953337953944619
4122000000.0 0.42753638572116853 -0.8929606200006377
4125000000.0 0.4660046000472947 -0.8914993315762515
4128000000.0 0.5227503703362493 -0.8678527404635124
4131000000.0 0.48222006529993067 -0.9050356630332167
4134000000.0000005 0.492888062817005 -0.8833447327154673
4138000000.0 0.46439114271469567 -0.8819114901550493
4141000000.0 0.4715165443011854 -0.9178001725758613
4144000000.0 0.513931081378705 -0.9094664689894455
4147000000.0000005 0.46823129890124815 -0.9068687138042464
4150000000.0000005 0.4822687489734489 -0.943649515186837
4152999999.9999995 0.4563011733774866 -0.8834203330264534
4155999999.9999995 0.5022634210963165 -0.9109070582608139
4159000000.0 0.5035702850562909 -0.8669925443596045
4162000000.0 0.47528058249592875 -0.8794181414374325
4166000000.0000005 0.4719673034306393 -0.9356997430334334
4168999999.9999995 0.45990184494599545 -0.9186098258627198
4171999999.9999995 0.5013784287006671 -0.9036328125510608
4175000000.0 0.5184387587220611 -0.9054746274551149
4178000000.0 0.507854254679846 -0.896201108063527
4181000000.0 0.4736902072089464 -0.9064228668347399
4184000000.0 0.47724665346149864 -0.8931026874054739
4187999999.9999995 0.4764270910400227 -0.890943358379695
4191000000.0 0.5117222347719782 -0.876947124296831
4194000000.0 0.45850240589084446 -0.8779480593770328
4197000000.0 0.46108721080277265 -0.9003949907095932
4200000000.0 0.5036265563861888 -0.8844276605436301
4203000000.0000005 0.49502404092192664 -0.9163178312668424
4206000000.0000005 0.49703838124877153 -0.922641838291142
4208999999.9999995 0.46762750778223444 -0.8894309215066708
4211999999.9999995 0.4459915646895179 -0.9232636738951577
4216000000.0 0.4857911811871724 -0.879694042815741
4219000000.0000005 0.4879750525436486 -0.915928901443349
4222000000.0000005 0.46579812473609766 -0.893506804137566
4224999999.9999995 0.46852003638513845 -0.8781184442529925
4227999999.9999995 0.46430388275011614 -0.9051751144876599
4231000000.0 0.484910463544177 -0.8949699688686032
4234000000.0 0.4645901403499231 -0.898447676216227
4238000000.0000005 0.4539690514164686 -0.9054646752017836
4240999999.9999995 0.4705368386620513 -0.8860998373388497
4244000000.0 0.48369519390469995 -0.8864313857605414
4247000000.0 0.47335007529009165 -0.8861002950773864
4250000000.0 0.46132660447678775 -0.876527180906148
4253000000.0 0.4476052552351434 -0.8658348231242528
4256000000.0 0.47469889982826796 -0.9354506933117287
4259000000.0000005 0.4544064038211094 -0.87281276084593
4261999999.9999995 0.4533217542224257 -0.8949670784751906
4266000000.0 0.4577943706571975 -0.9272033278169239
4269000000.0 0.4766865491773041 -0.8923858900352316
4272000000.0000005 0.4667237147292229 -0.9093179348351424
4275000000.0000005 0.4727262160414365 -0.8863996936373307
4277999999.9999995 0.47593778326806724 -0.9288121564471609
4280999999.9999995 0.45317498043605015 -0.9067455599749643
4284000000.0 0.44346154831211715 -0.9236133558162214
4288000000.0000005 0.4861581450312576 -0.8845656923992102
4291000000.0000005 0.4535930078446044 -0.8826739688022711
4293999999.9999995 0.45724100427324177 -0.9048830554082653
4297000000.0 0.46993063521229883 -0.8635800416139308
4300000000.0 0.4474723031427108 -0.8738946678885242
4303000000.0 0.4381953284563869 -0.8941001298229808
4306000000.0 0.5033819301443592 -0.9111978629174448
4309000000.0 0.45817140517508925 -0.8494716180734818
4312000000.0 0.5082071184531535 -0.9066484858281143
4316000000.0 0.45888909389720456 -0.877986095189044
4319000000.0 0.4680250405241279 -0.8663375451916947
4322000000.0 0.4170006596651646 -0.8844260262893835
4325000000.0 0.4631123381938147 -0.8874212926656242
4328000000.0 0.44826394936880176 -0.881821360698774
4331000000.0 0.43826450716197485 -0.9175724338856549
4334000000.0 0.46678175593137256 -0.9133852557223426
4338000000.0 0.48666140343399544 -0.882331049921729
4341000000.0 0.4972595935460772 -0.9133621775658841
4344000000.0 0.47757479723393326 -0.913477906838216
4347000000.0 0.43422902336388874 -0.9284060900396441
4350000000.0 0.4263225962414521 -0.8724341896762526
4353000000.0 0.4622081247974858 -0.8823578130892765
4356000000.0 0.4322483521566485 -0.8829478811168567
4359000000.0 0.4328465106236927 -0.8759813433563123
4362000000.0 0.4111916812223678 -0.9318656830602396
4366000000.0 0.4595753670067964 -0.9208138334635187
4369000000.0 0.42291644960930597 -0.8783353458517028
4372000000.0 0.41870483597645203 -0.9070108960502208
4375000000.0 0.45522678450777815 -0.8921118482082869
4378000000.0 0.45672285740628976 -0.8886874170470739
4381000000.0 0.4451185998603109 -0.8841767998374506
4384000000.0 0.46827316967279325 -0.9605924137223094
4388000000.0 0.4471125137338533 -0.8955342261696437
4391000000.0 0.4453633893068228 -0.9072716430968137
4394000000.0 0.4385901230259682 -0.881843315022914
4397000000.0 0.45015150914232516 -0.9105861013106522
4400000000.0 0.4633120175254149 -0.9286420272507844
4403000000.0 0.44811268774742097 -0.9115288978218778
4406000000.0 0.4320752997533147 -0.9203209519946834
4409000000.0 0.4509688767460601 -0.9416578952780579
4412000000.0 0.3896003555144904 -0.924210909541516
4416000000.0 0.42697047407365074 -0.8948718654680982
4419000000.0 0.417749986110583 -0.9142915968987647
4422000000.0 0.450685265469379 -0.884962827810846
4425000000.0 0.4788573360545949 -0.9006470406681278
4428000000.0 0.42974287641965103 -0.9029010032387207
4431000000.0 0.44987839721284156 -0.9285072730199997
4434000000.0 0.41926273594381164 -0.897734815085039
4438000000.0 0.4475018969615744 -0.9261479932387963
4441000000.0 0.4500232137421314 -0.9122019525934437
4444000000.0 0.4299736049298041 -0.897927206812221
4447000000.0 0.42249784400285245 -0.9151807910864047
4450000000.0 0.4477773057975124 -0.9005706049346479
4453000000.0 0.443891037017964 -0.9246778235068651
4456000000.0 0.4150047038433773 -0.890823157409314
4459000000.0 0.40057673504882974 -0.867460287332052
4462000000.0 0.4733979079328367 -0.9748048615560739
4466000000.0 0.41758041738350193 -0.9522784688583998
4469000000.0 0.4344741379832699 -0.9052405923149307
4472000000.0 0.4159188173490256 -0.9403656505063207
4475000000.0 0.4270604295422139 -0.8843146819594239
4478000000.0 0.425101673221483 -0.9487805548063168
4481000000.0 0.40246977378266624 -0.8978767625758958
4484000000.0 0.3797168482200052 -0.9266897488665811
4488000000.0 0.39714736199059125 -0.9141251329920066
4491000000.0 0.4284372672463797 -0.9268869923612852
4494000000.0 0.42623105776108816 -0.9118581493346908
4497000000.0 0.44012770966490644 -0.8988156886334258
4500000000.0 0.42315028344335137 -0.9030026231452157
4503000000.0 0.43678711798031433 -0.9362447170414714
4506000000.0 0.40497077082346694 -0.8960656576027395
4509000000.0 0.3970952523064485 -0.9049788543704405
4512000000.0 0.4083590892919835 -0.905855440895194
4516000000.0 0.4316992192613329 -0.9263197941292904
4519000000.0 0.4031189900929763 -0.9164121763799512
4522000000.0 0.4062000088668009 -0.9209420810072714
4525000000.0 0.45611222249927585 -0.8795532165417614
4528000000.0 0.4186678473623467 -0.9534918291854007
4531000000.0 0.43292928858566826 -0.9116530754701668
4534000000.0 0.39490805648531013 -0.9177854263049365
4538000000.0 0.41831087725084387 -0.9168353265176659
4541000000.0 0.38672738566979187 -0.9052074302806221
4544000000.0 0.4140125614990111 -0.9134128118252456
4547000000.0 0.41975811803121343 -0.9093798749972493
4550000000.0 0.38940174909474073 -0.9250914987880915
4553000000.0 0.39992219361101633 -0.9368135172737624
4556000000.0 0.39308204571683336 -0.8927927028002152
4559000000.0 0.38603762359180543 -0.9320647291996658
4562000000.0 0.4216533972766286 -0.9295447234665094
4566000000.0 0.4036553243281769 -0.9240154236353135
4569000000.0 0.39231026294897353 -0.9061843508740665
4572000000.0 0.3959235882610071 -0.9197389875327986
4575000000.0 0.3890548290319921 -0.9465863181648573
4578000000.0 0.4386399884243624 -0.9442401668002436
4581000000.0 0.39320800842159265 -0.9310718056234326
4584000000.0 0.38836287991403406 -0.9230192196838968
4588000000.0 0.40576667211214684 -0.9425806774239844
4591000000.0 0.43867328293919955 -0.9152147200646602
4594000000.0 0.37404930907462425 -0.9344070669310321
4597000000.0 0.3805667337839104 -0.9467304101607796
4600000000.0 0.3723014339801525 -0.9314191666345422
4603000000.0 0.3938956344529384 -0.9305715433043968
4606000000.0 0.40070779948733515 -0.9389273633177606
4609000000.0 0.39003712680442804 -0.930069225650013
4612000000.0 0.38744276032229663 -0.9338217400798812
4616000000.0 0.3885008184896186 -0.9147542317559123
4619000000.0 0.3863525266688348 -0.9355686924120774
4622000000.0 0.3883257571007871 -0.9182680867517481
4625000000.0 0.36217504410033724 -0.921895816399756
4628000000.0 0.4028191636022167 -0.9261914078768524
4631000000.0 0.378723626743406 -0.9230538350426942
4634000000.0 0.3682281636862873 -0.9454200620063391
4638000000.0 0.3886316632832558 -0.9276373106912242
4641000000.0 0.39138162613203203 -0.9343456823810824
4644000000.0 0.37278610810638146 -0.9413419114231318
4647000000.0 0.39583752369000214 -0.9428537369182441
4650000000.0 0.38354923350356795 -0.9238904350410196
4653000000.0 0.4112127828687352 -0.9472863292112105
4656000000.0 0.3678724887540048 -0.9440640450148412
4659000000.0 0.3693599598160018 -0.9323686075254274
4662000000.0 0.36913992696843667 -0.937327104953772
4666000000.0 0.36300688715441015 -0.9353810088477951
4669000000.0 0.38584084945502345 -0.9473574729867495
4672000000.0 0.3543238610592776 -0.9614755162488876
4675000000.0 0.358411219064798 -0.9651927629019976
4678000000.0 0.370938754372853 -0.9195134928845593
4681000000.0 0.35083626115784416 -0.9633414832721482
4684000000.0 0.3549088048264528 -0.9754952009508893
4688000000.0 0.3421392346758507 -0.9285887310152977
4691000000.0 0.38061486185096494 -0.9390112833425108
4694000000.0 0.3652745179230642 -0.9163836147375872
4697000000.0 0.36943755204461814 -0.9005181992676472
4700000000.0 0.34659984807883587 -0.9311933251479559
4703000000.0 0.39593290744994186 -0.9158160215420377
4706000000.0 0.3621252338087687 -0.965908528568735
4709000000.0 0.35915254074105635 -0.954362385919807
4712000000.0 0.35472709473199787 -0.9346710009377899
4716000000.0 0.3769069875874457 -0.9723956044268401
4719000000.0 0.4005101905934897 -0.9284044159805112
4722000000.0 0.3864937122205072 -0.9344421955379846
4725000000.0 0.37494367436286513 -0.9428486579541755
4728000000.0 0.35749934876752876 -0.9568364760577645
4731000000.0 0.3494875831956223 -0.9707894477657468
4734000000.0 0.37576398297882563 -0.9456498202354376
4738000000.0 0.4169587403381587 -0.9595897068528535
4741000000.0 0.3557730663758702 -0.9818778300555987
4744000000.0 0.3582507971647849 -0.9580931871971008
4747000000.0 0.37702759814421094 -0.9235809483318961
4750000000.0 0.38566229337901103 -0.9726786419298754
4753000000.0 0.3651523518686288 -0.9173918028384487
4756000000.0 0.3569849830970474 -0.9438856645633253
4759000000.0 0.38615596839790034 -0.9465632259726742
4762000000.0 0.3342830757232934 -0.9820686746559746
4766000000.0 0.3389503613213143 -0.9805517664001828
4769000000.0 0.37881708968161887 -0.9640980604018932
4772000000.0 0.3754771557518194 -0.9445846921703768
4775000000.0 0.3593761227810339 -0.971041913592881
4778000000.0 0.35471596315048426 -0.9621302331365409
4781000000.0 0.3725284287554219 -0.9438956817706519
4784000000.0 0.3790111297777148 -0.95304931871691
4788000000.0 0.33052374253469297 -0.9746387156680353
4791000000.0 0.3522542434902988 -0.9569407142925686
4794000000.0 0.4053764640095639 -0.9919088300329287
4797000000.0 0.34105738631193083 -0.9263010378401626
4800000000.0 0.35061078656907896 -0.9497313232612292
4803000000.0 0.29681048570290064 -0.9485444823803257
4806000000.0 0.3599427974689715 -0.980367655351226
4809000000.0 0.34776813383609967 -0.9805293658403529
4812000000.0 0.2860176528198882 -0.957848424164515
4816000000.0 0.3668672703477761 -0.913613753558619
4819000000.0 0.3741789543680145 -0.9822228701049617
4822000000.0 0.39275693791536836 -0.9750320016959569
4825000000.0 0.3764182601538404 -0.9731530517804559
4828000000.0 0.3545615428703507 -0.947048325221753
4831000000.0 0.3297152709560595 -0.999996722100985
4834000000.0 0.36658209343913317 -0.9559227744909514
4838000000.0 0.35291769300150033 -0.9846553096929725
4841000000.0 0.34173803699376026 -0.9379450388516067
4844000000.0 0.38358812659114255 -0.975686784670945
4847000000.0 0.3662371052902242 -0.9318630161662748
4850000000.0 0.34659677731360716 -0.9868949526010186
4853000000.0 0.33742399335100126 -0.9294331485976517
4856000000.0 0.34948477271910133 -0.9434658921769503
4859000000.0 0.3655582079256002 -0.999270410886928
4862000000.0 0.3707192973042389 -0.9370369449295498
4866000000.0 0.34376924052595653 -0.9692911997782023
4869000000.0 0.36193239886382117 -0.9720777502815485
4872000000.0 0.3245871609240425 -0.9867471237030124
4875000000.0 0.42583435179898566 -0.9715866185011804
4878000000.0 0.3730640744006933 -0.9690146860800393
4881000000.0 0.3233230588159679 -1.0190675603085286
4884000000.0 0.37703979920407676 -0.9648597937334441
4888000000.0 0.384206236478462 -0.9445129464326544
4891000000.0 0.3886007570731794 -0.9768601591752191
4894000000.0 0.3237975183030003 -0.9626262947635404
4897000000.0 0.3808002016004875 -0.966239882591364
4900000000.0 0.36533788166957143 -1.0016033340917259
4903000000.0 0.3724152369221939 -0.9705505759562963
4906000000.0 0.3605528369210611 -1.0131169029411324
4909000000.0 0.28686238436019373 -0.9853400043838261
4912000000.0 0.3442115214608611 -0.997370296817159
4916000000.0 0.3624977538103268 -0.9794121242259933
4919000000.0 0.37544680908914385 -0.9736585058969994
4922000000.0 0.3822448544070124 -0.9548496780823452
4925000000.0 0.32299809780910343 -0.9545253167195884
4928000000.0 0.3732603840774622 -0.9220657993075901
4931000000.0 0.38605559024242775 -0.9715707080214285
4934000000.0 0.3455862367138077 -0.9043018326959
4938000000.0 0.31385201992873485 -0.9729839262384486
4941000000.0 0.3294610056896353 -0.9914596694873317
4944000000.0 0.3046065715176097 -0.9066632011378755
4947000000.0 0.35401981018180106 -0.9673813519479931
4950000000.0 0.32823997316759485 -0.9909706057617513
4953000000.0 0.31745960418404545 -1.001440496633579
4956000000.0 0.3223044965826243 -0.9771134279420224
4959000000.0 0.3005765219975863 -0.9609824689754927
4962000000.0 0.33420388222576003 -0.9940336636821012
4966000000.0 0.3555285434760843 -0.9614386761347422
4969000000.0 0.37939099937927656 -0.9934067704493231
4972000000.0 0.36687699198100926 -0.9947561041328088
4975000000.0 0.3711900731558313 -0.9668684793240249
4978000000.0 0.3735601786186238 -0.9614133530816023
4981000000.0 0.32771616246990753 -0.9910084121668423
4984000000.0 0.3544750263309767 -0.9634613104287169
4988000000.0 0.37903261213790435 -0.9430582100051934
4991000000.0 0.4113767102341001 -0.9767786719836216
4994000000.0 0.382745747246427 -0.9615185008678325
4997000000.0 0.3223440517777544 -0.9699392440208153
5000000000.0 0.3787240537563927 -0.9886888189181656
5003000000.0 0.3657408209734988 -0.993549297646568
5006000000.0 0.3475660867653334 -1.0172294646480582
5009000000.0 0.35844165387498395 -0.9886049532698495
5012000000.0 0.34948562066507405 -0.9971017190387851
5016000000.0 0.41403976022876027 -0.9908498721779695
5019000000.0 0.35031732428171963 -0.977600711001328
5022000000.0 0.3346107996876025 -0.9714837127794949
5025000000.0 0.3889071094358689 -1.0174096267239918
5028000000.0 0.3100243289002985 -1.0075742411914606
5031000000.0 0.35208173818089333 -1.003204622501126
5034000000.0 0.343110143609438 -0.9807562570779976
5038000000.0 0.3181590930442515 -0.9793965446662197
5041000000.0 0.3923060252258414 -0.9632940756928912
5044000000.0 0.3632297783705024 -0.9118614908803137
5047000000.0 0.3616231839542867 -0.991302445346197
5050000000.0 0.40372276035905263 -0.9695799843917936
5053000000.0 0.3677030245126533 -1.023316698803965
5056000000.0 0.3681334296695115 -0.953772281282431
5059000000.0 0.42617460797669016 -0.9404234302724737
5062000000.0 0.3268522962886205 -0.994615710100553
5066000000.0 0.4039803135738313 -0.980401473028281
5069000000.0 0.35793372676858976 -0.9986357929732238
5072000000.0 0.3682950568350923 -0.9838963731007404
5075000000.0 0.362504729336647 -0.9825129446805332
5078000000.0 0.32361779112284056 -0.9985429457795847
5081000000.0 0.3473188447943574 -0.9254934125725707
5084000000.0 0.34290443105239143 -1.0008862007552366
5088000000.0 0.3654335668707368 -0.9677913025925988
5091000000.0 0.3404772014485627 -0.9934598306303655
5094000000.0 0.2899656816580544 -0.965178374223918
5097000000.0 0.3751239002693518 -0.9178519307807862
5100000000.0 0.3741193431049303 -0.9539760816641016
5103000000.0 0.3353201562046504 -0.97934079642169
5106000000.0 0.39444858289490814 -1.0008526500562533
5109000000.0 0.3912660226713915 -0.9588858250614546
5112000000.0 0.36254131171317416 -0.9893932165340057
5116000000.0 0.3329417342362823 -0.9395762270134258
5119000000.0 0.3506654989508629 -1.0095760905579665
5122000000.0 0.322877778511437 -0.9586633521977397
5125000000.0 0.3717423969918549 -0.9488508534147782
5128000000.0 0.35549972383591566 -0.9882476779012221
5131000000.0 0.36479296746448786 -0.9278866111450443
5134000000.0 0.3556133151163384 -0.967830043836446
5138000000.0 0.39865433389431765 -0.985568375527809
5141000000.0 0.4352132793805911 -0.9840079174120782
5144000000.0 0.39900294945216797 -0.9646138974615452
5147000000.0 0.3902782447442194 -0.9778496678981983
5150000000.0 0.41759937553837423 -1.02950387937115
5153000000.0 0.3668927913664658 -0.9667989263416048
5156000000.0 0.3267812745739666 -0.9559408310033226
5159000000.0 0.3610336774560142 -0.995959127917778
5162000000.0 0.329416662315832 -0.9510566392685973
5166000000.0 0.3995455353319584 -0.9870442631597458
5169000000.0 0.3636796853088039 -0.9710464024740757
5172000000.0 0.3692276614594571 -0.9542067181568425
