! Created with skrf 1.8.0 (http://scikit-rf.org).
# Hz S RI R 50.0 
!freq ReS11 ImS11
4000000000.0 0.5815930621652496 -0.7755683550762995
4003000000.0 0.6128153858414433 -0.9213429865406367
4006000000.0 0.4992413254166343 -0.8874322843672381
4009000000.0000005 0.5184728667623317 -0.8827234144580687
4011999999.9999995 0.5772142785044675 -0.8089343042545993
4016000000.0 0.5447670527721122 -0.8896669178228025
4019000000.0 0.5593700762139565 -0.8759203781296613
4022000000.0000005 0.6108341518430989 -0.8346561645326473
4025000000.0000005 0.5226863867413705 -0.931492993248836
4027999999.9999995 0.5247623995581359 -0.8914408414547769
4030999999.9999995 0.5163596002898794 -0.8124228489049077
4034000000.0 0.5334049632883938 -0.8659247389495763
4038000000.0000005 0.5144379573103581 -0.8948762442928544
4041000000.0000005 0.5645995202845066 -0.8665017774054579
4043999999.9999995 0.5331921557248605 -0.9185906839385174
4046999999.9999995 0.6124904807998116 -0.8805453357069227
4050000000.0 0.5574464901258749 -0.8975710711806619
4053000000.0 0.4993766466576385 -0.8874120336146012
4056000000.0 0.5823340939230577 -0.8616350266134546
4059000000.0 0.5424060970448435 -0.8610129564158681
4062000000.0000005 0.5337959341609049 -0.9168845916664476
4066000000.0 0.5046925695568069 -0.8522860553345201
4069000000.0 0.5283394692020752 -0.9236908384844655
4072000000.0 0.5796273704666779 -0.8535407522777456
4075000000.0 0.6020720124850458 -0.8898162897127543
4078000000.0000005 0.5620998009258447 -0.8877486984793637
4081000000.0000005 0.6157795401479319 -0.828706816327256
4083999999.9999995 0.5561394279623454 -0.9062137742632715
4088000000.0 0.5941550578574829 -0.841252276743315
4091000000.0 0.5882351630124957 -0.9428481044628789
4094000000.0000005 0.5795744184239198 -0.8674466851481205
4097000000.0000005 0.543945492091963 -0.8806390770908653
4099999999.9999995 0.526290177614184 -0.861823393546202
4102999999.9999995 0.5713486428656712 -0.8387817936284491
4106000000.0 0.5291591278186939 -0.8551495919266361
4109000000.0 0.5663118318126424 -0.8950304572729333
4112000000.0 0.5347381597047769 -0.8778887760297278
4115999999.9999995 0.5757399195616141 -0.8513171762085058
4119000000.0 0.5540455178383024 -0.8757627099844859
4122000000.0 0.507316376511068 -0.8886652338475793
4125000000.0 0.5524855653131393 -0.8777240146345626
4128000000.0 0.5558720668748354 -0.8163092819055144
4131000000.0 0.577933050789434 -0.8065366267633145
4134000000.0000005 0.5300089067214516 -0.8436210653147982
4138000000.0 0.5161609415898648 -0.8678012385833229
4141000000.0 0.5346889501305958 -0.8415239319888311
4144000000.0 0.5841450701854474 -0.8376693107143004
4147000000.0000005 0.4998423803163075 -0.8788150616356528
4150000000.0000005 0.5585321373832243 -0.9331613102738596
4152999999.9999995 0.5374832854061563 -0.8535864651694683
4155999999.9999995 0.5880091133437482 -0.8855185198722005
4159000000.0 0.5447195518428308 -0.832215767202755
4162000000.0 0.5501926723215345 -0.8360696679685135
4166000000.0000005 0.5480967857023176 -0.8681921141731557
4168999999.9999995 0.5280449627029509 -0.8639876469714954
4171999999.9999995 0.5529051714638407 -0.8519889884521911
4175000000.0 0.5713508619779859 -0.8782985591184556
4178000000.0 0.5471517697341569 -0.8728259036749677
4181000000.0 0.5275340842480811 -0.8582908355552776
4184000000.0 0.5506956729853941 -0.8348116695643144
4187999999.9999995 0.5455061756171092 -0.8491826954632762
4191000000.0 0.5903198193174684 -0.8461845064238623
4194000000.0 0.5356507457038351 -0.8520831330239403
4197000000.0 0.5577683089195299 -0.8826314156548496
4200000000.0 0.5663207389315893 -0.821333270368432
4203000000.0000005 0.5633949748011883 -0.8667484305813941
4206000000.0000005 0.5608578714532618 -0.8592243439907736
4208999999.9999995 0.554623095623853 -0.8316457042691944
4211999999.9999995 0.5228735825098529 -0.8787797238545723
4216000000.0 0.5773899959491277 -0.8426128221802535
4219000000.0000005 0.561243603735649 -0.8684951828693138
4222000000.0000005 0.5496004502796962 -0.881047896907653
4224999999.9999995 0.5408784717638796 -0.8522666331909589
4227999999.9999995 0.5712006883458303 -0.866101536433825
4231000000.0 0.5638520560499256 -0.8568451130441583
4234000000.0 0.5473406390144603 -0.8702756601881052
4238000000.0000005 0.5428576550418043 -0.8652287016724831
4240999999.9999995 0.5302364117547783 -0.8634125068946791
4244000000.0 0.5548970087284603 -0.8502058169369698
4247000000.0 0.5700681925341031 -0.8415745783058283
4250000000.0 0.5269115198728411 -0.8504148382320904
4253000000.0 0.5284359590672432 -0.842372154117137
4256000000.0 0.5598314054452004 -0.8859099017638277
4259000000.0000005 0.5317898033048792 -0.8307108553670296
4261999999.9999995 0.5473987478199382 -0.8544179706042851
4266000000.0 0.5205919296558694 -0.8746574745071902
4269000000.0 0.5743565121358161 -0.8434284479698981
4272000000.0000005 0.5455548188013287 -0.8384342879732954
4275000000.0000005 0.5477972426348883 -0.8721258176470896
4277999999.9999995 0.5589521547566273 -0.891970116299383
4280999999.9999995 0.566390909351995 -0.8700708755164972
4284000000.0 0.5232709812260542 -0.8757055991314152
4288000000.0000005 0.5758477980115325 -0.8358369117188199
4291000000.0000005 0.5482557003153699 -0.8420287297881643
4293999999.9999995 0.5323704925128177 -0.8688535069429011
4297000000.0 0.5671599201078861 -0.8418151126862469
4300000000.0 0.5510634820062792 -0.8266926833710193
4303000000.0 0.5455609359355663 -0.861660976528097
4306000000.0 0.548579768613352 -0.8293414579357515
4309000000.0 0.5386805213576228 -0.8233778195830992
4312000000.0 0.6025617708594535 -0.8463894614529629
4316000000.0 0.5408508328441773 -0.8690793828280872
4319000000.0 0.534196500914304 -0.834759157537201
4322000000.0 0.5460245104974604 -0.8403595636410961
4325000000.0 0.5713023199154073 -0.8398642542483915
4328000000.0 0.5427564290768557 -0.8105238146637649
4331000000.0 0.5276242567145922 -0.8603050992966473
4334000000.0 0.5638816096087624 -0.8320571855543174
4338000000.0 0.5615881994010767 -0.8335115449643888
4341000000.0 0.5723317192511952 -0.8169281411374734
4344000000.0 0.5576329322481609 -0.8508281558086938
4347000000.0 0.5355832711873274 -0.8648122854240079
4350000000.0 0.5134860671672266 -0.8302045791741508
4353000000.0 0.5598612298012792 -0.8254765038405638
4356000000.0 0.5360841615247769 -0.8615799942853558
4359000000.0 0.5114731685355798 -0.8156442478268647
4362000000.0 0.5069584899484343 -0.8654519164538743
4366000000.0 0.5449017982740716 -0.8651664167525481
4369000000.0 0.5206545823323959 -0.8073432229130175
4372000000.0 0.5070233430439977 -0.8704094943370365
4375000000.0 0.5504515993748708 -0.8261929378117194
4378000000.0 0.513355561265529 -0.8458714992371682
4381000000.0 0.5520235241411373 -0.835286006521471
4384000000.0 0.5632646940651497 -0.9077847699207313
4388000000.0 0.5398263701838477 -0.8312218079871008
4391000000.0 0.5577670576138162 -0.8469085476047978
4394000000.0 0.525653937649686 -0.8209233345151948
4397000000.0 0.527362531070528 -0.8339495217898585
4400000000.0 0.5526107723180318 -0.8759388774559558
4403000000.0 0.5480221772035765 -0.8633931908556745
4406000000.0 0.5022629044784287 -0.8641886204232374
4409000000.0 0.5518569981202032 -0.888446425208044
4412000000.0 0.49199178379480996 -0.8831380402382647
4416000000.0 0.5214287287713929 -0.8497890040941452
4419000000.0 0.5137127569609219 -0.8740429916467432
4422000000.0 0.5445441750614389 -0.8336803600828615
4425000000.0 0.5664071592012392 -0.8521978382668243
4428000000.0 0.5183730785100973 -0.8556745375893251
4431000000.0 0.5525717353348136 -0.8707798049360123
4434000000.0 0.5221636553821173 -0.8575286004743009
4438000000.0 0.5508939792052803 -0.8802541943807438
4441000000.0 0.5434653656807771 -0.863793112775465
4444000000.0 0.5314325747664673 -0.834825648607263
4447000000.0 0.5120913763125832 -0.856157331420496
4450000000.0 0.5338335507324156 -0.8340137933186447
4453000000.0 0.5462923795285325 -0.8833423914699228
4456000000.0 0.5044132663360605 -0.8377427058394213
4459000000.0 0.48643580904087846 -0.834682534053413
4462000000.0 0.5579201036599492 -0.9148980751449092
4466000000.0 0.5432743056486278 -0.9024112138546604
4469000000.0 0.545871026327141 -0.8598995986736359
4472000000.0 0.5303050310280837 -0.8941238393306179
4475000000.0 0.5267791732610559 -0.845038798991084
4478000000.0 0.5483669621812046 -0.9113920293287652
4481000000.0 0.5160994899510734 -0.8327291196124406
4484000000.0 0.49471323643272214 -0.8696563735708667
4488000000.0 0.5089322240199444 -0.8426659752077377
4491000000.0 0.5242282205969664 -0.8596775629730273
4494000000.0 0.5339589231276289 -0.8396920924912824
4497000000.0 0.5280792556658997 -0.839579315583816
4500000000.0 0.5266070999665147 -0.8396125726816246
4503000000.0 0.5363856358754563 -0.8815078594605219
4506000000.0 0.5100458096001786 -0.871740257032093
4509000000.0 0.518423161241713 -0.8284786101761393
4512000000.0 0.5148174776908996 -0.863551101072336
4516000000.0 0.525013610001157 -0.8585597895800876
4519000000.0 0.5281487602662196 -0.8492629675194475
4522000000.0 0.5029258461350279 -0.8612944429069629
4525000000.0 0.5394691017870452 -0.832187261457495
4528000000.0 0.5320305308798641 -0.874883055390723
4531000000.0 0.5372393954751904 -0.8472504061896623
4534000000.0 0.5262752592630285 -0.8490680650439011
4538000000.0 0.5264552837381983 -0.8541603164220714
4541000000.0 0.49671138343987303 -0.8844555999470407
4544000000.0 0.4946942484381067 -0.8350141214475859
4547000000.0 0.5348320580700894 -0.8370584807536674
4550000000.0 0.507561515768455 -0.8854038853367958
4553000000.0 0.51430817836862 -0.8520824693402571
4556000000.0 0.49462174589729924 -0.866584031227134
4559000000.0 0.5133666353854054 -0.8634783330605176
4562000000.0 0.5280439311328923 -0.8695220916194801
4566000000.0 0.5219162341098869 -0.8689318150227757
4569000000.0 0.49030773256350163 -0.8609453298637221
4572000000.0 0.5128157808206182 -0.8700629553491193
4575000000.0 0.5097912917702621 -0.8837878439772551
4578000000.0 0.540719647433209 -0.8759167307851825
4581000000.0 0.48763036691685574 -0.871233719567664
4584000000.0 0.4940119683641522 -0.8578779184381266
4588000000.0 0.5416030983295368 -0.8767266258001561
4591000000.0 0.5224141999949827 -0.8593857469891584
4594000000.0 0.4805292578939169 -0.8590132739525392
4597000000.0 0.5184272010944214 -0.8726840388171417
4600000000.0 0.469743095030639 -0.8573473020673255
4603000000.0 0.51401204016903 -0.8777903623276618
4606000000.0 0.5162431780520831 -0.8685887604385893
4609000000.0 0.5131345625026544 -0.8714453543543854
4612000000.0 0.5146846259806676 -0.8860639158648294
4616000000.0 0.49233553279665154 -0.8540231770685045
4619000000.0 0.5024456974782724 -0.8758766851108806
4622000000.0 0.500664845126067 -0.8657887798000902
4625000000.0 0.47280227161060984 -0.8417262660024367
4628000000.0 0.5111415500858764 -0.8542796408002385
4631000000.0 0.48765505276542875 -0.8802601164916791
4634000000.0 0.48565594125976586 -0.8654978058362645
4638000000.0 0.5196597745727876 -0.8699986851278424
4641000000.0 0.5233591393770608 -0.878653739969973
4644000000.0 0.5125434642668995 -0.8853444875061004
4647000000.0 0.5230894402783868 -0.8708165851710798
4650000000.0 0.49770982033081584 -0.867917372036307
4653000000.0 0.5050630650339039 -0.8836231201339698
4656000000.0 0.49173620591418055 -0.8711423157020657
4659000000.0 0.4888577909344885 -0.8752790611570391
4662000000.0 0.5027048483110863 -0.8986740345573957
4666000000.0 0.48838800588116615 -0.8895919668613345
4669000000.0 0.5140178159785478 -0.8919578077056928
4672000000.0 0.48573008301763343 -0.8863235928953961
4675000000.0 0.4791046529794101 -0.8745441937693287
4678000000.0 0.49754084432681833 -0.8640143310386892
4681000000.0 0.47535091860781314 -0.9047401138606486
4684000000.0 0.4701455236929769 -0.8949616593703634
4688000000.0 0.4810891081244255 -0.8652091787608177
4691000000.0 0.5158809392042981 -0.8735693486120879
4694000000.0 0.502490867832427 -0.8773267289557292
4697000000.0 0.46600125103744294 -0.8692067524826366
4700000000.0 0.5022359062524786 -0.872695373470773
4703000000.0 0.5201427522094493 -0.8491484284505197
4706000000.0 0.4874459465209769 -0.9207971026189258
4709000000.0 0.4688233203773549 -0.8675687973518517
4712000000.0 0.4996459706502801 -0.8744117708382122
4716000000.0 0.4968848787786542 -0.8914299212438045
4719000000.0 0.5189353572949796 -0.8651394569614866
4722000000.0 0.53000372915611 -0.881743978086012
4725000000.0 0.5015868412020348 -0.8604106013535436
4728000000.0 0.4877469165468319 -0.8750294276907568
4731000000.0 0.5185136220305018 -0.9170298404840411
4734000000.0 0.5122366746536879 -0.8766038825212875
4738000000.0 0.5542325181042279 -0.9115797819714083
4741000000.0 0.5182312218045918 -0.9150538521805534
4744000000.0 0.49826373186066797 -0.8991675558501498
4747000000.0 0.507527899355367 -0.8726370859623419
4750000000.0 0.4830750652937309 -0.90199860669861
4753000000.0 0.5178287256147085 -0.8879571484878175
4756000000.0 0.5028731738395841 -0.8956632045200599
4759000000.0 0.5094506011588961 -0.890048721212523
4762000000.0 0.4927184248028488 -0.9216019453512787
4766000000.0 0.507925748892762 -0.9002316069738887
4769000000.0 0.5010326393656948 -0.8645229409645299
4772000000.0 0.4890898576202146 -0.9106461414348249
4775000000.0 0.5055766373976052 -0.9456697433661901
4778000000.0 0.5144138462762029 -0.8830576324551919
4781000000.0 0.5072388359612241 -0.851394590681101
4784000000.0 0.48973626968356865 -0.8694063468937206
4788000000.0 0.49124262666888513 -0.9125122056475479
4791000000.0 0.47927888148720366 -0.8979298876781754
4794000000.0 0.5557054600255663 -0.9071836937900724
4797000000.0 0.48153586125435954 -0.8930492326973133
4800000000.0 0.4937406860546839 -0.8748174258524177
4803000000.0 0.4615217927276036 -0.8930923093486169
4806000000.0 0.4916594011527938 -0.902687070239187
4809000000.0 0.4575102409772577 -0.9026799154590804
4812000000.0 0.45913204534634994 -0.9007962893001303
4816000000.0 0.5280780898814097 -0.8464957779494422
4819000000.0 0.5220254180739554 -0.8884893444869326
4822000000.0 0.5279131439003911 -0.9256190150274924
4825000000.0 0.5274057068755064 -0.9110925825464251
4828000000.0 0.4891609383029776 -0.8866825545722281
4831000000.0 0.46607727703105306 -0.9241660411243484
4834000000.0 0.5057963361022616 -0.8850860252613875
4838000000.0 0.4861727057342205 -0.9082340961530775
4841000000.0 0.500427956244857 -0.8900268264404092
4844000000.0 0.5192177449737512 -0.8854691006935097
4847000000.0 0.5056221758934102 -0.8397355674182996
4850000000.0 0.48635887250248644 -0.9247747311952341
4853000000.0 0.4933946824097155 -0.8744281527688029
4856000000.0 0.4925007716807006 -0.8905998074618723
4859000000.0 0.49835009167885114 -0.9238535979505885
4862000000.0 0.5170712084503822 -0.857920722799269
4866000000.0 0.5088063658056042 -0.886498534787158
4869000000.0 0.5009411053626739 -0.8974365019363849
4872000000.0 0.4883956307028249 -0.92924673705701
4875000000.0 0.5603323879709331 -0.9116146769963311
4878000000.0 0.5067356319311793 -0.8921932180797777
4881000000.0 0.5073460925609145 -0.9660104531741852
4884000000.0 0.516318501076923 -0.8819921784745226
4888000000.0 0.5362508995897679 -0.8706098562127539
4891000000.0 0.524194209664719 -0.8848719712831162
4894000000.0 0.4799159329806723 -0.9058122720692895
4897000000.0 0.5216080922736638 -0.8707102796204361
4900000000.0 0.5088735513772609 -0.9014890468811725
4903000000.0 0.5452600133129397 -0.8990320340004776
4906000000.0 0.5233514198508925 -0.935071550834598
4909000000.0 0.4772187314932455 -0.9211657431710022
4912000000.0 0.4946548994870893 -0.9424151064089367
4916000000.0 0.5342466519118929 -0.9017876973289704
4919000000.0 0.5449712377716137 -0.8913680366163736
4922000000.0 0.5428366468205689 -0.9044950393480774
4925000000.0 0.4391545877563158 -0.9143331326131346
4928000000.0 0.5308609360091103 -0.8567691838316895
4931000000.0 0.5456521598817419 -0.8775523047490587
4934000000.0 0.4672098287056593 -0.852991298991451
4938000000.0 0.45143173419449095 -0.8966561628603728
4941000000.0 0.5242648967621335 -0.8904444953057047
4944000000.0 0.4796722880587069 -0.8432354642174673
4947000000.0 0.5198214210682776 -0.8550139688067937
4950000000.0 0.5172444952006833 -0.8809468668970581
4953000000.0 0.45930075814247423 -0.9620825286833129
4956000000.0 0.514595979013585 -0.8963480079366264
4959000000.0 0.4672918525031625 -0.8800485635838786
4962000000.0 0.48052144221109155 -0.9094249661858438
4966000000.0 0.5017333483156188 -0.9031963980257063
4969000000.0 0.5543708425590191 -0.888278746488735
4972000000.0 0.5031977713946401 -0.8850672250013214
4975000000.0 0.5022564185646949 -0.8745725300125219
4978000000.0 0.464593610017466 -0.8931873417799109
4981000000.0 0.4954402702155385 -0.9264792946597168
4984000000.0 0.5003990214378812 -0.8862347303155083
4988000000.0 0.5168027300922441 -0.8617498486894488
4991000000.0 0.5713511860411309 -0.8937483560222443
4994000000.0 0.5416703393595612 -0.8740909453565537
4997000000.0 0.47550201053925856 -0.8912763164467087
5000000000.0 0.5523117640296531 -0.8989601495039585
5003000000.0 0.538285965503278 -0.9129461605555756
5006000000.0 0.5531570010739326 -0.9335062779201828
5009000000.0 0.5067892059371626 -0.892947860404388
5012000000.0 0.5155063749065656 -0.8873093239173376
5016000000.0 0.581636649175534 -0.916537140601676
5019000000.0 0.5155708628217774 -0.9073533068741164
5022000000.0 0.516344072263467 -0.8739835793971293
5025000000.0 0.5590722870649477 -0.9581716509742877
5028000000.0 0.4924293190936688 -0.921705259073739
5031000000.0 0.4937015779605989 -0.8876378893868635
5034000000.0 0.5128978948448211 -0.9713819626529434
5038000000.0 0.5002628335840488 -0.8574396373826391
5041000000.0 0.5535146596833638 -0.8554378425739296
5044000000.0 0.5365363732733552 -0.8346126500338801
5047000000.0 0.580763600258137 -0.8865845748930834
5050000000.0 0.5469169400608782 -0.8236729354844894
5053000000.0 0.541633696484323 -0.9227540559156722
5056000000.0 0.5634149522376755 -0.896899921978106
5059000000.0 0.5801544271423557 -0.8731199905704378
5062000000.0 0.5082735275342447 -0.9299109647534162
5066000000.0 0.5576893969194777 -0.870781027518895
5069000000.0 0.5439451993002358 -0.8951742544521475
5072000000.0 0.5118915940702353 -0.8692703372658361
5075000000.0 0.5568279687966963 -0.8829381526233118
5078000000.0 0.4691663743606131 -0.9192616615124705
5081000000.0 0.5087324488507079 -0.8857365319719885
5084000000.0 0.5493065693292108 -0.9377332898941162
5088000000.0 0.5414460211240806 -0.8636149988059579
5091000000.0 0.511703542762838 -0.8808612392022013
5094000000.0 0.5174700851198346 -0.9073088291895994
5097000000.0 0.5342601477839956 -0.8965189364472692
5100000000.0 0.5119317039056592 -0.8746025350724658
5103000000.0 0.49170748314552337 -0.8864476225434974
5106000000.0 0.5786679095125662 -0.9081271905132133
5109000000.0 0.6271449939921612 -0.8206751721034172
5112000000.0 0.5171434101809154 -0.8796595044692772
5116000000.0 0.4865345478099286 -0.8673488176232141
5119000000.0 0.5202044319853713 -0.903884697619045
5122000000.0 0.5036096704323259 -0.8720439590662219
5125000000.0 0.5702529447009574 -0.8380107435873232
5128000000.0 0.5724237290901634 -0.8744254073393817
5131000000.0 0.5570645833273141 -0.8829223527139183
5134000000.0 0.5685490724247398 -0.8755885333807732
5138000000.0 0.5635287745176882 -0.8926203482694459
5141000000.0 0.5865572733332951 -0.8638132460573927
5144000000.0 0.5958371540637475 -0.865556591544621
5147000000.0 0.5855693759279196 -0.8903023823317044
5150000000.0 0.6002428128556476 -0.8845530248829205
5153000000.0 0.5511359225672015 -0.873118050607945
5156000000.0 0.5495510595443327 -0.871743113594931
5159000000.0 0.5840609579800959 -0.9017500492181587
5162000000.0 0.5086187771599688 -0.8571125526197779
5166000000.0 0.5597654496258558 -0.9028791918393335
5169000000.0 0.5499232744117427 -0.8746706651493221
5172000000.0 0.5518313507734629 -0.8589379696582264
5175000000.0 0.5826323244906102 -0.888768126215243
5178000000.0 0.5652914500930325 -0.8977500385515234
