! Created with skrf 1.8.0 (http://scikit-rf.org).
# Hz S RI R 50.0 
!freq ReS11 ImS11
4000000000.0 0.5658377952062413 -0.8366080278516821
4003000000.0 0.548849353990835 -0.9320334571549546
4006000000.0 0.5209130156333388 -0.8954129564440041
4009000000.0000005 0.5808580957344383 -0.8597798953940213
4011999999.9999995 0.6014956012585244 -0.914880260119004
4016000000.0 0.520916520955839 -0.9362534233017138
4019000000.0 0.5589940320989772 -0.872125869550114
4022000000.0000005 0.6183257458022229 -0.8581393879339475
4025000000.0000005 0.5134907001262109 -0.9321344697072447
4027999999.9999995 0.5294127703833619 -0.8975892854900064
4030999999.9999995 0.5303111819006555 -0.8325925990944504
4034000000.0 0.5209011423700494 -0.8846804472298451
4038000000.0000005 0.549838529413804 -0.9005311412689974
4041000000.0000005 0.5065474683872744 -0.8970919648104577
4043999999.9999995 0.5301633581672761 -0.9405680222710381
4046999999.9999995 0.5658550383389844 -0.8787909761613002
4050000000.0 0.5007028418134033 -0.9336215616432701
4053000000.0 0.5279719730534105 -0.8753144675336356
4056000000.0 0.575514893178256 -0.8749112124536064
4059000000.0 0.5573891085588658 -0.8557270421643969
4062000000.0000005 0.5094901948722727 -0.9130288222004845
4066000000.0 0.4789636032019653 -0.8460401115868141
4069000000.0 0.5570640419042386 -0.9470960570809657
4072000000.0 0.6151774059582811 -0.8398792386212657
4075000000.0 0.5995841942042782 -0.8745820578805419
4078000000.0000005 0.5363287832902366 -0.8969607172497833
4081000000.0000005 0.6021818963331494 -0.873732802268455
4083999999.9999995 0.5664543961859649 -0.8768278401623971
4088000000.0 0.5939602349400158 -0.8743579666851999
4091000000.0 0.56010140498716 -0.9450170561407515
4094000000.0000005 0.5581882743091272 -0.9001762393012389
4097000000.0000005 0.5367838200767021 -0.8669226268815664
4099999999.9999995 0.525497487299144 -0.8952643211260292
4102999999.9999995 0.5977604351852617 -0.8671312329203298
4106000000.0 0.5366163651922273 -0.8966258437233835
4109000000.0 0.5615912485621058 -0.8766256831618928
4112000000.0 0.5516218425933159 -0.8486468196928062
4115999999.9999995 0.5584383990388632 -0.8507031368932916
4119000000.0 0.5025007923537649 -0.9105612729452278
4122000000.0 0.5325842938099723 -0.9245989359548017
4125000000.0 0.5511463902637511 -0.9367156656682343
4128000000.0 0.5233156514522395 -0.8510838019848534
4131000000.0 0.5217529853262142 -0.8733060996041266
4134000000.0000005 0.5433900616585473 -0.8274068226022465
4138000000.0 0.5111768644557955 -0.8433182380921539
4141000000.0 0.5552704807186377 -0.8808686854796237
4144000000.0 0.5575128805166863 -0.8634564164232951
4147000000.0000005 0.5492792046180879 -0.8801948803916922
4150000000.0000005 0.5925804907081827 -0.9091299787687305
4152999999.9999995 0.543561987563837 -0.8902243853927345
4155999999.9999995 0.5667551902679345 -0.8563730717832433
4159000000.0 0.5729251004981533 -0.8601398016591774
4162000000.0 0.5538837837298625 -0.862452915508128
4166000000.0000005 0.5653504467098849 -0.8711071837293767
4168999999.9999995 0.5483389972399692 -0.8874854594574996
4171999999.9999995 0.5616905218864614 -0.8839630782763949
4175000000.0 0.571913854313444 -0.857433684379185
4178000000.0 0.5613174024158133 -0.8519769289625599
4181000000.0 0.5631891069555091 -0.8925212455422329
4184000000.0 0.5451044442039907 -0.8904468670535182
4187999999.9999995 0.519926248917828 -0.8672371146951721
4191000000.0 0.5604613015468711 -0.852143438137527
4194000000.0 0.5371550326932187 -0.8366258534812641
4197000000.0 0.5447719641752127 -0.8638618796047788
4200000000.0 0.5521570693524933 -0.8655057973348197
4203000000.0000005 0.5669740972249 -0.8442501931608027
4206000000.0000005 0.5656495208006631 -0.8899642194141902
4208999999.9999995 0.5547726375042634 -0.8482564326506209
4211999999.9999995 0.5318228769313182 -0.8430808246044912
4216000000.0 0.551173299273904 -0.8632210605197341
4219000000.0000005 0.539693051578232 -0.8656317068876257
4222000000.0000005 0.5435022414133929 -0.8590659479840451
4224999999.9999995 0.5479514664636862 -0.8663845195848914
4227999999.9999995 0.5598894939316512 -0.8624174957654105
4231000000.0 0.5585940792633385 -0.8668095904868217
4234000000.0 0.5405131327800636 -0.8777513306222001
4238000000.0000005 0.5410063869224524 -0.8768055341071306
4240999999.9999995 0.543891575160556 -0.8471961434775217
4244000000.0 0.5638725941073828 -0.8579727750888102
4247000000.0 0.5613248676328733 -0.8404229717502628
4250000000.0 0.5359298860244761 -0.8430831884267134
4253000000.0 0.5192583490590598 -0.8433805606376965
4256000000.0 0.5524243854467668 -0.8776474801076208
4259000000.0000005 0.49528827943791526 -0.8476604304095672
4261999999.9999995 0.5284232996222313 -0.8729579521088668
4266000000.0 0.5242708711561479 -0.8982974724020448
4269000000.0 0.5568830885076805 -0.8502560502568323
4272000000.0000005 0.5399908812869254 -0.8456373348222848
4275000000.0000005 0.5469053456051294 -0.855898764323141
4277999999.9999995 0.5626614346408296 -0.8620233095288109
4280999999.9999995 0.5548773172083505 -0.874579372682469
4284000000.0 0.5191144519511968 -0.8660870737065303
4288000000.0000005 0.5865675502657415 -0.8515442187828534
4291000000.0000005 0.5313329003390477 -0.8261704316880322
4293999999.9999995 0.5657004933942253 -0.8759323269024915
4297000000.0 0.5691552276190877 -0.8380163958738598
4300000000.0 0.5577095854887818 -0.8577354389602291
4303000000.0 0.5210417794731436 -0.8626197614067481
4306000000.0 0.5973495950376941 -0.8509865220265719
4309000000.0 0.5503531438040649 -0.8469006807412879
4312000000.0 0.5922709193188076 -0.8596717611025809
4316000000.0 0.5791069180009562 -0.8667117566989235
4319000000.0 0.5661137606213342 -0.8331965531235919
4322000000.0 0.5272883383643839 -0.8551737734691146
4325000000.0 0.550670041439951 -0.8621122208253396
4328000000.0 0.5341929628032501 -0.8568924219934587
4331000000.0 0.5176172818864048 -0.8941993436511064
4334000000.0 0.5514088948013932 -0.8789218693875821
4338000000.0 0.5696390804186148 -0.8410097396770596
4341000000.0 0.5743923796597729 -0.8522035348928106
4344000000.0 0.5821929747236803 -0.8636699534531694
4347000000.0 0.5172071346037554 -0.8583591852422072
4350000000.0 0.5146661883685424 -0.8670182233866426
4353000000.0 0.5559243244189136 -0.831735623229904
4356000000.0 0.5069332890310231 -0.8583202682617843
4359000000.0 0.5117304537059529 -0.8275137444121405
4362000000.0 0.5051765489319734 -0.893825178902715
4366000000.0 0.5601421492749799 -0.867893823501893
4369000000.0 0.5216731391019322 -0.837393336839072
4372000000.0 0.5080555457171971 -0.8640362819792191
4375000000.0 0.5591345682127792 -0.837584466587576
4378000000.0 0.5448603306916162 -0.8245708499223009
4381000000.0 0.5370544422989716 -0.8544676527713727
4384000000.0 0.5664589904729833 -0.9086755293348169
4388000000.0 0.5429473005736128 -0.8362252518366596
4391000000.0 0.5544096530290017 -0.8555780430306376
4394000000.0 0.5353282448008247 -0.834982399752586
4397000000.0 0.535310987817592 -0.862775513676355
4400000000.0 0.5549125291839268 -0.882319369200308
4403000000.0 0.537980511870594 -0.8427008121515119
4406000000.0 0.5225811423881329 -0.871473033448248
4409000000.0 0.539591149197309 -0.8908514922481976
4412000000.0 0.49022215639066713 -0.8785247740057728
4416000000.0 0.5345367578418994 -0.8559915842222579
4419000000.0 0.5289460619962042 -0.8613834741636222
4422000000.0 0.5190786388440185 -0.8475169020389662
4425000000.0 0.5555121827842844 -0.8742329542580748
4428000000.0 0.5262661482647998 -0.8816084225640376
4431000000.0 0.5461744758947883 -0.8737240562829247
4434000000.0 0.5141996524396741 -0.864115055497365
4438000000.0 0.556630457223017 -0.8798439673877018
4441000000.0 0.5423270875860513 -0.8784615709029212
4444000000.0 0.5287175294032719 -0.8535929419791055
4447000000.0 0.5196840919108519 -0.8602005267870102
4450000000.0 0.5362966460678465 -0.8435823050237458
4453000000.0 0.5449902099502029 -0.8810905504885259
4456000000.0 0.5087782653342077 -0.847448167562401
4459000000.0 0.492463905825387 -0.8209137774540958
4462000000.0 0.5573011165207293 -0.9145896483819882
4466000000.0 0.543318530387588 -0.9010316867170243
4469000000.0 0.5439127814531884 -0.8556486635726701
4472000000.0 0.5170635294068789 -0.9061573673764997
4475000000.0 0.5237745851195317 -0.8505638699238167
4478000000.0 0.5248677947172262 -0.9173538668349692
4481000000.0 0.5045858583741984 -0.8496609242309321
4484000000.0 0.4924680364370687 -0.8787578478709095
4488000000.0 0.5033509289874365 -0.8629142042110318
4491000000.0 0.5367502592809582 -0.8682511182379653
4494000000.0 0.5107102365124547 -0.8686897430236385
4497000000.0 0.5444031247711061 -0.8527725790727628
4500000000.0 0.5319427010323959 -0.8600454126093096
4503000000.0 0.5240869548655117 -0.8675292675375366
4506000000.0 0.4999087924511972 -0.8636270698764994
4509000000.0 0.5151290340262251 -0.8472243290821114
4512000000.0 0.5153447988277664 -0.8607544327817774
4516000000.0 0.5238681793926181 -0.8821309107720228
4519000000.0 0.5307491843879961 -0.8348332552739902
4522000000.0 0.513989047873862 -0.8789861216057488
4525000000.0 0.5541533281772778 -0.8379977595379595
4528000000.0 0.5253359751248246 -0.8764121795500308
4531000000.0 0.5382532724636196 -0.8638162856903668
4534000000.0 0.5072821461691214 -0.8641467953736186
4538000000.0 0.5195707454472758 -0.8521042137575168
4541000000.0 0.47433217795516625 -0.8601004450121761
4544000000.0 0.5055879052874723 -0.8574114662430219
4547000000.0 0.5058380643756075 -0.8409918411742408
4550000000.0 0.4884374410137159 -0.8887916017258246
4553000000.0 0.5174910865728404 -0.886095699170089
4556000000.0 0.4752812233780148 -0.8552930149804531
4559000000.0 0.5093564844377078 -0.9002179341358014
4562000000.0 0.514624703931831 -0.8863617189265468
4566000000.0 0.5201232925951558 -0.8873489437338199
4569000000.0 0.5021083358857262 -0.8542580240221367
4572000000.0 0.49923754989689895 -0.872764990140362
4575000000.0 0.489333274105132 -0.886443901333638
4578000000.0 0.530299767187981 -0.8932582556915855
4581000000.0 0.4993458980657384 -0.8897594846286521
4584000000.0 0.5013588861687122 -0.872086726337089
4588000000.0 0.5230974425043537 -0.8903207072546893
4591000000.0 0.5331951268020314 -0.8729403913374453
4594000000.0 0.4993028435220138 -0.8970197432335042
4597000000.0 0.5152810385294737 -0.8966349084077603
4600000000.0 0.4613948088374309 -0.8751197328661315
4603000000.0 0.5056651337243363 -0.8902678241724965
4606000000.0 0.5188074664202627 -0.8807741414714887
4609000000.0 0.5214879883718863 -0.8638184654496911
4612000000.0 0.5068218315367723 -0.8831643461300821
4616000000.0 0.490233259084192 -0.86318149279814
4619000000.0 0.5088755264882973 -0.8815682955036599
4622000000.0 0.4836651214424875 -0.8784553192996011
4625000000.0 0.46366305339011227 -0.8767805396582821
4628000000.0 0.5111290551695682 -0.8707022132439951
4631000000.0 0.4831314212250796 -0.8813370624640948
4634000000.0 0.49791415913514236 -0.8826612127307303
4638000000.0 0.5028465381754045 -0.8843002524942354
4641000000.0 0.5128579288473639 -0.8800776471991822
4644000000.0 0.4732241633856483 -0.880712088236707
4647000000.0 0.5137789604575618 -0.9006756841314436
4650000000.0 0.4884257163985283 -0.8978129254259481
4653000000.0 0.5081404578065862 -0.9029619301127666
4656000000.0 0.5040811244221962 -0.8724996386626277
4659000000.0 0.4722878530140203 -0.8911993675651284
4662000000.0 0.5069678299146416 -0.884267893983655
4666000000.0 0.4827733468055439 -0.8809044165385319
4669000000.0 0.5101693243261272 -0.8892014107502457
4672000000.0 0.48264736846559675 -0.9204893378190353
4675000000.0 0.4863275157556436 -0.9036168483322464
4678000000.0 0.46434160459371654 -0.8596034000893669
4681000000.0 0.47527713647950187 -0.9132014448559248
4684000000.0 0.47389171420596427 -0.897816501406138
4688000000.0 0.48172663361141954 -0.8983379074349942
4691000000.0 0.5249392377115114 -0.8928731705425749
4694000000.0 0.4992912488471051 -0.8770311653651686
4697000000.0 0.44715789274078455 -0.8645046248932798
4700000000.0 0.504297373716501 -0.8777718855804267
4703000000.0 0.4888304577465453 -0.8674688557766691
4706000000.0 0.485724775584637 -0.9067302274412361
4709000000.0 0.47939899974258215 -0.9058090886906272
4712000000.0 0.49449078701309807 -0.882926472249025
4716000000.0 0.46518293125194277 -0.888165287846963
4719000000.0 0.5041734465108576 -0.8811625827183455
4722000000.0 0.5385433588958024 -0.8787502439924184
4725000000.0 0.4701734791927349 -0.87529641538782
4728000000.0 0.46662090535989537 -0.906610491328696
4731000000.0 0.5484818540254262 -0.9142393231775451
4734000000.0 0.5008407709134117 -0.8671807659474945
4738000000.0 0.5500232839875903 -0.9161904145862325
4741000000.0 0.49159662568094353 -0.8853804047051591
4744000000.0 0.476869480231391 -0.9058044959035355
4747000000.0 0.4843442127433099 -0.8713031294346606
4750000000.0 0.48663542808329646 -0.919842187474113
4753000000.0 0.4936540624590579 -0.8817109847018374
4756000000.0 0.4852622036132108 -0.8875483480061913
4759000000.0 0.4871016059612848 -0.8734575558021909
4762000000.0 0.45982139983882275 -0.9287260949729194
4766000000.0 0.49473187721766926 -0.882141257595386
4769000000.0 0.523414515870061 -0.8763723259936378
4772000000.0 0.5060669285011011 -0.8935133385908193
4775000000.0 0.5080668307915515 -0.9452544369848941
4778000000.0 0.5051972115745166 -0.9262888661572292
4781000000.0 0.4923229325971832 -0.8761590316733642
4784000000.0 0.5108470417420459 -0.8878252754313183
4788000000.0 0.4775654820959618 -0.9122018691085738
4791000000.0 0.47590803810120247 -0.8874652385433696
4794000000.0 0.5148627914099644 -0.9141320642896785
4797000000.0 0.48074751722674397 -0.87309080619106
4800000000.0 0.48235296579297154 -0.8825271150249767
4803000000.0 0.442724720801696 -0.9048303358136429
4806000000.0 0.4761815567727178 -0.9302922331928164
4809000000.0 0.4061276914173346 -0.9065113968679115
4812000000.0 0.45310935708489636 -0.905648522272536
4816000000.0 0.5154105259013684 -0.8500810089539378
4819000000.0 0.518133014547001 -0.9167979519946079
4822000000.0 0.5271373756572821 -0.9072713926661875
4825000000.0 0.5102841212572743 -0.9230286092276809
4828000000.0 0.4740938814597853 -0.8949479016665404
4831000000.0 0.46475313586130385 -0.9463111174645416
4834000000.0 0.518830559570574 -0.9147073724067013
4838000000.0 0.4871617629428997 -0.9265762062916888
4841000000.0 0.47810105963520044 -0.8889719965138716
4844000000.0 0.5151166241481417 -0.8830419655620164
4847000000.0 0.48489209215851514 -0.8587365387736763
4850000000.0 0.47452290920699586 -0.9381085082454194
4853000000.0 0.4827066036190967 -0.8782307647470912
4856000000.0 0.48649735647698306 -0.8999114595658902
4859000000.0 0.5153398391211196 -0.9461041856906727
4862000000.0 0.49641294587964163 -0.8741882199285065
4866000000.0 0.5024234578091775 -0.9239602045715758
4869000000.0 0.48976072102076107 -0.9196446739194252
4872000000.0 0.4849767234925505 -0.918117991107661
4875000000.0 0.5766413512106741 -0.9417249165353825
4878000000.0 0.49094251214459855 -0.9097864958180838
4881000000.0 0.5060792998822996 -0.9739398541905273
4884000000.0 0.49914948711340507 -0.8982379965510392
4888000000.0 0.5255147010039187 -0.8918816913449371
4891000000.0 0.5272698028915852 -0.9232519322935449
4894000000.0 0.46132743707749935 -0.9253918376479408
4897000000.0 0.510525152477096 -0.8780641178840977
4900000000.0 0.5034297483847165 -0.9578178669032644
4903000000.0 0.5307423329047734 -0.891566596345144
4906000000.0 0.5085401635752359 -0.935348637083364
4909000000.0 0.46825007401705 -0.8958132073156205
4912000000.0 0.5027933587993919 -0.9637092979301172
4916000000.0 0.5196504190657179 -0.9211595800846408
4919000000.0 0.5567416876043696 -0.9304303286744331
4922000000.0 0.5238719017311784 -0.9075764958955719
4925000000.0 0.48214012818654767 -0.9141828888623577
4928000000.0 0.5482008578573025 -0.881805707667442
4931000000.0 0.5566731182451794 -0.8906969780905729
4934000000.0 0.5031331116906645 -0.8677394010654518
4938000000.0 0.47724471198459356 -0.9065012768642596
4941000000.0 0.5193422249181405 -0.8804375046042613
4944000000.0 0.4919524866238292 -0.8463170352178228
4947000000.0 0.4771760799770521 -0.8593689168649086
4950000000.0 0.49398595372934134 -0.885670358624051
4953000000.0 0.47925305993770795 -0.979550681663266
4956000000.0 0.49648374542263546 -0.9173395215450658
4959000000.0 0.4475361734137552 -0.9030756521034436
4962000000.0 0.5404502609113467 -0.9575041578151473
4966000000.0 0.551808839383279 -0.8960588675140613
4969000000.0 0.5471266670843062 -0.9505391214525849
4972000000.0 0.4865147262311198 -0.9065998946774095
4975000000.0 0.5250013020826121 -0.8795725740048552
4978000000.0 0.48491027031448763 -0.9101037241412062
4981000000.0 0.5247921566011847 -0.9178318938325196
4984000000.0 0.5269185692961345 -0.8924939584193079
4988000000.0 0.5323654954847113 -0.8860538989902965
4991000000.0 0.5697971716036461 -0.8949490969612153
4994000000.0 0.5291834996173131 -0.9100575209110358
4997000000.0 0.47638075383508693 -0.9187982503722258
5000000000.0 0.543823640637388 -0.8919476171139998
5003000000.0 0.5479139102790723 -0.9243166049680086
5006000000.0 0.5260113749470499 -0.9623733327709572
5009000000.0 0.5260364382390632 -0.8951772103758797
5012000000.0 0.4811203903560358 -0.8999568292055325
5016000000.0 0.5496493000948147 -0.9290690503830424
5019000000.0 0.5027857126807926 -0.9219154183597751
5022000000.0 0.5053120999317687 -0.9082667580996233
5025000000.0 0.571518170612853 -0.9450779279134378
5028000000.0 0.49918052338889995 -0.9332627757290288
5031000000.0 0.500357507655969 -0.9051476171445063
5034000000.0 0.4948492348162267 -0.9801773673609236
5038000000.0 0.5043961628076724 -0.8621802920733213
5041000000.0 0.5270756720028261 -0.9005659584707035
5044000000.0 0.5297915393806243 -0.8828720826397429
5047000000.0 0.5028097349998372 -0.8841625136769715
5050000000.0 0.5561417861423761 -0.8655525941781339
5053000000.0 0.5446656948404698 -0.9628749646965702
5056000000.0 0.5575562920460708 -0.8723647807158896
5059000000.0 0.5472413908536355 -0.9204171968821862
5062000000.0 0.49673128610440087 -0.9201782243043569
5066000000.0 0.5421359753962909 -0.8465528453001441
5069000000.0 0.5549769806457354 -0.9099758653593526
5072000000.0 0.46352419085262864 -0.886710072908458
5075000000.0 0.5546668801768014 -0.8669979007383533
5078000000.0 0.4844601983171626 -0.9452919177688748
5081000000.0 0.4934111492693638 -0.9016413890579266
5084000000.0 0.5417833565505761 -0.9119132924320732
5088000000.0 0.5163986659118729 -0.9033599520867508
5091000000.0 0.48845873309412247 -0.9244610362979564
5094000000.0 0.526313122012577 -0.9145321717833496
5097000000.0 0.5343973400566988 -0.8812419279099281
5100000000.0 0.5106489512819017 -0.8820829752684978
5103000000.0 0.4975752825021977 -0.9040015447476972
5106000000.0 0.5902892708866375 -0.9277515654922386
5109000000.0 0.5464227197749981 -0.9193754332024094
5112000000.0 0.5015941044502976 -0.9142417007290344
5116000000.0 0.47909782781194377 -0.8407646287972026
5119000000.0 0.5486186169228131 -0.8963868063733312
5122000000.0 0.5750032869506894 -0.8635519385455197
5125000000.0 0.548866605539438 -0.869608511497943
5128000000.0 0.5282563791876543 -0.8994586909711174
5131000000.0 0.5700847475355004 -0.9278574691421475
5134000000.0 0.5335599257287522 -0.8814043001757258
5138000000.0 0.5569165558686628 -0.8915782951917475
5141000000.0 0.5851546309170392 -0.9010782283642946
5144000000.0 0.5651019254118429 -0.8810673837334853
5147000000.0 0.549771202535703 -0.8997285330286736
5150000000.0 0.5635464611445105 -0.8706519118408977
5153000000.0 0.5527870165643272 -0.8842292331151385
5156000000.0 0.5755605775617252 -0.9181940876465804
5159000000.0 0.5951629054820458 -0.881212348940173
5162000000.0 0.509423790203282 -0.8672429992298638
5166000000.0 0.5314963663027907 -0.9056564182364827
5169000000.0 0.5585325755085211 -0.9358121992962852
5172000000.0 0.5330371369662368 -0.8764184517112086
5175000000.0 0.612288684599935 -0.9170180302772795
5178000000.0 0.5554036287149388 -0.9003766644851181
