! Created with skrf 1.8.0 (http://scikit-rf.org).
# Hz S RI R 50.0 
!freq ReS11 ImS11
4000000000.0 0.5310283957596023 -0.8666725660705369
4003000000.0 0.5919421871764508 -0.9510968117939828
4006000000.0 0.5288145343778787 -0.9080231309302054
4009000000.0000005 0.5625893786875104 -0.8377726724798791
4011999999.9999995 0.6419983067193038 -0.8628246785881178
4016000000.0 0.5468039160073529 -0.8804164012425331
4019000000.0 0.5748207968316418 -0.8689904215641404
4022000000.0000005 0.6027588912175514 -0.8467990693044934
4025000000.0000005 0.5259845991825585 -0.9464922361767829
4027999999.9999995 0.5328033007140056 -0.8704757298760492
4030999999.9999995 0.5407485507827359 -0.8549890041922072
4034000000.0 0.5126047533313123 -0.8511361715303063
4038000000.0000005 0.5338290798632245 -0.9022958092180887
4041000000.0000005 0.5520839500081863 -0.850186479170345
4043999999.9999995 0.5864222968250482 -0.9091962875228418
4046999999.9999995 0.5861454601997965 -0.8916175785758151
4050000000.0 0.5192582165137136 -0.9069697449289926
4053000000.0 0.4971996455676937 -0.8292485980129263
4056000000.0 0.5121371928552654 -0.8716657341336613
4059000000.0 0.538340080648862 -0.8567373777718831
4062000000.0000005 0.49017018935537954 -0.8785818383135711
4066000000.0 0.49116124937644245 -0.821494920556383
4069000000.0 0.540271834057024 -0.8790599598350468
4072000000.0 0.5693814784758856 -0.846266538838258
4075000000.0 0.5693764117462065 -0.8859729428901923
4078000000.0000005 0.5641172938078036 -0.9076970044175983
4081000000.0000005 0.5941390883883528 -0.8209539816724856
4083999999.9999995 0.5541537347766565 -0.9118643017441033
4088000000.0 0.5685502748682607 -0.8728726974775838
4091000000.0 0.6044510609180903 -0.9016643857322952
4094000000.0000005 0.5673145475498369 -0.8849605837781885
4097000000.0000005 0.5163129299309221 -0.8571947481265939
4099999999.9999995 0.536520222566828 -0.8785429879838729
4102999999.9999995 0.596318879968988 -0.9122431933191115
4106000000.0 0.5556169325614027 -0.8468654035326736
4109000000.0 0.557858441276775 -0.904941073295802
4112000000.0 0.5516158957236196 -0.856735127599585
4115999999.9999995 0.5263222782694256 -0.8691786369453206
4119000000.0 0.5316349060218293 -0.8629879586653288
4122000000.0 0.52903799513338 -0.9008932079038129
4125000000.0 0.5606805459203325 -0.9063650703044471
4128000000.0 0.5330150708249515 -0.8248277084728194
4131000000.0 0.5179917660581698 -0.8527459870175563
4134000000.0000005 0.5479371558387425 -0.8319522997172091
4138000000.0 0.5177862395541787 -0.8536433724298329
4141000000.0 0.51722438384257 -0.8566566191794835
4144000000.0 0.5290142685758112 -0.8360202038975257
4147000000.0000005 0.5349216302228973 -0.8733159930578941
4150000000.0000005 0.5558447353687169 -0.8671496873361504
4152999999.9999995 0.5676732054888068 -0.8415175684148001
4155999999.9999995 0.5988234235375725 -0.8857933497960012
4159000000.0 0.5393300317780764 -0.856599917098481
4162000000.0 0.5608236472953096 -0.8434554668831596
4166000000.0000005 0.5710620804833072 -0.8776956114461014
4168999999.9999995 0.5177238783741945 -0.8603143009190675
4171999999.9999995 0.5614845366146503 -0.8615000122492631
4175000000.0 0.54577628032778 -0.8678890463807467
4178000000.0 0.5366276162377601 -0.8779113872020188
4181000000.0 0.5264582852728661 -0.8397820356737926
4184000000.0 0.5760694415036709 -0.8319684400876562
4187999999.9999995 0.5393116505282041 -0.851671476550864
4191000000.0 0.5867238974945231 -0.8249671177223521
4194000000.0 0.5358278054724612 -0.8692426732825413
4197000000.0 0.5591629670083595 -0.8492793088718997
4200000000.0 0.5450907647752994 -0.8421473488279514
4203000000.0000005 0.5649164915427802 -0.8336312040309846
4206000000.0000005 0.544621754960226 -0.8718954099496555
4208999999.9999995 0.5586191505959099 -0.849344855717753
4211999999.9999995 0.5280726523254233 -0.8731272785546685
4216000000.0 0.563285233712559 -0.8390222754753468
4219000000.0000005 0.563477995009638 -0.8623267220001717
4222000000.0000005 0.5264529507491411 -0.857134150488506
4224999999.9999995 0.5441167471573922 -0.8487265713114215
4227999999.9999995 0.5467502101090811 -0.8596860261819556
4231000000.0 0.5433993037491163 -0.8596491766672484
4234000000.0 0.5466155890208091 -0.875544100825171
4238000000.0000005 0.5267932021427109 -0.8627662260463963
4240999999.9999995 0.5226632559350284 -0.8458159552561504
4244000000.0 0.5547302533983803 -0.8635516171232953
4247000000.0 0.5376706356479992 -0.855417159458277
4250000000.0 0.5309525058732588 -0.8620684601366075
4253000000.0 0.5382549796801158 -0.8403258409593458
4256000000.0 0.5450650095816697 -0.8755951782860271
4259000000.0000005 0.5259024280109567 -0.8479139825728275
4261999999.9999995 0.5202423794074842 -0.8667636709286084
4266000000.0 0.5278046021071481 -0.8855934646242051
4269000000.0 0.5792062727524994 -0.8401830294305642
4272000000.0000005 0.5566494281146075 -0.8640073785709679
4275000000.0000005 0.5502837835019004 -0.8498318839467492
4277999999.9999995 0.5272042464166906 -0.8709788579595683
4280999999.9999995 0.5613608426343524 -0.859389754839204
4284000000.0 0.5255191289343499 -0.8834101502537209
4288000000.0000005 0.5755630435453158 -0.8547759649912758
4291000000.0000005 0.5403796431315132 -0.8300886752417591
4293999999.9999995 0.5290201688930806 -0.8530004746257135
4297000000.0 0.5464872380212875 -0.8190134904862629
4300000000.0 0.535212557214748 -0.8574761870718549
4303000000.0 0.5527310382751967 -0.8297060140947121
4306000000.0 0.5533514098243898 -0.8185027010008122
4309000000.0 0.5522968931092856 -0.8590526048725926
4312000000.0 0.5951135316799175 -0.8404785425635996
4316000000.0 0.5719566285560289 -0.843465190120171
4319000000.0 0.5463014930582882 -0.8210375964402977
4322000000.0 0.5111377624821198 -0.8476572691232549
4325000000.0 0.564352330023789 -0.8478221505002751
4328000000.0 0.5237308307707974 -0.8355840190343381
4331000000.0 0.5144443112713217 -0.8892297178286358
4334000000.0 0.5133949571845585 -0.8536831818793637
4338000000.0 0.5609227339530141 -0.8605062277766259
4341000000.0 0.5734746055112945 -0.8731755632265108
4344000000.0 0.5628905218499349 -0.8735286729695225
4347000000.0 0.5214454988800596 -0.8761115926588513
4350000000.0 0.521783598047789 -0.8232490222366047
4353000000.0 0.5452797488466251 -0.8112654219782118
4356000000.0 0.5187645176637133 -0.8490151412518413
4359000000.0 0.5027518061479059 -0.818367673395105
4362000000.0 0.49976508499870476 -0.8892634504108148
4366000000.0 0.5428344101200001 -0.8711589335688416
4369000000.0 0.5220574740387085 -0.8322415959485214
4372000000.0 0.5083745393316625 -0.8673107970958567
4375000000.0 0.5548677275807489 -0.8474547332327025
4378000000.0 0.5273892657984054 -0.8301605263012702
4381000000.0 0.5393160014804615 -0.8365099864877245
4384000000.0 0.5545640905095941 -0.9104666346435243
4388000000.0 0.5338554449574807 -0.8301617094671251
4391000000.0 0.5454873763063931 -0.8551960693304582
4394000000.0 0.5259386079411554 -0.8367277763689466
4397000000.0 0.5204311285602886 -0.8528915117206062
4400000000.0 0.5466381217696736 -0.8709427067326171
4403000000.0 0.5257087776167695 -0.856477777448022
4406000000.0 0.5255504614297034 -0.8654765507505278
4409000000.0 0.5485004732412716 -0.8996523918488891
4412000000.0 0.4798379479952097 -0.8818274516880928
4416000000.0 0.5241682872904911 -0.8536462191169422
4419000000.0 0.5087321187767726 -0.860360348384499
4422000000.0 0.532903240417979 -0.8370626607771555
4425000000.0 0.5449184129470593 -0.854804271112175
4428000000.0 0.5200352903917249 -0.8622779479122478
4431000000.0 0.5452318560239984 -0.8709443989640967
4434000000.0 0.524831376367537 -0.8442442326692221
4438000000.0 0.5357090167523879 -0.865374184960189
4441000000.0 0.5346753757288372 -0.8699720771950921
4444000000.0 0.5130376450555576 -0.8412653108913539
4447000000.0 0.5040689699031609 -0.8605137666138513
4450000000.0 0.5303729895919927 -0.8415158340903767
4453000000.0 0.5392513987028486 -0.8836969582137523
4456000000.0 0.4988415909164645 -0.8330076032158731
4459000000.0 0.48102510263016335 -0.8382796027720243
4462000000.0 0.5420294843335973 -0.9228652843744435
4466000000.0 0.5374280400675744 -0.9007658027492624
4469000000.0 0.5413286170266198 -0.8397353124979474
4472000000.0 0.5110676473589226 -0.8867384148086466
4475000000.0 0.5082876758283692 -0.8313767368068783
4478000000.0 0.533186173010493 -0.9119030540185165
4481000000.0 0.5067623906491474 -0.8448992095230746
4484000000.0 0.47537650521192565 -0.8870816489345594
4488000000.0 0.4925775045602041 -0.8636201783402064
4491000000.0 0.5256480576377837 -0.8607547751830624
4494000000.0 0.5187361101994834 -0.846352837226592
4497000000.0 0.5185347747540853 -0.8336831298303595
4500000000.0 0.5294676538297944 -0.8528369943688672
4503000000.0 0.5271660673769517 -0.872574171399294
4506000000.0 0.5091380773060191 -0.8518556355131186
4509000000.0 0.5122662383276604 -0.8565841850009803
4512000000.0 0.4840340648040878 -0.8612817339046864
4516000000.0 0.5243253059635304 -0.8850065382372515
4519000000.0 0.5166841900331132 -0.8385791723001739
4522000000.0 0.4911725018876339 -0.8655144922048639
4525000000.0 0.5337324738904838 -0.8483679587119675
4528000000.0 0.5248142088206251 -0.8897705704313641
4531000000.0 0.544090076565767 -0.8478669427736587
4534000000.0 0.5135623225999375 -0.8543204567980869
4538000000.0 0.5041248490050214 -0.8709657785363404
4541000000.0 0.4829909037419062 -0.8750216655998149
4544000000.0 0.503838245726642 -0.8432578495963802
4547000000.0 0.5212010772123252 -0.8400814560130053
4550000000.0 0.49860804868233505 -0.8817307701349457
4553000000.0 0.5020777329937904 -0.8835460660416057
4556000000.0 0.47736283860223816 -0.8616870670873855
4559000000.0 0.5100062589386252 -0.866884644815437
4562000000.0 0.524609585002437 -0.8817025045956355
4566000000.0 0.5066598354723998 -0.8988155490263987
4569000000.0 0.49895709757807805 -0.8403144087940606
4572000000.0 0.5244864499699107 -0.8531079270865802
4575000000.0 0.49885948675691044 -0.885567157618083
4578000000.0 0.5319952127238129 -0.8859997414643777
4581000000.0 0.489103414122561 -0.8803493045780664
4584000000.0 0.5055092346425182 -0.853235527760972
4588000000.0 0.5214843139133558 -0.8710889906333262
4591000000.0 0.5244498468263631 -0.8633552293184765
4594000000.0 0.4858959241191974 -0.8643891812260783
4597000000.0 0.4967587813532396 -0.8741844144790631
4600000000.0 0.46687263164226556 -0.8729907383664274
4603000000.0 0.5066063238497533 -0.8941274774482783
4606000000.0 0.5087858821682607 -0.8952578140762355
4609000000.0 0.4997674015973417 -0.8746977843331128
4612000000.0 0.5097631513510945 -0.8794990142420606
4616000000.0 0.5065961292868767 -0.8672514596416627
4619000000.0 0.5130007156220353 -0.858384209181521
4622000000.0 0.4996950836823628 -0.8898606337619911
4625000000.0 0.45739133804909005 -0.8532508064731787
4628000000.0 0.5050306297802623 -0.859735217879265
4631000000.0 0.4875652619679345 -0.8638153554688283
4634000000.0 0.499547184884999 -0.8838991108245574
4638000000.0 0.5015677270754728 -0.8654828808284762
4641000000.0 0.49744203165375594 -0.8766769663137256
4644000000.0 0.49454086569500866 -0.8613555176082486
4647000000.0 0.5198434752312935 -0.877434497056262
4650000000.0 0.49411468480406184 -0.8686234148923646
4653000000.0 0.5133388521841354 -0.8732309837606684
4656000000.0 0.4675506119564231 -0.8800908440242771
4659000000.0 0.4803659497289938 -0.8638153560232181
4662000000.0 0.4979300457714726 -0.8929719559219854
4666000000.0 0.48092700752705975 -0.8719138346079727
4669000000.0 0.4900604976390231 -0.8743254095485312
4672000000.0 0.48580890156966205 -0.8892667299525814
4675000000.0 0.47518605075114967 -0.9006706133081868
4678000000.0 0.48863419347795156 -0.8817109723249447
4681000000.0 0.4802145525343819 -0.9122820332487606
4684000000.0 0.4708961988638825 -0.8843846273880211
4688000000.0 0.45171171661083975 -0.8777176065075929
4691000000.0 0.5198462980959684 -0.8631918465246101
4694000000.0 0.5069851205060166 -0.884468589264013
4697000000.0 0.44815564315123224 -0.8617297901903521
4700000000.0 0.5061326730486391 -0.8679426559167744
4703000000.0 0.5085046851127695 -0.8423975223635719
4706000000.0 0.45986042064632326 -0.8952245120098286
4709000000.0 0.48154002997362105 -0.8871590300835978
4712000000.0 0.5036485698236902 -0.8842074492837625
4716000000.0 0.5037895006132378 -0.8885219592471251
4719000000.0 0.5242625548720791 -0.8656365298130354
4722000000.0 0.5158306904108101 -0.8901787515238769
4725000000.0 0.5033628117262846 -0.8846286350816763
4728000000.0 0.49176927381526975 -0.8820608476400575
4731000000.0 0.49649135217396667 -0.9108016445357032
4734000000.0 0.5038404756023812 -0.8712441602415784
4738000000.0 0.5340179445846873 -0.9008748366117958
4741000000.0 0.5091673601902201 -0.9049508342252837
4744000000.0 0.4935903806093526 -0.9262069183961494
4747000000.0 0.49259268868246586 -0.8760543585657375
4750000000.0 0.508036840160045 -0.8944035173256623
4753000000.0 0.4954461935040248 -0.8765205807631545
4756000000.0 0.49746567809555087 -0.8960855325140711
4759000000.0 0.5119688376660385 -0.8756411809242278
4762000000.0 0.4714036625859319 -0.9294660552303153
4766000000.0 0.5006549945014068 -0.8856050132960824
4769000000.0 0.4821923112610747 -0.8983279934956142
4772000000.0 0.48799490836848614 -0.8941061394883134
4775000000.0 0.4963714623541598 -0.9256089255947586
4778000000.0 0.4858122985361727 -0.9134535565280729
4781000000.0 0.49593556072625933 -0.8859944451059688
4784000000.0 0.5157215068981387 -0.8837353728571306
4788000000.0 0.46872396161279484 -0.9251726416295973
4791000000.0 0.5083552731963323 -0.8859160276636151
4794000000.0 0.5415633426646548 -0.9259252970304255
4797000000.0 0.48502714688666015 -0.8901844373249058
4800000000.0 0.47183620791181924 -0.8876549668231728
4803000000.0 0.44895355264842984 -0.8990828560927586
4806000000.0 0.4969758314490508 -0.9052992182579351
4809000000.0 0.4519895570319685 -0.9159011665209262
4812000000.0 0.44648101676156354 -0.8960035250701244
4816000000.0 0.5012434249807168 -0.8621699156201778
4819000000.0 0.5195258700197471 -0.8973881876854302
4822000000.0 0.5023606697304361 -0.9157251032027609
4825000000.0 0.506730724921882 -0.8980542287658508
4828000000.0 0.48417281186764527 -0.8570009177722253
4831000000.0 0.4504170010622297 -0.957912412949777
4834000000.0 0.4966878754618489 -0.8804937490235477
4838000000.0 0.4786018222714604 -0.9186010654587663
4841000000.0 0.4746332955194754 -0.9015526828067159
4844000000.0 0.5049818816521098 -0.8721260223897765
4847000000.0 0.4933002392830671 -0.8674140807788971
4850000000.0 0.4922341997154201 -0.9254554135675084
4853000000.0 0.4830630348837604 -0.8649427059685472
4856000000.0 0.49145679121153624 -0.8786045051033844
4859000000.0 0.5081846436459102 -0.9234110190542626
4862000000.0 0.5016067098468621 -0.8667119179864159
4866000000.0 0.46642551771555746 -0.92447260373736
4869000000.0 0.4733851665405757 -0.9067395025156931
4872000000.0 0.4823495628858256 -0.945056882899045
4875000000.0 0.5704558362139485 -0.902279896158054
4878000000.0 0.4829824040823294 -0.8998480895116631
4881000000.0 0.4887233495863169 -0.9480553290923973
4884000000.0 0.516918049297793 -0.8965483789466427
4888000000.0 0.5275729215991974 -0.8713978313897818
4891000000.0 0.541451329003623 -0.907968352993433
4894000000.0 0.4575074522678116 -0.901283270538412
4897000000.0 0.5225336953675417 -0.8668211652730844
4900000000.0 0.48743645463834395 -0.9396977179980258
4903000000.0 0.520600689058701 -0.9094090944663531
4906000000.0 0.5146608188819569 -0.9133982926495823
4909000000.0 0.5015685499907147 -0.8905483621109741
4912000000.0 0.48609545928824105 -0.9276175763992779
4916000000.0 0.5351453111628459 -0.9234900552832639
4919000000.0 0.5272870116242943 -0.9083805101299558
4922000000.0 0.4935569899548543 -0.8928273548857136
4925000000.0 0.4851608826337251 -0.9013539557623722
4928000000.0 0.5340490075054002 -0.8628146580401619
4931000000.0 0.5027335054379654 -0.8928330807055934
4934000000.0 0.4998194046285892 -0.8627174907027421
4938000000.0 0.4794861972772007 -0.9089878768104939
4941000000.0 0.4943497492900707 -0.887281197328586
4944000000.0 0.4930535402234798 -0.8254804063239378
4947000000.0 0.47771923947090705 -0.886795179537599
4950000000.0 0.4726052312114128 -0.9043465041066486
4953000000.0 0.48296866829640483 -0.9504795617941588
4956000000.0 0.4848237900290083 -0.9150240695847588
4959000000.0 0.4734284438877748 -0.9036514442634772
4962000000.0 0.4962642981427422 -0.9303560280697912
4966000000.0 0.514175759450182 -0.9163124240778522
4969000000.0 0.5229701855921672 -0.916595258983172
4972000000.0 0.46406313284437806 -0.9348959782130442
4975000000.0 0.49393278388631134 -0.8669077899977158
4978000000.0 0.4808330414169358 -0.890846438917382
4981000000.0 0.5035150499899461 -0.8936904985262704
4984000000.0 0.500735039296178 -0.9046607138176487
4988000000.0 0.5129870391458633 -0.853309232829413
4991000000.0 0.5767371770267146 -0.8954229768703809
4994000000.0 0.5025973407679742 -0.8787730569579799
4997000000.0 0.46100460750121197 -0.9181199688061784
5000000000.0 0.5394991616020065 -0.9228534932353165
5003000000.0 0.5307050560863772 -0.9097695255727645
5006000000.0 0.5088572214659675 -0.9352356450630133
5009000000.0 0.521470013876183 -0.8699127600921357
5012000000.0 0.49192584928280725 -0.9011236494087927
5016000000.0 0.5606559552868032 -0.9035193936647707
5019000000.0 0.5156552697594664 -0.8969519431054214
5022000000.0 0.5167120265179344 -0.9000285493334457
5025000000.0 0.5276788289551713 -0.9333001571251693
5028000000.0 0.4824071099976149 -0.923681626303839
5031000000.0 0.5342859911675939 -0.8826581010718535
5034000000.0 0.4845356142655237 -0.9367041692935505
5038000000.0 0.4874717798471879 -0.8867545036074558
5041000000.0 0.5621747568469372 -0.8626692095401336
5044000000.0 0.5154265991276137 -0.8732643337750117
5047000000.0 0.5276364730391084 -0.9202975715230817
5050000000.0 0.5774807866687366 -0.830213498930997
5053000000.0 0.5146391696816532 -0.9189318476926425
5056000000.0 0.5488011852442057 -0.8660950330793848
5059000000.0 0.5423517711387178 -0.8748963887637122
5062000000.0 0.5030406945116153 -0.9332217074004552
5066000000.0 0.5384917070629148 -0.8341322945906551
5069000000.0 0.5230732898102115 -0.9273687669696582
5072000000.0 0.513920118021638 -0.871844813135106
5075000000.0 0.568656095388784 -0.8753587410972865
5078000000.0 0.49847609228484335 -0.8841264663588528
5081000000.0 0.4862696242230006 -0.8417146969234448
5084000000.0 0.5217733592347109 -0.9203988120581603
5088000000.0 0.5269784028227724 -0.9219905256255325
5091000000.0 0.49865314908420816 -0.9037890097271375
5094000000.0 0.5353496797807473 -0.9369711071440132
5097000000.0 0.5288810338473873 -0.8939296857760362
5100000000.0 0.5432696041580334 -0.8747159158306336
5103000000.0 0.49370494084064603 -0.8748192409479946
5106000000.0 0.5771390117972217 -0.9195040327410553
5109000000.0 0.557108699733233 -0.8647282878918304
5112000000.0 0.49587163560086134 -0.900744979054118
5116000000.0 0.5347229504036483 -0.8528761500562465
5119000000.0 0.5251882454308892 -0.9367560802076206
5122000000.0 0.5364112595783157 -0.8827929826096461
5125000000.0 0.5379500528239878 -0.8654797126921018
5128000000.0 0.5069767195824948 -0.8757888730841334
5131000000.0 0.5192882767330187 -0.8768316940236242
5134000000.0 0.5397334312969146 -0.8975451750940604
5138000000.0 0.5399169631772712 -0.830747987205241
5141000000.0 0.6263768708427331 -0.8287691434211495
5144000000.0 0.5712559547993558 -0.8920600809932921
5147000000.0 0.513398039498801 -0.914991508232363
5150000000.0 0.5531916069626315 -0.8858194307027001
5153000000.0 0.5512641431675229 -0.8471146399330507
5156000000.0 0.5875537253526895 -0.8865471167012231
5159000000.0 0.5690977307448807 -0.8979057078170933
5162000000.0 0.5450628526824076 -0.9155925628998074
5166000000.0 0.5402108166630825 -0.9088130807837397
5169000000.0 0.5539687694436585 -0.8635547545903697
5172000000.0 0.5376557496564357 -0.8559202825483494
5175000000.0 0.5934049682609736 -0.8891370864993493
5178000000.0 0.5347010907951976 -0.8829096373328862
