! Created with skrf 1.8.0 (http://scikit-rf.org).
# Hz S RI R 50.0 
!freq ReS11 ImS11
4000000000.0 0.5868747345441818 -0.8321117951791862
4003000000.0 0.5688743243720609 -0.9194217343346502
4006000000.0 0.5375044459938713 -0.9012208569564782
4009000000.0000005 0.5656618998487918 -0.8653378511863419
4011999999.9999995 0.6059480347012579 -0.8362740833779649
4016000000.0 0.5819844040511541 -0.9345809469531865
4019000000.0 0.5406949593837485 -0.884205302778725
4022000000.0000005 0.6459350935437271 -0.8186937208851305
4025000000.0000005 0.514536420492842 -0.9323482381423789
4027999999.9999995 0.553844935289292 -0.9127254579144671
4030999999.9999995 0.5369948729968248 -0.808195045823842
4034000000.0 0.507471807723044 -0.872429626936396
4038000000.0000005 0.5337904316494145 -0.8980706008573844
4041000000.0000005 0.5386929964983181 -0.8805620109572383
4043999999.9999995 0.5623816340092493 -0.9252516155971666
4046999999.9999995 0.6021430193785565 -0.8886622728222453
4050000000.0 0.5600751167723758 -0.9095022377277693
4053000000.0 0.5181724970437809 -0.8925944636377251
4056000000.0 0.5503941637403753 -0.8775452354321314
4059000000.0 0.5388550150396407 -0.8647714288474103
4062000000.0000005 0.5377567810789861 -0.8717558625050948
4066000000.0 0.5598748243740829 -0.8520427544981695
4069000000.0 0.5723328514690733 -0.9283066030431706
4072000000.0 0.5657583419617196 -0.8556639994797568
4075000000.0 0.5816352589771652 -0.8599700215032207
4078000000.0000005 0.5416321236612375 -0.8935615728323218
4081000000.0000005 0.6043575186012717 -0.8508601969244303
4083999999.9999995 0.5411293612871588 -0.8841018373716493
4088000000.0 0.6014367004205886 -0.8543096284556014
4091000000.0 0.5875928535977362 -0.9589339021577713
4094000000.0000005 0.5925750625988238 -0.8399395927658688
4097000000.0000005 0.5496549445719778 -0.8943403055053529
4099999999.9999995 0.5823749753846983 -0.8780005491207042
4102999999.9999995 0.5961588183202592 -0.8632959073550565
4106000000.0 0.5345176131135326 -0.9017958581150659
4109000000.0 0.5677133794030489 -0.8767769703356706
4112000000.0 0.5243977201085566 -0.8680632646148985
4115999999.9999995 0.5912619196626427 -0.8720112958140568
4119000000.0 0.5443113531682559 -0.8971764580870152
4122000000.0 0.5308738176492406 -0.9023449225926999
4125000000.0 0.5600721215168054 -0.8996692381325482
4128000000.0 0.5561652193143327 -0.8160038187994536
4131000000.0 0.5449204091187405 -0.8258031694418883
4134000000.0000005 0.5714788040757007 -0.9013817848369893
4138000000.0 0.5553324486907948 -0.8654012295398104
4141000000.0 0.529290203127189 -0.8797131885111299
4144000000.0 0.5705792854259657 -0.8640912795528369
4147000000.0000005 0.5341689727189576 -0.8513631975816729
4150000000.0000005 0.5429464454787869 -0.9092865176360444
4152999999.9999995 0.5334074949353789 -0.8672721027916458
4155999999.9999995 0.5643284769860369 -0.884316260308771
4159000000.0 0.5705588825532091 -0.8282310931908654
4162000000.0 0.554258946774388 -0.8495678417502461
4166000000.0000005 0.5461741027803264 -0.8804074010663461
4168999999.9999995 0.5429482617851061 -0.8628584347745835
4171999999.9999995 0.5538897400123987 -0.8769720910474563
4175000000.0 0.5614983956959222 -0.8554745108858115
4178000000.0 0.5552500688629547 -0.8540554931178648
4181000000.0 0.5562371606277524 -0.8299714635691933
4184000000.0 0.5601260059119203 -0.8619656248151385
4187999999.9999995 0.5694385248243854 -0.8732636854684329
4191000000.0 0.5716395713976834 -0.8309515703465069
4194000000.0 0.5546939638526976 -0.8432613551794993
4197000000.0 0.5535265285694826 -0.8672032391475184
4200000000.0 0.583114686054293 -0.8706389103120584
4203000000.0000005 0.565974111280556 -0.8561882871796731
4206000000.0000005 0.56391813979632 -0.8641539577346307
4208999999.9999995 0.5552577438556997 -0.8488911697587975
4211999999.9999995 0.530083365886657 -0.8786567534490728
4216000000.0 0.5651978116051443 -0.8707596404655606
4219000000.0000005 0.5826432804366317 -0.8598372536866954
4222000000.0000005 0.5575765047712167 -0.8740486138577159
4224999999.9999995 0.5410936021158279 -0.8513610681286685
4227999999.9999995 0.5698302334036756 -0.8784497614256693
4231000000.0 0.5612433062403308 -0.8754736214499684
4234000000.0 0.5586486991237478 -0.8740221802349277
4238000000.0000005 0.5413175819856061 -0.8647619314579695
4240999999.9999995 0.5399668476422708 -0.861086293091902
4244000000.0 0.5605194483615609 -0.8330627395729984
4247000000.0 0.5674084352769466 -0.8515602330586163
4250000000.0 0.5536288835547909 -0.8538513151442674
4253000000.0 0.5238095352918446 -0.8328925419738473
4256000000.0 0.5646846004174468 -0.8890290628498048
4259000000.0000005 0.540560875936416 -0.8359151401738041
4261999999.9999995 0.5323460130522724 -0.8543892385041504
4266000000.0 0.5177228196106881 -0.8744057279224182
4269000000.0 0.5563115234668778 -0.8379928660146017
4272000000.0000005 0.5590453925064092 -0.8543715448068542
4275000000.0000005 0.5398778607629227 -0.8581975495528477
4277999999.9999995 0.5559439791473609 -0.8956477920183122
4280999999.9999995 0.5603710564311134 -0.832324685875387
4284000000.0 0.5297952399266227 -0.8696159347620371
4288000000.0000005 0.5889912378136808 -0.8330190491842162
4291000000.0000005 0.533863417229428 -0.8340277046209461
4293999999.9999995 0.5640244285031057 -0.8417156088268727
4297000000.0 0.5633633499754298 -0.8370303289039279
4300000000.0 0.5618736801833843 -0.8440788683876443
4303000000.0 0.553472415228405 -0.8755740722485944
4306000000.0 0.5750243552969918 -0.8299822490099802
4309000000.0 0.5489557634784523 -0.8494789114465257
4312000000.0 0.5930588091680217 -0.8541798017915191
4316000000.0 0.5832010913421707 -0.8591723152962976
4319000000.0 0.5466901415953032 -0.8397209111604074
4322000000.0 0.5097627649747558 -0.8459870491083039
4325000000.0 0.5552666311099761 -0.8523801927602884
4328000000.0 0.5570950349941819 -0.8393814956188548
4331000000.0 0.5290152644264167 -0.8546894849767189
4334000000.0 0.5375870454948933 -0.85508409818315
4338000000.0 0.5690909298002117 -0.8686885766467991
4341000000.0 0.5842378225001152 -0.8292448071348051
4344000000.0 0.5344964648534855 -0.8692384209778509
4347000000.0 0.5350314055318339 -0.885764540922086
4350000000.0 0.5162427855758478 -0.810581932694272
4353000000.0 0.5419501377793429 -0.8381967248559961
4356000000.0 0.5222075614148458 -0.8542851704473002
4359000000.0 0.5169079678566127 -0.8340883798091857
4362000000.0 0.5039068818410773 -0.8845980417621655
4366000000.0 0.5574526070887869 -0.8721315438184796
4369000000.0 0.5252380638972005 -0.8480650186126154
4372000000.0 0.4987984920416613 -0.8723151854396715
4375000000.0 0.5625255818823195 -0.8435753491978084
4378000000.0 0.5405321550077145 -0.8384804179539014
4381000000.0 0.5373728257441807 -0.8512379982156235
4384000000.0 0.5602914763185574 -0.9214736762185751
4388000000.0 0.5567771904221026 -0.8237759887524273
4391000000.0 0.5472672689884732 -0.8446151695148187
4394000000.0 0.536786270885379 -0.8395834662341665
4397000000.0 0.548740842185846 -0.8350881975340465
4400000000.0 0.5630220862751896 -0.8834647375226895
4403000000.0 0.5596134537307217 -0.8626587286276304
4406000000.0 0.5321636817106653 -0.8661434427698972
4409000000.0 0.5435884169217138 -0.8859273011601694
4412000000.0 0.496148782942334 -0.8716180577768181
4416000000.0 0.5256013962613013 -0.8617430681915598
4419000000.0 0.5313756939619296 -0.8636550277464892
4422000000.0 0.5484635479955104 -0.842935829553031
4425000000.0 0.5823505447702921 -0.8606215417084129
4428000000.0 0.5243345307067258 -0.8538990470584935
4431000000.0 0.5660909230750036 -0.8689115753498093
4434000000.0 0.5365261858022518 -0.8427652368532913
4438000000.0 0.55136160619039 -0.8704608392249655
4441000000.0 0.5598653477928368 -0.861652275679053
4444000000.0 0.5437885565453401 -0.8492142837731605
4447000000.0 0.5134442045418672 -0.8641068227874659
4450000000.0 0.5389194565189868 -0.833859700950099
4453000000.0 0.5581723037540803 -0.8751137253096147
4456000000.0 0.521517430841029 -0.8337785645764096
4459000000.0 0.4896212794330714 -0.8091850486062327
4462000000.0 0.561185358558182 -0.8989871348995306
4466000000.0 0.5486653512064019 -0.8926096454103871
4469000000.0 0.5418369864871658 -0.8591107697422873
4472000000.0 0.5356416515785487 -0.8869249413088678
4475000000.0 0.5299763476526216 -0.8335171349658417
4478000000.0 0.53213414896311 -0.9021756978671255
4481000000.0 0.5117140117095785 -0.847222662603778
4484000000.0 0.4828080350344722 -0.8765183832182293
4488000000.0 0.5195411919283661 -0.8636225130353139
4491000000.0 0.518046467928045 -0.8683326480664212
4494000000.0 0.5150796248976176 -0.846870348336726
4497000000.0 0.5437131036203114 -0.8352469058064549
4500000000.0 0.5478805478302329 -0.8407035714963995
4503000000.0 0.5565220119615173 -0.8943843313946724
4506000000.0 0.5086170037891004 -0.8588507796873328
4509000000.0 0.5077138848018166 -0.8581585729888455
4512000000.0 0.5048471973445349 -0.854202535581876
4516000000.0 0.5388829447355331 -0.8755485671303368
4519000000.0 0.5341855629703175 -0.8431296312160385
4522000000.0 0.5255379181573676 -0.8572810766924339
4525000000.0 0.5471492012907803 -0.8151055331801196
4528000000.0 0.5394004180614189 -0.8899804053811355
4531000000.0 0.5204958002930345 -0.865011343869454
4534000000.0 0.5190942041954176 -0.8474459105861873
4538000000.0 0.5081458353198883 -0.8748733998587853
4541000000.0 0.49186483069836134 -0.8702419978578886
4544000000.0 0.5246612275893052 -0.8478746464646094
4547000000.0 0.5336283862123782 -0.8337231140651034
4550000000.0 0.5037517179125999 -0.868715619404167
4553000000.0 0.5311710171665365 -0.864747201753344
4556000000.0 0.5015748500536872 -0.8672313708255612
4559000000.0 0.5138291488699329 -0.8785101916610364
4562000000.0 0.5311373072518409 -0.8623762806723303
4566000000.0 0.5153048877747142 -0.8757892207589821
4569000000.0 0.5035423760073631 -0.8468932331854973
4572000000.0 0.49344919565624545 -0.8671805994747028
4575000000.0 0.5097587653143296 -0.9054665187881
4578000000.0 0.5366199798092965 -0.8809782902438559
4581000000.0 0.5043104291170692 -0.8815354501539353
4584000000.0 0.5290809299005268 -0.8553768039855782
4588000000.0 0.5245368404034609 -0.8783586039910565
4591000000.0 0.5310389755650513 -0.8455347343212738
4594000000.0 0.4823741416683811 -0.8723169975726281
4597000000.0 0.5228338141417861 -0.8813891264009873
4600000000.0 0.4825002906992676 -0.8648585362659849
4603000000.0 0.502170470320354 -0.8714124649067292
4606000000.0 0.5205543344865129 -0.8711695138480662
4609000000.0 0.5209181559572136 -0.8749311796771198
4612000000.0 0.5108747702423496 -0.882209696484616
4616000000.0 0.5074080408929781 -0.8598137483438049
4619000000.0 0.5081000772918611 -0.8688838817266515
4622000000.0 0.505989260890898 -0.8690476842037718
4625000000.0 0.4811140819814205 -0.8549227304274551
4628000000.0 0.5213129632497414 -0.8584436445459849
4631000000.0 0.49464008280594407 -0.8939492330479595
4634000000.0 0.4959641565954125 -0.861318904991677
4638000000.0 0.5156473457676358 -0.8726884358471124
4641000000.0 0.5231173934245177 -0.8775338683549283
4644000000.0 0.5053815087949639 -0.8763010758479581
4647000000.0 0.5339694474509775 -0.893615918928667
4650000000.0 0.49424760424839176 -0.8780785597220634
4653000000.0 0.5352873017134654 -0.8702237035853244
4656000000.0 0.5016065049747634 -0.881598849180575
4659000000.0 0.5024672980418413 -0.8835797918798978
4662000000.0 0.5220507884326822 -0.8838655948401598
4666000000.0 0.4859113210828601 -0.8749815045856733
4669000000.0 0.522904932271965 -0.8442665977451802
4672000000.0 0.487206863489297 -0.8996823818267242
4675000000.0 0.48281152323385174 -0.8775599889183484
4678000000.0 0.4868649811305735 -0.8702683382626386
4681000000.0 0.4889736720895069 -0.9119546204721286
4684000000.0 0.4568486666976539 -0.8806969825331357
4688000000.0 0.45951628814069806 -0.9010564559021054
4691000000.0 0.5537266765834997 -0.8772368950804013
4694000000.0 0.5067051303950887 -0.8701944736315154
4697000000.0 0.48440877317967057 -0.852511269520111
4700000000.0 0.5197246543774211 -0.8687733655534848
4703000000.0 0.5217812530386818 -0.8390152493917655
4706000000.0 0.5000171444182526 -0.9111394457698643
4709000000.0 0.4831518887699519 -0.8779855923160945
4712000000.0 0.49991356457658115 -0.8760852435244543
4716000000.0 0.5095527253831592 -0.8674861481046967
4719000000.0 0.5194280355266792 -0.871472007884791
4722000000.0 0.5292562584774242 -0.8748233216019886
4725000000.0 0.4938412258688274 -0.8678477888803097
4728000000.0 0.47928091393999855 -0.8602547813424379
4731000000.0 0.5215221714535468 -0.8977879777781657
4734000000.0 0.5152694012911635 -0.881666506629015
4738000000.0 0.5254331228928657 -0.9084903368845232
4741000000.0 0.48874678274077515 -0.8970033933987176
4744000000.0 0.4910817144252404 -0.8776227045436171
4747000000.0 0.4947539193381561 -0.8637956812142565
4750000000.0 0.48118570626744195 -0.8987482240438488
4753000000.0 0.5113766497853662 -0.860523271568385
4756000000.0 0.5175759871614692 -0.8940335141911202
4759000000.0 0.5047364340032127 -0.8880068343908516
4762000000.0 0.48371914934124915 -0.9031933935030441
4766000000.0 0.46353475798048427 -0.8829047026976969
4769000000.0 0.47020726944231606 -0.9048938984486047
4772000000.0 0.5025018737893496 -0.9018979833351047
4775000000.0 0.49316034648473756 -0.9190377360420909
4778000000.0 0.5268678837592216 -0.9143333859316907
4781000000.0 0.5084519823133239 -0.8686754738203154
4784000000.0 0.4926624940141342 -0.8904411238484724
4788000000.0 0.49250844745291456 -0.9212671719804617
4791000000.0 0.4880225253367827 -0.8855069871439692
4794000000.0 0.5388862052993932 -0.9064549875240988
4797000000.0 0.48584070864455464 -0.9101492742992312
4800000000.0 0.47265799632406913 -0.8815938036265307
4803000000.0 0.48298298940803486 -0.8684055791595773
4806000000.0 0.5068345281606776 -0.8808279608988199
4809000000.0 0.4639800626725572 -0.900871971737949
4812000000.0 0.4751204819383681 -0.899833159409104
4816000000.0 0.5139708386791404 -0.8745467394532789
4819000000.0 0.5338066473590439 -0.9048125597731
4822000000.0 0.5022033982625944 -0.9223914472221945
4825000000.0 0.5327347720598041 -0.8907679677770712
4828000000.0 0.49532866894266436 -0.8779585178794922
4831000000.0 0.4859426648897883 -0.9388193987817004
4834000000.0 0.5209214296269397 -0.8970079268618629
4838000000.0 0.49117589023394514 -0.9129534948188169
4841000000.0 0.4786342112036739 -0.8912532741530106
4844000000.0 0.5376336607782715 -0.8952315548577034
4847000000.0 0.4851708494908534 -0.8594809581376157
4850000000.0 0.5119280028960802 -0.9310151202216462
4853000000.0 0.5088000316326134 -0.8614163315036517
4856000000.0 0.4824081509844447 -0.8719681745754886
4859000000.0 0.5175071335930159 -0.9385212513274178
4862000000.0 0.5173467613730794 -0.8630539942257889
4866000000.0 0.47598161673736394 -0.9205490107097817
4869000000.0 0.5047077779124596 -0.8987846386253745
4872000000.0 0.4888284050771491 -0.9237300223879018
4875000000.0 0.5860885050020963 -0.9030910192115426
4878000000.0 0.49748082961743556 -0.9211319530518686
4881000000.0 0.5230860357168717 -0.955966603772369
4884000000.0 0.5163467153895794 -0.8949837513655718
4888000000.0 0.5288561279418844 -0.8782413518502478
4891000000.0 0.5367016211363413 -0.9085265394667413
4894000000.0 0.4856299449341334 -0.8980195566414417
4897000000.0 0.5120849876566715 -0.8533429019134207
4900000000.0 0.5351632547510922 -0.9163744602197972
4903000000.0 0.5100274281785462 -0.8925153459684227
4906000000.0 0.5111915467279822 -0.9287301742980704
4909000000.0 0.513493414805979 -0.9000026219014335
4912000000.0 0.49161190228127905 -0.9366853347194042
4916000000.0 0.5110145636003256 -0.90454526919424
4919000000.0 0.5563054706326683 -0.9272622832747741
4922000000.0 0.5610905369577514 -0.889955626839981
4925000000.0 0.50064735280762 -0.9116872274084813
4928000000.0 0.5631827774709178 -0.8845388320062235
4931000000.0 0.517536748321205 -0.8813851161804379
4934000000.0 0.47573158915720515 -0.8594290552451141
4938000000.0 0.48838500790220374 -0.9164178850120186
4941000000.0 0.49502629829188055 -0.8687859463089452
4944000000.0 0.4987500707785523 -0.8446451466557802
4947000000.0 0.5080767281795927 -0.9006872820598265
4950000000.0 0.49291194873749244 -0.8682693485762191
4953000000.0 0.5082380265999179 -0.9625223469523213
4956000000.0 0.5165685425276629 -0.9054336028016106
4959000000.0 0.47872209841539193 -0.8961997670184978
4962000000.0 0.5255458704163691 -0.9081514750470352
4966000000.0 0.5336810426774412 -0.8945610229470504
4969000000.0 0.5459878451817616 -0.9139666719974539
4972000000.0 0.5031225669885753 -0.8806650405213572
4975000000.0 0.5228907063485606 -0.854541226713572
4978000000.0 0.4958345830323284 -0.9204556413677576
4981000000.0 0.4764708179604472 -0.9085866208278914
4984000000.0 0.5033912531781178 -0.8614278139011825
4988000000.0 0.5382275709470787 -0.902889059343475
4991000000.0 0.5536890003630432 -0.9058887440774056
4994000000.0 0.5437034160991923 -0.8806091464785254
4997000000.0 0.4841962148150927 -0.919011832941403
5000000000.0 0.5634604035215235 -0.8977962141036344
5003000000.0 0.5291707371850932 -0.9582477602026349
5006000000.0 0.5415405874784701 -0.9264814463236926
5009000000.0 0.5353834358932047 -0.9185214728807051
5012000000.0 0.5004875224987636 -0.8780498672954696
5016000000.0 0.5759808237741064 -0.9019005354931332
5019000000.0 0.5099415110210064 -0.9120593829519728
5022000000.0 0.5452850143128343 -0.8994538580244894
5025000000.0 0.5580329955429684 -0.9528683636471369
5028000000.0 0.491661174556549 -0.9238400920994544
5031000000.0 0.4969839878656046 -0.896809796883261
5034000000.0 0.5230570330493576 -0.9561586118699015
5038000000.0 0.4996347735958301 -0.8794271078275566
5041000000.0 0.5699462312951569 -0.8941860309422569
5044000000.0 0.5596533837579667 -0.8258935739460042
5047000000.0 0.5545285508630635 -0.8746180313998532
5050000000.0 0.5829333639136209 -0.8297856647053803
5053000000.0 0.5688716726042932 -0.9611577033935023
5056000000.0 0.5878828334803539 -0.8983458359476864
5059000000.0 0.5647458135875912 -0.8731880417290748
5062000000.0 0.5096146402116257 -0.9156958202020551
5066000000.0 0.5784652801238268 -0.857405518579901
5069000000.0 0.5700133590174608 -0.8984895312559742
5072000000.0 0.5134818734965739 -0.848456288058282
5075000000.0 0.5302285094607297 -0.8484630404732262
5078000000.0 0.5152817461945386 -0.878003638334768
5081000000.0 0.5045601849680232 -0.8727815309088005
5084000000.0 0.557628271548177 -0.9081370796469932
5088000000.0 0.556577057983275 -0.8878410633099822
5091000000.0 0.5118557013356824 -0.9576177212977888
5094000000.0 0.5073723909089294 -0.8880633426902613
5097000000.0 0.5748641995548089 -0.8442535864381848
5100000000.0 0.538879432538716 -0.8639910676265776
5103000000.0 0.5488481531928875 -0.918559041851382
5106000000.0 0.609171698242419 -0.9079639060540541
5109000000.0 0.5651668373472207 -0.8711248957347959
5112000000.0 0.5106337850240353 -0.904006471897849
5116000000.0 0.5402871994913003 -0.8416988311482998
5119000000.0 0.5119661888482971 -0.9152428726992028
5122000000.0 0.5756490193753475 -0.8196913580260439
5125000000.0 0.5629230943954299 -0.8618045391964293
5128000000.0 0.5475559176918293 -0.8759588115182622
5131000000.0 0.5423405706385476 -0.8540351321946456
5134000000.0 0.5552343051012052 -0.8609873495486566
5138000000.0 0.5528728961388745 -0.8449907644525283
5141000000.0 0.5612589679637405 -0.8460460303834065
5144000000.0 0.6035480025405502 -0.85498405952046
5147000000.0 0.5602960025478313 -0.8755760244811353
5150000000.0 0.5431800772252465 -0.8944852758424422
5153000000.0 0.5786401351812369 -0.907505509859525
5156000000.0 0.5599132547797072 -0.8766729025719348
5159000000.0 0.5631353209049339 -0.8935122638657124
5162000000.0 0.5241601119794811 -0.8631751803246024
5166000000.0 0.5133492386748499 -0.8856813722582964
5169000000.0 0.5622370853792149 -0.9078518616068778
5172000000.0 0.5374708349525975 -0.8440479052778705
5175000000.0 0.5988541451944813 -0.928220377226541
5178000000.0 0.5390694362674776 -0.8971902760207873
