! Created with skrf 1.8.0 (http://scikit-rf.org).
# Hz S RI R 50.0 
!freq ReS11 ImS11
4000000000.0 0.5462792603866304 -0.8159309258260522
4003000000.0 0.57385316449692 -0.9658364680408692
4006000000.0 0.5477639438197943 -0.9020396601100169
4009000000.0000005 0.5620796284443575 -0.9091681812798313
4011999999.9999995 0.6090843674493879 -0.84449089231625
4016000000.0 0.5470152192377438 -0.9097944722756489
4019000000.0 0.5271228807090776 -0.8934140508860102
4022000000.0000005 0.549879189875246 -0.8425651870836317
4025000000.0000005 0.5037831240166719 -0.9126491717083371
4027999999.9999995 0.5269164125803685 -0.9054861141768838
4030999999.9999995 0.5321290596625826 -0.835627527237754
4034000000.0 0.534787418938469 -0.8824156909651107
4038000000.0000005 0.5160699060217474 -0.8919078657155893
4041000000.0000005 0.49109141626086417 -0.9049731556494954
4043999999.9999995 0.5586145679413617 -0.9233642881493165
4046999999.9999995 0.5851517099861419 -0.8978572681403486
4050000000.0 0.5365184260737725 -0.8864413524325214
4053000000.0 0.5077858018455668 -0.8639839841719523
4056000000.0 0.5336755264760156 -0.8769017487086745
4059000000.0 0.5474177267639975 -0.8513435336517106
4062000000.0000005 0.5191957001216597 -0.8914373258273512
4066000000.0 0.4858808972575933 -0.8199949429021335
4069000000.0 0.5476442763227076 -0.9361499784430646
4072000000.0 0.5958559547762374 -0.8581753164219196
4075000000.0 0.5609590999912855 -0.8861987065546553
4078000000.0000005 0.5374916015234347 -0.8997479352470739
4081000000.0000005 0.6163881858953255 -0.843849521365117
4083999999.9999995 0.5155035851565386 -0.8708986424597454
4088000000.0 0.5661581201056335 -0.8351781714888089
4091000000.0 0.5871120963287537 -0.9659136103820635
4094000000.0000005 0.555271413812429 -0.8953451066560709
4097000000.0000005 0.5430277252029878 -0.9128914155022642
4099999999.9999995 0.524434819403852 -0.9111789423241675
4102999999.9999995 0.5632607138161925 -0.9266581762103151
4106000000.0 0.5567348657580511 -0.9125410205991852
4109000000.0 0.5451821946236584 -0.9191530158059443
4112000000.0 0.49713174117944614 -0.8997592554843372
4115999999.9999995 0.5605299001901309 -0.8745835162058538
4119000000.0 0.5392065406183618 -0.9044061750585564
4122000000.0 0.5080097360443034 -0.9100131663404532
4125000000.0 0.5654058093056274 -0.8971836194096602
4128000000.0 0.535540759730392 -0.8551493347674648
4131000000.0 0.533391570732431 -0.8892896606809467
4134000000.0000005 0.5401127316379185 -0.8669434110926652
4138000000.0 0.5186243084486747 -0.8641221268873462
4141000000.0 0.5141648814694488 -0.8641318467913588
4144000000.0 0.588171088193058 -0.8518495904661251
4147000000.0000005 0.5377225466961197 -0.8918147640881836
4150000000.0000005 0.5506045124557747 -0.8889117858451886
4152999999.9999995 0.5322815551181124 -0.8923264922716169
4155999999.9999995 0.5593976976748156 -0.8881835256553596
4159000000.0 0.5160537425078102 -0.8555484060058971
4162000000.0 0.559675455248148 -0.832096149438059
4166000000.0000005 0.5110707086626757 -0.8891599722069353
4168999999.9999995 0.515200295633743 -0.8624015763421611
4171999999.9999995 0.5498778670264286 -0.8902581828766866
4175000000.0 0.5640252515401687 -0.8732131854385476
4178000000.0 0.546327588809076 -0.8923892458171403
4181000000.0 0.5374584470157597 -0.8724260227451562
4184000000.0 0.5306075803522685 -0.8905794449191555
4187999999.9999995 0.5529028662498913 -0.879052468827746
4191000000.0 0.5899082357628418 -0.8180354136506954
4194000000.0 0.5058523611909256 -0.8650634491789135
4197000000.0 0.5614821521754753 -0.8718922931995714
4200000000.0 0.5549450428645102 -0.8449282342279861
4203000000.0000005 0.5341854764259748 -0.8494983679062401
4206000000.0000005 0.5540925984476576 -0.8861821513432189
4208999999.9999995 0.5517969030941658 -0.8404526298253212
4211999999.9999995 0.5071759603869971 -0.8907036878740345
4216000000.0 0.5425633547643294 -0.8653607700969418
4219000000.0000005 0.57335193785877 -0.8935162166584598
4222000000.0000005 0.5381604529238605 -0.8733155616801027
4224999999.9999995 0.5349188529791145 -0.861331909324369
4227999999.9999995 0.549514344286602 -0.8682827563485925
4231000000.0 0.533582715397773 -0.8767454421651145
4234000000.0 0.5441665640601299 -0.8965951237437851
4238000000.0000005 0.537469299271028 -0.8669574447076396
4240999999.9999995 0.5140395622381794 -0.849192537270819
4244000000.0 0.5401118335536763 -0.8558465578009102
4247000000.0 0.5308019651519162 -0.8641637726198603
4250000000.0 0.5291697524043116 -0.8613706817106492
4253000000.0 0.5139903716003764 -0.8568211532773774
4256000000.0 0.5351229217218282 -0.8970767309577752
4259000000.0000005 0.5177216807512919 -0.8538490988992411
4261999999.9999995 0.5124722514995188 -0.868159668203369
4266000000.0 0.5035815742527283 -0.8882430779827988
4269000000.0 0.5437308868442671 -0.8487981097804891
4272000000.0000005 0.5406006852599023 -0.8589960852158334
4275000000.0000005 0.5350116479762077 -0.8470842392771449
4277999999.9999995 0.5513634534527652 -0.8814041955067584
4280999999.9999995 0.5501900535676223 -0.8656620254228339
4284000000.0 0.5091176797671195 -0.888212862551312
4288000000.0000005 0.5594496290079457 -0.846701332378876
4291000000.0000005 0.5309053418710157 -0.8469873415060105
4293999999.9999995 0.5283017492629833 -0.8550664402833684
4297000000.0 0.5447860238134865 -0.8545336962588823
4300000000.0 0.5360990213343007 -0.8754767575645275
4303000000.0 0.525576898887476 -0.8674512841114239
4306000000.0 0.563620858568143 -0.8434195529486527
4309000000.0 0.53607956082566 -0.8752896582421374
4312000000.0 0.5501626546805352 -0.8576004147284082
4316000000.0 0.5599904760879079 -0.8619535172204397
4319000000.0 0.555507477971773 -0.8590985507682477
4322000000.0 0.4851295722286331 -0.8666714682893525
4325000000.0 0.5421567436938177 -0.852414986722135
4328000000.0 0.5205221174915626 -0.8640087896415012
4331000000.0 0.5020723537904522 -0.8854532470111882
4334000000.0 0.5431543012667353 -0.8887031731116108
4338000000.0 0.5535779768795761 -0.8448839447160869
4341000000.0 0.5682341315186932 -0.8644061952090533
4344000000.0 0.5592222377354233 -0.8634588864078321
4347000000.0 0.5342771444049349 -0.876927705226091
4350000000.0 0.5016955091431524 -0.8289752510289656
4353000000.0 0.5350030230902685 -0.8110258577567954
4356000000.0 0.5091153996721541 -0.874284757630484
4359000000.0 0.5154841701522389 -0.81186945233933
4362000000.0 0.49064766562666035 -0.8839026578447164
4366000000.0 0.5319839145584314 -0.8860776011105
4369000000.0 0.5116772451842523 -0.8467410532739695
4372000000.0 0.4789634054621943 -0.8719050112532787
4375000000.0 0.5299005857437591 -0.8543245071307397
4378000000.0 0.5266390480145674 -0.8334909857377892
4381000000.0 0.5397242655862416 -0.8486946559779055
4384000000.0 0.537088477272899 -0.9244940946290336
4388000000.0 0.537801168404769 -0.8385024050783858
4391000000.0 0.5420905355411583 -0.8548034996505258
4394000000.0 0.5161520611924111 -0.8325942248672459
4397000000.0 0.5130278990598282 -0.8590378988513894
4400000000.0 0.5389002685081141 -0.8924595607992555
4403000000.0 0.5309281054197116 -0.8730907587250243
4406000000.0 0.5180495778938183 -0.8778936182274032
4409000000.0 0.5323282221319844 -0.893652536287733
4412000000.0 0.4756041132567512 -0.8944363358666884
4416000000.0 0.5070217109602146 -0.8711557293988996
4419000000.0 0.508319224047567 -0.8780459890257696
4422000000.0 0.5369124487563736 -0.8553033121685096
4425000000.0 0.5600541993100059 -0.8728956117030131
4428000000.0 0.51430642002282 -0.8728730417806934
4431000000.0 0.5406776142045118 -0.8839300637132834
4434000000.0 0.5048627213086346 -0.8757587603920387
4438000000.0 0.5432073253021681 -0.8773470448190848
4441000000.0 0.5402992590428878 -0.8721319873906812
4444000000.0 0.5181421729398958 -0.855882303532994
4447000000.0 0.5045489917141203 -0.8752608026645505
4450000000.0 0.5334659144060616 -0.872150097812383
4453000000.0 0.5271618874154075 -0.8855649224138191
4456000000.0 0.506764064411314 -0.8516552690537135
4459000000.0 0.47353972434276836 -0.8369035202371706
4462000000.0 0.5544591333711582 -0.9241007223618753
4466000000.0 0.5416300814896604 -0.9040594050836959
4469000000.0 0.5434951707771165 -0.8755575549114807
4472000000.0 0.5016754587109852 -0.9056487390670064
4475000000.0 0.5076827802175582 -0.8564647851351629
4478000000.0 0.5230779650740671 -0.9097035616289404
4481000000.0 0.486241086769657 -0.8526955998310602
4484000000.0 0.47826755445645924 -0.8921782405598464
4488000000.0 0.49513736555526094 -0.8682753617671402
4491000000.0 0.522022670069187 -0.878345751204467
4494000000.0 0.5140592639111053 -0.8691364623828834
4497000000.0 0.5100969301014056 -0.8407744963514147
4500000000.0 0.521267108284226 -0.8617273993682565
4503000000.0 0.5352220135430007 -0.8829030860216585
4506000000.0 0.5098187053117527 -0.843575680387387
4509000000.0 0.5026070859459038 -0.8486291809036901
4512000000.0 0.49312841867371715 -0.8539576432506354
4516000000.0 0.5249379652448618 -0.8701683695077683
4519000000.0 0.49739035340616483 -0.8487640819494622
4522000000.0 0.4991444676681569 -0.8755991643713765
4525000000.0 0.5455551561563791 -0.8485903348567412
4528000000.0 0.514018157250896 -0.8667152470757784
4531000000.0 0.5240209951287388 -0.856951834551952
4534000000.0 0.48988681996427474 -0.838983122020715
4538000000.0 0.5163479817538263 -0.8671070816214732
4541000000.0 0.4601556607527663 -0.8725739634146815
4544000000.0 0.4929034919103358 -0.8738783565197086
4547000000.0 0.5276726673122204 -0.8430137130551856
4550000000.0 0.48486991822590797 -0.8918108043141696
4553000000.0 0.5091044996032906 -0.8873627015439445
4556000000.0 0.48998410565687966 -0.874914616519676
4559000000.0 0.4751864292977427 -0.887248654228623
4562000000.0 0.505000974358323 -0.8789118737131723
4566000000.0 0.4927389362810938 -0.8833939944780005
4569000000.0 0.49320440646861463 -0.8668707106946199
4572000000.0 0.49295208068550134 -0.8718590301520259
4575000000.0 0.49446150918738146 -0.8915883035476708
4578000000.0 0.5422448243218894 -0.8753645919301161
4581000000.0 0.4772118802995361 -0.8856734831279578
4584000000.0 0.47253288880285893 -0.8664539088596732
4588000000.0 0.5258915261723631 -0.9039854796648678
4591000000.0 0.514004444248419 -0.8523211936448127
4594000000.0 0.47867356904276687 -0.8784604764228654
4597000000.0 0.4859491355368042 -0.8949436323458619
4600000000.0 0.4611092071910825 -0.8927207371145268
4603000000.0 0.4911670619737796 -0.8744943611966213
4606000000.0 0.4905467767002658 -0.9059222650363696
4609000000.0 0.5027115546922349 -0.8839450389267469
4612000000.0 0.49827052095455904 -0.898264253517524
4616000000.0 0.46687301593756947 -0.8786544832826224
4619000000.0 0.5040267835062232 -0.8723935947757533
4622000000.0 0.48515661219484907 -0.8893393351921431
4625000000.0 0.4593309738691219 -0.8635368015197524
4628000000.0 0.5044717786132534 -0.8672020921262573
4631000000.0 0.4733775490419715 -0.8911161257748252
4634000000.0 0.4813317007458181 -0.8789769176441756
4638000000.0 0.5043444849302358 -0.8952743980006108
4641000000.0 0.4978963506946611 -0.8916641122618336
4644000000.0 0.4734371303309937 -0.8807446374373482
4647000000.0 0.49794091653667527 -0.8836737389038959
4650000000.0 0.4734094226825836 -0.8846047835520502
4653000000.0 0.4939940798409932 -0.8853248449390672
4656000000.0 0.4670583571179199 -0.8920896826072874
4659000000.0 0.47283573865875606 -0.8788906984338007
4662000000.0 0.4977707103197388 -0.9074675886001937
4666000000.0 0.46777382271690643 -0.8779773158194222
4669000000.0 0.4867662056767528 -0.8931115105034825
4672000000.0 0.4817311231852443 -0.9224167018207812
4675000000.0 0.4601531107830906 -0.8984378109768933
4678000000.0 0.48771299485321656 -0.867430736833974
4681000000.0 0.4847686785178127 -0.9067780041158108
4684000000.0 0.46655316363561883 -0.9169692207945217
4688000000.0 0.4655021230178961 -0.9005819937685468
4691000000.0 0.5229762023390878 -0.8881908113991446
4694000000.0 0.49948526501557633 -0.8740919685997647
4697000000.0 0.4291642520577405 -0.8735939746061747
4700000000.0 0.47697814343523204 -0.8739596057297678
4703000000.0 0.4899540912899597 -0.842251431968814
4706000000.0 0.48396578212401015 -0.8753620158732349
4709000000.0 0.47439104337919885 -0.9098422298450133
4712000000.0 0.4832959998411764 -0.8873123512976031
4716000000.0 0.4826363345104497 -0.9040614466529088
4719000000.0 0.5057371939322985 -0.8847564238866554
4722000000.0 0.4838453998611714 -0.8823143980058257
4725000000.0 0.4495418867523522 -0.8920100940069196
4728000000.0 0.4806547710076759 -0.8980980611890113
4731000000.0 0.509303162376561 -0.9358414497327763
4734000000.0 0.4859710791371373 -0.8850648197165959
4738000000.0 0.5081818368296428 -0.9255386986117642
4741000000.0 0.49019410050103257 -0.9292990018872249
4744000000.0 0.5049482586936993 -0.9081765566293747
4747000000.0 0.47300836544012403 -0.8487989965952656
4750000000.0 0.4787467738448939 -0.9040821129944936
4753000000.0 0.5061747617360083 -0.8898717871437825
4756000000.0 0.4522356531235629 -0.897979860993744
4759000000.0 0.483822899782528 -0.92016353154819
4762000000.0 0.4434943668409227 -0.9228267347332706
4766000000.0 0.43901758225278986 -0.93517760344054
4769000000.0 0.47335401991841897 -0.944059428377967
4772000000.0 0.4687753145447128 -0.8919131017400387
4775000000.0 0.4955253912236062 -0.9657160322183551
4778000000.0 0.4496214224437023 -0.8950653830874278
4781000000.0 0.497880257772717 -0.8928621632325597
4784000000.0 0.49380910934438527 -0.8970582036335484
4788000000.0 0.46222733281117 -0.9061443639483926
4791000000.0 0.4484870743328232 -0.8900869115603592
4794000000.0 0.5360226929758796 -0.9235584829802833
4797000000.0 0.4581903998142615 -0.8972919007603528
4800000000.0 0.4610607430696993 -0.8789061053366969
4803000000.0 0.4536907311397619 -0.9077417983638776
4806000000.0 0.49139300912501527 -0.9186333488315657
4809000000.0 0.4335656126888178 -0.9317561434168832
4812000000.0 0.43925984153221154 -0.9049541050549956
4816000000.0 0.4900982713116108 -0.8868730088939786
4819000000.0 0.5082981769749612 -0.9257483626775305
4822000000.0 0.5046621369427478 -0.9258771967506312
4825000000.0 0.5110205635615134 -0.9149610178471327
4828000000.0 0.4744080266535329 -0.8949082290544592
4831000000.0 0.4498721183366281 -0.9457262014873983
4834000000.0 0.49319868761283414 -0.8947782410315749
4838000000.0 0.452990920458788 -0.9026924770909743
4841000000.0 0.43645926859160683 -0.9210063237701518
4844000000.0 0.4992106146749654 -0.9008492870968453
4847000000.0 0.4770282966992855 -0.8651270919409835
4850000000.0 0.48211461456437216 -0.9331117101033978
4853000000.0 0.4744841372053101 -0.8707928804778992
4856000000.0 0.4857982609692472 -0.8955239437750903
4859000000.0 0.48242677327040684 -0.9453005390190243
4862000000.0 0.5202269922960838 -0.8662547700188983
4866000000.0 0.47509319820757945 -0.9158894624476797
4869000000.0 0.4780460781465826 -0.9226829925870716
4872000000.0 0.4318465915321642 -0.9376805591206075
4875000000.0 0.5450242094017111 -0.9096804982580485
4878000000.0 0.45679148677204845 -0.8891694922069237
4881000000.0 0.483145014652487 -1.0043625640372538
4884000000.0 0.47884350724834807 -0.9130061864616453
4888000000.0 0.5140998143939249 -0.8921029595135974
4891000000.0 0.5126106053100725 -0.9253125391727616
4894000000.0 0.4819171975246045 -0.9317870674617047
4897000000.0 0.5193129550683931 -0.8954652055125537
4900000000.0 0.4721452661960974 -0.9309851178433827
4903000000.0 0.4988538483498084 -0.9374624647186884
4906000000.0 0.4951863792516055 -0.930942630946081
4909000000.0 0.4905918385374665 -0.9531126782993604
4912000000.0 0.46547354192760515 -0.9528336117900835
4916000000.0 0.5171030090672251 -0.9391014280649296
4919000000.0 0.5474147877548252 -0.9232041956978099
4922000000.0 0.5303468412054726 -0.9101837640173953
4925000000.0 0.4534964116110041 -0.9367929178846425
4928000000.0 0.5339675938983511 -0.8816282409975235
4931000000.0 0.5180912792104926 -0.923112536981258
4934000000.0 0.4525458064488764 -0.8844838005281553
4938000000.0 0.46421256020203994 -0.9098199408321246
4941000000.0 0.47310957607543425 -0.8971635160075532
4944000000.0 0.48126067647549137 -0.8446989578184545
4947000000.0 0.487768500162705 -0.9221486398484849
4950000000.0 0.4744195435498312 -0.8787352779871173
4953000000.0 0.4767589877129306 -0.9982558054385802
4956000000.0 0.44729717599792906 -0.9004717776652468
4959000000.0 0.4543469575043758 -0.904931323024869
4962000000.0 0.4473479360468855 -0.9304811009735339
4966000000.0 0.5507293281893196 -0.9171840118977972
4969000000.0 0.5241741219775459 -0.9347730253374217
4972000000.0 0.5187126778579568 -0.9464194769135343
4975000000.0 0.49299716416650474 -0.8959581469052541
4978000000.0 0.4783247954407196 -0.9296013117351452
4981000000.0 0.4862286938406072 -0.9413478834886894
4984000000.0 0.5054806751878304 -0.8875989944567884
4988000000.0 0.5068044359248469 -0.9058632936796316
4991000000.0 0.5546339056273366 -0.8905870764934242
4994000000.0 0.5106152530514094 -0.9157522649857359
4997000000.0 0.4452694400229136 -0.9419730553277479
5000000000.0 0.5249478184391484 -0.9163787062129249
5003000000.0 0.533011844711327 -0.9394797099175962
5006000000.0 0.5264389437776785 -0.948650790114822
5009000000.0 0.5164594299784431 -0.8828051075504657
5012000000.0 0.47906793513669566 -0.9323541621744849
5016000000.0 0.5602161269555317 -0.9023916699585451
5019000000.0 0.4915178639794323 -0.9248447843060907
5022000000.0 0.5041694305352751 -0.900251253508376
5025000000.0 0.5047736142490312 -0.9633195388326251
5028000000.0 0.46846598614609325 -0.9254274747139539
5031000000.0 0.46765872075557796 -0.8917137155778292
5034000000.0 0.5003246253842878 -0.9811099018875019
5038000000.0 0.4627013389972142 -0.8952837552022459
5041000000.0 0.525726693135429 -0.8755129345206991
5044000000.0 0.5142606730616612 -0.8945833535140744
5047000000.0 0.48749338720298224 -0.9367165127075407
5050000000.0 0.5738296999790994 -0.8586109345017063
5053000000.0 0.5264764806864226 -0.9708228899575865
5056000000.0 0.5323440471504945 -0.8812561381535481
5059000000.0 0.585645932035541 -0.8985059681182338
5062000000.0 0.4965303370756507 -0.966660491253958
5066000000.0 0.5234509071341514 -0.8745831861206337
5069000000.0 0.4860529394467139 -0.9247797976345675
5072000000.0 0.49438747436300995 -0.8645348962342254
5075000000.0 0.5409698729744711 -0.9107022524522206
5078000000.0 0.4531713248984937 -0.923005017570634
5081000000.0 0.4573533773089344 -0.8738171821939671
5084000000.0 0.5352546451979342 -0.8943761658767827
5088000000.0 0.5268162861333163 -0.896349902681731
5091000000.0 0.5113656170008688 -0.922907959182564
5094000000.0 0.4933518468373204 -0.9215080293440807
5097000000.0 0.5691760068285555 -0.8876604712455942
5100000000.0 0.5155869961986919 -0.88318806296354
5103000000.0 0.46298565727984253 -0.9409501343407038
5106000000.0 0.5426075481986407 -0.9088904875024681
5109000000.0 0.5791557682660987 -0.8969144004835801
5112000000.0 0.5057167227524977 -0.9288409778264928
5116000000.0 0.5193425538924804 -0.8599347674269027
5119000000.0 0.4803165612678397 -0.9341702108157048
5122000000.0 0.5181454245050099 -0.8345459654294052
5125000000.0 0.5814867689410711 -0.9122761603506272
5128000000.0 0.46287256757750894 -0.8545976789904002
5131000000.0 0.48820251833392064 -0.8872416894937556
5134000000.0 0.5311721882491574 -0.9260033923628228
5138000000.0 0.5396724758169824 -0.9347273003744343
5141000000.0 0.5514298044910739 -0.8850323896830502
5144000000.0 0.5547313903553291 -0.861427497432022
5147000000.0 0.5025746457266507 -0.9086214789312106
5150000000.0 0.5532812953291409 -0.8731923115378578
5153000000.0 0.5312619960273994 -0.9106873502056101
5156000000.0 0.5591011010226976 -0.9120704559148486
5159000000.0 0.5719673526916953 -0.9597996169442169
5162000000.0 0.5061946874007557 -0.9595451524012044
5166000000.0 0.5398260319282882 -0.967312982224062
5169000000.0 0.5554168172923274 -0.9222329976266985
5172000000.0 0.5527115798268741 -0.8772158361739772
5175000000.0 0.5570551916864187 -0.9025418816412862
5178000000.0 0.49915925930136357 -0.8938330927642035
