! Created with skrf 1.8.0 (http://scikit-rf.org).
# Hz S RI R 50.0 
!freq ReS11 ImS11
4000000000.0 0.579041670112989 -0.8508770277962384
4003000000.0 0.6099184154855004 -0.8551240528445261
4006000000.0 0.49637360750756415 -0.8892546564694334
4009000000.0000005 0.5591179585341783 -0.8337500005827961
4011999999.9999995 0.616295629600073 -0.8095174951920587
4016000000.0 0.5104968589534724 -0.8853465809384878
4019000000.0 0.5540506046209339 -0.8802661440111196
4022000000.0000005 0.6076379759355592 -0.8371575686119135
4025000000.0000005 0.5002699360126497 -0.9244386857838017
4027999999.9999995 0.5649222245443911 -0.8797343138491461
4030999999.9999995 0.5555477017478058 -0.8427066011738844
4034000000.0 0.5303385898726425 -0.8857280493762065
4038000000.0000005 0.5385275094257688 -0.9103624831762979
4041000000.0000005 0.5358616968256893 -0.8741428525295492
4043999999.9999995 0.5876365112040518 -0.9065409865693606
4046999999.9999995 0.6003173194827279 -0.8812106076768639
4050000000.0 0.5511562464753664 -0.8965111852722883
4053000000.0 0.526790243272582 -0.8491408588320762
4056000000.0 0.5388861053667463 -0.9034681412521264
4059000000.0 0.5539174966495155 -0.8357000953567366
4062000000.0000005 0.5283331321299435 -0.8563631512548829
4066000000.0 0.5213433382858943 -0.8129806460392521
4069000000.0 0.5309505279803554 -0.9280968957999407
4072000000.0 0.5970722527720643 -0.8204486263373775
4075000000.0 0.6094692696021111 -0.8809591966091292
4078000000.0000005 0.5104990803409521 -0.8830367582755694
4081000000.0000005 0.6449100649905627 -0.8377648679778807
4083999999.9999995 0.5637301282877636 -0.9152354051348658
4088000000.0 0.5964798262301112 -0.8080423659923317
4091000000.0 0.5686455447232246 -0.9177900308443977
4094000000.0000005 0.5399650307000046 -0.8695729901280055
4097000000.0000005 0.5347912552526172 -0.8479398176050266
4099999999.9999995 0.5432453109284772 -0.8578214760959839
4102999999.9999995 0.5639142788516553 -0.8691364999679819
4106000000.0 0.5793003180276595 -0.8650566924491978
4109000000.0 0.5535626431795139 -0.8906263053547379
4112000000.0 0.559956924256322 -0.8690593181092485
4115999999.9999995 0.5688694471901964 -0.8399615406303427
4119000000.0 0.5251555034148174 -0.8548627875273972
4122000000.0 0.5142802198370389 -0.8467286968751875
4125000000.0 0.5838550749529285 -0.8800004997319825
4128000000.0 0.5546095245151915 -0.8206744968495231
4131000000.0 0.5317212880021892 -0.8805500440587374
4134000000.0000005 0.5785984946589854 -0.844509418012662
4138000000.0 0.5287820859373861 -0.8288622566761361
4141000000.0 0.5363784645002432 -0.8342426417739207
4144000000.0 0.561490192094114 -0.8564372461780718
4147000000.0000005 0.5050651140954437 -0.8609475937148028
4150000000.0000005 0.5563422683855254 -0.8894785978371806
4152999999.9999995 0.552203508532758 -0.8490102766488538
4155999999.9999995 0.5927762157929195 -0.8679906357890034
4159000000.0 0.571385199171321 -0.8562086603896354
4162000000.0 0.5768204766610039 -0.8391961592814539
4166000000.0000005 0.5504586188347874 -0.8586130523323263
4168999999.9999995 0.5209343044329308 -0.8755620948998948
4171999999.9999995 0.5606684355777788 -0.8532674657567666
4175000000.0 0.567548259489699 -0.8390587437062277
4178000000.0 0.5743754545363332 -0.8643098363777963
4181000000.0 0.5180716284359774 -0.8453496111378508
4184000000.0 0.568758577406301 -0.8693354231980673
4187999999.9999995 0.52998142279616 -0.8682258204844611
4191000000.0 0.587039278941982 -0.8223929714113947
4194000000.0 0.5352279224323031 -0.8264520814003986
4197000000.0 0.5664614616969128 -0.838611689590841
4200000000.0 0.5477877997610139 -0.8515687664708576
4203000000.0000005 0.5814288775357381 -0.8563414118823891
4206000000.0000005 0.5495761861542349 -0.8675033038414295
4208999999.9999995 0.5427544896408971 -0.8398936440756513
4211999999.9999995 0.5159433005602473 -0.8630207611908649
4216000000.0 0.5549081082437898 -0.8523809217537448
4219000000.0000005 0.5620133994549285 -0.8587379752603781
4222000000.0000005 0.5633394198569428 -0.875970866924084
4224999999.9999995 0.5656722450997396 -0.8218599419260229
4227999999.9999995 0.5598579987660365 -0.8612412394756966
4231000000.0 0.5632370106990785 -0.8498663902325068
4234000000.0 0.544996990934489 -0.8669438824351976
4238000000.0000005 0.5563538736217262 -0.8705604370545152
4240999999.9999995 0.5447413282431406 -0.8424563136015167
4244000000.0 0.5611226997188504 -0.8471225842311573
4247000000.0 0.5653746556806223 -0.8596987973376659
4250000000.0 0.5496392291554177 -0.8515285295200368
4253000000.0 0.5443830269921098 -0.8319449627722897
4256000000.0 0.554872512751613 -0.8727961905154871
4259000000.0000005 0.5283652088256353 -0.8405778510390464
4261999999.9999995 0.529051276169614 -0.8509804096993195
4266000000.0 0.5485748566991036 -0.8489706544404559
4269000000.0 0.5531434130399557 -0.8371024495782204
4272000000.0000005 0.5544782777269482 -0.8441662360861045
4275000000.0000005 0.5713878535397773 -0.8314380439879581
4277999999.9999995 0.5690947468416672 -0.8708268348390382
4280999999.9999995 0.5786907942734972 -0.8572405504053624
4284000000.0 0.5429198616688772 -0.8806850594634217
4288000000.0000005 0.5915697199897189 -0.8346167460829167
4291000000.0000005 0.5446274569918936 -0.8415556176316956
4293999999.9999995 0.5536321603884263 -0.8300122945619939
4297000000.0 0.5541278193826511 -0.8279196197461051
4300000000.0 0.541786729108665 -0.8361959626447227
4303000000.0 0.5461705451231782 -0.8435625339316513
4306000000.0 0.5766337222804987 -0.8269470822973877
4309000000.0 0.5647605851986279 -0.8350785848397124
4312000000.0 0.5884049586298516 -0.8314707119208405
4316000000.0 0.5609620204830847 -0.8492974244802513
4319000000.0 0.5372751131587123 -0.8168069398185366
4322000000.0 0.5210888495655254 -0.8492584709704754
4325000000.0 0.5779022261613411 -0.8484997859181849
4328000000.0 0.5487121606614475 -0.8367893609265455
4331000000.0 0.5337934044697964 -0.8570017632378285
4334000000.0 0.5470937407082119 -0.8511250049982859
4338000000.0 0.5457046611223628 -0.8436382450450827
4341000000.0 0.6117432416532356 -0.8286866091355363
4344000000.0 0.5895290416764218 -0.8605706747537225
4347000000.0 0.5488889861708959 -0.8622292908418655
4350000000.0 0.5056558436642281 -0.8238113471693739
4353000000.0 0.5485287265371704 -0.8113837767380478
4356000000.0 0.5305888256857718 -0.850141173612874
4359000000.0 0.5293494134008816 -0.806958447684169
4362000000.0 0.5071812809970594 -0.8879189201629583
4366000000.0 0.5585245629794161 -0.8715485377232511
4369000000.0 0.4989552902369391 -0.8336626629598036
4372000000.0 0.5045445761274986 -0.8553638489881892
4375000000.0 0.5632541249647055 -0.8276388017635622
4378000000.0 0.51955866139474 -0.8344788077243799
4381000000.0 0.544287272871145 -0.822124050164086
4384000000.0 0.5672948098052676 -0.9059363104965813
4388000000.0 0.546997872602752 -0.8210749765256056
4391000000.0 0.551417777178109 -0.8517565679948442
4394000000.0 0.5297096571595393 -0.8288348441705461
4397000000.0 0.5429727421311769 -0.8454052743835231
4400000000.0 0.5428176694103157 -0.866936672854241
4403000000.0 0.5452950178787266 -0.8532375033657311
4406000000.0 0.5276423953287599 -0.8537782467573062
4409000000.0 0.5489788843999339 -0.8851086425145112
4412000000.0 0.4939463204440227 -0.8852949800604905
4416000000.0 0.5350270550907927 -0.8404772365487968
4419000000.0 0.527058662386092 -0.8614989253100162
4422000000.0 0.5462722886467434 -0.8346018658509535
4425000000.0 0.5811210584025016 -0.8589107695667116
4428000000.0 0.5300093935388153 -0.8582080669152079
4431000000.0 0.5582404887013483 -0.8532167224519537
4434000000.0 0.5382364853806968 -0.8547716227271572
4438000000.0 0.5541125019190145 -0.8710346041228171
4441000000.0 0.5556591561156193 -0.8658943537412509
4444000000.0 0.5317921339134919 -0.8340721323097893
4447000000.0 0.5119113721455769 -0.8535189537328145
4450000000.0 0.5390303773825438 -0.8377907966638339
4453000000.0 0.5476771477393807 -0.868241667066794
4456000000.0 0.5107725023023466 -0.8333373085694822
4459000000.0 0.4900811922563014 -0.8214552438127118
4462000000.0 0.5591239194737535 -0.8971275525986477
4466000000.0 0.5480808020117827 -0.8903209390591017
4469000000.0 0.551102656964059 -0.8403936564445078
4472000000.0 0.5186360988326568 -0.8954313181351334
4475000000.0 0.5243720890593455 -0.8284464835776257
4478000000.0 0.546304495052868 -0.8928745185064492
4481000000.0 0.5140746274907664 -0.8405592170942696
4484000000.0 0.48619755438411916 -0.8713472900390463
4488000000.0 0.5211042622867509 -0.8464319098693951
4491000000.0 0.5266180797151436 -0.866887559708003
4494000000.0 0.5100725415867223 -0.8439580617283307
4497000000.0 0.5392011159897976 -0.8230677962256128
4500000000.0 0.5345724661690363 -0.8571696126064853
4503000000.0 0.559906666679217 -0.8690443911779672
4506000000.0 0.5164290838694849 -0.8314804655846426
4509000000.0 0.5194844866585934 -0.8368051714991406
4512000000.0 0.5103416688423671 -0.8378380101720306
4516000000.0 0.5532540262333162 -0.8579583272406508
4519000000.0 0.5235235013616528 -0.8266810297365952
4522000000.0 0.5143254542118754 -0.8602228633444
4525000000.0 0.5623959928232632 -0.8474361112665744
4528000000.0 0.5424592240386037 -0.8965300831781797
4531000000.0 0.5483806756038131 -0.8499310094759309
4534000000.0 0.523572506323603 -0.8497452960835039
4538000000.0 0.5163984433921391 -0.8638497458180402
4541000000.0 0.48096565296981897 -0.8554680749842543
4544000000.0 0.5142670199368973 -0.8422285752286027
4547000000.0 0.5357568213592421 -0.805380615322228
4550000000.0 0.4954736915542147 -0.8698520627580704
4553000000.0 0.5141164549672026 -0.8655555439108265
4556000000.0 0.5023431847098395 -0.8579702627566298
4559000000.0 0.5129230084462202 -0.8685505387232157
4562000000.0 0.5275422536175451 -0.867524857724786
4566000000.0 0.5115375434004775 -0.8721763541359098
4569000000.0 0.4946920349771421 -0.8439324346855286
4572000000.0 0.5278739472419998 -0.8590777064732588
4575000000.0 0.5069976349955313 -0.8646456054582828
4578000000.0 0.5551767608152111 -0.8663096257868002
4581000000.0 0.5131565302515311 -0.8879147534359666
4584000000.0 0.5115559945656661 -0.8625822793187123
4588000000.0 0.5467471861546334 -0.8818366413680119
4591000000.0 0.5333402144048213 -0.8561383354984802
4594000000.0 0.5190117603743343 -0.8554995265126808
4597000000.0 0.5313797998595544 -0.8753429030069797
4600000000.0 0.48563640886742576 -0.8653036181142971
4603000000.0 0.5121536082042386 -0.8661243523474083
4606000000.0 0.5463977908910808 -0.8713820601793603
4609000000.0 0.5244308421322804 -0.8776455348758497
4612000000.0 0.5076641393255117 -0.8710561671080156
4616000000.0 0.49296555305025974 -0.8497355736434671
4619000000.0 0.5239431188407686 -0.8630495627881638
4622000000.0 0.5243492205618075 -0.8556173065452592
4625000000.0 0.4776026090323293 -0.8537317026351186
4628000000.0 0.5222599272207991 -0.8481438247986903
4631000000.0 0.4928375190367337 -0.8690701453069049
4634000000.0 0.5052582779490978 -0.8615229779414818
4638000000.0 0.5167440977850557 -0.867113962895087
4641000000.0 0.526868178292167 -0.8660820420969364
4644000000.0 0.5030421538362538 -0.8644845155600713
4647000000.0 0.5226279794738382 -0.8661238952949489
4650000000.0 0.4977448453132477 -0.8631799457940464
4653000000.0 0.5153046411889078 -0.8782034027100949
4656000000.0 0.49306648478671333 -0.891185030422422
4659000000.0 0.5108796749362794 -0.8562351366512567
4662000000.0 0.5123844586082786 -0.8617899209152159
4666000000.0 0.49990516011430786 -0.8679481255791769
4669000000.0 0.5259791597933012 -0.8504222859442473
4672000000.0 0.5103955296959817 -0.8985000225553592
4675000000.0 0.4814187213261068 -0.8871357579744286
4678000000.0 0.48089968505250497 -0.8589846614082581
4681000000.0 0.5098465258043712 -0.8882649623792285
4684000000.0 0.4719873123995061 -0.8999054929812232
4688000000.0 0.500611590265981 -0.8753197682749575
4691000000.0 0.500522555337006 -0.8672521901398753
4694000000.0 0.5007960281719552 -0.8620476949261195
4697000000.0 0.4574911508450399 -0.8518479345076929
4700000000.0 0.5074956167608631 -0.844107131209234
4703000000.0 0.5341941802491649 -0.8356050503783752
4706000000.0 0.4691851131573359 -0.8909198187487861
4709000000.0 0.498042718380622 -0.8894935414171476
4712000000.0 0.5122675333674117 -0.8677978819975473
4716000000.0 0.5066636010243514 -0.8788886452093317
4719000000.0 0.5120138304304519 -0.8872251335293175
4722000000.0 0.5073984062480792 -0.8708189528474343
4725000000.0 0.49930188362228656 -0.8454346300875161
4728000000.0 0.4751428603184785 -0.8701737156906408
4731000000.0 0.49938226036708816 -0.8825829746735266
4734000000.0 0.5234275236906015 -0.8716399005559434
4738000000.0 0.5389019656137951 -0.9040919659638846
4741000000.0 0.49479750044490983 -0.871152481461281
4744000000.0 0.501691870891504 -0.8927807027774701
4747000000.0 0.5281933441188789 -0.8398320524804692
4750000000.0 0.5005576344092074 -0.9057465880194043
4753000000.0 0.5354852984495223 -0.851940175005834
4756000000.0 0.49786224428708176 -0.8543683283205035
4759000000.0 0.5267799091353407 -0.889301482737545
4762000000.0 0.4894715333303291 -0.9041217498655806
4766000000.0 0.5002090522606418 -0.8694838305425858
4769000000.0 0.5207260640191893 -0.8912616981365946
4772000000.0 0.530424387518403 -0.900859437234671
4775000000.0 0.5203436648253124 -0.905533981301618
4778000000.0 0.47131417965134104 -0.8704437356146345
4781000000.0 0.49798907512634805 -0.8620293610272993
4784000000.0 0.5253369450845643 -0.8746046581441832
4788000000.0 0.49585333848558377 -0.9052354554728799
4791000000.0 0.48632369238533135 -0.8875457139754142
4794000000.0 0.5616286822778647 -0.896822241492203
4797000000.0 0.4949501452271754 -0.8706088366345017
4800000000.0 0.4770585310790358 -0.8842236657489846
4803000000.0 0.46634597292269886 -0.8917717600601242
4806000000.0 0.5012041377049441 -0.890404459223644
4809000000.0 0.48317378225993557 -0.9199321991337188
4812000000.0 0.4565313449181028 -0.8732085548192853
4816000000.0 0.5191765274674617 -0.8450286508068497
4819000000.0 0.5235316497723205 -0.8905084674061063
4822000000.0 0.5247759888410015 -0.8896392740065941
4825000000.0 0.5380026784905805 -0.8992855417144989
4828000000.0 0.4913230211135706 -0.881636372059984
4831000000.0 0.4796335876045569 -0.926786884537181
4834000000.0 0.5299377570759558 -0.8670672709852708
4838000000.0 0.5263060022961531 -0.9168132013378243
4841000000.0 0.48869504654947826 -0.8946208073874697
4844000000.0 0.5563442019685984 -0.8719615258121194
4847000000.0 0.4988947029175914 -0.8396270125122497
4850000000.0 0.5218170570444567 -0.9158258976863822
4853000000.0 0.49449263017773404 -0.8627899227433302
4856000000.0 0.5072416046093121 -0.8602785897575204
4859000000.0 0.5246010881896104 -0.9278733550079052
4862000000.0 0.49907218869285797 -0.8515708042679164
4866000000.0 0.47677443222319393 -0.8891972835225507
4869000000.0 0.46409795549841426 -0.9214802256330303
4872000000.0 0.4850852629910967 -0.9375789734136625
4875000000.0 0.5528251967078421 -0.8999807418924608
4878000000.0 0.5003230891970342 -0.9073894282590255
4881000000.0 0.4998439530430713 -0.9647573166050507
4884000000.0 0.5161723042352447 -0.8831029841055801
4888000000.0 0.5175233543203871 -0.8648255987341497
4891000000.0 0.5514736031717861 -0.8926064221628534
4894000000.0 0.5047607431087549 -0.8753494939212825
4897000000.0 0.5327552433179719 -0.8362062324700666
4900000000.0 0.5192171519087558 -0.8977385718021554
4903000000.0 0.5215411983999708 -0.9083044592583626
4906000000.0 0.5245299515377974 -0.8993690886115953
4909000000.0 0.5002625642597832 -0.9164991188826481
4912000000.0 0.5303808605374458 -0.9247678008198069
4916000000.0 0.5746590493935384 -0.9214511679854945
4919000000.0 0.5614641825534185 -0.9257016034096367
4922000000.0 0.5827233989556466 -0.8658559270320964
4925000000.0 0.4875752727264484 -0.8713746026696784
4928000000.0 0.5585585884100421 -0.8574519097771223
4931000000.0 0.5475973062797941 -0.8944968213359411
4934000000.0 0.4950667983306223 -0.8338085798765831
4938000000.0 0.48119885193820644 -0.9076867647507711
4941000000.0 0.5011336569978644 -0.8903654680390336
4944000000.0 0.4899044809553177 -0.8235515856468277
4947000000.0 0.49833900006804294 -0.8419851671162614
4950000000.0 0.49118949734499306 -0.8823542782571316
4953000000.0 0.5089126112513035 -0.9474100966003891
4956000000.0 0.5040480228993975 -0.8899358185109123
4959000000.0 0.4685499881439894 -0.8761373115622872
4962000000.0 0.5062275743131766 -0.8932938836445411
4966000000.0 0.5676579356706519 -0.9053197039036477
4969000000.0 0.555396935846441 -0.9240509208624538
4972000000.0 0.5054535391098793 -0.905817385251881
4975000000.0 0.5504267071316262 -0.8500409473509363
4978000000.0 0.5058342066449641 -0.877479424279051
4981000000.0 0.4923380779444503 -0.8944645270936551
4984000000.0 0.5153178446627453 -0.8313917218459004
4988000000.0 0.5249969794284952 -0.8905358882309399
4991000000.0 0.5573518360053137 -0.889956662345015
4994000000.0 0.5451322802661774 -0.847823129451795
4997000000.0 0.5030589585228302 -0.8956314847587943
5000000000.0 0.5333434728613352 -0.9121629931477807
5003000000.0 0.5383677266943838 -0.9024604251964008
5006000000.0 0.5452950890735027 -0.9299861447280263
5009000000.0 0.5121026971849554 -0.8807270740914048
5012000000.0 0.503898259136779 -0.9016486373610813
5016000000.0 0.5557700862332766 -0.8963709168441423
5019000000.0 0.5017141887173622 -0.8725158741505075
5022000000.0 0.5635342232794426 -0.8610544568322396
5025000000.0 0.5563133968163143 -0.9483729756307467
5028000000.0 0.5273254193590657 -0.8989345916024638
5031000000.0 0.5097142666125811 -0.902814789407894
5034000000.0 0.5430378730760028 -0.912887911114934
5038000000.0 0.492455581147312 -0.8801369191026773
5041000000.0 0.5435887461429106 -0.8622490284842182
5044000000.0 0.5029190710706459 -0.8626502045864359
5047000000.0 0.5492291920017027 -0.8871358020483395
5050000000.0 0.5694229195455445 -0.79778775790276
5053000000.0 0.5322993892424064 -0.9138963348044864
5056000000.0 0.5378333876815364 -0.8619138926940741
5059000000.0 0.5774107470394986 -0.8540974301883482
5062000000.0 0.5218561982458195 -0.9031103510927528
5066000000.0 0.5613086150995898 -0.8244521614146036
5069000000.0 0.5270361346695873 -0.915847182036315
5072000000.0 0.5469782349455097 -0.8804822215556911
5075000000.0 0.5567567110677125 -0.8423645773544386
5078000000.0 0.49325719440347005 -0.9404855795667486
5081000000.0 0.48078156939145567 -0.8388830609038231
5084000000.0 0.5203848029190865 -0.9062263768722024
5088000000.0 0.546221808054785 -0.869886332052251
5091000000.0 0.5055804609129972 -0.8760587148639183
5094000000.0 0.5565914481347122 -0.9362927588449668
5097000000.0 0.5609473459150132 -0.8660453004995975
5100000000.0 0.5289929431936541 -0.8761094120731379
5103000000.0 0.5013122975696405 -0.8811036273252477
5106000000.0 0.5579913442838162 -0.8961928332290678
5109000000.0 0.567183654865809 -0.8604618065531451
5112000000.0 0.5145609965695874 -0.8842185344823498
5116000000.0 0.52527240119721 -0.7992416428062237
5119000000.0 0.5116828215272925 -0.8764796884335189
5122000000.0 0.593383721896876 -0.8915798291949003
5125000000.0 0.5749975054189828 -0.8703465045612154
5128000000.0 0.5568368968028952 -0.8730608623618008
5131000000.0 0.5434925669524059 -0.8372361176654644
5134000000.0 0.5703212792954504 -0.8704705813882858
5138000000.0 0.5583019167950656 -0.8484748341617474
5141000000.0 0.6152176089628526 -0.8518079976536088
5144000000.0 0.5660048226969983 -0.8846207677297409
5147000000.0 0.5840280860171795 -0.8855890953507891
5150000000.0 0.5401934046606658 -0.8371691707674018
5153000000.0 0.5798514009190125 -0.8935848978310537
5156000000.0 0.5764566151746906 -0.8790775078630204
5159000000.0 0.5833889831782948 -0.8927155012265744
5162000000.0 0.5447225150301054 -0.8956809619047691
5166000000.0 0.5213856949562876 -0.8806101804621612
5169000000.0 0.593682721995054 -0.9086968630230585
5172000000.0 0.5847604334022353 -0.8468876820238445
5175000000.0 0.585303411600927 -0.8869805304991243
5178000000.0 0.5769034619118933 -0.9050607072538319
