! Created with skrf 1.8.0 (http://scikit-rf.org).
# Hz S RI R 50.0 
!freq ReS11 ImS11
4000000000.0 0.4952867899532352 -0.8698976959529685
4003000000.0 0.5501830215419757 -0.935995752261092
4006000000.0 0.48278927615791734 -0.9013941251301815
4009000000.0000005 0.5121105124116295 -0.8699688371655527
4011999999.9999995 0.6222450012862899 -0.8393334146351213
4016000000.0 0.535575485455144 -0.8729417046818339
4019000000.0 0.5048451526767724 -0.8927539474517863
4022000000.0000005 0.5883964335636368 -0.8763879914256605
4025000000.0000005 0.49236080321641607 -0.9236746247311324
4027999999.9999995 0.5005252449871089 -0.9284152476573817
4030999999.9999995 0.5206677147677248 -0.8539440337274327
4034000000.0 0.5264933754232572 -0.8628153647064202
4038000000.0000005 0.5118714650413083 -0.8585486495749801
4041000000.0000005 0.4958519462940195 -0.8797116219621719
4043999999.9999995 0.5678881811141393 -0.9281740497595031
4046999999.9999995 0.5290508408686818 -0.9125187339492938
4050000000.0 0.5345418455695581 -0.9099004513269242
4053000000.0 0.48297647859904724 -0.8813709383375075
4056000000.0 0.5123342683209624 -0.880290644997039
4059000000.0 0.5384244268250719 -0.8730753105320749
4062000000.0000005 0.5050091293382082 -0.901177985044076
4066000000.0 0.46466488506505566 -0.8260301222797252
4069000000.0 0.4776414056143975 -0.8952464833195193
4072000000.0 0.5983848913991255 -0.853439628983748
4075000000.0 0.5730384418286936 -0.9305537694144119
4078000000.0000005 0.5365868934948888 -0.8952820362021375
4081000000.0000005 0.5964668908815842 -0.8770947996657465
4083999999.9999995 0.49592536287395544 -0.9190946578412854
4088000000.0 0.5387202892067919 -0.8644142754906945
4091000000.0 0.5522008505282398 -0.9131270669522019
4094000000.0000005 0.519809704645651 -0.8496728313469033
4097000000.0000005 0.529817363946585 -0.8636596504514024
4099999999.9999995 0.515022823527748 -0.9018263607022106
4102999999.9999995 0.5940644521231813 -0.8758379623308497
4106000000.0 0.5568297806095583 -0.8875848929985157
4109000000.0 0.502560025611093 -0.8980096901926728
4112000000.0 0.5308776921993476 -0.8816118683723148
4115999999.9999995 0.5506574887572125 -0.8735924418315104
4119000000.0 0.48345727158379775 -0.8793723421303932
4122000000.0 0.5056696223737958 -0.9050588176198526
4125000000.0 0.5168879751205818 -0.8941025758220787
4128000000.0 0.5053710737960558 -0.8557796328923201
4131000000.0 0.5189435319478415 -0.8646967580760271
4134000000.0000005 0.5397911593252941 -0.8393556673827738
4138000000.0 0.5209961295296941 -0.8444479409127655
4141000000.0 0.5220781767658473 -0.8601685333282171
4144000000.0 0.5449722734765889 -0.8648559217969594
4147000000.0000005 0.5428663688891026 -0.8745492082642345
4150000000.0000005 0.5357793121091583 -0.8566182047466626
4152999999.9999995 0.5130686888162566 -0.883761376342317
4155999999.9999995 0.5287538440402102 -0.8975678725524295
4159000000.0 0.49847335665216064 -0.8639796503355162
4162000000.0 0.5234356551579079 -0.8693321379982171
4166000000.0000005 0.5183800561138043 -0.9042469293367922
4168999999.9999995 0.5149690164678369 -0.8504132116666353
4171999999.9999995 0.5237457196520889 -0.8549038785420137
4175000000.0 0.555470656696202 -0.8713995688097398
4178000000.0 0.5224693896528656 -0.8883317257595096
4181000000.0 0.5390874784340823 -0.8667732379596648
4184000000.0 0.5048912782425782 -0.8627074776799403
4187999999.9999995 0.5065028391426923 -0.8867132282878624
4191000000.0 0.5645597079590522 -0.8709937419453401
4194000000.0 0.49490360158012425 -0.8511493588432749
4197000000.0 0.5591822328644284 -0.8804194118564511
4200000000.0 0.5420355655386795 -0.8807612461662454
4203000000.0000005 0.5594584045525319 -0.8855161215537954
4206000000.0000005 0.543756984303673 -0.8864260884972096
4208999999.9999995 0.5332456866282478 -0.8483449523265899
4211999999.9999995 0.522131582669322 -0.8577939728992514
4216000000.0 0.5421238792281717 -0.8804464397448825
4219000000.0000005 0.5521377046621416 -0.8696474958568849
4222000000.0000005 0.5275265425606088 -0.8729286318169749
4224999999.9999995 0.5305714801887373 -0.8493809889342134
4227999999.9999995 0.5299459677042238 -0.8787261518022699
4231000000.0 0.5315742746980732 -0.8809660574651801
4234000000.0 0.522551312601971 -0.8815925042441918
4238000000.0000005 0.5229232685733334 -0.8916460129206853
4240999999.9999995 0.49352695438606076 -0.8775419750451754
4244000000.0 0.5286828327718173 -0.8620861250866865
4247000000.0 0.5215025129900713 -0.8645434390057904
4250000000.0 0.5067169250638371 -0.8460015801856927
4253000000.0 0.4929836631369673 -0.8520664830639054
4256000000.0 0.5268454329286142 -0.8751572748538995
4259000000.0000005 0.4935170560477315 -0.8505986259530042
4261999999.9999995 0.5126126218801377 -0.8821130070692718
4266000000.0 0.4926850750733551 -0.9082724300692347
4269000000.0 0.550008449094209 -0.8856185496459265
4272000000.0000005 0.5253286252253804 -0.8644548727261052
4275000000.0000005 0.5486167097101194 -0.8603026109152211
4277999999.9999995 0.5425511500805802 -0.8813702029477306
4280999999.9999995 0.5350165921868218 -0.8869665981883258
4284000000.0 0.4996505083388025 -0.8717346730051458
4288000000.0000005 0.5580609086496026 -0.8390865134546098
4291000000.0000005 0.49305800915152553 -0.8461954232056088
4293999999.9999995 0.5022333747716768 -0.8608045773222973
4297000000.0 0.5272398899183982 -0.8432819958324395
4300000000.0 0.5190127885223158 -0.8734069966698882
4303000000.0 0.5048289917881255 -0.8861012715533573
4306000000.0 0.5414032711029199 -0.860960023313829
4309000000.0 0.5354451582836841 -0.8506665202604949
4312000000.0 0.5498973011103775 -0.8516113887505447
4316000000.0 0.5482256160147899 -0.8350372336119389
4319000000.0 0.5186990439377225 -0.8455536862282846
4322000000.0 0.48331274650439576 -0.8505055389122171
4325000000.0 0.5259532719508485 -0.8611631846558492
4328000000.0 0.5076869566445965 -0.8750217218330545
4331000000.0 0.5170050401320804 -0.8848238373031133
4334000000.0 0.5131285432420797 -0.8812134836583154
4338000000.0 0.5163694668535214 -0.8385459477276676
4341000000.0 0.5643368316342882 -0.8692660746192801
4344000000.0 0.5383319478224987 -0.8687694889059985
4347000000.0 0.5022551362842336 -0.8836450522710995
4350000000.0 0.5021664319058454 -0.8530645744567238
4353000000.0 0.5335025499128075 -0.8400932363414159
4356000000.0 0.4919634053614914 -0.8610190387593207
4359000000.0 0.48999418586488697 -0.8223991809942633
4362000000.0 0.46499109496835805 -0.9115494183306565
4366000000.0 0.514368740974892 -0.8978567747445301
4369000000.0 0.48424936809808733 -0.8454708690444954
4372000000.0 0.47678144812368517 -0.8915163077971453
4375000000.0 0.5193564774143606 -0.856718422498558
4378000000.0 0.5203185691313118 -0.8593623756448712
4381000000.0 0.5322383849138091 -0.8463479167102017
4384000000.0 0.5389323899383838 -0.9209085369783088
4388000000.0 0.5134121167375522 -0.8469213771838385
4391000000.0 0.530023320959058 -0.8591593744026306
4394000000.0 0.48902085325697364 -0.854941762391934
4397000000.0 0.5068253780255925 -0.864301633839932
4400000000.0 0.5230394178833178 -0.8951745307693124
4403000000.0 0.5222780223732023 -0.8604564516687989
4406000000.0 0.5020221676586358 -0.8762691452600017
4409000000.0 0.516321168937262 -0.8997226012507598
4412000000.0 0.461804209541296 -0.8994227816638503
4416000000.0 0.4904769260664007 -0.8654275231714301
4419000000.0 0.48899696886459665 -0.8908525383548254
4422000000.0 0.5160366847929763 -0.8504673159098837
4425000000.0 0.5360830646577371 -0.8741852800611682
4428000000.0 0.49433046585865037 -0.8712698991137069
4431000000.0 0.5322617948981652 -0.8854835701284582
4434000000.0 0.4928892875733789 -0.8721210131378311
4438000000.0 0.5205463330553031 -0.885835430945738
4441000000.0 0.5264937006027025 -0.8696789253935653
4444000000.0 0.4870772816985647 -0.8483842642328645
4447000000.0 0.48836696532639223 -0.8784378140744226
4450000000.0 0.5059493210824558 -0.8735516215402624
4453000000.0 0.5194004373844205 -0.8996892022361638
4456000000.0 0.48099930181798145 -0.8560590545657321
4459000000.0 0.46355791488660636 -0.8505145459099097
4462000000.0 0.5196959003924119 -0.9177295926248403
4466000000.0 0.509318092799615 -0.9087274607755613
4469000000.0 0.5176460332632578 -0.8598407511580367
4472000000.0 0.4941866743158074 -0.9103601272260466
4475000000.0 0.49763031905888677 -0.8510862824465002
4478000000.0 0.48820338583773637 -0.928894240647705
4481000000.0 0.4718868969658775 -0.8577957825483442
4484000000.0 0.45575306227549783 -0.8914244517838088
4488000000.0 0.4920542024371431 -0.8845141851343603
4491000000.0 0.489883659029736 -0.8777412342821207
4494000000.0 0.4829752976552128 -0.8641173908369664
4497000000.0 0.4991834994424781 -0.8701009734327443
4500000000.0 0.47766383023933173 -0.8796076396120299
4503000000.0 0.5137345677946712 -0.8949582436367576
4506000000.0 0.4886407051490743 -0.8689267944422798
4509000000.0 0.46671079333225085 -0.8593675602013291
4512000000.0 0.4889474122442647 -0.866004460757883
4516000000.0 0.49562194350588934 -0.8885662008937408
4519000000.0 0.49408108231326997 -0.8554745081210895
4522000000.0 0.4836650419949388 -0.888118611784137
4525000000.0 0.4979625790038293 -0.8765904772167845
4528000000.0 0.5022693774868576 -0.9192633412581868
4531000000.0 0.48875306561711795 -0.8818085340459959
4534000000.0 0.48513129834455604 -0.8574364755719608
4538000000.0 0.4714995097334727 -0.874840013231321
4541000000.0 0.4680976403596581 -0.8877534150953558
4544000000.0 0.46784446936972823 -0.8557555830002149
4547000000.0 0.5167138706509428 -0.853407288028551
4550000000.0 0.4645808937779089 -0.8958617840003686
4553000000.0 0.48046595383227503 -0.8964344567594109
4556000000.0 0.4645552392310415 -0.8642915878545585
4559000000.0 0.48153936365640854 -0.8728734670731673
4562000000.0 0.48949590550151634 -0.8743869405024323
4566000000.0 0.4779045909495699 -0.9000956666683465
4569000000.0 0.4826697468165368 -0.8737055415575589
4572000000.0 0.4870403676492158 -0.8779129247668732
4575000000.0 0.4821218613106547 -0.9005865957642327
4578000000.0 0.5231899139753245 -0.8913811706474067
4581000000.0 0.47038184411401285 -0.8949381648084161
4584000000.0 0.4767032864933544 -0.8728507603601
4588000000.0 0.4953837465224402 -0.8933773307027275
4591000000.0 0.48673162590432206 -0.8798919817998272
4594000000.0 0.46295512676496087 -0.8894496240497007
4597000000.0 0.47671672907035767 -0.9036814838691289
4600000000.0 0.45858907544292005 -0.8804592673880314
4603000000.0 0.4706880047209523 -0.8960455563549252
4606000000.0 0.4982837210064831 -0.8980579166525189
4609000000.0 0.4763993601354336 -0.8834780647099555
4612000000.0 0.4700638896012061 -0.8879619365975941
4616000000.0 0.4705517197385706 -0.8625019053522773
4619000000.0 0.47206187504965835 -0.9012417849256702
4622000000.0 0.4852864550614887 -0.8923104129159128
4625000000.0 0.4585870366811789 -0.8741101973744627
4628000000.0 0.47756674792997234 -0.8909787466362273
4631000000.0 0.46206119281627994 -0.8882824423296134
4634000000.0 0.4481115707081865 -0.8787091235618794
4638000000.0 0.47989017917899623 -0.8878530061454738
4641000000.0 0.48345217197202994 -0.8801256591615962
4644000000.0 0.46541107200533405 -0.8844423146544984
4647000000.0 0.4730211351216461 -0.8831149460147258
4650000000.0 0.4564533727853829 -0.8686697464336416
4653000000.0 0.4746107911983325 -0.9070995122361782
4656000000.0 0.4654531951487876 -0.8819626991015831
4659000000.0 0.45776072048927763 -0.8958096320844672
4662000000.0 0.4652786152346987 -0.9039158232544868
4666000000.0 0.46466921419756335 -0.898379497795169
4669000000.0 0.4990227536136641 -0.8759761584093735
4672000000.0 0.46001468590661 -0.9189632662922194
4675000000.0 0.4709449767171537 -0.8937071319509106
4678000000.0 0.4707395743695846 -0.8933079222910256
4681000000.0 0.4306597074419207 -0.915649166785677
4684000000.0 0.4499691973730253 -0.9002537715830841
4688000000.0 0.43537920403576214 -0.9074488008240164
4691000000.0 0.4838725320519098 -0.9025140042867573
4694000000.0 0.4727495261803242 -0.8867014880211807
4697000000.0 0.41553601315344785 -0.870970307121999
4700000000.0 0.4977026543946643 -0.8948800318258421
4703000000.0 0.46984897544851434 -0.878701672018461
4706000000.0 0.4642962752582896 -0.9129193214997124
4709000000.0 0.4417698094105372 -0.9037475353576292
4712000000.0 0.4538667052584972 -0.8925742628738974
4716000000.0 0.45492884749804835 -0.9277746253705007
4719000000.0 0.4874406370811166 -0.8933727056610086
4722000000.0 0.46802023457450076 -0.8911527140577836
4725000000.0 0.45832669745352644 -0.9182552109136087
4728000000.0 0.4396716143312537 -0.9130501497748734
4731000000.0 0.45401545586443176 -0.9182764525212449
4734000000.0 0.4969513417610211 -0.8855305022300816
4738000000.0 0.5195737554556177 -0.9457509888917448
4741000000.0 0.46536502619675885 -0.9363269017760899
4744000000.0 0.43825156701246204 -0.8999171233396629
4747000000.0 0.45783764605078214 -0.8472219569084046
4750000000.0 0.4890260038014993 -0.9004196523182363
4753000000.0 0.48722394406867375 -0.9130026688327295
4756000000.0 0.46876118591996874 -0.920908606331731
4759000000.0 0.4789276794833884 -0.8986077749287906
4762000000.0 0.45455148632046777 -0.9181878760900881
4766000000.0 0.4560597829721699 -0.9205080177334681
4769000000.0 0.46356640454962605 -0.8879367260443038
4772000000.0 0.45449464483156976 -0.925659959327766
4775000000.0 0.4526772116624478 -0.9506274122704185
4778000000.0 0.4406807966587881 -0.9110446512990725
4781000000.0 0.45584859818963064 -0.8947814888037471
4784000000.0 0.4820879046825302 -0.88880091555285
4788000000.0 0.46382499097072705 -0.9371447750216301
4791000000.0 0.4536750797568273 -0.8860056272546762
4794000000.0 0.49217526622667035 -0.9311484138819515
4797000000.0 0.4396097257322888 -0.9090770960639865
4800000000.0 0.44794894429503984 -0.9039952962581699
4803000000.0 0.407580257748522 -0.9240042883523526
4806000000.0 0.4498582623090894 -0.9068031453423041
4809000000.0 0.4286981822803242 -0.9198508887463956
4812000000.0 0.4122916426652889 -0.9143614993482512
4816000000.0 0.4851826329699627 -0.8862437398420666
4819000000.0 0.4981031847100492 -0.9287980581618623
4822000000.0 0.5071048290305642 -0.9268582920692174
4825000000.0 0.5026814657438199 -0.9303618098805169
4828000000.0 0.4340911292357279 -0.9024654954118
4831000000.0 0.41622234991097484 -0.9664459113487234
4834000000.0 0.4840810933723926 -0.888574579196334
4838000000.0 0.45175111427207615 -0.9431005035223528
4841000000.0 0.4495921568069592 -0.9075037681579495
4844000000.0 0.48501181646666547 -0.9091805396137176
4847000000.0 0.47166223728528156 -0.8857022366368676
4850000000.0 0.46202935525824285 -0.9322416638572466
4853000000.0 0.4419530589136022 -0.8827718220569994
4856000000.0 0.44629971198010904 -0.8961047556352952
4859000000.0 0.48036900607405436 -0.9788158444449631
4862000000.0 0.4654694322872021 -0.8820901115169669
4866000000.0 0.4579947271910976 -0.9485065124484946
4869000000.0 0.45181507928879944 -0.9138531019288021
4872000000.0 0.4362168198896218 -0.952030083018373
4875000000.0 0.5006064981634227 -0.9437465744514321
4878000000.0 0.44083686688198753 -0.922303106174595
4881000000.0 0.4517753603025084 -0.9600851596076254
4884000000.0 0.4766989376715598 -0.90649828714093
4888000000.0 0.4960482391926548 -0.8736271051192283
4891000000.0 0.4768502362757541 -0.9038666916323059
4894000000.0 0.4412842309173134 -0.9342549451369081
4897000000.0 0.48433956260327127 -0.8730396676848583
4900000000.0 0.48939112938356916 -0.9516345874017867
4903000000.0 0.4592644964868261 -0.9139791106635982
4906000000.0 0.4403179621894265 -0.9597166421276655
4909000000.0 0.46470979205653495 -0.9403283136776533
4912000000.0 0.4805804377989521 -0.9464186394927159
4916000000.0 0.47338024260783995 -0.9473381067474431
4919000000.0 0.5113262810494233 -0.9207890080068802
4922000000.0 0.49584718296687114 -0.93753356338628
4925000000.0 0.444132688098484 -0.9127061304669054
4928000000.0 0.5166579817725163 -0.8800015660421774
4931000000.0 0.48339214279835363 -0.9372600572651095
4934000000.0 0.44651352894481455 -0.8490621779468109
4938000000.0 0.4360605060568902 -0.9100882933170763
4941000000.0 0.46703840727895873 -0.9101089262151094
4944000000.0 0.46888005248702347 -0.829543055458323
4947000000.0 0.46315492191262747 -0.8813596791667452
4950000000.0 0.45578173974616526 -0.88203804090049
4953000000.0 0.4540045910809259 -0.9552553774064283
4956000000.0 0.4520904232423299 -0.9432240705119892
4959000000.0 0.42964640591403036 -0.9133850800109303
4962000000.0 0.46432193373246944 -0.9718014805034996
4966000000.0 0.4823907527351782 -0.9176092717626018
4969000000.0 0.4787283930664984 -0.9647550305888257
4972000000.0 0.4653543758633308 -0.9225148861673013
4975000000.0 0.4983363963358354 -0.8806157617168382
4978000000.0 0.45546854615228904 -0.9173367249590582
4981000000.0 0.48368692616360415 -0.9313585896658897
4984000000.0 0.46368074718304264 -0.9005269854861675
4988000000.0 0.4712469219031635 -0.899328879739987
4991000000.0 0.5515447767847121 -0.9265604093802722
4994000000.0 0.4831766705190408 -0.9028196343667338
4997000000.0 0.4178786524906524 -0.9369112475961925
5000000000.0 0.5054506290857695 -0.9386203088366663
5003000000.0 0.49599843625004136 -0.9348210218734917
5006000000.0 0.49088811647799435 -0.9546479350593239
5009000000.0 0.48156112926654393 -0.9117905218310409
5012000000.0 0.46479822693957595 -0.8936163652186119
5016000000.0 0.47227263607328346 -0.9185770770893978
5019000000.0 0.45782162814866656 -0.9153610300417433
5022000000.0 0.5043184382736741 -0.9203511047694489
5025000000.0 0.5019062031973549 -0.9698978382383935
5028000000.0 0.47807298969023626 -0.9364424150691284
5031000000.0 0.4713815595942179 -0.929531327118341
5034000000.0 0.4440880398646795 -0.9625013468541248
5038000000.0 0.47508336580365007 -0.8945245098716568
5041000000.0 0.5066563174471918 -0.9146056728474707
5044000000.0 0.4763611096539392 -0.8830343494273682
5047000000.0 0.4979735433908268 -0.9198107711817749
5050000000.0 0.5271347763126106 -0.8606259822881543
5053000000.0 0.5028800907738924 -0.9712371966551434
5056000000.0 0.528504311043618 -0.8727736955080148
5059000000.0 0.5495437917404218 -0.8941587320813498
5062000000.0 0.4955156993324556 -0.9513989262423412
5066000000.0 0.5106427193170676 -0.8628348563634946
5069000000.0 0.5018860136839136 -0.9333340601223353
5072000000.0 0.516262709874702 -0.9008586573170505
5075000000.0 0.5167154243165923 -0.8913480068718082
5078000000.0 0.45443823313623577 -0.9162848178770402
5081000000.0 0.46678154440866304 -0.918289491345452
5084000000.0 0.47695289673164876 -0.947171049334453
5088000000.0 0.4972305558669152 -0.9014668045932477
5091000000.0 0.43401864842157534 -0.9172868078734753
5094000000.0 0.42445309843733886 -0.9037268479295144
5097000000.0 0.5203029788209462 -0.8467197697977167
5100000000.0 0.4611350817430256 -0.8790916374038067
5103000000.0 0.46092015945421516 -0.9790268435134832
5106000000.0 0.5073523152459323 -0.9223959848808185
5109000000.0 0.5129629097442261 -0.8771681852578916
5112000000.0 0.46479564176227955 -0.909395288565362
5116000000.0 0.49996152653188675 -0.8690266465478658
5119000000.0 0.47876818428292484 -0.9143439066254804
5122000000.0 0.4700093356180488 -0.8690435376958865
5125000000.0 0.48776138935301094 -0.8832701178601932
5128000000.0 0.4432111607174938 -0.9420467173364993
5131000000.0 0.45261617731838283 -0.8990590917753054
5134000000.0 0.46851354693325675 -0.9227382123397425
5138000000.0 0.5058409025076113 -0.9070685309224457
5141000000.0 0.5610053585819343 -0.8662772387882531
5144000000.0 0.4906411981080074 -0.9041890721467921
5147000000.0 0.49918229865323827 -0.9194002256740239
5150000000.0 0.5260148053838726 -0.9135831043398235
5153000000.0 0.534156936657919 -0.8917959293925646
5156000000.0 0.5221176975748368 -0.9127709057739275
5159000000.0 0.5184991571852999 -0.9454813002106026
5162000000.0 0.4341423295587947 -0.9067129965250306
5166000000.0 0.5030590601288597 -0.9132689316946352
5169000000.0 0.5335745113833292 -0.8908762047627394
5172000000.0 0.5315324500637355 -0.916755783257527
