! Created with skrf 1.8.0 (http://scikit-rf.org).
# Hz S RI R 50.0 
!freq ReS11 ImS11
4000000000.0 0.5840684059401532 -0.8430100761152117
4003000000.0 0.5690323585173318 -0.9282253400881
4006000000.0 0.50503714751304 -0.8797470968904113
4009000000.0000005 0.5729510568627989 -0.8593294430402658
4011999999.9999995 0.6201400844896965 -0.8557779947592806
4016000000.0 0.5890734632089023 -0.9370863199126152
4019000000.0 0.5595279048988164 -0.8586614473592307
4022000000.0000005 0.6001606096387551 -0.8558002528897463
4025000000.0000005 0.519342051579723 -0.9064982476731493
4027999999.9999995 0.4916754181019447 -0.8935755509045499
4030999999.9999995 0.511322185652364 -0.8461014357666348
4034000000.0 0.543265695232277 -0.8735036707380103
4038000000.0000005 0.5143285562700595 -0.9117132736311246
4041000000.0000005 0.5277456457436887 -0.8745416611050201
4043999999.9999995 0.6023067273447439 -0.9403464104541541
4046999999.9999995 0.5769215523011113 -0.9295963728208188
4050000000.0 0.5464421214519879 -0.9180270304859298
4053000000.0 0.5050734324950555 -0.8546938575102699
4056000000.0 0.5521844558200868 -0.8688379726909311
4059000000.0 0.5892370912572897 -0.8407529424208321
4062000000.0000005 0.5118292289953448 -0.8676566223957605
4066000000.0 0.5065361867399081 -0.7975949415837262
4069000000.0 0.5437601805893866 -0.9069965525030841
4072000000.0 0.5908845678410586 -0.8449123424262195
4075000000.0 0.6006531873728118 -0.8430256595667822
4078000000.0000005 0.5490303808799248 -0.8849246883926037
4081000000.0000005 0.6289077845422484 -0.8766376976610645
4083999999.9999995 0.5219214852133265 -0.8780015433431283
4088000000.0 0.5601830945079267 -0.8125141964424956
4091000000.0 0.6032380878311664 -0.8961859885997372
4094000000.0000005 0.5625392063992687 -0.8563274912937877
4097000000.0000005 0.5291816116500424 -0.8834211363049717
4099999999.9999995 0.546130793177029 -0.9069165680884776
4102999999.9999995 0.5983507211874548 -0.8772461749391869
4106000000.0 0.5329327524179718 -0.9211072116462853
4109000000.0 0.5390096673512998 -0.8889071144486294
4112000000.0 0.5376480155380052 -0.8579296191695777
4115999999.9999995 0.5896868060433007 -0.8728573282278976
4119000000.0 0.5427386293838296 -0.9031940414314821
4122000000.0 0.570295744736298 -0.8707435523242325
4125000000.0 0.5653541508197074 -0.8894667614219098
4128000000.0 0.5424324191127566 -0.8452341036934325
4131000000.0 0.5693920827820581 -0.8531110613606364
4134000000.0000005 0.5682713105235078 -0.8475215378939558
4138000000.0 0.5402468562066308 -0.8684004979108368
4141000000.0 0.5343803464477661 -0.8667535860920706
4144000000.0 0.5765185212741986 -0.891856175537408
4147000000.0000005 0.5400128676661792 -0.864744343410244
4150000000.0000005 0.5834887165398761 -0.9149072560142931
4152999999.9999995 0.5537661623459065 -0.8552634676507541
4155999999.9999995 0.6075521127298809 -0.8650276733096717
4159000000.0 0.5588487110304791 -0.8632556808797118
4162000000.0 0.5404866844601782 -0.8527987025015977
4166000000.0000005 0.5575639946498135 -0.8741244635953186
4168999999.9999995 0.5434204106938298 -0.8528349870679713
4171999999.9999995 0.5446464445973949 -0.8714285532891911
4175000000.0 0.57263262579425 -0.8530398591677201
4178000000.0 0.583172774335367 -0.8778891521544293
4181000000.0 0.5535236287066425 -0.8921873414751651
4184000000.0 0.5605685417801684 -0.8934728222731007
4187999999.9999995 0.5541556698328258 -0.8853189857919864
4191000000.0 0.6079089145153069 -0.8055107966340243
4194000000.0 0.5441825128172457 -0.8370138769984391
4197000000.0 0.5689223773543495 -0.8663300260242455
4200000000.0 0.5637069800144316 -0.8488556993549904
4203000000.0000005 0.5602733184986397 -0.8559471566446124
4206000000.0000005 0.5709294223324495 -0.8848692996666178
4208999999.9999995 0.549263466449792 -0.8554715428956288
4211999999.9999995 0.5234364331921894 -0.8534997546276206
4216000000.0 0.5771325635141455 -0.8380128845682074
4219000000.0000005 0.5783974854617344 -0.8816444435999417
4222000000.0000005 0.55292501215115 -0.8671723252304708
4224999999.9999995 0.5486966523698859 -0.8314692159460105
4227999999.9999995 0.5510102869345672 -0.8628850542289956
4231000000.0 0.5611074101414868 -0.8648552434038858
4234000000.0 0.5679494334646586 -0.859835207370405
4238000000.0000005 0.5481813509334037 -0.8640180556824899
4240999999.9999995 0.5443787019378958 -0.8611366564197769
4244000000.0 0.5598766798166626 -0.8501723733301971
4247000000.0 0.5532946300737374 -0.85509798134568
4250000000.0 0.5507723130662524 -0.8496273953876933
4253000000.0 0.5273044612124665 -0.8388132544995379
4256000000.0 0.5629433462475368 -0.8654808717438176
4259000000.0000005 0.5197812072891009 -0.8379243540061911
4261999999.9999995 0.5556179441908515 -0.8603890018758948
4266000000.0 0.5246862938572858 -0.8738403325325955
4269000000.0 0.5733456904646728 -0.8465346181124638
4272000000.0000005 0.5496964173360777 -0.8475403124229905
4275000000.0000005 0.5426783526126451 -0.8495485822116697
4277999999.9999995 0.5660311020818302 -0.8556134546282037
4280999999.9999995 0.5600189709947756 -0.8628502635776221
4284000000.0 0.5396864978467626 -0.8818520093591177
4288000000.0000005 0.587349415802689 -0.8499882432612222
4291000000.0000005 0.5497364068492379 -0.8505348695711192
4293999999.9999995 0.5420835215642998 -0.8415311116972923
4297000000.0 0.5458435996595827 -0.832194378860755
4300000000.0 0.5564468687951789 -0.8176499814510578
4303000000.0 0.5466997425686491 -0.8493082391844247
4306000000.0 0.5732167988664992 -0.8511697685579959
4309000000.0 0.5572456930314651 -0.8500089691858983
4312000000.0 0.583509364598018 -0.8442302480205096
4316000000.0 0.5752649762467893 -0.8563211717986936
4319000000.0 0.5672293272429036 -0.8209024415573501
4322000000.0 0.5282922249259349 -0.8766233597366464
4325000000.0 0.5722605826544511 -0.850213645394181
4328000000.0 0.5355576773315547 -0.850876134366724
4331000000.0 0.5233617432760266 -0.8807910158133018
4334000000.0 0.5492589432215726 -0.8677945407252716
4338000000.0 0.5801642394402887 -0.8440858430452991
4341000000.0 0.6103189998950062 -0.84421543907144
4344000000.0 0.5552421674325974 -0.8640042439286092
4347000000.0 0.5250161588881614 -0.8749860779748021
4350000000.0 0.5294736753026991 -0.8169476434308586
4353000000.0 0.5581986279107289 -0.8427211840798713
4356000000.0 0.5374849404311282 -0.8573200058515345
4359000000.0 0.5277757605731396 -0.8074406015895509
4362000000.0 0.5148385343721541 -0.8724534143016139
4366000000.0 0.5320914242665806 -0.8695404230402375
4369000000.0 0.5203506372914957 -0.8394215201465787
4372000000.0 0.5054288717484805 -0.865986478989849
4375000000.0 0.5490630182229415 -0.8404493934804141
4378000000.0 0.5312352398036263 -0.8346377999987986
4381000000.0 0.5506802802089498 -0.8349865055528372
4384000000.0 0.5664828006727192 -0.8899167940636773
4388000000.0 0.5579228489492756 -0.8222058128148169
4391000000.0 0.5687026367230958 -0.8585293300694055
4394000000.0 0.5338889287765579 -0.8365920920876164
4397000000.0 0.5304775025590049 -0.8490784923425096
4400000000.0 0.5599949680797764 -0.8916559218851929
4403000000.0 0.5503611089151096 -0.8583979143736937
4406000000.0 0.5248888685825706 -0.8815905696673603
4409000000.0 0.5539890511498284 -0.8758508081493843
4412000000.0 0.4863883488171697 -0.8788326410155396
4416000000.0 0.5130904789235384 -0.8562086837121011
4419000000.0 0.5119590184911941 -0.8645510785668944
4422000000.0 0.535067567763816 -0.8471016936801873
4425000000.0 0.5771054218873521 -0.851269862240647
4428000000.0 0.5245558766544267 -0.862337047819222
4431000000.0 0.5557795091944784 -0.8787995152441189
4434000000.0 0.5164708305897502 -0.8416661066867421
4438000000.0 0.5514753426745753 -0.8869707675490045
4441000000.0 0.5485363981921597 -0.8800548959345788
4444000000.0 0.521038661053645 -0.8231486498871868
4447000000.0 0.5194472772513045 -0.865713749923789
4450000000.0 0.5397396552426019 -0.847670768070671
4453000000.0 0.552162707282565 -0.8789859179344264
4456000000.0 0.5186911153876301 -0.8461928751942346
4459000000.0 0.4935938854724079 -0.8393791944106015
4462000000.0 0.5583676605034094 -0.9147716128438512
4466000000.0 0.5415677856947531 -0.8953396314071812
4469000000.0 0.5519772169804338 -0.8528997085731123
4472000000.0 0.5283817468802848 -0.8905795427625778
4475000000.0 0.5255313352217494 -0.8214928944348687
4478000000.0 0.5353385597578771 -0.9010445651186598
4481000000.0 0.5133040420858953 -0.8424732708713674
4484000000.0 0.48774001208455775 -0.8725438154576501
4488000000.0 0.5168568367139681 -0.8657928885836114
4491000000.0 0.5100637520113781 -0.8609689871353693
4494000000.0 0.5146612634977396 -0.8652641484697733
4497000000.0 0.5303130879573321 -0.8552196405323144
4500000000.0 0.5494359449963532 -0.8450310726236532
4503000000.0 0.5447939558210383 -0.8831493356923201
4506000000.0 0.5143559879277246 -0.8634145823111856
4509000000.0 0.5079465000925485 -0.849054112864299
4512000000.0 0.5127157749541741 -0.8493547467192547
4516000000.0 0.5320103474815294 -0.8632069403377716
4519000000.0 0.5219533121450146 -0.8269295285384575
4522000000.0 0.5230055124251592 -0.8519299979818886
4525000000.0 0.5431683822666982 -0.8529045320739951
4528000000.0 0.5328625902862566 -0.8915130249613923
4531000000.0 0.5280715679342056 -0.8733049448783738
4534000000.0 0.5247308411378122 -0.8439825710296508
4538000000.0 0.5024620836005125 -0.8609579406487384
4541000000.0 0.49297111797287174 -0.8782051613457652
4544000000.0 0.5162747400629975 -0.8449100723356635
4547000000.0 0.5319158310800665 -0.847531940641243
4550000000.0 0.5024763591382944 -0.8685757541005158
4553000000.0 0.5271804208402227 -0.8836133134272168
4556000000.0 0.49641900326700195 -0.8578695525907976
4559000000.0 0.5139640210700991 -0.8626748463966392
4562000000.0 0.5203339913591112 -0.8849071072087902
4566000000.0 0.5015683402796605 -0.8684077022830495
4569000000.0 0.5043163091775024 -0.859051821713022
4572000000.0 0.5202083449989782 -0.8637407650787587
4575000000.0 0.49264472167094975 -0.894347899954906
4578000000.0 0.5403441243759011 -0.8866474956071146
4581000000.0 0.5126040731661174 -0.8988410832021612
4584000000.0 0.49895857711436487 -0.8515361460136408
4588000000.0 0.5473708697604872 -0.873676719916464
4591000000.0 0.5268031173082822 -0.8631789895838933
4594000000.0 0.4876844553173553 -0.8745209832222671
4597000000.0 0.5233180841506684 -0.88181763830341
4600000000.0 0.4865469305396889 -0.8802355756338238
4603000000.0 0.5145224807622623 -0.8758083129074853
4606000000.0 0.5160875555775046 -0.8668245450992828
4609000000.0 0.5002511993363726 -0.8625681822297707
4612000000.0 0.5162636809673381 -0.8785764338996138
4616000000.0 0.4952596025840563 -0.8697917483689204
4619000000.0 0.4966223212732163 -0.8698275507930382
4622000000.0 0.5223819077638068 -0.8806531388192924
4625000000.0 0.4724173302158622 -0.8608752731490759
4628000000.0 0.5101948870611298 -0.8634903760223905
4631000000.0 0.493447810860593 -0.8874355595501864
4634000000.0 0.49766127921835096 -0.8683351312720439
4638000000.0 0.5005818036023524 -0.8767547870291069
4641000000.0 0.5149148448208329 -0.8631818839548084
4644000000.0 0.5053993221549488 -0.8771674772611994
4647000000.0 0.5268753502107968 -0.8848655233027374
4650000000.0 0.478977973502144 -0.8816064986228662
4653000000.0 0.5205870436814568 -0.8920183278683415
4656000000.0 0.5004185655935088 -0.873734209356121
4659000000.0 0.49736050426289313 -0.8848250968035423
4662000000.0 0.5245937234860308 -0.8976775448488048
4666000000.0 0.4886072772409532 -0.8784174716231719
4669000000.0 0.5037494972345775 -0.8646920958345691
4672000000.0 0.49414696362869753 -0.901554509030706
4675000000.0 0.47297921480383115 -0.8888758065813981
4678000000.0 0.5025582487455491 -0.8692071864356918
4681000000.0 0.4890928369077539 -0.887946925604113
4684000000.0 0.4878640275990965 -0.914435505483866
4688000000.0 0.4912404806363693 -0.8832970990722215
4691000000.0 0.5119057921840598 -0.8920652255151436
4694000000.0 0.5026615512511192 -0.8664050521183739
4697000000.0 0.448522010873218 -0.8602423816464915
4700000000.0 0.49175803194839907 -0.8744749709735344
4703000000.0 0.5189194120193079 -0.8451793343764146
4706000000.0 0.49255045766289857 -0.8756248127021435
4709000000.0 0.49108653610491926 -0.8932637354583414
4712000000.0 0.5098024574650981 -0.8671677573995107
4716000000.0 0.485081913126404 -0.8836060315328979
4719000000.0 0.5149993463674267 -0.9012832602189036
4722000000.0 0.5154490962071844 -0.839746138856522
4725000000.0 0.4886007389622505 -0.8740423828506341
4728000000.0 0.4803187407188895 -0.8793931046399045
4731000000.0 0.5239512689592184 -0.8895233885816605
4734000000.0 0.5163539813249315 -0.8643658016787776
4738000000.0 0.5495096160624667 -0.9087593016253489
4741000000.0 0.49350532063828123 -0.9139371344318163
4744000000.0 0.4776409807560285 -0.9126764935643972
4747000000.0 0.5188099993158694 -0.8502739539438023
4750000000.0 0.51075847253633 -0.895530243040254
4753000000.0 0.5169920065650656 -0.8884256571568201
4756000000.0 0.48194934903996484 -0.8770738415174247
4759000000.0 0.5228963816310317 -0.8939418671806206
4762000000.0 0.48808076230853353 -0.928047042504241
4766000000.0 0.519856681480872 -0.8718922230179913
4769000000.0 0.5090676827343888 -0.902707937696732
4772000000.0 0.5034713837476856 -0.887183326533879
4775000000.0 0.4982557254183447 -0.9364886587196857
4778000000.0 0.5071977282706633 -0.9127414802109712
4781000000.0 0.5301455379611659 -0.876876162132415
4784000000.0 0.507935758080195 -0.8708579983929842
4788000000.0 0.5272464044931696 -0.9214592777878169
4791000000.0 0.48952356927250357 -0.8701324171931692
4794000000.0 0.51099551637632 -0.896319291871505
4797000000.0 0.4975873247661565 -0.8775932854051419
4800000000.0 0.49249422681798954 -0.8678911729392514
4803000000.0 0.45404537227902453 -0.9370053778390847
4806000000.0 0.4938258816738161 -0.9040975435209712
4809000000.0 0.4707126784049596 -0.8966086454225173
4812000000.0 0.4592772529877124 -0.8943133094812405
4816000000.0 0.5155354726233605 -0.8563284401893829
4819000000.0 0.5214648620097275 -0.891946300576798
4822000000.0 0.5450800058129638 -0.9233453424533891
4825000000.0 0.5329702607000859 -0.904886150221746
4828000000.0 0.5062884865522054 -0.8933024600746254
4831000000.0 0.48620507115231815 -0.9355591587653819
4834000000.0 0.5157989806747845 -0.8893168637899547
4838000000.0 0.48582439181688936 -0.9188052647486566
4841000000.0 0.45176656980400687 -0.9078992418815773
4844000000.0 0.5281784179810592 -0.886656096921406
4847000000.0 0.502902210427975 -0.8643576873521219
4850000000.0 0.49663180269041785 -0.9186639580630764
4853000000.0 0.4912642735640253 -0.866749244063849
4856000000.0 0.511105924815531 -0.8857649598204688
4859000000.0 0.5173904894267053 -0.933339923009489
4862000000.0 0.48574192220395507 -0.8605303851947252
4866000000.0 0.4864776375857578 -0.909850456624417
4869000000.0 0.48828622774671077 -0.903612371874367
4872000000.0 0.48457835985498426 -0.9244119552093221
4875000000.0 0.5660656754207235 -0.9063914230801212
4878000000.0 0.5234728877606167 -0.894117445925953
4881000000.0 0.4859286868526993 -0.9374622802973961
4884000000.0 0.5194329606067069 -0.8746277802784284
4888000000.0 0.5264138599375208 -0.8935721777348897
4891000000.0 0.5327841729060931 -0.9080189540895578
4894000000.0 0.4537205364046861 -0.9079311105056312
4897000000.0 0.5337543090774343 -0.9048927919573898
4900000000.0 0.5095287700285269 -0.914751808538026
4903000000.0 0.5338000594720408 -0.8861781505357704
4906000000.0 0.5205587626121513 -0.9382951360385802
4909000000.0 0.4734401731260009 -0.9105858494351894
4912000000.0 0.5181466321383583 -0.9388919305226551
4916000000.0 0.5356470974556369 -0.9182344119423042
4919000000.0 0.5405053197577363 -0.9037172542308781
4922000000.0 0.5444504694794261 -0.9042962978026392
4925000000.0 0.4817554065768169 -0.9059464187700028
4928000000.0 0.5803056583806362 -0.8593147732581595
4931000000.0 0.5288884736122993 -0.8801480102565965
4934000000.0 0.496102851065952 -0.8630799802977122
4938000000.0 0.48136903678303217 -0.91517516021151
4941000000.0 0.5031480122863519 -0.8792902052726409
4944000000.0 0.48862293933693696 -0.8325075039470209
4947000000.0 0.5035207177418032 -0.8900944443922039
4950000000.0 0.5089690350737511 -0.8840132042210426
4953000000.0 0.5072485277320425 -0.9709631419298057
4956000000.0 0.48318825475226423 -0.9323055903912219
4959000000.0 0.45845771219418174 -0.8828046307177269
4962000000.0 0.5141117637291682 -0.8916140819278264
4966000000.0 0.5759495869334255 -0.890791720079985
4969000000.0 0.5725328692633773 -0.9402395271787747
4972000000.0 0.5032615142703578 -0.9023925998297633
4975000000.0 0.5147635272719665 -0.8712667467061308
4978000000.0 0.49770288590646944 -0.9283345533745673
4981000000.0 0.5332556241360147 -0.8861091163875017
4984000000.0 0.4984972969187619 -0.845267342740862
4988000000.0 0.5429703761280025 -0.875637631179844
4991000000.0 0.5678099756675414 -0.8848194375233076
4994000000.0 0.5244764376879856 -0.8640917723498426
4997000000.0 0.5057618088459056 -0.934413178726153
5000000000.0 0.5375946478655372 -0.9389149088211128
5003000000.0 0.5462234956802403 -0.9150160296509972
5006000000.0 0.572579380643895 -0.9463323232545419
5009000000.0 0.5364069179467564 -0.9011420901467501
5012000000.0 0.5074990201711801 -0.9182579358611446
5016000000.0 0.561649432905192 -0.9131705956738454
5019000000.0 0.5020657560614894 -0.9095901532511887
5022000000.0 0.5237421255660146 -0.8898693301757139
5025000000.0 0.5724789693930941 -0.9423041944626962
5028000000.0 0.5123809225787943 -0.9028964621399493
5031000000.0 0.5236356784730785 -0.9122171073807367
5034000000.0 0.5134271275063911 -0.9352833237719629
5038000000.0 0.5078022321740411 -0.9017966191953586
5041000000.0 0.5826208630437678 -0.896820571432132
5044000000.0 0.5487522965245606 -0.8846725805920321
5047000000.0 0.5455044467977705 -0.894657839709331
5050000000.0 0.5981645927893158 -0.8340264198537906
5053000000.0 0.5307194993273199 -0.9451772893885795
5056000000.0 0.5530548061316564 -0.8428580240215167
5059000000.0 0.5548924236087417 -0.8562964607575255
5062000000.0 0.4986267620877265 -0.8911285942691671
5066000000.0 0.5801937408880001 -0.8646735070400386
5069000000.0 0.5480544211586967 -0.8937885731631823
5072000000.0 0.4899117999562873 -0.8613953958675704
5075000000.0 0.5535548885881462 -0.8707411074982874
5078000000.0 0.49794750934471355 -0.9305957602147983
5081000000.0 0.48671133583643034 -0.8895905588846366
5084000000.0 0.5338616695286014 -0.9588287853077749
5088000000.0 0.5287319361455967 -0.8855994602847007
5091000000.0 0.48222852644496117 -0.8877031823331902
5094000000.0 0.5661557008484726 -0.8986925076000465
5097000000.0 0.6253710343048458 -0.9042199456328986
5100000000.0 0.5505709894864932 -0.8775295334597735
5103000000.0 0.4674658317404335 -0.9090437652227654
5106000000.0 0.558803278407231 -0.9321398783964978
5109000000.0 0.6179287772094316 -0.8573251679652165
5112000000.0 0.52266417267797 -0.9032776504595769
5116000000.0 0.5241393608328981 -0.866677256186613
5119000000.0 0.5290746685759191 -0.8318129987683401
5122000000.0 0.5572557580322544 -0.8762154993481008
5125000000.0 0.5583903694106399 -0.8564354649786772
5128000000.0 0.5350474340266238 -0.8881633602939472
5131000000.0 0.5248015659746983 -0.9224056202852693
5134000000.0 0.5536469032165475 -0.8665250707726073
5138000000.0 0.5638441834458965 -0.8642429656491437
5141000000.0 0.57125518439176 -0.8409689987932261
5144000000.0 0.5518047841077893 -0.8752203519486793
5147000000.0 0.5519824195677105 -0.8803364824081652
5150000000.0 0.5957456889155647 -0.8820813331452266
5153000000.0 0.5640566754313072 -0.9446521458501598
5156000000.0 0.5701810687688644 -0.9143783685504538
5159000000.0 0.5765437291707333 -0.9229070192187356
5162000000.0 0.5474932360075567 -0.9141607409809004
5166000000.0 0.5551903689804077 -0.9243110364222891
5169000000.0 0.5450931285618891 -0.9376908994718274
5172000000.0 0.5245104408987928 -0.90017587923977
5175000000.0 0.5653212825899865 -0.9219213973298712
5178000000.0 0.5521167766831472 -0.9167510321564158
