! Created with skrf 1.8.0 (http://scikit-rf.org).
# Hz S RI R 50.0 
!freq ReS11 ImS11
4000000000.0 0.5457404464425935 -0.8271548010234959
4003000000.0 0.5325791233504985 -0.8916911460230836
4006000000.0 0.4862567216508694 -0.8898201706400057
4009000000.0000005 0.5268188886081536 -0.8563737028422373
4011999999.9999995 0.5889935943395392 -0.8245091818924438
4016000000.0 0.5123768676410101 -0.9127836769053237
4019000000.0 0.5457343549119186 -0.8248348401428476
4022000000.0000005 0.578269659214471 -0.8251936628727283
4025000000.0000005 0.49001506763035974 -0.8884532608767188
4027999999.9999995 0.48642437920912923 -0.9082568272897888
4030999999.9999995 0.50467508130843 -0.8428271602524525
4034000000.0 0.5301808574946145 -0.8590598163193264
4038000000.0000005 0.5472000056143229 -0.8696924199451233
4041000000.0000005 0.5481999558800691 -0.848728011892544
4043999999.9999995 0.5340811885976544 -0.9200519884365856
4046999999.9999995 0.5675343696548854 -0.8987505662596278
4050000000.0 0.520529730027427 -0.895066599179985
4053000000.0 0.52599259968234 -0.8754432535734311
4056000000.0 0.5172985518948179 -0.860944807479641
4059000000.0 0.5241584278447615 -0.8879824986446804
4062000000.0000005 0.5490281277120983 -0.9011883980734683
4066000000.0 0.5151014129631818 -0.826860340870465
4069000000.0 0.5276379015695759 -0.8890530076310705
4072000000.0 0.5291775095988128 -0.8381338914249716
4075000000.0 0.5758298731679385 -0.8620767022185847
4078000000.0000005 0.5485876084231811 -0.9117538626786728
4081000000.0000005 0.6060627598511293 -0.8301249666238144
4083999999.9999995 0.5275022435483206 -0.8828607553926149
4088000000.0 0.5491657071856667 -0.8666349829275339
4091000000.0 0.5692650876728106 -0.9159912359742357
4094000000.0000005 0.5513963484124113 -0.8764723163066562
4097000000.0000005 0.5253008451765289 -0.895417024419034
4099999999.9999995 0.5056349868035628 -0.8696657352487336
4102999999.9999995 0.579703612483267 -0.8748986738179857
4106000000.0 0.5397160213125743 -0.9087618173318375
4109000000.0 0.5436795038261115 -0.8916076521731192
4112000000.0 0.5527039295289748 -0.870158273211458
4115999999.9999995 0.5948334291974064 -0.8560899647601191
4119000000.0 0.5295991013216881 -0.8880423388763323
4122000000.0 0.5179160218915784 -0.8871536842901397
4125000000.0 0.5486699635538308 -0.8837192643633975
4128000000.0 0.523473759858609 -0.8241540843148385
4131000000.0 0.5245433369778936 -0.8720847627450198
4134000000.0000005 0.5525328723815742 -0.8506507948359732
4138000000.0 0.5173451729048654 -0.8313584582086448
4141000000.0 0.5094844358555155 -0.8603661850687518
4144000000.0 0.5701930832083454 -0.8719974522226717
4147000000.0000005 0.5132718634876652 -0.8609978863389465
4150000000.0000005 0.5547921889735149 -0.8665221288037038
4152999999.9999995 0.5407033315121997 -0.8777684035681017
4155999999.9999995 0.5450869397684448 -0.8956973130473465
4159000000.0 0.5451515411683263 -0.8511870037141559
4162000000.0 0.5306182405096057 -0.8571586236343262
4166000000.0000005 0.540117974116078 -0.8675947002356953
4168999999.9999995 0.5189155004346642 -0.8677889425808906
4171999999.9999995 0.5348841984102649 -0.8928475884659817
4175000000.0 0.5526657863097781 -0.8519179164334724
4178000000.0 0.5484000257061965 -0.8823032854159875
4181000000.0 0.533653430681889 -0.8486613133149405
4184000000.0 0.5330426512117115 -0.8621493283092412
4187999999.9999995 0.556025684765812 -0.8778799436440414
4191000000.0 0.5955163350657431 -0.8206326030753126
4194000000.0 0.5294944040839415 -0.841204582246707
4197000000.0 0.5398728206087319 -0.8680682486252826
4200000000.0 0.5513809962763968 -0.850206888228658
4203000000.0000005 0.5467979456269729 -0.8711688900110072
4206000000.0000005 0.5525342507352878 -0.8844567835451296
4208999999.9999995 0.5606080499911011 -0.8473290584317293
4211999999.9999995 0.508505295639223 -0.8806181555985043
4216000000.0 0.5627656497364153 -0.8524420744108816
4219000000.0000005 0.5573398950600057 -0.8621174157057949
4222000000.0000005 0.5487787508660847 -0.8697568576157564
4224999999.9999995 0.5377352344947095 -0.8327930753933382
4227999999.9999995 0.5607790413936133 -0.8526692743189694
4231000000.0 0.5402949693640635 -0.8528545789139982
4234000000.0 0.5591064686371636 -0.8708550484285632
4238000000.0000005 0.5291247536087663 -0.850415159417464
4240999999.9999995 0.5456659217382516 -0.8477389921498089
4244000000.0 0.5255503202482563 -0.8592795106488507
4247000000.0 0.5489997624048584 -0.8506427679266235
4250000000.0 0.5275950757836946 -0.8604407269154913
4253000000.0 0.5103629810483475 -0.8467414262649958
4256000000.0 0.5410711191450227 -0.8714615611366103
4259000000.0000005 0.5035062809048836 -0.826508609011819
4261999999.9999995 0.5219544045040518 -0.8609229600547706
4266000000.0 0.5265009911205174 -0.9032039841676753
4269000000.0 0.5756293809195399 -0.8530894385564868
4272000000.0000005 0.5501264590520425 -0.8575541472774459
4275000000.0000005 0.5501358588428336 -0.8410366031642331
4277999999.9999995 0.5522212412348452 -0.8788700924478337
4280999999.9999995 0.5367441204208974 -0.8641658086845622
4284000000.0 0.5199115011611823 -0.8810234715133223
4288000000.0000005 0.5647995759645108 -0.8423703555793075
4291000000.0000005 0.5217526812621385 -0.8369808025489297
4293999999.9999995 0.5248331019292946 -0.8555235731005193
4297000000.0 0.5535018343955646 -0.8391337639047847
4300000000.0 0.5539237704144844 -0.8466977181767668
4303000000.0 0.5209754254327936 -0.847825675493691
4306000000.0 0.536228673400222 -0.8309555444959477
4309000000.0 0.5338314088323612 -0.8550544419260265
4312000000.0 0.587730690828868 -0.8581143410660568
4316000000.0 0.5545365044674253 -0.8540224591178254
4319000000.0 0.5590551517918331 -0.8476136924310976
4322000000.0 0.501208642308035 -0.8482407877626289
4325000000.0 0.5357110853613181 -0.8838917020589474
4328000000.0 0.5303475015185549 -0.831645157427413
4331000000.0 0.4976084854629212 -0.852978921283607
4334000000.0 0.550174334181287 -0.8548789907402878
4338000000.0 0.5675754598262753 -0.8207849554742868
4341000000.0 0.5945539717345647 -0.866784707405096
4344000000.0 0.5566791412329801 -0.8463571832985796
4347000000.0 0.5073985281506301 -0.893948759742546
4350000000.0 0.5210014756830211 -0.8305307024268106
4353000000.0 0.5301871741492294 -0.7991866447852741
4356000000.0 0.5122550535865164 -0.8596385330007659
4359000000.0 0.5057452154150927 -0.8337127033769829
4362000000.0 0.49370867915516975 -0.8861418286440018
4366000000.0 0.5557456449065747 -0.8744431341039776
4369000000.0 0.5184370378736614 -0.8320298687335937
4372000000.0 0.48165394290988395 -0.8663583587185794
4375000000.0 0.5398095393344005 -0.8242464894090419
4378000000.0 0.5190749426040921 -0.8399359051978047
4381000000.0 0.5260895772947587 -0.8352738971292085
4384000000.0 0.5526740660754861 -0.9210227276404601
4388000000.0 0.5299676044850555 -0.8361768034412401
4391000000.0 0.538721624906574 -0.8732737421777711
4394000000.0 0.5205559566241766 -0.8502783346199543
4397000000.0 0.5104714117500028 -0.8648028832108002
4400000000.0 0.552114006245091 -0.8971586872370912
4403000000.0 0.5253747131336456 -0.8739675434467443
4406000000.0 0.5150943737372807 -0.8689536992734426
4409000000.0 0.5496613322782332 -0.883324132946802
4412000000.0 0.4840149950597649 -0.8919361456180247
4416000000.0 0.5161402472308371 -0.8539882858704259
4419000000.0 0.5079345805215079 -0.8620390860608902
4422000000.0 0.5408504837015085 -0.8494896119852076
4425000000.0 0.5493796457579772 -0.8605186630394468
4428000000.0 0.5133878144046086 -0.8732070324058443
4431000000.0 0.5420684538856693 -0.8756030379547549
4434000000.0 0.5080251979066052 -0.8519085447665827
4438000000.0 0.5520966800400922 -0.8856416054614614
4441000000.0 0.5350953912290922 -0.8685998136919851
4444000000.0 0.5202777599733922 -0.8388975035424614
4447000000.0 0.5163421015986951 -0.8554763854463392
4450000000.0 0.522684822220036 -0.832506708070141
4453000000.0 0.5367024054186931 -0.8723645366194226
4456000000.0 0.5111396847838434 -0.8530790623910981
4459000000.0 0.4726331076422129 -0.834558702236389
4462000000.0 0.5304548900236843 -0.914046473617094
4466000000.0 0.5396338415784763 -0.9066182372907772
4469000000.0 0.5469664536194858 -0.858136412767696
4472000000.0 0.5110219022275639 -0.9012460744768471
4475000000.0 0.5012939173709354 -0.846138746036536
4478000000.0 0.5184108010330586 -0.9129786592182203
4481000000.0 0.4927267814085914 -0.8477286125852437
4484000000.0 0.46970047397300124 -0.8880977828772272
4488000000.0 0.49888716819251233 -0.8659834849844326
4491000000.0 0.5155746005277988 -0.8665944380412003
4494000000.0 0.5101840725672551 -0.8413586639664195
4497000000.0 0.5285406872084819 -0.8443006230755559
4500000000.0 0.5198928778623817 -0.8755452616006308
4503000000.0 0.5323123506440123 -0.8772890891319765
4506000000.0 0.5057528388370169 -0.8606413554480186
4509000000.0 0.4856907710825734 -0.8418434508625525
4512000000.0 0.5010871133300646 -0.8647390423261837
4516000000.0 0.5319125576280589 -0.870868340541868
4519000000.0 0.5124442027561649 -0.8314956126405981
4522000000.0 0.5027468451326857 -0.8761223846528492
4525000000.0 0.5342714428177973 -0.831790352062306
4528000000.0 0.5371536213345743 -0.8860575328867129
4531000000.0 0.5110217374311063 -0.8659543441014693
4534000000.0 0.5114148685578666 -0.8438877676030148
4538000000.0 0.5100179870817718 -0.8655692019283548
4541000000.0 0.48015333777796826 -0.8768073861983773
4544000000.0 0.5074042623366677 -0.8384101186805694
4547000000.0 0.5122398884594148 -0.8498872621808857
4550000000.0 0.48977263315664715 -0.8902865817694932
4553000000.0 0.4989372228578065 -0.8874684561824963
4556000000.0 0.47187562800833044 -0.8609123527864483
4559000000.0 0.485352041998784 -0.8789737529074055
4562000000.0 0.508585442173377 -0.8765768078467426
4566000000.0 0.4953267342893975 -0.8938391192556229
4569000000.0 0.4910087243096588 -0.8502287066331725
4572000000.0 0.4873247936037285 -0.8615082291366085
4575000000.0 0.49217480388140833 -0.8767685613300102
4578000000.0 0.5351596637440368 -0.8902736444391799
4581000000.0 0.4942772859473212 -0.8850115535316199
4584000000.0 0.4804698577838175 -0.8495043030588774
4588000000.0 0.5115640057106329 -0.8881080060373885
4591000000.0 0.5020769473138089 -0.8647621123125457
4594000000.0 0.49155441872897054 -0.8809053898688057
4597000000.0 0.4928226245745503 -0.8917695779120628
4600000000.0 0.481901512457589 -0.8801582601443532
4603000000.0 0.49932006232212617 -0.8792951214766375
4606000000.0 0.4981332064735734 -0.8797476652681304
4609000000.0 0.5049556874311789 -0.8798784853867776
4612000000.0 0.5042758671683907 -0.8801982320469703
4616000000.0 0.49032002928018525 -0.8686526573422996
4619000000.0 0.5027268257288975 -0.8559812619035223
4622000000.0 0.508888464052122 -0.8683500520510601
4625000000.0 0.47168488556202287 -0.8623215718379601
4628000000.0 0.5121621994346087 -0.881263108552874
4631000000.0 0.49199993355933225 -0.8721104505709274
4634000000.0 0.4928972120748963 -0.8870414647371235
4638000000.0 0.49533663231968367 -0.878189416915541
4641000000.0 0.5082163113068172 -0.885827858219742
4644000000.0 0.4977442824217876 -0.8678798522993036
4647000000.0 0.5040280626796927 -0.8831962379321749
4650000000.0 0.47047208970080256 -0.8768446394957277
4653000000.0 0.5111034746986263 -0.8735881614538757
4656000000.0 0.46290734740676664 -0.8840003718923723
4659000000.0 0.4721945890724774 -0.8896915837211052
4662000000.0 0.4870931900585348 -0.8905796914685198
4666000000.0 0.48242005597013077 -0.8802224987948173
4669000000.0 0.5115895493158706 -0.887628918419072
4672000000.0 0.4832699124370059 -0.8967433531274744
4675000000.0 0.47602282070486196 -0.9040324745604622
4678000000.0 0.4642386022495615 -0.8384231997853544
4681000000.0 0.4754602986907608 -0.9286089322545639
4684000000.0 0.45945698197812984 -0.8976336715885738
4688000000.0 0.4685865315592704 -0.8835658380615355
4691000000.0 0.5112360610068359 -0.8601385025273994
4694000000.0 0.499072402716405 -0.8803546792140384
4697000000.0 0.43085909774147135 -0.8746025203505523
4700000000.0 0.4895586004142803 -0.8794633856570956
4703000000.0 0.4922814476209003 -0.8386456707316887
4706000000.0 0.46726333504690776 -0.9003411702304992
4709000000.0 0.46540057024114134 -0.8873895818123333
4712000000.0 0.4899505456071866 -0.8870623916729257
4716000000.0 0.5046119000197693 -0.8972083055913926
4719000000.0 0.5158661006796426 -0.8764582236254724
4722000000.0 0.4923704602089295 -0.8857970901477261
4725000000.0 0.5059263812482613 -0.8559125966168973
4728000000.0 0.46428824537419033 -0.8473999665207456
4731000000.0 0.4993430354798709 -0.8805283152329181
4734000000.0 0.4845081656982909 -0.8642658728154393
4738000000.0 0.49305059351707375 -0.898054348406935
4741000000.0 0.4895770343858724 -0.9217964440007511
4744000000.0 0.4715406934639289 -0.8988683273814506
4747000000.0 0.49763500652384957 -0.8618710576046249
4750000000.0 0.47345812795703807 -0.891398953973182
4753000000.0 0.5078711112382677 -0.9008348069782255
4756000000.0 0.4625051822289296 -0.9025361663843754
4759000000.0 0.5015287351271117 -0.8963779366254546
4762000000.0 0.46770171338006244 -0.9411074046539236
4766000000.0 0.5093775360670478 -0.8860012891947134
4769000000.0 0.4895884598554726 -0.9311397043805637
4772000000.0 0.49864622896244937 -0.8671971356749184
4775000000.0 0.4955811606904358 -0.9304556041298451
4778000000.0 0.4944698903703909 -0.8974779718604414
4781000000.0 0.4912760530035357 -0.8936954307683567
4784000000.0 0.5195326650623412 -0.8619361853834341
4788000000.0 0.46748140281111095 -0.9124758414862603
4791000000.0 0.4680737568716367 -0.8806674952933702
4794000000.0 0.5212184870603781 -0.912936264463667
4797000000.0 0.4744349398244149 -0.8645327106393328
4800000000.0 0.45838692399961933 -0.8884301399503209
4803000000.0 0.4215693211051581 -0.9065502062086985
4806000000.0 0.4610740363918175 -0.9044510671236881
4809000000.0 0.4568661007512575 -0.9039798355479904
4812000000.0 0.46004926688165787 -0.9050717115152034
4816000000.0 0.4938356470440038 -0.8964977763768025
4819000000.0 0.5207016191535969 -0.8945230063985432
4822000000.0 0.5313520691729172 -0.9183468560225664
4825000000.0 0.5200703508150801 -0.8820416428323259
4828000000.0 0.500014331691438 -0.8869280009396353
4831000000.0 0.46970912391869235 -0.9330829983577605
4834000000.0 0.5011863370097456 -0.889276107210797
4838000000.0 0.49724991617703374 -0.9277311127068377
4841000000.0 0.4812248639844061 -0.8957440273571218
4844000000.0 0.5280011651793165 -0.8799991772557388
4847000000.0 0.4886706713741531 -0.8546786994839722
4850000000.0 0.47405652082466054 -0.894873681341531
4853000000.0 0.46763954310722267 -0.8694974515508074
4856000000.0 0.4923056784440537 -0.875956683282367
4859000000.0 0.49333473820686324 -0.9411956701510298
4862000000.0 0.4915707121791505 -0.8634035056751455
4866000000.0 0.46880402706015456 -0.901608549940839
4869000000.0 0.47383910853440725 -0.9007037075489897
4872000000.0 0.45318833781478474 -0.9318288136823571
4875000000.0 0.5821927122137771 -0.9136857086299438
4878000000.0 0.48065868097044945 -0.9142531467232144
4881000000.0 0.4853512276134499 -0.9665734849517268
4884000000.0 0.5059729021596381 -0.9030435615988027
4888000000.0 0.5194199711949601 -0.8830940932303308
4891000000.0 0.5063565984909909 -0.9235451480129412
4894000000.0 0.4580125829795208 -0.9080256277206449
4897000000.0 0.5332405117960758 -0.8660412880877004
4900000000.0 0.5150287118398709 -0.9267856000355922
4903000000.0 0.5155521123710723 -0.8810486227876656
4906000000.0 0.49520061683605615 -0.9297583693092553
4909000000.0 0.4685339763835621 -0.9388652453378796
4912000000.0 0.47146182681578447 -0.9556730309038645
4916000000.0 0.5208569058666489 -0.939195492958241
4919000000.0 0.5365162165823976 -0.9275558728221417
4922000000.0 0.5231464891365409 -0.8977096850386284
4925000000.0 0.457943857371904 -0.8799021278083405
4928000000.0 0.5391411083314708 -0.845484273283107
4931000000.0 0.5078401156309519 -0.9113727870948378
4934000000.0 0.47290087546771425 -0.8587010837483765
4938000000.0 0.4825493479112564 -0.8930391004678013
4941000000.0 0.4753452945480532 -0.8410957167330885
4944000000.0 0.4488914957455602 -0.832054019610396
4947000000.0 0.48916034525658314 -0.8630269757350946
4950000000.0 0.476034008567743 -0.900013137058908
4953000000.0 0.4800528003820381 -0.9658235364090989
4956000000.0 0.458358142910525 -0.9233975180355594
4959000000.0 0.46123964228744846 -0.886862651656672
4962000000.0 0.46029771139696685 -0.900564804586186
4966000000.0 0.5291279048405458 -0.9137865204770628
4969000000.0 0.537646229456905 -0.9033717309662749
4972000000.0 0.4658136630711829 -0.8825424461839727
4975000000.0 0.5262582515848354 -0.867141322238446
4978000000.0 0.4802436286242987 -0.9243551457062852
4981000000.0 0.49339531460430136 -0.898543283503063
4984000000.0 0.5142761184938778 -0.8465718427244587
4988000000.0 0.4993271591870908 -0.9119291712095967
4991000000.0 0.564661078384084 -0.8945337546251357
4994000000.0 0.49727096833016665 -0.8944892546178353
4997000000.0 0.4940688361993886 -0.9083571260199622
5000000000.0 0.5288390664989543 -0.9318416239398796
5003000000.0 0.5190997576957933 -0.9151843859331865
5006000000.0 0.5369407781924067 -0.9628531044341384
5009000000.0 0.5025736493881144 -0.903377712450846
5012000000.0 0.5014687453241092 -0.9122221476990479
5016000000.0 0.5127252705882948 -0.9501975884659868
5019000000.0 0.5179997082468505 -0.9260213541430847
5022000000.0 0.4923610622007327 -0.8964278018931545
5025000000.0 0.5402339072571954 -0.9705745657114551
5028000000.0 0.4834602621366004 -0.9224825642437526
5031000000.0 0.48698348135150726 -0.9022168737370873
5034000000.0 0.48966331253499623 -0.9584357471170988
5038000000.0 0.5056877253439112 -0.8912553374308366
5041000000.0 0.5305595249114611 -0.9003383694672078
5044000000.0 0.5115071967786183 -0.8500748881186928
5047000000.0 0.5025923214689114 -0.8655382116494057
5050000000.0 0.5796062187930899 -0.8306885562831724
5053000000.0 0.5113234737226819 -0.9387214796151866
5056000000.0 0.5875587790600054 -0.8690963353262554
5059000000.0 0.5623647659083134 -0.8759793505748419
5062000000.0 0.4557365145192288 -0.9397961927308526
5066000000.0 0.5465893292530057 -0.8477595901005993
5069000000.0 0.5106662067970879 -0.8671365763493701
5072000000.0 0.5135804540551718 -0.890541463463116
5075000000.0 0.5228401240743623 -0.8815139361893116
5078000000.0 0.46273697840265215 -0.8811580156628726
5081000000.0 0.45909933070538905 -0.8659169402567153
5084000000.0 0.5264281936242042 -0.8979643532309383
5088000000.0 0.5455159447964274 -0.875583905524693
5091000000.0 0.5014587054434825 -0.916876066360961
5094000000.0 0.528528155722193 -0.9023220642070293
5097000000.0 0.5403695041079444 -0.8698479976662864
5100000000.0 0.5063126449781035 -0.8939520691916887
5103000000.0 0.5503780678206104 -0.8779521692162722
5106000000.0 0.5841142938407227 -0.9248182349982472
5109000000.0 0.5473522831366332 -0.8262834151004779
5112000000.0 0.5147819647391298 -0.8569657281737446
5116000000.0 0.5071858269257309 -0.8168195295826532
5119000000.0 0.5285934354948099 -0.9030462350063049
5122000000.0 0.5761450311462675 -0.889852370136097
5125000000.0 0.5493980887634257 -0.8485380280068173
5128000000.0 0.5211955374982788 -0.8505367287389866
5131000000.0 0.5272494623494478 -0.8961761277677645
5134000000.0 0.5305165270729447 -0.8705998945789315
5138000000.0 0.5355050282733219 -0.8618220050664538
5141000000.0 0.5521180718738765 -0.8524502931473077
5144000000.0 0.5727746085356409 -0.8930715531754373
5147000000.0 0.5292267772786715 -0.878442504099079
5150000000.0 0.5766525501519787 -0.8970215216877557
5153000000.0 0.5530980117939986 -0.8844151643298693
5156000000.0 0.5471767983126714 -0.9059981585196397
5159000000.0 0.55747639068956 -0.9235164407199351
5162000000.0 0.5269147400239604 -0.9004253831269535
5166000000.0 0.5445127681669533 -0.9094280928827095
5169000000.0 0.5478044706031082 -0.8797814813744808
5172000000.0 0.5655074977567734 -0.8825987012574286
5175000000.0 0.5839173639856171 -0.8978233093317238
5178000000.0 0.5407550943500158 -0.8945543572185352
