! Created with skrf 1.8.0 (http://scikit-rf.org).
# Hz S RI R 50.0 
!freq ReS11 ImS11
4000000000.0 -0.6106776659820805 -0.7967634319467203
4003000000.0 -0.6268275363293327 -0.8509301528341224
4006000000.0 -0.6139504652361907 -0.798763520822551
4009000000.0000005 -0.6163659671258266 -0.7822834393934613
4011999999.9999995 -0.6417494409203286 -0.7862161104804983
4016000000.0 -0.654149795255889 -0.7958792339055869
4019000000.0 -0.6271698395009797 -0.7683903257628967
4022000000.0000005 -0.7313904546878442 -0.7942828984123026
4025000000.0000005 -0.6557231957903846 -0.7598774170697963
4027999999.9999995 -0.6907734035485752 -0.7616782783464655
4030999999.9999995 -0.6967548217100746 -0.7449623528507013
4034000000.0 -0.6799274613669848 -0.6932487164161627
4038000000.0000005 -0.7064108050467565 -0.7002519285166997
4041000000.0000005 -0.7016605286502069 -0.698851882687017
4043999999.9999995 -0.7320202652286842 -0.6953816085551024
4046999999.9999995 -0.7954562896432644 -0.6925577651282586
4050000000.0 -0.7471306191532999 -0.6991320958456851
4053000000.0 -0.7566473429200281 -0.6914761239229191
4056000000.0 -0.7648054135645572 -0.6678525018718828
4059000000.0 -0.7967360424615542 -0.5941064798033686
4062000000.0000005 -0.7719221157130702 -0.6599174222750087
4066000000.0 -0.79432165485347 -0.6480842194114194
4069000000.0 -0.8287365810269606 -0.5816881037199542
4072000000.0 -0.8608821913486568 -0.5377209937850855
4075000000.0 -0.8284071374624736 -0.530640507672129
4078000000.0000005 -0.8231363012318959 -0.5583846240130153
4081000000.0000005 -0.8687835268101031 -0.4540368628239406
4083999999.9999995 -0.8808034103099842 -0.5152117716919582
4088000000.0 -0.8800896197160328 -0.5023646979896821
4091000000.0 -0.8347132846263972 -0.47910394164744563
4094000000.0000005 -0.8577773536705174 -0.43936791085980853
4097000000.0000005 -0.8926030592635981 -0.43434185803459435
4099999999.9999995 -0.8811396229932474 -0.4160973486314278
4102999999.9999995 -0.9144985562884628 -0.41837264059885815
4106000000.0 -0.9491118588208748 -0.3712126800655107
4109000000.0 -0.9348264755785083 -0.3951866452212819
4112000000.0 -0.9317457925545666 -0.33765753658307407
4115999999.9999995 -0.956222631436149 -0.31737253093726225
4119000000.0 -0.9572846971162544 -0.34339697031550626
4122000000.0 -0.9401091391339577 -0.27011468627744745
4125000000.0 -0.9369026100178681 -0.27683730651880184
4128000000.0 -0.9544134007736452 -0.26164819259470684
4131000000.0 -0.9881809082479123 -0.19837678738605055
4134000000.0000005 -0.9915292935041193 -0.20720199516114082
4138000000.0 -1.001882784937355 -0.18459923290407526
4141000000.0 -0.9902369957706215 -0.1666899755733019
4144000000.0 -0.9968351473593129 -0.1582508747807209
4147000000.0000005 -1.04580630255585 -0.13680409899755935
4150000000.0000005 -1.0166409470189024 -0.06597738900165363
4152999999.9999995 -1.0040034765789885 -0.0885249284634004
4155999999.9999995 -1.0221263431472105 -0.041607591042751885
4159000000.0 -0.9926443319939207 0.010713930083757123
4162000000.0 -1.0110909056192299 0.022846366924560435
4166000000.0000005 -1.0241479716779074 0.023862891800818867
4168999999.9999995 -0.9990773655336584 0.06729587499585932
4171999999.9999995 -0.9958047468569864 0.08807862228766089
4175000000.0 -1.0327396079612912 0.11613976710470786
4178000000.0 -1.0314835952792658 0.13232340568045287
4181000000.0 -0.9725119148115008 0.16794781603888728
4184000000.0 -0.9797441092914514 0.1890286615872363
4187999999.9999995 -0.991233077757601 0.2233901782095992
4191000000.0 -0.9973154813952627 0.25501547669012187
4194000000.0 -0.9984040969580658 0.28033411697711996
4197000000.0 -0.9403402558217775 0.2807574732686864
4200000000.0 -0.982735703785827 0.3411866191796227
4203000000.0000005 -0.968532821865793 0.3507364574501477
4206000000.0000005 -0.9253752357786692 0.38694705321717626
4208999999.9999995 -0.9369329049795314 0.407610924912701
4211999999.9999995 -0.9156556102878245 0.44830441532075105
4216000000.0 -0.9166194948558396 0.46409696828738267
4219000000.0000005 -0.8878112249219873 0.49256757960578607
4222000000.0000005 -0.8850456652192185 0.49048129701150656
4224999999.9999995 -0.8718584068013535 0.5513851573783803
4227999999.9999995 -0.8128132800720141 0.5355898721780955
4231000000.0 -0.8194255748367159 0.5987063241905143
4234000000.0 -0.8404594667061657 0.6254411912535316
4238000000.0000005 -0.7852573594901684 0.6506727607671277
4240999999.9999995 -0.8094846671581334 0.6677606631647948
4244000000.0 -0.7686455682764382 0.6531283589881497
4247000000.0 -0.7408524140732943 0.7187605964437339
4250000000.0 -0.7911720964718141 0.7519581266379979
4253000000.0 -0.7308012860955626 0.7060803352252673
4256000000.0 -0.6446608291613981 0.750625472553425
4259000000.0000005 -0.6905322846166007 0.8363631902583345
4261999999.9999995 -0.6382669701237726 0.8212436947600283
4266000000.0 -0.6407580688390664 0.7876568412681146
4269000000.0 -0.6190332157564706 0.8700909764526781
4272000000.0000005 -0.5714139388783801 0.8367465749882639
4275000000.0000005 -0.5583968892761324 0.8688449744233069
4277999999.9999995 -0.4966715217514598 0.8438645119022853
4280999999.9999995 -0.4792906725725985 0.9146674358575324
4284000000.0 -0.506107893889222 0.926714432228289
4288000000.0000005 -0.39957498133693437 0.9418838553586893
4291000000.0000005 -0.4583410168891159 0.9475616914030989
4293999999.9999995 -0.41475017820413346 0.9731312772567482
4297000000.0 -0.3289008533355941 0.9719973992646169
4300000000.0 -0.3493775256993227 1.0875181300041683
4303000000.0 -0.41553931951200634 1.025348150890232
4306000000.0 -0.2491071264227237 1.0382405188506547
4309000000.0 -0.26655678939494704 1.0340376488883951
4312000000.0 -0.1963386645317396 1.0165229112840601
4316000000.0 -0.18907925438077655 0.9775503513025072
4319000000.0 -0.22480724430128451 1.0575666004232405
4322000000.0 -0.12903920974185368 1.0427056047085843
4325000000.0 -0.1481146891867493 1.012070012444952
4328000000.0 -0.040172229096398004 1.074909306798936
4331000000.0 -0.051209308086045735 1.0524045920854417
4334000000.0 -0.07733141533909621 1.0373349281604154
4338000000.0 -0.019834006933855286 1.057776020230869
4341000000.0 0.011367305033720854 1.049159534484411
4344000000.0 0.007929914367398982 1.0064795179838355
4347000000.0 -0.015803416250108726 1.0271647742449606
4350000000.0 0.08670807886702409 1.0998842226565537
4353000000.0 0.12728951525692717 1.0099257135894204
4356000000.0 0.038400085104173476 1.0759812264580557
4359000000.0 0.11674910615223577 1.0753202562892026
4362000000.0 0.11214557818649251 0.9873628137136333
4366000000.0 0.19590144201695797 0.9938357968452759
4369000000.0 0.20635126576519092 1.0567745771034378
4372000000.0 0.22622486547965204 1.0521430516061911
4375000000.0 0.2677699461126555 0.9835673338140878
4378000000.0 0.2899733852395132 1.0920124859197062
4381000000.0 0.3125384095866364 1.0552257119171484
4384000000.0 0.313677889706701 0.9016972931913652
4388000000.0 0.34208401226524043 0.9862582699172167
4391000000.0 0.3459735885733308 0.9711114271968702
4394000000.0 0.3218239991219572 0.9869277641312064
4397000000.0 0.38339552202827915 0.961556347274888
4400000000.0 0.4071264930726233 0.9824495255148636
4403000000.0 0.3905581653665868 0.9807859813976046
4406000000.0 0.4871151236752518 0.9040786903316037
4409000000.0 0.3861140429152742 0.889510669791459
4412000000.0 0.3593847710899936 0.9424464095966147
4416000000.0 0.4573143198848625 0.9153554635153021
4419000000.0 0.44427766085643994 0.9237612592201003
4422000000.0 0.5242588409524013 0.8987295773683247
4425000000.0 0.5117850263943082 0.9076278817532278
4428000000.0 0.5621656867895027 0.8919649207271245
4431000000.0 0.5315577807700697 0.9103865838860716
4434000000.0 0.566227984414946 0.8917670188726058
4438000000.0 0.5762478409747583 0.8320428486532061
4441000000.0 0.5753581337858819 0.8545153098419903
4444000000.0 0.6257075531946551 0.857941839357374
4447000000.0 0.6331971873113049 0.8664181089217013
4450000000.0 0.638942291772451 0.8281142283109335
4453000000.0 0.6742107905990335 0.798495666469394
4456000000.0 0.6826070300403037 0.8039980743340714
4459000000.0 0.7222908224182492 0.7578354356673453
4462000000.0 0.6907425546801135 0.7882880437642964
4466000000.0 0.6939322517368255 0.7757836589329282
4469000000.0 0.715899396773429 0.7588083928930713
4472000000.0 0.7353245078721238 0.7152047616960086
4475000000.0 0.7585629474565095 0.7523976932520595
4478000000.0 0.740360335145174 0.726239121856658
4481000000.0 0.75873025160564 0.7229658251967103
4484000000.0 0.7792472448857325 0.6917171959254376
4488000000.0 0.7732327551937672 0.661216215793134
4491000000.0 0.7722667212218988 0.6804555370101253
4494000000.0 0.800950300689413 0.6884408845212877
4497000000.0 0.7969874293321224 0.6417939502368042
4500000000.0 0.8025862831080781 0.6497644525598332
4503000000.0 0.8115746085392759 0.6650254039839627
4506000000.0 0.7947340196278518 0.6492449206456878
4509000000.0 0.8190911035477312 0.5969096550143992
4512000000.0 0.8089583108971417 0.5956418251092552
4516000000.0 0.8389286843997283 0.5977740614610993
4519000000.0 0.8384339978229212 0.6089275030790356
4522000000.0 0.8212400372722266 0.5656650676081991
4525000000.0 0.8206527479089183 0.5749502063275913
4528000000.0 0.9007583891800792 0.5573929641874995
4531000000.0 0.8583947330700997 0.5239522961189647
4534000000.0 0.8579654259752614 0.5398434020288505
4538000000.0 0.8843339944553626 0.5129943076216803
4541000000.0 0.902954854992334 0.4909933384911258
4544000000.0 0.8917383803578345 0.5057157406354179
4547000000.0 0.882309300192466 0.48693346039724883
4550000000.0 0.9272521358908976 0.4847728298896824
4553000000.0 0.9037029179768569 0.484924264455217
4556000000.0 0.8783795377438715 0.4358089597002849
4559000000.0 0.9123802277194568 0.41893351962568004
4562000000.0 0.9422424351040979 0.45190912488448853
4566000000.0 0.9361872674092535 0.4297042897870402
4569000000.0 0.9040898125649677 0.4193414583517149
4572000000.0 0.9057619440104958 0.41107800770827596
4575000000.0 0.9209775565924065 0.3796578798771578
4578000000.0 0.9483653510237513 0.4331370416229348
4581000000.0 0.9825533947197949 0.3938480145089776
4584000000.0 0.9257930301952237 0.37581040885371836
4588000000.0 0.9460688940820168 0.3801785429134713
4591000000.0 0.9423438617312984 0.39367860918301883
4594000000.0 0.9619436218185712 0.3719010400386995
4597000000.0 1.0120393299431685 0.3512668205863856
4600000000.0 0.9316941319231873 0.28481602569332687
4603000000.0 0.9680442120931703 0.35156994089708477
4606000000.0 0.9536870937405297 0.33854949933213374
4609000000.0 0.9945286446918877 0.2873662896906344
4612000000.0 0.9921964003592285 0.3184056376967838
4616000000.0 0.9725202607094672 0.3076590596003243
4619000000.0 0.9779405205773557 0.35393645276387775
4622000000.0 0.9401181858806923 0.3047711375873069
4625000000.0 0.9119022756454161 0.25059770272132564
4628000000.0 0.9083734198510385 0.28978754463341544
4631000000.0 0.9466070086478188 0.22034245096545627
4634000000.0 0.9596378545788021 0.2602586878676
4638000000.0 0.9689637922287485 0.255544558256732
4641000000.0 1.0070066076025563 0.2532346612292154
4644000000.0 0.9980505469958799 0.24423267341034366
4647000000.0 0.9926503197593672 0.2228212321110831
4650000000.0 1.023765886913752 0.17651396748119907
4653000000.0 0.9938988028495356 0.20369949258374812
4656000000.0 1.0027504714380442 0.15898063767755402
4659000000.0 0.9853517639092761 0.19659554514598904
4662000000.0 0.9597399545217845 0.20732519533221608
4666000000.0 0.9903576492638034 0.19207227273842836
4669000000.0 0.9869956376280514 0.19241514747740457
4672000000.0 0.9845821762202727 0.13467095599804535
4675000000.0 0.9561928487616635 0.12996792932647078
4678000000.0 0.9874094572858724 0.1581400394852897
4681000000.0 1.023611760571033 0.10778817556544901
4684000000.0 0.9311324606122375 0.11526939950269957
4688000000.0 0.9733180280871765 0.15978073706436102
4691000000.0 0.9483756433145542 0.11821616153872411
4694000000.0 1.0345495067079753 0.09016527379931305
4697000000.0 1.0205551343667012 0.11907975198593432
4700000000.0 1.0219109599842788 0.12019158136521743
4703000000.0 1.0569904597843325 0.05491123636377857
4706000000.0 0.9909485498655557 0.12216250723436237
4709000000.0 0.9982669493204595 0.07676875688626116
4712000000.0 0.9942145437507642 0.05338014568067527
4716000000.0 1.0100775464112586 0.062208696617071714
4719000000.0 1.0498606210744583 0.030553007822887498
4722000000.0 1.0392011986280112 0.05515977924905885
4725000000.0 1.0110093721756246 0.026961461534202404
4728000000.0 0.9945681045747923 0.028921595363354355
4731000000.0 1.0072409061627572 0.04867661858158409
4734000000.0 1.013936421857731 0.04332425943894148
4738000000.0 0.9783096969778746 0.01704453261639227
4741000000.0 0.9944668101109297 0.03486630482498268
4744000000.0 1.0103876078359313 -0.015991394598096204
4747000000.0 1.0153435123022387 0.013956692793283813
4750000000.0 0.985775834461831 -0.020251978174871094
4753000000.0 1.0148522538919853 -0.02703152169072573
4756000000.0 1.004241271755161 -0.04007141773602184
4759000000.0 1.0024371941919004 -0.024385097134635686
4762000000.0 0.9929906849010486 -0.008542297146933192
4766000000.0 0.9773395918799028 -0.03526728440965328
4769000000.0 1.0509228247674205 -0.012612286771056358
4772000000.0 1.0374540806287333 -0.0483750209771486
4775000000.0 0.9908332686748325 -0.045659239246002264
4778000000.0 1.0158446759688602 0.009351456263661378
4781000000.0 0.9969046392310654 -0.029891225263683208
4784000000.0 1.0115186350860876 -0.024543318714551482
4788000000.0 1.0123109777260264 -0.03936932248185507
4791000000.0 1.008038529037137 -0.07246454530354277
4794000000.0 1.0007654117815323 -0.06896824005843202
4797000000.0 1.0173145107916093 -0.09198949848920543
4800000000.0 1.0172496307335641 -0.10105985308018559
4803000000.0 0.9897617338458466 -0.08249123927742072
4806000000.0 1.0147488807489125 -0.07285336570321707
4809000000.0 0.9996731258093907 -0.1205643884843921
4812000000.0 1.0219042398236595 -0.10582686196347343
4816000000.0 1.0220781083483483 -0.12301174226266551
4819000000.0 1.020664167366082 -0.1275772697138795
4822000000.0 1.0064583195660475 -0.1097854394170778
4825000000.0 1.001784367452805 -0.1063330394272653
4828000000.0 0.9817493513780662 -0.11492677830049597
4831000000.0 1.037140570536323 -0.12963683138694843
4834000000.0 1.0131540909842793 -0.12823321871458143
4838000000.0 1.0168933641143716 -0.1435805981390545
4841000000.0 1.0159113661478134 -0.15002166182083027
4844000000.0 0.9988943403054351 -0.13107648981821501
4847000000.0 0.986811182745666 -0.13942858480902875
4850000000.0 1.0086048434597792 -0.15706327978130152
4853000000.0 1.022755151383902 -0.16302615146351385
4856000000.0 0.9969303030442301 -0.17584290778203404
4859000000.0 1.0134144894724937 -0.1589783794562858
4862000000.0 0.9805364066657518 -0.15594229727300962
4866000000.0 1.0223300819420145 -0.1698175113571056
4869000000.0 1.0148324986156045 -0.21132225726100928
4872000000.0 1.0051034021283543 -0.20579110166023018
4875000000.0 1.0273500761943954 -0.17207875624148855
4878000000.0 1.0152149971223807 -0.20003983190143532
4881000000.0 1.0173064111414283 -0.19393117596100157
4884000000.0 1.0046687460076624 -0.184741370875182
4888000000.0 1.012557547198425 -0.1794340659713447
4891000000.0 1.0214563389656586 -0.18120580112683565
4894000000.0 0.993532487490141 -0.21992250231756366
4897000000.0 0.9952381212531334 -0.1900124562007472
4900000000.0 0.9772765324690396 -0.23129630620946112
4903000000.0 1.0247171562092472 -0.19255371320397596
4906000000.0 1.024458913669166 -0.22451632320638032
4909000000.0 1.0032129601104145 -0.22280333430494564
4912000000.0 1.007244781317545 -0.2387421105717995
4916000000.0 1.0196883088556694 -0.23072025679473557
4919000000.0 1.0174028305981961 -0.2255249905008076
4922000000.0 1.019944788773327 -0.21620279774443107
4925000000.0 0.9844063150866634 -0.24925873021148987
4928000000.0 0.987796982143833 -0.20525329519596264
4931000000.0 1.0057882713566781 -0.2300882679933458
4934000000.0 0.9575169152646106 -0.24090004324771247
4938000000.0 0.955119501977684 -0.26724252907280005
4941000000.0 0.9843517763412554 -0.24421617458531275
4944000000.0 0.9473770384432785 -0.23970322543075906
4947000000.0 0.9617001958270948 -0.2595418748065597
4950000000.0 0.9571293137682433 -0.2902574711414875
4953000000.0 0.9992522109404753 -0.3097044226062763
4956000000.0 1.0150222352653178 -0.28259448221768246
4959000000.0 0.9362947518533014 -0.3078999806626327
4962000000.0 1.0050378062728678 -0.28956173654664724
4966000000.0 0.9953202798575183 -0.25372653705193055
4969000000.0 1.0183111187592608 -0.26550981547407265
4972000000.0 0.9962349931823943 -0.2972166346011063
4975000000.0 0.9787212706599724 -0.26641997790912836
4978000000.0 0.9535613129553941 -0.29531259880459404
4981000000.0 0.974529936495042 -0.32151427574552705
4984000000.0 0.9687679678104211 -0.26854729407267175
4988000000.0 0.9918719010810415 -0.3049971681516254
4991000000.0 1.0114723666795007 -0.2602770907594688
4994000000.0 0.962191476829479 -0.2773378716274899
4997000000.0 0.9604142448929875 -0.3152149387758866
5000000000.0 1.0088728242965121 -0.28652072872047324
5003000000.0 0.9972172717751614 -0.2983674346866925
5006000000.0 1.0173960203419388 -0.31516679471342673
5009000000.0 1.0114286324891197 -0.3109329581430385
5012000000.0 0.9695552496688653 -0.324922976929647
5016000000.0 1.0118922783352005 -0.2940429831724616
5019000000.0 0.9667489435378875 -0.32258870424935115
5022000000.0 0.9690036555858809 -0.3369880380895292
5025000000.0 1.0325041455356296 -0.36895018895176934
5028000000.0 0.9849517267248208 -0.34072197297618817
5031000000.0 0.998094537533022 -0.32898497486954853
5034000000.0 1.0024022417915268 -0.3631886377383948
5038000000.0 0.9580047018996363 -0.3491919319205338
5041000000.0 1.0080723866608394 -0.2849400880270438
5044000000.0 0.9606303838779051 -0.2769910197394013
5047000000.0 1.0265340985282159 -0.28968278485966886
5050000000.0 0.9777961165592448 -0.2366122896554082
5053000000.0 1.031555764412844 -0.35759596405986177
5056000000.0 1.0070442137544309 -0.29063461011541303
5059000000.0 1.006170726686987 -0.2514880857180867
5062000000.0 0.9805711089557583 -0.38192251291232726
5066000000.0 0.9498053382708025 -0.27646514947949735
5069000000.0 0.980896587336274 -0.3539283861144712
5072000000.0 0.9352015530457434 -0.3482178424563208
5075000000.0 0.9821296491035418 -0.32631546084254826
5078000000.0 0.9466980759957 -0.4036441697327497
5081000000.0 0.9050502442612424 -0.3298496167784002
5084000000.0 1.0337697370401664 -0.3832891799734407
5088000000.0 0.9575728823846346 -0.3426614887470633
5091000000.0 0.9828004602939124 -0.4228930312675852
5094000000.0 1.0044644871888275 -0.34613139141968385
5097000000.0 1.0184008218688023 -0.3342790888280581
5100000000.0 0.9535202207768807 -0.33230447315243117
5103000000.0 0.983322448033291 -0.37333921437223083
5106000000.0 1.0386305713145088 -0.3246775861307539
5109000000.0 0.9717177386826492 -0.34497743390436464
5112000000.0 0.9477831474941832 -0.333125640555249
5116000000.0 0.944886895398644 -0.33917089898796005
5119000000.0 1.0183254377388649 -0.33296101460643907
5122000000.0 1.0203762672945542 -0.3337277903261924
5125000000.0 0.9625471600954701 -0.40197500578293577
5128000000.0 0.9198845570538412 -0.3736907078255184
5131000000.0 0.9427937716589128 -0.36707640865275115
5134000000.0 0.9949647335924431 -0.3773827723128991
5138000000.0 0.9829378607644014 -0.3788352104519402
5141000000.0 0.9447576643719551 -0.2855130306167194
5144000000.0 1.0276920668326024 -0.37379180710753823
5147000000.0 0.9783587276545079 -0.36033712283229596
5150000000.0 0.9190882769571489 -0.2932130398527667
5153000000.0 0.9134876573938492 -0.364848999455207
5156000000.0 1.0348434213809043 -0.3874524380827391
5159000000.0 1.007566566413273 -0.34145076421540516
5162000000.0 0.9169755545412129 -0.3608654699616099
5166000000.0 1.025152416032736 -0.4139131359587221
5169000000.0 0.993255534875743 -0.37095920082531375
5172000000.0 0.9347526586849045 -0.36638932100010246
