! Created with skrf 1.8.0 (http://scikit-rf.org).
# Hz S RI R 50.0 
!freq ReS11 ImS11
4000000000.0 0.4206202335652047 -0.9412284040289058
4003000000.0 0.40523857437430394 -0.9649869931167
4006000000.0 0.3657299397299629 -0.9570889460973282
4009000000.0000005 0.45674785308430155 -0.9521055828642547
4011999999.9999995 0.47151297110419954 -0.8827158352270196
4016000000.0 0.392241569322508 -0.9832395455835079
4019000000.0 0.42609197053003967 -0.9786130847253057
4022000000.0000005 0.4526920770101639 -0.9392149764036293
4025000000.0000005 0.37374961023270903 -0.9483028885921607
4027999999.9999995 0.4054804693318833 -0.9764999795044946
4030999999.9999995 0.419144676347498 -0.8880453549198727
4034000000.0 0.40778327390640356 -0.9196231639308237
4038000000.0000005 0.4175049443067068 -0.9970177257193662
4041000000.0000005 0.4367843955701429 -0.9741083360534617
4043999999.9999995 0.42049035945070534 -0.9961651422083013
4046999999.9999995 0.43323274550235397 -0.964807432692522
4050000000.0 0.43057486766721376 -0.9808343631537274
4053000000.0 0.3835356403419532 -0.9383804172057494
4056000000.0 0.4093129219915802 -0.939133794751677
4059000000.0 0.378665208357386 -0.8902497210387859
4062000000.0000005 0.40962009455105064 -0.9422398286894869
4066000000.0 0.38175892407961665 -0.9153711094572691
4069000000.0 0.38856542730256427 -1.0064116543194603
4072000000.0 0.42746927243085364 -0.9515740664228431
4075000000.0 0.47848294846580186 -0.9786245331999182
4078000000.0000005 0.39000261242395745 -0.9596786461341721
4081000000.0000005 0.45944489139422723 -0.9165314839483891
4083999999.9999995 0.37583600947881163 -0.9837823404231869
4088000000.0 0.45655226533842364 -0.9602038146926292
4091000000.0 0.44743199276024925 -0.9759828162232749
4094000000.0000005 0.3884105509054221 -0.9507259985466736
4097000000.0000005 0.4318807831426934 -0.9596653164494366
4099999999.9999995 0.4123776318391959 -0.9415015957398191
4102999999.9999995 0.4348319241970259 -0.9615928966988195
4106000000.0 0.40213071286161156 -0.980816836090553
4109000000.0 0.39446463656465286 -0.9944478937812999
4112000000.0 0.3954381711237321 -0.9477594940644439
4115999999.9999995 0.4141861888147846 -0.9291344517254397
4119000000.0 0.3889014290265138 -0.9567503563046211
4122000000.0 0.3727028562055982 -0.9645376849392232
4125000000.0 0.3650640982450435 -0.9537292367870479
4128000000.0 0.4101456624438889 -0.9215645596129853
4131000000.0 0.3887925360688214 -0.9161093627729776
4134000000.0000005 0.4200331521903217 -0.9390221244379539
4138000000.0 0.3951262229615143 -0.9410621441388879
4141000000.0 0.41595573352262494 -0.9445426664313367
4144000000.0 0.4285679186326879 -0.9662112310008922
4147000000.0000005 0.3801197187986672 -0.9476469430997438
4150000000.0000005 0.4071944905502112 -0.9816022848928074
4152999999.9999995 0.3978286390781976 -0.9360598988107603
4155999999.9999995 0.43924953149711765 -0.945779709720181
4159000000.0 0.37679228919705954 -0.9265801875404147
4162000000.0 0.40710856996292244 -0.9358430943766336
4166000000.0000005 0.3864176331011549 -0.9771291042178207
4168999999.9999995 0.3747269000611647 -0.9419200874500157
4171999999.9999995 0.4144415493394983 -0.9499095048155942
4175000000.0 0.39660780963661096 -0.9551249161080291
4178000000.0 0.4076238439503387 -0.9572846289457159
4181000000.0 0.39364691661627127 -0.9352954046782911
4184000000.0 0.4042378650177735 -0.9341537133433643
4187999999.9999995 0.37202158536028707 -0.9517932950772937
4191000000.0 0.42861710424772015 -0.9268794616667908
4194000000.0 0.3839847805575085 -0.9344489578761568
4197000000.0 0.40688941740610196 -0.9635513394898002
4200000000.0 0.4328678682419693 -0.9456636034311697
4203000000.0000005 0.40711847013252417 -0.9776830211451103
4206000000.0000005 0.39843202800315136 -0.9695875712559133
4208999999.9999995 0.3760603563872532 -0.9353675703989596
4211999999.9999995 0.36467565857767303 -0.9509224554673625
4216000000.0 0.4097973943336823 -0.9462827200931319
4219000000.0000005 0.41294100364584607 -0.9409444201077095
4222000000.0000005 0.37546641124211744 -0.9455000031057129
4224999999.9999995 0.3908491529454075 -0.9270930786302904
4227999999.9999995 0.38691916476011845 -0.9638797290474919
4231000000.0 0.379270843619015 -0.9441251916369668
4234000000.0 0.3852819663301285 -0.9557520958228889
4238000000.0000005 0.37402027077611394 -0.9562410403232391
4240999999.9999995 0.3612655248354058 -0.9441994724716253
4244000000.0 0.3701478977167252 -0.9271784004011585
4247000000.0 0.37971501130789864 -0.9483834567692551
4250000000.0 0.37195450038852446 -0.9199916592533087
4253000000.0 0.37542276300257604 -0.9257163953947001
4256000000.0 0.37432787758593083 -0.9799402859392439
4259000000.0000005 0.3521564165598151 -0.9102618382493451
4261999999.9999995 0.3665002849381442 -0.9515034968709469
4266000000.0 0.35443094781530915 -0.9609870253429186
4269000000.0 0.3942889609114276 -0.9456021244821302
4272000000.0000005 0.36660310825782666 -0.9377070999201069
4275000000.0000005 0.3895344727573596 -0.9456455037330608
4277999999.9999995 0.39055862884837683 -0.9881386994329389
4280999999.9999995 0.38639010690299397 -0.9472623427624255
4284000000.0 0.32559714097214154 -0.9644769490332086
4288000000.0000005 0.3931711282217684 -0.9148605511353328
4291000000.0000005 0.35224137798828464 -0.9137081343219312
4293999999.9999995 0.3614393688915296 -0.935241513210586
4297000000.0 0.39528303915094154 -0.9297481454669296
4300000000.0 0.37513999019557354 -0.9217891820701875
4303000000.0 0.3523503040929752 -0.9366226677543055
4306000000.0 0.40348039676135283 -0.9299865065148403
4309000000.0 0.3683768249655124 -0.949092073504197
4312000000.0 0.40941952389036984 -0.9643395596734425
4316000000.0 0.369059161583884 -0.9451347738005359
4319000000.0 0.3811165345128863 -0.9334410005536833
4322000000.0 0.33177973745914413 -0.93089305499862
4325000000.0 0.3553612462108984 -0.922635291384553
4328000000.0 0.3456566357325992 -0.9379791726470633
4331000000.0 0.3217243526007082 -0.9611092076627296
4334000000.0 0.34758150074617367 -0.9462307665093859
4338000000.0 0.3411304290260757 -0.9538207036040756
4341000000.0 0.38740926650786967 -0.9485650891023263
4344000000.0 0.37336734431548424 -0.9718593986907554
4347000000.0 0.33271338390103367 -0.977626006457933
4350000000.0 0.31139268152208144 -0.9163784727690566
4353000000.0 0.3633424078361768 -0.9232977920615512
4356000000.0 0.32647320858661966 -0.9374472773856435
4359000000.0 0.32836439443749627 -0.9148504520070682
4362000000.0 0.3137725059511821 -0.9778821425664416
4366000000.0 0.3335869335145828 -0.9740050549566117
4369000000.0 0.3124385600760881 -0.9021864968112698
4372000000.0 0.28615854273252556 -0.9554693383029786
4375000000.0 0.3518092311270699 -0.943628701025421
4378000000.0 0.3277215351839546 -0.9374009860279899
4381000000.0 0.34497934390223245 -0.9317191152209969
4384000000.0 0.3527884489400475 -1.0110540305260742
4388000000.0 0.33864435965559614 -0.9359513651417537
4391000000.0 0.34638104800408803 -0.963007443176868
4394000000.0 0.3175080556246199 -0.938949109476509
4397000000.0 0.318934266089836 -0.9559556509994023
4400000000.0 0.3322120147199459 -0.9750572898729852
4403000000.0 0.33313787055724275 -0.9657886404706808
4406000000.0 0.3128119950883984 -0.9797228745395716
4409000000.0 0.3277920751340594 -0.9919314720576082
4412000000.0 0.2612271923759207 -0.9659726465263689
4416000000.0 0.3063655894800526 -0.9570101913040607
4419000000.0 0.30459360893272563 -0.9690791422125803
4422000000.0 0.34360728091119397 -0.9465898891889347
4425000000.0 0.34609396813971477 -0.9685074928186925
4428000000.0 0.311915604031848 -0.9748611314126351
4431000000.0 0.32252564244242843 -0.9675504608400463
4434000000.0 0.30212000473888084 -0.9579740526300802
4438000000.0 0.32900174610354593 -0.9806176979032255
4441000000.0 0.3066734403064157 -0.962588567967962
4444000000.0 0.3037926807910898 -0.9513159595128657
4447000000.0 0.2905738632811134 -0.9762770137454649
4450000000.0 0.29724839846888507 -0.965265687177743
4453000000.0 0.3105598582814771 -0.9857173804547998
4456000000.0 0.29129693838424314 -0.9493354890457169
4459000000.0 0.2706568634814387 -0.9292971667786548
4462000000.0 0.308098914299723 -1.0243427356316372
4466000000.0 0.30858759190326646 -1.014895230718303
4469000000.0 0.3245393443277275 -0.9663985633170256
4472000000.0 0.28494702951901724 -0.9916463392985839
4475000000.0 0.2880978199312716 -0.9495054468433055
4478000000.0 0.2800155121646903 -1.0086378296814622
4481000000.0 0.27336699346069054 -0.9373262143762072
4484000000.0 0.2548799240602004 -0.9976529163599919
4488000000.0 0.27337715921982275 -0.9657580393107641
4491000000.0 0.3015592072479755 -0.9718132439278657
4494000000.0 0.2862978311532841 -0.9553863316769247
4497000000.0 0.30626610336523785 -0.9575585596230267
4500000000.0 0.27942991941410655 -0.9784450611597595
4503000000.0 0.29222788769795016 -1.0003274641755449
4506000000.0 0.2644355789286262 -0.9791908076996577
4509000000.0 0.27723664848997825 -0.9719341528803758
4512000000.0 0.23778913435676302 -0.9718605453535317
4516000000.0 0.2954720459864956 -0.9928366280888796
4519000000.0 0.2870504398202631 -0.9711122829519597
4522000000.0 0.2674271770350463 -0.9658960884565622
4525000000.0 0.30262270843884403 -0.9663318052642788
4528000000.0 0.27013577465124217 -0.9943891428527465
4531000000.0 0.25679488509457227 -0.971321776745051
4534000000.0 0.2609051979180585 -0.9538029968384698
4538000000.0 0.2630001095895259 -0.9801629008367461
4541000000.0 0.24412787061826197 -0.983985340183964
4544000000.0 0.2466175328319764 -0.977834564355435
4547000000.0 0.2772753977270375 -0.9619697158502439
4550000000.0 0.262417010467533 -0.985557582464177
4553000000.0 0.2578976261467634 -0.9711970285262158
4556000000.0 0.25300629637106775 -0.9694671509055921
4559000000.0 0.23847949802681861 -0.9825476429466831
4562000000.0 0.2464059739249579 -0.9791627770353035
4566000000.0 0.25384775353140876 -0.9753905635016173
4569000000.0 0.2523051940624038 -0.9774987801708775
4572000000.0 0.23247185249378233 -0.9840130788180601
4575000000.0 0.23593603060172424 -0.9957038806634497
4578000000.0 0.23982510924208073 -0.9930898639038545
4581000000.0 0.2345056143223963 -0.9962680738779832
4584000000.0 0.22933082316656006 -0.9914297476803466
4588000000.0 0.24128860898241894 -1.0095847105427829
4591000000.0 0.25210443540992317 -0.9974252275249542
4594000000.0 0.22070250635889316 -0.9860109216526278
4597000000.0 0.2209665977862021 -1.005558924552643
4600000000.0 0.22010233511573674 -0.9877900745440227
4603000000.0 0.19765945848038496 -1.0003376107233228
4606000000.0 0.2262795705127087 -0.9928394358445923
4609000000.0 0.23398366237149154 -0.9870068477639256
4612000000.0 0.2184447331207895 -0.9885747719216081
4616000000.0 0.2125063180381726 -0.9807541423275623
4619000000.0 0.21828666328381904 -0.9695072704339438
4622000000.0 0.1891103509101877 -0.9747690821580216
4625000000.0 0.17407426328219688 -0.9670204144612589
4628000000.0 0.23874846638108063 -1.019560296263427
4631000000.0 0.2112435002543381 -0.9943027686733924
4634000000.0 0.1898846416423623 -0.9914921089305492
4638000000.0 0.21711226022985272 -0.9921074992279502
4641000000.0 0.19451732417000267 -1.0016186972231165
4644000000.0 0.2229914543748514 -0.9902967406761871
4647000000.0 0.1951338183563717 -0.9889241488529165
4650000000.0 0.19333625777869445 -0.9834842208234355
4653000000.0 0.19100560164059927 -1.0090517841592435
4656000000.0 0.19554539459017303 -0.9930890627267288
4659000000.0 0.17850381599825352 -0.9959264162123822
4662000000.0 0.182657125692458 -1.018581666188878
4666000000.0 0.16270176478045684 -1.0057428640973995
4669000000.0 0.2139833448407574 -0.9949579003117525
4672000000.0 0.175122777406876 -1.0503449016525952
4675000000.0 0.17879483641475946 -1.0174579265430301
4678000000.0 0.17240500390108005 -0.9521422308035769
4681000000.0 0.1610343703780608 -1.0374326362848052
4684000000.0 0.1786060766237731 -1.011355933937348
4688000000.0 0.17823764861667457 -0.9973787953000001
4691000000.0 0.1774341665826505 -1.0240388133616798
4694000000.0 0.19950842290052254 -0.9714499107756512
4697000000.0 0.11392887641719832 -0.9454998088656756
4700000000.0 0.20277892843840228 -0.9834466852886032
4703000000.0 0.2246747739192489 -0.9520240788068203
4706000000.0 0.13766263307150806 -1.0178905319198075
4709000000.0 0.15228520262733952 -0.9841748415449353
4712000000.0 0.18437632118768085 -0.9954940849205487
4716000000.0 0.14128689329526692 -1.0476207997949405
4719000000.0 0.20500642093499222 -0.987881352713273
4722000000.0 0.18215245617285208 -1.0033292689112527
4725000000.0 0.16825433033881415 -0.9739218750752696
4728000000.0 0.15448533058818184 -1.01465851766885
4731000000.0 0.16691964883891225 -1.0600413513807254
4734000000.0 0.19025214227335005 -0.9908750928090608
4738000000.0 0.17749918432597414 -1.0485908107451498
4741000000.0 0.15319189137746106 -1.0697351683441079
4744000000.0 0.14717989252090372 -1.0156008980693108
4747000000.0 0.1768000093641573 -1.004730824115996
4750000000.0 0.18528529614234676 -1.0154397722166593
4753000000.0 0.18489976735007524 -1.012533531918381
4756000000.0 0.13400602715669677 -1.0150736354402412
4759000000.0 0.18120613453027798 -1.052752106699997
4762000000.0 0.08223729096177389 -1.0498490803007738
4766000000.0 0.12085695491004608 -1.03388747523655
4769000000.0 0.13755788970392993 -1.0395867685518891
4772000000.0 0.15524454830743067 -1.0073629822616208
4775000000.0 0.12146596556413909 -1.0588126560095417
4778000000.0 0.10268215795055222 -1.0347292576668279
4781000000.0 0.13345139236177256 -0.9868878309166066
4784000000.0 0.1445153539284017 -1.0189729390376214
4788000000.0 0.12778680400951292 -1.0427153665363953
4791000000.0 0.1238548890959426 -1.0261972222705567
4794000000.0 0.1964330795173231 -1.0528850494390718
4797000000.0 0.12240939175595794 -0.9978000097842125
4800000000.0 0.12697933097233255 -1.0031124741767188
4803000000.0 0.049447412592504875 -1.0284496612943028
4806000000.0 0.12265827031759245 -1.0324899790343909
4809000000.0 0.05757669507377272 -1.0233159925328095
4812000000.0 0.06442356723661441 -1.0222731796876618
4816000000.0 0.1460851186606305 -1.027734490492656
4819000000.0 0.13099481512811254 -1.0567764111530569
4822000000.0 0.1582304959438596 -1.0746727534713285
4825000000.0 0.1690465950180205 -1.0560522051804595
4828000000.0 0.09429109318730816 -1.0405597961704545
4831000000.0 0.06379538993208639 -1.0555553626494145
4834000000.0 0.13761494427239054 -1.0338015756584193
4838000000.0 0.07188299185994676 -1.0440916965320095
4841000000.0 0.06510769271409489 -1.0228593671314958
4844000000.0 0.1431631399963882 -1.0372016732071312
4847000000.0 0.12917649629737854 -0.9944716163645129
4850000000.0 0.0752674081565809 -1.0392223970407244
4853000000.0 0.1045564689603426 -1.008222673338943
4856000000.0 0.10263200935239147 -1.0220199594559554
4859000000.0 0.08746165838388603 -1.0743317849512892
4862000000.0 0.1082401519477495 -1.009510617786526
4866000000.0 0.07045002091599223 -1.0524873156795334
4869000000.0 0.09380908566580365 -1.0182034478176132
4872000000.0 0.0731940805634182 -1.0612274985321595
4875000000.0 0.1529013347683294 -1.0879148862771155
4878000000.0 0.08856033275302105 -1.0447168824200255
4881000000.0 0.06084311986977625 -1.1220901253144173
4884000000.0 0.11849368079574285 -1.04497697281891
4888000000.0 0.13781672232907594 -1.0169166594198726
4891000000.0 0.07747592253878183 -1.04778038619398
4894000000.0 0.0686780779391028 -1.0271763622305927
4897000000.0 0.10752118698137797 -1.0200058875733973
4900000000.0 0.06336796028691405 -1.0537963192815538
4903000000.0 0.12427987901365217 -1.0490337227494655
4906000000.0 0.07916032229193404 -1.0472054480213027
4909000000.0 0.052476518651772774 -1.0692569336953668
4912000000.0 0.02417765697962404 -1.0772818858768445
4916000000.0 0.07556026591458415 -1.0503497032353846
4919000000.0 0.13283796782781476 -1.0969824303098852
4922000000.0 0.13535989746747523 -1.0518613588363381
4925000000.0 0.04936470917010943 -1.0790397786764983
4928000000.0 0.11563755295154282 -1.0098932461495271
4931000000.0 0.018016122893463382 -1.0100284460289934
4934000000.0 0.059264651515335276 -0.9810494198495906
4938000000.0 0.03159764510171831 -1.0051200926972852
4941000000.0 0.06491539937027802 -1.0296861350827344
4944000000.0 0.0617360148574842 -0.974671774350947
4947000000.0 0.07970636859901337 -1.0114557384067917
4950000000.0 0.04318903676362562 -1.070317619338332
4953000000.0 0.010462886847941777 -1.06483784229966
4956000000.0 0.04468506804784039 -1.0576160764737308
4959000000.0 -0.03184888618670839 -0.9994570422416484
4962000000.0 0.009176357407280955 -1.0729671698141534
4966000000.0 0.079893316867297 -1.087065106804216
4969000000.0 0.04363459480318893 -1.0681079667874487
4972000000.0 0.01440357031777073 -1.0241266105795959
4975000000.0 0.027480353457327023 -1.0580168304986803
4978000000.0 0.009063630725623328 -1.0827599109217163
4981000000.0 -0.02015183785070629 -1.0722773076267638
4984000000.0 0.030804355821168028 -1.0327280972687345
4988000000.0 0.054980401400958334 -1.0661959336577513
4991000000.0 0.07230929915968032 -1.0626575054695062
4994000000.0 0.02595210049099883 -1.0421426400083376
4997000000.0 -0.028659600290587894 -1.0390215263695768
5000000000.0 0.01998460586622608 -1.0681450783759483
5003000000.0 0.0084692118142079 -1.082480788275195
5006000000.0 0.040137854370178694 -1.0862403522447592
5009000000.0 0.005916679890379917 -1.0353572239922033
5012000000.0 0.004185456714353886 -1.0663306411076894
5016000000.0 0.030913885392292118 -1.0827406467192926
5019000000.0 0.01577244555655477 -1.0378916620163103
5022000000.0 -0.026737464729585048 -1.0533705167255407
5025000000.0 -0.01894842582262779 -1.0771431837386278
5028000000.0 -0.010896811243176985 -1.0338737116873729
5031000000.0 -0.026408986108082178 -1.0458713987515385
5034000000.0 -0.023890571292320417 -1.0912908909437677
5038000000.0 -0.04459639622291012 -1.046816589002899
5041000000.0 -0.021471661283435584 -1.0375579456907151
5044000000.0 0.020063846216722525 -0.9961257157407012
5047000000.0 -0.03375939942849737 -1.0248641605174442
5050000000.0 0.020830742302486438 -1.0056539901051613
5053000000.0 -0.02245296682504805 -1.08184866678965
5056000000.0 -0.023115223207405555 -1.029916677460186
5059000000.0 -0.035701539790924275 -1.0789504787121207
5062000000.0 -0.049582931907094174 -1.0406157386120058
5066000000.0 -0.043783499659392544 -1.0695595516659169
5069000000.0 -0.053425841483734915 -1.0306926904382445
5072000000.0 -0.012685918138149344 -1.068010283461053
5075000000.0 -0.010250905122127008 -1.0755623558723273
5078000000.0 -0.057465775639269856 -1.0344989000696563
5081000000.0 -0.04385591688321466 -1.024016208762839
5084000000.0 -0.06428024102658969 -1.027371566721651
5088000000.0 -0.033935538777249696 -1.0401520850195016
5091000000.0 -0.0847396895708688 -0.9892751527001336
5094000000.0 -0.09065902305393242 -1.054105294680673
5097000000.0 -0.0768891142757947 -1.0097314357357172
5100000000.0 -0.05767698055834497 -1.0597326492461012
5103000000.0 -0.13476114799521027 -1.0155204086424974
5106000000.0 -0.08048077906248852 -1.0288179626362792
5109000000.0 -0.05262727460529237 -1.0772221840324665
5112000000.0 -0.09097622525685439 -0.9783347576303348
5116000000.0 -0.04644552533195445 -1.0398024706479834
5119000000.0 -0.13401946298008843 -1.0686208308482839
5122000000.0 -0.10197944253654112 -1.0174526024297
5125000000.0 -0.059239017812374284 -1.0143175338973378
5128000000.0 -0.10439308459373425 -1.075489874397165
5131000000.0 -0.10941668990101516 -1.0732115147675751
5134000000.0 -0.13267789834355415 -1.0270091042330505
5138000000.0 -0.08989782212493463 -1.0221003956318087
5141000000.0 -0.06923818882429328 -1.0245506770836441
5144000000.0 -0.1023595605471827 -1.018494930944713
5147000000.0 -0.0942538380898364 -1.0591507871701102
5150000000.0 -0.12850671627261 -1.051717510509966
5153000000.0 -0.12440011554780506 -1.0556588679894483
5156000000.0 -0.11058947975226324 -1.0416740646877787
5159000000.0 -0.1159491849553525 -1.0678626794540138
