! Created with skrf 1.8.0 (http://scikit-rf.org).
# Hz S RI R 50.0 
!freq ReS11 ImS11
4000000000.0 0.47936605577158664 -0.9272589264149069
4003000000.0 0.5231262365601304 -0.9895591599531263
4006000000.0 0.4564212354930822 -0.906501090385748
4009000000.0000005 0.4491072439594369 -0.9260373320897393
4011999999.9999995 0.511567331349591 -0.9072783110118274
4016000000.0 0.4821689347243606 -0.9438212941683568
4019000000.0 0.5038098513662299 -0.9419680066345412
4022000000.0000005 0.5220513586742979 -0.8850103530600758
4025000000.0000005 0.42661063255306175 -0.9298928564365172
4027999999.9999995 0.45134147011641046 -0.9055985562601792
4030999999.9999995 0.4638528935297338 -0.8956596524117484
4034000000.0 0.49305204197504743 -0.9032603129559694
4038000000.0000005 0.4474231173530254 -0.9470544304238853
4041000000.0000005 0.4924447999501202 -0.9081510344729601
4043999999.9999995 0.4936341891653888 -0.9797020745091842
4046999999.9999995 0.5314049894136623 -0.9413628931482223
4050000000.0 0.4403795684474899 -0.9459864095638124
4053000000.0 0.4284705707303747 -0.8763815978365963
4056000000.0 0.46725953008147436 -0.9370448136345572
4059000000.0 0.47749547139794857 -0.8999856967447495
4062000000.0000005 0.4763227441847124 -0.9290806974053751
4066000000.0 0.43285386130282505 -0.8814641354459247
4069000000.0 0.4468680202123128 -0.9311710444189749
4072000000.0 0.4615172228767155 -0.91827756714784
4075000000.0 0.5458749777216296 -0.9082401948275501
4078000000.0000005 0.4854489304384382 -0.9480069649019492
4081000000.0000005 0.5330188406592481 -0.9162014927934417
4083999999.9999995 0.42771658954068087 -0.9312542606301406
4088000000.0 0.5139873677576883 -0.8818354709515154
4091000000.0 0.48374021804606915 -0.9522727390168491
4094000000.0000005 0.47308184478832654 -0.8835657214374424
4097000000.0000005 0.4662531579850857 -0.9205330868876105
4099999999.9999995 0.46105922234224395 -0.9276975133452708
4102999999.9999995 0.5096755519115556 -0.9360837684034656
4106000000.0 0.4541610661364586 -0.945359665465183
4109000000.0 0.46030903104651266 -0.9325838293434693
4112000000.0 0.46479156713520425 -0.9219598644014921
4115999999.9999995 0.5187277268771527 -0.898836496686585
4119000000.0 0.44800680849336044 -0.9227436109555288
4122000000.0 0.44523359962096704 -0.9326620897501254
4125000000.0 0.4273977280169291 -0.9308189001450126
4128000000.0 0.4502849903769514 -0.8880758498570196
4131000000.0 0.457667858327182 -0.873845605743339
4134000000.0000005 0.5163262709685651 -0.9206850695539629
4138000000.0 0.4272210470099224 -0.8836777013752988
4141000000.0 0.48329512304832073 -0.9094920028322108
4144000000.0 0.47653282500257077 -0.9211518675681858
4147000000.0000005 0.42089458081512615 -0.9261211292852105
4150000000.0000005 0.48455827145879415 -0.878267117341893
4152999999.9999995 0.47542803125910327 -0.9162096444672363
4155999999.9999995 0.4757131805649584 -0.9514388030180742
4159000000.0 0.4673273136398095 -0.900315884514552
4162000000.0 0.4677118935964372 -0.8826607607360256
4166000000.0000005 0.46771203956719304 -0.9120054209715169
4168999999.9999995 0.4617939427549381 -0.9104304985242023
4171999999.9999995 0.4380209576437453 -0.8929547167038743
4175000000.0 0.46037630379666283 -0.9162205525150885
4178000000.0 0.4676209585696757 -0.9152917737327884
4181000000.0 0.43954331767601806 -0.9263547045905485
4184000000.0 0.48021161895490394 -0.9252179092531068
4187999999.9999995 0.458261239888885 -0.9091174553524772
4191000000.0 0.49639045313391467 -0.8909381446181182
4194000000.0 0.4626463262210213 -0.8897156698299843
4197000000.0 0.4556741860463266 -0.9118205039543729
4200000000.0 0.48083871620227503 -0.9183701468342381
4203000000.0000005 0.47112193608944075 -0.916462976349274
4206000000.0000005 0.4612288400009269 -0.9089381629042929
4208999999.9999995 0.450814462655172 -0.8687298208781032
4211999999.9999995 0.45700883446110974 -0.9273229630686076
4216000000.0 0.46978270933406896 -0.9032331863614285
4219000000.0000005 0.4881215111977909 -0.91151542926134
4222000000.0000005 0.4421472809091359 -0.921268692428855
4224999999.9999995 0.4597867897593716 -0.8949666519184007
4227999999.9999995 0.47559522648518304 -0.9136312503880237
4231000000.0 0.4512836724853194 -0.9253674876163915
4234000000.0 0.46443457094516005 -0.9278811642318014
4238000000.0000005 0.439082707642572 -0.9035920203957251
4240999999.9999995 0.45345298102657544 -0.9249110468488466
4244000000.0 0.4768157207514831 -0.902490893817926
4247000000.0 0.4640197360129784 -0.8854111754819186
4250000000.0 0.44062996993387593 -0.8857283386378073
4253000000.0 0.42816284818025574 -0.8980857579014847
4256000000.0 0.4639957601585521 -0.9404463514355622
4259000000.0000005 0.4254507270287766 -0.8749390851486802
4261999999.9999995 0.4454432599376128 -0.9038868750364601
4266000000.0 0.4230141777601248 -0.9235963963384831
4269000000.0 0.46338987815988303 -0.9054693686551484
4272000000.0000005 0.44383408602765256 -0.8756053036578351
4275000000.0000005 0.4587309759998686 -0.9293177241871442
4277999999.9999995 0.4673214365655159 -0.915756792291312
4280999999.9999995 0.4565266602370256 -0.9111999871764042
4284000000.0 0.4124183394359332 -0.9119516183078479
4288000000.0000005 0.464957529664623 -0.8891120892532833
4291000000.0000005 0.44674471985672237 -0.8624723834205807
4293999999.9999995 0.45829377079634975 -0.8948274435713166
4297000000.0 0.4621973220383953 -0.8851525072616833
4300000000.0 0.4592745767475377 -0.8888438451037899
4303000000.0 0.44266767311351696 -0.8835280033235491
4306000000.0 0.47409994810457495 -0.922715040715516
4309000000.0 0.4634407430233057 -0.9021611359636623
4312000000.0 0.4939552383794238 -0.9072886976819233
4316000000.0 0.4852896798756275 -0.9063484097567238
4319000000.0 0.4612465583090808 -0.8768572060154777
4322000000.0 0.4196075921667809 -0.9076276662756103
4325000000.0 0.4333723129641436 -0.9012064316715652
4328000000.0 0.4460631756077327 -0.8853089962212785
4331000000.0 0.4185510178295568 -0.9267908303307728
4334000000.0 0.44229830050175767 -0.9122059031546222
4338000000.0 0.4512181442909139 -0.8939335996950866
4341000000.0 0.49674935705662315 -0.9234251716998773
4344000000.0 0.46470994449732383 -0.9350806032472918
4347000000.0 0.44390884530376146 -0.9309283510158355
4350000000.0 0.42014532070833005 -0.8782696843267244
4353000000.0 0.4479516701785583 -0.9082821043388134
4356000000.0 0.39595112678630495 -0.9297111087280111
4359000000.0 0.425851801903594 -0.8507756531904415
4362000000.0 0.3887829907275384 -0.9360959933664017
4366000000.0 0.42568919377255743 -0.9242261910377179
4369000000.0 0.40955790559374383 -0.8791520936926862
4372000000.0 0.40121881032257334 -0.913546778092489
4375000000.0 0.4425236471192674 -0.8902620176018545
4378000000.0 0.41945191310005236 -0.8825269398477595
4381000000.0 0.433993206711373 -0.8978044381198537
4384000000.0 0.45565134780330513 -0.9730083925124757
4388000000.0 0.4309806553932344 -0.8880851352427331
4391000000.0 0.4430424584784284 -0.9141681161983417
4394000000.0 0.42225170257789946 -0.8933052307697742
4397000000.0 0.4207439896060775 -0.9035605477260039
4400000000.0 0.4358984333048837 -0.9364745015209069
4403000000.0 0.434179442186013 -0.9080468979410612
4406000000.0 0.41787992056365353 -0.9243543641418374
4409000000.0 0.4379792707075195 -0.9343262919636564
4412000000.0 0.3798986950294008 -0.9172706655614371
4416000000.0 0.41940771340078525 -0.9002096742217676
4419000000.0 0.42447828767528745 -0.9260666883541542
4422000000.0 0.4302277424740582 -0.898713211825392
4425000000.0 0.4530723245221327 -0.9166910619145369
4428000000.0 0.41424599209069873 -0.911164039227933
4431000000.0 0.4375657993125886 -0.9326699239798335
4434000000.0 0.41494225576593236 -0.9135491650466622
4438000000.0 0.43729948125331924 -0.9326939847394906
4441000000.0 0.4270865382061061 -0.9253975547184831
4444000000.0 0.4259177332821564 -0.9069286402283196
4447000000.0 0.40050237444963566 -0.9361356281288546
4450000000.0 0.41949226510454857 -0.9090035060530546
4453000000.0 0.4239601566987122 -0.9480718226771938
4456000000.0 0.39305094493942505 -0.8992172747658993
4459000000.0 0.4059672406707903 -0.8981620557956063
4462000000.0 0.43230890788192355 -0.9767548349348568
4466000000.0 0.4280863959610894 -0.9744463666215257
4469000000.0 0.42661425043748474 -0.9244098821711877
4472000000.0 0.4062122973638476 -0.9607205094485525
4475000000.0 0.4173306923198248 -0.8948114739711134
4478000000.0 0.42172248004680496 -0.967035398135518
4481000000.0 0.37693647613703823 -0.8976408620227232
4484000000.0 0.3655476862422097 -0.936819922615322
4488000000.0 0.3906333359812507 -0.9134426015733008
4491000000.0 0.42952988829707384 -0.9262563128006698
4494000000.0 0.41323692242885435 -0.9006685431346286
4497000000.0 0.4161150469582228 -0.9183875365632646
4500000000.0 0.3937309831906785 -0.9221994508471524
4503000000.0 0.42033363778740246 -0.934672794126193
4506000000.0 0.39084349063666196 -0.9354724526482001
4509000000.0 0.3885294968251447 -0.9207034036198631
4512000000.0 0.39605772731794403 -0.9155181783285296
4516000000.0 0.4113762581693972 -0.9330066513415491
4519000000.0 0.4007719128221151 -0.9109345817734888
4522000000.0 0.403110782445131 -0.932968569650169
4525000000.0 0.42730183471489175 -0.9139720985710122
4528000000.0 0.4134265968362375 -0.9504072827939347
4531000000.0 0.41186673935313767 -0.9334656674606369
4534000000.0 0.40407822292523504 -0.9187355900588485
4538000000.0 0.39402701758224207 -0.9159993280058862
4541000000.0 0.37085255371940684 -0.9017113530214418
4544000000.0 0.383491314303892 -0.9202596465832846
4547000000.0 0.4122208921257507 -0.9219702976133817
4550000000.0 0.3964910059454622 -0.9474299022494945
4553000000.0 0.3853316717060239 -0.9248552601917116
4556000000.0 0.3700408114756645 -0.9123195905822983
4559000000.0 0.3923649418768437 -0.9434151370344814
4562000000.0 0.3977161580507926 -0.9533400085085648
4566000000.0 0.3674091324233198 -0.950533748430503
4569000000.0 0.3768133309452802 -0.9251617557431739
4572000000.0 0.4031799049426383 -0.9241218896625181
4575000000.0 0.3717884545334509 -0.9588485598938091
4578000000.0 0.40662371336074293 -0.9419928675590524
4581000000.0 0.3652960610736965 -0.9526773806037411
4584000000.0 0.3652265965275897 -0.9554991600077499
4588000000.0 0.39110804009296896 -0.9506992720744022
4591000000.0 0.3910560101294007 -0.9213104177595498
4594000000.0 0.3741693482308196 -0.9452434832663165
4597000000.0 0.3685315924908408 -0.9370314968733781
4600000000.0 0.3496648905634402 -0.9267121554014208
4603000000.0 0.3669162503641341 -0.9476439214903724
4606000000.0 0.3802097549185806 -0.9520818908432911
4609000000.0 0.37633622277028356 -0.9444141286856798
4612000000.0 0.36862447531968945 -0.9448269517511279
4616000000.0 0.3722321363032181 -0.9355448401520949
4619000000.0 0.35863037544174486 -0.9397714035353747
4622000000.0 0.37352583708345966 -0.9237380742202448
4625000000.0 0.33120325309163967 -0.9208403450164548
4628000000.0 0.37370629839196584 -0.9449829529065394
4631000000.0 0.3627814831149361 -0.9545367427331418
4634000000.0 0.3589949855170635 -0.9464460825002823
4638000000.0 0.36977666474518 -0.9406074441834553
4641000000.0 0.3694780890239174 -0.9478203995062888
4644000000.0 0.36341218217632 -0.9532094417202205
4647000000.0 0.37061684752785834 -0.940145667949319
4650000000.0 0.3589153752219548 -0.9400833435615196
4653000000.0 0.3725062220589863 -0.9502969596965221
4656000000.0 0.369271153122262 -0.9428655651959964
4659000000.0 0.3410965515595893 -0.9357128450749004
4662000000.0 0.3372683909380847 -0.9527622396934132
4666000000.0 0.3584053325716831 -0.9507478606917203
4669000000.0 0.3781583844495491 -0.9548116799513181
4672000000.0 0.3399973363221742 -0.969705820672595
4675000000.0 0.3663924615904872 -0.9794720733320469
4678000000.0 0.3258708876780698 -0.923073312941463
4681000000.0 0.34563854389061893 -0.9579061390053087
4684000000.0 0.34719181938867943 -0.9917245088350537
4688000000.0 0.30695235377698044 -0.9682305844154834
4691000000.0 0.3888688132550475 -0.9545606899522153
4694000000.0 0.3614420990947319 -0.9346958990734437
4697000000.0 0.3300710383465814 -0.9455356200049305
4700000000.0 0.37141357291162147 -0.9276343726036755
4703000000.0 0.3639437271318 -0.9037091031732006
4706000000.0 0.342430257117277 -0.960225317113761
4709000000.0 0.3176985170548134 -0.9432033347627966
4712000000.0 0.34239876688599974 -0.9678137569277798
4716000000.0 0.34578029857773773 -0.9663484329942061
4719000000.0 0.3733153069845194 -0.950934956514926
4722000000.0 0.34670394280602274 -0.939540944264881
4725000000.0 0.3630856154615828 -0.9516849149250818
4728000000.0 0.33509364509651834 -0.9889560435046446
4731000000.0 0.3548486087980639 -0.9626291600968986
4734000000.0 0.3515653724245039 -0.9185496454617614
4738000000.0 0.38083600707061216 -0.9852692419726932
4741000000.0 0.35876908861695145 -0.9805766838074003
4744000000.0 0.32587194141029746 -0.9544643244022779
4747000000.0 0.3305998059249317 -0.9387827030143567
4750000000.0 0.3320847661811003 -0.9656105223087055
4753000000.0 0.33144372487619894 -0.9662678908172794
4756000000.0 0.36982015914002964 -0.9778796875085763
4759000000.0 0.3650520045982202 -0.971170380929634
4762000000.0 0.3251017213124999 -0.9852714934178795
4766000000.0 0.343885561778789 -0.9280521976072705
4769000000.0 0.35869652083761444 -0.9644625904414829
4772000000.0 0.3400464148443558 -0.9833244446615894
4775000000.0 0.32006549210241664 -1.0326581883663573
4778000000.0 0.3330154723845428 -0.9931619448020463
4781000000.0 0.32441460293609037 -0.9454127787198454
4784000000.0 0.3579464781559357 -0.9575468622266465
4788000000.0 0.32563306105604595 -0.9982721817272545
4791000000.0 0.3388630181326139 -0.9679462741210342
4794000000.0 0.35904010966545474 -0.9831227324750446
4797000000.0 0.3066658335461438 -0.9450901940372614
4800000000.0 0.3235884799628968 -0.9539668336236315
4803000000.0 0.2887166713373108 -0.9748534468191382
4806000000.0 0.3127869553928635 -0.9979009700794642
4809000000.0 0.28446183781872203 -0.9837796697816819
4812000000.0 0.29553286138732265 -0.9794708749527365
4816000000.0 0.3473957528950619 -0.9458127769669994
4819000000.0 0.3492880869709649 -0.9757710701616221
4822000000.0 0.3608285642485355 -1.0115689415860534
4825000000.0 0.34408949789616994 -1.001734650880049
4828000000.0 0.32945409045091084 -0.9684699974982026
4831000000.0 0.29033337532961584 -1.0049397655348191
4834000000.0 0.34667873336699634 -0.9842327422950539
4838000000.0 0.2996071676652234 -0.9969412617086564
4841000000.0 0.3053188460115429 -0.9700240535377087
4844000000.0 0.36208312453976577 -0.9723086097932722
4847000000.0 0.3359117933128194 -0.9584028350794567
4850000000.0 0.3166374076871048 -1.0073236932343945
4853000000.0 0.3129070680253976 -0.9821143158917126
4856000000.0 0.31826180753248423 -0.9583506880172987
4859000000.0 0.3120850383468537 -1.0291252104271216
4862000000.0 0.33288521438242596 -0.9391711424104835
4866000000.0 0.31577740664659276 -0.9918911816082436
4869000000.0 0.3053153271214071 -0.9915246273935464
4872000000.0 0.302964726593024 -1.0105647094414913
4875000000.0 0.36892501902814984 -1.0051390224690122
4878000000.0 0.3243127062261859 -0.9922756124200183
4881000000.0 0.3033866590865863 -1.0435397899729508
4884000000.0 0.32415714587330846 -0.9708874708480439
4888000000.0 0.3468791622110613 -0.9543546133495358
4891000000.0 0.37489868339632265 -1.0000504215237693
4894000000.0 0.3039360667688869 -0.9953491406565318
4897000000.0 0.34796852893288255 -0.9666923047749005
4900000000.0 0.34214150894913176 -0.99970282745709
4903000000.0 0.34213428343483265 -1.009656744462228
4906000000.0 0.30675370056676676 -1.032471959530462
4909000000.0 0.30713008498159 -1.0071359938469997
4912000000.0 0.29493013534238705 -1.0156736895404936
4916000000.0 0.34606995599066326 -0.9990259365649973
4919000000.0 0.37514601748489484 -1.0371528450136176
4922000000.0 0.34797757984842215 -0.9775803042860587
4925000000.0 0.2819160903688979 -1.0288428156625054
4928000000.0 0.34689085698669675 -0.9569583935756077
4931000000.0 0.3354100058166261 -1.0110961933871732
4934000000.0 0.3386983539598113 -0.9372352682176737
4938000000.0 0.2611917224332422 -0.9689277452278667
4941000000.0 0.31385947908321443 -0.9608668852282715
4944000000.0 0.3427511219146171 -0.932153112526045
4947000000.0 0.3031645934988469 -0.9530736287051796
4950000000.0 0.3010365152063283 -0.9672561883465368
4953000000.0 0.2912196367802653 -1.0274780222119058
4956000000.0 0.29732599448785885 -0.9880335280943613
4959000000.0 0.2836018505755137 -0.9595709254288445
4962000000.0 0.3082001460725156 -0.9875028425038366
4966000000.0 0.3578979256991525 -1.033251022561804
4969000000.0 0.37735772166531883 -1.0352116561782165
4972000000.0 0.31691288371687026 -0.9799605003461255
4975000000.0 0.3142648778312075 -0.9917293457716266
4978000000.0 0.2931292552669989 -1.0194743546854532
4981000000.0 0.2926780084120471 -1.0025699307787979
4984000000.0 0.32266329933798094 -0.9570480581364049
4988000000.0 0.3364584760245401 -0.9909845360034604
4991000000.0 0.3932805466594173 -0.9746577098404894
4994000000.0 0.33572243331079593 -0.99351499573717
4997000000.0 0.32524281346528977 -0.9710981080297654
5000000000.0 0.3567648050111041 -1.018764797117149
5003000000.0 0.3355767770168949 -1.0059156006849201
5006000000.0 0.29812593443886143 -1.0251827106675446
5009000000.0 0.2934866578640608 -0.9912717492402418
5012000000.0 0.2962404386851413 -1.0034849542609687
5016000000.0 0.3453952751390379 -1.0119611404159095
5019000000.0 0.29875540039475945 -0.9895350789867631
5022000000.0 0.3026642200948869 -0.9877627058914156
5025000000.0 0.3374491360980712 -1.044849877785227
5028000000.0 0.3166915115902653 -1.0043250931940908
5031000000.0 0.29207354848864886 -0.9558089835926693
5034000000.0 0.3006358089007333 -1.0366179377075848
5038000000.0 0.28413873822871855 -0.9915207644104105
5041000000.0 0.3483884515961799 -0.9915389960136909
5044000000.0 0.3298547892691935 -0.9739134115421549
5047000000.0 0.32621034053401543 -1.0103643809340224
5050000000.0 0.37287345279219436 -0.94248719740739
5053000000.0 0.3383755968407527 -1.0074010490538854
5056000000.0 0.31610209614532975 -0.9613044188787104
5059000000.0 0.34604023950162216 -1.0049142100298383
5062000000.0 0.3111421399169645 -1.020196906240765
5066000000.0 0.34623629775721815 -0.9556512570476778
5069000000.0 0.33579775924349464 -0.9942614166129563
5072000000.0 0.30723079036045275 -0.9742698024815445
5075000000.0 0.3517397898510997 -0.9506853121419854
5078000000.0 0.24655822939176003 -1.013047945882592
5081000000.0 0.29730779756896014 -0.9559403487610055
5084000000.0 0.31838462286874936 -0.9994470844532266
5088000000.0 0.3471368318719283 -0.9793175330667958
5091000000.0 0.30153395901210933 -0.9837712161942187
5094000000.0 0.27303577132867973 -0.978662256818803
5097000000.0 0.28712850008364726 -0.9628663346684694
5100000000.0 0.33953634038473174 -0.9813315709505361
5103000000.0 0.26533254688748414 -1.0209474728044623
5106000000.0 0.3501415553804822 -1.0132094085866334
5109000000.0 0.3391289299321894 -0.9748217696461684
5112000000.0 0.28678857334742547 -1.006327618345737
5116000000.0 0.3100825443264053 -0.9638750011484349
5119000000.0 0.27790662217460765 -0.9617950782518216
5122000000.0 0.32146772153596226 -0.9814160422146584
5125000000.0 0.3554642112993896 -0.9761816785000317
5128000000.0 0.30703330367853876 -0.9847097824732728
5131000000.0 0.2924308290367314 -1.000055831767352
5134000000.0 0.3292304672505273 -0.9961364213328086
5138000000.0 0.33480087115912904 -0.9755373506639513
5141000000.0 0.35873281979088917 -1.0029667211281834
5144000000.0 0.35029313459883266 -1.0056027065478186
5147000000.0 0.30632776269352113 -0.9857481391205611
5150000000.0 0.3363478578564717 -1.0006660153205735
5153000000.0 0.3429107507250001 -1.0136249646682343
5156000000.0 0.3039722525731175 -0.9696290030221952
5159000000.0 0.30268393909248104 -1.0248821600624605
5162000000.0 0.291896359523905 -1.0146718950028202
5166000000.0 0.2957960854486564 -1.0022187067643493
5169000000.0 0.3143917572190895 -1.0011164020074164
