! Created with skrf 1.8.0 (http://scikit-rf.org).
# Hz S RI R 50.0 
!freq ReS11 ImS11
4000000000.0 0.5501934461577345 -0.8544793724274458
4003000000.0 0.5557236195366945 -0.9558363152941863
4006000000.0 0.49052607262958703 -0.9242409397103161
4009000000.0000005 0.5337192132578363 -0.8792619283632025
4011999999.9999995 0.6122884201620074 -0.8889435802914218
4016000000.0 0.506504854573891 -0.9063092938946982
4019000000.0 0.5694112990817919 -0.8926313669839672
4022000000.0000005 0.5893412995135157 -0.8362701972782407
4025000000.0000005 0.5031490024389725 -0.9150220330061825
4027999999.9999995 0.5129353084061468 -0.8757735523155687
4030999999.9999995 0.5455303755767733 -0.8332394747122187
4034000000.0 0.5091295636684527 -0.8743311086537588
4038000000.0000005 0.4863807114002861 -0.9306661907964418
4041000000.0000005 0.5338657945670692 -0.853933536008176
4043999999.9999995 0.5608647646837218 -0.9524949131505651
4046999999.9999995 0.5852448696199617 -0.8860971492459333
4050000000.0 0.5170213251240677 -0.9569624593694319
4053000000.0 0.5092835599257904 -0.9002308010238037
4056000000.0 0.49238955819477365 -0.8802978124599579
4059000000.0 0.5591139919325656 -0.8469739039370701
4062000000.0000005 0.5098854968361153 -0.9239556883151642
4066000000.0 0.46626200312363497 -0.8415281312832856
4069000000.0 0.5589673299980933 -0.9324646536929565
4072000000.0 0.5888032567524714 -0.8593096531652462
4075000000.0 0.5875023589883946 -0.8883221110559557
4078000000.0000005 0.5501980850641843 -0.9002226390252006
4081000000.0000005 0.5821890059030681 -0.8975518314387299
4083999999.9999995 0.501889021204674 -0.9023986699574205
4088000000.0 0.6177085307888105 -0.8662977761811055
4091000000.0 0.5518024992926175 -0.9400476110523577
4094000000.0000005 0.5512827513579339 -0.8572809580870707
4097000000.0000005 0.5230271515096976 -0.8698173583289172
4099999999.9999995 0.4969691751299683 -0.9132529098393355
4102999999.9999995 0.5941118769264427 -0.893157395528077
4106000000.0 0.5367933242697944 -0.8868730639355416
4109000000.0 0.508546359145336 -0.9115156938511341
4112000000.0 0.5532517013494865 -0.879441586240259
4115999999.9999995 0.5758599686071191 -0.9028538444823626
4119000000.0 0.5282739350726428 -0.8972691072253538
4122000000.0 0.5228863331797632 -0.8853122023045461
4125000000.0 0.5224856411849631 -0.9274073978988648
4128000000.0 0.49821318498278255 -0.8845425522118698
4131000000.0 0.5213103766366278 -0.9061699106389639
4134000000.0000005 0.5410163835589585 -0.9086505086147899
4138000000.0 0.5222366665608633 -0.8367077263063153
4141000000.0 0.49739741279953076 -0.8971925400035197
4144000000.0 0.5238750296747485 -0.8899198766310137
4147000000.0000005 0.5038138287280245 -0.8791994020952226
4150000000.0000005 0.5610548497084307 -0.9083676342014305
4152999999.9999995 0.5048593655606911 -0.8779661404678863
4155999999.9999995 0.5512556084872346 -0.8848076639233446
4159000000.0 0.5541866717728032 -0.8630148325387559
4162000000.0 0.49903754270344114 -0.8765579421873068
4166000000.0000005 0.5287587530504885 -0.8902068524037275
4168999999.9999995 0.5014059577331257 -0.9169409179659417
4171999999.9999995 0.5145558036126778 -0.8907096431178663
4175000000.0 0.5123332885527067 -0.9050170257478142
4178000000.0 0.5429142672631248 -0.8840009650871908
4181000000.0 0.5335885494303461 -0.8826349033201442
4184000000.0 0.5513786653668233 -0.8675655798273537
4187999999.9999995 0.5251593782917237 -0.8820119489413721
4191000000.0 0.5679061454255363 -0.8535489022513555
4194000000.0 0.5278794974591219 -0.8531486163119572
4197000000.0 0.5486337302509157 -0.8799252715744603
4200000000.0 0.5561226611885087 -0.8685740169912444
4203000000.0000005 0.5635933608142139 -0.8804661181443203
4206000000.0000005 0.5370834714348093 -0.8871681062852129
4208999999.9999995 0.5388317156838949 -0.8742723755738628
4211999999.9999995 0.508536800319721 -0.8930641178242594
4216000000.0 0.5396054308715128 -0.8784322603692699
4219000000.0000005 0.5732036339881814 -0.872604397923806
4222000000.0000005 0.5055307593766192 -0.8732433455163733
4224999999.9999995 0.5555826254349786 -0.8529579105124789
4227999999.9999995 0.5410413458867153 -0.8851805289829914
4231000000.0 0.5381276362084066 -0.8879131034908276
4234000000.0 0.5368645011080286 -0.904732884069983
4238000000.0000005 0.5208745749700335 -0.8857065691036324
4240999999.9999995 0.5180973482395168 -0.872292764924893
4244000000.0 0.5441771649834337 -0.8635586650814112
4247000000.0 0.5371172872982588 -0.8691234845563595
4250000000.0 0.5284010048752475 -0.8635693564302591
4253000000.0 0.5341604418139225 -0.8652205715272017
4256000000.0 0.5432309575045208 -0.8828307191999867
4259000000.0000005 0.5089039510569847 -0.8498387777237578
4261999999.9999995 0.5206363717191028 -0.8792925924387861
4266000000.0 0.5221551132514536 -0.8808848736602612
4269000000.0 0.5420806043464752 -0.8784012239282739
4272000000.0000005 0.5419350350843187 -0.8508222332544213
4275000000.0000005 0.5327339883031116 -0.8688213658051048
4277999999.9999995 0.5500270486016108 -0.9027400419989535
4280999999.9999995 0.550315081564065 -0.8734742288370108
4284000000.0 0.5116424742031969 -0.9024928202712547
4288000000.0000005 0.557092025538392 -0.8530356242206245
4291000000.0000005 0.5223425917484885 -0.8509995235272954
4293999999.9999995 0.5327562051844774 -0.8597222547671428
4297000000.0 0.555000327749507 -0.8575066827346511
4300000000.0 0.5576573201306818 -0.8662644618225939
4303000000.0 0.5098704434093047 -0.8560478965525999
4306000000.0 0.5709940145517852 -0.8734975623357386
4309000000.0 0.5343727678438341 -0.8730546581861381
4312000000.0 0.5501401121153385 -0.8527850927831646
4316000000.0 0.5614748403953649 -0.8909314577923177
4319000000.0 0.5501215079886363 -0.834681465914447
4322000000.0 0.5431944408395493 -0.8802780240004551
4325000000.0 0.5120383512708155 -0.8848899266333217
4328000000.0 0.5344609330207918 -0.8693515976198813
4331000000.0 0.4944496901034209 -0.8993155332860786
4334000000.0 0.532675001768203 -0.8807181476127167
4338000000.0 0.5347107040896866 -0.8573257880743027
4341000000.0 0.5713343858978857 -0.8614891677307781
4344000000.0 0.5659830762267272 -0.8762837039509126
4347000000.0 0.4983804460744422 -0.9151790102053331
4350000000.0 0.505544624259621 -0.8486176643019188
4353000000.0 0.5390159163517523 -0.8267456951851805
4356000000.0 0.5182679250886424 -0.8757016309323478
4359000000.0 0.5107963434225626 -0.8246636677147224
4362000000.0 0.4902668786692951 -0.8953364529554796
4366000000.0 0.5275035110858961 -0.8844578260354455
4369000000.0 0.5123541865604962 -0.8486170011262653
4372000000.0 0.48926374867360783 -0.8849516085633425
4375000000.0 0.5312633107411031 -0.8478385538291188
4378000000.0 0.51332497710943 -0.8320579827654625
4381000000.0 0.5195104570127183 -0.8392253873465979
4384000000.0 0.5386491235006867 -0.9283963632054028
4388000000.0 0.5204946966331335 -0.8567832427759405
4391000000.0 0.5303625982181299 -0.8617208408746928
4394000000.0 0.5155285608287541 -0.8342034361449028
4397000000.0 0.506813516319868 -0.8740636579114828
4400000000.0 0.5314143754142462 -0.9025652502617629
4403000000.0 0.5305270546318787 -0.8580161710484033
4406000000.0 0.4976296959917169 -0.8884636451214472
4409000000.0 0.5345899352327718 -0.9029643798958605
4412000000.0 0.4616831789332817 -0.8908312586315602
4416000000.0 0.5094831023655566 -0.8709960916293985
4419000000.0 0.5020658141761272 -0.886892875411875
4422000000.0 0.5223074387778365 -0.8512242870153965
4425000000.0 0.5585714685055183 -0.879514808930891
4428000000.0 0.5199499281262715 -0.8797314479853408
4431000000.0 0.5406924272084681 -0.8819619018200515
4434000000.0 0.5185712801970412 -0.8729745613723024
4438000000.0 0.53859485658701 -0.9026341733359052
4441000000.0 0.5426105965204663 -0.8805100857136492
4444000000.0 0.5158133617357723 -0.8447706076203172
4447000000.0 0.5051674303044249 -0.8740481005374654
4450000000.0 0.5203964501501255 -0.8506726545747657
4453000000.0 0.5355089842229159 -0.8992375121791267
4456000000.0 0.48225191651308463 -0.8634352772205449
4459000000.0 0.4680970506277559 -0.848823149846308
4462000000.0 0.5452045535213409 -0.9175639331058232
4466000000.0 0.5199444721103379 -0.9124302307602845
4469000000.0 0.5448355850229086 -0.8730812455849608
4472000000.0 0.4938775956703711 -0.9116735295720217
4475000000.0 0.5099690264829521 -0.8350360177392002
4478000000.0 0.513265576139732 -0.9121553763018255
4481000000.0 0.4781861485917965 -0.8626035165347052
4484000000.0 0.4821051060668721 -0.9060570015087338
4488000000.0 0.4940042615260066 -0.8685592622676539
4491000000.0 0.4864132285741358 -0.8740651728144966
4494000000.0 0.517881745743878 -0.8666891511418313
4497000000.0 0.5059624624976979 -0.8738904981490767
4500000000.0 0.5100301904727225 -0.8715162702835617
4503000000.0 0.5335410414786537 -0.8996457621964236
4506000000.0 0.49197102960744715 -0.8808843981718817
4509000000.0 0.4886297466707342 -0.8539411258887835
4512000000.0 0.47411415034382254 -0.8696205143260335
4516000000.0 0.5187990266331585 -0.8884472579823381
4519000000.0 0.5042951006224953 -0.8571706061829629
4522000000.0 0.47668156588289334 -0.8684070873150511
4525000000.0 0.5458635192517124 -0.8680726026061123
4528000000.0 0.5147627072672087 -0.902112984947889
4531000000.0 0.5072821726739718 -0.8805825457456917
4534000000.0 0.49608411863064905 -0.8525711832583441
4538000000.0 0.5051552579418108 -0.8710981580539209
4541000000.0 0.44019645268492225 -0.8951358794396618
4544000000.0 0.5066918972381005 -0.8647054439885251
4547000000.0 0.5096948284148614 -0.8702866196115306
4550000000.0 0.49450788103740334 -0.8955210848462646
4553000000.0 0.4938704429996669 -0.8998922131869145
4556000000.0 0.4532653976358151 -0.8720690323762801
4559000000.0 0.4934792263241569 -0.8960586511509605
4562000000.0 0.4968180278454289 -0.8930671102920806
4566000000.0 0.49326230300238505 -0.8807429340144972
4569000000.0 0.46274130676329517 -0.8668463352289888
4572000000.0 0.4910597043392809 -0.8946492315797616
4575000000.0 0.46738335230440686 -0.8925569608531349
4578000000.0 0.5267844234544166 -0.9070681483620835
4581000000.0 0.4785336924171454 -0.8949262817007777
4584000000.0 0.48762152597313924 -0.890914591966311
4588000000.0 0.5106100911634024 -0.893283605267058
4591000000.0 0.5011754891135594 -0.8826070622334745
4594000000.0 0.4807122917359811 -0.8946574386359009
4597000000.0 0.48357533729634733 -0.9109436082674202
4600000000.0 0.4526884349644939 -0.886542665303279
4603000000.0 0.4728304985047408 -0.9020389865675436
4606000000.0 0.5003839805283685 -0.900203472697357
4609000000.0 0.5041606786676068 -0.8847821615203819
4612000000.0 0.49615663396276655 -0.9058795633109805
4616000000.0 0.476898989933485 -0.8863308089855659
4619000000.0 0.4868362125835495 -0.8916669773733634
4622000000.0 0.4987601556203848 -0.8950051664775762
4625000000.0 0.4540242273006436 -0.8861400603573582
4628000000.0 0.5084183733271201 -0.8908821782037462
4631000000.0 0.4772582519866331 -0.8769586337470178
4634000000.0 0.47234572660893737 -0.8939203829954816
4638000000.0 0.5138553816052667 -0.9181985029542732
4641000000.0 0.49467082646030325 -0.8928682463149363
4644000000.0 0.4851379973376901 -0.8830960092426755
4647000000.0 0.49134856319727 -0.90482378691901
4650000000.0 0.4800148118718598 -0.8989087399064686
4653000000.0 0.5046724154721018 -0.8862101713323978
4656000000.0 0.46394682172084795 -0.8909623387835778
4659000000.0 0.47446509418734795 -0.8810986803742704
4662000000.0 0.4680549663644534 -0.8992288012600014
4666000000.0 0.4763741300052062 -0.9018241842872697
4669000000.0 0.479873768920025 -0.8945669659745732
4672000000.0 0.4696755269360976 -0.9149447412480639
4675000000.0 0.47256603259341157 -0.9115583922784539
4678000000.0 0.48328166016395796 -0.8957430647993401
4681000000.0 0.47487208093160177 -0.9287884759756974
4684000000.0 0.43860373870361447 -0.9057584276226911
4688000000.0 0.4548991275527469 -0.8880928189659659
4691000000.0 0.4950825152228293 -0.8854244398108141
4694000000.0 0.48667180346927935 -0.889198707742421
4697000000.0 0.44666957825343645 -0.8731062173385631
4700000000.0 0.5079025187961705 -0.8795088897104167
4703000000.0 0.4694199071848227 -0.8733659173634077
4706000000.0 0.4596031187750114 -0.9147172300713015
4709000000.0 0.46208874722817916 -0.8981140726349163
4712000000.0 0.4749023372886474 -0.9116913871823583
4716000000.0 0.47863416019535315 -0.9174130721322603
4719000000.0 0.5207184398429675 -0.8830604603504485
4722000000.0 0.5059207472126069 -0.8975601737251913
4725000000.0 0.46758456801589343 -0.8963328310031795
4728000000.0 0.45497350743338205 -0.9039634128871604
4731000000.0 0.5111710049314627 -0.9117425227542111
4734000000.0 0.46594191764935333 -0.8952020515442449
4738000000.0 0.49444064283208744 -0.9007787640626193
4741000000.0 0.49960179617339784 -0.8995609599619461
4744000000.0 0.4432527582401017 -0.9269259843981974
4747000000.0 0.48061914321110344 -0.8688939316452876
4750000000.0 0.4759538357385029 -0.9123481775862883
4753000000.0 0.4953791554349819 -0.9313175648880186
4756000000.0 0.49894536978631554 -0.9264591576009571
4759000000.0 0.48012674995432564 -0.9233148576262714
4762000000.0 0.46808897503316377 -0.9338961890508498
4766000000.0 0.47760392433558146 -0.90839218080928
4769000000.0 0.48823835623139966 -0.9361409903061039
4772000000.0 0.4473133314538277 -0.9249481757737015
4775000000.0 0.4755888233937839 -0.9811220911556766
4778000000.0 0.4594094074381925 -0.9272698982594303
4781000000.0 0.4901015029996406 -0.8989416247878671
4784000000.0 0.473574418055059 -0.8943965680151693
4788000000.0 0.4611752072040799 -0.9140321058898468
4791000000.0 0.4794957828472175 -0.8998787777117783
4794000000.0 0.5103753770845829 -0.9587664692747191
4797000000.0 0.45935787041593107 -0.9078097209440474
4800000000.0 0.47105423200450813 -0.902390734191878
4803000000.0 0.4257265700906196 -0.9144763978628774
4806000000.0 0.47629709074527116 -0.9171572807488233
4809000000.0 0.4211875350486435 -0.9587723028456341
4812000000.0 0.4300335855271845 -0.9514091520572597
4816000000.0 0.4706521641731607 -0.8835756257154898
4819000000.0 0.4975893631938123 -0.9425444867268843
4822000000.0 0.5046155699448842 -0.9642222385208995
4825000000.0 0.5044778864085288 -0.9210844383935065
4828000000.0 0.47092713381658263 -0.9144995926539546
4831000000.0 0.43315075765429584 -0.9522685387881397
4834000000.0 0.4937682014415676 -0.9147879238113352
4838000000.0 0.4610492848334466 -0.9198373471808986
4841000000.0 0.4598883357435817 -0.8932286096038684
4844000000.0 0.5152705543583781 -0.9170941081656445
4847000000.0 0.4929400674103134 -0.8761470263283337
4850000000.0 0.47248141227127016 -0.9337759123682975
4853000000.0 0.45554214020243705 -0.915941357749079
4856000000.0 0.4670386563227751 -0.9106789576301698
4859000000.0 0.4915072506684268 -0.961970802841677
4862000000.0 0.46742287656892506 -0.8970739975134985
4866000000.0 0.4371625313436979 -0.9386909755902333
4869000000.0 0.471948248775393 -0.9306105363284845
4872000000.0 0.44888997183137813 -0.9483133235780998
4875000000.0 0.5457692608286514 -0.9447181892240257
4878000000.0 0.4776053231090769 -0.9239950493945613
4881000000.0 0.4805434405872683 -0.9975214783001626
4884000000.0 0.4908835389232907 -0.8945136605723837
4888000000.0 0.5112107268368102 -0.8984555891808236
4891000000.0 0.4950566428832412 -0.9184140137394152
4894000000.0 0.45199741404893523 -0.9150903951300569
4897000000.0 0.5149674554398388 -0.8786727852891859
4900000000.0 0.47777397470202043 -0.9146439705222069
4903000000.0 0.5023604931343146 -0.9393710205808105
4906000000.0 0.4760602064266675 -0.9164854015378376
4909000000.0 0.4536528967385851 -0.9377890868488183
4912000000.0 0.4689531711101472 -0.9345944632402781
4916000000.0 0.4967135683469586 -0.8894886196837515
4919000000.0 0.5219302466445155 -0.936496068008567
4922000000.0 0.49833564034152905 -0.8966176937100221
4925000000.0 0.44312365827063094 -0.9388765339423136
4928000000.0 0.536935109976469 -0.8899754604622848
4931000000.0 0.49759070734720523 -0.9040154771207329
4934000000.0 0.46573036294971276 -0.893585993855769
4938000000.0 0.429594584093121 -0.9239042380177246
4941000000.0 0.491044560129578 -0.8866747796835447
4944000000.0 0.4975444204217972 -0.8611019251771542
4947000000.0 0.4790205321965923 -0.9053915470653557
4950000000.0 0.49950070106910194 -0.9053735249972692
4953000000.0 0.43357663494354004 -0.9771894681480281
4956000000.0 0.45364510997759416 -0.9192293290439779
4959000000.0 0.4277611456404781 -0.9528229266430422
4962000000.0 0.48009781100384546 -0.9170588509416724
4966000000.0 0.5170908069243022 -0.9066140525954023
4969000000.0 0.513517912744688 -0.9386049744857614
4972000000.0 0.4963382408828634 -0.9380204777814759
4975000000.0 0.5146390457247566 -0.8776288912649115
4978000000.0 0.46728820377581903 -0.9550550268602535
4981000000.0 0.45373578496261924 -0.9604909393463974
4984000000.0 0.5010693527168876 -0.9020246245013789
4988000000.0 0.522498699896829 -0.9214309409348952
4991000000.0 0.5760740616869783 -0.9032512167584469
4994000000.0 0.48896553411255483 -0.9093031042622269
4997000000.0 0.45708715777539277 -0.9546210114850215
5000000000.0 0.5402999114388469 -0.9568427223298722
5003000000.0 0.5489284655042224 -0.9472522776315877
5006000000.0 0.5108298624146689 -0.9584663328569261
5009000000.0 0.4964864940631638 -0.9087904172770606
5012000000.0 0.47307194648504225 -0.9343966458148529
5016000000.0 0.5156656694774586 -0.9401085144271801
5019000000.0 0.463775533231897 -0.9233361914932503
5022000000.0 0.5156639423789326 -0.9030589700003337
5025000000.0 0.50713861295754 -0.9865113114038724
5028000000.0 0.49928921839332907 -0.9253058137378152
5031000000.0 0.4781078279538607 -0.9245716491567537
5034000000.0 0.4633187698852895 -0.9707035482177202
5038000000.0 0.45995152325334404 -0.8945848027989728
5041000000.0 0.5183992169864695 -0.9050306037563898
5044000000.0 0.5288639690475007 -0.8722409170804066
5047000000.0 0.5456108844574725 -0.9519712804795364
5050000000.0 0.5662080396897159 -0.8585783122905638
5053000000.0 0.4947804044499615 -0.9560362560962012
5056000000.0 0.5637810701555229 -0.910364062507692
5059000000.0 0.5690915322656586 -0.8968072105030198
5062000000.0 0.4670824299371441 -0.9558864291473941
5066000000.0 0.5323588097592498 -0.8935950731646427
5069000000.0 0.5007608245381183 -0.9139032619588368
5072000000.0 0.5173647596230648 -0.8908308868962873
5075000000.0 0.5272124837983473 -0.9330809879060977
5078000000.0 0.48610205618871494 -0.9606911439728838
5081000000.0 0.45383737154476733 -0.8836173434650261
5084000000.0 0.5086528198083701 -0.9375374633528665
5088000000.0 0.5182635981396346 -0.9013623091667373
5091000000.0 0.46689669141867124 -0.9597980923128728
5094000000.0 0.5214345522515107 -0.8956680964879764
5097000000.0 0.5363610314489375 -0.8919454133814938
5100000000.0 0.5186948886649871 -0.8859586524056791
5103000000.0 0.5231153462591192 -0.9502973045512118
5106000000.0 0.5329137544209144 -0.9327713261110255
5109000000.0 0.548147052608946 -0.9194527909021439
5112000000.0 0.4764405878409825 -0.955137783072376
5116000000.0 0.4824085849773765 -0.8719372936217695
5119000000.0 0.5327979301843484 -0.9547889371671232
5122000000.0 0.4983069162882458 -0.891217763617137
5125000000.0 0.5181544683594554 -0.8906582575663378
5128000000.0 0.5164777520307385 -0.8753435849235314
5131000000.0 0.5099783637932502 -0.9061082946815966
5134000000.0 0.5130298479086008 -0.9033038637935107
5138000000.0 0.4919513762237153 -0.9142354061865001
5141000000.0 0.5415997406750555 -0.909364691072081
5144000000.0 0.5778463938816907 -0.9264308500657901
5147000000.0 0.5284462499628992 -0.9533339412958638
5150000000.0 0.5625604041423079 -0.9311346494546704
5153000000.0 0.4984119026262084 -0.9346668135153781
5156000000.0 0.5302554430943683 -0.901109867141162
5159000000.0 0.5503872959938807 -0.9344582337800422
5162000000.0 0.49818041793247453 -0.9064083690109963
5166000000.0 0.4963169021377311 -0.9439911370448764
5169000000.0 0.5639125331534132 -0.9370430219592233
5172000000.0 0.5561234807071029 -0.8980727615180519
5175000000.0 0.5356522517276351 -0.9430065454980707
