! Created with skrf 1.8.0 (http://scikit-rf.org).
# Hz S RI R 50.0 
!freq ReS11 ImS11
4000000000.0 -0.7514414186803864 -0.6584686330292406
4003000000.0 -0.7524778072735321 -0.6875036272488226
4006000000.0 -0.7745592857947634 -0.6660863762813484
4009000000.0000005 -0.8154827739371993 -0.647241340864765
4011999999.9999995 -0.8424577597245189 -0.6483670694123169
4016000000.0 -0.8214787447160493 -0.6296251523084582
4019000000.0 -0.7841312598179438 -0.6320505751475991
4022000000.0000005 -0.8958386627586687 -0.588766947052551
4025000000.0000005 -0.795621030388831 -0.5870501239824548
4027999999.9999995 -0.8324285340242422 -0.5635184054597651
4030999999.9999995 -0.8096032482052513 -0.5469568914066185
4034000000.0 -0.8264155306543886 -0.4944590862629202
4038000000.0000005 -0.8494067971048032 -0.5230745298621193
4041000000.0000005 -0.8800385522965739 -0.48675681456075204
4043999999.9999995 -0.8771003012904514 -0.4830568702983976
4046999999.9999995 -0.9216823809922655 -0.437817674739045
4050000000.0 -0.8610169013851721 -0.4850643161709064
4053000000.0 -0.8735517915903701 -0.4727925725641098
4056000000.0 -0.9219961987129927 -0.44071031067689226
4059000000.0 -0.9258239854301923 -0.3696354195462412
4062000000.0000005 -0.9132289201994249 -0.4298825529337943
4066000000.0 -0.953381726901191 -0.37904621460006205
4069000000.0 -0.9340551510846797 -0.32597855956345356
4072000000.0 -0.9607279239573715 -0.27772050215252925
4075000000.0 -0.9761554509338248 -0.2521862121494596
4078000000.0000005 -0.9639728785070975 -0.278772359308152
4081000000.0000005 -0.9717906636373551 -0.18345696546561469
4083999999.9999995 -0.9878877601604173 -0.25670911717260814
4088000000.0 -0.9861360340830182 -0.19159241141758432
4091000000.0 -0.944834706752683 -0.1906493844416091
4094000000.0000005 -0.9694089402224428 -0.14809256201840099
4097000000.0000005 -0.9860227588992485 -0.11291033402370397
4099999999.9999995 -0.9788867052813898 -0.09680308010071553
4102999999.9999995 -1.0136752472455257 -0.1080745901878571
4106000000.0 -1.0346248928916217 -0.0524833117184344
4109000000.0 -0.9928607136821916 -0.06206696185638733
4112000000.0 -1.013009787880759 -0.005683955197138005
4115999999.9999995 -1.0027730374473958 0.03395201162980225
4119000000.0 -1.0150520902272535 0.022587229735268603
4122000000.0 -0.9742477501818768 0.0831480381645235
4125000000.0 -0.9777034159007261 0.09763638635713136
4128000000.0 -0.9918065055367696 0.12005316752956027
4131000000.0 -1.004969408139732 0.17119626470260255
4134000000.0000005 -0.9956861408580522 0.17565592407000657
4138000000.0 -0.9978915096983507 0.2039160500805465
4141000000.0 -0.9752610044484451 0.20616027037051174
4144000000.0 -0.9884166355454638 0.24770240930582632
4147000000.0000005 -0.9987316606196732 0.2672406924689132
4150000000.0000005 -0.9689979647915361 0.3311388239964564
4152999999.9999995 -0.9554827872668091 0.333345511972956
4155999999.9999995 -0.9614966602711266 0.38816217068672737
4159000000.0 -0.9237323754900932 0.40545877202697345
4162000000.0 -0.9225431217781648 0.4454009205953119
4166000000.0000005 -0.9145545359634669 0.4381923840602875
4168999999.9999995 -0.8928213346469914 0.450761464324331
4171999999.9999995 -0.9072752050894032 0.49459259821646223
4175000000.0 -0.9024082504499602 0.5205106474920836
4178000000.0 -0.884643393375992 0.5388905083012732
4181000000.0 -0.8314205691117216 0.5484573513954761
4184000000.0 -0.8210235607522739 0.6073245291855505
4187999999.9999995 -0.810113939266748 0.6070477750432726
4191000000.0 -0.8185427605303655 0.6340158019364451
4194000000.0 -0.7921563898317047 0.686803527492563
4197000000.0 -0.7328609461318065 0.7183714219370578
4200000000.0 -0.729807797478077 0.7077880152155209
4203000000.0000005 -0.6832742294776952 0.7364712152820934
4206000000.0000005 -0.69618328000006 0.7703712550533538
4208999999.9999995 -0.6575948716410064 0.8009371785254054
4211999999.9999995 -0.6429952383856588 0.8181133261512394
4216000000.0 -0.6077972497263296 0.8057212902204951
4219000000.0000005 -0.6035949672028759 0.8326079108290936
4222000000.0000005 -0.5774103020966119 0.8606811572503994
4224999999.9999995 -0.533666397253572 0.8465159524061677
4227999999.9999995 -0.5552032738400168 0.9082376875517495
4231000000.0 -0.4859438408517789 0.8749911876215968
4234000000.0 -0.4930342882368859 0.9379137668435048
4238000000.0000005 -0.43554303219278256 0.9563697294123635
4240999999.9999995 -0.46835074528005904 0.9474523269083361
4244000000.0 -0.4276489646184121 0.9530680304895284
4247000000.0 -0.401175379529774 1.090271141787082
4250000000.0 -0.3991313516215081 1.0349544973260671
4253000000.0 -0.3990146186817181 1.014949455127585
4256000000.0 -0.23347777207929662 0.9232868580800904
4259000000.0000005 -0.2620187105358678 1.0473765355492746
4261999999.9999995 -0.2473341954825014 1.0367796071468036
4266000000.0 -0.24180931669361294 0.9634511476384906
4269000000.0 -0.19647733100895431 1.0509399895782152
4272000000.0000005 -0.14622991416555348 0.9949107421314453
4275000000.0000005 -0.12478173338753518 1.015867124285169
4277999999.9999995 -0.10634778442858833 0.9803733530092997
4280999999.9999995 -0.058742001884156014 1.0224351367592857
4284000000.0 -0.09426354465991443 1.0169359408520457
4288000000.0000005 0.031663689837554576 1.0381951976455621
4291000000.0000005 -0.05360996705596055 1.1039012965414325
4293999999.9999995 -0.0019315722079067399 1.0499448801671414
4297000000.0 0.08328188564406991 1.0217112871343843
4300000000.0 0.1389011149984935 1.106717260193813
4303000000.0 0.04428197621556307 1.0762548169045743
4306000000.0 0.14197247283199643 1.060486168019154
4309000000.0 0.1338498426720639 1.0533761399151407
4312000000.0 0.2247871418319458 1.011904024204276
4316000000.0 0.19560545269816815 1.0040432876914205
4319000000.0 0.206650752963345 1.074258886421183
4322000000.0 0.2375557919891777 1.0140027085935188
4325000000.0 0.23305627819395203 1.006385275741127
4328000000.0 0.3422459334777224 1.0207502673052302
4331000000.0 0.3140860495166559 0.9790418335403894
4334000000.0 0.3268025931761106 1.0135249903213617
4338000000.0 0.37015158833354417 0.9637409843723639
4341000000.0 0.3282861880260984 0.9434198691998228
4344000000.0 0.35570365082920524 0.9719236055436695
4347000000.0 0.3125048593254631 0.9411327771258668
4350000000.0 0.4483037905292043 0.9792942214822083
4353000000.0 0.4341931070737399 0.9551846556262642
4356000000.0 0.39088640645829514 1.022739369411016
4359000000.0 0.4697359244976245 0.9849256005435041
4362000000.0 0.41400275750770066 0.9101138797863666
4366000000.0 0.5206978553323982 0.876893390796666
4369000000.0 0.5078150450899476 0.9130530666236083
4372000000.0 0.5054828564076946 0.8745713580571798
4375000000.0 0.5784904244027318 0.8056735094014329
4378000000.0 0.6090550401151026 0.953693074094305
4381000000.0 0.5922977136672627 0.9190105020765642
4384000000.0 0.5645545553262996 0.7926452078662993
4388000000.0 0.5856332793474837 0.830352886926549
4391000000.0 0.5911510098681928 0.803153814675794
4394000000.0 0.597290659587471 0.8303946753848321
4397000000.0 0.6195142427627925 0.829714880409108
4400000000.0 0.635187006360991 0.8153495479809431
4403000000.0 0.6845583731350854 0.8053504580725772
4406000000.0 0.6840338007420472 0.7736487123090741
4409000000.0 0.6557295894047884 0.7240565560842297
4412000000.0 0.6532297561112106 0.8183883221607181
4416000000.0 0.7260420007108153 0.7274936027508755
4419000000.0 0.6597643906948739 0.7307639224437562
4422000000.0 0.740738063708531 0.6865604442830016
4425000000.0 0.7343287520548016 0.7313381429578376
4428000000.0 0.7259534792105011 0.688279617235822
4431000000.0 0.7508500843717348 0.7129085528893184
4434000000.0 0.8113923584295133 0.6919896437417364
4438000000.0 0.8083790306095322 0.6996292972299728
4441000000.0 0.7672613172687976 0.689429515500336
4444000000.0 0.7834333376949977 0.6640572631086433
4447000000.0 0.8038302529246949 0.6789727899273219
4450000000.0 0.8091095956041896 0.6330301655409568
4453000000.0 0.8240199479428457 0.6292574309883534
4456000000.0 0.8132900969972463 0.6044690121210679
4459000000.0 0.8268663962383914 0.590490315957555
4462000000.0 0.8649308153692672 0.6105176266823003
4466000000.0 0.8473016292455233 0.6036542006797211
4469000000.0 0.8154587915484761 0.6044234869570198
4472000000.0 0.8896482084216171 0.550830428894943
4475000000.0 0.8766597317283433 0.5613016578902181
4478000000.0 0.8694328781792922 0.5723966657639685
4481000000.0 0.8875340277053487 0.5356553001345069
4484000000.0 0.861730170798777 0.499830680810891
4488000000.0 0.8845523786494495 0.4953383810630292
4491000000.0 0.9074510960598087 0.5042627806262099
4494000000.0 0.8882512890612903 0.474011674682538
4497000000.0 0.874537766229187 0.49966183027427374
4500000000.0 0.9109188761494579 0.5041220506563516
4503000000.0 0.9144278701254337 0.49629389321542566
4506000000.0 0.9129393021259746 0.4517655496575336
4509000000.0 0.9024172646162111 0.4559784206280753
4512000000.0 0.9089956335635596 0.43226412206872555
4516000000.0 0.9258487636237478 0.4522387873023512
4519000000.0 0.9122419702788993 0.44772286706178444
4522000000.0 0.9234663384842364 0.40185817884575226
4525000000.0 0.9259288693608316 0.4252521963921371
4528000000.0 0.9774216312018305 0.4096421841919462
4531000000.0 0.9296825551175794 0.40606027048087007
4534000000.0 0.9365618491921494 0.4028383354370838
4538000000.0 0.9617551469542047 0.35965660494902535
4541000000.0 0.9716896572061999 0.34507835095683653
4544000000.0 0.9208303290022221 0.36842366946475724
4547000000.0 0.9462626999852699 0.37525382564082793
4550000000.0 0.9549244763363071 0.33077319182232634
4553000000.0 0.9738971486365984 0.33876711724251785
4556000000.0 0.94647505661963 0.2674379413696656
4559000000.0 0.9893941791138163 0.2939043970177081
4562000000.0 0.9724716337538768 0.31560767057496386
4566000000.0 0.9693503637806299 0.28973868953624293
4569000000.0 0.9492891408256627 0.2750933205089531
4572000000.0 0.9735938388080102 0.27632954436244495
4575000000.0 0.9954874896514516 0.2638204687743286
4578000000.0 0.9904661279416702 0.2966884856801959
4581000000.0 1.0234618075227357 0.2525940171259552
4584000000.0 0.9765472854125559 0.24018878258211013
4588000000.0 0.9936439427346326 0.2554929740631528
4591000000.0 0.9583175929969465 0.2629746680151751
4594000000.0 0.9997080598068762 0.2287033681046346
4597000000.0 1.017470759788091 0.22038355286286287
4600000000.0 0.9393679265854612 0.1559410833527317
4603000000.0 1.00238609437761 0.2175155456999316
4606000000.0 0.9626318414324079 0.2194933066780892
4609000000.0 1.0159255255930453 0.16550230521846826
4612000000.0 1.0469613996069635 0.21022095812358305
4616000000.0 0.986651391448543 0.1680009529238851
4619000000.0 1.0037334196842342 0.21360857334728078
4622000000.0 0.9904782634410498 0.19647659332068693
4625000000.0 0.9391277564192305 0.15307462490884755
4628000000.0 0.9480349660146199 0.1690205140332726
4631000000.0 0.9789013692144726 0.08912178310212765
4634000000.0 1.0017181319996724 0.16087930722726218
4638000000.0 1.0053402955679744 0.123886783896278
4641000000.0 1.021564548743177 0.1363939554316035
4644000000.0 1.0146996079780535 0.11912906717649069
4647000000.0 0.9904259025572729 0.1254603522211405
4650000000.0 1.008733666145168 0.09791037465894542
4653000000.0 1.022329077112125 0.10454769842407757
4656000000.0 0.9977787327041506 0.02577081294718342
4659000000.0 0.983717016099959 0.10289168711253296
4662000000.0 0.9872974518144406 0.10002137914841339
4666000000.0 0.9963340815504326 0.0984017966303466
4669000000.0 1.000064332261765 0.10278653016225475
4672000000.0 0.977752299281908 0.03400247616409223
4675000000.0 0.9492520177708027 0.01524292951637593
4678000000.0 1.0071358108135133 0.057004600325241336
4681000000.0 1.017205710586664 0.006537421225633527
4684000000.0 0.9547311172712551 0.03167322672615014
4688000000.0 0.9781100334884736 0.04626502673592971
4691000000.0 0.9460258569596994 0.02986938301145982
4694000000.0 1.0155040182660915 0.015104906205865756
4697000000.0 1.0078809528703176 0.012703335828767003
4700000000.0 1.0268977892248035 0.03274220523720272
4703000000.0 1.02985022671606 -0.04252317034896557
4706000000.0 1.0082304166644687 0.020516177418100766
4709000000.0 1.0068089205556696 -0.002171170298407705
4712000000.0 1.005381093962176 -0.03177863600994772
4716000000.0 0.994118229862159 0.003932996436008733
4719000000.0 1.033240231161237 -0.04724856615282597
4722000000.0 1.0138700078889207 -0.014776248689075957
4725000000.0 0.9995214209383569 -0.04158726683518352
4728000000.0 0.9827082762900327 -0.04885633721139164
4731000000.0 0.9925670004467143 -0.031782010498897
4734000000.0 1.0038374609882972 -0.030613465797727293
4738000000.0 0.9839426269943796 -0.04813693487670141
4741000000.0 0.977455065469055 -0.05246434623749342
4744000000.0 0.9985971063866746 -0.07993838416477009
4747000000.0 1.0224119360098634 -0.0802752477093929
4750000000.0 0.9934581532784276 -0.09403246146521017
4753000000.0 1.028307737737466 -0.10361514013590797
4756000000.0 0.9817566202397189 -0.11716608108389752
4759000000.0 1.0006419709450585 -0.09120071387138541
4762000000.0 0.9674009578267122 -0.0530051076653834
4766000000.0 0.9976424501154264 -0.12038993179902259
4769000000.0 1.0530949893176724 -0.07354215429331112
4772000000.0 1.0050434973792277 -0.10293465827865145
4775000000.0 1.0199413056216617 -0.12344249591210313
4778000000.0 1.0031398305120902 -0.05113006266785469
4781000000.0 1.0067182619656139 -0.09834094971429327
4784000000.0 1.0250497748576077 -0.12163960491125902
4788000000.0 1.0048725994998577 -0.11611511766495389
4791000000.0 1.0141175735214067 -0.14580451713253645
4794000000.0 0.993626730282984 -0.1412409540552723
4797000000.0 1.0090997847246084 -0.14786798621181665
4800000000.0 0.9895312671409225 -0.17446997405840292
4803000000.0 1.0047850257603104 -0.17750508346767963
4806000000.0 0.9843007140359052 -0.1530364945340481
4809000000.0 0.9790862158876371 -0.14802035462862922
4812000000.0 0.9784280858249863 -0.16657490554916926
4816000000.0 0.9904953846785508 -0.17672279893705303
4819000000.0 1.0065383142570254 -0.18060622556241615
4822000000.0 0.9951214931086718 -0.18266619003740317
4825000000.0 1.0142961315286125 -0.17617105166347535
4828000000.0 0.9967888258932145 -0.17361214843687822
4831000000.0 0.9883310163534547 -0.20318862303261165
4834000000.0 0.9862188105789721 -0.19947687516189583
4838000000.0 0.9887045721597012 -0.20412873130652137
4841000000.0 1.0063659420570916 -0.20030738136018295
4844000000.0 0.9957361497352424 -0.18985514831979083
4847000000.0 0.9705318811330953 -0.1782029687925376
4850000000.0 0.9792363806131207 -0.21475437736651443
4853000000.0 0.9889401659279121 -0.20437109665465197
4856000000.0 0.981460272885936 -0.20482540045164693
4859000000.0 0.9934355295295841 -0.22771537836583366
4862000000.0 0.9871935038391453 -0.19919404986959743
4866000000.0 1.0020978472751814 -0.2328299782910907
4869000000.0 1.0052102374118634 -0.24725145809013493
4872000000.0 0.9928988208275947 -0.24274145832406707
4875000000.0 1.0223568184017957 -0.2349235033142142
4878000000.0 1.0146453757344218 -0.25620875447256736
4881000000.0 1.0102507980435584 -0.24585989106972245
4884000000.0 1.0066909524529115 -0.23970651130250326
4888000000.0 0.9997856351766239 -0.19763377568830653
4891000000.0 1.0074824581142328 -0.24190489280029936
4894000000.0 0.9872893653958943 -0.2600061330857677
4897000000.0 0.9788443280588008 -0.22087295530389278
4900000000.0 0.9745599840303008 -0.27082832142047786
4903000000.0 1.0071758762950815 -0.2524393822966992
4906000000.0 1.0017830200040185 -0.2675697441697789
4909000000.0 0.9850003096891276 -0.28699586313069647
4912000000.0 0.9957015920932164 -0.28254590420911924
4916000000.0 1.0006871511550002 -0.24779950533778616
4919000000.0 0.977588457270399 -0.27142297115018965
4922000000.0 0.995439578297164 -0.25579418817034505
4925000000.0 0.9789028940801794 -0.29281918994379075
4928000000.0 0.9860985906053956 -0.2598345603469261
4931000000.0 1.0037293100143083 -0.28341032552432666
4934000000.0 0.9594515252821798 -0.27611099751313156
4938000000.0 0.9602013719606739 -0.29777099118039574
4941000000.0 0.97523053676664 -0.29176216933481297
4944000000.0 0.9466618415796679 -0.2620214749739891
4947000000.0 0.9518347337476178 -0.29512903941183893
4950000000.0 0.9513840641752995 -0.3313614428805888
4953000000.0 0.9778958192065064 -0.3769472585710697
4956000000.0 0.9875602585569617 -0.328339333203347
4959000000.0 0.953759340809466 -0.3242125515845382
4962000000.0 0.9599759946100954 -0.348710243420262
4966000000.0 0.9841925451848178 -0.30355520745837317
4969000000.0 1.0143571463230479 -0.32329973944180634
4972000000.0 0.9771973188196565 -0.33173140983240607
4975000000.0 0.9482155741602514 -0.28640586582762856
4978000000.0 0.9529403773331893 -0.3324042655712824
4981000000.0 0.9745346651414036 -0.3119697834275193
4984000000.0 0.9498100255451827 -0.2895364844284824
4988000000.0 0.9376249739135236 -0.2968430605670972
4991000000.0 0.982493648943654 -0.2972767227927241
4994000000.0 0.9765406465783024 -0.29014770873113654
4997000000.0 0.953795834967631 -0.3526900002363813
5000000000.0 0.9626496828324995 -0.32465477697580714
5003000000.0 1.0148724005047172 -0.32160155513635874
5006000000.0 1.0143266832065216 -0.3503746173298088
5009000000.0 0.9485371823217148 -0.34063320678545755
5012000000.0 0.9603109872388893 -0.3567135070307099
5016000000.0 1.0075212469273427 -0.3151569980399283
5019000000.0 0.9730037712420899 -0.34539870921198385
5022000000.0 0.9688197935977196 -0.37091076010241975
5025000000.0 1.007108234409443 -0.3919001363085343
5028000000.0 0.9580928498441355 -0.3870565700668172
5031000000.0 0.958744720548046 -0.38068482170819135
5034000000.0 0.9870173763765566 -0.39881708759031625
5038000000.0 0.9250238555256448 -0.37691551310782545
5041000000.0 0.9819925415075792 -0.31314384800778566
5044000000.0 0.9632771142157739 -0.31351968317597156
5047000000.0 0.9802169531185916 -0.32725721798463064
5050000000.0 0.9795741713428581 -0.2634023174403961
5053000000.0 1.0384226331451016 -0.3884867558011812
5056000000.0 0.9874447004150064 -0.3130230098729791
5059000000.0 0.9695564071871634 -0.2816360125212728
5062000000.0 1.00409117606621 -0.3915607274590313
5066000000.0 0.9677226992364862 -0.2884785468360618
5069000000.0 0.9513012784761274 -0.3907417468466068
5072000000.0 0.933383818558765 -0.36550556669536594
5075000000.0 0.9930432732994854 -0.3624312677220937
5078000000.0 0.9613979756857297 -0.4470025906719549
5081000000.0 0.9048001898834644 -0.36968464099871334
5084000000.0 0.9986397430085818 -0.3717607406119425
5088000000.0 0.9446723267176275 -0.38383760358123925
5091000000.0 0.9587754148958959 -0.4250508906012672
5094000000.0 0.9611876652090191 -0.3446611937576205
5097000000.0 1.0141070930753968 -0.3699272050152154
5100000000.0 0.9522311770132041 -0.3686272655957171
5103000000.0 0.9555476322037653 -0.35491456482908645
5106000000.0 1.009040018548604 -0.35094659270914774
5109000000.0 0.9463550972555803 -0.32076065623634453
5112000000.0 0.9376339335621725 -0.35676903872582977
5116000000.0 0.8956426824949373 -0.35624294456236866
5119000000.0 1.0108085019543023 -0.39038637320853914
5122000000.0 0.9655550907028815 -0.35262810751324847
5125000000.0 0.9495395878801169 -0.3826236308862355
5128000000.0 0.9485893637862921 -0.4026851852824497
5131000000.0 0.9631387108651845 -0.4210720353171825
5134000000.0 0.9886260273986437 -0.4073775036329065
5138000000.0 0.9542867227248242 -0.34628974397444934
5141000000.0 0.9513328783751032 -0.32323224850535526
5144000000.0 1.0317090723480746 -0.3516876231797582
5147000000.0 1.0071976112020906 -0.3946343652496872
5150000000.0 0.9707121725142143 -0.37592082881847755
5153000000.0 0.9482878441804915 -0.373519035289036
5156000000.0 0.9868633785327601 -0.37453173742424056
5159000000.0 1.0049380983926015 -0.4026693866522856
5162000000.0 0.9312058010868706 -0.39910175595015757
5166000000.0 1.0056725607433123 -0.46675467307903074
5169000000.0 0.9908518393147404 -0.4177765616897768
5172000000.0 0.9254069564595044 -0.36761209225345093
5175000000.0 0.9724956878144816 -0.40245672092732226
