! Created with skrf 1.8.0 (http://scikit-rf.org).
# Hz S RI R 50.0 
!freq ReS11 ImS11
4000000000.0 0.49458972367026494 -0.8785625198844778
4003000000.0 0.5465891770839726 -0.9289976677895522
4006000000.0 0.509015542413832 -0.9122801841414755
4009000000.0000005 0.5609247739729422 -0.8474441065407516
4011999999.9999995 0.6111307784775771 -0.8831067909428989
4016000000.0 0.5183248077197088 -0.878918281649116
4019000000.0 0.5069055749779225 -0.8666920493501014
4022000000.0000005 0.5941563813182897 -0.809199039497582
4025000000.0000005 0.5006192783092153 -0.9528730075873038
4027999999.9999995 0.5206816940516396 -0.9154751019722072
4030999999.9999995 0.5243772039801609 -0.8203295970729799
4034000000.0 0.4847934650748338 -0.8787631772065734
4038000000.0000005 0.5188054824103896 -0.8945313466418658
4041000000.0000005 0.5611683873367347 -0.8938203406968861
4043999999.9999995 0.5563535183655696 -0.9157660745264855
4046999999.9999995 0.5642426165938812 -0.9119155978087853
4050000000.0 0.5424340566370656 -0.9171488239874543
4053000000.0 0.512115353374473 -0.8636842076858934
4056000000.0 0.5299073408074843 -0.8810049679739866
4059000000.0 0.5181014011283424 -0.8553911384194948
4062000000.0000005 0.49001121402410686 -0.8989015928899302
4066000000.0 0.4655004460780787 -0.8008077885428291
4069000000.0 0.5268362439881946 -0.9074590525607822
4072000000.0 0.5473692686461467 -0.8678769544377067
4075000000.0 0.5853735160654706 -0.897913612482065
4078000000.0000005 0.5088206627911903 -0.8986514894796356
4081000000.0000005 0.6131800102183882 -0.862986917286433
4083999999.9999995 0.5194940858269197 -0.8884056559494248
4088000000.0 0.5723493609627219 -0.8639445883150488
4091000000.0 0.5514327806897731 -0.926871703789687
4094000000.0000005 0.5096591327700394 -0.847726191763634
4097000000.0000005 0.5393460009328285 -0.8557430912307651
4099999999.9999995 0.5335476726345333 -0.8938508655842153
4102999999.9999995 0.5553880955518496 -0.828285945714682
4106000000.0 0.5613810875135286 -0.889967674252456
4109000000.0 0.48333918189473885 -0.8653581579673617
4112000000.0 0.5302949991962014 -0.8673435969998359
4115999999.9999995 0.5484305532550888 -0.9193654344177897
4119000000.0 0.5558818972486569 -0.8726822748413208
4122000000.0 0.5255632754367415 -0.8836189476222541
4125000000.0 0.5015422798133307 -0.8949378820864122
4128000000.0 0.5121701559884808 -0.862187363774827
4131000000.0 0.5300754907709897 -0.859750997313354
4134000000.0000005 0.5285264514131776 -0.8818726307193923
4138000000.0 0.5064971008119689 -0.8792091889050785
4141000000.0 0.5109953851519957 -0.8816605527920763
4144000000.0 0.5809834329520005 -0.8835912417197419
4147000000.0000005 0.5131973808639949 -0.8961112116635473
4150000000.0000005 0.5607157833976069 -0.9002569341996098
4152999999.9999995 0.5162994078483133 -0.8700887859394117
4155999999.9999995 0.5845756112174133 -0.874519193319461
4159000000.0 0.5201703435985896 -0.8529337831615738
4162000000.0 0.5440914407542154 -0.8459078311165239
4166000000.0000005 0.5583323165885665 -0.8998006757161728
4168999999.9999995 0.5079500144177688 -0.8965220832918084
4171999999.9999995 0.5308055560825561 -0.8470320770433318
4175000000.0 0.5060619640442626 -0.8797034244219979
4178000000.0 0.5386699102936865 -0.8787479641363627
4181000000.0 0.5169095441696288 -0.8949492033665833
4184000000.0 0.5374326080704406 -0.8800504141117702
4187999999.9999995 0.5021952235993544 -0.864849584606263
4191000000.0 0.5561659019987001 -0.8375439812404564
4194000000.0 0.5115867673274928 -0.839747820799869
4197000000.0 0.537571342530066 -0.8655801155501432
4200000000.0 0.5498078238870017 -0.8747339980378875
4203000000.0000005 0.5467634520854151 -0.8775311624814125
4206000000.0000005 0.5520503773563064 -0.8632776691558526
4208999999.9999995 0.5249988254561258 -0.8563049342286534
4211999999.9999995 0.5141518748819569 -0.8766952678741784
4216000000.0 0.5394575707494818 -0.8669652798376429
4219000000.0000005 0.5565234932680048 -0.869882483588534
4222000000.0000005 0.5268600819235266 -0.8867092510365803
4224999999.9999995 0.5378488630152721 -0.8629777243435481
4227999999.9999995 0.5263280352491618 -0.8775124505254763
4231000000.0 0.530882691635352 -0.8791787703216389
4234000000.0 0.5424687682101228 -0.8715038842249625
4238000000.0000005 0.5185622162034601 -0.8817329136308275
4240999999.9999995 0.5110306724189617 -0.862620045626583
4244000000.0 0.5327776358591322 -0.8779703230895972
4247000000.0 0.518375763818371 -0.858885951282294
4250000000.0 0.5153462742688053 -0.8559767694907762
4253000000.0 0.5195167111666096 -0.8485372336283009
4256000000.0 0.5419064832161283 -0.8758304202279259
4259000000.0000005 0.511827414387937 -0.8515253321533532
4261999999.9999995 0.48949293389280013 -0.8735363764552861
4266000000.0 0.5196523652251019 -0.8961593198413865
4269000000.0 0.5338123016564272 -0.8732309400460363
4272000000.0000005 0.5243484663055968 -0.8479711072204412
4275000000.0000005 0.5331961532370852 -0.8526611800143012
4277999999.9999995 0.5362155966539496 -0.8844730651143048
4280999999.9999995 0.5427355011231001 -0.8696467993708585
4284000000.0 0.4934298216851857 -0.876682131029807
4288000000.0000005 0.5411250470794569 -0.8521729496994628
4291000000.0000005 0.519807881167554 -0.8443940053513452
4293999999.9999995 0.5132887645010729 -0.8627969453482407
4297000000.0 0.5433045069697084 -0.843937458389163
4300000000.0 0.5447109663124419 -0.8347743610488351
4303000000.0 0.5288133828002822 -0.8342198876325486
4306000000.0 0.5385111901915267 -0.854479199775093
4309000000.0 0.536501917018512 -0.8541658734045267
4312000000.0 0.5685609287362692 -0.8634243488088622
4316000000.0 0.5431930953412625 -0.8542892954763538
4319000000.0 0.5106001297936247 -0.8463122502298408
4322000000.0 0.5053083523440788 -0.8456910966770254
4325000000.0 0.5569078117035258 -0.8386355239886915
4328000000.0 0.514807038707284 -0.8392827258490264
4331000000.0 0.5037690299958248 -0.8842304591304719
4334000000.0 0.5150970247859576 -0.8749060294381512
4338000000.0 0.550046624044654 -0.8342402485907668
4341000000.0 0.5395198043407873 -0.8881007584582283
4344000000.0 0.5535595563873801 -0.8618756661364848
4347000000.0 0.5204254541566425 -0.8847796087410964
4350000000.0 0.49559298086645237 -0.8345880240886293
4353000000.0 0.5358321240734877 -0.851551543848487
4356000000.0 0.5086507857480423 -0.900230700927599
4359000000.0 0.49495797904167405 -0.8151804849865419
4362000000.0 0.4757454424290974 -0.9008295652444078
4366000000.0 0.5200204303942508 -0.8722011011952441
4369000000.0 0.5168539872094833 -0.8334278069641788
4372000000.0 0.4810032219335819 -0.885605986727509
4375000000.0 0.5269614574317283 -0.8382261281276516
4378000000.0 0.5185651258951619 -0.8364691035618024
4381000000.0 0.5101800096599748 -0.8526934935779893
4384000000.0 0.526760661076976 -0.9272846710921349
4388000000.0 0.5177350856876244 -0.8316684931621507
4391000000.0 0.5276816134391569 -0.8644973421965132
4394000000.0 0.5004694913340859 -0.8335961084424254
4397000000.0 0.511286233868335 -0.8558699488150499
4400000000.0 0.5341592005541755 -0.8889915737210742
4403000000.0 0.5247134153597035 -0.875454865773745
4406000000.0 0.49006722276753995 -0.8806502285979778
4409000000.0 0.5106540954102738 -0.8999044588936107
4412000000.0 0.45864717136852 -0.8897505853935207
4416000000.0 0.4984075306386566 -0.8733378353259137
4419000000.0 0.497915560986256 -0.8757289678894804
4422000000.0 0.5244878592638769 -0.852090322538253
4425000000.0 0.5493460215832295 -0.8596544231487753
4428000000.0 0.5124236014741101 -0.8682876546106504
4431000000.0 0.528112630475791 -0.8805563011535626
4434000000.0 0.4944668893880839 -0.8811711380157488
4438000000.0 0.5269634614968439 -0.8964998363456164
4441000000.0 0.5242228815615657 -0.8719114789033983
4444000000.0 0.5146569715777471 -0.8511337408914937
4447000000.0 0.4968540094474173 -0.8745777917239016
4450000000.0 0.5085934627891959 -0.850845132565617
4453000000.0 0.5198790084237053 -0.8878810450636725
4456000000.0 0.4748063833231212 -0.8544006272185432
4459000000.0 0.4670570435378388 -0.8421829197343851
4462000000.0 0.5324766146588233 -0.932035101799221
4466000000.0 0.5205819311665424 -0.9213401098573684
4469000000.0 0.5210390771793226 -0.8649233827555929
4472000000.0 0.49685588852289975 -0.8965493025211513
4475000000.0 0.5049552081595543 -0.8458713928951676
4478000000.0 0.504331727014128 -0.9228925325518027
4481000000.0 0.47938872613598105 -0.8573751796941955
4484000000.0 0.46451106231415756 -0.8787534024016448
4488000000.0 0.4856832986793165 -0.8847948725198514
4491000000.0 0.4880801274538744 -0.8774781454926144
4494000000.0 0.5040631539378903 -0.8598642326005415
4497000000.0 0.48290571255936143 -0.8565344025238629
4500000000.0 0.49591520283685186 -0.8579632224444526
4503000000.0 0.517142867928436 -0.8803621102841206
4506000000.0 0.4871432906676447 -0.8660593469867888
4509000000.0 0.49005835890477223 -0.8481586683373725
4512000000.0 0.4826480943187145 -0.8624580103763024
4516000000.0 0.518448954963294 -0.8830858136939574
4519000000.0 0.49610774687313264 -0.8511156129181378
4522000000.0 0.46843484056170004 -0.8920230761543269
4525000000.0 0.5177710774985967 -0.8551961358181213
4528000000.0 0.5168672196321811 -0.8993712320988139
4531000000.0 0.5049139409570621 -0.8669396270598717
4534000000.0 0.47183577966243007 -0.8663955269872164
4538000000.0 0.47853848574660907 -0.8631860242432765
4541000000.0 0.450213195575199 -0.8862821974943693
4544000000.0 0.48640284281049706 -0.865558563687191
4547000000.0 0.5191223580234947 -0.8491477259786878
4550000000.0 0.47916002978819655 -0.8939364532666478
4553000000.0 0.5038984876608935 -0.8713635574424491
4556000000.0 0.48577087170153344 -0.8654710804960938
4559000000.0 0.4796940390990609 -0.8991704058351889
4562000000.0 0.49560744228763787 -0.8749404239662262
4566000000.0 0.4926999680263874 -0.8845650638911102
4569000000.0 0.5012443961975745 -0.8775475440269243
4572000000.0 0.4944386496162859 -0.8866148739869324
4575000000.0 0.4769133884822343 -0.8962936734499978
4578000000.0 0.5117769893096472 -0.883818412892178
4581000000.0 0.48004730981235977 -0.8741370452940421
4584000000.0 0.49573162503826323 -0.8772366453985171
4588000000.0 0.5155547422632272 -0.898722196114612
4591000000.0 0.5065536618349679 -0.8745715001323604
4594000000.0 0.45531979681178775 -0.8854264237464248
4597000000.0 0.4692750119532836 -0.903036098851111
4600000000.0 0.44196288151347995 -0.8965982517626365
4603000000.0 0.4664228417614927 -0.9005442185774428
4606000000.0 0.47615157862740104 -0.8855328215160712
4609000000.0 0.4750360921689991 -0.8834755557368157
4612000000.0 0.4885231106460772 -0.8964886806563487
4616000000.0 0.4619763980669245 -0.8656608429653392
4619000000.0 0.49576922057847805 -0.8808272222756643
4622000000.0 0.5018239335753298 -0.8843127331939409
4625000000.0 0.43640532499273266 -0.8735425223652262
4628000000.0 0.4812817245598092 -0.8708944386111321
4631000000.0 0.45911928110364264 -0.8879676987987013
4634000000.0 0.47517557662860066 -0.8825923804904914
4638000000.0 0.4779098828369416 -0.8869190748742255
4641000000.0 0.49948970894870337 -0.8951953041332479
4644000000.0 0.4902613360753758 -0.8588875035033818
4647000000.0 0.47594391197457 -0.900763309458579
4650000000.0 0.4665405261904793 -0.8871862078687547
4653000000.0 0.49850020144018636 -0.8966072444034752
4656000000.0 0.45814103228480785 -0.9026888163073084
4659000000.0 0.4548868868157985 -0.8863698314305108
4662000000.0 0.4640462209044153 -0.8935573761912374
4666000000.0 0.4491455729207645 -0.8936694758046171
4669000000.0 0.4908283048295452 -0.8717150403576149
4672000000.0 0.4663895702045543 -0.9113135122232183
4675000000.0 0.4467563657835409 -0.9041629160830014
4678000000.0 0.45321748015519026 -0.888120625469748
4681000000.0 0.4672887145423338 -0.924200994301013
4684000000.0 0.43478007505835825 -0.8980888092593212
4688000000.0 0.4491997697400509 -0.8840663123507304
4691000000.0 0.494918225596198 -0.8947008369268536
4694000000.0 0.4853221371992964 -0.8777941307783639
4697000000.0 0.4409071406445564 -0.8565030459372738
4700000000.0 0.4763210387456047 -0.8748837488241962
4703000000.0 0.49116137370622914 -0.8563202290164292
4706000000.0 0.44511055018357154 -0.9033808810941352
4709000000.0 0.4529123196933587 -0.888627517036921
4712000000.0 0.4706868810310652 -0.8978626275939872
4716000000.0 0.4901159701863263 -0.9240967387857327
4719000000.0 0.4753166044757474 -0.8938616182027931
4722000000.0 0.4617039239512652 -0.8691750208062791
4725000000.0 0.4578431770243466 -0.875426793277622
4728000000.0 0.4486936816568936 -0.8987246537130499
4731000000.0 0.49751476514904613 -0.9497011581425816
4734000000.0 0.5116325854957738 -0.8656798203743649
4738000000.0 0.5116878553850764 -0.8966317717608471
4741000000.0 0.4854009413856879 -0.8876633847269196
4744000000.0 0.4580980305303459 -0.9018577878628506
4747000000.0 0.4927782475365645 -0.8688071552978458
4750000000.0 0.48135573459769093 -0.9184417999013603
4753000000.0 0.48420473866745795 -0.886160428016135
4756000000.0 0.48358301273263327 -0.9122819459801926
4759000000.0 0.4728240098954063 -0.91868966118526
4762000000.0 0.4443843075949822 -0.9408142747360767
4766000000.0 0.463171078983535 -0.8868604163599199
4769000000.0 0.4776409618524464 -0.9441426912159455
4772000000.0 0.4804635897113603 -0.878704817762842
4775000000.0 0.4721748604251048 -0.977554894185396
4778000000.0 0.46935515256391847 -0.9230976204867596
4781000000.0 0.4865847221308388 -0.877528748862921
4784000000.0 0.4979150130532436 -0.8831644003249547
4788000000.0 0.4653216286021159 -0.9464491889593662
4791000000.0 0.45117110302728225 -0.8989063784016559
4794000000.0 0.5223357748731463 -0.8901650875485564
4797000000.0 0.4518570961285072 -0.8887180777967143
4800000000.0 0.4485318821238347 -0.9083449484632111
4803000000.0 0.41941930674327493 -0.9259531424329485
4806000000.0 0.47652949657898225 -0.9217890129657235
4809000000.0 0.4343933015386018 -0.929407354427927
4812000000.0 0.4385151059408844 -0.9171700804478956
4816000000.0 0.4790143629862745 -0.8852387738784832
4819000000.0 0.4955371236375274 -0.9151710465396655
4822000000.0 0.4951751276507167 -0.9144474721435172
4825000000.0 0.5187763940400772 -0.8954760589610986
4828000000.0 0.469729206827287 -0.9026843962757111
4831000000.0 0.4176951022562322 -0.9627369430114872
4834000000.0 0.4723966783483161 -0.8898386846408487
4838000000.0 0.45025835190334584 -0.9309403970232676
4841000000.0 0.4646349873824809 -0.9295795286387928
4844000000.0 0.5137011046902225 -0.8970514258575544
4847000000.0 0.47464674465638346 -0.8698083089875891
4850000000.0 0.4632261252756579 -0.9467907538727068
4853000000.0 0.4548402760151369 -0.9041008514597589
4856000000.0 0.4412544358340791 -0.8973021066761179
4859000000.0 0.4688549880458362 -0.938648298942799
4862000000.0 0.47012830256295796 -0.8822140702546163
4866000000.0 0.4453520677241075 -0.9152630006464151
4869000000.0 0.4549043079233024 -0.9464498006755505
4872000000.0 0.47198269440079876 -0.9358290500060104
4875000000.0 0.5162907005519948 -0.9142819911110124
4878000000.0 0.4547314730582149 -0.9094713708799765
4881000000.0 0.44778082963752913 -0.992305684457069
4884000000.0 0.48107590160714375 -0.9020875109562897
4888000000.0 0.5059601215144938 -0.8878208314978671
4891000000.0 0.5048117558354904 -0.9254994132795846
4894000000.0 0.4403779375555599 -0.9335581789275519
4897000000.0 0.5089060568435546 -0.889429861171737
4900000000.0 0.4765053114845844 -0.9230746753023605
4903000000.0 0.4813487817145167 -0.9253893653619916
4906000000.0 0.480133567536435 -0.9441756176503964
4909000000.0 0.470769922942293 -0.901162797477821
4912000000.0 0.4698678668044416 -0.9902979279395067
4916000000.0 0.4691392923313378 -0.9364302369012476
4919000000.0 0.5127472738031784 -0.9320548564985425
4922000000.0 0.47459382117274945 -0.889654675105349
4925000000.0 0.44507693775623847 -0.9135104725351341
4928000000.0 0.5068116349302036 -0.8634085891860507
4931000000.0 0.5012641783754217 -0.9430358717750149
4934000000.0 0.47878641488914386 -0.8795790883856462
4938000000.0 0.4564819037681784 -0.9229060481442269
4941000000.0 0.4801479611330778 -0.9107573146198444
4944000000.0 0.46130927721742143 -0.8649839898533921
4947000000.0 0.4673811045746603 -0.9211387034692472
4950000000.0 0.4367973650327758 -0.9059426187893399
4953000000.0 0.4673966279984233 -0.9448342170515424
4956000000.0 0.42150517747780925 -0.9265179606402535
4959000000.0 0.40174603206611004 -0.9294047075132166
4962000000.0 0.46566237659307225 -0.9333165891704296
4966000000.0 0.5136990616660229 -0.9206094561517475
4969000000.0 0.515656304620802 -0.9340908443970581
4972000000.0 0.5120868644800645 -0.8992809354172143
4975000000.0 0.5004992904436106 -0.8790366888635136
4978000000.0 0.479941541179414 -0.9054018524929734
4981000000.0 0.47082778073178827 -0.9217983038107449
4984000000.0 0.48026439810372346 -0.9078547483126769
4988000000.0 0.46661981881438885 -0.9007884440768341
4991000000.0 0.5321718189027846 -0.9121039245177451
4994000000.0 0.5122077494712121 -0.8963819740186376
4997000000.0 0.4638436325128068 -0.8987418908676063
5000000000.0 0.5033486731322305 -0.9501718336678557
5003000000.0 0.5071598040565932 -0.9210325802816921
5006000000.0 0.5127490877944025 -0.9738444834241653
5009000000.0 0.4812971303449004 -0.8932330770291435
5012000000.0 0.4633785369807344 -0.9175132358249134
5016000000.0 0.5219371239003247 -0.9369698307650767
5019000000.0 0.47310180377457967 -0.9194791487191929
5022000000.0 0.5014102151472863 -0.8912660342570201
5025000000.0 0.5164631351618598 -0.9577822925584019
5028000000.0 0.47763595952827487 -0.9236282558586396
5031000000.0 0.4777154032848425 -0.9195378595684967
5034000000.0 0.4660291639826124 -0.944537350750855
5038000000.0 0.45249970135019435 -0.8985473153449975
5041000000.0 0.5095094842057566 -0.8952436834649133
5044000000.0 0.5352204497963682 -0.8847725849935125
5047000000.0 0.5069010448380433 -0.8952201802205997
5050000000.0 0.5243563965996775 -0.8709291972401856
5053000000.0 0.5108623144727824 -0.9702326352628396
5056000000.0 0.5352414235356429 -0.8788496656175614
5059000000.0 0.5261255820255428 -0.8883977654577202
5062000000.0 0.4425800258341619 -0.9382413060198791
5066000000.0 0.49694405751436105 -0.9058226064050081
5069000000.0 0.5295556297644137 -0.916145750599811
5072000000.0 0.5069871565530962 -0.88290065730975
5075000000.0 0.5128623238703858 -0.8994777845542439
5078000000.0 0.4815050303556688 -0.9345512431998648
5081000000.0 0.45044765620411786 -0.8777955729102012
5084000000.0 0.49005751091928657 -0.9664308871902945
5088000000.0 0.51335936044199 -0.8682779161224214
5091000000.0 0.44989362533570104 -0.9173554153892032
5094000000.0 0.4745619470345639 -0.9231371522600991
5097000000.0 0.5040152946979243 -0.8747243494599293
5100000000.0 0.49443024473825486 -0.8886363602456329
5103000000.0 0.4653466798132302 -0.9156374271743328
5106000000.0 0.539745792545127 -0.9368672250148071
5109000000.0 0.5430577937844566 -0.8774322323143522
5112000000.0 0.473570721831233 -0.902317503941833
5116000000.0 0.5008235464313865 -0.8755624435506386
5119000000.0 0.4789841407613757 -0.9425182915405566
5122000000.0 0.4452094840975904 -0.8828937423717838
5125000000.0 0.5531705401815233 -0.9006222492982057
5128000000.0 0.4746820552181476 -0.9232443866502522
5131000000.0 0.5144575971613868 -0.8739660719712323
5134000000.0 0.5369504141703058 -0.9419485321784851
5138000000.0 0.49861996606454967 -0.928623872228403
5141000000.0 0.6047246442230132 -0.8867307477751984
5144000000.0 0.5014232916151268 -0.8811058001648364
5147000000.0 0.5479079743022214 -0.9032910916735188
5150000000.0 0.5674051468540768 -0.9173062132025717
5153000000.0 0.5173778393862563 -0.9249895948353974
5156000000.0 0.5458915571447394 -0.9248734896803855
5159000000.0 0.5308756584242206 -0.9189420259314344
5162000000.0 0.511198122059272 -0.9180971743821595
5166000000.0 0.48323808270006624 -0.9193669780895329
5169000000.0 0.5110894063683411 -0.9106073944273958
5172000000.0 0.5325309958775013 -0.8944216839748198
5175000000.0 0.5239610370799581 -0.9476804080394703
