! Created with skrf 1.8.0 (http://scikit-rf.org).
# Hz S RI R 50.0 
!freq ReS11 ImS11
4000000000.0 0.3756175856087021 -0.9361018917296902
4003000000.0 0.39986403178210683 -0.9867057507744429
4006000000.0 0.3368378867929044 -0.9928504739179611
4009000000.0000005 0.3449940034700415 -0.957549966222826
4011999999.9999995 0.4102387996629075 -0.9636723679841718
4016000000.0 0.33147321617770065 -0.9749488793533365
4019000000.0 0.35976229783858354 -0.9487346195666192
4022000000.0000005 0.4641599524386669 -0.9355456637378925
4025000000.0000005 0.3153331952858359 -0.9689979287786257
4027999999.9999995 0.3233889953386273 -0.9899601403404819
4030999999.9999995 0.32759093072560863 -0.9346164865763328
4034000000.0 0.357238213188758 -0.9584006508763545
4038000000.0000005 0.3849016088183235 -0.9853001125683243
4041000000.0000005 0.3483930449175149 -0.9757560888115983
4043999999.9999995 0.38497809429006324 -0.9992832885338712
4046999999.9999995 0.37929200085457015 -0.9726977499447402
4050000000.0 0.3617653580206085 -0.9690133851664352
4053000000.0 0.3073040301413087 -0.9418780999132548
4056000000.0 0.3807480234500111 -0.96408987103597
4059000000.0 0.33916862777182233 -0.9700653468228836
4062000000.0000005 0.33251434478605013 -0.9868870322017217
4066000000.0 0.33182568822800407 -0.9254562381223089
4069000000.0 0.3337234416599525 -1.0106515935749794
4072000000.0 0.3665193750952891 -0.9562854493749314
4075000000.0 0.3898409743063477 -0.9259520488161284
4078000000.0000005 0.3578207600716716 -0.9518489493785397
4081000000.0000005 0.40901426297360477 -0.982527193710355
4083999999.9999995 0.33446974469186275 -0.9932769554663703
4088000000.0 0.35131048345292665 -0.958731570066088
4091000000.0 0.3650827515070717 -1.0037768642809053
4094000000.0000005 0.31732641983382387 -0.9501929838791652
4097000000.0000005 0.31315603130014513 -0.9525150923872058
4099999999.9999995 0.3522633556616879 -0.9512140855301852
4102999999.9999995 0.3837096442138292 -1.0012773998359152
4106000000.0 0.35770874261434477 -0.98492960948287
4109000000.0 0.3268129366891787 -0.9741147296088702
4112000000.0 0.34267576245926346 -0.9454923330701422
4115999999.9999995 0.3395650412796704 -0.9535985391684367
4119000000.0 0.32322515209239217 -1.006322078243241
4122000000.0 0.3140200003722418 -1.0052860385804567
4125000000.0 0.32597356774519226 -0.9746708197613901
4128000000.0 0.3464304334991105 -0.9396412659889017
4131000000.0 0.310129934380048 -0.9628100313636254
4134000000.0000005 0.325274901218333 -0.9554427905481921
4138000000.0 0.31385420511103923 -0.9489229960001049
4141000000.0 0.31182328313881436 -0.9722461356717289
4144000000.0 0.35113668335193204 -1.0093149564681838
4147000000.0000005 0.33227776621500565 -1.0067810767820597
4150000000.0000005 0.31393494716006215 -0.9732362656903536
4152999999.9999995 0.3409764292356527 -0.9781550284373426
4155999999.9999995 0.33743262211751784 -0.9833160935045108
4159000000.0 0.3133352531950784 -0.9580507876653097
4162000000.0 0.3250800752567094 -0.9610276758700419
4166000000.0000005 0.3319433356250558 -0.9781396730867553
4168999999.9999995 0.29499181293247134 -0.9642617408387004
4171999999.9999995 0.31592890303247945 -0.9844637156830307
4175000000.0 0.3352095014200247 -0.9729239502741309
4178000000.0 0.33417242590436863 -0.9775547144665208
4181000000.0 0.274399181853284 -0.972998508693912
4184000000.0 0.31598486119112446 -0.9488520204266795
4187999999.9999995 0.30818282736104463 -0.9532938990297589
4191000000.0 0.3337265220594218 -0.9470845716543476
4194000000.0 0.2979456841933058 -0.954742946886942
4197000000.0 0.3036677543416586 -0.9659578724804658
4200000000.0 0.3433931387577193 -0.9753650852900707
4203000000.0000005 0.316142518009241 -0.9852621560869496
4206000000.0000005 0.3203164254874048 -0.9856214588564218
4208999999.9999995 0.3058869647465414 -0.9431094764379079
4211999999.9999995 0.27881663203210594 -0.9753857928630281
4216000000.0 0.32721814435602825 -0.9719650062345406
4219000000.0000005 0.3218961190569314 -0.9776121377498186
4222000000.0000005 0.3149262463612823 -0.9505591781894293
4224999999.9999995 0.3132906215944243 -0.9591933635770526
4227999999.9999995 0.30733652492669455 -0.9665848946870007
4231000000.0 0.2872946391406776 -0.9691110197391207
4234000000.0 0.2893499615481524 -0.9963794708324685
4238000000.0000005 0.2892159214565336 -0.9892251023109001
4240999999.9999995 0.27537507338973244 -0.968372106022508
4244000000.0 0.298256681759972 -0.9590443056401995
4247000000.0 0.30030434878138995 -0.9602476714213186
4250000000.0 0.279062646649881 -0.941611311211892
4253000000.0 0.26577571893666296 -0.9404711364158029
4256000000.0 0.29026337274192937 -1.021027506750774
4259000000.0000005 0.2619297901082744 -0.9373707303468852
4261999999.9999995 0.27104401268867817 -0.9693648378640763
4266000000.0 0.23924670618337376 -1.0007518193701026
4269000000.0 0.29046117933397797 -0.9571839648722988
4272000000.0000005 0.2969933151640364 -0.9576171939061747
4275000000.0000005 0.2914151911998357 -0.9714478184943335
4277999999.9999995 0.292333750110596 -1.0140272935400072
4280999999.9999995 0.29274411992272664 -0.9954659690043216
4284000000.0 0.25631881633657677 -0.9771528337587102
4288000000.0000005 0.3131563553372357 -0.9436873009789435
4291000000.0000005 0.28672766201762667 -0.9366664910145086
4293999999.9999995 0.27046208300893454 -0.9752401522388477
4297000000.0 0.2867462541615066 -0.9639032065813028
4300000000.0 0.29540227005338227 -0.9656585150521875
4303000000.0 0.26358703377967824 -0.9651986446404124
4306000000.0 0.28660237352452933 -0.9794374107587849
4309000000.0 0.2674435941936125 -0.9761112738507497
4312000000.0 0.2928468567909077 -0.9792171568584251
4316000000.0 0.26556125499700317 -0.962191292185228
4319000000.0 0.2590816917439236 -0.9595477509251336
4322000000.0 0.2349895534966625 -0.9773385935350412
4325000000.0 0.2582157923619929 -0.9818790791037736
4328000000.0 0.2645911632623753 -0.9711959826192327
4331000000.0 0.24277436762003463 -0.9844198530607563
4334000000.0 0.27586026293646515 -0.997039512041487
4338000000.0 0.2731419386734961 -0.9592727701474981
4341000000.0 0.3053121773805567 -0.9797749677613332
4344000000.0 0.26868076954409054 -0.9844038712496231
4347000000.0 0.20540595329541045 -0.9964226292487618
4350000000.0 0.23310338336194664 -0.9542326714140374
4353000000.0 0.27201369378895185 -0.9583378500111598
4356000000.0 0.18976482377600556 -0.9829293745252442
4359000000.0 0.21366143033196772 -0.9540570254349263
4362000000.0 0.18815202862352404 -1.0079802463186698
4366000000.0 0.2368755356591845 -1.0080684784349483
4369000000.0 0.20630160547724202 -0.9621342090851839
4372000000.0 0.18908489907619724 -0.985252189535002
4375000000.0 0.24038835786505197 -0.9716470175682101
4378000000.0 0.2202632284224721 -0.9590770640103252
4381000000.0 0.21867651688939077 -0.9738711681705913
4384000000.0 0.22896559734968785 -1.0475235653236676
4388000000.0 0.20820356116794364 -0.9623181960656763
4391000000.0 0.2224560257366845 -0.99573511372426
4394000000.0 0.2082713244878286 -0.9633473857929722
4397000000.0 0.20749843846750315 -0.9841732570225108
4400000000.0 0.21638251656250462 -1.0095093887299602
4403000000.0 0.21322324110746488 -0.9968508350035612
4406000000.0 0.19788823153435142 -0.9917705597643924
4409000000.0 0.19798652471305267 -1.0211280467660284
4412000000.0 0.15892450148824427 -0.9927557477092839
4416000000.0 0.18734633744302132 -0.9666967272602585
4419000000.0 0.1769935233671086 -0.996562739430138
4422000000.0 0.21008088881783388 -0.9868652400357687
4425000000.0 0.22236222169324216 -1.0016143670800732
4428000000.0 0.18725395455157073 -0.9953678808248745
4431000000.0 0.19582024521454994 -1.0044204168862385
4434000000.0 0.17307422254235083 -0.9801064015514214
4438000000.0 0.18876965788199523 -1.0089913374055341
4441000000.0 0.19918002249341704 -1.0177174619487501
4444000000.0 0.17296966492393556 -0.9671158242016147
4447000000.0 0.16905129348881237 -0.9828708076318324
4450000000.0 0.18572181207548621 -0.9849650416342399
4453000000.0 0.1770812527476741 -1.0109085444107775
4456000000.0 0.15741144989507772 -0.9717918653745284
4459000000.0 0.1521940611550014 -0.9698010667899648
4462000000.0 0.16205225653245925 -1.0374885332735784
4466000000.0 0.17375508588602662 -1.0326732273898442
4469000000.0 0.19381371939883418 -0.9952238624345453
4472000000.0 0.14866452320160833 -1.0151956085829117
4475000000.0 0.1342830176610582 -0.9783586296484901
4478000000.0 0.13383331872719922 -1.0363975374651313
4481000000.0 0.13988529442286207 -0.9677944844439625
4484000000.0 0.10314046782776287 -1.0187817676060904
4488000000.0 0.14465820699209625 -1.0000259274221106
4491000000.0 0.13052371363865006 -0.9947062896494738
4494000000.0 0.15548416412558458 -0.9880211428790749
4497000000.0 0.14260307219326085 -0.9832077418812164
4500000000.0 0.13552029680585742 -1.0085541283715056
4503000000.0 0.149371449544288 -1.0249114401467367
4506000000.0 0.1384983829835133 -1.0059828443290475
4509000000.0 0.1338582753972138 -0.9741427773739046
4512000000.0 0.11738724053049326 -0.9822041733955877
4516000000.0 0.12181424628173299 -1.0206461850809248
4519000000.0 0.1473240550050805 -0.9809105442421424
4522000000.0 0.08757806050191802 -1.013335051197718
4525000000.0 0.15368770789667113 -1.011783183852568
4528000000.0 0.1367738543909307 -1.019007119482936
4531000000.0 0.1155118171224433 -1.026567693029872
4534000000.0 0.10182414268374163 -1.0090788723553488
4538000000.0 0.11700079212637277 -1.009851538582821
4541000000.0 0.08062460804784444 -1.009423408230417
4544000000.0 0.09089531225113984 -1.0088436744338736
4547000000.0 0.12284257171655155 -1.0067030046542114
4550000000.0 0.08951510572982962 -1.0264004513008569
4553000000.0 0.09412639479301077 -1.0147780886089566
4556000000.0 0.09465808427105005 -1.0059107333168937
4559000000.0 0.0728945455235383 -1.0022225870935217
4562000000.0 0.0863611507573635 -1.018984252940616
4566000000.0 0.08205538955565816 -1.026576192314137
4569000000.0 0.06473773758778872 -1.0180185853275503
4572000000.0 0.06938056584813296 -0.9972088822382437
4575000000.0 0.051464981945045896 -1.0051034444280291
4578000000.0 0.06493707965817896 -1.0275438156431096
4581000000.0 0.044759026256410483 -1.015963153057739
4584000000.0 0.041678922606219915 -0.9983138678035635
4588000000.0 0.05115156893478495 -1.0396723084010682
4591000000.0 0.05363200207154528 -1.0122986662414446
4594000000.0 0.026717513558855932 -0.9997403327128505
4597000000.0 0.045032250747707114 -1.0187962547616596
4600000000.0 0.036305467010082304 -1.0112126544482685
4603000000.0 0.02826155258448948 -1.0006175865956595
4606000000.0 0.06139732964233502 -1.0319262090636239
4609000000.0 0.061862397007349246 -1.0239379938095101
4612000000.0 0.020036627956507347 -0.9912359404419839
4616000000.0 0.020238985897812756 -0.9850748612117224
4619000000.0 0.03261434735845348 -1.0188434566783642
4622000000.0 0.00040002069164740695 -1.0193097344760027
4625000000.0 0.001875798864576339 -1.0235953525572055
4628000000.0 0.03396113876431314 -1.0356918158853141
4631000000.0 0.025722952174306035 -1.0277185363020251
4634000000.0 -0.007850942815075423 -0.9990232841787308
4638000000.0 0.015998163123468828 -1.0117291854816135
4641000000.0 -0.00294556714713462 -1.0167523528394675
4644000000.0 0.012575265808849545 -1.0138087764429247
4647000000.0 -0.000692746592901472 -1.023158414401384
4650000000.0 -0.005090019849330885 -1.0121847821768553
4653000000.0 0.026191035147002856 -1.0370011094424667
4656000000.0 -0.01210446171080759 -1.03389409189493
4659000000.0 -0.04081072016976732 -1.0171201181141782
4662000000.0 -0.03224539435279618 -1.039968442650914
4666000000.0 -0.05189055103012888 -1.004236436805117
4669000000.0 -0.007643701986502979 -1.011833443460011
4672000000.0 -0.015475425038009041 -1.0290788183350468
4675000000.0 -0.05154264390230304 -1.0312874257609224
4678000000.0 -0.05024994579217083 -0.9885628797906775
4681000000.0 -0.06092718009703619 -0.9961118168710351
4684000000.0 -0.06381185623600334 -1.0486518222807433
4688000000.0 -0.08257095271538983 -1.015297414676805
4691000000.0 -0.019928356148707853 -1.0552410709001234
4694000000.0 0.0017445521503448164 -1.0102743407865278
4697000000.0 -0.054668716893187835 -0.9531426830713133
4700000000.0 -0.04078272326437046 -0.9905828811701995
4703000000.0 0.0151199210687777 -0.9441549686801392
4706000000.0 -0.09643970263355219 -1.0234195091192513
4709000000.0 -0.08092429495055437 -1.0168381040784091
4712000000.0 -0.05707133940972409 -1.0237393561740997
4716000000.0 -0.08430007776630653 -1.0522756858479156
4719000000.0 -0.01791712420575056 -1.0190963268910054
4722000000.0 -0.053293827047000586 -1.017780668135785
4725000000.0 -0.07573526326882021 -1.0199006965803683
4728000000.0 -0.06785453975898216 -1.005828809846623
4731000000.0 -0.0636447842872022 -1.0417397632326117
4734000000.0 -0.047276136434155756 -1.0014853501105683
4738000000.0 -0.06758768646946578 -1.0957323482227328
4741000000.0 -0.10987018862404915 -1.0241719698970055
4744000000.0 -0.09572425805695824 -1.0119927988122397
4747000000.0 -0.031173088335932755 -0.9856483997919849
4750000000.0 -0.10734686809202675 -1.0676083602714421
4753000000.0 -0.04800385010832295 -1.0472937604834318
4756000000.0 -0.09164631483378932 -1.0737296078680134
4759000000.0 -0.09108955166522067 -1.0579061660164315
4762000000.0 -0.12252832479585418 -1.0781864063721402
4766000000.0 -0.08887384900089346 -1.0488919827802607
4769000000.0 -0.12094263190188662 -1.0196841764283244
4772000000.0 -0.12962382284723134 -1.0280649293159052
4775000000.0 -0.16037869761229623 -1.0507970434050664
4778000000.0 -0.15712530328731766 -1.0195857314966552
4781000000.0 -0.12387577844456588 -1.0236967578500265
4784000000.0 -0.12878559491072336 -1.0192087040310456
4788000000.0 -0.18932291231492981 -1.0631514096366583
4791000000.0 -0.15558616737862296 -1.0326741043700323
4794000000.0 -0.12423856414557352 -1.0639844486954801
4797000000.0 -0.17759341929868894 -0.9701297770186795
4800000000.0 -0.1646410512126324 -0.9896102282485302
4803000000.0 -0.21831219399934862 -0.9876134721697601
4806000000.0 -0.1921067299797937 -1.0446888399553311
4809000000.0 -0.23250857117529958 -1.0052504107186575
4812000000.0 -0.21546047226100634 -0.9971541048755577
4816000000.0 -0.14983924440212174 -1.0040324152305453
4819000000.0 -0.1541090873351158 -1.0588371761392208
4822000000.0 -0.17173873262916112 -1.069489860945095
4825000000.0 -0.14848434916836956 -1.0585952924660655
4828000000.0 -0.1837988642931661 -1.0253520817017778
4831000000.0 -0.22581089936414123 -1.0236839768541097
4834000000.0 -0.18791037252636933 -1.0168515867028511
4838000000.0 -0.2474277626899143 -1.0344923334180591
4841000000.0 -0.1987621270197974 -0.9918033736626242
4844000000.0 -0.1812362399749743 -1.0350796747310382
4847000000.0 -0.16652654104922432 -0.9945049968520958
4850000000.0 -0.2620301609658113 -1.0333148538968928
4853000000.0 -0.2393315897666745 -0.9593155786002194
4856000000.0 -0.2235758862550986 -1.000433203427291
4859000000.0 -0.27643435284578577 -1.0466801525849847
4862000000.0 -0.2120994505044293 -1.0077788529008767
4866000000.0 -0.26936974966278965 -1.013388541290322
4869000000.0 -0.27870484435722587 -1.021463971212578
4872000000.0 -0.2831754274947558 -0.9949893526707201
4875000000.0 -0.19253274964348793 -1.0684284493851934
4878000000.0 -0.27477875212197367 -1.0102872930560531
4881000000.0 -0.3289765585179597 -1.0355181738306343
4884000000.0 -0.26874850236306336 -1.0126059448565852
4888000000.0 -0.22144854329789204 -0.9967649190724662
4891000000.0 -0.2802406872252485 -1.0222332223902646
4894000000.0 -0.29973180918337455 -0.9867356219137788
4897000000.0 -0.27292443167296776 -0.9831913601607492
4900000000.0 -0.29204853178610085 -1.0080261909031565
4903000000.0 -0.28236170720466225 -1.0064279253485013
4906000000.0 -0.31402488084162933 -0.9876180134055925
4909000000.0 -0.29259339509983184 -0.9989109815045072
4912000000.0 -0.3623715855713647 -1.0213754049403971
4916000000.0 -0.3343395386495215 -0.9792855076177188
4919000000.0 -0.2804401796149735 -0.9887913509817836
4922000000.0 -0.32471905323842715 -0.9549321746829371
4925000000.0 -0.37585268597418753 -1.0130376314972056
4928000000.0 -0.3000796915832913 -1.0027179945690987
4931000000.0 -0.3685794861957378 -0.9880764923419677
4934000000.0 -0.31465506655783326 -0.9513667133479391
4938000000.0 -0.3888007030524212 -0.9920575167218711
4941000000.0 -0.34513296188397247 -0.9347415436122188
4944000000.0 -0.311638142951697 -0.9352172483286894
4947000000.0 -0.3929695509404248 -0.9666961745271228
4950000000.0 -0.36355312288050073 -0.9703697749834823
4953000000.0 -0.38934835106046656 -0.9611494204880225
4956000000.0 -0.3567158230884788 -0.9423460903860159
4959000000.0 -0.41516828677312345 -0.9381627639091618
4962000000.0 -0.43282061302984026 -0.9423596916280863
4966000000.0 -0.3939794355373748 -0.9828773815514313
4969000000.0 -0.40542865583532467 -0.9825706178047804
4972000000.0 -0.3874747958870551 -0.9654424307314904
4975000000.0 -0.4290703163899221 -0.9319991310803564
4978000000.0 -0.4681597097323831 -0.9707503907118915
4981000000.0 -0.4375214466550997 -0.9446819692921846
4984000000.0 -0.44983229342755415 -0.9072965151227761
4988000000.0 -0.43422240848069943 -0.9762638935203845
4991000000.0 -0.43585657307773357 -0.9460811717548008
4994000000.0 -0.44584440102331374 -0.8846702896813068
4997000000.0 -0.48167122630468584 -0.9000084461186824
5000000000.0 -0.5205043768008424 -0.923276067327247
5003000000.0 -0.5069551586741532 -0.9368963608371482
5006000000.0 -0.5104914879595037 -0.9032853722067817
5009000000.0 -0.5337481046640297 -0.9029291946401911
5012000000.0 -0.5377637917264053 -0.9410167966393691
5016000000.0 -0.5021418639905466 -0.9097245333900568
5019000000.0 -0.5291471250279323 -0.8932136121391153
5022000000.0 -0.5784553483378171 -0.8849981113351526
5025000000.0 -0.558972626076416 -0.8616048198912345
5028000000.0 -0.5456817431773868 -0.8555435736747495
5031000000.0 -0.5996404570293669 -0.8307785709316267
5034000000.0 -0.5824099544816671 -0.9022780917093899
5038000000.0 -0.559057884346636 -0.8391361322353122
5041000000.0 -0.5899699076106962 -0.8629530780769059
5044000000.0 -0.5319851161906761 -0.8358208824243373
5047000000.0 -0.6210420678834542 -0.8280261057010887
5050000000.0 -0.6031025689581979 -0.8719679087158042
5053000000.0 -0.6486203016196291 -0.8179986943026287
5056000000.0 -0.6170566206634582 -0.8097460849232423
5059000000.0 -0.6883566137973279 -0.7940149067875385
5062000000.0 -0.6957680894421849 -0.7778912098503548
5066000000.0 -0.689556181470322 -0.8394072117294564
5069000000.0 -0.6532741903081686 -0.7915437278873652
5072000000.0 -0.6619078655648768 -0.8857312807188545
5075000000.0 -0.6390568317158689 -0.7177404103378947
5078000000.0 -0.6508915389341712 -0.8128011473113758
5081000000.0 -0.6928148699219885 -0.7439424305371616
5084000000.0 -0.6691501835811207 -0.7429675166589932
5088000000.0 -0.7141914798365555 -0.7227073999356604
5091000000.0 -0.7036034396121527 -0.6841133950261015
5094000000.0 -0.7248193327613169 -0.6530960012190361
5097000000.0 -0.7077831720777105 -0.7006896455681608
5100000000.0 -0.7957608753755838 -0.7102925885061958
5103000000.0 -0.7846030890778262 -0.6756317068580184
5106000000.0 -0.7230142200877075 -0.6454380688833136
5109000000.0 -0.7552829165083916 -0.7030460896614246
5112000000.0 -0.8414246432025048 -0.6742259029752342
5116000000.0 -0.8257251778753187 -0.6650269430968329
5119000000.0 -0.8198915702302788 -0.5829835563555048
5122000000.0 -0.7611040913244055 -0.5889090354502782
5125000000.0 -0.7274249241339552 -0.659066447560305
5128000000.0 -0.7921049116397729 -0.6216695599853016
5131000000.0 -0.8803343749815896 -0.6451164918413961
5134000000.0 -0.8377848482587887 -0.5343914937806536
5138000000.0 -0.8198827018818837 -0.5872964417681054
5141000000.0 -0.8807577558918145 -0.567147583802831
5144000000.0 -0.8533751074871276 -0.4837438178843222
5147000000.0 -0.8862156308663078 -0.5487606770441111
5150000000.0 -0.9335786545897211 -0.5408178341437894
5153000000.0 -0.9579494734248551 -0.5549592794505536
