! Created with skrf 1.8.0 (http://scikit-rf.org).
# Hz S RI R 50.0 
!freq ReS11 ImS11
4000000000.0 0.573492578788286 -0.8723882453374452
4003000000.0 0.5719851276375033 -0.8825384964283634
4006000000.0 0.541149445807591 -0.8985684179054068
4009000000.0000005 0.5362116966454618 -0.8519298799895663
4011999999.9999995 0.6116903878889752 -0.8537317463155201
4016000000.0 0.4873682082385261 -0.902408340024436
4019000000.0 0.5308579498862271 -0.8650494493996597
4022000000.0000005 0.5895933802316022 -0.8081517541347809
4025000000.0000005 0.4987230587726279 -0.9324517585263365
4027999999.9999995 0.5232845649228834 -0.8824796906475411
4030999999.9999995 0.46503820010143565 -0.8298436598776987
4034000000.0 0.5286642112814515 -0.8512081168541488
4038000000.0000005 0.5230907203192187 -0.8849220932744571
4041000000.0000005 0.5358569770832533 -0.8626369477334697
4043999999.9999995 0.5755252266958362 -0.8993265860789367
4046999999.9999995 0.5550941726959625 -0.873266713176972
4050000000.0 0.5274700216667375 -0.9008995255445124
4053000000.0 0.5223336792861147 -0.8534432405005654
4056000000.0 0.5393351512737963 -0.8759716255937033
4059000000.0 0.5804373387814749 -0.811029121773836
4062000000.0000005 0.5084668866108244 -0.8733066802548715
4066000000.0 0.5267384866400248 -0.8191070266569677
4069000000.0 0.5318572869183794 -0.898455262555709
4072000000.0 0.6065975772493158 -0.8436735238453165
4075000000.0 0.5632945936135638 -0.8691231613798305
4078000000.0000005 0.5185286529480251 -0.9106380849837072
4081000000.0000005 0.6294195461111298 -0.8498456943214006
4083999999.9999995 0.525376379219497 -0.8537728683688273
4088000000.0 0.5803664130596969 -0.8457984441520915
4091000000.0 0.5897253604375832 -0.9443938458967925
4094000000.0000005 0.5679669299194968 -0.8662781613534893
4097000000.0000005 0.5261473325483287 -0.8992586920898193
4099999999.9999995 0.5106670571768694 -0.8725804803804732
4102999999.9999995 0.584396312854185 -0.8458085158835545
4106000000.0 0.566403402643379 -0.858591157462189
4109000000.0 0.5360736364411065 -0.8887815573137684
4112000000.0 0.5543066506898933 -0.8743472928447038
4115999999.9999995 0.559514268869599 -0.8375864011458397
4119000000.0 0.5553887671151385 -0.8874738228744754
4122000000.0 0.5296482047767153 -0.9044015539531893
4125000000.0 0.534953003839999 -0.890379615344642
4128000000.0 0.5335007548290357 -0.8183028647734354
4131000000.0 0.5416096429875233 -0.8613438582403751
4134000000.0000005 0.5569438591400542 -0.8589459954172756
4138000000.0 0.5224050231259051 -0.8558982937078732
4141000000.0 0.5093921752995705 -0.8765279055473774
4144000000.0 0.5422605134415533 -0.8669601902210388
4147000000.0000005 0.5177451052727057 -0.8323428722890822
4150000000.0000005 0.5927406967747582 -0.8945661847375017
4152999999.9999995 0.5493375443193105 -0.8660632918693157
4155999999.9999995 0.5489846673480812 -0.8670285916026994
4159000000.0 0.5575173746539174 -0.8593680909960248
4162000000.0 0.5846355651052485 -0.8472746403517426
4166000000.0000005 0.5537267815599741 -0.8774595592860013
4168999999.9999995 0.5311999540934051 -0.8671828381590161
4171999999.9999995 0.5645758292427564 -0.8605295184954734
4175000000.0 0.5646914612039524 -0.8289328695342789
4178000000.0 0.5718131663732133 -0.8692791872023878
4181000000.0 0.5471452812763475 -0.850599832849533
4184000000.0 0.566962357103158 -0.8667971797147254
4187999999.9999995 0.5361846200765956 -0.8582310507262499
4191000000.0 0.550571082237315 -0.8053494204685693
4194000000.0 0.5130247177128402 -0.8388415216954329
4197000000.0 0.5968021376932052 -0.8625811078101497
4200000000.0 0.5517320569961492 -0.8428707847565758
4203000000.0000005 0.5681846017269325 -0.8357474834662272
4206000000.0000005 0.5509398319279529 -0.8626080786018195
4208999999.9999995 0.5453456783789499 -0.8419180953433595
4211999999.9999995 0.5301098240370236 -0.8644685351389019
4216000000.0 0.5655847843213266 -0.8666549271884068
4219000000.0000005 0.5440967144987477 -0.8508745319070121
4222000000.0000005 0.5492128503268365 -0.8826976853180752
4224999999.9999995 0.5456768946862216 -0.8462167561235168
4227999999.9999995 0.5589466589079473 -0.8589569719599279
4231000000.0 0.5453591007327669 -0.856300446705175
4234000000.0 0.5545379343342955 -0.8555302893252316
4238000000.0000005 0.5569185931068317 -0.8603202275446704
4240999999.9999995 0.531952116368178 -0.8741774495514386
4244000000.0 0.555164850982202 -0.8428097269660619
4247000000.0 0.5555520755432488 -0.8557235303461483
4250000000.0 0.5304606962081266 -0.8362690898041343
4253000000.0 0.5497370091256679 -0.8432073511199059
4256000000.0 0.5436617280186529 -0.8584222629460148
4259000000.0000005 0.5270695264226676 -0.8406722198515622
4261999999.9999995 0.53433079121296 -0.84742528248934
4266000000.0 0.5369690340760592 -0.8940918245702175
4269000000.0 0.5633788745973336 -0.842826396221412
4272000000.0000005 0.5637111218228759 -0.8582203772355259
4275000000.0000005 0.5422730056872334 -0.8733851063534116
4277999999.9999995 0.578536124671627 -0.8742377756252278
4280999999.9999995 0.5234849155027382 -0.8559648381387746
4284000000.0 0.5162919840548874 -0.8817083651751926
4288000000.0000005 0.5865955532737409 -0.8198675622475862
4291000000.0000005 0.5309257034140801 -0.8108479111744457
4293999999.9999995 0.5357324521080568 -0.849171224360069
4297000000.0 0.5469382486277716 -0.831237193890368
4300000000.0 0.5329810435760458 -0.8448135992034153
4303000000.0 0.5154737683323845 -0.8456149917099836
4306000000.0 0.5620035418893279 -0.828403350285924
4309000000.0 0.5450717371746754 -0.8385653807165576
4312000000.0 0.6074436910792331 -0.8405727918153825
4316000000.0 0.5724391915338116 -0.8647160469120321
4319000000.0 0.5485402565059847 -0.8346875204935144
4322000000.0 0.5323119560656364 -0.8537905322803556
4325000000.0 0.5873999207351316 -0.8634488203088753
4328000000.0 0.5448920412265216 -0.842779999775684
4331000000.0 0.5186172756986338 -0.8629578588769384
4334000000.0 0.5328354333235154 -0.8570911781012294
4338000000.0 0.5689060250147405 -0.8327299499226548
4341000000.0 0.5794373413264133 -0.8743668365515799
4344000000.0 0.560076776742829 -0.8523667630243613
4347000000.0 0.5253519882131023 -0.8648840980752887
4350000000.0 0.5177758597501698 -0.8256535550277816
4353000000.0 0.5453475037099745 -0.8307963278854242
4356000000.0 0.5200536569666739 -0.8608036713760393
4359000000.0 0.5108751763184682 -0.8088760285841781
4362000000.0 0.5051725124149097 -0.867952777966566
4366000000.0 0.5464317893183833 -0.866399742849966
4369000000.0 0.5153091069725796 -0.8359909151221614
4372000000.0 0.5021575320806363 -0.8726115439526448
4375000000.0 0.5690202814564789 -0.8386045825455125
4378000000.0 0.5311785786831851 -0.8338903794866771
4381000000.0 0.5392202647378891 -0.835992266335218
4384000000.0 0.5563359826775508 -0.9035552385542042
4388000000.0 0.5541296370327226 -0.8350676360721835
4391000000.0 0.5447465892670094 -0.8579991531531266
4394000000.0 0.5270223640341413 -0.8239386299075708
4397000000.0 0.5312778332044207 -0.8540813584933666
4400000000.0 0.5519815048579968 -0.8696779205622178
4403000000.0 0.5450870391334536 -0.8604719475063072
4406000000.0 0.5163018424734458 -0.8645777241572
4409000000.0 0.5384956949319525 -0.8735722780093831
4412000000.0 0.4779457337724077 -0.8793002466845177
4416000000.0 0.5278088598660831 -0.8556474230118287
4419000000.0 0.5202954150362118 -0.8574944073083633
4422000000.0 0.5412350472711059 -0.84511246458064
4425000000.0 0.5672612463746866 -0.8531876425431207
4428000000.0 0.5275830416520286 -0.8554364199893884
4431000000.0 0.5560735643821432 -0.8635041758742695
4434000000.0 0.5244160749988342 -0.8557094906093222
4438000000.0 0.5355422339224151 -0.8712363966844419
4441000000.0 0.5369375317752831 -0.8817770165561595
4444000000.0 0.5243658945596315 -0.8386097447571381
4447000000.0 0.5218252785973536 -0.8533215907625138
4450000000.0 0.5305576359900973 -0.8334572340770343
4453000000.0 0.5447261964742238 -0.8774029698882134
4456000000.0 0.5066343472586254 -0.8392998030991703
4459000000.0 0.49396720780038306 -0.820913832228754
4462000000.0 0.5592259657593589 -0.8966142723987554
4466000000.0 0.5485148027927628 -0.8892417478884551
4469000000.0 0.5644788530762708 -0.8572039067110425
4472000000.0 0.5291544319971554 -0.8845103122948254
4475000000.0 0.5093582558979668 -0.8316658618141767
4478000000.0 0.5289200548861418 -0.9089736901756916
4481000000.0 0.48954831916140173 -0.8479658847294363
4484000000.0 0.4786002853993732 -0.8701378896753809
4488000000.0 0.512412776935339 -0.8531928824840177
4491000000.0 0.5323051643599827 -0.8795739340358799
4494000000.0 0.5192493689733151 -0.8445635726463103
4497000000.0 0.5222167646229682 -0.849636952837106
4500000000.0 0.5329915864656364 -0.8466784833133238
4503000000.0 0.5598819916642127 -0.8623270843680589
4506000000.0 0.503289602730428 -0.8359601087101867
4509000000.0 0.5282017226808589 -0.8562312104568406
4512000000.0 0.5190370406485281 -0.8346913937947236
4516000000.0 0.5272110660039494 -0.8828066764912007
4519000000.0 0.5158772352275398 -0.8172518891129419
4522000000.0 0.5145271242754983 -0.877070476103818
4525000000.0 0.5475435477916839 -0.8296787063493463
4528000000.0 0.5322685858012709 -0.8762098559364373
4531000000.0 0.5580268001339874 -0.8514512396051779
4534000000.0 0.4996256492083029 -0.8475444305752515
4538000000.0 0.5249724532058094 -0.8521187669645471
4541000000.0 0.485283008310223 -0.8755453790349125
4544000000.0 0.5147168906908806 -0.8607442704195984
4547000000.0 0.5367435079098263 -0.838210377692642
4550000000.0 0.5033688346861775 -0.8666353460278281
4553000000.0 0.5117163036252397 -0.8640102264706717
4556000000.0 0.5028413387176585 -0.8520097013072087
4559000000.0 0.5025224260604645 -0.8814930299981891
4562000000.0 0.5227888133989022 -0.8722610880040091
4566000000.0 0.5309972123877094 -0.8605902675009172
4569000000.0 0.4956901996946321 -0.8493526437262306
4572000000.0 0.5173327061219004 -0.8533763955103383
4575000000.0 0.507782742488933 -0.8633510588021941
4578000000.0 0.5505432076221939 -0.8834291738717723
4581000000.0 0.49025619927892655 -0.8678352775862648
4584000000.0 0.5133244963679218 -0.8799814969876879
4588000000.0 0.5461463119826034 -0.8803848519696693
4591000000.0 0.5249606074122264 -0.8604847034025245
4594000000.0 0.49354124549469625 -0.8710187400829088
4597000000.0 0.5154416333364494 -0.8729290872349961
4600000000.0 0.47153116278400686 -0.8535728738210505
4603000000.0 0.5065163165132953 -0.8700855979918058
4606000000.0 0.5227679521313321 -0.8768826043204476
4609000000.0 0.514329522352799 -0.8716967854674555
4612000000.0 0.5128943087640231 -0.8918134821718711
4616000000.0 0.49901416425956646 -0.8736824890839938
4619000000.0 0.5100011277399421 -0.8652381842750115
4622000000.0 0.5109112254706201 -0.865139585988294
4625000000.0 0.4737027784395441 -0.8604087076862464
4628000000.0 0.527348423681801 -0.8777751501522282
4631000000.0 0.48745622827782153 -0.8823954966080408
4634000000.0 0.5067217100509165 -0.868005637272238
4638000000.0 0.5137709902320734 -0.8629110805864604
4641000000.0 0.5206138260227517 -0.876406216762478
4644000000.0 0.5153258588552401 -0.8831256949818977
4647000000.0 0.5166063062307887 -0.8789390419534429
4650000000.0 0.48840037089307686 -0.8731405274953932
4653000000.0 0.5121564259823581 -0.8868783901084406
4656000000.0 0.4965677343339635 -0.8855412229010399
4659000000.0 0.4871751556529961 -0.90132101665475
4662000000.0 0.4999893758514278 -0.879994528055101
4666000000.0 0.49862781997864003 -0.8659983241090227
4669000000.0 0.5114595520023172 -0.8659418339932048
4672000000.0 0.49551589178999295 -0.8907772589097591
4675000000.0 0.5015781273583753 -0.8836577972135747
4678000000.0 0.5099015301318599 -0.8578859236226175
4681000000.0 0.47785127792746823 -0.8876691746641695
4684000000.0 0.48422648682670894 -0.9084685072029126
4688000000.0 0.4713803586444057 -0.8874863091078612
4691000000.0 0.5176984237968613 -0.8793988053517257
4694000000.0 0.5064581657976106 -0.874074468839937
4697000000.0 0.4681795327199482 -0.8685140291223037
4700000000.0 0.502194984108209 -0.8834270156947084
4703000000.0 0.49320174775041103 -0.848154584909756
4706000000.0 0.48843850027523666 -0.8993832700700932
4709000000.0 0.48866730461892754 -0.8914137159758674
4712000000.0 0.49024410166761173 -0.8646811654548133
4716000000.0 0.49563901976498026 -0.9174882302749855
4719000000.0 0.527601542429005 -0.88274308466164
4722000000.0 0.5269437526968523 -0.8888753922095344
4725000000.0 0.4740709276647427 -0.8723037963333808
4728000000.0 0.48726168632127914 -0.8734737207510049
4731000000.0 0.5233669248340647 -0.9171296612728759
4734000000.0 0.5242409268952865 -0.8710535787057863
4738000000.0 0.5394691234916693 -0.9254960005949955
4741000000.0 0.5103795439259959 -0.9026588001879207
4744000000.0 0.48889986298069665 -0.9028262790061559
4747000000.0 0.4857419858911404 -0.8500160074084284
4750000000.0 0.5077151797574542 -0.8824203414071478
4753000000.0 0.5030544588912778 -0.9121000294587613
4756000000.0 0.5123980741056836 -0.8963647694519401
4759000000.0 0.5048665732559523 -0.8692813774498275
4762000000.0 0.460806144984504 -0.9096426316729552
4766000000.0 0.5071602898580948 -0.8867298395219804
4769000000.0 0.5248568551984403 -0.8876505856685183
4772000000.0 0.5086263026247535 -0.8879279419401723
4775000000.0 0.5119303425540049 -0.9428572116251791
4778000000.0 0.4732087949743864 -0.9162046237848218
4781000000.0 0.5198469752751345 -0.8769183375095042
4784000000.0 0.4931786324669045 -0.8568714360911351
4788000000.0 0.4748265661267207 -0.9220885375398261
4791000000.0 0.4746908185684333 -0.8622958384916286
4794000000.0 0.539242494204851 -0.9010085261119384
4797000000.0 0.47261782548744313 -0.8625882902214189
4800000000.0 0.4742110153115316 -0.8608182563158363
4803000000.0 0.46675280257595936 -0.9124660934447402
4806000000.0 0.4790933667382309 -0.9015987871340825
4809000000.0 0.45164484533296373 -0.901076563394973
4812000000.0 0.4545600270425908 -0.8931951117233679
4816000000.0 0.5091302740912514 -0.8594716935295886
4819000000.0 0.5092547903951262 -0.9096801565015856
4822000000.0 0.5153069747293455 -0.8981898841235764
4825000000.0 0.5350504450548359 -0.9097650998685402
4828000000.0 0.5000372481632792 -0.8845395192127139
4831000000.0 0.458825921895605 -0.9422915067331729
4834000000.0 0.521142030128289 -0.8824486683509626
4838000000.0 0.4907306792583807 -0.913952158199498
4841000000.0 0.4783510287861982 -0.8749033634509812
4844000000.0 0.5165957290290212 -0.8816341636014523
4847000000.0 0.5084029567639744 -0.8615670990558253
4850000000.0 0.48316306524068514 -0.9144432092741837
4853000000.0 0.4969566432120134 -0.8726939634061803
4856000000.0 0.4680374669479591 -0.900121359991354
4859000000.0 0.5278297642901388 -0.930576003426665
4862000000.0 0.5041790748915019 -0.8522797542856354
4866000000.0 0.46361806620747964 -0.9112063195304134
4869000000.0 0.47310525055250785 -0.9159332314458297
4872000000.0 0.4871751998947861 -0.952827106054451
4875000000.0 0.5584100961940127 -0.9235663664356396
4878000000.0 0.5021448279761072 -0.8924934770725704
4881000000.0 0.5082445708367413 -0.9659056885473182
4884000000.0 0.5008280880606365 -0.8738315132479573
4888000000.0 0.5174777879091214 -0.8771901310526691
4891000000.0 0.5150281806659729 -0.8854095812962578
4894000000.0 0.48228007171729925 -0.9062336069233848
4897000000.0 0.5162271561360018 -0.8720918802785986
4900000000.0 0.5362937527222691 -0.9062183997776727
4903000000.0 0.5304972255734592 -0.8948248125471233
4906000000.0 0.5240768782523937 -0.8813413999690191
4909000000.0 0.4899474583634215 -0.9142553998335556
4912000000.0 0.5092734690673514 -0.95846453371789
4916000000.0 0.5278489511573953 -0.9139641030311809
4919000000.0 0.5393325061736925 -0.8942442730565846
4922000000.0 0.541720393294383 -0.9314446868400516
4925000000.0 0.47783345868643384 -0.8882831744771814
4928000000.0 0.5456288489552646 -0.8767426094283012
4931000000.0 0.5381159813390436 -0.895208942129119
4934000000.0 0.481796935104373 -0.8647235124801956
4938000000.0 0.45078014615727596 -0.9015787547749663
4941000000.0 0.48404482039737506 -0.8869468473145559
4944000000.0 0.5206665573987183 -0.8341735064795033
4947000000.0 0.47487273153447074 -0.8435827196394434
4950000000.0 0.5106286133617269 -0.8717727258243978
4953000000.0 0.5020529203177246 -0.9754517652619341
4956000000.0 0.48574366994100554 -0.9066826933086591
4959000000.0 0.4508986998118394 -0.8726304853975774
4962000000.0 0.5271795502199452 -0.9225532238233835
4966000000.0 0.5289941723584198 -0.9213846892014461
4969000000.0 0.5507752950756322 -0.9000832643567152
4972000000.0 0.5210074613917248 -0.8816690554432342
4975000000.0 0.5469105194760918 -0.8657624312739056
4978000000.0 0.5234725218432631 -0.9074444472534258
4981000000.0 0.4935452973516785 -0.9157030102327154
4984000000.0 0.5116100628403946 -0.8872355523383578
4988000000.0 0.5104021833465959 -0.8876324028520861
4991000000.0 0.564204685111237 -0.865812524294965
4994000000.0 0.5253511639920687 -0.8931547454997595
4997000000.0 0.4994924173051356 -0.9236250699571277
5000000000.0 0.5515416026948925 -0.9024215993772722
5003000000.0 0.5423303400225665 -0.9032953638469796
5006000000.0 0.542400456464136 -0.9228585575947461
5009000000.0 0.530691801580424 -0.8987371351987429
5012000000.0 0.4908042316159624 -0.938852905915485
5016000000.0 0.5749623910267075 -0.8985735933138033
5019000000.0 0.49729570297847586 -0.891636117216124
5022000000.0 0.4949283550798812 -0.9124637790150248
5025000000.0 0.566032201618925 -0.9581147900115964
5028000000.0 0.5122887939129794 -0.9009354234868125
5031000000.0 0.5108992309452334 -0.9068969515891191
5034000000.0 0.4820583867722681 -0.943184638752675
5038000000.0 0.49856670465790714 -0.8644855022374962
5041000000.0 0.5524906374443995 -0.8823671161102564
5044000000.0 0.5070640084738662 -0.8384945602266605
5047000000.0 0.5564173829831539 -0.8660994748519246
5050000000.0 0.5559748670660075 -0.8571254670544036
5053000000.0 0.520970445370549 -0.9451105983810344
5056000000.0 0.5413845404780481 -0.8704962187428001
5059000000.0 0.5718474254063224 -0.892109093672888
5062000000.0 0.5088670700748521 -0.9404971584172925
5066000000.0 0.5422484449024401 -0.8612386756297077
5069000000.0 0.49293677550895976 -0.8665467568519525
5072000000.0 0.5446718595984255 -0.8283865590706629
5075000000.0 0.5622831313202821 -0.8818553080088734
5078000000.0 0.471908209061962 -0.9353472852286089
5081000000.0 0.48634533698831584 -0.868985830919843
5084000000.0 0.5397966813348519 -0.8782698024484656
5088000000.0 0.5612776161488808 -0.8779650518271319
5091000000.0 0.4602996749211627 -0.906401563167914
5094000000.0 0.5181429049615637 -0.9302131935118985
5097000000.0 0.5715136083364046 -0.892253760021444
5100000000.0 0.5630511729573023 -0.8848942434408172
5103000000.0 0.512690749422186 -0.9277434490575844
5106000000.0 0.5666307445895047 -0.9290604502661688
5109000000.0 0.5696435658872405 -0.8800380816476152
5112000000.0 0.4921928393470429 -0.8759903002171314
5116000000.0 0.5188265090510132 -0.8416053821699436
5119000000.0 0.530265392721044 -0.9103909952646381
5122000000.0 0.5434781060419988 -0.8611164704036671
5125000000.0 0.5717673414959373 -0.8885267470378448
5128000000.0 0.5063208566052956 -0.8628292891953204
5131000000.0 0.49824377529008845 -0.8693621266278975
5134000000.0 0.5518495240851814 -0.892593877334136
5138000000.0 0.5336545337103036 -0.9019924436182682
5141000000.0 0.6187240496717157 -0.8567238546540346
5144000000.0 0.5644234982883825 -0.8738271451267028
5147000000.0 0.5572986611247664 -0.9135009412273214
5150000000.0 0.5466542472177707 -0.8786168732465046
5153000000.0 0.5137665784729111 -0.9171230356389819
5156000000.0 0.5801089051964583 -0.8732453452636869
5159000000.0 0.5446873836084705 -0.9243052257928532
5162000000.0 0.5368278932045385 -0.8702066630790029
5166000000.0 0.5538529030705837 -0.9205840036088472
5169000000.0 0.5720238668762605 -0.8613395165112745
5172000000.0 0.5549877851942353 -0.8788605680952526
5175000000.0 0.6057837881047471 -0.8869256536835449
5178000000.0 0.5655768660804782 -0.9304564411509204
