! Created with skrf 1.8.0 (http://scikit-rf.org).
# Hz S RI R 50.0 
!freq ReS11 ImS11
4000000000.0 0.5525222364040219 -0.8906811889340221
4003000000.0 0.5901744379397079 -0.9233432211935182
4006000000.0 0.5074134842947553 -0.920548544778316
4009000000.0000005 0.6083694001757182 -0.897699732186229
4011999999.9999995 0.6196902604350281 -0.8607330446688695
4016000000.0 0.5393970234019584 -0.8886605686259152
4019000000.0 0.5339042520737003 -0.8806680655208748
4022000000.0000005 0.6328864406304565 -0.8927833411720991
4025000000.0000005 0.5007829704726344 -0.9362098590892711
4027999999.9999995 0.5357011960052984 -0.9103074929786775
4030999999.9999995 0.5949516618413548 -0.8772058074851736
4034000000.0 0.5087004862394586 -0.887481533147678
4038000000.0000005 0.5385165616477465 -0.9417025700641083
4041000000.0000005 0.5953826202378297 -0.9055353537555664
4043999999.9999995 0.6370694187441635 -0.8921848520793122
4046999999.9999995 0.5828958584753761 -0.8786364587429748
4050000000.0 0.5493827169570717 -0.943612594713194
4053000000.0 0.5275814928246112 -0.8880609708001815
4056000000.0 0.5421543301355565 -0.8792790599661933
4059000000.0 0.555829571921767 -0.8927495546470489
4062000000.0000005 0.521784905838912 -0.9096336176363788
4066000000.0 0.5128037769201913 -0.8577494004820656
4069000000.0 0.5697942031030903 -0.9418862574383008
4072000000.0 0.5967675625807624 -0.8674434975423435
4075000000.0 0.5842775225011635 -0.8960346017843478
4078000000.0000005 0.5463138822702811 -0.9005724221678274
4081000000.0000005 0.632978422094912 -0.8725901160639957
4083999999.9999995 0.5556586442843192 -0.9148412372196928
4088000000.0 0.583038785694195 -0.871234665286541
4091000000.0 0.5777651665873498 -0.9350968509040855
4094000000.0000005 0.5754512890679939 -0.901110047383121
4097000000.0000005 0.5494482517109539 -0.8905174101109852
4099999999.9999995 0.5754962080037743 -0.927944628095912
4102999999.9999995 0.5984975981410793 -0.8782452431800177
4106000000.0 0.578217050846176 -0.9153187260711149
4109000000.0 0.5756007137957015 -0.9047592075714956
4112000000.0 0.5717776408551933 -0.8786455326235317
4115999999.9999995 0.5773506347860979 -0.8605368416618767
4119000000.0 0.5738329819614055 -0.8913086037222929
4122000000.0 0.5533534614704941 -0.9053261748942905
4125000000.0 0.5683194560738724 -0.8954204679811161
4128000000.0 0.5485121120931861 -0.8570854199697595
4131000000.0 0.5604608136884066 -0.8893436094046564
4134000000.0000005 0.5871665375587001 -0.884966890510291
4138000000.0 0.5405403398794892 -0.8424686498756512
4141000000.0 0.5562648108917524 -0.891264521731458
4144000000.0 0.5754625313927533 -0.9077080307027133
4147000000.0000005 0.5445351641074556 -0.8607584362690023
4150000000.0000005 0.5607518706899559 -0.8883718346796742
4152999999.9999995 0.5515587069242596 -0.8606715759962486
4155999999.9999995 0.5940308411521588 -0.880795178382658
4159000000.0 0.5639685351402611 -0.8328317399957775
4162000000.0 0.5580752271949849 -0.8851423084811032
4166000000.0000005 0.5908526424904763 -0.8861125440068628
4168999999.9999995 0.5403779659995513 -0.8664986989988979
4171999999.9999995 0.5610729885043957 -0.8888159566650254
4175000000.0 0.5616352497509356 -0.8697889757829429
4178000000.0 0.5899775553117789 -0.8812558373246001
4181000000.0 0.5626660835877553 -0.9217704477639731
4184000000.0 0.5598409829722577 -0.8703898554129297
4187999999.9999995 0.5490268879469968 -0.8747922097023862
4191000000.0 0.5938425239956109 -0.8606754048396131
4194000000.0 0.5513884466645927 -0.8735467369251113
4197000000.0 0.5568358349646407 -0.8779903837250518
4200000000.0 0.5818982549152619 -0.8671528715790418
4203000000.0000005 0.58640596203354 -0.8793740865818578
4206000000.0000005 0.5567866342225286 -0.8825744857881512
4208999999.9999995 0.5691253753366177 -0.8559703723882697
4211999999.9999995 0.5430470915824118 -0.8702604947184802
4216000000.0 0.578615010050322 -0.8628757962551037
4219000000.0000005 0.5759028581451322 -0.8880398805366659
4222000000.0000005 0.5770394476500047 -0.8750793671134895
4224999999.9999995 0.5671707523750846 -0.8510438538506644
4227999999.9999995 0.573525989683021 -0.8690629740183596
4231000000.0 0.5633323831682682 -0.8721687997177153
4234000000.0 0.5609731508167591 -0.8814998289123949
4238000000.0000005 0.5440546009159968 -0.8715468629128693
4240999999.9999995 0.5603529706928463 -0.8693329711328659
4244000000.0 0.5522580925177969 -0.860271704078615
4247000000.0 0.5743694172593559 -0.8567514690822037
4250000000.0 0.5456851984402554 -0.8424520112955358
4253000000.0 0.5370232396953891 -0.8622831969915223
4256000000.0 0.5757673674186339 -0.8767972459015
4259000000.0000005 0.5284660068075154 -0.8312349950250402
4261999999.9999995 0.543291093961686 -0.8525198498887577
4266000000.0 0.5547829495038759 -0.8896489241273261
4269000000.0 0.5684387742028515 -0.8726873594298348
4272000000.0000005 0.5693586246412369 -0.8439528793940468
4275000000.0000005 0.5559356383276515 -0.8645293578691914
4277999999.9999995 0.5804790516794724 -0.8874438864249616
4280999999.9999995 0.5868354612823805 -0.8718933797490912
4284000000.0 0.5179912246445237 -0.8816476864378585
4288000000.0000005 0.5806738707213911 -0.8539360931030154
4291000000.0000005 0.5413495378153426 -0.8453518208903857
4293999999.9999995 0.5801979966411555 -0.8380049465287065
4297000000.0 0.5701151302991151 -0.8202001962337174
4300000000.0 0.5617283317619729 -0.8401170304054477
4303000000.0 0.516091237581472 -0.867574304231749
4306000000.0 0.562517365471464 -0.8598826349770342
4309000000.0 0.5513773063858954 -0.8445615789622846
4312000000.0 0.5817880654294694 -0.8596671877381996
4316000000.0 0.5872281904225393 -0.8674497664069165
4319000000.0 0.5465204404636668 -0.8676532842978275
4322000000.0 0.5259449753755755 -0.8523775133566992
4325000000.0 0.5451447062813153 -0.8689933726579941
4328000000.0 0.5562753419586803 -0.8665927582492386
4331000000.0 0.5449077351182059 -0.9020484776428584
4334000000.0 0.5548224853654543 -0.8640344949216634
4338000000.0 0.582414476378111 -0.8421071696628764
4341000000.0 0.6061180203712971 -0.8791153531637996
4344000000.0 0.5586579867993429 -0.8913705236235258
4347000000.0 0.5640150352847271 -0.8542648372749267
4350000000.0 0.5402610332246217 -0.8397648072538362
4353000000.0 0.5588571896733749 -0.8306759507690068
4356000000.0 0.549688704683232 -0.8649069892005331
4359000000.0 0.5289733075714309 -0.8430395738855336
4362000000.0 0.5341639758076084 -0.8786776729011387
4366000000.0 0.5694081091504957 -0.8732918357740612
4369000000.0 0.5272253321543675 -0.8520005792258162
4372000000.0 0.5048215271203285 -0.8657359600232142
4375000000.0 0.5846338814399232 -0.8529149527170887
4378000000.0 0.5364732507099599 -0.8471462331813447
4381000000.0 0.5617353954361415 -0.8576754887726742
4384000000.0 0.5736889731448229 -0.9293353922218026
4388000000.0 0.5571904954990266 -0.8438162068516908
4391000000.0 0.5417916997463816 -0.8691475815635145
4394000000.0 0.5386675019919945 -0.8432970792664358
4397000000.0 0.5473941184328636 -0.8592102006274255
4400000000.0 0.5569081629264213 -0.8978516598084507
4403000000.0 0.5588956981290035 -0.8743734015672764
4406000000.0 0.5260173233699591 -0.8774901680456244
4409000000.0 0.55757351424349 -0.8932182390648797
4412000000.0 0.48722094133907573 -0.8923118006587404
4416000000.0 0.5232073222221382 -0.8576272158662268
4419000000.0 0.5258590511479614 -0.8811576362815412
4422000000.0 0.5626278072988542 -0.842176060809221
4425000000.0 0.5714157638656929 -0.8642362087616835
4428000000.0 0.5235923071900312 -0.8627753068759809
4431000000.0 0.5578435751014298 -0.8822259287949126
4434000000.0 0.5494300448908723 -0.8517941309955682
4438000000.0 0.5519739929958263 -0.8784005170249654
4441000000.0 0.5425519192920328 -0.8682434146087894
4444000000.0 0.533775596845784 -0.833610999517539
4447000000.0 0.5285936748419728 -0.853741073004151
4450000000.0 0.5410892851565836 -0.8402680684234933
4453000000.0 0.5460446927192264 -0.8996951746132784
4456000000.0 0.5191687519585582 -0.8383828748116421
4459000000.0 0.4936881655046421 -0.8327767344209565
4462000000.0 0.5654984290915211 -0.9118078899296509
4466000000.0 0.5548235729522362 -0.8872805283945047
4469000000.0 0.5603024300389937 -0.8592002618684349
4472000000.0 0.5228622743616097 -0.8975837513217857
4475000000.0 0.5209932514235777 -0.8454085626283123
4478000000.0 0.5240786356003926 -0.9194415263799174
4481000000.0 0.5051592337281522 -0.8505460092986795
4484000000.0 0.49340647077847866 -0.8817000600947813
4488000000.0 0.505061933010345 -0.8564708977714446
4491000000.0 0.5512294312255014 -0.870942681334008
4494000000.0 0.5283121142535977 -0.8504219326938567
4497000000.0 0.5390035222890341 -0.8551513017500822
4500000000.0 0.5554074019387842 -0.8636150643779039
4503000000.0 0.5453980573151653 -0.8804786960228119
4506000000.0 0.5347963380688139 -0.8776381183451414
4509000000.0 0.5156631692649469 -0.8514754911613591
4512000000.0 0.518149127103098 -0.85972024841627
4516000000.0 0.560366670410837 -0.8818810008082629
4519000000.0 0.5298840377804175 -0.8458924599231278
4522000000.0 0.5298964270352073 -0.8756823785544154
4525000000.0 0.5527801584207809 -0.8487637938660003
4528000000.0 0.5474679315811773 -0.8864191923273522
4531000000.0 0.5439506780330028 -0.8571263670346443
4534000000.0 0.5178311393138917 -0.8676196194229929
4538000000.0 0.5240211563591997 -0.8691579554460944
4541000000.0 0.49063923863323544 -0.8909581906055594
4544000000.0 0.5190551774215812 -0.8632535302908806
4547000000.0 0.5483673143915486 -0.8458242708244867
4550000000.0 0.5199512696732271 -0.8779643541000147
4553000000.0 0.5168255691842524 -0.8838787613176898
4556000000.0 0.495359853922566 -0.8612571511993978
4559000000.0 0.4972462327449729 -0.8740471656845616
4562000000.0 0.5472124020377948 -0.8866031549841207
4566000000.0 0.5093303079741862 -0.8938708899897871
4569000000.0 0.5148619914393743 -0.8758222678379475
4572000000.0 0.5316981140641934 -0.8769983988007541
4575000000.0 0.5032729007666472 -0.8756573727641546
4578000000.0 0.5321623385297743 -0.8987650172778812
4581000000.0 0.4975450952789867 -0.8906105770704317
4584000000.0 0.5065518600588386 -0.8858785228423856
4588000000.0 0.5488032876705669 -0.9001193695899898
4591000000.0 0.5269367652336631 -0.8496902120614724
4594000000.0 0.5009710310536211 -0.8637158862855012
4597000000.0 0.519045924207119 -0.890401398464252
4600000000.0 0.4881173836316226 -0.8787526036385012
4603000000.0 0.5214311991647025 -0.8940063441117796
4606000000.0 0.5168068636062942 -0.8892047772033932
4609000000.0 0.518735459365498 -0.8863735201404652
4612000000.0 0.532287296869459 -0.8932262708048284
4616000000.0 0.5051476605689039 -0.876190909396785
4619000000.0 0.5238306796939552 -0.8683292830596394
4622000000.0 0.5184043618545401 -0.8770390767942449
4625000000.0 0.4880323443744399 -0.8737375765716319
4628000000.0 0.5124282474624328 -0.8710666360292276
4631000000.0 0.4923287797918495 -0.8927515269786079
4634000000.0 0.5224596756906814 -0.8777745939346207
4638000000.0 0.5274184144959816 -0.8852371092759713
4641000000.0 0.5262926079936014 -0.8732834053057911
4644000000.0 0.5191939764205576 -0.8965898548743039
4647000000.0 0.5273501905000902 -0.8844299957307681
4650000000.0 0.49825784092910896 -0.8804788721631602
4653000000.0 0.5422445399313996 -0.8880530829470885
4656000000.0 0.4994089989568299 -0.8911709447076394
4659000000.0 0.5029574688148267 -0.8719670726175687
4662000000.0 0.5026297009100286 -0.9028230427086369
4666000000.0 0.506648851891637 -0.8978665925833379
4669000000.0 0.5192303633204317 -0.893179924406581
4672000000.0 0.5183928830500109 -0.9019388190870797
4675000000.0 0.49774972194166944 -0.8821384790470033
4678000000.0 0.5024361788454963 -0.8497418811503534
4681000000.0 0.49056854307926884 -0.903733622161604
4684000000.0 0.4859498770224688 -0.8941646763999848
4688000000.0 0.5006751738810842 -0.9119402259131122
4691000000.0 0.5221117187112105 -0.8792811542421962
4694000000.0 0.5346165476715352 -0.9048647640479117
4697000000.0 0.48410387105659003 -0.843153142927903
4700000000.0 0.534495096747849 -0.8762240677638703
4703000000.0 0.5034499526384257 -0.8481143167644533
4706000000.0 0.5136468602122258 -0.8927283634365676
4709000000.0 0.4800519772793707 -0.8874065423038208
4712000000.0 0.5284374312704089 -0.9007310109106842
4716000000.0 0.4977817673224015 -0.892444345804877
4719000000.0 0.5194549744270691 -0.8936711626630022
4722000000.0 0.5276557850088991 -0.885518392910719
4725000000.0 0.4997804978755484 -0.9062281317592342
4728000000.0 0.4929717061497227 -0.8681489700519406
4731000000.0 0.5394299709722312 -0.892533214570916
4734000000.0 0.5232270661466356 -0.8604803868450648
4738000000.0 0.5361419320156515 -0.9115403792513452
4741000000.0 0.4785943348146515 -0.931684629864478
4744000000.0 0.5118698242510566 -0.920709340848694
4747000000.0 0.5164801158084966 -0.862384182377062
4750000000.0 0.4974308744916663 -0.915965171773637
4753000000.0 0.5026510124282346 -0.9004762647618277
4756000000.0 0.5248043030032898 -0.9096485017833058
4759000000.0 0.4862051718657504 -0.9008510986208754
4762000000.0 0.504975580508906 -0.9148650488924033
4766000000.0 0.490197377581082 -0.905380213393493
4769000000.0 0.494581313797249 -0.8700777211813865
4772000000.0 0.5186854216026571 -0.9169110142506585
4775000000.0 0.5044554934566368 -0.9720736931255902
4778000000.0 0.49905924310366967 -0.9105306483335225
4781000000.0 0.5450176144074834 -0.8992681805642846
4784000000.0 0.544435392631306 -0.8604412312075689
4788000000.0 0.5007216381147412 -0.9136477544275454
4791000000.0 0.5048741914372445 -0.8807319105281302
4794000000.0 0.5349289118384114 -0.9216202541438655
4797000000.0 0.508171165098691 -0.9192882750935035
4800000000.0 0.5156611837556974 -0.8784130631531714
4803000000.0 0.49392146566786954 -0.9136093709405582
4806000000.0 0.516428332516764 -0.9142355845664274
4809000000.0 0.46268626682774794 -0.9287311077971074
4812000000.0 0.46528874326808956 -0.8949816081744355
4816000000.0 0.5227745959376806 -0.8712829700778824
4819000000.0 0.5455428443482543 -0.9272632852345845
4822000000.0 0.544246282315934 -0.9315913231269323
4825000000.0 0.5365991502900814 -0.9152367398492823
4828000000.0 0.5054662900343657 -0.8949933531309907
4831000000.0 0.470351129398333 -0.9450599871132659
4834000000.0 0.5334991730646071 -0.898604395811568
4838000000.0 0.47766100976809667 -0.935748296312756
4841000000.0 0.5069051160193225 -0.9067899479596478
4844000000.0 0.5335059179480504 -0.9031336068990317
4847000000.0 0.5161144792539466 -0.8843009910942419
4850000000.0 0.5135928462760991 -0.939187109024072
4853000000.0 0.49345749852141835 -0.88982587777429
4856000000.0 0.5095112539824025 -0.9010103582199774
4859000000.0 0.5285606889414127 -0.9335940378709463
4862000000.0 0.5149740027368687 -0.8925319166087102
4866000000.0 0.4875070612360092 -0.9228997740431684
4869000000.0 0.49202379228941345 -0.9039103000441198
4872000000.0 0.4762295744676003 -0.9523453218534484
4875000000.0 0.5728092056709417 -0.9234935154442061
4878000000.0 0.506009017423453 -0.9257175903401739
4881000000.0 0.539009032506737 -0.9804075451770186
4884000000.0 0.5279775138270822 -0.9080079497099172
4888000000.0 0.5614594269173797 -0.8858554647120161
4891000000.0 0.5257451136399038 -0.925196875291323
4894000000.0 0.4782650560785308 -0.935894236182119
4897000000.0 0.5590874196192761 -0.89435083594894
4900000000.0 0.5362245769188553 -0.9323260370459642
4903000000.0 0.552907018629067 -0.8939278891047587
4906000000.0 0.5329118527996093 -0.9338915418518002
4909000000.0 0.479538923095194 -0.9164141729158849
4912000000.0 0.5214325231553447 -0.9443354077279119
4916000000.0 0.5422674876760488 -0.9151574172123773
4919000000.0 0.5736917153685772 -0.9351390772992694
4922000000.0 0.5765208035877567 -0.9150366922762905
4925000000.0 0.46757015990614953 -0.9027281907521233
4928000000.0 0.5539288842296897 -0.8907381144887339
4931000000.0 0.5526487277876684 -0.910310050578687
4934000000.0 0.49644811504895003 -0.8709984068922336
4938000000.0 0.474298298175393 -0.9448997252109763
4941000000.0 0.5162278724193171 -0.8923749509317165
4944000000.0 0.5148096784433094 -0.8395580100914646
4947000000.0 0.5120779830466395 -0.8674341230019507
4950000000.0 0.5000665973031596 -0.9111343175911155
4953000000.0 0.49270980585368407 -0.9677870605434628
4956000000.0 0.518217989773858 -0.8837911158727808
4959000000.0 0.48352753501073725 -0.88324981155867
4962000000.0 0.5331061945733904 -0.9736398567357935
4966000000.0 0.548812652863234 -0.9387349361795048
4969000000.0 0.5601817853904213 -0.9268837211564869
4972000000.0 0.5099180354767479 -0.9573928938282996
4975000000.0 0.5671379028671999 -0.8751195380908767
4978000000.0 0.5243314231094882 -0.8965270471507941
4981000000.0 0.4887190703279978 -0.9360144738612297
4984000000.0 0.4999959558110476 -0.8926059400871165
4988000000.0 0.537437597704925 -0.8919597998826978
4991000000.0 0.5794314493053514 -0.8962579687770423
4994000000.0 0.5571827707845924 -0.8864836911500005
4997000000.0 0.5028869417638839 -0.9460739203645172
5000000000.0 0.5437599017256989 -0.9246878242689169
5003000000.0 0.5593682012068897 -0.9350345105247948
5006000000.0 0.5357692232933711 -0.9167517904753579
5009000000.0 0.5405958639537686 -0.9265404822374435
5012000000.0 0.49909386068699846 -0.9309104315556171
5016000000.0 0.5892206983122669 -0.9114799637881872
5019000000.0 0.49759549259478447 -0.9068609352817191
5022000000.0 0.5352921915024467 -0.9107034666547289
5025000000.0 0.548235980039066 -0.9611607784367757
5028000000.0 0.5424677998848524 -0.9236217662488817
5031000000.0 0.5069338259838939 -0.9197596310387577
5034000000.0 0.49154735230710506 -0.9337308786808746
5038000000.0 0.49900838451950735 -0.8749927762550416
5041000000.0 0.5440755569976583 -0.8918879007287357
5044000000.0 0.5654134762962431 -0.8700643400213524
5047000000.0 0.5501308484798704 -0.8940040158177556
5050000000.0 0.5971771990345546 -0.8521809265869911
5053000000.0 0.53072856083899 -0.9533790490943699
5056000000.0 0.582038083351176 -0.8964557671005521
5059000000.0 0.5723176022879397 -0.8915684481510024
5062000000.0 0.5014438554778061 -0.909931136878328
5066000000.0 0.5760223634999687 -0.8688102828693722
5069000000.0 0.5373394061030373 -0.928587468684072
5072000000.0 0.5382561027846735 -0.8615970407913096
5075000000.0 0.5833854722239569 -0.9120502152143555
5078000000.0 0.5281577251040844 -0.9572075922826109
5081000000.0 0.5015432011821785 -0.884541172407623
5084000000.0 0.5721724131499876 -0.9150028236201233
5088000000.0 0.6090899215265588 -0.8386573804566002
5091000000.0 0.5247223097682183 -0.8954189946151636
5094000000.0 0.5542957530271007 -0.9267702839944669
5097000000.0 0.598507110256367 -0.9087955955796987
5100000000.0 0.5567635744065362 -0.9009496590291239
5103000000.0 0.5605964579653644 -0.9222909365644826
5106000000.0 0.5708369595141909 -0.9260492543596724
5109000000.0 0.5806008522003798 -0.8699191168421838
5112000000.0 0.5894436702134052 -0.87292219772424
5116000000.0 0.5157474152391576 -0.8281126272233272
5119000000.0 0.548104460606054 -0.895090090936719
5122000000.0 0.5255197721994532 -0.8609981923045323
5125000000.0 0.5607597419425148 -0.8862255915768069
5128000000.0 0.552527384186392 -0.9361365869753626
5131000000.0 0.5744007101423803 -0.8512080285244907
5134000000.0 0.5281607359114461 -0.9339044200730529
5138000000.0 0.5420218420859128 -0.9104484612911993
5141000000.0 0.580782295994404 -0.8859766035600096
5144000000.0 0.5884238856131576 -0.8848335317626821
5147000000.0 0.5890008570515517 -0.887033107171605
5150000000.0 0.5409711110948116 -0.9090395149268791
5153000000.0 0.5530362869612796 -0.9263066194699511
5156000000.0 0.5987218897981709 -0.9057535275098761
5159000000.0 0.6115612665389463 -0.9000984642927063
5162000000.0 0.552036609245354 -0.88527912668591
5166000000.0 0.5649986568894213 -0.9135944381604535
5169000000.0 0.5732695980442035 -0.9035265964392815
5172000000.0 0.5660670335033438 -0.8883213833607332
5175000000.0 0.5871245531328895 -0.903962624054813
5178000000.0 0.5471624840595699 -0.9097282897624033
5181000000.0 0.5894531785367618 -0.9141880146429511
