! Created with skrf 1.8.0 (http://scikit-rf.org).
# Hz S RI R 50.0 
!freq ReS11 ImS11
4000000000.0 0.5353496949878933 -0.8702350290128713
4003000000.0 0.5876278129420012 -0.9251969948415923
4006000000.0 0.48283378586627024 -0.8961459721253431
4009000000.0000005 0.571574560972687 -0.8492328271919749
4011999999.9999995 0.629003164992091 -0.8734548032883089
4016000000.0 0.537179767617417 -0.9291362187282558
4019000000.0 0.5147420211474021 -0.8858548739015552
4022000000.0000005 0.5796360708121375 -0.8760938755017467
4025000000.0000005 0.48710502857359395 -0.9209591251739926
4027999999.9999995 0.5272098143078052 -0.9324251136746274
4030999999.9999995 0.49815261108843356 -0.8483759293083047
4034000000.0 0.49685695596384016 -0.8577975207373646
4038000000.0000005 0.5312050384617965 -0.9182203787526582
4041000000.0000005 0.5357373408985762 -0.8767529029028218
4043999999.9999995 0.5441092579550824 -0.9409077886625333
4046999999.9999995 0.5730851072885328 -0.8894048656405276
4050000000.0 0.5039065964788199 -0.9351405061497007
4053000000.0 0.4718733744821013 -0.8672474681822113
4056000000.0 0.5740102155260587 -0.8862426119354597
4059000000.0 0.5207642558257592 -0.8952461779950411
4062000000.0000005 0.49488012308225227 -0.8859812624242572
4066000000.0 0.5143080170440353 -0.7826963743981707
4069000000.0 0.516090968084683 -0.9205694918049133
4072000000.0 0.5259592460008911 -0.8825116421097631
4075000000.0 0.5558377752049086 -0.9165685990112449
4078000000.0000005 0.5148926282652363 -0.918872641335542
4081000000.0000005 0.5624017685835693 -0.842818130711382
4083999999.9999995 0.4917513577370583 -0.8948511384533989
4088000000.0 0.5568210588167724 -0.8416871878130912
4091000000.0 0.5604687178259791 -0.9552486263556357
4094000000.0000005 0.5476464901162479 -0.8541202188108756
4097000000.0000005 0.5423093578589253 -0.8985660388652594
4099999999.9999995 0.5210438539112064 -0.8916828003819844
4102999999.9999995 0.5525149470466038 -0.9079054412120103
4106000000.0 0.523162329711746 -0.8648337885099188
4109000000.0 0.5104365935064568 -0.8843705303521504
4112000000.0 0.5398316673211764 -0.9023633365434258
4115999999.9999995 0.5721435632546255 -0.8356265851853876
4119000000.0 0.49965313689336494 -0.9171738703908734
4122000000.0 0.505279711796129 -0.8835282951619634
4125000000.0 0.5490193179304058 -0.9023429393274877
4128000000.0 0.5067664366489805 -0.8485307900748104
4131000000.0 0.4780465232132993 -0.8388537755541353
4134000000.0000005 0.5447758044659095 -0.8885763282725915
4138000000.0 0.4998291614449315 -0.8846834549997726
4141000000.0 0.5310211210291458 -0.8605050453358677
4144000000.0 0.5621322006902482 -0.8628277549601745
4147000000.0000005 0.505265757038002 -0.8895011152372188
4150000000.0000005 0.49585072302025274 -0.8676875091665454
4152999999.9999995 0.5082707142651278 -0.8797324054720832
4155999999.9999995 0.5300437883137137 -0.8881662337688104
4159000000.0 0.5446376229813552 -0.8521119373268193
4162000000.0 0.5459249845922992 -0.8658834767560708
4166000000.0000005 0.5282125042280855 -0.8730808095864332
4168999999.9999995 0.4928382729334969 -0.8731283632921569
4171999999.9999995 0.5442593497513473 -0.8668986231785446
4175000000.0 0.541715741996196 -0.8879238643907544
4178000000.0 0.5722637797177044 -0.8643935914323563
4181000000.0 0.5367791129473202 -0.8923200267774449
4184000000.0 0.5214317563216522 -0.8804187326877525
4187999999.9999995 0.5096422771451161 -0.8951807169500534
4191000000.0 0.550204813487069 -0.8421317005862876
4194000000.0 0.50405039755488 -0.8700271224236586
4197000000.0 0.5181582795971934 -0.8712774482624469
4200000000.0 0.5353546388537244 -0.870466482812507
4203000000.0000005 0.5508009857474071 -0.8704802543509619
4206000000.0000005 0.5375316598949486 -0.8675527961611285
4208999999.9999995 0.5265808255503314 -0.8659632918303233
4211999999.9999995 0.49359066199941637 -0.8802499416182058
4216000000.0 0.5300044809865285 -0.8648185101320397
4219000000.0000005 0.5437132101095208 -0.8800617398977157
4222000000.0000005 0.5123107327115031 -0.8739870821697594
4224999999.9999995 0.5345234698654853 -0.8569642388813103
4227999999.9999995 0.5193087084333192 -0.8755289713573298
4231000000.0 0.5359882224377048 -0.8807309029145803
4234000000.0 0.541527462772121 -0.8938102129528429
4238000000.0000005 0.5061174810121192 -0.8892312620892395
4240999999.9999995 0.5052251005004402 -0.8899968793835713
4244000000.0 0.5417724446054653 -0.8585815798238615
4247000000.0 0.5128951188627255 -0.8686525120443878
4250000000.0 0.5188880921347694 -0.8735622205509901
4253000000.0 0.5000800556257923 -0.8570746646690176
4256000000.0 0.5262133047232649 -0.8860206491356046
4259000000.0000005 0.5091239829686577 -0.8517946330635359
4261999999.9999995 0.5285514472156682 -0.8794519780743083
4266000000.0 0.5117257738891484 -0.914790340686334
4269000000.0 0.5420400043927968 -0.8616388075521776
4272000000.0000005 0.5347308222293338 -0.8577835297418132
4275000000.0000005 0.5128642744259169 -0.8560979118469434
4277999999.9999995 0.5154936689616239 -0.892005499344438
4280999999.9999995 0.5304440609044856 -0.8582095967997668
4284000000.0 0.4872880141926025 -0.8868100406558275
4288000000.0000005 0.5369284969272873 -0.8243899304165159
4291000000.0000005 0.49963473055240093 -0.8355227616830964
4293999999.9999995 0.49886889964299164 -0.8643791939639005
4297000000.0 0.534624324607351 -0.8483231583772133
4300000000.0 0.5064593466190646 -0.8383373629374354
4303000000.0 0.49265211369114864 -0.8763100738098448
4306000000.0 0.5445255599862867 -0.8431873202651851
4309000000.0 0.5288521429110137 -0.8732687081138861
4312000000.0 0.5663263792650218 -0.8669386451666483
4316000000.0 0.5453167758901338 -0.854361791938053
4319000000.0 0.49190810494491427 -0.8337302670523654
4322000000.0 0.49871024235177147 -0.8640223360468516
4325000000.0 0.5287867178441706 -0.8621516702615423
4328000000.0 0.5031299356670442 -0.8629235019069301
4331000000.0 0.5080786246940082 -0.8998230083477804
4334000000.0 0.49953851434293156 -0.8789309104439426
4338000000.0 0.5388463971298495 -0.8434342185381878
4341000000.0 0.5539507530023736 -0.8847026741994226
4344000000.0 0.5319855946972625 -0.8857414855919253
4347000000.0 0.5052151756391733 -0.8997841126492897
4350000000.0 0.4727670408438564 -0.8508562315641008
4353000000.0 0.5353004378187658 -0.8416892396242208
4356000000.0 0.4838801580898544 -0.8695395239651065
4359000000.0 0.4932423069706208 -0.8307228061024237
4362000000.0 0.45281453727908 -0.8958006146614879
4366000000.0 0.5136172391503137 -0.8853937247995443
4369000000.0 0.4921814744753617 -0.8328441636918976
4372000000.0 0.46633473585392327 -0.8856860913509423
4375000000.0 0.5203272297734531 -0.8438228857898422
4378000000.0 0.5021633829674081 -0.853504446915019
4381000000.0 0.5169992858494167 -0.8539858796503758
4384000000.0 0.5324494496522223 -0.9078088960654087
4388000000.0 0.530404548676074 -0.8476078351924121
4391000000.0 0.5212823034259918 -0.8839139008276526
4394000000.0 0.5010358810660515 -0.8687097015606416
4397000000.0 0.48908572815809753 -0.8619633354060001
4400000000.0 0.5175945631524701 -0.9016708140151831
4403000000.0 0.5276101494075895 -0.8844628030345394
4406000000.0 0.4825738869312829 -0.8744514750730649
4409000000.0 0.5202497816883083 -0.9081137753242453
4412000000.0 0.4497755518732869 -0.8911075135793347
4416000000.0 0.4999487374356729 -0.8671741051364137
4419000000.0 0.49113452021175524 -0.8851079076315596
4422000000.0 0.5258497867626035 -0.8604585279463772
4425000000.0 0.5335051512631095 -0.8883147238642446
4428000000.0 0.4915316986491094 -0.8724770126470266
4431000000.0 0.5288970602950038 -0.8750372211491921
4434000000.0 0.5027772145380333 -0.8701874031524502
4438000000.0 0.5185853612039145 -0.903479674927361
4441000000.0 0.5128217822089212 -0.8784531407732681
4444000000.0 0.4955579768109182 -0.8519852834996093
4447000000.0 0.47991351261584597 -0.8611161336937665
4450000000.0 0.5135363574980478 -0.8512638592719867
4453000000.0 0.5259485261794539 -0.8809369313343941
4456000000.0 0.48364445384122934 -0.8596145136422584
4459000000.0 0.4657786223823035 -0.8463677969822663
4462000000.0 0.5369571135576163 -0.9409020018815741
4466000000.0 0.49990215432596913 -0.9178770874930453
4469000000.0 0.5115937706252257 -0.867009332354618
4472000000.0 0.4855216312012679 -0.906574075410609
4475000000.0 0.5009195062191409 -0.8651981342918271
4478000000.0 0.5137553056626185 -0.9234883774423484
4481000000.0 0.47553623420794777 -0.8664722830857114
4484000000.0 0.4714764056617061 -0.8951201866789138
4488000000.0 0.4862816219108666 -0.8776216985543687
4491000000.0 0.4887660219132116 -0.8758818404608264
4494000000.0 0.47675186866079927 -0.8625560006393942
4497000000.0 0.4944275985244836 -0.8608024078730595
4500000000.0 0.4928035495907893 -0.8746510834649781
4503000000.0 0.5056001637129941 -0.9129640623566129
4506000000.0 0.47168339097963913 -0.8753890854083659
4509000000.0 0.5065843416362312 -0.8716500077045317
4512000000.0 0.4642393885921068 -0.8753532613201986
4516000000.0 0.5092885510427638 -0.8964205511652996
4519000000.0 0.47449055282314423 -0.8445928111339729
4522000000.0 0.4669454087745775 -0.8789087291636821
4525000000.0 0.5219818262372652 -0.8765733920714271
4528000000.0 0.4868755868614603 -0.9071734801276794
4531000000.0 0.5026154871677484 -0.8844370354586333
4534000000.0 0.4843727681339784 -0.8603905838113017
4538000000.0 0.4892863415015027 -0.884266741975378
4541000000.0 0.45039905619952886 -0.8904284406721483
4544000000.0 0.4686403338711982 -0.86447196688096
4547000000.0 0.5033156547411005 -0.8673163150348207
4550000000.0 0.4776334120263224 -0.8863152858184098
4553000000.0 0.48895976672107966 -0.8912145412810939
4556000000.0 0.4598980866053876 -0.8588139650000399
4559000000.0 0.457611147611962 -0.8914950059352579
4562000000.0 0.4920968350492459 -0.882237623493151
4566000000.0 0.48589616079905057 -0.8896442736714534
4569000000.0 0.4672857024367827 -0.8712030839537721
4572000000.0 0.4711773890595732 -0.8677751354541003
4575000000.0 0.46632039897386224 -0.8956158471738598
4578000000.0 0.5009445338065444 -0.9079030628631801
4581000000.0 0.4686316960783722 -0.8992785753856493
4584000000.0 0.4585793927755003 -0.8588548270410161
4588000000.0 0.4891856977810664 -0.9071005751200749
4591000000.0 0.4877999636458751 -0.8639463173180968
4594000000.0 0.45048894647140436 -0.8915216395256482
4597000000.0 0.46839367754095707 -0.8873813369549247
4600000000.0 0.45256401371200417 -0.8939150991342559
4603000000.0 0.4494001912552892 -0.8996810749902759
4606000000.0 0.5004619443677512 -0.8854435070499582
4609000000.0 0.4632256674445101 -0.8965223808509901
4612000000.0 0.483958494437563 -0.8970201831053151
4616000000.0 0.47814900865352017 -0.8833160971771288
4619000000.0 0.45739391199113105 -0.8755843757521533
4622000000.0 0.47431517561377745 -0.8989015606104607
4625000000.0 0.42264764011853984 -0.866951738277892
4628000000.0 0.479570364597164 -0.8883474409357154
4631000000.0 0.4417649603648519 -0.8971673249865016
4634000000.0 0.4651813869736558 -0.8856775477207552
4638000000.0 0.462710564758231 -0.8977779431167527
4641000000.0 0.46728567452817693 -0.910715343306566
4644000000.0 0.46082601872962065 -0.8919500789198782
4647000000.0 0.48349415950589847 -0.8927947604334721
4650000000.0 0.4488168104476379 -0.8815189126237849
4653000000.0 0.48131688755724 -0.8956153287168087
4656000000.0 0.44259356169828196 -0.8856752240441462
4659000000.0 0.44940599782686735 -0.9001937430570032
4662000000.0 0.4553409698302404 -0.9163872870830838
4666000000.0 0.4546412319866607 -0.9001875846976981
4669000000.0 0.48965840155683427 -0.8783128335013445
4672000000.0 0.4397857796266449 -0.9212536691099954
4675000000.0 0.4321562186790371 -0.919755807237669
4678000000.0 0.474685733366492 -0.898270220747095
4681000000.0 0.44175731248758093 -0.9241543058080248
4684000000.0 0.4384650469846654 -0.9233845060766551
4688000000.0 0.4321158778952593 -0.8940286402608197
4691000000.0 0.477397486447666 -0.9018933020673454
4694000000.0 0.43619988004023896 -0.8848659707388823
4697000000.0 0.4174110914641055 -0.8650580736470627
4700000000.0 0.47391016193124763 -0.8806941366515104
4703000000.0 0.4936171356298195 -0.8573364907282031
4706000000.0 0.4415908243902473 -0.9129660741478387
4709000000.0 0.46597766011913067 -0.9075149195697615
4712000000.0 0.4358585192166958 -0.8850741990324825
4716000000.0 0.44906099284097584 -0.916733181438101
4719000000.0 0.48425376082374705 -0.89968553110933
4722000000.0 0.46656471291784984 -0.889893503307621
4725000000.0 0.46188437838438057 -0.8801145234069209
4728000000.0 0.4575796079974718 -0.8710772683131423
4731000000.0 0.47187137987422273 -0.9413401979489248
4734000000.0 0.47839641710722375 -0.8989001628390142
4738000000.0 0.5082413377279607 -0.9181704055819339
4741000000.0 0.45952346402366817 -0.9463181505723364
4744000000.0 0.44269977441412794 -0.9287697236501262
4747000000.0 0.48293171661427536 -0.8768791623336188
4750000000.0 0.4559447104531838 -0.9091182959291718
4753000000.0 0.48883981264381066 -0.9255103698211362
4756000000.0 0.4673497179116149 -0.9054278570092402
4759000000.0 0.4679826248066273 -0.9197737956666019
4762000000.0 0.46150965060661314 -0.9357663013025637
4766000000.0 0.4582918153186128 -0.9067429256339121
4769000000.0 0.45274712825088026 -0.9060247177736963
4772000000.0 0.4559511009460344 -0.9246855603772849
4775000000.0 0.4648487814741552 -0.9504230487886429
4778000000.0 0.4429904037505532 -0.9105591854880255
4781000000.0 0.451664773984369 -0.8903500321416358
4784000000.0 0.4806879501492721 -0.8711624796927504
4788000000.0 0.4362573640238838 -0.9323604706948647
4791000000.0 0.4423166340167258 -0.90827787967423
4794000000.0 0.4971120406175658 -0.9233609590363092
4797000000.0 0.4497753566444096 -0.9064858690110814
4800000000.0 0.4492272730965773 -0.9083488790408846
4803000000.0 0.4138658034966016 -0.8956470527805179
4806000000.0 0.45974041641886093 -0.9150346453245813
4809000000.0 0.41509851056212027 -0.9416558539366858
4812000000.0 0.4135683078118291 -0.9212816414441157
4816000000.0 0.4636896052505776 -0.8823354147029416
4819000000.0 0.48283315562803375 -0.9148069461767373
4822000000.0 0.4694105486530915 -0.9396774722610282
4825000000.0 0.4789430707630085 -0.9352601345242255
4828000000.0 0.4484179109821852 -0.9054206170164647
4831000000.0 0.4227602928674574 -0.9885092227818129
4834000000.0 0.4426496472629337 -0.9096106274799933
4838000000.0 0.45487166347204355 -0.9317542505210181
4841000000.0 0.43121183244746136 -0.914627226668496
4844000000.0 0.48867093783429716 -0.9108193912711827
4847000000.0 0.481002143381667 -0.8556049573341289
4850000000.0 0.4499708963044875 -0.943387880731321
4853000000.0 0.45517860874953836 -0.8819194419696017
4856000000.0 0.4447550876756936 -0.9077433051280315
4859000000.0 0.4599261809566051 -0.9409916509739018
4862000000.0 0.46136929708111063 -0.8733068967007198
4866000000.0 0.42594284559433154 -0.9231891645086229
4869000000.0 0.45699544897321104 -0.9327923562786957
4872000000.0 0.432556690455036 -0.9709326232178657
4875000000.0 0.5364270051893928 -0.9078575214397379
4878000000.0 0.45911499789912597 -0.9338475453903179
4881000000.0 0.46268806998233813 -0.988698657526174
4884000000.0 0.4802634617599837 -0.9200897543753829
4888000000.0 0.49090359981775944 -0.9136666090808211
4891000000.0 0.4570104692857414 -0.9452805585911813
4894000000.0 0.4394691198936368 -0.9190531072198185
4897000000.0 0.47995534511008914 -0.8820562776583186
4900000000.0 0.4790492981773002 -0.9416345058156401
4903000000.0 0.4854693927351097 -0.928751669632787
4906000000.0 0.4539533686394254 -0.9356860595936033
4909000000.0 0.44246357311427287 -0.9448430446302927
4912000000.0 0.46580123525459766 -0.9362821724459838
4916000000.0 0.5074387753459312 -0.9403833029084077
4919000000.0 0.49557774312110314 -0.9383745035287718
4922000000.0 0.49291442960356135 -0.9091439783813343
4925000000.0 0.4425692262624425 -0.9366852573553104
4928000000.0 0.49347612937360325 -0.8903753418226664
4931000000.0 0.5260644913082435 -0.9256611558258447
4934000000.0 0.4449341136816341 -0.8662129891944892
4938000000.0 0.403269833183342 -0.9131435529254692
4941000000.0 0.4886414060805281 -0.9117159029209696
4944000000.0 0.45118210903353456 -0.8404944403862458
4947000000.0 0.4546599117730804 -0.8996316012926154
4950000000.0 0.4488187798824854 -0.9318103369295917
4953000000.0 0.4357891735101326 -0.9622240311310675
4956000000.0 0.4211514137594834 -0.9180733730635878
4959000000.0 0.41271707227650745 -0.9218847550570629
4962000000.0 0.44714321482697955 -0.9351481930930676
4966000000.0 0.49919257195902056 -0.9227702100373519
4969000000.0 0.49305418026707093 -0.9369671082579636
4972000000.0 0.43158298786208843 -0.9354174296021692
4975000000.0 0.48904169246569995 -0.8794591814025533
4978000000.0 0.45372457575497027 -0.9225154558258746
4981000000.0 0.46134794287976016 -0.9486297254316093
4984000000.0 0.47014051694858405 -0.8778551696585406
4988000000.0 0.446121640132911 -0.926997585614885
4991000000.0 0.512290167214127 -0.9315271921270045
4994000000.0 0.49728926054596145 -0.8844319589826587
4997000000.0 0.4297510308152592 -0.9459026688552574
5000000000.0 0.47756243188508285 -0.9309552488903907
5003000000.0 0.49980503596066356 -0.9382698520970163
5006000000.0 0.45567000087779996 -0.9535665604424819
5009000000.0 0.4932745542474051 -0.9238137174074668
5012000000.0 0.45300914427786304 -0.9392723226979852
5016000000.0 0.5025779376677522 -0.9409780214547488
5019000000.0 0.46490188491530793 -0.9301528871847504
5022000000.0 0.47928026152802555 -0.9016447102313573
5025000000.0 0.4925796213822234 -0.9823571140269924
5028000000.0 0.45904694534763263 -0.8995115993405454
5031000000.0 0.46847629640303856 -0.9188522230213798
5034000000.0 0.4689060262444087 -0.9357178976694657
5038000000.0 0.47563775959018284 -0.9112377619451761
5041000000.0 0.5145236317042855 -0.8781015484602565
5044000000.0 0.49295157133605944 -0.8694387498062028
5047000000.0 0.4991107754867651 -0.8679715115902178
5050000000.0 0.5111937937194665 -0.8818960329459277
5053000000.0 0.49901308013681367 -0.9388014216944522
5056000000.0 0.5254204317154979 -0.8899622282550721
5059000000.0 0.5066453314762388 -0.9045345374464188
5062000000.0 0.47122362373105725 -0.9581743323287863
5066000000.0 0.5205877044579028 -0.876640230629452
5069000000.0 0.46357833758903333 -0.9098462769944344
5072000000.0 0.47798292951599813 -0.9029201380007057
5075000000.0 0.48111238875768136 -0.8842880803339555
5078000000.0 0.4579253858422223 -0.9279257490181784
5081000000.0 0.46743956046136803 -0.9101723551775236
5084000000.0 0.4953407359612248 -0.9635674466003986
5088000000.0 0.4886323726968566 -0.8851830696030387
5091000000.0 0.45998682117539386 -0.9512460010126383
5094000000.0 0.4896401056263424 -0.932738272696823
5097000000.0 0.5193903292528983 -0.8852717847283702
5100000000.0 0.49348033748713743 -0.9284852396949281
5103000000.0 0.4208196527578866 -0.9160675398109075
5106000000.0 0.532644019940586 -0.9355666953349848
5109000000.0 0.5467015763046525 -0.9050162755681788
5112000000.0 0.44844798662667507 -0.8998648020365443
5116000000.0 0.5279136284064734 -0.879493350021548
5119000000.0 0.47429769457128557 -0.9114219938310917
5122000000.0 0.502423628903409 -0.8821637173778307
5125000000.0 0.48972392244417007 -0.8992071033963296
5128000000.0 0.5039999511642008 -0.9151661688551287
5131000000.0 0.4561135195239367 -0.8886223978034795
5134000000.0 0.5076489470353139 -0.8917786750387371
5138000000.0 0.4803313140437201 -0.8737116511220686
5141000000.0 0.5178888066795687 -0.8718566101840941
5144000000.0 0.5141743727177521 -0.8891233768540621
5147000000.0 0.49741948009289305 -0.9451090882820057
5150000000.0 0.50558671154807 -0.9502598310657118
5153000000.0 0.5037856644508741 -0.8910855025612126
5156000000.0 0.5462454006026543 -0.8826566477452298
5159000000.0 0.5133711846991187 -0.9416305382110854
5162000000.0 0.46347616933494357 -0.9209421011619019
5166000000.0 0.4836550422201972 -0.9206759079791564
5169000000.0 0.50447691512716 -0.9422325708262194
5172000000.0 0.5236663561395323 -0.90401989813463
