! Created with skrf 1.8.0 (http://scikit-rf.org).
# Hz S RI R 50.0 
!freq ReS11 ImS11
4000000000.0 0.4293712758837925 -0.8833344404702861
4003000000.0 0.40087598033716754 -1.0110175387865663
4006000000.0 0.3775773948411445 -0.9450863373260934
4009000000.0000005 0.43357615351840073 -0.9031218961576296
4011999999.9999995 0.4770922841986739 -0.9367135193192829
4016000000.0 0.3882895893308003 -0.9932179995009465
4019000000.0 0.427513585428224 -0.9279739553907747
4022000000.0000005 0.4909638837418123 -0.9099092580343404
4025000000.0000005 0.4012704234907317 -0.992160505174735
4027999999.9999995 0.4317397506139121 -0.9441097467477304
4030999999.9999995 0.4288577169000927 -0.9206962858027745
4034000000.0 0.4113552023978059 -0.9832542978294277
4038000000.0000005 0.43486949308665324 -0.9387967754541471
4041000000.0000005 0.40188265603728346 -0.954702054804613
4043999999.9999995 0.4296746328436333 -0.9620081207483014
4046999999.9999995 0.43086012541391927 -0.9280987802146023
4050000000.0 0.40171283044705275 -0.9569247730331666
4053000000.0 0.3997636345259432 -0.9368745495918622
4056000000.0 0.39063958992751546 -0.9762424941541744
4059000000.0 0.3934588638134092 -0.8931119476218496
4062000000.0000005 0.38668019902268497 -0.9523842885421178
4066000000.0 0.39026319651172753 -0.90006298164286
4069000000.0 0.4113675120510369 -0.9949713440613656
4072000000.0 0.41930991060935724 -0.9361436600208571
4075000000.0 0.42368943290504435 -0.9742184399996062
4078000000.0000005 0.4101240068593247 -0.9555432473219375
4081000000.0000005 0.4801273141679669 -0.9406595460268825
4083999999.9999995 0.3942103171193495 -0.9448073748639195
4088000000.0 0.43765709669164654 -0.9128714214069235
4091000000.0 0.44287849462732154 -1.0104825305656833
4094000000.0000005 0.42549104764012385 -0.9178905335070822
4097000000.0000005 0.4270126135882433 -0.9720288268548054
4099999999.9999995 0.38957585903140435 -0.945663273176749
4102999999.9999995 0.4499737070856551 -0.946573722968497
4106000000.0 0.4057921348919401 -0.948398139895153
4109000000.0 0.38915167416713475 -0.9580008003110702
4112000000.0 0.40767122947709583 -0.9128752759237824
4115999999.9999995 0.43308070642512286 -0.9340200685701228
4119000000.0 0.39946141375989036 -0.93857597891266
4122000000.0 0.38524302351760187 -0.9480569161155179
4125000000.0 0.413067846775592 -0.9674019020671295
4128000000.0 0.40919301813200437 -0.9156945545752865
4131000000.0 0.39242438922568557 -0.921200344067778
4134000000.0000005 0.42458907275769037 -0.9226591655046278
4138000000.0 0.3953869831459472 -0.9291272489720477
4141000000.0 0.4195099148161806 -0.9334920810184477
4144000000.0 0.42909360968955956 -0.9307924930265397
4147000000.0000005 0.4030652028257799 -0.9390251680872224
4150000000.0000005 0.4310716735138828 -0.9686772620262646
4152999999.9999995 0.3993886305303558 -0.9418703273757146
4155999999.9999995 0.4466933477886109 -0.954718947128271
4159000000.0 0.4048186383548737 -0.9134028102488351
4162000000.0 0.3995658454834716 -0.9401787122608712
4166000000.0000005 0.40469359827457835 -0.9562979621916746
4168999999.9999995 0.38324003809067164 -0.944994092741431
4171999999.9999995 0.4098502991090799 -0.9453489930674088
4175000000.0 0.4223769180695014 -0.9492295201310157
4178000000.0 0.4071420319889961 -0.964762749688806
4181000000.0 0.41157904722261374 -0.9661885576456247
4184000000.0 0.3938591222783399 -0.900526635868817
4187999999.9999995 0.3818829523247553 -0.9336341798553317
4191000000.0 0.4329973419300668 -0.9392191342508753
4194000000.0 0.3784259936201876 -0.9170320807553677
4197000000.0 0.4193548329311004 -0.9408532377573062
4200000000.0 0.415864679173679 -0.9413285842815465
4203000000.0000005 0.41603599807604535 -0.967988818343299
4206000000.0000005 0.3996243080368761 -0.9519647829093333
4208999999.9999995 0.4021496510729273 -0.9336766751215388
4211999999.9999995 0.3587625560974729 -0.9412456219619129
4216000000.0 0.4087698710194707 -0.9502114298008323
4219000000.0000005 0.4167196514249583 -0.9476574831608897
4222000000.0000005 0.37661464299354697 -0.9337238339994959
4224999999.9999995 0.3950887601166418 -0.9350329987843179
4227999999.9999995 0.40013791681362265 -0.9398287817413801
4231000000.0 0.3921937610122379 -0.9458207370186551
4234000000.0 0.38057312824433975 -0.9604529941095726
4238000000.0000005 0.3697542598006638 -0.9350681186787446
4240999999.9999995 0.3773659356114859 -0.9448656112515993
4244000000.0 0.4027960050160332 -0.9389133345702826
4247000000.0 0.3775177074254035 -0.9363090702703064
4250000000.0 0.37985219418285704 -0.9266801468693427
4253000000.0 0.3758159711550287 -0.9297690329972872
4256000000.0 0.3989814966444192 -0.9866736431438573
4259000000.0000005 0.3596099968298448 -0.9289422911515098
4261999999.9999995 0.3523660391358078 -0.9528843773971359
4266000000.0 0.3410628310836917 -0.967560327353307
4269000000.0 0.38248608486740515 -0.9377789354145026
4272000000.0000005 0.3788368451015384 -0.9452886044695331
4275000000.0000005 0.3742240061868509 -0.9375587757773998
4277999999.9999995 0.4071778982995759 -0.9828848937347447
4280999999.9999995 0.41537068478452505 -0.9565826462011507
4284000000.0 0.33815681485470106 -0.9780958516285064
4288000000.0000005 0.40576505258824763 -0.9161615874557119
4291000000.0000005 0.37381860650320037 -0.9230900833879923
4293999999.9999995 0.3647363566437553 -0.9327143390181211
4297000000.0 0.4036576506310949 -0.9183233546562828
4300000000.0 0.3778172299465393 -0.9169277672500169
4303000000.0 0.3502753539100082 -0.9488605795997197
4306000000.0 0.3894525960371601 -0.9525717973016609
4309000000.0 0.37213414611591217 -0.9184094272933168
4312000000.0 0.405636860226425 -0.9500532112098233
4316000000.0 0.40135647141411085 -0.9512563363868839
4319000000.0 0.3524815133966081 -0.9308688123251477
4322000000.0 0.3284654913612841 -0.9224544976105458
4325000000.0 0.3596215934003152 -0.9378923728936011
4328000000.0 0.3625876880709764 -0.9572546554762769
4331000000.0 0.32967889691656105 -0.9560692375877814
4334000000.0 0.36760081938184574 -0.9634763695196481
4338000000.0 0.3835613768467211 -0.9587379143718378
4341000000.0 0.3839220468757466 -0.9440592131596443
4344000000.0 0.38250631589506934 -0.9677425902598878
4347000000.0 0.34060855189616485 -0.975050700767801
4350000000.0 0.3463613265549782 -0.927933260858743
4353000000.0 0.3771831657780873 -0.91735877872975
4356000000.0 0.3447388587797281 -0.9663986181539125
4359000000.0 0.34165624850133725 -0.9016306055393875
4362000000.0 0.3003050634658303 -0.9724276710536192
4366000000.0 0.3582430757889009 -0.9699914338993528
4369000000.0 0.3295820651962814 -0.9200820646260048
4372000000.0 0.3215834280556478 -0.9581869670905995
4375000000.0 0.3760220144369535 -0.9376367277861928
4378000000.0 0.3361115163503058 -0.9437002230625611
4381000000.0 0.3625945083716472 -0.9344180613953924
4384000000.0 0.3578654622526827 -1.0157300125392794
4388000000.0 0.3559803920540191 -0.9375501714801049
4391000000.0 0.352062565076922 -0.9522433098860046
4394000000.0 0.33044888909250053 -0.9352457382214183
4397000000.0 0.3401655431302791 -0.9551151980623073
4400000000.0 0.3307558831772605 -0.9766136856443779
4403000000.0 0.33899550665514516 -0.9596335172429485
4406000000.0 0.3150338533865107 -0.9734419084138668
4409000000.0 0.33191294550636535 -0.9718343099658944
4412000000.0 0.2791198387099919 -0.9719268532805568
4416000000.0 0.3318666549013373 -0.9544157941398336
4419000000.0 0.30975313820816086 -0.9579517756263825
4422000000.0 0.35140020252042575 -0.937208089026599
4425000000.0 0.34901824054397695 -0.9699250048368286
4428000000.0 0.3214130941638932 -0.9581162801846962
4431000000.0 0.34047608641964916 -0.9736948216255465
4434000000.0 0.3108899464150892 -0.951598001084832
4438000000.0 0.33776209823970693 -0.9705514320756548
4441000000.0 0.33194838207577587 -0.9846882927132867
4444000000.0 0.3145979896025722 -0.9365421889010459
4447000000.0 0.3075278524149092 -0.9555139496105945
4450000000.0 0.32646478314276994 -0.9624636908463775
4453000000.0 0.31895912118905845 -0.9664142418366487
4456000000.0 0.293042580540802 -0.9489514632732422
4459000000.0 0.28305932846163673 -0.9377746272662137
4462000000.0 0.32526133699705995 -1.013690369551482
4466000000.0 0.31491937660129415 -1.0169557739093773
4469000000.0 0.3218400965739964 -0.964056094207639
4472000000.0 0.28623012974672246 -0.9850434054595392
4475000000.0 0.31512308885230983 -0.9359512424137029
4478000000.0 0.30350851157109704 -0.9956409005824168
4481000000.0 0.2855524847563734 -0.9454751589384641
4484000000.0 0.2607791299446173 -0.977772860894573
4488000000.0 0.29615986447697734 -0.9619621049946783
4491000000.0 0.30976510404407803 -0.975367041071146
4494000000.0 0.29147692400837294 -0.9547694843339951
4497000000.0 0.2937702531785241 -0.9519238739772311
4500000000.0 0.3012579727959484 -0.9682305709547929
4503000000.0 0.28764648555477124 -0.9848508185677575
4506000000.0 0.2923535013228326 -0.9459836276886368
4509000000.0 0.2734444505570533 -0.9437696195871272
4512000000.0 0.275395337289495 -0.9489479795602597
4516000000.0 0.2810990475555445 -0.96544423379795
4519000000.0 0.2857216300178128 -0.927706451990594
4522000000.0 0.283184695668706 -0.9780421869798962
4525000000.0 0.31374550916763794 -0.9537476929844915
4528000000.0 0.3088841135299793 -0.984494587770522
4531000000.0 0.30053186977479923 -0.9793922885766708
4534000000.0 0.2713676179951878 -0.957151582023863
4538000000.0 0.29275148721862504 -0.9559649556686214
4541000000.0 0.23797874878307101 -0.9591329390355118
4544000000.0 0.26740076839315635 -0.977843653013414
4547000000.0 0.2775679600253841 -0.9680039976849032
4550000000.0 0.24920806250635558 -0.9917402528121955
4553000000.0 0.2478925038284463 -0.9895820760292764
4556000000.0 0.25199982028243 -0.9878602277914386
4559000000.0 0.25957350168548055 -0.9760874598039113
4562000000.0 0.2667983997712582 -0.9973706834850156
4566000000.0 0.25473572607690004 -0.9910246702352594
4569000000.0 0.2577892998423887 -0.9789188504963686
4572000000.0 0.2405952087833368 -0.9889428208975249
4575000000.0 0.24271169505251755 -0.9783697897930002
4578000000.0 0.2697916471515004 -0.9960600721603674
4581000000.0 0.23963127691437264 -0.9914241946722238
4584000000.0 0.23857572013557532 -0.9681851147942396
4588000000.0 0.2497390935512132 -0.9980575351733617
4591000000.0 0.24912806516760078 -1.0071833277614024
4594000000.0 0.23791376737541442 -0.9798017415211823
4597000000.0 0.23079693194260192 -0.9927382829204603
4600000000.0 0.22994375088884716 -0.9845610285519621
4603000000.0 0.2218922065553876 -0.9755871400545155
4606000000.0 0.2399820860554311 -0.9954784046893724
4609000000.0 0.2653857862761855 -0.9843196430300831
4612000000.0 0.23726849393111982 -0.9798209481455618
4616000000.0 0.23788863970548088 -0.9725863201019719
4619000000.0 0.24382587295308664 -0.9956946264994568
4622000000.0 0.22403340601243568 -0.9856544671889869
4625000000.0 0.23203587296967607 -0.9726989865303299
4628000000.0 0.24444057256915228 -1.0015561247912252
4631000000.0 0.2145823553148092 -0.9994769795498563
4634000000.0 0.2111965411992209 -0.9987279721873001
4638000000.0 0.21782216953110542 -1.0024541194683694
4641000000.0 0.22056108027107538 -0.9835151762415231
4644000000.0 0.2392627432652854 -0.9935537643479111
4647000000.0 0.2261313523444836 -0.9895378261421688
4650000000.0 0.21235504442540032 -0.96727396904813
4653000000.0 0.24055037665724727 -0.9919559453072319
4656000000.0 0.23501221625815152 -1.0161166721292492
4659000000.0 0.21200422290976573 -1.0112068821379516
4662000000.0 0.219598735122647 -1.0219897947049088
4666000000.0 0.178226407044654 -1.0148422248375086
4669000000.0 0.2229567479040342 -0.9852517318414049
4672000000.0 0.19122455183177434 -1.0435858966158507
4675000000.0 0.18248603731600033 -0.9970397220683884
4678000000.0 0.20419707413730104 -0.9931707733107278
4681000000.0 0.1576571517743819 -1.0203971510106231
4684000000.0 0.15175939574550376 -1.0218393953470786
4688000000.0 0.17553854578722905 -0.9926124181671839
4691000000.0 0.20644853513967854 -1.024913402737937
4694000000.0 0.22707533813201963 -0.9875187757469966
4697000000.0 0.13803550548478366 -0.977627319476962
4700000000.0 0.20528838818680165 -0.9867604614509302
4703000000.0 0.22404703728032618 -0.9321447073882044
4706000000.0 0.16742208831301414 -1.0126082208524698
4709000000.0 0.16392378896602272 -1.0122637248388513
4712000000.0 0.2103094178621953 -0.9893346478503797
4716000000.0 0.17310599455199382 -1.0445306627900877
4719000000.0 0.19361909862586343 -0.9896446172735426
4722000000.0 0.22747929682631193 -0.9989242124477564
4725000000.0 0.19399585118292462 -1.0219243947961476
4728000000.0 0.17726930830221677 -1.0083613727789964
4731000000.0 0.2165177780900924 -1.052933959205191
4734000000.0 0.19591084668525 -0.9998160017405878
4738000000.0 0.2280245893640504 -1.0750473994633252
4741000000.0 0.1740541636904766 -1.0128446119383296
4744000000.0 0.1521162583934318 -1.0165416438463264
4747000000.0 0.20284874772973882 -0.9327617996245874
4750000000.0 0.1781133066424369 -1.0410467658261424
4753000000.0 0.17520399363732087 -1.0040785384574724
4756000000.0 0.19721988983305594 -1.026062356831405
4759000000.0 0.19724832776563755 -1.021957855920003
4762000000.0 0.13400058077520607 -1.0356646849797981
4766000000.0 0.16637076511717191 -1.0032335352271213
4769000000.0 0.1645559993997568 -1.0259868451695693
4772000000.0 0.18734538067202489 -1.013282583614251
4775000000.0 0.15148824521062595 -1.072096079946965
4778000000.0 0.13217045393185925 -1.05118945410931
4781000000.0 0.15479425898303567 -1.0260743873404907
4784000000.0 0.19089182229467327 -1.0011048297367346
4788000000.0 0.11458212987529266 -0.9874337300898067
4791000000.0 0.1369181325902038 -0.9769170132571446
4794000000.0 0.1924015838074683 -1.0533565942688232
4797000000.0 0.16278622766414053 -0.9958274371568173
4800000000.0 0.12062257150702643 -1.0120350528404205
4803000000.0 0.10681827489255029 -1.0354076888346246
4806000000.0 0.11622026290798394 -1.0473392541697797
4809000000.0 0.0830025216350109 -1.0500176493238407
4812000000.0 0.09691201849975456 -0.9871905369459011
4816000000.0 0.17318831754786523 -1.0097350238568503
4819000000.0 0.16604744136332872 -1.0324534397423277
4822000000.0 0.1658870353676371 -1.0549563777241615
4825000000.0 0.18036204870129152 -1.0451888063788175
4828000000.0 0.11596991833071638 -1.0327792720499587
4831000000.0 0.1058078796539752 -1.0532485712969604
4834000000.0 0.14209817487161877 -1.0230175840381535
4838000000.0 0.10795153447518047 -1.0663767700551454
4841000000.0 0.10873688922282324 -1.0005679251321058
4844000000.0 0.16930012610623105 -1.0472119002890166
4847000000.0 0.1502922646307282 -0.9888268100829232
4850000000.0 0.11754548709826232 -1.0580547334095514
4853000000.0 0.1416949263522316 -0.9941667596999983
4856000000.0 0.1339887326030175 -1.0179037203008543
4859000000.0 0.113578848685428 -1.0798357739845053
4862000000.0 0.15625671255089343 -1.0038657211219033
4866000000.0 0.1254970205581722 -1.0469966409060592
4869000000.0 0.11824453767994408 -1.0229736252968107
4872000000.0 0.11604442450679459 -1.051107778217276
4875000000.0 0.15251387557408702 -1.0928633255548685
4878000000.0 0.10485141891165589 -1.0479047648785988
4881000000.0 0.048955728704343615 -1.083911019389681
4884000000.0 0.14072733043327923 -1.0260604807389722
4888000000.0 0.1176697840845532 -1.006411726013467
4891000000.0 0.14239068890153572 -1.0270378731638479
4894000000.0 0.08415737079404317 -1.0157338421338185
4897000000.0 0.1286748413682819 -1.0146533602261352
4900000000.0 0.10930316313642141 -1.0586414393049066
4903000000.0 0.11972009006682244 -1.047799930155095
4906000000.0 0.11190211703207864 -1.068445362877143
4909000000.0 0.1222929034635078 -1.044352497457833
4912000000.0 0.029749701460954348 -1.0449153567116776
4916000000.0 0.10528165228955094 -1.087923316365592
4919000000.0 0.13203647830421705 -1.0491812239258886
4922000000.0 0.1167980258115402 -1.0155831956965724
4925000000.0 0.03410236610136447 -1.0223796654923922
4928000000.0 0.13919798520653076 -1.0530607008682837
4931000000.0 0.11199772819468468 -1.0683560697366303
4934000000.0 0.11104038507380148 -1.0338196194164224
4938000000.0 0.025969701299384695 -1.0323920009872376
4941000000.0 0.04581330162164671 -0.969060318026711
4944000000.0 0.09070401779609827 -0.9718185869399767
4947000000.0 0.0795392769156204 -0.9924495589920189
4950000000.0 0.07870113833765702 -1.030812628255245
4953000000.0 0.05095442398705857 -1.069831334674804
4956000000.0 0.06437442763625995 -1.000355728595637
4959000000.0 0.012346263864325469 -1.0323298413425708
4962000000.0 0.07888914407412806 -1.0701612660354691
4966000000.0 0.07925931767330058 -1.0155091556182196
4969000000.0 0.10011340960634202 -1.0532431514809035
4972000000.0 0.0580374965700764 -1.0376325481467163
4975000000.0 0.10824122672283465 -1.0373293725755626
4978000000.0 0.05525187645037066 -1.0687898184387978
4981000000.0 0.05991617597978871 -1.0373333721070335
4984000000.0 0.04612035815359844 -1.0226681535697084
4988000000.0 0.07379369519116785 -1.0626715088637304
4991000000.0 0.09841651966907539 -1.0556942514827115
4994000000.0 0.04088792176620515 -1.0472576626246841
4997000000.0 0.013213794833063508 -1.0245478988758592
5000000000.0 0.04592555655542907 -1.0843650721653555
5003000000.0 0.0807453118188301 -1.074692556858872
5006000000.0 0.027798111370185508 -1.0861921580233524
5009000000.0 0.04421193436286436 -1.0354822488462696
5012000000.0 0.04278963083809917 -1.0726026733536336
5016000000.0 0.09528863903343332 -1.0868595310267446
5019000000.0 0.0714395419167585 -1.0780696368324152
5022000000.0 0.059384703254392435 -1.036450814907567
5025000000.0 0.005443947228137569 -1.1054741331238622
5028000000.0 0.004028997590817762 -1.0253583610824368
5031000000.0 0.023950728321810333 -1.0414707259654317
5034000000.0 0.0021707242473553157 -1.0899032532359874
5038000000.0 0.007485435185000611 -0.9924749865071197
5041000000.0 0.04387758094049066 -1.0480100451255145
5044000000.0 0.07287406085874654 -0.9786272979690347
5047000000.0 0.003943917515764728 -1.0369584416026276
5050000000.0 0.07117102846319617 -1.0521013306938278
5053000000.0 0.007333385829860428 -1.1077188579434876
5056000000.0 0.02759518201610378 -1.0473821472107643
5059000000.0 0.03418387703692011 -1.0394025125836568
5062000000.0 0.021362393686461756 -1.0938087008716373
5066000000.0 0.03487940740984308 -1.0542954547996128
5069000000.0 -0.0010453982457045985 -1.0511114665319932
5072000000.0 0.025282052511027553 -1.0493031071686008
5075000000.0 0.029632081936181776 -1.0201685013882293
5078000000.0 -0.028558206519759488 -1.0505033535985628
5081000000.0 -0.05189080584348377 -1.024137068746591
5084000000.0 -0.025211350038959246 -1.039661820402108
5088000000.0 -0.04243838938825656 -1.028606411199985
5091000000.0 -0.02011706765032567 -0.9955086127332596
5094000000.0 -0.016821022444564238 -1.0606953018181473
5097000000.0 -0.01844108205473005 -1.0378783735326353
5100000000.0 0.016883349016869553 -1.0387263725739249
5103000000.0 -0.07788619056631974 -1.0248118814834326
5106000000.0 -0.05800697009166783 -1.0237842085929634
5109000000.0 0.013616990875914947 -1.002457785901089
5112000000.0 -0.03972040722053283 -1.020262075834677
5116000000.0 -0.00020419673511690162 -1.0640134473314413
5119000000.0 -0.10520961171223536 -1.0987311942808813
5122000000.0 -0.033167427266602933 -1.0265494439909486
5125000000.0 -0.013483434030189312 -0.9882643560698321
5128000000.0 -0.051681662513336835 -1.022651866659687
5131000000.0 -0.04271202493251536 -1.0244183593189229
5134000000.0 -0.08343476374475839 -1.0210300870338171
5138000000.0 -0.00874321729308608 -1.0531981849503635
5141000000.0 -0.012960243959817985 -1.0228289360733755
5144000000.0 -0.03534505224366202 -1.0499613703274664
5147000000.0 -0.09905630411527572 -1.0579626185973303
5150000000.0 -0.028381085150167296 -1.0674389761186875
5153000000.0 -0.09958901895134598 -1.1111269434626911
5156000000.0 -0.06370612323298858 -1.0179982455213072
5159000000.0 -0.10277339431413518 -1.067075310775322
5162000000.0 -0.1744189265874319 -1.0683293173960693
