! Created with skrf 1.8.0 (http://scikit-rf.org).
# Hz S RI R 50.0 
!freq ReS11 ImS11
4000000000.0 0.5661390214115326 -0.826701871473753
4003000000.0 0.5848833573404073 -0.8809863486547245
4006000000.0 0.516080346925508 -0.9151820088223941
4009000000.0000005 0.5375675939327045 -0.8767550917611757
4011999999.9999995 0.5776335483021461 -0.8941258736747739
4016000000.0 0.5226809477856299 -0.8952848659062296
4019000000.0 0.5360898755840852 -0.8463058330215585
4022000000.0000005 0.6098677967087817 -0.8201673896653906
4025000000.0000005 0.5028634588161885 -0.9366399603170461
4027999999.9999995 0.5836962041564967 -0.8615013467210157
4030999999.9999995 0.53303528345421 -0.8168284454867112
4034000000.0 0.5373699595518395 -0.8359210922918844
4038000000.0000005 0.5124246107213899 -0.8945824229300787
4041000000.0000005 0.554709240381013 -0.8502852795868141
4043999999.9999995 0.578265994413327 -0.911684365670564
4046999999.9999995 0.5565135962931698 -0.8590933311135187
4050000000.0 0.5287003857923732 -0.8627802460830345
4053000000.0 0.4938110752551756 -0.8263716380734883
4056000000.0 0.5282120087517963 -0.8775513039524616
4059000000.0 0.5669068264871039 -0.8198218895991342
4062000000.0000005 0.5322577541905609 -0.8882822658510428
4066000000.0 0.4953643260011022 -0.8144091362645671
4069000000.0 0.5652251114173203 -0.9076100559168785
4072000000.0 0.5910718475022849 -0.7966491072859285
4075000000.0 0.5923161909915924 -0.8557622250597834
4078000000.0000005 0.5526083782886346 -0.9015853994675128
4081000000.0000005 0.6110148299351693 -0.8431336225856472
4083999999.9999995 0.512682763381025 -0.8782247762331966
4088000000.0 0.594065345901767 -0.8092358511678508
4091000000.0 0.6082938744445476 -0.9233330888969484
4094000000.0000005 0.601397873924306 -0.867371974413977
4097000000.0000005 0.5042677768174229 -0.8741920356625035
4099999999.9999995 0.5343267891655552 -0.8616533965228431
4102999999.9999995 0.5765813661402462 -0.8349129491824007
4106000000.0 0.527980623194088 -0.8875309287700153
4109000000.0 0.552765439581198 -0.8794161057522747
4112000000.0 0.5215662177779476 -0.8563837759037926
4115999999.9999995 0.5424464945326901 -0.8630698290945655
4119000000.0 0.544798514600699 -0.838893820421358
4122000000.0 0.5165279023266689 -0.893186071684848
4125000000.0 0.5271764599120301 -0.9162665453525113
4128000000.0 0.5496069668232021 -0.846987283290527
4131000000.0 0.5443929826735064 -0.8357782379060976
4134000000.0000005 0.5522762435553052 -0.850990531323776
4138000000.0 0.5173387047132518 -0.8867056299374596
4141000000.0 0.5496921781087742 -0.8517403264931197
4144000000.0 0.5483498990254461 -0.8460217625213482
4147000000.0000005 0.535472094727492 -0.8657789815380564
4150000000.0000005 0.5184760785916819 -0.8589686275003684
4152999999.9999995 0.5326132615411353 -0.8447361314597065
4155999999.9999995 0.5760068567644978 -0.8812929892509631
4159000000.0 0.5538525548646805 -0.8220110585962958
4162000000.0 0.5171114280489972 -0.8452512597222782
4166000000.0000005 0.5625734534311277 -0.878005297041312
4168999999.9999995 0.526845866808417 -0.8898902807878544
4171999999.9999995 0.5602094578691411 -0.8373128326510427
4175000000.0 0.5524648632489084 -0.8623336308038116
4178000000.0 0.5645244864038249 -0.8875394561180159
4181000000.0 0.5793094182459172 -0.8750433144035559
4184000000.0 0.5474902296725365 -0.8517750450439943
4187999999.9999995 0.5491387245020254 -0.8709836866742832
4191000000.0 0.5564628009047453 -0.8295659625896443
4194000000.0 0.5443648882020177 -0.8557630610242616
4197000000.0 0.5595541313587253 -0.895544687922699
4200000000.0 0.5659168091513181 -0.8473768427887098
4203000000.0000005 0.5659028358389628 -0.8564237620527148
4206000000.0000005 0.5552170977584387 -0.8775049539367947
4208999999.9999995 0.5656583922924754 -0.8640303332570419
4211999999.9999995 0.5242825680094115 -0.8774491165834772
4216000000.0 0.5540985115342667 -0.8433457500206623
4219000000.0000005 0.5829143851866058 -0.8593529109612286
4222000000.0000005 0.5576061483753054 -0.8587726283476886
4224999999.9999995 0.5431631964713313 -0.8364648291047017
4227999999.9999995 0.5572338727284311 -0.8657226513628942
4231000000.0 0.545942140948874 -0.8632225898429606
4234000000.0 0.5683801393996399 -0.8608995477114987
4238000000.0000005 0.5243874958964998 -0.8582700428348925
4240999999.9999995 0.5492418651723917 -0.8625607846991487
4244000000.0 0.5503939777972432 -0.8504857257797248
4247000000.0 0.5629527362847955 -0.8553629808041217
4250000000.0 0.5457648633709669 -0.8329230702585194
4253000000.0 0.5362060548015664 -0.8473787933315327
4256000000.0 0.5508048828562991 -0.866301938970178
4259000000.0000005 0.5298166104823343 -0.8274939537760966
4261999999.9999995 0.532530710136993 -0.8817806026109926
4266000000.0 0.5301663262033659 -0.8697512096984142
4269000000.0 0.5555934255561101 -0.845197168082059
4272000000.0000005 0.5388229040227112 -0.8303649235030411
4275000000.0000005 0.5412950539531111 -0.8704060742548541
4277999999.9999995 0.5760490091381818 -0.8643012528810919
4280999999.9999995 0.569905066982178 -0.8402925928949738
4284000000.0 0.5239216056103925 -0.88221991534524
4288000000.0000005 0.57225437508357 -0.8132232831810691
4291000000.0000005 0.5303660893885593 -0.8427330950242258
4293999999.9999995 0.5336315635570819 -0.8488200714215585
4297000000.0 0.5682559168491265 -0.8200675890605521
4300000000.0 0.5513524699304977 -0.8389274104561257
4303000000.0 0.5249671242455534 -0.8424868226368243
4306000000.0 0.5637478429283916 -0.859154311566675
4309000000.0 0.5476180709372754 -0.8653966979760502
4312000000.0 0.5835185965550459 -0.838370948851261
4316000000.0 0.5643791182993401 -0.8659270479593664
4319000000.0 0.5535507366435819 -0.8094367301267549
4322000000.0 0.5047234650556 -0.8496075131511391
4325000000.0 0.5508492197974045 -0.8583586984027636
4328000000.0 0.5331250912223946 -0.8494876106910192
4331000000.0 0.5345849755831218 -0.8440789505504745
4334000000.0 0.5512674608900512 -0.8649911609081221
4338000000.0 0.5651896376889639 -0.8621604046278147
4341000000.0 0.580001550589593 -0.8561110041885287
4344000000.0 0.5750819281151264 -0.8786984453586275
4347000000.0 0.5383053249574743 -0.8636186930340786
4350000000.0 0.5262426217621157 -0.8323686716325258
4353000000.0 0.567159534392092 -0.8420962961618588
4356000000.0 0.5336189644216931 -0.8503391265315724
4359000000.0 0.5153228703230576 -0.8131855019082568
4362000000.0 0.5200400760640769 -0.8716176831181746
4366000000.0 0.5610771986281582 -0.8625124412554306
4369000000.0 0.5243495617608107 -0.826323557194288
4372000000.0 0.5032772941011091 -0.8563163081422909
4375000000.0 0.5490047360414969 -0.8157507298056053
4378000000.0 0.5180727510660542 -0.8280415614425528
4381000000.0 0.5399608467195224 -0.8310258981358837
4384000000.0 0.575042659404264 -0.8912512191405463
4388000000.0 0.5414843258599032 -0.8283481079701517
4391000000.0 0.5363816766319532 -0.8652497986396392
4394000000.0 0.5115107510128094 -0.8286333282932006
4397000000.0 0.5302386869987521 -0.8344783619018439
4400000000.0 0.5439627996689991 -0.8886653106329869
4403000000.0 0.5507701587417002 -0.8511081079396073
4406000000.0 0.5284227702367739 -0.8689869398212495
4409000000.0 0.5387251531097039 -0.8792698901260174
4412000000.0 0.47534717025248907 -0.8761920223916381
4416000000.0 0.5351463190761516 -0.8559795207210462
4419000000.0 0.5095907059731517 -0.8578652979167187
4422000000.0 0.5305992453826794 -0.8302075731879561
4425000000.0 0.5533983790856121 -0.8514725972657093
4428000000.0 0.5227131315139285 -0.8577019375778276
4431000000.0 0.5349433213125054 -0.863301207591988
4434000000.0 0.5246483291087527 -0.8490006560682778
4438000000.0 0.5466613983902648 -0.8646572140596729
4441000000.0 0.5592856774869632 -0.8693659972749236
4444000000.0 0.5306462973252787 -0.8346271367862543
4447000000.0 0.5250952097744885 -0.855382590151972
4450000000.0 0.5453685826465129 -0.8397665975694197
4453000000.0 0.5432583695022595 -0.8679986173663183
4456000000.0 0.5031917963865868 -0.8477200041214344
4459000000.0 0.5065299464873184 -0.8349261397237493
4462000000.0 0.5527291755384279 -0.9100692078679462
4466000000.0 0.522249662779958 -0.9037473004321919
4469000000.0 0.5334060236409205 -0.8566458414956633
4472000000.0 0.5238543704112179 -0.8850437493853698
4475000000.0 0.5208022022517234 -0.8390447698458873
4478000000.0 0.5459750242213297 -0.9084024596080674
4481000000.0 0.49322553117896495 -0.8393270023599101
4484000000.0 0.4710288645067121 -0.8753768870071118
4488000000.0 0.4921164712053818 -0.8543294868472804
4491000000.0 0.5060847107360404 -0.8776694283132687
4494000000.0 0.5158589894687287 -0.8506317718507215
4497000000.0 0.5416484950066057 -0.8340685289927232
4500000000.0 0.5466438736780507 -0.8426833867020477
4503000000.0 0.5382690303796694 -0.886093157512565
4506000000.0 0.5127266909669757 -0.8587114794173091
4509000000.0 0.4987408678483226 -0.8514531544190062
4512000000.0 0.4912061339241553 -0.8349940983953799
4516000000.0 0.5416270744938894 -0.8824463993074856
4519000000.0 0.5071743428159834 -0.8492430033588955
4522000000.0 0.518904373798408 -0.8534312518635991
4525000000.0 0.5566560843100141 -0.8354716471584086
4528000000.0 0.5279816603233056 -0.8949980198087417
4531000000.0 0.5489645518721967 -0.8649939777825044
4534000000.0 0.4969399260159623 -0.8475359913699452
4538000000.0 0.5210213220427171 -0.8567594173917232
4541000000.0 0.4954661036240069 -0.8646827307406769
4544000000.0 0.5044509155155918 -0.8457148156919223
4547000000.0 0.5201133173532407 -0.8324448534537026
4550000000.0 0.5144428870448832 -0.8732883401287934
4553000000.0 0.5088602869217039 -0.862891502035911
4556000000.0 0.5012765917245414 -0.852154353030153
4559000000.0 0.5020428140864883 -0.8798988883502925
4562000000.0 0.5306397903565276 -0.8688706064546993
4566000000.0 0.5058297724234304 -0.8677757106030719
4569000000.0 0.5038621174292874 -0.8489488703607343
4572000000.0 0.5087322985180435 -0.8635254434565447
4575000000.0 0.5098612218630232 -0.8705452384928571
4578000000.0 0.5399797207695309 -0.8556132171686969
4581000000.0 0.49034348159398494 -0.8809106509594229
4584000000.0 0.5045543869356135 -0.8685206129639081
4588000000.0 0.5347160138344228 -0.8851714832876447
4591000000.0 0.5406908047421917 -0.8528532541450201
4594000000.0 0.48261346943188677 -0.8652247082413782
4597000000.0 0.5160879328667848 -0.8843993152994367
4600000000.0 0.48473546177607263 -0.8680298746225811
4603000000.0 0.5146677100274984 -0.8818960394245008
4606000000.0 0.49775164139682515 -0.8720674290312096
4609000000.0 0.5252227818867379 -0.8653267913491667
4612000000.0 0.5084682197429652 -0.8881183358059517
4616000000.0 0.503490962876007 -0.8493118739039072
4619000000.0 0.5242126550629668 -0.8544113101116257
4622000000.0 0.5129083283342171 -0.8648871297716761
4625000000.0 0.47206291009087387 -0.8597081620842836
4628000000.0 0.5165136724604897 -0.8557563527851393
4631000000.0 0.4881757491103133 -0.8739738448945666
4634000000.0 0.5136709740820498 -0.8803139764274515
4638000000.0 0.5012879137414614 -0.8823458498428145
4641000000.0 0.5006915129284197 -0.8723150802851953
4644000000.0 0.5092990218845417 -0.8387052367933797
4647000000.0 0.5263531350656232 -0.8736841549082549
4650000000.0 0.48528481806403423 -0.8632666387624778
4653000000.0 0.5115088087810868 -0.8631217583687893
4656000000.0 0.5029566545192385 -0.8717758861551258
4659000000.0 0.4780129742311305 -0.8551797856988159
4662000000.0 0.5016554971221959 -0.8966428870677036
4666000000.0 0.4942372053966735 -0.8736365822539587
4669000000.0 0.5302485459610835 -0.8587105318172497
4672000000.0 0.48791616006773875 -0.9031105574185347
4675000000.0 0.47114134118329626 -0.8885194761282955
4678000000.0 0.48024510402244847 -0.8330957438913129
4681000000.0 0.498307757900304 -0.895974305284281
4684000000.0 0.47328144256388266 -0.8951360751081993
4688000000.0 0.4554699353389013 -0.8872217742566999
4691000000.0 0.4917893221720548 -0.8851873884452038
4694000000.0 0.4971624533312022 -0.8452851224329141
4697000000.0 0.47585019479643476 -0.8737474545850806
4700000000.0 0.500702592810837 -0.8581830686972258
4703000000.0 0.5296505096476187 -0.8461981531075425
4706000000.0 0.483791165401903 -0.8565477168970055
4709000000.0 0.4756211262810502 -0.8776540199070433
4712000000.0 0.5278268319554653 -0.9041924737467072
4716000000.0 0.4791480445694366 -0.8782416743795834
4719000000.0 0.5371855494401487 -0.8688408063070244
4722000000.0 0.5335508235038698 -0.8532957563777368
4725000000.0 0.5052180547076496 -0.8821616986673391
4728000000.0 0.47919992436053127 -0.888886930921841
4731000000.0 0.504096762185501 -0.886286462844937
4734000000.0 0.49850964807496073 -0.8564636477098136
4738000000.0 0.5316018787356489 -0.9078959149751091
4741000000.0 0.5087142854387791 -0.890455614936367
4744000000.0 0.475095995266734 -0.8961180676755235
4747000000.0 0.5022702522248106 -0.8467736261901369
4750000000.0 0.5301400084676235 -0.8995218750356304
4753000000.0 0.49449896047062136 -0.8868663486040702
4756000000.0 0.5069430174611851 -0.901805480267366
4759000000.0 0.5123068160910738 -0.8636518958815798
4762000000.0 0.4639677604395508 -0.905353805177759
4766000000.0 0.49645132475337217 -0.8866248453739558
4769000000.0 0.47973352359190496 -0.9118177864728572
4772000000.0 0.45883317587104233 -0.9218102370417661
4775000000.0 0.4724277301194484 -0.9365674722598369
4778000000.0 0.4865478833726701 -0.9062467708276007
4781000000.0 0.5218087453008612 -0.8657918280427754
4784000000.0 0.504409067417162 -0.8632607856692509
4788000000.0 0.5032927252085364 -0.9053796830000408
4791000000.0 0.44378244537922945 -0.8710450671762402
4794000000.0 0.5385199317437065 -0.8881581026370208
4797000000.0 0.4885543171829758 -0.9010371845710314
4800000000.0 0.4784256833879176 -0.8747063597825174
4803000000.0 0.443604720482034 -0.9080512525901199
4806000000.0 0.49900678140294397 -0.9104733776281515
4809000000.0 0.4407099649263476 -0.9089888403112775
4812000000.0 0.4542653054154984 -0.9052462204357798
4816000000.0 0.5067529207684918 -0.8681024187192329
4819000000.0 0.527899009190379 -0.9058704899268468
4822000000.0 0.5421371380424237 -0.882469085671028
4825000000.0 0.5195233633409463 -0.9030566755153608
4828000000.0 0.47744676103385075 -0.887346073244393
4831000000.0 0.4411954969656494 -0.9169228994320894
4834000000.0 0.518652982475928 -0.8898339816940061
4838000000.0 0.49819776064723253 -0.9005066916846507
4841000000.0 0.4996063249426998 -0.8818809648847257
4844000000.0 0.5253293648502342 -0.899807310720634
4847000000.0 0.49917511551288685 -0.8579801051686607
4850000000.0 0.4900465068316194 -0.9026721070838032
4853000000.0 0.5008943625632918 -0.8661453586490414
4856000000.0 0.5008998433166467 -0.8757796584495853
4859000000.0 0.5071961041909718 -0.9157685895203455
4862000000.0 0.5104861655397726 -0.8788900869685025
4866000000.0 0.47972890624356496 -0.9001584409491417
4869000000.0 0.48484926580032767 -0.8996740625045054
4872000000.0 0.46773448362667336 -0.9294711321117265
4875000000.0 0.5610919974127782 -0.9099193439823817
4878000000.0 0.4901780639706013 -0.9026043708600128
4881000000.0 0.48981472503278023 -0.9441609573707418
4884000000.0 0.5214452585890369 -0.8740864945718677
4888000000.0 0.5448305817163269 -0.8794918388060561
4891000000.0 0.5338146783490747 -0.9121826738441091
4894000000.0 0.4892406391921472 -0.8931603847366405
4897000000.0 0.5078002319698972 -0.8797945854554233
4900000000.0 0.5050454016741198 -0.8945337514694156
4903000000.0 0.4928225493832734 -0.9053218394623408
4906000000.0 0.5217126461155204 -0.9315896139509117
4909000000.0 0.5022594675398694 -0.9154979892265581
4912000000.0 0.4985071452848309 -0.9473291851462935
4916000000.0 0.5419607548075447 -0.9159402062352712
4919000000.0 0.5487997993001618 -0.902052218909475
4922000000.0 0.4993635679899636 -0.8905704428742014
4925000000.0 0.47331666540216577 -0.8845248685831029
4928000000.0 0.5425157271558466 -0.8621532170547466
4931000000.0 0.5331131102606826 -0.8833938170771252
4934000000.0 0.47965676341167923 -0.8431141697928785
4938000000.0 0.4555692017549767 -0.8857916529100667
4941000000.0 0.506924226624879 -0.8630276991813831
4944000000.0 0.496749763013997 -0.840623785899531
4947000000.0 0.4987873496164226 -0.8628283567835664
4950000000.0 0.471775558652066 -0.8861806577793514
4953000000.0 0.4755550286044654 -0.9254763394531154
4956000000.0 0.4805162170527353 -0.9157059293193839
4959000000.0 0.45788542106936814 -0.897615187995208
4962000000.0 0.47085463328155175 -0.9161332655806234
4966000000.0 0.5326660519386578 -0.9359971343451583
4969000000.0 0.5420203237804111 -0.9013253861240708
4972000000.0 0.5344388683769241 -0.9039986419525645
4975000000.0 0.5298932262584332 -0.8600028811989443
4978000000.0 0.4570932563806229 -0.8917018393808013
4981000000.0 0.5426305984451039 -0.8932260623624916
4984000000.0 0.5109490671243905 -0.8912560622563618
4988000000.0 0.49646514583951945 -0.8821032709167149
4991000000.0 0.5752990183485547 -0.8950756339116225
4994000000.0 0.5387723617616723 -0.8714041407843176
4997000000.0 0.4974874274753188 -0.9088217449639249
5000000000.0 0.5362504724064266 -0.915262345275767
5003000000.0 0.555195203680148 -0.9149708063780286
5006000000.0 0.544140967543613 -0.9348254100021657
5009000000.0 0.5470968617883265 -0.8941207812228854
5012000000.0 0.48933630759726504 -0.8932559362038309
5016000000.0 0.5932454932013561 -0.9068849432199282
5019000000.0 0.4950507725233496 -0.879344508080039
5022000000.0 0.5155909772664007 -0.8880151797018093
5025000000.0 0.5502405170727704 -0.963693171079236
5028000000.0 0.5338939359946526 -0.8837848132482555
5031000000.0 0.4988727536101783 -0.9066145999790594
5034000000.0 0.5120426692738644 -0.9380443271228275
5038000000.0 0.5060052604111687 -0.8807457473641084
5041000000.0 0.5391492133773848 -0.8593617559652462
5044000000.0 0.5470513026560724 -0.8769600059638542
5047000000.0 0.5542374293940728 -0.8717999129374983
5050000000.0 0.5810209960302105 -0.8145686167009929
5053000000.0 0.5306747697687515 -0.9534694203855174
5056000000.0 0.5524767362735377 -0.892718054180552
5059000000.0 0.5879244766561504 -0.8633894722044207
5062000000.0 0.5345375370388049 -0.8974992531928633
5066000000.0 0.5757903422297559 -0.8750494485701119
5069000000.0 0.5444926557603972 -0.9195685188687732
5072000000.0 0.5130316269363071 -0.8475592140183721
5075000000.0 0.5432993981828274 -0.8737568902501966
5078000000.0 0.48008573244741576 -0.9434493170433302
5081000000.0 0.5035727562121866 -0.8570509323679374
5084000000.0 0.5193370652668483 -0.8844914399564029
5088000000.0 0.5478159595394914 -0.8386005074235778
5091000000.0 0.5015415655300203 -0.8723633472813412
5094000000.0 0.5251147007347599 -0.8966444440651726
5097000000.0 0.5793568463857858 -0.825229328440668
5100000000.0 0.5585932197122007 -0.8551789855018214
5103000000.0 0.5498694094303183 -0.9219382597968755
5106000000.0 0.4919583920620476 -0.9041671549788202
5109000000.0 0.6030193936068178 -0.8499716676099176
5112000000.0 0.5116379608664947 -0.9033472350357792
5116000000.0 0.49090308714829506 -0.8606994985765937
5119000000.0 0.4938541694764024 -0.8844241461856814
5122000000.0 0.5449394691186573 -0.8360789484907207
5125000000.0 0.5204560161924032 -0.8455613479465953
5128000000.0 0.5060689118165564 -0.8521037046985231
5131000000.0 0.49810981791843356 -0.8419757228176254
5134000000.0 0.5046075241111266 -0.8567991952823644
5138000000.0 0.5198810196177852 -0.8591396810131844
5141000000.0 0.5610429733318625 -0.8877732517127173
5144000000.0 0.5727942954406546 -0.8473397780828504
5147000000.0 0.5650805718773573 -0.850405034286877
5150000000.0 0.5441301344747946 -0.8565355864265489
5153000000.0 0.5672322851266058 -0.8807532960275082
5156000000.0 0.5758296159283005 -0.8748949540753425
5159000000.0 0.5767594313624694 -0.8770471667349462
5162000000.0 0.5314111207369622 -0.9034387059219732
5166000000.0 0.5351096545515421 -0.9218974346795974
5169000000.0 0.5315007754069017 -0.8891605933042495
5172000000.0 0.5558524351624972 -0.8389336464804372
5175000000.0 0.5463924773457043 -0.8983969158484354
5178000000.0 0.540234421403946 -0.9277491613096616
