! Created with skrf 1.8.0 (http://scikit-rf.org).
# Hz S RI R 50.0 
!freq ReS11 ImS11
4000000000.0 0.5465370368273045 -0.8503562443001831
4003000000.0 0.5949561469132445 -0.9176375812409698
4006000000.0 0.5210966868393053 -0.8805928315741421
4009000000.0000005 0.5370913549777879 -0.852699901581962
4011999999.9999995 0.6308374618755432 -0.8202168383695181
4016000000.0 0.5632147594803045 -0.9215622002145043
4019000000.0 0.5575909814434246 -0.8852866558823526
4022000000.0000005 0.6028414525403565 -0.8350602252151929
4025000000.0000005 0.5437051447207801 -0.8960085497244832
4027999999.9999995 0.543185306840406 -0.9037309687912768
4030999999.9999995 0.5401893873147198 -0.8167549551170402
4034000000.0 0.5919694420140662 -0.8498147879872143
4038000000.0000005 0.537963379019458 -0.9003344371785296
4041000000.0000005 0.5496345368559582 -0.8590226337808972
4043999999.9999995 0.5907164177549431 -0.9494902504077438
4046999999.9999995 0.6069353453933588 -0.8264441916382572
4050000000.0 0.545695533500627 -0.9359650563424717
4053000000.0 0.4806798227632285 -0.8360781064777834
4056000000.0 0.5741756423342732 -0.844782327774684
4059000000.0 0.5404204635383871 -0.8288050394510134
4062000000.0000005 0.5365926975276918 -0.934433723343235
4066000000.0 0.5074935562134493 -0.8063095506005318
4069000000.0 0.5366901042562382 -0.9239488359554218
4072000000.0 0.5426765611979653 -0.8262562229241613
4075000000.0 0.6066472502169212 -0.9108076779015558
4078000000.0000005 0.5674468305140703 -0.8926808455306866
4081000000.0000005 0.5641805674066965 -0.8524026547232606
4083999999.9999995 0.5292601366407472 -0.8911242286110898
4088000000.0 0.5617397472643753 -0.8332136353166536
4091000000.0 0.5528632239367441 -0.9053630104629589
4094000000.0000005 0.5840345479361723 -0.8724150137894369
4097000000.0000005 0.5302138437175636 -0.8693387096775493
4099999999.9999995 0.53673959016984 -0.8646238664348344
4102999999.9999995 0.5739164711879494 -0.8545258789478528
4106000000.0 0.5434770495439734 -0.8647075009119668
4109000000.0 0.5413131665115181 -0.8923381974632624
4112000000.0 0.5663729747537652 -0.8619171971847538
4115999999.9999995 0.52852157987277 -0.8532411339936351
4119000000.0 0.553690246567151 -0.8814622943448378
4122000000.0 0.5263909106941179 -0.8960652334605205
4125000000.0 0.5596568914406723 -0.8908170573714416
4128000000.0 0.5770350668285466 -0.8048959604893315
4131000000.0 0.5166175219703922 -0.8386635463207238
4134000000.0000005 0.5579423929920067 -0.8699345276435567
4138000000.0 0.5261626920503664 -0.8487119441152655
4141000000.0 0.5243251842786871 -0.864282289079428
4144000000.0 0.5580427580183731 -0.8654618924396981
4147000000.0000005 0.5127298826399735 -0.8505197887145926
4150000000.0000005 0.5680619758377022 -0.8593572520912915
4152999999.9999995 0.5655726549256359 -0.8420549799566349
4155999999.9999995 0.5523169064849301 -0.9009789544409731
4159000000.0 0.5383182697902915 -0.8424020042880933
4162000000.0 0.5479439912093053 -0.8372758071356717
4166000000.0000005 0.5315052234752853 -0.8780260653953218
4168999999.9999995 0.5234286112393859 -0.8811255624315771
4171999999.9999995 0.5734831440906143 -0.844392894186243
4175000000.0 0.5516419210567025 -0.8765600372984865
4178000000.0 0.5478039152125818 -0.882586786300972
4181000000.0 0.5559466418022347 -0.8663441815022714
4184000000.0 0.5543471568631231 -0.8564989948630108
4187999999.9999995 0.5557146310063654 -0.847827358632668
4191000000.0 0.560723846571214 -0.8345533287478989
4194000000.0 0.5226712616890166 -0.8422021779149333
4197000000.0 0.5504122032934029 -0.8634839117024046
4200000000.0 0.5689011000037794 -0.8449507453438574
4203000000.0000005 0.5867620037340722 -0.8559236527199748
4206000000.0000005 0.5707360162679882 -0.8572926483542909
4208999999.9999995 0.5722608341041838 -0.8420350874325941
4211999999.9999995 0.5303573212033419 -0.8589608121715534
4216000000.0 0.5674672482595322 -0.8510716417230101
4219000000.0000005 0.5735494280945068 -0.845971736951112
4222000000.0000005 0.5596828322154603 -0.8471778384676066
4224999999.9999995 0.5535986553683021 -0.8413699168766827
4227999999.9999995 0.5636289289052846 -0.8467611280391415
4231000000.0 0.5545376432605005 -0.8497897128101746
4234000000.0 0.5465256287221609 -0.8840444948739071
4238000000.0000005 0.5318332729165716 -0.8596648991981477
4240999999.9999995 0.5378682928982762 -0.8639553712470894
4244000000.0 0.5582366619393733 -0.8617431720514797
4247000000.0 0.5604353645225794 -0.8398906861649895
4250000000.0 0.5541473168655479 -0.8492961431329566
4253000000.0 0.5386112218664661 -0.8388289257358866
4256000000.0 0.5743831395097738 -0.8714176456246058
4259000000.0000005 0.5379238395846674 -0.8345626907211813
4261999999.9999995 0.5373892375347984 -0.863629827048955
4266000000.0 0.5479813785531495 -0.8653457707810089
4269000000.0 0.5838447572371706 -0.8425838069643207
4272000000.0000005 0.5406467068318402 -0.8553707334408999
4275000000.0000005 0.5577896301615186 -0.8551215033624397
4277999999.9999995 0.5571525396600325 -0.8764801580498639
4280999999.9999995 0.5805983443242512 -0.8468754447991431
4284000000.0 0.5330091964498265 -0.8685571290752531
4288000000.0000005 0.5837360755074728 -0.8412820734194565
4291000000.0000005 0.5528165864384078 -0.82346425891173
4293999999.9999995 0.538860107599586 -0.8502712529243394
4297000000.0 0.563732982592054 -0.8304327537162814
4300000000.0 0.5367016054835689 -0.8204308919025448
4303000000.0 0.5349573715666419 -0.8443766870312592
4306000000.0 0.5730926263266976 -0.8664137048283326
4309000000.0 0.5707990790192212 -0.8404484214183054
4312000000.0 0.6217711070496336 -0.8483147851870232
4316000000.0 0.5734133866918768 -0.8658229277997486
4319000000.0 0.5442483903795683 -0.8390110319086896
4322000000.0 0.5309021154873999 -0.849980491496243
4325000000.0 0.5502433253838449 -0.8360752011830027
4328000000.0 0.5430344923776778 -0.8325991822876885
4331000000.0 0.5430909415294968 -0.8833108168269703
4334000000.0 0.5598246141706611 -0.8434057625479807
4338000000.0 0.5532907203972222 -0.8520714352995048
4341000000.0 0.5890986041653351 -0.8479421472994131
4344000000.0 0.5720367327860624 -0.8507317489232229
4347000000.0 0.5642297908056316 -0.8625445146305828
4350000000.0 0.5280570454825846 -0.8277022854806368
4353000000.0 0.5506253108084878 -0.7951423617256724
4356000000.0 0.5051131974051909 -0.8368975118599253
4359000000.0 0.5162899813878735 -0.8185735448537641
4362000000.0 0.5254240817770514 -0.8945268423005595
4366000000.0 0.5713092325815732 -0.8764298785845644
4369000000.0 0.5322599234538211 -0.8356954260757824
4372000000.0 0.4962829016424193 -0.8587614906024866
4375000000.0 0.5634565720183815 -0.8148955652729197
4378000000.0 0.5535142891336803 -0.8195520676977323
4381000000.0 0.5416981932434304 -0.8290880854861321
4384000000.0 0.5762388248594218 -0.9006597107119791
4388000000.0 0.5579376974235566 -0.8227366046361468
4391000000.0 0.5427021137428618 -0.8524627867115776
4394000000.0 0.5236719412871151 -0.8315688652524839
4397000000.0 0.5330566524471863 -0.830416555363221
4400000000.0 0.5546538342730097 -0.867306750075211
4403000000.0 0.5566032320452968 -0.8619619392093597
4406000000.0 0.5208896470517828 -0.8636836593113659
4409000000.0 0.5532188568521642 -0.8767197996255953
4412000000.0 0.4952406168920376 -0.8785278529286513
4416000000.0 0.5217743735319958 -0.841573221444781
4419000000.0 0.5234071039373829 -0.8709665565062643
4422000000.0 0.5602897441997876 -0.8596193610948722
4425000000.0 0.5788585056873213 -0.8588749598602803
4428000000.0 0.5344946223255292 -0.8558913109751705
4431000000.0 0.5595613624412209 -0.8611451696113389
4434000000.0 0.5195818013624568 -0.8553857816673123
4438000000.0 0.5449082854255067 -0.8728933039478015
4441000000.0 0.5656719073583324 -0.8714264509565379
4444000000.0 0.5326669956293498 -0.8276418891385231
4447000000.0 0.5306927397342045 -0.8554513766396242
4450000000.0 0.5578529641620003 -0.8399415213182595
4453000000.0 0.5388566450002068 -0.8840316944520069
4456000000.0 0.5110790388240546 -0.8526725692325922
4459000000.0 0.4972350913733127 -0.8105875206261622
4462000000.0 0.558684103011423 -0.9006444242422058
4466000000.0 0.5407586076084238 -0.8885424357137803
4469000000.0 0.5424059751994194 -0.8472841611257154
4472000000.0 0.528767285610288 -0.8855559886397021
4475000000.0 0.5363562688662186 -0.8384468840718164
4478000000.0 0.5422639553683777 -0.8972426653287651
4481000000.0 0.4979845872665468 -0.8394397302005616
4484000000.0 0.5101024522206064 -0.8688773626702138
4488000000.0 0.5012462437100542 -0.8565045415704647
4491000000.0 0.5397625562836028 -0.8690914066262823
4494000000.0 0.536367510792771 -0.8431563649126279
4497000000.0 0.5519114943474505 -0.832777754135938
4500000000.0 0.5501109729131815 -0.8542462511596469
4503000000.0 0.5281945958589472 -0.8815383002379489
4506000000.0 0.5095873810757913 -0.8335742028797737
4509000000.0 0.5119299069925303 -0.8455372195376465
4512000000.0 0.5131752022572936 -0.8491865629582136
4516000000.0 0.5463855605905159 -0.8684849542369542
4519000000.0 0.5283417334128125 -0.8378735129100023
4522000000.0 0.5330602551927182 -0.8590113468979215
4525000000.0 0.5571464895159112 -0.8405888694692218
4528000000.0 0.5437640494071463 -0.8752220908063237
4531000000.0 0.5369869119133693 -0.849638869647439
4534000000.0 0.5155956967095476 -0.8284375217833865
4538000000.0 0.5243194245873462 -0.8547938172887615
4541000000.0 0.49407357842465427 -0.850511842431277
4544000000.0 0.5293571402122406 -0.8384956710548008
4547000000.0 0.5368410963694181 -0.8582580177181532
4550000000.0 0.5152768586424404 -0.8767686054377122
4553000000.0 0.5214894790218418 -0.8558038300766262
4556000000.0 0.5046994725484121 -0.8478936435523099
4559000000.0 0.5226259313788038 -0.856641535340541
4562000000.0 0.5315449588291964 -0.8764203953455614
4566000000.0 0.5293785338719499 -0.8573275105780265
4569000000.0 0.5158366894608273 -0.848134933638869
4572000000.0 0.5191596809761929 -0.8497918676060415
4575000000.0 0.5172351650653243 -0.8680447428459959
4578000000.0 0.5583103960995593 -0.896804535419493
4581000000.0 0.518617450030274 -0.8775385969056566
4584000000.0 0.5175116662345254 -0.8454116176359892
4588000000.0 0.5434867674625408 -0.8761687365536641
4591000000.0 0.5235352340054591 -0.8643566219209812
4594000000.0 0.49968722237373603 -0.8694073805552511
4597000000.0 0.5128133984015583 -0.8869003686741651
4600000000.0 0.498913311974482 -0.8500799846630666
4603000000.0 0.5040546022835435 -0.8721630367699907
4606000000.0 0.5121451095453009 -0.8671744898125909
4609000000.0 0.5189618276499195 -0.8766638554961405
4612000000.0 0.5290344849678361 -0.8833458331926387
4616000000.0 0.49528245558099604 -0.8500057116822876
4619000000.0 0.5403038868787625 -0.856420965973623
4622000000.0 0.503104352998893 -0.87862167519462
4625000000.0 0.48356383863836017 -0.8421855911878258
4628000000.0 0.5065009518701966 -0.8566726102870339
4631000000.0 0.5099652429079803 -0.8637080895651859
4634000000.0 0.5063281029515119 -0.8704178554955946
4638000000.0 0.5153033376618346 -0.8606023813516317
4641000000.0 0.5122859999790581 -0.8564112430149788
4644000000.0 0.5293950220906876 -0.8601528998978885
4647000000.0 0.5180801928465449 -0.8665933344635924
4650000000.0 0.4993073874610283 -0.8694149794399187
4653000000.0 0.5361608362614058 -0.8641240176461238
4656000000.0 0.510078703281997 -0.872688458359797
4659000000.0 0.5139921085178731 -0.8672769089997121
4662000000.0 0.5035171340391542 -0.8688444622694731
4666000000.0 0.5037544598508218 -0.8760657300095833
4669000000.0 0.4960605862544606 -0.8668931441966947
4672000000.0 0.4984809740406694 -0.9079151941336564
4675000000.0 0.4925457401820413 -0.8689402609211314
4678000000.0 0.5060198824057398 -0.8648626072308021
4681000000.0 0.46835134839336 -0.8960045210905885
4684000000.0 0.46262194565748893 -0.8791385228947892
4688000000.0 0.4634308354045713 -0.8815487471335546
4691000000.0 0.5164300403782748 -0.8749175768345733
4694000000.0 0.5167175854197688 -0.8745354636565439
4697000000.0 0.4592523999852793 -0.8560361280516052
4700000000.0 0.5198387708309734 -0.8765234878403525
4703000000.0 0.5269339311367489 -0.8233657389943073
4706000000.0 0.4902351855717541 -0.9033632037212943
4709000000.0 0.4773995426208166 -0.8864387554480093
4712000000.0 0.5018583093544506 -0.8848803813215051
4716000000.0 0.48029543212029047 -0.8843137707663317
4719000000.0 0.5198015677689487 -0.8832065059957667
4722000000.0 0.5019208394226711 -0.8873739427421482
4725000000.0 0.48045231479746836 -0.878177419586635
4728000000.0 0.4990528682313556 -0.8830758585315963
4731000000.0 0.5271055250862661 -0.8922754088857946
4734000000.0 0.5081653595504914 -0.8435329093256678
4738000000.0 0.5725377010457094 -0.9039332450475513
4741000000.0 0.5137014600525227 -0.9172139031642509
4744000000.0 0.47707817865133784 -0.9005083096748602
4747000000.0 0.5107204734138346 -0.8416995108311581
4750000000.0 0.48771066648925976 -0.8904869992047646
4753000000.0 0.5108329525817286 -0.885271047465449
4756000000.0 0.5335324855568009 -0.8888022375848978
4759000000.0 0.5211780074293598 -0.8796617965649821
4762000000.0 0.5167196981405417 -0.9210841753065439
4766000000.0 0.4838920753468707 -0.9073521340464992
4769000000.0 0.5082172898756655 -0.8896004180576849
4772000000.0 0.5207091927080406 -0.8637920354285118
4775000000.0 0.49263805345719863 -0.9213027602429347
4778000000.0 0.5080372054190123 -0.8894736395983158
4781000000.0 0.536055787958847 -0.86430479914964
4784000000.0 0.5089096898052458 -0.8664118573457454
4788000000.0 0.4939137966241274 -0.905812890115642
4791000000.0 0.49576765112573035 -0.8726607011454884
4794000000.0 0.5462025893264152 -0.8734492587953615
4797000000.0 0.4763208770263936 -0.8664206828807209
4800000000.0 0.5013647581502554 -0.8722771412168059
4803000000.0 0.4487145317272704 -0.8909004115907602
4806000000.0 0.516334758772716 -0.9067908196239257
4809000000.0 0.47993136838325157 -0.899618219622183
4812000000.0 0.46561068184689425 -0.9049748873878631
4816000000.0 0.5256473654930333 -0.872158404221786
4819000000.0 0.5332380024850895 -0.8847838129332504
4822000000.0 0.5399343141853954 -0.8906334360028377
4825000000.0 0.5363297896500946 -0.898750239203199
4828000000.0 0.47529394491068805 -0.8660610737068782
4831000000.0 0.48082534720661374 -0.923566134439405
4834000000.0 0.5197241611191771 -0.8837932600003469
4838000000.0 0.4866282714781557 -0.8962761527370303
4841000000.0 0.4742709331111023 -0.8930700030803411
4844000000.0 0.5508515592260333 -0.866507149351483
4847000000.0 0.5139306176348165 -0.8484537718903482
4850000000.0 0.5154065056892222 -0.9083227479289767
4853000000.0 0.4804817755708334 -0.8523742087900554
4856000000.0 0.49268701309993623 -0.8626488021575159
4859000000.0 0.5165674455828746 -0.9168346441841324
4862000000.0 0.5063725726509767 -0.8613793015454242
4866000000.0 0.49604017248696514 -0.8976256719165662
4869000000.0 0.47869355292020155 -0.8887875121581529
4872000000.0 0.4794809764300401 -0.9314754799943071
4875000000.0 0.558091960084675 -0.8683019575156788
4878000000.0 0.49630534836880996 -0.8974769721628606
4881000000.0 0.4992870690904694 -0.9509089259651837
4884000000.0 0.5151256292506228 -0.8979404515408219
4888000000.0 0.5338430884941918 -0.8711681088153659
4891000000.0 0.5404581654954638 -0.9051386250287293
4894000000.0 0.4889974560943117 -0.9007958442768625
4897000000.0 0.5340788360913834 -0.8430366416808852
4900000000.0 0.5116524928333266 -0.9322741839032187
4903000000.0 0.5401325841171145 -0.8968320763534077
4906000000.0 0.5234805595089684 -0.8840495011849464
4909000000.0 0.47826405210029227 -0.8832328865540955
4912000000.0 0.5386750178857621 -0.9514605409009312
4916000000.0 0.5272680952093759 -0.91954811432477
4919000000.0 0.562103582064081 -0.8897889295849795
4922000000.0 0.5236899154112192 -0.8973105064255918
4925000000.0 0.4679404283254568 -0.8881710968412027
4928000000.0 0.5629312619298786 -0.8614037224263354
4931000000.0 0.5530472015704873 -0.8888921323955082
4934000000.0 0.5004169678386012 -0.8973229032957072
4938000000.0 0.4897108210108585 -0.8911681345083909
4941000000.0 0.49467558740708856 -0.8770014826109915
4944000000.0 0.5199197875987391 -0.826249648255716
4947000000.0 0.49252793396100464 -0.8377715206917382
4950000000.0 0.47221847113189014 -0.8557930665591015
4953000000.0 0.4526439605174738 -0.9496475481913815
4956000000.0 0.4793916917525013 -0.8974308864487601
4959000000.0 0.47547101542676606 -0.879637995784608
4962000000.0 0.5423980831356371 -0.9319280215386837
4966000000.0 0.5393817608875852 -0.8765788306693074
4969000000.0 0.5651469222454801 -0.9041443841120016
4972000000.0 0.5019612650418352 -0.909149926495505
4975000000.0 0.5284298894748127 -0.865304027558291
4978000000.0 0.5049912796416673 -0.8746253987543293
4981000000.0 0.5119683630961194 -0.9035069297075575
4984000000.0 0.5198506740563575 -0.8648856295601925
4988000000.0 0.5445022391493537 -0.8820363193632471
4991000000.0 0.566242454779616 -0.8671419868050356
4994000000.0 0.5506736851522096 -0.9022951082770112
4997000000.0 0.49410147888608474 -0.9093747151672096
5000000000.0 0.5375946216994056 -0.9287068158575801
5003000000.0 0.588279530492805 -0.9120986469553072
5006000000.0 0.5416144324442116 -0.9479718971946756
5009000000.0 0.5463604890845286 -0.8950644642670913
5012000000.0 0.5133678678121876 -0.891928794436372
5016000000.0 0.5760918570563865 -0.8956091673443649
5019000000.0 0.5168838440378911 -0.9036712542936038
5022000000.0 0.5202438083580043 -0.8849252679974036
5025000000.0 0.5487054969680447 -0.95408640485774
5028000000.0 0.4993500796884508 -0.8975576013059897
5031000000.0 0.5323214209429245 -0.8618656135462749
5034000000.0 0.5067698966678225 -0.9034233141388592
5038000000.0 0.49291247871714167 -0.8802526881709232
5041000000.0 0.5474580231790345 -0.8773451933694065
5044000000.0 0.5569681199964356 -0.8614631692969288
5047000000.0 0.5403980009775068 -0.911746368814413
5050000000.0 0.6028027267265887 -0.8222675626605666
5053000000.0 0.571971877676127 -0.914616181122255
5056000000.0 0.5601151058712032 -0.8791302566400926
5059000000.0 0.5839337080578529 -0.8096941790135204
5062000000.0 0.5059414350774015 -0.9240889368192098
5066000000.0 0.576839051739555 -0.8522155764508161
5069000000.0 0.537686119942488 -0.8871050781327017
5072000000.0 0.5273541299265644 -0.865516062985368
5075000000.0 0.521907410807716 -0.914176379773691
5078000000.0 0.49504154522870397 -0.9030214954691005
5081000000.0 0.4826232990914807 -0.8702797263433828
5084000000.0 0.5350429674392461 -0.9143754647518838
5088000000.0 0.5676795664533743 -0.8491200102821475
5091000000.0 0.5085669344184953 -0.8986472152224405
5094000000.0 0.5597583271325732 -0.8893496083403537
5097000000.0 0.593227970356853 -0.8734751159120075
5100000000.0 0.5472356235255006 -0.878422300015975
5103000000.0 0.5593369166059667 -0.9275201355933576
5106000000.0 0.5665580117030686 -0.9196553579711824
5109000000.0 0.5703788993201168 -0.8409594877879416
5112000000.0 0.5143409417748108 -0.8586777308174398
5116000000.0 0.5277338216287233 -0.8444296797083266
5119000000.0 0.5754678009946869 -0.9118024093600785
5122000000.0 0.5261262111776914 -0.8690137176549297
5125000000.0 0.5762384210893999 -0.8783896511017142
5128000000.0 0.5724211068638967 -0.9219787869634233
5131000000.0 0.5221976417789438 -0.8653165241314849
5134000000.0 0.5143935447905169 -0.8420513127974594
5138000000.0 0.5765411135766172 -0.8571383653791558
5141000000.0 0.5733302707638656 -0.8631324621155996
5144000000.0 0.5593792927457342 -0.8394687749361451
5147000000.0 0.558630264021192 -0.8866835344262746
5150000000.0 0.6094270809310727 -0.8357531667624577
5153000000.0 0.5233475262759993 -0.8940334833176349
5156000000.0 0.5603725295138658 -0.8938152271331113
5159000000.0 0.594469558647702 -0.9548550621206766
5162000000.0 0.529135319317024 -0.857792867970006
5166000000.0 0.5497655920449886 -0.8733711587054692
5169000000.0 0.5616953856055578 -0.8688859528039334
5172000000.0 0.5707984745368102 -0.8830579137989263
5175000000.0 0.6038934655479798 -0.9222687097612823
5178000000.0 0.5273204356556993 -0.8780991612038417
