! Created with skrf 1.8.0 (http://scikit-rf.org).
# Hz S RI R 50.0 
!freq ReS11 ImS11
4000000000.0 0.8839502193840691 -0.4796679943837626
4003000000.0 1.0091003641835865 -0.4704222349602185
4006000000.0 0.8692192058297057 -0.6102736296298867
4009000000.0000005 0.901842753173835 -0.48334402670066445
4011999999.9999995 0.9290696909840829 -0.46714671910659705
4016000000.0 0.8843814086252325 -0.612197621774356
4019000000.0 0.9225170823255705 -0.5439272927818719
4022000000.0000005 0.9183501455623737 -0.4161708320452484
4025000000.0000005 0.8908581144676126 -0.5752776092498144
4027999999.9999995 0.8734360276445019 -0.5454595689033279
4030999999.9999995 0.8539308150855198 -0.48192292484437976
4034000000.0 0.9260881524907923 -0.4794125235636765
4038000000.0000005 0.9251308357484076 -0.533892792580028
4041000000.0000005 0.8907638469318365 -0.5099521718500694
4043999999.9999995 0.9955316969757689 -0.5739444053741579
4046999999.9999995 0.9338434283124322 -0.4812546744684888
4050000000.0 0.9099246828171582 -0.5846057999841927
4053000000.0 0.8488920800743953 -0.5208580985316618
4056000000.0 0.8744508514259404 -0.4958142975144848
4059000000.0 0.9184831250786791 -0.4636368325014234
4062000000.0000005 0.8958210358006352 -0.5476202164814263
4066000000.0 0.8285558982130236 -0.5094020707725458
4069000000.0 0.9265635487018967 -0.5601315587395048
4072000000.0 0.9361665600622209 -0.4771810883821004
4075000000.0 0.9391853855898263 -0.49044403056209673
4078000000.0000005 0.8699135436760124 -0.5427903459593783
4081000000.0000005 0.9384195537788417 -0.44624392843440974
4083999999.9999995 0.9006218294017687 -0.5176529237624682
4088000000.0 0.9677698817712306 -0.46222905314013435
4091000000.0 0.9864770069739798 -0.5825087421534914
4094000000.0000005 0.9331335667070798 -0.5569760019724574
4097000000.0000005 0.9133876750406426 -0.5274527917510916
4099999999.9999995 0.8970726684139158 -0.5469583196259669
4102999999.9999995 0.9173440944064394 -0.5116880344239318
4106000000.0 0.8935613409241893 -0.5270374897478651
4109000000.0 0.8775303146760555 -0.5387226907788462
4112000000.0 0.921673989390046 -0.5195033278520079
4115999999.9999995 0.8982951658490234 -0.46746971776416446
4119000000.0 0.8589361901492317 -0.5508459549175719
4122000000.0 0.9120075319403141 -0.5482506256194544
4125000000.0 0.9069702641738144 -0.5686245915376156
4128000000.0 0.8565421907712164 -0.5027014727544796
4131000000.0 0.8751599704040943 -0.53079384003925
4134000000.0000005 0.8883384879470568 -0.4976238680540638
4138000000.0 0.8802387889414275 -0.5331261135677762
4141000000.0 0.8678852963425135 -0.557476713135988
4144000000.0 0.8991774200450753 -0.5308639470577013
4147000000.0000005 0.8406264877837375 -0.5531138591420407
4150000000.0000005 0.9151850758006298 -0.5436062582854434
4152999999.9999995 0.8977442692611723 -0.5457049787952591
4155999999.9999995 0.8883825915510326 -0.5202968537196204
4159000000.0 0.8686459500958368 -0.4944444719387739
4162000000.0 0.8876768037183143 -0.5282129427629124
4166000000.0000005 0.8952955997618539 -0.5392907463226068
4168999999.9999995 0.8755826072271787 -0.538092362272024
4171999999.9999995 0.8919397292732336 -0.549178480940989
4175000000.0 0.8499173774870893 -0.5233754698222781
4178000000.0 0.9057267076138417 -0.5417581239439775
4181000000.0 0.9395147907535273 -0.5077594125507702
4184000000.0 0.8842692589083312 -0.5528881564986846
4187999999.9999995 0.8899716275646546 -0.5264921312522828
4191000000.0 0.8963383604807181 -0.4779402487626075
4194000000.0 0.8770135191849355 -0.548715767061138
4197000000.0 0.908258109749356 -0.5414874567777508
4200000000.0 0.8991978956177834 -0.5421089614464621
4203000000.0000005 0.883120874058124 -0.5026437740778145
4206000000.0000005 0.8789303362032284 -0.536444699788565
4208999999.9999995 0.9019859566680234 -0.5364713781110249
4211999999.9999995 0.8834207557485579 -0.5440532957595403
4216000000.0 0.874917822521454 -0.5158098751074831
4219000000.0000005 0.8957519796026985 -0.5119784861049046
4222000000.0000005 0.8755803711590693 -0.5440045889212854
4224999999.9999995 0.9054395669894637 -0.5203222876092001
4227999999.9999995 0.9036022033202217 -0.5164372326891541
4231000000.0 0.8694462453931409 -0.5212074611201856
4234000000.0 0.9147640012024177 -0.5314795952053543
4238000000.0000005 0.8912001430380747 -0.5357472576065344
4240999999.9999995 0.8947264629301681 -0.541137400430478
4244000000.0 0.915036911065068 -0.5180982748325386
4247000000.0 0.8957141102781626 -0.5104985853368992
4250000000.0 0.910435872527567 -0.5306421873855122
4253000000.0 0.8695899716597252 -0.5287018853872243
4256000000.0 0.8807775920011958 -0.5375131273102736
4259000000.0000005 0.8614853253063597 -0.5275295663422338
4261999999.9999995 0.8699247313631056 -0.5397021560782939
4266000000.0 0.8843849232221814 -0.5370436051490489
4269000000.0 0.904900149778936 -0.5319284863834194
4272000000.0000005 0.8556711243153656 -0.5337256274394399
4275000000.0000005 0.8588835599531535 -0.5248205459062121
4277999999.9999995 0.8605277552949748 -0.5263183925704784
4280999999.9999995 0.8622078649483834 -0.5085704046852305
4284000000.0 0.8841134058848571 -0.5521497981004138
4288000000.0000005 0.8939863854923649 -0.5281709856217457
4291000000.0000005 0.880761290991187 -0.49742248310808923
4293999999.9999995 0.8550840298682352 -0.5231525984173782
4297000000.0 0.8898054355908938 -0.5088233719715176
4300000000.0 0.872614819737881 -0.5306603765407231
4303000000.0 0.8730511842142272 -0.5164021121712382
4306000000.0 0.9175908223414242 -0.5055523299275196
4309000000.0 0.8626344774141566 -0.5157847305119047
4312000000.0 0.8784802503950817 -0.5100478142970128
4316000000.0 0.9090920535292274 -0.49334845485980544
4319000000.0 0.8740819693092147 -0.5072430611761102
4322000000.0 0.8616834545713987 -0.5487134827380016
4325000000.0 0.8850934867527611 -0.5252765209530481
4328000000.0 0.8474938924109439 -0.5304753918080692
4331000000.0 0.8632268214977522 -0.5736657086143244
4334000000.0 0.8758889144976083 -0.5407204088834141
4338000000.0 0.8958470270522534 -0.5238727087375098
4341000000.0 0.8884071437315755 -0.5078134683028048
4344000000.0 0.9065146488286886 -0.5698480233456176
4347000000.0 0.8926420578941141 -0.526851886498187
4350000000.0 0.8388610295872061 -0.5281950898426064
4353000000.0 0.8687575973919993 -0.47916995048293204
4356000000.0 0.8721273138556144 -0.5467061923695319
4359000000.0 0.848655149359133 -0.5153229600998805
4362000000.0 0.8276316431080053 -0.5559390017477068
4366000000.0 0.8475271941650665 -0.5295203814823541
4369000000.0 0.855737606845216 -0.513797330863322
4372000000.0 0.843554145865843 -0.584975979104258
4375000000.0 0.8582479350546062 -0.5168674764755765
4378000000.0 0.84617514164369 -0.5016195294780827
4381000000.0 0.8917805905016478 -0.5072166939526179
4384000000.0 0.9088690151983805 -0.5621426267584656
4388000000.0 0.8579417042693679 -0.5108887688147656
4391000000.0 0.869261786141841 -0.5383314685094768
4394000000.0 0.8329944544203438 -0.5183539838609653
4397000000.0 0.8624259856327112 -0.5459917200045593
4400000000.0 0.8951052093723884 -0.5429100753447041
4403000000.0 0.8849399843288729 -0.5397638963237902
4406000000.0 0.8420101427758305 -0.5641436483886011
4409000000.0 0.8963376883453551 -0.5649156936124188
4412000000.0 0.8368073551232884 -0.5603703363971259
4416000000.0 0.843877289521627 -0.5421374481990389
4419000000.0 0.8437832150061726 -0.5479962858511729
4422000000.0 0.8602463155278158 -0.536647930685124
4425000000.0 0.8823677446118364 -0.5238505595377148
4428000000.0 0.8565470212927467 -0.5409702417962047
4431000000.0 0.884000108960603 -0.546671293224166
4434000000.0 0.8464159264786465 -0.5391413146471543
4438000000.0 0.8800099282112788 -0.5408400704650183
4441000000.0 0.8779289439021245 -0.5288364805586963
4444000000.0 0.8451954908906693 -0.5103701433198014
4447000000.0 0.8687130651332785 -0.5484540962334071
4450000000.0 0.8610503571591852 -0.5273150775386066
4453000000.0 0.8857286581178889 -0.5680571104718255
4456000000.0 0.8243330890522907 -0.5558768601143487
4459000000.0 0.8031867211505741 -0.5433719939782355
4462000000.0 0.9042703019962667 -0.5744507666135081
4466000000.0 0.8838260847222689 -0.5718319722778242
4469000000.0 0.8675020099184669 -0.5219618959555643
4472000000.0 0.850491835234698 -0.5715497226897107
4475000000.0 0.8461889642835277 -0.5334224381397286
4478000000.0 0.8711768949602924 -0.5844809604580672
4481000000.0 0.8140579027712413 -0.5466368873365721
4484000000.0 0.8074056664939815 -0.5920527263269594
4488000000.0 0.8192846873954563 -0.5538495042879414
4491000000.0 0.836735661397852 -0.5846777848261862
4494000000.0 0.848089454760356 -0.5402599313442267
4497000000.0 0.8515650116300412 -0.5158157074060775
4500000000.0 0.8502604660799927 -0.5411197585321772
4503000000.0 0.8650199176087585 -0.5445552969746525
4506000000.0 0.8380976325986991 -0.5445020872094628
4509000000.0 0.8212899446050351 -0.5415981387808982
4512000000.0 0.8222542251462173 -0.5647694478907439
4516000000.0 0.8741360414591691 -0.5503287606688639
4519000000.0 0.8392078611692259 -0.5342120514091833
4522000000.0 0.8300659157023926 -0.5621063439298145
4525000000.0 0.8670649473895743 -0.5201614274777553
4528000000.0 0.8598611715296084 -0.5865370697940291
4531000000.0 0.8460512002873148 -0.5367185941005511
4534000000.0 0.8398085423005446 -0.5406431089545621
4538000000.0 0.8473130517642607 -0.5673269618579599
4541000000.0 0.8173720347870616 -0.5867094004452056
4544000000.0 0.8195944023668148 -0.5410016304218511
4547000000.0 0.83327439713247 -0.5128664867398572
4550000000.0 0.8111054257231917 -0.587780807492641
4553000000.0 0.8261091332861823 -0.5704809691391918
4556000000.0 0.8079905404089843 -0.5540670620081636
4559000000.0 0.8225063515986389 -0.5797919529344165
4562000000.0 0.8463834580438091 -0.5783380227749932
4566000000.0 0.8164769315822592 -0.5601184328478983
4569000000.0 0.7957928087668356 -0.5465786012112438
4572000000.0 0.8397865415574395 -0.5413072454873279
4575000000.0 0.831196457006829 -0.5840137129633726
4578000000.0 0.8665546313311738 -0.5684964149637618
4581000000.0 0.8446701003232279 -0.5900300497727327
4584000000.0 0.8101546723874015 -0.582438492810256
4588000000.0 0.8684638941482292 -0.5636322877477602
4591000000.0 0.8495840463749224 -0.5518646817559116
4594000000.0 0.8297313146258267 -0.5772203216417912
4597000000.0 0.8481078891289633 -0.5887314743814318
4600000000.0 0.7964156971977024 -0.5812101357676327
4603000000.0 0.8399431083873972 -0.5803180859536649
4606000000.0 0.8431951637903038 -0.5605183862664251
4609000000.0 0.8164038635996901 -0.5922964069506857
4612000000.0 0.86016163307465 -0.5892723574125758
4616000000.0 0.815024283068311 -0.5809402347967533
4619000000.0 0.8510387969514265 -0.562259329671219
4622000000.0 0.8421986639742925 -0.5556168943345701
4625000000.0 0.7708535784936325 -0.5534703590321366
4628000000.0 0.8132543443368789 -0.5355066028092813
4631000000.0 0.7788808465097173 -0.5881478807045998
4634000000.0 0.8254622335029408 -0.5767581563149817
4638000000.0 0.8215362203722169 -0.5819933693634513
4641000000.0 0.8415199318158906 -0.5769449314789832
4644000000.0 0.8168407337619952 -0.5767819992207478
4647000000.0 0.8552289916120052 -0.5745299899934296
4650000000.0 0.8059727666944475 -0.6028865464770482
4653000000.0 0.8304562035046004 -0.5782363072992764
4656000000.0 0.8133945378210956 -0.6116838258640503
4659000000.0 0.8207207222274612 -0.5854129128904627
4662000000.0 0.8232769682960495 -0.5856767648199893
4666000000.0 0.8215022847951665 -0.5748691415175528
4669000000.0 0.8266661583668808 -0.5783161525345679
4672000000.0 0.8070410830479762 -0.6156923641308208
4675000000.0 0.7916623243998162 -0.6025528143674451
4678000000.0 0.8145098911403915 -0.5990313664284519
4681000000.0 0.798765774832985 -0.6381957770391451
4684000000.0 0.7881254399791132 -0.5937996531562139
4688000000.0 0.8084786693761947 -0.5927482116707268
4691000000.0 0.8113757143409197 -0.5707671292711423
4694000000.0 0.8134213058062556 -0.5966897877908021
4697000000.0 0.8061913544746033 -0.6031870076800171
4700000000.0 0.8392862081403119 -0.588437656726357
4703000000.0 0.8162552389873009 -0.5996078331985161
4706000000.0 0.8207506585098443 -0.5828258412263273
4709000000.0 0.8047804198796472 -0.5899208689862013
4712000000.0 0.8143783315339332 -0.6095426704364197
4716000000.0 0.8299542647395856 -0.5723718685618707
4719000000.0 0.823847678825237 -0.6079884764637975
4722000000.0 0.818470482610206 -0.6110958756212423
4725000000.0 0.8205892441073315 -0.6087352494874916
4728000000.0 0.7810263376674367 -0.5982788293827195
4731000000.0 0.8322954252863286 -0.5756161375199661
4734000000.0 0.8256016054987442 -0.5850398322984458
4738000000.0 0.843612163319939 -0.6195999110297468
4741000000.0 0.8190289671312868 -0.5998323838860763
4744000000.0 0.7962255283774792 -0.6290702970632025
4747000000.0 0.8171908851175842 -0.5822386217459365
4750000000.0 0.8175331697265296 -0.6195458977669288
4753000000.0 0.8058746372991366 -0.6102300952398786
4756000000.0 0.7780749396805136 -0.6070623384843639
4759000000.0 0.8050154055231417 -0.624989507112317
4762000000.0 0.7901601262134125 -0.6334006899806065
4766000000.0 0.7963715507639934 -0.6154060053539371
4769000000.0 0.8198411915201428 -0.6416721867164978
4772000000.0 0.808441658990909 -0.6303475659463905
4775000000.0 0.7950016371587912 -0.6585786479577511
4778000000.0 0.8400109225591738 -0.6146380401823167
4781000000.0 0.827850466809718 -0.6078568567655219
4784000000.0 0.831952466742536 -0.5899714170816414
4788000000.0 0.7993338132154353 -0.6185303844326363
4791000000.0 0.8035114417731544 -0.6152091918275027
4794000000.0 0.813149124561487 -0.6031283164197792
4797000000.0 0.7893544488684878 -0.621660419391838
4800000000.0 0.7911702129503425 -0.6378493319111056
4803000000.0 0.7710129999614082 -0.6482770042559391
4806000000.0 0.7892391430678671 -0.6217589002660131
4809000000.0 0.7986098730539133 -0.6327834755164553
4812000000.0 0.7784629809503886 -0.6348366495656163
4816000000.0 0.8068416328562036 -0.6086111384226401
4819000000.0 0.8273366322715555 -0.6341256254162675
4822000000.0 0.8283401243031053 -0.6271036360251566
4825000000.0 0.8144841921140231 -0.6215899103966209
4828000000.0 0.7985870065880181 -0.6201222359171945
4831000000.0 0.802310665307428 -0.6875597605445275
4834000000.0 0.8136187083795636 -0.6216059260061608
4838000000.0 0.8102612142984329 -0.6600849693351627
4841000000.0 0.7935773801239361 -0.6324931725325824
4844000000.0 0.8132956661842963 -0.6285474325006573
4847000000.0 0.7876943981857275 -0.5877254238338987
4850000000.0 0.8199965976839305 -0.6573005738469764
4853000000.0 0.8043200349362759 -0.6127925669249867
4856000000.0 0.7968724728980265 -0.6155853592132231
4859000000.0 0.8033259128874826 -0.6570181894380157
4862000000.0 0.7978542606819439 -0.5865872600712513
4866000000.0 0.8014127961247539 -0.6518196560908476
4869000000.0 0.7899570854338658 -0.650525115687872
4872000000.0 0.8004487195145115 -0.6507777571568893
4875000000.0 0.8402427236682717 -0.6422619519626249
4878000000.0 0.811255142972117 -0.640699361689931
4881000000.0 0.8521454159493501 -0.6862604246011009
4884000000.0 0.8065191852917113 -0.6407408564677263
4888000000.0 0.8154196677855378 -0.5975041588851735
4891000000.0 0.8317948958833754 -0.6175871354512462
4894000000.0 0.7787116661650875 -0.6360213451925901
4897000000.0 0.7987864035455661 -0.6179683420400559
4900000000.0 0.8224687476361827 -0.6466180727900894
4903000000.0 0.7989632061883327 -0.6455764120947121
4906000000.0 0.8148587513544641 -0.634412505910513
4909000000.0 0.8067364934952437 -0.6606473283719339
4912000000.0 0.8134420058477021 -0.6634839810480202
4916000000.0 0.8384245825258732 -0.6302539649990119
4919000000.0 0.8246553836979402 -0.6511284598776077
4922000000.0 0.8282320058807553 -0.6131265204986629
4925000000.0 0.7817651258131502 -0.6474222668462492
4928000000.0 0.8351067312710387 -0.5997137609367416
4931000000.0 0.8339767953608885 -0.6386882907017241
4934000000.0 0.7982610000570154 -0.6053044370534895
4938000000.0 0.7796456485329801 -0.6533951553410611
4941000000.0 0.7781563061028942 -0.6140933253604544
4944000000.0 0.7791272229222448 -0.5675487788038136
4947000000.0 0.7843789992104253 -0.607155296819384
4950000000.0 0.7797652644149987 -0.6489327133101259
4953000000.0 0.782044465345052 -0.6950356441655892
4956000000.0 0.7858603405276255 -0.658867853086821
4959000000.0 0.7583498505325525 -0.6288842372514611
4962000000.0 0.8305105533681671 -0.6528178159723286
4966000000.0 0.8277792221073134 -0.6469726323487636
4969000000.0 0.8494383646360417 -0.6698439206219865
4972000000.0 0.7930908203717666 -0.6398430760001459
4975000000.0 0.7860941631642305 -0.6258856215560799
4978000000.0 0.8129887354459866 -0.6333256122171476
4981000000.0 0.8292175296850465 -0.6380766935501794
4984000000.0 0.7855532237785042 -0.6458772203337207
4988000000.0 0.8071832211750671 -0.6189577996688996
4991000000.0 0.8642130569402215 -0.6095660558573163
4994000000.0 0.8067257242652337 -0.6481564627629504
4997000000.0 0.7982893539451841 -0.6732685960261481
5000000000.0 0.8665767371536444 -0.6437457973455845
5003000000.0 0.8603666786678172 -0.6681477659459135
5006000000.0 0.8609883500664148 -0.6401354671113378
5009000000.0 0.8304950101728849 -0.653921002051385
5012000000.0 0.8028513857140142 -0.6467975557937462
5016000000.0 0.8371540913521809 -0.6296018041546637
5019000000.0 0.8062803091705738 -0.644456932231418
5022000000.0 0.8289901023050585 -0.6526580678505884
5025000000.0 0.867990185491165 -0.6890569369664227
5028000000.0 0.7823760706902742 -0.6742993877295514
5031000000.0 0.7825237133317156 -0.6806572050083357
5034000000.0 0.8499599063473371 -0.7126709082872241
5038000000.0 0.7719590682899636 -0.6328085976752443
5041000000.0 0.8674078712246641 -0.590100865466833
5044000000.0 0.8076875104102529 -0.5947841615788557
5047000000.0 0.8401649040633729 -0.634764252954925
5050000000.0 0.8575310553371344 -0.5632376579672042
5053000000.0 0.8563341450601109 -0.6450056368635197
5056000000.0 0.8360780259847292 -0.6140272194741164
5059000000.0 0.8763472968079713 -0.5982089694657925
5062000000.0 0.8272556649577874 -0.6788392384592934
5066000000.0 0.8193583215102975 -0.5824537537583604
5069000000.0 0.8275192237848665 -0.660968613991607
5072000000.0 0.8104150073281239 -0.6144510298807858
5075000000.0 0.8703961863421509 -0.6278748629597544
5078000000.0 0.7714935223623889 -0.6768156229223837
5081000000.0 0.7992758349576146 -0.6611105181821999
5084000000.0 0.8461523744685449 -0.6361530618793542
5088000000.0 0.8315620521393792 -0.5794801119143924
5091000000.0 0.8074799784061643 -0.6811632263727483
5094000000.0 0.837444640036021 -0.6858795466678702
5097000000.0 0.8521353393628622 -0.5946119166982801
5100000000.0 0.8263783465636523 -0.6353798265272281
5103000000.0 0.7709237520170181 -0.6507752203893413
5106000000.0 0.8532895910051649 -0.6692711512578019
5109000000.0 0.892927078863158 -0.5855999320503718
5112000000.0 0.8178289245675271 -0.6072620528783348
5116000000.0 0.7812460169237366 -0.5967622985396643
5119000000.0 0.8055677694023049 -0.6238260450399045
5122000000.0 0.8027052510112416 -0.6125850781218154
5125000000.0 0.8018949039657456 -0.6357683487200037
5128000000.0 0.7779541428902401 -0.652952796205626
5131000000.0 0.8238637954328158 -0.5988869457055435
5134000000.0 0.8154633001573398 -0.6320421709363728
5138000000.0 0.8252110163441367 -0.6231710904104659
5141000000.0 0.8538268161707706 -0.5694742529230714
5144000000.0 0.846338480621506 -0.5900469415894096
5147000000.0 0.8125762830475639 -0.6245810500060452
5150000000.0 0.8495409483000722 -0.5818336783241523
5153000000.0 0.8011401942314675 -0.6370541729572803
5156000000.0 0.8647087790105602 -0.6763932041854915
5159000000.0 0.8648884242771016 -0.6724010230106608
5162000000.0 0.8461326335764991 -0.6013436848728556
5166000000.0 0.8074570691236529 -0.7114316282898235
5169000000.0 0.8711394921136122 -0.6173619845803475
5172000000.0 0.8210206735762016 -0.6076354899150103
5175000000.0 0.8575722169468122 -0.6113706103023473
5178000000.0 0.8351327167849603 -0.6286489728464075
