! Created with skrf 1.8.0 (http://scikit-rf.org).
# Hz S RI R 50.0 
!freq ReS11 ImS11
4000000000.0 0.5289873192159004 -0.8824643732986986
4003000000.0 0.591949389808232 -0.9066881734396517
4006000000.0 0.48640561555406125 -0.876574742655717
4009000000.0000005 0.5109119758002189 -0.8554744897749834
4011999999.9999995 0.5727453212731599 -0.8855745265937719
4016000000.0 0.5254867460775872 -0.8924543755476353
4019000000.0 0.5711976016589313 -0.8493409759695335
4022000000.0000005 0.5783779972862169 -0.8539981274683939
4025000000.0000005 0.5111770595062187 -0.9174450588731955
4027999999.9999995 0.48950953573410083 -0.9144962165874813
4030999999.9999995 0.5100614830728978 -0.8156278458022296
4034000000.0 0.49652389574488165 -0.8568606018739363
4038000000.0000005 0.4985228049905988 -0.9242160770370176
4041000000.0000005 0.5470888782945165 -0.8633799007364277
4043999999.9999995 0.5269795404779346 -0.9248584723593395
4046999999.9999995 0.5722819488115121 -0.8893242382659701
4050000000.0 0.5233780869880378 -0.8990631975693887
4053000000.0 0.47502471897934506 -0.8631220484251332
4056000000.0 0.5313809791320189 -0.9129153962138984
4059000000.0 0.559698637647783 -0.8834339860998633
4062000000.0000005 0.5183583151642697 -0.8812275407906928
4066000000.0 0.4787972697568156 -0.818646475299266
4069000000.0 0.5376309134131192 -0.9598792159398892
4072000000.0 0.5687801848890531 -0.816759546711529
4075000000.0 0.5732322824791888 -0.8782784715268986
4078000000.0000005 0.507020199139994 -0.9358897608110175
4081000000.0000005 0.598815931079832 -0.8552412897335655
4083999999.9999995 0.520912272972307 -0.9163044250984055
4088000000.0 0.5761603995290268 -0.8764898900993242
4091000000.0 0.5977650926028245 -0.8913297768849004
4094000000.0000005 0.5381369380147774 -0.9011575629504351
4097000000.0000005 0.5425271307590562 -0.8833896775958114
4099999999.9999995 0.5349572911467162 -0.8568752710143072
4102999999.9999995 0.5587383055015173 -0.9070887146859208
4106000000.0 0.4896725314297563 -0.8952405032404664
4109000000.0 0.5129079110031659 -0.8784848217325272
4112000000.0 0.5078318697263544 -0.8599869975276261
4115999999.9999995 0.5646033980210449 -0.8523591955790469
4119000000.0 0.5120042312642519 -0.8698514749145242
4122000000.0 0.5267966916893848 -0.8620040686608836
4125000000.0 0.49927033165658674 -0.890319917507595
4128000000.0 0.5222096745448609 -0.8536684837559316
4131000000.0 0.5250189888215496 -0.891796218410003
4134000000.0000005 0.5320477572194592 -0.8583688579441013
4138000000.0 0.4815950573576111 -0.8703404195577145
4141000000.0 0.521406265795509 -0.8593365597511208
4144000000.0 0.5718387352545226 -0.8680607806681518
4147000000.0000005 0.49081694582170127 -0.8754149598785957
4150000000.0000005 0.5264499364494655 -0.876907057830811
4152999999.9999995 0.5430706119846795 -0.8842166159131337
4155999999.9999995 0.5507887496134838 -0.8985303787557803
4159000000.0 0.5264283206299962 -0.8410304402667286
4162000000.0 0.5575877546220556 -0.8720543950306726
4166000000.0000005 0.5356710701541767 -0.8910369805775611
4168999999.9999995 0.5085399454036756 -0.9074003078757923
4171999999.9999995 0.545457654006028 -0.8786073155798577
4175000000.0 0.5518705471960647 -0.8465668049288274
4178000000.0 0.551874200656991 -0.8943454966171991
4181000000.0 0.5519479569741876 -0.8828638261090662
4184000000.0 0.5429883093813977 -0.8783313365200466
4187999999.9999995 0.5248517589664744 -0.8503824586781904
4191000000.0 0.5524466049639983 -0.8406741148763266
4194000000.0 0.512922324842262 -0.8504859784035181
4197000000.0 0.5334943865384515 -0.8746827108922463
4200000000.0 0.5459155507071902 -0.8607148109607348
4203000000.0000005 0.5412206880782514 -0.8666022870418275
4206000000.0000005 0.5353341303053213 -0.8749514512614551
4208999999.9999995 0.5369912581170517 -0.8499314066247305
4211999999.9999995 0.521573348121806 -0.8866358539727651
4216000000.0 0.5495049216281692 -0.8462833701575547
4219000000.0000005 0.5424513915201311 -0.8751441833070668
4222000000.0000005 0.5292049000036202 -0.8757908203176106
4224999999.9999995 0.5269703033748084 -0.8608946289436218
4227999999.9999995 0.5346984906257508 -0.86525825079044
4231000000.0 0.5309737253118954 -0.8791737257932392
4234000000.0 0.5330034015689902 -0.8862907748846744
4238000000.0000005 0.5319039658862899 -0.873539532497152
4240999999.9999995 0.5251746104577685 -0.85482239131708
4244000000.0 0.5311417744132039 -0.8520460569424088
4247000000.0 0.5527076328386585 -0.8504432259264354
4250000000.0 0.5149838949898563 -0.8726012774597006
4253000000.0 0.5267908360135656 -0.8417710168286587
4256000000.0 0.5301386239776718 -0.8890106164772927
4259000000.0000005 0.5078456792860895 -0.8369003207759825
4261999999.9999995 0.5094038834751208 -0.8586932863895174
4266000000.0 0.512216598942316 -0.8875355011651783
4269000000.0 0.5347506207720221 -0.8441107663576857
4272000000.0000005 0.5350324111487506 -0.8484153689632525
4275000000.0000005 0.5313918438776954 -0.8780732638518634
4277999999.9999995 0.5588542676771368 -0.874938112845532
4280999999.9999995 0.5422665615013099 -0.8534637314649942
4284000000.0 0.5004914408587872 -0.892111373445271
4288000000.0000005 0.5435808696255653 -0.8636325267418207
4291000000.0000005 0.5317834488826796 -0.8475626209230539
4293999999.9999995 0.5330716950649357 -0.8452710437928118
4297000000.0 0.5557742861026675 -0.8423907656668176
4300000000.0 0.5260152415658896 -0.8541283661004376
4303000000.0 0.5025385730255041 -0.879670244741813
4306000000.0 0.5513368728746239 -0.8566852430127418
4309000000.0 0.531363374506057 -0.8457768798073568
4312000000.0 0.581991636730333 -0.849933457767777
4316000000.0 0.555973027879065 -0.8752787314540357
4319000000.0 0.503923863495425 -0.8371386156580922
4322000000.0 0.4893692868850738 -0.8703866549284064
4325000000.0 0.5275174810325162 -0.858672487462779
4328000000.0 0.5165012549948763 -0.840514093828037
4331000000.0 0.5089633762707373 -0.8665446405277506
4334000000.0 0.5211715507268467 -0.8553626677316258
4338000000.0 0.5721393955114215 -0.838888862819089
4341000000.0 0.5684410829198769 -0.8651496827457229
4344000000.0 0.5351877248337185 -0.86611123319156
4347000000.0 0.5029645673442349 -0.8783582972100612
4350000000.0 0.4978188269386985 -0.8285329832562792
4353000000.0 0.5194223888515835 -0.8366852490305521
4356000000.0 0.49866071853477534 -0.8545461804812083
4359000000.0 0.4867887055875885 -0.8215496141973786
4362000000.0 0.49263540510464426 -0.8960662990502033
4366000000.0 0.5183650127342769 -0.8772554206862115
4369000000.0 0.5112455762932323 -0.8403084260736032
4372000000.0 0.47933259387078814 -0.8582923338092581
4375000000.0 0.5458745137810234 -0.8529762389449668
4378000000.0 0.5217544422377574 -0.8489097997361128
4381000000.0 0.5160968452907884 -0.8525834417730755
4384000000.0 0.5321217149009372 -0.9352901530501467
4388000000.0 0.5231148784783082 -0.8451044081181056
4391000000.0 0.5231491494026019 -0.8549623349454407
4394000000.0 0.495013786568896 -0.8429409131218972
4397000000.0 0.49743683125914895 -0.8642078608742007
4400000000.0 0.5168833424061151 -0.9011347007348882
4403000000.0 0.5346992938383386 -0.8963574490769096
4406000000.0 0.4993627601624727 -0.8866817368425745
4409000000.0 0.526109695134692 -0.8940370081191511
4412000000.0 0.45863705892281814 -0.8860580955069828
4416000000.0 0.49565153235004555 -0.860043244709242
4419000000.0 0.49288993070962883 -0.8809700890622134
4422000000.0 0.5212722857581962 -0.841406542476989
4425000000.0 0.541008119091301 -0.8821935321124227
4428000000.0 0.49663485400477314 -0.8703765081271511
4431000000.0 0.523193338737703 -0.8811231600168707
4434000000.0 0.482259340927176 -0.8713668286530784
4438000000.0 0.5288434720158696 -0.8879483518983179
4441000000.0 0.528175835545567 -0.8842067579272738
4444000000.0 0.5105412802520246 -0.8515794088641633
4447000000.0 0.5050900138594534 -0.8826684523913926
4450000000.0 0.49651506536828005 -0.8594752728453338
4453000000.0 0.539344646557264 -0.8824964038578594
4456000000.0 0.4842236206600027 -0.847947831390941
4459000000.0 0.4649087266688747 -0.8327204402242515
4462000000.0 0.5379524065358068 -0.9113717693269746
4466000000.0 0.5273433963562901 -0.9113479366816035
4469000000.0 0.5199333419966055 -0.8606259229357361
4472000000.0 0.4969283945019703 -0.9084682894016256
4475000000.0 0.49373317187087334 -0.8442250992919331
4478000000.0 0.5247060797744277 -0.9209568298460122
4481000000.0 0.46455686257826323 -0.8465213807165197
4484000000.0 0.4539816673762397 -0.8827205642833809
4488000000.0 0.49707046901116203 -0.8685386030611133
4491000000.0 0.4929134554819636 -0.8798011813489826
4494000000.0 0.513927058286895 -0.8668442028494592
4497000000.0 0.5075867659298001 -0.8406823480142845
4500000000.0 0.5116111147872058 -0.8703238264559785
4503000000.0 0.5200121575399563 -0.8993082657613369
4506000000.0 0.4871917911557483 -0.8780387921965502
4509000000.0 0.49381959121832447 -0.8501491015846546
4512000000.0 0.4812534610809909 -0.8616661677655916
4516000000.0 0.4846618296189901 -0.8824071205263249
4519000000.0 0.5142924802177925 -0.8582328701170809
4522000000.0 0.4795384039662639 -0.865702743196608
4525000000.0 0.5222349941768077 -0.846835972505032
4528000000.0 0.5127086029606712 -0.9061886533900718
4531000000.0 0.5173459691919893 -0.8597419089739937
4534000000.0 0.47581182047693027 -0.8715811432692478
4538000000.0 0.4986042436628803 -0.8753110388231811
4541000000.0 0.45075080923449207 -0.8874787474941115
4544000000.0 0.48211764049111105 -0.8657221211679782
4547000000.0 0.4802043623005474 -0.8501907943402032
4550000000.0 0.48724178137185675 -0.8859539481044598
4553000000.0 0.48848731430403525 -0.8811674677392366
4556000000.0 0.4555871973020808 -0.8638890223661112
4559000000.0 0.467586939751745 -0.8869261431559562
4562000000.0 0.500820179159722 -0.8764387431400413
4566000000.0 0.4830275443411774 -0.8750387063434704
4569000000.0 0.4836682772003642 -0.8702363048447836
4572000000.0 0.48436474040315836 -0.8751857430632927
4575000000.0 0.4588538860563882 -0.9014411081943952
4578000000.0 0.5043545096020036 -0.8974076344715792
4581000000.0 0.4825921231773774 -0.8997548360811969
4584000000.0 0.4788963242197267 -0.8624173144559704
4588000000.0 0.5004863304151923 -0.8973717750923476
4591000000.0 0.5080539953076819 -0.8901364793047509
4594000000.0 0.473176442688627 -0.8980038378857557
4597000000.0 0.4735101662921759 -0.8928975655193346
4600000000.0 0.4490445525603173 -0.8860873898150369
4603000000.0 0.4708687892983757 -0.8746023012118762
4606000000.0 0.4804653303540051 -0.8999052873062338
4609000000.0 0.49276567724703496 -0.8873471730658209
4612000000.0 0.4944098001022379 -0.8736016312924247
4616000000.0 0.47104704639319345 -0.8714702568513644
4619000000.0 0.4955703240532825 -0.8842234669872091
4622000000.0 0.46792902440395645 -0.8819539459178503
4625000000.0 0.4577518958760589 -0.8544255639719986
4628000000.0 0.4702826390066548 -0.8836421392855178
4631000000.0 0.4769257359946035 -0.8783792458940717
4634000000.0 0.476764173751719 -0.8896498408609766
4638000000.0 0.4816217054519145 -0.8985906508632611
4641000000.0 0.48610957255374243 -0.8638890433598049
4644000000.0 0.48326279307443976 -0.9140609006094699
4647000000.0 0.47255350627314935 -0.8964438773868676
4650000000.0 0.4554531793685844 -0.8730212202135812
4653000000.0 0.47931718644536203 -0.8792773584531892
4656000000.0 0.46758648707715134 -0.8924612532184732
4659000000.0 0.47035681517818195 -0.8845250459981491
4662000000.0 0.47627002169636995 -0.9089653092361716
4666000000.0 0.46591948273519734 -0.8886028889484379
4669000000.0 0.4891863066049251 -0.8629102944066696
4672000000.0 0.45990694253427733 -0.9147856684323636
4675000000.0 0.4796227232682957 -0.9011768729306483
4678000000.0 0.470344728325175 -0.8895989762551408
4681000000.0 0.4533539627373271 -0.9198521378491151
4684000000.0 0.44230044019396036 -0.917477755607491
4688000000.0 0.45143520741743376 -0.8978863576906774
4691000000.0 0.49559638274763895 -0.9010162252953768
4694000000.0 0.4763557008020153 -0.8649945847979029
4697000000.0 0.459196016581325 -0.8671866066677237
4700000000.0 0.47995528952233935 -0.8932965014567589
4703000000.0 0.4712357559004282 -0.8555859652831406
4706000000.0 0.4496308193889705 -0.9288438080506426
4709000000.0 0.4532688100551466 -0.896676134131865
4712000000.0 0.4764457786095844 -0.8847974238668286
4716000000.0 0.4814114135150107 -0.8976799483704253
4719000000.0 0.47299150733817974 -0.9014028990209271
4722000000.0 0.47146078548571113 -0.8919075520757136
4725000000.0 0.49926180232012807 -0.8964441092682945
4728000000.0 0.46896339184095587 -0.9109428580878878
4731000000.0 0.49747958771122486 -0.8946871492490351
4734000000.0 0.4467065701113848 -0.8808279131847866
4738000000.0 0.4787099409481015 -0.9020318676423406
4741000000.0 0.4857501162108345 -0.941920903009506
4744000000.0 0.46793393345265444 -0.8940879752725552
4747000000.0 0.4654900531256525 -0.8597797516511652
4750000000.0 0.5031969179180833 -0.9256548328986004
4753000000.0 0.4724780014624618 -0.9011935504021935
4756000000.0 0.47911693761996665 -0.9183003546868687
4759000000.0 0.4967223467355708 -0.883937177329652
4762000000.0 0.45435163653409805 -0.8850406838727503
4766000000.0 0.45840993285321174 -0.9086319885364846
4769000000.0 0.4975665144422429 -0.8787613831798412
4772000000.0 0.48958198986918045 -0.9115513701535997
4775000000.0 0.4398529888712256 -0.9513018771479533
4778000000.0 0.47159132938521076 -0.9054728458875579
4781000000.0 0.45218153292844554 -0.8913621839046809
4784000000.0 0.4840710917798664 -0.8879693031368191
4788000000.0 0.4731603262073648 -0.9166780302693514
4791000000.0 0.48470172239774734 -0.9009544800280619
4794000000.0 0.5075826930340624 -0.9253393820107643
4797000000.0 0.4794814256023426 -0.8832814888213335
4800000000.0 0.45406864289954174 -0.897951375820407
4803000000.0 0.41516178576797136 -0.9223669516080337
4806000000.0 0.45070571507289053 -0.9010040277880708
4809000000.0 0.417008785611379 -0.9141581061679422
4812000000.0 0.42736654732813906 -0.939464047889599
4816000000.0 0.48002962000396626 -0.8855442471357036
4819000000.0 0.495261078169893 -0.9143363131869977
4822000000.0 0.49696652194723867 -0.9446119640690056
4825000000.0 0.4938798086423716 -0.9172436607351411
4828000000.0 0.4637800852456805 -0.909834823961804
4831000000.0 0.43384640371503036 -0.9207764107254439
4834000000.0 0.480980070535114 -0.9084364627172158
4838000000.0 0.4573258285269531 -0.935120546864141
4841000000.0 0.4692184517575839 -0.9049070398623121
4844000000.0 0.4852053677221445 -0.9009848418007675
4847000000.0 0.4761942632617471 -0.8618329929248758
4850000000.0 0.4577484622676168 -0.9398701543558708
4853000000.0 0.4624191975907239 -0.8997670205814734
4856000000.0 0.4548977659866076 -0.9013700045157127
4859000000.0 0.4719940690964687 -0.9591885641321223
4862000000.0 0.4949070243580266 -0.8609244397887257
4866000000.0 0.47067786722561095 -0.9186352764041282
4869000000.0 0.4674187602863203 -0.9222532099064592
4872000000.0 0.44131756631318014 -0.93454869044952
4875000000.0 0.5342900852440378 -0.933826420023141
4878000000.0 0.46501915227977997 -0.9210765765846758
4881000000.0 0.46738048368167406 -1.005961802023325
4884000000.0 0.4893669598518635 -0.9272755390956314
4888000000.0 0.49931807682381835 -0.9000785236395693
4891000000.0 0.48730617117272756 -0.9115428660166377
4894000000.0 0.4249079978174756 -0.9251160053097616
4897000000.0 0.5047040446012171 -0.9064519057798556
4900000000.0 0.4921779816511178 -0.9247123395997676
4903000000.0 0.4963383300918289 -0.9205018810257642
4906000000.0 0.44736632875871174 -0.9570602527315535
4909000000.0 0.472752235986291 -0.9236203361410233
4912000000.0 0.4816157055461637 -0.9365331048834536
4916000000.0 0.5200391407529634 -0.8868196622066862
4919000000.0 0.5405901517572732 -0.9009698942104067
4922000000.0 0.518644145510425 -0.9188645310790622
4925000000.0 0.46052532437903715 -0.9066022936400302
4928000000.0 0.49947369007138315 -0.8913670589761056
4931000000.0 0.5234292641616997 -0.9211237123162735
4934000000.0 0.45427306528661765 -0.8914678517655826
4938000000.0 0.4388114426567808 -0.9008206872214443
4941000000.0 0.4763973064505423 -0.8725763645874378
4944000000.0 0.48212058677674696 -0.8757376153889618
4947000000.0 0.4730922998850512 -0.8889017997445969
4950000000.0 0.4733393796340247 -0.900804269579697
4953000000.0 0.4764292903664398 -0.9648065469652607
4956000000.0 0.45927475243004395 -0.8999173349372674
4959000000.0 0.41446416087942706 -0.9145116199791395
4962000000.0 0.5108050072265548 -0.9204995928054537
4966000000.0 0.5159986086249686 -0.9183390491816723
4969000000.0 0.5258062989676748 -0.942530712979251
4972000000.0 0.46147654766055923 -0.9259548859227802
4975000000.0 0.4891760039963513 -0.8890914543909667
4978000000.0 0.46558360884457417 -0.9315457056770555
4981000000.0 0.4572054975305461 -0.9082240877342971
4984000000.0 0.5094879391669556 -0.8869818056691852
4988000000.0 0.5129932817807363 -0.8808507339567332
4991000000.0 0.5251380263232123 -0.897075381784763
4994000000.0 0.4768549605596924 -0.902111069744957
4997000000.0 0.4541162462168616 -0.9498261435679416
5000000000.0 0.48787749971779437 -0.908576944188835
5003000000.0 0.4818870772476804 -0.9328199227152916
5006000000.0 0.5128365417234144 -0.9772306365342954
5009000000.0 0.5022224409525097 -0.90768987195707
5012000000.0 0.4803156965128448 -0.9142810598289576
5016000000.0 0.5343739830941294 -0.9232664528958131
5019000000.0 0.4933446290273764 -0.8871965729167546
5022000000.0 0.4874247517215434 -0.9085607962757528
5025000000.0 0.4927049156309134 -0.9579510981247356
5028000000.0 0.4659616222417859 -0.930879785901682
5031000000.0 0.5017534385646939 -0.9306252022474771
5034000000.0 0.4591980798566296 -0.964826763915549
5038000000.0 0.4306455048757733 -0.894923483953538
5041000000.0 0.5348396881803111 -0.9073266018246139
5044000000.0 0.5107933354409708 -0.8771524431811346
5047000000.0 0.5089773594762934 -0.9340846275617483
5050000000.0 0.5551123331657936 -0.8637125913437936
5053000000.0 0.5230140293408772 -0.968393982575541
5056000000.0 0.5386139152000788 -0.9056938256380909
5059000000.0 0.5167651641158137 -0.892218552698574
5062000000.0 0.4822133387961588 -0.9147280895267738
5066000000.0 0.5047544375531309 -0.8932472490575506
5069000000.0 0.5014735998610165 -0.9470661655613468
5072000000.0 0.4840294182221717 -0.8614405908275602
5075000000.0 0.5067009770742863 -0.8957559354725247
5078000000.0 0.4564702742618363 -0.9304791221497133
5081000000.0 0.43538503736892986 -0.8697090926064168
5084000000.0 0.5154420507624611 -0.9350876278767077
5088000000.0 0.5190813174849309 -0.903978918269003
5091000000.0 0.4518485380796758 -0.9088825923817316
5094000000.0 0.5358061649269046 -0.9304958811693804
5097000000.0 0.5359464437567899 -0.8905851927052693
5100000000.0 0.4819117087682361 -0.9266233954750771
5103000000.0 0.46044689229826086 -0.9111025177119874
5106000000.0 0.5212988669712322 -0.9520455594989865
5109000000.0 0.5222299278530332 -0.8694118769372363
5112000000.0 0.4831733949588014 -0.9609186315707332
5116000000.0 0.46729620472613487 -0.8858807424572523
5119000000.0 0.4811391033984602 -0.9245337764728303
5122000000.0 0.47778157624286544 -0.8941259165778022
5125000000.0 0.5729497623770621 -0.8927542305586217
5128000000.0 0.46371305554969605 -0.8914934248242423
5131000000.0 0.5083332581860388 -0.8755717721984927
5134000000.0 0.5175853936097214 -0.9450886693137879
5138000000.0 0.5177643370807816 -0.8607254904397396
5141000000.0 0.5738570663084686 -0.8829979221908388
5144000000.0 0.5336179858798347 -0.9183189744977978
5147000000.0 0.48288206882806417 -0.8815786684892799
5150000000.0 0.5239806771028537 -0.9104995762542998
5153000000.0 0.5007728286508178 -0.9149087324100034
5156000000.0 0.5085161581023845 -0.8874441977501286
5159000000.0 0.531129354742067 -0.902570699858755
5162000000.0 0.5281350347514698 -0.9258083060158007
5166000000.0 0.5443403466967409 -0.9222655377988807
5169000000.0 0.5110900806373702 -0.921944632379812
5172000000.0 0.5162619194275214 -0.9064949814038411
5175000000.0 0.5343083770171256 -0.9290100384042116
