! Created with skrf 1.8.0 (http://scikit-rf.org).
# Hz S RI R 50.0 
!freq ReS11 ImS11
4000000000.0 0.47932636377490734 -0.8700026844405736
4003000000.0 0.48646674029485126 -0.9511013122381325
4006000000.0 0.4116928770929992 -0.9495190077717781
4009000000.0000005 0.438631178937408 -0.9445299499855768
4011999999.9999995 0.5039386602677988 -0.9022912477581264
4016000000.0 0.46747279146428955 -0.9850455192888133
4019000000.0 0.44969341927316364 -0.9319303830022276
4022000000.0000005 0.5223493481767489 -0.9363256802847951
4025000000.0000005 0.41002776900401616 -0.9457592921579437
4027999999.9999995 0.4068841108263248 -0.9848439611319033
4030999999.9999995 0.4048587258562576 -0.9032969653488225
4034000000.0 0.40721606040313313 -0.8674452279411571
4038000000.0000005 0.435237537438366 -0.9061917812603149
4041000000.0000005 0.44066235604864856 -0.9426883946623505
4043999999.9999995 0.4688651835487508 -0.9960161790874483
4046999999.9999995 0.4697233450710633 -0.9478326712934668
4050000000.0 0.44958761215926035 -0.9433948064307078
4053000000.0 0.3761381090005247 -0.9243913181641118
4056000000.0 0.3991126695592121 -0.9507554577157727
4059000000.0 0.45090647990501753 -0.9274125528658422
4062000000.0000005 0.4571519879609398 -0.9494382871138218
4066000000.0 0.395942415029641 -0.8844735374316605
4069000000.0 0.4018525863172034 -0.9940308195600293
4072000000.0 0.469887728113149 -0.8971804868559508
4075000000.0 0.4950428105558128 -0.9685320120901484
4078000000.0000005 0.4106767901290813 -0.9291531357367824
4081000000.0000005 0.47573330961827565 -0.9045033747785455
4083999999.9999995 0.3968114147472289 -0.966527489698271
4088000000.0 0.44285093347845494 -0.9135230703620916
4091000000.0 0.4464573625326064 -0.9785434041071039
4094000000.0000005 0.4140340383342563 -0.9389508486912624
4097000000.0000005 0.40878542145976665 -0.9270745104357805
4099999999.9999995 0.3970327908260005 -0.9423177804958781
4102999999.9999995 0.4708736830078194 -0.9443453112428343
4106000000.0 0.3882736589642533 -0.934626166587423
4109000000.0 0.4025616542891525 -0.9485780663123747
4112000000.0 0.4270247487756916 -0.9296685779821163
4115999999.9999995 0.4271009207605496 -0.9287426023514449
4119000000.0 0.38749742631530415 -0.91295115192036
4122000000.0 0.3847376425174964 -0.9507122290555183
4125000000.0 0.4352669551955897 -0.9729214985218427
4128000000.0 0.43005768336211053 -0.9085665323046372
4131000000.0 0.41854664270877895 -0.9199217317967114
4134000000.0000005 0.4140691484155199 -0.9275284710027805
4138000000.0 0.3897242566603745 -0.9221006125155898
4141000000.0 0.42631366701914847 -0.9132871770016197
4144000000.0 0.4494925806949053 -0.9230026458807437
4147000000.0000005 0.3908412423380552 -0.9451801849962501
4150000000.0000005 0.42572351414149145 -0.9432110257397719
4152999999.9999995 0.43294010723040005 -0.9374266229826803
4155999999.9999995 0.4482931882092801 -0.9579839290662409
4159000000.0 0.401294432546968 -0.9200225166886901
4162000000.0 0.42924207851234886 -0.9294619179152916
4166000000.0000005 0.4239981428289716 -0.9423664959475123
4168999999.9999995 0.39704843946783674 -0.9278815466137105
4171999999.9999995 0.42871684341410043 -0.9257067630887161
4175000000.0 0.4314059164571489 -0.9457466247286038
4178000000.0 0.42062049934813395 -0.9032780799503269
4181000000.0 0.393728175626672 -0.9431216614159746
4184000000.0 0.42464272147229887 -0.9284458626163032
4187999999.9999995 0.39927114158065957 -0.9164827138928913
4191000000.0 0.42084784962313027 -0.8867163644696112
4194000000.0 0.38779376595750004 -0.9173756735119353
4197000000.0 0.4176536905499364 -0.9218179778736101
4200000000.0 0.43497809751992866 -0.9325216226273535
4203000000.0000005 0.43833749947241024 -0.9495040023533
4206000000.0000005 0.44611579039236887 -0.9294718087667206
4208999999.9999995 0.4077519387570939 -0.9282145089768864
4211999999.9999995 0.3783628120824828 -0.957272906542232
4216000000.0 0.42909961418526954 -0.9461448824972699
4219000000.0000005 0.41439689189720474 -0.9356757538568009
4222000000.0000005 0.4046307341992099 -0.9330338275420814
4224999999.9999995 0.4100130727887933 -0.9042076076184393
4227999999.9999995 0.41868657591939223 -0.9372521176959786
4231000000.0 0.39742366333374396 -0.9438698558932268
4234000000.0 0.4005127658243 -0.9478747791078671
4238000000.0000005 0.39028284885037134 -0.9576640004376694
4240999999.9999995 0.3761014641675703 -0.9294234430233342
4244000000.0 0.40208197687421265 -0.9217736380716
4247000000.0 0.3996283811692177 -0.9206046898308877
4250000000.0 0.3758394840475127 -0.9262935471999709
4253000000.0 0.38574687868401497 -0.9087847395825264
4256000000.0 0.40403926280220165 -0.9693224429698964
4259000000.0000005 0.36713307697501213 -0.8954018843890181
4261999999.9999995 0.36991317557441455 -0.955837774619032
4266000000.0 0.39672485008700087 -0.9537376481603517
4269000000.0 0.4118589382298262 -0.9309008830278446
4272000000.0000005 0.39131179875823646 -0.911762602381665
4275000000.0000005 0.3948050755509074 -0.948095770701618
4277999999.9999995 0.4102515127512709 -0.9711297144489907
4280999999.9999995 0.3978257592521396 -0.9223665669296148
4284000000.0 0.33852827098626037 -0.9599912644603219
4288000000.0000005 0.4334677400258199 -0.9326741830811374
4291000000.0000005 0.3702013914106013 -0.9185392189886238
4293999999.9999995 0.36630939126494105 -0.9250995328818697
4297000000.0 0.4119885774564423 -0.8934310147870386
4300000000.0 0.4018264733207887 -0.9395488571328606
4303000000.0 0.38437670690338854 -0.9355939273467712
4306000000.0 0.43977059318317013 -0.9315594030202698
4309000000.0 0.3995587011976869 -0.924792961449631
4312000000.0 0.41225103032629257 -0.9472607659300105
4316000000.0 0.3944371712124272 -0.9134673542364047
4319000000.0 0.3969696754091084 -0.8993902539176493
4322000000.0 0.3480525855941873 -0.932611932951799
4325000000.0 0.38555746753193926 -0.949565770541225
4328000000.0 0.37113603815475193 -0.9132575564726773
4331000000.0 0.36997304153767274 -0.9512199630080154
4334000000.0 0.38528845830496006 -0.9344168159722481
4338000000.0 0.4026075664812889 -0.9174043244891625
4341000000.0 0.4212646201584307 -0.9530507971591817
4344000000.0 0.39277988659246865 -0.9572047083417269
4347000000.0 0.33950699871391493 -0.9356394723476289
4350000000.0 0.3508967740817204 -0.9280054174403807
4353000000.0 0.3773262534122481 -0.9241591890702647
4356000000.0 0.3332342800672674 -0.9363876768058365
4359000000.0 0.34060703763134026 -0.8842833104014414
4362000000.0 0.32909210521648513 -0.951644412973486
4366000000.0 0.37717669228351663 -0.9748290801413242
4369000000.0 0.35863074245222826 -0.9307236434608357
4372000000.0 0.32162304080690385 -0.9400455086599072
4375000000.0 0.37323624592974225 -0.9349685583270896
4378000000.0 0.3552749961083199 -0.9280097553748878
4381000000.0 0.36046088726252823 -0.9321374853960381
4384000000.0 0.3585065314497068 -0.9970364847094091
4388000000.0 0.3657046424867973 -0.9358805047995976
4391000000.0 0.3631457052354527 -0.9421603481255967
4394000000.0 0.3579464934937373 -0.9281098990907172
4397000000.0 0.34644212114671197 -0.9362369340021264
4400000000.0 0.345536361117745 -0.954851395203785
4403000000.0 0.3595218439340494 -0.9562557346980434
4406000000.0 0.3349405572862939 -0.9642139538766109
4409000000.0 0.36307989766764465 -0.967337339100244
4412000000.0 0.29821642658103686 -0.9610382529047126
4416000000.0 0.33988953772367875 -0.9370843224666328
4419000000.0 0.32549236344266397 -0.9549927325953397
4422000000.0 0.37592786791815036 -0.9418022267694139
4425000000.0 0.37646337067418134 -0.9533062068335519
4428000000.0 0.33580961864479636 -0.9578662541492776
4431000000.0 0.3510880312028925 -0.9624953906948721
4434000000.0 0.3205045834561982 -0.9479668314714231
4438000000.0 0.3448364289406874 -0.9659105532492523
4441000000.0 0.3443803946785124 -0.9791694189670851
4444000000.0 0.3361373785153307 -0.9309643159077021
4447000000.0 0.3120854017571797 -0.9491577520691563
4450000000.0 0.34017153707240566 -0.9392749054752948
4453000000.0 0.34714271243841166 -0.9611606268382675
4456000000.0 0.3301385026242092 -0.9285555322300818
4459000000.0 0.3038441545634102 -0.9325968119414334
4462000000.0 0.34804258664912563 -0.9876258728094994
4466000000.0 0.3393607510392441 -0.9965977624813966
4469000000.0 0.3586531250750822 -0.9504741274414953
4472000000.0 0.33157257220958103 -0.9618548607824903
4475000000.0 0.3128584420370826 -0.945895736025008
4478000000.0 0.32203374862539647 -0.9944568824159148
4481000000.0 0.3051404896481858 -0.920138236874601
4484000000.0 0.28523208738264944 -0.9705928904559715
4488000000.0 0.31774747045390606 -0.9714929756416708
4491000000.0 0.32030117004538433 -0.9606538440177893
4494000000.0 0.325247723329995 -0.9323535109340144
4497000000.0 0.3210240725995325 -0.9301167402362331
4500000000.0 0.30782409990925597 -0.9478115431937764
4503000000.0 0.31531958142514666 -0.9803100274867627
4506000000.0 0.3044497057743572 -0.9591020249461508
4509000000.0 0.2853331037855767 -0.9441055906429885
4512000000.0 0.30883770589552023 -0.9436020341305109
4516000000.0 0.3054769632449799 -0.9920442439147132
4519000000.0 0.31422479867355885 -0.9401439453959431
4522000000.0 0.28606086776647516 -0.9743313590234775
4525000000.0 0.34448293300612864 -0.9394883915305419
4528000000.0 0.32592918459373715 -0.9805051138156282
4531000000.0 0.3089055533884395 -0.9708494736448353
4534000000.0 0.30892857322429185 -0.9538429378641938
4538000000.0 0.31012540786331827 -0.9590395252040391
4541000000.0 0.2605341188231362 -0.9810177184733939
4544000000.0 0.29600058961603715 -0.9591428011220264
4547000000.0 0.30663044600510636 -0.965612922695042
4550000000.0 0.2737068088983223 -0.9820538131143837
4553000000.0 0.2940899743822215 -0.9798426270959681
4556000000.0 0.27104234781565395 -0.9409495520726432
4559000000.0 0.29044539598129604 -0.977425885113216
4562000000.0 0.2926091315234066 -0.9547613072205677
4566000000.0 0.2934490721662745 -0.9888383765070704
4569000000.0 0.2830013860549386 -0.9518812093108042
4572000000.0 0.2708027140364914 -0.970943531386932
4575000000.0 0.27592950830744867 -0.9821995400978136
4578000000.0 0.3036041501951272 -1.0045983723520036
4581000000.0 0.2623425225603802 -0.9744612018619322
4584000000.0 0.2716500694628099 -0.9740867299105538
4588000000.0 0.2808716187600722 -0.9847684766454134
4591000000.0 0.29223112952788355 -0.9681486136256721
4594000000.0 0.2643962830979068 -0.9683654225311764
4597000000.0 0.28308802758380813 -0.9886655803247509
4600000000.0 0.24830005356052354 -0.975342966987607
4603000000.0 0.2598974902101894 -0.987394426119345
4606000000.0 0.2645053546846942 -0.984377747512499
4609000000.0 0.28670860078892924 -0.9605677882274424
4612000000.0 0.27054077017932293 -0.9551255411548023
4616000000.0 0.25644798899697596 -0.9573589227175852
4619000000.0 0.24503372447834512 -0.9602838294950214
4622000000.0 0.24789394284890137 -0.9906024210584333
4625000000.0 0.2419989984390215 -0.9803328431333261
4628000000.0 0.26559152750268555 -0.992417158394492
4631000000.0 0.24481546915028624 -0.9604695564632691
4634000000.0 0.24553384230378983 -0.9911812335674725
4638000000.0 0.2692829804671532 -1.006722930939749
4641000000.0 0.25938536078137364 -0.9879981275922489
4644000000.0 0.25864437258810946 -0.9781987698741134
4647000000.0 0.2770286458891879 -0.9711552544736626
4650000000.0 0.231728562269385 -0.9764226939823664
4653000000.0 0.25048772104551076 -0.9906437325420756
4656000000.0 0.2519078122753754 -0.987978246214402
4659000000.0 0.23576366676631774 -0.9826794095003766
4662000000.0 0.2262487981078864 -0.9964516109538106
4666000000.0 0.2181630207414719 -1.0007048211861453
4669000000.0 0.253626902419628 -1.0024810271389237
4672000000.0 0.23190157800843927 -1.0274363487451572
4675000000.0 0.2345567124092831 -1.0064298447794238
4678000000.0 0.22379652182860846 -0.9774917250560671
4681000000.0 0.2176885617014371 -1.0000135280445197
4684000000.0 0.2002571731458822 -1.0077650206382922
4688000000.0 0.18020233185893103 -0.9821818507621469
4691000000.0 0.23398393988100763 -1.0159211414615734
4694000000.0 0.23997545362648787 -0.958292940721762
4697000000.0 0.18290723303923656 -0.9612242106235025
4700000000.0 0.22823470230177656 -0.9969754295076751
4703000000.0 0.2448176540540926 -0.9367008441372053
4706000000.0 0.20638539244346948 -0.9980572094159645
4709000000.0 0.20488537563576636 -1.0058738186779907
4712000000.0 0.25134492150561544 -0.9953177978831658
4716000000.0 0.19873134486565985 -0.9912208858523598
4719000000.0 0.26755817526106795 -0.9864531537323395
4722000000.0 0.23966735011952017 -0.9747813953220307
4725000000.0 0.23563415021047981 -0.9822668772711762
4728000000.0 0.2351508503580668 -1.0080240423559697
4731000000.0 0.22905878205296062 -1.0488896895262314
4734000000.0 0.26487747477578094 -0.949115231315854
4738000000.0 0.23127337501023273 -1.0479036762001153
4741000000.0 0.20666668408006394 -1.0118442057759083
4744000000.0 0.18100317235608612 -1.0160833488870034
4747000000.0 0.1983495544963697 -0.9515805131007962
4750000000.0 0.2296727015357421 -1.0361148822241864
4753000000.0 0.22869553351809557 -1.0131342570816007
4756000000.0 0.21129349272943362 -1.0181580565179744
4759000000.0 0.21700154170955122 -1.0126313218833394
4762000000.0 0.17086462973688354 -1.0208700666283126
4766000000.0 0.20323094947879922 -1.0025707349697275
4769000000.0 0.19148376096995454 -1.0098262109005598
4772000000.0 0.21549004407076067 -0.9965375466824653
4775000000.0 0.18057398474227723 -1.0448858659050835
4778000000.0 0.1794504378198178 -1.018071408519119
4781000000.0 0.20353970114614878 -0.9895104917282747
4784000000.0 0.20371324298845167 -0.9898404800635153
4788000000.0 0.17879299411648153 -1.0177939773031441
4791000000.0 0.20842644742631242 -0.9799103726514647
4794000000.0 0.24278987693955165 -1.060382568588479
4797000000.0 0.17049302414550582 -0.9837378054488718
4800000000.0 0.1883656746397688 -0.9839758575795388
4803000000.0 0.12464438474501356 -1.0082966286007278
4806000000.0 0.17767332854690385 -1.0164137949074052
4809000000.0 0.14655609859827246 -1.011047686814608
4812000000.0 0.13601546775892348 -1.0048586655374603
4816000000.0 0.21961760860937185 -0.9798024375859522
4819000000.0 0.231284987264692 -1.0370557881123323
4822000000.0 0.2288456294963525 -1.042660766270862
4825000000.0 0.18785446929137006 -1.034985766962074
4828000000.0 0.1661182742958098 -1.0237853512233341
4831000000.0 0.14358027422400457 -1.039984684420831
4834000000.0 0.19577093216160524 -1.015826610177507
4838000000.0 0.13849829197775634 -1.042454315034469
4841000000.0 0.17345526462187263 -0.9944692840423323
4844000000.0 0.20998215138499968 -1.0147084835744078
4847000000.0 0.18810369510600966 -0.9916014581224992
4850000000.0 0.15484398600168306 -1.0380840097341892
4853000000.0 0.1799228142273779 -0.9781056580025675
4856000000.0 0.1529560322801517 -0.9784926653884282
4859000000.0 0.18282058775774043 -1.0639307275990086
4862000000.0 0.16950120439604904 -0.9851440134322547
4866000000.0 0.12521970269175575 -1.05123784225561
4869000000.0 0.1309125671814571 -1.0167874634085017
4872000000.0 0.14677553550973682 -1.0539587117702545
4875000000.0 0.200638947762084 -1.0788927040707363
4878000000.0 0.1811552392845232 -1.0206992671814363
4881000000.0 0.11631189926838043 -1.0882651767448686
4884000000.0 0.19297740822223175 -1.010401319766376
4888000000.0 0.16815946487406835 -1.0091535229180575
4891000000.0 0.18459594105037125 -1.0084196348885759
4894000000.0 0.12574111502859597 -1.0234847843231334
4897000000.0 0.20800600641432926 -1.0235521686648126
4900000000.0 0.16951861335012847 -1.0228725263054705
4903000000.0 0.16051855254471503 -1.0334465310092114
4906000000.0 0.18281149032113653 -1.0602805094272345
4909000000.0 0.1560195629034528 -1.0118092820044127
4912000000.0 0.13304983444625057 -1.053320111716003
4916000000.0 0.17710380598448106 -1.027860420565695
4919000000.0 0.1912743656893 -1.0669863352455566
4922000000.0 0.16552221012910562 -0.9681936127506797
4925000000.0 0.12650583102243462 -1.013338791002303
4928000000.0 0.20326891670144903 -1.0285668304360456
4931000000.0 0.1570542590524392 -0.9847214342439912
4934000000.0 0.1391185542927479 -1.0032522643588355
4938000000.0 0.10504313817704947 -1.064099896905264
4941000000.0 0.16296028120672512 -1.0103525536427058
4944000000.0 0.14408251837555086 -0.9448263212148742
4947000000.0 0.16150604406091446 -1.0007255299259639
4950000000.0 0.13964842409790834 -1.0280906950361435
4953000000.0 0.11637554868510175 -1.0386136618908852
4956000000.0 0.13078545610885672 -1.0502479502253048
4959000000.0 0.08905163476859523 -1.0148510576097827
4962000000.0 0.12441095467054702 -1.069013601494882
4966000000.0 0.17632237379907845 -1.0645640238779468
4969000000.0 0.15570363310500634 -1.0727580119552784
4972000000.0 0.13465173128971686 -1.039201619106418
4975000000.0 0.12968986294557122 -1.0386192359585422
4978000000.0 0.08119013977946771 -1.0502778828379453
4981000000.0 0.11850622116659842 -1.0501708575808983
4984000000.0 0.1003595061135546 -1.0236938164764577
4988000000.0 0.12696709800776884 -1.0324613561048799
4991000000.0 0.20907658394758072 -1.059507166083734
4994000000.0 0.12038015719802075 -0.995271797537759
4997000000.0 0.0633630707879283 -1.0090577498460354
5000000000.0 0.14030662251550796 -1.0578146861810303
5003000000.0 0.12880606118905874 -1.0663135982501442
5006000000.0 0.09498298013046413 -1.0436842127565147
5009000000.0 0.10639966500743359 -1.0412699933261176
5012000000.0 0.09198812890486874 -1.063002875580696
5016000000.0 0.12625361606047503 -1.0642972624465048
5019000000.0 0.10750036884072095 -1.0360549880143435
5022000000.0 0.08215310658195452 -1.0277481681263092
5025000000.0 0.07951764805828265 -1.0928139910645605
5028000000.0 0.07960192569652175 -1.036804153869273
5031000000.0 0.06948465277281335 -1.0460041676575584
5034000000.0 0.046450891053129495 -1.0724396900867261
5038000000.0 0.0867877728813336 -0.9937246367825179
5041000000.0 0.11059677896384568 -1.0341941408658235
5044000000.0 0.13094157293488823 -1.0128829581585612
5047000000.0 0.08571529987725546 -1.0265595113668344
5050000000.0 0.14561816029932811 -1.0446707385824552
5053000000.0 0.06953770774587714 -1.0780923099153594
5056000000.0 0.1274452315182914 -1.0388053458743591
5059000000.0 0.10927140499984472 -1.0360390399820116
5062000000.0 0.03047059204159519 -1.0461497966903759
5066000000.0 0.12271557489525564 -1.0448006408567332
5069000000.0 0.0749600824540751 -1.048358653627566
5072000000.0 0.11141657830107382 -1.036964001583242
5075000000.0 0.10492379457068057 -1.0436617687278744
5078000000.0 0.06792483608964911 -1.0498432853885777
5081000000.0 0.06912812271744528 -0.9873844721213944
5084000000.0 0.05890678997215393 -1.0557271020665866
5088000000.0 0.0498659394861925 -1.028131056772383
5091000000.0 0.034988287412701824 -1.0411937846666561
5094000000.0 0.003592874655634959 -1.0335746407408366
5097000000.0 0.08064526278603257 -0.9782419403821704
5100000000.0 0.03295663254339548 -1.0387030488913602
5103000000.0 0.032348990927525134 -1.0298232392723694
5106000000.0 -0.0019179015540139455 -1.0594558637338105
5109000000.0 0.12313331975610864 -0.9769172318425652
5112000000.0 -0.008564874183618287 -1.0487968943671917
5116000000.0 0.0618326110821143 -1.022490407582926
5119000000.0 0.01140248271287414 -1.037241097287458
5122000000.0 0.03552921334065734 -1.0283860800641897
5125000000.0 0.0973954885639659 -1.0241873258078507
5128000000.0 0.023651075583703052 -1.0374005325727933
5131000000.0 0.04671296185228008 -1.0566067992459778
5134000000.0 0.04191914348628206 -1.0300930845338365
5138000000.0 0.07566368800733153 -1.0201411617571237
5141000000.0 0.0642642900806677 -1.058824955346291
5144000000.0 0.04817125539592054 -1.0196746730496555
5147000000.0 0.024706257383006358 -1.0530211175028916
5150000000.0 0.053665715889437915 -1.0854458611007736
5153000000.0 -0.0006536381440748196 -1.068146438016517
5156000000.0 0.014705592211125551 -1.0265426992268187
5159000000.0 0.009109352886455091 -1.0759739044027852
5162000000.0 -0.015064464345460049 -1.0258783416972488
5166000000.0 0.0074517054482486356 -1.031465166372512
