! Created with skrf 1.8.0 (http://scikit-rf.org).
# Hz S RI R 50.0 
!freq ReS11 ImS11
4000000000.0 0.6048058297600672 -0.8621549112428852
4003000000.0 0.5331375132855825 -0.9147622684477525
4006000000.0 0.5186405501557951 -0.8859623326138937
4009000000.0000005 0.6154136084194832 -0.9041674595417952
4011999999.9999995 0.6032688884881917 -0.9037466204861021
4016000000.0 0.5469177283252165 -0.896530445740811
4019000000.0 0.5691866194165245 -0.9119013676685062
4022000000.0000005 0.652691207388866 -0.8072931327449069
4025000000.0000005 0.5214851765127834 -0.9674692073065893
4027999999.9999995 0.5110970022523874 -0.8808373730301917
4030999999.9999995 0.5414415763147344 -0.8606171574877057
4034000000.0 0.5595660120475723 -0.8922005326180804
4038000000.0000005 0.5574980863283026 -0.9206748871388111
4041000000.0000005 0.5479187946240449 -0.8797025316772444
4043999999.9999995 0.5892626525403035 -0.9185688053338568
4046999999.9999995 0.5873894349553861 -0.8998994377969372
4050000000.0 0.5464632604863289 -0.8907891862242618
4053000000.0 0.5495616691536522 -0.9011333136304293
4056000000.0 0.5787638142485567 -0.8639445822443128
4059000000.0 0.5608139350995347 -0.882202756360803
4062000000.0000005 0.5515490622027556 -0.8996059417394595
4066000000.0 0.5469601228336471 -0.8333738436518908
4069000000.0 0.5322268484105233 -0.9340407288315887
4072000000.0 0.6231350142102872 -0.8862341093554864
4075000000.0 0.6385169863419596 -0.8935352359918571
4078000000.0000005 0.5620232545226436 -0.8892355184831976
4081000000.0000005 0.5856554748455354 -0.8967778241902825
4083999999.9999995 0.5482630821309353 -0.9285429720322578
4088000000.0 0.595528508533989 -0.8385244703732668
4091000000.0 0.601311468524443 -0.9199157798246964
4094000000.0000005 0.5626759441778818 -0.8550917089266034
4097000000.0000005 0.5601266087499978 -0.8960371844752556
4099999999.9999995 0.5357988743586172 -0.8901937714328582
4102999999.9999995 0.5807600732474433 -0.8676508918907139
4106000000.0 0.5797334235755167 -0.897529891493682
4109000000.0 0.5514750435114972 -0.91831868747909
4112000000.0 0.5749140888072486 -0.8925743783009891
4115999999.9999995 0.5827353569939598 -0.8778404711574326
4119000000.0 0.5392065406183618 -0.9044061750585564
4122000000.0 0.5460044049656234 -0.967031649232779
4125000000.0 0.5690417330332781 -0.9121043049674963
4128000000.0 0.5442516314267677 -0.8538766599352123
4131000000.0 0.5334771750415885 -0.8617702527136839
4134000000.0000005 0.5768569452118854 -0.8664617752227803
4138000000.0 0.5349757709210439 -0.8651440951683079
4141000000.0 0.5818033612101734 -0.8651536559715112
4144000000.0 0.5817470711726455 -0.8922089877852976
4147000000.0000005 0.5736613277400917 -0.8803068713054788
4150000000.0000005 0.574138688346289 -0.9207642726912856
4152999999.9999995 0.5549032586689756 -0.8841405586587541
4155999999.9999995 0.57711035019138 -0.885374289305042
4159000000.0 0.5957402047318544 -0.8740389652545784
4162000000.0 0.5311194789170065 -0.8511046647237299
4166000000.0000005 0.5620413541747753 -0.8891686012543478
4168999999.9999995 0.5493054773498076 -0.8754963718839581
4171999999.9999995 0.5631405826766565 -0.8741566949715707
4175000000.0 0.5818894636555044 -0.8964696133044464
4178000000.0 0.5906030332819076 -0.8856392116069518
4181000000.0 0.5554460379059696 -0.8945544321133908
4184000000.0 0.5587098200976006 -0.8738383426171729
4187999999.9999995 0.5806748864975838 -0.8730325952613411
4191000000.0 0.5955609705108185 -0.8566869145089204
4194000000.0 0.5598829173112148 -0.8558804931373382
4197000000.0 0.5792304644079103 -0.8637856981526003
4200000000.0 0.5712583436459839 -0.8721961217517575
4203000000.0000005 0.5892635203738801 -0.8624457262424339
4206000000.0000005 0.5700697567794143 -0.882701910335891
4208999999.9999995 0.5666232195028631 -0.8452861481474774
4211999999.9999995 0.5395069528739534 -0.885388399033057
4216000000.0 0.5734645843534538 -0.8586752577527197
4219000000.0000005 0.5937187421296581 -0.8819892265414232
4222000000.0000005 0.5661180672037766 -0.8509395591381036
4224999999.9999995 0.5623926772593384 -0.8508005119434773
4227999999.9999995 0.5624901244188065 -0.8729122996180863
4231000000.0 0.5636903537545161 -0.8693837535450003
4234000000.0 0.5681703441287338 -0.8910304528643569
4238000000.0000005 0.5638020010089746 -0.8634835630338503
4240999999.9999995 0.5485496848804395 -0.8643086261792955
4244000000.0 0.5628869973403279 -0.8492605931196002
4247000000.0 0.5685540317932803 -0.8714217323521074
4250000000.0 0.5573939917309422 -0.8431138748756069
4253000000.0 0.5379880739635869 -0.8493736588869771
4256000000.0 0.5742453691510524 -0.8955348979134213
4259000000.0000005 0.5452057854877326 -0.8383979417631767
4261999999.9999995 0.5514198432800689 -0.8749063512474046
4266000000.0 0.5478031396981679 -0.8806093175929359
4269000000.0 0.5579095048449824 -0.8695675771298369
4272000000.0000005 0.5546268227795227 -0.8757484231760906
4275000000.0000005 0.5642300136236571 -0.8805022008924378
4277999999.9999995 0.5810993309116308 -0.9010496462926932
4280999999.9999995 0.5638685148108111 -0.8604679770389887
4284000000.0 0.5335254166270738 -0.8858727018615873
4288000000.0000005 0.5908731375942851 -0.8377137860429645
4291000000.0000005 0.5348385109859937 -0.83092622691772
4293999999.9999995 0.5336193459938667 -0.8542292308326368
4297000000.0 0.5651615842628275 -0.8248339829802512
4300000000.0 0.5746425465018834 -0.8673858532064406
4303000000.0 0.5456604358809005 -0.8445137381830641
4306000000.0 0.5834195249733392 -0.8337376891294314
4309000000.0 0.5287173169448607 -0.8491664221254341
4312000000.0 0.5760919576274646 -0.8679524575525754
4316000000.0 0.5687719568071181 -0.873821909160472
4319000000.0 0.5529263135071973 -0.8346716265712955
4322000000.0 0.5370332299141644 -0.8375464611468677
4325000000.0 0.5625261487800723 -0.8511312968104228
4328000000.0 0.5543709024921764 -0.8423270925698588
4331000000.0 0.5393935411101912 -0.8739710460903211
4334000000.0 0.5605743064651574 -0.8865394912374983
4338000000.0 0.5936904135236362 -0.8621859311927556
4341000000.0 0.6103357873240571 -0.8571196512561275
4344000000.0 0.5662848194712424 -0.8639631695646327
4347000000.0 0.5456035486363743 -0.8865180484395064
4350000000.0 0.5150746692993836 -0.8395177422248888
4353000000.0 0.5617671787630831 -0.8289889864178289
4356000000.0 0.5359499747548689 -0.8807731663662369
4359000000.0 0.5381315105270452 -0.8334970912245987
4362000000.0 0.5150145997026208 -0.9123091990313906
4366000000.0 0.56598127405172 -0.8716687119215059
4369000000.0 0.5271993428368797 -0.8595115455996825
4372000000.0 0.5080112501068407 -0.8794320334201028
4375000000.0 0.5518148255165418 -0.8518277255536775
4378000000.0 0.5466555323118603 -0.8241407041027715
4381000000.0 0.5628369380696628 -0.8500482608268848
4384000000.0 0.5730496827798274 -0.9416291158240595
4388000000.0 0.5490195947354525 -0.8383420843276878
4391000000.0 0.5620748587848153 -0.8551605917423961
4394000000.0 0.525682354410204 -0.843703128041326
4397000000.0 0.5346453482901113 -0.8587032924287523
4400000000.0 0.5521557011635154 -0.8923325984960692
4403000000.0 0.5550330069583554 -0.855126496635465
4406000000.0 0.534079236288796 -0.8787924468148186
4409000000.0 0.5655318747770031 -0.8973594537557535
4412000000.0 0.4893574649308214 -0.8920170828611793
4416000000.0 0.544824163736418 -0.8543586193702246
4419000000.0 0.5324995857898875 -0.869206263409862
4422000000.0 0.5563898000218217 -0.8426473660591495
4425000000.0 0.5724050377781791 -0.8604001218425654
4428000000.0 0.5412539795550505 -0.8605237730345139
4431000000.0 0.5639678128267698 -0.8862363455189854
4434000000.0 0.5510953362522866 -0.8550881985665602
4438000000.0 0.5625831018379595 -0.8633407685938389
4441000000.0 0.5597836738181556 -0.8860227908204927
4444000000.0 0.5446775800689178 -0.8401432466773506
4447000000.0 0.5069385812554839 -0.8495345294097516
4450000000.0 0.5443934366090659 -0.8450150006741755
4453000000.0 0.554427974666782 -0.8698956063890789
4456000000.0 0.5226436894704171 -0.8403094239371507
4459000000.0 0.5077547622243951 -0.8352898061841736
4462000000.0 0.562046842933815 -0.9156653463592943
4466000000.0 0.5336269616365709 -0.9015321300143639
4469000000.0 0.5625540869060578 -0.8648353265191961
4472000000.0 0.5200592049116434 -0.8953429071563874
4475000000.0 0.5388818514339841 -0.8341114772353425
4478000000.0 0.5446783416537052 -0.9171271442691051
4481000000.0 0.5013886189205004 -0.8380558081918448
4484000000.0 0.5080600589802121 -0.8910457364773451
4488000000.0 0.5170205838718489 -0.8678841376882656
4491000000.0 0.541448163889469 -0.8897626454522438
4494000000.0 0.5421876662375018 -0.8661830615457059
4497000000.0 0.5268250159252343 -0.8472069611225175
4500000000.0 0.548268282834425 -0.8451430108061843
4503000000.0 0.5573962635544492 -0.8923621392057735
4506000000.0 0.5212595290381844 -0.852758625499235
4509000000.0 0.5124258386400292 -0.8494895579834525
4512000000.0 0.5172958475387003 -0.8684836710753285
4516000000.0 0.5449015723000243 -0.889433727197197
4519000000.0 0.5194808014966465 -0.8375375928548021
4522000000.0 0.5173309755747448 -0.8833956409721331
4525000000.0 0.5773186800842802 -0.8593625947087056
4528000000.0 0.5464636132037178 -0.9116528995734043
4531000000.0 0.551681214934544 -0.8533397955950572
4534000000.0 0.5164582449378815 -0.8522187117170608
4538000000.0 0.5227822424203639 -0.8733592966173727
4541000000.0 0.4772124010164184 -0.8765341428491382
4544000000.0 0.5186951169275023 -0.8499883227934826
4547000000.0 0.5251196890090013 -0.8397990023543217
4550000000.0 0.5173749095949605 -0.9040179631261049
4553000000.0 0.5276409608846125 -0.87088519578649
4556000000.0 0.5085540789967102 -0.8894545562037852
4559000000.0 0.521478550176231 -0.8871595580822795
4562000000.0 0.5288117477281814 -0.8714516124678167
4566000000.0 0.5111091968354723 -0.8826201699719503
4569000000.0 0.5205404279614159 -0.8590306898753399
4572000000.0 0.5150330982054505 -0.8931922867065354
4575000000.0 0.5163865351397754 -0.8833315771734556
4578000000.0 0.5478589083966836 -0.8859000195116672
4581000000.0 0.5055687391103131 -0.8977340979519375
4584000000.0 0.5250751788174273 -0.8602735899528888
4588000000.0 0.5519929386993687 -0.8927272492368887
4591000000.0 0.5309682388136238 -0.8697254964356504
4594000000.0 0.4939285192882039 -0.8994375196247887
4597000000.0 0.5201096113300869 -0.891201432328004
4600000000.0 0.5025674053200948 -0.8819540611845479
4603000000.0 0.5235901114135336 -0.8829357410460442
4606000000.0 0.5252110905989197 -0.8878537977585598
4609000000.0 0.5129927963003694 -0.8801427814976808
4612000000.0 0.5239478050652056 -0.8951407772788214
4616000000.0 0.5047430809721017 -0.8673546330160937
4619000000.0 0.5427081572717438 -0.8655473419233434
4622000000.0 0.5139333933154632 -0.8780546444698185
4625000000.0 0.48437728546083725 -0.8637931043462003
4628000000.0 0.521684178155551 -0.8640257121165024
4631000000.0 0.5046767659068916 -0.8721201413412072
4634000000.0 0.5078545592100967 -0.886592575521373
4638000000.0 0.5248011502258275 -0.8888636288008313
4641000000.0 0.5133960590036504 -0.8734763290122376
4644000000.0 0.5201232925680679 -0.8823255587358412
4647000000.0 0.5050444617923968 -0.8837318797470972
4650000000.0 0.5067105381049901 -0.8852393270982489
4653000000.0 0.5287122194730685 -0.8857547661036066
4656000000.0 0.5070541247972965 -0.8747997809152683
4659000000.0 0.5110048483732121 -0.8774618940071357
4662000000.0 0.5127755177444114 -0.892658496352484
4666000000.0 0.5070130362933062 -0.893589421763109
4669000000.0 0.51874359126739 -0.8797585047478387
4672000000.0 0.4985870812251208 -0.9067276172701872
4675000000.0 0.48463119285381295 -0.9127826870006085
4678000000.0 0.47660779886530524 -0.8738889555353038
4681000000.0 0.4870644580316377 -0.9065956274763088
4684000000.0 0.48295681092999804 -0.9062577560860063
4688000000.0 0.5222881868988893 -0.8942951040779191
4691000000.0 0.5404741517731474 -0.8827508507227582
4694000000.0 0.509115892597311 -0.8897746628674135
4697000000.0 0.4801015153915888 -0.8724666039367357
4700000000.0 0.5059958581756616 -0.8936764993019322
4703000000.0 0.5206297602862004 -0.8439673822448757
4706000000.0 0.5066774372792013 -0.8622272277103029
4709000000.0 0.5070373194691622 -0.8942276943722277
4712000000.0 0.5318105115620041 -0.8937491806882962
4716000000.0 0.5184132277726962 -0.9064738445823562
4719000000.0 0.5628960897709963 -0.867089814015567
4722000000.0 0.5448961845078157 -0.8826094002651969
4725000000.0 0.48999635533113955 -0.8862976690796127
4728000000.0 0.4668602334238566 -0.8829814568722167
4731000000.0 0.5218588033015943 -0.9099775363153284
4734000000.0 0.5398008399346893 -0.8783066116247276
4738000000.0 0.5413437312182926 -0.9323946963511657
4741000000.0 0.5256144873456292 -0.9424614731178317
4744000000.0 0.49206224650466246 -0.9325735445537298
4747000000.0 0.5120171843165539 -0.8515480964336867
4750000000.0 0.4998571379496902 -0.8761490953367697
4753000000.0 0.5245452978362976 -0.9080712600359924
4756000000.0 0.49968914645777984 -0.904067819392157
4759000000.0 0.5332700003552734 -0.9420011522307448
4762000000.0 0.47279221129043425 -0.9251113760646837
4766000000.0 0.5121007663124005 -0.8942897117154731
4769000000.0 0.5275479995764347 -0.9320552949364153
4772000000.0 0.4947329962301421 -0.9086083556790865
4775000000.0 0.53187497520025 -0.9736971753811754
4778000000.0 0.5040129297254066 -0.9124468787917083
4781000000.0 0.5186956117675123 -0.8649951670576977
4784000000.0 0.5261057409617497 -0.8965260286749915
4788000000.0 0.5183183028564573 -0.9159369593930631
4791000000.0 0.4751639594185657 -0.8847925171343859
4794000000.0 0.5402412428564083 -0.9047612144347073
4797000000.0 0.4787712432446918 -0.8987566229016278
4800000000.0 0.4486252876563214 -0.893571653187738
4803000000.0 0.46143127841979525 -0.8974260778198573
4806000000.0 0.5142046942535706 -0.9221796747964767
4809000000.0 0.4326205276629326 -0.9112290647200572
4812000000.0 0.4758780947139615 -0.9353763189607681
4816000000.0 0.5053779856825897 -0.8617289765210344
4819000000.0 0.5344880507156855 -0.9114928009267556
4822000000.0 0.5208845429363718 -0.9360106732300543
4825000000.0 0.5523611566157576 -0.8976813030369228
4828000000.0 0.5164634965480912 -0.8991790423884013
4831000000.0 0.4817302098838607 -0.9494614445106097
4834000000.0 0.5390887135545461 -0.9012688456473653
4838000000.0 0.4985442461747137 -0.9321633103475919
4841000000.0 0.4758182902400754 -0.8999495335846961
4844000000.0 0.5439116245698367 -0.8992102737699724
4847000000.0 0.4968024719524108 -0.8750916737856592
4850000000.0 0.513712431747458 -0.9353442614725589
4853000000.0 0.5127038225566872 -0.8702408005979455
4856000000.0 0.4905660920464725 -0.8843705164219476
4859000000.0 0.5241996191549448 -0.9573572858049896
4862000000.0 0.5151714170418028 -0.8682341183859881
4866000000.0 0.5291252917472323 -0.933383957016346
4869000000.0 0.49711016638085204 -0.9159146088879593
4872000000.0 0.5020834211722356 -0.9402046602669764
4875000000.0 0.5885787198971157 -0.9257995955758409
4878000000.0 0.4961385645340558 -0.9192151005221629
4881000000.0 0.5452255469071385 -1.0238411300663548
4884000000.0 0.5019792140002697 -0.8789602515350136
4888000000.0 0.5647292341017589 -0.9003769682902488
4891000000.0 0.5471630659245643 -0.9294946113507861
4894000000.0 0.48850369249075215 -0.9152619423934724
4897000000.0 0.5417781552950276 -0.8915733300787009
4900000000.0 0.5562045211856899 -0.9391921044574537
4903000000.0 0.5394506425008305 -0.9395500457734353
4906000000.0 0.4872100690697377 -0.9027810205643189
4909000000.0 0.49606376429488314 -0.916081633330575
4912000000.0 0.5182208403235846 -0.9506386391959599
4916000000.0 0.5611822106742438 -0.9511807347289375
4919000000.0 0.5691353720124713 -0.9340587955440033
4922000000.0 0.5395585672396109 -0.9115272197170973
4925000000.0 0.5058915225390103 -0.9162746258787547
4928000000.0 0.5718694168547904 -0.8831107309987941
4931000000.0 0.5508396450840385 -0.9256591026271863
4934000000.0 0.5173167164042758 -0.8741030385014813
4938000000.0 0.47461575146967677 -0.940355887397201
4941000000.0 0.5312003784947718 -0.8891463749884819
4944000000.0 0.519392825931876 -0.8155126854970048
4947000000.0 0.5063651959178566 -0.8820147808805723
4950000000.0 0.5174358374646809 -0.8838816930201487
4953000000.0 0.4787971103601115 -0.9554659042915574
4956000000.0 0.5209327572067335 -0.9264998737484744
4959000000.0 0.45797032550481875 -0.9097472742712138
4962000000.0 0.5369980908618758 -0.9187774395233012
4966000000.0 0.5582287925100458 -0.9268465804912445
4969000000.0 0.5292630243603166 -0.9562094190877979
4972000000.0 0.5142646744966862 -0.9072415104561323
4975000000.0 0.546472015844838 -0.873495868655741
4978000000.0 0.5242928801706869 -0.9119940878094853
4981000000.0 0.49450053547703104 -0.9307612022909715
4984000000.0 0.5124387199145282 -0.9054504098007108
4988000000.0 0.5431006553836859 -0.9049757723144172
4991000000.0 0.572850822673198 -0.9013565794134131
4994000000.0 0.5572004210956623 -0.8805711994152771
4997000000.0 0.5223740589386086 -0.9372422094336541
5000000000.0 0.574077302168273 -0.9465051026743635
5003000000.0 0.5576304294340313 -0.9372038103887954
5006000000.0 0.5553472601245354 -0.9397075929876663
5009000000.0 0.5425751689022794 -0.8975776365771773
5012000000.0 0.5231157564618596 -0.9458712057927765
5016000000.0 0.6127190483725076 -0.9132393231232265
5019000000.0 0.5082487759382455 -0.8941075444118072
5022000000.0 0.5422723345454284 -0.8945075594203025
5025000000.0 0.5423206205478279 -0.9648617653099931
5028000000.0 0.5239852341827069 -0.9352634976941103
5031000000.0 0.48614696443421973 -0.9191615106865838
5034000000.0 0.5065491146020878 -0.949074652139797
5038000000.0 0.4951682931636732 -0.9064079167131605
5041000000.0 0.5850778107037842 -0.8974091498596853
5044000000.0 0.5495755542918914 -0.8788718628859924
5047000000.0 0.5678370665963735 -0.9034036047716543
5050000000.0 0.5924047970263313 -0.8661700228111456
5053000000.0 0.5629607968638907 -0.9196022040546801
5056000000.0 0.5952521176519441 -0.9040750434321341
5059000000.0 0.6159421484252398 -0.8640683643821702
5062000000.0 0.5054892025787896 -0.9499625925247881
5066000000.0 0.5983298421257037 -0.8678179489969984
5069000000.0 0.5640635093920988 -0.9224554475814881
5072000000.0 0.5224010919032337 -0.8957944989287827
5075000000.0 0.5633135512730867 -0.8938635113363101
5078000000.0 0.5211993428064816 -0.9583182749076804
5081000000.0 0.504469697295593 -0.8792604257602165
5084000000.0 0.6051696526375717 -0.91017068925424
5088000000.0 0.582799741575595 -0.8835583470028139
5091000000.0 0.5288413751829448 -0.9382663299345742
5094000000.0 0.5419906995234829 -0.874310614912694
5097000000.0 0.5843864119228177 -0.8697777314769131
5100000000.0 0.5519759964305029 -0.8938635621648467
5103000000.0 0.5485531802371635 -0.9110548505828682
5106000000.0 0.5605397169783393 -0.9341572204247154
5109000000.0 0.6123822662669389 -0.8595033106127545
5112000000.0 0.5587163558320654 -0.9009052221179779
5116000000.0 0.5455673881194765 -0.8672916786546842
5119000000.0 0.5619433912463878 -0.8656138260122936
5122000000.0 0.5583287536250968 -0.9182560003322504
5125000000.0 0.5217805040593545 -0.8824277844972921
5128000000.0 0.5490596931314315 -0.8805890725888127
5131000000.0 0.5559184889331612 -0.8245284593392435
5134000000.0 0.5701248880443813 -0.8838059883186415
5138000000.0 0.5731835323207515 -0.8461730005994836
5141000000.0 0.6585438184474324 -0.9114560991653718
5144000000.0 0.5606119474692128 -0.905953390394854
5147000000.0 0.6144135457531588 -0.8922210883572733
5150000000.0 0.5722156135753748 -0.896285500826077
5153000000.0 0.5576480186188562 -0.9091230782446571
5156000000.0 0.6121394425036877 -0.8806197709939627
5159000000.0 0.6370080303897561 -0.9225713765953195
5162000000.0 0.5392336045740208 -0.9080128633492481
5166000000.0 0.573009160857006 -0.9175921015659201
5169000000.0 0.6185535354977229 -0.8891603460516189
5172000000.0 0.5730527479922448 -0.8663961384260357
5175000000.0 0.6012878961217324 -0.8868155836060412
5178000000.0 0.5689818431398329 -0.9047710092670369
