! Created with skrf 1.8.0 (http://scikit-rf.org).
# Hz S RI R 50.0 
!freq ReS11 ImS11
4000000000.0 0.5682423710582096 -0.8910874665238033
4003000000.0 0.6462124663762977 -0.8854984975929758
4006000000.0 0.4954243558348687 -0.8994585013433418
4009000000.0000005 0.5424677192750678 -0.8870979934151294
4011999999.9999995 0.657819720693151 -0.877783059305467
4016000000.0 0.5233073858480092 -0.9232748218429307
4019000000.0 0.5147442215718538 -0.8410899785537042
4022000000.0000005 0.6156073635425406 -0.840305058988503
4025000000.0000005 0.5088747789048994 -0.9378837589816544
4027999999.9999995 0.5592309446285898 -0.89296871101136
4030999999.9999995 0.5633584564685259 -0.8220811791877712
4034000000.0 0.5291333706851753 -0.9083263352115561
4038000000.0000005 0.5529009017162684 -0.9065304610768651
4041000000.0000005 0.5568152365801818 -0.8351032768058461
4043999999.9999995 0.5630560558924818 -0.8993030352516433
4046999999.9999995 0.587978953045972 -0.9090342480568121
4050000000.0 0.5366118898840795 -0.9026817816423454
4053000000.0 0.5050217746392787 -0.8831198460007524
4056000000.0 0.5407500555195671 -0.8888381170136368
4059000000.0 0.5686478939176807 -0.8836474921534412
4062000000.0000005 0.531707405670649 -0.858897653249264
4066000000.0 0.48543749095122324 -0.8110488862733116
4069000000.0 0.5552519841405402 -0.9098488476806735
4072000000.0 0.5610343862412852 -0.8548067848922952
4075000000.0 0.6023859679474607 -0.8620539303056797
4078000000.0000005 0.5222593614732065 -0.8747564132301274
4081000000.0000005 0.6216453020461986 -0.8732319432190315
4083999999.9999995 0.5176047608000969 -0.8746270116092837
4088000000.0 0.5803422247415029 -0.8694176297878237
4091000000.0 0.5660599600185369 -0.9018450791184728
4094000000.0000005 0.5614459085306107 -0.8490971241068254
4097000000.0000005 0.5620084818807249 -0.8780121080879083
4099999999.9999995 0.5184513542159696 -0.8808086175115717
4102999999.9999995 0.5796541092680986 -0.8901056546225792
4106000000.0 0.5343493646669052 -0.8907310000241431
4109000000.0 0.5212866583647288 -0.8923066791140741
4112000000.0 0.5185456039497849 -0.8608855087496862
4115999999.9999995 0.554200941362361 -0.8779366769837414
4119000000.0 0.5424174016662093 -0.9084698718466804
4122000000.0 0.5130503577598335 -0.8914982940451986
4125000000.0 0.5282910652766248 -0.9121104979661394
4128000000.0 0.5414078652362556 -0.8206859309168092
4131000000.0 0.5062285280884377 -0.8523050459586817
4134000000.0000005 0.5765971782580182 -0.8861863934901952
4138000000.0 0.5166247687648426 -0.8379090030881021
4141000000.0 0.5222873875323791 -0.8658709953362347
4144000000.0 0.5851635030654704 -0.8865338174782197
4147000000.0000005 0.5329088870403734 -0.8611365437887416
4150000000.0000005 0.5892116208996944 -0.879456768161663
4152999999.9999995 0.5389415369528784 -0.8890860650361135
4155999999.9999995 0.563061584770563 -0.8902116069138889
4159000000.0 0.548187031204771 -0.8873708178017827
4162000000.0 0.5290272983135963 -0.831371359793859
4166000000.0000005 0.5643499551365807 -0.8591835147091742
4168999999.9999995 0.5056105703770066 -0.8745258513873512
4171999999.9999995 0.5757934576461613 -0.8570036142751027
4175000000.0 0.5738896608145516 -0.8765848265877136
4178000000.0 0.5618123906287174 -0.8712906118891734
4181000000.0 0.5521574450676139 -0.8908817835927946
4184000000.0 0.5155124297636986 -0.8502009288294538
4187999999.9999995 0.5408558336705086 -0.892843415603087
4191000000.0 0.5841779020223377 -0.8431618589529485
4194000000.0 0.5296045951748116 -0.845333400423143
4197000000.0 0.5621060538215774 -0.863451010296477
4200000000.0 0.5687344359205484 -0.837076941996933
4203000000.0000005 0.5617936567168422 -0.8465185565482294
4206000000.0000005 0.5642020376086574 -0.8653379132120791
4208999999.9999995 0.5460996600512369 -0.8493913078907639
4211999999.9999995 0.5070715732559485 -0.8701148481309535
4216000000.0 0.5544817878267752 -0.8696601714116592
4219000000.0000005 0.567293857057257 -0.8521750002648059
4222000000.0000005 0.5304439893148862 -0.872788877781156
4224999999.9999995 0.5562662378607459 -0.8579352317372781
4227999999.9999995 0.5824538960957666 -0.8699111749315419
4231000000.0 0.5513701311241052 -0.8462047187932895
4234000000.0 0.548212510530484 -0.8723734499845798
4238000000.0000005 0.5423534671742738 -0.8615490895639762
4240999999.9999995 0.5407419912293003 -0.864141679267613
4244000000.0 0.547574916652056 -0.8524032863245012
4247000000.0 0.5421744184163895 -0.8561688840375064
4250000000.0 0.5363198345656529 -0.8628070234266321
4253000000.0 0.5338846811425905 -0.8407561726596826
4256000000.0 0.5503860264947372 -0.8802054715934866
4259000000.0000005 0.5090393245807592 -0.8326915629361986
4261999999.9999995 0.5303571848319207 -0.8708736026926656
4266000000.0 0.5317379120790577 -0.8739028579485868
4269000000.0 0.532659521956514 -0.8564903164563129
4272000000.0000005 0.5690213986699456 -0.8505921750123241
4275000000.0000005 0.5464087670886054 -0.8665298466674816
4277999999.9999995 0.5486863369864982 -0.864946356393349
4280999999.9999995 0.5554860768973172 -0.8544744202580483
4284000000.0 0.5104431970455363 -0.8980728153669322
4288000000.0000005 0.5692631351251339 -0.8551394795500596
4291000000.0000005 0.5313815132827217 -0.8512414651050063
4293999999.9999995 0.5219498652766673 -0.8519402661025267
4297000000.0 0.5486178802687063 -0.8476325517013856
4300000000.0 0.5300746023419665 -0.8561412373276701
4303000000.0 0.5318044291321566 -0.8315069364686928
4306000000.0 0.5297521714488028 -0.8477601382953042
4309000000.0 0.5703626022163463 -0.8583693763506345
4312000000.0 0.5804071549761842 -0.8470261380983148
4316000000.0 0.5833788445017047 -0.8718061217689511
4319000000.0 0.550768580330457 -0.8346790937977675
4322000000.0 0.513966313726569 -0.8454964597922553
4325000000.0 0.5575377029131544 -0.8295296653882325
4328000000.0 0.5426473467278797 -0.8475947740970357
4331000000.0 0.5107908864622313 -0.8770558126618261
4334000000.0 0.5308276455893023 -0.859957720823261
4338000000.0 0.5462061401978514 -0.8363212370206234
4341000000.0 0.5771642035755383 -0.8084728148362658
4344000000.0 0.5630372144221261 -0.8699665004112551
4347000000.0 0.5473436203217178 -0.8812104980078389
4350000000.0 0.521813831715558 -0.8102022408420173
4353000000.0 0.5408548410889576 -0.8264607557224593
4356000000.0 0.508888026150982 -0.8656496833329808
4359000000.0 0.5271113305474302 -0.8285399503904192
4362000000.0 0.49380667803894224 -0.8798213981823532
4366000000.0 0.5535729989474951 -0.8893647406157448
4369000000.0 0.5069582021350162 -0.8103996923637251
4372000000.0 0.4881621977779247 -0.8393457967357401
4375000000.0 0.5434772919104324 -0.8416322354375345
4378000000.0 0.5431229225216638 -0.8395477734391076
4381000000.0 0.550179558614482 -0.8473817590971559
4384000000.0 0.5654389346063599 -0.8954593683940532
4388000000.0 0.54999187577435 -0.8474243327570635
4391000000.0 0.5378126921746212 -0.8616565269459993
4394000000.0 0.5256580544268823 -0.8392013125076901
4397000000.0 0.5363139347406334 -0.857409381361322
4400000000.0 0.560244110351683 -0.8776456852195341
4403000000.0 0.5278521442891588 -0.8711569886316433
4406000000.0 0.5098356871408691 -0.8665533135390355
4409000000.0 0.5497724629495693 -0.8823071437310854
4412000000.0 0.48530306735722484 -0.8781505222057411
4416000000.0 0.5081279701089433 -0.8696233599695291
4419000000.0 0.5182653569790902 -0.8769024433460719
4422000000.0 0.5430827149821571 -0.8450541546227593
4425000000.0 0.5693716113677874 -0.8727762402053395
4428000000.0 0.5211534808143072 -0.8600256266945416
4431000000.0 0.5464850786314763 -0.8695850479899417
4434000000.0 0.5153528331040027 -0.8515521868164692
4438000000.0 0.5525391738250061 -0.8703556809463302
4441000000.0 0.5313754503718222 -0.8702836172510061
4444000000.0 0.5198623334582854 -0.8284614141586082
4447000000.0 0.5154280884544608 -0.8577243596581646
4450000000.0 0.5366876328451844 -0.8531268956841436
4453000000.0 0.5545996873325809 -0.878069036738206
4456000000.0 0.5035414528345223 -0.8481146615790073
4459000000.0 0.5024342707674214 -0.8365589769607042
4462000000.0 0.5486510911708693 -0.9073346951472605
4466000000.0 0.5254258395817651 -0.9020098306857549
4469000000.0 0.5372176420722542 -0.8449684044070196
4472000000.0 0.5093006301437317 -0.9005142968074793
4475000000.0 0.5102080157961718 -0.8348052198080154
4478000000.0 0.5421613651362949 -0.8972455478209739
4481000000.0 0.506302179756535 -0.8396322890687226
4484000000.0 0.48961288030619665 -0.8571041260122856
4488000000.0 0.5070104966536221 -0.8529568915733018
4491000000.0 0.5042042119964472 -0.8622032567825615
4494000000.0 0.5178809413268803 -0.8447427192353814
4497000000.0 0.544279579258856 -0.8304399649826408
4500000000.0 0.5268536407092288 -0.8633469772340618
4503000000.0 0.5464406873925574 -0.8792332834394055
4506000000.0 0.5051989036353406 -0.8739206858015132
4509000000.0 0.5094933620176413 -0.8390517800045767
4512000000.0 0.5000422713687537 -0.8540167393432455
4516000000.0 0.542271918386365 -0.8815443678323591
4519000000.0 0.5116199979765648 -0.8312687587553451
4522000000.0 0.5189277677085907 -0.8686469588115082
4525000000.0 0.5460881858605705 -0.8508711155300916
4528000000.0 0.5343292957962815 -0.8688163534359452
4531000000.0 0.5344746034213632 -0.8644633695603268
4534000000.0 0.49387443608413023 -0.850379117892333
4538000000.0 0.5049846630974846 -0.8755363909037286
4541000000.0 0.4813352672900913 -0.8889440184024497
4544000000.0 0.5175975844177092 -0.843311454571096
4547000000.0 0.5160449690465879 -0.8614720775208087
4550000000.0 0.5004749582199703 -0.8832864914087393
4553000000.0 0.5183072805409558 -0.8881698442748509
4556000000.0 0.49796492393716707 -0.8610096791612841
4559000000.0 0.4986332810777472 -0.8800353830910957
4562000000.0 0.5478743217851205 -0.8878458101927286
4566000000.0 0.510748446535961 -0.8738079136084524
4569000000.0 0.504316779289047 -0.8487213027590448
4572000000.0 0.5110885932189392 -0.8792079418703662
4575000000.0 0.49192871374887004 -0.8932706387482551
4578000000.0 0.5355392014537844 -0.8923165902642425
4581000000.0 0.5010773210040003 -0.8785097003064768
4584000000.0 0.505006035106308 -0.8797972362926855
4588000000.0 0.5540463532249984 -0.8847439937124568
4591000000.0 0.5325663740579847 -0.8564146416250346
4594000000.0 0.4875008737839792 -0.8722284146652255
4597000000.0 0.5034651892039108 -0.8886071336374418
4600000000.0 0.484908207740766 -0.874891485980048
4603000000.0 0.4974159651562069 -0.8840354880685959
4606000000.0 0.50246281416651 -0.8828840668109001
4609000000.0 0.5115215593874132 -0.8708212899546939
4612000000.0 0.4923211170428497 -0.8884244615501793
4616000000.0 0.506818240279509 -0.8681310214811783
4619000000.0 0.5080073749872387 -0.879420563780492
4622000000.0 0.49578631542589313 -0.8833405316293148
4625000000.0 0.4841905175299668 -0.8527886501856345
4628000000.0 0.5160032649424774 -0.8660039499931064
4631000000.0 0.4879839149048926 -0.8696500773679476
4634000000.0 0.5154068780884754 -0.8746691101450979
4638000000.0 0.49569889265455547 -0.8891792823632758
4641000000.0 0.511932750518581 -0.8667133423027533
4644000000.0 0.5048278225455355 -0.8696131166637515
4647000000.0 0.5175436504801839 -0.8868801614630523
4650000000.0 0.4858147394201675 -0.8759216685550817
4653000000.0 0.5269213395128309 -0.8874448360131989
4656000000.0 0.493385344288128 -0.8883074472905844
4659000000.0 0.499929082643261 -0.8756157755112355
4662000000.0 0.49882588296326713 -0.8882732717434678
4666000000.0 0.4707901843955061 -0.8620842136031727
4669000000.0 0.5132504998204911 -0.8788001130837501
4672000000.0 0.5072401981937333 -0.9152772906996993
4675000000.0 0.4907663637344097 -0.9064718342185466
4678000000.0 0.48191037704149753 -0.8783862302844999
4681000000.0 0.5046820402236964 -0.9233086589433513
4684000000.0 0.46840528922915403 -0.8891712036642209
4688000000.0 0.4519824879549966 -0.8953992440018941
4691000000.0 0.5104846744438085 -0.8708173618321163
4694000000.0 0.4831810331490078 -0.8804176715148724
4697000000.0 0.4657524109463369 -0.8471759507436832
4700000000.0 0.5073310783486176 -0.8811124534613703
4703000000.0 0.5247664697141932 -0.8456984887220439
4706000000.0 0.48122148105348084 -0.886787552868935
4709000000.0 0.4648137518250095 -0.865661787758849
4712000000.0 0.48485883786968614 -0.877188825640209
4716000000.0 0.4976209942680535 -0.9023666845240859
4719000000.0 0.5014343562617669 -0.8881774821889624
4722000000.0 0.5022966902846966 -0.8872776563793056
4725000000.0 0.5003464304857613 -0.871504721436651
4728000000.0 0.48590249636863614 -0.8920001935817792
4731000000.0 0.5179868476148066 -0.9047665282189823
4734000000.0 0.5186495357763631 -0.8514585381239289
4738000000.0 0.5320575626644904 -0.9262884903628155
4741000000.0 0.5071819546273342 -0.8942330500625298
4744000000.0 0.4870595841989435 -0.8958600806018455
4747000000.0 0.5273588082531273 -0.8610668798806261
4750000000.0 0.4808502134929936 -0.9148081696045346
4753000000.0 0.49464539216749703 -0.9024048613168925
4756000000.0 0.5337593515554228 -0.8916653355582549
4759000000.0 0.4881927374998897 -0.8663664149916992
4762000000.0 0.48476760023267385 -0.9174713900355651
4766000000.0 0.466889604160441 -0.8709130542302297
4769000000.0 0.5145367530410963 -0.9295697661404895
4772000000.0 0.4987737393288258 -0.9057059717343942
4775000000.0 0.4932329588796198 -0.9430955101845522
4778000000.0 0.5020824767106599 -0.8937958031009174
4781000000.0 0.5025042741735641 -0.8690950540988931
4784000000.0 0.49548063509023066 -0.8831766814670067
4788000000.0 0.4639170657590573 -0.9323163536762102
4791000000.0 0.49539089367901046 -0.8935910998584415
4794000000.0 0.5110488495123001 -0.9128291226071104
4797000000.0 0.4778579105632554 -0.8743118640285761
4800000000.0 0.4865920010309847 -0.9180645036021766
4803000000.0 0.44856202223090813 -0.9263545085222322
4806000000.0 0.5065506482657992 -0.9191445326429319
4809000000.0 0.44095133207987286 -0.9172834254649662
4812000000.0 0.45214271341730183 -0.9105808334479571
4816000000.0 0.50932067146129 -0.8688840571949935
4819000000.0 0.5184114569480877 -0.9063558582389681
4822000000.0 0.5208659711621837 -0.929352365629365
4825000000.0 0.5155075233208786 -0.9003155135176446
4828000000.0 0.4934308458190118 -0.894110776304151
4831000000.0 0.45542810377974974 -0.9272314761666836
4834000000.0 0.5284365324530129 -0.8724497790611221
4838000000.0 0.48271982009449677 -0.9035744050784578
4841000000.0 0.46760081882557847 -0.8936996851125165
4844000000.0 0.5156123428905255 -0.8941785499689854
4847000000.0 0.488889695275047 -0.8763618911950106
4850000000.0 0.5036201623225962 -0.9191931619282191
4853000000.0 0.47871441425614203 -0.8707861876014826
4856000000.0 0.5047593963022917 -0.8905119524205745
4859000000.0 0.5076158668105812 -0.930915373830553
4862000000.0 0.5085309526633435 -0.8740866609430828
4866000000.0 0.4767241755564971 -0.9251947729267318
4869000000.0 0.47024548283326345 -0.9246881734290517
4872000000.0 0.49064405822964285 -0.9452252401522276
4875000000.0 0.543122555218256 -0.9101067363624602
4878000000.0 0.5015137379166563 -0.9068740608759699
4881000000.0 0.48071858938409123 -0.9516026242668782
4884000000.0 0.512798672516803 -0.8947204423075593
4888000000.0 0.5316767518528579 -0.8807321696100872
4891000000.0 0.5140109482908917 -0.8866629911683673
4894000000.0 0.476651570123062 -0.9013092313524829
4897000000.0 0.5316349030331337 -0.8912500186910793
4900000000.0 0.5145970076359916 -0.9114428072905935
4903000000.0 0.5208305127851546 -0.9154839124679203
4906000000.0 0.4971448729020725 -0.906193231401689
4909000000.0 0.5049331067591081 -0.9371430960351459
4912000000.0 0.4832697766097848 -0.9436883672437512
4916000000.0 0.5312964614172954 -0.9114689750035848
4919000000.0 0.5325958967118342 -0.9216489315830092
4922000000.0 0.5475306715096461 -0.8930036099502352
4925000000.0 0.4566196391209024 -0.9258536445606376
4928000000.0 0.534202441242302 -0.8585526554689381
4931000000.0 0.5444443946863543 -0.9285090987335237
4934000000.0 0.4968939439829695 -0.8336538753466961
4938000000.0 0.4802636506963607 -0.9277843645920442
4941000000.0 0.4836280717677116 -0.8981463393131346
4944000000.0 0.4974444416577075 -0.8362916638254462
4947000000.0 0.5063078815670515 -0.9002931935327247
4950000000.0 0.49977803678949373 -0.8912139440632566
4953000000.0 0.4723474084491102 -0.9330712090225416
4956000000.0 0.45103106351122024 -0.9128377967580771
4959000000.0 0.4539473247578074 -0.8661578819101815
4962000000.0 0.47807269346120856 -0.9301829320421251
4966000000.0 0.5557697981489284 -0.9120600997746511
4969000000.0 0.5414752889270078 -0.9091769704282386
4972000000.0 0.4897942023023019 -0.9204680519773665
4975000000.0 0.5071039461459017 -0.8736971965725452
4978000000.0 0.5067372408622497 -0.9141202251901037
4981000000.0 0.49840282313189843 -0.8880288410128506
4984000000.0 0.48444052512496527 -0.887380631977658
4988000000.0 0.497784468630621 -0.9102806008898954
4991000000.0 0.5776513064208565 -0.9005647377847755
4994000000.0 0.501065488057938 -0.9082766196770149
4997000000.0 0.4800246918732246 -0.9228077565993725
5000000000.0 0.5438430842644218 -0.9043370125137
5003000000.0 0.5376416771283032 -0.9433174819783195
5006000000.0 0.5343967333456658 -0.9476498502218715
5009000000.0 0.5161495610897218 -0.8808515700565582
5012000000.0 0.5005969301652903 -0.9011058093589831
5016000000.0 0.5722385576830016 -0.9392428392853167
5019000000.0 0.5090042678729427 -0.8857442315419808
5022000000.0 0.5313143777094782 -0.8877194815729399
5025000000.0 0.538214484350342 -0.9501523601906439
5028000000.0 0.4932791406078155 -0.9255037042142222
5031000000.0 0.5014516818282846 -0.9091907675778419
5034000000.0 0.4879842039727738 -0.9471900270834717
5038000000.0 0.4584150929883807 -0.8677569636878443
5041000000.0 0.5576109250981618 -0.9201412676856549
5044000000.0 0.5179574873489821 -0.8771256320238672
5047000000.0 0.5327497490741127 -0.9047921524735404
5050000000.0 0.5826710448142253 -0.836163392279265
5053000000.0 0.5272591377227185 -0.9141719193811761
5056000000.0 0.5707264652530059 -0.9015579872554125
5059000000.0 0.5522131982987443 -0.899619205024103
5062000000.0 0.4869979675283829 -0.9105176635675221
5066000000.0 0.5423270244604761 -0.8633261107806316
5069000000.0 0.5083721354874873 -0.8709596223721086
5072000000.0 0.5224591842313023 -0.8859739267073456
5075000000.0 0.5290162749491457 -0.8948819008776407
5078000000.0 0.4963536412588538 -0.9205290972298694
5081000000.0 0.4911790156040975 -0.8706922048040091
5084000000.0 0.5283034711137152 -0.9118467502476754
5088000000.0 0.5516884530476399 -0.8581816929168719
5091000000.0 0.4970232919282699 -0.8981370986965456
5094000000.0 0.5159343346630343 -0.9126165199059613
5097000000.0 0.6066459468954681 -0.9019312974614706
5100000000.0 0.5440494629564654 -0.8709386050738698
5103000000.0 0.4713796861543574 -0.9068505747544482
5106000000.0 0.6063751069411953 -0.9280289526683494
5109000000.0 0.5605942831031905 -0.8849817048184481
5112000000.0 0.4887234265657002 -0.8441858761780523
5116000000.0 0.5464883887402722 -0.8651499816330985
5119000000.0 0.5079947521633872 -0.9118616754797413
5122000000.0 0.5412296401172025 -0.868573449976691
5125000000.0 0.530559386388313 -0.8947820431380689
5128000000.0 0.5352615552647539 -0.8680072718699927
5131000000.0 0.5124489574030834 -0.8848627564256447
5134000000.0 0.54625394963457 -0.8475115580108121
5138000000.0 0.5487476706942492 -0.8747818170991553
5141000000.0 0.5692539386064956 -0.8943420053744697
5144000000.0 0.5732530206466844 -0.8853010423682959
5147000000.0 0.5667113988909948 -0.8863117025985823
5150000000.0 0.55955519110221 -0.8716003313330833
5153000000.0 0.5882328307925901 -0.9303972946469443
5156000000.0 0.5528151287359684 -0.8887356848980557
5159000000.0 0.6097509043482634 -0.9472352615796116
5162000000.0 0.501333803947455 -0.8934681861376719
5166000000.0 0.5371329988012812 -0.953900241458175
5169000000.0 0.5322602219229029 -0.8990685037162307
5172000000.0 0.5597276721161636 -0.8677709275269956
5175000000.0 0.561149228802106 -0.9004184526619268
5178000000.0 0.5282834858617782 -0.9168477218433069
