! Created with skrf 1.8.0 (http://scikit-rf.org).
# Hz S RI R 50.0 
!freq ReS11 ImS11
4000000000.0 0.5173568826346849 -0.885942298136003
4003000000.0 0.5316170172568444 -0.9320250870360849
4006000000.0 0.47703563688300554 -0.8646482747396793
4009000000.0000005 0.5125417143959865 -0.9104167489509345
4011999999.9999995 0.5833545639410261 -0.8854701503078074
4016000000.0 0.5194628190744051 -0.9657842955344155
4019000000.0 0.5341987938319603 -0.868124096265759
4022000000.0000005 0.6233487806384785 -0.8177181255588482
4025000000.0000005 0.5254485216902629 -0.9253241225114508
4027999999.9999995 0.5656824416132135 -0.8732109868077652
4030999999.9999995 0.5198688410235838 -0.8540315369536655
4034000000.0 0.5568508248778408 -0.8859874156197125
4038000000.0000005 0.5212863495806358 -0.928385396574559
4041000000.0000005 0.5095562786067249 -0.8508880413418669
4043999999.9999995 0.5706813846012382 -0.9187859733910284
4046999999.9999995 0.5654816354704494 -0.8994373073630593
4050000000.0 0.5117713049417523 -0.9134581078298684
4053000000.0 0.5163395084600401 -0.8871604301582108
4056000000.0 0.5514324374327744 -0.8910153092968801
4059000000.0 0.5573891085588658 -0.8557270421643969
4062000000.0000005 0.5188755633204705 -0.910112418037859
4066000000.0 0.5113905750489253 -0.8225505129300644
4069000000.0 0.5676783148519744 -0.9205003197159219
4072000000.0 0.5336204491733726 -0.8403988730561952
4075000000.0 0.5819848484148167 -0.9037141805847779
4078000000.0000005 0.52306780434546 -0.928573664759153
4081000000.0000005 0.5937360821881859 -0.8797544208927266
4083999999.9999995 0.5209233716078474 -0.8991426964865143
4088000000.0 0.5587690390458339 -0.9048386480389978
4091000000.0 0.5785867014402237 -0.9181908759922024
4094000000.0000005 0.5452780287576974 -0.8828789064519815
4097000000.0000005 0.5246800614975786 -0.8689835818610727
4099999999.9999995 0.5326576512331282 -0.8620245777106325
4102999999.9999995 0.6028645361872238 -0.8857834537697953
4106000000.0 0.5445979366428668 -0.934963182132757
4109000000.0 0.5545525365113649 -0.8851076829804663
4112000000.0 0.5727490067504183 -0.9105739560242543
4115999999.9999995 0.5375326929781777 -0.8619839384069384
4119000000.0 0.5322958312462748 -0.9261072128010053
4122000000.0 0.4985932335499096 -0.9246436995227942
4125000000.0 0.5618011272785014 -0.9219811196579447
4128000000.0 0.5311006880278806 -0.8312944907201877
4131000000.0 0.5577146036326756 -0.8849921904695338
4134000000.0000005 0.5647616633163486 -0.8803619658928677
4138000000.0 0.5040379816033194 -0.8648959429838673
4141000000.0 0.5239516448843091 -0.8689826878650185
4144000000.0 0.5651603289811493 -0.8727489854569185
4147000000.0000005 0.5297440724195622 -0.8521492247334573
4150000000.0000005 0.5384177169253954 -0.9301590000192179
4152999999.9999995 0.5384928343766665 -0.8948477865648875
4155999999.9999995 0.5678454262186079 -0.8778473833840399
4159000000.0 0.5574936633462704 -0.851728258704723
4162000000.0 0.5221120177234381 -0.8828704453353828
4166000000.0000005 0.537556969576663 -0.9061959295831792
4168999999.9999995 0.5454128939108901 -0.8747909995075497
4171999999.9999995 0.556635486335865 -0.8836042638844841
4175000000.0 0.5636949598284345 -0.8788389650334001
4178000000.0 0.5719322003441755 -0.8710861055227381
4181000000.0 0.49386986949496137 -0.8745788115509505
4184000000.0 0.5600851091461869 -0.8564673588628496
4187999999.9999995 0.5256058669671813 -0.8888022947106439
4191000000.0 0.5733082094158345 -0.8312629048169162
4194000000.0 0.5220411613594595 -0.8525929307239499
4197000000.0 0.561198738964157 -0.8772586411595016
4200000000.0 0.548828863812971 -0.8738081359545228
4203000000.0000005 0.5672456948277549 -0.8667188014616274
4206000000.0000005 0.5460224258982314 -0.8737180799163556
4208999999.9999995 0.5309626834292388 -0.8486309528074863
4211999999.9999995 0.517024631421542 -0.8739500505307523
4216000000.0 0.5405500124701407 -0.8617244654766275
4219000000.0000005 0.5474697069185809 -0.8604955922058444
4222000000.0000005 0.5403939207501034 -0.884011361702405
4224999999.9999995 0.5544396337871721 -0.8497859225891623
4227999999.9999995 0.5581257200885701 -0.8626159140817611
4231000000.0 0.5390318360370031 -0.8723305124672426
4234000000.0 0.5422917591111238 -0.8734533063689404
4238000000.0000005 0.5216407664744216 -0.8587048924664222
4240999999.9999995 0.5199625836612791 -0.8737719542133314
4244000000.0 0.5706128063871723 -0.8606295964074392
4247000000.0 0.551624692191183 -0.8591185158428726
4250000000.0 0.5193479227586937 -0.8568779926622313
4253000000.0 0.5291004769233503 -0.845075917564777
4256000000.0 0.5434370242166968 -0.8784250404900633
4259000000.0000005 0.5337676931582459 -0.8524268582814142
4261999999.9999995 0.5341025860712674 -0.8696719393963736
4266000000.0 0.5333754063634484 -0.8951588559678341
4269000000.0 0.5701541217920667 -0.8776861230859901
4272000000.0000005 0.5445423110681026 -0.8443572516771789
4275000000.0000005 0.5696712631229941 -0.8568042062252437
4277999999.9999995 0.5523906625832127 -0.8766316701029953
4280999999.9999995 0.5568936658753671 -0.8588679768918888
4284000000.0 0.5413253424728525 -0.8994100513021724
4288000000.0000005 0.5791975080430216 -0.8626339759107091
4291000000.0000005 0.5291144546785235 -0.8495017757898905
4293999999.9999995 0.5334820686089893 -0.8608791999862448
4297000000.0 0.5560896161514463 -0.8189154197865672
4300000000.0 0.5371766077709172 -0.850835202810118
4303000000.0 0.5249271070902974 -0.8617925725604428
4306000000.0 0.5622150472030735 -0.8680693804709118
4309000000.0 0.5304370489972757 -0.8605855718453681
4312000000.0 0.5617134639026143 -0.8592685107313393
4316000000.0 0.5738149919279695 -0.8733181615479695
4319000000.0 0.5440969356149772 -0.8368593650752602
4322000000.0 0.5177747104620997 -0.8627447462477175
4325000000.0 0.5588205573341215 -0.8569977445532612
4328000000.0 0.5293276932546276 -0.8670285696811681
4331000000.0 0.5094912957579462 -0.8693373952017669
4334000000.0 0.5394108191322858 -0.8652991893697473
4338000000.0 0.5534218999872642 -0.8300501883783872
4341000000.0 0.5533717995757942 -0.8566528766223699
4344000000.0 0.57003728561089 -0.899672110317166
4347000000.0 0.5212956112188883 -0.8975681324984769
4350000000.0 0.5122321575055447 -0.8379448410122796
4353000000.0 0.5256904715465563 -0.830714052420889
4356000000.0 0.5244149722389628 -0.8747758807233619
4359000000.0 0.5177530619803782 -0.8400797128925122
4362000000.0 0.5153099430027491 -0.9029394871053696
4366000000.0 0.5404229424090687 -0.8903260682735861
4369000000.0 0.49997926964231376 -0.8292709862785059
4372000000.0 0.49309825558072423 -0.8611710105902909
4375000000.0 0.5446931924348143 -0.8535316328592714
4378000000.0 0.5346416568672206 -0.8476434382207532
4381000000.0 0.5309567833756781 -0.8502933032205546
4384000000.0 0.5588932041331306 -0.9399119927639049
4388000000.0 0.5422197466949786 -0.8386675460874196
4391000000.0 0.5479114837222614 -0.8648261556682368
4394000000.0 0.5019381310074096 -0.8455981652013588
4397000000.0 0.527467781559868 -0.8683321950498138
4400000000.0 0.5429393498615037 -0.8953541172258765
4403000000.0 0.5422448085812548 -0.8664754140486898
4406000000.0 0.514214957252644 -0.8820236151788108
4409000000.0 0.5493026894641265 -0.8897319203540333
4412000000.0 0.47368591901447843 -0.89562295999031
4416000000.0 0.5138193795857072 -0.8592276273348606
4419000000.0 0.5128361302337519 -0.8872092941378455
4422000000.0 0.5372914494646113 -0.8636433678566267
4425000000.0 0.5567512851596019 -0.8737480834490154
4428000000.0 0.5174666807942909 -0.8772218750166025
4431000000.0 0.5369752973337811 -0.8880156103282779
4434000000.0 0.5022980397457981 -0.8670245029600527
4438000000.0 0.5419116443535159 -0.8912830718055805
4441000000.0 0.5435626785697726 -0.8752310536865793
4444000000.0 0.514426638953346 -0.8487652819058173
4447000000.0 0.5119822423979534 -0.8783388310164606
4450000000.0 0.5271387044112057 -0.8528965800630156
4453000000.0 0.5267356293250071 -0.8864982871201889
4456000000.0 0.5046543908398033 -0.8669120539359253
4459000000.0 0.4891316021189306 -0.8314721533328026
4462000000.0 0.5450792636690879 -0.9214887776169393
4466000000.0 0.5388176711983537 -0.9177255633197892
4469000000.0 0.5362220796367144 -0.8653321286255755
4472000000.0 0.5143479333869504 -0.8955042492504881
4475000000.0 0.5012210995660673 -0.860217813608738
4478000000.0 0.5345547470521126 -0.9128799187527326
4481000000.0 0.48535061688731906 -0.8660928168009674
4484000000.0 0.47691475803850375 -0.8850566727753824
4488000000.0 0.4983700409357148 -0.8790503645218002
4491000000.0 0.5087085845257919 -0.8866203507429101
4494000000.0 0.5276646992754394 -0.8342778782494698
4497000000.0 0.5218278926604687 -0.8543674056994022
4500000000.0 0.5153205879974099 -0.8767649276690606
4503000000.0 0.5397655130391901 -0.9038843294117864
4506000000.0 0.5107474369889411 -0.8828714778627289
4509000000.0 0.5150822411035774 -0.8536089516091869
4512000000.0 0.4914340865353815 -0.8644175548301456
4516000000.0 0.5338876991947477 -0.8967678033035738
4519000000.0 0.5157544291679592 -0.8384225175527465
4522000000.0 0.4894880083655811 -0.8726501630033229
4525000000.0 0.5525063938234744 -0.8546782033116849
4528000000.0 0.5252200937343264 -0.907737537833126
4531000000.0 0.5130843533238463 -0.8742405385483996
4534000000.0 0.49952591541986213 -0.8558227831862031
4538000000.0 0.4876387205629985 -0.857081997696254
4541000000.0 0.4645680570260671 -0.881405251319505
4544000000.0 0.491961284813871 -0.8514606493657391
4547000000.0 0.5235543159223259 -0.8585795232597804
4550000000.0 0.4963055621577144 -0.8977381402675053
4553000000.0 0.4959107066205551 -0.8836684550189036
4556000000.0 0.49296402848523946 -0.8811782542749631
4559000000.0 0.5046169465030678 -0.8786525935567391
4562000000.0 0.517533451416907 -0.8827913485255489
4566000000.0 0.5010155732994963 -0.8755995891306274
4569000000.0 0.4948051156155352 -0.8638447335269277
4572000000.0 0.5090653346422569 -0.8944032889114162
4575000000.0 0.4765716698354 -0.908191446929052
4578000000.0 0.5200535582252215 -0.8938350530623194
4581000000.0 0.5038962416140866 -0.89324795377337
4584000000.0 0.5016047716242712 -0.8802412287871887
4588000000.0 0.5316785808829289 -0.9008073639605718
4591000000.0 0.5003490590062738 -0.8761830251964622
4594000000.0 0.4953225470066782 -0.8922997688849424
4597000000.0 0.5033052454790692 -0.9019062720717667
4600000000.0 0.47039816068352186 -0.8803017131965372
4603000000.0 0.49284117699621766 -0.8933988386055409
4606000000.0 0.5100383065143054 -0.8798036496460069
4609000000.0 0.5013859889386105 -0.88483862744885
4612000000.0 0.5150032583464115 -0.9007675040252731
4616000000.0 0.5029038854767792 -0.8800268962522131
4619000000.0 0.506835709283148 -0.875468371480172
4622000000.0 0.5075782141414593 -0.893476368273561
4625000000.0 0.46195894592625003 -0.8602656447227484
4628000000.0 0.5036776268540102 -0.8690276589000492
4631000000.0 0.4761761696223177 -0.8813492058828395
4634000000.0 0.49411030836405045 -0.8843735426070181
4638000000.0 0.49543224953329906 -0.9048898948346769
4641000000.0 0.5058623605950463 -0.8858882374863247
4644000000.0 0.4678109805700329 -0.8837090876553798
4647000000.0 0.4950418723818873 -0.8901157914387697
4650000000.0 0.47460053616536557 -0.8966608584282375
4653000000.0 0.5037868267885571 -0.8925587477399822
4656000000.0 0.47584036636570115 -0.8855785619959249
4659000000.0 0.5042850106663262 -0.8816875739637884
4662000000.0 0.47330553042657225 -0.9047240199152088
4666000000.0 0.4805642349595657 -0.8872744729406896
4669000000.0 0.5072200472201859 -0.8819185866016096
4672000000.0 0.4856608316735013 -0.924702038706958
4675000000.0 0.4797704756498574 -0.9106606580142373
4678000000.0 0.4728718078167738 -0.8950915929165352
4681000000.0 0.4704707219521198 -0.9228630009465033
4684000000.0 0.43837766275529855 -0.9003637426190554
4688000000.0 0.4733797059383309 -0.8790920890113522
4691000000.0 0.5044452999454133 -0.8977488569847331
4694000000.0 0.4902804073973658 -0.8721903936334932
4697000000.0 0.45103153715834876 -0.8691693624048339
4700000000.0 0.5001602124760126 -0.8754756700390922
4703000000.0 0.5068077609843984 -0.8399055378533046
4706000000.0 0.47652738006297013 -0.8794146375955988
4709000000.0 0.473885595511726 -0.9041004975022621
4712000000.0 0.49375239783932307 -0.9069127984185104
4716000000.0 0.46572184698269675 -0.9236208113388961
4719000000.0 0.4878366837608862 -0.8823786441221924
4722000000.0 0.5110982412461486 -0.9098312639029323
4725000000.0 0.4913866459758252 -0.9152748706151003
4728000000.0 0.46850708631831117 -0.8858143750582522
4731000000.0 0.521414484549019 -0.9139512566860238
4734000000.0 0.46937398150534343 -0.8749354588123416
4738000000.0 0.5340395233241593 -0.9084970897390094
4741000000.0 0.46213632095139695 -0.9622190896218205
4744000000.0 0.4664429391919863 -0.9055535916985263
4747000000.0 0.49352141038191855 -0.868830004461717
4750000000.0 0.4852063994117637 -0.8855449725668703
4753000000.0 0.5030791362936523 -0.8890825714670553
4756000000.0 0.5000447419084475 -0.9069052554870644
4759000000.0 0.4759768807013842 -0.9131747006945442
4762000000.0 0.4618030720885191 -0.9205360070604798
4766000000.0 0.47524993608533583 -0.8959631148614862
4769000000.0 0.49653408720616204 -0.9276006524981436
4772000000.0 0.5035550356752212 -0.9230281055345446
4775000000.0 0.5011965487357967 -0.9548300329423415
4778000000.0 0.48438903389943855 -0.9147732471673751
4781000000.0 0.47610943633669456 -0.9094484572865354
4784000000.0 0.49527276673355236 -0.8782046988480638
4788000000.0 0.4869753741582502 -0.9349577901637449
4791000000.0 0.4699723461641332 -0.9273784923577246
4794000000.0 0.4902475728747291 -0.9060937368019186
4797000000.0 0.4627047196181752 -0.8924458964565097
4800000000.0 0.46100395977277825 -0.899730776004933
4803000000.0 0.4321430961923927 -0.914164864680824
4806000000.0 0.4924890181324671 -0.9343050721371869
4809000000.0 0.4397589903869219 -0.9384534143812279
4812000000.0 0.4317882162898388 -0.9066376707482341
4816000000.0 0.494695637246117 -0.890807741299898
4819000000.0 0.5092060052975462 -0.9323031817220863
4822000000.0 0.5008547300680122 -0.9281511557040927
4825000000.0 0.5158034603622473 -0.9180482627559585
4828000000.0 0.4698194547954528 -0.9170360796016208
4831000000.0 0.46521673610392666 -0.9528150029767064
4834000000.0 0.4965013803182503 -0.8999733054251657
4838000000.0 0.479000925859427 -0.9287754095494197
4841000000.0 0.4664598051062295 -0.8987669993074263
4844000000.0 0.5062327477367975 -0.8796265682185072
4847000000.0 0.4886365958630311 -0.8787287441568945
4850000000.0 0.4916809867741496 -0.9378487325419577
4853000000.0 0.4708018525567154 -0.8955105125724454
4856000000.0 0.4720324440548793 -0.8985564454552674
4859000000.0 0.4910656989691932 -0.943463860144627
4862000000.0 0.498004733597431 -0.8937318514859989
4866000000.0 0.47497890004718174 -0.9350253930606234
4869000000.0 0.471849034514915 -0.9307217079360727
4872000000.0 0.4602287971080412 -0.954281884743433
4875000000.0 0.5515792753556452 -0.9391588521937579
4878000000.0 0.48781171496817244 -0.9019527527594209
4881000000.0 0.4823486756196524 -0.9776064448876873
4884000000.0 0.5112881632032311 -0.8948852296380276
4888000000.0 0.538328789592942 -0.8924379140893051
4891000000.0 0.5262648943285739 -0.9080472204372007
4894000000.0 0.487231684690214 -0.8994232428384552
4897000000.0 0.5104958280371171 -0.9042143873860017
4900000000.0 0.5213552710412649 -0.9063928226694579
4903000000.0 0.5029146510858846 -0.91384517674685
4906000000.0 0.5106948760800024 -0.9502657921651113
4909000000.0 0.4704886085395915 -0.93881993346227
4912000000.0 0.5066241748674915 -0.9612199473505699
4916000000.0 0.5530066984978748 -0.9426110546512143
4919000000.0 0.5309495150542398 -0.9258062409432293
4922000000.0 0.5119106769291742 -0.9022136873270125
4925000000.0 0.46407549165356643 -0.9289266728816594
4928000000.0 0.5301869769007764 -0.8836825377017302
4931000000.0 0.5281769222107863 -0.931602740292934
4934000000.0 0.4435167631844719 -0.851744625529045
4938000000.0 0.4686947564008124 -0.8939811600418073
4941000000.0 0.5025911557705794 -0.9011290194277195
4944000000.0 0.4926950813634514 -0.8554291802371852
4947000000.0 0.4652053283384618 -0.9001498593420523
4950000000.0 0.49287935364658786 -0.8862968873645151
4953000000.0 0.4745983696650806 -0.9577584552838965
4956000000.0 0.46203006503908306 -0.9520474803516933
4959000000.0 0.4631539466817818 -0.9137647684610425
4962000000.0 0.5150710129047976 -0.937007883798142
4966000000.0 0.5210589985105789 -0.9354330353268291
4969000000.0 0.5439203791594216 -0.9450087054861906
4972000000.0 0.4962365475130154 -0.9520137822932281
4975000000.0 0.49282777501143715 -0.8908604035494881
4978000000.0 0.5136260605626091 -0.9242826778973534
4981000000.0 0.48958518658918454 -0.9081456730753403
4984000000.0 0.5187143857574333 -0.886409914829918
4988000000.0 0.5279272087268542 -0.8659614707937228
4991000000.0 0.5558770101601926 -0.9188360932722197
4994000000.0 0.5133666053148798 -0.886980356917338
4997000000.0 0.44877887061714417 -0.9409057895624051
5000000000.0 0.5396212202616077 -0.9489407641880079
5003000000.0 0.5129775469161135 -0.9349905396462648
5006000000.0 0.518125976200464 -0.9667423562555078
5009000000.0 0.5131852031967133 -0.8921300679233111
5012000000.0 0.482133960259334 -0.9272296384359362
5016000000.0 0.5419206610120868 -0.9266846242189705
5019000000.0 0.48686375919869007 -0.9209626350705443
5022000000.0 0.5115252239436276 -0.86706471344441
5025000000.0 0.5612846737890755 -0.9604591410516643
5028000000.0 0.49884462768967774 -0.9095372521024694
5031000000.0 0.4926222076594833 -0.9126642127677216
5034000000.0 0.5072030239284157 -0.975993559132958
5038000000.0 0.4733149107876464 -0.9038255505894991
5041000000.0 0.5300961334487718 -0.8863168920103329
5044000000.0 0.5405170875262768 -0.8663860856774002
5047000000.0 0.5115651349504482 -0.943839479639516
5050000000.0 0.586480990670253 -0.8204287534999171
5053000000.0 0.5338262505943914 -0.9522855569347886
5056000000.0 0.5298623997588128 -0.8789556474719742
5059000000.0 0.5091627001491158 -0.8985203184935276
5062000000.0 0.49965365769079984 -0.9231964298911819
5066000000.0 0.5657122217479338 -0.8948487408874837
5069000000.0 0.5238826959877634 -0.9191536624854693
5072000000.0 0.5096857772512801 -0.8804500446968904
5075000000.0 0.5297971811134978 -0.8549166564355486
5078000000.0 0.5118701162127319 -0.9654596995725032
5081000000.0 0.5138739244177877 -0.9150233268532988
5084000000.0 0.5230426469271565 -0.9309337187278581
5088000000.0 0.5492206093718612 -0.9264450636974655
5091000000.0 0.5092222081390252 -0.9246290768723013
5094000000.0 0.47373998848137544 -0.9642946107692276
5097000000.0 0.6034709724587679 -0.8371685642685717
5100000000.0 0.538103948044756 -0.9239983244354937
5103000000.0 0.5331623024671823 -0.9198817083634396
5106000000.0 0.5359898561133756 -0.9194943721273878
5109000000.0 0.5624196135584447 -0.8646335186977095
5112000000.0 0.5133174869315237 -0.9166364822892338
5116000000.0 0.5036681126620314 -0.8819975795465635
5119000000.0 0.5817170242610428 -0.8948229736429352
5122000000.0 0.5179801197470788 -0.867512979970051
5125000000.0 0.5430771954998296 -0.8989515005058023
5128000000.0 0.5021105604289826 -0.8865566930930836
5131000000.0 0.567368739844295 -0.897327987328348
5134000000.0 0.5379019135771981 -0.8737482003180204
5138000000.0 0.5617373477607733 -0.8540683552915186
5141000000.0 0.5586507653547417 -0.8623294690293213
5144000000.0 0.560804868939329 -0.8975211776648553
5147000000.0 0.5198447775289643 -0.9470670878487314
5150000000.0 0.5746572051832071 -0.8943348885715239
5153000000.0 0.547101615213405 -0.9390607159053909
5156000000.0 0.5255122503864457 -0.8862432441732686
5159000000.0 0.5771473434884165 -0.9459384526321903
5162000000.0 0.507111706711628 -0.9192701292612675
5166000000.0 0.5592614287804066 -0.9056813545748579
5169000000.0 0.5402252417087648 -0.8982217392881253
5172000000.0 0.5574057309714517 -0.8758962378851033
5175000000.0 0.5480495757790091 -0.9181758435064981
5178000000.0 0.5081369881727189 -0.8906353536050269
