! Created with skrf 1.8.0 (http://scikit-rf.org).
# Hz S RI R 50.0 
!freq ReS11 ImS11
4000000000.0 0.40671225551503487 -0.8996898667423163
4003000000.0 0.4426311922317352 -0.9702534788339053
4006000000.0 0.39722887779877114 -0.9384367058945253
4009000000.0000005 0.46359043661588073 -0.9475856234494915
4011999999.9999995 0.4839317631406956 -0.9065309622817874
4016000000.0 0.40049295805726104 -0.9880171860608323
4019000000.0 0.42571098050045186 -0.9509872314966713
4022000000.0000005 0.5211350244753354 -0.9271335339819151
4025000000.0000005 0.3902060452776577 -0.9871468398534722
4027999999.9999995 0.4358493984748524 -0.9384894259194387
4030999999.9999995 0.3949103900276414 -0.9218818750605884
4034000000.0 0.42488295486016103 -0.9100367661276733
4038000000.0000005 0.4407297781991939 -0.9535876048346367
4041000000.0000005 0.4564034701991291 -0.9257848073467383
4043999999.9999995 0.469771133833057 -0.9730635341173606
4046999999.9999995 0.47164673481796365 -0.9974112079081446
4050000000.0 0.4183155965463287 -0.9695505571478837
4053000000.0 0.40613600970191693 -0.9381035024826901
4056000000.0 0.43864017490861684 -0.9225803355255058
4059000000.0 0.4232320690761209 -0.9189355584580531
4062000000.0000005 0.4098773813881126 -0.9658942732903805
4066000000.0 0.4096799420752678 -0.8873934209429971
4069000000.0 0.4135115709385667 -1.0183460527583288
4072000000.0 0.4220850901007342 -0.9142285352638574
4075000000.0 0.5011249921821371 -0.9657655136252752
4078000000.0000005 0.42896505887085157 -0.9360009325813142
4081000000.0000005 0.48091838916560326 -0.9483232938364978
4083999999.9999995 0.4302495701946806 -0.9518324208382734
4088000000.0 0.44661590956545755 -0.9633748715242083
4091000000.0 0.45825900343053894 -0.9732354288982814
4094000000.0000005 0.41195406870747947 -0.9465864620572488
4097000000.0000005 0.4109776251476254 -0.9509965432994903
4099999999.9999995 0.4407515081702024 -0.9242617829378919
4102999999.9999995 0.46197833057818216 -0.9297857554367706
4106000000.0 0.4443433870445533 -0.9157525844176658
4109000000.0 0.4000233725120548 -0.9200516907489384
4112000000.0 0.45859976230603616 -0.9137962478339272
4115999999.9999995 0.41888440618027784 -0.9442244606239537
4119000000.0 0.3968973935601792 -0.96425561926757
4122000000.0 0.4034290620334459 -0.932826337904089
4125000000.0 0.4205295232571099 -0.9595648095691146
4128000000.0 0.4358969519141903 -0.9140998785595997
4131000000.0 0.4097648802298182 -0.9241565928348265
4134000000.0000005 0.4332394273046054 -0.9121401479087466
4138000000.0 0.38608396037201304 -0.9522640476726266
4141000000.0 0.4196694301409847 -0.9005577832095985
4144000000.0 0.4280742251551946 -0.9472601344460572
4147000000.0000005 0.4238473394604444 -0.9157640040154125
4150000000.0000005 0.4296354261586671 -0.975764270926051
4152999999.9999995 0.41256155930920574 -0.9418787991154597
4155999999.9999995 0.4322208100390532 -0.9619254122482627
4159000000.0 0.40497864981947906 -0.9306638767042511
4162000000.0 0.4207035184304095 -0.9201785303894512
4166000000.0000005 0.42364952814042095 -0.9415712341383986
4168999999.9999995 0.4036083103617615 -0.9324646505338863
4171999999.9999995 0.4096808826212609 -0.9528750688774461
4175000000.0 0.4150659087692679 -0.9319354031527494
4178000000.0 0.4323747885336846 -0.942681318008405
4181000000.0 0.4154359905110343 -0.9515965447822218
4184000000.0 0.4190356786770201 -0.9376393238026032
4187999999.9999995 0.4102020431335698 -0.9222764531412937
4191000000.0 0.42848962953518865 -0.9222065540955632
4194000000.0 0.3986929414627478 -0.8932753421162508
4197000000.0 0.42221278806995893 -0.9315174111164465
4200000000.0 0.43363354042114877 -0.9447822626891085
4203000000.0000005 0.4603661572600394 -0.9432541166510645
4206000000.0000005 0.4016780971169238 -0.9542363928933496
4208999999.9999995 0.4021965382874151 -0.9272033849019469
4211999999.9999995 0.38896682040920527 -0.9331210336027561
4216000000.0 0.43652379661879054 -0.9374304777959437
4219000000.0000005 0.42727162431881105 -0.9566591567373599
4222000000.0000005 0.4110043248184986 -0.9432318543665899
4224999999.9999995 0.4020961100904563 -0.9116410431276657
4227999999.9999995 0.40108843248888193 -0.9412801948029158
4231000000.0 0.4021907344156817 -0.9376904467620708
4234000000.0 0.3944606972293107 -0.9486334581614648
4238000000.0000005 0.39365408466971274 -0.9398002125444916
4240999999.9999995 0.36642488431372294 -0.9337530684208201
4244000000.0 0.3993597336134893 -0.9317308232434847
4247000000.0 0.40114348186950144 -0.9262831651597194
4250000000.0 0.37952788163750856 -0.9113484183472416
4253000000.0 0.38814139442166046 -0.9215914188270563
4256000000.0 0.4109850224902649 -0.9871129322526115
4259000000.0000005 0.37905767163674603 -0.9137679954820622
4261999999.9999995 0.3856711944334251 -0.9330918368529086
4266000000.0 0.38951987718517883 -0.9486220218427506
4269000000.0 0.4011532466489782 -0.9228650435421326
4272000000.0000005 0.3768701593890868 -0.9189942380718522
4275000000.0000005 0.40462825819858567 -0.95216514467376
4277999999.9999995 0.40746227333374563 -0.9559024681496395
4280999999.9999995 0.4049770229110529 -0.9289568571708287
4284000000.0 0.3495034478854423 -0.9687184110564139
4288000000.0000005 0.4357351286010667 -0.918140383663856
4291000000.0000005 0.3796950682646153 -0.901821782066251
4293999999.9999995 0.3803330365295856 -0.90951605752074
4297000000.0 0.42301554680272213 -0.9049322164397019
4300000000.0 0.3977353513218451 -0.9279949473601216
4303000000.0 0.36305944674555723 -0.9293406496905974
4306000000.0 0.4226586571386953 -0.9319711824277431
4309000000.0 0.40471104855948603 -0.9319826694281961
4312000000.0 0.4177098382913995 -0.9422549835373625
4316000000.0 0.40006360358393467 -0.9206807150594242
4319000000.0 0.3769333549587125 -0.9192529857570211
4322000000.0 0.35115071238182627 -0.913646270004822
4325000000.0 0.38620758414158535 -0.9522541493353083
4328000000.0 0.3848532214540753 -0.9345540902879087
4331000000.0 0.3721524751609844 -0.9581730649738831
4334000000.0 0.3846841152654642 -0.9450122377078762
4338000000.0 0.3908358909033381 -0.9296336813515875
4341000000.0 0.4331055469424659 -0.95144116412981
4344000000.0 0.41206689007689223 -0.9418273289334791
4347000000.0 0.3653763191378462 -0.9704130404114126
4350000000.0 0.3464811890163585 -0.8971268268897059
4353000000.0 0.4042922870202265 -0.9148660935453081
4356000000.0 0.3416118692892753 -0.958852109051393
4359000000.0 0.360644926426137 -0.9006573577401805
4362000000.0 0.32987006991758167 -0.9608806866701711
4366000000.0 0.36919422551575365 -0.9652046820156355
4369000000.0 0.36850231305694847 -0.926826852750965
4372000000.0 0.32269310144089214 -0.951459406360037
4375000000.0 0.39116081855678225 -0.9168917138450585
4378000000.0 0.35711368555313805 -0.909416870694464
4381000000.0 0.37564319449008715 -0.9164409624365055
4384000000.0 0.38227938377077936 -1.0092270021799095
4388000000.0 0.3802308149833847 -0.9207016888374223
4391000000.0 0.37152092225767486 -0.9438696902325627
4394000000.0 0.3498216791173074 -0.9234309356302196
4397000000.0 0.36570291330049315 -0.9462122695850876
4400000000.0 0.36174731511186625 -0.9570607354639209
4403000000.0 0.36183951755237315 -0.9553759117273177
4406000000.0 0.3546169244720034 -0.9507020911744822
4409000000.0 0.3649597173572097 -0.9679508396214906
4412000000.0 0.3003836774249408 -0.9641517013202732
4416000000.0 0.339706587776981 -0.9408582692988922
4419000000.0 0.32867743189637316 -0.9580677342077408
4422000000.0 0.36831894244220453 -0.9295821024279838
4425000000.0 0.3809642367486451 -0.9488413586982889
4428000000.0 0.3433120875810124 -0.955722720112189
4431000000.0 0.3579222950185692 -0.9602372144475197
4434000000.0 0.3441264570669362 -0.9416891896286808
4438000000.0 0.3524302431027175 -0.9644418535959771
4441000000.0 0.36360773948146474 -0.9626565033846889
4444000000.0 0.3403182701059748 -0.9346975888565616
4447000000.0 0.3234029801338325 -0.9514436848544293
4450000000.0 0.3529612353711323 -0.9266293603509914
4453000000.0 0.35843758833883965 -0.9778008185776619
4456000000.0 0.3289505406142991 -0.9287796280411642
4459000000.0 0.3136897743261753 -0.9260287634539796
4462000000.0 0.36689306463225085 -1.0170602744369495
4466000000.0 0.35588207001669464 -0.9989743632069452
4469000000.0 0.34289321462571576 -0.9525966735525462
4472000000.0 0.34226129892785906 -0.971907605349811
4475000000.0 0.3304122972588958 -0.9303303558543943
4478000000.0 0.3341432255206588 -1.0006182638414234
4481000000.0 0.32656122650267944 -0.9293587500947667
4484000000.0 0.2831300030347322 -0.9701871355516767
4488000000.0 0.3080420567961648 -0.9559005944902574
4491000000.0 0.32333939556356894 -0.9460500985979863
4494000000.0 0.32584761119574196 -0.9562540232347461
4497000000.0 0.3137042714981177 -0.9416340537715009
4500000000.0 0.3290250367215783 -0.9429420694249635
4503000000.0 0.3391107721781184 -0.9761087542716527
4506000000.0 0.3116128965872142 -0.9593536327187259
4509000000.0 0.292116069690819 -0.9469132362948502
4512000000.0 0.29543447183994154 -0.9458749332452614
4516000000.0 0.31748968983365355 -0.9723264333897179
4519000000.0 0.31673241028979426 -0.9318677910589441
4522000000.0 0.32519912366130005 -0.9458205247920157
4525000000.0 0.3499426238179706 -0.9506207729145054
4528000000.0 0.3186382126466064 -0.9659219994405144
4531000000.0 0.3221960939168945 -0.9549258989479157
4534000000.0 0.30194710324850244 -0.9616401768459437
4538000000.0 0.311432085364039 -0.9640113333012029
4541000000.0 0.2687907425669073 -0.9491778237227462
4544000000.0 0.31334155424111965 -0.9424389092852485
4547000000.0 0.30292125210645043 -0.9489638522945854
4550000000.0 0.2818161887335534 -0.9790832890031008
4553000000.0 0.2984533771996653 -0.977383101992972
4556000000.0 0.30288380684970395 -0.9483283734112771
4559000000.0 0.30968691940435744 -0.994391551381918
4562000000.0 0.302521935876436 -0.9748390691347062
4566000000.0 0.29475780376428656 -0.9886584838486957
4569000000.0 0.29602955633357425 -0.9590109522145027
4572000000.0 0.28114642799043915 -0.9682223420634772
4575000000.0 0.2598027914212893 -0.9855405750523172
4578000000.0 0.2975792050377798 -0.9825010464519045
4581000000.0 0.31000210276340495 -0.9822818000736655
4584000000.0 0.27878646599201 -0.9617438981415862
4588000000.0 0.29191327620945356 -0.9848883837991776
4591000000.0 0.292975194179636 -0.9754645791956258
4594000000.0 0.24750949861416977 -0.980789488649319
4597000000.0 0.2776397383771671 -0.9850165718077702
4600000000.0 0.2806931021268581 -0.9765391356470333
4603000000.0 0.2658977921314847 -0.9652571424591433
4606000000.0 0.28583198819214817 -1.0134892595926248
4609000000.0 0.2827883791946446 -0.9825197374652511
4612000000.0 0.2661406822750839 -0.9898004041065134
4616000000.0 0.25765185115072314 -0.9695365959202473
4619000000.0 0.2569770914475683 -0.9671832697635038
4622000000.0 0.2537574198773734 -0.9945616637745115
4625000000.0 0.23914585766154337 -0.9775331905412492
4628000000.0 0.2779993182256579 -0.9753598587252841
4631000000.0 0.27494695092098126 -0.9819088271616345
4634000000.0 0.23809043297673857 -0.9963576770141731
4638000000.0 0.2832942565628211 -0.9915423290443397
4641000000.0 0.2540707300312987 -0.980972465863842
4644000000.0 0.27109150028693707 -0.9730268513716148
4647000000.0 0.2548404865381092 -0.9727958639798509
4650000000.0 0.23249721308414623 -0.9722037278944675
4653000000.0 0.2896347712545594 -0.9803269034199746
4656000000.0 0.2452277573290353 -0.9848440382734533
4659000000.0 0.24521407565453507 -0.9803954672738928
4662000000.0 0.2287152391453642 -0.9977394434464826
4666000000.0 0.22211765467763117 -0.9834577259226994
4669000000.0 0.26332606860354224 -0.983022604749012
4672000000.0 0.2420523140447267 -1.0144507130985272
4675000000.0 0.2272007700951099 -0.9832063821463292
4678000000.0 0.21862329137494957 -0.9925313333690606
4681000000.0 0.22318080166020066 -0.9925081269287963
4684000000.0 0.22031453678969506 -1.0109110157737435
4688000000.0 0.19197498602811747 -0.991349178576361
4691000000.0 0.26058106804894515 -1.0022784035700738
4694000000.0 0.2594351666529007 -0.9629203738896267
4697000000.0 0.1966670466235652 -0.9569445403195466
4700000000.0 0.2552091771192024 -0.9815861571385681
4703000000.0 0.24667462260088865 -0.9368723807895508
4706000000.0 0.22072328531673652 -1.010759700587884
4709000000.0 0.2443720845944457 -1.0043115726909793
4712000000.0 0.2485487382052631 -1.0011382141928704
4716000000.0 0.23642480293872384 -1.0249040494725752
4719000000.0 0.26798146784636356 -1.0006643419022685
4722000000.0 0.24544509497145828 -0.9887332557576579
4725000000.0 0.26654625629086326 -0.980205184787138
4728000000.0 0.2186207588444496 -0.9944139300635138
4731000000.0 0.23130228519206747 -1.030947198144677
4734000000.0 0.26705945532788194 -0.9993608629902323
4738000000.0 0.2776082662399184 -1.007779659384493
4741000000.0 0.23119111525847444 -1.0212165473996968
4744000000.0 0.19216431005275086 -1.019832278794749
4747000000.0 0.24467188256058087 -0.9818430923113375
4750000000.0 0.23728127998159376 -1.008587793769673
4753000000.0 0.23786338790436454 -1.016909817760454
4756000000.0 0.2557155050066456 -1.027889761097328
4759000000.0 0.25729432697036125 -1.0006355181732378
4762000000.0 0.21448814461587806 -1.0331263318713928
4766000000.0 0.19993009782450244 -1.0191346806758483
4769000000.0 0.21074387827885954 -1.017772118444178
4772000000.0 0.20759090780804412 -0.9887553641886897
4775000000.0 0.18357251059979876 -1.044972768647871
4778000000.0 0.18644807879118 -1.0179339744929834
4781000000.0 0.23078063479942504 -0.9846900679478462
4784000000.0 0.24198764034981554 -1.0062501029990865
4788000000.0 0.18903112771108715 -1.0130494927098526
4791000000.0 0.21511498720312927 -1.0048673018444225
4794000000.0 0.22636972587459364 -1.0372221787154197
4797000000.0 0.21461365333219007 -0.9677493926247536
4800000000.0 0.17893076164688076 -0.9946085932051637
4803000000.0 0.16098207787918067 -1.0080168224156607
4806000000.0 0.17958270991530004 -1.0275612003298136
4809000000.0 0.152465308025367 -1.0273123939636741
4812000000.0 0.15943556457388022 -0.9992443588604129
4816000000.0 0.1998815897757156 -0.9987195345756907
4819000000.0 0.1869390413607742 -1.036816308566567
4822000000.0 0.2061741771645238 -1.037439428519753
4825000000.0 0.2459294548805633 -1.005444998610379
4828000000.0 0.18169663739555658 -0.9964226522155495
4831000000.0 0.16348491545879112 -1.0522164154849263
4834000000.0 0.19697594239085642 -1.0187629749482408
4838000000.0 0.16596778244592206 -1.0229178093317606
4841000000.0 0.17614816552474252 -1.0029900207282063
4844000000.0 0.22422908420247634 -1.002712541512433
4847000000.0 0.20560086913267572 -0.9818893812901316
4850000000.0 0.16575045482759934 -1.0518716188337893
4853000000.0 0.1574649523005056 -0.9898688320067924
4856000000.0 0.17711459414365543 -0.9979700997963689
4859000000.0 0.1523322721774312 -1.0714484930155022
4862000000.0 0.2000937627258259 -0.9867070922402241
4866000000.0 0.17082049535067337 -1.049856028805197
4869000000.0 0.16706590589101925 -1.0212386302937833
4872000000.0 0.16731034385660434 -1.0621758010410116
4875000000.0 0.24090756656517204 -1.073849711162412
4878000000.0 0.1852180006296485 -1.0466140147642182
4881000000.0 0.11544167727235743 -1.0718031596026503
4884000000.0 0.19550618761952124 -1.0246538697226897
4888000000.0 0.1949138931244763 -1.0173638546984756
4891000000.0 0.1924760234841031 -1.022416381322816
4894000000.0 0.14079488324725292 -1.0228348519504908
4897000000.0 0.19518503952410382 -0.9961958413028563
4900000000.0 0.18639512650529 -1.055674047545072
4903000000.0 0.18803305726022757 -1.035104272662045
4906000000.0 0.16171383827789998 -1.0772156827852788
4909000000.0 0.16122188222130618 -1.0398357229430402
4912000000.0 0.13390907120723444 -1.0332741918267419
4916000000.0 0.19608408890942836 -1.0382576738304115
4919000000.0 0.18181285631269528 -1.0434603892583725
4922000000.0 0.19732702391458262 -1.0229148914224047
4925000000.0 0.1330001305154525 -1.0005126022805462
4928000000.0 0.23378991574647184 -1.042964259584771
4931000000.0 0.2005839816635605 -1.0279973379764626
4934000000.0 0.15228705127034692 -1.0010881607467814
4938000000.0 0.10278778954865275 -1.0242440153118475
4941000000.0 0.165111836609516 -0.9814132378897751
4944000000.0 0.13979693945899951 -0.9584481527866875
4947000000.0 0.1733590989813989 -1.0026606896668533
4950000000.0 0.1507973474745789 -1.0123871631270112
4953000000.0 0.12468847063811356 -1.0551838514252165
4956000000.0 0.1625346732081136 -1.0096937144970064
4959000000.0 0.1007669894093512 -1.0110059523699169
4962000000.0 0.16298788293604555 -1.041871696965172
4966000000.0 0.15287893026099258 -1.0465379727345674
4969000000.0 0.1538058581302273 -1.0505222876361031
4972000000.0 0.14064296496969914 -1.0382708353603132
4975000000.0 0.15735083853179122 -1.0102532347077149
4978000000.0 0.1476799728565787 -1.0358289367636395
4981000000.0 0.12686399082679084 -1.014308670970973
4984000000.0 0.08967518933534191 -1.0139518763837134
4988000000.0 0.1262254647996835 -1.0164168365223945
4991000000.0 0.20610972184791032 -1.0692930044180178
4994000000.0 0.10693102137477167 -1.0160565708176186
4997000000.0 0.10359702114298941 -1.0255924934128564
5000000000.0 0.13354557371180736 -1.0567967857005833
5003000000.0 0.1677461145225188 -1.0662363602202418
5006000000.0 0.1293330381383544 -1.0864730682989223
5009000000.0 0.13251131862014887 -1.0060015328652923
5012000000.0 0.1021742719678917 -1.0803581106249047
5016000000.0 0.1917712793456967 -1.0668299208754584
5019000000.0 0.1355009962313385 -1.0490653247705992
5022000000.0 0.09946111285287201 -1.0571990737615906
5025000000.0 0.1225427765398755 -1.064891947713731
5028000000.0 0.1083253486305295 -1.0067220391663778
5031000000.0 0.10581952594721133 -1.0570910011306172
5034000000.0 0.10033175363798696 -1.071937135451876
5038000000.0 0.1043107488081948 -1.0095742264347356
5041000000.0 0.1430438432650764 -1.0548948205126836
5044000000.0 0.13426670505314997 -1.0139813476911186
5047000000.0 0.10918387190595502 -1.0288915223296446
5050000000.0 0.1402427254874712 -1.0130962083090513
5053000000.0 0.07153890840227073 -1.0794418465889415
5056000000.0 0.13768207862467358 -1.038455373773576
5059000000.0 0.16448389365459076 -1.0158199542343285
5062000000.0 0.07469932582545408 -1.0448600265271935
5066000000.0 0.13444687351834606 -1.0352358999092641
5069000000.0 0.11351576513276446 -1.0909752834032997
5072000000.0 0.0965836449999849 -1.0553018389261126
5075000000.0 0.07371954048695945 -1.0150020734912983
5078000000.0 0.08005733055737757 -1.0653390022352007
5081000000.0 0.08011562127508337 -1.0582891783354949
5084000000.0 0.08216740878613199 -1.0377632077545442
5088000000.0 0.12605816250613183 -1.0913156941767537
5091000000.0 0.09168798150562607 -1.0366928793345913
5094000000.0 0.06291586200335025 -1.0303566895621827
5097000000.0 0.07753249718718275 -0.987410347865946
5100000000.0 0.08241451258982374 -1.0580347070569036
5103000000.0 0.029678424776837742 -1.0379658676803012
5106000000.0 0.0774436979772527 -1.0594549592855633
5109000000.0 0.09895900224037302 -1.0139498737061956
5112000000.0 0.045371216700988315 -1.057133424945421
5116000000.0 0.06507849653047487 -1.0370362151717232
5119000000.0 -0.01607831605908311 -1.0470840887662523
5122000000.0 0.06564441808946797 -1.0246496675737218
5125000000.0 0.07776400814210666 -0.9982092458776327
5128000000.0 0.043735730881595214 -1.069004569363419
5131000000.0 0.06838433636766378 -1.0668197489829871
5134000000.0 0.04742796819526568 -1.0039756668893864
5138000000.0 0.0867067225633869 -1.01227890978487
5141000000.0 0.10112597351540659 -1.0576775654329449
5144000000.0 0.07414352721209372 -1.0283381552616535
5147000000.0 0.04469058899910866 -1.0488333069208844
5150000000.0 0.06313767572697754 -1.0317397954994114
5153000000.0 0.04150281612367912 -1.077454056767454
5156000000.0 0.03839696305077589 -1.017716084080111
5159000000.0 0.06246297586693689 -1.0435793789057932
5162000000.0 0.006717519626634638 -1.0285786651530888
5166000000.0 0.05569917814293274 -1.0414740313776778
