! Created with skrf 1.8.0 (http://scikit-rf.org).
# Hz S RI R 50.0 
!freq ReS11 ImS11
4000000000.0 0.5887282785090964 -0.8585372623971066
4003000000.0 0.5921414385039155 -0.9679812157049626
4006000000.0 0.502335890373138 -0.849584677740687
4009000000.0000005 0.572230673549624 -0.8830037867216695
4011999999.9999995 0.5769901756080057 -0.8518525345266751
4016000000.0 0.5515167884906067 -0.8530515680191212
4019000000.0 0.5523530305282347 -0.8632352208639555
4022000000.0000005 0.6054007348494923 -0.8645860531808784
4025000000.0000005 0.5123025117056005 -0.9419468631984612
4027999999.9999995 0.5379853127260079 -0.854192418829416
4030999999.9999995 0.5190833485348146 -0.867853919980159
4034000000.0 0.5553543079896319 -0.9092295518593972
4038000000.0000005 0.5649602259634806 -0.9289896805370074
4041000000.0000005 0.544825069227057 -0.8785017184434895
4043999999.9999995 0.5600379071962285 -0.9029393207075536
4046999999.9999995 0.5714775821956903 -0.8847394550498543
4050000000.0 0.5101658466387683 -0.882556078421173
4053000000.0 0.5073189633296494 -0.866386982151198
4056000000.0 0.5684638790298586 -0.898931041217665
4059000000.0 0.5610952655619392 -0.8555562082056415
4062000000.0000005 0.505342442277844 -0.9004353948394042
4066000000.0 0.49310879058377977 -0.7879935425967384
4069000000.0 0.5163655678877972 -0.9411227957924955
4072000000.0 0.6044104303242053 -0.8909929795316219
4075000000.0 0.6249509562944767 -0.9103723914033846
4078000000.0000005 0.5501251945843076 -0.9470209194271457
4081000000.0000005 0.5986670554026753 -0.8644057447820825
4083999999.9999995 0.5603943551089445 -0.9040388263072285
4088000000.0 0.6044087280519053 -0.864284366328915
4091000000.0 0.5786669699345566 -0.9354135986966021
4094000000.0000005 0.5589707457335102 -0.8837953680316705
4097000000.0000005 0.5320707821720059 -0.8798414505103014
4099999999.9999995 0.5485310823753577 -0.8715956394255072
4102999999.9999995 0.5938696062756679 -0.8738292388676399
4106000000.0 0.539192753506553 -0.875432421337414
4109000000.0 0.5339393291125327 -0.8832423995457919
4112000000.0 0.5418485095454719 -0.9332460072562103
4115999999.9999995 0.5831540910769828 -0.8712996594693377
4119000000.0 0.5395653831838277 -0.8865464129321843
4122000000.0 0.5469356175228948 -0.8936044107162859
4125000000.0 0.5593204395326815 -0.8995535455109781
4128000000.0 0.5260073416026169 -0.8320164474315485
4131000000.0 0.5239414977805388 -0.8556962089985396
4134000000.0000005 0.5837883380593067 -0.892792678112097
4138000000.0 0.517702805926217 -0.8643054468058369
4141000000.0 0.5198930044242106 -0.8781011279577172
4144000000.0 0.5880386175996744 -0.8821469446423671
4147000000.0000005 0.5268652097514748 -0.8783923187748772
4150000000.0000005 0.5544614365604056 -0.8963679032765879
4152999999.9999995 0.5700369660584497 -0.8748828060139774
4155999999.9999995 0.5432555783208175 -0.9067400720137624
4159000000.0 0.5734967987225219 -0.8543814953394154
4162000000.0 0.5428380439793841 -0.8542591953397481
4166000000.0000005 0.551864046982576 -0.8887532829450602
4168999999.9999995 0.5105667362633031 -0.8750545023735469
4171999999.9999995 0.5664214353309523 -0.8825535158655705
4175000000.0 0.5518859885352331 -0.8565047787128784
4178000000.0 0.5679506349209467 -0.8877830713742051
4181000000.0 0.5401133743950138 -0.8723221244875239
4184000000.0 0.554903099955862 -0.8689624264620864
4187999999.9999995 0.5465146998002778 -0.8768015522464139
4191000000.0 0.5782421656969998 -0.8561406701957623
4194000000.0 0.5534228788955201 -0.8385266961687021
4197000000.0 0.5718472989108268 -0.8503542447507859
4200000000.0 0.5568783856454869 -0.8579263674545716
4203000000.0000005 0.5723750573548095 -0.8542027512039385
4206000000.0000005 0.5514339797606701 -0.8582301516749442
4208999999.9999995 0.5467426429027878 -0.8443668932049426
4211999999.9999995 0.5303891485288487 -0.8820640754574542
4216000000.0 0.5619442290398572 -0.8748516341966206
4219000000.0000005 0.5824185613745868 -0.8664086668986946
4222000000.0000005 0.5390216075170717 -0.8855312031200269
4224999999.9999995 0.5683935647202023 -0.8557134150934189
4227999999.9999995 0.5583260513990145 -0.8546239854576702
4231000000.0 0.5440444647600886 -0.8586886908875366
4234000000.0 0.5646846579151032 -0.86283474533478
4238000000.0000005 0.5484016645270555 -0.8773249360877438
4240999999.9999995 0.5408308264320709 -0.871433878319437
4244000000.0 0.5541559648953058 -0.8423796483415127
4247000000.0 0.5532663925690953 -0.8490973171940712
4250000000.0 0.5232383599122722 -0.8443535440036972
4253000000.0 0.527599590689578 -0.8491779162244656
4256000000.0 0.5557718081111285 -0.8756625842547388
4259000000.0000005 0.5171823194434739 -0.8339839988428359
4261999999.9999995 0.5337548025684031 -0.8830325425197398
4266000000.0 0.5597735870005115 -0.888778825829094
4269000000.0 0.5602226471197578 -0.8592986387938872
4272000000.0000005 0.5425861654230459 -0.8543216850175404
4275000000.0000005 0.5406358458818779 -0.8662184288998508
4277999999.9999995 0.5760233920571465 -0.8712535350759436
4280999999.9999995 0.5444007300584528 -0.8633412610732699
4284000000.0 0.527580137991275 -0.8921008012594104
4288000000.0000005 0.5881811108766236 -0.851623288659388
4291000000.0000005 0.5357846964501937 -0.8437368723181778
4293999999.9999995 0.5197815837316544 -0.8560064991335834
4297000000.0 0.5619762838789283 -0.8464980760450349
4300000000.0 0.545911964471943 -0.8438014767737056
4303000000.0 0.5298801366360648 -0.8538629047818288
4306000000.0 0.5468678179873737 -0.8493713358681699
4309000000.0 0.5490163743598304 -0.8318025700527248
4312000000.0 0.5532510767322858 -0.8349666352402442
4316000000.0 0.5801604057989599 -0.8883234786332693
4319000000.0 0.5375770122903059 -0.8376048176129708
4322000000.0 0.532565919404288 -0.8361218815741023
4325000000.0 0.5521912027353906 -0.8394683044811585
4328000000.0 0.5491838338886348 -0.8517065935893068
4331000000.0 0.5268040067404016 -0.8605464533266072
4334000000.0 0.5465465836474311 -0.88458972660227
4338000000.0 0.5835908651662775 -0.8430636680957894
4341000000.0 0.5896950386835387 -0.8452124632630845
4344000000.0 0.5564139101277784 -0.8630791222498535
4347000000.0 0.5561632179677902 -0.8907111693030697
4350000000.0 0.5347821188573767 -0.8481439374591131
4353000000.0 0.5630620968381633 -0.815488667439936
4356000000.0 0.5155084453351048 -0.8514850002678732
4359000000.0 0.5197842192049339 -0.8294686322149144
4362000000.0 0.5195006961212573 -0.8849614156988803
4366000000.0 0.5590415328702097 -0.8705744913703636
4369000000.0 0.5408805590583994 -0.8476501604347226
4372000000.0 0.4996205832963741 -0.8590674948346214
4375000000.0 0.5628500351437647 -0.8430263437634775
4378000000.0 0.5390967888562321 -0.8246849608393868
4381000000.0 0.5523512745885425 -0.8368402143061161
4384000000.0 0.5691922267734731 -0.9161761523159613
4388000000.0 0.5486595324790479 -0.8310558734297145
4391000000.0 0.5618155767897977 -0.856097266016146
4394000000.0 0.5253361116596924 -0.836603134630513
4397000000.0 0.529415837999782 -0.8715161247198986
4400000000.0 0.5471051481931917 -0.871103230183919
4403000000.0 0.5471152935117989 -0.8649344214407885
4406000000.0 0.5292525535121567 -0.8542996011679471
4409000000.0 0.564143880310159 -0.890930911448441
4412000000.0 0.49919384062539185 -0.8761800261205892
4416000000.0 0.5204007777308045 -0.8454370977320841
4419000000.0 0.5156493804156458 -0.8830459955812094
4422000000.0 0.5464281188717224 -0.8470005453662864
4425000000.0 0.5709446619012536 -0.8726114496973504
4428000000.0 0.5202937978988651 -0.8627712354094976
4431000000.0 0.5617170790012616 -0.8742740066942334
4434000000.0 0.5264177006333788 -0.85584896205515
4438000000.0 0.5445648006520114 -0.8757773140474154
4441000000.0 0.554167839050795 -0.8759038923774649
4444000000.0 0.5316020850696803 -0.8446386757551685
4447000000.0 0.5237071866838747 -0.8663638110720513
4450000000.0 0.556561521485907 -0.8423119021380248
4453000000.0 0.5470205655189972 -0.8659933795406514
4456000000.0 0.4953405306220643 -0.8365052788955002
4459000000.0 0.49372760431934914 -0.8377463816287775
4462000000.0 0.5663681903003005 -0.9106028534553078
4466000000.0 0.5406977446393022 -0.8937415608207671
4469000000.0 0.553876885544973 -0.8658388997291834
4472000000.0 0.5193712747141075 -0.8912866518958877
4475000000.0 0.5267664558695782 -0.8300751658186643
4478000000.0 0.5354377533377699 -0.910284741602717
4481000000.0 0.48625070064930254 -0.84492749782454
4484000000.0 0.4920672851201209 -0.8804598833144923
4488000000.0 0.5131658772584542 -0.8476646472704134
4491000000.0 0.5200106741679398 -0.8800110123165823
4494000000.0 0.5237621965023611 -0.8545247708476997
4497000000.0 0.5181100760008812 -0.8362372973625789
4500000000.0 0.5268730301442994 -0.8754835798595548
4503000000.0 0.5570010212436403 -0.8870114709904875
4506000000.0 0.526753239360061 -0.8554967212708772
4509000000.0 0.5139137099654412 -0.8473763913461106
4512000000.0 0.5153740696622326 -0.8516360062882229
4516000000.0 0.5517042993246135 -0.8776290579766994
4519000000.0 0.5157389573033055 -0.8324026479595013
4522000000.0 0.5184989608890709 -0.8710934083251879
4525000000.0 0.5483854481899475 -0.840080504467611
4528000000.0 0.5449502065208436 -0.8997703395238288
4531000000.0 0.5383118344908127 -0.8614599033293797
4534000000.0 0.5018955230171251 -0.8497207979207384
4538000000.0 0.5201719656800076 -0.8628406056800588
4541000000.0 0.5021035818475164 -0.8684613448360973
4544000000.0 0.5137078581998868 -0.8470176070535096
4547000000.0 0.5317049944197559 -0.8535579468180358
4550000000.0 0.5021878443550198 -0.8875339363975998
4553000000.0 0.5094833595685256 -0.8794081049166593
4556000000.0 0.4881376476504438 -0.8586593425098785
4559000000.0 0.503086971999256 -0.8852150242433698
4562000000.0 0.5312810029939161 -0.8778997409959999
4566000000.0 0.5144346665350201 -0.8709687123828591
4569000000.0 0.5082957030327218 -0.8533704826223079
4572000000.0 0.511981515983092 -0.8602406956741037
4575000000.0 0.4996529938935349 -0.8757124730716326
4578000000.0 0.5432285150201396 -0.8875462337193449
4581000000.0 0.511071987011773 -0.8690083801772188
4584000000.0 0.5097427280274035 -0.8647040625180976
4588000000.0 0.5071910723250025 -0.863406494537964
4591000000.0 0.5308495984572754 -0.8583708951336848
4594000000.0 0.4983469244332985 -0.8798864343876368
4597000000.0 0.5172969163685166 -0.8955211130528271
4600000000.0 0.48171666605245045 -0.8761532091816762
4603000000.0 0.5063733077065171 -0.8717666185798121
4606000000.0 0.514177863660324 -0.8752851385708518
4609000000.0 0.5082422390580332 -0.8677447492748119
4612000000.0 0.49762101866451947 -0.8918970740353076
4616000000.0 0.506295121780836 -0.8707351096771108
4619000000.0 0.5036097342406689 -0.8548481578145037
4622000000.0 0.50727889568442 -0.8663026958043389
4625000000.0 0.472505517587493 -0.856283492451789
4628000000.0 0.5275166876208612 -0.8642897553054518
4631000000.0 0.4868952229870172 -0.8786024116670184
4634000000.0 0.5106004900781266 -0.8709037127151762
4638000000.0 0.5145290570564128 -0.8769021330525628
4641000000.0 0.5051382451365262 -0.8742727463226241
4644000000.0 0.5172855587966139 -0.8778744809653959
4647000000.0 0.5034209547305494 -0.8748712804430407
4650000000.0 0.4968445319938475 -0.8674340824044994
4653000000.0 0.5085476711399752 -0.8973294031948474
4656000000.0 0.511643672683783 -0.8973220156549497
4659000000.0 0.4946096156098517 -0.8877602910149236
4662000000.0 0.4906400393616133 -0.8944058815142327
4666000000.0 0.4689189224909976 -0.8758133612834408
4669000000.0 0.5100213124374062 -0.8562083871463445
4672000000.0 0.48666895457635073 -0.9162797876280003
4675000000.0 0.48631429388945374 -0.8856540581204154
4678000000.0 0.4840467041633386 -0.8750784299330105
4681000000.0 0.48656170250776365 -0.897224464988742
4684000000.0 0.4780819736708434 -0.9073269895659358
4688000000.0 0.4889634917851303 -0.8847358978703557
4691000000.0 0.5146955235024369 -0.8958340715206348
4694000000.0 0.5007352443340436 -0.8730976781161923
4697000000.0 0.4750209165553784 -0.850668904225125
4700000000.0 0.5029251205216411 -0.8646408797695647
4703000000.0 0.49852554560837103 -0.8277355626384223
4706000000.0 0.49174219173561484 -0.9108365400035492
4709000000.0 0.48798471878410465 -0.8799945177805494
4712000000.0 0.5186990216756249 -0.8857705280356877
4716000000.0 0.5068955208733662 -0.9055787986967156
4719000000.0 0.5324055406599679 -0.8857652926175105
4722000000.0 0.5159411993977129 -0.885369972286628
4725000000.0 0.5295969982412803 -0.8765654683807418
4728000000.0 0.46538032262892737 -0.8800701138024236
4731000000.0 0.5205303117489035 -0.8729563011557793
4734000000.0 0.5098308746351075 -0.8710936385675638
4738000000.0 0.5234144062611811 -0.9083361568337462
4741000000.0 0.48063352572889956 -0.9239949270352842
4744000000.0 0.46803727455299204 -0.8987480419491073
4747000000.0 0.47727809089062195 -0.8493704984533288
4750000000.0 0.503897596257509 -0.8945839069912652
4753000000.0 0.5174384937539369 -0.8759139380100583
4756000000.0 0.5025024986249407 -0.8948337196531045
4759000000.0 0.4818934231411246 -0.8873446137900826
4762000000.0 0.47424117108246605 -0.9230331269304907
4766000000.0 0.5132169034715927 -0.8848360265363102
4769000000.0 0.49587395002941614 -0.9142267668643727
4772000000.0 0.4613613682913851 -0.9254433835465101
4775000000.0 0.508772915610169 -0.9294848272134699
4778000000.0 0.5058221388568676 -0.8889630504590761
4781000000.0 0.5016625207858463 -0.899431317881097
4784000000.0 0.4979281146751621 -0.8872091551428396
4788000000.0 0.5245731290543024 -0.9002093529909161
4791000000.0 0.5098760629005747 -0.8870854556695915
4794000000.0 0.5376144270452846 -0.9008467571982658
4797000000.0 0.4863681361929927 -0.8867941620338903
4800000000.0 0.47766692804514577 -0.8980914199858899
4803000000.0 0.4408470670304391 -0.8957072941025704
4806000000.0 0.5002473860950177 -0.9167501577635307
4809000000.0 0.46210490328650283 -0.9170174011263144
4812000000.0 0.44241086923980927 -0.9029370945615552
4816000000.0 0.5075697051144298 -0.8598455955543272
4819000000.0 0.5318786551725921 -0.9153649163715539
4822000000.0 0.527513271713712 -0.9322467978967772
4825000000.0 0.5488036684506916 -0.8956595325438486
4828000000.0 0.49351444317789384 -0.8845500899880177
4831000000.0 0.4710884108663883 -0.9396334158056229
4834000000.0 0.49532448011224983 -0.9052822835840332
4838000000.0 0.4878860841841022 -0.9303123759368165
4841000000.0 0.4852588899894933 -0.8871847759912749
4844000000.0 0.506866262579144 -0.8759422376470679
4847000000.0 0.5084098464102631 -0.8646631622236626
4850000000.0 0.5125467506135053 -0.9140842287262407
4853000000.0 0.5079437774178059 -0.8767647184667138
4856000000.0 0.4895445154190282 -0.8762344254888358
4859000000.0 0.502520803529024 -0.943013742332867
4862000000.0 0.5120434029248745 -0.8643158445211945
4866000000.0 0.49349648096424176 -0.9423517188350973
4869000000.0 0.46163240091424623 -0.9085817204468032
4872000000.0 0.5113831639484413 -0.9471641181333157
4875000000.0 0.5806557762613026 -0.919049290663693
4878000000.0 0.5096450706864484 -0.8785809058303845
4881000000.0 0.4918050048849388 -0.9783148472509738
4884000000.0 0.5147386021382319 -0.8932185758817041
4888000000.0 0.5267633320184143 -0.8800157999254745
4891000000.0 0.5479568890553853 -0.9243300579493209
4894000000.0 0.48127781588520596 -0.8920288611730431
4897000000.0 0.504368758502345 -0.8829977233552369
4900000000.0 0.5096225711178413 -0.9117965979121728
4903000000.0 0.5578708763286211 -0.9002001119931232
4906000000.0 0.5208603548330797 -0.9369002010700986
4909000000.0 0.5032037254949409 -0.909431077629084
4912000000.0 0.5498727308444867 -0.9754453901387684
4916000000.0 0.5379209901024246 -0.904000543514471
4919000000.0 0.5339223409275782 -0.9115590975213778
4922000000.0 0.5291096623423014 -0.902278449077267
4925000000.0 0.4703024518348556 -0.9130382750280622
4928000000.0 0.53747028858482 -0.8571846781579724
4931000000.0 0.5387862582118724 -0.8947784831950999
4934000000.0 0.4849781644918171 -0.8330110001699473
4938000000.0 0.5041552468777322 -0.8903251643556822
4941000000.0 0.49906866932058297 -0.8961277189808109
4944000000.0 0.49245416143730075 -0.8220728700139456
4947000000.0 0.4971269088500332 -0.8899039605527531
4950000000.0 0.508881485271867 -0.8956625242106998
4953000000.0 0.5225991691990144 -0.9626155953960214
4956000000.0 0.49394779212842094 -0.9034873401228235
4959000000.0 0.4856822874139652 -0.8724155948603354
4962000000.0 0.5247031756018593 -0.8955464932069943
4966000000.0 0.5143396127510282 -0.9241833147653352
4969000000.0 0.5517673469411551 -0.9351361904893231
4972000000.0 0.49789029493717696 -0.9096632210388766
4975000000.0 0.534037301040802 -0.8638302074139012
4978000000.0 0.4854021585687076 -0.9326167999959255
4981000000.0 0.517455060714279 -0.9328144657110824
4984000000.0 0.49831667705603333 -0.902053864045643
4988000000.0 0.514094763499914 -0.8593754024968348
4991000000.0 0.5929654003694915 -0.9194834342367705
4994000000.0 0.5391204863017289 -0.8698744591435447
4997000000.0 0.4923945248151278 -0.8968823866199394
5000000000.0 0.5534577162729521 -0.907865438297539
5003000000.0 0.5785776058900448 -0.9275551137026166
5006000000.0 0.5353718352695702 -0.9439883194206145
5009000000.0 0.53767354709138 -0.9266882685709146
5012000000.0 0.5156076281360913 -0.9173685438098316
5016000000.0 0.5718277019017365 -0.9159460840075946
5019000000.0 0.528845048137883 -0.9156336748944204
5022000000.0 0.5199434233426715 -0.8849307681445977
5025000000.0 0.5464529183310907 -0.9567397823988707
5028000000.0 0.47474696842033604 -0.9311410243162039
5031000000.0 0.5142203497665143 -0.886415083373276
5034000000.0 0.5211217474413952 -0.9569861596393261
5038000000.0 0.5173853108961559 -0.8752695242619571
5041000000.0 0.5527804401836951 -0.8925997998896913
5044000000.0 0.545929679914461 -0.8509373547649635
5047000000.0 0.5386097907328381 -0.8742320383769423
5050000000.0 0.5717384173669932 -0.8602406977576832
5053000000.0 0.5188579027121529 -0.9425005182405659
5056000000.0 0.5666976734566529 -0.8807123734983446
5059000000.0 0.584941420413636 -0.8831385776345889
5062000000.0 0.523194527019768 -0.8974238382310049
5066000000.0 0.5138390239866588 -0.8545177124101302
5069000000.0 0.5243094573786442 -0.9128243483673781
5072000000.0 0.5327655989050459 -0.8684437544705434
5075000000.0 0.5781219830232829 -0.8774451910865533
5078000000.0 0.515267472219741 -0.9189641749225316
5081000000.0 0.4941544819072657 -0.8901249965804358
5084000000.0 0.5901850657012822 -0.912390770687102
5088000000.0 0.536716263004467 -0.9335771532517148
5091000000.0 0.4762159173710055 -0.9230297327500894
5094000000.0 0.5315983633042745 -0.8939072297089086
5097000000.0 0.5405656078872859 -0.8809041340392694
5100000000.0 0.5618500352951816 -0.8602305348073035
5103000000.0 0.503984179450103 -0.9074715015918986
5106000000.0 0.5427786338060174 -0.9034709494349183
5109000000.0 0.5397747662483925 -0.9271117753070741
5112000000.0 0.540188307955033 -0.865852372183038
5116000000.0 0.5014775831615954 -0.852382148711146
5119000000.0 0.5372983047599347 -0.8875959718227608
5122000000.0 0.5646614513003239 -0.8240409681571563
5125000000.0 0.5765039490429392 -0.8390092869007213
5128000000.0 0.5168736438704363 -0.8907183816218236
5131000000.0 0.5565008996943845 -0.8891306683742268
5134000000.0 0.5390519079478597 -0.8588965119317873
5138000000.0 0.5270312630398685 -0.8885723415129743
5141000000.0 0.6070404803688696 -0.84073671104714
5144000000.0 0.5356786731417416 -0.8621693356940026
5147000000.0 0.5962632107957904 -0.9250163428317917
5150000000.0 0.6029831163214662 -0.8856984586605017
5153000000.0 0.5524875901484166 -0.9061806024472769
5156000000.0 0.5696254390072728 -0.8963325006098276
5159000000.0 0.6081457152053953 -0.929885188211035
5162000000.0 0.5288232924940296 -0.8907173519106896
5166000000.0 0.526699049342026 -0.9162235488392088
5169000000.0 0.5607364660515832 -0.9031832864842635
5172000000.0 0.5554581313747684 -0.8924571531921053
5175000000.0 0.5790265633782875 -0.9019602834722469
5178000000.0 0.5319744110149337 -0.89093467692191
