! Created with skrf 1.8.0 (http://scikit-rf.org).
# Hz S RI R 50.0 
!freq ReS11 ImS11
4000000000.0 0.5386444388345871 -0.85806686223841
4003000000.0 0.574737898211433 -0.9658932374093222
4006000000.0 0.4714789692398429 -0.9212458252590844
4009000000.0000005 0.4907942895097945 -0.8689603863990987
4011999999.9999995 0.5886959906887906 -0.8952299047731209
4016000000.0 0.4956918546858942 -0.9423707250217765
4019000000.0 0.5025343828887282 -0.8963281491587194
4022000000.0000005 0.6197428145866919 -0.9120476681987866
4025000000.0000005 0.4668929610780574 -0.9210145557575922
4027999999.9999995 0.47189412621054794 -0.918639910712248
4030999999.9999995 0.4581200013213027 -0.8511872866550217
4034000000.0 0.5176246262187145 -0.8539856501796943
4038000000.0000005 0.46704201321122624 -0.9191280993034796
4041000000.0000005 0.5188874315686911 -0.8993548032630789
4043999999.9999995 0.51620704479342 -0.9537157596359869
4046999999.9999995 0.5411872270925409 -0.8959966168875675
4050000000.0 0.48354158081664045 -0.9058955473219659
4053000000.0 0.47794593183253203 -0.8910739676674083
4056000000.0 0.5117312304083923 -0.9018387209043448
4059000000.0 0.5284961696410411 -0.8360286132664151
4062000000.0000005 0.5053770609638237 -0.9201049892594444
4066000000.0 0.45406872412763427 -0.8176473768354156
4069000000.0 0.5190248501608423 -0.9380878284358463
4072000000.0 0.5636333658604064 -0.8810680135011419
4075000000.0 0.5615416987666338 -0.9240599182468608
4078000000.0000005 0.5207053222618981 -0.9054091519618256
4081000000.0000005 0.5562783504941428 -0.8972492640580214
4083999999.9999995 0.4966991729342351 -0.9232822706146852
4088000000.0 0.5691577193276873 -0.9021727788710242
4091000000.0 0.5658411773593902 -0.9571893350916084
4094000000.0000005 0.5321825576873751 -0.8782341152384414
4097000000.0000005 0.5025020174296464 -0.8983918470735581
4099999999.9999995 0.5051607443662137 -0.9117296133930812
4102999999.9999995 0.5218858839596537 -0.9078734518377061
4106000000.0 0.520579664735632 -0.9251604297528766
4109000000.0 0.5149311315227756 -0.9014217712892569
4112000000.0 0.5084065024220122 -0.8869113004175067
4115999999.9999995 0.5423642178702239 -0.88539564179401
4119000000.0 0.5031366983784171 -0.9160114648391571
4122000000.0 0.47489541664017376 -0.9024196483920183
4125000000.0 0.5121900962233878 -0.925647076350292
4128000000.0 0.5333126463865394 -0.8544072656373364
4131000000.0 0.5408996341605778 -0.9177853463588383
4134000000.0000005 0.5412238447851867 -0.8879419681081702
4138000000.0 0.47871302857901815 -0.8927504591409267
4141000000.0 0.5124740858568027 -0.8850244495734945
4144000000.0 0.56317514104233 -0.919615329722296
4147000000.0000005 0.49447395563528024 -0.904894421379872
4150000000.0000005 0.5602352308531628 -0.8993184322336464
4152999999.9999995 0.49485801736786617 -0.8917751141818948
4155999999.9999995 0.5398245781789162 -0.9331335924208902
4159000000.0 0.5002503737690109 -0.8484221662598176
4162000000.0 0.5297504371434201 -0.871722177581719
4166000000.0000005 0.5132690608082804 -0.8870477657504859
4168999999.9999995 0.4885748918158865 -0.9239937977656224
4171999999.9999995 0.5240075762598945 -0.8768926028239356
4175000000.0 0.5308219320810256 -0.8854970131885879
4178000000.0 0.4972177276492845 -0.8906838079368459
4181000000.0 0.5121579265801525 -0.9158011077294659
4184000000.0 0.5248089011216656 -0.8521471547375629
4187999999.9999995 0.49178635713273805 -0.8632099399384584
4191000000.0 0.5402464740083986 -0.8491018428772817
4194000000.0 0.5027018853080708 -0.8628118546141618
4197000000.0 0.5133060979700691 -0.8804851451024779
4200000000.0 0.5275973589375627 -0.8695610076429843
4203000000.0000005 0.5283781966806501 -0.8866079355156188
4206000000.0000005 0.527119861606252 -0.8939083541127137
4208999999.9999995 0.5027554778221999 -0.8789451266702715
4211999999.9999995 0.48385629342841824 -0.8955831703182046
4216000000.0 0.5245884899212955 -0.8926776903654827
4219000000.0000005 0.5253642998403479 -0.8978101530450718
4222000000.0000005 0.5219533281730022 -0.8866330963886699
4224999999.9999995 0.5075735410340012 -0.8761754520958132
4227999999.9999995 0.5164758526913504 -0.8724835825233048
4231000000.0 0.5012096170445806 -0.8874270890601067
4234000000.0 0.5193418363473754 -0.8973624366230185
4238000000.0000005 0.49729861909823986 -0.8823113599864173
4240999999.9999995 0.49276102042360426 -0.884954188344222
4244000000.0 0.49793491498825326 -0.8627419591856343
4247000000.0 0.49247305848723755 -0.8672937172183868
4250000000.0 0.5077173158735618 -0.858535982631021
4253000000.0 0.48396315828041797 -0.8560474451703017
4256000000.0 0.5114219515506677 -0.8955374422489425
4259000000.0000005 0.48566691256856975 -0.8591190417545927
4261999999.9999995 0.4793335536832668 -0.8720753056704476
4266000000.0 0.4637949639775376 -0.9057982729787304
4269000000.0 0.5083136277665262 -0.8878105686873632
4272000000.0000005 0.5102619965501153 -0.8778239611632783
4275000000.0000005 0.5240772627000132 -0.8794039596059706
4277999999.9999995 0.5108779965348702 -0.891766598946525
4280999999.9999995 0.5227748819068783 -0.8972834622142178
4284000000.0 0.4798840338020024 -0.9161012487923756
4288000000.0000005 0.5228505357991058 -0.8413288461188342
4291000000.0000005 0.5024207135086252 -0.871918706861398
4293999999.9999995 0.5102266439873944 -0.8691712362772716
4297000000.0 0.5252099337248763 -0.847096177334438
4300000000.0 0.5128021981706414 -0.8798470243290887
4303000000.0 0.47461660098481057 -0.8711612330513273
4306000000.0 0.528565763189892 -0.861135265721289
4309000000.0 0.5101843720094611 -0.8719887421360779
4312000000.0 0.5186124951569951 -0.8513509923443333
4316000000.0 0.5078711720104692 -0.8623122281691582
4319000000.0 0.5144094338298991 -0.8562319058097644
4322000000.0 0.47023140909636746 -0.8644970432406601
4325000000.0 0.522080231346882 -0.8618356713968294
4328000000.0 0.5145235353947767 -0.873339556670916
4331000000.0 0.4700917421331724 -0.8773446713679031
4334000000.0 0.47820011627628306 -0.8689899571667282
4338000000.0 0.5356827959714305 -0.8768838170128945
4341000000.0 0.5400633540279189 -0.897900210900267
4344000000.0 0.502339806725431 -0.9056335611132278
4347000000.0 0.46817596073740547 -0.9105234047742166
4350000000.0 0.4877901422144593 -0.8465573955782297
4353000000.0 0.5006990183242945 -0.8623830430055535
4356000000.0 0.4879754827475488 -0.8780730845798175
4359000000.0 0.46899481194026027 -0.8664313026445638
4362000000.0 0.4526075810881558 -0.9113124488312674
4366000000.0 0.5209613877638396 -0.9103784594486835
4369000000.0 0.4744185330085262 -0.8743027648141206
4372000000.0 0.4572440668574484 -0.8926331211802065
4375000000.0 0.5158599797673347 -0.8504026280280254
4378000000.0 0.4982364920281753 -0.8621900469464403
4381000000.0 0.4808204421363972 -0.8540982030297624
4384000000.0 0.5143045337388685 -0.9448955225449761
4388000000.0 0.49901619665523517 -0.8661574209786227
4391000000.0 0.5054193538091111 -0.899188155973477
4394000000.0 0.48461407111192883 -0.8611728730252792
4397000000.0 0.47421947019907384 -0.8948580074212296
4400000000.0 0.49702831556331795 -0.8958865126356726
4403000000.0 0.5010926941019448 -0.8953880050491646
4406000000.0 0.47011924068947875 -0.8993706293383976
4409000000.0 0.4840754296255323 -0.9113145344271494
4412000000.0 0.44090801838840576 -0.9006183210888226
4416000000.0 0.46649732157549095 -0.8826734024434184
4419000000.0 0.46697817354413595 -0.8864753947660728
4422000000.0 0.4921798370131585 -0.867118673198418
4425000000.0 0.5207373717910782 -0.8963093115441151
4428000000.0 0.4813178016640792 -0.8858665438272079
4431000000.0 0.4963466618283218 -0.8980581747900084
4434000000.0 0.4709302582976788 -0.87974805315637
4438000000.0 0.5000726873943455 -0.9110509478500833
4441000000.0 0.49401830469492725 -0.8895883393155295
4444000000.0 0.478362580305833 -0.8762639721104949
4447000000.0 0.46775446144194877 -0.8874000058386509
4450000000.0 0.4903847250780502 -0.876604551864159
4453000000.0 0.49905672564762793 -0.9005133000548633
4456000000.0 0.4550099051378833 -0.8626310838251847
4459000000.0 0.4568854203662237 -0.8532500657220681
4462000000.0 0.4975536359577001 -0.935939202275148
4466000000.0 0.4945182330584666 -0.9411682096272569
4469000000.0 0.4969137441898458 -0.873059582770877
4472000000.0 0.4799770384512117 -0.9224084249366866
4475000000.0 0.4632342075812941 -0.8791989985941141
4478000000.0 0.47760953538915696 -0.9284383387616881
4481000000.0 0.4546355137083665 -0.8717134987263508
4484000000.0 0.4340786815623081 -0.9133869204020768
4488000000.0 0.4640587377887798 -0.8847169240621665
4491000000.0 0.4648533808126327 -0.8944220489423487
4494000000.0 0.4685630330310028 -0.8727378218998231
4497000000.0 0.4635760961643996 -0.8748686505654963
4500000000.0 0.48903657585888455 -0.8812219011736206
4503000000.0 0.49562908436435116 -0.9175516192540554
4506000000.0 0.43781417651168897 -0.8988214886755294
4509000000.0 0.4556901479530797 -0.8711476091919823
4512000000.0 0.46410031188165696 -0.8780492570684986
4516000000.0 0.47638995283237123 -0.9182149602254343
4519000000.0 0.476398019090726 -0.8441170065139819
4522000000.0 0.45980624122853897 -0.8863616561111379
4525000000.0 0.48904468803552875 -0.8665986676312454
4528000000.0 0.48341499657751313 -0.9253968926034103
4531000000.0 0.4764060528772048 -0.8832853072159984
4534000000.0 0.4735672282564991 -0.877003579787835
4538000000.0 0.45536643388846515 -0.8857167136053977
4541000000.0 0.4507625390274145 -0.893800092905632
4544000000.0 0.4435744910259931 -0.8981925347673274
4547000000.0 0.4800931070103074 -0.8817233139025373
4550000000.0 0.441920359905764 -0.9025008177958508
4553000000.0 0.4619179174777179 -0.8959663932417945
4556000000.0 0.44940246274683954 -0.8718154647569063
4559000000.0 0.4460410318206477 -0.9197572444539605
4562000000.0 0.4783372550755912 -0.9021508426363614
4566000000.0 0.4676453853677672 -0.9127963859168603
4569000000.0 0.4539106503380353 -0.8870388110546471
4572000000.0 0.4464933340878452 -0.8980810382402852
4575000000.0 0.46261857744219764 -0.9144876147959377
4578000000.0 0.48727428283441454 -0.915026481027456
4581000000.0 0.45396068921580857 -0.8968911383151517
4584000000.0 0.4511608245598364 -0.9118344740876925
4588000000.0 0.4643192241935602 -0.9095517597707738
4591000000.0 0.46471364645905966 -0.8895543290754834
4594000000.0 0.4343883349658897 -0.9033663644427841
4597000000.0 0.46684596338248696 -0.9254172415348573
4600000000.0 0.4216234476800402 -0.9118580665320627
4603000000.0 0.44861312564879663 -0.9082930199928989
4606000000.0 0.4594504170827248 -0.9176425174585877
4609000000.0 0.45475084001526445 -0.9039342714358566
4612000000.0 0.44713327200072084 -0.9046411588004969
4616000000.0 0.44090789166831307 -0.8969988327398254
4619000000.0 0.4514774268099737 -0.8909711143322108
4622000000.0 0.45707458753100627 -0.909964977757825
4625000000.0 0.42991971954696107 -0.8861241156445442
4628000000.0 0.47149904464869785 -0.8926100854284127
4631000000.0 0.4229997478724414 -0.9148421774122605
4634000000.0 0.4504718846492811 -0.9008584968946128
4638000000.0 0.4676953042266937 -0.9016141979369995
4641000000.0 0.4403569682028826 -0.896833849931526
4644000000.0 0.4437957463997818 -0.913570724827036
4647000000.0 0.46158492411107066 -0.9170030204759312
4650000000.0 0.42232592087187915 -0.9164961079910069
4653000000.0 0.4566112161038935 -0.9136788641844578
4656000000.0 0.4228141167405809 -0.9190708502727498
4659000000.0 0.42796922331835596 -0.9168489979436518
4662000000.0 0.4277483806785406 -0.9028157207189386
4666000000.0 0.4203252235397583 -0.9189050394040569
4669000000.0 0.4352231415546907 -0.8976217566029708
4672000000.0 0.42469114872659247 -0.9282145307389709
4675000000.0 0.42296237329750264 -0.9023065478177215
4678000000.0 0.44334118577940546 -0.8826284585998307
4681000000.0 0.40508495985229653 -0.9461060128759022
4684000000.0 0.42366582658242535 -0.9194301581497974
4688000000.0 0.43367445380765257 -0.926266248776322
4691000000.0 0.45356930349262975 -0.9366173236596685
4694000000.0 0.44604787908424903 -0.9004050821154334
4697000000.0 0.41510403309582716 -0.9043738867591419
4700000000.0 0.4474323999920582 -0.9184293518700286
4703000000.0 0.44957059236187924 -0.8631595439469465
4706000000.0 0.4174337194455605 -0.9429284729076933
4709000000.0 0.4297433944241427 -0.9062104081445055
4712000000.0 0.45767352734812505 -0.9208144436126
4716000000.0 0.43182170186961744 -0.9103592601585777
4719000000.0 0.4361890269956563 -0.9122747167586449
4722000000.0 0.44948044561595396 -0.9114357714038481
4725000000.0 0.4539085054777516 -0.9220877780469122
4728000000.0 0.41479960062050314 -0.929512661546537
4731000000.0 0.4467064226221253 -0.9380412712700686
4734000000.0 0.43300598579743205 -0.9059611462982144
4738000000.0 0.46483180803982077 -0.9610229167171033
4741000000.0 0.43216170324265996 -0.9622262383113703
4744000000.0 0.43698014291533005 -0.9071216437593809
4747000000.0 0.4571627934826902 -0.8897110509249921
4750000000.0 0.4307723888089513 -0.9558756215806371
4753000000.0 0.4290178984341756 -0.9162895698343326
4756000000.0 0.4362243380996415 -0.9414546337440451
4759000000.0 0.42462983590548514 -0.9298896850342003
4762000000.0 0.4247043510030955 -0.931102507729978
4766000000.0 0.41546429487145514 -0.9281465397770521
4769000000.0 0.4271624908370504 -0.9228660243663749
4772000000.0 0.44438561974339424 -0.9418110483702377
4775000000.0 0.4398289665111754 -0.9844837835451257
4778000000.0 0.43810667435391804 -0.9297897962176624
4781000000.0 0.46773785746404006 -0.9073699457510139
4784000000.0 0.4492507409208775 -0.917801574372365
4788000000.0 0.4465133857245662 -0.9639193032381654
4791000000.0 0.3846467605011331 -0.906548845796537
4794000000.0 0.4711962889986473 -0.9511895778750571
4797000000.0 0.39330641395742827 -0.8998181439926588
4800000000.0 0.39757741848815986 -0.9184878129745068
4803000000.0 0.3829871990918811 -0.9222497217630788
4806000000.0 0.4408295800243853 -0.939673149208009
4809000000.0 0.39292310296788746 -0.9462975040898501
4812000000.0 0.3810085022600539 -0.9308409340004646
4816000000.0 0.4324844377772369 -0.8875170154406031
4819000000.0 0.4504382667653055 -0.9489611662344971
4822000000.0 0.46703816509627244 -0.9504314100694501
4825000000.0 0.4677675021293539 -0.9186351271780184
4828000000.0 0.4330808684849024 -0.9162336291884131
4831000000.0 0.39099718526346144 -0.9773638867686362
4834000000.0 0.4520614450773698 -0.9328698582894236
4838000000.0 0.427341711343919 -0.9727083215028363
4841000000.0 0.4113524903672916 -0.9174429885256252
4844000000.0 0.4627517326317182 -0.9247809914925158
4847000000.0 0.4357105772576913 -0.90422031514461
4850000000.0 0.4255418973850362 -0.9463772969669402
4853000000.0 0.4260960534235287 -0.9173563971384605
4856000000.0 0.43209142120203536 -0.9199211357536721
4859000000.0 0.45817299130446204 -0.9683851361815664
4862000000.0 0.4453104731112536 -0.9178717943159875
4866000000.0 0.4283648174564762 -0.9676159699053375
4869000000.0 0.4115658380851955 -0.9454072227071498
4872000000.0 0.416605466983776 -0.988940950976479
4875000000.0 0.49686206334607214 -0.9685448270629692
4878000000.0 0.43515345156289814 -0.9427920754786588
4881000000.0 0.4214095405328827 -1.0172579733852014
4884000000.0 0.4658584436448965 -0.9252296599488488
4888000000.0 0.4669235950659235 -0.9383876766684253
4891000000.0 0.4519101264050383 -0.9531393042030907
4894000000.0 0.3973110445146459 -0.9458164592569372
4897000000.0 0.45837171781193514 -0.9129161270565603
4900000000.0 0.4456222956795303 -0.9481515607416096
4903000000.0 0.4664954375507611 -0.9378895463526373
4906000000.0 0.436944119973652 -0.9899632700509183
4909000000.0 0.4126558134512779 -0.9170945845736068
4912000000.0 0.45365468472304443 -0.9528673468686
4916000000.0 0.45170197788343275 -0.9424337667715463
4919000000.0 0.4784172068445305 -0.9489275327116624
4922000000.0 0.46073373492310987 -0.92703469513818
4925000000.0 0.38444777765390814 -0.969849059078542
4928000000.0 0.4806674909348762 -0.9534325111562846
4931000000.0 0.4966997313400287 -0.9343506783700595
4934000000.0 0.4380403351538388 -0.9030978014257348
4938000000.0 0.3992555354398607 -0.9389957978170925
4941000000.0 0.44163507120810563 -0.9318850058741418
4944000000.0 0.4315371604080511 -0.8665127911706282
4947000000.0 0.40564063136500766 -0.8923459744067792
4950000000.0 0.42444544901452463 -0.9268629588237127
4953000000.0 0.416917766419342 -1.0116772550081237
4956000000.0 0.41849084120952207 -0.9452153067104807
4959000000.0 0.4053154612495794 -0.9145340309139245
4962000000.0 0.42819384357808443 -0.9866458214312136
4966000000.0 0.4855847683816747 -0.9418278577390305
4969000000.0 0.4465804953018119 -0.978723441709574
4972000000.0 0.4286326974288505 -0.9453480538262129
4975000000.0 0.43433982544998245 -0.8793279046224122
4978000000.0 0.42408082373163014 -0.9133001256650901
4981000000.0 0.42365510524415684 -0.9869953863859395
4984000000.0 0.4302754550723755 -0.9316315052418751
4988000000.0 0.4201803344452272 -0.9422462304053173
4991000000.0 0.4983791668723673 -0.944904529145639
4994000000.0 0.4622058723626415 -0.9281167127246841
4997000000.0 0.40943714924772157 -0.940566763283609
5000000000.0 0.4835049384207472 -0.9417591636469067
5003000000.0 0.47234196904169745 -0.9726115128884723
5006000000.0 0.4081949228410791 -0.9925351203202695
5009000000.0 0.46905492682071326 -0.9616969350625585
5012000000.0 0.4375041331163449 -0.919636099057825
5016000000.0 0.4818954421861419 -0.9681048728061522
5019000000.0 0.41407790245064496 -0.9063058152337239
5022000000.0 0.4303143015680821 -0.9466170866778121
5025000000.0 0.43641590680701847 -0.9890298164532185
5028000000.0 0.4271910732361209 -0.9563240199275989
5031000000.0 0.44650551694529794 -0.9206995704159533
5034000000.0 0.41527911693627956 -0.9822559585236751
5038000000.0 0.42138392241034467 -0.8974446426712228
5041000000.0 0.5256719312166452 -0.9491033977252836
5044000000.0 0.43353854496844607 -0.9034538247952308
5047000000.0 0.4690986271571869 -0.9675885992369754
5050000000.0 0.4927100354602311 -0.8729076272851779
5053000000.0 0.4872226309567944 -1.001467655127437
5056000000.0 0.49833159209659844 -0.9624257881147811
5059000000.0 0.4972686714537492 -0.9414639875886814
5062000000.0 0.4270220973251473 -0.9515619455519058
5066000000.0 0.49549359075269456 -0.9036804155437943
5069000000.0 0.43170743845326714 -0.9691979026505917
5072000000.0 0.4686418775996579 -0.8927262432042883
5075000000.0 0.44716810627571235 -0.9398667374736827
5078000000.0 0.42960056932539137 -0.9640301948441796
5081000000.0 0.44847738886311395 -0.9389751231122909
5084000000.0 0.49263032036578885 -0.9437270849395193
5088000000.0 0.48030531009498056 -0.9377664758133484
5091000000.0 0.4423182273519188 -0.9497730626684784
5094000000.0 0.41224019517089316 -0.9584118045271354
5097000000.0 0.4966000669045882 -0.9404356403681886
5100000000.0 0.4594124484532146 -0.9166299144254637
5103000000.0 0.44354854188794895 -0.9339114672510473
5106000000.0 0.5368126717647863 -0.9759033756257042
5109000000.0 0.5167089431311739 -0.9403847063605916
5112000000.0 0.4871593128509932 -0.9294095896001457
5116000000.0 0.43463177532159647 -0.8791837428325796
5119000000.0 0.4396363924276364 -0.9839061688923169
5122000000.0 0.4570703389095858 -0.9576526144866149
5125000000.0 0.49385330068772504 -0.9126558338935958
5128000000.0 0.42174964200944215 -0.99776186603288
5131000000.0 0.4495928949069335 -0.9350670102135428
5134000000.0 0.44523278902261093 -0.8933489851751428
5138000000.0 0.469598914887424 -0.9206790751383448
5141000000.0 0.5395898472942042 -0.9163622940088219
5144000000.0 0.5180977185998226 -0.9155850097664366
5147000000.0 0.45512540964644677 -0.9250917814038877
5150000000.0 0.49336599956277527 -0.9600099766014105
5153000000.0 0.452335781369052 -0.9122151678054966
5156000000.0 0.49011815225421906 -0.9350720221737776
5159000000.0 0.5191279799858868 -0.9053864915346402
5162000000.0 0.43506691811760123 -0.9431525019026648
5166000000.0 0.47870469126034265 -0.9459090458674385
5169000000.0 0.45871787081497284 -0.9252439209185146
5172000000.0 0.49786745352223505 -0.9237838840265106
