! Created with skrf 1.8.0 (http://scikit-rf.org).
# Hz S RI R 50.0 
!freq ReS11 ImS11
4000000000.0 0.5123941865624617 -0.8466558391497769
4003000000.0 0.5445798029243052 -0.9230761929186874
4006000000.0 0.5167284081401395 -0.9026206184244969
4009000000.0000005 0.555119457505877 -0.9055912845290408
4011999999.9999995 0.6675873219459705 -0.8672306077375063
4016000000.0 0.5934487145944279 -0.9124184976934688
4019000000.0 0.531688490918543 -0.8979333250073273
4022000000.0000005 0.6109794112950822 -0.8345423301916393
4025000000.0000005 0.5429875263652566 -0.9060084837753687
4027999999.9999995 0.51381888482374 -0.9349130944567272
4030999999.9999995 0.51169783566684 -0.8605646555905572
4034000000.0 0.5501367772969042 -0.8696329037427502
4038000000.0000005 0.48225880481606653 -0.9134955605922911
4041000000.0000005 0.5653329972555824 -0.8480428175242567
4043999999.9999995 0.5879596140143106 -0.9677092219931838
4046999999.9999995 0.5760235320856307 -0.9131929348616781
4050000000.0 0.535483558511156 -0.904749391309485
4053000000.0 0.5429089853584999 -0.8807360542509558
4056000000.0 0.5583559350151969 -0.8942940447282003
4059000000.0 0.5322393489503693 -0.8403586742445083
4062000000.0000005 0.5098406274941012 -0.8701703237538527
4066000000.0 0.511718245370143 -0.8380836929662319
4069000000.0 0.5316018061961101 -0.9507518377726178
4072000000.0 0.5790537164778184 -0.8590446835744323
4075000000.0 0.5827018151289554 -0.9103722876956301
4078000000.0000005 0.559355565564856 -0.8839765751037456
4081000000.0000005 0.6340508659789936 -0.8929040161765027
4083999999.9999995 0.532784167308204 -0.8941127692464454
4088000000.0 0.5551070254887748 -0.8597970192786218
4091000000.0 0.5977682009042291 -0.8943646827806035
4094000000.0000005 0.5414128317438477 -0.8618110696729527
4097000000.0000005 0.5059501177328825 -0.8986587210600455
4099999999.9999995 0.5377063483535383 -0.8567432461209479
4102999999.9999995 0.5803572706453245 -0.8717633351902679
4106000000.0 0.5485439732189533 -0.9157923826319556
4109000000.0 0.49683945272166347 -0.9149780293054417
4112000000.0 0.5377310540094715 -0.8943011000300011
4115999999.9999995 0.5720017414680212 -0.904848669187226
4119000000.0 0.5268372635112584 -0.8905186510079621
4122000000.0 0.5205071082905609 -0.8751573253556222
4125000000.0 0.5626635614348771 -0.895665809540688
4128000000.0 0.5716997584747644 -0.8457973582795298
4131000000.0 0.5413822099548157 -0.8746113857139798
4134000000.0000005 0.5630877549033328 -0.8632311827981738
4138000000.0 0.5173957323304398 -0.8643665050220382
4141000000.0 0.5253372793134078 -0.8944655198967241
4144000000.0 0.5418220195417286 -0.8561979484589173
4147000000.0000005 0.5188293279491911 -0.877616021739119
4150000000.0000005 0.5714376231851205 -0.8827853784796855
4152999999.9999995 0.5379674802547624 -0.8810253723194071
4155999999.9999995 0.5787844520520286 -0.8628944479766105
4159000000.0 0.52622392169874 -0.8297824549445961
4162000000.0 0.5551763175154568 -0.8526951273085952
4166000000.0000005 0.5410681526410188 -0.8546122402018621
4168999999.9999995 0.506508774453025 -0.8519285759867218
4171999999.9999995 0.5687764111726055 -0.8402004287990694
4175000000.0 0.5436581198540633 -0.8637947736522121
4178000000.0 0.5681777491498742 -0.8876773597045156
4181000000.0 0.5450580601559504 -0.8517838203442768
4184000000.0 0.5308194141417117 -0.8690141908785992
4187999999.9999995 0.5466895993938948 -0.874534040957937
4191000000.0 0.5624275692565435 -0.8348049933727997
4194000000.0 0.5206198035861116 -0.8376856046067538
4197000000.0 0.5310336601320735 -0.8920224575038364
4200000000.0 0.5589777336710047 -0.8772035757806687
4203000000.0000005 0.5607022571723322 -0.8566520920969711
4206000000.0000005 0.5607798960909851 -0.8599526559999312
4208999999.9999995 0.5298916676454943 -0.8434440250476297
4211999999.9999995 0.5359589100405722 -0.8724093001051448
4216000000.0 0.5606083868471818 -0.861477130935665
4219000000.0000005 0.5603961394343215 -0.8721111730663075
4222000000.0000005 0.5348240362401276 -0.8751099764328356
4224999999.9999995 0.5417390569083204 -0.848640640145955
4227999999.9999995 0.5620538998100804 -0.8540749614937857
4231000000.0 0.549050675541273 -0.8878699483554211
4234000000.0 0.5438871991932335 -0.8853830361892114
4238000000.0000005 0.5397829796690998 -0.8814711297732666
4240999999.9999995 0.5322844529489924 -0.8580687776229844
4244000000.0 0.5505822987039676 -0.8558915897739026
4247000000.0 0.5513962076251079 -0.8558825472656343
4250000000.0 0.5318847603470507 -0.8556618757145077
4253000000.0 0.538511225147376 -0.8454843915417046
4256000000.0 0.5521039213696426 -0.9015033206475013
4259000000.0000005 0.5009204064848631 -0.8500875356727886
4261999999.9999995 0.5186325935278324 -0.8793755653699102
4266000000.0 0.5260168788275341 -0.8919659233905841
4269000000.0 0.5577704072068375 -0.8348520111018758
4272000000.0000005 0.5456876937564908 -0.8560246852869321
4275000000.0000005 0.5529629054686056 -0.8616422977925238
4277999999.9999995 0.5558605693253109 -0.8646656922506321
4280999999.9999995 0.5600159081791168 -0.8523265262712176
4284000000.0 0.5294255194932918 -0.8818159717327825
4288000000.0000005 0.5667868844746727 -0.8363944495906002
4291000000.0000005 0.5537574884682104 -0.8160543596188393
4293999999.9999995 0.5469052857625746 -0.8607864085589264
4297000000.0 0.5581607926990063 -0.8105202323558491
4300000000.0 0.5250381606099523 -0.8346985362050311
4303000000.0 0.5341776942233974 -0.8602907240872152
4306000000.0 0.57802379303088 -0.8447105400903585
4309000000.0 0.5574452490030891 -0.8448448222391539
4312000000.0 0.5697380172577946 -0.8694524106977498
4316000000.0 0.5403846893482613 -0.8499249408325148
4319000000.0 0.5432230482596394 -0.8339929572466555
4322000000.0 0.5001128878179323 -0.8440932048320823
4325000000.0 0.5356777626202558 -0.8587383260241208
4328000000.0 0.5306789699114307 -0.832433872855276
4331000000.0 0.523606119474815 -0.9035225252517247
4334000000.0 0.5180775015570391 -0.869793871967141
4338000000.0 0.5796709157278264 -0.8482832422823781
4341000000.0 0.5482973998873724 -0.8605895484195479
4344000000.0 0.5553702544640273 -0.86821973626709
4347000000.0 0.5292350662116 -0.8786253856421788
4350000000.0 0.5305902077216579 -0.8342425338944771
4353000000.0 0.5406277132216185 -0.83151337331376
4356000000.0 0.5384402389640641 -0.8638754572629775
4359000000.0 0.5007100835219572 -0.8315172533945583
4362000000.0 0.49941497032380133 -0.8990081558367209
4366000000.0 0.5363740074426667 -0.869218895652896
4369000000.0 0.5079856245052128 -0.8268916050223698
4372000000.0 0.4976811693154615 -0.8717517529977622
4375000000.0 0.5559983303587971 -0.8288427592119589
4378000000.0 0.5259933734768207 -0.8268827292361051
4381000000.0 0.5309767861141093 -0.8284339157476572
4384000000.0 0.558251566069267 -0.9332521464797372
4388000000.0 0.5360320824123865 -0.8259719391380047
4391000000.0 0.5513655450751742 -0.861268196561757
4394000000.0 0.5226606069638953 -0.8419714982097521
4397000000.0 0.5212068870461657 -0.8583100741640518
4400000000.0 0.538170082534477 -0.8829034158338713
4403000000.0 0.5425697035609738 -0.8641713839847972
4406000000.0 0.5173779697381665 -0.8764702559855455
4409000000.0 0.5490759870448786 -0.8903239233347678
4412000000.0 0.4826392427651419 -0.877088213675081
4416000000.0 0.5178778240259756 -0.8566287688446939
4419000000.0 0.5210579187014528 -0.8711232669802504
4422000000.0 0.5484850882764125 -0.8502936121258988
4425000000.0 0.5638766491447409 -0.8753050894343524
4428000000.0 0.5200981969294369 -0.8673613742702364
4431000000.0 0.5458055012583771 -0.8720189859027329
4434000000.0 0.5163241348761791 -0.8543868992553135
4438000000.0 0.5377155772127262 -0.8731015440838803
4441000000.0 0.5466730530928772 -0.8796180473481988
4444000000.0 0.5117493862529865 -0.8412030088821572
4447000000.0 0.5168402206382405 -0.878641247564372
4450000000.0 0.520016505661869 -0.8529572282263103
4453000000.0 0.5454121688461673 -0.8863137503786804
4456000000.0 0.5041325134395152 -0.8599960210006307
4459000000.0 0.5010903082699422 -0.8484732205910634
4462000000.0 0.5444319684054582 -0.9143807440811257
4466000000.0 0.5297270822974576 -0.893534222945871
4469000000.0 0.5472944652690964 -0.8731797638109161
4472000000.0 0.5123542498098865 -0.8841824849043627
4475000000.0 0.5022282614004143 -0.8512137164848708
4478000000.0 0.5180270508055587 -0.9268979655472798
4481000000.0 0.49211913438617644 -0.8468795882219817
4484000000.0 0.4840379848126776 -0.8799310490690955
4488000000.0 0.5087722806481512 -0.8554369657541272
4491000000.0 0.507488141996876 -0.8696198563889956
4494000000.0 0.5064128912276571 -0.8532342840322528
4497000000.0 0.5375418883778462 -0.8556600277665265
4500000000.0 0.5268957010113683 -0.8707947902406158
4503000000.0 0.5221640711699918 -0.8685472500879695
4506000000.0 0.5012388755217798 -0.870286169419395
4509000000.0 0.48657484686865565 -0.8603565966169024
4512000000.0 0.48976087006568436 -0.8571750223332266
4516000000.0 0.5226953883269603 -0.8923693675840338
4519000000.0 0.5036977622858931 -0.836352058929912
4522000000.0 0.5013369245150209 -0.8681046841995814
4525000000.0 0.5382540658475691 -0.8324735984175805
4528000000.0 0.5272052626448585 -0.8956893593540975
4531000000.0 0.5260248380878088 -0.8383722475213131
4534000000.0 0.4984279122187122 -0.8622915474457177
4538000000.0 0.5081483232753745 -0.8686775822937831
4541000000.0 0.4875411605921517 -0.8739845046292098
4544000000.0 0.515396849265686 -0.8696467763947557
4547000000.0 0.5231884353175589 -0.8563199558765939
4550000000.0 0.4999741638150818 -0.8879748820481261
4553000000.0 0.508140454579492 -0.892071646770201
4556000000.0 0.48478529815652605 -0.8708296827007245
4559000000.0 0.48323636045509244 -0.8739496843209424
4562000000.0 0.5243987244656887 -0.8775143732753115
4566000000.0 0.5210309155721443 -0.8730519238476848
4569000000.0 0.5016483688222066 -0.8795511564496222
4572000000.0 0.5187282398315614 -0.8715853009077384
4575000000.0 0.48049785306802284 -0.8751713479967224
4578000000.0 0.5320263875078695 -0.8873461839974675
4581000000.0 0.48732687041018896 -0.8820571450788596
4584000000.0 0.4957270524314563 -0.8847918574454018
4588000000.0 0.5191041863080986 -0.8918405016946199
4591000000.0 0.5229585054964214 -0.845726421994026
4594000000.0 0.4836498583183534 -0.8756343355272268
4597000000.0 0.517788663527516 -0.8813796991210786
4600000000.0 0.4646326849601251 -0.8778277831191846
4603000000.0 0.50020562801531 -0.8995652770629778
4606000000.0 0.5198919356819437 -0.8777269576908281
4609000000.0 0.5028432429200759 -0.875197042358249
4612000000.0 0.512518245312808 -0.8907182339106848
4616000000.0 0.49785583318785576 -0.8679488539882336
4619000000.0 0.49540962719005566 -0.8836541940728877
4622000000.0 0.5084705251419961 -0.8659111099688989
4625000000.0 0.47795903458606936 -0.8638766054805518
4628000000.0 0.5116765449338605 -0.8694874790573197
4631000000.0 0.49090201770745967 -0.8736983474158087
4634000000.0 0.4947336615520323 -0.8697707189996937
4638000000.0 0.5101823606590048 -0.8980752559364874
4641000000.0 0.5122337398667667 -0.8879855784461681
4644000000.0 0.4961850339952451 -0.8684346432640311
4647000000.0 0.5156936993735872 -0.8761069477522646
4650000000.0 0.47266558890391286 -0.8719290825647749
4653000000.0 0.5234809705773381 -0.898520239320741
4656000000.0 0.494987879531277 -0.8871952505110864
4659000000.0 0.5022307855488584 -0.8877066794796055
4662000000.0 0.4830210746129345 -0.8933023042022596
4666000000.0 0.49491636584377996 -0.8915581588724744
4669000000.0 0.4936676206462202 -0.8809834681096415
4672000000.0 0.47535498292720024 -0.8830967583014138
4675000000.0 0.49288147167213403 -0.8835940766846383
4678000000.0 0.4667171757106189 -0.8658446776381081
4681000000.0 0.4687569670278856 -0.9075413112004338
4684000000.0 0.4816251999124982 -0.9188335746117964
4688000000.0 0.47245241763943924 -0.8937180755660953
4691000000.0 0.5218002270728654 -0.8915478458544833
4694000000.0 0.495443101135996 -0.8974276172333878
4697000000.0 0.47820437370846186 -0.8772280678063881
4700000000.0 0.49609667611256436 -0.8752939323136959
4703000000.0 0.5204871304068808 -0.8538759247019104
4706000000.0 0.48204542870526923 -0.9171694508871966
4709000000.0 0.4790129337404675 -0.8813687623567336
4712000000.0 0.5080553732074832 -0.8926832394271331
4716000000.0 0.4837606189291155 -0.886123958449229
4719000000.0 0.5186374985936096 -0.8834441233294931
4722000000.0 0.5039513689908992 -0.8964701782629778
4725000000.0 0.5036719172926786 -0.8876068558848977
4728000000.0 0.4475715383297937 -0.8774644851572997
4731000000.0 0.5010057865584236 -0.9047868197140043
4734000000.0 0.4921465785359632 -0.877521922124159
4738000000.0 0.5037859938390907 -0.9111823068551266
4741000000.0 0.5090553395901353 -0.9209470584805666
4744000000.0 0.4878748598320021 -0.9000172119486162
4747000000.0 0.520596899281257 -0.8656097413383185
4750000000.0 0.509700064707812 -0.9098002868158813
4753000000.0 0.5120941591881757 -0.9078717360550408
4756000000.0 0.49516897986017555 -0.9080956252809068
4759000000.0 0.48626727658176155 -0.9009649283335747
4762000000.0 0.46409899491413575 -0.9075688523494282
4766000000.0 0.5249367472233171 -0.919910892180648
4769000000.0 0.4906973545439341 -0.9098822309694532
4772000000.0 0.48298981543219377 -0.8988651113203696
4775000000.0 0.46522464973675137 -0.9278481660124538
4778000000.0 0.48226747381566026 -0.9253278702545199
4781000000.0 0.4911798451034435 -0.8856961215166417
4784000000.0 0.48785672664311447 -0.8611063760417916
4788000000.0 0.5161064214260018 -0.9207380991545747
4791000000.0 0.480303906444869 -0.8838394399656162
4794000000.0 0.5238734886672543 -0.9315460300810325
4797000000.0 0.45291844514341206 -0.8844114195963975
4800000000.0 0.4964067117568409 -0.8912663790588418
4803000000.0 0.4626515112212123 -0.9369842108294034
4806000000.0 0.4962681521447448 -0.9138580163544958
4809000000.0 0.4574437264509786 -0.9024327587563512
4812000000.0 0.4504452717177171 -0.897383105699262
4816000000.0 0.4851950204124189 -0.8777336784741329
4819000000.0 0.5084284281115242 -0.9184681395626266
4822000000.0 0.5179044342939761 -0.91918227123768
4825000000.0 0.5162739495032863 -0.9018673032539267
4828000000.0 0.48406107753441185 -0.8905052767863452
4831000000.0 0.4643409667669518 -0.941171534440621
4834000000.0 0.5161361152282787 -0.9060939566592598
4838000000.0 0.47370647973071506 -0.9158380393608875
4841000000.0 0.4653874440132919 -0.8898312129921974
4844000000.0 0.5080125501995338 -0.8982731590996262
4847000000.0 0.5039350549113653 -0.8580687618589095
4850000000.0 0.48002028120138407 -0.9504017566553613
4853000000.0 0.4756747449781821 -0.8744615669254575
4856000000.0 0.47045503813268974 -0.8866818746554431
4859000000.0 0.4708677481972897 -0.934493231466565
4862000000.0 0.5082395431479141 -0.885965681031577
4866000000.0 0.45239745126676917 -0.9204033997125907
4869000000.0 0.4721312069669106 -0.9036857793630984
4872000000.0 0.4624985539782232 -0.9334600071443211
4875000000.0 0.5588700743805236 -0.9073086517368656
4878000000.0 0.4949430932636892 -0.8905795484725563
4881000000.0 0.49206362317925173 -0.9580826073896175
4884000000.0 0.5222046499533161 -0.8934496228868132
4888000000.0 0.5022183283487434 -0.8904345761088108
4891000000.0 0.5225009607804771 -0.9100530458077736
4894000000.0 0.490223528107806 -0.9285074467559666
4897000000.0 0.5136356800368937 -0.8934628758883392
4900000000.0 0.5199483651409479 -0.9322686825634031
4903000000.0 0.5299887140707179 -0.9135147740558235
4906000000.0 0.4680032956171511 -0.9316061317133384
4909000000.0 0.5059681858536589 -0.8962576009998598
4912000000.0 0.5061090950547151 -0.9439445471353919
4916000000.0 0.530940639757394 -0.9163773772223812
4919000000.0 0.5239885512070362 -0.92086136373302
4922000000.0 0.5149862271324859 -0.9128254628498331
4925000000.0 0.47984978321093147 -0.9080360129257152
4928000000.0 0.5110310436703844 -0.8630204152623756
4931000000.0 0.5347008806945829 -0.9061374429212282
4934000000.0 0.495479760981119 -0.8958961547903239
4938000000.0 0.4496632487916369 -0.8962349008619979
4941000000.0 0.4591789532292373 -0.8621424869750205
4944000000.0 0.485790091617185 -0.845059472653848
4947000000.0 0.47576417277175054 -0.8636906122946805
4950000000.0 0.46270559733667954 -0.8480576939624815
4953000000.0 0.46362124342551425 -0.9387413215894058
4956000000.0 0.4637524419394853 -0.9397880995993836
4959000000.0 0.4460722720686736 -0.9112005487128311
4962000000.0 0.5203801381626422 -0.8939785055925049
4966000000.0 0.5272486790063226 -0.9241774044740613
4969000000.0 0.5318011244667085 -0.9233626955724963
4972000000.0 0.49140844948327134 -0.9350195384972454
4975000000.0 0.5261765267944355 -0.8954383905721608
4978000000.0 0.5170496226135382 -0.9162462674281378
4981000000.0 0.48409886285552817 -0.9154155874771767
4984000000.0 0.5028831890888097 -0.8826173213406221
4988000000.0 0.49648596841879594 -0.861576813482973
4991000000.0 0.5572586063800603 -0.9177742073248917
4994000000.0 0.553218185926012 -0.8984671044703456
4997000000.0 0.4665523283743122 -0.9386097678094308
5000000000.0 0.5229142429324448 -0.9233608531676063
5003000000.0 0.5257762213130995 -0.9241902444244737
5006000000.0 0.5364384409042746 -0.9663977387997563
5009000000.0 0.5121821890781562 -0.9138721050996319
5012000000.0 0.47998018851986746 -0.8913164402735296
5016000000.0 0.5351690187281293 -0.9065151922539216
5019000000.0 0.49065197695704993 -0.9281531695975752
5022000000.0 0.5187781184127693 -0.9241058255697552
5025000000.0 0.5569296326000264 -0.9803175887083
5028000000.0 0.4939451000921603 -0.926363771733556
5031000000.0 0.5016699270149683 -0.9089684276082816
5034000000.0 0.4938844984012201 -0.963167297930488
5038000000.0 0.49620532331030354 -0.8799199175906487
5041000000.0 0.5520552183531737 -0.9089397943999543
5044000000.0 0.5229758606773387 -0.8742017822460582
5047000000.0 0.54541025802103 -0.9074692932291424
5050000000.0 0.6015392052381081 -0.8678497562757599
5053000000.0 0.5080993785143348 -0.9359281455150437
5056000000.0 0.5573797509451552 -0.8465605810232217
5059000000.0 0.572886758820828 -0.888076914485901
5062000000.0 0.48982570378258156 -0.930604905827203
5066000000.0 0.5696834266085314 -0.897996235877416
5069000000.0 0.5041240175783086 -0.8942990805433964
5072000000.0 0.5358203238058808 -0.8610623836448488
5075000000.0 0.5193129846570944 -0.9066356000892697
5078000000.0 0.5244604483067543 -0.9235101665235607
5081000000.0 0.469469973563233 -0.895100856349216
5084000000.0 0.4915096381375001 -0.9169002636543226
5088000000.0 0.5456104866318128 -0.9195960395720537
5091000000.0 0.5053419784854771 -0.9854801771786049
5094000000.0 0.5265339156979543 -0.9350473597599869
5097000000.0 0.5608318979215524 -0.8794498081533579
5100000000.0 0.5327084445968867 -0.8739413364230864
5103000000.0 0.5719615605802852 -0.9131527428390379
5106000000.0 0.5862087311948136 -0.9172332548261066
5109000000.0 0.5497489347099838 -0.8721605424416115
5112000000.0 0.5044622502512284 -0.8566168156362983
5116000000.0 0.486617633021201 -0.8643467961888849
5119000000.0 0.5060850899769883 -0.938652275640397
5122000000.0 0.5564950503541419 -0.8631067825978044
5125000000.0 0.49683711620960724 -0.8629648747710943
5128000000.0 0.5368411884027786 -0.9045962844061487
5131000000.0 0.5401705154473533 -0.8938159109476698
5134000000.0 0.509020145253924 -0.8970624963118896
5138000000.0 0.5375671618648336 -0.8907143378899446
5141000000.0 0.594533879831038 -0.8269318471381228
5144000000.0 0.5132667056450719 -0.8633579793894455
5147000000.0 0.5552939878489295 -0.8907179118515294
5150000000.0 0.5945458659652078 -0.8929315197811472
5153000000.0 0.5392179331822844 -0.9238316677176424
5156000000.0 0.5435965023637174 -0.9065637111977609
5159000000.0 0.5716385916929204 -0.9387252166802094
5162000000.0 0.5102630692655368 -0.8764113471191401
5166000000.0 0.5388545367027412 -0.8735817231728771
5169000000.0 0.5548819777848318 -0.9141795583365928
5172000000.0 0.5463861735996933 -0.9079355066823278
5175000000.0 0.566488878538087 -0.904474800887967
5178000000.0 0.5427798704160369 -0.9199555544649289
