! Created with skrf 1.8.0 (http://scikit-rf.org).
# Hz S RI R 50.0 
!freq ReS11 ImS11
4000000000.0 0.2763555785152656 -1.0047055223431494
4003000000.0 0.23136831371276728 -1.031991424277697
4006000000.0 0.23289766865983125 -1.0083907114633694
4009000000.0000005 0.2569480071112151 -1.0313005321658721
4011999999.9999995 0.3384584650613781 -1.0221048389497183
4016000000.0 0.24368436131996118 -1.037642032518244
4019000000.0 0.2020172177175235 -0.9843621522540504
4022000000.0000005 0.3083142094636925 -1.0516036679104885
4025000000.0000005 0.22479483218864632 -1.0136306673314972
4027999999.9999995 0.2417628149576872 -0.9822768567387733
4030999999.9999995 0.2357137933215781 -0.9518794960676136
4034000000.0 0.22581242109118155 -0.9749814942999399
4038000000.0000005 0.2586128909169502 -0.9824764927011671
4041000000.0000005 0.2467911536332324 -1.020569521600476
4043999999.9999995 0.2524533105031883 -1.0617378175053664
4046999999.9999995 0.2675589428225289 -1.0372435291145394
4050000000.0 0.25685827472439426 -1.053865633797884
4053000000.0 0.19836677384140344 -0.9843982298026571
4056000000.0 0.22626083165330818 -1.0070781453822903
4059000000.0 0.26051423839092847 -0.9819438220225671
4062000000.0000005 0.21069611547897105 -0.9903171643105844
4066000000.0 0.2294372110286593 -0.9389095950850371
4069000000.0 0.24508045688819757 -1.0366656761046358
4072000000.0 0.2472774201750234 -0.9838864084371124
4075000000.0 0.2761398478696122 -1.0074880647103934
4078000000.0000005 0.20963607008832774 -0.9902173081098613
4081000000.0000005 0.2698582734963206 -0.9967960582732822
4083999999.9999995 0.23784322343086195 -1.012444321208165
4088000000.0 0.22973920560166164 -1.0017085776042853
4091000000.0 0.24334811584119392 -1.03055755254453
4094000000.0000005 0.21774874498629637 -0.9941699294629424
4097000000.0000005 0.19505887228865185 -0.991308133942549
4099999999.9999995 0.17057138408774347 -1.0020034607508577
4102999999.9999995 0.2581573962386662 -1.030426920394711
4106000000.0 0.2171761494720992 -1.0133486179756255
4109000000.0 0.23689228328009768 -0.994989675117087
4112000000.0 0.17474825867427213 -1.0093368054177982
4115999999.9999995 0.19634720048552554 -1.0335107609359275
4119000000.0 0.20883683049227394 -0.9989431692136286
4122000000.0 0.1799356626918639 -1.002076980849899
4125000000.0 0.20097000336340445 -1.0143172268390006
4128000000.0 0.22368547488945129 -0.9930412813680537
4131000000.0 0.17211470254960407 -1.0073030903632851
4134000000.0000005 0.20929742347866503 -1.000468411900315
4138000000.0 0.18824889611976892 -1.0004847610303413
4141000000.0 0.1874616443843318 -0.9989957564843485
4144000000.0 0.21931357375237748 -1.0184779822462275
4147000000.0000005 0.18183184140397674 -1.0069040854209583
4150000000.0000005 0.15213868622090126 -1.0147081217726224
4152999999.9999995 0.18070974527056152 -0.9825357444197632
4155999999.9999995 0.1950638366149009 -1.0048891390677357
4159000000.0 0.16755796159315461 -0.9863846043977131
4162000000.0 0.18907105320219944 -0.9919064014149837
4166000000.0000005 0.18674899254670688 -1.0347433081828377
4168999999.9999995 0.15654422223072112 -1.0147191688701096
4171999999.9999995 0.16197621388595398 -1.0144804780470293
4175000000.0 0.17587096094588905 -1.0225564432836705
4178000000.0 0.18248044443047856 -1.0147319662584477
4181000000.0 0.16524004552300797 -1.0067418353116795
4184000000.0 0.16379834461839757 -0.9959848903128883
4187999999.9999995 0.1551418895283411 -0.9869359155712258
4191000000.0 0.20091740906052735 -0.9826587411249772
4194000000.0 0.14635089495559794 -0.9938099454906179
4197000000.0 0.1940943471470854 -1.0308823576439718
4200000000.0 0.19105822467149242 -1.0179688711071402
4203000000.0000005 0.16259889731671062 -1.0112773485428797
4206000000.0000005 0.1732144862158821 -1.016075998915612
4208999999.9999995 0.1432995138692021 -0.9791145218797882
4211999999.9999995 0.1172374240651818 -1.0136642038926809
4216000000.0 0.17607697251643475 -1.0197464112503278
4219000000.0000005 0.15946430920990284 -1.0235947744813458
4222000000.0000005 0.1431133682212113 -0.9970302397241957
4224999999.9999995 0.140111192505686 -0.988156453726103
4227999999.9999995 0.13199542116222554 -1.0147059237826452
4231000000.0 0.11685863607423574 -1.01882248191151
4234000000.0 0.11740614286339926 -1.0183664586997203
4238000000.0000005 0.10102956135128704 -1.0130472440973268
4240999999.9999995 0.10866111942468382 -0.9877511916920022
4244000000.0 0.11775206018521003 -0.9908602846927171
4247000000.0 0.12663527937832667 -1.0035065490779616
4250000000.0 0.11526491256400118 -0.9932750910960513
4253000000.0 0.07596923579456188 -0.9784843110643967
4256000000.0 0.10262440763750605 -1.0420400986735983
4259000000.0000005 0.08796664578683208 -0.9586713761228914
4261999999.9999995 0.07853480772315813 -0.9907206398944888
4266000000.0 0.05406092228943038 -1.0274337840190078
4269000000.0 0.11226348882449583 -0.9940608971742364
4272000000.0000005 0.0930701981834009 -0.9924859537992076
4275000000.0000005 0.10631105313361183 -1.0011959306506597
4277999999.9999995 0.09626899743221617 -1.0263027439374974
4280999999.9999995 0.10560653819474491 -1.0046016881931457
4284000000.0 0.046580928731073445 -1.025202953357046
4288000000.0000005 0.10710419440104157 -0.9889874613387316
4291000000.0000005 0.06513370958132025 -0.998803316369602
4293999999.9999995 0.07263458407879009 -1.0129317193992058
4297000000.0 0.11506223838351587 -1.0044673145404686
4300000000.0 0.08139668556236862 -0.9737433003662664
4303000000.0 0.06683278780425855 -0.982621648737143
4306000000.0 0.11482832904032148 -0.9937342677387786
4309000000.0 0.07332032488040768 -1.0046702887310377
4312000000.0 0.09165863316689954 -1.0074916977422197
4316000000.0 0.06096408683101795 -1.017081022022681
4319000000.0 0.07308555404796546 -0.9935373460380454
4322000000.0 0.02690993508291506 -0.9945664605117244
4325000000.0 0.04342590414133557 -0.9862425622013424
4328000000.0 0.05449331325832368 -0.9926051918469749
4331000000.0 0.017798620874138082 -1.0071688281985085
4334000000.0 0.020324994367721783 -1.0008424920280214
4338000000.0 0.06538010160459434 -1.0221574147325745
4341000000.0 0.04669236943793392 -1.0276903996334055
4344000000.0 0.03377049870790083 -1.0492963971157212
4347000000.0 -0.001937951114017844 -1.0340891742705158
4350000000.0 0.004448706868065699 -0.9660310967375892
4353000000.0 0.025893600591746946 -0.9992490786358958
4356000000.0 -0.01865413858333359 -1.0002528528827956
4359000000.0 -0.0019101258955090406 -0.97247404916164
4362000000.0 -0.04773447063589509 -1.0050001623887905
4366000000.0 -0.001055711529464709 -1.0348519739748294
4369000000.0 -0.014460408458915941 -0.9860307021815642
4372000000.0 -0.04620414452454508 -0.999116355662045
4375000000.0 0.017386682932564346 -1.0035571338196503
4378000000.0 -0.021588208390451724 -0.9904983396212542
4381000000.0 -0.03506736825105666 -0.9917917067966473
4384000000.0 -0.04168330000300613 -1.0673592312677274
4388000000.0 -0.032384948854794204 -0.9916635898003703
4391000000.0 -0.034063681360701537 -1.027607610455102
4394000000.0 -0.05137258438192421 -0.9938568733127772
4397000000.0 -0.052528327725224144 -1.0183967685147133
4400000000.0 -0.06800183796413434 -1.0197015756768468
4403000000.0 -0.06542152886487457 -1.030346896112179
4406000000.0 -0.07340340426049402 -1.0043813937538677
4409000000.0 -0.08409183135802578 -1.0238013859991255
4412000000.0 -0.10837190250317447 -0.9921499851668605
4416000000.0 -0.08439723476698646 -1.0033936875658411
4419000000.0 -0.08261603975549792 -1.021119715380218
4422000000.0 -0.06698484403696492 -1.0199806705408647
4425000000.0 -0.08376350601807869 -1.0197218829888153
4428000000.0 -0.09192790591316996 -1.0036977184280278
4431000000.0 -0.08416044763537295 -1.01500953545565
4434000000.0 -0.11415389629083461 -1.008193540962283
4438000000.0 -0.09361120553578989 -1.0259347608184628
4441000000.0 -0.11973492752624504 -1.0095861285836614
4444000000.0 -0.10507162533295317 -0.9928509195560304
4447000000.0 -0.1286468508693781 -1.008825691089204
4450000000.0 -0.13811153918387048 -0.9956888311986969
4453000000.0 -0.1255471763635193 -1.01412840980722
4456000000.0 -0.1300367260658854 -0.9921529557690822
4459000000.0 -0.1496634201037384 -0.9981295062052638
4462000000.0 -0.13902532519038763 -1.0444160896280419
4466000000.0 -0.16907568517577237 -1.0400482089665508
4469000000.0 -0.1432351447936246 -0.9929876795703813
4472000000.0 -0.17246719285256662 -1.0108258724035604
4475000000.0 -0.18071835489813093 -0.9790636815598527
4478000000.0 -0.17606733406562358 -1.0021832405508448
4481000000.0 -0.17880723635088341 -0.9755455803677275
4484000000.0 -0.2372719070896046 -0.9819958737543601
4488000000.0 -0.20779444955914067 -0.9869253797228748
4491000000.0 -0.182365378737117 -0.9965429443012925
4494000000.0 -0.17605325723788823 -0.9849194553681242
4497000000.0 -0.1959463547024376 -0.9908728604236138
4500000000.0 -0.22555427890112545 -1.0033968891378537
4503000000.0 -0.22018914278766694 -1.0252840514256925
4506000000.0 -0.23914943828352558 -0.9860134180454644
4509000000.0 -0.22515248272123772 -0.9499390161130541
4512000000.0 -0.22036475400650368 -0.9629914906557817
4516000000.0 -0.25951823190872364 -1.003864063141529
4519000000.0 -0.23776674969127032 -0.9821211007341153
4522000000.0 -0.2330458390632727 -0.999949422142973
4525000000.0 -0.25504463992011184 -1.0081464434727727
4528000000.0 -0.2600256752618285 -0.9802198104545214
4531000000.0 -0.26814026809232894 -0.9673007134678715
4534000000.0 -0.2822061003984448 -0.9657063604317337
4538000000.0 -0.294912005245483 -0.983730539358112
4541000000.0 -0.2784577360175836 -0.9329982581673911
4544000000.0 -0.2916453918986698 -0.9711457818294933
4547000000.0 -0.3034323386448584 -0.9581245348704616
4550000000.0 -0.3215864537129106 -0.9906775429035675
4553000000.0 -0.3122229048702273 -0.956822530322689
4556000000.0 -0.3098901949310536 -0.9849515592710525
4559000000.0 -0.3140568864832746 -0.965282229873572
4562000000.0 -0.33133031825866 -0.950578688441041
4566000000.0 -0.3438074676736066 -0.9667698994002727
4569000000.0 -0.3413536338980735 -0.9709443275477966
4572000000.0 -0.34596512616461367 -0.9623511319875158
4575000000.0 -0.3629862127985091 -0.9481119813901951
4578000000.0 -0.37861023583168224 -0.9619213450846956
4581000000.0 -0.37639918261060556 -0.9333373462083019
4584000000.0 -0.37826852070064254 -0.9400399405375682
4588000000.0 -0.36705256964908534 -0.9523502465072942
4591000000.0 -0.40379260250971766 -0.9534287675912242
4594000000.0 -0.4106634164956334 -0.9455438853451305
4597000000.0 -0.41760162988467375 -0.9214346780149911
4600000000.0 -0.41541089518491503 -0.9820352518473494
4603000000.0 -0.4241098160878335 -0.9022707767035565
4606000000.0 -0.4287522293689885 -0.9835761016438284
4609000000.0 -0.4077048202501808 -0.9270610724050974
4612000000.0 -0.41686264205829293 -0.8968978031644199
4616000000.0 -0.44515697104037144 -0.8987475184684406
4619000000.0 -0.4676584449118811 -0.886992388229307
4622000000.0 -0.5063703837249909 -0.9101028132705586
4625000000.0 -0.5085537315175066 -0.9323525933047753
4628000000.0 -0.5150807421602605 -0.9840799522903281
4631000000.0 -0.49582311071852964 -0.9264727572914714
4634000000.0 -0.5179498115870886 -0.9151616125419347
4638000000.0 -0.504360969293151 -0.925309761264565
4641000000.0 -0.5158187155047472 -0.8696686434546996
4644000000.0 -0.47489696960106487 -0.8741144506215074
4647000000.0 -0.510600892695531 -0.8646378940518907
4650000000.0 -0.5447071986809996 -0.8733036326409189
4653000000.0 -0.5057347451208339 -0.8684024897194541
4656000000.0 -0.5155091494051058 -0.9051505702454805
4659000000.0 -0.5654244104529262 -0.8687926741004053
4662000000.0 -0.568250887536827 -0.9000843821685627
4666000000.0 -0.6040337014799476 -0.839640963194007
4669000000.0 -0.5969639584976763 -0.8545838990795469
4672000000.0 -0.6316233988810315 -0.8912010632189249
4675000000.0 -0.6413056847944797 -0.8893133039210295
4678000000.0 -0.6087993823511274 -0.8024246226605177
4681000000.0 -0.5992790387113506 -0.7902829834227012
4684000000.0 -0.6573805288889542 -0.8467123569831233
4688000000.0 -0.681726448509865 -0.7870529409477444
4691000000.0 -0.6537733101789931 -0.8700226396745354
4694000000.0 -0.5778020519758955 -0.7745284001784661
4697000000.0 -0.6243165491053609 -0.7469134245885799
4700000000.0 -0.6456786746121608 -0.8305937682552217
4703000000.0 -0.526611573841821 -0.7959434085870107
4706000000.0 -0.6897487381041251 -0.7422093701153708
4709000000.0 -0.6455062802774092 -0.7542295381918578
4712000000.0 -0.6623888766735093 -0.7734143068992134
4716000000.0 -0.7194161123313417 -0.8019588645891379
4719000000.0 -0.6314449017081462 -0.8434166330592558
4722000000.0 -0.674231693731924 -0.7707507099753843
4725000000.0 -0.7092339645771732 -0.7716145526961273
4728000000.0 -0.7469023705515963 -0.7482950950883592
4731000000.0 -0.7743022856276207 -0.77470601563888
4734000000.0 -0.7113726262373339 -0.7296089743825339
4738000000.0 -0.7726451947783215 -0.7709978184778262
4741000000.0 -0.8105681324287228 -0.6848054746406865
4744000000.0 -0.7406655051784679 -0.6684994983380922
4747000000.0 -0.7180367820629623 -0.6987472825097689
4750000000.0 -0.7496147775341397 -0.7068423301307207
4753000000.0 -0.7320426212534011 -0.7002783697671667
4756000000.0 -0.8229468056265998 -0.7006811419624289
4759000000.0 -0.781368385092845 -0.7018973807266518
4762000000.0 -0.9081360016930166 -0.6377555163643791
4766000000.0 -0.810760134751812 -0.6580957964711693
4769000000.0 -0.8638561869021076 -0.6277304354906003
4772000000.0 -0.8245550513187987 -0.6104901648947059
4775000000.0 -0.8980267802143553 -0.6223185393017363
4778000000.0 -0.8872683927779477 -0.5563043281771232
4781000000.0 -0.8482316877606295 -0.61054358205226
4784000000.0 -0.8730278849902682 -0.5882399732700039
4788000000.0 -0.9193979868353522 -0.5364486375812012
4791000000.0 -0.8675707349827855 -0.5512159909695734
4794000000.0 -0.9087783303424921 -0.5710222574927146
4797000000.0 -0.8665541359710457 -0.5098765363580157
4800000000.0 -0.8709975424377954 -0.4967120563990795
4803000000.0 -0.938920680549691 -0.4625161505453299
4806000000.0 -0.9463892980848587 -0.4993020038285092
4809000000.0 -0.9811113799090305 -0.44316556259507855
4812000000.0 -0.9397309761396384 -0.4230905383139817
4816000000.0 -0.9072752663178208 -0.42602567814248843
4819000000.0 -0.9572996264585522 -0.4164796632701367
4822000000.0 -0.988990294217483 -0.4622795509041746
4825000000.0 -0.9877744799672242 -0.4313131513236842
4828000000.0 -0.9916600210620921 -0.37186757287602157
4831000000.0 -0.9854277872827318 -0.36121476491713045
4834000000.0 -1.001188645655024 -0.35961793886949645
4838000000.0 -0.9901019233218523 -0.2896750721035365
4841000000.0 -1.0066312550025414 -0.2905324878707988
4844000000.0 -0.9979945313351194 -0.31639993319357895
4847000000.0 -0.9994115444509489 -0.30273427312062745
4850000000.0 -1.0523492025549521 -0.2494881452548081
4853000000.0 -1.0085359495135822 -0.21784297578006415
4856000000.0 -1.0217651621481663 -0.20658431288980011
4859000000.0 -1.050169152599106 -0.17466696796344458
4862000000.0 -1.060444448673076 -0.15893986048996075
4866000000.0 -1.0201655030562544 -0.17605600533757734
4869000000.0 -1.0399626487430351 -0.18839418547099795
4872000000.0 -1.0344463861701685 -0.13759396143698033
4875000000.0 -1.063351081466402 -0.10264294387814432
4878000000.0 -1.027522693582795 -0.11368078954141309
4881000000.0 -0.9799680748506971 -0.053943275635973176
4884000000.0 -1.0700643288382634 -0.0373738418253477
4888000000.0 -1.0534034819123521 0.026737105732649813
4891000000.0 -0.9816492058219357 0.06362900750792333
4894000000.0 -1.0416369263699594 -0.01661921663067667
4897000000.0 -1.0220516579573413 0.05843690551418057
4900000000.0 -1.0479409901486807 0.051321461799079315
4903000000.0 -1.0524455604596332 0.12329137698486603
4906000000.0 -1.048412172142955 0.10105168143910898
4909000000.0 -0.9930685674553792 0.1637810947539199
4912000000.0 -0.9566763360960008 0.20500643620595
4916000000.0 -0.9779754079808718 0.2405470288237706
4919000000.0 -0.9555225610475064 0.23838327950736637
4922000000.0 -0.9686075831468083 0.28199409603218195
4925000000.0 -0.9794701921422713 0.2666686677150311
4928000000.0 -1.0492364864798644 0.315105116982114
4931000000.0 -0.9551441649884204 0.34294064659478485
4934000000.0 -0.9591270613660423 0.32720710012440984
4938000000.0 -0.9891747111575868 0.38047946894099793
4941000000.0 -0.9320458136694094 0.40354203061718197
4944000000.0 -1.0034920062138795 0.4554573037916421
4947000000.0 -0.9721766770291385 0.4439077735149716
4950000000.0 -0.9776439991210408 0.43552908481149627
4953000000.0 -0.8740932833486508 0.4432368550567707
4956000000.0 -0.9080419408598686 0.46240729839633865
4959000000.0 -0.9159646243183006 0.5233114505994221
4962000000.0 -0.8294065836703027 0.5467399033837571
4966000000.0 -0.8046504409594238 0.542167599169802
4969000000.0 -0.7730157922843199 0.5659817368989114
4972000000.0 -0.7883135304891216 0.58930981932972
4975000000.0 -0.7594229889089118 0.6992103854137275
4978000000.0 -0.789310102610241 0.6594011010120386
4981000000.0 -0.7454659577569739 0.6660204116154016
4984000000.0 -0.7452277868605971 0.7445530850832911
4988000000.0 -0.7477725452709897 0.7438454381461491
4991000000.0 -0.6724904387543208 0.7869143430224761
4994000000.0 -0.6576964688140381 0.7580857388453343
4997000000.0 -0.6609355392220506 0.7405006549462094
5000000000.0 -0.5797283883108167 0.7944417260887867
5003000000.0 -0.5700101576485712 0.8238982525786935
5006000000.0 -0.5444079208180214 0.776222763178046
5009000000.0 -0.5199057725081893 0.8635612430162621
5012000000.0 -0.5360624178564775 0.8702150615716066
5016000000.0 -0.5110959146793218 0.8539287755682087
5019000000.0 -0.5057037279371155 0.8715673703283044
5022000000.0 -0.43709329604459735 0.9081634854417625
5025000000.0 -0.40303974824508254 0.8611097982540387
5028000000.0 -0.4297661484264798 0.9000394640379659
5031000000.0 -0.35072141959614195 0.9207785626399769
5034000000.0 -0.39210092169895344 0.9768768373774284
5038000000.0 -0.36226719879458785 0.9550157871589355
5041000000.0 -0.3211150066095789 0.9551470769823474
5044000000.0 -0.28860378240038537 0.9528190946058068
5047000000.0 -0.23131517614233554 0.9696362656719258
5050000000.0 -0.2320832221222956 0.9852652675693907
5053000000.0 -0.1927241077121578 0.9383872453364781
5056000000.0 -0.14336958458672455 0.9890393355847446
5059000000.0 -0.12042952688242103 1.0030859299272745
5062000000.0 -0.13216487979284242 0.9919640193621504
5066000000.0 -0.05200693193585987 0.9939351995854244
5069000000.0 -0.09246513057475547 1.0291871509086632
5072000000.0 -0.083721051844459 1.0286990363304338
5075000000.0 -0.00652036848154447 0.9972465145063873
5078000000.0 -0.013235858899607988 1.026358928234437
5081000000.0 0.06167147056314737 0.9994309843391264
5084000000.0 0.0467933100236379 0.9787905978501251
5088000000.0 0.09446243848359848 1.0113472813993694
5091000000.0 0.11897331006271755 1.0076387909515856
5094000000.0 0.15737105946095553 0.992375427548918
5097000000.0 0.15413263147182094 0.9883287560336464
5100000000.0 0.1716971190364731 0.9916752522814092
5103000000.0 0.16978248571004945 0.9847445823718416
5106000000.0 0.2250463252891714 0.9813919293950555
5109000000.0 0.2503121666061789 0.9717372994376219
5112000000.0 0.2766655499131346 1.0055797612667223
5116000000.0 0.2648892252010947 0.9724250252059126
5119000000.0 0.29415675616689707 0.9396275142422723
5122000000.0 0.30583190909327934 0.9661444434166977
5125000000.0 0.32969842069973404 0.9506023918373139
5128000000.0 0.35316480446465887 0.9471444727631751
5131000000.0 0.3714847737193801 0.9073570026524688
5134000000.0 0.45054821138074136 0.9390068113757477
5138000000.0 0.4188815686315396 0.9075701350295546
5141000000.0 0.40941924682424335 0.9492500458013368
5144000000.0 0.46395652484318395 0.937441340334673
5147000000.0 0.4520024888424468 0.9103770387405776
5150000000.0 0.47188470857402987 0.8702223895787085
5153000000.0 0.5136377251633109 0.8424380519285481
5156000000.0 0.5082991604800814 0.8817667100189513
