! Created with skrf 1.8.0 (http://scikit-rf.org).
# Hz S RI R 50.0 
!freq ReS11 ImS11
4000000000.0 -0.061894643222257684 -1.003377361091952
4003000000.0 -0.08207414514358857 -1.0220258580613981
4006000000.0 -0.09783437287422464 -1.0337810935454914
4009000000.0000005 -0.117353325944164 -1.048519407890109
4011999999.9999995 -0.057591819990352566 -1.057967961562073
4016000000.0 -0.1165122107413234 -1.0412046463686626
4019000000.0 -0.10643045243250282 -0.9971148009845928
4022000000.0000005 -0.08062918228702648 -1.048659459581474
4025000000.0000005 -0.12447801517441853 -1.0027200544920931
4027999999.9999995 -0.16540675440085156 -0.977236872008205
4030999999.9999995 -0.11604047465798178 -1.0038772355687429
4034000000.0 -0.15422099544328535 -1.0185421509629702
4038000000.0000005 -0.17942508844250626 -1.0576906013014231
4041000000.0000005 -0.14561574884585263 -1.026473942242206
4043999999.9999995 -0.1239154122288336 -1.007732823225233
4046999999.9999995 -0.16576290161339086 -1.0511288029603016
4050000000.0 -0.16290148899127577 -1.0034193529860211
4053000000.0 -0.1511663554683652 -0.9938874151336282
4056000000.0 -0.16643250687677724 -1.0394692034166797
4059000000.0 -0.19220343151601077 -0.9693096878866988
4062000000.0000005 -0.15164000112531892 -1.0266788786772434
4066000000.0 -0.18041133901546125 -0.9787731976016171
4069000000.0 -0.2056041401271106 -0.9828198951100027
4072000000.0 -0.2265212921566754 -0.9734900863511012
4075000000.0 -0.20442743180197115 -1.0464075583767118
4078000000.0000005 -0.2106237920319063 -0.9909859582234494
4081000000.0000005 -0.23935413839733297 -0.9961204144499645
4083999999.9999995 -0.2300242472991531 -1.0167746293621378
4088000000.0 -0.22580841479148098 -0.9582535696082445
4091000000.0 -0.2349522924880687 -0.96782341715859
4094000000.0000005 -0.2536147989548643 -0.9713406045061902
4097000000.0000005 -0.22151022803402987 -0.9741401865042665
4099999999.9999995 -0.2563254015268675 -0.9755577133164198
4102999999.9999995 -0.2504591126514806 -0.9987505158516323
4106000000.0 -0.28952510105900303 -1.0020223171777711
4109000000.0 -0.26347297075333925 -0.9879196480167649
4112000000.0 -0.2642232086340046 -0.9481514203783017
4115999999.9999995 -0.29542224901556596 -0.9591301319699759
4119000000.0 -0.2861459670690869 -0.961107378392093
4122000000.0 -0.2856063209414786 -0.9354645645756323
4125000000.0 -0.3077470315613633 -0.9579390368257672
4128000000.0 -0.302508530710131 -0.9495825161043487
4131000000.0 -0.35082319910570675 -0.9419291247744641
4134000000.0000005 -0.3088632794098994 -0.986067388422398
4138000000.0 -0.37257080877340937 -0.945956578239116
4141000000.0 -0.3262529928471413 -0.9588899095666328
4144000000.0 -0.33927661111262997 -0.9648916015179453
4147000000.0000005 -0.36769086178549826 -0.9705483652883163
4150000000.0000005 -0.3834734740897101 -0.9363437103884344
4152999999.9999995 -0.3635164527516681 -0.9266430454752083
4155999999.9999995 -0.36845842337158535 -0.9602849967222803
4159000000.0 -0.38550726085527764 -0.9024340583178586
4162000000.0 -0.3926412544576296 -0.9403840047422735
4166000000.0000005 -0.39258258931129486 -0.9628193903586862
4168999999.9999995 -0.40344143920640707 -0.9069014844836562
4171999999.9999995 -0.4337641663276975 -0.9205948421571148
4175000000.0 -0.4536261398248265 -0.962167711222502
4178000000.0 -0.42497371656921257 -0.9100855125701318
4181000000.0 -0.46746845828994277 -0.8627801620171475
4184000000.0 -0.4230237609109026 -0.863857591714356
4187999999.9999995 -0.46235223857729846 -0.8809526501337968
4191000000.0 -0.46210430902646865 -0.8986646292348566
4194000000.0 -0.4886387084173385 -0.8830111170745223
4197000000.0 -0.48560019510473207 -0.9051628070200504
4200000000.0 -0.47191905327117745 -0.9216400676548495
4203000000.0000005 -0.5042900850814203 -0.9180291431425098
4206000000.0000005 -0.5081949411916711 -0.8777842906502226
4208999999.9999995 -0.5227281738463313 -0.8470541358666064
4211999999.9999995 -0.5596177479918437 -0.8466924395376869
4216000000.0 -0.5377638376091397 -0.8978225817491361
4219000000.0000005 -0.55352304082751 -0.8580325118574674
4222000000.0000005 -0.5455256138117202 -0.8251807941673974
4224999999.9999995 -0.5704164227995909 -0.8228648984004245
4227999999.9999995 -0.606071376118045 -0.8142627878794255
4231000000.0 -0.6183146637730244 -0.8085682728354129
4234000000.0 -0.6298540529569554 -0.7983792999785839
4238000000.0000005 -0.6233308092243655 -0.7916670991862093
4240999999.9999995 -0.6262445142173946 -0.7454515086560232
4244000000.0 -0.6220719247328423 -0.767499380158837
4247000000.0 -0.6315994812751433 -0.76269702887531
4250000000.0 -0.6374071254784284 -0.7516702965835179
4253000000.0 -0.6676873374250145 -0.7455525749230181
4256000000.0 -0.7015717456131549 -0.7807386602765076
4259000000.0000005 -0.6895496399076537 -0.7200511236058929
4261999999.9999995 -0.7158697502043672 -0.726081281940564
4266000000.0 -0.7319514584526348 -0.6862090268866987
4269000000.0 -0.6864755055055198 -0.7049577255833079
4272000000.0000005 -0.7176911260440403 -0.7080074631083384
4275000000.0000005 -0.7263235136958888 -0.7343012970305962
4277999999.9999995 -0.771280546948007 -0.7159026814773974
4280999999.9999995 -0.7664282154471234 -0.6827609980759262
4284000000.0 -0.7605113949677069 -0.6623327629356575
4288000000.0000005 -0.7552412791094263 -0.6704231998013942
4291000000.0000005 -0.7517203223339545 -0.6417761798536123
4293999999.9999995 -0.8111525723313442 -0.6341300958260208
4297000000.0 -0.7971689754087944 -0.6383988803635324
4300000000.0 -0.7829697143990073 -0.6056461212362335
4303000000.0 -0.8124441142803642 -0.5946652725591463
4306000000.0 -0.8298715342595963 -0.5880866457199172
4309000000.0 -0.8561404834845743 -0.5680692360337298
4312000000.0 -0.8481224128342623 -0.5581656228542115
4316000000.0 -0.8368462686136203 -0.5174512955314202
4319000000.0 -0.8534957196009694 -0.5397776092848829
4322000000.0 -0.9048576685486533 -0.5054425733250356
4325000000.0 -0.8784467614626235 -0.5071140728784633
4328000000.0 -0.8830767440138639 -0.48884548785723914
4331000000.0 -0.9057936894973525 -0.4504772283281432
4334000000.0 -0.9245479399434502 -0.4426794012977386
4338000000.0 -0.9126590268442375 -0.43036127955301173
4341000000.0 -0.9275522257824146 -0.42463046030695345
4344000000.0 -0.9293439233060239 -0.4005698605205788
4347000000.0 -0.9546609736326525 -0.3993293251571768
4350000000.0 -0.9632229775255797 -0.340257802437513
4353000000.0 -0.9634971304558247 -0.34703099933516246
4356000000.0 -0.9665268682183565 -0.3183118089172313
4359000000.0 -0.9873022696467149 -0.3008891726444683
4362000000.0 -0.9628075016543047 -0.30048810336040305
4366000000.0 -0.9827683099648534 -0.26432781965860835
4369000000.0 -1.008223872526888 -0.2528183864837981
4372000000.0 -0.9990601625566384 -0.24063519823071206
4375000000.0 -0.9993682514690228 -0.21123603880412062
4378000000.0 -1.0551204488602668 -0.18830267599316064
4381000000.0 -1.0194257042510442 -0.15284203130717722
4384000000.0 -0.9940296007700741 -0.12645375669642472
4388000000.0 -1.0301899210946994 -0.13010136878638445
4391000000.0 -1.0283493973173328 -0.09562229811220169
4394000000.0 -1.036307797888428 -0.10376007178739649
4397000000.0 -1.0472918463799359 -0.058594595492208246
4400000000.0 -1.0188098401331989 -0.02021660945442527
4403000000.0 -1.025153663697994 -0.01801198475142657
4406000000.0 -1.0119256250303803 0.02294188136511549
4409000000.0 -0.999042171708283 0.03894866578670608
4412000000.0 -0.9913926094767194 -0.01333820185068657
4416000000.0 -1.0247960929751476 0.0646450876143228
4419000000.0 -1.0470637144838926 0.055219126748241976
4422000000.0 -1.0704692870968755 0.13096637318356213
4425000000.0 -0.9574278822329794 0.17756387979567573
4428000000.0 -1.053486327533883 0.17863822239333926
4431000000.0 -0.9759868045772706 0.1988822931050238
4434000000.0 -1.0541765696230927 0.20611662388224472
4438000000.0 -0.9471474972603184 0.21417716677367482
4441000000.0 -0.9637785325139299 0.29519878108627656
4444000000.0 -1.0634966559992163 0.3344044387900288
4447000000.0 -1.0102738623511376 0.2901823675943729
4450000000.0 -1.0050466690644424 0.39607578240052044
4453000000.0 -0.9213549944421023 0.3244549069659676
4456000000.0 -0.9923165857216998 0.36097150916694926
4459000000.0 -0.9956812075286205 0.45492506108316444
4462000000.0 -0.8574895733084178 0.4657199641799985
4466000000.0 -0.9013827251755072 0.4083086312568456
4469000000.0 -0.9106916401457019 0.5146281253963801
4472000000.0 -0.8562555915066876 0.5007155081353912
4475000000.0 -0.9444935035122046 0.5822025398246875
4478000000.0 -0.8385228911774912 0.4995678647728306
4481000000.0 -0.9187179959772233 0.5553612897050054
4484000000.0 -0.856061665775044 0.5718010503509525
4488000000.0 -0.8441580319091391 0.6285472839758152
4491000000.0 -0.8449221531643726 0.6304673109209726
4494000000.0 -0.8174493257742002 0.6478525622272775
4497000000.0 -0.7850165142292194 0.6668467455923385
4500000000.0 -0.7188959050572838 0.7058738512267365
4503000000.0 -0.7108349709994151 0.7256267841146578
4506000000.0 -0.7228684033643783 0.7426307865399748
4509000000.0 -0.6868399789948352 0.8037916983006623
4512000000.0 -0.6806248402628367 0.7574090552368887
4516000000.0 -0.6091767198254092 0.7933703204897722
4519000000.0 -0.6306906200292572 0.8616110977296312
4522000000.0 -0.6332672009434113 0.7912454089364195
4525000000.0 -0.5730106071016969 0.9249087763997099
4528000000.0 -0.5455647544852509 0.8765539606451047
4531000000.0 -0.5135165001000084 0.9308245708824191
4534000000.0 -0.5090297914334897 0.9230468954961883
4538000000.0 -0.4915667770639187 0.9380842280414616
4541000000.0 -0.49157205055105524 0.9054613938000791
4544000000.0 -0.4310107192084152 0.9518128555360093
4547000000.0 -0.39071637737313486 0.9927727362381864
4550000000.0 -0.4277109563460282 1.005003824411889
4553000000.0 -0.356500899467935 0.9730675707810148
4556000000.0 -0.39232501317689844 1.0078899337030678
4559000000.0 -0.341875464225561 0.9965774188531169
4562000000.0 -0.2870271785017706 0.9927813058747784
4566000000.0 -0.2790034691293725 1.0065332597260752
4569000000.0 -0.2716423750168691 0.9955630053367024
4572000000.0 -0.20396811375511043 0.9924968276133513
4575000000.0 -0.21279589201943605 0.9745061846126448
4578000000.0 -0.1880890790486684 1.0364436170770663
4581000000.0 -0.17791173832968682 0.9895066467783298
4584000000.0 -0.12484630634654048 1.0254005719124815
4588000000.0 -0.10970325518388757 1.0094075177232273
4591000000.0 -0.05516871123601291 1.0315015346854421
4594000000.0 -0.10299407454381443 1.0583911424391867
4597000000.0 -0.008686976820000691 1.0333687062848445
4600000000.0 -0.0001505054807089401 1.0079090359370473
4603000000.0 0.02274809331022376 1.0496968426442608
4606000000.0 -0.001068881937397903 1.0424061328671763
4609000000.0 0.08557935810822306 1.0463173541231872
4612000000.0 0.03634238070073792 1.058277025702342
4616000000.0 0.09796595884846898 0.9979249799791159
4619000000.0 0.10085447633525141 1.0601141388126603
4622000000.0 0.15954408377430107 1.0507333000569932
4625000000.0 0.16109575506463675 1.009952100247395
4628000000.0 0.16924237443895448 0.9586777026630994
4631000000.0 0.2326651564244385 0.9710109177186349
4634000000.0 0.2361740600225512 0.9901635431393591
4638000000.0 0.283379057722974 0.9869842184686517
4641000000.0 0.291357504267995 1.0071795734140165
4644000000.0 0.3080825689593776 1.0079925465304809
4647000000.0 0.3035998044927174 0.9681828654344389
4650000000.0 0.35819218204680436 0.989034249223164
4653000000.0 0.3552197122101275 0.9296643672409453
4656000000.0 0.40027655321524647 0.9224587868061069
4659000000.0 0.36380835530848377 0.9465094089964982
4662000000.0 0.37321244468923764 0.9560673053196589
4666000000.0 0.41714837518687986 0.9327074535289039
4669000000.0 0.429648654975588 0.94024040400517
4672000000.0 0.49399347917590575 0.8825179325086501
4675000000.0 0.4947278565659088 0.8445239285930144
4678000000.0 0.4557513584510324 0.9046652988148917
4681000000.0 0.5215747987400827 0.876329670032351
4684000000.0 0.516390893211577 0.833432340946116
4688000000.0 0.5283142985649436 0.8875615229144893
4691000000.0 0.515217806236467 0.8050806198870473
4694000000.0 0.623265050058501 0.8486440963705305
4697000000.0 0.5735176565718687 0.8790379602352189
4700000000.0 0.6067108380288898 0.8669029227180832
4703000000.0 0.6837362590807429 0.8499467393631243
4706000000.0 0.5614509528315207 0.8298300431783263
4709000000.0 0.6174379457365691 0.7872953054835283
4712000000.0 0.6464967916576476 0.7774178866903952
4716000000.0 0.6573856143421553 0.7856446866599025
4719000000.0 0.7170146886735557 0.7407088171506429
4722000000.0 0.744008814266593 0.7658104881838146
4725000000.0 0.7194311886207597 0.6998689391533992
4728000000.0 0.7125904118954387 0.7126296912477571
4731000000.0 0.6730375055020547 0.7061012731144792
4734000000.0 0.7324665325278771 0.7086159318101872
4738000000.0 0.6982339040317397 0.659951163305176
4741000000.0 0.7101841963718343 0.6770512143756716
4744000000.0 0.7687467183767486 0.6536481110379435
4747000000.0 0.8046988472692868 0.6730312893740017
4750000000.0 0.7561032608960607 0.601589010295272
4753000000.0 0.8324190695675705 0.6185651361016301
4756000000.0 0.792768834251499 0.5881243050452456
4759000000.0 0.7821602877909433 0.5953030043644651
4762000000.0 0.7789788140087354 0.6060863854117821
4766000000.0 0.8122251429010653 0.5588803809852803
4769000000.0 0.8463547866430827 0.6181273490346394
4772000000.0 0.8399039229019418 0.5525255726155264
4775000000.0 0.820936127937477 0.5323626252561922
4778000000.0 0.8066603942066486 0.5854475556802106
4781000000.0 0.8600636739240867 0.55287275414027
4784000000.0 0.8421255830675555 0.5560020374609995
4788000000.0 0.8452468390972496 0.5580159554117825
4791000000.0 0.8782566054975613 0.5140605064711732
4794000000.0 0.8505739700579564 0.4617413446662916
4797000000.0 0.9351957715100705 0.48477043310622114
4800000000.0 0.901824602439469 0.46158262792777227
4803000000.0 0.8851397803018672 0.48784461058551193
4806000000.0 0.900135417255351 0.48067204911732153
4809000000.0 0.8933668770819356 0.4635366197681612
4812000000.0 0.9349396473594931 0.4649306974232188
4816000000.0 0.9310017976361937 0.42129586106075056
4819000000.0 0.9305583070824767 0.39139421424784904
4822000000.0 0.9267237311034067 0.3953688421299951
4825000000.0 0.9162463907424867 0.38374720647746524
4828000000.0 0.9276194621922991 0.4123614443374524
4831000000.0 0.9309999988407843 0.39059390605922173
4834000000.0 0.9290253193985453 0.36122466917643886
4838000000.0 0.9679436856591016 0.36530450690823585
4841000000.0 0.9527273399656696 0.3632581335336658
4844000000.0 0.9561079537501673 0.3502173868299616
4847000000.0 0.9660816304286504 0.3214695688735146
4850000000.0 0.9408450875455042 0.32729383703218384
4853000000.0 0.9510461407428104 0.2970897011777833
4856000000.0 0.956805010547062 0.2867405903584521
4859000000.0 0.9499818603612564 0.3061002077075178
4862000000.0 0.9679244707251259 0.27994672117521163
4866000000.0 0.995491196899131 0.27904566577398837
4869000000.0 0.9809876856011891 0.2712885608285164
4872000000.0 0.9577099873125802 0.23705227594339034
4875000000.0 0.9915744778693407 0.25543323421717645
4878000000.0 0.9987907501319373 0.22061175917623183
4881000000.0 0.9880109789826295 0.24908869067596676
4884000000.0 0.9858885496305492 0.22284289334753682
4888000000.0 0.9912332351723765 0.2430484440701172
4891000000.0 0.9967439901865586 0.20564635811228948
4894000000.0 0.9966053566556229 0.2026461400445419
4897000000.0 0.9829242924860374 0.20619828159931627
4900000000.0 1.005000362891337 0.16181922114577008
4903000000.0 1.020179996129301 0.19966087708518404
4906000000.0 1.0072387536675864 0.16404440243016272
4909000000.0 0.9935464936907115 0.1704462305291597
4912000000.0 1.0058202080067082 0.15298804415460088
4916000000.0 0.9978043065005813 0.14799997755515054
4919000000.0 1.00987283736866 0.1341123521920347
4922000000.0 1.0115734250687425 0.13575023490381805
4925000000.0 0.9714227648221627 0.12900915054059664
4928000000.0 1.02559592656189 0.13740853046893559
4931000000.0 1.0227479872949359 0.11763826762098673
4934000000.0 0.9832968045958541 0.11436066646170218
4938000000.0 1.0157858401762607 0.10156407457493538
4941000000.0 0.9905168327338176 0.09694693589393932
4944000000.0 0.980330154648084 0.0960132127158349
4947000000.0 1.003368369556753 0.08033588615518544
4950000000.0 1.0121239027887254 0.09414128506081876
4953000000.0 1.045116642716502 0.037402716849192
4956000000.0 1.038721273306239 0.05739687916614389
4959000000.0 1.0083166059695847 0.0335389445985122
4962000000.0 1.01225330262774 0.037850323753170434
4966000000.0 1.0473779355270307 0.047121256817079016
4969000000.0 1.0388997624198657 0.05383809308674531
4972000000.0 1.0525671239334047 0.009312683569076774
4975000000.0 0.9890513193067486 0.05399348214963773
4978000000.0 1.03093544133193 0.028000488347968755
4981000000.0 1.0017882264912197 0.02013239825745755
4984000000.0 1.0304766869132291 0.013690900801251571
4988000000.0 1.0050037508961784 0.010674336729541323
4991000000.0 1.03416151783366 0.04659632387706508
4994000000.0 1.0010007998922168 0.0211855237831568
4997000000.0 1.008581973080937 -0.02803231232657627
5000000000.0 1.0228069225952614 -0.0038399396833285193
5003000000.0 1.0303995650907232 0.008680045054599184
5006000000.0 1.0632436605390883 -0.05094001289773442
5009000000.0 1.0125509281245637 -0.02592938731178146
5012000000.0 1.0117069465680018 -0.050035477042644605
5016000000.0 1.040357341012076 -0.01640611644675205
5019000000.0 1.0057883334816498 -0.03697686735147543
5022000000.0 1.0075778860495457 -0.047824077378783914
5025000000.0 1.0843853317090288 -0.044470975627836085
5028000000.0 1.034988307983833 -0.0755823146845791
5031000000.0 0.9892077922571363 -0.07294627306668877
5034000000.0 1.0634633364568056 -0.09386387188204981
5038000000.0 0.9978549354512791 -0.08470083225806779
5041000000.0 1.027886238679785 -0.04025163409569127
5044000000.0 1.006902046006595 -0.07122902607445719
5047000000.0 1.048428830952991 -0.04748401776319933
5050000000.0 1.0211073523789709 0.015196510298008004
5053000000.0 1.0840549032578175 -0.10178661003950307
5056000000.0 1.023193273752343 -0.013051039097578987
5059000000.0 1.0326909766467853 -0.01383136189421208
5062000000.0 1.0461255778016931 -0.12198537325274611
5066000000.0 0.9894505334347162 -0.06449334104074794
5069000000.0 1.0310432683308939 -0.1048469040846709
5072000000.0 0.9906325960653484 -0.11267580343275141
5075000000.0 1.0191206478063126 -0.09144391080737785
5078000000.0 1.0549419944169536 -0.15654197316950363
5081000000.0 0.9719544434668136 -0.15208361484941363
5084000000.0 1.060672078578817 -0.1318716324863055
5088000000.0 0.972876972847023 -0.10899603564208288
5091000000.0 1.0421681001300103 -0.18632526072782468
5094000000.0 1.0096152264869105 -0.14597842289220858
5097000000.0 1.0731561011621695 -0.11056229236160514
5100000000.0 1.0027101817765862 -0.10668056721974667
5103000000.0 1.010143856245192 -0.13027449916054323
5106000000.0 1.09834126729917 -0.14163849108741916
5109000000.0 1.005626840364941 -0.09276801258185707
5112000000.0 0.9860029111848647 -0.1734857295972359
5116000000.0 0.9483113199122502 -0.1486453276651769
5119000000.0 1.067846697151457 -0.1359391348645057
5122000000.0 1.005378036813715 -0.08639529881449143
5125000000.0 1.0096486619432485 -0.194154572086791
5128000000.0 1.009687797441276 -0.17988762699138122
5131000000.0 0.9517900252927037 -0.15353577094380694
5134000000.0 1.0416463620435061 -0.16836615580717823
5138000000.0 1.0184500045945226 -0.15848337794305356
5141000000.0 1.0017133822604303 -0.11724008899503524
5144000000.0 1.0264259434351686 -0.14508418070790058
5147000000.0 1.0232130026586774 -0.22053212705325712
5150000000.0 0.997070790696908 -0.1464275172404748
5153000000.0 0.9741049232440927 -0.1865925814693479
5156000000.0 1.0204700058443161 -0.19196619027183276
5159000000.0 1.059315945541882 -0.18132539332608116
5162000000.0 0.9750522188503327 -0.15055319383132157
5166000000.0 1.0358169554813426 -0.25950448091601575
5169000000.0 1.041938442450815 -0.21204853049282055
