! Created with skrf 1.8.0 (http://scikit-rf.org).
# Hz S RI R 50.0 
!freq ReS11 ImS11
4000000000.0 0.4950533249200374 -0.8270898614962467
4003000000.0 0.5592382713435662 -0.8995405868401585
4006000000.0 0.4739594698836806 -0.9147483120833041
4009000000.0000005 0.5443905443540401 -0.9017043392490738
4011999999.9999995 0.6202367736193475 -0.8514926432342791
4016000000.0 0.4961166499202935 -0.8985799950244971
4019000000.0 0.4872487370458266 -0.9009894799752407
4022000000.0000005 0.5671599193594693 -0.8142515260842593
4025000000.0000005 0.5325350839952133 -0.9377244219312677
4027999999.9999995 0.5387474722577662 -0.9064925946058335
4030999999.9999995 0.499692414949299 -0.8209215708123524
4034000000.0 0.5083032217798276 -0.9087660436813929
4038000000.0000005 0.5180708404788721 -0.9115636413333965
4041000000.0000005 0.5201108524065672 -0.9007273149531283
4043999999.9999995 0.5436431388298582 -0.9294828937150796
4046999999.9999995 0.5639703214166066 -0.9281210964358835
4050000000.0 0.4936329472529641 -0.9332845138956247
4053000000.0 0.47577124494761336 -0.8849559504811629
4056000000.0 0.5426629890234409 -0.930411519353181
4059000000.0 0.532054694211592 -0.8676399923598895
4062000000.0000005 0.45299577464075896 -0.8710734123811459
4066000000.0 0.47962064510894153 -0.8273423988804046
4069000000.0 0.5202692266359816 -0.9076819527067802
4072000000.0 0.5567798933394397 -0.8149632536137068
4075000000.0 0.5465588655376306 -0.8997474226799005
4078000000.0000005 0.5369404334660793 -0.9154977746740867
4081000000.0000005 0.6087109759985719 -0.8579452530517102
4083999999.9999995 0.4973166848255687 -0.8824637052353212
4088000000.0 0.5594211977788408 -0.8475826676618461
4091000000.0 0.5416308121033782 -0.9404394228041915
4094000000.0000005 0.521999506700971 -0.8616171671106745
4097000000.0000005 0.5596320653391633 -0.8921793474744062
4099999999.9999995 0.5203924415845208 -0.8679529661732278
4102999999.9999995 0.5556642702763708 -0.866331605890575
4106000000.0 0.5125363772104158 -0.8780007924818545
4109000000.0 0.5156703382235773 -0.8970997811307199
4112000000.0 0.5241956215856654 -0.8685350872150074
4115999999.9999995 0.5651315566473166 -0.8909016079480933
4119000000.0 0.5195418934188185 -0.8981704728506802
4122000000.0 0.48464434130935335 -0.9002104574902479
4125000000.0 0.5287221496034088 -0.9328263662105633
4128000000.0 0.5440280947847199 -0.8103703047937939
4131000000.0 0.516327789504267 -0.8582855361513159
4134000000.0000005 0.519373256882943 -0.869694856122382
4138000000.0 0.46450866592887424 -0.8457161224028225
4141000000.0 0.5311815490802961 -0.8663222748428145
4144000000.0 0.5465456404709814 -0.8773892072109097
4147000000.0000005 0.5239907256582145 -0.8864223548382726
4150000000.0000005 0.5342956499600011 -0.8973394277420041
4152999999.9999995 0.5271336671335302 -0.8774631936770289
4155999999.9999995 0.5334369288740787 -0.8746049688817082
4159000000.0 0.5202485891936668 -0.8510723642765554
4162000000.0 0.5157346252054015 -0.8509405584519133
4166000000.0000005 0.4890882781133938 -0.8967782245927214
4168999999.9999995 0.49604311769801535 -0.8594816087873896
4171999999.9999995 0.5258020533936857 -0.8717476022732329
4175000000.0 0.5450291358158711 -0.8864765297463755
4178000000.0 0.5349422025345036 -0.8714377455465768
4181000000.0 0.548055145841644 -0.8869803221133101
4184000000.0 0.5271484205079048 -0.8677942728073303
4187999999.9999995 0.5274034625702253 -0.8581634063350302
4191000000.0 0.5337110012572244 -0.863871166244752
4194000000.0 0.5132923678786014 -0.8741700082420596
4197000000.0 0.524498102969587 -0.8830830668956812
4200000000.0 0.5364851288671759 -0.8610482306537914
4203000000.0000005 0.5420440359651948 -0.8551593218658173
4206000000.0000005 0.5216625050116276 -0.8714857117158926
4208999999.9999995 0.5142432209386647 -0.8622305247172461
4211999999.9999995 0.48599527968839656 -0.8765850484954546
4216000000.0 0.5381177102992687 -0.8642129313984277
4219000000.0000005 0.5351434131986257 -0.8825751907146928
4222000000.0000005 0.516602410210121 -0.8922079365479256
4224999999.9999995 0.5351318714413507 -0.8703730751364918
4227999999.9999995 0.5329396072594181 -0.8642877977859654
4231000000.0 0.5298549357878997 -0.8691622725794408
4234000000.0 0.5337298233795607 -0.8793247861680684
4238000000.0000005 0.5200497514219184 -0.8764835035027473
4240999999.9999995 0.5237567000307854 -0.8598707013475986
4244000000.0 0.5562975257460246 -0.8641433846620231
4247000000.0 0.5313296325088765 -0.866023780893989
4250000000.0 0.5084683367190295 -0.8698926699135875
4253000000.0 0.5174605219825377 -0.8418703201519054
4256000000.0 0.5328001402571902 -0.8913107918210661
4259000000.0000005 0.4912961251954482 -0.8532409063150178
4261999999.9999995 0.4943829208832394 -0.8764807030887432
4266000000.0 0.5055817823402896 -0.8968356043585641
4269000000.0 0.5262342336326393 -0.8624329161067467
4272000000.0000005 0.524836158161394 -0.8598092766998199
4275000000.0000005 0.5040632063566357 -0.8767577513990626
4277999999.9999995 0.5487236843762373 -0.8805115081733921
4280999999.9999995 0.5342430856891982 -0.8637515312286118
4284000000.0 0.5036098734166562 -0.8801394282392445
4288000000.0000005 0.5586738414741176 -0.848261114408098
4291000000.0000005 0.4864181331611757 -0.8629234774047758
4293999999.9999995 0.510368835734012 -0.8538785372155485
4297000000.0 0.538383129544113 -0.8485604692879698
4300000000.0 0.5021424498240714 -0.8653428425416307
4303000000.0 0.5069916309262499 -0.8535207960938369
4306000000.0 0.5623695902641795 -0.848216397449868
4309000000.0 0.5543379094184587 -0.869445042319708
4312000000.0 0.5499155995826787 -0.828456928399487
4316000000.0 0.5215667432395403 -0.8928331404632053
4319000000.0 0.5071962278568434 -0.8378173168278534
4322000000.0 0.510377615448865 -0.8764766586155641
4325000000.0 0.516340247580811 -0.8812306690125428
4328000000.0 0.5107131315242517 -0.854866243866565
4331000000.0 0.48764716028453736 -0.8830741696621591
4334000000.0 0.5068336453632627 -0.870881785371294
4338000000.0 0.5528878304385516 -0.8662894724417323
4341000000.0 0.5410118631870571 -0.8786853329040519
4344000000.0 0.5328223540443373 -0.8791216687133503
4347000000.0 0.5192855471269695 -0.8826933733045156
4350000000.0 0.5222350841516818 -0.8475042839572124
4353000000.0 0.5023083314612041 -0.815286026610653
4356000000.0 0.49950740956162043 -0.8724975258611936
4359000000.0 0.48453381868433526 -0.8328379845155942
4362000000.0 0.4696751743336022 -0.9025179548314051
4366000000.0 0.5308196659844341 -0.8730102375724283
4369000000.0 0.49219917759773424 -0.8471191650943422
4372000000.0 0.463728524833392 -0.8794030224453908
4375000000.0 0.5298691644367259 -0.8607549052926109
4378000000.0 0.4951780241699206 -0.842435848881085
4381000000.0 0.5037808467283665 -0.8571136593949981
4384000000.0 0.5299423365345857 -0.916325545134413
4388000000.0 0.5164260022364108 -0.8476364068482776
4391000000.0 0.5066944444923583 -0.8822232769349236
4394000000.0 0.48332849531611566 -0.8587968538163218
4397000000.0 0.5085381515667815 -0.8629887420893393
4400000000.0 0.5115865692061038 -0.893553495131044
4403000000.0 0.5135298262113495 -0.8834837697994712
4406000000.0 0.4894831708650167 -0.8867757300124179
4409000000.0 0.5213801130584172 -0.8960619026710891
4412000000.0 0.4663421319255592 -0.8955598950950825
4416000000.0 0.48697227469980053 -0.8777592534429262
4419000000.0 0.4799599831250566 -0.8822511704250235
4422000000.0 0.5060827836248982 -0.8609897456284186
4425000000.0 0.5328756288958862 -0.869362807112994
4428000000.0 0.5066433814428586 -0.8725311242051632
4431000000.0 0.5104835861828032 -0.8874343721967027
4434000000.0 0.4816173412100773 -0.8602657720597142
4438000000.0 0.5307759277046218 -0.8755615921750206
4441000000.0 0.5192058705974937 -0.8786435564230439
4444000000.0 0.49660254405069704 -0.8545747554802878
4447000000.0 0.49189624266690124 -0.8825613063045221
4450000000.0 0.4925759060043922 -0.8636578081115387
4453000000.0 0.5147112852726026 -0.8878108096465226
4456000000.0 0.4703954123822424 -0.8668052326070561
4459000000.0 0.4739578781504009 -0.85330837084224
4462000000.0 0.5166810751905276 -0.9250478442583762
4466000000.0 0.5205317547400813 -0.9174900953379357
4469000000.0 0.5168985443901709 -0.8647601280585352
4472000000.0 0.4863561840981682 -0.9102269979414104
4475000000.0 0.4869457222201322 -0.8570253132782433
4478000000.0 0.49220474008666365 -0.9089177626290753
4481000000.0 0.4621240191378377 -0.8641702665024042
4484000000.0 0.4585774628114991 -0.9008838382772466
4488000000.0 0.46929715143032735 -0.8716439272808991
4491000000.0 0.4838534629429519 -0.884675064454137
4494000000.0 0.49494939795862314 -0.8624804605988472
4497000000.0 0.4894053124675587 -0.8733700496271775
4500000000.0 0.5061319565927407 -0.8709618023342989
4503000000.0 0.50841829702276 -0.8838626948354901
4506000000.0 0.4853974979679317 -0.8638678096946908
4509000000.0 0.4512240762993859 -0.8707424122639622
4512000000.0 0.47344493045596003 -0.8705327614016181
4516000000.0 0.5089888199254735 -0.89366299392887
4519000000.0 0.4767881260019715 -0.8545646285998041
4522000000.0 0.478169320239263 -0.8932352431450056
4525000000.0 0.5073275076054666 -0.8735918223315587
4528000000.0 0.4931089521300658 -0.9055895330135232
4531000000.0 0.5055962323061943 -0.866684664365405
4534000000.0 0.4846885279712397 -0.8637578718654477
4538000000.0 0.4793116441836797 -0.8722736380390641
4541000000.0 0.4599740974460315 -0.9007226628407319
4544000000.0 0.48123657037755624 -0.8794024976377968
4547000000.0 0.5032138135141904 -0.8741524714223396
4550000000.0 0.4719049068309438 -0.899305742833261
4553000000.0 0.4826216778415115 -0.8962905513410897
4556000000.0 0.4583017389746569 -0.8722023135245519
4559000000.0 0.4594927074902595 -0.8746193857743442
4562000000.0 0.48820024436299686 -0.8896364767879709
4566000000.0 0.4905997973498034 -0.9001850941214344
4569000000.0 0.4582021306009759 -0.8818360051365164
4572000000.0 0.4722726666267496 -0.882458824769494
4575000000.0 0.4715534647166667 -0.9022293474022178
4578000000.0 0.5129058134503602 -0.8933142327841279
4581000000.0 0.46551131270071056 -0.8996845182360352
4584000000.0 0.4873476487983414 -0.8777245930150588
4588000000.0 0.49291034053595495 -0.8973782228860058
4591000000.0 0.4705571851262699 -0.8859788647393841
4594000000.0 0.44576509852579854 -0.8740405193648031
4597000000.0 0.46090554731018574 -0.8951969790590739
4600000000.0 0.4435775993902056 -0.8916776193947531
4603000000.0 0.4766239901758865 -0.8948280753842619
4606000000.0 0.46989352156694403 -0.9081620912044416
4609000000.0 0.473018793114393 -0.874669371330473
4612000000.0 0.4749077560280698 -0.9099782451462217
4616000000.0 0.46731951459250104 -0.8717344235338734
4619000000.0 0.4689543224138555 -0.8870861920764246
4622000000.0 0.4604398300449557 -0.8903336476932778
4625000000.0 0.421220255866669 -0.8808158418560537
4628000000.0 0.4917235322063981 -0.8891308896106331
4631000000.0 0.45913776596053496 -0.8984070363590898
4634000000.0 0.44048973181459794 -0.8970447473888468
4638000000.0 0.4776636476337685 -0.8906227318845372
4641000000.0 0.4608250505857736 -0.879585684329061
4644000000.0 0.4582180032680876 -0.8888483520761189
4647000000.0 0.4688570551955118 -0.8847983206019866
4650000000.0 0.46576046589094255 -0.8771464314044938
4653000000.0 0.4856372834028066 -0.9124798179961567
4656000000.0 0.4555571829826143 -0.9036503733520159
4659000000.0 0.4429621837937083 -0.9235462577757808
4662000000.0 0.45926233373824854 -0.8967989282959139
4666000000.0 0.46307949279075983 -0.9078279344464545
4669000000.0 0.4561008458533267 -0.8832167518407991
4672000000.0 0.44077493617813013 -0.9107678630447559
4675000000.0 0.45259416218346116 -0.9286530825238853
4678000000.0 0.44697984288729314 -0.8826049635899341
4681000000.0 0.4424218078039685 -0.909175637555316
4684000000.0 0.4414549427294122 -0.9340586483752953
4688000000.0 0.43930020537327497 -0.9099561682583318
4691000000.0 0.5055780855446064 -0.9157376590029526
4694000000.0 0.4513883029855281 -0.886670922831422
4697000000.0 0.4232236284051162 -0.8786367324754459
4700000000.0 0.4275806962310417 -0.873649123629154
4703000000.0 0.4823637776802712 -0.8577072165847667
4706000000.0 0.41988291528850774 -0.9114149010783054
4709000000.0 0.43062760673446304 -0.8710232845400481
4712000000.0 0.4681939580933336 -0.8864358642479686
4716000000.0 0.47556393885564957 -0.8892441271153925
4719000000.0 0.46677457552415114 -0.9152131341299639
4722000000.0 0.49254313430448365 -0.9067103795741976
4725000000.0 0.43421621417804285 -0.8787098503950449
4728000000.0 0.46031893379331534 -0.8626538154159034
4731000000.0 0.501757965012904 -0.9331154981633957
4734000000.0 0.46533333732471605 -0.8788326008877096
4738000000.0 0.482509394311033 -0.9484929210600334
4741000000.0 0.4670814807673821 -0.9417027151995969
4744000000.0 0.44836369694733397 -0.9130963396067172
4747000000.0 0.4655602653630236 -0.8769801182975274
4750000000.0 0.4807595559540322 -0.9120080040181531
4753000000.0 0.47394453937687303 -0.9028618364252854
4756000000.0 0.46496153040809257 -0.9094952626945058
4759000000.0 0.4676952795119449 -0.8868178334119913
4762000000.0 0.4324200638981575 -0.9332412736091322
4766000000.0 0.4362813706881479 -0.8971154832640313
4769000000.0 0.4825474068104558 -0.9055876965565216
4772000000.0 0.4676676283325218 -0.9335905122225455
4775000000.0 0.4584367724126027 -0.960701538806513
4778000000.0 0.4499360913162114 -0.9232303437004892
4781000000.0 0.45528736835614236 -0.8628067138295306
4784000000.0 0.47492505903199 -0.9172313481265316
4788000000.0 0.44021628127691964 -0.8996886270276955
4791000000.0 0.4598923715294804 -0.9145849703069651
4794000000.0 0.4782965408552782 -0.9306493037754369
4797000000.0 0.44274708163865145 -0.8984687371299186
4800000000.0 0.4529072528742646 -0.9031561507048755
4803000000.0 0.4206233783383279 -0.9090454492688509
4806000000.0 0.4532693683033542 -0.9154599223474388
4809000000.0 0.41910086775712607 -0.9199730832131782
4812000000.0 0.4134917076483441 -0.911179914425187
4816000000.0 0.4596255800790944 -0.8964725753103548
4819000000.0 0.47679599553036284 -0.9407047236189345
4822000000.0 0.48154192839568233 -0.9186294817918705
4825000000.0 0.48607944287622407 -0.9284320436712246
4828000000.0 0.45625549390449427 -0.9004118182953053
4831000000.0 0.4240447150390502 -0.9472356962581551
4834000000.0 0.475803300029869 -0.911272003217543
4838000000.0 0.45155755836132316 -0.9455214879501463
4841000000.0 0.434784941984161 -0.8974241575595362
4844000000.0 0.4817985979879129 -0.8918745497576066
4847000000.0 0.4520905114933945 -0.8785792092377585
4850000000.0 0.44628935820868887 -0.953294499934159
4853000000.0 0.4552854197515416 -0.8917942359279641
4856000000.0 0.4234508971832964 -0.8908638791086781
4859000000.0 0.47244868489000025 -0.9546746924080376
4862000000.0 0.4588831441740941 -0.8880082591859036
4866000000.0 0.4378338885249015 -0.9402832516549536
4869000000.0 0.4471284833680813 -0.9303339855946894
4872000000.0 0.44060500907196876 -0.94416195115464
4875000000.0 0.4971253900310857 -0.9260140639543019
4878000000.0 0.4544433587688429 -0.9121365925514893
4881000000.0 0.45019704369560004 -0.9945590652662136
4884000000.0 0.4373073763068095 -0.8947667770375459
4888000000.0 0.47946538628290897 -0.9018149716539476
4891000000.0 0.5095924875641044 -0.9167003581793952
4894000000.0 0.42897710246935117 -0.9148732023645442
4897000000.0 0.49275297832308035 -0.8994073708298911
4900000000.0 0.4675868371659513 -0.9579421920464433
4903000000.0 0.4626226917998248 -0.9475377575896371
4906000000.0 0.46161159858125755 -0.965948690475247
4909000000.0 0.4525116433323412 -0.9459427857973346
4912000000.0 0.4566815371528184 -0.9691673042092629
4916000000.0 0.5008048826448158 -0.945082310139095
4919000000.0 0.4966267816910197 -0.9356445648733194
4922000000.0 0.49997242976015466 -0.9192434425557007
4925000000.0 0.4561899568753026 -0.9128306734862993
4928000000.0 0.5008290289481794 -0.875039660277776
4931000000.0 0.502734205144972 -0.9492673145774416
4934000000.0 0.45096110254321664 -0.8723063586803385
4938000000.0 0.4352725821908481 -0.9307290180031569
4941000000.0 0.44805922169625717 -0.8835706628749839
4944000000.0 0.455002410026999 -0.8690040561702901
4947000000.0 0.44296138628120085 -0.893271509797286
4950000000.0 0.4381614885286437 -0.8922833382820716
4953000000.0 0.46043839541870324 -0.9656788093096351
4956000000.0 0.4435521308509981 -0.9257176444213233
4959000000.0 0.39855107819969193 -0.9226067177004362
4962000000.0 0.4574887640964729 -0.9679984844710269
4966000000.0 0.5125306234829715 -0.9289671573636961
4969000000.0 0.5133704693266353 -0.981788463579596
4972000000.0 0.4555410522797775 -0.9080349674884669
4975000000.0 0.5166570316002803 -0.9158951438131041
4978000000.0 0.4505143507834544 -0.9507455182186773
4981000000.0 0.43542454013196397 -0.9305664078326258
4984000000.0 0.4879633019604001 -0.915506414672119
4988000000.0 0.48370131557045437 -0.9068606579626453
4991000000.0 0.5294955961433576 -0.9068528293963184
4994000000.0 0.4548356167066856 -0.9127609475249535
4997000000.0 0.46172214904356057 -0.9317779015502382
5000000000.0 0.4922001364683676 -0.9375744074840642
5003000000.0 0.5178922881029516 -0.9245401974296628
5006000000.0 0.4687062379922966 -1.0000638048236532
5009000000.0 0.48261424274733455 -0.9104081625641658
5012000000.0 0.4591444664498874 -0.9313650437237873
5016000000.0 0.5233730584373657 -0.9202934860985592
5019000000.0 0.45974965570817217 -0.9240870050511367
5022000000.0 0.5055783889480792 -0.9062526603522907
5025000000.0 0.4954992714886203 -0.9984201671390127
5028000000.0 0.44209091518323285 -0.945473469568243
5031000000.0 0.46347892660642026 -0.9254288444047893
5034000000.0 0.46790671302698456 -0.9687595586508648
5038000000.0 0.42374683515532857 -0.9215646452990169
5041000000.0 0.499918304034198 -0.9069686983013683
5044000000.0 0.5010079060647213 -0.8771801423710641
5047000000.0 0.4509706836089163 -0.9200098950767359
5050000000.0 0.5471926452078036 -0.8701015393513025
5053000000.0 0.4845999003899898 -0.9443584292841367
5056000000.0 0.5040323982131056 -0.8970609486214619
5059000000.0 0.5269444507755853 -0.8940584482432485
5062000000.0 0.4481565197854898 -0.9689811975813143
5066000000.0 0.4789134659799911 -0.91083089296408
5069000000.0 0.47599038247524267 -0.919039437842293
5072000000.0 0.49504935424631236 -0.9146343716540271
5075000000.0 0.48070940745817353 -0.9197670824330126
5078000000.0 0.4241307447106114 -0.9592806924838757
5081000000.0 0.46440632999336956 -0.9094324022131959
5084000000.0 0.4549885323569864 -0.960165472499838
5088000000.0 0.48583932433076327 -0.8799109636804953
5091000000.0 0.4581249364595769 -0.9611282860997412
5094000000.0 0.4595023844922378 -0.9538831844425228
5097000000.0 0.5008640535411795 -0.8600642448019735
5100000000.0 0.5231107859792752 -0.942484301221268
5103000000.0 0.4437605399227302 -0.8826249699957046
5106000000.0 0.49750661083206693 -0.92075511858474
5109000000.0 0.49427545661128697 -0.8708134687315792
5112000000.0 0.44206396148796645 -0.9310856301075783
5116000000.0 0.4600836748688125 -0.8128781305679531
5119000000.0 0.4996190263286734 -0.9500955361771368
5122000000.0 0.48491373480153943 -0.9403647693942561
5125000000.0 0.48329675519172405 -0.8412546933844895
5128000000.0 0.491038018753948 -0.8870977657694485
5131000000.0 0.5058431570070328 -0.8946970101852803
5134000000.0 0.4824146261321978 -0.9142304194060791
5138000000.0 0.4803336649260287 -0.9110888878935385
5141000000.0 0.5236947927297789 -0.9109090883407187
5144000000.0 0.4890647993175451 -0.8880511217947447
5147000000.0 0.5004412214778015 -0.8862677326345203
5150000000.0 0.5100020125150955 -0.9374369440838302
5153000000.0 0.5083859514229478 -0.9309100132944826
5156000000.0 0.5181338733444574 -0.8988059031674576
5159000000.0 0.5467264926752454 -0.9404957619902758
5162000000.0 0.43951992842292403 -0.9124661244963245
5166000000.0 0.48594063192391196 -0.9284656070416256
5169000000.0 0.5280479312932621 -0.9175070095693608
5172000000.0 0.48196611518392407 -0.9162856283389491
5175000000.0 0.536115664314726 -0.9071487501904887
