! Created with skrf 1.8.0 (http://scikit-rf.org).
# Hz S RI R 50.0 
!freq ReS11 ImS11
4000000000.0 0.5496963603511961 -0.8309955800678362
4003000000.0 0.46915757282793147 -0.9375336383635241
4006000000.0 0.48872165924022054 -0.9493686042985828
4009000000.0000005 0.4623144157100336 -0.9414062170939936
4011999999.9999995 0.5197934022903264 -0.8581094539530439
4016000000.0 0.4816901153768886 -0.9817923882413229
4019000000.0 0.497280337490762 -0.9005190592125909
4022000000.0000005 0.5390296391527681 -0.8927445174534694
4025000000.0000005 0.38991074146791993 -0.9646256259612452
4027999999.9999995 0.4096688056594599 -0.9635498715214543
4030999999.9999995 0.5050811228045835 -0.8966289944161161
4034000000.0 0.44099577559636294 -0.8611515933088749
4038000000.0000005 0.4604745997473625 -0.9290436561485894
4041000000.0000005 0.4562248337108825 -0.9283218510419867
4043999999.9999995 0.4763856777176384 -0.9856568861627639
4046999999.9999995 0.5377798094637672 -0.9493115526370008
4050000000.0 0.507450968553142 -0.9395631473760326
4053000000.0 0.44162431753557707 -0.9048522004657399
4056000000.0 0.4686967629488381 -0.9235756093243165
4059000000.0 0.4399834395233567 -0.8899679349048711
4062000000.0000005 0.48806433650854153 -0.9344856277504658
4066000000.0 0.4677176407956022 -0.8095845780089143
4069000000.0 0.4773526289570422 -0.9788784383891052
4072000000.0 0.49686902368885033 -0.9213032339499757
4075000000.0 0.5247609035477183 -0.9620870748842086
4078000000.0000005 0.44651543967702456 -0.9123180969190424
4081000000.0000005 0.5438330042070753 -0.874072506551375
4083999999.9999995 0.46406584309305876 -0.9199523207230206
4088000000.0 0.4999752740569633 -0.897136250486977
4091000000.0 0.4972464498883143 -0.9611911157257663
4094000000.0000005 0.47988792634534666 -0.9249325084271238
4097000000.0000005 0.45324352132073664 -0.9221312229785936
4099999999.9999995 0.4852940354544305 -0.9129612940002377
4102999999.9999995 0.5056721861848177 -0.9197790302582427
4106000000.0 0.49364654167907623 -0.9275737010335762
4109000000.0 0.4857326364086577 -0.9283425065701234
4112000000.0 0.45797592837410134 -0.8786108666301169
4115999999.9999995 0.4987938561927136 -0.9522904446217982
4119000000.0 0.45211085052376154 -0.9228566278397315
4122000000.0 0.4327561920545678 -0.9545655922543279
4125000000.0 0.47592090003306775 -0.9395939346611699
4128000000.0 0.48839634252434294 -0.8725138917632929
4131000000.0 0.45069290209112833 -0.8793852995238772
4134000000.0000005 0.4938023828085936 -0.9251379356127066
4138000000.0 0.42740540048475884 -0.8775753171032343
4141000000.0 0.45726811323576877 -0.9300932111008644
4144000000.0 0.4854517165142164 -0.9160477947089561
4147000000.0000005 0.4557298709549551 -0.9317661143870959
4150000000.0000005 0.4829798924116732 -0.9410763467368393
4152999999.9999995 0.46159676786570364 -0.9116951991647907
4155999999.9999995 0.4857047571548715 -0.9188962304863033
4159000000.0 0.47841608207064407 -0.8838828745704882
4162000000.0 0.46575225044336777 -0.88613444290183
4166000000.0000005 0.490920143419735 -0.9439197883490172
4168999999.9999995 0.47980301860632235 -0.9285318531038064
4171999999.9999995 0.4523318739078952 -0.8971886387814807
4175000000.0 0.4912866527232033 -0.8928772419579772
4178000000.0 0.4714770546795767 -0.9005165830425728
4181000000.0 0.46743329924945376 -0.8995803507776902
4184000000.0 0.4658251116362685 -0.9038663133182616
4187999999.9999995 0.4677325832203367 -0.9029919457622702
4191000000.0 0.5117817652383634 -0.8789437707820532
4194000000.0 0.4642351266809216 -0.9011720355653485
4197000000.0 0.4822791899660249 -0.8853973488060517
4200000000.0 0.48966868426008925 -0.904655966352002
4203000000.0000005 0.4872793796331186 -0.9038231275997466
4206000000.0000005 0.4803704871031066 -0.9119888386748433
4208999999.9999995 0.4698327953572189 -0.8891381127234914
4211999999.9999995 0.4536279697159916 -0.9263785485229199
4216000000.0 0.48597943782443176 -0.9188531883595574
4219000000.0000005 0.4788712835793343 -0.9214168619758287
4222000000.0000005 0.4740246331855363 -0.914342340796958
4224999999.9999995 0.47288658461402516 -0.892621191836066
4227999999.9999995 0.46207902881694884 -0.9183142222274888
4231000000.0 0.47363673025737274 -0.9207571856033481
4234000000.0 0.47748474524497264 -0.914129699250547
4238000000.0000005 0.4485330995516659 -0.9196314157288715
4240999999.9999995 0.45050448042756924 -0.9091643106534815
4244000000.0 0.46968041064480837 -0.8945482185432477
4247000000.0 0.46711345409069527 -0.9051491468224427
4250000000.0 0.4646740726066762 -0.8821908178944292
4253000000.0 0.4519727428509549 -0.8957054975423774
4256000000.0 0.47765689975068704 -0.9369049663791964
4259000000.0000005 0.4415852530698279 -0.877373354533512
4261999999.9999995 0.4396668007454942 -0.9097363133608918
4266000000.0 0.4347578169976649 -0.9225388843265181
4269000000.0 0.459647287614632 -0.89666145518208
4272000000.0000005 0.4487951245244318 -0.8919999612681845
4275000000.0000005 0.4581880816685928 -0.9190697786366342
4277999999.9999995 0.4759108202694143 -0.9396942989811499
4280999999.9999995 0.48071615677644886 -0.912808197265859
4284000000.0 0.4430815752346598 -0.9152099708908366
4288000000.0000005 0.48398664646187123 -0.9030208229561123
4291000000.0000005 0.43302329413292256 -0.8771100283240958
4293999999.9999995 0.4533677852145206 -0.8963094167668423
4297000000.0 0.47227635660385336 -0.8725769013801161
4300000000.0 0.45026181001160104 -0.9024442420601504
4303000000.0 0.4407893825329829 -0.896674198587262
4306000000.0 0.4800074695041364 -0.8898785248130071
4309000000.0 0.48205314765241375 -0.8967376055441713
4312000000.0 0.49183978659626526 -0.910609149676461
4316000000.0 0.485593864492418 -0.8993876284188593
4319000000.0 0.48163801135714973 -0.901275190948513
4322000000.0 0.4047572498579181 -0.8838503753521953
4325000000.0 0.44656112689561134 -0.9225663151044583
4328000000.0 0.4322325704898296 -0.8870305505582691
4331000000.0 0.45426222779781844 -0.9272556095640853
4334000000.0 0.46824776001933205 -0.9124481458436224
4338000000.0 0.46363370706398754 -0.87891698307066
4341000000.0 0.5051982300472398 -0.9026794773250588
4344000000.0 0.4833405038652818 -0.9163864625498768
4347000000.0 0.42987564965663805 -0.9287812867726125
4350000000.0 0.42495568130264594 -0.8983945976326054
4353000000.0 0.44744908056641175 -0.875283708601097
4356000000.0 0.4310244413572015 -0.9163308012204299
4359000000.0 0.4288779325940194 -0.8569764436601681
4362000000.0 0.4048450899604921 -0.9612036380949778
4366000000.0 0.4566703845411466 -0.9270801492942774
4369000000.0 0.43057854457484884 -0.8840884488669947
4372000000.0 0.39528203601819406 -0.9149777445354962
4375000000.0 0.46011863399984276 -0.8795360316980593
4378000000.0 0.4302381829436667 -0.8862600542977537
4381000000.0 0.4399840727646387 -0.879312482651797
4384000000.0 0.4589888004290938 -0.9867672922969205
4388000000.0 0.4475431688794268 -0.8800225342228977
4391000000.0 0.45222731206339745 -0.9188287561649187
4394000000.0 0.4291513146986081 -0.8880422334002531
4397000000.0 0.42538892412122337 -0.9210410162462119
4400000000.0 0.43008231990220647 -0.9393414741742042
4403000000.0 0.4510425720965118 -0.9132347692998073
4406000000.0 0.42642322180140924 -0.9281352309161096
4409000000.0 0.4415854567698959 -0.9459325154095416
4412000000.0 0.37967153967485556 -0.9285087974965339
4416000000.0 0.4300928992207315 -0.913985264629986
4419000000.0 0.4192482501951156 -0.9179601675647229
4422000000.0 0.44717089651708825 -0.8852014830419274
4425000000.0 0.46370485672135436 -0.9185378677810853
4428000000.0 0.44054791300229135 -0.9045304618333606
4431000000.0 0.4454618720885324 -0.9291026718660536
4434000000.0 0.4124150090304433 -0.9046487400269894
4438000000.0 0.44191746567513496 -0.930416766604145
4441000000.0 0.42526452494902134 -0.9325616626489797
4444000000.0 0.4235977146274692 -0.8955542765981801
4447000000.0 0.4106771068569767 -0.9040035838335175
4450000000.0 0.43969619410522576 -0.9069361527736371
4453000000.0 0.44999209570448045 -0.9338990777292027
4456000000.0 0.41647336500160004 -0.8965685790471825
4459000000.0 0.39991267307274303 -0.8852810790007875
4462000000.0 0.4415405511108727 -0.968850508827185
4466000000.0 0.42601541251872005 -0.9417563612945296
4469000000.0 0.4310795738716536 -0.9200377229099318
4472000000.0 0.39988158311736444 -0.9490987643023583
4475000000.0 0.4203238430372109 -0.8944450184671691
4478000000.0 0.43210216676119956 -0.9572147782977382
4481000000.0 0.40005130957836005 -0.9065581911241469
4484000000.0 0.37147542897729924 -0.9427390928539939
4488000000.0 0.4026319643768205 -0.9215800208032872
4491000000.0 0.408177569841828 -0.9355065991289455
4494000000.0 0.42024035089447315 -0.9199542323059879
4497000000.0 0.4192640507118711 -0.9123566195690855
4500000000.0 0.4099754125137378 -0.9173519288063627
4503000000.0 0.42207137523069 -0.9463532064206339
4506000000.0 0.3941181964873135 -0.917861126866736
4509000000.0 0.40179800670582283 -0.9110303844516496
4512000000.0 0.40540336515067005 -0.9137638439532376
4516000000.0 0.40752411457358384 -0.95346594559014
4519000000.0 0.4102331438987006 -0.9060282215203108
4522000000.0 0.3812733641396726 -0.9369311938134592
4525000000.0 0.43609206766608033 -0.9204212103118592
4528000000.0 0.4218065244349973 -0.9404842050766491
4531000000.0 0.41699788446771524 -0.9143346393268692
4534000000.0 0.39599385804438486 -0.9301126741606935
4538000000.0 0.39473487713747185 -0.8996507307043106
4541000000.0 0.3602841859432126 -0.9274468031515619
4544000000.0 0.37731491819574065 -0.9118248660616215
4547000000.0 0.40806214679544667 -0.9052037305968592
4550000000.0 0.38366407863570573 -0.9396106083811906
4553000000.0 0.3931871484577136 -0.9385748430443931
4556000000.0 0.3945445497287859 -0.9119028864202795
4559000000.0 0.38090531725147453 -0.9391417068895568
4562000000.0 0.40549504704179307 -0.9354710383793303
4566000000.0 0.39010710150012806 -0.9488549122674289
4569000000.0 0.3658036330613957 -0.9259053384828654
4572000000.0 0.3897781469666674 -0.9278996493529357
4575000000.0 0.3672217329326236 -0.9376227994825644
4578000000.0 0.4022009390623503 -0.9511473482985938
4581000000.0 0.386194708666826 -0.9265864053481297
4584000000.0 0.3739400244993919 -0.9203750409094005
4588000000.0 0.40822385621742296 -0.9472831739407415
4591000000.0 0.4047713403131412 -0.925317076308163
4594000000.0 0.3693158313724003 -0.9460761098464013
4597000000.0 0.39086987824101277 -0.9524661023492798
4600000000.0 0.36373564140659886 -0.9369339466837938
4603000000.0 0.3801921448351805 -0.9424755624943469
4606000000.0 0.37634600755855463 -0.963408980403036
4609000000.0 0.3992131199501235 -0.9333060442010477
4612000000.0 0.3809321643896894 -0.9333239612423461
4616000000.0 0.3683810233851077 -0.9324094193198108
4619000000.0 0.3969422743177077 -0.927070891816936
4622000000.0 0.36640074829746194 -0.9414743826137941
4625000000.0 0.36031569499808935 -0.9450555206985151
4628000000.0 0.39893197707273365 -0.9452454350580293
4631000000.0 0.38291685212624604 -0.9399930950602904
4634000000.0 0.3617462615651448 -0.9332946360932857
4638000000.0 0.3739264891058032 -0.9517339432856273
4641000000.0 0.38525670772440557 -0.927478945069375
4644000000.0 0.3768328472697996 -0.9417163473606934
4647000000.0 0.38778396350253935 -0.9456544876180527
4650000000.0 0.3454125438713982 -0.9568126660470364
4653000000.0 0.37622742042562146 -0.9518987730995172
4656000000.0 0.3704808871524733 -0.9298010159620788
4659000000.0 0.356207233339369 -0.9340535601036392
4662000000.0 0.34617826311585154 -0.9293543986609613
4666000000.0 0.3599972507159537 -0.927160575496834
4669000000.0 0.37094554852291506 -0.9467634925455487
4672000000.0 0.3489690870503256 -0.9780002359121647
4675000000.0 0.35727199478116545 -0.9630886080937547
4678000000.0 0.34746382562858463 -0.9095925895240079
4681000000.0 0.35185680727869884 -0.9669812900545204
4684000000.0 0.3302697018760521 -0.9733679480304821
4688000000.0 0.36229018270306335 -0.9505928627841496
4691000000.0 0.3770026737482799 -0.9500826136158173
4694000000.0 0.3701919577725318 -0.9315752525672817
4697000000.0 0.3304566229896216 -0.9509757755607668
4700000000.0 0.3669622709063328 -0.9360405278947441
4703000000.0 0.38732659126476027 -0.9031397378426861
4706000000.0 0.34752232616504347 -0.9457400872224532
4709000000.0 0.36112787176445665 -0.9404620727564701
4712000000.0 0.3701586188690528 -0.9495629046038045
4716000000.0 0.36235784590215814 -0.9644232648797185
4719000000.0 0.41135599651212873 -0.9747049382328162
4722000000.0 0.36300415330255176 -0.9396626667322969
4725000000.0 0.3300871485424875 -0.9426161282689354
4728000000.0 0.3306210209213129 -0.9715961581052724
4731000000.0 0.34477004329041255 -0.973184316112545
4734000000.0 0.3492547732800435 -0.929232119645846
4738000000.0 0.4059623253188716 -1.0038612267592681
4741000000.0 0.3958630902934235 -0.994253582284907
4744000000.0 0.32221604129734516 -0.9706669903753635
4747000000.0 0.3575010197630479 -0.9052875909265042
4750000000.0 0.35208644299098407 -0.9695129904864188
4753000000.0 0.36536246840898284 -0.9423609042136939
4756000000.0 0.38015608479104235 -0.9619308084591366
4759000000.0 0.35344776387465965 -0.9646261309845529
4762000000.0 0.3286475555298427 -1.0176289358720896
4766000000.0 0.375920054764853 -0.9935544860989326
4769000000.0 0.3206494522206181 -0.9864740125263812
4772000000.0 0.3669171822779329 -0.9902940541486104
4775000000.0 0.32932936765787835 -1.0027725940557495
4778000000.0 0.3531559495585459 -1.0046601519512421
4781000000.0 0.35535147748519735 -0.9536174911727092
4784000000.0 0.3576337846089455 -0.950449471955248
4788000000.0 0.33378016814656486 -0.9779206479850013
4791000000.0 0.3164400286373254 -0.9853078535673256
4794000000.0 0.391958822147353 -0.9848515712204902
4797000000.0 0.3341273924418855 -0.9250223764668374
4800000000.0 0.3122678409659728 -0.9477241705746573
4803000000.0 0.2768195065742139 -0.9438666428468739
4806000000.0 0.3418355031780643 -0.9860840141264724
4809000000.0 0.3051495539156906 -0.9827380319531778
4812000000.0 0.29156379771455937 -0.9651428223653135
4816000000.0 0.360057862004286 -0.9391435729919695
4819000000.0 0.3628434176650618 -1.0050582032076303
4822000000.0 0.36314873722959706 -0.9913246464616513
4825000000.0 0.3800721980431583 -0.9739438315392678
4828000000.0 0.35140594388509083 -0.9693677468440965
4831000000.0 0.29820961185075134 -1.007556135646506
4834000000.0 0.35538185923177235 -0.9613748768575078
4838000000.0 0.3165029546925976 -0.9966966373776619
4841000000.0 0.3253182709749944 -0.9722209711486048
4844000000.0 0.38245672125813607 -0.9749072798298858
4847000000.0 0.355075082439492 -0.9347638286464365
4850000000.0 0.32152605315586563 -1.000834521482633
4853000000.0 0.32851758175054013 -0.9408250584971105
4856000000.0 0.31326635466396746 -0.9522334565118452
4859000000.0 0.32657911669778256 -1.0184600496777854
4862000000.0 0.3560484726994421 -0.9439605501693967
4866000000.0 0.3148377695497691 -0.9862259081030582
4869000000.0 0.3209716766031976 -0.9912802670736914
4872000000.0 0.31769517586088053 -0.9962469269965956
4875000000.0 0.38726406772816224 -1.0049748983609188
4878000000.0 0.3218285640804398 -0.9925202317136124
4881000000.0 0.31896790613267345 -1.0395694511667917
4884000000.0 0.3437187286009237 -0.9729068315654289
4888000000.0 0.3674278119585061 -0.9724213818549384
4891000000.0 0.3826813878626599 -0.9872395408431135
4894000000.0 0.3365842997780808 -0.9855907192716311
4897000000.0 0.36407611472958423 -0.94721048713941
4900000000.0 0.3358344726391497 -1.0036372086635412
4903000000.0 0.34586973385787845 -0.9995731717612142
4906000000.0 0.31449991058198323 -1.018194023904311
4909000000.0 0.3100681193165839 -0.9657711662891758
4912000000.0 0.3536086622398297 -0.9984662757194008
4916000000.0 0.37833445287779904 -0.9745496107954511
4919000000.0 0.40667207803498345 -1.0316117749234968
4922000000.0 0.36464318487629377 -0.988323969328401
4925000000.0 0.3264738474254653 -0.9997037782820908
4928000000.0 0.3673898461629912 -0.9526106196441162
4931000000.0 0.350239707141881 -1.0170675647027625
4934000000.0 0.34539727520365876 -0.9426417505534425
4938000000.0 0.3323147846330312 -0.9808081229748912
4941000000.0 0.34019245090602707 -0.9459107844195107
4944000000.0 0.3478572496198473 -0.9326053538280793
4947000000.0 0.3695140365444789 -0.978688903502848
4950000000.0 0.316703829719453 -0.9673920609327193
4953000000.0 0.32106565717922664 -1.0242475476961448
4956000000.0 0.31138028294840053 -1.0067759991280307
4959000000.0 0.2984841985395203 -0.9718455541008204
4962000000.0 0.3204887597048534 -1.030651426456084
4966000000.0 0.354921718964587 -1.022715661677051
4969000000.0 0.38137854993373477 -1.0113858531310949
4972000000.0 0.3209694446340115 -0.9834365549568754
4975000000.0 0.3474958117057319 -0.9521628080392837
4978000000.0 0.2998074309897284 -0.991589881743403
4981000000.0 0.31931744436298093 -0.9905886450054282
4984000000.0 0.3250060077348766 -0.957305308250375
4988000000.0 0.3305986035338179 -0.9657099557918296
4991000000.0 0.3720058796108792 -1.0122399068916217
4994000000.0 0.36561319604660164 -0.9777281394712087
4997000000.0 0.2850439488320053 -0.9777945078543675
5000000000.0 0.3624776073568103 -1.0023454428852747
5003000000.0 0.39175440131436845 -1.0087305232215562
5006000000.0 0.34763822103748543 -1.0466702672403188
5009000000.0 0.3569232274095555 -0.9660310661661267
5012000000.0 0.3291330160382514 -0.9947776502588315
5016000000.0 0.36974111274754956 -1.0113519739781878
5019000000.0 0.33613478322346857 -0.9774692313017057
5022000000.0 0.3291158494089032 -0.9623202771001872
5025000000.0 0.35633342665070006 -1.0476463257645992
5028000000.0 0.3196154113749547 -1.0057781225144362
5031000000.0 0.31300432097192793 -0.998642880311674
5034000000.0 0.3133923704486942 -1.0488775523566263
5038000000.0 0.3191910989457719 -0.9519043987569058
5041000000.0 0.3592768538079562 -0.9855679870341232
5044000000.0 0.33540205566272213 -0.963029517149152
5047000000.0 0.31632933389871754 -1.0102421160228565
5050000000.0 0.384528682208785 -0.9450040737993575
5053000000.0 0.3138189963568984 -1.0476694058334544
5056000000.0 0.34101574461682327 -0.9927729599621873
5059000000.0 0.3486553834987933 -0.9532987334706813
5062000000.0 0.28824706786125337 -1.0117745797249038
5066000000.0 0.3680627934341867 -0.9739512472610256
5069000000.0 0.31956735161498656 -0.9883120766018615
5072000000.0 0.3338830730851291 -0.9553991305874756
5075000000.0 0.36432827086451397 -0.9738694389673312
5078000000.0 0.30253697116369715 -0.9874046021113312
5081000000.0 0.26831643241959013 -0.9534758869966931
5084000000.0 0.3171092998839496 -0.998831699318541
5088000000.0 0.3510673414555318 -0.9899013704067016
5091000000.0 0.3046889828524466 -0.9939367648797148
5094000000.0 0.31764823840967193 -0.9766012251680534
5097000000.0 0.38875234666872915 -1.0032586660579386
5100000000.0 0.3693568578203196 -0.9818714958358397
5103000000.0 0.3007451417765182 -1.0235761561233578
5106000000.0 0.31337592306978673 -0.9944468658327623
5109000000.0 0.3332791589263416 -0.9578333110596788
5112000000.0 0.2962317096832637 -0.9650360963068056
5116000000.0 0.289863809599099 -0.9245355740827879
5119000000.0 0.2850869779356057 -1.0494253548152015
5122000000.0 0.2670007110472969 -0.9898402110629834
5125000000.0 0.35166799902032103 -0.9754163153194212
5128000000.0 0.3441829300319106 -1.0001795785786767
5131000000.0 0.346595989362796 -0.9872613741480778
5134000000.0 0.3355399899955055 -0.972594435740251
5138000000.0 0.3388878233516961 -0.9445556181351297
5141000000.0 0.37692284973930074 -0.9596804264249428
5144000000.0 0.3746400116915567 -0.9711207658845291
5147000000.0 0.3631479958034656 -0.9833205600477238
5150000000.0 0.34986112938013286 -1.0180266956231079
5153000000.0 0.3405905289617323 -0.971160147164779
5156000000.0 0.3387891535320305 -0.9721488070747942
5159000000.0 0.36179577656085493 -1.03191618736041
5162000000.0 0.30150901324217405 -1.034395613108757
5166000000.0 0.32840000234136696 -0.9890620927530765
5169000000.0 0.33324942197172536 -0.9878395411377688
