! Created with skrf 1.8.0 (http://scikit-rf.org).
# Hz S RI R 50.0 
!freq ReS11 ImS11
4000000000.0 0.04759242273483766 -1.0098919134163862
4003000000.0 0.04525588867471181 -1.0976214347537971
4006000000.0 -0.011387837043801197 -1.019526300136386
4009000000.0000005 0.028168509035654155 -1.0360412820965283
4011999999.9999995 0.02366510628445878 -1.0113841071091743
4016000000.0 -0.016261229658631304 -1.0656084234007814
4019000000.0 0.011193863941085347 -0.9970822139267228
4022000000.0000005 0.08380375699051984 -1.0744490324205862
4025000000.0000005 -0.04179112253164713 -1.059190088713383
4027999999.9999995 -0.008390653651007773 -1.0476931667500926
4030999999.9999995 0.0037925828620401225 -0.9989903731096358
4034000000.0 -0.007646755042361064 -0.9843598673633469
4038000000.0000005 -0.009481412187925975 -1.0199187761784099
4041000000.0000005 -0.04394856976127526 -1.0283750078090792
4043999999.9999995 -0.028531140481800887 -1.0387850418758795
4046999999.9999995 -0.0281532881532415 -1.0370658104181998
4050000000.0 -0.04709291994470169 -1.0113612512033356
4053000000.0 -0.03582254409452865 -0.9880947408481326
4056000000.0 -0.043285821524958024 -1.0373811188675648
4059000000.0 -0.04523311993158294 -0.9970369995125175
4062000000.0000005 -0.030720624598459034 -1.0389627145347415
4066000000.0 -0.03731217110928223 -0.9834313806454846
4069000000.0 -0.11696928939255707 -1.039652095389241
4072000000.0 -0.0786154971200971 -0.9861673733215295
4075000000.0 -0.04742502207729793 -1.0219398001149413
4078000000.0000005 -0.07875531323531208 -1.0040102207003476
4081000000.0000005 -0.06645797761758296 -0.9957297814561684
4083999999.9999995 -0.08953677451278672 -1.022086034423252
4088000000.0 -0.07626049814070607 -1.0070879577502267
4091000000.0 -0.08795721834517811 -1.0409765163885019
4094000000.0000005 -0.06596978070457038 -1.006957610811309
4097000000.0000005 -0.10423534673895093 -1.0114545220465077
4099999999.9999995 -0.09826925579928135 -1.0033554207287603
4102999999.9999995 -0.06799816513571443 -1.0205205902610908
4106000000.0 -0.12162386070972178 -1.0427436184667946
4109000000.0 -0.11623828972220074 -1.0180321204649447
4112000000.0 -0.1082541015564518 -1.014318331672128
4115999999.9999995 -0.1428447582982496 -1.0248108267048888
4119000000.0 -0.12853532025771416 -1.01664488716941
4122000000.0 -0.1608275012863941 -0.9878108285298562
4125000000.0 -0.14086361064451472 -0.9921837145198497
4128000000.0 -0.13631173550576683 -0.9971825236168202
4131000000.0 -0.1817855619593527 -0.9841867069430934
4134000000.0000005 -0.15362347024234582 -0.9871228091580333
4138000000.0 -0.19067140825201734 -0.9912966353053292
4141000000.0 -0.15189469042983875 -0.9912265024474158
4144000000.0 -0.15706950531991862 -1.014711930238317
4147000000.0000005 -0.19296325462363093 -1.0120337618883004
4150000000.0000005 -0.2203081824395253 -1.015662568588738
4152999999.9999995 -0.1925827106831659 -0.9895353428523557
4155999999.9999995 -0.176511317448719 -1.0038152239571325
4159000000.0 -0.2191774825707373 -0.9687508505890939
4162000000.0 -0.2204456927599211 -0.9995408540190687
4166000000.0000005 -0.21521350884782156 -1.0173006405264686
4168999999.9999995 -0.2316108617452287 -0.9813540440643269
4171999999.9999995 -0.2133333183546065 -0.9877304515131762
4175000000.0 -0.23571894025186735 -1.0161018944345
4178000000.0 -0.2377104216350146 -0.9931326852223982
4181000000.0 -0.27097249169110993 -0.9561865316684972
4184000000.0 -0.22459659886972744 -0.9553520145522753
4187999999.9999995 -0.2727088002563611 -0.963965456421977
4191000000.0 -0.2519674007081578 -0.983416890427583
4194000000.0 -0.2808679283397035 -0.9775118931581293
4197000000.0 -0.2857325296482727 -0.991460686045034
4200000000.0 -0.24464573761773356 -1.0037871540802743
4203000000.0000005 -0.2965946739972436 -0.9995681539029071
4206000000.0000005 -0.28355593762192566 -0.9808122481926842
4208999999.9999995 -0.32888695660012757 -0.9375311172262482
4211999999.9999995 -0.35067478548685577 -0.948991643386204
4216000000.0 -0.3076859806789063 -0.9952138809901794
4219000000.0000005 -0.3188140819867601 -0.9820593298806332
4222000000.0000005 -0.3290289616501563 -0.9538468062338065
4224999999.9999995 -0.34706269158205927 -0.9494528753534011
4227999999.9999995 -0.3617551711622897 -0.9586661913813294
4231000000.0 -0.39167269472566124 -0.9445213547267904
4234000000.0 -0.3969933211886399 -0.9547095019864186
4238000000.0000005 -0.3965844312884218 -0.9386818591993306
4240999999.9999995 -0.39874926946649836 -0.8976526549054604
4244000000.0 -0.3903007910032399 -0.9077643745656439
4247000000.0 -0.400659119146787 -0.9007862269058079
4250000000.0 -0.3877576144446948 -0.8953943632732498
4253000000.0 -0.4224780913291477 -0.899191296033
4256000000.0 -0.4553355184341994 -0.9608281216760105
4259000000.0000005 -0.4311000488593654 -0.8775642982485994
4261999999.9999995 -0.4821519565262089 -0.891197334201048
4266000000.0 -0.4844146372284554 -0.888105936445258
4269000000.0 -0.42825651012473753 -0.8706920249775205
4272000000.0000005 -0.44153181592956203 -0.8994489649576836
4275000000.0000005 -0.47058916501178666 -0.8957722337814011
4277999999.9999995 -0.5037177447595571 -0.9043945338018267
4280999999.9999995 -0.4901523185256378 -0.8943186648593127
4284000000.0 -0.5243622525526979 -0.8678011170065838
4288000000.0000005 -0.48021508538635943 -0.881099274796767
4291000000.0000005 -0.5025020409710881 -0.8490174240088402
4293999999.9999995 -0.5247258391391111 -0.851581065981244
4297000000.0 -0.5022870655811355 -0.8752310432727277
4300000000.0 -0.5232252794251251 -0.8409333627467761
4303000000.0 -0.5879211881020309 -0.8285179250483937
4306000000.0 -0.5562766411157467 -0.8520848824691678
4309000000.0 -0.5573863702964605 -0.8350853488655098
4312000000.0 -0.5657081149760491 -0.852739826776691
4316000000.0 -0.567263734319325 -0.8158280863051652
4319000000.0 -0.5707407151656585 -0.8219864799761883
4322000000.0 -0.6278150253019017 -0.7851069460954221
4325000000.0 -0.6283875296541623 -0.8002517583896567
4328000000.0 -0.6025124741392609 -0.7819627967482068
4331000000.0 -0.6514231466414894 -0.7647993840802436
4334000000.0 -0.6634205763851029 -0.7700299145301253
4338000000.0 -0.6407589478279234 -0.7897419564111687
4341000000.0 -0.658790009214699 -0.7641617175938706
4344000000.0 -0.672358215614788 -0.7672552354726222
4347000000.0 -0.6999371275901831 -0.7461005640058463
4350000000.0 -0.6914122808484364 -0.7220385623187258
4353000000.0 -0.6944447229440495 -0.737974998278985
4356000000.0 -0.7171797474369643 -0.7040710507209602
4359000000.0 -0.7210780809702924 -0.6928625998393195
4362000000.0 -0.7405497079792177 -0.7077908429388867
4366000000.0 -0.7521566849170607 -0.694055662326597
4369000000.0 -0.7487298622021814 -0.6581016653873148
4372000000.0 -0.779672545990093 -0.6510784699501229
4375000000.0 -0.7565859781303892 -0.6480254628029107
4378000000.0 -0.7853799859246058 -0.6359217853904672
4381000000.0 -0.8009432961925854 -0.6263117358099538
4384000000.0 -0.8207646145479361 -0.6123810290184349
4388000000.0 -0.8255107665454235 -0.6117462753481296
4391000000.0 -0.8175709481062297 -0.591325423272892
4394000000.0 -0.8302450653030352 -0.5896317274220138
4397000000.0 -0.862325562712188 -0.5680419889177278
4400000000.0 -0.8335049584704897 -0.5453058631917282
4403000000.0 -0.8590741863048201 -0.5311400108484778
4406000000.0 -0.8668810062952412 -0.5084625578064602
4409000000.0 -0.8685009862777358 -0.5085641000940133
4412000000.0 -0.8771938199874597 -0.5237267249690785
4416000000.0 -0.8867912159986296 -0.5056312835800302
4419000000.0 -0.9047336209456296 -0.4894379666993237
4422000000.0 -0.9254157416654905 -0.4653372393728902
4425000000.0 -0.9080435907081635 -0.4200777968857472
4428000000.0 -0.9384505986175788 -0.4126660567364516
4431000000.0 -0.9099288916210782 -0.42338688857837387
4434000000.0 -0.9465182292924833 -0.41441523807687003
4438000000.0 -0.9120459076251404 -0.3516774683583546
4441000000.0 -0.9438970323970884 -0.3657210593971324
4444000000.0 -0.9635188231449527 -0.33385876265484193
4447000000.0 -0.9820809023059591 -0.3684654126998204
4450000000.0 -1.0198448108518214 -0.26966924149925153
4453000000.0 -0.9684734145204841 -0.30570811275829923
4456000000.0 -1.0148964441914994 -0.28096922958010456
4459000000.0 -1.0802725634723567 -0.2736979741390276
4462000000.0 -0.9762721701631036 -0.26839492285458827
4466000000.0 -1.017759787323064 -0.23368969712345805
4469000000.0 -1.0442933862636288 -0.1731933150235584
4472000000.0 -1.0066878542274673 -0.12561628643450096
4475000000.0 -1.0950092956299893 -0.1588100078513447
4478000000.0 -0.9900591886342464 -0.13296906835819322
4481000000.0 -1.0480845217583488 -0.1122469140456493
4484000000.0 -1.0710482667393568 -0.08097966968166737
4488000000.0 -1.0652189283034903 -0.09131589554844521
4491000000.0 -1.0335484920002862 -0.09390320115033474
4494000000.0 -1.0626302698727388 0.00225478039518201
4497000000.0 -1.0618563067692364 -0.013356663218450693
4500000000.0 -1.0059818299296517 0.0578694363735624
4503000000.0 -1.0234356214702383 0.05201627970791939
4506000000.0 -1.055408166859181 0.07644822927590611
4509000000.0 -0.9910989801063537 0.1131717803766033
4512000000.0 -1.0130606187934135 0.09106381791239809
4516000000.0 -1.0267813128378558 0.19636857277241904
4519000000.0 -1.0470474023419798 0.24095360970253554
4522000000.0 -1.0499016379628459 0.15804678558009838
4525000000.0 -1.0500719364139384 0.2826727108101945
4528000000.0 -0.9883426001650784 0.23167641670647587
4531000000.0 -0.9853100889007832 0.2955866209910872
4534000000.0 -1.0195242035743282 0.33239837553649043
4538000000.0 -0.9690096766064155 0.3347361342966003
4541000000.0 -0.9771808593727276 0.3229730896041194
4544000000.0 -0.9649667276330565 0.38720918160635565
4547000000.0 -0.9545419459593716 0.44584113077585324
4550000000.0 -0.9939381673323388 0.409318717215791
4553000000.0 -0.9075256952646023 0.45163282094872936
4556000000.0 -0.9794280131405962 0.48362732757174887
4559000000.0 -0.957000260653722 0.4735701795503818
4562000000.0 -0.9151902427047343 0.4952620044942472
4566000000.0 -0.8749486118586561 0.5274904028311809
4569000000.0 -0.9255628243443614 0.6064718571979795
4572000000.0 -0.8705473382721489 0.5929083115529251
4575000000.0 -0.8328113299525453 0.5395010810184556
4578000000.0 -0.8194065295638066 0.5793171617404423
4581000000.0 -0.8267439074637352 0.6107387331415925
4584000000.0 -0.8251013625735518 0.6862834954868888
4588000000.0 -0.7527977054494862 0.6790896489100466
4591000000.0 -0.7638365337940387 0.74138476761171
4594000000.0 -0.7783688263308389 0.7174770673376987
4597000000.0 -0.7183944478130311 0.7496791906586484
4600000000.0 -0.7446977973119876 0.74696863949979
4603000000.0 -0.6737740584171213 0.7486225764067624
4606000000.0 -0.731122132093891 0.8063595819994547
4609000000.0 -0.634852908319613 0.7846117870055488
4612000000.0 -0.6316086781171618 0.8469418344227931
4616000000.0 -0.550976257068069 0.8304296629250999
4619000000.0 -0.5591912879844909 0.8695296620285056
4622000000.0 -0.5256255960948074 0.9234863973339307
4625000000.0 -0.5311550515604166 0.9067658124706127
4628000000.0 -0.5538916880126397 0.9894602503607516
4631000000.0 -0.5297403706416939 0.9176211536004504
4634000000.0 -0.4813519428266002 0.9350036509783715
4638000000.0 -0.4673176353914158 0.9431957497785178
4641000000.0 -0.40260948564114685 0.9370918543648531
4644000000.0 -0.44359718929522174 0.9456563377320778
4647000000.0 -0.4075595008459926 0.9249361081868797
4650000000.0 -0.3508819936171781 0.9800471683511375
4653000000.0 -0.29220654867355417 0.9340366483617649
4656000000.0 -0.30420077086601993 1.0212149379226318
4659000000.0 -0.2984684799822529 0.9910636309286446
4662000000.0 -0.23517017630607986 0.9868455121859626
4666000000.0 -0.23216453386992456 1.042829179303379
4669000000.0 -0.18461519807243743 1.0436130206478804
4672000000.0 -0.16130192510759486 1.0680522009883702
4675000000.0 -0.10587422439291548 0.9737288405805212
4678000000.0 -0.16706010868710006 1.0001412601470931
4681000000.0 -0.023755464171842128 0.9950947068695767
4684000000.0 -0.0745046700793226 0.9668181158084981
4688000000.0 -0.11708736171645638 0.9924316069667306
4691000000.0 -0.06495316625911954 1.002716088466685
4694000000.0 0.019459995968151574 1.0249339391974674
4697000000.0 0.015221313544772602 1.037423676715761
4700000000.0 0.018209201321454836 1.0654641679851025
4703000000.0 0.0952009158532642 1.0299906365698153
4706000000.0 -0.0021608231698645175 0.9782058577383268
4709000000.0 0.05000414833205841 1.017636002038424
4712000000.0 0.1610853246294275 0.9725914491182647
4716000000.0 0.13544042314921145 1.009630013545104
4719000000.0 0.22639172894297774 1.0091284788011754
4722000000.0 0.22717719693736674 1.0370709565647898
4725000000.0 0.23264172388302187 0.9927740247951314
4728000000.0 0.24561075278409422 0.996808881198008
4731000000.0 0.2214870812252938 0.9758787546924932
4734000000.0 0.2577467192007832 0.9877254984182898
4738000000.0 0.2804835180584628 0.9559431028109688
4741000000.0 0.28876444780985305 0.9455796730819508
4744000000.0 0.35226004258634225 0.9457728352915432
4747000000.0 0.36819890696951424 0.9825435624497796
4750000000.0 0.38486454884599797 0.8743155339812559
4753000000.0 0.44734310056190674 0.9481877054800798
4756000000.0 0.4359473725095564 0.8987923513751483
4759000000.0 0.4454328475734818 0.9149789505622342
4762000000.0 0.40131139333463534 0.9147970315381277
4766000000.0 0.47514248045226704 0.8920466700646738
4769000000.0 0.5036225001896824 0.9328765742291569
4772000000.0 0.5259892801237733 0.8693315494971765
4775000000.0 0.4953321983158715 0.849390460079598
4778000000.0 0.48670446586068045 0.8823473109268515
4781000000.0 0.5575623235809557 0.8704051827357423
4784000000.0 0.5110139132037672 0.8901700900342673
4788000000.0 0.5317950723381784 0.8433510825728872
4791000000.0 0.6140996773590364 0.8251868539734937
4794000000.0 0.6099651523581845 0.7603898139554994
4797000000.0 0.6657428006479709 0.8469649728564737
4800000000.0 0.672845256498947 0.790057379112685
4803000000.0 0.6150116741400123 0.8061531187028683
4806000000.0 0.6490708743468367 0.7634547767001834
4809000000.0 0.6278665921470418 0.7788865336283928
4812000000.0 0.6735142217735167 0.7714933143850822
4816000000.0 0.7374045978433021 0.7198776610048925
4819000000.0 0.7251879290045755 0.7015347641696282
4822000000.0 0.7339086720927482 0.7115020182917711
4825000000.0 0.7187766826014991 0.6683259451539324
4828000000.0 0.7337821477931221 0.6828648226361835
4831000000.0 0.7266545082174685 0.6984805025294003
4834000000.0 0.7527830482124226 0.6272200129857218
4838000000.0 0.766813276834829 0.6543795209545906
4841000000.0 0.7892963078483051 0.6599035042011447
4844000000.0 0.7938071436819565 0.6140091357882589
4847000000.0 0.8397153108650707 0.6210518229353765
4850000000.0 0.7799262887609966 0.589050612483319
4853000000.0 0.8193595377522591 0.5956448417269367
4856000000.0 0.8391064681614786 0.5670525729140701
4859000000.0 0.8353426370407091 0.5694228863704054
4862000000.0 0.8462072210970447 0.5747350343590246
4866000000.0 0.840889894316216 0.5688306552775672
4869000000.0 0.8556087921436587 0.5680484719356206
4872000000.0 0.8501930365767062 0.531065594098827
4875000000.0 0.8924631979825873 0.512341485482944
4878000000.0 0.8823036314917139 0.5010448806092809
4881000000.0 0.8396990499554187 0.5074186666412334
4884000000.0 0.8763786382456292 0.5035584227278213
4888000000.0 0.8904225404453404 0.49725175234437696
4891000000.0 0.8994988486541817 0.47128856148239084
4894000000.0 0.8959926620565773 0.4684375945499296
4897000000.0 0.8797888587570215 0.46121817310910695
4900000000.0 0.9105629733676751 0.40754595808090927
4903000000.0 0.9143731331654608 0.4230312578791058
4906000000.0 0.9306131979042526 0.42677074311711305
4909000000.0 0.9181229857462083 0.3996401102558224
4912000000.0 0.9188854059063274 0.3657685090535637
4916000000.0 0.9355959709111921 0.39128330909805625
4919000000.0 0.931209671864068 0.3710954245469193
4922000000.0 0.943782523663386 0.3745637523280004
4925000000.0 0.9257229502423997 0.37690207236717677
4928000000.0 0.9717340220101781 0.3560580328232045
4931000000.0 0.9587995685133509 0.34466116827457627
4934000000.0 0.9276249463296466 0.3417085917993231
4938000000.0 0.9546146041288469 0.3333819244113694
4941000000.0 0.9638294496184077 0.31197575146441353
4944000000.0 0.9487306237256061 0.3105934048398786
4947000000.0 0.9758624213231937 0.3023674346063348
4950000000.0 0.9553791443477699 0.2793672577375991
4953000000.0 0.9683255425163306 0.2599135686452856
4956000000.0 1.0129514073454142 0.2709464476471043
4959000000.0 0.9882694999530823 0.24841666294537235
4962000000.0 0.9803959504496957 0.23455885705046786
4966000000.0 0.9626958889075041 0.23749942824983433
4969000000.0 0.9924940721040457 0.2582512077694604
4972000000.0 1.0083678457911907 0.2418654351012005
4975000000.0 1.0064429287468744 0.21004187087528925
4978000000.0 0.9775319318156988 0.21122621745352071
4981000000.0 1.0118781577727107 0.20904431617948765
4984000000.0 1.0021014675237536 0.20010865476464573
4988000000.0 0.9956479497210567 0.18367690635450484
4991000000.0 1.0082739164373165 0.21316588763890076
4994000000.0 0.9808724123647756 0.19209856758048183
4997000000.0 1.0051520674953018 0.176819024272574
5000000000.0 1.0130515525651345 0.16752066251780923
5003000000.0 1.0138265767309063 0.16774706614365198
5006000000.0 1.0307858009014297 0.1689251083238803
5009000000.0 0.9968134493698924 0.13538816075202764
5012000000.0 1.005383701784918 0.1300714633240873
5016000000.0 1.0261538899464702 0.1635589643911332
5019000000.0 0.9831392934693967 0.12138248643341187
5022000000.0 1.014366653615369 0.12626249362053044
5025000000.0 1.0784472956098434 0.11714827417557583
5028000000.0 1.032521691981449 0.0652455809553425
5031000000.0 1.0063923597489763 0.10195281238013176
5034000000.0 1.0549779015838354 0.06363891437287494
5038000000.0 0.9809983589358594 0.038330418424503465
5041000000.0 1.0086234010958504 0.14007964598215883
5044000000.0 0.9886131405413885 0.0807776735725716
5047000000.0 1.0431495597561464 0.09702165365105297
5050000000.0 1.0164499775307856 0.15812099290278275
5053000000.0 1.0459154843629026 0.04414571803784578
5056000000.0 1.0271595209467919 0.0942644677368607
5059000000.0 1.0352416590358022 0.12071941826971949
5062000000.0 1.045530517929198 0.033004950647188336
5066000000.0 0.9851819927511576 0.0869656961455692
5069000000.0 1.0261303029174667 0.03793319582881416
5072000000.0 0.9962444795722036 0.041080364450231666
5075000000.0 1.0191862319039537 0.036041537050200134
5078000000.0 1.0541247196832997 -0.03077068110815251
5081000000.0 0.9705516814896652 0.013176174191586565
5084000000.0 1.0620885696686841 -0.013522913224328581
5088000000.0 1.0161737947844847 0.02006052626904231
5091000000.0 1.030299841472076 -0.02283994553699953
5094000000.0 1.0640298382195703 0.04646241684893365
5097000000.0 1.0527727917145677 0.008331168368019337
5100000000.0 0.9993390435059936 0.010341449218121856
5103000000.0 1.0018761728561705 -0.00037269138119883083
5106000000.0 1.1025558616791595 0.03629121498479232
5109000000.0 1.0401731115563277 -0.002554748182426514
5112000000.0 1.0080753137777674 -0.026266250072347452
5116000000.0 0.9677179999215058 -0.00216826649437879
5119000000.0 1.0186173619429852 0.012411757540009838
5122000000.0 1.0504078475149095 -0.021510087392002275
5125000000.0 1.0372350958205123 -0.053684452093777146
5128000000.0 1.0413506633152634 -0.04745176155522968
5131000000.0 1.0114781139412443 -0.032071008293568126
5134000000.0 1.029891735162896 -0.07168279610254596
5138000000.0 1.0358805949677583 -0.07691774018240544
5141000000.0 1.0205575480657425 -0.036593823929343294
5144000000.0 1.1003754187499806 -0.027099976420365768
5147000000.0 1.0321025569571665 -0.06002105005395675
5150000000.0 1.0305790775488826 -0.042099542087967345
5153000000.0 0.9864230155782941 -0.06834754987414787
5156000000.0 1.0688104260668987 -0.06498025409781144
5159000000.0 1.05969527373975 -0.07868906078455773
5162000000.0 1.006502061183435 -0.0920390119639447
5166000000.0 1.0901135217241789 -0.15859456898580185
