! Created with skrf 1.8.0 (http://scikit-rf.org).
# Hz S RI R 50.0 
!freq ReS11 ImS11
4000000000.0 0.5747405185581015 -0.8641282205638181
4003000000.0 0.5346292802225486 -0.8975331793938295
4006000000.0 0.5029319078396605 -0.9396376420234354
4009000000.0000005 0.5946158506079207 -0.8620047058195995
4011999999.9999995 0.5705411310970494 -0.8935605017343902
4016000000.0 0.553110768668956 -0.9058503749958831
4019000000.0 0.5836837602728971 -0.90098634722946
4022000000.0000005 0.6340228051347743 -0.8577422458820788
4025000000.0000005 0.5366190653091384 -0.9157491742064456
4027999999.9999995 0.5704819464364839 -0.9119679616834797
4030999999.9999995 0.5755225925058937 -0.8767165133148453
4034000000.0 0.553067038324266 -0.8554641715847568
4038000000.0000005 0.5493452394524847 -0.937260347368166
4041000000.0000005 0.566110976328312 -0.8903765785871731
4043999999.9999995 0.6244077044668064 -0.9725126958970021
4046999999.9999995 0.6228626636435829 -0.907190600129532
4050000000.0 0.5361358246942423 -0.9419300688408822
4053000000.0 0.5195275165472788 -0.8861722276040869
4056000000.0 0.5239948113666939 -0.9148098254719672
4059000000.0 0.5447600586175462 -0.9067475144021044
4062000000.0000005 0.5375343568545319 -0.9185877948567129
4066000000.0 0.5310180931886049 -0.8352019993850375
4069000000.0 0.5599530872289062 -0.9469063650081512
4072000000.0 0.5832491243190885 -0.8953270019484272
4075000000.0 0.6016187179239878 -0.8812117478829135
4078000000.0000005 0.567755661171981 -0.9062729961955226
4081000000.0000005 0.6386837340534524 -0.8557872496528239
4083999999.9999995 0.5601774209761324 -0.917992476248888
4088000000.0 0.5959945957535582 -0.8507006117787556
4091000000.0 0.5918003977705945 -0.9471687059475101
4094000000.0000005 0.5796048900280356 -0.8834654808612574
4097000000.0000005 0.5354233690618931 -0.8734499665028314
4099999999.9999995 0.55566019368766 -0.869695750156408
4102999999.9999995 0.5756506735145076 -0.9575693246945935
4106000000.0 0.5521235601182597 -0.9159111217784929
4109000000.0 0.5474352897680403 -0.8987561169912047
4112000000.0 0.5402281592713709 -0.8650749462837994
4115999999.9999995 0.5880449383868983 -0.9091379766201991
4119000000.0 0.5700335123990268 -0.9223417805663053
4122000000.0 0.5769982412866319 -0.9263266789677396
4125000000.0 0.5491118930355474 -0.9045458656683556
4128000000.0 0.5483917335901641 -0.8437058010540663
4131000000.0 0.5753567526364523 -0.8696098325567486
4134000000.0000005 0.5518402634070549 -0.8462647942066923
4138000000.0 0.5183885805598162 -0.9151964169945515
4141000000.0 0.548492013811897 -0.9025116664418342
4144000000.0 0.5816760221923563 -0.8988951610678731
4147000000.0000005 0.5656887836779381 -0.8574984468911807
4150000000.0000005 0.5436399313314195 -0.9007400090305926
4152999999.9999995 0.5700369660584497 -0.8748828060139774
4155999999.9999995 0.5521885787171028 -0.9107270152484175
4159000000.0 0.5812357225362146 -0.8479632047395792
4162000000.0 0.5499603478608929 -0.8736756765614547
4166000000.0000005 0.5641354056549523 -0.9165176513079235
4168999999.9999995 0.5329153266209534 -0.892034039165932
4171999999.9999995 0.6005211844545764 -0.9039053655641517
4175000000.0 0.5735640141884871 -0.8726267839857555
4178000000.0 0.5540963779981946 -0.8914890540872491
4181000000.0 0.5632856860115782 -0.8979002232983444
4184000000.0 0.5732376938099015 -0.8839128427132743
4187999999.9999995 0.5435646774994433 -0.8688624621787145
4191000000.0 0.5940586369883619 -0.8475241960603254
4194000000.0 0.5420450756375516 -0.8835350465445305
4197000000.0 0.5667405779195127 -0.8660514636231244
4200000000.0 0.5922632382296883 -0.8602536181978624
4203000000.0000005 0.5783048917506031 -0.8784919262978887
4206000000.0000005 0.5648310189447484 -0.8791102200670547
4208999999.9999995 0.5693496303656707 -0.8771011977117447
4211999999.9999995 0.559356759737732 -0.8951896745784358
4216000000.0 0.5748823356578775 -0.850765549312515
4219000000.0000005 0.57845728407574 -0.8693606826944509
4222000000.0000005 0.5487417008037694 -0.871795937476758
4224999999.9999995 0.5681293194070518 -0.871529118303149
4227999999.9999995 0.5619070257632601 -0.8727754889321467
4231000000.0 0.5655042683289333 -0.8469606985036077
4234000000.0 0.5789404376924461 -0.8717582594627845
4238000000.0000005 0.5547979541528156 -0.8724741606058888
4240999999.9999995 0.5547573692081389 -0.8795203194599248
4244000000.0 0.5570964292344087 -0.8570085410380788
4247000000.0 0.5500927514931803 -0.8677181933434961
4250000000.0 0.5585133608181598 -0.8710213002549818
4253000000.0 0.5276931746232053 -0.8368294514837121
4256000000.0 0.5671898038964657 -0.8752488633027831
4259000000.0000005 0.5432702193018136 -0.8469851020176445
4261999999.9999995 0.5544728417933618 -0.8519527185252546
4266000000.0 0.5490011029224748 -0.8740894769638006
4269000000.0 0.5791858894327201 -0.8381343437459859
4272000000.0000005 0.5506374072041821 -0.8736083047416188
4275000000.0000005 0.560308463314569 -0.8675110750175359
4277999999.9999995 0.5686607001077943 -0.8893385028339152
4280999999.9999995 0.5843683276760553 -0.8642437385828567
4284000000.0 0.5388218774993259 -0.9164090704158574
4288000000.0000005 0.5810016055227907 -0.8243995447218292
4291000000.0000005 0.5314301842606196 -0.8494084561388745
4293999999.9999995 0.5322501406806912 -0.873312703842831
4297000000.0 0.5932297004591053 -0.8443572717495544
4300000000.0 0.566747450203186 -0.8488117234214572
4303000000.0 0.5253898826368292 -0.8704839781478889
4306000000.0 0.5830352358460553 -0.8672505075926173
4309000000.0 0.5662246392172702 -0.8501135398800278
4312000000.0 0.6036640191990542 -0.8497690680679133
4316000000.0 0.567937261493808 -0.8657351728653233
4319000000.0 0.545413276761511 -0.8468954671854894
4322000000.0 0.5170700807171082 -0.8549257394933869
4325000000.0 0.5569256629581358 -0.8311391839267748
4328000000.0 0.5776940947475503 -0.8569976126416617
4331000000.0 0.5525115130444154 -0.885117309374577
4334000000.0 0.544429860837406 -0.868108383442499
4338000000.0 0.5736552640093557 -0.8631926901511551
4341000000.0 0.5744270810594857 -0.8423153620545137
4344000000.0 0.5809377252287734 -0.8655157373872909
4347000000.0 0.5407583111037051 -0.8841371680048705
4350000000.0 0.5382885593944097 -0.8169278861302751
4353000000.0 0.579014463404736 -0.8530952901212361
4356000000.0 0.5387716253484662 -0.8734957102680021
4359000000.0 0.5406884135466642 -0.8270756640951163
4362000000.0 0.4966325713837139 -0.90213655084364
4366000000.0 0.5752465763813963 -0.894992173428845
4369000000.0 0.5218802438590329 -0.8588406871403843
4372000000.0 0.5182954638612888 -0.8754200542455965
4375000000.0 0.5829538244116457 -0.856732283255953
4378000000.0 0.535749069413126 -0.8463739922498812
4381000000.0 0.5518150071683574 -0.8353228694366404
4384000000.0 0.5672534838978057 -0.9277394605959636
4388000000.0 0.5475422121690787 -0.8547687735570294
4391000000.0 0.5666615191635669 -0.8710213912539404
4394000000.0 0.5287081962099502 -0.8312814270425246
4397000000.0 0.5299208141610372 -0.849515728524952
4400000000.0 0.5513732144844163 -0.8877353335234379
4403000000.0 0.552091688734637 -0.8660656937578127
4406000000.0 0.5341109446441621 -0.8696290892154184
4409000000.0 0.5684826538702167 -0.8888149446185196
4412000000.0 0.4988448164785513 -0.8969060596839851
4416000000.0 0.53452163951731 -0.861675174331402
4419000000.0 0.5278489976432531 -0.863866123750431
4422000000.0 0.5629432222476133 -0.8496260094782324
4425000000.0 0.570943455133145 -0.8548605263628188
4428000000.0 0.53406593180442 -0.8610119287087068
4431000000.0 0.5599559027379601 -0.8691615637718599
4434000000.0 0.5399658304915923 -0.8486025971284574
4438000000.0 0.5637273925619859 -0.8779184902478319
4441000000.0 0.5548441658404073 -0.8707079728195807
4444000000.0 0.5469093465837602 -0.8472419809065402
4447000000.0 0.5328658986213118 -0.8713737630079523
4450000000.0 0.5527400782992355 -0.8449076391052982
4453000000.0 0.5549341473060878 -0.8855390955041766
4456000000.0 0.5215178903782439 -0.8542351382749858
4459000000.0 0.4961622195710039 -0.8428073145561221
4462000000.0 0.5648668747433618 -0.9100554542104342
4466000000.0 0.558544707963061 -0.9027956357096156
4469000000.0 0.554535060762851 -0.8410494934173987
4472000000.0 0.5303247163730013 -0.8961578437562439
4475000000.0 0.5357936695623429 -0.8357520545546968
4478000000.0 0.5434354043691721 -0.9151278618819406
4481000000.0 0.5185940658080617 -0.8392959308636274
4484000000.0 0.49600342955974014 -0.8916229873272588
4488000000.0 0.5327555850011777 -0.8668388966541982
4491000000.0 0.5318044228918545 -0.8726204680601516
4494000000.0 0.5335924001388708 -0.8634549095692006
4497000000.0 0.5430430943382436 -0.8408708228876419
4500000000.0 0.5477590056915667 -0.872421825750411
4503000000.0 0.5650620119178134 -0.8793315268029119
4506000000.0 0.5277388760507883 -0.8540697634603661
4509000000.0 0.5192503400650232 -0.8504937838368967
4512000000.0 0.5166354780879945 -0.8531252357740496
4516000000.0 0.5633093020956653 -0.8939987977995469
4519000000.0 0.528125799332815 -0.8582973697920899
4522000000.0 0.524313518134578 -0.8852496275966018
4525000000.0 0.5479050991083863 -0.8556085259648545
4528000000.0 0.5555559856007144 -0.8908309407798098
4531000000.0 0.5484389543226618 -0.8589110567605147
4534000000.0 0.509810084824418 -0.860072053683534
4538000000.0 0.5183249001984821 -0.8540537102987553
4541000000.0 0.4824564529208843 -0.8871154205926295
4544000000.0 0.5226716630771292 -0.8525544338693494
4547000000.0 0.5375359348859639 -0.8326172088291017
4550000000.0 0.5081797668985865 -0.8759873289483833
4553000000.0 0.5096770554224546 -0.8811249548080367
4556000000.0 0.5122513853466233 -0.8629541074349278
4559000000.0 0.5166182100038004 -0.9037581292210259
4562000000.0 0.53564184517935 -0.8859783874399464
4566000000.0 0.51584098917809 -0.8802191501411647
4569000000.0 0.5045390764076729 -0.8699925571860805
4572000000.0 0.5255237021818062 -0.878131836126272
4575000000.0 0.5200060621921146 -0.8948731967728608
4578000000.0 0.5478885359835104 -0.8973052327084701
4581000000.0 0.5128120276679108 -0.8908443887720668
4584000000.0 0.5278136552784018 -0.8743969990205166
4588000000.0 0.5441688310830013 -0.8762977448902649
4591000000.0 0.5249252557558861 -0.863183880603783
4594000000.0 0.5030469537487211 -0.8894069499840309
4597000000.0 0.5245589211007016 -0.8956728636066325
4600000000.0 0.48054339814266117 -0.8947004007489546
4603000000.0 0.513484435213568 -0.8991485524866563
4606000000.0 0.5256140891379427 -0.8831138051471138
4609000000.0 0.5120693709427434 -0.8785800431130367
4612000000.0 0.514113774864055 -0.8944834744237118
4616000000.0 0.5287550332047419 -0.8702633889999893
4619000000.0 0.531990129553868 -0.8796060183196439
4622000000.0 0.5072933730847706 -0.8739969015441916
4625000000.0 0.48851804149014494 -0.8688211993541102
4628000000.0 0.5322057900375301 -0.8563118463501986
4631000000.0 0.508558347065508 -0.8855470282192583
4634000000.0 0.5172487921028879 -0.8855452530098695
4638000000.0 0.537762163076836 -0.8896053617909095
4641000000.0 0.5160161104957834 -0.8537494211616918
4644000000.0 0.5149399354667892 -0.8702058537532944
4647000000.0 0.516159274462784 -0.885223902052454
4650000000.0 0.4884481237958885 -0.9035570357318207
4653000000.0 0.5120348007681678 -0.9000098533739304
4656000000.0 0.504090619192034 -0.8812997569864339
4659000000.0 0.5088732595287282 -0.8973386296258007
4662000000.0 0.521196987515982 -0.8803828800669808
4666000000.0 0.5059248822553318 -0.8841622447136526
4669000000.0 0.5326245130947339 -0.8966101937448312
4672000000.0 0.5039352170533395 -0.8825323961001454
4675000000.0 0.4908580512056533 -0.9135846771463074
4678000000.0 0.5049689921297624 -0.8696259663734247
4681000000.0 0.5089150074749599 -0.8986938112871541
4684000000.0 0.4882815574958576 -0.8925681562451642
4688000000.0 0.5043065413048584 -0.872968158100259
4691000000.0 0.5280802140224468 -0.907195319578939
4694000000.0 0.5107050128246894 -0.8665220028712594
4697000000.0 0.47151861543168394 -0.8530799095930558
4700000000.0 0.5303408005140319 -0.8796258901372754
4703000000.0 0.5197535714359719 -0.8443924866639926
4706000000.0 0.48384229247561394 -0.8870019573648051
4709000000.0 0.5033459323886347 -0.8726083266496196
4712000000.0 0.5050408364591079 -0.8867817662672028
4716000000.0 0.49891301156743345 -0.8998447836382111
4719000000.0 0.5636866551373825 -0.8991165916860075
4722000000.0 0.5228747010219159 -0.8978950334375552
4725000000.0 0.5095648303237417 -0.884561045850437
4728000000.0 0.47430410418621605 -0.8768237471132357
4731000000.0 0.5155589765777077 -0.8987208645475745
4734000000.0 0.5222013226868066 -0.8849314922443882
4738000000.0 0.5617610712755954 -0.8841329661020549
4741000000.0 0.5100014452473631 -0.9266270698426553
4744000000.0 0.4811097377850444 -0.9005958961368383
4747000000.0 0.5341789002234951 -0.8653571923399322
4750000000.0 0.5148353345914116 -0.8851546425632966
4753000000.0 0.5079172353373029 -0.8999586846329346
4756000000.0 0.5075285550820912 -0.8945745194095057
4759000000.0 0.5109218465779938 -0.9236231200089661
4762000000.0 0.4772814030083216 -0.9049826951113534
4766000000.0 0.5097959068503608 -0.9171462304969159
4769000000.0 0.5041291334833164 -0.8780954927232895
4772000000.0 0.5102956271610508 -0.9163214488341334
4775000000.0 0.5088522275392939 -0.9469352302155551
4778000000.0 0.517366182932661 -0.9265660248031198
4781000000.0 0.5028952070092044 -0.9000729669695614
4784000000.0 0.5176207711655155 -0.9011617201682999
4788000000.0 0.49739457438656753 -0.9296989379321802
4791000000.0 0.47558727526445654 -0.9115474199824282
4794000000.0 0.5281110841245996 -0.9099603068455738
4797000000.0 0.48723135366588766 -0.9055643506955282
4800000000.0 0.47237896596587403 -0.8980618848316203
4803000000.0 0.45636321503082866 -0.8905669249272755
4806000000.0 0.5142933045846139 -0.9081582198854876
4809000000.0 0.4731340712038494 -0.925436798029774
4812000000.0 0.47503538907348386 -0.9173084168576364
4816000000.0 0.5052442888187338 -0.8761455352398524
4819000000.0 0.5418606769178054 -0.8920517594094198
4822000000.0 0.5540088173164872 -0.903999004347989
4825000000.0 0.5289301047743445 -0.9129954174837431
4828000000.0 0.49006793191354525 -0.8817914274299488
4831000000.0 0.4636377188374996 -0.9422327522009947
4834000000.0 0.5270580635570552 -0.913123594545454
4838000000.0 0.5006441262270445 -0.9306900297779482
4841000000.0 0.48879241079937014 -0.8850204589604266
4844000000.0 0.5265961780100925 -0.8902698807732303
4847000000.0 0.5177245545370115 -0.8701682812221132
4850000000.0 0.507852656090285 -0.9101529390122429
4853000000.0 0.5069835751271409 -0.8783672202672171
4856000000.0 0.5102323262412208 -0.8961094643705146
4859000000.0 0.5332164253814529 -0.9230845000345976
4862000000.0 0.5374366881899442 -0.8729583423101327
4866000000.0 0.4969217870183422 -0.9068310599926618
4869000000.0 0.4988960767541474 -0.9150401299999862
4872000000.0 0.5153338964894028 -0.9403182767695304
4875000000.0 0.5771757637391056 -0.9098528773269248
4878000000.0 0.5063636223515674 -0.9056065549009392
4881000000.0 0.5160652467063881 -0.982163417871548
4884000000.0 0.5254144304044938 -0.9059973309072958
4888000000.0 0.5578668471933776 -0.8932157576731138
4891000000.0 0.5679078903994219 -0.9137325026654042
4894000000.0 0.4892261899676831 -0.9015990792946811
4897000000.0 0.5394397130244567 -0.9006744326652281
4900000000.0 0.5226157070451377 -0.8990709865978506
4903000000.0 0.5281501821231875 -0.9219328692934351
4906000000.0 0.5350741387841191 -0.9125356852213395
4909000000.0 0.5050870890524457 -0.9024937222014477
4912000000.0 0.5190087521544943 -0.9632138093958577
4916000000.0 0.5388879214706102 -0.8884666719563413
4919000000.0 0.5436958072025359 -0.9362350221778345
4922000000.0 0.5317666648939249 -0.8724482863520984
4925000000.0 0.4768520119626493 -0.9218734587336713
4928000000.0 0.5929807472935164 -0.8592714262540714
4931000000.0 0.5452138000544668 -0.9220525174388984
4934000000.0 0.491167419921614 -0.8549911210703566
4938000000.0 0.4977128428381323 -0.9170666533430987
4941000000.0 0.5079959046976069 -0.9045240283659518
4944000000.0 0.5150838983982613 -0.8497605448940082
4947000000.0 0.5146919285199374 -0.8720627445487945
4950000000.0 0.5025052554148715 -0.9302628709215885
4953000000.0 0.5192473879623549 -0.9692611990772045
4956000000.0 0.50527088792357 -0.9006878283285299
4959000000.0 0.4575093738479735 -0.8951471409822417
4962000000.0 0.5359259701878002 -0.9283878061431143
4966000000.0 0.5687415210258056 -0.9168128753666019
4969000000.0 0.5403185961882739 -0.9139185839859506
4972000000.0 0.5136865570147238 -0.9244606358567738
4975000000.0 0.5560169874473199 -0.892926260336862
4978000000.0 0.5219575762671396 -0.9066463921179236
4981000000.0 0.5214814265008672 -0.946799301850311
4984000000.0 0.5425766453078212 -0.8876206469446498
4988000000.0 0.5213525140008191 -0.8993621747782508
4991000000.0 0.597260262157538 -0.9249733543542007
4994000000.0 0.5357889546946762 -0.8926895550165583
4997000000.0 0.4790011001993182 -0.9617979874008864
5000000000.0 0.5309720646404612 -0.931631554280697
5003000000.0 0.5302071607646289 -0.9496613101634013
5006000000.0 0.5799814589054053 -0.9682032810005986
5009000000.0 0.5279162511002792 -0.9126358633770895
5012000000.0 0.4978125516217241 -0.9432315344570678
5016000000.0 0.5789353316255825 -0.9181935792497169
5019000000.0 0.5237415337736671 -0.9160306093263105
5022000000.0 0.5197466786842083 -0.9170463311970071
5025000000.0 0.5651014342002686 -0.9559462921191904
5028000000.0 0.5213145400146546 -0.9357980815217823
5031000000.0 0.5335491118300082 -0.9131962514624852
5034000000.0 0.5136964955328606 -0.9579840323483911
5038000000.0 0.4805035627978884 -0.9085637846238791
5041000000.0 0.5768926470504832 -0.8740527286033866
5044000000.0 0.5658370320275748 -0.8845181992268618
5047000000.0 0.5544311815334 -0.8984883872754904
5050000000.0 0.606595941367033 -0.8432550904452303
5053000000.0 0.5373075865932109 -0.9484864349108556
5056000000.0 0.5791672347415023 -0.8988867985372437
5059000000.0 0.6342016980969494 -0.8694880675796054
5062000000.0 0.5026115222754379 -0.9505671787866095
5066000000.0 0.6088963287840654 -0.8719413558627191
5069000000.0 0.5403186301671057 -0.9048455043816102
5072000000.0 0.5202771770341542 -0.886373123835677
5075000000.0 0.5502634122691766 -0.8605669012039893
5078000000.0 0.5587118265695843 -0.9581847632404488
5081000000.0 0.5281644495280389 -0.8796593555420703
5084000000.0 0.5389689071349397 -0.9246857373226471
5088000000.0 0.5434530901982065 -0.8954630773719814
5091000000.0 0.5414080107519303 -0.943551220951941
5094000000.0 0.5462101520725291 -0.8977616326956726
5097000000.0 0.5688967680829087 -0.884214420078998
5100000000.0 0.545072956189429 -0.9065008132719337
5103000000.0 0.5526209778576763 -0.9517881374573719
5106000000.0 0.5695157633749932 -0.9360243979246632
5109000000.0 0.5625826907840337 -0.8725489468085827
5112000000.0 0.5565076748754196 -0.9081704657251807
5116000000.0 0.5481004080838134 -0.847863502961074
5119000000.0 0.5744579934106253 -0.9419001819801913
5122000000.0 0.5611811461985505 -0.8845380827957667
5125000000.0 0.5824938695297681 -0.8423197781080178
5128000000.0 0.5180314078514916 -0.8656116788188546
5131000000.0 0.5931679839200071 -0.8663246183891153
5134000000.0 0.5497506544278667 -0.9152158110999591
5138000000.0 0.61549969414704 -0.8555952495473937
5141000000.0 0.5438759377900704 -0.8588939421209605
5144000000.0 0.5934732588527943 -0.8544820309310541
5147000000.0 0.5872648597615654 -0.8910479014641091
5150000000.0 0.6241786921522543 -0.8961091480229648
5153000000.0 0.5820536172253576 -0.9153077169741387
5156000000.0 0.6034979632770545 -0.9169800290768613
5159000000.0 0.6096639067197704 -0.9063235724136427
5162000000.0 0.5605416895447992 -0.9102503488175331
5166000000.0 0.5767373983341044 -0.9374721942772235
5169000000.0 0.6010329727261732 -0.9191612553844175
5172000000.0 0.5922660995554229 -0.8315228037629304
5175000000.0 0.6038129302858504 -0.9210841887417098
5178000000.0 0.5789070802160047 -0.9046648169952576
5181000000.0 0.5819806580311997 -0.8928070236510012
