! Created with skrf 1.8.0 (http://scikit-rf.org).
# Hz S RI R 50.0 
!freq ReS11 ImS11
4000000000.0 -0.47416797550089307 0.8666860929695515
4003000000.0 -0.47070173161374534 0.8664530874264861
4006000000.0 -0.43611776846103123 0.918983271548244
4009000000.0000005 -0.4243497202732756 0.926798551200513
4011999999.9999995 -0.33113577579367603 0.9602281953205617
4016000000.0 -0.3772805771451617 0.9566736882492232
4019000000.0 -0.3355718620139022 0.9586864466124811
4022000000.0000005 -0.25250822495877334 0.9777892278581678
4025000000.0000005 -0.2761208088315963 0.947110138572087
4027999999.9999995 -0.2286861197375094 1.0050640256653134
4030999999.9999995 -0.26270767302924314 1.0093685389559899
4034000000.0 -0.20245815935689418 1.0372158912506377
4038000000.0000005 -0.17373524610171628 1.0495152510649333
4041000000.0000005 -0.10642049224302796 0.9980297976855421
4043999999.9999995 -0.09129747670509292 1.0865555879475057
4046999999.9999995 -0.08256546109242649 0.9894436773515201
4050000000.0 -0.0013807108270160462 0.9950487282441173
4053000000.0 0.00979002551489122 0.994732014932801
4056000000.0 0.0028640361231691835 1.0367535743335692
4059000000.0 0.04280262868319021 1.016704758041075
4062000000.0000005 0.1542461837689476 1.0365169416132791
4066000000.0 0.10355502138210336 0.9712123249400764
4069000000.0 0.12151838728994413 1.0517719655616389
4072000000.0 0.09975704307933184 1.0416997944669204
4075000000.0 0.1516055564901623 1.0324139497182288
4078000000.0000005 0.20799825169968583 1.0409477719588487
4081000000.0000005 0.21205329443086782 1.0208864202559624
4083999999.9999995 0.27539596206317185 1.019738845809009
4088000000.0 0.26688081741746983 1.0271031139773865
4091000000.0 0.36469023862364264 1.043109964522997
4094000000.0000005 0.33419664246317377 1.0004414257106318
4097000000.0000005 0.33270023180643254 0.99438525094617
4099999999.9999995 0.38646639423749296 0.9738210697391563
4102999999.9999995 0.38518324909982454 1.0185772217446338
4106000000.0 0.38441865609137416 0.9773830678729083
4109000000.0 0.46989557657416414 0.9406785657397736
4112000000.0 0.4841140955421535 0.9386365436319385
4115999999.9999995 0.41432037566997404 0.9773870358521737
4119000000.0 0.5135331024263896 0.9462467954790243
4122000000.0 0.521624323803639 0.9969649081962874
4125000000.0 0.6250527476871791 0.9109374754602341
4128000000.0 0.5285243099484388 0.8622174090100863
4131000000.0 0.5321992521440008 0.8513799534736415
4134000000.0000005 0.5771937140390815 0.8642258139061048
4138000000.0 0.5809746719181087 0.8309154872562441
4141000000.0 0.6329003700478161 0.7598832343286436
4144000000.0 0.5938939169809888 0.8610125229417535
4147000000.0000005 0.6750451651898516 0.7462990331942431
4150000000.0000005 0.6932008355223946 0.8528575272493156
4152999999.9999995 0.7203496374995889 0.8340032286053357
4155999999.9999995 0.722304836262805 0.7736120894719155
4159000000.0 0.6892483885822247 0.8286360591315206
4162000000.0 0.7473801848525528 0.7688425775897496
4166000000.0000005 0.7039201141444748 0.6815056861366264
4168999999.9999995 0.7859356941887439 0.7489851303468885
4171999999.9999995 0.7378164547132545 0.7227675795093926
4175000000.0 0.684374063374362 0.6754296378080786
4178000000.0 0.7813479872364408 0.6938253639551383
4181000000.0 0.7762794112757914 0.773044903780644
4184000000.0 0.852064360311684 0.70540112287723
4187999999.9999995 0.7825330868482591 0.6862711613044741
4191000000.0 0.7647416855541004 0.7174784139493539
4194000000.0 0.7619918245697891 0.6355070533016883
4197000000.0 0.8612455552124985 0.6168288531648143
4200000000.0 0.8365240391612313 0.5957026335277034
4203000000.0000005 0.7750061883750128 0.5719351532060113
4206000000.0000005 0.8964241001354946 0.592132099955005
4208999999.9999995 0.864187706994526 0.6411781438451396
4211999999.9999995 0.8631986730323876 0.6126906207845023
4216000000.0 0.8604757003590843 0.5514358811505716
4219000000.0000005 0.8389384963632239 0.5823722276743009
4222000000.0000005 0.8793817533048346 0.5703394187139765
4224999999.9999995 0.8981863866130813 0.5526982475809976
4227999999.9999995 0.9003623904312547 0.5642181127296159
4231000000.0 0.8556542643312485 0.5483267187754618
4234000000.0 0.8861720223405452 0.5762323744472986
4238000000.0000005 0.9333791600743229 0.4846342583835713
4240999999.9999995 0.942432153416361 0.5335309663940825
4244000000.0 0.902217357481238 0.5456078560510993
4247000000.0 0.9525600988036206 0.5175429900304618
4250000000.0 0.9689401016534473 0.49674737134896024
4253000000.0 0.9165922716216467 0.5274652489871048
4256000000.0 0.8689078702559493 0.39885256360777255
4259000000.0000005 0.9391419781915662 0.43955304230206055
4261999999.9999995 0.9449521595292489 0.45023319252178484
4266000000.0 0.9277722371200106 0.5024932461624145
4269000000.0 0.9994781639118115 0.4554318304837365
4272000000.0000005 0.9573001975204375 0.37620559898362177
4275000000.0000005 0.9399981242881952 0.41118971014171957
4277999999.9999995 0.9157893344099813 0.38138701503364697
4280999999.9999995 0.9400948491506453 0.3871205494694003
4284000000.0 0.9601309771140052 0.40136387897088577
4288000000.0000005 0.9821100328908169 0.3397063852761312
4291000000.0000005 0.9823269903421107 0.40192824885853506
4293999999.9999995 0.9685263479583784 0.36983129365794726
4297000000.0 0.9727139375798091 0.3298235176795889
4300000000.0 1.01300360283931 0.30780633826879955
4303000000.0 0.9677177795564099 0.3680545032203295
4306000000.0 1.03777380746875 0.32427977420665294
4309000000.0 0.999481228571841 0.3261132794400431
4312000000.0 1.0154828770673534 0.2983097468124307
4316000000.0 1.0041135548275508 0.29172310098700377
4319000000.0 0.9757784999651393 0.2945041039481373
4322000000.0 0.9801640704933678 0.251808482447179
4325000000.0 0.9856587914558823 0.28493123867326964
4328000000.0 1.0311840374311474 0.2561276143885196
4331000000.0 0.981378372309001 0.22255690224494457
4334000000.0 1.0174431054020552 0.29545869109535994
4338000000.0 1.0173465396720238 0.2366540795486589
4341000000.0 0.9910456917208026 0.2403462818278016
4344000000.0 1.0348939241090536 0.23083162456088058
4347000000.0 1.0025392319963813 0.25091875367015753
4350000000.0 1.0093155674955365 0.2109450980907262
4353000000.0 0.9892397336702217 0.19684935513436247
4356000000.0 1.0101220995786384 0.22816555167396885
4359000000.0 0.9976183311163422 0.22837537733241542
4362000000.0 1.015035718380354 0.17188897542486214
4366000000.0 0.9831451096211613 0.13692592453357055
4369000000.0 0.9988819077721661 0.19325722857714878
4372000000.0 1.0151480404275277 0.12361395840487777
4375000000.0 0.9708371337295014 0.1208136596158163
4378000000.0 1.008524374069158 0.14215955893965654
4381000000.0 1.0353112946105603 0.18024802350536062
4384000000.0 1.0132107425763457 0.13951073135939013
4388000000.0 1.0377327571323152 0.18231130861880923
4391000000.0 1.010915186097686 0.1291991265918525
4394000000.0 1.0046049208728287 0.1610406441795258
4397000000.0 0.9899580226446526 0.13137172374314654
4400000000.0 1.0082478014622687 0.14016484400610446
4403000000.0 1.008889574938696 0.11151883097658544
4406000000.0 1.029094389477925 0.06090474230928811
4409000000.0 1.028064601034376 0.10309646933813921
4412000000.0 1.0158702025049933 0.07807608708106545
4416000000.0 1.015165582387036 0.06291538514656392
4419000000.0 1.0068576787051673 0.10348067129777966
4422000000.0 1.0006544690915837 0.07280958529962694
4425000000.0 1.0183594179667972 0.0921288686067584
4428000000.0 1.021098009260636 0.06065888219172999
4431000000.0 1.0487025599739392 0.08301266997881845
4434000000.0 1.0367054400946074 0.0738606413673299
4438000000.0 1.0387023344472728 0.07398375912573929
4441000000.0 1.0276294944289266 0.058889605903525655
4444000000.0 1.0081100127845444 0.061267232030176644
4447000000.0 0.9997898429931589 0.039772884367940575
4450000000.0 1.0102868150480384 0.04964540838651471
4453000000.0 1.0391784303505578 0.029603836420747265
4456000000.0 1.005875875754553 0.015854624603701295
4459000000.0 0.9880755394434141 -0.007842980167386104
4462000000.0 1.046250200717713 0.009389413405292979
4466000000.0 1.0490352958456695 0.035761510533143526
4469000000.0 1.017759800563983 0.014672126475351821
4472000000.0 1.0356963004903408 -0.03131888701005209
4475000000.0 1.0037884613906456 0.005816263863672622
4478000000.0 1.056954254807927 -0.01756854810382641
4481000000.0 1.0159447992569806 -0.02205955656262154
4484000000.0 0.9959131275012953 -0.06015387430336949
4488000000.0 1.0168649253172892 -0.015320217032779415
4491000000.0 1.0285433823693695 -0.04362367437454068
4494000000.0 1.0102776864312506 -0.030150933132852664
4497000000.0 1.005209510386569 -0.034377742235292275
4500000000.0 1.0093028433362872 -0.023666331668115603
4503000000.0 1.0391582293428627 -0.028829632300157837
4506000000.0 1.0000463442921328 -0.0624383475849461
4509000000.0 1.000510858196159 -0.04640509533918308
4512000000.0 1.0039396778507998 -0.055253983845823695
4516000000.0 1.027882003822697 -0.04116005175990112
4519000000.0 1.000044436993882 -0.05131918024847759
4522000000.0 0.9969551990386929 -0.08779372414988712
4525000000.0 1.0044101988169394 -0.0313812436592763
4528000000.0 1.046497099458993 -0.07384149426268127
4531000000.0 1.0157555918857422 -0.06579006976348234
4534000000.0 0.9892837952421862 -0.0677194639516977
4538000000.0 0.9922345245651985 -0.10985380394942812
4541000000.0 0.9950691747910653 -0.11317268679679915
4544000000.0 0.997784374647106 -0.08160650107225093
4547000000.0 1.0037714940782587 -0.06356459078628113
4550000000.0 1.0102771279238663 -0.10765979529791148
4553000000.0 1.0316597314963212 -0.09371169505347976
4556000000.0 0.9727065073303613 -0.11931764866983058
4559000000.0 1.0049458083342806 -0.13804777349233616
4562000000.0 1.0127577102473566 -0.10815523300802449
4566000000.0 1.0007853119730077 -0.1280433091284967
4569000000.0 0.9675057491842194 -0.12506461277851233
4572000000.0 1.0049832722745862 -0.11398872083156525
4575000000.0 1.0078268563052892 -0.14911686332379426
4578000000.0 1.029750426677841 -0.11593744015641988
4581000000.0 1.0150993072043824 -0.16700357667377758
4584000000.0 0.9816897459948879 -0.1498020083862854
4588000000.0 1.0271503363817487 -0.12831101041455137
4591000000.0 0.9938936822514005 -0.11382852224687992
4594000000.0 1.0096156635311626 -0.15363935956687755
4597000000.0 1.0037484739522453 -0.1717623205478881
4600000000.0 0.9452968165565515 -0.20389820396505492
4603000000.0 1.0183607689239516 -0.1842867029733566
4606000000.0 0.9785917849328326 -0.147123809002836
4609000000.0 0.9753738751795304 -0.192101077058449
4612000000.0 1.0344801589744483 -0.16853465692514258
4616000000.0 0.9901802544860515 -0.1910446851870103
4619000000.0 0.9967097598101604 -0.15491181170573798
4622000000.0 0.9879284903350254 -0.1774885794029281
4625000000.0 0.9446644877683164 -0.17794398968160025
4628000000.0 0.9225304148172164 -0.1645233740012661
4631000000.0 0.9518387289547315 -0.24348275215837015
4634000000.0 0.9693908265920289 -0.19466523581010892
4638000000.0 0.998947648096346 -0.20504139737015392
4641000000.0 0.9947016981392252 -0.18365396455386876
4644000000.0 0.9849384552773327 -0.22185627968336533
4647000000.0 0.9965019686267877 -0.19525989668091134
4650000000.0 0.9689552657379635 -0.25268804661943156
4653000000.0 1.017572069501875 -0.23285788699945265
4656000000.0 0.9737383797615795 -0.2554295832658361
4659000000.0 0.973218390376004 -0.22302743863638416
4662000000.0 0.9837081932719881 -0.23388236364020676
4666000000.0 0.9749171044847362 -0.21483043632842597
4669000000.0 0.9808846396700006 -0.20582644101805697
4672000000.0 0.9708194088305891 -0.25230521716194
4675000000.0 0.9313687550798606 -0.24972656073333843
4678000000.0 0.9779891180365645 -0.22497255745272643
4681000000.0 0.9765233950363478 -0.2882290362074915
4684000000.0 0.9300455933666454 -0.2636833187654851
4688000000.0 0.9782845478793146 -0.23602041690959263
4691000000.0 0.9389648077022531 -0.2416333912728939
4694000000.0 0.989654582003986 -0.28938870840339365
4697000000.0 0.9820863606641348 -0.25260930100945495
4700000000.0 0.996153286936353 -0.23959338293925425
4703000000.0 1.0007180220336998 -0.29671553923519967
4706000000.0 0.9747606774081823 -0.25080628580694114
4709000000.0 0.9529638984941033 -0.28837268965335333
4712000000.0 0.9554247711457717 -0.27619609420351476
4716000000.0 0.9648492951189875 -0.27571339016171303
4719000000.0 0.9788457548583205 -0.2947988288578017
4722000000.0 0.9872406180499876 -0.29789380172256663
4725000000.0 0.9771614615807457 -0.2879161211225275
4728000000.0 0.9274681072943715 -0.300812387994451
4731000000.0 0.9658537656315991 -0.2791864155799952
4734000000.0 0.950009274674351 -0.2673576726604231
4738000000.0 0.9574302455788081 -0.29955486483864846
4741000000.0 0.9512892096798135 -0.2827654291775701
4744000000.0 0.9551701985012571 -0.33364506859847726
4747000000.0 0.9778800983589983 -0.31314067428974207
4750000000.0 0.9511188531007402 -0.3096715623564084
4753000000.0 0.9806357100313808 -0.3356393334324726
4756000000.0 0.9273195300821211 -0.32323194222030727
4759000000.0 0.9409481287877677 -0.3252256497342625
4762000000.0 0.9584156448723322 -0.29483150672692715
4766000000.0 0.9502371990467952 -0.3078374656446501
4769000000.0 0.9884813049704658 -0.33822569637321626
4772000000.0 0.9396674115841455 -0.3509755647140692
4775000000.0 0.9660609533075573 -0.3618815092784119
4778000000.0 0.9665565925246238 -0.29633573683020675
4781000000.0 0.9568862208270068 -0.31105335846292004
4784000000.0 0.953119759662609 -0.31430356264619447
4788000000.0 0.9658608540384215 -0.31605203211911737
4791000000.0 0.9709919118103446 -0.3602472269128101
4794000000.0 0.9616616642153784 -0.32849857320360387
4797000000.0 0.9607411026558548 -0.3533966009900401
4800000000.0 0.9263111717261155 -0.35423221942468
4803000000.0 0.9415634422505855 -0.3689451148570644
4806000000.0 0.9453077618488084 -0.3389861069939679
4809000000.0 0.9230559864640719 -0.364467548846836
4812000000.0 0.9213036492713991 -0.3927406084430578
4816000000.0 0.9499804934095999 -0.34650452614341165
4819000000.0 0.983275477176717 -0.3887892196349929
4822000000.0 0.9764711781232982 -0.3648639229817352
4825000000.0 0.9588266499199452 -0.3802503013784784
4828000000.0 0.9336039496338889 -0.36097147479574626
4831000000.0 0.9477806296407921 -0.38813667838734867
4834000000.0 0.9540077978469682 -0.38998230900464986
4838000000.0 0.9515823961683936 -0.38093405924152035
4841000000.0 0.9349475406963155 -0.38643459990109663
4844000000.0 0.9356430787476478 -0.3518771028160034
4847000000.0 0.9199069727894887 -0.37547981292194155
4850000000.0 0.948246700326283 -0.37137000793001895
4853000000.0 0.9315921485191603 -0.36152852895461496
4856000000.0 0.9170487425708547 -0.38657866736464236
4859000000.0 0.9411463075883072 -0.4030441204086593
4862000000.0 0.9475037708429155 -0.3751923409709826
4866000000.0 0.9554882653128016 -0.41910628282502693
4869000000.0 0.933729896810308 -0.4141073476643455
4872000000.0 0.9542719589339761 -0.4175226383482238
4875000000.0 0.9709146071929666 -0.37990750062905254
4878000000.0 0.9504294635147015 -0.4098005602474819
4881000000.0 0.9714315805364241 -0.43764720260984713
4884000000.0 0.9539685188385387 -0.4042118286465866
4888000000.0 0.9697169027188848 -0.39089318985931537
4891000000.0 0.9634071767162032 -0.39343680117737345
4894000000.0 0.9084053175065272 -0.416216974996829
4897000000.0 0.9379398850713114 -0.38228896729223844
4900000000.0 0.950394860586829 -0.429974315261416
4903000000.0 0.9504163055364278 -0.42105425621211356
4906000000.0 0.9168898100378909 -0.41350802499816924
4909000000.0 0.9251377990057132 -0.4139260157939218
4912000000.0 0.958585156873367 -0.4273500853663409
4916000000.0 0.9494562426421715 -0.40329232373427704
4919000000.0 0.9447766333877288 -0.42095599231422737
4922000000.0 0.949026284593937 -0.3878178361059553
4925000000.0 0.9138391685908949 -0.4462953942627545
4928000000.0 0.9386401368743217 -0.39713018119943505
4931000000.0 0.9478372790341323 -0.422444278195955
4934000000.0 0.8862963908996468 -0.39614246155815075
4938000000.0 0.909412312739303 -0.45193271736192225
4941000000.0 0.9153501948724223 -0.3850797410370754
4944000000.0 0.8860534053065624 -0.42183724514951315
4947000000.0 0.9058378561133505 -0.42262540464581816
4950000000.0 0.9040007364756252 -0.44794369062961364
4953000000.0 0.9542369455213076 -0.4945756576160977
4956000000.0 0.9137818890686245 -0.4311552415686322
4959000000.0 0.8947433572829244 -0.4733975628162889
4962000000.0 0.9563541240212756 -0.4418336432657238
4966000000.0 0.9435523867757711 -0.4488895405073692
4969000000.0 0.9632357574998411 -0.4314678852089935
4972000000.0 0.9304757457075978 -0.45862692436366004
4975000000.0 0.9250124883606631 -0.4246503516270034
4978000000.0 0.9231118380105614 -0.45044869992716513
4981000000.0 0.9287971242659174 -0.45118935582876946
4984000000.0 0.9029605944279564 -0.43905242072546874
4988000000.0 0.9249464999575769 -0.4223244611333906
4991000000.0 0.9631655569724058 -0.39921471922791235
4994000000.0 0.9416305773581919 -0.4639589671360901
4997000000.0 0.9225137385595963 -0.4650789181379452
5000000000.0 0.9663728653257841 -0.4533307945963625
5003000000.0 0.9644206500956944 -0.4567128432641005
5006000000.0 0.9081755079400422 -0.5053385210007985
5009000000.0 0.9334285060263666 -0.45795920870074147
5012000000.0 0.8971953705714387 -0.4597595424584713
5016000000.0 0.9516340666112857 -0.4537985851631161
5019000000.0 0.9021849020233979 -0.4579979709498273
5022000000.0 0.9318085967490389 -0.4641196137772803
5025000000.0 1.002081380336275 -0.48301674061593225
5028000000.0 0.9386267204496515 -0.48601734769996197
5031000000.0 0.8959452514946172 -0.4408676966168428
5034000000.0 0.9282714259590232 -0.5124556904228981
5038000000.0 0.882372516964825 -0.4616246691056092
5041000000.0 0.9677183335768841 -0.42709361356998976
5044000000.0 0.9473588423444731 -0.4274003675462771
5047000000.0 0.9719328697852092 -0.4370821224797701
5050000000.0 0.943100460872645 -0.38661137954146596
5053000000.0 0.9830405380393653 -0.48701856977077773
5056000000.0 0.9540778262938624 -0.4295370755817115
5059000000.0 0.9683914848496138 -0.3962270127187314
5062000000.0 0.9293955751180263 -0.5113778542679492
5066000000.0 0.9162485478352514 -0.4280078519698592
5069000000.0 0.9383723085636841 -0.49243413054345786
5072000000.0 0.8572628793582147 -0.44166253900202485
5075000000.0 0.9513226027049049 -0.44939113503492556
5078000000.0 0.9156749817449181 -0.5085103628995145
5081000000.0 0.8812436035584981 -0.4356911581114128
5084000000.0 0.9257474894226907 -0.4844613130048629
5088000000.0 0.9183779386916887 -0.45599558173587457
5091000000.0 0.9492169479587426 -0.48814227513929964
5094000000.0 0.9347766229811948 -0.47727396644628506
5097000000.0 0.9756676509898644 -0.4382507337812849
5100000000.0 0.9537466709661427 -0.4359704217995011
5103000000.0 0.8832786907157616 -0.4849845552039046
5106000000.0 0.9692714237869257 -0.4407213456386223
5109000000.0 0.9468861543313971 -0.4104195421291514
5112000000.0 0.9319301847989179 -0.4743167116314713
5116000000.0 0.8487526355543463 -0.43127552923459445
5119000000.0 0.9145062909393401 -0.4518426127875602
5122000000.0 0.9111219990586124 -0.4288174595547725
5125000000.0 0.9026396060636803 -0.46928376713250786
5128000000.0 0.9198905548712552 -0.5071092335033465
5131000000.0 0.8881145562046162 -0.4739431639201297
5134000000.0 0.9251447235620611 -0.4500724315251181
5138000000.0 0.9373954435484169 -0.4602439417648783
5141000000.0 0.942446865262988 -0.4252911098115861
5144000000.0 0.9685592686709267 -0.4701833643680764
5147000000.0 0.9616633136592039 -0.48160747214601796
5150000000.0 0.9473888084140211 -0.47392744743894744
5153000000.0 0.9242212916145148 -0.49693605775134136
5156000000.0 0.9792546716272018 -0.48350753528637413
5159000000.0 0.9932531928482291 -0.4933095308556515
5162000000.0 0.9160080072680311 -0.46691032065123056
5166000000.0 0.9227384885492586 -0.5259597138372145
5169000000.0 0.9329101390377942 -0.4790307625150032
5172000000.0 0.9068503269456831 -0.4733284617009538
5175000000.0 0.9659404985040284 -0.4562893619141778
