! Created with skrf 1.8.0 (http://scikit-rf.org).
# Hz S RI R 50.0 
!freq ReS11 ImS11
4000000000.0 0.599072495835947 -0.8388337471612597
4003000000.0 0.5643001208477753 -0.9309151689659411
4006000000.0 0.5135275379772467 -0.9047756284289483
4009000000.0000005 0.5695427898414052 -0.8938252927266521
4011999999.9999995 0.5936132000272749 -0.8581257771568267
4016000000.0 0.5108248954569146 -0.9058132403484713
4019000000.0 0.551424593431334 -0.8438573119027161
4022000000.0000005 0.5585764230145507 -0.8358777629282858
4025000000.0000005 0.508518327804408 -0.9286108612829871
4027999999.9999995 0.534384957669799 -0.9307746800969987
4030999999.9999995 0.5107452186968641 -0.8445548873045226
4034000000.0 0.5308833941464737 -0.8537878835111983
4038000000.0000005 0.5279908401779723 -0.8505099672334853
4041000000.0000005 0.5672448097817183 -0.898912879454418
4043999999.9999995 0.5997616529027647 -0.8848218718380272
4046999999.9999995 0.5858754026788097 -0.9315218154191682
4050000000.0 0.5337369931706222 -0.9073515012199347
4053000000.0 0.508498956097055 -0.8663062346455481
4056000000.0 0.5283214076181835 -0.8578797304055462
4059000000.0 0.4999269751130287 -0.8991942843113961
4062000000.0000005 0.5247005280881865 -0.9190481692145279
4066000000.0 0.48227575167217923 -0.8312945032294697
4069000000.0 0.5423808974778019 -0.9310317305482333
4072000000.0 0.6147900525387484 -0.8871088653021331
4075000000.0 0.5604594639374187 -0.8720450027370603
4078000000.0000005 0.5439407821012853 -0.8658186302475839
4081000000.0000005 0.5719566116105779 -0.835503694259368
4083999999.9999995 0.5045472558884327 -0.8974279091433701
4088000000.0 0.5579254388525349 -0.8350448527725982
4091000000.0 0.5817376060450761 -0.9324360401789723
4094000000.0000005 0.5225686396797747 -0.8757776926368566
4097000000.0000005 0.5572082215209051 -0.8662774088635062
4099999999.9999995 0.5504130089852722 -0.8875186804971948
4102999999.9999995 0.5679502883572526 -0.8866935916804599
4106000000.0 0.5181143449545549 -0.8898772731767353
4109000000.0 0.5242785263645213 -0.8893306177648731
4112000000.0 0.5293260436462863 -0.8591086081929872
4115999999.9999995 0.5388798876753061 -0.8773359063118665
4119000000.0 0.5678699051732932 -0.8934641714142425
4122000000.0 0.527311472868306 -0.8721022597017328
4125000000.0 0.5474963920744937 -0.8966416975380633
4128000000.0 0.5071938492365498 -0.8436966380017954
4131000000.0 0.5319570298610711 -0.8409835748476631
4134000000.0000005 0.5525149555589197 -0.827542273015068
4138000000.0 0.5109087871694068 -0.8476206673643932
4141000000.0 0.5075524576376953 -0.8414875307900288
4144000000.0 0.5609910569506805 -0.8665670032885356
4147000000.0000005 0.4993970585509882 -0.8914910880226582
4150000000.0000005 0.5735521870457766 -0.8840740419186005
4152999999.9999995 0.547869041977403 -0.837273229962902
4155999999.9999995 0.5998328222537939 -0.8559908233280783
4159000000.0 0.5666387127565186 -0.8588618208099826
4162000000.0 0.5279073526963614 -0.8629524548341206
4166000000.0000005 0.5374623284378659 -0.8980486198504704
4168999999.9999995 0.5350262318132262 -0.8740267921013558
4171999999.9999995 0.5350328870193017 -0.8577379097028451
4175000000.0 0.5602394744517754 -0.8710124035304495
4178000000.0 0.5616020346884608 -0.8787855031420747
4181000000.0 0.5468509862616 -0.8672482303655838
4184000000.0 0.5479362253798947 -0.8806137384302373
4187999999.9999995 0.526899242913408 -0.8611353404815331
4191000000.0 0.5633718878475684 -0.827156512104364
4194000000.0 0.5232371106059078 -0.8441841747378301
4197000000.0 0.5254435925576886 -0.8717101678928209
4200000000.0 0.5559645404134621 -0.8750721809209464
4203000000.0000005 0.5659589565699631 -0.8454975399175463
4206000000.0000005 0.5474984641738563 -0.8687812083291158
4208999999.9999995 0.5296708560115214 -0.8546409279875152
4211999999.9999995 0.5175309038946867 -0.894805825177656
4216000000.0 0.5387631878078893 -0.8595544420047717
4219000000.0000005 0.567946422493471 -0.8541357339619823
4222000000.0000005 0.5285629555250749 -0.8567962691041954
4224999999.9999995 0.525385788416864 -0.8491517548789548
4227999999.9999995 0.5536108628070573 -0.8559771848480265
4231000000.0 0.5258763077285642 -0.8546449816754738
4234000000.0 0.535064333400133 -0.8832488361199982
4238000000.0000005 0.5379133337569996 -0.8739833565109895
4240999999.9999995 0.5299030090992637 -0.8604443990900461
4244000000.0 0.5275712057156243 -0.8450412776386711
4247000000.0 0.5520818730824091 -0.859151354413069
4250000000.0 0.5260769089802932 -0.8486402537746341
4253000000.0 0.5209800793516357 -0.8396860842021946
4256000000.0 0.548727832175905 -0.8792412894225299
4259000000.0000005 0.5094379301001333 -0.8557613866358544
4261999999.9999995 0.5277313852905896 -0.864380887209708
4266000000.0 0.5357389422186027 -0.8828135767917924
4269000000.0 0.5542695545049432 -0.8641343236669039
4272000000.0000005 0.5267181982625215 -0.8489718250030701
4275000000.0000005 0.5480323146800807 -0.8714994237343912
4277999999.9999995 0.5364622452134669 -0.8767327687903714
4280999999.9999995 0.5659862773139992 -0.8611302428556877
4284000000.0 0.5196543495438664 -0.8858621952283214
4288000000.0000005 0.569538425825872 -0.8378203914323635
4291000000.0000005 0.514337271018137 -0.8213962033927384
4293999999.9999995 0.521252994803114 -0.8464189206764989
4297000000.0 0.5403091631858787 -0.833752548924894
4300000000.0 0.576056671091635 -0.8337453638026793
4303000000.0 0.5297379895901865 -0.8502084215956194
4306000000.0 0.5586097728359963 -0.8657748737089497
4309000000.0 0.52884071037505 -0.8423894553517741
4312000000.0 0.5789813946131929 -0.8532395063302574
4316000000.0 0.5701766464956645 -0.8549113542572649
4319000000.0 0.5295516195205361 -0.83550367465441
4322000000.0 0.49962588388002976 -0.8500596103330751
4325000000.0 0.5264140622364458 -0.8329131727391677
4328000000.0 0.5284610592997474 -0.8567817064473067
4331000000.0 0.5114235944523016 -0.8450952869750314
4334000000.0 0.5188778298595951 -0.8750795478654362
4338000000.0 0.546855749026428 -0.863266858780143
4341000000.0 0.5654093727006559 -0.844864642500828
4344000000.0 0.5312768592290672 -0.8424316304606183
4347000000.0 0.5420305835720012 -0.8536190022495
4350000000.0 0.4939173081212297 -0.8400296830370034
4353000000.0 0.5414559817234349 -0.8238541417318613
4356000000.0 0.5275785206188685 -0.8624241413246141
4359000000.0 0.5121071180087128 -0.8510519068747586
4362000000.0 0.5007500598005175 -0.8810042373375704
4366000000.0 0.5414189350502171 -0.8802036441045873
4369000000.0 0.5020646845668739 -0.8227703935115837
4372000000.0 0.49220307923059764 -0.8618488937790675
4375000000.0 0.5464851217983034 -0.8426677336617953
4378000000.0 0.5272774995871079 -0.827833820754151
4381000000.0 0.5285039363627929 -0.8417377290586356
4384000000.0 0.5571773253895512 -0.9216414646620678
4388000000.0 0.534198208562716 -0.840637037635362
4391000000.0 0.5496622840144512 -0.8583088370210332
4394000000.0 0.5200384636311918 -0.8472884838757845
4397000000.0 0.5224706098893727 -0.8524868283857356
4400000000.0 0.5323847033057266 -0.8903799807051078
4403000000.0 0.5274449998725026 -0.8659130286579959
4406000000.0 0.519505438964412 -0.8739937768320694
4409000000.0 0.5351061368465575 -0.8993701402033056
4412000000.0 0.4670516595123245 -0.8834048790834808
4416000000.0 0.501498379022336 -0.8578079061439312
4419000000.0 0.5141569179570494 -0.8676039381313944
4422000000.0 0.5360196032336907 -0.8485269873146728
4425000000.0 0.5705977829887966 -0.8584714200477372
4428000000.0 0.5191930962890081 -0.8702801884319723
4431000000.0 0.5272669601210632 -0.8752095691359152
4434000000.0 0.5066506320093369 -0.8648806918627774
4438000000.0 0.5421678232808351 -0.874188762582374
4441000000.0 0.5387712292662596 -0.8750147211255143
4444000000.0 0.5181987112962942 -0.8414890494740113
4447000000.0 0.4920509058978928 -0.8674061444322825
4450000000.0 0.534485175319898 -0.8538245802211699
4453000000.0 0.5399045083524787 -0.8904254446953357
4456000000.0 0.5046397820498161 -0.8426968460471256
4459000000.0 0.48404216803143507 -0.8418451013806749
4462000000.0 0.5410906931092184 -0.9168086832394615
4466000000.0 0.5329433773055748 -0.9149309301275048
4469000000.0 0.5313704413706732 -0.8623126076474805
4472000000.0 0.5157475493073057 -0.8864995431890286
4475000000.0 0.5150667365240222 -0.8406474075134993
4478000000.0 0.5301525617163639 -0.9089296632258446
4481000000.0 0.48659937635776684 -0.8539068200997033
4484000000.0 0.46285405201542495 -0.8792043882453805
4488000000.0 0.4939111744428143 -0.8619977453256764
4491000000.0 0.520466891155433 -0.8664642390134638
4494000000.0 0.5012011239291331 -0.8660684128546369
4497000000.0 0.5356191735167304 -0.8536452408542942
4500000000.0 0.5245341690250023 -0.8530178057197348
4503000000.0 0.5339007803599529 -0.8786165231896609
4506000000.0 0.5102237864110257 -0.8798443066290424
4509000000.0 0.5024794338483316 -0.8634419062810035
4512000000.0 0.5056733597011009 -0.8617280432071364
4516000000.0 0.5204283504456544 -0.8868801378432859
4519000000.0 0.49789124211544034 -0.8393347103352589
4522000000.0 0.5035980308926985 -0.875149699584768
4525000000.0 0.5280167559622276 -0.8428437597074678
4528000000.0 0.5148220211860538 -0.8981082116903822
4531000000.0 0.5202431927214132 -0.8540383175596358
4534000000.0 0.5023564185788566 -0.8523535351137117
4538000000.0 0.49813344454928976 -0.8806983789406758
4541000000.0 0.4615846162138393 -0.8818584847125261
4544000000.0 0.4932966948125683 -0.862519501343699
4547000000.0 0.5241533980534671 -0.853102802440268
4550000000.0 0.5026170894457185 -0.8679117711146508
4553000000.0 0.49533167052667865 -0.8851694930270673
4556000000.0 0.48290180828972235 -0.866410865251896
4559000000.0 0.4930226501214033 -0.8888023327684164
4562000000.0 0.513003112890867 -0.8987892664180566
4566000000.0 0.5061588558687078 -0.8842510372462065
4569000000.0 0.4982704977268921 -0.8510141346579301
4572000000.0 0.5089726280033691 -0.8663328037232756
4575000000.0 0.49956603163490776 -0.8889818940274115
4578000000.0 0.5108282159501918 -0.8857688544963718
4581000000.0 0.49966497529677084 -0.8816040859402889
4584000000.0 0.4834076196274165 -0.8700427143279902
4588000000.0 0.5176099831576287 -0.886951364996726
4591000000.0 0.5070686481940329 -0.8669779141423939
4594000000.0 0.4782032362758084 -0.8806154072322403
4597000000.0 0.4972082592622533 -0.8900085943013667
4600000000.0 0.4646842983570235 -0.87269887660061
4603000000.0 0.48375768908776695 -0.8894607234721763
4606000000.0 0.5069922822875104 -0.8913075958753602
4609000000.0 0.5082198185471547 -0.8630284105662035
4612000000.0 0.5049923769549829 -0.8859745391313747
4616000000.0 0.4768745988628933 -0.8676259136161777
4619000000.0 0.4857228018301917 -0.8850324009093005
4622000000.0 0.4883369682259688 -0.8803792818913072
4625000000.0 0.47006064688369775 -0.8473059061781059
4628000000.0 0.5166924552363353 -0.864206671784087
4631000000.0 0.47792724346949866 -0.8629645152957012
4634000000.0 0.49663047793319015 -0.8720989132233069
4638000000.0 0.5092590686652159 -0.8945374580103757
4641000000.0 0.4935565658179387 -0.8718558255359862
4644000000.0 0.48479706417623225 -0.8787018836985416
4647000000.0 0.5011219944147703 -0.8807090513469472
4650000000.0 0.4791758176718053 -0.8805380608135435
4653000000.0 0.4920633232794626 -0.8963696320501389
4656000000.0 0.48071957499642115 -0.8872048825170161
4659000000.0 0.4787488234057171 -0.8859633999089868
4662000000.0 0.4845053580857033 -0.9026702173691465
4666000000.0 0.4593806599373847 -0.8681951079206134
4669000000.0 0.505305274042704 -0.8699958175117265
4672000000.0 0.4778162539850766 -0.9005494481979992
4675000000.0 0.4731516371740282 -0.8849628095351243
4678000000.0 0.48895762037158647 -0.866996195765082
4681000000.0 0.45328890361538865 -0.9173073325364202
4684000000.0 0.4533055168342913 -0.9121172923017957
4688000000.0 0.4565832560820516 -0.8834691865262858
4691000000.0 0.5058301547725744 -0.8870835263348926
4694000000.0 0.49500636492301175 -0.8691846479966158
4697000000.0 0.4686494259592485 -0.8535645007422243
4700000000.0 0.48905007664258837 -0.8724315928940856
4703000000.0 0.4819751758451195 -0.8608022314939138
4706000000.0 0.4809614423603928 -0.9127579094081126
4709000000.0 0.4960555875137612 -0.855754582814603
4712000000.0 0.5044675866342712 -0.9066777046476866
4716000000.0 0.47589894190156495 -0.9033902178802244
4719000000.0 0.5116814145009931 -0.9006278748070627
4722000000.0 0.5037324768589898 -0.9005419292767051
4725000000.0 0.46270969870326084 -0.9032991347181337
4728000000.0 0.48555823034650925 -0.892163816408335
4731000000.0 0.4843365085284363 -0.9041146442704372
4734000000.0 0.47053670746324366 -0.8592533751160509
4738000000.0 0.5335712346535398 -0.937528093614021
4741000000.0 0.4813473426597996 -0.8898829624673238
4744000000.0 0.4827857710492244 -0.9077676819498435
4747000000.0 0.4606345302577508 -0.8552469573810112
4750000000.0 0.4892923983445881 -0.908782417048592
4753000000.0 0.49147036276167133 -0.903896522711819
4756000000.0 0.46612721774172 -0.8919368759711717
4759000000.0 0.5053677595269708 -0.9014867513819398
4762000000.0 0.4620768630829038 -0.9249833566183896
4766000000.0 0.47878779868854177 -0.9029550841301573
4769000000.0 0.48334389044664694 -0.9124797118091805
4772000000.0 0.48733968040992254 -0.9107057776289259
4775000000.0 0.5101335723559268 -0.9388439647265446
4778000000.0 0.4888683224645687 -0.9168119108240971
4781000000.0 0.5126746045939503 -0.9053581316806192
4784000000.0 0.5269663335076552 -0.8587969627005887
4788000000.0 0.46114741635777695 -0.9098972745080834
4791000000.0 0.4885765431728606 -0.9069700455841149
4794000000.0 0.5245752842564634 -0.9086915137544261
4797000000.0 0.4743305601242551 -0.8978159957553876
4800000000.0 0.4644042090303979 -0.8971476119293047
4803000000.0 0.44664315262223375 -0.9073804308713346
4806000000.0 0.4939322261110769 -0.9208987534785795
4809000000.0 0.45887693890150627 -0.9001256317517677
4812000000.0 0.46667054182749934 -0.9073620468096258
4816000000.0 0.48838548001097004 -0.8838045165407915
4819000000.0 0.4998860585653776 -0.9059655615160381
4822000000.0 0.5125365848370544 -0.9130185334730845
4825000000.0 0.5290220429947154 -0.9177014216639076
4828000000.0 0.48149682694713475 -0.8980000490748381
4831000000.0 0.4562096631587849 -0.9390313339923277
4834000000.0 0.4959570578433017 -0.9050366582544075
4838000000.0 0.4735534542818437 -0.9160319099526534
4841000000.0 0.4772344410363255 -0.8964646906947985
4844000000.0 0.5129720526652655 -0.8844178972954012
4847000000.0 0.49502810656383556 -0.8509965266737102
4850000000.0 0.45180494628628703 -0.9462166366527074
4853000000.0 0.4755585729944646 -0.9060166369180697
4856000000.0 0.4718827173760742 -0.8923716320946592
4859000000.0 0.4987914118406621 -0.9251162750222784
4862000000.0 0.5093599040526333 -0.8672044440297496
4866000000.0 0.47408865973077674 -0.9181149037733912
4869000000.0 0.4711787051912303 -0.9025162673209635
4872000000.0 0.4718152645642322 -0.9162948623982076
4875000000.0 0.5485742314187001 -0.9324064489631526
4878000000.0 0.4797886569749947 -0.9062431368462595
4881000000.0 0.47832528094385807 -1.016141802310612
4884000000.0 0.5009750029371683 -0.9406212435482255
4888000000.0 0.5026219294718304 -0.8814722356742409
4891000000.0 0.5227750320418031 -0.920695548950684
4894000000.0 0.44549099703318157 -0.9059518000635574
4897000000.0 0.49170445401194945 -0.8658116220984612
4900000000.0 0.4830696789398842 -0.9328535462033501
4903000000.0 0.5266850537201474 -0.9216767289945559
4906000000.0 0.5105206086847112 -0.9409561741049364
4909000000.0 0.5043898830822993 -0.9217072333417212
4912000000.0 0.46411397290097955 -0.9350344448554453
4916000000.0 0.49383692729509526 -0.9077511990322242
4919000000.0 0.4929702554074942 -0.8905161729550163
4922000000.0 0.5214428756519589 -0.9111807681502002
4925000000.0 0.4737135130503631 -0.9180583691862596
4928000000.0 0.5159777233633007 -0.8790230571624998
4931000000.0 0.5161048125346963 -0.8886942166463031
4934000000.0 0.4739399904240682 -0.874013299859174
4938000000.0 0.47294003408877117 -0.9076522708178235
4941000000.0 0.5091492266492127 -0.8687733364689915
4944000000.0 0.4616183824904051 -0.8332631028031015
4947000000.0 0.47451199160887436 -0.8951103956260391
4950000000.0 0.48370524524078334 -0.8882711879377582
4953000000.0 0.46975323667462077 -0.9195068866775942
4956000000.0 0.4800753453544752 -0.9312348429377905
4959000000.0 0.4180562220060369 -0.901263544283206
4962000000.0 0.49478518338271016 -0.9410622662227839
4966000000.0 0.520190833107257 -0.9200909105744549
4969000000.0 0.5513030976413592 -0.9400823579055531
4972000000.0 0.47712138444744234 -0.8983292350592865
4975000000.0 0.5228518194383257 -0.8811635795066018
4978000000.0 0.4975098887050823 -0.9176503221075094
4981000000.0 0.4793812615309343 -0.9257721303760749
4984000000.0 0.5027758380494358 -0.8777275625343982
4988000000.0 0.505003888748256 -0.8951018244344588
4991000000.0 0.5745383970082742 -0.8752574077560563
4994000000.0 0.5074938416588693 -0.8826675082084654
4997000000.0 0.48203876428304926 -0.9082764252343265
5000000000.0 0.5410476552024032 -0.9001106976629651
5003000000.0 0.5483708154254796 -0.91794530416317
5006000000.0 0.542098928505527 -0.9671489191246135
5009000000.0 0.5265051781035092 -0.8951471093323118
5012000000.0 0.48755458100195403 -0.9278107614095339
5016000000.0 0.5571598835355689 -0.9166251323216249
5019000000.0 0.48109460121533254 -0.8896480876728932
5022000000.0 0.48788948417930617 -0.8995089189214561
5025000000.0 0.5202781552243503 -0.9274015296310353
5028000000.0 0.48626995942418005 -0.9437618126883253
5031000000.0 0.5013320564997072 -0.890394479033811
5034000000.0 0.49788781944185934 -0.916940269345357
5038000000.0 0.4804179836689795 -0.8880826781386939
5041000000.0 0.5383313061797996 -0.8874320303810996
5044000000.0 0.5297305386216355 -0.8886789642521842
5047000000.0 0.5474470010858219 -0.8923871065972673
5050000000.0 0.5811025581788754 -0.8523935611229494
5053000000.0 0.5170077110504291 -0.9476407488319247
5056000000.0 0.5736623842686821 -0.8775945778969841
5059000000.0 0.5589051897871489 -0.8711077337572558
5062000000.0 0.4983240767682698 -0.926466186289036
5066000000.0 0.5059477204493612 -0.8564530174452216
5069000000.0 0.5148407031868519 -0.9065732070931187
5072000000.0 0.4774460004225558 -0.9010392101910261
5075000000.0 0.5411576280523225 -0.8986454515161033
5078000000.0 0.5071772303361035 -0.9003926643330014
5081000000.0 0.4707094427261916 -0.8639701454022881
5084000000.0 0.5110461673222355 -0.9187709700245559
5088000000.0 0.5047920093391075 -0.8696036136846423
5091000000.0 0.48545737658637467 -0.9073410635819488
5094000000.0 0.49728507316117027 -0.9109928885341104
5097000000.0 0.5584079028992572 -0.8655416519162772
5100000000.0 0.49946061909619444 -0.8849626531294776
5103000000.0 0.5323164377216234 -0.9376664147171982
5106000000.0 0.5805288397172235 -0.9020112774868444
5109000000.0 0.55809019525296 -0.8737230197844157
5112000000.0 0.49475116842763395 -0.8843090118887227
5116000000.0 0.46139140480348184 -0.8822100739255971
5119000000.0 0.557671853589214 -0.8966185476100834
5122000000.0 0.5446605690887626 -0.8813992643355286
5125000000.0 0.5332074194271365 -0.8390289296505101
5128000000.0 0.4923438660876438 -0.8962922489613527
5131000000.0 0.4896588316338322 -0.8780234121011594
5134000000.0 0.5170021575523577 -0.8784597207469145
5138000000.0 0.5683587094704928 -0.9176571588169562
5141000000.0 0.5745233381757617 -0.8757928384243103
5144000000.0 0.5265035674165192 -0.8786471307501842
5147000000.0 0.5761576788613552 -0.9294396523720714
5150000000.0 0.5225021659160873 -0.9092250237076364
5153000000.0 0.5396949318589379 -0.888214493477629
5156000000.0 0.5168802468223224 -0.8650271123150759
5159000000.0 0.5378549983092589 -0.8943880663262151
5162000000.0 0.47859576402491616 -0.909978724280671
5166000000.0 0.5564982821397265 -0.9023510109538393
5169000000.0 0.5100506358916488 -0.8973938603367715
5172000000.0 0.5363874928368891 -0.9031452014404291
5175000000.0 0.5607603967742655 -0.9075525033643757
