! Created with skrf 1.8.0 (http://scikit-rf.org).
# Hz S RI R 50.0 
!freq ReS11 ImS11
4000000000.0 0.5436582505276057 -0.8456007735203019
4003000000.0 0.6104620367681818 -0.9103406357195715
4006000000.0 0.5200874637975264 -0.9121793181841691
4009000000.0000005 0.5437559609615923 -0.8598757055760184
4011999999.9999995 0.6077805458380348 -0.8693425359001143
4016000000.0 0.5185404075041925 -0.9491976364084007
4019000000.0 0.5465770700011738 -0.8901337902525767
4022000000.0000005 0.6072262569756673 -0.8515095182544066
4025000000.0000005 0.5089259743525736 -0.9261862163407324
4027999999.9999995 0.5302998279748743 -0.8888011255595313
4030999999.9999995 0.5363479664964765 -0.7919924316958604
4034000000.0 0.5313220793477841 -0.8885912593701271
4038000000.0000005 0.5291500625156018 -0.9187588395874056
4041000000.0000005 0.5351395442608248 -0.8782935308697246
4043999999.9999995 0.5939648695674731 -0.9309143788911963
4046999999.9999995 0.6317178983971343 -0.8814335458077444
4050000000.0 0.551810397905019 -0.9155664156997845
4053000000.0 0.49854779822990636 -0.8661990956072136
4056000000.0 0.5604898920838591 -0.868517644909931
4059000000.0 0.5467564624428006 -0.8223172222519067
4062000000.0000005 0.5312261219038553 -0.8496562170926374
4066000000.0 0.47286254488725443 -0.8604998004589086
4069000000.0 0.5647386049588734 -0.8980649110143549
4072000000.0 0.5839412192865149 -0.844740231858461
4075000000.0 0.5950036695081931 -0.8747352732619098
4078000000.0000005 0.5544942031670322 -0.9063293444191626
4081000000.0000005 0.6380456246471837 -0.8981609063635838
4083999999.9999995 0.5358651803736976 -0.8844014706757926
4088000000.0 0.587848012442213 -0.8453087832245064
4091000000.0 0.5872141714356497 -0.9485971039338115
4094000000.0000005 0.5762344485755427 -0.8628690745013219
4097000000.0000005 0.5741665060931359 -0.9008672283450692
4099999999.9999995 0.5268128131762242 -0.8857937513706995
4102999999.9999995 0.6107653642039476 -0.8733558462731462
4106000000.0 0.564811990444645 -0.8631400002826428
4109000000.0 0.56699944697623 -0.8801483378052946
4112000000.0 0.5902427773190335 -0.8863386548062478
4115999999.9999995 0.5560116206792332 -0.8545219075442491
4119000000.0 0.5527674096558628 -0.8635704640942425
4122000000.0 0.5115103219736507 -0.9308821175895152
4125000000.0 0.5811084012461205 -0.9385668247817449
4128000000.0 0.5492506202424657 -0.8638201687982063
4131000000.0 0.5601844562321763 -0.8581122841834411
4134000000.0000005 0.5784923025422475 -0.8374358654368896
4138000000.0 0.5263404991345102 -0.8892927689480767
4141000000.0 0.5165396013434798 -0.8679745138594798
4144000000.0 0.5894615270076347 -0.8614675775657045
4147000000.0000005 0.5378903039072018 -0.8496020796652901
4150000000.0000005 0.5962925854074317 -0.893941681318199
4152999999.9999995 0.5553804850734817 -0.886234084808621
4155999999.9999995 0.58990376287023 -0.8790456931653867
4159000000.0 0.5744201132400042 -0.8467021290095064
4162000000.0 0.5529662231098089 -0.8852986552520784
4166000000.0000005 0.5599608409755958 -0.8894582972506223
4168999999.9999995 0.5364811762940179 -0.8901540075808471
4171999999.9999995 0.5407035679374151 -0.8782044131827099
4175000000.0 0.583322463041493 -0.8569765187130801
4178000000.0 0.5759201044333023 -0.8960814204781413
4181000000.0 0.5757744537432115 -0.9036784078954131
4184000000.0 0.5425820180154286 -0.8568264884041009
4187999999.9999995 0.542463288183241 -0.8945518129425357
4191000000.0 0.5964929258188152 -0.8317348927183882
4194000000.0 0.5220865435695539 -0.8457269145682785
4197000000.0 0.5580288680384812 -0.859971408945243
4200000000.0 0.5526085094402696 -0.8633993923687097
4203000000.0000005 0.5926608216018889 -0.8579135192982028
4206000000.0000005 0.5704468249334308 -0.8730781314777971
4208999999.9999995 0.5530552885283745 -0.8525786420900643
4211999999.9999995 0.5388136210041954 -0.8786555200568708
4216000000.0 0.5425816859959164 -0.850700362396982
4219000000.0000005 0.5768907234976434 -0.8577301166047052
4222000000.0000005 0.5553856925397948 -0.8698006380234341
4224999999.9999995 0.5682767689574401 -0.8561667654849492
4227999999.9999995 0.560708809632217 -0.850908004657171
4231000000.0 0.5637575338324639 -0.8545174623599336
4234000000.0 0.5692201268050185 -0.8672359763526063
4238000000.0000005 0.5423151814307225 -0.8692327837446913
4240999999.9999995 0.5477858311521484 -0.8486680263577091
4244000000.0 0.5729823226945998 -0.8392178033387208
4247000000.0 0.5824026961672032 -0.8388910332210682
4250000000.0 0.5469636671307785 -0.8531131211847722
4253000000.0 0.5215132265111008 -0.8452666780109779
4256000000.0 0.5631745395150909 -0.8750574527158351
4259000000.0000005 0.5352808923185104 -0.8424857918390543
4261999999.9999995 0.536182753433774 -0.8411205896453463
4266000000.0 0.5454502623416814 -0.8867497892970729
4269000000.0 0.5687853745367769 -0.8594631171192846
4272000000.0000005 0.5627940831306771 -0.8436773702933658
4275000000.0000005 0.5581540476801683 -0.8412076520880745
4277999999.9999995 0.5676815893742663 -0.8663335876818496
4280999999.9999995 0.5600572924561339 -0.8621691848891194
4284000000.0 0.5254099122742811 -0.8941213382756448
4288000000.0000005 0.5698303178731284 -0.8237020109529399
4291000000.0000005 0.5442044132946331 -0.846464449948676
4293999999.9999995 0.5560135788227792 -0.8461881456180407
4297000000.0 0.5630248558595576 -0.8565713655075496
4300000000.0 0.5461135058908929 -0.8462442525213325
4303000000.0 0.5564526364474275 -0.8617703066568727
4306000000.0 0.6020389266722215 -0.8301121659439067
4309000000.0 0.5704983735676759 -0.8448485911398279
4312000000.0 0.6094944913072953 -0.840419551563776
4316000000.0 0.5546463727454821 -0.8539249071905735
4319000000.0 0.5587694107108436 -0.8425768744518095
4322000000.0 0.5491260327540003 -0.8531454736740781
4325000000.0 0.5439821583742674 -0.8483747560305951
4328000000.0 0.5548937061027402 -0.8388945183964062
4331000000.0 0.554583274000229 -0.8763418686900192
4334000000.0 0.5415109369569913 -0.8729983042860029
4338000000.0 0.5935206772032691 -0.8607032836020725
4341000000.0 0.5909192905852675 -0.8440242576656246
4344000000.0 0.5711132804762076 -0.8740194579946075
4347000000.0 0.5426160096712203 -0.8686491692561628
4350000000.0 0.520555552483286 -0.8273194969745847
4353000000.0 0.5544508811176608 -0.8294333828266818
4356000000.0 0.5423431888102956 -0.8537957429289025
4359000000.0 0.521517165181117 -0.7818226631960923
4362000000.0 0.4844827742882342 -0.89623875545737
4366000000.0 0.5614572916674411 -0.8636984346814955
4369000000.0 0.5172715453321188 -0.8317760695950375
4372000000.0 0.5323037240675296 -0.8582368254780766
4375000000.0 0.5417301350746652 -0.8181496635834856
4378000000.0 0.5256291033827263 -0.8256678899759547
4381000000.0 0.5461832698113014 -0.8395428421355057
4384000000.0 0.5742248218869022 -0.9032862109003859
4388000000.0 0.5427590890365027 -0.8347142280236763
4391000000.0 0.5547524868119009 -0.8616888398712368
4394000000.0 0.5288215840622097 -0.8185790599046706
4397000000.0 0.5361250468871264 -0.853788214011361
4400000000.0 0.5545211811895727 -0.8744466242133195
4403000000.0 0.5573436003972888 -0.8433238253677717
4406000000.0 0.5257116765940509 -0.8707248166022972
4409000000.0 0.5449490464868372 -0.8653827978225408
4412000000.0 0.4963461908264315 -0.8937842803972791
4416000000.0 0.5170050950972485 -0.8437084367536833
4419000000.0 0.5261902285066276 -0.8611499220105764
4422000000.0 0.5481299483152954 -0.8367973312271343
4425000000.0 0.5790335256930949 -0.8661489887076045
4428000000.0 0.5409411521587943 -0.8539907512164381
4431000000.0 0.5589968785912045 -0.8693247463373338
4434000000.0 0.5302312334260075 -0.8454433007106017
4438000000.0 0.5584839409699431 -0.8630217829770612
4441000000.0 0.5613849236977202 -0.8685154638718597
4444000000.0 0.5362820545266163 -0.8238446512020899
4447000000.0 0.5217107965655594 -0.8587840806413793
4450000000.0 0.5374463899577828 -0.8395567371837241
4453000000.0 0.5553391207159821 -0.8956956043865942
4456000000.0 0.5166434520821925 -0.8368303720901735
4459000000.0 0.5030752299147621 -0.820071323016258
4462000000.0 0.5501155152502248 -0.9180908308942735
4466000000.0 0.5454401213446942 -0.8868995154703925
4469000000.0 0.5436232492323658 -0.849820347764789
4472000000.0 0.5252946323555057 -0.8803907378567075
4475000000.0 0.5306235420903835 -0.8432870631390084
4478000000.0 0.53577108211353 -0.8893956638587585
4481000000.0 0.5094851848545541 -0.8520491775965044
4484000000.0 0.4980296953966372 -0.8847203362758078
4488000000.0 0.5116152039556844 -0.8486682043669831
4491000000.0 0.5313656856803958 -0.8590120776899764
4494000000.0 0.5212207611498634 -0.8516022478236335
4497000000.0 0.5398413262094715 -0.864629509881255
4500000000.0 0.5450413519981908 -0.8505049286649449
4503000000.0 0.5458302332181956 -0.8712127392744791
4506000000.0 0.5124765660535002 -0.8405857601245945
4509000000.0 0.524882556422246 -0.8621937792895658
4512000000.0 0.5137298337354497 -0.8535407735298395
4516000000.0 0.552163660117793 -0.8777115039356042
4519000000.0 0.5231412266408244 -0.8382001057824615
4522000000.0 0.5267945381482124 -0.8541235579318128
4525000000.0 0.5625967848066673 -0.8313570030079078
4528000000.0 0.5516667979652872 -0.8916065234814095
4531000000.0 0.5337097793405461 -0.8458308409200228
4534000000.0 0.512936200957268 -0.8599627265411756
4538000000.0 0.5248986584637634 -0.8573403695235795
4541000000.0 0.47434146035572067 -0.869923920601992
4544000000.0 0.523616813047434 -0.8638134096420044
4547000000.0 0.5360768110476116 -0.8386859371807001
4550000000.0 0.49705321162450605 -0.8740993648476145
4553000000.0 0.5092832771887582 -0.8862443994780077
4556000000.0 0.49952994521300753 -0.8503426037568117
4559000000.0 0.5099665118189975 -0.866938236497546
4562000000.0 0.5290383380455799 -0.8636095843338291
4566000000.0 0.521144566437817 -0.8803333139475222
4569000000.0 0.5085848149658254 -0.8502766119016337
4572000000.0 0.5046725634193007 -0.8624842419964285
4575000000.0 0.504655296824613 -0.883291713790289
4578000000.0 0.5491721463509426 -0.8779398910451394
4581000000.0 0.5039689074517818 -0.8827324435464947
4584000000.0 0.50424024475652 -0.8571929635261103
4588000000.0 0.5179083997003582 -0.893748491961516
4591000000.0 0.5230804585002987 -0.8571285070454626
4594000000.0 0.5116803088031125 -0.8826144162815018
4597000000.0 0.5148253542703911 -0.8948086235645502
4600000000.0 0.4914009095884103 -0.8792163688606724
4603000000.0 0.5100340225865377 -0.8710221241356971
4606000000.0 0.5194428448566283 -0.8759955470522015
4609000000.0 0.5328860194350904 -0.878304325492669
4612000000.0 0.5123217263435993 -0.8949056547584391
4616000000.0 0.5034727507250844 -0.8703009914128117
4619000000.0 0.5219389596878797 -0.8614973779652861
4622000000.0 0.510514647438635 -0.8816097924396056
4625000000.0 0.4844787582537269 -0.8845543745652722
4628000000.0 0.5147332261394345 -0.8509194300660184
4631000000.0 0.5081210093451989 -0.8762389683537741
4634000000.0 0.5047381885382392 -0.8708794454744366
4638000000.0 0.5109528062482942 -0.8800100090626182
4641000000.0 0.52822609962684 -0.8697235926214636
4644000000.0 0.5009542277194281 -0.8739982578156
4647000000.0 0.525620706029807 -0.8831002436640715
4650000000.0 0.4871056591422811 -0.8763751290310182
4653000000.0 0.5347326680733309 -0.8924151276689383
4656000000.0 0.4912469879591236 -0.876859517629762
4659000000.0 0.4964207741931427 -0.8704574334540672
4662000000.0 0.5287990254114492 -0.8821614857245631
4666000000.0 0.49303099020916075 -0.8683939459152814
4669000000.0 0.5400586803479657 -0.8738276725438465
4672000000.0 0.5002928713603194 -0.9216590348679116
4675000000.0 0.4846342998400178 -0.8934040807563945
4678000000.0 0.50128842298018 -0.854534807304464
4681000000.0 0.4894886972168004 -0.9116251138659025
4684000000.0 0.4811467140634492 -0.8790070625597228
4688000000.0 0.5057795667658929 -0.9074580565378478
4691000000.0 0.5083398682199005 -0.8831906525742357
4694000000.0 0.4904173713431643 -0.8561520127241838
4697000000.0 0.47736514452985834 -0.862903276792881
4700000000.0 0.513384894499796 -0.886345433423021
4703000000.0 0.5036866246517526 -0.8337149453943239
4706000000.0 0.47857472731661427 -0.9015626332122704
4709000000.0 0.4950885098007772 -0.895088090406874
4712000000.0 0.5087741264076604 -0.8910568380585288
4716000000.0 0.5026841941286901 -0.8980118626390436
4719000000.0 0.5450664360673503 -0.8782344226277137
4722000000.0 0.5015286703001262 -0.8842707572842963
4725000000.0 0.5110673709640355 -0.8734703421167475
4728000000.0 0.4857349720545023 -0.8795402344759772
4731000000.0 0.5364565862150719 -0.9058205060137595
4734000000.0 0.5238467054562422 -0.8847705410300372
4738000000.0 0.5361799076051519 -0.9102264248526657
4741000000.0 0.4834463626524365 -0.9429509767449327
4744000000.0 0.4635743445328522 -0.8927379885349795
4747000000.0 0.510125915214284 -0.8731977381461351
4750000000.0 0.4976518700299171 -0.8850793593334582
4753000000.0 0.4870003428141478 -0.8811694262541964
4756000000.0 0.5165920452600687 -0.9064141015544156
4759000000.0 0.4815151494021187 -0.8863720773587712
4762000000.0 0.5069366180953349 -0.8895417060067958
4766000000.0 0.49809881489913116 -0.9082537657055133
4769000000.0 0.4746763558287099 -0.9124048771096636
4772000000.0 0.5113374205983865 -0.8841754454637293
4775000000.0 0.5014552063111427 -0.9437604536771137
4778000000.0 0.5317627244696401 -0.8961625703961416
4781000000.0 0.5396582685598361 -0.8992105379211441
4784000000.0 0.512716950337073 -0.8547369662579131
4788000000.0 0.5066916722519141 -0.9135961714753739
4791000000.0 0.4734793350750306 -0.8940846985471467
4794000000.0 0.5537433790624506 -0.9142951887864766
4797000000.0 0.4776650163545234 -0.8756137240007675
4800000000.0 0.512351381119743 -0.8835743977318883
4803000000.0 0.471085422245034 -0.9272532562371103
4806000000.0 0.47970929552099995 -0.9248592672409024
4809000000.0 0.4440544588996451 -0.933705453612914
4812000000.0 0.46027533213224325 -0.9068307470036702
4816000000.0 0.5120363542176032 -0.8714101880457686
4819000000.0 0.5489590587894945 -0.912607859341538
4822000000.0 0.5237607718741215 -0.9187101157042902
4825000000.0 0.5480510388771637 -0.9060582260708228
4828000000.0 0.49945854971228676 -0.8798386282234649
4831000000.0 0.4847518238106902 -0.9234137293569286
4834000000.0 0.5225443191608625 -0.8955807663122177
4838000000.0 0.5011183241633794 -0.9149906802160445
4841000000.0 0.4918096108085402 -0.9013749592144534
4844000000.0 0.5399058392015605 -0.890928075060598
4847000000.0 0.5052705869073851 -0.8545718826798155
4850000000.0 0.4989001937545876 -0.93677227757905
4853000000.0 0.49880955460826465 -0.8570471649804582
4856000000.0 0.5002710703507557 -0.8814256598028248
4859000000.0 0.5124200269024506 -0.9172265980467154
4862000000.0 0.4924222573348809 -0.862770197111508
4866000000.0 0.4930024258307496 -0.9072934473769283
4869000000.0 0.48028877492184013 -0.8826661472596251
4872000000.0 0.4867518834917285 -0.9396419314944966
4875000000.0 0.5796718245584441 -0.8986848988136441
4878000000.0 0.4992020090504097 -0.9078748784581999
4881000000.0 0.5081928019543489 -0.9823411531002363
4884000000.0 0.546409231975913 -0.9025444692519056
4888000000.0 0.548653586514697 -0.8901894237256056
4891000000.0 0.5442996800797237 -0.9235215016642414
4894000000.0 0.4711502808384608 -0.9141962946893358
4897000000.0 0.5517666404520781 -0.8801173329345522
4900000000.0 0.5089191097350626 -0.9140619036770716
4903000000.0 0.5237661738178927 -0.908566135498016
4906000000.0 0.5070231864240702 -0.9188985641787673
4909000000.0 0.49612129742972666 -0.9229225196682912
4912000000.0 0.5148469449494335 -0.940830783777197
4916000000.0 0.5413171161846283 -0.9027817074012298
4919000000.0 0.5641375508427122 -0.9127914055466556
4922000000.0 0.5143377728055135 -0.8706181685333101
4925000000.0 0.5265084668191242 -0.8925981316977024
4928000000.0 0.5469460000051276 -0.8405779486589667
4931000000.0 0.5499758850817504 -0.8946618833001122
4934000000.0 0.48018473977596 -0.8648428255022996
4938000000.0 0.47272915718778924 -0.8781867460219447
4941000000.0 0.4928184808086935 -0.8620800994804014
4944000000.0 0.5242717683729378 -0.8229130835672543
4947000000.0 0.5084608089716022 -0.8919918838710021
4950000000.0 0.49251495614996665 -0.9173837707534104
4953000000.0 0.48666018983275594 -0.9790798647045683
4956000000.0 0.4932113481766485 -0.9086404688343466
4959000000.0 0.4584264118795559 -0.8832623122942777
4962000000.0 0.5037110511540783 -0.9146554331874637
4966000000.0 0.5644605497543356 -0.9027733451376239
4969000000.0 0.5655832896142713 -0.9493060071205331
4972000000.0 0.5192463574132918 -0.8947583140240158
4975000000.0 0.559749160123213 -0.8562599806688839
4978000000.0 0.5028261342228254 -0.8912479040320714
4981000000.0 0.5039153030319538 -0.9483220087770197
4984000000.0 0.5035207096620171 -0.8934556794524039
4988000000.0 0.5356395710318126 -0.8890148283476967
4991000000.0 0.5832919559972011 -0.8976494097745016
4994000000.0 0.5447368709045886 -0.8967789850558106
4997000000.0 0.48681028157711614 -0.9217170717936842
5000000000.0 0.558498756487771 -0.9107297531020326
5003000000.0 0.5579392921057994 -0.9081669896660728
5006000000.0 0.5780339193236539 -0.9562028198225934
5009000000.0 0.5094564703205251 -0.8949961982481993
5012000000.0 0.5038010640428859 -0.9260540219618414
5016000000.0 0.5814062694827045 -0.8996548309720556
5019000000.0 0.5125665680817608 -0.90082386156245
5022000000.0 0.4976998049628526 -0.8913260502914405
5025000000.0 0.5357546678347498 -0.9335475604831467
5028000000.0 0.5179899601060268 -0.9097013791509985
5031000000.0 0.5044402352735959 -0.8938871523863914
5034000000.0 0.517988504127326 -0.9420243951079874
5038000000.0 0.49426405770091647 -0.8478489346902987
5041000000.0 0.5595613003057599 -0.8739481401792157
5044000000.0 0.5746925788331662 -0.8738296314705625
5047000000.0 0.5651641562029381 -0.9001861301603644
5050000000.0 0.6246513044244116 -0.8529265550337749
5053000000.0 0.5692513706872762 -0.9295098411993328
5056000000.0 0.5976662920813126 -0.8837178681247017
5059000000.0 0.6005318321333359 -0.8818334758705457
5062000000.0 0.49136813446704325 -0.9345027578852336
5066000000.0 0.590450621728224 -0.8833914894901523
5069000000.0 0.5188759830701994 -0.9170422050644353
5072000000.0 0.5466420618323173 -0.8552133609871151
5075000000.0 0.538652147414665 -0.8754429525466132
5078000000.0 0.505735709795899 -0.9229380055979974
5081000000.0 0.4787434665409598 -0.8506313706724963
5084000000.0 0.5379133003490844 -0.9078198830179749
5088000000.0 0.5636710087500346 -0.8888780571834363
5091000000.0 0.5320622315651247 -0.9076298799699289
5094000000.0 0.513785545947024 -0.8886741052926139
5097000000.0 0.606082537498661 -0.9026750378203063
5100000000.0 0.5483436913974045 -0.9008264837340152
5103000000.0 0.5214747511159461 -0.9027049599206836
5106000000.0 0.5737207397526708 -0.8926559229800888
5109000000.0 0.5473503440917873 -0.8578702657343703
5112000000.0 0.5691031854539557 -0.9199928713649534
5116000000.0 0.5130990342575791 -0.8173074081027207
5119000000.0 0.5384717152450295 -0.909717022763346
5122000000.0 0.5643656035210607 -0.8426539166620688
5125000000.0 0.5364202762015834 -0.8666163933149356
5128000000.0 0.5255032305172705 -0.8769444585256331
5131000000.0 0.5780320152831504 -0.8980554755252328
5134000000.0 0.5873341120105144 -0.8570491853690604
5138000000.0 0.5832717587101768 -0.8750308416607733
5141000000.0 0.618303349124238 -0.8711122918610406
5144000000.0 0.6058583781032574 -0.898316215084785
5147000000.0 0.5783579059328241 -0.9287656214455371
5150000000.0 0.5573989183356214 -0.86065158061658
5153000000.0 0.5645668257791189 -0.8640141992869796
5156000000.0 0.5788857122673071 -0.893236872373066
5159000000.0 0.5828171374991262 -0.9147237939687933
5162000000.0 0.5132017750957677 -0.8843529486715251
5166000000.0 0.5392557259304993 -0.9015490277482519
5169000000.0 0.5596610280450168 -0.8643427676470611
5172000000.0 0.5768376549763888 -0.8760847820330411
5175000000.0 0.5667529268264131 -0.9125042948563984
5178000000.0 0.5388629924481447 -0.8817620919244458
