! Created with skrf 1.8.0 (http://scikit-rf.org).
# Hz S RI R 50.0 
!freq ReS11 ImS11
4000000000.0 0.544879683653706 -0.8778725498086692
4003000000.0 0.5876194262869722 -0.923227834772707
4006000000.0 0.4925085089886687 -0.8986977946968107
4009000000.0000005 0.5429380712774841 -0.8777040236917621
4011999999.9999995 0.647945537589018 -0.8323721158011058
4016000000.0 0.5394766608395669 -0.8820023573351343
4019000000.0 0.5483732303552635 -0.8808110116862191
4022000000.0000005 0.5863830149250314 -0.8327692684602307
4025000000.0000005 0.5148277605661303 -0.9475116487708081
4027999999.9999995 0.5388163467969452 -0.9155659718162534
4030999999.9999995 0.5177755528352684 -0.8623371265354407
4034000000.0 0.5240497432137525 -0.8662355174079399
4038000000.0000005 0.551928558365528 -0.8863065554685217
4041000000.0000005 0.5614285187651076 -0.8465825711724198
4043999999.9999995 0.5926873361386996 -0.9167019710769726
4046999999.9999995 0.6144302744675616 -0.8734279756466323
4050000000.0 0.5539385540039017 -0.9028226043613591
4053000000.0 0.5295601729075362 -0.8704359427972226
4056000000.0 0.5771720542678657 -0.9086808218513547
4059000000.0 0.5538315412416656 -0.8403027103356886
4062000000.0000005 0.5445147392691827 -0.8991612957721041
4066000000.0 0.5358993518682622 -0.822111401706327
4069000000.0 0.5139316651198863 -0.9033204459781736
4072000000.0 0.5996646987422586 -0.8749850179831555
4075000000.0 0.5924720345089892 -0.8853162477474147
4078000000.0000005 0.5281218845127514 -0.9078141817267982
4081000000.0000005 0.6258530231167869 -0.8486737938573083
4083999999.9999995 0.5630251531716128 -0.912681874379589
4088000000.0 0.5654103153615411 -0.8355372768657654
4091000000.0 0.6186725434547022 -0.9258793665948786
4094000000.0000005 0.5498335012171467 -0.8764034810983683
4097000000.0000005 0.575524554405461 -0.8951938449637682
4099999999.9999995 0.5700606175804174 -0.8587745296306516
4102999999.9999995 0.6060816258800392 -0.8976100454574515
4106000000.0 0.5652304872987998 -0.9126258596075469
4109000000.0 0.5195085441109477 -0.8938781590030438
4112000000.0 0.557662205450796 -0.8823636791047063
4115999999.9999995 0.6137011458702895 -0.8867812478339562
4119000000.0 0.5723021888678093 -0.8845336972834091
4122000000.0 0.5332152143810067 -0.9138616600924067
4125000000.0 0.539381744350084 -0.9073737010075005
4128000000.0 0.5706812327535323 -0.8529066723278108
4131000000.0 0.5388091586386463 -0.8648000269272029
4134000000.0000005 0.5970245758014662 -0.8686664659083655
4138000000.0 0.5091540410565703 -0.844803938877363
4141000000.0 0.5205925190524543 -0.8668516594416037
4144000000.0 0.5646929930092857 -0.8685021966416941
4147000000.0000005 0.5364756507705942 -0.8598634194016064
4150000000.0000005 0.5705254349741462 -0.8652519474846909
4152999999.9999995 0.544476301387952 -0.9022447553510224
4155999999.9999995 0.5562549841993308 -0.8747309744129202
4159000000.0 0.537481226933028 -0.8367109587552668
4162000000.0 0.5676441636820281 -0.86500362504083
4166000000.0000005 0.548252608141214 -0.9038802407106177
4168999999.9999995 0.5442707404979804 -0.8687131191550115
4171999999.9999995 0.5518040820699267 -0.8710787085250303
4175000000.0 0.5468613677321825 -0.8527166851444287
4178000000.0 0.570965703375633 -0.8780514900595413
4181000000.0 0.5441797747388119 -0.861207683534475
4184000000.0 0.5894536226979216 -0.8496829584834094
4187999999.9999995 0.5313417531408067 -0.8804303021964957
4191000000.0 0.5863668003440636 -0.8286849825438622
4194000000.0 0.5460664373912985 -0.8631511034219257
4197000000.0 0.5734685778817461 -0.8740349731177698
4200000000.0 0.5710877790051098 -0.8664172379161194
4203000000.0000005 0.5762736069765053 -0.8625073279945542
4206000000.0000005 0.5632880211428041 -0.8611412424542969
4208999999.9999995 0.547521641082347 -0.8721383727124735
4211999999.9999995 0.5293889846196681 -0.8726290762145055
4216000000.0 0.5675299386795812 -0.8728711375581271
4219000000.0000005 0.5792322777390589 -0.874101283393768
4222000000.0000005 0.5376894240799335 -0.8633707245704131
4224999999.9999995 0.5496366978475826 -0.8710827435562881
4227999999.9999995 0.5833865817891372 -0.8391153814217978
4231000000.0 0.5493686692863016 -0.8547027978430876
4234000000.0 0.5652987839885496 -0.8802965374110691
4238000000.0000005 0.5422767069605927 -0.8721117933126508
4240999999.9999995 0.5480513573979244 -0.8630762185109285
4244000000.0 0.559230243560493 -0.8517119558625019
4247000000.0 0.5578425895687725 -0.855893897083347
4250000000.0 0.5438157738856135 -0.849871312595472
4253000000.0 0.5347413821827438 -0.8334487856355715
4256000000.0 0.5678871613927865 -0.8697436850962366
4259000000.0000005 0.5335298339579851 -0.8298972914656843
4261999999.9999995 0.5389082372190387 -0.8821444480736337
4266000000.0 0.5165481955465646 -0.889246276420749
4269000000.0 0.5678414190947196 -0.8574624675345133
4272000000.0000005 0.5752304236099425 -0.8609912181464536
4275000000.0000005 0.5513820955395636 -0.8627066489239983
4277999999.9999995 0.5763395668476007 -0.8754876205611317
4280999999.9999995 0.5880997205071874 -0.8534365932222514
4284000000.0 0.5402547050720098 -0.8619238283770662
4288000000.0000005 0.5967120258418694 -0.8483483708990415
4291000000.0000005 0.5272848599925867 -0.8318526729297829
4293999999.9999995 0.5326976678736941 -0.8619549017378738
4297000000.0 0.5835767934954237 -0.8418172027962453
4300000000.0 0.5436605869072964 -0.8296992134938429
4303000000.0 0.5228237614551201 -0.8619006337073191
4306000000.0 0.5825005270363695 -0.8592218176952473
4309000000.0 0.5371476497620009 -0.8353112444504764
4312000000.0 0.5906849862870484 -0.8419871412676753
4316000000.0 0.5799530621529494 -0.8472356939929364
4319000000.0 0.5440995472872556 -0.8246505878084752
4322000000.0 0.5228302965964703 -0.8526813091599915
4325000000.0 0.5650897009950056 -0.8386962456140363
4328000000.0 0.5477545001909263 -0.8396017466221938
4331000000.0 0.5290461796551735 -0.8710186847223216
4334000000.0 0.566803023661389 -0.8743507911847699
4338000000.0 0.5639708053830094 -0.8401035950713914
4341000000.0 0.5856186198383456 -0.8727841529391351
4344000000.0 0.5651037729690537 -0.8881098876544895
4347000000.0 0.5463696641272786 -0.8736601590111113
4350000000.0 0.5307496455755433 -0.8313209607353755
4353000000.0 0.5591852512823553 -0.8205139948931421
4356000000.0 0.5099407384301394 -0.8663776543070163
4359000000.0 0.5243428879956729 -0.8084953703104366
4362000000.0 0.49883012563417745 -0.9163936322971407
4366000000.0 0.5653144472227587 -0.8650798192125989
4369000000.0 0.5231208301124812 -0.834806655845792
4372000000.0 0.5011294530820791 -0.8656795653982617
4375000000.0 0.5548425994626279 -0.835994310452254
4378000000.0 0.5226245033244978 -0.8209733988077446
4381000000.0 0.5512424630247135 -0.8461317930290633
4384000000.0 0.5670629332543031 -0.9381784153429958
4388000000.0 0.5363759414839573 -0.8354223772620573
4391000000.0 0.5560218705067941 -0.8625370280793285
4394000000.0 0.5436816984839932 -0.830668853542327
4397000000.0 0.5391651491776737 -0.8548025613324399
4400000000.0 0.5514556567525497 -0.8751753764773003
4403000000.0 0.5392227789461229 -0.8519228327359606
4406000000.0 0.5291244878072972 -0.8694304228547391
4409000000.0 0.5501657225926196 -0.8666279774648157
4412000000.0 0.4895359918877765 -0.8796075366378833
4416000000.0 0.5311127383574545 -0.8501510669374954
4419000000.0 0.5254999444305081 -0.8724294567245692
4422000000.0 0.534322760854053 -0.846837828552979
4425000000.0 0.5656911858450671 -0.8763307102886149
4428000000.0 0.530834785454791 -0.8556545738096968
4431000000.0 0.5546097771529259 -0.8708489600855264
4434000000.0 0.5270786421940331 -0.8543179513773602
4438000000.0 0.5505776735655223 -0.8781502650940296
4441000000.0 0.5469865444023994 -0.8765985940356471
4444000000.0 0.5338578200411389 -0.8527860911128087
4447000000.0 0.528486478097018 -0.8564832550903586
4450000000.0 0.5357185678324351 -0.8375182465881205
4453000000.0 0.5587071075255842 -0.8730157688739547
4456000000.0 0.5095486928288397 -0.8337991819427693
4459000000.0 0.491383321764151 -0.8325256453376138
4462000000.0 0.5637053110960919 -0.9002335813094239
4466000000.0 0.5505101538979081 -0.8979949020466553
4469000000.0 0.5554495839098835 -0.8556669603842653
4472000000.0 0.5060787863167993 -0.8977245287334323
4475000000.0 0.5285349992667081 -0.8511615834248716
4478000000.0 0.5448699348855089 -0.9022956817952847
4481000000.0 0.5001005886067509 -0.8475110193307154
4484000000.0 0.48579891245288226 -0.8805286217391644
4488000000.0 0.5139664678629463 -0.8614045524977008
4491000000.0 0.5252794556185288 -0.8687903358294911
4494000000.0 0.5377743033075252 -0.8568281410903824
4497000000.0 0.5329635485838208 -0.8486003162087608
4500000000.0 0.5360333616156977 -0.8532451299420982
4503000000.0 0.5640919772177238 -0.8746962578201019
4506000000.0 0.5083493988019777 -0.8520010858482587
4509000000.0 0.5160554980785408 -0.8468371392674338
4512000000.0 0.5058163713269823 -0.8655889287317972
4516000000.0 0.5504823930351836 -0.8681080333560998
4519000000.0 0.5189288368439633 -0.8476849934112833
4522000000.0 0.5199981014392767 -0.8814087207611098
4525000000.0 0.5645287817201424 -0.8387386341261441
4528000000.0 0.5495157970046383 -0.8837046240165114
4531000000.0 0.541233218837039 -0.8529070654290292
4534000000.0 0.5122205837798962 -0.8402549842823971
4538000000.0 0.5109316356996063 -0.8633841969985272
4541000000.0 0.48900660249285677 -0.862931445760581
4544000000.0 0.5136337065127476 -0.8510272343149498
4547000000.0 0.5372102301934395 -0.8403918621917525
4550000000.0 0.5086932408785845 -0.886203042112528
4553000000.0 0.5253349441400033 -0.8787232437927859
4556000000.0 0.5027252670080402 -0.8592480271226071
4559000000.0 0.5098548978415609 -0.8950682288721664
4562000000.0 0.539892814412191 -0.8919561222403193
4566000000.0 0.5222142281256456 -0.8742982375624366
4569000000.0 0.49969015944056616 -0.8480838283789454
4572000000.0 0.5182083079325822 -0.8680244823467431
4575000000.0 0.4876212188553517 -0.8735520393340128
4578000000.0 0.536716287468538 -0.8883795172031383
4581000000.0 0.5085670671729148 -0.8740004059223146
4584000000.0 0.5013246530538773 -0.8645192488852953
4588000000.0 0.5322226579173981 -0.8794761442137077
4591000000.0 0.5322100356796181 -0.8518411519392666
4594000000.0 0.5025935592365305 -0.8698130738747463
4597000000.0 0.5174749750314249 -0.8878000224260736
4600000000.0 0.47504888887683566 -0.8837674124651618
4603000000.0 0.5218586232040918 -0.8688938984170419
4606000000.0 0.5194162634187461 -0.8842559265341383
4609000000.0 0.5086695518222547 -0.8709520836481668
4612000000.0 0.49865403054024876 -0.8922415989114348
4616000000.0 0.4979668146054018 -0.8719115231181079
4619000000.0 0.525749155936289 -0.8699186175993134
4622000000.0 0.5185630928181147 -0.8747094084541219
4625000000.0 0.4824516064669333 -0.8708310982441428
4628000000.0 0.5126896138837284 -0.8738489916622408
4631000000.0 0.5183841262542204 -0.859053756675638
4634000000.0 0.5038037740582499 -0.868850556514711
4638000000.0 0.5084001666829544 -0.8761909328578821
4641000000.0 0.5273242813946957 -0.8745950745094124
4644000000.0 0.514577005538909 -0.8694957921077945
4647000000.0 0.5087796278755097 -0.8802680133487257
4650000000.0 0.4789979022340718 -0.8810771958952386
4653000000.0 0.5281861199100344 -0.8699448741397058
4656000000.0 0.5020917542995373 -0.8874863993611363
4659000000.0 0.5055301074930821 -0.8763810032022242
4662000000.0 0.5291579238644988 -0.8638642016821041
4666000000.0 0.5036344557589294 -0.8694313513767441
4669000000.0 0.5256637160286527 -0.8696379980015709
4672000000.0 0.48489539875888354 -0.8988581715976451
4675000000.0 0.4865639249109641 -0.8864033230222118
4678000000.0 0.5066184033783596 -0.8734493221299886
4681000000.0 0.49300448074212144 -0.9028286261881406
4684000000.0 0.47680021609265594 -0.8796290306854312
4688000000.0 0.49162809290231335 -0.8679510400850909
4691000000.0 0.5242817821032532 -0.8827160967388784
4694000000.0 0.5038606067817372 -0.8694775067230314
4697000000.0 0.4827065043652233 -0.8744902129853743
4700000000.0 0.48859006439992386 -0.8725721408323543
4703000000.0 0.49491400922382595 -0.8451109994939607
4706000000.0 0.5060632087851326 -0.9093681287355838
4709000000.0 0.47670656570716335 -0.9023949841592983
4712000000.0 0.49162064469613675 -0.8816778004705008
4716000000.0 0.49851431819712494 -0.8945340893505227
4719000000.0 0.5316116499400002 -0.8859981019325837
4722000000.0 0.5304612358845234 -0.883207620330788
4725000000.0 0.5006086687126633 -0.8681051570870619
4728000000.0 0.5069562542100756 -0.8678231157191608
4731000000.0 0.5258183162042339 -0.9014132346009356
4734000000.0 0.5328300845653101 -0.864865143701159
4738000000.0 0.5336418799036331 -0.9130478934693156
4741000000.0 0.49032041864167714 -0.8981747365859332
4744000000.0 0.4809839325886305 -0.9017646811954567
4747000000.0 0.5014537615594314 -0.8503730108235146
4750000000.0 0.484303339669437 -0.8913802311307739
4753000000.0 0.5216885335484768 -0.8742247945493871
4756000000.0 0.5015846951683882 -0.8972349171845615
4759000000.0 0.4960501297524266 -0.9146080935791061
4762000000.0 0.4886859814991484 -0.9057698770294345
4766000000.0 0.48955760888198435 -0.8793207972476051
4769000000.0 0.49690917742705265 -0.9070022319560569
4772000000.0 0.5095100526292953 -0.8869824691343118
4775000000.0 0.5194297895013409 -0.917813687262959
4778000000.0 0.49566186355455 -0.9092711029638543
4781000000.0 0.5037974837000034 -0.8602972630037364
4784000000.0 0.5197991288193253 -0.8951634503653287
4788000000.0 0.47412298608901415 -0.9265938778913372
4791000000.0 0.49938251843775466 -0.8694977568117016
4794000000.0 0.5193120925918178 -0.9164130498474132
4797000000.0 0.4953037026431719 -0.8828977494026444
4800000000.0 0.5039044666287414 -0.896492904613925
4803000000.0 0.47849731967373366 -0.9088124307896916
4806000000.0 0.4911479904233004 -0.9130752368103143
4809000000.0 0.46800817478289614 -0.8875390566843913
4812000000.0 0.43648395178954014 -0.8976422996032062
4816000000.0 0.5140993969301073 -0.8626907260896721
4819000000.0 0.5408136019150527 -0.8999233586167609
4822000000.0 0.5186709510710215 -0.9042376471719293
4825000000.0 0.5262953970696786 -0.8859313861976569
4828000000.0 0.5108655099536202 -0.8808251457583904
4831000000.0 0.4779593990858869 -0.9321694076383223
4834000000.0 0.5298257862237187 -0.8727274618474817
4838000000.0 0.513628840139757 -0.9176385446227147
4841000000.0 0.4881384715801723 -0.8897580108425687
4844000000.0 0.5270965876398053 -0.8998892675325272
4847000000.0 0.49561544152854975 -0.8815926174969828
4850000000.0 0.49574564580840313 -0.9464648533373773
4853000000.0 0.4771682863824015 -0.8663090900441598
4856000000.0 0.48957004842420293 -0.874674232227448
4859000000.0 0.5366258828432875 -0.9251207064134189
4862000000.0 0.4936469402296404 -0.8510874581460716
4866000000.0 0.4925577208008584 -0.936963359369189
4869000000.0 0.49001374521063706 -0.9204703858146364
4872000000.0 0.49300488787145264 -0.9152949668500603
4875000000.0 0.5615036485533627 -0.9184948288341223
4878000000.0 0.5095407660268894 -0.9150149401719702
4881000000.0 0.517415289017614 -0.9577140624768716
4884000000.0 0.5197185165454759 -0.9124863869656499
4888000000.0 0.5277314923378162 -0.8807397382664967
4891000000.0 0.536806557354685 -0.9083937593357247
4894000000.0 0.47607807384657486 -0.9252175568074383
4897000000.0 0.5083512429954083 -0.8986574475096781
4900000000.0 0.5156075831301563 -0.8936094081871448
4903000000.0 0.5196871985825324 -0.9015468355896898
4906000000.0 0.5418608471851336 -0.9284605554212821
4909000000.0 0.4700311856539644 -0.9284576240812994
4912000000.0 0.48800726966647595 -0.941822279703239
4916000000.0 0.5325508391578497 -0.9274741450505739
4919000000.0 0.5611292791177972 -0.8916077854421478
4922000000.0 0.5219113467619849 -0.8997890984195429
4925000000.0 0.4886683688720422 -0.9243781169726496
4928000000.0 0.5735670936532641 -0.8588694622299571
4931000000.0 0.5697087144970852 -0.9198103024180329
4934000000.0 0.5159813543897827 -0.8834735643009581
4938000000.0 0.4706380193622818 -0.9091182963940491
4941000000.0 0.4825153872803033 -0.8603695267131688
4944000000.0 0.5107654219467185 -0.8294027801258341
4947000000.0 0.47226704785739626 -0.8855795902068638
4950000000.0 0.4750953493625467 -0.8689273184655235
4953000000.0 0.5070680406490511 -1.0031563190143236
4956000000.0 0.4996408164485016 -0.9262341413513129
4959000000.0 0.45254899235113616 -0.9097643889592187
4962000000.0 0.49522104290978086 -0.9186860317607956
4966000000.0 0.5478808726387059 -0.9209517366860357
4969000000.0 0.5464906685624773 -0.9460137340641249
4972000000.0 0.5082993440190815 -0.9239053152455248
4975000000.0 0.5254927119195831 -0.8641771639287946
4978000000.0 0.5225529295567857 -0.9112532485428768
4981000000.0 0.5325404984967241 -0.9059013785342334
4984000000.0 0.506046167963437 -0.8898122719052994
4988000000.0 0.5182789502870122 -0.8714413940355914
4991000000.0 0.5445461758357479 -0.8939425410194384
4994000000.0 0.5350137191209219 -0.8724301110003795
4997000000.0 0.48692164093708457 -0.9159301394005321
5000000000.0 0.5607540040037291 -0.9388179428877087
5003000000.0 0.553534417663955 -0.9416607753022037
5006000000.0 0.5062527935093819 -0.956276118221439
5009000000.0 0.5244533152526347 -0.8902912659300756
5012000000.0 0.49196958057207896 -0.9092056977144378
5016000000.0 0.5950492261350064 -0.927198982528158
5019000000.0 0.5205986699377108 -0.8966897821853189
5022000000.0 0.5312217364412154 -0.9178206193369092
5025000000.0 0.5506976967699648 -0.9729499111813742
5028000000.0 0.5149491542398543 -0.9043661296043747
5031000000.0 0.5274755162158224 -0.9167052836799895
5034000000.0 0.5312564725210496 -0.9352724347722541
5038000000.0 0.5136064994135678 -0.8637410283496387
5041000000.0 0.5465618031398985 -0.9068928752497262
5044000000.0 0.5125887391333197 -0.861666506554696
5047000000.0 0.5390192931650062 -0.8911386345435757
5050000000.0 0.6185062069947092 -0.8493957466700484
5053000000.0 0.5379804742193044 -0.9411904180596431
5056000000.0 0.5703294346504928 -0.9256348921514941
5059000000.0 0.5706582922716106 -0.8556204945154497
5062000000.0 0.4937870662024974 -0.940287609898907
5066000000.0 0.55503367595015 -0.8645052898699903
5069000000.0 0.5637662345072033 -0.9021600677552326
5072000000.0 0.5134694273256437 -0.8974406144209983
5075000000.0 0.5530198049658531 -0.8716086746030351
5078000000.0 0.4971170406715508 -0.9181879375192493
5081000000.0 0.45985301753192204 -0.9129897337459125
5084000000.0 0.5185355456949995 -0.914694145104099
5088000000.0 0.5822204304260563 -0.8593338678811748
5091000000.0 0.5086574664010516 -0.9166950779871662
5094000000.0 0.532311564861167 -0.9155819375879909
5097000000.0 0.5729325855386326 -0.8961394536031388
5100000000.0 0.5003917231266848 -0.9146642769497271
5103000000.0 0.5499441378070968 -0.9029207759980187
5106000000.0 0.5446956809396091 -0.9769388430623913
5109000000.0 0.5766696389648616 -0.8651086692009533
5112000000.0 0.5363522851075355 -0.9028537329072575
5116000000.0 0.501025777949371 -0.8522381792527225
5119000000.0 0.5594570844105677 -0.9237477463034796
5122000000.0 0.5818487710506386 -0.8893149475029083
5125000000.0 0.5509350241011826 -0.8667520460134654
5128000000.0 0.48979825251089687 -0.8932333374604982
5131000000.0 0.5653034058091212 -0.8673671311875009
5134000000.0 0.5433393321158541 -0.8908446734711268
5138000000.0 0.5733899668253366 -0.8741155452000617
5141000000.0 0.6021629074948758 -0.8328569338465703
5144000000.0 0.5684363480724715 -0.8890651106162883
5147000000.0 0.5448852613825869 -0.9152576944423534
5150000000.0 0.6019735132864118 -0.8760184362041081
5153000000.0 0.5988180484787455 -0.8819052524638007
5156000000.0 0.6093256513388605 -0.8544615496079032
5159000000.0 0.5612348182271119 -0.9299847000555854
5162000000.0 0.5331926201592909 -0.8817817809661632
5166000000.0 0.5574627508661363 -0.8964996035819921
5169000000.0 0.5802866560901442 -0.9142095042848908
5172000000.0 0.5821180945410012 -0.9029630226506759
5175000000.0 0.5853746254327697 -0.933959645936604
5178000000.0 0.5468462568679595 -0.943870232861796
