! Created with skrf 1.8.0 (http://scikit-rf.org).
# Hz S RI R 50.0 
!freq ReS11 ImS11
4000000000.0 0.5222048083742358 -0.849152399123161
4003000000.0 0.5615668011548124 -0.9151812798304252
4006000000.0 0.47675773690156714 -0.8741077997714859
4009000000.0000005 0.5178321067073601 -0.8975945500782894
4011999999.9999995 0.5474779299680215 -0.8895511126530156
4016000000.0 0.5170536591611307 -0.9309262666832114
4019000000.0 0.5480708199531652 -0.902590154416153
4022000000.0000005 0.59476397714587 -0.8808245565291499
4025000000.0000005 0.5086089468342413 -0.9194403070978114
4027999999.9999995 0.5124145311106137 -0.893292456723386
4030999999.9999995 0.5127347280871912 -0.8249762532165495
4034000000.0 0.48780669208279265 -0.8718261578286721
4038000000.0000005 0.5170925726770526 -0.8882597683874115
4041000000.0000005 0.5338761265044973 -0.84688603749288
4043999999.9999995 0.5683951847417279 -0.890411298378239
4046999999.9999995 0.5509051631091653 -0.9113596116183751
4050000000.0 0.5037256144329243 -0.9022130131693085
4053000000.0 0.5161845787322569 -0.9077515334455672
4056000000.0 0.4807493648449558 -0.8930717955313328
4059000000.0 0.5322947087499939 -0.885701130023314
4062000000.0000005 0.5004663775979481 -0.915189107126254
4066000000.0 0.5047187421830212 -0.8283079134648406
4069000000.0 0.5456427223196649 -0.8878109482971624
4072000000.0 0.6069642334650914 -0.8496859277034639
4075000000.0 0.5661269375478288 -0.8633609472083658
4078000000.0000005 0.5230864688530181 -0.9094995581414634
4081000000.0000005 0.5811728832302744 -0.8453350882409356
4083999999.9999995 0.5301331492951743 -0.8758974622499495
4088000000.0 0.5421478772215066 -0.8678736777919093
4091000000.0 0.5749781132991276 -0.9169493314602228
4094000000.0000005 0.5469072616328272 -0.8523636895459795
4097000000.0000005 0.5211398438155967 -0.8640584782649801
4099999999.9999995 0.5117068209591836 -0.8565937891741158
4102999999.9999995 0.5657867247708633 -0.8688609305926697
4106000000.0 0.5459764020266662 -0.8470658841687156
4109000000.0 0.5077047400001353 -0.8984932704424421
4112000000.0 0.4945333667440355 -0.86523521822474
4115999999.9999995 0.5433598311555837 -0.8327660376531059
4119000000.0 0.49865740658032326 -0.872904418885327
4122000000.0 0.48561177706230524 -0.8512920440676579
4125000000.0 0.5357015450302218 -0.9133162476544191
4128000000.0 0.5321877353098511 -0.8361708941964413
4131000000.0 0.5148011121432042 -0.8561876862034633
4134000000.0000005 0.507614656527364 -0.8780154078001527
4138000000.0 0.49944767358668896 -0.8710691649712068
4141000000.0 0.5083002747597318 -0.8823838757941241
4144000000.0 0.5539178937165057 -0.8856469387400767
4147000000.0000005 0.4848018143423994 -0.8456199799846563
4150000000.0000005 0.5548500563296919 -0.9114974939629794
4152999999.9999995 0.506721445666633 -0.8573592755876642
4155999999.9999995 0.5458043355054336 -0.8975556462187434
4159000000.0 0.5474861639106852 -0.8541347737394467
4162000000.0 0.520293928285826 -0.8782035640112319
4166000000.0000005 0.5128822713259941 -0.8826223473674797
4168999999.9999995 0.49808703151717976 -0.8656369918835657
4171999999.9999995 0.524513092614066 -0.869395483950512
4175000000.0 0.5395556697428459 -0.8910952416285034
4178000000.0 0.5191721504119355 -0.8728119633005805
4181000000.0 0.4966739112918124 -0.8796046695235683
4184000000.0 0.5404424004000139 -0.8609595502615779
4187999999.9999995 0.5221704628439412 -0.8576845018593721
4191000000.0 0.5377093950066909 -0.8249215122579527
4194000000.0 0.5037210814164345 -0.8633408870518458
4197000000.0 0.5052347700358416 -0.8863717118840563
4200000000.0 0.5421509896236011 -0.865995787075193
4203000000.0000005 0.530770513063574 -0.8614810557087735
4206000000.0000005 0.5300982053375417 -0.8762019413823509
4208999999.9999995 0.5222764218167112 -0.8692966789200409
4211999999.9999995 0.5143620946896266 -0.8682990647669018
4216000000.0 0.5365339167835714 -0.8549468589785187
4219000000.0000005 0.548069864667285 -0.8843758542202131
4222000000.0000005 0.5196536268352004 -0.8815582004848693
4224999999.9999995 0.5280420268494601 -0.8583026803082111
4227999999.9999995 0.5371030829785337 -0.8746934666460693
4231000000.0 0.5175455657732648 -0.8717572734215439
4234000000.0 0.5237791863800069 -0.8746439405418676
4238000000.0000005 0.5166524298135818 -0.8899417630207669
4240999999.9999995 0.4842876991506365 -0.8698898590688928
4244000000.0 0.5243663263822547 -0.8467257989604811
4247000000.0 0.5183934897794387 -0.8748486497834811
4250000000.0 0.49998695945786686 -0.8674054515113834
4253000000.0 0.4991849731735174 -0.8354409173658073
4256000000.0 0.5171215578578712 -0.8805446818455149
4259000000.0000005 0.49945075246961923 -0.8284750438220887
4261999999.9999995 0.5072790353678054 -0.8790477661681972
4266000000.0 0.5262011808319054 -0.8787281673548615
4269000000.0 0.5380542274334532 -0.8582631243571701
4272000000.0000005 0.510805529301981 -0.8517853090622508
4275000000.0000005 0.5192059202472011 -0.8788288750873737
4277999999.9999995 0.5556681193754798 -0.858284233189033
4280999999.9999995 0.5252710432864871 -0.8588101590547246
4284000000.0 0.506868971443125 -0.8742598788914759
4288000000.0000005 0.5422475368047639 -0.8519017753244328
4291000000.0000005 0.507249831533412 -0.8571238526318421
4293999999.9999995 0.5131122958871239 -0.8565693562711392
4297000000.0 0.5449036334233716 -0.844784981376191
4300000000.0 0.5288524231812687 -0.8514367132281017
4303000000.0 0.507137280010043 -0.8564203527258086
4306000000.0 0.5699242387079277 -0.8499867081981718
4309000000.0 0.5199743520975791 -0.8689983342556428
4312000000.0 0.5434814692524613 -0.8504036549888044
4316000000.0 0.5333834361243228 -0.8659305965302974
4319000000.0 0.5177424355702115 -0.8548015342363435
4322000000.0 0.49233478980466105 -0.8637922928846784
4325000000.0 0.5223620789634899 -0.8647397813410704
4328000000.0 0.5158079762249611 -0.8468281510861728
4331000000.0 0.49924425828223723 -0.8855398109200603
4334000000.0 0.5293708843808546 -0.8669352942399787
4338000000.0 0.5393016028699502 -0.8494246497817906
4341000000.0 0.5653869676413098 -0.8385173376003542
4344000000.0 0.5609711854926265 -0.8638117392869403
4347000000.0 0.5192488112290304 -0.8873843045736979
4350000000.0 0.5079151202102113 -0.8287704470722167
4353000000.0 0.4974289417328955 -0.8334780275330033
4356000000.0 0.5038680823604367 -0.8751327062709866
4359000000.0 0.47769153082399757 -0.8325357704824703
4362000000.0 0.4625414287755553 -0.905181124408998
4366000000.0 0.5255655194301693 -0.8800653732584102
4369000000.0 0.4741855194045624 -0.8558222337143011
4372000000.0 0.4724278067812168 -0.8761959864882695
4375000000.0 0.5434366464067266 -0.8394576312561272
4378000000.0 0.49574607115022135 -0.8555441276747178
4381000000.0 0.5215078128080246 -0.847846916399713
4384000000.0 0.5334810568517139 -0.9199072082512395
4388000000.0 0.49888019110852055 -0.8489991352321691
4391000000.0 0.5200430717365903 -0.867498516535194
4394000000.0 0.48166841689126233 -0.8436272981826964
4397000000.0 0.4981387121848425 -0.8713059468700117
4400000000.0 0.519284109445648 -0.8975665948580365
4403000000.0 0.5167374654636483 -0.8840094616427213
4406000000.0 0.49195773944746046 -0.8775244722761285
4409000000.0 0.5230527669895373 -0.888441053117916
4412000000.0 0.44826941061415226 -0.8846591109513893
4416000000.0 0.4843474820351135 -0.8626823148324967
4419000000.0 0.4909085894191104 -0.8751714776442667
4422000000.0 0.5062020544435653 -0.8497037258065971
4425000000.0 0.5388165772744202 -0.8726322110967389
4428000000.0 0.5044254166468137 -0.8689658770981388
4431000000.0 0.5187923620499548 -0.8932590953005844
4434000000.0 0.4773242826399776 -0.8732007289693863
4438000000.0 0.513392712715482 -0.8893815615308974
4441000000.0 0.519715006091805 -0.8768126355379582
4444000000.0 0.4910148484193717 -0.8493923085372451
4447000000.0 0.4865950410751223 -0.8618836208102323
4450000000.0 0.512717385772254 -0.8651197264944741
4453000000.0 0.5057447145595493 -0.8957022768941734
4456000000.0 0.47998499574350156 -0.8594503685605444
4459000000.0 0.4698938666314886 -0.8520582973712422
4462000000.0 0.5220932824760284 -0.9243921098234748
4466000000.0 0.5146006975067342 -0.9160153630843091
4469000000.0 0.5133517280188999 -0.872025433309499
4472000000.0 0.49028056078797666 -0.896035833110339
4475000000.0 0.49271918430910144 -0.8505931114603356
4478000000.0 0.5099235083570894 -0.9231475522282593
4481000000.0 0.46973415511454253 -0.8583028504980093
4484000000.0 0.46054087294138557 -0.9057119091661613
4488000000.0 0.47789194579567296 -0.8653303894248958
4491000000.0 0.4966869022374663 -0.8900245501683907
4494000000.0 0.489662612359949 -0.885755420392408
4497000000.0 0.49696273913367633 -0.8750106034211459
4500000000.0 0.4825746670582057 -0.8777513104856718
4503000000.0 0.5155058700828645 -0.8896430002468939
4506000000.0 0.48099462915305624 -0.8779905339895951
4509000000.0 0.46974682314776534 -0.857370493939887
4512000000.0 0.4655455105038114 -0.8702311975785711
4516000000.0 0.4943969022313111 -0.8954091259945093
4519000000.0 0.4875712570617308 -0.8665882157698217
4522000000.0 0.4708934786176132 -0.8799165615039299
4525000000.0 0.5174037822467379 -0.8774986884105183
4528000000.0 0.4962401166088177 -0.898106695361695
4531000000.0 0.5177346996379082 -0.8699751615166944
4534000000.0 0.4908251373135234 -0.87044106329848
4538000000.0 0.49201179940380635 -0.8787146082811994
4541000000.0 0.4475707776027995 -0.8873149597047072
4544000000.0 0.4789267990331511 -0.8656787267169154
4547000000.0 0.49993331745222436 -0.8596233142173266
4550000000.0 0.45811558652360174 -0.8904637142252512
4553000000.0 0.47670389876374897 -0.8961988667722974
4556000000.0 0.47462014993689794 -0.8698700054017858
4559000000.0 0.47427029525517966 -0.9066501305774686
4562000000.0 0.4979853558818902 -0.8934726560403212
4566000000.0 0.4747018774257781 -0.886936433230617
4569000000.0 0.48057313905334026 -0.8732957884203363
4572000000.0 0.46754221253185935 -0.8860876204116719
4575000000.0 0.4540091856416617 -0.8992533119575725
4578000000.0 0.5074542531398979 -0.916383333502429
4581000000.0 0.47011213719661465 -0.8855204793153737
4584000000.0 0.47492534368912215 -0.8901465937637202
4588000000.0 0.49211511668015206 -0.8888523718764025
4591000000.0 0.48759619687487676 -0.8748423393670064
4594000000.0 0.45564253408157585 -0.8850979834687016
4597000000.0 0.4736415518561232 -0.9012374004128038
4600000000.0 0.4317854292016413 -0.8748321967183297
4603000000.0 0.46568348037531104 -0.9027627103374058
4606000000.0 0.47767712029416975 -0.8948730583727447
4609000000.0 0.4958971500675652 -0.8839141617735037
4612000000.0 0.47911477025508975 -0.894056028796615
4616000000.0 0.45852410635383223 -0.8858665213219692
4619000000.0 0.46975765201715075 -0.8866358700811495
4622000000.0 0.472092031915906 -0.8979796910458443
4625000000.0 0.4436746140145156 -0.8840719161124049
4628000000.0 0.4829881311026929 -0.8946043294680535
4631000000.0 0.4554479686368834 -0.8887526901928556
4634000000.0 0.45724064681624166 -0.8910891933899326
4638000000.0 0.4670613705018243 -0.8970658679311582
4641000000.0 0.4834946164412518 -0.8762575092437948
4644000000.0 0.47678831847790426 -0.8812586166446399
4647000000.0 0.45879702762474683 -0.8867959878371712
4650000000.0 0.45107185703577085 -0.8888383060164213
4653000000.0 0.48578099454502444 -0.8928145193550044
4656000000.0 0.4756017849594073 -0.903560701854585
4659000000.0 0.4524454928136653 -0.9106390682486694
4662000000.0 0.4570432613880077 -0.9067512411884214
4666000000.0 0.43837440334005473 -0.9127784087992985
4669000000.0 0.480525000948947 -0.9064619702442268
4672000000.0 0.4426321179115902 -0.9304464568222703
4675000000.0 0.4388084306879179 -0.9290910182439294
4678000000.0 0.45029140880044866 -0.8768563506290862
4681000000.0 0.4326472480775533 -0.9173795101741216
4684000000.0 0.44197590532288467 -0.9121397377992458
4688000000.0 0.4326021084307284 -0.8993671407842495
4691000000.0 0.4940650184755749 -0.8855895765689211
4694000000.0 0.471141158384957 -0.8846544886231655
4697000000.0 0.4255200348967235 -0.8861484368460554
4700000000.0 0.46776524364111366 -0.8760558844567325
4703000000.0 0.4620952669620308 -0.8667071108926554
4706000000.0 0.4546454158346674 -0.9115894105001021
4709000000.0 0.4199455246840978 -0.9026694233788674
4712000000.0 0.45997706002800504 -0.8998112158046957
4716000000.0 0.4595953508855645 -0.9286307968032812
4719000000.0 0.48131993649494076 -0.9019761013768929
4722000000.0 0.4689676610408087 -0.8549244419113229
4725000000.0 0.47892729459346384 -0.8815281568193092
4728000000.0 0.4307459710208394 -0.8961412929200646
4731000000.0 0.48750306661922593 -0.9089875383607205
4734000000.0 0.4880197915387454 -0.873186738032647
4738000000.0 0.47443095714280237 -0.9413781161526525
4741000000.0 0.4745973162865877 -0.9208052508606093
4744000000.0 0.42755892541752233 -0.8859724718259994
4747000000.0 0.4679290797418717 -0.8793395449374254
4750000000.0 0.46501922477164437 -0.893579019912846
4753000000.0 0.46550496111648043 -0.8768862758292627
4756000000.0 0.47835669266947484 -0.9216627810520794
4759000000.0 0.46948769612800645 -0.9271511024479067
4762000000.0 0.45362969776393336 -0.9141560623192135
4766000000.0 0.488954211229372 -0.9070793458891919
4769000000.0 0.4725768086443474 -0.900327686835604
4772000000.0 0.4549014592645195 -0.9237890048588585
4775000000.0 0.4520675242597987 -0.945368273962686
4778000000.0 0.45566053570490395 -0.9139286886559297
4781000000.0 0.44120675956968736 -0.9333303927071585
4784000000.0 0.4659760455648623 -0.8924941980040647
4788000000.0 0.4265485884864939 -0.9487447857004753
4791000000.0 0.4538078024447771 -0.896316381273162
4794000000.0 0.4988365259834302 -0.9281385738471282
4797000000.0 0.4603682924061515 -0.8817544781661109
4800000000.0 0.4513363696914691 -0.8909847572905069
4803000000.0 0.4138682172406535 -0.9111497063373927
4806000000.0 0.48594651623693863 -0.9282131598760474
4809000000.0 0.4071732668507506 -0.9188548644022452
4812000000.0 0.40897630699292326 -0.9035468454831634
4816000000.0 0.4551572233052038 -0.8754992245749184
4819000000.0 0.482350118614446 -0.917204873359421
4822000000.0 0.47908840800283947 -0.9402371138219842
4825000000.0 0.47793907959648935 -0.9132962378451975
4828000000.0 0.44641356903634155 -0.9016755507789915
4831000000.0 0.40490183861158463 -0.9297655789687658
4834000000.0 0.46793233029528136 -0.9078466608361009
4838000000.0 0.45036502221579977 -0.906497686782054
4841000000.0 0.4376206490354979 -0.9123614389053261
4844000000.0 0.5148287670806229 -0.901544925290754
4847000000.0 0.44160242061987737 -0.890148550443888
4850000000.0 0.4407245873453742 -0.9440292406679258
4853000000.0 0.45850782199911366 -0.880585135652278
4856000000.0 0.4393841969204521 -0.8909365606164409
4859000000.0 0.4470229260619125 -0.9543731783521306
4862000000.0 0.4848986759490462 -0.8837658841725742
4866000000.0 0.44162859256520487 -0.9320193115094175
4869000000.0 0.4482644347074686 -0.9099378391810033
4872000000.0 0.417359578403647 -0.9544210247136659
4875000000.0 0.5091342581421282 -0.9600918953268736
4878000000.0 0.46264532533342717 -0.9356785521364704
4881000000.0 0.4313445935386144 -0.9787029520942192
4884000000.0 0.47136287429545026 -0.9045036379672795
4888000000.0 0.4865761959392422 -0.8726690925295116
4891000000.0 0.479456392622074 -0.9213225641677758
4894000000.0 0.4300773441972298 -0.9354533564256539
4897000000.0 0.4679015521118147 -0.9194577210690174
4900000000.0 0.46525942525455083 -0.9212978165377248
4903000000.0 0.4581498860924974 -0.948892554831765
4906000000.0 0.452988148919855 -0.9423043690751229
4909000000.0 0.4427047624147005 -0.9348214701551718
4912000000.0 0.4440926833622174 -0.9565005251913248
4916000000.0 0.4893631441851477 -0.9472217219771882
4919000000.0 0.48469661638433065 -0.9487568797228022
4922000000.0 0.4919810186461572 -0.9429061374806988
4925000000.0 0.4402121245781203 -0.9218216329347281
4928000000.0 0.48609744230221785 -0.8915155417783849
4931000000.0 0.494945073307416 -0.9186489856074311
4934000000.0 0.45134343173824837 -0.8854987857884081
4938000000.0 0.4165646988460624 -0.9193202468626779
4941000000.0 0.448070089107921 -0.8821464702422965
4944000000.0 0.49095203369809115 -0.8675056092343171
4947000000.0 0.4704779020836579 -0.8887153830077013
4950000000.0 0.452877980077606 -0.8933611340487929
4953000000.0 0.448019192554413 -0.9477651037078825
4956000000.0 0.45069611654753144 -0.9213077966061185
4959000000.0 0.4274777574965858 -0.897785227429247
4962000000.0 0.44064707454618635 -0.9678970065897974
4966000000.0 0.49781239701851565 -0.9078760375957227
4969000000.0 0.5051904236621683 -0.950972421412619
4972000000.0 0.4752493912758289 -0.927985448781242
4975000000.0 0.4976326586779715 -0.88207340024754
4978000000.0 0.4630279044000135 -0.9143113448245119
4981000000.0 0.4526514515111846 -0.9559283963658312
4984000000.0 0.439793193693804 -0.8951992750108644
4988000000.0 0.4775581062653754 -0.8943922404031232
4991000000.0 0.5177319725527694 -0.9128452555485111
4994000000.0 0.47690039833865805 -0.9205301037820112
4997000000.0 0.4324243941604945 -0.8990646597041344
5000000000.0 0.46401754005910556 -0.9366579482965116
5003000000.0 0.49426034943101843 -0.9212333617674763
5006000000.0 0.4948681717955757 -0.9808095144376473
5009000000.0 0.48946198730557955 -0.9064709350905243
5012000000.0 0.4468291765383652 -0.9147070390075753
5016000000.0 0.5244487421004349 -0.9099211496244983
5019000000.0 0.46259308427848184 -0.9268979839362664
5022000000.0 0.4382898633363391 -0.9061583376970113
5025000000.0 0.5077014709780397 -0.9663879394334005
5028000000.0 0.4443083527221076 -0.9083156864468748
5031000000.0 0.4509263550274446 -0.9101969324772547
5034000000.0 0.4702556149416531 -0.9547069041699461
5038000000.0 0.44493354575979166 -0.8685855429478344
5041000000.0 0.5082490076817597 -0.8962685863085387
5044000000.0 0.4923780928985968 -0.8771960218770314
5047000000.0 0.48518070451501516 -0.9044788176659161
5050000000.0 0.53614610911971 -0.8582222139373418
5053000000.0 0.5002011830247891 -0.9592952741002958
5056000000.0 0.5552414158256586 -0.8745217722999351
5059000000.0 0.5057466721594197 -0.8996037993395234
5062000000.0 0.4830473077477009 -0.9531694915327207
5066000000.0 0.5528161274755884 -0.896895992200601
5069000000.0 0.49642139079244607 -0.9538399167756648
5072000000.0 0.48121898341106983 -0.8599649532005856
5075000000.0 0.5019696589467451 -0.8858847255439863
5078000000.0 0.458418082172941 -0.9373049442361083
5081000000.0 0.4452617618821616 -0.9045014993151659
5084000000.0 0.4857547057572444 -0.9237285163076738
5088000000.0 0.4944931757630488 -0.9140729364886149
5091000000.0 0.4702359549121667 -0.9417352273772632
5094000000.0 0.4701332475830928 -0.9406173795238622
5097000000.0 0.5187224371466642 -0.8599025438353255
5100000000.0 0.48447648493112233 -0.8828070418848025
5103000000.0 0.44402584547853946 -0.9420963410819597
5106000000.0 0.5317239657942505 -0.934574717224223
5109000000.0 0.49802074731871954 -0.8715986660663069
5112000000.0 0.492242820434847 -0.8802334321552014
5116000000.0 0.4345020812208627 -0.856884673266149
5119000000.0 0.49559961671854885 -0.9484805028507999
5122000000.0 0.4820118574508272 -0.9016488269382699
5125000000.0 0.5400814734755339 -0.9069604505065114
5128000000.0 0.5020179064757571 -0.8985250778008533
5131000000.0 0.4530086314667265 -0.9195203219157451
5134000000.0 0.48309848308743647 -0.9189068679145003
5138000000.0 0.4902412170253014 -0.9194646969441452
5141000000.0 0.541388631643086 -0.9050924573103993
5144000000.0 0.5339671996408766 -0.9112618212510982
5147000000.0 0.4926998513278508 -0.9142767010100684
5150000000.0 0.5034938503095883 -0.9114565659901837
5153000000.0 0.5309836491028858 -0.9259674620388907
5156000000.0 0.4908977890006163 -0.9317778045131279
5159000000.0 0.4732322236408749 -0.93958319977558
5162000000.0 0.4975870317339319 -0.9068558806666982
5166000000.0 0.5075893588139057 -0.9593523106012112
5169000000.0 0.5131827691313996 -0.9373734157247957
5172000000.0 0.48423179130008864 -0.9169389079398292
5175000000.0 0.530090868089693 -0.8970412858007397
