! Created with skrf 1.8.0 (http://scikit-rf.org).
# Hz S RI R 50.0 
!freq ReS11 ImS11
4000000000.0 0.5685558719934527 -0.8415536700741448
4003000000.0 0.5688930849910381 -0.9125912999066287
4006000000.0 0.5271855121980974 -0.8925278497735265
4009000000.0000005 0.5233916810077365 -0.9124486126687519
4011999999.9999995 0.6007015695692411 -0.8787419108232837
4016000000.0 0.5085994220974845 -0.9261632125375427
4019000000.0 0.5504942762123832 -0.8870999950373819
4022000000.0000005 0.5943852817566986 -0.878794292124139
4025000000.0000005 0.483571525416743 -0.9318311698803832
4027999999.9999995 0.5348064097697485 -0.9053882130201305
4030999999.9999995 0.565862303205487 -0.8332929712436116
4034000000.0 0.5054039122422502 -0.8836624448423455
4038000000.0000005 0.5329003184318399 -0.8830563525145041
4041000000.0000005 0.5531895811849116 -0.9337721121769699
4043999999.9999995 0.5841013229977634 -0.9203849743793675
4046999999.9999995 0.566652790144502 -0.8959576684326496
4050000000.0 0.4922024535870824 -0.9026221615228895
4053000000.0 0.5224822046980868 -0.8566107349323633
4056000000.0 0.5407426369912286 -0.8618177568049403
4059000000.0 0.5304538818959607 -0.8753494430837414
4062000000.0000005 0.5053373868103151 -0.8763810316052061
4066000000.0 0.4779071835628931 -0.856694799432404
4069000000.0 0.48922256915243784 -0.9349418489173505
4072000000.0 0.5466461199705959 -0.8906170318689328
4075000000.0 0.5559039581689309 -0.8957711713715136
4078000000.0000005 0.5052194058353087 -0.8891881070148282
4081000000.0000005 0.583154778775087 -0.8519133092259583
4083999999.9999995 0.5145962597814546 -0.8899806739394285
4088000000.0 0.5457251980947458 -0.8601333757127789
4091000000.0 0.5545932809358095 -0.9350070829153875
4094000000.0000005 0.538008495749069 -0.9001219553517488
4097000000.0000005 0.5182265227367111 -0.8713826958808225
4099999999.9999995 0.523445034658523 -0.8905889689130747
4102999999.9999995 0.543337854660817 -0.9020999658879798
4106000000.0 0.5066191130992951 -0.9114601965892392
4109000000.0 0.5166240299363382 -0.8845046912671081
4112000000.0 0.5194149523263556 -0.8692743091001445
4115999999.9999995 0.5364418032384708 -0.8613311742805015
4119000000.0 0.5329835278527363 -0.870421288620379
4122000000.0 0.536099314441082 -0.9379871948603811
4125000000.0 0.5005057562283917 -0.9172225553246665
4128000000.0 0.5343730306265829 -0.8173982082577366
4131000000.0 0.5295775644545802 -0.8718524120866987
4134000000.0000005 0.5645629299839172 -0.8435339764053549
4138000000.0 0.5071897953345981 -0.8811916686112267
4141000000.0 0.5392536577103161 -0.9140958550486027
4144000000.0 0.5623112275199419 -0.8749014637996568
4147000000.0000005 0.48127200195458764 -0.8878977442612933
4150000000.0000005 0.5473489863377192 -0.8976659737886352
4152999999.9999995 0.5274688786801877 -0.8921090684327735
4155999999.9999995 0.5547651955654094 -0.8978767083794796
4159000000.0 0.5252780739491913 -0.8690491243312464
4162000000.0 0.5377689262953675 -0.8379030483018237
4166000000.0000005 0.5139780147827023 -0.8797650837879603
4168999999.9999995 0.4870391540360953 -0.8842756640543259
4171999999.9999995 0.5435026369804112 -0.878275891775165
4175000000.0 0.5215820783719405 -0.8883346621265586
4178000000.0 0.5660325262623053 -0.8840721163477744
4181000000.0 0.5191243575442799 -0.8758011826152988
4184000000.0 0.5369602928482781 -0.8767626992073545
4187999999.9999995 0.5294212195152496 -0.8575945873454056
4191000000.0 0.5668895342204823 -0.8428304865374289
4194000000.0 0.5458740258922221 -0.8878842770375872
4197000000.0 0.5250191361153891 -0.889531357721301
4200000000.0 0.5578402345214506 -0.8833752680341469
4203000000.0000005 0.5304485087066758 -0.8647717463737179
4206000000.0000005 0.5443835332424231 -0.9011949962967731
4208999999.9999995 0.5188575280914811 -0.8611218730488266
4211999999.9999995 0.500414691861232 -0.8883735841543364
4216000000.0 0.5418417262714399 -0.8800017732270712
4219000000.0000005 0.5384261278252559 -0.878504440277601
4222000000.0000005 0.5432273001316673 -0.878927001003849
4224999999.9999995 0.5224106559543876 -0.8804957691420616
4227999999.9999995 0.546015355874366 -0.8847514276624665
4231000000.0 0.5161781284611883 -0.8732188592501295
4234000000.0 0.5280512224357747 -0.8952861695184029
4238000000.0000005 0.5249778904122531 -0.8777099294553736
4240999999.9999995 0.5155583446256357 -0.8687215520616564
4244000000.0 0.5386143886747776 -0.8618539792885007
4247000000.0 0.5420533567983936 -0.857999330789347
4250000000.0 0.5083909573675206 -0.8672745647499481
4253000000.0 0.5148428890514923 -0.8697958829696545
4256000000.0 0.5275699519929153 -0.8904037891174013
4259000000.0000005 0.48049280765435354 -0.8575506979215217
4261999999.9999995 0.511369892783607 -0.8833478746814301
4266000000.0 0.5146207691963931 -0.9156673893058666
4269000000.0 0.5304912630978016 -0.8708613863331732
4272000000.0000005 0.5324274175152166 -0.8620529947007058
4275000000.0000005 0.5321609296743972 -0.8734168375886278
4277999999.9999995 0.5393447449640647 -0.9031315935881257
4280999999.9999995 0.5507200032127294 -0.8778202520389553
4284000000.0 0.4994992462757033 -0.8967452082996626
4288000000.0000005 0.5548001374055871 -0.8560558928477721
4291000000.0000005 0.5285174857856005 -0.8379188696994784
4293999999.9999995 0.5228245085349471 -0.8744237703178808
4297000000.0 0.5411782596133442 -0.8354548765967352
4300000000.0 0.5150737451614433 -0.8641326866632674
4303000000.0 0.5024652484016214 -0.8316539595557882
4306000000.0 0.5564112536364378 -0.8482250144712653
4309000000.0 0.5230884557480349 -0.8728145224594248
4312000000.0 0.5535149987946584 -0.8670608695335933
4316000000.0 0.5268856083678888 -0.8823612319209251
4319000000.0 0.5308345913947519 -0.8654617073999986
4322000000.0 0.49876560594864205 -0.8478080250245094
4325000000.0 0.5169510628617856 -0.8774527468590573
4328000000.0 0.5195562709643976 -0.8539043463536258
4331000000.0 0.5232944208858299 -0.8948003986237264
4334000000.0 0.5088545074791677 -0.8804320023481446
4338000000.0 0.5554219956470329 -0.8454622999220338
4341000000.0 0.5551787691296006 -0.8618935427840895
4344000000.0 0.5359446046226657 -0.8868882331140702
4347000000.0 0.5098771755893786 -0.9080765946924767
4350000000.0 0.5028253576506819 -0.8442251046759766
4353000000.0 0.5229106252326177 -0.8367550216578397
4356000000.0 0.5001347089738459 -0.8749394139475573
4359000000.0 0.4824378060927158 -0.8291630028122889
4362000000.0 0.4659628849680022 -0.8867572677233697
4366000000.0 0.5123433425939506 -0.8833860176876218
4369000000.0 0.5073655727145678 -0.8411951554893021
4372000000.0 0.47908417989122565 -0.8836021553395955
4375000000.0 0.5497479203222893 -0.8781834920875949
4378000000.0 0.5155991295747282 -0.8456496022680922
4381000000.0 0.5394275560421481 -0.8321998997182982
4384000000.0 0.5446311457981572 -0.9144941643849793
4388000000.0 0.5128038258217802 -0.8398100097943317
4391000000.0 0.5271303709042973 -0.8931803446007339
4394000000.0 0.5012560073736803 -0.8461173947975922
4397000000.0 0.5081380475636681 -0.8687684935956681
4400000000.0 0.5188663563312914 -0.9049953062467867
4403000000.0 0.5135516396736759 -0.8679835210543658
4406000000.0 0.501314718875714 -0.8863471283639364
4409000000.0 0.5246843229476368 -0.8981408332944198
4412000000.0 0.4562263090645027 -0.9026465083672739
4416000000.0 0.4986449348177739 -0.8720669597273929
4419000000.0 0.4942044494131217 -0.8895683205072846
4422000000.0 0.5115295931149914 -0.8677414159163579
4425000000.0 0.5406276970727001 -0.8957351616542586
4428000000.0 0.5084048448010383 -0.8693723470342989
4431000000.0 0.5218229978791183 -0.8865851285508942
4434000000.0 0.5046655675840462 -0.8749693072434286
4438000000.0 0.5245585430426045 -0.8949717522164395
4441000000.0 0.52085915313859 -0.8850771362942574
4444000000.0 0.5128723903759272 -0.8599041624409902
4447000000.0 0.5046197312366074 -0.8765825840656372
4450000000.0 0.5082774536159334 -0.874392697364365
4453000000.0 0.5180354549203483 -0.8968993822185436
4456000000.0 0.4870243899654054 -0.8581493095705486
4459000000.0 0.46215494087852416 -0.8549384601167304
4462000000.0 0.5247549865800691 -0.9275161239723713
4466000000.0 0.5266738877336692 -0.9157260130016454
4469000000.0 0.5341316652696707 -0.862241933207511
4472000000.0 0.48529223898348256 -0.9110839680907878
4475000000.0 0.4833618061566195 -0.8538537075876578
4478000000.0 0.5061508226180776 -0.9326151572557423
4481000000.0 0.4777296810533887 -0.8711312934573971
4484000000.0 0.4675898058098103 -0.8870651577497051
4488000000.0 0.47898899926821 -0.8694693318459632
4491000000.0 0.4955136712568478 -0.8918824883937793
4494000000.0 0.49527353455244294 -0.8619260439543306
4497000000.0 0.502668414631171 -0.8841972895039132
4500000000.0 0.5039431713963398 -0.8762970904635943
4503000000.0 0.5208668023840045 -0.8848466411203282
4506000000.0 0.4842879622481546 -0.8754505819704388
4509000000.0 0.49455765824214437 -0.8492221217727138
4512000000.0 0.48072924698115266 -0.8750114705534164
4516000000.0 0.5111907772694766 -0.9031186524011285
4519000000.0 0.48961515781306814 -0.8454479777780224
4522000000.0 0.48567282011281215 -0.9001462578144297
4525000000.0 0.5229654707973044 -0.8679346593201926
4528000000.0 0.5033350744471206 -0.9072044288310557
4531000000.0 0.4981315058104493 -0.8789045371937463
4534000000.0 0.48784235033116985 -0.8732801495160556
4538000000.0 0.4760765276443137 -0.893518042808163
4541000000.0 0.4468879593276432 -0.878428941317991
4544000000.0 0.48574537951141494 -0.8780371405763829
4547000000.0 0.5007297977874193 -0.8700409005284879
4550000000.0 0.4763398879025336 -0.9159887662087454
4553000000.0 0.4881076116901548 -0.8920243692585379
4556000000.0 0.46322283812445203 -0.8776284670987695
4559000000.0 0.48474751321684667 -0.9091632058251702
4562000000.0 0.49320915058474574 -0.8982537732182978
4566000000.0 0.48902385124718084 -0.8885333682368193
4569000000.0 0.48011965747738794 -0.8713059031325421
4572000000.0 0.4793393314848573 -0.8848947192882237
4575000000.0 0.46940948232573515 -0.9036725764711673
4578000000.0 0.512924459108954 -0.8939872531456776
4581000000.0 0.46113924094871783 -0.8925044142135525
4584000000.0 0.46666589500399597 -0.8919396094487058
4588000000.0 0.4935135140403014 -0.8951760820461174
4591000000.0 0.5019782215278333 -0.8923858854550606
4594000000.0 0.460810166962049 -0.8974103627744738
4597000000.0 0.4815711167223798 -0.8925233462094617
4600000000.0 0.4572645795294247 -0.8876895745723098
4603000000.0 0.48173030153406904 -0.9193254885083535
4606000000.0 0.4955941384856004 -0.8906535317475538
4609000000.0 0.48043893344369615 -0.8951625233282084
4612000000.0 0.48873212993567317 -0.8934652712418846
4616000000.0 0.4671325520719086 -0.8619853410438137
4619000000.0 0.47911229708978087 -0.9019002305284203
4622000000.0 0.46913891209294756 -0.8916262587323989
4625000000.0 0.4606360867103676 -0.8887926945316165
4628000000.0 0.48477428714194215 -0.8789008019216039
4631000000.0 0.4561492307607481 -0.9020142215357922
4634000000.0 0.4744128320845604 -0.879336957967882
4638000000.0 0.47419507704246466 -0.8905295887981308
4641000000.0 0.4876930192743819 -0.908345758325669
4644000000.0 0.46077075337552553 -0.9038973409506582
4647000000.0 0.4777383475656627 -0.8997967860267984
4650000000.0 0.4650527635493539 -0.8894111812113742
4653000000.0 0.4874388441986921 -0.9055629030420125
4656000000.0 0.46790059690617825 -0.8979688798805351
4659000000.0 0.4731949113368479 -0.8778247769801941
4662000000.0 0.4594608842561692 -0.9064971087500058
4666000000.0 0.46768550866652586 -0.8824386537935279
4669000000.0 0.469725611367117 -0.9060686307271444
4672000000.0 0.45553018486732183 -0.9347494736534677
4675000000.0 0.46274091589770694 -0.890130703656791
4678000000.0 0.4586092455365919 -0.8680597078696553
4681000000.0 0.4612654036388548 -0.9246474290010305
4684000000.0 0.46178254447895134 -0.9440986895691018
4688000000.0 0.432336796612479 -0.892088580499066
4691000000.0 0.4749100770439828 -0.9120504109771982
4694000000.0 0.4773933188500789 -0.8915503347858212
4697000000.0 0.4274804160941887 -0.8720012434690443
4700000000.0 0.4726365554292987 -0.906539860727069
4703000000.0 0.4773821575866769 -0.8657444020270428
4706000000.0 0.4665850912606063 -0.9166838397411193
4709000000.0 0.425752501388616 -0.9030773679027686
4712000000.0 0.47050116073004244 -0.8950907863636187
4716000000.0 0.48545381120350595 -0.9235035587038298
4719000000.0 0.4978037125070352 -0.9102009493614841
4722000000.0 0.4886452615729141 -0.8964180586954312
4725000000.0 0.4740424179336474 -0.9134123321078057
4728000000.0 0.44423161425965724 -0.9008198855862736
4731000000.0 0.4994505032450346 -0.9326058462596984
4734000000.0 0.4604571962050045 -0.8854265954413163
4738000000.0 0.46947138610531186 -0.9312675203370469
4741000000.0 0.4624400155231331 -0.9267065959787321
4744000000.0 0.43930568212860066 -0.8965319398793624
4747000000.0 0.4678038019731003 -0.8975603417403725
4750000000.0 0.48137896506446753 -0.8884072400203178
4753000000.0 0.4823759725326365 -0.903363507819747
4756000000.0 0.4646066564718309 -0.9146858663333279
4759000000.0 0.4842924260033694 -0.9487365549773079
4762000000.0 0.4392780624203335 -0.9347397176159471
4766000000.0 0.46079450619779283 -0.9145749076202916
4769000000.0 0.4668586924570839 -0.9052560967753434
4772000000.0 0.4534618202147398 -0.9312716258205294
4775000000.0 0.4573257384546342 -0.9490531291825804
4778000000.0 0.4583176094451464 -0.9143700830553971
4781000000.0 0.4725009845951559 -0.8943194266808142
4784000000.0 0.4736683648637908 -0.8892824472971927
4788000000.0 0.45947250371821813 -0.9444620931357682
4791000000.0 0.431391399607836 -0.8917832776340762
4794000000.0 0.48475810926316865 -0.94516349028168
4797000000.0 0.4476868210224234 -0.8875441289184429
4800000000.0 0.4509037233026873 -0.9040130811163893
4803000000.0 0.4141743629588728 -0.937628615647383
4806000000.0 0.46127563626599366 -0.9240828100617186
4809000000.0 0.4216299155839788 -0.9177661341222155
4812000000.0 0.4230141259582715 -0.9400680240634357
4816000000.0 0.4547900349138412 -0.9052644113992833
4819000000.0 0.5095980798889246 -0.9125175760930753
4822000000.0 0.5042842761050891 -0.9567038938137827
4825000000.0 0.49240875599715217 -0.9104198384788337
4828000000.0 0.4789598878435697 -0.9118705489753217
4831000000.0 0.45054293956256225 -0.9476009403965153
4834000000.0 0.5030115601852082 -0.9216817522277919
4838000000.0 0.44327000343165673 -0.9508939885440159
4841000000.0 0.44036745565630764 -0.912396674172011
4844000000.0 0.4733069732181653 -0.9087086570964313
4847000000.0 0.4722852428182046 -0.8850193043573141
4850000000.0 0.4520430880343845 -0.9329636958654257
4853000000.0 0.45813342973609444 -0.8955741208232659
4856000000.0 0.446176438665875 -0.9111174136792078
4859000000.0 0.4680205799332658 -0.9617421172154238
4862000000.0 0.45858272051968674 -0.8983458540948595
4866000000.0 0.46523822645888124 -0.939747552000913
4869000000.0 0.4652018955686172 -0.928085912361654
4872000000.0 0.4444399394047033 -0.9712299058133377
4875000000.0 0.5157831658760362 -0.9367957074923012
4878000000.0 0.4858933552914305 -0.9195186797290323
4881000000.0 0.4606051259332077 -0.9891995400791441
4884000000.0 0.47126237365195345 -0.9117456621031759
4888000000.0 0.4724590864279223 -0.9043182680601101
4891000000.0 0.5121497499792655 -0.9245129668607688
4894000000.0 0.4283330024095182 -0.9253686307235749
4897000000.0 0.48631602097269155 -0.9008625108464396
4900000000.0 0.4820563754841892 -0.9402331254679005
4903000000.0 0.4741599195126247 -0.9421428694179472
4906000000.0 0.4746685953407344 -0.9493145071830713
4909000000.0 0.47301833230897256 -0.9263618293519578
4912000000.0 0.45712277581599703 -0.9434876755251651
4916000000.0 0.4841394045812816 -0.9259828421817718
4919000000.0 0.474447190566444 -0.945338070911055
4922000000.0 0.479307117851538 -0.9032131482686913
4925000000.0 0.4552725868773077 -0.9076163869980007
4928000000.0 0.5061199030292552 -0.9091620178935949
4931000000.0 0.4865512123301621 -0.944258994605332
4934000000.0 0.4467474626306569 -0.8872362892065346
4938000000.0 0.4439647594111848 -0.9171260227742357
4941000000.0 0.45377811221915415 -0.8954100531188711
4944000000.0 0.46456788918262537 -0.8742472274783681
4947000000.0 0.4442157309384041 -0.8852940531050424
4950000000.0 0.4589402762314363 -0.8959271105799657
4953000000.0 0.4709133989853914 -0.9774734248874526
4956000000.0 0.4732692866345346 -0.9375839021718819
4959000000.0 0.4047833830733784 -0.9303044694114259
4962000000.0 0.45589731761265345 -0.9144265677560479
4966000000.0 0.4850443148873895 -0.9130432251989581
4969000000.0 0.5424350966958579 -0.940154611831183
4972000000.0 0.4716373576826536 -0.8971661153415751
4975000000.0 0.49358064504352095 -0.9018941929389328
4978000000.0 0.46243782641477166 -0.9370892566245068
4981000000.0 0.43720329323761264 -0.9245024580831818
4984000000.0 0.4438831198250329 -0.8822846280879875
4988000000.0 0.5073701156892955 -0.916108443757939
4991000000.0 0.5396649666712028 -0.8903998647156481
4994000000.0 0.5046780442912882 -0.9230950185184139
4997000000.0 0.42923943564694866 -0.9229237913560653
5000000000.0 0.4923936567343337 -0.9284956735370461
5003000000.0 0.4911545806526141 -0.9623986061483886
5006000000.0 0.49450101000698143 -0.9911356778190918
5009000000.0 0.493814102179031 -0.9367991417947614
5012000000.0 0.44572093341561836 -0.9222453409847248
5016000000.0 0.521398559331133 -0.9231188816775554
5019000000.0 0.454000141824076 -0.9288425059187504
5022000000.0 0.46902296246720565 -0.9380539144987445
5025000000.0 0.5167799926981349 -0.9996651871786794
5028000000.0 0.4596430145497961 -0.9341018607624691
5031000000.0 0.4543148686863992 -0.9393477130948481
5034000000.0 0.4898938307904175 -0.9496394713393409
5038000000.0 0.4365837438721655 -0.8935088690552746
5041000000.0 0.5291338437261728 -0.8766515181723062
5044000000.0 0.5158372665024626 -0.9139923216026318
5047000000.0 0.5159718631547343 -0.9068703335685157
5050000000.0 0.5338606912531203 -0.8758269956839302
5053000000.0 0.49569724965011475 -0.9606484370777123
5056000000.0 0.5412199032324758 -0.9353142755433301
5059000000.0 0.48501766796696283 -0.9314059891551358
5062000000.0 0.46768925793962135 -0.9311094453731636
5066000000.0 0.5315677886611624 -0.9125554877435806
5069000000.0 0.48693734895460206 -0.91798278721793
5072000000.0 0.5114697493659197 -0.9263910467657615
5075000000.0 0.49370262544127586 -0.9126606156742675
5078000000.0 0.46976865620963826 -0.9614440061950638
5081000000.0 0.4585085228210572 -0.8554415409021348
5084000000.0 0.47511785101223897 -0.9519095055598226
5088000000.0 0.4923176153183933 -0.893309398353632
5091000000.0 0.46930404621481153 -0.9396764829456548
5094000000.0 0.49084176866224627 -0.9379323863710558
5097000000.0 0.5256275248306548 -0.892410131601002
5100000000.0 0.5110629741205635 -0.9311591735979178
5103000000.0 0.48643806317543753 -0.9596863622160432
5106000000.0 0.5568304655376823 -0.9776652854352723
5109000000.0 0.5350915344568121 -0.9056841307625041
5112000000.0 0.4750103888111122 -0.9185806083054536
5116000000.0 0.5004912793277976 -0.8790175807743134
5119000000.0 0.5003744513964583 -0.9297130003462024
5122000000.0 0.47447104497152337 -0.9541040834385393
5125000000.0 0.4974597224102402 -0.8730288518631244
5128000000.0 0.4495116429241005 -0.9341357010922525
5131000000.0 0.48962689558682754 -0.9264453978458731
5134000000.0 0.46755867175154403 -0.9090487355928821
5138000000.0 0.5205717687266949 -0.9196379804125643
5141000000.0 0.5865022653208826 -0.8999845503884258
5144000000.0 0.5511367640797611 -0.9024179458498727
5147000000.0 0.5247870000625325 -0.9583574547553242
5150000000.0 0.5289676059700891 -0.9009324382439086
5153000000.0 0.5034778196114689 -0.9354718226567553
5156000000.0 0.5031503463467702 -0.9547516214875311
5159000000.0 0.503037536087011 -0.923855397344735
5162000000.0 0.4711179812558164 -0.9038097663280369
5166000000.0 0.5098220135005648 -0.9196162503893652
5169000000.0 0.5013183236323994 -0.8879180229993113
5172000000.0 0.5002428276358916 -0.9239800042386479
5175000000.0 0.5253494162590989 -0.938015782946604
