! Created with skrf 1.8.0 (http://scikit-rf.org).
# Hz S RI R 50.0 
!freq ReS11 ImS11
4000000000.0 0.5634422735522459 -0.8386259642007872
4003000000.0 0.5935046246643314 -0.9146210340348049
4006000000.0 0.4934016270096166 -0.8872555413566582
4009000000.0000005 0.5625314640823211 -0.8818445064228101
4011999999.9999995 0.649224657932992 -0.8653825960670991
4016000000.0 0.5138550019776263 -0.9076166743084166
4019000000.0 0.5597125390428457 -0.8916034540307188
4022000000.0000005 0.6128382531270453 -0.8424674263632924
4025000000.0000005 0.5214602909535055 -0.9102601733830602
4027999999.9999995 0.556380755322584 -0.8629787715597739
4030999999.9999995 0.5273442388794519 -0.8491577637935345
4034000000.0 0.5279683948424165 -0.8720903788991076
4038000000.0000005 0.5589258064467846 -0.891223793613523
4041000000.0000005 0.5565230532731344 -0.8759025393057883
4043999999.9999995 0.5932102329841371 -0.9491574481993945
4046999999.9999995 0.6196467852122856 -0.8492656671082093
4050000000.0 0.5143705363100661 -0.8766626985898661
4053000000.0 0.540162920283598 -0.8960748834743729
4056000000.0 0.5250029669744462 -0.8658763435673242
4059000000.0 0.5597908155760944 -0.845856383233806
4062000000.0000005 0.5246429273959657 -0.8586961841660866
4066000000.0 0.4946592062438565 -0.7768490452847973
4069000000.0 0.5828444577586027 -0.9167164332677963
4072000000.0 0.5677916546394142 -0.8451656097950939
4075000000.0 0.6254163156756704 -0.8891096454923674
4078000000.0000005 0.5458859976881607 -0.8760833146815998
4081000000.0000005 0.6141447473170939 -0.8627560840583371
4083999999.9999995 0.5423883420951103 -0.9164835196729102
4088000000.0 0.5617472667774595 -0.8423969627941506
4091000000.0 0.56844864513967 -0.9328365032001416
4094000000.0000005 0.5728300100170622 -0.8342416430108702
4097000000.0000005 0.552915001973046 -0.8726719741167899
4099999999.9999995 0.5678423408966027 -0.8652889483593968
4102999999.9999995 0.559249289974912 -0.8929383094738118
4106000000.0 0.5312617637758374 -0.8861340486885102
4109000000.0 0.5048707422655084 -0.8911895136248086
4112000000.0 0.5559094330652319 -0.8968414333167494
4115999999.9999995 0.5538477366939415 -0.8544456392050435
4119000000.0 0.5451476597405187 -0.8685357797735631
4122000000.0 0.5246467537187883 -0.9049108796201921
4125000000.0 0.5592834507333635 -0.9171558330539038
4128000000.0 0.5523172587874733 -0.8652535185882073
4131000000.0 0.5534172338457694 -0.8584895428212502
4134000000.0000005 0.5522031755606974 -0.8440094436387627
4138000000.0 0.5158976070310701 -0.8369992587736892
4141000000.0 0.5243003746839731 -0.8459428163228909
4144000000.0 0.5731845944345829 -0.8642264954612812
4147000000.0000005 0.512541080128244 -0.8631155012930227
4150000000.0000005 0.5626031315393274 -0.8730917268878399
4152999999.9999995 0.5342015191482833 -0.8373055029371284
4155999999.9999995 0.5987328255881953 -0.8758338085655699
4159000000.0 0.5677475217484721 -0.8425750366858694
4162000000.0 0.5400067048472881 -0.8533453843369211
4166000000.0000005 0.5419837345354803 -0.8654719828243077
4168999999.9999995 0.5594701791784642 -0.8326282198655612
4171999999.9999995 0.5917094972599097 -0.8750015163919158
4175000000.0 0.5623475648543816 -0.8481958755925689
4178000000.0 0.558240718900057 -0.8646745624321073
4181000000.0 0.5376393957617549 -0.8532441629927222
4184000000.0 0.5471680446876177 -0.8620663867427216
4187999999.9999995 0.5587389843615038 -0.8294922638285802
4191000000.0 0.5629210638074784 -0.8353374377728787
4194000000.0 0.5270679926081748 -0.8587453745437641
4197000000.0 0.5786238553244191 -0.8355269611157384
4200000000.0 0.5782409719088996 -0.8500936678571235
4203000000.0000005 0.5814656596498807 -0.8562229985194574
4206000000.0000005 0.5599562441585579 -0.8712855430977289
4208999999.9999995 0.5544778014355666 -0.8373628331331263
4211999999.9999995 0.5215849894396759 -0.8643504812670002
4216000000.0 0.5611414086575475 -0.8644165030559844
4219000000.0000005 0.5734140381376174 -0.8567302569239323
4222000000.0000005 0.5434581832410501 -0.8539649204656803
4224999999.9999995 0.5591823379747902 -0.8383673617881003
4227999999.9999995 0.576286173117017 -0.869901444030537
4231000000.0 0.5431706523975374 -0.847571141525564
4234000000.0 0.5613160354568383 -0.8676751545069351
4238000000.0000005 0.5422221360146913 -0.8524306194479188
4240999999.9999995 0.5438806770478702 -0.8497713624745943
4244000000.0 0.5537752994441836 -0.8526239992230731
4247000000.0 0.5587149368228737 -0.8504225930705813
4250000000.0 0.5383015332915332 -0.8404597719945937
4253000000.0 0.5504194376711473 -0.8435441695454458
4256000000.0 0.5498786689055077 -0.8583242109595282
4259000000.0000005 0.5459110425439 -0.8554738954847763
4261999999.9999995 0.5249009101421671 -0.8611873658495143
4266000000.0 0.5336537244028332 -0.8805004018164653
4269000000.0 0.5655844673962563 -0.8493876723486651
4272000000.0000005 0.5413499248611573 -0.8614578513268728
4275000000.0000005 0.5543807739498061 -0.8644837021614137
4277999999.9999995 0.5738085157715073 -0.8811572274002317
4280999999.9999995 0.5605878785042724 -0.811685084200661
4284000000.0 0.5326943730884888 -0.8703157246143713
4288000000.0000005 0.5958545483448351 -0.8410709057398156
4291000000.0000005 0.5386232183404722 -0.8215750844510245
4293999999.9999995 0.5497692763748177 -0.8385506116999218
4297000000.0 0.5827436499957859 -0.836203732095072
4300000000.0 0.5583488438756407 -0.8381470947955072
4303000000.0 0.5432241453238896 -0.8447528732806935
4306000000.0 0.5831321870565415 -0.8297100513593346
4309000000.0 0.5680794070480076 -0.8379903561090472
4312000000.0 0.6009003653803939 -0.8158584314898533
4316000000.0 0.5668710288544087 -0.849959710017026
4319000000.0 0.5399831809446498 -0.8146221643472015
4322000000.0 0.5093726281524962 -0.8257673166423178
4325000000.0 0.5371599478966046 -0.848084342102231
4328000000.0 0.5453836405063903 -0.8420099528869721
4331000000.0 0.5470158928272761 -0.8486198848162917
4334000000.0 0.5628217905472436 -0.85651418399765
4338000000.0 0.5595497679296748 -0.8219810072214961
4341000000.0 0.5859084535530058 -0.8515872128014256
4344000000.0 0.5569984959888806 -0.8469747301071089
4347000000.0 0.5384250517403905 -0.8704197436635043
4350000000.0 0.5027555022520956 -0.8176742042393562
4353000000.0 0.54662262352773 -0.8474991766253797
4356000000.0 0.537144209800688 -0.8475443241157191
4359000000.0 0.5250772388188505 -0.7993353547746175
4362000000.0 0.5167573375651459 -0.8834331686516899
4366000000.0 0.5600832103789428 -0.8817521459671025
4369000000.0 0.5124910476572125 -0.8220294429513363
4372000000.0 0.5198032748667274 -0.8581742939396088
4375000000.0 0.5554660743693397 -0.8299508225979599
4378000000.0 0.5435495467241442 -0.841474192811695
4381000000.0 0.5245158246570716 -0.8296973804308142
4384000000.0 0.5603253925772904 -0.9087398625438967
4388000000.0 0.550628393195856 -0.821624863618934
4391000000.0 0.5518776172192773 -0.8649024069530105
4394000000.0 0.5222125720983091 -0.8332196150614308
4397000000.0 0.5444590079348778 -0.8481982705705627
4400000000.0 0.5521614043807451 -0.8680680051137994
4403000000.0 0.5524238886459549 -0.8538979049999107
4406000000.0 0.5342782771877324 -0.8656325567932561
4409000000.0 0.5515915977032356 -0.8741573246857179
4412000000.0 0.48203977682531607 -0.8761092287832276
4416000000.0 0.5269769156932624 -0.8443573741692172
4419000000.0 0.5258455362106355 -0.8639909400882806
4422000000.0 0.5490631829854604 -0.8434408065267803
4425000000.0 0.5685524480559715 -0.8605441194114405
4428000000.0 0.5298070561239321 -0.8421177278423999
4431000000.0 0.5476922176037984 -0.8712030461345095
4434000000.0 0.5261459024204875 -0.8415506572077652
4438000000.0 0.5544890603497071 -0.8557847983642128
4441000000.0 0.5705281966317433 -0.8557444522800571
4444000000.0 0.5276418373048855 -0.8372507703054007
4447000000.0 0.5298341694782374 -0.8549559599194886
4450000000.0 0.5468927031811879 -0.8383381774446578
4453000000.0 0.5423223883819162 -0.8687787762476358
4456000000.0 0.511294433104168 -0.8295894513763621
4459000000.0 0.5066692193838975 -0.8290888000426464
4462000000.0 0.551324893458841 -0.8963582204817063
4466000000.0 0.5430297156509978 -0.8891488559189413
4469000000.0 0.5516363867357912 -0.8330113633572811
4472000000.0 0.53342176378782 -0.8798646679691164
4475000000.0 0.531037307123253 -0.8273240496234826
4478000000.0 0.5489695738353166 -0.9006437649536316
4481000000.0 0.5080196438096922 -0.8541226002691551
4484000000.0 0.4769790601898787 -0.8845037586037714
4488000000.0 0.524030169720494 -0.8724622540584447
4491000000.0 0.5232896091961652 -0.8408256054362342
4494000000.0 0.5400736434138056 -0.8481366321708056
4497000000.0 0.5327664363745399 -0.8320234490528118
4500000000.0 0.5204207100874829 -0.8550249100462012
4503000000.0 0.5435324343071063 -0.874918716439643
4506000000.0 0.534914577087539 -0.8676801821424402
4509000000.0 0.5175713199628925 -0.8284810877115953
4512000000.0 0.5098298559727927 -0.843240960079557
4516000000.0 0.5607431472066013 -0.8592942214913437
4519000000.0 0.5191073887626385 -0.8377771277553763
4522000000.0 0.5268363321770678 -0.872529102123171
4525000000.0 0.5506785693553908 -0.8321406311978948
4528000000.0 0.5472142176372357 -0.8797826345464136
4531000000.0 0.5453381206856097 -0.8300058892211442
4534000000.0 0.5256335730798842 -0.8423893916049001
4538000000.0 0.5146223487808655 -0.8436761892626199
4541000000.0 0.48615900028615455 -0.8556029465964949
4544000000.0 0.5260985496258046 -0.8461020921748952
4547000000.0 0.5416477748860388 -0.8430888018319185
4550000000.0 0.5155578833055872 -0.8639157445486658
4553000000.0 0.5202878073122724 -0.8654601901018459
4556000000.0 0.4991405565143579 -0.8602415529530852
4559000000.0 0.4962746008765798 -0.8539697061660623
4562000000.0 0.533437719600532 -0.8596777512345912
4566000000.0 0.5378079925350331 -0.8867383845022161
4569000000.0 0.5219521122472467 -0.8347944984774668
4572000000.0 0.5405512904617638 -0.8599357002029566
4575000000.0 0.510945784351333 -0.8915478540895905
4578000000.0 0.5609961367594595 -0.8869707035313661
4581000000.0 0.5231257140442026 -0.8776263037484913
4584000000.0 0.5032100458414306 -0.8560590982924872
4588000000.0 0.5391545678216301 -0.870962564953145
4591000000.0 0.5344499809470519 -0.8738268630662316
4594000000.0 0.5212375837025358 -0.8643092723975531
4597000000.0 0.528869727940644 -0.8780937393768754
4600000000.0 0.49360593688333776 -0.8670203743274851
4603000000.0 0.5252903449704021 -0.882288795984046
4606000000.0 0.5421870181973627 -0.8528308551466344
4609000000.0 0.5138476400166103 -0.857229285730959
4612000000.0 0.5173779813571584 -0.8682046749319994
4616000000.0 0.5075415841344398 -0.8470068513106302
4619000000.0 0.5193962120947234 -0.8687291478644084
4622000000.0 0.5167827450220308 -0.8761762324861049
4625000000.0 0.4839891252032823 -0.8589409935192324
4628000000.0 0.5348191294265399 -0.848082159940291
4631000000.0 0.4911186424388188 -0.8825699821023287
4634000000.0 0.5163593630245193 -0.8560732148038072
4638000000.0 0.5249448714547578 -0.8614076805826056
4641000000.0 0.5132894783579192 -0.8672285342602728
4644000000.0 0.5061995443732056 -0.8720627723723442
4647000000.0 0.49642269001849526 -0.866483978474434
4650000000.0 0.4918574239867437 -0.8697931474989853
4653000000.0 0.5266937919765318 -0.867265738768961
4656000000.0 0.5031323878842108 -0.8783252953219727
4659000000.0 0.510209594535413 -0.8797557669246581
4662000000.0 0.4924344281369829 -0.9055815982480215
4666000000.0 0.49759654788238994 -0.8741902574080673
4669000000.0 0.5259196825384087 -0.8719476439461085
4672000000.0 0.47740321329486224 -0.9035812832672154
4675000000.0 0.5069141539880636 -0.8640329898575156
4678000000.0 0.5015474134415014 -0.8695594229305998
4681000000.0 0.49999278779279077 -0.9069153360461664
4684000000.0 0.4751887048573609 -0.9147998722777894
4688000000.0 0.492934145354336 -0.8850764008291258
4691000000.0 0.5056896856325105 -0.8762696963504624
4694000000.0 0.5227045456698634 -0.8671377598172707
4697000000.0 0.477510907797993 -0.8376533457490136
4700000000.0 0.49926538929657754 -0.8571860383860849
4703000000.0 0.5109212472328363 -0.8410135371812189
4706000000.0 0.49497457695821373 -0.88417352644908
4709000000.0 0.485936241278369 -0.875310044179464
4712000000.0 0.5014960097340296 -0.8756113883927362
4716000000.0 0.49948214860511836 -0.9052245913665686
4719000000.0 0.5405850620112861 -0.8627474219402216
4722000000.0 0.5095846925907698 -0.879826033601438
4725000000.0 0.49033652282850504 -0.8578456010394732
4728000000.0 0.46539631882147453 -0.8710827135996972
4731000000.0 0.5226694147826287 -0.8780399021297061
4734000000.0 0.5056855211221756 -0.8761345361779453
4738000000.0 0.5346029531690533 -0.8939870649157337
4741000000.0 0.4875712485462642 -0.8767815301107618
4744000000.0 0.47459426569351837 -0.8969453436312926
4747000000.0 0.4901574588565707 -0.8284653171467665
4750000000.0 0.4871991732912392 -0.8878223411091267
4753000000.0 0.514079872408861 -0.8951105727486393
4756000000.0 0.4856933264885491 -0.8704905822008271
4759000000.0 0.5180816641737526 -0.8864085370175185
4762000000.0 0.4946615795110807 -0.8905184901146944
4766000000.0 0.4852074847965282 -0.8657797436075849
4769000000.0 0.5169736896159242 -0.879474226612422
4772000000.0 0.5120213644672463 -0.8686224876337798
4775000000.0 0.48024366844448774 -0.932572852009678
4778000000.0 0.519253831379403 -0.8769883030280596
4781000000.0 0.5202839235194051 -0.8591832265248807
4784000000.0 0.536590303107379 -0.8497003879890115
4788000000.0 0.49624007659457636 -0.9092661963942972
4791000000.0 0.4878536263636051 -0.887679283262233
4794000000.0 0.5480044876015284 -0.8973121293470347
4797000000.0 0.475764970642382 -0.8725927404783841
4800000000.0 0.4827347407538541 -0.8660843076681439
4803000000.0 0.45287064771599483 -0.8988105210675907
4806000000.0 0.5319386409993636 -0.8885669301337599
4809000000.0 0.47156500684051916 -0.8931353317572892
4812000000.0 0.4516336987766633 -0.8831804477214397
4816000000.0 0.5188187852808952 -0.8517231799252842
4819000000.0 0.5182669402570615 -0.8819006793244799
4822000000.0 0.5206275550135678 -0.9101911351188879
4825000000.0 0.5394381954607084 -0.8797607803997385
4828000000.0 0.47982199405019754 -0.8710947240506135
4831000000.0 0.46636380278826567 -0.9381210834173671
4834000000.0 0.5121609702618106 -0.8947399540235735
4838000000.0 0.48193959183817847 -0.9032073619853003
4841000000.0 0.49747788933322384 -0.8926973447018473
4844000000.0 0.5448898667959183 -0.8639561989441867
4847000000.0 0.5153646294814115 -0.8479621849594676
4850000000.0 0.5056349470064229 -0.889752039344919
4853000000.0 0.4994957226345327 -0.867069830917083
4856000000.0 0.5080949729544366 -0.8861473598500937
4859000000.0 0.5324750945777792 -0.9146899042467771
4862000000.0 0.5017459208407921 -0.8710938879345816
4866000000.0 0.4959804063324561 -0.8816192596174164
4869000000.0 0.507125901209018 -0.9026918494856206
4872000000.0 0.4778160163295171 -0.9176918146696007
4875000000.0 0.5519455084367678 -0.9094670876826592
4878000000.0 0.5078349310290083 -0.9124379147660974
4881000000.0 0.4911263878165662 -0.9426054961144397
4884000000.0 0.5155049231318543 -0.8786240875159236
4888000000.0 0.5445002293394936 -0.8430938014258201
4891000000.0 0.519980673829354 -0.8860383852465663
4894000000.0 0.46958073315050436 -0.8653018739350578
4897000000.0 0.5363008346893559 -0.8852805883866294
4900000000.0 0.5196839056280969 -0.9148994577163847
4903000000.0 0.5117093876364492 -0.8998311422009916
4906000000.0 0.49522445077646143 -0.9238809983575409
4909000000.0 0.496062735003582 -0.9015766093058505
4912000000.0 0.5113046221704384 -0.9253961912195923
4916000000.0 0.5497880280606622 -0.9224716391248932
4919000000.0 0.5447180411010937 -0.9318358639544975
4922000000.0 0.5373720203347575 -0.8723203316979264
4925000000.0 0.48913672416910564 -0.8710445132253202
4928000000.0 0.555035698142828 -0.84581567291732
4931000000.0 0.5552642598621818 -0.8984288132707519
4934000000.0 0.4883540739024907 -0.8882436745530126
4938000000.0 0.4875353583028453 -0.9041294640863489
4941000000.0 0.5178973567018211 -0.8561059447362585
4944000000.0 0.4973711418589216 -0.8019552059230817
4947000000.0 0.4876299961616639 -0.8597830413992429
4950000000.0 0.4746450808328199 -0.8981636429988931
4953000000.0 0.5114511660121918 -0.9228979529673152
4956000000.0 0.5022941849133719 -0.9003367334219929
4959000000.0 0.4674756562583676 -0.8740430148755802
4962000000.0 0.4976958988875272 -0.8977812127622097
4966000000.0 0.5131190719231447 -0.9163409680155338
4969000000.0 0.5658751618907627 -0.9578609984570448
4972000000.0 0.504916307764187 -0.9039102474580151
4975000000.0 0.5187106897811405 -0.8659561021530525
4978000000.0 0.510080567475118 -0.9001906941685909
4981000000.0 0.5230163159130347 -0.9159598456794765
4984000000.0 0.5218511484969321 -0.8491930176489157
4988000000.0 0.5393863270542663 -0.8933431468888063
4991000000.0 0.5978483844774489 -0.8950878143195002
4994000000.0 0.5451832505778011 -0.8705905395066523
4997000000.0 0.47861119232033056 -0.9163231079458343
5000000000.0 0.5451049463557803 -0.9245513624688741
5003000000.0 0.5567016252334547 -0.8976164316845918
5006000000.0 0.5196527587958678 -0.9301077730814786
5009000000.0 0.5238381077462004 -0.8710290243925114
5012000000.0 0.5151839326761491 -0.9036828680663485
5016000000.0 0.5736872300314922 -0.9067772691293472
5019000000.0 0.5203481357942018 -0.9098183629169472
5022000000.0 0.533697074653264 -0.8866707865911243
5025000000.0 0.5580839248944689 -0.9462816829393784
5028000000.0 0.5252237722994542 -0.9181629760832626
5031000000.0 0.5115709737001267 -0.912262772697553
5034000000.0 0.5329408413585766 -0.9204522975480354
5038000000.0 0.5257887715947374 -0.8854334996980978
5041000000.0 0.564291735136456 -0.8909861697807031
5044000000.0 0.5129872245476125 -0.8665000896963475
5047000000.0 0.5457443149175809 -0.881712525574924
5050000000.0 0.5737989329194708 -0.8480599248301028
5053000000.0 0.54354604564373 -0.9032119058398602
5056000000.0 0.5542533072701964 -0.8659367302384269
5059000000.0 0.5514050693944748 -0.8795003380990847
5062000000.0 0.5253377566819979 -0.9105985909798266
5066000000.0 0.5617614390709861 -0.8372722601153298
5069000000.0 0.5611820992728497 -0.8990186642530689
5072000000.0 0.5374052087891737 -0.8724808308878254
5075000000.0 0.5399408379855457 -0.8540414847865482
5078000000.0 0.5473490768754129 -0.8860122009568809
5081000000.0 0.5416708288559221 -0.8843839941857143
5084000000.0 0.5472567650675548 -0.8952232150775825
5088000000.0 0.5577634836406219 -0.8581647896684083
5091000000.0 0.506462610637717 -0.9254442144358527
5094000000.0 0.5194832962019365 -0.911531792102877
5097000000.0 0.5611665697581251 -0.863872275988728
5100000000.0 0.5427193266445516 -0.7889760806672186
5103000000.0 0.521131194442916 -0.919334889060049
5106000000.0 0.6097451368839628 -0.8714626097316176
5109000000.0 0.5677338590477944 -0.8678514492717079
5112000000.0 0.5391426594353929 -0.909654366422588
5116000000.0 0.5219685383389383 -0.8294068897026996
5119000000.0 0.5844181664805473 -0.8723296515364114
5122000000.0 0.5354615640615175 -0.8636073453422266
5125000000.0 0.5547854691781777 -0.8517331806541004
5128000000.0 0.5408307961877141 -0.8773627742296237
5131000000.0 0.5615257317039266 -0.8696262292013521
5134000000.0 0.5593368193687487 -0.8707935273949974
5138000000.0 0.5511838753656123 -0.8625521903438826
5141000000.0 0.5740410762460173 -0.8478603640452933
5144000000.0 0.5670229686544834 -0.9013473330182249
5147000000.0 0.5751345820063569 -0.8821365940395226
5150000000.0 0.5615094808195077 -0.8604380808298843
5153000000.0 0.5542675737306085 -0.9143086736531659
5156000000.0 0.5587104562320611 -0.9044545899501462
5159000000.0 0.5957988973036026 -0.9101513117058051
5162000000.0 0.541209528786487 -0.8567298104851564
5166000000.0 0.5476332031892026 -0.8834562094083458
5169000000.0 0.5432929689424576 -0.8888726655094645
5172000000.0 0.5541701546272044 -0.8707890093026138
5175000000.0 0.5754037401549337 -0.865517957813981
5178000000.0 0.5503016724407735 -0.8854322575314131
