! Created with skrf 1.8.0 (http://scikit-rf.org).
# Hz S RI R 50.0 
!freq ReS11 ImS11
4000000000.0 0.45286489415336045 -0.9044850989066826
4003000000.0 0.4457897787744888 -0.9979063522231798
4006000000.0 0.42896374229989 -0.8951231314057081
4009000000.0000005 0.4005948763606304 -0.9342799535674403
4011999999.9999995 0.4997048132036463 -0.9356161104077463
4016000000.0 0.4641497074030667 -0.9530557636904669
4019000000.0 0.4362261348005477 -0.9697198514635346
4022000000.0000005 0.5104124879212519 -0.9002660350232995
4025000000.0000005 0.3654753040033649 -0.9631259662957047
4027999999.9999995 0.41202064260700627 -0.9626709320355884
4030999999.9999995 0.40960175471757293 -0.9191526913391475
4034000000.0 0.38161022236952075 -0.9062054378731469
4038000000.0000005 0.39417133293738094 -0.960862521189061
4041000000.0000005 0.4021860317000927 -0.9479670435369082
4043999999.9999995 0.4529095899921227 -0.9704871596862157
4046999999.9999995 0.43425172282546054 -0.9501836753854163
4050000000.0 0.3897195849652313 -0.9477026541168068
4053000000.0 0.3899083351246393 -0.9729184131475369
4056000000.0 0.41697188143235603 -0.9616384704239728
4059000000.0 0.38261990640817645 -0.9020543556869735
4062000000.0000005 0.40717448792599187 -0.9715983458159332
4066000000.0 0.41135424097601564 -0.8917938794862955
4069000000.0 0.39911192199244727 -1.0059031458056142
4072000000.0 0.423001644406646 -0.956271144080623
4075000000.0 0.4335902054031905 -0.936923273766746
4078000000.0000005 0.39731138984594017 -0.9897836657681695
4081000000.0000005 0.45082683590848344 -0.9317530668982618
4083999999.9999995 0.43070032647032386 -0.998666844228659
4088000000.0 0.4682756917364836 -0.9210010579665555
4091000000.0 0.42039323604432993 -1.020152017294205
4094000000.0000005 0.44888909006688865 -0.9199939768311075
4097000000.0000005 0.4065744149779237 -0.958736790962999
4099999999.9999995 0.3912529361735112 -0.9340482845202593
4102999999.9999995 0.4385998125434894 -0.9410314105478009
4106000000.0 0.4272006401632523 -0.9534167332656941
4109000000.0 0.4032963476198084 -0.9971045810697861
4112000000.0 0.40284227676070744 -0.9504809340768845
4115999999.9999995 0.40664274485068225 -0.9487961977930045
4119000000.0 0.40870725987646794 -0.9555671539605483
4122000000.0 0.39179265499536403 -0.9799089469096034
4125000000.0 0.40573763760547094 -0.9907170260390897
4128000000.0 0.377358410195505 -0.9089390290630179
4131000000.0 0.3685371139703003 -0.9162922771970601
4134000000.0000005 0.4169320337888179 -0.9442361967572194
4138000000.0 0.3531125739236133 -0.9288123631952458
4141000000.0 0.3887702508670186 -0.9493321689080292
4144000000.0 0.38385328382341255 -0.9169282399536585
4147000000.0000005 0.39749648369152535 -0.9281402832698805
4150000000.0000005 0.38534350384635013 -0.9558579029848312
4152999999.9999995 0.3807451988917184 -0.9279375307965995
4155999999.9999995 0.45028882362932676 -0.9587508787728726
4159000000.0 0.38667871584269964 -0.9197307423644052
4162000000.0 0.4154101169177159 -0.9160566344340881
4166000000.0000005 0.4051434138530433 -0.9537687767794429
4168999999.9999995 0.3565559030656401 -0.929783768192126
4171999999.9999995 0.4096943805213925 -0.9295390894536167
4175000000.0 0.3895408861722853 -0.9440363387776219
4178000000.0 0.4183456325101431 -0.9629723420637522
4181000000.0 0.3884499234857253 -0.9306079215399614
4184000000.0 0.4034387132282282 -0.9250315675484017
4187999999.9999995 0.3859960449258678 -0.9240178395388768
4191000000.0 0.41015167657783935 -0.9246327946263548
4194000000.0 0.3940571929395451 -0.9200941486936494
4197000000.0 0.4050646137405536 -0.9476364919294991
4200000000.0 0.39634379665260033 -0.9325013390722114
4203000000.0000005 0.4170943918609443 -0.9503084977582306
4206000000.0000005 0.40983274661153557 -0.9457940063471529
4208999999.9999995 0.38418968929828934 -0.9276603811575566
4211999999.9999995 0.3714800771438666 -0.9561771778225596
4216000000.0 0.40845260414843043 -0.9447848504618335
4219000000.0000005 0.41788749778715495 -0.9462294789920788
4222000000.0000005 0.3808155962384954 -0.9433789447462114
4224999999.9999995 0.37837273476493616 -0.9260415645700376
4227999999.9999995 0.38464477602202785 -0.9433574929541658
4231000000.0 0.3846079433516867 -0.9292103121402616
4234000000.0 0.3719604779303485 -0.9508467528569783
4238000000.0000005 0.376054176142242 -0.949435306157567
4240999999.9999995 0.37202394738646233 -0.9419867744905451
4244000000.0 0.38858735626277974 -0.9287802652850836
4247000000.0 0.38436580950622634 -0.9291809913494902
4250000000.0 0.36858239339070986 -0.9331293247682935
4253000000.0 0.35497967176125417 -0.9145608836965446
4256000000.0 0.39815944286661115 -0.9739418828929497
4259000000.0000005 0.34286304146377417 -0.9145971393072727
4261999999.9999995 0.34892643291704695 -0.9365035570872996
4266000000.0 0.36349263561725464 -0.9473279001815892
4269000000.0 0.3837206808457194 -0.9346421643749553
4272000000.0000005 0.3722626606621971 -0.939875150296832
4275000000.0000005 0.36852210065952834 -0.9596250897656415
4277999999.9999995 0.38817706110502503 -0.9648795021927833
4280999999.9999995 0.39445809143131755 -0.9365815641461419
4284000000.0 0.3278316448906497 -0.9636428100510056
4288000000.0000005 0.40581298041493835 -0.944025985288754
4291000000.0000005 0.3729051850202556 -0.9356523200262129
4293999999.9999995 0.3623806709829103 -0.9252923498373615
4297000000.0 0.39230013238666106 -0.9274404347702645
4300000000.0 0.37718720098231184 -0.9256075433495483
4303000000.0 0.34622005710995185 -0.9234808172244119
4306000000.0 0.38349123894122317 -0.922918729192155
4309000000.0 0.3646127766298659 -0.9290012384008058
4312000000.0 0.419522273679266 -0.9340773673869621
4316000000.0 0.3656743011683661 -0.9342185384070849
4319000000.0 0.37811584349090227 -0.9570475615987737
4322000000.0 0.36193367504242235 -0.9514339002488165
4325000000.0 0.3582975508347246 -0.9346446090147789
4328000000.0 0.3507540658183861 -0.9322990166571251
4331000000.0 0.34385637421564136 -0.9375460031022169
4334000000.0 0.36964965713881237 -0.9528875005426182
4338000000.0 0.3743332595769142 -0.9457779461342195
4341000000.0 0.3825495345337181 -0.9682163284334546
4344000000.0 0.38929024321082817 -0.9583986663342617
4347000000.0 0.3501342970131862 -0.9804280548828812
4350000000.0 0.3196901780640745 -0.9137390371478843
4353000000.0 0.3586678371051932 -0.9224708174557451
4356000000.0 0.31499924591013695 -0.9301595893049899
4359000000.0 0.31277893002354873 -0.9104021217995064
4362000000.0 0.30070513755853184 -0.971426506637548
4366000000.0 0.3497599524967312 -0.9758094164222708
4369000000.0 0.3373219410462307 -0.9156973146063547
4372000000.0 0.2973733596464793 -0.9455508066986565
4375000000.0 0.36015607110265 -0.9375745500147316
4378000000.0 0.3332870839117788 -0.920558883907212
4381000000.0 0.33002938215957167 -0.9237052880897736
4384000000.0 0.35628284614427125 -1.0084265261559775
4388000000.0 0.3414805104249569 -0.9372189626764121
4391000000.0 0.3344992098630563 -0.9532933181987363
4394000000.0 0.320878744406012 -0.9139434000476674
4397000000.0 0.33552306058935577 -0.9410853832937969
4400000000.0 0.3353411366272473 -0.9655514355881196
4403000000.0 0.345572438488123 -0.954904022106592
4406000000.0 0.316722702011496 -0.9580061124333579
4409000000.0 0.3367052189769399 -0.9862957281032954
4412000000.0 0.2536751798756762 -0.9602052927723643
4416000000.0 0.31493769501671504 -0.9557722417963521
4419000000.0 0.3017764673156852 -0.9475701513010628
4422000000.0 0.3433496604636943 -0.9352124974985584
4425000000.0 0.352441852344052 -0.9585309058411274
4428000000.0 0.3183288718815115 -0.9732064966264977
4431000000.0 0.3315442477088999 -0.9828406849574893
4434000000.0 0.31358909737419116 -0.9429020756235423
4438000000.0 0.33623520908899185 -0.9747322821272094
4441000000.0 0.31610671494904863 -0.9711481482221204
4444000000.0 0.3085410007205729 -0.936404033679197
4447000000.0 0.2940413584432763 -0.9564430205996327
4450000000.0 0.330275219878578 -0.9386551728001283
4453000000.0 0.3219514359057337 -0.9759798983756272
4456000000.0 0.29428850747809476 -0.9468946273298224
4459000000.0 0.2882618818923693 -0.9331119212443215
4462000000.0 0.31808521088174885 -1.012971159874492
4466000000.0 0.300286531579125 -1.0174891184409343
4469000000.0 0.32286717743831705 -0.95490119882081
4472000000.0 0.2838588547585682 -0.9859231486514508
4475000000.0 0.2921645076038805 -0.9436616688060606
4478000000.0 0.28902245767010903 -1.0024595572621613
4481000000.0 0.279057911538719 -0.965812314310992
4484000000.0 0.25030976791087656 -0.9538537894034493
4488000000.0 0.2765324711794787 -0.9602513025840422
4491000000.0 0.29030390600788303 -0.9558867796780717
4494000000.0 0.31488042645589925 -0.9515200487340654
4497000000.0 0.29384700678346953 -0.9451184526787684
4500000000.0 0.28701685191881243 -0.9571698906446717
4503000000.0 0.28942591462230166 -0.9894055167060185
4506000000.0 0.25378813754835705 -0.9751413722405877
4509000000.0 0.2776326658783189 -0.940912994328702
4512000000.0 0.26360902706250605 -0.9505696850974061
4516000000.0 0.28543917468998603 -0.9892750206098943
4519000000.0 0.28629337770691354 -0.9314004785761396
4522000000.0 0.2709859778293521 -0.976231417469851
4525000000.0 0.29591870235764844 -0.966704215987795
4528000000.0 0.2966890991585282 -0.9978015992140643
4531000000.0 0.2968398988718753 -0.9542075027447277
4534000000.0 0.25234492996526575 -0.9520415129593258
4538000000.0 0.2720527131738109 -0.9685058859596358
4541000000.0 0.24315093521644537 -0.976445861510336
4544000000.0 0.2601347811140981 -0.9671556863029924
4547000000.0 0.2834608289738045 -0.9722877218264587
4550000000.0 0.24568342603114574 -0.9771348455487314
4553000000.0 0.25549896154362656 -0.9764844908794121
4556000000.0 0.2470420971726796 -0.9561974280134772
4559000000.0 0.24901638635019996 -0.9701407353852711
4562000000.0 0.2803573282630321 -0.9873884523851341
4566000000.0 0.24887611055377828 -1.002417344808142
4569000000.0 0.24690653261675782 -0.9713667244141988
4572000000.0 0.2598064000299663 -0.9742443398033547
4575000000.0 0.23351129764019396 -0.9862350959062411
4578000000.0 0.26776544315169026 -0.998035425828401
4581000000.0 0.25323713106813667 -0.9817878848252232
4584000000.0 0.22026654597082002 -0.9831305059678414
4588000000.0 0.26761719740344103 -0.9980801300248776
4591000000.0 0.2591401530679137 -0.9816163564545021
4594000000.0 0.2254378222386237 -0.9616584934847684
4597000000.0 0.24318616189853992 -0.9908262544840013
4600000000.0 0.23833230076938733 -0.9915981325775254
4603000000.0 0.22773828597585571 -0.985783852409204
4606000000.0 0.24647263778024692 -1.0093921340545158
4609000000.0 0.2420796379502521 -0.9894690493074368
4612000000.0 0.225947758078675 -0.9547108627370029
4616000000.0 0.21978892140571282 -0.9674109342414063
4619000000.0 0.22205640243201685 -0.9828706583597353
4622000000.0 0.19977522071379405 -0.9930342546469536
4625000000.0 0.19956782760593725 -0.9659979763548864
4628000000.0 0.24428593226780723 -1.0059951344110984
4631000000.0 0.21220394007190768 -0.9857080183788516
4634000000.0 0.1992839152871155 -0.9891805174047896
4638000000.0 0.2132874363839558 -1.004974424966119
4641000000.0 0.21057579225656567 -0.9894697707261924
4644000000.0 0.21059598217814388 -1.009667347704635
4647000000.0 0.21860192234289372 -1.0042472790654395
4650000000.0 0.214794106567712 -0.9791358495147976
4653000000.0 0.19265787513396018 -0.9935389542147811
4656000000.0 0.2008384612068061 -1.0157386266635964
4659000000.0 0.1928740426290035 -0.9704776491814084
4662000000.0 0.2016690956195687 -0.9983576028644522
4666000000.0 0.18683811736340014 -1.0058958613242228
4669000000.0 0.20638488231202745 -1.0075173580390213
4672000000.0 0.19573004127047516 -1.0247094489484205
4675000000.0 0.1970276707478973 -1.0029906665316728
4678000000.0 0.18425888521112974 -0.9849237179952512
4681000000.0 0.16154373144167433 -1.03607955030499
4684000000.0 0.1701425348837689 -1.020898030559577
4688000000.0 0.1768376997413924 -0.9926934136311258
4691000000.0 0.2251520066377954 -1.016312480949705
4694000000.0 0.20831058922708584 -0.9881643263435749
4697000000.0 0.1590141657393525 -0.9695878390615216
4700000000.0 0.18449880113345513 -1.0196464038000235
4703000000.0 0.2262683023152617 -0.9298101989729488
4706000000.0 0.1453872140154444 -1.030153127752801
4709000000.0 0.18391451217238464 -1.0052077894085738
4712000000.0 0.1808672321002635 -1.0201500385884192
4716000000.0 0.1617145340578925 -1.0155237819290088
4719000000.0 0.2050142758683168 -1.01850920758906
4722000000.0 0.21098755948063583 -0.9995630683028357
4725000000.0 0.19591511281606389 -0.9714451370222116
4728000000.0 0.14684354704116637 -0.9910415322097597
4731000000.0 0.2207854514633268 -1.0263362385783001
4734000000.0 0.19955063288934619 -0.9954493083034597
4738000000.0 0.19598614989771854 -1.0641397107162578
4741000000.0 0.16035200685386447 -1.0245623002620838
4744000000.0 0.15920854578567978 -1.0084461022704359
4747000000.0 0.18719390782257928 -0.9794716819021918
4750000000.0 0.17258344960730482 -1.0402280705326148
4753000000.0 0.19128251753577596 -0.9836672142908921
4756000000.0 0.15454535399182867 -1.0201997712536859
4759000000.0 0.17545409121156194 -0.9956968955368766
4762000000.0 0.1265277603299794 -1.0277295717547792
4766000000.0 0.15100990686593077 -0.9994652258700644
4769000000.0 0.16286093625405534 -1.014138955616473
4772000000.0 0.17576809784731529 -1.043894621521879
4775000000.0 0.1423763318020061 -1.0513729244754824
4778000000.0 0.14449460864099561 -1.0354442636757506
4781000000.0 0.14649916000285845 -1.0022204459310384
4784000000.0 0.14581058683598982 -1.0005633107314444
4788000000.0 0.15355448314141737 -1.0417659276040059
4791000000.0 0.14938151528485366 -0.9826771377099816
4794000000.0 0.18434265032733577 -1.0242592030121511
4797000000.0 0.14848899009939936 -0.9851062740200881
4800000000.0 0.13316544415300027 -0.9879228300202848
4803000000.0 0.10750794172604879 -1.0334987530734385
4806000000.0 0.14795129113987 -1.0456481889808775
4809000000.0 0.09280196098894755 -1.0385654727198563
4812000000.0 0.09603808909554434 -0.9819005017741363
4816000000.0 0.15663749444482192 -1.0034987258187755
4819000000.0 0.13153967456995322 -1.046577135417046
4822000000.0 0.171839586001224 -1.0560452552052213
4825000000.0 0.16538589455001335 -1.0512235107834085
4828000000.0 0.11898168628953643 -1.0138911879621821
4831000000.0 0.08825955657826426 -1.055031260515114
4834000000.0 0.17067839841915025 -1.0208136807312307
4838000000.0 0.11033529213942159 -1.024168680404583
4841000000.0 0.12269274220640278 -1.0032267348644102
4844000000.0 0.16941476945049574 -1.015859940967265
4847000000.0 0.13847888805074438 -0.9801678602290042
4850000000.0 0.1078752138320232 -1.0506594222801275
4853000000.0 0.1045514175240152 -1.010004991785258
4856000000.0 0.10519961217231955 -1.0083618997015362
4859000000.0 0.08550791380219097 -1.0774808716077822
4862000000.0 0.1349479142234125 -1.0103585816250913
4866000000.0 0.09061439873580746 -1.0555387829832992
4869000000.0 0.1140177195588789 -1.025485857739339
4872000000.0 0.0758572783578253 -1.0562158979106486
4875000000.0 0.1599174938064023 -1.066768614337601
4878000000.0 0.10208646970889507 -1.0264896765602212
4881000000.0 0.08417034124551287 -1.0972026778018127
4884000000.0 0.11479071822384967 -1.0204242947911633
4888000000.0 0.12688374769032906 -1.0064187424799051
4891000000.0 0.11062098681503119 -1.0672967282865264
4894000000.0 0.07252470480714984 -1.0225766611452642
4897000000.0 0.10305355245253273 -1.0376540276886708
4900000000.0 0.13478995009745243 -1.0590960002440635
4903000000.0 0.13047953266835655 -1.045833327238018
4906000000.0 0.0774002536550002 -1.0311874247897446
4909000000.0 0.04182778899759426 -1.0462048099204526
4912000000.0 0.03037067550387429 -1.0519185107267939
4916000000.0 0.04726374693324076 -1.066490990175339
4919000000.0 0.12539719133165328 -1.0558081879441266
4922000000.0 0.09930970674347961 -1.0288084593648272
4925000000.0 0.05322313992211403 -1.0307385385521202
4928000000.0 0.11712502007519077 -1.0143102061429778
4931000000.0 0.07594331518554992 -1.0391246153010218
4934000000.0 0.06886340975905314 -0.9790821742392647
4938000000.0 0.044745822059831686 -1.060965241176109
4941000000.0 0.059834280225398384 -1.022361433016677
4944000000.0 0.10342326945800967 -0.9861614626834881
4947000000.0 0.07238825048815056 -1.0086476746424755
4950000000.0 0.06127237699929827 -1.017422180515475
4953000000.0 0.037645958394197265 -1.083910937419249
4956000000.0 0.039188530176050174 -1.0286424519091564
4959000000.0 0.02073148788820861 -1.0095636031825805
4962000000.0 0.03726819637698581 -1.0686606110050383
4966000000.0 0.09084444949656378 -1.0358780351394414
4969000000.0 0.06612015303437935 -1.073208444471928
4972000000.0 0.07356318658187855 -1.0279114985280495
4975000000.0 0.0755967043488997 -1.016224367030041
4978000000.0 0.016954462421319982 -1.0367938939869126
4981000000.0 0.021935902942568974 -1.065290009204696
4984000000.0 0.05694815856517904 -1.0358266696622054
4988000000.0 0.0750925466173546 -1.0569551245857773
4991000000.0 0.1041489367131494 -1.036830654316236
4994000000.0 0.055996336500390875 -1.0279211342895311
4997000000.0 0.00792031069980359 -1.0652099385778073
5000000000.0 0.04272385337184792 -1.0439302373675954
5003000000.0 0.0485838258974689 -1.073184774816994
5006000000.0 0.05993949376924301 -1.0871541792308663
5009000000.0 0.029270499565979047 -1.05954793247782
5012000000.0 0.041134885810026445 -1.080433470196185
5016000000.0 0.049402861368627926 -1.0838385718486112
5019000000.0 0.013890827943415673 -1.062914701736016
5022000000.0 0.00983986890139299 -1.0328217049088058
5025000000.0 0.005988499986785634 -1.0704281714835453
5028000000.0 0.03683426010055657 -1.0269384014522165
5031000000.0 -0.0037693807004547386 -1.0475803405811097
5034000000.0 -0.013654720311420787 -1.0751489047919351
5038000000.0 -0.007913209906731722 -1.0199359707773588
5041000000.0 0.037515894177353126 -1.0699713917068545
5044000000.0 0.034544649034016606 -1.012024535400223
5047000000.0 0.016137644314369037 -1.0561660627319969
5050000000.0 0.028195823172139478 -1.0143988743267407
5053000000.0 -0.0314998543495007 -1.048745181174527
5056000000.0 -0.014878543526926524 -1.0412248033534162
5059000000.0 0.045790957799795584 -1.0066863126342558
5062000000.0 -0.0620531966800586 -1.0774412745789421
5066000000.0 0.03912913976615706 -1.0581767872241932
5069000000.0 -0.01581839309151334 -1.0414313709994305
5072000000.0 0.0012100949066930489 -1.0475299781309788
5075000000.0 0.0006990306942871172 -1.0103872445299145
5078000000.0 -0.03975319952499623 -1.05221954752749
5081000000.0 -0.0827585897329905 -1.04492614996094
5084000000.0 -0.006304095451845404 -1.0428401753421461
5088000000.0 -0.013757918817790316 -1.0261644018410894
5091000000.0 -0.07233890422840927 -1.0173465215048778
5094000000.0 -0.0595129043785485 -1.0175076425244765
5097000000.0 -0.026567241368486205 -1.0081198260778492
5100000000.0 -0.06138099777033351 -1.0065156082954632
5103000000.0 -0.08679478545721164 -1.0197782151811838
5106000000.0 -0.010865915588864461 -1.0298865754297735
5109000000.0 -0.017341174533816006 -1.044870944898587
5112000000.0 -0.09427074566705046 -0.9806272227780513
5116000000.0 -0.032844149923901444 -1.0514920888807378
5119000000.0 -0.07151207003452537 -1.0664327303337657
5122000000.0 -0.06465845659978647 -1.009419371026605
5125000000.0 -0.016772159223868655 -0.980883268874376
5128000000.0 -0.06428280249688278 -1.057951521991767
5131000000.0 -0.07013650742234967 -1.091823874989559
5134000000.0 -0.09409572341005557 -1.038710568298314
5138000000.0 -0.06518830807804032 -1.0239597888591048
5141000000.0 -0.057311031045152006 -1.099654977640849
5144000000.0 -0.06993859464047392 -1.0020197286435915
5147000000.0 -0.09065034765656244 -1.056523216356949
5150000000.0 -0.12696054563388642 -1.0627995262726813
5153000000.0 -0.0946037490755911 -1.1027038250485082
5156000000.0 -0.06767000448665145 -1.019021586384315
5159000000.0 -0.07989994897412378 -1.0506397267236722
5162000000.0 -0.1836106379588956 -1.056633147299623
