! Created with skrf 1.8.0 (http://scikit-rf.org).
# Hz S RI R 50.0 
!freq ReS11 ImS11
4000000000.0 0.5787429053906801 -0.8571772487072208
4003000000.0 0.579976322596228 -0.9248398651166337
4006000000.0 0.5181813294552771 -0.9010407053483274
4009000000.0000005 0.5657644092171626 -0.883170721029297
4011999999.9999995 0.5963860044569163 -0.8222287348629057
4016000000.0 0.5333133044270568 -0.9294445866251084
4019000000.0 0.5343881974277628 -0.8411836767563036
4022000000.0000005 0.5866208505668178 -0.8163211085224052
4025000000.0000005 0.4822227893367172 -0.9059466655299373
4027999999.9999995 0.5569889723524936 -0.891492795164161
4030999999.9999995 0.4965164708713715 -0.7988544865861212
4034000000.0 0.5456894144322791 -0.8629807866919025
4038000000.0000005 0.5433887742033165 -0.9107689130380634
4041000000.0000005 0.5604728186963411 -0.8702813055896145
4043999999.9999995 0.5703722659897532 -0.9258495796400275
4046999999.9999995 0.5979737105325005 -0.9210279887474137
4050000000.0 0.5531995444615541 -0.899096635651033
4053000000.0 0.4959029653122929 -0.8459051566797136
4056000000.0 0.528496793572927 -0.8545971532670651
4059000000.0 0.5690231338319736 -0.8670113479378245
4062000000.0000005 0.5205037696480981 -0.9144412525772068
4066000000.0 0.49779407843492135 -0.7907496804828906
4069000000.0 0.5557669636026263 -0.8846245246453422
4072000000.0 0.5698752541437261 -0.8458333421843285
4075000000.0 0.599177404660293 -0.9263274859710972
4078000000.0000005 0.5642322400508877 -0.8936376787789849
4081000000.0000005 0.6015109240143516 -0.7887089242066635
4083999999.9999995 0.5178714921413922 -0.918141183332104
4088000000.0 0.5982826164210754 -0.8382305750644948
4091000000.0 0.5961268152331468 -0.943597512216536
4094000000.0000005 0.5805824741873992 -0.8816556341983632
4097000000.0000005 0.5718789622706603 -0.8776811818366432
4099999999.9999995 0.5368214685928382 -0.8986713904975668
4102999999.9999995 0.5832148026371015 -0.8409287369495039
4106000000.0 0.5393527512819772 -0.8713453864466668
4109000000.0 0.49963544183140607 -0.889732699509824
4112000000.0 0.565930426370358 -0.9181179865978061
4115999999.9999995 0.541292410959362 -0.8537719517100184
4119000000.0 0.5431533545323347 -0.9097382569518971
4122000000.0 0.5507777891472154 -0.8924956855721382
4125000000.0 0.5364512578818235 -0.9079947539516172
4128000000.0 0.5402269392552916 -0.85790367603982
4131000000.0 0.5279926213018107 -0.8182418049331409
4134000000.0000005 0.5700397190150435 -0.8307757292752797
4138000000.0 0.523768803616116 -0.8449338041915324
4141000000.0 0.5330637631860918 -0.8589027154798492
4144000000.0 0.5587841297392339 -0.8739957403579365
4147000000.0000005 0.5191601318980523 -0.8311595151066051
4150000000.0000005 0.555381191082891 -0.85065923162969
4152999999.9999995 0.519467118390934 -0.8688947242866539
4155999999.9999995 0.5754239309095934 -0.9173018748238821
4159000000.0 0.5863188710756012 -0.847213747606407
4162000000.0 0.5739679921244241 -0.8239518969421248
4166000000.0000005 0.5555579681847909 -0.8651945345215021
4168999999.9999995 0.5527278715684901 -0.8784042066144158
4171999999.9999995 0.5450494709163811 -0.8488998169041203
4175000000.0 0.5425429779074316 -0.8739807916590043
4178000000.0 0.56086313085477 -0.874521340131236
4181000000.0 0.525737032392068 -0.8647248394361113
4184000000.0 0.5551694950587156 -0.8374174929698147
4187999999.9999995 0.5581750782235713 -0.8588799470384819
4191000000.0 0.5750352608746805 -0.8193591229222451
4194000000.0 0.5433272841769814 -0.8531291242834894
4197000000.0 0.5569842195110017 -0.8678891761083922
4200000000.0 0.5570500535219989 -0.8578627891902091
4203000000.0000005 0.5693464825861436 -0.8661501673259164
4206000000.0000005 0.5655195507074646 -0.8692791254060225
4208999999.9999995 0.5612687446858631 -0.8508507008881636
4211999999.9999995 0.510839133188234 -0.8716954081330741
4216000000.0 0.551209738222305 -0.8642231735644905
4219000000.0000005 0.5716812765536466 -0.8691845893949525
4222000000.0000005 0.5382541423188246 -0.8580531290915467
4224999999.9999995 0.562621674501242 -0.8498909492888252
4227999999.9999995 0.5449264184835751 -0.8707671061921022
4231000000.0 0.5408623747410131 -0.8703975957201476
4234000000.0 0.5617444510937033 -0.8544085597353043
4238000000.0000005 0.5376605184539148 -0.8721561790700642
4240999999.9999995 0.5414011673418377 -0.8472212175587115
4244000000.0 0.5409084481983755 -0.8613834748897689
4247000000.0 0.5447107188919269 -0.8526551866858768
4250000000.0 0.5372308814998816 -0.8396136916975351
4253000000.0 0.5244181298072059 -0.8413256843305378
4256000000.0 0.5439184392527615 -0.8862572296129169
4259000000.0000005 0.530476221268205 -0.8395863810334562
4261999999.9999995 0.5386520963700753 -0.8693956211345153
4266000000.0 0.5236956984720487 -0.8781577403316505
4269000000.0 0.5627871639970217 -0.8459210743265012
4272000000.0000005 0.5457905556514954 -0.8469912776889332
4275000000.0000005 0.564370234403244 -0.855203301763831
4277999999.9999995 0.555174345572942 -0.8771041981554355
4280999999.9999995 0.5605282021991816 -0.844104039817736
4284000000.0 0.5077776317472038 -0.8811109138592784
4288000000.0000005 0.5650833316105698 -0.8323327468897067
4291000000.0000005 0.5430475264698107 -0.8232358994745004
4293999999.9999995 0.5390163301791997 -0.8414216903263949
4297000000.0 0.5556414492767834 -0.8430763634804465
4300000000.0 0.5391829481787948 -0.8198695862620168
4303000000.0 0.5184486691356818 -0.8421732631738421
4306000000.0 0.5579708949317272 -0.836329587392674
4309000000.0 0.5393795179752122 -0.861502505284759
4312000000.0 0.5812046721750813 -0.8273580896279749
4316000000.0 0.5345404506417047 -0.8551331882184943
4319000000.0 0.5404395258383454 -0.836875008457505
4322000000.0 0.4993662269782719 -0.8427881275156327
4325000000.0 0.5411228807021957 -0.8563117878259408
4328000000.0 0.5379969696113214 -0.8548489722044414
4331000000.0 0.5175458646675375 -0.8714038705332743
4334000000.0 0.5286042201398363 -0.846978131065011
4338000000.0 0.5618616265008441 -0.8443723447644621
4341000000.0 0.5597769698097457 -0.8403034731731004
4344000000.0 0.5587006942520721 -0.8621392450887992
4347000000.0 0.5143544632507632 -0.8534929886156707
4350000000.0 0.5217761485717543 -0.8130428559010389
4353000000.0 0.5387710805765129 -0.817983353707619
4356000000.0 0.5270441610031595 -0.8654414494503304
4359000000.0 0.5183671814602799 -0.8179367479599188
4362000000.0 0.502029084487401 -0.8766016941876009
4366000000.0 0.5292268639494303 -0.8683860858069647
4369000000.0 0.5104912163329617 -0.8355255198298134
4372000000.0 0.5000949653300135 -0.8594164083808168
4375000000.0 0.560503570490098 -0.8435899452110359
4378000000.0 0.5171935339936025 -0.827441820813432
4381000000.0 0.5311954511961845 -0.8438877221860652
4384000000.0 0.5616299725161846 -0.9074138863215278
4388000000.0 0.524281390959581 -0.8366364292627572
4391000000.0 0.5474823163822214 -0.8552239193704073
4394000000.0 0.5110192911672785 -0.8295793676282931
4397000000.0 0.5378960093949939 -0.8333187108894918
4400000000.0 0.5349972125435843 -0.8838288399277978
4403000000.0 0.535016104060724 -0.8524536530466317
4406000000.0 0.5147702246905521 -0.8696214296760822
4409000000.0 0.5392988222866135 -0.8886058889820259
4412000000.0 0.48613104089290043 -0.8866691521534461
4416000000.0 0.5198362762861497 -0.853306581282367
4419000000.0 0.5077210273179122 -0.8684980532609173
4422000000.0 0.5342991868956174 -0.8385341549932894
4425000000.0 0.5703515368536992 -0.8542101241128115
4428000000.0 0.5228874994097729 -0.8584612456859408
4431000000.0 0.5494333420271459 -0.8729378097356405
4434000000.0 0.5298402327199259 -0.8608117149066402
4438000000.0 0.558509422832137 -0.8654515983007309
4441000000.0 0.5463367405237649 -0.8788485278574988
4444000000.0 0.5341098340100251 -0.8430300342226172
4447000000.0 0.5114782835770527 -0.8555448119614367
4450000000.0 0.5305576359900973 -0.8334572340770343
4453000000.0 0.5385851995328969 -0.8578345911424283
4456000000.0 0.5144866537638636 -0.8426743967429028
4459000000.0 0.48300712823749103 -0.8346249925105054
4462000000.0 0.5706192420053533 -0.9132735105202798
4466000000.0 0.5342770052727095 -0.9075791909734707
4469000000.0 0.546852047621506 -0.8543935602900834
4472000000.0 0.5276275492545084 -0.8966406894534447
4475000000.0 0.5095193407720732 -0.8400939117527607
4478000000.0 0.5349468896637607 -0.9000282800893051
4481000000.0 0.4952819753957953 -0.8313285651866029
4484000000.0 0.4693696727281611 -0.8833525259139786
4488000000.0 0.5120939740932162 -0.853967852046048
4491000000.0 0.5027953897318844 -0.8751467065221006
4494000000.0 0.4988973076875262 -0.8454519919077579
4497000000.0 0.5206705318341642 -0.8406819992046055
4500000000.0 0.5215367859478642 -0.8541399007822088
4503000000.0 0.5389686472769593 -0.8637086295427485
4506000000.0 0.5163041754216082 -0.8461582148276441
4509000000.0 0.5067942409301748 -0.8541848338683805
4512000000.0 0.48980648803931526 -0.8479745859800737
4516000000.0 0.5165906401917528 -0.8778547956646541
4519000000.0 0.5169509884312113 -0.8384078496369772
4522000000.0 0.5079791525437131 -0.8795902055758009
4525000000.0 0.5342714428177973 -0.831790352062306
4528000000.0 0.5381206777827389 -0.8733791400329446
4531000000.0 0.5330432189375134 -0.8390222124617317
4534000000.0 0.5081847086092324 -0.843325565214087
4538000000.0 0.5275324212238935 -0.8632938275462317
4541000000.0 0.4731596265462127 -0.8654641946600037
4544000000.0 0.519058946692531 -0.8509855884254104
4547000000.0 0.5271773068990542 -0.853450798489003
4550000000.0 0.5051708003143743 -0.8919123702934587
4553000000.0 0.5165248078526126 -0.8547554493481019
4556000000.0 0.4959160680581945 -0.8546281091746781
4559000000.0 0.5095148087052588 -0.8821039758963363
4562000000.0 0.5223306968794237 -0.8858130816590297
4566000000.0 0.517530941337993 -0.8881004864573191
4569000000.0 0.5050964477408784 -0.8453776213922026
4572000000.0 0.4867676794364586 -0.8648051649467055
4575000000.0 0.49805807748487413 -0.873652199776413
4578000000.0 0.527971826737716 -0.882330005129623
4581000000.0 0.514355439781992 -0.879830614198519
4584000000.0 0.4903694888013838 -0.8532818298777332
4588000000.0 0.5364115667026534 -0.8716665905653519
4591000000.0 0.5079110622578347 -0.8511546719775869
4594000000.0 0.4814440928045991 -0.8834062429550842
4597000000.0 0.502995838716697 -0.8951317246827813
4600000000.0 0.4759080177197051 -0.8816113994211924
4603000000.0 0.48902103029783034 -0.8927663914595481
4606000000.0 0.5216178476873834 -0.8752128855102981
4609000000.0 0.5102841276909802 -0.8715745796126365
4612000000.0 0.5088613899854406 -0.8880253839394634
4616000000.0 0.49236313791029385 -0.8666869285038448
4619000000.0 0.5181242261678063 -0.8648305995594887
4622000000.0 0.5164154861934417 -0.8790594769318419
4625000000.0 0.4731012117993123 -0.8557209685519377
4628000000.0 0.5059668319765185 -0.8465104691320918
4631000000.0 0.47659725355163307 -0.8732725331749754
4634000000.0 0.4931124762317567 -0.8777550725318075
4638000000.0 0.5087699854309966 -0.8709041869422159
4641000000.0 0.5144406856500786 -0.8829736762209373
4644000000.0 0.4997153620467541 -0.8687526061470476
4647000000.0 0.505132605670942 -0.8888314844603102
4650000000.0 0.48279295307732806 -0.8729263550919909
4653000000.0 0.509404706054472 -0.882073296567818
4656000000.0 0.4827006312205543 -0.8798153745239655
4659000000.0 0.46770991684557983 -0.8871439199825155
4662000000.0 0.5012553899667849 -0.8846204172826897
4666000000.0 0.48244905027542173 -0.8772669068190995
4669000000.0 0.49898922190428774 -0.873372767682884
4672000000.0 0.4849965445159394 -0.9017961261410723
4675000000.0 0.48040812745652217 -0.9070540197086681
4678000000.0 0.4870931503622807 -0.8651068541085415
4681000000.0 0.4788063828563362 -0.8901552875298434
4684000000.0 0.4684844952602316 -0.8922192169967628
4688000000.0 0.4660556529714106 -0.8785988238666664
4691000000.0 0.5065192464394374 -0.8703700312502216
4694000000.0 0.4969693730474501 -0.8713781439950656
4697000000.0 0.449425310520575 -0.8588246489758427
4700000000.0 0.4961722727238757 -0.8767035331043525
4703000000.0 0.48738383208251734 -0.8467285067185828
4706000000.0 0.4777409639824881 -0.880408907177879
4709000000.0 0.4691890535676543 -0.8865261896035388
4712000000.0 0.48756937498825376 -0.8737846188680493
4716000000.0 0.4943571777522431 -0.8660872678275522
4719000000.0 0.5170213054837858 -0.8948050698799093
4722000000.0 0.5132250898935352 -0.8590623892410224
4725000000.0 0.5018618215653057 -0.8973159299136706
4728000000.0 0.4660824639937808 -0.88785065772741
4731000000.0 0.5014382009265772 -0.8884992700329374
4734000000.0 0.5069608329909762 -0.8659201422780767
4738000000.0 0.5152339453892066 -0.9183979281160402
4741000000.0 0.49173537325511296 -0.8912471719298203
4744000000.0 0.46344318867953077 -0.8984003100603969
4747000000.0 0.5112192543671235 -0.8610818040560247
4750000000.0 0.5121707913447523 -0.8942194296471199
4753000000.0 0.485101991884611 -0.8904538280302108
4756000000.0 0.48199888411069514 -0.8899791133632214
4759000000.0 0.5028328317909084 -0.901702873242568
4762000000.0 0.47998671907667634 -0.8929618129787418
4766000000.0 0.45748147956206475 -0.8842016017808182
4769000000.0 0.5011559234398815 -0.8982597334667071
4772000000.0 0.49123991795104827 -0.9244148545154389
4775000000.0 0.521492159515441 -0.9365696433374359
4778000000.0 0.4912875976321288 -0.9122493477576512
4781000000.0 0.5079153796568177 -0.8687063732511878
4784000000.0 0.4978483052649392 -0.8912960699008123
4788000000.0 0.4857039030344953 -0.9048851930845023
4791000000.0 0.468839573479925 -0.8988980842200223
4794000000.0 0.5345433380475035 -0.9087686961843253
4797000000.0 0.49207157987373285 -0.846702943500207
4800000000.0 0.48613431160917997 -0.8868802451139683
4803000000.0 0.43412145923939305 -0.9104813691283067
4806000000.0 0.49648753986830074 -0.9016667867881092
4809000000.0 0.42559031138693226 -0.914710409990976
4812000000.0 0.44612139879050805 -0.891531052026149
4816000000.0 0.4897296316479508 -0.8748473382040148
4819000000.0 0.5123539488843826 -0.9085390970861654
4822000000.0 0.540238088110532 -0.9130836377229881
4825000000.0 0.5233787490856964 -0.897563102347566
4828000000.0 0.4858043490064691 -0.8743483724153364
4831000000.0 0.45595464655890083 -0.9249970587932612
4834000000.0 0.5133604963173372 -0.8991123130598255
4838000000.0 0.4711020353724551 -0.9152301158086463
4841000000.0 0.4731613508117669 -0.9007216522594519
4844000000.0 0.5101020979418922 -0.8709087001406488
4847000000.0 0.5058421031325468 -0.8612048640797711
4850000000.0 0.49751168914527466 -0.9162314258194718
4853000000.0 0.5004632140524026 -0.865464562331065
4856000000.0 0.4958706112507002 -0.8892996521461042
4859000000.0 0.5127660672918679 -0.9438421696811831
4862000000.0 0.5111483992368814 -0.8489404064202621
4866000000.0 0.4983777863743566 -0.9274731448181418
4869000000.0 0.4676410277783118 -0.9253594857997944
4872000000.0 0.4692513465554866 -0.9315758451027654
4875000000.0 0.5636628346448125 -0.911748738591561
4878000000.0 0.505030731749984 -0.897889141346583
4881000000.0 0.4848132478973529 -0.9913550813707843
4884000000.0 0.5247114171251265 -0.8935072620909933
4888000000.0 0.5274226273595074 -0.8858192137963489
4891000000.0 0.5128075519253635 -0.9003504553923285
4894000000.0 0.47924754138542125 -0.8822477811763229
4897000000.0 0.5164234935121939 -0.8915586646109332
4900000000.0 0.5012649234241695 -0.9136946980170997
4903000000.0 0.5249127532851714 -0.8924763783347901
4906000000.0 0.5376026266815251 -0.9164830248711916
4909000000.0 0.4858902599807197 -0.9229146488834272
4912000000.0 0.5152810439755665 -0.959653137022312
4916000000.0 0.5438958012984819 -0.9082903765769221
4919000000.0 0.5593214204762956 -0.8946134401886076
4922000000.0 0.53293815666184 -0.904728878571573
4925000000.0 0.4615609633307628 -0.8888601873837626
4928000000.0 0.5370589419978729 -0.8695875372159894
4931000000.0 0.5405826726272647 -0.8891820015896341
4934000000.0 0.46389339271166685 -0.88492791719097
4938000000.0 0.4508417061566933 -0.9062452197252271
4941000000.0 0.5093513514191917 -0.8538440772019011
4944000000.0 0.4797955705934309 -0.8235743677937591
4947000000.0 0.49917071588658996 -0.8883217956075711
4950000000.0 0.45944090677054206 -0.9003180256778989
4953000000.0 0.4752297444083736 -0.9302347175655679
4956000000.0 0.47968112829265375 -0.9252784669586688
4959000000.0 0.4506715299585843 -0.896687412183746
4962000000.0 0.5183991201216187 -0.9278647698304593
4966000000.0 0.5256921314037785 -0.9070859017984612
4969000000.0 0.5469172411129449 -0.9248069355657755
4972000000.0 0.49540890767470636 -0.9184162434415591
4975000000.0 0.5482000339007861 -0.9009604440879346
4978000000.0 0.48378694036665637 -0.9151391397918353
4981000000.0 0.49452123280061633 -0.9100517383755111
4984000000.0 0.493050781054024 -0.8785002293576001
4988000000.0 0.5138309067792435 -0.8825412775069645
4991000000.0 0.5667826330467586 -0.876884627619871
4994000000.0 0.5180977599094216 -0.8748972238737908
4997000000.0 0.4828632755299337 -0.8887358566705625
5000000000.0 0.5904940084243127 -0.9118087890217292
5003000000.0 0.5475488568483083 -0.9173864042838873
5006000000.0 0.5573971085151999 -0.9436848910940742
5009000000.0 0.49774543699905305 -0.8809873253921239
5012000000.0 0.5148448484443013 -0.9015490949935125
5016000000.0 0.5812016831219046 -0.8996205920971903
5019000000.0 0.5197009871652467 -0.8909890865321776
5022000000.0 0.504703277267185 -0.8962273324779894
5025000000.0 0.5586888784857346 -0.9553585282993553
5028000000.0 0.5151119126086459 -0.9420000654378046
5031000000.0 0.5272095157292719 -0.901706343772115
5034000000.0 0.4821338397557204 -0.9464122352584698
5038000000.0 0.504106767567433 -0.8549243303980918
5041000000.0 0.5669324917582361 -0.9229700914453687
5044000000.0 0.5438347996728563 -0.8557631180058006
5047000000.0 0.54544423488183 -0.9217613372775246
5050000000.0 0.5711045802621949 -0.8393049366471199
5053000000.0 0.5269488161289971 -0.9351042915603377
5056000000.0 0.5601519070693303 -0.8700829649940409
5059000000.0 0.5881380707966858 -0.8519595507612355
5062000000.0 0.4985737021787785 -0.9336095703384591
5066000000.0 0.5496001492178673 -0.876978170598902
5069000000.0 0.5239507977281368 -0.8999963540897582
5072000000.0 0.5137110665343104 -0.8728618836213797
5075000000.0 0.5336293093851805 -0.8796645881382854
5078000000.0 0.4551113857360187 -0.9319458601749973
5081000000.0 0.4689887010004267 -0.8810369567876739
5084000000.0 0.535834428720467 -0.8891014539991966
5088000000.0 0.5032308956906586 -0.9099634294276693
5091000000.0 0.5059377946623762 -0.9007512703697482
5094000000.0 0.5366807221926179 -0.8835309319698426
5097000000.0 0.5501879697374856 -0.9102812127658731
5100000000.0 0.5237862058873969 -0.8375238954686524
5103000000.0 0.5056533690196476 -0.8832248587086233
5106000000.0 0.5390599411991333 -0.8835700498025753
5109000000.0 0.55477608390776 -0.9203083132087283
5112000000.0 0.5176321872966236 -0.9282352906996787
5116000000.0 0.4852017903818735 -0.8389955209530409
5119000000.0 0.5371825416419371 -0.952415969436362
5122000000.0 0.550093203487397 -0.8978807198520233
5125000000.0 0.571049386875621 -0.8621890030251576
5128000000.0 0.530450073436856 -0.8592126227968065
5131000000.0 0.5235883290187906 -0.8552341373019603
5134000000.0 0.5130959078763014 -0.9040605683058582
5138000000.0 0.5145004500032424 -0.8594712221755942
5141000000.0 0.5650936658333084 -0.9059671103538001
5144000000.0 0.5786873396446974 -0.9109133487878822
5147000000.0 0.5743277082351406 -0.8882287981627306
5150000000.0 0.572634471077905 -0.8800259160618409
5153000000.0 0.5396488942749972 -0.8979206487999669
5156000000.0 0.5414138758273598 -0.9181989327440853
5159000000.0 0.5705338944073317 -0.8893552354206878
5162000000.0 0.5049353669827986 -0.8793460588391704
5166000000.0 0.5214953774056534 -0.903635359067317
5169000000.0 0.5529836275099712 -0.8927894218211259
5172000000.0 0.5385930758754707 -0.8584842306911398
5175000000.0 0.5730995323361635 -0.9333936706514401
5178000000.0 0.5732328284754127 -0.9046282462529156
