! Created with skrf 1.8.0 (http://scikit-rf.org).
# Hz S RI R 50.0 
!freq ReS11 ImS11
4000000000.0 0.5504255714892998 -0.8554802607343132
4003000000.0 0.5721209056761347 -0.8981048013514208
4006000000.0 0.5335521919585355 -0.8774798899437471
4009000000.0000005 0.5555275325609991 -0.8727416848099447
4011999999.9999995 0.6152726165648374 -0.828231134375314
4016000000.0 0.5614067573232974 -0.8868014671423067
4019000000.0 0.5528896832507022 -0.8174151237586108
4022000000.0000005 0.6196023949395746 -0.8383532576608663
4025000000.0000005 0.5007289584346112 -0.9095549111279024
4027999999.9999995 0.5263341372046435 -0.8934687833846494
4030999999.9999995 0.5106577642687901 -0.8107171844066223
4034000000.0 0.518166085524691 -0.8603162209801609
4038000000.0000005 0.5537571340615112 -0.9190959443714506
4041000000.0000005 0.558470185301954 -0.8847007923417832
4043999999.9999995 0.5811302642069829 -0.9200195281708907
4046999999.9999995 0.5977174829675205 -0.8836864048088674
4050000000.0 0.5293888796606318 -0.8938007166585036
4053000000.0 0.5291639919331304 -0.8704623585922915
4056000000.0 0.5562861080328718 -0.8702644962075704
4059000000.0 0.5277122687367366 -0.8190194172538823
4062000000.0000005 0.5387355783561404 -0.9019804865816424
4066000000.0 0.5223505181824866 -0.8151771822917692
4069000000.0 0.5447896144273945 -0.8913436013966247
4072000000.0 0.5586130344975562 -0.8444976542767114
4075000000.0 0.5564985771504346 -0.8929241038064172
4078000000.0000005 0.5182235836260696 -0.8973371445281678
4081000000.0000005 0.5978456471046794 -0.8777896527100599
4083999999.9999995 0.5397357547616083 -0.8925743420313416
4088000000.0 0.5946912251282342 -0.8327265237756755
4091000000.0 0.5897827190048888 -0.9179920253534668
4094000000.0000005 0.5688751024265515 -0.8289889228451732
4097000000.0000005 0.5672964060808742 -0.8582883045250058
4099999999.9999995 0.5585954930742932 -0.8818406678140894
4102999999.9999995 0.5806872655637003 -0.8544941308270801
4106000000.0 0.5356393276153906 -0.8791906234818073
4109000000.0 0.5263818713636865 -0.8938301930203267
4112000000.0 0.49511731776884654 -0.8741040258006779
4115999999.9999995 0.5762196895755348 -0.8384192624979757
4119000000.0 0.5375285118326627 -0.8819777006842954
4122000000.0 0.5514155424958616 -0.9078417901340188
4125000000.0 0.5346316029053546 -0.8925001873541837
4128000000.0 0.5674329706190966 -0.841002035925526
4131000000.0 0.5566705651491297 -0.8405132313005134
4134000000.0000005 0.5574023902869754 -0.8441791634400458
4138000000.0 0.5086023041347091 -0.8692845984492149
4141000000.0 0.5099781112113126 -0.8391061580500583
4144000000.0 0.5550610924206146 -0.8983665132162622
4147000000.0000005 0.5349725160942849 -0.870199420170978
4150000000.0000005 0.5690968000801848 -0.9090418192301316
4152999999.9999995 0.5406556628822619 -0.8738429920644335
4155999999.9999995 0.5584386455417939 -0.8692922314550879
4159000000.0 0.5823304740613452 -0.8402471505159618
4162000000.0 0.5540160149328945 -0.8358505235505262
4166000000.0000005 0.5434167046620573 -0.8990570896844674
4168999999.9999995 0.564038192003427 -0.8531611078646258
4171999999.9999995 0.5363280937785735 -0.8878270018103551
4175000000.0 0.5493193039209376 -0.8332464377476911
4178000000.0 0.5430468827427858 -0.8591854080524952
4181000000.0 0.5571468765512617 -0.8773394757922303
4184000000.0 0.5292956405492577 -0.8627872236884332
4187999999.9999995 0.5433207878947566 -0.851278092800267
4191000000.0 0.5848692558018801 -0.8325623577962803
4194000000.0 0.5360437258109862 -0.8333067251474482
4197000000.0 0.5570304127371214 -0.8476630100501761
4200000000.0 0.5727475984998701 -0.8599560615644889
4203000000.0000005 0.5701260635831692 -0.8423415956573413
4206000000.0000005 0.5655558558258651 -0.8780083835298446
4208999999.9999995 0.5328933976398027 -0.837023173896846
4211999999.9999995 0.5391248759515681 -0.8754015273655923
4216000000.0 0.5780761544430212 -0.8496904920839262
4219000000.0000005 0.5663656760128595 -0.8580823745708501
4222000000.0000005 0.5334367081230837 -0.8614818997803755
4224999999.9999995 0.5469814679035225 -0.840746113963897
4227999999.9999995 0.5639162025536071 -0.8622354046850711
4231000000.0 0.5420379524424701 -0.8601838069413619
4234000000.0 0.5476640418354304 -0.8815554546876339
4238000000.0000005 0.5395066578206469 -0.8639037260800044
4240999999.9999995 0.5355209193364704 -0.8636831829978788
4244000000.0 0.5661732961016734 -0.8404148377757882
4247000000.0 0.5566079407850295 -0.8723075234601928
4250000000.0 0.5313709630299883 -0.8400153459591598
4253000000.0 0.5332710724829522 -0.8437286166624232
4256000000.0 0.540077497047166 -0.8674841998802206
4259000000.0000005 0.5403869722263606 -0.8431931243974022
4261999999.9999995 0.5079194411676529 -0.856139221807745
4266000000.0 0.539436608420818 -0.861009683674165
4269000000.0 0.5621067512615855 -0.8341603315836298
4272000000.0000005 0.5400150528645254 -0.8802655578230866
4275000000.0000005 0.5487904506547324 -0.8718014752762598
4277999999.9999995 0.5693883954985265 -0.8647929648773423
4280999999.9999995 0.5787399141132261 -0.8618022776944219
4284000000.0 0.5435143796037112 -0.8774065817341048
4288000000.0000005 0.5601323468106043 -0.8370929050616017
4291000000.0000005 0.5532122584004783 -0.8289730103884116
4293999999.9999995 0.5433995775945072 -0.8505158201131547
4297000000.0 0.5736998640370693 -0.8412996268244967
4300000000.0 0.540239083585941 -0.8420488092829852
4303000000.0 0.5141416636297498 -0.8572724010046082
4306000000.0 0.5796812500086229 -0.8588986342564839
4309000000.0 0.5365794636691186 -0.828116318251523
4312000000.0 0.6078862528453204 -0.8419261859436831
4316000000.0 0.5609058548746901 -0.8572169252826122
4319000000.0 0.534212682831332 -0.8376216919505889
4322000000.0 0.5053688015428448 -0.8607257500953672
4325000000.0 0.5418679689634669 -0.8203883605393222
4328000000.0 0.5356206038859826 -0.8192835180183283
4331000000.0 0.5065479696250834 -0.8569308115262256
4334000000.0 0.5438990036671415 -0.874670302631212
4338000000.0 0.5705920655473997 -0.8278698115423074
4341000000.0 0.5932950590890924 -0.8409176585516713
4344000000.0 0.5588971197394474 -0.8550437407132019
4347000000.0 0.53510715252942 -0.8817163360004568
4350000000.0 0.5198435342062827 -0.8243827014750179
4353000000.0 0.5388431189877496 -0.8192312079049526
4356000000.0 0.5241297207038156 -0.8271898937462371
4359000000.0 0.5213149321440111 -0.8170356373817776
4362000000.0 0.5036863913043765 -0.8774754146145036
4366000000.0 0.544834598383384 -0.8533592814949872
4369000000.0 0.529910757056115 -0.8439118649623949
4372000000.0 0.503813584333614 -0.8466678780450035
4375000000.0 0.5544013339254086 -0.839828486965539
4378000000.0 0.5287068164982308 -0.8245088435287545
4381000000.0 0.5473725182641707 -0.8285813853827003
4384000000.0 0.5650112533492557 -0.914865005654354
4388000000.0 0.5581378699896752 -0.8397135613653226
4391000000.0 0.5477866060949345 -0.8652903483058426
4394000000.0 0.5275800741996118 -0.8235268165469595
4397000000.0 0.5297388213571721 -0.8571921606985784
4400000000.0 0.5597358152546167 -0.8830479092426653
4403000000.0 0.5552283745604598 -0.844240279001933
4406000000.0 0.5101778599848443 -0.8581649257616082
4409000000.0 0.5484351820240451 -0.8694512381917583
4412000000.0 0.47585010423621954 -0.8704624395779472
4416000000.0 0.5316846805110529 -0.8527734611453802
4419000000.0 0.5317870327925565 -0.8624240102382666
4422000000.0 0.5339778247493596 -0.8421105279615335
4425000000.0 0.5673820074105438 -0.8566337985455368
4428000000.0 0.5237740074751318 -0.8504300983336283
4431000000.0 0.5551301463510827 -0.8621869111435934
4434000000.0 0.5153988484186425 -0.8559115997331335
4438000000.0 0.5570071864780879 -0.8683729512360939
4441000000.0 0.5496001471422864 -0.8756134065674744
4444000000.0 0.5191932971859081 -0.83650142789864
4447000000.0 0.5220239798430933 -0.8559331486376122
4450000000.0 0.525757381370692 -0.8342830042870728
4453000000.0 0.5582902573635473 -0.8617408282964516
4456000000.0 0.4953434064514772 -0.8423281539352581
4459000000.0 0.48583723758086494 -0.8406463216325114
4462000000.0 0.5375966124966963 -0.9031523224291613
4466000000.0 0.5378885841459703 -0.9111163445951647
4469000000.0 0.5412776596784477 -0.8556281267200463
4472000000.0 0.5185060335586242 -0.8942429370736914
4475000000.0 0.5181841698107373 -0.8284630643261542
4478000000.0 0.5100533930770493 -0.8975655835939473
4481000000.0 0.5026916720202944 -0.8463983295604098
4484000000.0 0.48298982662738116 -0.8695168133584243
4488000000.0 0.5078610627253619 -0.8526818983760671
4491000000.0 0.5266038103556995 -0.868704037173561
4494000000.0 0.5226243664254293 -0.8381109013320898
4497000000.0 0.5257517846181232 -0.8371496087216304
4500000000.0 0.5315235940177946 -0.8557677753414428
4503000000.0 0.5487251305508876 -0.8629357706352827
4506000000.0 0.523336128985238 -0.8586200306906422
4509000000.0 0.5093436341691334 -0.8451188404759165
4512000000.0 0.499905226776448 -0.8455662399092638
4516000000.0 0.5552287004155415 -0.8620351848912082
4519000000.0 0.5296940058745327 -0.83775835923263
4522000000.0 0.508063928040996 -0.8706441356816805
4525000000.0 0.5486267144915693 -0.8323351482306831
4528000000.0 0.5383608184112263 -0.9033012662825206
4531000000.0 0.5362909640777729 -0.8528636250086903
4534000000.0 0.5202890992848694 -0.8382430378872066
4538000000.0 0.5085148686217474 -0.862795893423108
4541000000.0 0.4966561992518338 -0.8572399552255985
4544000000.0 0.5215347925342105 -0.836285425927008
4547000000.0 0.5294298176885791 -0.8501535389381576
4550000000.0 0.4899797689666882 -0.8889527267584048
4553000000.0 0.5279011294319291 -0.8602330239490439
4556000000.0 0.495546264965533 -0.8632108525988926
4559000000.0 0.49413976982577185 -0.871511800829105
4562000000.0 0.5294058228239718 -0.8656415735499732
4566000000.0 0.52633257984056 -0.8630932314032769
4569000000.0 0.5127627685298124 -0.8592376821411268
4572000000.0 0.5241932573270979 -0.8647750306988564
4575000000.0 0.514195735294503 -0.8715868655233806
4578000000.0 0.5407588920461132 -0.8745730338327127
4581000000.0 0.5060848800821078 -0.8928997356753978
4584000000.0 0.5015634841744007 -0.8726904489127716
4588000000.0 0.5248719578627284 -0.8899164448518516
4591000000.0 0.5426138887460483 -0.863553859801546
4594000000.0 0.48563831072531777 -0.8580583439499235
4597000000.0 0.5149628430784755 -0.8968109031911757
4600000000.0 0.47898804627940084 -0.8740674908512015
4603000000.0 0.4849221985131737 -0.870401931995413
4606000000.0 0.5137419757966755 -0.8853646695282151
4609000000.0 0.5034194406596163 -0.8705907896294397
4612000000.0 0.5067964883901157 -0.8807920874628241
4616000000.0 0.487203118239041 -0.8518220296936432
4619000000.0 0.5039990156245477 -0.8717517958411896
4622000000.0 0.5007803225725007 -0.865807994942348
4625000000.0 0.47886787619601423 -0.8435640614636261
4628000000.0 0.511884790445778 -0.8570048569184274
4631000000.0 0.47606985236672106 -0.868457537974026
4634000000.0 0.49809963937210167 -0.866475866315385
4638000000.0 0.5200053479543606 -0.8763189549698667
4641000000.0 0.5129289019186006 -0.861745815478483
4644000000.0 0.50298254324992 -0.8767668811429955
4647000000.0 0.5144168738011148 -0.8838952380438312
4650000000.0 0.4847771679478201 -0.8696438184953962
4653000000.0 0.5132156276615951 -0.8734139054011487
4656000000.0 0.49309096923709395 -0.8751186889795282
4659000000.0 0.4979751087535914 -0.8881940934691832
4662000000.0 0.5098841421579834 -0.8918567826576849
4666000000.0 0.5044375900208508 -0.8999529926454612
4669000000.0 0.5015195683285602 -0.8899876474550775
4672000000.0 0.49640941577108877 -0.9100005547057541
4675000000.0 0.47733412381508666 -0.8859741413214606
4678000000.0 0.5136004588794908 -0.874766651676973
4681000000.0 0.4821368686520572 -0.894869544996049
4684000000.0 0.47273599105123243 -0.8970610809695301
4688000000.0 0.47461599042932306 -0.8848149265425485
4691000000.0 0.5211282320438262 -0.8735055057066397
4694000000.0 0.5139158029207581 -0.8778590185353824
4697000000.0 0.46166339916899046 -0.8694510733264305
4700000000.0 0.5020943179920802 -0.8705974602305461
4703000000.0 0.5122323743501063 -0.8385812986221423
4706000000.0 0.5038127978706303 -0.869488527471173
4709000000.0 0.4898637195116949 -0.8928406364185495
4712000000.0 0.5073057047341295 -0.8789569352522284
4716000000.0 0.4956611757172768 -0.8859388061155138
4719000000.0 0.5263772744969928 -0.872326529577965
4722000000.0 0.5120713950343853 -0.8585527937396253
4725000000.0 0.5110796614310694 -0.8777517828411587
4728000000.0 0.49591418704196155 -0.8863485875275383
4731000000.0 0.5326419119285851 -0.8981098636509062
4734000000.0 0.541530762080766 -0.8474099277337821
4738000000.0 0.5471456924128018 -0.8942347866330795
4741000000.0 0.5050253893311666 -0.8731073593179174
4744000000.0 0.4823407933873042 -0.9205245737608877
4747000000.0 0.5103802414227633 -0.8562337405359856
4750000000.0 0.5137293145784263 -0.8937985272714637
4753000000.0 0.4761968583188538 -0.8815851770636923
4756000000.0 0.48300141508043676 -0.8925285744680197
4759000000.0 0.483400466449499 -0.9130436502081865
4762000000.0 0.4869761257042858 -0.9160598239681151
4766000000.0 0.486035314358222 -0.8973996745994818
4769000000.0 0.51214815695422 -0.8949787507257126
4772000000.0 0.5119433345787847 -0.908904546084832
4775000000.0 0.5005156272548295 -0.9464395103314596
4778000000.0 0.5113632287121795 -0.9138196055808556
4781000000.0 0.5407473037629511 -0.8976969171868182
4784000000.0 0.49781822043895574 -0.8801693495835142
4788000000.0 0.4919818696535325 -0.9124532612814027
4791000000.0 0.47348757119263574 -0.8837054152420998
4794000000.0 0.5349018228638696 -0.9042322870567423
4797000000.0 0.46804667349390205 -0.861749336567108
4800000000.0 0.47642364260755715 -0.888551483759925
4803000000.0 0.4576676553652618 -0.8932955019547584
4806000000.0 0.49313977750768556 -0.8986383644845457
4809000000.0 0.47077492292739914 -0.9059293439496183
4812000000.0 0.45062336240916334 -0.9028368644697377
4816000000.0 0.4944481764961809 -0.8481644050802648
4819000000.0 0.5336005130284027 -0.9049564920202873
4822000000.0 0.5261209581911928 -0.9155278386314993
4825000000.0 0.5344015553862849 -0.9008946776328983
4828000000.0 0.48794231937752075 -0.87488294963813
4831000000.0 0.4602937584308546 -0.9285486783941134
4834000000.0 0.5169859540631121 -0.9049604887074885
4838000000.0 0.4760899766090704 -0.9255747925562146
4841000000.0 0.4659431305327816 -0.8982143267994586
4844000000.0 0.5127531890011424 -0.9066339246450759
4847000000.0 0.5074256152715002 -0.86364870881426
4850000000.0 0.4858477951435726 -0.9333276680174397
4853000000.0 0.4846645284913349 -0.8664963715593786
4856000000.0 0.4954442051297189 -0.8770829950375303
4859000000.0 0.5173341878185146 -0.9224571964280214
4862000000.0 0.4941077864420269 -0.8615177787410364
4866000000.0 0.4998686078641764 -0.9131386670039034
4869000000.0 0.4661012616707786 -0.8881520094138555
4872000000.0 0.4985232144398256 -0.9563361340249036
4875000000.0 0.5620184624600609 -0.9249888295951838
4878000000.0 0.49118823006089485 -0.9264131207658456
4881000000.0 0.49269729980648874 -0.9589568704982339
4884000000.0 0.5198852012210716 -0.9133652854199693
4888000000.0 0.5088317765527596 -0.870684493040997
4891000000.0 0.5333588012576909 -0.8950660411578205
4894000000.0 0.5027185506836462 -0.8932883650367248
4897000000.0 0.5052097400639273 -0.8674372156965486
4900000000.0 0.5171905120265231 -0.9141186063609043
4903000000.0 0.5252608601159172 -0.8750997346010863
4906000000.0 0.49784618214946647 -0.9266783870644653
4909000000.0 0.4884721746500916 -0.9122103226958282
4912000000.0 0.5041120294034555 -0.9415725523809937
4916000000.0 0.5202879483570929 -0.8910887012149368
4919000000.0 0.5416326757087954 -0.9296343681909408
4922000000.0 0.5639367856567865 -0.860763692858227
4925000000.0 0.47047728486438956 -0.8784642086909396
4928000000.0 0.5440465081068872 -0.8735825161611716
4931000000.0 0.5124584264284758 -0.9058766510057835
4934000000.0 0.49861613761676843 -0.854000558068759
4938000000.0 0.44913527771345674 -0.8816843217938806
4941000000.0 0.5146009609360153 -0.8822972893896908
4944000000.0 0.4960898166672813 -0.8424468814036257
4947000000.0 0.5040962629535031 -0.8805877358113474
4950000000.0 0.48828595637540095 -0.8758503887490976
4953000000.0 0.4780941993977329 -0.946367657590116
4956000000.0 0.5049835513464686 -0.9147318654636577
4959000000.0 0.4404384816401893 -0.8845371131899555
4962000000.0 0.5138677911337104 -0.9321062809557672
4966000000.0 0.5340092268128909 -0.9247076850028039
4969000000.0 0.5760435511082932 -0.9310746159101153
4972000000.0 0.5341593784786537 -0.9276950276002037
4975000000.0 0.5488230740663247 -0.8847016702583098
4978000000.0 0.5097358595684096 -0.8867681809493074
4981000000.0 0.502898925003495 -0.8933909375658371
4984000000.0 0.5003776528902736 -0.8493061910305371
4988000000.0 0.5233208158708138 -0.8889840846200346
4991000000.0 0.558570986253801 -0.8875650902617045
4994000000.0 0.5381467523214157 -0.8722433809447504
4997000000.0 0.4754842277835405 -0.9081234798160689
5000000000.0 0.5326601381794028 -0.9269324875324719
5003000000.0 0.5441578617004481 -0.9288517881124574
5006000000.0 0.5386322637519244 -0.9521793621979922
5009000000.0 0.5319558207917936 -0.9044025453574708
5012000000.0 0.5040211018783137 -0.9120097073803122
5016000000.0 0.5637030392228182 -0.8893107656323698
5019000000.0 0.48941967219204996 -0.9046346316566214
5022000000.0 0.509759988845542 -0.8811040353681092
5025000000.0 0.5388649683767126 -0.9656646780388268
5028000000.0 0.5039235850018231 -0.8956652195024466
5031000000.0 0.4973576324792421 -0.8761829093225552
5034000000.0 0.5331751939793923 -0.9116834218097298
5038000000.0 0.4760849146536103 -0.8967272962017853
5041000000.0 0.57801842610071 -0.9137808971475689
5044000000.0 0.5396111878848436 -0.8336432486954103
5047000000.0 0.5208238119925329 -0.8854164613051863
5050000000.0 0.5696981949406584 -0.8597410961602409
5053000000.0 0.5448699216944617 -0.9030293213130463
5056000000.0 0.5857805698392607 -0.8631372140690405
5059000000.0 0.5854619972671458 -0.8823925198045899
5062000000.0 0.514503283346061 -0.930831325138914
5066000000.0 0.5657687279965666 -0.8625137986871565
5069000000.0 0.5637874426606047 -0.8977349834125337
5072000000.0 0.5352983397305396 -0.8494680693817058
5075000000.0 0.5534505550832842 -0.832322532191794
5078000000.0 0.4877969095117644 -0.8957429885451569
5081000000.0 0.47485127623711415 -0.855434678929323
5084000000.0 0.5690001299605305 -0.9267733675509422
5088000000.0 0.5399769159235113 -0.8826391275771561
5091000000.0 0.5187296250272813 -0.8932798365738063
5094000000.0 0.5087835099959626 -0.9386626487087661
5097000000.0 0.5922589913704828 -0.8594866408130739
5100000000.0 0.5002279802898604 -0.8716603930542137
5103000000.0 0.539527555558919 -0.9207976392898167
5106000000.0 0.572077998170662 -0.937715525913813
5109000000.0 0.554013749713947 -0.8315750783808118
5112000000.0 0.5365989920612764 -0.8610923499002305
5116000000.0 0.5067570213105534 -0.8471875202799415
5119000000.0 0.52891901722437 -0.9314094360191841
5122000000.0 0.5732928383808983 -0.8621862732466599
5125000000.0 0.5548208175797305 -0.8423899631477048
5128000000.0 0.5386128303968426 -0.9073492979243272
5131000000.0 0.5545377081860682 -0.8470524176543444
5134000000.0 0.5071479193971484 -0.9151457991744094
5138000000.0 0.5649779056908064 -0.8558884883867162
5141000000.0 0.5932557146536677 -0.8699539295189247
5144000000.0 0.568798802409142 -0.8759689433422795
5147000000.0 0.6021483048724969 -0.9049174838109952
5150000000.0 0.5780748829987875 -0.8708614162576531
5153000000.0 0.5668011538194095 -0.8873834073958614
5156000000.0 0.5390950298651488 -0.8757486745449445
5159000000.0 0.5930298830409942 -0.8840885301092314
5162000000.0 0.5527243622397815 -0.9067933642376529
5166000000.0 0.5180469628900695 -0.9490120159581277
5169000000.0 0.5414208343249266 -0.8833204737789838
5172000000.0 0.5305223711032343 -0.843592952107683
5175000000.0 0.5397872281561937 -0.8900269737942705
5178000000.0 0.535982795529358 -0.9027552576164999
