! Created with skrf 1.8.0 (http://scikit-rf.org).
# Hz S RI R 50.0 
!freq ReS11 ImS11
4000000000.0 0.3796882902691639 -0.9754146531115278
4003000000.0 0.3612904339331993 -1.0341112992186954
4006000000.0 0.25610455479407884 -0.9682236777444045
4009000000.0000005 0.34518680956582776 -0.9705381992484178
4011999999.9999995 0.3609911585082438 -0.9735003759615596
4016000000.0 0.31155248879758146 -1.002746662825091
4019000000.0 0.2934746397542546 -0.9824093739210655
4022000000.0000005 0.34794630850092256 -1.0010434870571672
4025000000.0000005 0.2971710877571032 -0.9856751629094488
4027999999.9999995 0.27412340660658807 -0.9870856425525604
4030999999.9999995 0.3320211392615461 -0.9245193979917624
4034000000.0 0.2904273985478103 -0.9919379752044174
4038000000.0000005 0.28123664639963136 -0.9788276614465841
4041000000.0000005 0.3154948549514187 -0.9780125974188985
4043999999.9999995 0.3305256996166374 -1.0258935461859906
4046999999.9999995 0.3867282621127597 -0.9780604511236269
4050000000.0 0.3090755332087043 -0.993496028238452
4053000000.0 0.3113749844554011 -0.98001064782187
4056000000.0 0.2919149967193313 -1.0007178697120287
4059000000.0 0.30597909947573537 -0.9637923426854476
4062000000.0000005 0.2818158908739068 -1.0005640424414617
4066000000.0 0.2907200752540771 -0.9657626098695975
4069000000.0 0.2733570164106269 -1.0334336818681253
4072000000.0 0.33316674798374757 -0.9409984386441387
4075000000.0 0.3397085507271339 -1.017974068424665
4078000000.0000005 0.2836694693435827 -0.9823709776457253
4081000000.0000005 0.3336665813588501 -0.9705148991584643
4083999999.9999995 0.29616652515380193 -0.9931623087025991
4088000000.0 0.3203017683204694 -0.9462348120657351
4091000000.0 0.3013108942108357 -0.9886505824908529
4094000000.0000005 0.30740167138799235 -0.9823224929766566
4097000000.0000005 0.2575262233931412 -0.9960755750933996
4099999999.9999995 0.25589289898262335 -0.9754401011124882
4102999999.9999995 0.3169013419349213 -0.9739192801243413
4106000000.0 0.2462220659702563 -1.0006738841347955
4109000000.0 0.27841974049155205 -1.0164971480208078
4112000000.0 0.30227813316709345 -0.9730665435561362
4115999999.9999995 0.2922100963234687 -1.0122656609217047
4119000000.0 0.30483828683174774 -0.9992336352402671
4122000000.0 0.23028245898269795 -0.9449613747306806
4125000000.0 0.27687864878682156 -0.9835677717996554
4128000000.0 0.2948942960432319 -0.9408570540723317
4131000000.0 0.2867426410467832 -0.9749122503088142
4134000000.0000005 0.3065713061569758 -0.9467478132354586
4138000000.0 0.24352172140568024 -0.9756393585141733
4141000000.0 0.27250958632167754 -0.9653684693742071
4144000000.0 0.2940614439942759 -0.9805206260367122
4147000000.0000005 0.2690546043437804 -1.0008632859520974
4150000000.0000005 0.24728610141373625 -1.008049891676964
4152999999.9999995 0.2718542004869659 -0.9590422907987657
4155999999.9999995 0.27331143702049926 -0.9868278824326393
4159000000.0 0.2827137709662755 -0.9605936368405802
4162000000.0 0.2644607707315969 -0.9794935100997
4166000000.0000005 0.28211184383667165 -1.001798384153763
4168999999.9999995 0.2404968259988995 -0.975219518483335
4171999999.9999995 0.2628942673793895 -0.9984387777986724
4175000000.0 0.2603028803728099 -0.9909749410414752
4178000000.0 0.28985393216838895 -0.982362971828917
4181000000.0 0.24045577447829608 -0.975903196105071
4184000000.0 0.25890927909185957 -0.9606329577570628
4187999999.9999995 0.27643047875785237 -0.9477134330515329
4191000000.0 0.2694282869183685 -0.9798386366686425
4194000000.0 0.25477599410856794 -0.9736124289400221
4197000000.0 0.25739492868717395 -0.9999253907094702
4200000000.0 0.2849838490130947 -0.9812156617619022
4203000000.0000005 0.2691427784950316 -1.008809718717761
4206000000.0000005 0.25990762070957657 -0.9935868919224939
4208999999.9999995 0.2487455532734407 -0.9620534684261441
4211999999.9999995 0.2131227822989731 -0.9737909536231352
4216000000.0 0.27037767991359535 -0.9916181459643839
4219000000.0000005 0.25254577841713705 -0.9991429001881499
4222000000.0000005 0.24414459541963707 -0.9944598959805154
4224999999.9999995 0.24076558913048038 -0.9763675460107197
4227999999.9999995 0.2382044930504542 -0.9899377279779998
4231000000.0 0.22589884504591207 -1.0079957144824612
4234000000.0 0.21860093860988994 -1.0096704835649104
4238000000.0000005 0.20789779682352377 -0.9898626215369929
4240999999.9999995 0.19698668020165394 -0.9730339089067944
4244000000.0 0.22644190557846688 -0.9650038527667378
4247000000.0 0.22748310431789748 -0.9656281907030475
4250000000.0 0.20923899278858102 -0.9654937168153873
4253000000.0 0.21414797101933408 -0.9599027659346343
4256000000.0 0.2254849716329398 -1.019456022894178
4259000000.0000005 0.1960822158162946 -0.9482897969965639
4261999999.9999995 0.2050199431812179 -0.9866377953145234
4266000000.0 0.18960447979480977 -0.9993907627298841
4269000000.0 0.22175012156939194 -0.9942606299945994
4272000000.0000005 0.2211645034761506 -0.9666346231549112
4275000000.0000005 0.21994603731625373 -1.0098631272589242
4277999999.9999995 0.22041548959432855 -1.0108234812164454
4280999999.9999995 0.22770309152516818 -1.0141599870205293
4284000000.0 0.16738830842521085 -1.0022708237836293
4288000000.0000005 0.23708272635314287 -0.9573105624322563
4291000000.0000005 0.19671372850231583 -0.9563144570196017
4293999999.9999995 0.18620379389911712 -0.9958263343553833
4297000000.0 0.21774676143507374 -0.9830408325400797
4300000000.0 0.19739691507425688 -0.9614291584071497
4303000000.0 0.1875934615550714 -0.942035882470085
4306000000.0 0.22302457987959698 -0.9762558536034088
4309000000.0 0.19671807287570212 -0.9830298642040174
4312000000.0 0.23437625655491912 -0.9951529014140547
4316000000.0 0.2039882169775875 -0.9826317014580926
4319000000.0 0.17286480206029942 -0.9682238026819974
4322000000.0 0.160898657875357 -0.9763907094930733
4325000000.0 0.19576703328592604 -0.9750131146126548
4328000000.0 0.17787790564903716 -0.9774983062266721
4331000000.0 0.15049037902131474 -1.0084529487381453
4334000000.0 0.17277500546126906 -0.9970476684127456
4338000000.0 0.17827271178574577 -0.9815914520737186
4341000000.0 0.1970515724774074 -1.0183954275498697
4344000000.0 0.19043671135467033 -1.0060819853134686
4347000000.0 0.13864291365599934 -1.0079861380653252
4350000000.0 0.141741765194347 -0.9739315745485424
4353000000.0 0.16868554400028807 -0.9718710951626518
4356000000.0 0.11726477827558113 -0.9794893585060914
4359000000.0 0.131558619412653 -0.9541292863733579
4362000000.0 0.11011774518507028 -1.0077514888994403
4366000000.0 0.13711569926051137 -1.0222006325566082
4369000000.0 0.13143238704315968 -0.9680376171968789
4372000000.0 0.09926372888696211 -0.9918481858818884
4375000000.0 0.15773922222023146 -1.0025125216696762
4378000000.0 0.13021243614118072 -0.9589491241683952
4381000000.0 0.13351539310442606 -0.9714534796411556
4384000000.0 0.12995570588912853 -1.0549362984437516
4388000000.0 0.13179269971650698 -0.9876715839404628
4391000000.0 0.12956119651443 -1.0021029618480928
4394000000.0 0.10638398250005898 -0.9912192193139939
4397000000.0 0.11115045062206902 -0.9976173712308507
4400000000.0 0.11237098536724072 -1.0249755456672245
4403000000.0 0.1089133359344861 -1.0126301920586314
4406000000.0 0.10154689265883649 -1.0109058370465143
4409000000.0 0.10674088042261998 -1.030727757216925
4412000000.0 0.058964427429644306 -0.9940269170266909
4416000000.0 0.09328844730733321 -0.9816012508361002
4419000000.0 0.08206639852174336 -1.0073957981473094
4422000000.0 0.11568467446631253 -1.0067285656538625
4425000000.0 0.11908363083204143 -1.0098904816901306
4428000000.0 0.07945068936824567 -1.0213805415666306
4431000000.0 0.10180631737894058 -1.0078229347350447
4434000000.0 0.08554612507143255 -1.0095668363242547
4438000000.0 0.09159029222862353 -1.015980860869045
4441000000.0 0.08028354709414975 -1.020382966976197
4444000000.0 0.07636532171197241 -1.0016763336145216
4447000000.0 0.07431787710292787 -1.0125515872479864
4450000000.0 0.06916361799360937 -1.0008917239741033
4453000000.0 0.07367150769670511 -1.0223751827046603
4456000000.0 0.05808332277727518 -1.0064234069516225
4459000000.0 0.051650673417062754 -0.9831155061633747
4462000000.0 0.07201095419488207 -1.042044527082426
4466000000.0 0.05129202946969147 -1.0505126543397378
4469000000.0 0.05842243325693369 -1.0158242697548856
4472000000.0 0.027536208635986326 -1.0237810467782869
4475000000.0 0.03647278777341556 -0.992857707137923
4478000000.0 0.032033741532733084 -1.019428659033404
4481000000.0 0.018966280806426872 -0.9864143990596452
4484000000.0 -0.010271608923042463 -1.031622778844218
4488000000.0 0.01677795691735673 -1.0215497713111197
4491000000.0 0.0284054658879882 -1.0118124857339457
4494000000.0 0.0311675388188265 -0.9959973952154173
4497000000.0 0.036540748579594884 -1.0147380017186223
4500000000.0 0.017589195241291766 -1.0365393128541485
4503000000.0 0.004487277044308513 -1.0191235695872032
4506000000.0 -0.008216518495027525 -1.0336728370427477
4509000000.0 0.010223239606791334 -0.9963242423468179
4512000000.0 -0.007842901328626473 -0.9955441010726478
4516000000.0 0.0023263949827106445 -1.0337855160007037
4519000000.0 -0.010117291409967921 -1.010066231348027
4522000000.0 -0.023077452932425524 -1.0161543430421693
4525000000.0 0.0017197456637675357 -1.0071727493665685
4528000000.0 -0.006938322854689261 -1.0274100657114364
4531000000.0 -0.014063706755483407 -1.0078840138683054
4534000000.0 -0.03653219297531962 -1.0108163415185467
4538000000.0 -0.005508876707918442 -1.0163262308645813
4541000000.0 -0.044967782210059426 -0.9844482818721392
4544000000.0 -0.03842882517276025 -1.0085255688889396
4547000000.0 -0.05501184296472911 -1.0082796985738007
4550000000.0 -0.054872053464832204 -1.036037709690832
4553000000.0 -0.07114975597827988 -0.9841806967475349
4556000000.0 -0.06828715259269075 -1.0050557290507163
4559000000.0 -0.053411602341983055 -1.02547940431704
4562000000.0 -0.0606513969335844 -1.014503742944337
4566000000.0 -0.06420368681977673 -1.0199245760122726
4569000000.0 -0.07127948840380322 -1.0250691841536343
4572000000.0 -0.07512171749716567 -1.029598750242486
4575000000.0 -0.07846373339132773 -1.0086594018146844
4578000000.0 -0.10131902688111749 -1.0201459736414942
4581000000.0 -0.08897084287866136 -1.0054401852912933
4584000000.0 -0.08684837481188745 -1.0147851721438474
4588000000.0 -0.0893211285020778 -1.0209712881463882
4591000000.0 -0.10402377353141445 -1.0048522635569728
4594000000.0 -0.12025997796440857 -1.0037255981532591
4597000000.0 -0.10184938172571775 -1.0019846063738134
4600000000.0 -0.1037135038005717 -1.036014804898663
4603000000.0 -0.13063074426454482 -0.9845457858933347
4606000000.0 -0.11798952886225841 -1.0255290200647247
4609000000.0 -0.10865711813350121 -1.0059950439902927
4612000000.0 -0.1256068259180889 -0.9820838057814801
4616000000.0 -0.15029410024486994 -0.9929571206735707
4619000000.0 -0.14021782699015345 -0.9835401936609979
4622000000.0 -0.1695438454046629 -1.000835797646218
4625000000.0 -0.1633221933443344 -1.0033095834271704
4628000000.0 -0.16945802116789374 -1.069466584190709
4631000000.0 -0.1495538034524918 -1.021199492988601
4634000000.0 -0.1586181402140116 -1.0060892619122364
4638000000.0 -0.14818689080442282 -1.0017114778248937
4641000000.0 -0.15496705452220516 -0.9852120256274969
4644000000.0 -0.1502810677128512 -0.9915337791009279
4647000000.0 -0.15914306549851007 -1.0046164015022037
4650000000.0 -0.18382078683731978 -0.9983808377453759
4653000000.0 -0.19046044283108293 -1.019298933510828
4656000000.0 -0.194068064358471 -1.016531661086597
4659000000.0 -0.21508377594229108 -1.0059859206703965
4662000000.0 -0.22479071435030493 -1.030144972897675
4666000000.0 -0.24899088286901522 -1.039928169847615
4669000000.0 -0.2394822508038343 -0.9980226517109358
4672000000.0 -0.23354882865562854 -1.0220518092024835
4675000000.0 -0.22636808306643377 -1.0024559657867789
4678000000.0 -0.25140650780378215 -0.950042592402194
4681000000.0 -0.23236220968269355 -0.9880357013139928
4684000000.0 -0.2779235345728415 -1.0376732288389805
4688000000.0 -0.2778573014253949 -1.013003499678098
4691000000.0 -0.23364788947519557 -1.0486308193667324
4694000000.0 -0.21332930580775508 -1.0066016150831048
4697000000.0 -0.27432426682656963 -0.9184642055064142
4700000000.0 -0.24335492134480072 -0.9669764634060058
4703000000.0 -0.16564492210261736 -0.9381754474800308
4706000000.0 -0.29787905014361227 -0.9705390359656229
4709000000.0 -0.2650851505983379 -0.9671031190061776
4712000000.0 -0.22885099721766025 -1.0067390386999129
4716000000.0 -0.3086158102184819 -1.0107922571486103
4719000000.0 -0.25267969053124606 -1.0078555213674187
4722000000.0 -0.2489949169399902 -0.9850252380272639
4725000000.0 -0.27314808685612124 -0.9800298365163709
4728000000.0 -0.322985106686271 -0.976305138968528
4731000000.0 -0.329071700996606 -1.0192960195744463
4734000000.0 -0.2666657719312726 -0.9975454639952975
4738000000.0 -0.28951544056245176 -1.0484281665721509
4741000000.0 -0.36075488202308226 -1.0537968712268961
4744000000.0 -0.35909239584519054 -0.9876229774514408
4747000000.0 -0.2841476484748864 -0.9614564232987193
4750000000.0 -0.3237600510627697 -0.972353443910727
4753000000.0 -0.3407346965686897 -0.9892240340993708
4756000000.0 -0.37471853469254035 -0.9796658669862333
4759000000.0 -0.35434529312587576 -1.0104000642300228
4762000000.0 -0.3954499473452931 -1.011259601914324
4766000000.0 -0.3521641631828034 -0.9523610600324135
4769000000.0 -0.3943585357708373 -0.9650924295653174
4772000000.0 -0.35855186933585415 -0.9723732714100297
4775000000.0 -0.43495475983808857 -0.9965230880023357
4778000000.0 -0.43584878321256626 -0.9708164363962866
4781000000.0 -0.4079918561458006 -0.929824756215321
4784000000.0 -0.41205666685040104 -0.9741978257535171
4788000000.0 -0.43399179309344454 -0.9607212702395174
4791000000.0 -0.3826938641067725 -0.9294362640139965
4794000000.0 -0.4066348633120752 -0.9782261586205743
4797000000.0 -0.41632999266835025 -0.9291906990494615
4800000000.0 -0.4249568410549154 -0.9273653061200886
4803000000.0 -0.4847458686219075 -0.9203247145169362
4806000000.0 -0.4685352030789497 -0.9562653858294604
4809000000.0 -0.5177218271062187 -0.9049980256573871
4812000000.0 -0.5136410730736526 -0.8981440743505192
4816000000.0 -0.42336119238987047 -0.9336829965632727
4819000000.0 -0.4462931918095613 -0.9561654547489177
4822000000.0 -0.4708068463423041 -0.9641948943305976
4825000000.0 -0.47524240765322623 -0.9641284251560095
4828000000.0 -0.49198087532061074 -0.8889123330359949
4831000000.0 -0.5330994329797805 -0.8943543888681323
4834000000.0 -0.503899058066304 -0.9172358685211428
4838000000.0 -0.5454192426814437 -0.9066907762932335
4841000000.0 -0.5152727640605139 -0.8765781012793755
4844000000.0 -0.5261905702337561 -0.9510497611749562
4847000000.0 -0.4928481670400294 -0.8828149650262145
4850000000.0 -0.5864871760039175 -0.8922362859088327
4853000000.0 -0.5648105085267273 -0.8566194546960788
4856000000.0 -0.5588717362120973 -0.8866208555102819
4859000000.0 -0.6352712501357138 -0.8655470410003934
4862000000.0 -0.5281320703750739 -0.8888719085650626
4866000000.0 -0.5868743685473934 -0.8630274703248824
4869000000.0 -0.5861879172143761 -0.863572713080251
4872000000.0 -0.6223682508899026 -0.8765632088364409
4875000000.0 -0.6120586188701806 -0.9201921897312825
4878000000.0 -0.6223102663718117 -0.8205451542648161
4881000000.0 -0.6565546630134256 -0.8599621165582203
4884000000.0 -0.5991710994926942 -0.8661623814103756
4888000000.0 -0.6158915246488703 -0.8607505004065727
4891000000.0 -0.6601240371459327 -0.8290751950301405
4894000000.0 -0.6565192984274051 -0.8109414028664449
4897000000.0 -0.6676698074756396 -0.7778930261418139
4900000000.0 -0.649937093166383 -0.8120560659393335
4903000000.0 -0.6735138758881083 -0.7998778302655203
4906000000.0 -0.6774555890611774 -0.7802717052635847
4909000000.0 -0.683831804540495 -0.7717645829878359
4912000000.0 -0.7305502017769139 -0.7440650273334104
4916000000.0 -0.7224013558611263 -0.7260918281090202
4919000000.0 -0.6748369718816887 -0.7737908165091849
4922000000.0 -0.661949699493946 -0.728615552838499
4925000000.0 -0.7078287010919361 -0.7321004200878799
4928000000.0 -0.6942672252208181 -0.7629210737319978
4931000000.0 -0.7311140531311014 -0.7323452411634782
4934000000.0 -0.7441003169268046 -0.7021788158046167
4938000000.0 -0.7955974183050737 -0.6732835443567888
4941000000.0 -0.7404062516225947 -0.6857664868013231
4944000000.0 -0.7707083730114389 -0.6947366290072637
4947000000.0 -0.791144375588344 -0.6869881357302461
4950000000.0 -0.7791927805969973 -0.679122101221615
4953000000.0 -0.7900063925153843 -0.6560477516432812
4956000000.0 -0.784251102079861 -0.6717234578159128
4959000000.0 -0.8343329193384581 -0.6197261953047734
4962000000.0 -0.8515956435017853 -0.6321699779125031
4966000000.0 -0.8362276798282741 -0.6442077172001102
4969000000.0 -0.8682391361793483 -0.6126952825913965
4972000000.0 -0.7983565976833181 -0.5669141654240362
4975000000.0 -0.8924591616708755 -0.5755756764836684
4978000000.0 -0.8744182435993545 -0.5461059502339497
4981000000.0 -0.860506098851153 -0.5294093516139514
4984000000.0 -0.8752647024435926 -0.5305143193997042
4988000000.0 -0.8910231045978017 -0.5517203505892172
4991000000.0 -0.913052249132306 -0.5187037569064874
4994000000.0 -0.9031558354003824 -0.4791520370293666
4997000000.0 -0.9345224090305655 -0.4809489284163425
5000000000.0 -0.9181496920470931 -0.46272165077921634
5003000000.0 -0.9246935730936954 -0.4363085166216317
5006000000.0 -0.9157821233939318 -0.4272596008293269
5009000000.0 -0.9581018189703912 -0.38231295260585896
5012000000.0 -1.0278026887923637 -0.4198469309788266
5016000000.0 -0.9370952510852747 -0.39111118032545705
5019000000.0 -0.968602473238502 -0.3747683358520833
5022000000.0 -1.0066965157942973 -0.335655382919878
5025000000.0 -0.932710089879634 -0.3283881659450622
5028000000.0 -0.9268941535068804 -0.3292451946566566
5031000000.0 -1.0043220715790913 -0.3001346909562556
5034000000.0 -1.0048248698281899 -0.3232719404924833
5038000000.0 -0.9847103522253694 -0.30747656678174584
5041000000.0 -0.969760385486765 -0.25741101842248926
5044000000.0 -0.960338406740531 -0.2475111331621883
5047000000.0 -0.9931346080279357 -0.181893051618431
5050000000.0 -1.020718818763016 -0.1709712661440146
5053000000.0 -0.9540686494087333 -0.13629460445326597
5056000000.0 -0.9938591755228492 -0.10396542317066887
5059000000.0 -1.0282304204829928 -0.09855244425539345
5062000000.0 -1.043284718231591 -0.08768502440798592
5066000000.0 -1.0632451742482114 -0.028751991588253145
5069000000.0 -1.0154690064840184 -0.07028287080772383
5072000000.0 -1.0768515587009562 -0.10567137801891346
5075000000.0 -0.9705454574415939 -0.0012312122602998743
5078000000.0 -1.019975202143497 -0.0571832141786805
5081000000.0 -1.031871871966402 0.05792227474304995
5084000000.0 -0.928376873991672 0.055408235232450254
5088000000.0 -0.9864249145161894 0.08960693761469285
5091000000.0 -0.9806605536238486 0.09851157186498882
5094000000.0 -0.9677897900613368 0.17533979618193585
5097000000.0 -0.9140616787766892 0.21800478718856975
5100000000.0 -0.9721772891685756 0.23002380007653667
5103000000.0 -0.9832411768815201 0.25383759425694075
5106000000.0 -0.9187424322788766 0.2495464715341253
5109000000.0 -0.9684617327039298 0.24512863728874712
5112000000.0 -0.9511970526660779 0.2800226920177894
5116000000.0 -1.0066872170251409 0.3024017290838082
5119000000.0 -0.93797793461632 0.4172096004562148
5122000000.0 -0.9167648794031975 0.4418361083402921
5125000000.0 -0.9130998804838667 0.2852839112777471
5128000000.0 -0.9262269817781472 0.3824495628913319
5131000000.0 -0.9936430132786388 0.45093541177586305
5134000000.0 -0.8465033311854009 0.46973531114644235
5138000000.0 -0.8518343942461031 0.4555369250996776
5141000000.0 -0.9130174734603529 0.5007728342757801
5144000000.0 -0.7909315063444634 0.5544059705236093
5147000000.0 -0.8636993890530911 0.5587609035580609
5150000000.0 -0.8362459047238162 0.5760404813084544
5153000000.0 -0.8844045142372997 0.6604572417792701
5156000000.0 -0.7839734921386667 0.5810683272365844
