! Created with skrf 1.8.0 (http://scikit-rf.org).
# Hz S RI R 50.0 
!freq ReS11 ImS11
4000000000.0 0.5863736712707894 -0.8895657639236353
4003000000.0 0.5488977875570388 -0.9446787853713117
4006000000.0 0.5109892310965224 -0.8558518932838033
4009000000.0000005 0.5707510486227412 -0.8870261264472565
4011999999.9999995 0.5899497194089468 -0.845006461640676
4016000000.0 0.5706797015938633 -0.8864659801666537
4019000000.0 0.5270920477076889 -0.8888771363743255
4022000000.0000005 0.6313128045097609 -0.8822213612352285
4025000000.0000005 0.523062320964454 -0.9080561965454583
4027999999.9999995 0.5424250844646644 -0.928379959833411
4030999999.9999995 0.5163875792285607 -0.849568548949361
4034000000.0 0.5651748301156039 -0.8744581340716386
4038000000.0000005 0.5318791111976794 -0.890118745140188
4041000000.0000005 0.5893636430771745 -0.8931766865777833
4043999999.9999995 0.5836518931501231 -0.9186479175059881
4046999999.9999995 0.6245525315084136 -0.8835126117902429
4050000000.0 0.5432819116311658 -0.9044768162572728
4053000000.0 0.536230046563364 -0.8811567351343333
4056000000.0 0.527630659031329 -0.8947720295485022
4059000000.0 0.6046191845894929 -0.8854361599817901
4062000000.0000005 0.5865595700919428 -0.8802040946717997
4066000000.0 0.5549841665240289 -0.8099384926858572
4069000000.0 0.5497226975121317 -0.9094144616178012
4072000000.0 0.5602509603632099 -0.8901298172142326
4075000000.0 0.6078464402956061 -0.9329156452322098
4078000000.0000005 0.548897480849584 -0.9278984010663693
4081000000.0000005 0.6389737373827058 -0.9031033434913164
4083999999.9999995 0.5593553082174815 -0.9310393507091353
4088000000.0 0.611513042956225 -0.8526126532035082
4091000000.0 0.5605414455119887 -0.95224240306551
4094000000.0000005 0.5879556004716573 -0.900715621552253
4097000000.0000005 0.562642387487186 -0.9010012595315433
4099999999.9999995 0.5330503107225905 -0.9241056167492958
4102999999.9999995 0.5931424794695277 -0.913686373932996
4106000000.0 0.5422818801414493 -0.9066556948398191
4109000000.0 0.5494999402536684 -0.9324080938744886
4112000000.0 0.5940212009068991 -0.8962743095917091
4115999999.9999995 0.6020827515081706 -0.875101262409809
4119000000.0 0.5342580896805319 -0.8988324931807364
4122000000.0 0.5114644182891677 -0.8912048107651876
4125000000.0 0.5608051291192641 -0.9483593497477114
4128000000.0 0.5680980118836074 -0.8494447339589606
4131000000.0 0.5839240171480801 -0.8499787676802791
4134000000.0000005 0.5807106142154388 -0.8506838947519103
4138000000.0 0.5312039830722884 -0.8948114487010737
4141000000.0 0.536350792465276 -0.8693642253263965
4144000000.0 0.5645661193830722 -0.8961049716650793
4147000000.0000005 0.5642637999645477 -0.8737689571629177
4150000000.0000005 0.5583027142701303 -0.8884589321740294
4152999999.9999995 0.567053305843956 -0.8831313516943766
4155999999.9999995 0.5771295662182532 -0.8902972921285877
4159000000.0 0.5457656868639038 -0.8881565676241996
4162000000.0 0.5529662231098089 -0.8852986552520784
4166000000.0000005 0.5609921829853909 -0.8773121535356837
4168999999.9999995 0.5356867060689652 -0.8791874045044927
4171999999.9999995 0.5683766529620029 -0.9090878770090993
4175000000.0 0.5833532275420782 -0.8997978141160016
4178000000.0 0.5873058327839061 -0.8656160768665903
4181000000.0 0.565234923520434 -0.8619134951369802
4184000000.0 0.5527963967366663 -0.8721207455828067
4187999999.9999995 0.5347930980505934 -0.8527807595210732
4191000000.0 0.6047574271951749 -0.8347342733714634
4194000000.0 0.554379064776627 -0.8362891365809113
4197000000.0 0.5623247697259806 -0.9032127588360033
4200000000.0 0.5620129161955277 -0.8786928953026214
4203000000.0000005 0.5965661622142875 -0.8820094110891621
4206000000.0000005 0.5864602613637871 -0.8784886372949693
4208999999.9999995 0.5650386753695418 -0.8525214987750489
4211999999.9999995 0.5356974107211094 -0.888897304507416
4216000000.0 0.5825529081523124 -0.8596632845501818
4219000000.0000005 0.5656386920527736 -0.8666998248427191
4222000000.0000005 0.5464953814006384 -0.8746673297737505
4224999999.9999995 0.5655566120042992 -0.8703767915040157
4227999999.9999995 0.5700193723515864 -0.8688108050218472
4231000000.0 0.5461252186692769 -0.8765702800133203
4234000000.0 0.5787557156339196 -0.8578792041906115
4238000000.0000005 0.5331769554707884 -0.8645131608374518
4240999999.9999995 0.5564050297269687 -0.8582384837032019
4244000000.0 0.5598187581175861 -0.8463358187720604
4247000000.0 0.5613658677352407 -0.8580040068233488
4250000000.0 0.5525153561680827 -0.861691801606023
4253000000.0 0.5253938475657601 -0.850590328691883
4256000000.0 0.5711634953837801 -0.8893573072214095
4259000000.0000005 0.548283759342501 -0.8538719395421308
4261999999.9999995 0.526414939597133 -0.873034734676916
4266000000.0 0.5698061154396854 -0.8754349980100729
4269000000.0 0.5713990011694337 -0.8450731834848132
4272000000.0000005 0.5549257521281683 -0.8673846241965891
4275000000.0000005 0.5544046317357401 -0.8677751812406377
4277999999.9999995 0.5595832015975286 -0.8710615026442194
4280999999.9999995 0.5713137783838909 -0.8657193265658756
4284000000.0 0.5239737562453158 -0.8819275338868088
4288000000.0000005 0.5874157521326872 -0.8328991251398464
4291000000.0000005 0.554602820682456 -0.8448516903016465
4293999999.9999995 0.5643524067552923 -0.8509586173229291
4297000000.0 0.5681356867853333 -0.8551554966450226
4300000000.0 0.5377473328544059 -0.8539729741296193
4303000000.0 0.5364307881229967 -0.8445236441480755
4306000000.0 0.5819920152020187 -0.8436123170329664
4309000000.0 0.5778767677389699 -0.8502066257996111
4312000000.0 0.6075356660126534 -0.8332406781053807
4316000000.0 0.5667542869470648 -0.8579391021877806
4319000000.0 0.572020536039297 -0.8490840391998477
4322000000.0 0.5379916038668672 -0.8570827542659207
4325000000.0 0.5820994286761483 -0.8387433132126402
4328000000.0 0.5454498367233297 -0.8497242489444734
4331000000.0 0.5199832316256389 -0.8618144952935167
4334000000.0 0.5571235098851268 -0.8605623303143531
4338000000.0 0.5466015548031858 -0.8431551595531874
4341000000.0 0.572520103392531 -0.8560792586050279
4344000000.0 0.5736982143470564 -0.8754623006223852
4347000000.0 0.565465557859432 -0.9044194820502127
4350000000.0 0.524766398905926 -0.8403207157358655
4353000000.0 0.5737266583615648 -0.8487562696452325
4356000000.0 0.5331042620956552 -0.848793760846024
4359000000.0 0.5302557239237704 -0.8200283158136392
4362000000.0 0.525587790075663 -0.9059174958003754
4366000000.0 0.5576342782013535 -0.8761808061317453
4369000000.0 0.5369763287440908 -0.84263395252368
4372000000.0 0.5063255368995918 -0.875805371573261
4375000000.0 0.5440584938452895 -0.8589303678236859
4378000000.0 0.5509406494309264 -0.8233144046912703
4381000000.0 0.553197760537975 -0.8361542025847022
4384000000.0 0.5794467309918442 -0.906201045744853
4388000000.0 0.5605064709103587 -0.8450464446657344
4391000000.0 0.5564220857696827 -0.870138844155323
4394000000.0 0.5372089377665419 -0.83758512663891
4397000000.0 0.5401029716498928 -0.8503044670604771
4400000000.0 0.5658195722834485 -0.8878526668246477
4403000000.0 0.5629111567617229 -0.8538857205960388
4406000000.0 0.531638087512486 -0.8607201206818895
4409000000.0 0.5446541700250974 -0.8959005688051044
4412000000.0 0.48855988013165197 -0.8818674809191811
4416000000.0 0.5343891044317906 -0.8658961251130906
4419000000.0 0.524000901860671 -0.8733246289521946
4422000000.0 0.5640361126163852 -0.8341507315802933
4425000000.0 0.5816720110641873 -0.8509064512072846
4428000000.0 0.5410413921018826 -0.8586734348271287
4431000000.0 0.56684515324461 -0.8842902319709272
4434000000.0 0.5395157241453787 -0.8623254427523317
4438000000.0 0.5546514279478434 -0.8845523448940239
4441000000.0 0.5623316438905419 -0.8729445430709336
4444000000.0 0.53677585211732 -0.8347001808747351
4447000000.0 0.5312278333808821 -0.8628004823772697
4450000000.0 0.5439484087548554 -0.8295463321915169
4453000000.0 0.5600160394011606 -0.8796623161490529
4456000000.0 0.5138699319945719 -0.845575405378828
4459000000.0 0.5080698740971961 -0.8404756033576742
4462000000.0 0.573024428824081 -0.9236280673326853
4466000000.0 0.5410534977595898 -0.902985637311541
4469000000.0 0.562840000005679 -0.8468834939574856
4472000000.0 0.5431752473708817 -0.9025738757291089
4475000000.0 0.5368728314011175 -0.8418305743930422
4478000000.0 0.5393479372503549 -0.9060519132546989
4481000000.0 0.49820893259710325 -0.8348776957194204
4484000000.0 0.5004997364967207 -0.890417985182229
4488000000.0 0.5342164546952949 -0.8504444723531324
4491000000.0 0.539109137635106 -0.8736235647076777
4494000000.0 0.5383655508702189 -0.8632072201235071
4497000000.0 0.5433993404438524 -0.8412974090174434
4500000000.0 0.5388434540133616 -0.8562870022219764
4503000000.0 0.5213087748956587 -0.8843141160437062
4506000000.0 0.51604025967244 -0.863724555833003
4509000000.0 0.526362375913378 -0.849986346950683
4512000000.0 0.5256737761132955 -0.8679758645090261
4516000000.0 0.5419481933465464 -0.8787214055041528
4519000000.0 0.5258182364841381 -0.8492624087724427
4522000000.0 0.50844426582705 -0.8724411880745869
4525000000.0 0.559590930352927 -0.8512203000693878
4528000000.0 0.5384964773729961 -0.8886779660814167
4531000000.0 0.5336403836797732 -0.8667532469772743
4534000000.0 0.5121188779912763 -0.856742607630496
4538000000.0 0.5196909311349224 -0.8924143304554046
4541000000.0 0.4964374005218941 -0.8845599464133108
4544000000.0 0.5366769647371935 -0.860925949872939
4547000000.0 0.5557014565381745 -0.843106549243712
4550000000.0 0.5402763014044285 -0.8822830878792334
4553000000.0 0.5072248232074947 -0.8881881652187259
4556000000.0 0.5000375240648716 -0.8627837916512437
4559000000.0 0.5257327551264411 -0.8747594835808428
4562000000.0 0.5405820491467254 -0.8826236950888522
4566000000.0 0.5400563860897192 -0.8806246442941239
4569000000.0 0.5335220521297216 -0.850392656203889
4572000000.0 0.5264637742857544 -0.846607041758934
4575000000.0 0.5217639423857594 -0.894493971044958
4578000000.0 0.5430761014016521 -0.8801415221763955
4581000000.0 0.5042604312810928 -0.8929005639049531
4584000000.0 0.5088755998409671 -0.8717469084742799
4588000000.0 0.5566751372387546 -0.8782567321648778
4591000000.0 0.5418042338399536 -0.8678531096465865
4594000000.0 0.5043991399044745 -0.8972152273505818
4597000000.0 0.5260878509476852 -0.8823826632741566
4600000000.0 0.4917581818136041 -0.8707414307766862
4603000000.0 0.5039795548778697 -0.8846983156387372
4606000000.0 0.5245093834023095 -0.877909606910487
4609000000.0 0.5265579203665727 -0.8775583366235552
4612000000.0 0.5198937796987435 -0.8842600178974004
4616000000.0 0.5386731188508949 -0.8749661348169002
4619000000.0 0.5137040929104046 -0.8802686596058249
4622000000.0 0.5164727466951406 -0.8790690853458836
4625000000.0 0.48441805057333265 -0.8689701783907804
4628000000.0 0.5297187787316492 -0.8510409090184782
4631000000.0 0.5033917419105502 -0.8703325571462428
4634000000.0 0.5162731474374834 -0.8772751687158065
4638000000.0 0.5290074682466401 -0.8941834210189936
4641000000.0 0.5315159269150673 -0.880413833808276
4644000000.0 0.5166839605668598 -0.8817446378082078
4647000000.0 0.5224431944430685 -0.8765187044882646
4650000000.0 0.49635066942340333 -0.8732408969290634
4653000000.0 0.5356399895290811 -0.8910617925754027
4656000000.0 0.5147750314541071 -0.885328919387445
4659000000.0 0.5155784819505945 -0.8878337884438374
4662000000.0 0.5062950067672162 -0.8874303643248559
4666000000.0 0.5048573329442767 -0.8817858524784394
4669000000.0 0.5347923128807254 -0.8683868275553199
4672000000.0 0.4915028509682036 -0.9060805899562167
4675000000.0 0.4960600666590833 -0.9041337406782166
4678000000.0 0.5020018337874218 -0.8668820780951787
4681000000.0 0.5049738953913524 -0.9097079531513999
4684000000.0 0.47340293388779997 -0.8919561520017767
4688000000.0 0.4813864721492346 -0.8802636788476133
4691000000.0 0.5236906697394297 -0.885378568530253
4694000000.0 0.5306294657353849 -0.8760553394657198
4697000000.0 0.48507852715280386 -0.8570729469689897
4700000000.0 0.5237342479723139 -0.8838083430340105
4703000000.0 0.5101267780216883 -0.8548750368238806
4706000000.0 0.5030174116199265 -0.9019845716285614
4709000000.0 0.5215353783567219 -0.8929450713364696
4712000000.0 0.514039070734792 -0.9123100380907416
4716000000.0 0.49981692766895175 -0.9091721583576434
4719000000.0 0.5497952878157584 -0.8810276295544361
4722000000.0 0.5434769076683849 -0.8877039661940951
4725000000.0 0.5201751407083401 -0.9081720858642062
4728000000.0 0.5180848058124918 -0.8828919301197184
4731000000.0 0.5244594496455169 -0.9003994924264753
4734000000.0 0.5322955814400785 -0.8703827420123361
4738000000.0 0.5321573736873332 -0.9223269421191155
4741000000.0 0.5137506275057233 -0.9401298691292211
4744000000.0 0.5077329008864024 -0.9263002264368585
4747000000.0 0.5058145531961851 -0.8673415636088027
4750000000.0 0.5082865264367276 -0.9111225049009861
4753000000.0 0.5185292677559106 -0.8895092093804562
4756000000.0 0.5024139780190784 -0.9028444937596171
4759000000.0 0.5031485033992094 -0.9400384683910541
4762000000.0 0.5080715691549053 -0.9347983962408989
4766000000.0 0.5015039264137195 -0.9077580141803938
4769000000.0 0.5202354686364776 -0.9068124173438714
4772000000.0 0.4998227765900173 -0.9093494556206734
4775000000.0 0.5161945884565098 -0.9496901634175073
4778000000.0 0.5121198947047383 -0.9328037919960421
4781000000.0 0.49937127482276933 -0.9248055536230682
4784000000.0 0.5180339559805763 -0.8908498275848828
4788000000.0 0.5061255597422571 -0.930045857155058
4791000000.0 0.47981063405201885 -0.8986541482328096
4794000000.0 0.5511801141340598 -0.9277583075998029
4797000000.0 0.49784016046876856 -0.8922612078736428
4800000000.0 0.48638347736917054 -0.8886131661664493
4803000000.0 0.4543428468144576 -0.9310050445640753
4806000000.0 0.5159777698420921 -0.906866783211073
4809000000.0 0.5006491149780072 -0.9237975470301604
4812000000.0 0.463441263904544 -0.8901106573655593
4816000000.0 0.508564799310133 -0.8635520382778489
4819000000.0 0.5077384658631319 -0.9127927528549632
4822000000.0 0.5443816957842508 -0.9266214982668284
4825000000.0 0.5527180719973264 -0.904450789457392
4828000000.0 0.4886695965187319 -0.889132987421678
4831000000.0 0.475676638530802 -0.9686710190975453
4834000000.0 0.515585145107422 -0.9055018878001972
4838000000.0 0.49912628833333084 -0.931464442109124
4841000000.0 0.49215797554687446 -0.8924947057861335
4844000000.0 0.5553654253023961 -0.8873097812419901
4847000000.0 0.5159307606201172 -0.8535357142841709
4850000000.0 0.5306141409912027 -0.9298172193094887
4853000000.0 0.5103394919315234 -0.8699898009802887
4856000000.0 0.49584120649445873 -0.8978242048658489
4859000000.0 0.509808659927939 -0.9261451302596234
4862000000.0 0.514849013258208 -0.8613436864942253
4866000000.0 0.4899879990627723 -0.9299350831605447
4869000000.0 0.4976521006987293 -0.9142137312163691
4872000000.0 0.5060579289829904 -0.9449655634944648
4875000000.0 0.578123404830647 -0.913388736293151
4878000000.0 0.5379216018059508 -0.9388625844148862
4881000000.0 0.5245417555627652 -0.9601665947944703
4884000000.0 0.5217178132133754 -0.9119224937390122
4888000000.0 0.5372011182270281 -0.9007323984339859
4891000000.0 0.5516456380674194 -0.9182153572761013
4894000000.0 0.5221741631481918 -0.8848005054080764
4897000000.0 0.5477479104182984 -0.8887510617762094
4900000000.0 0.5464054996155925 -0.9034293365906932
4903000000.0 0.5449847154134598 -0.9095426036217812
4906000000.0 0.5363576503415451 -0.9278532424422721
4909000000.0 0.5281666363979844 -0.9196544834057997
4912000000.0 0.5314809640527036 -0.9785560266965638
4916000000.0 0.5636503697086597 -0.9065138163046378
4919000000.0 0.5305730994826419 -0.9245980235915965
4922000000.0 0.5797222655260941 -0.9287323921737168
4925000000.0 0.47235158184764664 -0.9407185140809513
4928000000.0 0.5597545649737267 -0.8930213048133017
4931000000.0 0.5621970803921216 -0.8749701886424954
4934000000.0 0.5153431641813964 -0.8479146735354652
4938000000.0 0.49770719423082155 -0.9098398724014025
4941000000.0 0.5116666385672438 -0.8914985153436377
4944000000.0 0.4986733220856882 -0.8559205466332772
4947000000.0 0.49076996267325684 -0.890821663178097
4950000000.0 0.507880488465096 -0.8895853001171112
4953000000.0 0.4887135279478373 -0.9594716981699553
4956000000.0 0.4968584301715416 -0.8779092802746884
4959000000.0 0.49276842888768463 -0.8753518808433637
4962000000.0 0.5226256420910258 -0.9379920956376319
4966000000.0 0.5690182550174641 -0.9041330541150732
4969000000.0 0.5667231635848802 -0.9393038255752449
4972000000.0 0.5120368234979604 -0.9132555688899954
4975000000.0 0.5053608399225212 -0.8744537905615944
4978000000.0 0.5182009163435446 -0.9207201015324126
4981000000.0 0.5049066707000284 -0.9262280574713662
4984000000.0 0.5161448679091188 -0.8863674948529323
4988000000.0 0.5507302893680123 -0.8897927909747162
4991000000.0 0.6069688655384724 -0.9144035028300964
4994000000.0 0.5256945074382653 -0.9035945492499424
4997000000.0 0.49269255421142444 -0.9163504424047156
5000000000.0 0.5383818661253914 -0.9422434461639138
5003000000.0 0.5597482612659401 -0.9249965642950262
5006000000.0 0.5602452136831617 -0.9554010275383388
5009000000.0 0.5667890497189025 -0.9138230410774746
5012000000.0 0.49786558198415914 -0.9327332599715777
5016000000.0 0.5911899042016209 -0.9339488650937411
5019000000.0 0.5274903929382971 -0.9206550618025706
5022000000.0 0.5505260486158327 -0.9184021606559243
5025000000.0 0.5531335502222934 -0.9880645065485627
5028000000.0 0.5294256103133268 -0.9411176796280913
5031000000.0 0.4891919922719954 -0.9288951523101607
5034000000.0 0.5354475514728387 -0.9215497866266589
5038000000.0 0.4981153088103417 -0.8835138950168837
5041000000.0 0.5837601789587163 -0.8801499386193996
5044000000.0 0.5370099057506811 -0.8596518656901375
5047000000.0 0.5609302048079354 -0.8892808335192575
5050000000.0 0.5801522456319326 -0.8357970981629352
5053000000.0 0.5613642512592509 -0.9532057143978603
5056000000.0 0.5853200999747885 -0.8881765286597678
5059000000.0 0.5856540213728212 -0.8803540886994593
5062000000.0 0.5418474198615553 -0.9658690823290149
5066000000.0 0.6206926195199557 -0.8884484550257934
5069000000.0 0.5600482655897814 -0.9222874112412885
5072000000.0 0.5822038919269316 -0.8690553803458211
5075000000.0 0.5632101308168245 -0.9097528708506715
5078000000.0 0.5294587283816512 -0.943058062173507
5081000000.0 0.505582866966951 -0.8760671997427458
5084000000.0 0.5468972362406492 -0.9128296782098373
5088000000.0 0.545317993745208 -0.8764350226474902
5091000000.0 0.5438035077012991 -0.9331541794356907
5094000000.0 0.5490139346337337 -0.9059575197434315
5097000000.0 0.5588328364838541 -0.8480292444035673
5100000000.0 0.5808956499384234 -0.8859780033358489
5103000000.0 0.4364914634795622 -0.929976612231253
5106000000.0 0.5961555092981992 -0.8997717505472691
5109000000.0 0.5718275086178748 -0.8643587906720238
5112000000.0 0.5379281046364675 -0.9234782733430412
5116000000.0 0.5439532706801036 -0.794654830422842
5119000000.0 0.5805918226142859 -0.8905052546874861
5122000000.0 0.5566793795384455 -0.9010710167358916
5125000000.0 0.5798885073878828 -0.875255389634876
5128000000.0 0.5613028838583844 -0.8611136532656309
5131000000.0 0.5528826309599872 -0.8772866825379375
5134000000.0 0.5633980457059606 -0.9118077404957157
5138000000.0 0.590202098204496 -0.8554279724930041
5141000000.0 0.6284253527153808 -0.8961033784083164
5144000000.0 0.5731408918560638 -0.8326232269997684
5147000000.0 0.6081867113482572 -0.9085385747110978
5150000000.0 0.5768589600603693 -0.8640230717333384
5153000000.0 0.5972746258612187 -0.8830988648141378
5156000000.0 0.5845717534830482 -0.9084274177133873
5159000000.0 0.5740053934236178 -0.9707517369604268
5162000000.0 0.5736935164243866 -0.8974932495523482
5166000000.0 0.5308726516053776 -0.8911836553677416
5169000000.0 0.5811440726924582 -0.9262201451564722
5172000000.0 0.5549817474153125 -0.8785236145856156
5175000000.0 0.6249598521757164 -0.9328177151010993
5178000000.0 0.5781566144328157 -0.9020378042719599
