! Created with skrf 1.8.0 (http://scikit-rf.org).
# Hz S RI R 50.0 
!freq ReS11 ImS11
4000000000.0 0.5355461476681422 -0.8771635796685493
4003000000.0 0.6199356342300253 -0.8819201407787605
4006000000.0 0.48972625760625427 -0.8742284226809881
4009000000.0000005 0.5478259449987744 -0.8628821583077113
4011999999.9999995 0.6054354348173918 -0.857657389582652
4016000000.0 0.522160093729668 -0.8597208647231447
4019000000.0 0.5368189607379212 -0.875454889356515
4022000000.0000005 0.6062948471242449 -0.8112648639400842
4025000000.0000005 0.5277077542053136 -0.9173633913922566
4027999999.9999995 0.5628623063047195 -0.8827528025210625
4030999999.9999995 0.5437736510402625 -0.8766758755679906
4034000000.0 0.5476651708581892 -0.8602041643746285
4038000000.0000005 0.5523176649656101 -0.907539376378252
4041000000.0000005 0.5245988131101142 -0.85746684909548
4043999999.9999995 0.5539557073287021 -0.9200092699189493
4046999999.9999995 0.6072917290679174 -0.8928128069485362
4050000000.0 0.5371682230460261 -0.9238412787803849
4053000000.0 0.49835734912157925 -0.856756336225097
4056000000.0 0.5488878215649861 -0.8887829245580536
4059000000.0 0.5576590497867995 -0.8217351857432872
4062000000.0000005 0.5430335450184028 -0.8740717238349944
4066000000.0 0.5161476099689924 -0.8048925790739659
4069000000.0 0.543660118017566 -0.9370007215509311
4072000000.0 0.5553408584075548 -0.897986418689032
4075000000.0 0.6159026698831295 -0.8672934355066563
4078000000.0000005 0.5483317226472522 -0.9010010792459574
4081000000.0000005 0.6125923396459315 -0.8682260018650144
4083999999.9999995 0.5583107603380234 -0.9176107396988687
4088000000.0 0.5748873754715823 -0.8463598578629353
4091000000.0 0.5732688992594701 -0.9619089761531406
4094000000.0000005 0.5579681461629017 -0.8537937486531283
4097000000.0000005 0.5295657970956907 -0.874954409995965
4099999999.9999995 0.5461591174218973 -0.8506109947264582
4102999999.9999995 0.6098079711929297 -0.8899058536046583
4106000000.0 0.5677584927173183 -0.8817351766639436
4109000000.0 0.5399087388598168 -0.894842241489537
4112000000.0 0.5677032140156391 -0.8695117946525579
4115999999.9999995 0.5593038517603047 -0.8589909579476899
4119000000.0 0.5259152364184728 -0.9062264733969052
4122000000.0 0.5298203397917649 -0.8991096188433156
4125000000.0 0.5629449048205127 -0.91223446059826
4128000000.0 0.5448267813879137 -0.8034319684840073
4131000000.0 0.5451879289132625 -0.8600475642013787
4134000000.0000005 0.5277346904145964 -0.855347083010132
4138000000.0 0.5524719179585156 -0.8778959337133984
4141000000.0 0.5138064802646162 -0.8464999014098012
4144000000.0 0.5761589592626181 -0.8653385719632609
4147000000.0000005 0.5341070573396431 -0.8785677900574319
4150000000.0000005 0.5601668231597675 -0.8934258824019082
4152999999.9999995 0.5681918944040076 -0.8784271430502711
4155999999.9999995 0.5597134175031414 -0.8867133134466658
4159000000.0 0.5741728357878697 -0.8408986521798707
4162000000.0 0.556633581319797 -0.8342206184416567
4166000000.0000005 0.5634861465500393 -0.8991160326821673
4168999999.9999995 0.542616683563675 -0.9027245161167066
4171999999.9999995 0.534890381956873 -0.8707528180516299
4175000000.0 0.5737349075249609 -0.8840950030231213
4178000000.0 0.5556308962882714 -0.8797808899162912
4181000000.0 0.5147657179335786 -0.8848546815757682
4184000000.0 0.5495583699936324 -0.8714539022148723
4187999999.9999995 0.5185673399413514 -0.8355295234657945
4191000000.0 0.561343616113603 -0.8117491663814805
4194000000.0 0.5565692730691779 -0.8687971562293988
4197000000.0 0.5475428452963647 -0.8877224958431689
4200000000.0 0.545485539920329 -0.8569906050154601
4203000000.0000005 0.5842534501427059 -0.8800297940171109
4206000000.0000005 0.543957141293933 -0.8716333536923967
4208999999.9999995 0.5559231732285949 -0.8523984441084035
4211999999.9999995 0.5249704293898746 -0.8760578940012173
4216000000.0 0.5538627410864466 -0.877293623278178
4219000000.0000005 0.5594409939732097 -0.861382058781139
4222000000.0000005 0.5702035385836629 -0.862781031902701
4224999999.9999995 0.5813892841555297 -0.8542631543987882
4227999999.9999995 0.5557129456516955 -0.8776533660009341
4231000000.0 0.5393137878122809 -0.8805615142357871
4234000000.0 0.5584205023510418 -0.8826683179496287
4238000000.0000005 0.5381999028528048 -0.8777012040071658
4240999999.9999995 0.5297733885031366 -0.8835785835048149
4244000000.0 0.5569053273647122 -0.8664758098535891
4247000000.0 0.5610449332086831 -0.86807689169818
4250000000.0 0.5445549116407115 -0.843690761863752
4253000000.0 0.5296936089587274 -0.8406839013636173
4256000000.0 0.5656984430054585 -0.8738771563044163
4259000000.0000005 0.5106858037421752 -0.8396808400552558
4261999999.9999995 0.542910649028389 -0.8589105578969188
4266000000.0 0.5285769966710347 -0.8979667955898256
4269000000.0 0.5568812755312144 -0.8574012458735915
4272000000.0000005 0.5510396996148033 -0.8597695281805319
4275000000.0000005 0.5510880742127036 -0.8716016755469512
4277999999.9999995 0.5478352721882551 -0.8779162247941551
4280999999.9999995 0.5715521261070371 -0.8576954397963634
4284000000.0 0.5132132111692247 -0.874891298363438
4288000000.0000005 0.5715120768618014 -0.8505486098504986
4291000000.0000005 0.532913335471487 -0.8273299850158669
4293999999.9999995 0.542983317767803 -0.8618486183736853
4297000000.0 0.5624533233726077 -0.8638465104786172
4300000000.0 0.5479902378696402 -0.8355106601642917
4303000000.0 0.5407618335221027 -0.860614091363036
4306000000.0 0.5718144001376726 -0.8485020709773716
4309000000.0 0.5391214589916613 -0.8641725739564339
4312000000.0 0.5814251928245339 -0.8540672225049487
4316000000.0 0.5638880449673483 -0.8535911795378206
4319000000.0 0.5527622254922109 -0.8296342657417373
4322000000.0 0.5498181713619683 -0.841489235713562
4325000000.0 0.538477385960056 -0.8664137184346001
4328000000.0 0.537963741147342 -0.857488007726624
4331000000.0 0.5169767996558469 -0.8870376327269305
4334000000.0 0.5367991123496908 -0.8784102520655184
4338000000.0 0.549634309050962 -0.8664515209222147
4341000000.0 0.5902848200733101 -0.8517262768777011
4344000000.0 0.5673404190558798 -0.8648670971774162
4347000000.0 0.5297603195868866 -0.8692018376449885
4350000000.0 0.5205832231460097 -0.8428628034619969
4353000000.0 0.5582237008893924 -0.8187579361962671
4356000000.0 0.5252590356413349 -0.8498577334021324
4359000000.0 0.5259410611239019 -0.8130900830387958
4362000000.0 0.504594212901688 -0.9083801541704574
4366000000.0 0.543040083961129 -0.8738066701024005
4369000000.0 0.4966797323387667 -0.8222563306713091
4372000000.0 0.49656021777973924 -0.8725874846221366
4375000000.0 0.532659365774976 -0.8644478571631262
4378000000.0 0.5331217234632113 -0.8493867117881839
4381000000.0 0.5423385947793041 -0.8348818522582934
4384000000.0 0.5634238966088669 -0.9178562691160217
4388000000.0 0.547876905981785 -0.8393688824530247
4391000000.0 0.5486955093595435 -0.8600494423577097
4394000000.0 0.525046675280522 -0.8294099907019973
4397000000.0 0.531438622293552 -0.8671214365431049
4400000000.0 0.5424773236342167 -0.8841515794994081
4403000000.0 0.5488125528686367 -0.8582929077553749
4406000000.0 0.5163056397302859 -0.8683497110985645
4409000000.0 0.5570603008293662 -0.885368255435208
4412000000.0 0.49365401850838636 -0.884805069684283
4416000000.0 0.5048809386930249 -0.8536349196692311
4419000000.0 0.5176827138025266 -0.8765455347704318
4422000000.0 0.5245247822462894 -0.8451088914782375
4425000000.0 0.5704478969173774 -0.863734100697096
4428000000.0 0.521506202008955 -0.8602190805222677
4431000000.0 0.5492363586185812 -0.8691576620904801
4434000000.0 0.519892256515357 -0.8597437052014261
4438000000.0 0.535516329893066 -0.8693783214392363
4441000000.0 0.5492140588760768 -0.8740086997298154
4444000000.0 0.5235617220676058 -0.831886799011816
4447000000.0 0.5251204703463697 -0.8607606611605245
4450000000.0 0.5276095918075367 -0.8477051266029647
4453000000.0 0.5316955234138101 -0.8828110020589147
4456000000.0 0.5173647322944985 -0.8437885624316548
4459000000.0 0.49516555998298073 -0.8435484971254998
4462000000.0 0.5531476849068229 -0.9118912661561471
4466000000.0 0.5356591746900403 -0.9091600701178074
4469000000.0 0.5374279955160663 -0.8547114568753225
4472000000.0 0.5250438666177087 -0.9085912159553231
4475000000.0 0.5157821170168921 -0.8491657365494181
4478000000.0 0.5158760469532491 -0.9259669686982381
4481000000.0 0.5148348909492935 -0.8462101131525739
4484000000.0 0.4882955534961251 -0.8878536895484129
4488000000.0 0.500050692687361 -0.8491336157219931
4491000000.0 0.509045582754528 -0.8852239459795116
4494000000.0 0.5161193497146542 -0.8574498853386876
4497000000.0 0.5242680305418638 -0.8640301906638024
4500000000.0 0.5274121423109867 -0.8488442433162953
4503000000.0 0.5375569771165586 -0.8761995229128838
4506000000.0 0.5366214153516048 -0.854319342633125
4509000000.0 0.5082182206151162 -0.8470904122986058
4512000000.0 0.5073906087650291 -0.8760841744433863
4516000000.0 0.5452108856946808 -0.8887007921931971
4519000000.0 0.5312695695952984 -0.8397503235781876
4522000000.0 0.5183678283565742 -0.873712065805982
4525000000.0 0.5505790324898076 -0.8303686152516094
4528000000.0 0.5089862267918674 -0.8836060421030492
4531000000.0 0.5436293767377001 -0.8723421494625208
4534000000.0 0.5119177959760094 -0.8629635834935321
4538000000.0 0.5234008990248137 -0.8602569288244364
4541000000.0 0.4834102905472905 -0.8769605490934429
4544000000.0 0.508910783302767 -0.8641669857906824
4547000000.0 0.5410527967077183 -0.8317910504101427
4550000000.0 0.5192268248324154 -0.8711108884165761
4553000000.0 0.5104540184333176 -0.869945750280213
4556000000.0 0.5048125576333442 -0.8583968661500325
4559000000.0 0.5063213111630551 -0.8785864213701273
4562000000.0 0.5173729467597794 -0.8757558364553673
4566000000.0 0.521893127087785 -0.8803245179962438
4569000000.0 0.5254517124597753 -0.8418971368499075
4572000000.0 0.5021218959829844 -0.8625186635114147
4575000000.0 0.5112926501354753 -0.8905458650308413
4578000000.0 0.5432847391434615 -0.8902359205883049
4581000000.0 0.5129756573223861 -0.8698216835296299
4584000000.0 0.5045576146308669 -0.8596814828021919
4588000000.0 0.5324173565081313 -0.894823615893559
4591000000.0 0.5189036498528221 -0.8714046410031713
4594000000.0 0.4883034851595307 -0.8741186878879458
4597000000.0 0.5052933452995421 -0.9014899625477721
4600000000.0 0.4750995834229231 -0.8712514440511746
4603000000.0 0.49910234941558707 -0.899728867063974
4606000000.0 0.5231442321527917 -0.8703531662665076
4609000000.0 0.5172835297925378 -0.8629426066154047
4612000000.0 0.5137914269618009 -0.8916025764558113
4616000000.0 0.47892163081378536 -0.8713791629763519
4619000000.0 0.5016933127869789 -0.8637878982901086
4622000000.0 0.48804472982037617 -0.8744072010138536
4625000000.0 0.486021608786108 -0.8533133073476769
4628000000.0 0.5160167085569671 -0.8778400872064789
4631000000.0 0.5026315663580732 -0.8932261915609452
4634000000.0 0.490203193515257 -0.874577976646545
4638000000.0 0.5042738329761106 -0.8777544703142177
4641000000.0 0.5073299204449981 -0.8787438090073316
4644000000.0 0.4849575421903819 -0.8729091835495905
4647000000.0 0.5018557585079335 -0.878543810713889
4650000000.0 0.4981818011423672 -0.8720964517534544
4653000000.0 0.5120282839713634 -0.9060195415227931
4656000000.0 0.4835699874382211 -0.9023343774770136
4659000000.0 0.49503793154982356 -0.8917085926130934
4662000000.0 0.5070054828337233 -0.8883220544343946
4666000000.0 0.49412001737600003 -0.8858563179601106
4669000000.0 0.5019729729180603 -0.8833036498963761
4672000000.0 0.4949595964052117 -0.9078847616204998
4675000000.0 0.48827949324211056 -0.8857583479895771
4678000000.0 0.4965158035286669 -0.8694226419148071
4681000000.0 0.47239746689403184 -0.9043525588859161
4684000000.0 0.47454375295499374 -0.9082391392191722
4688000000.0 0.47947926695974236 -0.8769215970784493
4691000000.0 0.5218664768909674 -0.9125747389346166
4694000000.0 0.4896460870243414 -0.8722434713028379
4697000000.0 0.4671703347718904 -0.8654324928213654
4700000000.0 0.5090792999602423 -0.8798563519233943
4703000000.0 0.4912852361837046 -0.8370103779695546
4706000000.0 0.483600225632634 -0.8854788693232541
4709000000.0 0.4941385624853656 -0.8680896281113335
4712000000.0 0.5017417612529089 -0.8898064765203402
4716000000.0 0.5054048029557066 -0.9083418673354512
4719000000.0 0.5313479607595972 -0.8954620479197479
4722000000.0 0.5244509931433476 -0.8705109338837789
4725000000.0 0.48405302430780994 -0.8931725725712067
4728000000.0 0.4952546632508675 -0.8786357358300004
4731000000.0 0.5041964395328064 -0.9017825301666886
4734000000.0 0.5115925680827955 -0.908359503555875
4738000000.0 0.5281214609554364 -0.906907448615304
4741000000.0 0.5073506668707636 -0.9112980763486006
4744000000.0 0.4762107886515882 -0.8885593811541991
4747000000.0 0.5129787013003053 -0.8495864776359858
4750000000.0 0.47698948707789646 -0.8746193219445415
4753000000.0 0.5217940533034304 -0.8999230056042177
4756000000.0 0.5029229414508984 -0.8956409556197823
4759000000.0 0.5103444887681187 -0.9079576426443003
4762000000.0 0.4943631835244561 -0.9600186130522277
4766000000.0 0.4998671236002033 -0.8880910136725447
4769000000.0 0.5114082725496564 -0.9069724905646206
4772000000.0 0.4740127896157787 -0.8945294373749197
4775000000.0 0.5129691522239217 -0.9325435376732617
4778000000.0 0.5034463727743655 -0.9085500786545907
4781000000.0 0.5232866273086687 -0.8808897964374499
4784000000.0 0.5337695214772075 -0.8993259245260736
4788000000.0 0.469496649926626 -0.9201736435400353
4791000000.0 0.49372579230017244 -0.903916560214867
4794000000.0 0.5167723745891579 -0.9106560079604474
4797000000.0 0.45829968536941695 -0.9006438709366921
4800000000.0 0.4749847902011207 -0.8972096774750546
4803000000.0 0.4632304438355337 -0.9377312642120579
4806000000.0 0.4704148483628282 -0.9043604008757052
4809000000.0 0.45876820824113884 -0.9095649842080995
4812000000.0 0.44902989120436443 -0.9236154429441918
4816000000.0 0.5100660128580153 -0.87845731529551
4819000000.0 0.5214495683835784 -0.929854457919656
4822000000.0 0.5358426682411368 -0.9169628316516459
4825000000.0 0.503360826104179 -0.9042214825664108
4828000000.0 0.4897726944211227 -0.8826244111702463
4831000000.0 0.45822086026440856 -0.9460906448222441
4834000000.0 0.5208294931172472 -0.8986516329866162
4838000000.0 0.4765716074656148 -0.9337024007166064
4841000000.0 0.4731210750066849 -0.9068434350618503
4844000000.0 0.5174819087608356 -0.8831606961066258
4847000000.0 0.5119781515372789 -0.8639408931639387
4850000000.0 0.48555147105054264 -0.9302886750136459
4853000000.0 0.5109914597926919 -0.8828562565866334
4856000000.0 0.4934021510508464 -0.8832818494465837
4859000000.0 0.4990552451133601 -0.9104466750367166
4862000000.0 0.51277835775917 -0.8628783908747382
4866000000.0 0.4934395745942637 -0.9491937788983036
4869000000.0 0.4872792577307704 -0.9290637495503283
4872000000.0 0.4760561557498016 -0.9320333474331189
4875000000.0 0.547302682419281 -0.931423168160068
4878000000.0 0.5047373546284473 -0.9129568193336788
4881000000.0 0.5032878727457152 -0.9713592801912206
4884000000.0 0.495153503510558 -0.9053906269456713
4888000000.0 0.5295826340316657 -0.8962931572467432
4891000000.0 0.5331213340763123 -0.8940103126464425
4894000000.0 0.4599271285476432 -0.915376341268761
4897000000.0 0.5103521049944392 -0.8923895277392535
4900000000.0 0.5412419182411405 -0.9020017605375757
4903000000.0 0.5194660629922675 -0.9051183478702485
4906000000.0 0.49571346220442025 -0.9470621122893155
4909000000.0 0.4687018012987246 -0.9256262233174455
4912000000.0 0.4925798497433528 -0.9298375289155774
4916000000.0 0.5172284246957736 -0.930331023284895
4919000000.0 0.5415480639201367 -0.879333503210382
4922000000.0 0.5444810290939822 -0.8778918328975369
4925000000.0 0.4831785966661333 -0.8966622300581181
4928000000.0 0.5405458756313927 -0.8593538020482756
4931000000.0 0.5532041271722055 -0.9181623439295749
4934000000.0 0.4761515878043291 -0.8831530796904272
4938000000.0 0.44344251433810655 -0.9135298254642599
4941000000.0 0.4989046482336961 -0.8771316049630639
4944000000.0 0.4949413466179616 -0.8103159594882231
4947000000.0 0.4725137820070826 -0.8805437321798743
4950000000.0 0.45950394367294606 -0.8731982134599148
4953000000.0 0.4591812193066235 -0.9338867999300229
4956000000.0 0.48264983601069983 -0.9164322680458263
4959000000.0 0.44994229169688227 -0.8884694156377735
4962000000.0 0.4808344343251417 -0.9355950732088174
4966000000.0 0.546297200961324 -0.9076360590441425
4969000000.0 0.5499771486803212 -0.925290891699516
4972000000.0 0.5084230046285279 -0.9189972302735949
4975000000.0 0.5267831051953265 -0.8891114241849397
4978000000.0 0.4843174955367151 -0.9628537482193966
4981000000.0 0.5119633029694866 -0.9227468888728126
4984000000.0 0.4984196937655698 -0.858798928066395
4988000000.0 0.5128398419623873 -0.8837804432713525
4991000000.0 0.5673139321350529 -0.892488337213575
4994000000.0 0.5205240626595364 -0.8920710007672419
4997000000.0 0.5010485818569278 -0.9132014312133496
5000000000.0 0.5322103855761675 -0.9281096868910745
5003000000.0 0.5194324744685622 -0.9514221514784598
5006000000.0 0.548140603633273 -0.9360043333160607
5009000000.0 0.5126582514499383 -0.9192264666301073
5012000000.0 0.5041243885149003 -0.8968977040221966
5016000000.0 0.5383751204605473 -0.8965347209747818
5019000000.0 0.5211750224675865 -0.9052481948932225
5022000000.0 0.5041957549215572 -0.8651837657215126
5025000000.0 0.5502107224437978 -0.966992310605701
5028000000.0 0.4878565069506441 -0.9196333800299268
5031000000.0 0.51956092416884 -0.9100186929085364
5034000000.0 0.46352856520745633 -0.9488548316053029
5038000000.0 0.48003466042669796 -0.874646780524146
5041000000.0 0.5353582551482556 -0.9042770224579875
5044000000.0 0.5269941584805653 -0.8645205725591174
5047000000.0 0.5419149052449203 -0.9067916637078253
5050000000.0 0.6176435229880173 -0.8781089841207508
5053000000.0 0.5094493026527779 -0.9398025533613231
5056000000.0 0.528706300491072 -0.8930493932742007
5059000000.0 0.5915262548604259 -0.8771345135296805
5062000000.0 0.5155878241159879 -0.9398874660237433
5066000000.0 0.5588298812381953 -0.8489481139489474
5069000000.0 0.5245110505228153 -0.9243852127919128
5072000000.0 0.5313298837571128 -0.8696805990501315
5075000000.0 0.5472261648132781 -0.869348527036271
5078000000.0 0.5033194044706759 -0.9226223659233603
5081000000.0 0.5142274528575033 -0.8761468016443141
5084000000.0 0.5379822034058507 -0.9439975259174629
5088000000.0 0.5138327976118064 -0.878719498831092
5091000000.0 0.5069274710086351 -0.922274411623462
5094000000.0 0.5749710174245173 -0.9244128187313474
5097000000.0 0.5435016894296643 -0.8865908392726548
5100000000.0 0.5192933971417122 -0.8786469849898338
5103000000.0 0.4695020604598072 -0.9103980448085167
5106000000.0 0.5110028792921819 -0.9640627873522002
5109000000.0 0.5879785789792703 -0.8645483999560195
5112000000.0 0.48914713787314684 -0.8965279062117733
5116000000.0 0.5381910400745707 -0.8777499251596504
5119000000.0 0.5354549901580354 -0.9090182440572672
5122000000.0 0.5445616564527733 -0.89149720577033
5125000000.0 0.5718501857610646 -0.8591254943980131
5128000000.0 0.560088341844466 -0.9208587399419551
5131000000.0 0.5037160607569866 -0.9028653379768146
5134000000.0 0.5368041164684946 -0.8502584179924281
5138000000.0 0.5684833561230478 -0.8871720867820148
5141000000.0 0.6115374511720749 -0.8707673002274053
5144000000.0 0.5638276123912977 -0.8643829607251678
5147000000.0 0.581706864288069 -0.9350712600055018
5150000000.0 0.5603186045732591 -0.8897646453313652
5153000000.0 0.5352186105219843 -0.905995423521473
5156000000.0 0.585025112068202 -0.8970752821289649
5159000000.0 0.572711684007388 -0.9310423205317676
5162000000.0 0.5465280722035041 -0.8873899799365588
5166000000.0 0.548824708340464 -0.9134746242755694
5169000000.0 0.543691988325539 -0.9005399697303216
5172000000.0 0.5324674099006912 -0.8903706471819455
5175000000.0 0.5781229458181989 -0.9256804728956076
5178000000.0 0.532741372618794 -0.901530166399144
