! Created with skrf 1.8.0 (http://scikit-rf.org).
# Hz S RI R 50.0 
!freq ReS11 ImS11
4000000000.0 0.5563780197286617 -0.8636990647296021
4003000000.0 0.5765911947827799 -0.9217389204033413
4006000000.0 0.5470657001185449 -0.9094979237528411
4009000000.0000005 0.5599747659307771 -0.8644718721692302
4011999999.9999995 0.6065854042551984 -0.847304422026012
4016000000.0 0.5253377894503634 -0.8774399837267977
4019000000.0 0.5478864578764375 -0.8797132124294107
4022000000.0000005 0.6366396402942622 -0.7963842534769894
4025000000.0000005 0.5013598494017142 -0.8897458876768423
4027999999.9999995 0.5650146996485516 -0.8947755126942808
4030999999.9999995 0.5333329175423549 -0.8094739614330894
4034000000.0 0.5187410007526367 -0.8651696923370314
4038000000.0000005 0.5362130797152842 -0.892324545611078
4041000000.0000005 0.5120284960840731 -0.9010397687168695
4043999999.9999995 0.5531109816675055 -0.9224246025387454
4046999999.9999995 0.5749588694189777 -0.8859852354164249
4050000000.0 0.5081747666762269 -0.8940241063653549
4053000000.0 0.5342941873944904 -0.8581593445221782
4056000000.0 0.5190937618474216 -0.8821467489689356
4059000000.0 0.5437930210154356 -0.8724485001691329
4062000000.0000005 0.5271905992651258 -0.8672228508607331
4066000000.0 0.4729665961025155 -0.8440287424414148
4069000000.0 0.5536896420000309 -0.9235731262049269
4072000000.0 0.5884909143955455 -0.8382084283064413
4075000000.0 0.6175864331698429 -0.8883901744639549
4078000000.0000005 0.5509600340632962 -0.8574629168076802
4081000000.0000005 0.5966847497758102 -0.865888396088107
4083999999.9999995 0.5022050976290892 -0.8904060278743318
4088000000.0 0.5902068840466959 -0.8483035101756399
4091000000.0 0.5820951526738779 -0.9285073999366585
4094000000.0000005 0.5481776572685347 -0.8730067996458906
4097000000.0000005 0.5579094313145954 -0.8558560903611422
4099999999.9999995 0.5474779089772027 -0.8768145653960497
4102999999.9999995 0.6069567176776061 -0.873925678191359
4106000000.0 0.526448609892244 -0.8974729415237017
4109000000.0 0.5501525723924708 -0.892723301549525
4112000000.0 0.5389542776318174 -0.8654313290233739
4115999999.9999995 0.5470855438230185 -0.8431672127161871
4119000000.0 0.5428387782803649 -0.856159042285859
4122000000.0 0.5588168860991578 -0.8953266392196227
4125000000.0 0.543988101711204 -0.8895653083658936
4128000000.0 0.552185634747083 -0.8231851381849906
4131000000.0 0.5175604595936192 -0.8724023752175869
4134000000.0000005 0.5717396156496137 -0.9148510431930214
4138000000.0 0.512587518211196 -0.8568295422275876
4141000000.0 0.5533352383208199 -0.8822038100088789
4144000000.0 0.5763443014808324 -0.8830505299291552
4147000000.0000005 0.5113394227597042 -0.8515913382575737
4150000000.0000005 0.5555855870873487 -0.8791938508708556
4152999999.9999995 0.5616910736201097 -0.8887769894803011
4155999999.9999995 0.5449845626787811 -0.8517806637606549
4159000000.0 0.5525005274917099 -0.8457951866269521
4162000000.0 0.5601902440537353 -0.8787491554632529
4166000000.0000005 0.576546138289602 -0.8908766406644009
4168999999.9999995 0.5337438317316233 -0.8573866160908435
4171999999.9999995 0.5712115201142479 -0.8669711484938241
4175000000.0 0.5672252506149635 -0.8745461826492154
4178000000.0 0.5770061741092436 -0.8695959910674405
4181000000.0 0.5359696661561435 -0.8685023305138776
4184000000.0 0.5411610845248126 -0.8731854244020222
4187999999.9999995 0.5456234906560471 -0.8629713307992785
4191000000.0 0.5520626319773507 -0.8443485751702855
4194000000.0 0.540332819499108 -0.8555992851941596
4197000000.0 0.5645610827570858 -0.8544860097879857
4200000000.0 0.5887951374426867 -0.8548837346933835
4203000000.0000005 0.5870948388199304 -0.8569401094001177
4206000000.0000005 0.5628723050416274 -0.876255913820344
4208999999.9999995 0.5636795098006959 -0.8540452069030886
4211999999.9999995 0.5366618844321165 -0.8828652741912405
4216000000.0 0.5655474222365735 -0.8565194871233718
4219000000.0000005 0.5640983964409856 -0.8643173589670103
4222000000.0000005 0.5508543104326621 -0.8521167591435655
4224999999.9999995 0.5683022663783301 -0.8523021881631747
4227999999.9999995 0.545313491305959 -0.8584319010760038
4231000000.0 0.5621492713564017 -0.8517828580786175
4234000000.0 0.5464562512326671 -0.8690360672212245
4238000000.0000005 0.5301582987293056 -0.875061299046666
4240999999.9999995 0.535663964967989 -0.8658460162027612
4244000000.0 0.5711336170065437 -0.8536991541923956
4247000000.0 0.56193158194999 -0.8506673938891135
4250000000.0 0.5513143994619699 -0.8556993181646011
4253000000.0 0.5368080017021102 -0.834924070342268
4256000000.0 0.5666150036674087 -0.8779305411426228
4259000000.0000005 0.5157983327159814 -0.84550164143154
4261999999.9999995 0.5225537633421234 -0.855639276314452
4266000000.0 0.5398618506721415 -0.8661614018311781
4269000000.0 0.5631126179914048 -0.8233175507568681
4272000000.0000005 0.5408269621598866 -0.8479842543018061
4275000000.0000005 0.5585503511292653 -0.8625827692710597
4277999999.9999995 0.5691797221482262 -0.8533213367925786
4280999999.9999995 0.5739789651829053 -0.8476568823630128
4284000000.0 0.5328218652407576 -0.8628335928273749
4288000000.0000005 0.5726597287569698 -0.8413292603778868
4291000000.0000005 0.5393035900818146 -0.833807447842504
4293999999.9999995 0.5385200339204663 -0.8431837665151674
4297000000.0 0.5636904845954746 -0.8356407912790507
4300000000.0 0.5491223247873875 -0.8333120102181073
4303000000.0 0.5415397942404863 -0.8290257183586798
4306000000.0 0.5798259645093298 -0.836047518128271
4309000000.0 0.5659645231137185 -0.8703813674087337
4312000000.0 0.5949104521266202 -0.8488657863581928
4316000000.0 0.5834625272300127 -0.8736963014428553
4319000000.0 0.5617215551732946 -0.8411358019675279
4322000000.0 0.5046968602161436 -0.8754192412761369
4325000000.0 0.541830152425827 -0.8450290131330495
4328000000.0 0.5448671208399785 -0.8622751307992453
4331000000.0 0.5140185267922002 -0.8517312592780631
4334000000.0 0.546433225358467 -0.8635106434148957
4338000000.0 0.5741295515909086 -0.8227900917701488
4341000000.0 0.601451999852734 -0.8374802839052313
4344000000.0 0.5434571099184186 -0.8638401932994253
4347000000.0 0.5374841415850312 -0.8825551397364285
4350000000.0 0.5226915225888693 -0.8560729657752746
4353000000.0 0.5491738110169122 -0.8220327315533069
4356000000.0 0.5319275691375562 -0.8607251745501937
4359000000.0 0.5267517653098547 -0.8122078759152338
4362000000.0 0.5157453926055365 -0.8856523366514503
4366000000.0 0.5617564117969072 -0.867709759844052
4369000000.0 0.5250401463684067 -0.8491782791732182
4372000000.0 0.5258008499193655 -0.8544746224999429
4375000000.0 0.5510867869791797 -0.833861936125273
4378000000.0 0.5418964615524309 -0.8353002656624469
4381000000.0 0.5312827982032065 -0.8523470535723503
4384000000.0 0.5859355758830821 -0.9102026983113825
4388000000.0 0.5387790552567652 -0.832221469458331
4391000000.0 0.564014882720811 -0.8697689385655782
4394000000.0 0.5267835341911822 -0.8326952015243372
4397000000.0 0.5444460389434407 -0.854104522980531
4400000000.0 0.5608755735097865 -0.8810719160852485
4403000000.0 0.5433699674302095 -0.8688920506388391
4406000000.0 0.5314782363046451 -0.878486688071481
4409000000.0 0.5668059330093911 -0.8882038225755484
4412000000.0 0.4870181483390041 -0.8676657905687234
4416000000.0 0.5351260234370832 -0.8477012885635307
4419000000.0 0.518653503864145 -0.8704884359117578
4422000000.0 0.555422133724869 -0.8405362322242389
4425000000.0 0.5611938579212497 -0.8453905512372483
4428000000.0 0.5362107694075045 -0.8544603938841988
4431000000.0 0.5501653776096396 -0.8860635865523662
4434000000.0 0.518261520006081 -0.8568805471306052
4438000000.0 0.5548030218683206 -0.8591442902236032
4441000000.0 0.5543850169354758 -0.8636189700673205
4444000000.0 0.5354253965540403 -0.8356791050830803
4447000000.0 0.5206484343180486 -0.8700720668198931
4450000000.0 0.5490786158470076 -0.8444681695609405
4453000000.0 0.5482945082002054 -0.8699614629369306
4456000000.0 0.5117379873640241 -0.8399071613774618
4459000000.0 0.49722419318426103 -0.8298214572245403
4462000000.0 0.5417863240873388 -0.9102667078283029
4466000000.0 0.5496680735827768 -0.8988565250778779
4469000000.0 0.5529576123812211 -0.8501339739418048
4472000000.0 0.5139130327296246 -0.8707956775134642
4475000000.0 0.5280857492471619 -0.8392223652399258
4478000000.0 0.5360287281697182 -0.9153889362629619
4481000000.0 0.4938098086593542 -0.8470452997660318
4484000000.0 0.47749329154596415 -0.8752571053201401
4488000000.0 0.5130193523942466 -0.8806437082118561
4491000000.0 0.535398582132447 -0.8815562806133963
4494000000.0 0.5241059017957608 -0.8602835326124794
4497000000.0 0.5310226516491305 -0.8509676044247456
4500000000.0 0.5423004978045496 -0.8479279701583745
4503000000.0 0.5331848864025095 -0.890252743514351
4506000000.0 0.5116538640278799 -0.867678260094161
4509000000.0 0.5167291201693194 -0.832385926457585
4512000000.0 0.506202211529441 -0.848482250057544
4516000000.0 0.5273888253786054 -0.8632075569420821
4519000000.0 0.5215187692423808 -0.8437564799614261
4522000000.0 0.5218247390529756 -0.8605171161076319
4525000000.0 0.5725078002739515 -0.8539913156598609
4528000000.0 0.5366190757471739 -0.8967146499686844
4531000000.0 0.5488228602241457 -0.8731385189782357
4534000000.0 0.5241561185494827 -0.8537026866956744
4538000000.0 0.5221296795162151 -0.8676560763770538
4541000000.0 0.4926403332104285 -0.8713454700234362
4544000000.0 0.5100478783982386 -0.8509269119225498
4547000000.0 0.5383279616660139 -0.8462975281810898
4550000000.0 0.510586348248093 -0.8701480858139679
4553000000.0 0.5162389339086582 -0.8758969543964371
4556000000.0 0.5049082311189561 -0.8636373156630966
4559000000.0 0.4993047919333392 -0.8712538589171861
4562000000.0 0.5255890146500444 -0.8743849216703814
4566000000.0 0.534005892526326 -0.8794503536748205
4569000000.0 0.5087692600431837 -0.8575552437277566
4572000000.0 0.5170021779307742 -0.8793547996438582
4575000000.0 0.5012068201825799 -0.8871206779518914
4578000000.0 0.5528024456004454 -0.8936777612567064
4581000000.0 0.49849838910776934 -0.8818454001200177
4584000000.0 0.49939511490450117 -0.8603442741434819
4588000000.0 0.5396446578812467 -0.8737987284937014
4591000000.0 0.5205673310975756 -0.8566883964065625
4594000000.0 0.5058725687435324 -0.8745552230536975
4597000000.0 0.49876662349820017 -0.8835548121818764
4600000000.0 0.4868314015899865 -0.8717469503816597
4603000000.0 0.5109256899954259 -0.8788321186368753
4606000000.0 0.5250683705557921 -0.8849269949100356
4609000000.0 0.5229224925039789 -0.8825133850530236
4612000000.0 0.5369340124523532 -0.892172548324293
4616000000.0 0.49158739474427543 -0.855765696224735
4619000000.0 0.5074702654311272 -0.8738145803435082
4622000000.0 0.5198644459653918 -0.8595710527888785
4625000000.0 0.48644790919386216 -0.8566368443893896
4628000000.0 0.5135923400330635 -0.8465459094288998
4631000000.0 0.49388681655624533 -0.8867940463484844
4634000000.0 0.4970490005725139 -0.8731290762935267
4638000000.0 0.5206402812470405 -0.8848208105999953
4641000000.0 0.53377190765261 -0.860468804592827
4644000000.0 0.5095373796746322 -0.867384885881096
4647000000.0 0.5157952719508235 -0.8782163853131209
4650000000.0 0.4904121807050815 -0.8761890536945087
4653000000.0 0.5329958162515229 -0.8881730438453567
4656000000.0 0.5057646366938955 -0.8807290915866601
4659000000.0 0.4917735916445555 -0.8944783697026782
4662000000.0 0.4959100053438268 -0.8765190962295171
4666000000.0 0.5008360942501486 -0.8740877079804962
4669000000.0 0.5113392453234824 -0.866071809438958
4672000000.0 0.5010430268852564 -0.894062270562211
4675000000.0 0.4995488936559697 -0.879003455839417
4678000000.0 0.4888760932185022 -0.8727360520023327
4681000000.0 0.46445706336334314 -0.8966445957069769
4684000000.0 0.46103197032232723 -0.8895337543958828
4688000000.0 0.4809615889575533 -0.8849062729517279
4691000000.0 0.5062944285521459 -0.8755802802355628
4694000000.0 0.5144007631866724 -0.8613784919533575
4697000000.0 0.4678609190032217 -0.8656190060878289
4700000000.0 0.4976238250229455 -0.8612430815462379
4703000000.0 0.505266354034231 -0.8491347268373749
4706000000.0 0.4742901457806434 -0.9073044836551505
4709000000.0 0.48194261102034125 -0.8589327735817495
4712000000.0 0.525274096923543 -0.8645994227588708
4716000000.0 0.5112269299337812 -0.8899808169776987
4719000000.0 0.5318385699940289 -0.8965262956048079
4722000000.0 0.5069853411873748 -0.8908742539484971
4725000000.0 0.5102654982291885 -0.8710338504850027
4728000000.0 0.4583218225009699 -0.8680438498761316
4731000000.0 0.530276686868289 -0.8895718438488522
4734000000.0 0.5104905687591013 -0.8603207788562509
4738000000.0 0.5423419023081127 -0.9190690980510664
4741000000.0 0.5070482241856171 -0.893714108446367
4744000000.0 0.48719739231127346 -0.9274541170789298
4747000000.0 0.5114569315145856 -0.84032221245876
4750000000.0 0.48581082356741245 -0.8928533902209458
4753000000.0 0.5024718209969973 -0.9029889163610366
4756000000.0 0.49580155016181765 -0.9028135711511446
4759000000.0 0.5328347454168818 -0.9128240937494414
4762000000.0 0.46765165540834347 -0.9423017072454475
4766000000.0 0.49137457272464546 -0.8809530164310664
4769000000.0 0.5119501980628336 -0.8813352420222538
4772000000.0 0.5049566847838013 -0.9211307014514262
4775000000.0 0.500919210126023 -0.946866261725219
4778000000.0 0.49899489735230945 -0.9165849276261903
4781000000.0 0.5124660911864509 -0.8890962513812734
4784000000.0 0.506939514792311 -0.8692586780000794
4788000000.0 0.47646357598359745 -0.9109010123028405
4791000000.0 0.4815738157833118 -0.8986505433250827
4794000000.0 0.541592502940962 -0.8839093282705079
4797000000.0 0.4889702690511546 -0.8903841681017851
4800000000.0 0.4805346408200798 -0.8825148718980969
4803000000.0 0.4473466225068692 -0.8938807805701549
4806000000.0 0.4992150961635244 -0.9272535636123637
4809000000.0 0.44725185664992806 -0.9317787514110707
4812000000.0 0.4523640377460445 -0.9105037496016095
4816000000.0 0.5117877602304675 -0.8755822387641549
4819000000.0 0.5285976128082923 -0.9299569556052336
4822000000.0 0.520225091203058 -0.9060019654518952
4825000000.0 0.5299186429757419 -0.8879041558902563
4828000000.0 0.492764805769724 -0.8926024892267603
4831000000.0 0.46882214026380065 -0.9301042039705691
4834000000.0 0.5041308770642029 -0.8889529112958136
4838000000.0 0.49649292345563856 -0.9215868850961412
4841000000.0 0.47864513625690874 -0.9025523541161602
4844000000.0 0.5388799666054165 -0.886460041173655
4847000000.0 0.5077126517816708 -0.8819977320657886
4850000000.0 0.5200446127345075 -0.9130214265547038
4853000000.0 0.4993066780351237 -0.8757827647154685
4856000000.0 0.5005777981655385 -0.8789913407066111
4859000000.0 0.5059536844912461 -0.9422995714958918
4862000000.0 0.5119402604729003 -0.8777978718739585
4866000000.0 0.49816873649907256 -0.9228975019412787
4869000000.0 0.48868245467282084 -0.8900012131923278
4872000000.0 0.4835153581645275 -0.9206865236464377
4875000000.0 0.5783767520757965 -0.9015518728171348
4878000000.0 0.49216283746032363 -0.8900980738414409
4881000000.0 0.5086988386186037 -0.9771656170884125
4884000000.0 0.5125193508620567 -0.9110687537472655
4888000000.0 0.5323226479134278 -0.8816959504500086
4891000000.0 0.5244983690980703 -0.8993650890769064
4894000000.0 0.48917585928360835 -0.8889592864002022
4897000000.0 0.5380665828647168 -0.8676914434902098
4900000000.0 0.5309628383404129 -0.9125506766860038
4903000000.0 0.5203174365651898 -0.9278940485402929
4906000000.0 0.5148072195516415 -0.9156162900984952
4909000000.0 0.5025653570182113 -0.9114911113926022
4912000000.0 0.4986148407195106 -0.9208064949428184
4916000000.0 0.5529972270496878 -0.8850343918247153
4919000000.0 0.549625168428847 -0.9315757608409008
4922000000.0 0.5509655054642606 -0.9057093755511575
4925000000.0 0.4817697816336984 -0.8884542049354385
4928000000.0 0.5451997389458666 -0.8851666029254155
4931000000.0 0.5395423755650163 -0.8944820386336043
4934000000.0 0.5231873470747552 -0.8621443039333114
4938000000.0 0.49574615624957913 -0.9127035647553414
4941000000.0 0.4735639478057392 -0.8799617370879553
4944000000.0 0.4895078802492318 -0.8326255196127398
4947000000.0 0.47924197253445655 -0.8812930818209735
4950000000.0 0.4858341310604506 -0.8619199959909147
4953000000.0 0.49783412327618437 -0.9389772191453938
4956000000.0 0.5037939272873403 -0.9309702683543717
4959000000.0 0.4743105868400457 -0.8905884460298349
4962000000.0 0.5266887798094897 -0.9224624644731805
4966000000.0 0.541309638125379 -0.9042298634458871
4969000000.0 0.5586681208392938 -0.9207081895910136
4972000000.0 0.50131156040661 -0.8832265650245902
4975000000.0 0.5405387340230823 -0.8742382505842131
4978000000.0 0.5026031666860995 -0.8997196867856678
4981000000.0 0.49566355021635167 -0.9283817618160968
4984000000.0 0.5166732310204907 -0.8675949040559588
4988000000.0 0.553881188762675 -0.8756396872976866
4991000000.0 0.6065561798806522 -0.8794777858235306
4994000000.0 0.5333816840498474 -0.9041305054339145
4997000000.0 0.5079848425201771 -0.90833844301134
5000000000.0 0.5618114174689347 -0.9024801943452818
5003000000.0 0.5437862908202006 -0.9382476926139235
5006000000.0 0.5519072516833416 -0.9191421314660237
5009000000.0 0.5112128360858461 -0.8723802439824239
5012000000.0 0.5184858564388477 -0.9274285010848018
5016000000.0 0.5728761286563323 -0.9235054357518814
5019000000.0 0.5259700001297141 -0.9219306670201295
5022000000.0 0.5133164773776002 -0.8840476647706441
5025000000.0 0.5470699636920299 -0.97722088751612
5028000000.0 0.5157039849549845 -0.9101561836356922
5031000000.0 0.49271602294699923 -0.9183100148953794
5034000000.0 0.5043765294332676 -0.948913417734381
5038000000.0 0.4492149130619749 -0.893803309432625
5041000000.0 0.5543004971744108 -0.8939705391974583
5044000000.0 0.5179350104399465 -0.8713205097690881
5047000000.0 0.5450872197518578 -0.901492065465481
5050000000.0 0.6006671981852737 -0.8575370627490883
5053000000.0 0.5619497816387053 -0.9213112032496873
5056000000.0 0.5747830977957722 -0.8997304981141412
5059000000.0 0.5726476242504319 -0.8648065688884197
5062000000.0 0.5213544198046576 -0.9264830723818921
5066000000.0 0.5421610848439968 -0.8685442982393862
5069000000.0 0.5139882640089837 -0.9103966723726292
5072000000.0 0.5675547456879952 -0.8805455299099729
5075000000.0 0.594655559146935 -0.887487435330885
5078000000.0 0.5196806548254879 -0.9155041540537183
5081000000.0 0.517925462124406 -0.88110992310902
5084000000.0 0.5228736337010128 -0.9210438198659661
5088000000.0 0.5355355124117621 -0.8679886810505557
5091000000.0 0.4893725690584713 -0.92373298755567
5094000000.0 0.5267808639182421 -0.8932978898301234
5097000000.0 0.5792049452372701 -0.9109672795924857
5100000000.0 0.5300631082835867 -0.8901420444174803
5103000000.0 0.5028521290545566 -0.9175737490790004
5106000000.0 0.5716248349752867 -0.9338384845285147
5109000000.0 0.5432921595576963 -0.8639332769190483
5112000000.0 0.5250973168423612 -0.958147759328785
5116000000.0 0.5249154398283162 -0.8553072247644504
5119000000.0 0.5401641024941914 -0.9188715110190022
5122000000.0 0.5294682945685087 -0.8587787333941994
5125000000.0 0.5543667790219065 -0.8678305044677481
5128000000.0 0.5641440005528726 -0.8833300316335986
5131000000.0 0.5679288952958284 -0.8880195916230492
5134000000.0 0.5299433119994155 -0.8532775028265849
5138000000.0 0.5615496096252093 -0.8724211143762148
5141000000.0 0.5894051869526231 -0.8475521388290956
5144000000.0 0.5554043516669838 -0.8815043745641227
5147000000.0 0.5605175370730302 -0.895878432233176
5150000000.0 0.5480164893632855 -0.8902462449317732
5153000000.0 0.5947082285137402 -0.8912653949210222
5156000000.0 0.5898257211761175 -0.8755957503531735
5159000000.0 0.5993902809441769 -0.9183990612659529
5162000000.0 0.4949465368012821 -0.8744198213632925
5166000000.0 0.5677529423805785 -0.9134924458608371
5169000000.0 0.57464409592047 -0.8986462694974925
5172000000.0 0.5257929488333808 -0.8804618209398091
5175000000.0 0.599820813560834 -0.8986932794901394
5178000000.0 0.5285685705665266 -0.8942444170759584
