! Created with skrf 1.8.0 (http://scikit-rf.org).
# Hz S RI R 50.0 
!freq ReS11 ImS11
4000000000.0 0.35098110395744125 -0.9239932811689056
4003000000.0 0.3723547693306581 -1.0271790855272893
4006000000.0 0.3203029740418216 -0.952512870965204
4009000000.0000005 0.37611639306754807 -0.9706873781149895
4011999999.9999995 0.4177336764676438 -0.9906168459518139
4016000000.0 0.34012557695954565 -0.9968138442739329
4019000000.0 0.3965819146112969 -0.9533843358728901
4022000000.0000005 0.4261784451944537 -0.9682226453881881
4025000000.0000005 0.32254517697553264 -0.9636442832906094
4027999999.9999995 0.3260528405206522 -0.9837836505993164
4030999999.9999995 0.3583726515562109 -0.961982487673529
4034000000.0 0.3244691253041669 -0.9541575759780994
4038000000.0000005 0.3531933162225808 -0.9612040149786493
4041000000.0000005 0.3864849763307925 -0.956651084608248
4043999999.9999995 0.38374797478585077 -1.0125303999036406
4046999999.9999995 0.37753831780231695 -0.9998252916052823
4050000000.0 0.33798139624776413 -1.003237393178641
4053000000.0 0.31964985780977895 -0.9376149366147083
4056000000.0 0.35284044789182456 -0.9903905060418886
4059000000.0 0.34654881980366825 -0.9556095788731829
4062000000.0000005 0.31559267924830436 -0.9813329122743989
4066000000.0 0.29657623914503256 -0.8992621334729116
4069000000.0 0.3753265648674178 -1.0052029043983877
4072000000.0 0.35584825757753746 -0.9354285125761492
4075000000.0 0.350404000757103 -0.9817468794820813
4078000000.0000005 0.3305590920981586 -0.9714150650701111
4081000000.0000005 0.39596786686031915 -0.9685622339535389
4083999999.9999995 0.32850110256586784 -0.9426877743278755
4088000000.0 0.37121363608663493 -0.9732159107863074
4091000000.0 0.39108540206738507 -1.0394195077235928
4094000000.0000005 0.3650625929689948 -0.9382017146113617
4097000000.0000005 0.3275177642402519 -0.9604248114942001
4099999999.9999995 0.36815856143535447 -0.947319515796377
4102999999.9999995 0.34937927621099796 -0.9545433920422678
4106000000.0 0.336205252928297 -0.9724428893307676
4109000000.0 0.34877454518179857 -0.9666297605445626
4112000000.0 0.3257133473528562 -0.9475523239687982
4115999999.9999995 0.3388158887876994 -0.9705427348577713
4119000000.0 0.33432967368306904 -0.9760639172147484
4122000000.0 0.3361238158869886 -0.9638786481274326
4125000000.0 0.3340338115362472 -0.9893574900802043
4128000000.0 0.3287085109581927 -0.9336124419938029
4131000000.0 0.33896596612939023 -0.9885197950140964
4134000000.0000005 0.33871016122627573 -0.9806025761653089
4138000000.0 0.3071969622646757 -0.9781226711996481
4141000000.0 0.3282626064278461 -0.9664989170996585
4144000000.0 0.34824535101678405 -0.9843861065065261
4147000000.0000005 0.3169449389206857 -0.9736443236759834
4150000000.0000005 0.331857631624733 -0.9802141940150227
4152999999.9999995 0.3218364774878527 -0.9400583863476016
4155999999.9999995 0.34824529950186806 -0.9807621114877079
4159000000.0 0.3289253407921426 -0.9317919874250358
4162000000.0 0.31384390668024664 -0.9434294036560165
4166000000.0000005 0.3411634209257356 -0.9858018224264857
4168999999.9999995 0.3014525127451908 -0.9470163303701838
4171999999.9999995 0.2896421565109972 -0.9762424965134076
4175000000.0 0.3393595331940149 -0.9801686108042797
4178000000.0 0.317384957893639 -0.974691119383502
4181000000.0 0.30113765463731845 -0.9806752780212578
4184000000.0 0.3005241279960227 -0.954634653408661
4187999999.9999995 0.3242450931899038 -0.9629499109623709
4191000000.0 0.3419181994112629 -0.9420931098107609
4194000000.0 0.2913979675507703 -0.9490470742522032
4197000000.0 0.31504082571936814 -0.9927431991101497
4200000000.0 0.33175868661525504 -0.9781706897893155
4203000000.0000005 0.3204852298508306 -0.9977500920889243
4206000000.0000005 0.3348327447290111 -0.9916850290035398
4208999999.9999995 0.31637480570413845 -0.9543403908896674
4211999999.9999995 0.28495321369201204 -0.979238346858244
4216000000.0 0.336797545269289 -0.9601420482768551
4219000000.0000005 0.3338444490756021 -0.9862404628375964
4222000000.0000005 0.3032780529712535 -0.9755301196757822
4224999999.9999995 0.2980412896716922 -0.9664530055021158
4227999999.9999995 0.2846944152965609 -0.9871103152374722
4231000000.0 0.2711138515767772 -0.987628980648357
4234000000.0 0.28898748823787485 -0.9943164229715847
4238000000.0000005 0.28791338384037435 -0.9916611255097982
4240999999.9999995 0.2700508092552805 -0.9574572915785803
4244000000.0 0.2971936917796374 -0.9600055321516262
4247000000.0 0.2811748828736493 -0.9642602730983845
4250000000.0 0.28089377290510964 -0.9541469646811237
4253000000.0 0.26750320195554594 -0.9603920774796456
4256000000.0 0.29740291774710786 -1.0109363089782988
4259000000.0000005 0.2750653442817568 -0.9407983456376781
4261999999.9999995 0.26163464269624725 -0.9707808724852739
4266000000.0 0.2607169968780322 -0.99535982715437
4269000000.0 0.28561851501215835 -0.9673615485904098
4272000000.0000005 0.286242263250026 -0.9871695895797724
4275000000.0000005 0.28529600768951324 -0.9705679610939949
4277999999.9999995 0.30506456454899133 -0.9866971669876679
4280999999.9999995 0.3038773773697686 -0.9844365694685588
4284000000.0 0.2469770382638288 -0.9787551817176983
4288000000.0000005 0.30721345435525405 -0.953991721715268
4291000000.0000005 0.2664918781518155 -0.9494067983738849
4293999999.9999995 0.26510025760356826 -0.9625393597654315
4297000000.0 0.2952211219702492 -0.946677067254985
4300000000.0 0.2656821330853899 -0.9540155208525765
4303000000.0 0.26041293870444726 -0.9651373636902407
4306000000.0 0.3043405136080237 -0.9748059621301385
4309000000.0 0.27904337533646884 -0.977166489153541
4312000000.0 0.3296004564446705 -0.9692219228678147
4316000000.0 0.2839770302897664 -0.9802800589833666
4319000000.0 0.24263224944255568 -0.9435743075798368
4322000000.0 0.24409568966934114 -0.9757229496846178
4325000000.0 0.24459750562592664 -0.9842201857374601
4328000000.0 0.2518976249996763 -0.9743492483177529
4331000000.0 0.22903241784769224 -0.9780885370648206
4334000000.0 0.23667586635469778 -0.9971961912820761
4338000000.0 0.2557865689328628 -0.9828016821888357
4341000000.0 0.292725770701699 -0.9904856598739742
4344000000.0 0.2530123029693791 -1.0213709058829537
4347000000.0 0.2454392320322733 -1.0198899627756584
4350000000.0 0.23471014428753184 -0.9564496242255691
4353000000.0 0.2690778594460666 -0.9557183674521004
4356000000.0 0.2075615654266187 -0.9833005311947101
4359000000.0 0.20742642681527562 -0.9395853767338065
4362000000.0 0.18331632902912653 -0.9966992384271267
4366000000.0 0.24048928603042474 -0.99478510418056
4369000000.0 0.21705369993104467 -0.9552746935649461
4372000000.0 0.19901928414669495 -0.9659918225302244
4375000000.0 0.24813998435709628 -0.9749860231266116
4378000000.0 0.22625948809163748 -0.9591480534080543
4381000000.0 0.22148838457626097 -0.9682818780696056
4384000000.0 0.23256804935389253 -1.0459568276961226
4388000000.0 0.21286924529658846 -0.980173310230326
4391000000.0 0.2288726121785994 -0.9952702484234474
4394000000.0 0.19858767516563008 -0.961806673732331
4397000000.0 0.1957523847543412 -0.9957348633213424
4400000000.0 0.1972505349851793 -1.0068327981963683
4403000000.0 0.20146987049776638 -0.9868787883037262
4406000000.0 0.19098228916642873 -0.9979633018932799
4409000000.0 0.2010129544703409 -1.007429932213339
4412000000.0 0.14300571076888746 -0.9959805599945892
4416000000.0 0.19634547095043547 -0.9786436165796157
4419000000.0 0.17327154385827181 -1.0029155121247642
4422000000.0 0.21356930931741436 -0.9791788927449324
4425000000.0 0.21891035161310146 -1.0058383489813356
4428000000.0 0.18142960516929174 -0.9946533485904495
4431000000.0 0.19424599094321132 -1.00112275612029
4434000000.0 0.17894293277601603 -0.9748510464862165
4438000000.0 0.19800785708839624 -1.0088613528447365
4441000000.0 0.18483690775559475 -1.0059786668536088
4444000000.0 0.19385420631829187 -0.973399393442369
4447000000.0 0.17406711141460735 -0.9890128652900549
4450000000.0 0.1772226168452415 -0.9796286802224612
4453000000.0 0.1782532551073464 -1.0202879356696122
4456000000.0 0.1663229405923241 -0.9873871404457137
4459000000.0 0.1533877621248918 -0.9679079593476547
4462000000.0 0.15503774011010102 -1.0428158044497957
4466000000.0 0.1548402140940217 -1.0302031684691204
4469000000.0 0.1715915405926685 -1.0007246427608476
4472000000.0 0.13113064535219016 -1.0221034983255959
4475000000.0 0.15636067812594406 -0.9895691105339577
4478000000.0 0.14939419875149224 -1.015603373256471
4481000000.0 0.1380970597033368 -0.9832345218409531
4484000000.0 0.09519392049335684 -1.0132964938410922
4488000000.0 0.12451478477074557 -1.0053278345556722
4491000000.0 0.14418272896417844 -1.0047715154909524
4494000000.0 0.15540292232548703 -0.9824957310737157
4497000000.0 0.14754606578398027 -0.9860967959748744
4500000000.0 0.14480066316860862 -1.0024545300609375
4503000000.0 0.14781886698922636 -1.027971644396676
4506000000.0 0.1287930349947915 -0.9995161444560553
4509000000.0 0.11850651145851132 -0.9976239161973299
4512000000.0 0.10523866069337967 -0.9908798040320008
4516000000.0 0.10133385992297106 -1.0356013292150084
4519000000.0 0.1291397349044206 -0.9646724019980111
4522000000.0 0.1230048844713344 -1.0129022021242808
4525000000.0 0.1389059122809319 -1.0085406560024428
4528000000.0 0.1438488738055329 -1.0183040792141638
4531000000.0 0.12052356839730233 -1.0186714579195462
4534000000.0 0.10834818413200836 -0.997970578338618
4538000000.0 0.09848669189856357 -1.0243165009908934
4541000000.0 0.06929030473496339 -0.9886754801092201
4544000000.0 0.10032944866159965 -1.0270964432862921
4547000000.0 0.10285034588262126 -0.9869382630269457
4550000000.0 0.11369330931642341 -1.034531852060236
4553000000.0 0.08595171584748229 -1.010145530600028
4556000000.0 0.08020969252102234 -1.0073795845642257
4559000000.0 0.10518723109097605 -1.001651642166826
4562000000.0 0.08900321296812053 -1.0165856438555991
4566000000.0 0.07901977920721936 -1.0102571625938683
4569000000.0 0.07228387621437449 -0.999353334620269
4572000000.0 0.08638614899825675 -1.0005452866544449
4575000000.0 0.06016588363998132 -1.002264467672389
4578000000.0 0.08707287455300594 -1.0046357735577742
4581000000.0 0.07291089896811043 -0.9982813911647735
4584000000.0 0.06651033723746841 -1.0082153833293168
4588000000.0 0.06309992408233145 -1.0301810238271087
4591000000.0 0.04561960651247471 -1.0142773438886528
4594000000.0 0.03243458275546124 -1.0166221181434665
4597000000.0 0.04880679590338938 -1.0386981471317616
4600000000.0 0.03240593262893304 -1.0220646856353435
4603000000.0 0.03194876553214193 -1.0044904954879108
4606000000.0 0.051717771063861495 -1.0307764239762582
4609000000.0 0.060108982511566544 -1.000788577202326
4612000000.0 0.012546719181884491 -1.0085065221671228
4616000000.0 0.02966581600458318 -0.9930602252372297
4619000000.0 0.009810971502156929 -1.0000369432490794
4622000000.0 -0.006573002026544872 -1.0014533305222868
4625000000.0 -0.011294116736064286 -1.0123682989756866
4628000000.0 0.034213016751083764 -1.0612753675329398
4631000000.0 0.013434768568440503 -1.0326448377082027
4634000000.0 -0.01938993696610397 -1.0328154753569387
4638000000.0 0.021134180663776342 -1.0106848721390516
4641000000.0 -4.368627470163755e-05 -1.0066252718568096
4644000000.0 -0.012734236626531587 -1.0070059902497008
4647000000.0 0.009792081806176856 -1.0092928804535275
4650000000.0 -0.0032962417542048705 -0.9920438049490016
4653000000.0 0.00024970814325800395 -1.0231511079727569
4656000000.0 0.009456125487649902 -1.0290609519940983
4659000000.0 -0.0240745320211104 -1.0282030585092086
4662000000.0 -0.012659435731390167 -1.0272462317942834
4666000000.0 -0.04214504327633667 -1.0330308533668182
4669000000.0 -0.015725810722683253 -1.0292743430902522
4672000000.0 -0.052888789254101856 -1.0340134737690854
4675000000.0 -0.04147054419772775 -1.0477750987170993
4678000000.0 -0.04836425359043505 -0.9873003742449595
4681000000.0 -0.05154760281206593 -1.031759775350736
4684000000.0 -0.09336734668169998 -1.0114320504233076
4688000000.0 -0.06802578311231572 -1.022944974068654
4691000000.0 -0.012118334108956033 -1.0672632862120486
4694000000.0 -0.021315667594748296 -1.009086771523624
4697000000.0 -0.06209274084217787 -0.9829322693875595
4700000000.0 -0.06515670412746385 -1.034386472400667
4703000000.0 0.012796588313285617 -0.9681719752364896
4706000000.0 -0.11633584952233363 -1.0229216899512157
4709000000.0 -0.06942521719193372 -1.0329253531595477
4712000000.0 -0.0198679400399943 -1.0255485481565108
4716000000.0 -0.07278710880131732 -1.055861704681106
4719000000.0 -0.027916736314360698 -1.0142967668911482
4722000000.0 -0.027519210391739143 -1.0239891575372693
4725000000.0 -0.07614962351112911 -1.0355417665291902
4728000000.0 -0.09597475303813678 -1.0557684062603931
4731000000.0 -0.11370020109361645 -1.07668690485731
4734000000.0 -0.058020105682730784 -1.004982945515914
4738000000.0 -0.03345387047002667 -1.094827222733654
4741000000.0 -0.12509519194998214 -1.042490356262247
4744000000.0 -0.11346997703232051 -1.064368787937484
4747000000.0 -0.09009566898006678 -0.9773970559369911
4750000000.0 -0.10018887011712102 -1.084359195405223
4753000000.0 -0.07627473543876825 -1.0417408504789776
4756000000.0 -0.11731201557269973 -1.028917027608859
4759000000.0 -0.09331826596774781 -1.0088544189091737
4762000000.0 -0.1591747679328684 -1.05676765943029
4766000000.0 -0.13041431260451428 -1.0493932472826861
4769000000.0 -0.12780116497709001 -1.0336989643041223
4772000000.0 -0.11536485176063702 -1.0286627803521413
4775000000.0 -0.1517317338305017 -1.0603370306000783
4778000000.0 -0.16535769440747516 -1.0658120739861663
4781000000.0 -0.13135521780439563 -1.0131525008940618
4784000000.0 -0.13696208602015458 -1.0241577488377038
4788000000.0 -0.19416744182788012 -1.0257025507713502
4791000000.0 -0.14441324828803356 -1.019260119394031
4794000000.0 -0.13430263947208376 -1.0542862202033962
4797000000.0 -0.15555109050785873 -1.0054608614434666
4800000000.0 -0.14371955185226543 -0.9964738835507998
4803000000.0 -0.21940598815391957 -1.0111566085474477
4806000000.0 -0.1742672346016306 -1.0383336952032076
4809000000.0 -0.24037694522633726 -0.9862289995544381
4812000000.0 -0.22528685995338402 -0.9742163890825262
4816000000.0 -0.14092135548337065 -1.0009252878736943
4819000000.0 -0.1404573361215034 -1.0346281849593182
4822000000.0 -0.1713650469782509 -1.0722213862882402
4825000000.0 -0.15897035060769354 -1.0419285216615748
4828000000.0 -0.21660704347114196 -1.0146065143812868
4831000000.0 -0.26034529827531433 -1.0360531933623682
4834000000.0 -0.165115789770944 -1.0334054935379222
4838000000.0 -0.2250207373450288 -1.0148325390865973
4841000000.0 -0.2212414147578698 -0.9891394901400639
4844000000.0 -0.19529905099296513 -1.0409083811239528
4847000000.0 -0.17082021103274625 -0.9799135079991803
4850000000.0 -0.26542424084180133 -1.0331038658774239
4853000000.0 -0.21563373883357606 -0.9756873082004114
4856000000.0 -0.2253665984313033 -0.9943941703593507
4859000000.0 -0.27833195997188515 -1.0411433760864373
4862000000.0 -0.21637220951009978 -0.9974777059585132
4866000000.0 -0.2548257722744441 -1.0100265877752086
4869000000.0 -0.250361235453562 -1.0258191557611256
4872000000.0 -0.2793394870275327 -1.0182483237505573
4875000000.0 -0.24102309250626047 -1.0536693287066248
4878000000.0 -0.2788960133102441 -1.0031679677904495
4881000000.0 -0.3185736962381558 -1.038082859110371
4884000000.0 -0.2610720387339518 -1.0173372379832288
4888000000.0 -0.26650432760832515 -1.0223487406053053
4891000000.0 -0.29581435133666684 -0.9983301867451788
4894000000.0 -0.2781031178015247 -0.967988523664036
4897000000.0 -0.27593980568541165 -0.9829767679705528
4900000000.0 -0.3062249588801796 -1.0362031915270953
4903000000.0 -0.30241114853690243 -1.0260772146144264
4906000000.0 -0.30761522559484145 -0.9908669560539707
4909000000.0 -0.32412165171418034 -0.9746836007725355
4912000000.0 -0.3373003117638086 -0.9834368717836073
4916000000.0 -0.35448533665814563 -1.0165306661539415
4919000000.0 -0.2994106175944526 -1.0220654312132562
4922000000.0 -0.3623246617480733 -0.9951207811497446
4925000000.0 -0.3785404385442281 -0.9396772263422133
4928000000.0 -0.2750120719384723 -1.0268666659777803
4931000000.0 -0.33044627742405774 -0.9831955666429393
4934000000.0 -0.3249343578294296 -0.9723319242446633
4938000000.0 -0.4272398827890138 -0.9647330494879587
4941000000.0 -0.35201274289758533 -0.9508164965802473
4944000000.0 -0.3626426187387683 -0.9403925818337191
4947000000.0 -0.37494612110050846 -0.9640487313798279
4950000000.0 -0.3769175352360772 -0.9381896141303685
4953000000.0 -0.3853280096302035 -0.9714090099616786
4956000000.0 -0.3965592778476888 -0.9011355247237145
4959000000.0 -0.43527895899301106 -0.9096366998452989
4962000000.0 -0.43934121614780186 -0.976431238848064
4966000000.0 -0.38534402261902667 -0.984562212338111
4969000000.0 -0.408066828657452 -0.961637950381381
4972000000.0 -0.4358297213113222 -0.9510307429627463
4975000000.0 -0.43080164477174787 -0.9651230661579635
4978000000.0 -0.45432515213150465 -0.9281123446197725
4981000000.0 -0.4550490504246593 -0.90685755905283
4984000000.0 -0.5111463943984021 -0.9191820867558097
4988000000.0 -0.4522927074623729 -0.9551301489696806
4991000000.0 -0.44638753607546217 -0.9634973159963696
4994000000.0 -0.4620378049770755 -0.9008546098379047
4997000000.0 -0.5117016149992265 -0.8988880604687367
5000000000.0 -0.5101869812179387 -0.9517032372424225
5003000000.0 -0.5111530052050763 -0.9373527371429718
5006000000.0 -0.5219624683731827 -0.9105594465758047
5009000000.0 -0.5334150069757516 -0.8904171320496065
5012000000.0 -0.5560384999778103 -0.9177259066777209
5016000000.0 -0.5075415996623429 -0.939267526124089
5019000000.0 -0.5202520320694686 -0.90646721925445
5022000000.0 -0.5594964793320312 -0.8806846338257096
5025000000.0 -0.5570239239090723 -0.8683776877255683
5028000000.0 -0.5279855972399453 -0.8725144307035523
5031000000.0 -0.6041731001850037 -0.8539984813031017
5034000000.0 -0.5996049709950949 -0.8807753090716389
5038000000.0 -0.5979761219130805 -0.8544459307481872
5041000000.0 -0.5754420290458881 -0.865821304857696
5044000000.0 -0.5641750500375567 -0.8493668241633946
5047000000.0 -0.5901230238864279 -0.8246295107619932
5050000000.0 -0.6083986295004093 -0.8298229444271952
5053000000.0 -0.5902307072689419 -0.7880127160958462
5056000000.0 -0.6401389081317386 -0.7939610973366591
5059000000.0 -0.6302072794076418 -0.8454881864929662
5062000000.0 -0.6350876636256788 -0.8442873002178801
5066000000.0 -0.7143067722795421 -0.7965992364912116
5069000000.0 -0.6267207719801837 -0.8178543135757644
5072000000.0 -0.6656047353041533 -0.8730912703030494
5075000000.0 -0.6323685443223164 -0.7489846323400536
5078000000.0 -0.656879747240041 -0.7941488452572972
5081000000.0 -0.6860151051878507 -0.7577678728411903
5084000000.0 -0.6729769742044858 -0.7275281559675632
5088000000.0 -0.6971229454559402 -0.7915812791448837
5091000000.0 -0.6921526042310466 -0.7149309561382025
5094000000.0 -0.7413800770368782 -0.6859696651547009
5097000000.0 -0.6642802624171479 -0.6442705839674199
5100000000.0 -0.7808620562786285 -0.7084916214409134
5103000000.0 -0.8492960507880597 -0.6848852616770709
5106000000.0 -0.7354261783067891 -0.6325825578640448
5109000000.0 -0.7757096472618665 -0.6757939885375233
5112000000.0 -0.7891583312638089 -0.6061006526383691
5116000000.0 -0.8388702556826706 -0.7034198619747598
5119000000.0 -0.8644720675328728 -0.5853635056411571
5122000000.0 -0.8251671343264075 -0.6353489916917028
5125000000.0 -0.7530008351980311 -0.6405217510663233
5128000000.0 -0.8528859450724469 -0.6367647264921195
5131000000.0 -0.8979031166220661 -0.6159905241718753
5134000000.0 -0.8164551822287768 -0.5298984786353345
5138000000.0 -0.7883408064069648 -0.5993457736950519
5141000000.0 -0.85305645909194 -0.5853949629878799
5144000000.0 -0.8421694092164109 -0.47858385222062927
5147000000.0 -0.9254669843773304 -0.49538063350147665
5150000000.0 -0.936842234692197 -0.557842749353829
5153000000.0 -0.9678222660569036 -0.5632699518677585
5156000000.0 -0.8487198808418301 -0.468249759617387
