! Created with skrf 1.8.0 (http://scikit-rf.org).
# Hz S RI R 50.0 
!freq ReS11 ImS11
4000000000.0 0.5464228214788478 -0.8825515800020158
4003000000.0 0.6073972953607707 -0.9102277616517973
4006000000.0 0.5014254218825687 -0.9152033363655854
4009000000.0000005 0.5396572493168528 -0.9136489130845326
4011999999.9999995 0.6521406883823505 -0.8804165852995105
4016000000.0 0.5674984912777907 -0.9287616919936157
4019000000.0 0.5742647837809944 -0.9269102439163843
4022000000.0000005 0.6388385722383098 -0.8670050552887961
4025000000.0000005 0.4987434111980127 -0.9491324396815
4027999999.9999995 0.5476909590815078 -0.9009017305775548
4030999999.9999995 0.5066403942779822 -0.8474307485128465
4034000000.0 0.5367198350619019 -0.8966395863995856
4038000000.0000005 0.5268989973527949 -0.8982429332967005
4041000000.0000005 0.5518590878125257 -0.926023097251027
4043999999.9999995 0.5515591601337808 -0.8850068716881263
4046999999.9999995 0.6111628877209794 -0.8868054532032561
4050000000.0 0.5276077298474162 -0.9072678783526932
4053000000.0 0.5217255523240398 -0.8709581791714708
4056000000.0 0.544470954433822 -0.9027232560538487
4059000000.0 0.5734075330399497 -0.8685005908134039
4062000000.0000005 0.5414165817512346 -0.9357573216863438
4066000000.0 0.5066199400809678 -0.845650948058421
4069000000.0 0.5367174894684551 -0.9127269143498449
4072000000.0 0.5842958580960532 -0.8682409560699784
4075000000.0 0.5951943944566765 -0.874728936745851
4078000000.0000005 0.5379316806213317 -0.9266788042846188
4081000000.0000005 0.599762026840223 -0.9068206274296552
4083999999.9999995 0.5641180209310785 -0.9241616127748599
4088000000.0 0.6129191421857602 -0.8581750324825406
4091000000.0 0.5836542711908568 -0.9585352635858291
4094000000.0000005 0.5667218506828031 -0.9024033425677298
4097000000.0000005 0.560493951343582 -0.8893722405064767
4099999999.9999995 0.5635175671695763 -0.9070751625941731
4102999999.9999995 0.5886996839237012 -0.8664610895737999
4106000000.0 0.5858862526270966 -0.8622020472810811
4109000000.0 0.5496911329396182 -0.8772623723775491
4112000000.0 0.5798179993113275 -0.8650713720521042
4115999999.9999995 0.5966570351448346 -0.8652853516715213
4119000000.0 0.5466436716529776 -0.8754155792235593
4122000000.0 0.5176930258747403 -0.8976143564389595
4125000000.0 0.5102853529173252 -0.914557511466599
4128000000.0 0.545807136154755 -0.8493201699835329
4131000000.0 0.56173086666027 -0.8412980978941006
4134000000.0000005 0.6011556088015622 -0.8882938441645303
4138000000.0 0.5422512829057975 -0.8215685754838442
4141000000.0 0.5412306943867027 -0.8890434530140267
4144000000.0 0.6297960095577071 -0.8506895094394836
4147000000.0000005 0.5300821921718999 -0.8418870712383257
4150000000.0000005 0.5779457398054555 -0.9212507043395273
4152999999.9999995 0.5509803293441423 -0.8960088957383723
4155999999.9999995 0.6101233736148733 -0.8957947910746641
4159000000.0 0.5772584890725911 -0.8458556543785002
4162000000.0 0.5465434734576109 -0.8402967554720376
4166000000.0000005 0.5520527766622289 -0.8804642169086863
4168999999.9999995 0.5494069025748077 -0.8845067510608631
4171999999.9999995 0.5646994731254649 -0.8774394775429103
4175000000.0 0.5783434870928006 -0.8747702909552953
4178000000.0 0.5513467776793012 -0.9018496632352659
4181000000.0 0.5608982041708421 -0.899817802685939
4184000000.0 0.5516493214175888 -0.8764725865248474
4187999999.9999995 0.552997124687053 -0.8714045826298533
4191000000.0 0.5578629543642419 -0.8377948994386144
4194000000.0 0.5526623708137388 -0.8560866738558961
4197000000.0 0.5652364179492465 -0.8940206393198806
4200000000.0 0.5961650604438895 -0.8667894506333158
4203000000.0000005 0.559819092052747 -0.8659094354136935
4206000000.0000005 0.5627525358332318 -0.888347675772169
4208999999.9999995 0.55394427157248 -0.8544033300577151
4211999999.9999995 0.5516586107266702 -0.8816153814585432
4216000000.0 0.575926166136046 -0.8658717602209118
4219000000.0000005 0.5666871466879364 -0.8627143108639789
4222000000.0000005 0.5493078011097962 -0.895628291051491
4224999999.9999995 0.5634597737273571 -0.8655197781743491
4227999999.9999995 0.5642210828136196 -0.8715548732722892
4231000000.0 0.5508983588017495 -0.8703741846422126
4234000000.0 0.5573520349643529 -0.8808828948799452
4238000000.0000005 0.564248723310184 -0.8776761979778045
4240999999.9999995 0.5472875744542316 -0.8600116398887775
4244000000.0 0.559292657322443 -0.8582863649374225
4247000000.0 0.5577394857742436 -0.8572676314753533
4250000000.0 0.5406284059851958 -0.8673805045960373
4253000000.0 0.5556868315373913 -0.8311117358577276
4256000000.0 0.551269246883447 -0.888245695668009
4259000000.0000005 0.5318610866109992 -0.8311946212206047
4261999999.9999995 0.5416064509011077 -0.8695814713010108
4266000000.0 0.5618934949873555 -0.8903715279870549
4269000000.0 0.5626618043877766 -0.8678449591939565
4272000000.0000005 0.5397159681659839 -0.8629555985161131
4275000000.0000005 0.5699655840528958 -0.8698902965806784
4277999999.9999995 0.5550129635325727 -0.8845222028409385
4280999999.9999995 0.5727241327563034 -0.8635376635703025
4284000000.0 0.5415398016104847 -0.8916084838240431
4288000000.0000005 0.5725340479019827 -0.8511914658147632
4291000000.0000005 0.557584128910428 -0.834328613667589
4293999999.9999995 0.550291832901695 -0.8486233916658583
4297000000.0 0.5836534209130324 -0.8489312524954783
4300000000.0 0.5541879022000059 -0.8334321283390265
4303000000.0 0.5426180729882965 -0.8635806769170248
4306000000.0 0.5750508375261401 -0.8523633830847926
4309000000.0 0.5531552747336623 -0.8559906510474891
4312000000.0 0.5711843072492209 -0.8546830329280618
4316000000.0 0.5836121263875278 -0.8784693239064564
4319000000.0 0.5568873485977915 -0.835379892469137
4322000000.0 0.5029629081367135 -0.8677578774634119
4325000000.0 0.5625394000832377 -0.8630887035311615
4328000000.0 0.5718078457568084 -0.832160203282194
4331000000.0 0.5427258162343338 -0.8700396409149798
4334000000.0 0.547490910599726 -0.8502000502599194
4338000000.0 0.5695571431768132 -0.855179421432863
4341000000.0 0.5902904729162122 -0.879395255764945
4344000000.0 0.583580895321047 -0.8773156204269418
4347000000.0 0.5369439070717819 -0.8892759342014621
4350000000.0 0.5241041518381191 -0.8428339975697555
4353000000.0 0.5558397484564767 -0.8285972712575311
4356000000.0 0.5364815187790994 -0.8439070921054128
4359000000.0 0.5261024605639525 -0.8351181681200874
4362000000.0 0.5026061355953365 -0.8874853956086876
4366000000.0 0.5757566108336366 -0.8823594213257826
4369000000.0 0.524927234197128 -0.838703023105426
4372000000.0 0.5146715119787079 -0.8766596713300712
4375000000.0 0.5494543816420943 -0.8685573088842549
4378000000.0 0.5415304460714209 -0.8349106677038797
4381000000.0 0.5642065855603472 -0.8401825663794404
4384000000.0 0.5867521120839995 -0.9132460612412726
4388000000.0 0.549331683834649 -0.8382064659184468
4391000000.0 0.5618659582210522 -0.8631523505651537
4394000000.0 0.5325680482451928 -0.8341499135758169
4397000000.0 0.5360502895937268 -0.8533331052144896
4400000000.0 0.5483263261888462 -0.8877808908671863
4403000000.0 0.5461620130819045 -0.8624677444943841
4406000000.0 0.5237499123167336 -0.8606951830774003
4409000000.0 0.5607886535695552 -0.883041834409373
4412000000.0 0.49208723426675305 -0.8860737078590111
4416000000.0 0.5441797493565248 -0.8513088137350883
4419000000.0 0.5315566523576162 -0.8612289685003036
4422000000.0 0.5596952284796801 -0.841746894092684
4425000000.0 0.5877307575415456 -0.8672675288990699
4428000000.0 0.5298071172799437 -0.8626904949672364
4431000000.0 0.5617911348998732 -0.8679223461603804
4434000000.0 0.5378685798155958 -0.8428769484241737
4438000000.0 0.5460610924359721 -0.8690793678447574
4441000000.0 0.5602695836068236 -0.8603017532605433
4444000000.0 0.532106980664508 -0.830647973759735
4447000000.0 0.5307556227516028 -0.858554908832317
4450000000.0 0.5390080034986283 -0.8541166965186007
4453000000.0 0.5660138408768194 -0.891721623903747
4456000000.0 0.5223809636558769 -0.846455030184599
4459000000.0 0.495306392577514 -0.836167514428539
4462000000.0 0.5640862966336094 -0.9112368820504362
4466000000.0 0.5522302446989076 -0.8974348045917866
4469000000.0 0.5477318828829306 -0.8489557655910978
4472000000.0 0.527020635660077 -0.8903323240026091
4475000000.0 0.5116940895168747 -0.8478844314740605
4478000000.0 0.5368009313077066 -0.8984288366482129
4481000000.0 0.5119111044480624 -0.8427391803699799
4484000000.0 0.48778464923378967 -0.8741329538607541
4488000000.0 0.5187475720940712 -0.8651554532465611
4491000000.0 0.5232707351323385 -0.88191628561994
4494000000.0 0.5265905915643303 -0.8453271988674788
4497000000.0 0.5255364274873158 -0.8512220110344549
4500000000.0 0.5387896716135757 -0.873639892478288
4503000000.0 0.5526170727673377 -0.8874054915794273
4506000000.0 0.5269928100249497 -0.8485942917217166
4509000000.0 0.5274262333771893 -0.8428588743739165
4512000000.0 0.5022713511443149 -0.8505800662189362
4516000000.0 0.5636309002205546 -0.8803951100764226
4519000000.0 0.5342142254558275 -0.8543585275408293
4522000000.0 0.5101907163886924 -0.8816496798317346
4525000000.0 0.5527415674993184 -0.8497418148420679
4528000000.0 0.549586480741279 -0.8790530583089337
4531000000.0 0.5479775427194082 -0.8720310981505321
4534000000.0 0.5317811129463268 -0.8415448318624227
4538000000.0 0.5359947817992037 -0.8524210955240992
4541000000.0 0.48254908613815695 -0.864684991301669
4544000000.0 0.5392344458055964 -0.8656689904701744
4547000000.0 0.5372577376768097 -0.8453866118899471
4550000000.0 0.5283310508375042 -0.8876833567859403
4553000000.0 0.5235220193520331 -0.885157389258791
4556000000.0 0.5018138582336764 -0.8717975318202817
4559000000.0 0.5287233076708648 -0.8874191454284199
4562000000.0 0.5342117735558978 -0.899021111527418
4566000000.0 0.5312668224840755 -0.8977253192091269
4569000000.0 0.5192015856299308 -0.8574937700486367
4572000000.0 0.5215013386613147 -0.8791445636553092
4575000000.0 0.5028706776555237 -0.8805862493262977
4578000000.0 0.541700268096269 -0.8813774930498555
4581000000.0 0.5189295138418385 -0.8885180104211801
4584000000.0 0.506699652513801 -0.8846036743097492
4588000000.0 0.555250385889724 -0.890011815337284
4591000000.0 0.5115725825022754 -0.8734048325001587
4594000000.0 0.5033536068601658 -0.8902457051218784
4597000000.0 0.5351838273528113 -0.8850377435596496
4600000000.0 0.4770659646653401 -0.874372455947336
4603000000.0 0.5295843911240177 -0.8864229337186078
4606000000.0 0.5324624495089259 -0.8772255593288483
4609000000.0 0.5052746765583553 -0.8746856260611118
4612000000.0 0.5297458665097845 -0.8867292003176123
4616000000.0 0.5157997009930787 -0.8613636720721335
4619000000.0 0.528084043214146 -0.8680311534663311
4622000000.0 0.510313105026429 -0.8662225719828225
4625000000.0 0.4821946051345531 -0.8748050990161464
4628000000.0 0.5355800069769234 -0.860318360199741
4631000000.0 0.49058443590293377 -0.8815102964401376
4634000000.0 0.5163212469766039 -0.8835365211941757
4638000000.0 0.5325725602549716 -0.8726131595110715
4641000000.0 0.5130578826588021 -0.8843753674201914
4644000000.0 0.5208418408471918 -0.8803046776837504
4647000000.0 0.5367470082386564 -0.8729783330967089
4650000000.0 0.5077683965640856 -0.872148401193302
4653000000.0 0.5199806243016755 -0.8840479220727796
4656000000.0 0.5030356028229312 -0.8849607192166521
4659000000.0 0.5066455392703961 -0.8714930912302326
4662000000.0 0.5177622218360873 -0.8927485282994492
4666000000.0 0.5171443921541459 -0.868210261821955
4669000000.0 0.5276800385596832 -0.8803964113670336
4672000000.0 0.49547282946516924 -0.9201166471398057
4675000000.0 0.4860697400457586 -0.9004573434231824
4678000000.0 0.5093299446659967 -0.8593340719813416
4681000000.0 0.4866565560241153 -0.9036903152021126
4684000000.0 0.46801650045110177 -0.8948691890065384
4688000000.0 0.49891556746732507 -0.893379262307943
4691000000.0 0.5299717532604815 -0.8615443676962055
4694000000.0 0.5302590324934413 -0.8685348763714744
4697000000.0 0.460113372520632 -0.8793446776414732
4700000000.0 0.5222906168764943 -0.8821357198498383
4703000000.0 0.5105484619406345 -0.8457965308870506
4706000000.0 0.49937201341127446 -0.9156640075896608
4709000000.0 0.4929796406803979 -0.8785750961752793
4712000000.0 0.5167253407359952 -0.8818428766526528
4716000000.0 0.5000809015853518 -0.8990103013777097
4719000000.0 0.5332027322711098 -0.8741694236052272
4722000000.0 0.5208788357853654 -0.8698276348066437
4725000000.0 0.4945875723093242 -0.9042496376260805
4728000000.0 0.4960927524704082 -0.8871567909824489
4731000000.0 0.5175557256068293 -0.9070608892488663
4734000000.0 0.5389217302006015 -0.8820422006780032
4738000000.0 0.5460085908354751 -0.9195945349281862
4741000000.0 0.5158613102611208 -0.9432992824171872
4744000000.0 0.46573671053667465 -0.8812763737430392
4747000000.0 0.5061372119137302 -0.8510432487155656
4750000000.0 0.5482855954907784 -0.8843558513463973
4753000000.0 0.5102835727289033 -0.8884821784417052
4756000000.0 0.4779163256289729 -0.9279148537663096
4759000000.0 0.5084796072638773 -0.9005821480194223
4762000000.0 0.4770239821099464 -0.9177996292871226
4766000000.0 0.49133284619024514 -0.9073867083734845
4769000000.0 0.5025981229473728 -0.9007849445623828
4772000000.0 0.4930269728251884 -0.925272622332904
4775000000.0 0.5071620655185088 -0.950616649800368
4778000000.0 0.49868324245620854 -0.9015685638997549
4781000000.0 0.5222568398492002 -0.8834714390279943
4784000000.0 0.5328069590539037 -0.8734484984608635
4788000000.0 0.49499715050244214 -0.9248814889770592
4791000000.0 0.49764259239336117 -0.9015934657174427
4794000000.0 0.539966005060065 -0.9010803024907872
4797000000.0 0.5062067512550235 -0.8876767689186874
4800000000.0 0.4791852179487124 -0.890301576658864
4803000000.0 0.47303147198731843 -0.9066428625286732
4806000000.0 0.5117042819906129 -0.9087090776554023
4809000000.0 0.47418177241033066 -0.9305233227259331
4812000000.0 0.47031511249286884 -0.8959918091890683
4816000000.0 0.5302118436768488 -0.876940458685274
4819000000.0 0.521365023363288 -0.9145345680654746
4822000000.0 0.5284937681836611 -0.9081890229807761
4825000000.0 0.5324428227384401 -0.9367358683273087
4828000000.0 0.5008026641737487 -0.9090838026899913
4831000000.0 0.4851040940325566 -0.9243181320314653
4834000000.0 0.5135172781962202 -0.8877743568100922
4838000000.0 0.4899127357339147 -0.9228498162928213
4841000000.0 0.5020772989134075 -0.8976617051304051
4844000000.0 0.5281417662470876 -0.8859158157967095
4847000000.0 0.5092676325769413 -0.8575416576054037
4850000000.0 0.4903333558313121 -0.9318922167954218
4853000000.0 0.48605256170400174 -0.8599782323273649
4856000000.0 0.502387980270481 -0.8929696907831274
4859000000.0 0.5150117401626295 -0.9332161725779653
4862000000.0 0.5190957154618251 -0.885829091111903
4866000000.0 0.49937089315607947 -0.9396961442781518
4869000000.0 0.5173380897638681 -0.9231561052843115
4872000000.0 0.514884407856616 -0.9427100391386154
4875000000.0 0.5659889829614019 -0.9274959367474275
4878000000.0 0.5118055778488048 -0.9173444512314377
4881000000.0 0.526437471583733 -0.956358363850717
4884000000.0 0.5317572927833443 -0.9030357820995798
4888000000.0 0.5434826581494036 -0.8826990089024238
4891000000.0 0.5533961900010672 -0.9338773932459153
4894000000.0 0.4769355010494204 -0.922501814562264
4897000000.0 0.5251118884016728 -0.8712581374115655
4900000000.0 0.5273693710340348 -0.9122943015599257
4903000000.0 0.5388258902074927 -0.9226668940583429
4906000000.0 0.5247639470679297 -0.9270218232912851
4909000000.0 0.5096167777017577 -0.9132709940784225
4912000000.0 0.5080999834820978 -0.9581952938981444
4916000000.0 0.5400259587901101 -0.9418674039483002
4919000000.0 0.5602009763883011 -0.9216913078690039
4922000000.0 0.5428600641358551 -0.896771551432065
4925000000.0 0.48731593415289715 -0.8969093170192574
4928000000.0 0.5612158149193184 -0.9275275309118676
4931000000.0 0.5499155491278813 -0.9273232444189456
4934000000.0 0.5125966309778871 -0.8606373740368581
4938000000.0 0.4887107844478311 -0.8820882185391921
4941000000.0 0.5377771288426956 -0.8971409176992565
4944000000.0 0.49756733418481197 -0.8392196778262444
4947000000.0 0.5204244917377495 -0.8719516414342163
4950000000.0 0.49026548530760294 -0.8964148987824703
4953000000.0 0.48816535077782786 -0.9408479317740698
4956000000.0 0.5003115408588268 -0.9009272717226733
4959000000.0 0.4713559626886018 -0.9246206922436659
4962000000.0 0.5183219273348413 -0.9242056302149096
4966000000.0 0.5420979575597438 -0.9153752632603527
4969000000.0 0.5407693386293198 -0.9037778340996698
4972000000.0 0.5208433548345619 -0.9166038320794585
4975000000.0 0.567702664287445 -0.9056573623370802
4978000000.0 0.5073216175664907 -0.9318681753151439
4981000000.0 0.5016886321640046 -0.9236396337791243
4984000000.0 0.5096531037924805 -0.8622272481645845
4988000000.0 0.5239644429439745 -0.9130620263453115
4991000000.0 0.6007602662368452 -0.9104368031585512
4994000000.0 0.5443017866724829 -0.892493655740248
4997000000.0 0.49553584662366135 -0.9227427838249789
5000000000.0 0.5587222765417005 -0.9107064116723147
5003000000.0 0.5464463995450519 -0.9140996888274459
5006000000.0 0.5205857145496098 -0.9388970644268501
5009000000.0 0.5390870506804903 -0.8996461256621466
5012000000.0 0.507425328793503 -0.9067018884427374
5016000000.0 0.5785563068656148 -0.9223482390984598
5019000000.0 0.5258649770432151 -0.9039044659280753
5022000000.0 0.5196347724908557 -0.889946044886289
5025000000.0 0.5671332639633693 -0.9551766544300448
5028000000.0 0.5262714937854173 -0.9229077786619078
5031000000.0 0.5501748456712743 -0.9194777687668535
5034000000.0 0.5303636494707866 -0.9900427630466866
5038000000.0 0.5142619627587812 -0.874190286229086
5041000000.0 0.5513823872691774 -0.8689094243936822
5044000000.0 0.5353012200913577 -0.8654487495423385
5047000000.0 0.5075368763701997 -0.9119020255300085
5050000000.0 0.5744059386705751 -0.8510598548881827
5053000000.0 0.53908756860258 -0.9434360814786167
5056000000.0 0.5874190007346117 -0.8725419160911326
5059000000.0 0.6297529889829313 -0.8831073847515889
5062000000.0 0.5025215365573484 -0.9433000127172682
5066000000.0 0.5733247922547524 -0.8677583173007233
5069000000.0 0.5486515652531119 -0.9195997730314623
5072000000.0 0.5542870296887007 -0.8693854554659477
5075000000.0 0.5547968004541728 -0.8706687696589965
5078000000.0 0.5124689217544833 -0.9187687949314884
5081000000.0 0.5039609885868495 -0.8963669439332396
5084000000.0 0.5579835016855882 -0.9254078616016905
5088000000.0 0.5595590423363118 -0.8962179790947189
5091000000.0 0.5252346525293398 -0.9285447235322946
5094000000.0 0.5828079768055082 -0.9086808164550644
5097000000.0 0.5815707080679153 -0.9174972661984908
5100000000.0 0.542945809629157 -0.8641014213575751
5103000000.0 0.513044641386194 -0.9084678249299928
5106000000.0 0.5829513158187314 -0.9225826149162482
5109000000.0 0.5738630262281901 -0.8919802897531643
5112000000.0 0.5316220331919206 -0.8801239094002524
5116000000.0 0.49919677594382195 -0.8306197621476782
5119000000.0 0.582795207860771 -0.8937653294034988
5122000000.0 0.58345304073036 -0.8453523384662105
5125000000.0 0.5866474674518012 -0.8697248782286179
5128000000.0 0.5495665702609802 -0.875708271454845
5131000000.0 0.5857138139630087 -0.9280260041285733
5134000000.0 0.5662563856675067 -0.8555476623228941
5138000000.0 0.5451807923771177 -0.9086364468690018
5141000000.0 0.6263118694016949 -0.8737846254200112
5144000000.0 0.6279696684861474 -0.8523268680225298
5147000000.0 0.5710718111118105 -0.8987076084089365
5150000000.0 0.5921057173900686 -0.8913453319856117
5153000000.0 0.5645475199424322 -0.8583995746886166
5156000000.0 0.6083601275251248 -0.898394908678349
5159000000.0 0.6382329792356343 -0.8872163016757779
5162000000.0 0.5412730527599253 -0.910810121745379
5166000000.0 0.5545144474877848 -0.8972516602248352
5169000000.0 0.5829498765701876 -0.908213565885123
5172000000.0 0.5493345743113228 -0.8768254493105598
5175000000.0 0.6183411776865189 -0.8967227158605394
5178000000.0 0.53080846353501 -0.8722449390261144
