! Created with skrf 1.8.0 (http://scikit-rf.org).
# Hz S RI R 50.0 
!freq ReS11 ImS11
4000000000.0 0.5368901157435729 -0.8464682984003433
4003000000.0 0.5881105703303878 -0.9232500895054251
4006000000.0 0.5255840384718145 -0.9352527780620898
4009000000.0000005 0.5515067291556597 -0.880913148898782
4011999999.9999995 0.5702525067421429 -0.8327630838798705
4016000000.0 0.5420297797957208 -0.9228243652561313
4019000000.0 0.5384270436992937 -0.839974654515479
4022000000.0000005 0.5904507285164367 -0.8388920639881579
4025000000.0000005 0.4755371738962465 -0.8923195398339882
4027999999.9999995 0.5032974048873664 -0.9159486818155669
4030999999.9999995 0.5435861799620936 -0.8489681281852117
4034000000.0 0.5363857929035768 -0.8674464249060119
4038000000.0000005 0.5239946061110443 -0.8863623662392557
4041000000.0000005 0.5205906775616956 -0.877061645516922
4043999999.9999995 0.5702187067536771 -0.9081860497054167
4046999999.9999995 0.6056827082987324 -0.8744421364724648
4050000000.0 0.5374158066712443 -0.9333240857485356
4053000000.0 0.4763834645580482 -0.859115669135758
4056000000.0 0.5746653966322695 -0.8578712797077236
4059000000.0 0.5380388261552004 -0.8704598476631353
4062000000.0000005 0.5478815733888741 -0.8916349124109033
4066000000.0 0.48683180310465346 -0.8240359792070182
4069000000.0 0.5130625364178119 -0.9068109988726726
4072000000.0 0.6030783474742334 -0.8657271477501761
4075000000.0 0.5890445749990287 -0.8997308258833572
4078000000.0000005 0.5281324873534111 -0.89132858539218
4081000000.0000005 0.6304388948543677 -0.8937390624641821
4083999999.9999995 0.535061231739006 -0.903306917745228
4088000000.0 0.5508125098343261 -0.8536877109467698
4091000000.0 0.5479067703312097 -0.9226369872898024
4094000000.0000005 0.5713279204750374 -0.876532873629448
4097000000.0000005 0.5278694834464424 -0.9135854176790845
4099999999.9999995 0.5654072509094847 -0.8872381947780374
4102999999.9999995 0.577225190246686 -0.8752608151167012
4106000000.0 0.5326769852763231 -0.8629028667939269
4109000000.0 0.5431114239306762 -0.8917831474281177
4112000000.0 0.5677858594661324 -0.874661654184825
4115999999.9999995 0.5682166766130666 -0.8817710904837148
4119000000.0 0.5599744034679265 -0.8947817406285542
4122000000.0 0.5454502390104153 -0.9036967541561036
4125000000.0 0.5733273253326001 -0.9017098152331995
4128000000.0 0.552185634747083 -0.8231851381849906
4131000000.0 0.5074060157815303 -0.8500723709126256
4134000000.0000005 0.5681288876942557 -0.8725139839402101
4138000000.0 0.5501166534015598 -0.8675251143473545
4141000000.0 0.5425246876158566 -0.8787749041694571
4144000000.0 0.55415854525105 -0.8537042914711025
4147000000.0000005 0.49497471837818635 -0.8809765558616527
4150000000.0000005 0.5495267296608533 -0.9000788527443558
4152999999.9999995 0.566213690086101 -0.8570803054714506
4155999999.9999995 0.5667711702040558 -0.8946650155417981
4159000000.0 0.5572633247256967 -0.8746246594547615
4162000000.0 0.559648478346984 -0.8587345301999211
4166000000.0000005 0.5453750135132927 -0.9133569417394637
4168999999.9999995 0.5079428911971301 -0.8817316694884239
4171999999.9999995 0.5473124803470393 -0.8752550492061978
4175000000.0 0.5696180573636246 -0.8610384259352473
4178000000.0 0.5696169487360903 -0.8842386475030022
4181000000.0 0.5672687078849471 -0.8821719005730929
4184000000.0 0.5552660168636799 -0.8401525419638722
4187999999.9999995 0.5304281772628013 -0.841760079252732
4191000000.0 0.5534570134572985 -0.837359134227118
4194000000.0 0.5314157893839345 -0.8312112066091568
4197000000.0 0.5616405346053506 -0.8566686981150952
4200000000.0 0.5680998973071855 -0.859024165827742
4203000000.0000005 0.5637259411653199 -0.8551244874246241
4206000000.0000005 0.5691412117605105 -0.8596253348120756
4208999999.9999995 0.5571376262109531 -0.8559791701096111
4211999999.9999995 0.5230327264403885 -0.8682123210199295
4216000000.0 0.5677950568341241 -0.8520340875904115
4219000000.0000005 0.5660525477874074 -0.8555094117585117
4222000000.0000005 0.5407059146124269 -0.8606650666864253
4224999999.9999995 0.5579371135211385 -0.8414603854491584
4227999999.9999995 0.5449362857201907 -0.8767231256853184
4231000000.0 0.5546258588941613 -0.8516530039647042
4234000000.0 0.5395660139116374 -0.8749292145072195
4238000000.0000005 0.541438721967014 -0.8690341910335811
4240999999.9999995 0.5384566763946325 -0.8599089381429248
4244000000.0 0.5623641408951976 -0.8490576360928036
4247000000.0 0.5581047829358686 -0.8462129239592705
4250000000.0 0.5309375050210429 -0.8438901082557908
4253000000.0 0.5466445322412328 -0.8443013880721055
4256000000.0 0.548522109180352 -0.866880111523809
4259000000.0000005 0.5247878640142569 -0.8345193728502347
4261999999.9999995 0.5338410371652584 -0.875595874001905
4266000000.0 0.5444432944136521 -0.8594403514167193
4269000000.0 0.5602065979534183 -0.867438839951473
4272000000.0000005 0.5355657500925455 -0.8708097455216638
4275000000.0000005 0.5575140372883407 -0.8656674903766406
4277999999.9999995 0.5709802096794953 -0.8825440717891783
4280999999.9999995 0.5737289812056316 -0.8675094016103626
4284000000.0 0.5328684383761716 -0.8760910416507738
4288000000.0000005 0.5654172726684367 -0.8734151248343681
4291000000.0000005 0.5376044678490699 -0.835712367408832
4293999999.9999995 0.5332925757496378 -0.8363168290894151
4297000000.0 0.5505682724254244 -0.8009234148726205
4300000000.0 0.5511869115804643 -0.8491585466702883
4303000000.0 0.5378466882447851 -0.8461827784476735
4306000000.0 0.5825179136530161 -0.868990773252511
4309000000.0 0.5420679609946907 -0.8480594101307521
4312000000.0 0.5792497506483486 -0.8448857179825827
4316000000.0 0.5634956195988953 -0.8716024032896644
4319000000.0 0.5765987216512691 -0.8302884549974384
4322000000.0 0.5027140547624264 -0.8389240170186544
4325000000.0 0.5521048257788435 -0.8432207208536724
4328000000.0 0.5380393948666012 -0.8573703897066189
4331000000.0 0.5243471376982913 -0.8834591200437569
4334000000.0 0.56425522796524 -0.8729836399605226
4338000000.0 0.5806876358016411 -0.8343308874108931
4341000000.0 0.579426039823812 -0.8644816952740431
4344000000.0 0.5796288832911682 -0.8674012692540329
4347000000.0 0.5299763116093265 -0.8806975661111955
4350000000.0 0.5263958512721487 -0.8413592383458149
4353000000.0 0.5738051169368369 -0.8228100622095573
4356000000.0 0.4991651176528655 -0.8718751739905524
4359000000.0 0.5036108018022696 -0.8004029538578554
4362000000.0 0.5173682877709675 -0.8881129090707935
4366000000.0 0.5443211335920747 -0.8737905520198632
4369000000.0 0.5207246362179873 -0.8173442535852014
4372000000.0 0.5054194641091578 -0.8624786692113242
4375000000.0 0.5492716126063975 -0.8475170852711092
4378000000.0 0.5231073223239234 -0.826180358830961
4381000000.0 0.5341901151151511 -0.8422649585838222
4384000000.0 0.5685759457670484 -0.9184705096753085
4388000000.0 0.5548702225309381 -0.8374033815097157
4391000000.0 0.5562623446473385 -0.8449840324509716
4394000000.0 0.529941357302501 -0.848467339160947
4397000000.0 0.5277962816151347 -0.8526236170477254
4400000000.0 0.5480989488503858 -0.8713554339956767
4403000000.0 0.5359587993018633 -0.8549358855947181
4406000000.0 0.5201195396579705 -0.8624278766809541
4409000000.0 0.5398379074218337 -0.8997859517484006
4412000000.0 0.4870927976973658 -0.8827543339233459
4416000000.0 0.5146276039095059 -0.8516615329645253
4419000000.0 0.5243684244466568 -0.875294249362317
4422000000.0 0.5371926386578265 -0.8465675906126935
4425000000.0 0.5742102238233964 -0.8575579233072417
4428000000.0 0.5268517023791451 -0.8538302834683986
4431000000.0 0.5562224475076386 -0.8775266464795759
4434000000.0 0.5279484745329536 -0.8677220537548274
4438000000.0 0.5308116435408627 -0.8774141422404325
4441000000.0 0.5401966196901229 -0.8772409595529376
4444000000.0 0.5222879439292324 -0.8468335148889671
4447000000.0 0.5198818610755354 -0.8519825022802779
4450000000.0 0.5258684639268794 -0.8456421839618754
4453000000.0 0.5430986523589731 -0.872613023973816
4456000000.0 0.5122216322412845 -0.8472898024480903
4459000000.0 0.48033131357796216 -0.840773211228373
4462000000.0 0.5512024513273232 -0.9250426417976165
4466000000.0 0.5215755762260867 -0.9015811791510848
4469000000.0 0.5548963370133807 -0.8560037066610893
4472000000.0 0.5212951433932551 -0.9043238891719476
4475000000.0 0.5070549948186748 -0.8325653564603288
4478000000.0 0.5519501889309315 -0.9066911994690876
4481000000.0 0.4906410854635973 -0.8515599528206781
4484000000.0 0.48129366335884366 -0.879061086827018
4488000000.0 0.5107554636623761 -0.8626371967290986
4491000000.0 0.5254361213061465 -0.8530183855452094
4494000000.0 0.5289308263693828 -0.8466700681179544
4497000000.0 0.523404816191556 -0.853028534244653
4500000000.0 0.5163126660885702 -0.859100732824371
4503000000.0 0.5540647298566339 -0.880819516821739
4506000000.0 0.4905951912984582 -0.850257965126487
4509000000.0 0.5217968485558399 -0.8499776888571919
4512000000.0 0.5057043364223279 -0.8499704489911732
4516000000.0 0.5408244532352929 -0.8955419584287985
4519000000.0 0.5237632980110334 -0.8460740914764063
4522000000.0 0.5233050311322296 -0.8682078746501549
4525000000.0 0.5535573130750353 -0.8283082090894567
4528000000.0 0.5332762408237912 -0.8855087530275594
4531000000.0 0.5325920449295597 -0.8568005784525079
4534000000.0 0.5240899580411036 -0.852351499940367
4538000000.0 0.5026092430179301 -0.8609561093881895
4541000000.0 0.4698508410053627 -0.8877757098438372
4544000000.0 0.540283336852837 -0.844098706301925
4547000000.0 0.5468713741497269 -0.8468914252437154
4550000000.0 0.5120979436948851 -0.8798046917831086
4553000000.0 0.4984275808668438 -0.8793824490540203
4556000000.0 0.49474718250183974 -0.867885290015066
4559000000.0 0.5104228914160148 -0.867442856265035
4562000000.0 0.5356319193830804 -0.8746888072296881
4566000000.0 0.5134472477479056 -0.882707602117081
4569000000.0 0.4913487832051525 -0.8448715751191094
4572000000.0 0.49784166263035085 -0.8445546493292477
4575000000.0 0.47547020911705573 -0.886344323364397
4578000000.0 0.5249953427759306 -0.8807583383917641
4581000000.0 0.5064165033547103 -0.8830156077890232
4584000000.0 0.5068187059622065 -0.8625516317075768
4588000000.0 0.5367609454693995 -0.8542491973786229
4591000000.0 0.5242279241235838 -0.8681335958688561
4594000000.0 0.4872908098323877 -0.8787284915839602
4597000000.0 0.5228338141417861 -0.8813891264009873
4600000000.0 0.47411986240456316 -0.8830745078635416
4603000000.0 0.5017618149319942 -0.8850212034978094
4606000000.0 0.5215902391330973 -0.8887671550593236
4609000000.0 0.5207426070218857 -0.8761100458050276
4612000000.0 0.4938379326854436 -0.8809064190138043
4616000000.0 0.49282847617745706 -0.8840114004322671
4619000000.0 0.5017342488666403 -0.8749489662312298
4622000000.0 0.5037062928734554 -0.8728106627555872
4625000000.0 0.4769167031235316 -0.8626164594697964
4628000000.0 0.5097225297151842 -0.8561918003852562
4631000000.0 0.5024888755715821 -0.8707159023036823
4634000000.0 0.5005537603897414 -0.8715243365510523
4638000000.0 0.5125699828472521 -0.873079316819559
4641000000.0 0.5100533441176589 -0.8677498949120208
4644000000.0 0.5192437819908006 -0.8702514484593272
4647000000.0 0.5021354506739311 -0.8938623990585258
4650000000.0 0.47575595326185305 -0.871214548363872
4653000000.0 0.508121373047363 -0.8830064520375369
4656000000.0 0.47233703107635966 -0.8823337469937346
4659000000.0 0.49830111305163377 -0.8786369799230642
4662000000.0 0.5012992441657907 -0.8982474683248028
4666000000.0 0.47791995459180003 -0.8942068064775046
4669000000.0 0.5047167760123676 -0.8820389869027843
4672000000.0 0.47676633488598863 -0.9036821530255672
4675000000.0 0.47853810947918557 -0.8898393248658045
4678000000.0 0.4855903033281706 -0.8783480840774136
4681000000.0 0.4898800480196026 -0.9064155435157429
4684000000.0 0.47189431651258384 -0.9093094917508748
4688000000.0 0.46936346176240007 -0.9005422704116558
4691000000.0 0.5126840840302289 -0.8931645068001391
4694000000.0 0.4907059736676871 -0.8808389447341823
4697000000.0 0.46101269321549326 -0.8518475536387335
4700000000.0 0.49093148255162655 -0.8618191195126792
4703000000.0 0.498159292524274 -0.870417185105925
4706000000.0 0.4943249506753678 -0.8763000244327445
4709000000.0 0.4821130490728897 -0.887186228778003
4712000000.0 0.4951719442592625 -0.9026622656721699
4716000000.0 0.49824443908608046 -0.8788038660035852
4719000000.0 0.5227513054820951 -0.8875903982820973
4722000000.0 0.5163393036985359 -0.888452868011336
4725000000.0 0.5010961725065862 -0.8807184663103679
4728000000.0 0.470461888226388 -0.8804047586682153
4731000000.0 0.5200652193139277 -0.9077158319330547
4734000000.0 0.5078229034968733 -0.842752862250501
4738000000.0 0.5360375500741986 -0.9061919276381561
4741000000.0 0.4782661471957435 -0.9252052216484182
4744000000.0 0.48341214373801156 -0.9168795404014296
4747000000.0 0.4866764304317034 -0.8609864179575075
4750000000.0 0.5032040248384743 -0.8863996031760606
4753000000.0 0.4946104289803936 -0.894051695048442
4756000000.0 0.4811440240468313 -0.9143763518814843
4759000000.0 0.48570324098937534 -0.9006079000976431
4762000000.0 0.4648806243078145 -0.9162828658108634
4766000000.0 0.48395710274436426 -0.8837542332730033
4769000000.0 0.5086918787390353 -0.9144095708167452
4772000000.0 0.4827137391446018 -0.8988737541248055
4775000000.0 0.5047776654866847 -0.9202918550284546
4778000000.0 0.4799767426124185 -0.9217915794357173
4781000000.0 0.53393790630204 -0.8913894383639258
4784000000.0 0.5368096524805261 -0.8808263929216511
4788000000.0 0.4761409366363096 -0.9033836462463507
4791000000.0 0.46658965915570616 -0.8836129063021835
4794000000.0 0.5208595555935994 -0.9055703306808743
4797000000.0 0.5038466255354652 -0.9022127127653348
4800000000.0 0.4841260576619846 -0.8652304538059885
4803000000.0 0.44621743624444543 -0.910692178068708
4806000000.0 0.5198263123960796 -0.9069802682862693
4809000000.0 0.4684522851966484 -0.8950985099892088
4812000000.0 0.44579976403553223 -0.9008379295974748
4816000000.0 0.49642289839054865 -0.8819769118662992
4819000000.0 0.5118278926668123 -0.8935371595034933
4822000000.0 0.5131229994287243 -0.9197219520512749
4825000000.0 0.538029605823904 -0.9040467478861959
4828000000.0 0.4958787715316643 -0.8946001693427987
4831000000.0 0.46927931877893314 -0.939482749543824
4834000000.0 0.5265545032506855 -0.902877879592047
4838000000.0 0.4827313791351394 -0.8901099992984952
4841000000.0 0.46691763968334277 -0.8949940619473455
4844000000.0 0.5129411980839256 -0.9007195317316937
4847000000.0 0.4989897399505426 -0.8612930627236952
4850000000.0 0.4844272681663635 -0.9273708369876733
4853000000.0 0.4718812024750194 -0.8567719695006846
4856000000.0 0.4822140151524638 -0.897696389835889
4859000000.0 0.4936565755703687 -0.9260505064696081
4862000000.0 0.5150306841888901 -0.8763738674537811
4866000000.0 0.47115240501598826 -0.9271041081278265
4869000000.0 0.4646082537409824 -0.9119809036345713
4872000000.0 0.46742658409029353 -0.9381458840102793
4875000000.0 0.5578854727781963 -0.9094990277494177
4878000000.0 0.5033843771706703 -0.912714680719405
4881000000.0 0.4796454944098193 -0.9681712481731687
4884000000.0 0.5015559172425802 -0.9034482639881505
4888000000.0 0.5170343747899273 -0.8655494688092474
4891000000.0 0.5317302633848628 -0.9134553501468179
4894000000.0 0.4814921103687496 -0.9046812619213012
4897000000.0 0.5235018938337426 -0.8785847522460231
4900000000.0 0.5057933792384234 -0.9155030362970089
4903000000.0 0.5389043430398365 -0.9235402730255975
4906000000.0 0.5096243656787016 -0.9240211909312225
4909000000.0 0.4924815662496294 -0.9251568357546482
4912000000.0 0.49114865178811823 -0.9489543952654204
4916000000.0 0.522756230346388 -0.9353960565982056
4919000000.0 0.5487729061831252 -0.9219453639653856
4922000000.0 0.5066470679833043 -0.9029920753167406
4925000000.0 0.482297750156714 -0.9034716880878908
4928000000.0 0.5734535205128428 -0.8711964443741057
4931000000.0 0.5268838648000473 -0.9278219067438178
4934000000.0 0.48414722545321753 -0.8483199793979738
4938000000.0 0.5076239549989111 -0.9198853258085673
4941000000.0 0.4972238358579743 -0.900559723036839
4944000000.0 0.4815749713276455 -0.8348233325997666
4947000000.0 0.4785539070799544 -0.8928572813911585
4950000000.0 0.524313928475276 -0.8729140770383395
4953000000.0 0.4847729971023511 -0.9501142785818912
4956000000.0 0.48993913405703077 -0.9426173579909074
4959000000.0 0.45111338963554015 -0.8895543663915098
4962000000.0 0.49738927687658285 -0.9514795637887098
4966000000.0 0.5398876938351109 -0.9121699528938234
4969000000.0 0.543049177951964 -0.930272332833462
4972000000.0 0.5002587870215744 -0.9440404467258012
4975000000.0 0.5237600074310965 -0.8446411687178577
4978000000.0 0.5175956265688697 -0.9304320209497197
4981000000.0 0.48757486349293794 -0.9635492910845557
4984000000.0 0.4888725832980433 -0.8594903045929256
4988000000.0 0.5372432105544722 -0.8842722126597201
4991000000.0 0.554024753607281 -0.8765276169824929
4994000000.0 0.5537804842252715 -0.873058811685756
4997000000.0 0.46691675970339785 -0.9108330253193871
5000000000.0 0.5361387085647483 -0.914143585984928
5003000000.0 0.5392458553029552 -0.92898458765816
5006000000.0 0.5257728890581481 -0.9488288833988696
5009000000.0 0.532691910460775 -0.9113338302218779
5012000000.0 0.5126407881600432 -0.9189690541175481
5016000000.0 0.5748180759285705 -0.9038095841288637
5019000000.0 0.5126646782727845 -0.8981605090960181
5022000000.0 0.5049027346840353 -0.890205279636988
5025000000.0 0.5496645221545307 -0.9448099891825148
5028000000.0 0.5340990046944011 -0.9401783735678386
5031000000.0 0.522478804210102 -0.8992968784560831
5034000000.0 0.5192107441127789 -0.9599781070436917
5038000000.0 0.5194598778085547 -0.895975175536911
5041000000.0 0.5759997422897749 -0.882637044238369
5044000000.0 0.534590388521599 -0.8577337983843937
5047000000.0 0.5481870857479422 -0.9073964617000727
5050000000.0 0.5876763796068879 -0.8421607121099126
5053000000.0 0.5494755468060402 -0.9588763908751441
5056000000.0 0.5614137685989693 -0.9182587135807374
5059000000.0 0.5859642888275937 -0.8481190315891857
5062000000.0 0.4919009976467526 -0.9244337619172571
5066000000.0 0.5949171133551016 -0.8802676730290001
5069000000.0 0.521069452739634 -0.9059372741031484
5072000000.0 0.5193415980353752 -0.8562078047029549
5075000000.0 0.5568936234649238 -0.869208429378358
5078000000.0 0.5192488682377906 -0.9230083439794252
5081000000.0 0.49557536315549966 -0.8674612087857096
5084000000.0 0.5386294944818086 -0.9086701792580802
5088000000.0 0.5385700601061457 -0.9035055641366032
5091000000.0 0.5207417963065751 -0.9321715433634805
5094000000.0 0.564953322946774 -0.9151251834571522
5097000000.0 0.5421564350402341 -0.916785930514147
5100000000.0 0.5329209290826604 -0.8774575181049289
5103000000.0 0.5052468473997019 -0.9689061854715714
5106000000.0 0.5578491728539354 -0.9352128397810529
5109000000.0 0.5624453657139679 -0.8683289820378588
5112000000.0 0.5281024284464764 -0.8910598441045667
5116000000.0 0.5840187764082914 -0.8782807380941804
5119000000.0 0.5516068356874149 -0.8418669053299581
5122000000.0 0.5426764741093927 -0.908990611680531
5125000000.0 0.5142906242317704 -0.8878234468404249
5128000000.0 0.5389542488784335 -0.8791616599377463
5131000000.0 0.5150303572350756 -0.8747309226949455
5134000000.0 0.5070806486306124 -0.8962026900842575
5138000000.0 0.5548507678867831 -0.8762974204796727
5141000000.0 0.6157314035956158 -0.8668420461857775
5144000000.0 0.5795772189824073 -0.8636118675824247
5147000000.0 0.5440226284696175 -0.9028416897636132
5150000000.0 0.5473026072693395 -0.9001064884223415
5153000000.0 0.5382949382996927 -0.8734330793245159
5156000000.0 0.5505856612168807 -0.9156778571843729
5159000000.0 0.5752051984869392 -0.9367031332797549
5162000000.0 0.514527844370573 -0.893156988002664
5166000000.0 0.5262686387317265 -0.9382007026600417
5169000000.0 0.564502239324081 -0.8728586850140647
5172000000.0 0.5911953243555497 -0.8754461037462242
5175000000.0 0.5864886044145807 -0.9366930825875188
5178000000.0 0.5258214615875615 -0.8901525098129386
