! Created with skrf 1.8.0 (http://scikit-rf.org).
# Hz S RI R 50.0 
!freq ReS11 ImS11
4000000000.0 0.4441929386592165 -0.924642545780624
4003000000.0 0.4804141519583141 -0.954455080388628
4006000000.0 0.4233600594644667 -0.9212320114416326
4009000000.0000005 0.45886833125642756 -0.9373416446681258
4011999999.9999995 0.5316432368710781 -0.9387960573862468
4016000000.0 0.46606854443619905 -0.9222207751522405
4019000000.0 0.4474289448020491 -0.9478503763641586
4022000000.0000005 0.525825080959697 -0.9215185419481189
4025000000.0000005 0.4812994479232692 -0.9528966112200687
4027999999.9999995 0.4587908411714024 -0.9134258792383798
4030999999.9999995 0.4252014618589305 -0.8789025347108487
4034000000.0 0.4584330826324036 -0.8834394189431851
4038000000.0000005 0.4522614352987867 -0.9270501414823005
4041000000.0000005 0.44060066242145673 -0.911504241594664
4043999999.9999995 0.5192678980167733 -0.9684211770998544
4046999999.9999995 0.498210444191276 -0.9470508262193307
4050000000.0 0.4402386838622655 -0.9502372483938727
4053000000.0 0.43864288917891603 -0.8934527580767284
4056000000.0 0.48919085701715986 -0.9300655416445662
4059000000.0 0.4560968285068178 -0.871401699654917
4062000000.0000005 0.4460553606448844 -0.9161433334605349
4066000000.0 0.42552358548499986 -0.853305325070504
4069000000.0 0.4707935385311862 -0.9540076450407885
4072000000.0 0.47785661286862735 -0.8893400710939774
4075000000.0 0.49838319186090885 -0.9284879777901904
4078000000.0000005 0.4331590631651875 -0.9430474711692324
4081000000.0000005 0.5371600063587388 -0.9372399026513941
4083999999.9999995 0.46481093316999617 -0.9222761244965365
4088000000.0 0.5114174467311898 -0.9089480308096433
4091000000.0 0.5090583809794883 -0.9855133357012483
4094000000.0000005 0.45295143683639716 -0.889294780676237
4097000000.0000005 0.4561592595142952 -0.920549227155636
4099999999.9999995 0.4758391243566465 -0.9249416795008758
4102999999.9999995 0.5065763204000984 -0.9315063554580467
4106000000.0 0.46301860162120806 -0.8944420493091045
4109000000.0 0.446884472967263 -0.9383543980380918
4112000000.0 0.44435925453343683 -0.9255006786351372
4115999999.9999995 0.47005728942122765 -0.9528428703855086
4119000000.0 0.4597594151835571 -0.9063329056397175
4122000000.0 0.4542872771984658 -0.9260777249411767
4125000000.0 0.4698849978972967 -0.9342684966993889
4128000000.0 0.4751795726939487 -0.9163597351894155
4131000000.0 0.42799343241196347 -0.9166773814650492
4134000000.0000005 0.4510932398605772 -0.9301256310159044
4138000000.0 0.431485630852358 -0.9072063602826325
4141000000.0 0.44254471760163716 -0.9064537557359758
4144000000.0 0.4503845781074458 -0.9247524819778081
4147000000.0000005 0.4438330615909383 -0.9075439453669674
4150000000.0000005 0.4412882214523317 -0.9607372109770848
4152999999.9999995 0.44405132285301147 -0.9007773939230304
4155999999.9999995 0.4987623074191142 -0.9182432110986639
4159000000.0 0.4636068955725595 -0.89826179528982
4162000000.0 0.44329822016453463 -0.906965469874625
4166000000.0000005 0.46177967344113613 -0.9266093734793794
4168999999.9999995 0.445374799612853 -0.9172495890515282
4171999999.9999995 0.4661766960738015 -0.8973253291579927
4175000000.0 0.48968912999047853 -0.9215493791469255
4178000000.0 0.4765794378425993 -0.9452788663563417
4181000000.0 0.45812095997115965 -0.9009650017376589
4184000000.0 0.43636330886320995 -0.9077690784580444
4187999999.9999995 0.4335356775701772 -0.9017523119248649
4191000000.0 0.47744761386653334 -0.8807010382011016
4194000000.0 0.44027753574267736 -0.9190984036483627
4197000000.0 0.4691351765061785 -0.924829357578139
4200000000.0 0.4806955773393353 -0.9202401783024224
4203000000.0000005 0.46467625038143434 -0.9057704009461901
4206000000.0000005 0.4688337849661616 -0.9412618897502143
4208999999.9999995 0.4458215418607093 -0.8976862388217745
4211999999.9999995 0.42064295720002187 -0.9287670802327365
4216000000.0 0.4820994679762335 -0.9125075929457389
4219000000.0000005 0.4828756259755991 -0.930939875636327
4222000000.0000005 0.44271246859694835 -0.9380954392372874
4224999999.9999995 0.45219556323111765 -0.9086790696298533
4227999999.9999995 0.46107496252210556 -0.917433714151313
4231000000.0 0.4492651600567735 -0.9198703129441312
4234000000.0 0.4510977094532311 -0.9278957915400304
4238000000.0000005 0.43654809129795125 -0.9324881480879945
4240999999.9999995 0.4498133499507102 -0.908468985442069
4244000000.0 0.44112657910530434 -0.9193823199121655
4247000000.0 0.4642781269694388 -0.917474944855325
4250000000.0 0.4296599357213049 -0.8944414125232791
4253000000.0 0.42800600881728756 -0.8887758843803248
4256000000.0 0.45529449720941434 -0.9369564122571148
4259000000.0000005 0.41731042973511134 -0.8834469769228495
4261999999.9999995 0.42214246850866927 -0.9209155963700101
4266000000.0 0.4246222167483211 -0.9402601873863324
4269000000.0 0.46361587141842947 -0.9044439539804208
4272000000.0000005 0.46683598176743274 -0.9118834404970871
4275000000.0000005 0.44553408797860083 -0.9158466884729799
4277999999.9999995 0.46227436501834146 -0.9223612154859935
4280999999.9999995 0.44442543734121753 -0.9269860009028951
4284000000.0 0.40499131728383797 -0.9350829093891002
4288000000.0000005 0.4621107321694394 -0.8984772186020507
4291000000.0000005 0.4350626689020862 -0.893873383016734
4293999999.9999995 0.40578272264614773 -0.9069896938287074
4297000000.0 0.45783666306364146 -0.9133767154519016
4300000000.0 0.43258213966443104 -0.8736767288035565
4303000000.0 0.42418396481395476 -0.9143191128952335
4306000000.0 0.4752048866422618 -0.9035343831558037
4309000000.0 0.4534115410615737 -0.9061790242158676
4312000000.0 0.47700141281781416 -0.9281243433110088
4316000000.0 0.45178993046760374 -0.9043291324313217
4319000000.0 0.4407936813742529 -0.9039823239120286
4322000000.0 0.432173363131654 -0.9110771249922018
4325000000.0 0.4435480460863976 -0.9130566239912498
4328000000.0 0.42130367014710984 -0.90185097959932
4331000000.0 0.4243251432938831 -0.9272472236572964
4334000000.0 0.4403615506235974 -0.9361192500886644
4338000000.0 0.459031968992229 -0.9031681286937742
4341000000.0 0.4680393375577687 -0.933171149159048
4344000000.0 0.4462676317832132 -0.9397662363623795
4347000000.0 0.4292994422122787 -0.9458825758211816
4350000000.0 0.395647111616295 -0.889258515950074
4353000000.0 0.44301950938181195 -0.8890734669636895
4356000000.0 0.39532225748196065 -0.9147012716227128
4359000000.0 0.4163929643527315 -0.8801299014276157
4362000000.0 0.3833783882183819 -0.9406427171778222
4366000000.0 0.43067854389026117 -0.9330115592421142
4369000000.0 0.41097564374613743 -0.8879494257979184
4372000000.0 0.38213875342901993 -0.9203025544880229
4375000000.0 0.44038323537140794 -0.8919164749394702
4378000000.0 0.40872360023155063 -0.8901543317551626
4381000000.0 0.4214899329500944 -0.8898236240631525
4384000000.0 0.4378460592928791 -0.9816473837324637
4388000000.0 0.4236417033298137 -0.9250401749335476
4391000000.0 0.4351167443035873 -0.9171583105963897
4394000000.0 0.4033356192441067 -0.9073128839729461
4397000000.0 0.4180129376795647 -0.9251130242209
4400000000.0 0.4227075895585397 -0.9550409866744751
4403000000.0 0.4293073235317758 -0.9285195328917032
4406000000.0 0.3983016209913407 -0.9355657427762256
4409000000.0 0.4220779288266123 -0.952861773295077
4412000000.0 0.35725634840914217 -0.9411267595265143
4416000000.0 0.4022042710693162 -0.9218941451247642
4419000000.0 0.396812435027431 -0.9393238416557561
4422000000.0 0.4216307520103484 -0.9157275319090201
4425000000.0 0.4235631595460525 -0.9359544531034274
4428000000.0 0.40838704208003623 -0.9347783951329676
4431000000.0 0.4129632426707796 -0.9430726435985797
4434000000.0 0.41120884832398497 -0.9303627829213161
4438000000.0 0.416376164780119 -0.9499977455426664
4441000000.0 0.4119306501662449 -0.9365072010960849
4444000000.0 0.3949387138147621 -0.8940841101990928
4447000000.0 0.3858403658684579 -0.9239971548705699
4450000000.0 0.4140008879590852 -0.909848527633756
4453000000.0 0.40875821109632215 -0.9435842195030189
4456000000.0 0.38972671407317017 -0.9026795914001171
4459000000.0 0.37234812505543863 -0.8912513794030474
4462000000.0 0.41035819985486516 -0.9755785287904899
4466000000.0 0.41444153353515917 -0.9642711317324544
4469000000.0 0.4175120003469383 -0.9279835751930631
4472000000.0 0.37899402196362236 -0.9417516005188582
4475000000.0 0.39609172472573423 -0.9035720791000571
4478000000.0 0.3973206030332476 -0.9670678681483267
4481000000.0 0.38292895884908296 -0.9156503406269862
4484000000.0 0.34502710675328396 -0.9458236672601622
4488000000.0 0.36914690681223505 -0.9365621459690828
4491000000.0 0.3976990417781215 -0.9352613099544289
4494000000.0 0.3926781651445663 -0.930140792823059
4497000000.0 0.40454348763134146 -0.9204301024123772
4500000000.0 0.3854880824166234 -0.9237389503449442
4503000000.0 0.412501132245558 -0.9682751182404512
4506000000.0 0.3817253741565136 -0.9401489363454746
4509000000.0 0.3779934099870593 -0.920546031070596
4512000000.0 0.3311267062731566 -0.9086760770225852
4516000000.0 0.4034217687481677 -0.9503131529890358
4519000000.0 0.3826316443036586 -0.919487474987909
4522000000.0 0.3734463250309533 -0.940616576520032
4525000000.0 0.4153614291759671 -0.9238024802590146
4528000000.0 0.3981559369579891 -0.970246830109379
4531000000.0 0.3956479884075309 -0.9517563993125009
4534000000.0 0.3647650341521133 -0.952405499739112
4538000000.0 0.3787239870250488 -0.9282863432064683
4541000000.0 0.348446380116325 -0.9330907480760045
4544000000.0 0.37313156229169475 -0.9318800725276614
4547000000.0 0.3923991302477178 -0.9309344033816455
4550000000.0 0.36668693583195733 -0.9634641181979312
4553000000.0 0.3754802651243284 -0.9570725520920641
4556000000.0 0.3629089361142397 -0.9352358440939765
4559000000.0 0.3481565705304002 -0.9375317256060189
4562000000.0 0.36927280513917166 -0.9579230162100608
4566000000.0 0.36607297973818215 -0.9514107848157181
4569000000.0 0.3443669715063907 -0.9362529453537473
4572000000.0 0.37184879860577125 -0.9361699114024108
4575000000.0 0.36006033489308703 -0.9490806096741556
4578000000.0 0.40044941342162627 -0.9683972897918045
4581000000.0 0.36685250161639693 -0.9465545014852262
4584000000.0 0.3645813361914855 -0.948657064633312
4588000000.0 0.3874366843024728 -0.9607926312682151
4591000000.0 0.3814095214936365 -0.9485252310897163
4594000000.0 0.33253106182600217 -0.9486687320987791
4597000000.0 0.37321056892642585 -0.9634267905816796
4600000000.0 0.33722521159116825 -0.9439915723033929
4603000000.0 0.3496221194463904 -0.9322127642991291
4606000000.0 0.3750922054816884 -0.9630085811245379
4609000000.0 0.3563086080401664 -0.9417454007495084
4612000000.0 0.3555250198759472 -0.9620700626622966
4616000000.0 0.3406042838810974 -0.9458198360324028
4619000000.0 0.35565970464063434 -0.938882525204638
4622000000.0 0.3374552036029975 -0.9421379450137579
4625000000.0 0.33341213387154767 -0.9416783920110026
4628000000.0 0.34594745170122376 -0.9556558404723887
4631000000.0 0.32853663518135323 -0.9697984077362066
4634000000.0 0.3435664953871167 -0.9553444804642068
4638000000.0 0.35682691277814493 -0.94769894705526
4641000000.0 0.3644642727122511 -0.9517936672411798
4644000000.0 0.3415353014358873 -0.963669220475082
4647000000.0 0.3497921168960109 -0.9642553995296572
4650000000.0 0.3334175956919334 -0.9507976707151924
4653000000.0 0.35026714152108523 -0.9578887903101617
4656000000.0 0.32043237610169395 -0.954078136031882
4659000000.0 0.3285818271010034 -0.9748882214530963
4662000000.0 0.33133310716216724 -0.9549569389491377
4666000000.0 0.3219212082153077 -0.9578836000833303
4669000000.0 0.3445891820559291 -0.9787343773687528
4672000000.0 0.31847428836472336 -0.9927819215810806
4675000000.0 0.33149271939923497 -0.9830078929896026
4678000000.0 0.3273217323348813 -0.9364674358681758
4681000000.0 0.3039511495901667 -0.9827286071560222
4684000000.0 0.3113998429716811 -0.9894552464333309
4688000000.0 0.28615716156612875 -0.9706753816238842
4691000000.0 0.34688914351252836 -0.9875785918051367
4694000000.0 0.3592422694508786 -0.9494375661735033
4697000000.0 0.31768147426066634 -0.9331785087280974
4700000000.0 0.32660334452681306 -0.9472746081173943
4703000000.0 0.3361163505240887 -0.900330858832492
4706000000.0 0.3245858952812969 -0.9922183358301397
4709000000.0 0.33270475793624366 -0.9567234971983367
4712000000.0 0.31504273866104765 -0.9696614918560588
4716000000.0 0.3256769986158733 -0.9985644059107531
4719000000.0 0.3518695008566518 -0.9920874905258075
4722000000.0 0.3321868695913762 -0.9589192180372735
4725000000.0 0.32718626503685705 -0.9404713520825051
4728000000.0 0.3007248777840843 -0.9573862464737422
4731000000.0 0.3375607821328802 -1.0067811199886714
4734000000.0 0.3326716596501629 -0.946671756103677
4738000000.0 0.3375446463140271 -1.01665385635208
4741000000.0 0.3194631944843907 -1.0083288006530184
4744000000.0 0.30002056312537384 -0.9962340186119819
4747000000.0 0.32180250820372863 -0.9461367259255976
4750000000.0 0.3210878923569368 -0.9802372856922829
4753000000.0 0.31362601884392766 -0.9560641555732597
4756000000.0 0.307121138134291 -0.9795445162320576
4759000000.0 0.3566120177533728 -0.9415193365300991
4762000000.0 0.32279291833765417 -0.9937867179891091
4766000000.0 0.298678968341787 -0.9793580876048777
4769000000.0 0.29748171747254315 -0.9872364260144895
4772000000.0 0.33925644985469705 -0.9776135390229491
4775000000.0 0.32046346358051114 -1.0305364105651365
4778000000.0 0.3151893196890861 -0.9873299741485865
4781000000.0 0.3352564968809921 -0.958996637156086
4784000000.0 0.341963798195696 -0.9599177881076885
4788000000.0 0.2917853420205098 -0.9775251014702648
4791000000.0 0.2903279022468831 -0.9761655706519893
4794000000.0 0.3540582792103557 -1.0137334400336582
4797000000.0 0.29094326499553824 -0.9428452848217248
4800000000.0 0.31905385365999106 -0.9609857196037142
4803000000.0 0.2755606002910851 -0.9823208956956628
4806000000.0 0.3036366936527356 -0.9826939004739439
4809000000.0 0.2797566435414186 -0.9842309441117597
4812000000.0 0.2616601179127811 -0.9998525485098047
4816000000.0 0.3395255278012966 -0.9616154178933425
4819000000.0 0.32518534070753835 -0.9802825346838435
4822000000.0 0.3291225979300925 -1.0007412036724435
4825000000.0 0.33413101608761553 -0.9918501824530161
4828000000.0 0.29385926862051415 -0.967940793074506
4831000000.0 0.2562215193854732 -1.0139123799793681
4834000000.0 0.31124007758465866 -0.9738936908451504
4838000000.0 0.2764177737660196 -1.0094773795495453
4841000000.0 0.28958557290677095 -0.9558049589536918
4844000000.0 0.32167753300805324 -0.990361687751579
4847000000.0 0.30724969667098234 -0.9582293144683064
4850000000.0 0.30144093005219885 -1.015678449400508
4853000000.0 0.28374817864871726 -0.9436915508710565
4856000000.0 0.28665032341964763 -0.9928892012972671
4859000000.0 0.292943998772803 -1.0275834007766596
4862000000.0 0.31418099531993404 -0.9602480309905947
4866000000.0 0.2962152810039857 -1.0047229230535335
4869000000.0 0.2884531946900868 -0.9857395367436462
4872000000.0 0.2870792723854195 -1.0361360595641276
4875000000.0 0.37291290575053143 -1.010931767310897
4878000000.0 0.3036333389915164 -0.9964030650838909
4881000000.0 0.2688378434242793 -1.063271498019551
4884000000.0 0.3049005766737084 -0.9917265099962203
4888000000.0 0.32688094215106916 -0.9588876506468925
4891000000.0 0.3157497705816285 -1.0165937373762273
4894000000.0 0.2985235592205825 -0.9908587869614707
4897000000.0 0.3190438439655468 -0.9856971559989729
4900000000.0 0.3024439638066106 -1.0295888113614489
4903000000.0 0.2957831986350329 -1.0373500232487132
4906000000.0 0.32230015603830814 -1.060819678780651
4909000000.0 0.2567327930105504 -0.9849607281442949
4912000000.0 0.2711456346643386 -1.0680843248078817
4916000000.0 0.2920727784857957 -1.0135367781047562
4919000000.0 0.3389741602240506 -0.9932319551904968
4922000000.0 0.3177356705818475 -0.9741533079879028
4925000000.0 0.24448883928151277 -0.9822771183382698
4928000000.0 0.3637997737125859 -0.9682721497870759
4931000000.0 0.2961436274143077 -1.0141625704207102
4934000000.0 0.2947009905181753 -0.9812919498726929
4938000000.0 0.2758801246890557 -1.0033072218409316
4941000000.0 0.3142479577529812 -0.9771052519770937
4944000000.0 0.2939782344608767 -0.9501446322807624
4947000000.0 0.2829490060766639 -0.9555275475545959
4950000000.0 0.29676325878914256 -0.9689883825187001
4953000000.0 0.268621698727371 -1.0435213584522745
4956000000.0 0.2583363286148897 -1.0044753793956185
4959000000.0 0.23791806820144124 -0.9744515761112975
4962000000.0 0.2725089798904129 -1.0238795933588656
4966000000.0 0.36577571557888966 -1.006983673308223
4969000000.0 0.3360678646164932 -1.043476922201724
4972000000.0 0.2860196317857214 -0.9891186044709868
4975000000.0 0.3051775319299031 -0.9920075288118899
4978000000.0 0.31673620330221935 -0.995291768010717
4981000000.0 0.2892074084318877 -1.032304942623568
4984000000.0 0.27975915060563594 -0.9512940528502516
4988000000.0 0.2854193400519208 -0.99107134249088
4991000000.0 0.3344528323994793 -1.0045923534589176
4994000000.0 0.28361485136371517 -0.9776180388034035
4997000000.0 0.2637302015442848 -1.0297319842896624
5000000000.0 0.2966612561522993 -1.0463913949030044
5003000000.0 0.3012219807827573 -0.9838476217540227
5006000000.0 0.31316343150394366 -1.0727686870457793
5009000000.0 0.2680883876411644 -1.005470318471382
5012000000.0 0.24700133029871635 -1.006291739253445
5016000000.0 0.33026238021804116 -1.0100298481631707
5019000000.0 0.25913676565053073 -0.9928705983611161
5022000000.0 0.28865738620678316 -1.0163775981939351
5025000000.0 0.27482140716488945 -1.0569257495649391
5028000000.0 0.26442524588361377 -1.013023530804882
5031000000.0 0.23907191075967332 -0.9956972467329184
5034000000.0 0.2361484870567006 -1.0379153039473843
5038000000.0 0.24734778107848637 -0.9849824689147455
5041000000.0 0.31933142176279444 -1.0104823511575893
5044000000.0 0.30101951161309676 -1.002598616520403
5047000000.0 0.2878021381564342 -1.0388766534929241
5050000000.0 0.330584427707252 -0.9915295420807821
5053000000.0 0.2845481255600901 -1.0240333493705083
5056000000.0 0.32398088860118035 -1.0254685852769019
5059000000.0 0.28929116914652114 -0.9996325367033778
5062000000.0 0.2504783365443296 -1.022026022912062
5066000000.0 0.3272254808887532 -0.9923826670683615
5069000000.0 0.3105534070800087 -1.0451825491146762
5072000000.0 0.30522713216951813 -0.9715427425360444
5075000000.0 0.32299146121718164 -0.998444419496382
5078000000.0 0.23947960233688564 -1.035672272732615
5081000000.0 0.2769645617601864 -1.0266063766436753
5084000000.0 0.2822803195653143 -1.0515371980994446
5088000000.0 0.2792111188428012 -0.9759401062129736
5091000000.0 0.24536870868118937 -1.0059156338461328
5094000000.0 0.2666647400417025 -0.9760643727565721
5097000000.0 0.3148394308207646 -0.9886449150894643
5100000000.0 0.2659407677341579 -0.9997048685830994
5103000000.0 0.21618243247995084 -0.989377587818239
5106000000.0 0.28284545784429854 -1.0256392909138299
5109000000.0 0.283742572952914 -1.0394324971328621
5112000000.0 0.24029264199871342 -1.0006663701867966
5116000000.0 0.27159331219197697 -0.9759176721551157
5119000000.0 0.2516317252411861 -1.1050405171594617
5122000000.0 0.22781527230862564 -1.0008372326924677
5125000000.0 0.3123738475904337 -0.964767241680526
5128000000.0 0.28865831501418243 -1.0117768813264676
5131000000.0 0.25123086944453343 -1.0368433239422745
5134000000.0 0.2691540989302699 -1.0177362847310445
5138000000.0 0.28902105029997327 -0.9879430939568374
5141000000.0 0.27147987234315507 -1.0422780368934985
5144000000.0 0.31727610845935833 -0.9756470156195445
5147000000.0 0.28941736319352085 -0.9943649952824126
5150000000.0 0.30590674684290275 -1.014308405725223
5153000000.0 0.26704178657614003 -1.0760815998902802
5156000000.0 0.24628119761425116 -1.0314511393269157
5159000000.0 0.32125173276902275 -1.0624965155827675
5162000000.0 0.2521068662536448 -1.0163130230079938
5166000000.0 0.2443963291765685 -1.0137030769352608
5169000000.0 0.2850931685209453 -0.9978397735915191
5172000000.0 0.25936147927696784 -1.00263383179211
