! Created with skrf 1.8.0 (http://scikit-rf.org).
# Hz S RI R 50.0 
!freq ReS11 ImS11
4000000000.0 0.4902144117351558 -0.8797423732714288
4003000000.0 0.5524638979819939 -0.9517221945136769
4006000000.0 0.4877466464798581 -0.9051473223578255
4009000000.0000005 0.5368933253175461 -0.9084905440122465
4011999999.9999995 0.5469881002091099 -0.9228800175897556
4016000000.0 0.4847547168650186 -0.9291543443718235
4019000000.0 0.5375110874050668 -0.91756584408293
4022000000.0000005 0.5873850895619842 -0.8817738813607174
4025000000.0000005 0.4914061429568495 -0.9475760885544272
4027999999.9999995 0.5144345974042699 -0.914137972826187
4030999999.9999995 0.49795099253373615 -0.8387768207199282
4034000000.0 0.5130229278566372 -0.9475180076638408
4038000000.0000005 0.5328849612488864 -0.91947085433561
4041000000.0000005 0.5034894304782737 -0.9134949536999023
4043999999.9999995 0.606417766252367 -0.9371491823418355
4046999999.9999995 0.5283769336515605 -0.8999820242197432
4050000000.0 0.5177885698942328 -0.9200618777245619
4053000000.0 0.4717044990679755 -0.9101673189658535
4056000000.0 0.5329516139714993 -0.9238548537052753
4059000000.0 0.4883885316512112 -0.905025627184082
4062000000.0000005 0.539287529978485 -0.9383979481756158
4066000000.0 0.4887259073235276 -0.8440541465726153
4069000000.0 0.5020662316911079 -0.9494448741659169
4072000000.0 0.5304320244874555 -0.9103558304034812
4075000000.0 0.5540853207096998 -0.9194341015894733
4078000000.0000005 0.5361847054882733 -0.9706510632780306
4081000000.0000005 0.6101731105106267 -0.9198169082590343
4083999999.9999995 0.5109971173705194 -0.9005673345379825
4088000000.0 0.5867817637256201 -0.8961878331996611
4091000000.0 0.5543709127206281 -0.9692124959836762
4094000000.0000005 0.4888086100080734 -0.9333768866026831
4097000000.0000005 0.5472546858142838 -0.8998804985905202
4099999999.9999995 0.5439593161203221 -0.8968558676120024
4102999999.9999995 0.5497713842368519 -0.9122742750514052
4106000000.0 0.5238079206538881 -0.9442007382188067
4109000000.0 0.5068629130563425 -0.8987480033858191
4112000000.0 0.4686746528021877 -0.9207591053911081
4115999999.9999995 0.5350163425341475 -0.8990670204543801
4119000000.0 0.5016049621470683 -0.8819260591967713
4122000000.0 0.5322140511710963 -0.9299895395341651
4125000000.0 0.5147826772980058 -0.9423097027288954
4128000000.0 0.511928617358182 -0.8740978961327159
4131000000.0 0.5515863976636599 -0.9141816933943164
4134000000.0000005 0.5126647364720495 -0.9035755846988016
4138000000.0 0.5361835037084144 -0.886387046635737
4141000000.0 0.526885271558009 -0.8818933653658128
4144000000.0 0.5110466075852047 -0.9200230610926687
4147000000.0000005 0.5150028792619465 -0.9272743885590783
4150000000.0000005 0.5505089545274573 -0.935893092892502
4152999999.9999995 0.5155011999255572 -0.877604837166803
4155999999.9999995 0.5525216596986272 -0.9092693743712156
4159000000.0 0.5312882547340868 -0.8721869361133787
4162000000.0 0.5258491899940827 -0.9144245634404788
4166000000.0000005 0.5403040935529833 -0.9185242024577125
4168999999.9999995 0.4776155842338443 -0.9131211784824728
4171999999.9999995 0.5218818502317656 -0.8857694747648678
4175000000.0 0.5178681535006331 -0.918029253085128
4178000000.0 0.5217519928127592 -0.9303638449634211
4181000000.0 0.522073784786407 -0.9224323450516165
4184000000.0 0.5231599026553088 -0.880202614195629
4187999999.9999995 0.5254435902308913 -0.922332648409229
4191000000.0 0.5388640712085373 -0.8633938161888837
4194000000.0 0.523385511809913 -0.8721830579381555
4197000000.0 0.5072493717360307 -0.8963858485167674
4200000000.0 0.5435807946271868 -0.8991893403699418
4203000000.0000005 0.5480227359736753 -0.8857273392134535
4206000000.0000005 0.516127919819592 -0.8980420083908844
4208999999.9999995 0.5216651509198555 -0.8824496643531895
4211999999.9999995 0.48345860812917607 -0.897422458722305
4216000000.0 0.5360251744418699 -0.8944393965410387
4219000000.0000005 0.542031899899583 -0.8913813761160572
4222000000.0000005 0.5160779038670151 -0.8819816323195373
4224999999.9999995 0.5126354459237399 -0.8865905409031334
4227999999.9999995 0.5270398619094818 -0.9011547722258287
4231000000.0 0.5198641041235548 -0.8952357690312565
4234000000.0 0.527370891671795 -0.8962931413291333
4238000000.0000005 0.5078378634641231 -0.9125604816433741
4240999999.9999995 0.5077583106427433 -0.8792918717644207
4244000000.0 0.5124511569678893 -0.8734779268868056
4247000000.0 0.5281942572675649 -0.8703982191681113
4250000000.0 0.486413391619082 -0.8838384398207032
4253000000.0 0.5004072472067669 -0.8725217183249255
4256000000.0 0.5421752297015433 -0.8829247611372197
4259000000.0000005 0.4978080393909915 -0.8624279880650778
4261999999.9999995 0.4916511764750907 -0.8853657809565398
4266000000.0 0.49394350354631883 -0.9092216220133544
4269000000.0 0.5322559513834841 -0.8834473108155674
4272000000.0000005 0.538251488261009 -0.8872786994404953
4275000000.0000005 0.5285550105934831 -0.9036977952688894
4277999999.9999995 0.5418064565073042 -0.8888201576724652
4280999999.9999995 0.5366170774930603 -0.8780750663292699
4284000000.0 0.4936580668737295 -0.9394183418152577
4288000000.0000005 0.5267153576630721 -0.8693998345647035
4291000000.0000005 0.5157789864935444 -0.8616289613688219
4293999999.9999995 0.4984186889732622 -0.8929536946553136
4297000000.0 0.53142912421225 -0.853755674201974
4300000000.0 0.5070127992615252 -0.8586337580763301
4303000000.0 0.4945683937781011 -0.8814135348009957
4306000000.0 0.5444261175638319 -0.8810040891162728
4309000000.0 0.5221416952109421 -0.87342341303175
4312000000.0 0.5472214135738553 -0.8950863766116014
4316000000.0 0.5150358226384757 -0.904317708755399
4319000000.0 0.537903698863943 -0.852627203224187
4322000000.0 0.48601470270236874 -0.882720169375573
4325000000.0 0.5019170965672596 -0.9041077243497452
4328000000.0 0.5145747128645637 -0.8694212645968783
4331000000.0 0.46348163129079795 -0.8973801564398188
4334000000.0 0.5050236411504435 -0.8927271221787464
4338000000.0 0.5499180480358575 -0.867077057922819
4341000000.0 0.5385341114868754 -0.8975935384271759
4344000000.0 0.5267176011850834 -0.8915691939023527
4347000000.0 0.48308908253611155 -0.8977046408113326
4350000000.0 0.47769229101021393 -0.8482885991370462
4353000000.0 0.5199002339079738 -0.8606889168116076
4356000000.0 0.4961985709959391 -0.8872352956036723
4359000000.0 0.4778988023753479 -0.8606745044237505
4362000000.0 0.456496819671043 -0.9084374697253291
4366000000.0 0.4917803714859315 -0.9091312050304013
4369000000.0 0.48300515245877323 -0.87223969979932
4372000000.0 0.46021303321936446 -0.897868800672143
4375000000.0 0.5173919900959679 -0.8631631076889029
4378000000.0 0.47800376128706973 -0.8721550571002705
4381000000.0 0.5149007551585766 -0.8580629454355574
4384000000.0 0.526361235102712 -0.9407546256231522
4388000000.0 0.5090441269779179 -0.8708150214045918
4391000000.0 0.516712833049449 -0.8885669550475878
4394000000.0 0.4805161417952957 -0.8621170864784191
4397000000.0 0.4783696291371032 -0.8844329714328498
4400000000.0 0.49716943154822857 -0.9097684480495786
4403000000.0 0.5020786654899843 -0.9068401698518932
4406000000.0 0.4823720766863052 -0.9032838618383974
4409000000.0 0.5127632559376281 -0.9168553627686841
4412000000.0 0.45375893655396315 -0.9157708013783407
4416000000.0 0.470408119566984 -0.8702179465070715
4419000000.0 0.48715325120571107 -0.900076648112959
4422000000.0 0.5116871667740612 -0.8814230532468409
4425000000.0 0.5213032841031097 -0.8838575630361096
4428000000.0 0.48773314713156013 -0.899215771826012
4431000000.0 0.5109078399286483 -0.9050418952553699
4434000000.0 0.4790187687632802 -0.8842190821040177
4438000000.0 0.5073444579496849 -0.9058218611451996
4441000000.0 0.5114242589913245 -0.8963050930374094
4444000000.0 0.49190794047819214 -0.8745437774791944
4447000000.0 0.4652245808633411 -0.9182492430746809
4450000000.0 0.5196876152578468 -0.878583108860882
4453000000.0 0.5139107643199081 -0.9051025151776464
4456000000.0 0.4599836788636229 -0.8755804005597839
4459000000.0 0.4651148233601555 -0.8533882135982938
4462000000.0 0.5220938556727581 -0.9356809323687184
4466000000.0 0.5002953093452065 -0.9181716225958588
4469000000.0 0.5059887196069794 -0.8924449735730478
4472000000.0 0.4722493742109556 -0.9105649653692345
4475000000.0 0.495258129609392 -0.8709000103103014
4478000000.0 0.5123424205050504 -0.931793336266989
4481000000.0 0.45972659360045687 -0.8739331511221217
4484000000.0 0.4605896179968035 -0.9137654576900126
4488000000.0 0.4659408345667277 -0.8928764660590521
4491000000.0 0.4705603070869428 -0.898109004652323
4494000000.0 0.4746152025474874 -0.8864805570048866
4497000000.0 0.4775176635193659 -0.8694653063325657
4500000000.0 0.4950358649939511 -0.8900106555850842
4503000000.0 0.4981490410819434 -0.9184519711232999
4506000000.0 0.45630029766108665 -0.9109070244730267
4509000000.0 0.4581148433201959 -0.8703577417915649
4512000000.0 0.4483723512517679 -0.8754694440859008
4516000000.0 0.4533269116733713 -0.9121634752089984
4519000000.0 0.48184945082318664 -0.8711184782744792
4522000000.0 0.463479858669247 -0.9003526326954636
4525000000.0 0.5102910790023273 -0.8762659962267763
4528000000.0 0.4904216120227419 -0.9357821605126885
4531000000.0 0.49599520091388466 -0.9112590444599667
4534000000.0 0.4596952699696643 -0.8813467577027674
4538000000.0 0.46726659038034524 -0.9093193386616669
4541000000.0 0.43165241005111543 -0.902738189211016
4544000000.0 0.4645872725783369 -0.8823347108147721
4547000000.0 0.49687765999508576 -0.8796179764686369
4550000000.0 0.4683178089536415 -0.9192602027825143
4553000000.0 0.47050163058638744 -0.9184016135863753
4556000000.0 0.45469689307553357 -0.8910557240006667
4559000000.0 0.45759048796256707 -0.9007690844072064
4562000000.0 0.4655726376455248 -0.9147567518111649
4566000000.0 0.4562824602017171 -0.921510738687153
4569000000.0 0.4558777357477781 -0.8882473066290986
4572000000.0 0.4899024729890571 -0.8929947985588038
4575000000.0 0.45094931537544525 -0.9356434626522666
4578000000.0 0.4860583859572487 -0.9182939559990535
4581000000.0 0.4629812148871912 -0.9197160364296821
4584000000.0 0.4598437454723374 -0.902373970052054
4588000000.0 0.47985187488962366 -0.9001614097696637
4591000000.0 0.4686162768697729 -0.9217970694360191
4594000000.0 0.4413836859959155 -0.8963570034627714
4597000000.0 0.47154048832745465 -0.9324573115066841
4600000000.0 0.42961919224344497 -0.9178207517675601
4603000000.0 0.4376442487289983 -0.9164516834119008
4606000000.0 0.4751613860781675 -0.9276040583544072
4609000000.0 0.4635390106307007 -0.9058560579397231
4612000000.0 0.4564697873826879 -0.9010048340018151
4616000000.0 0.4465157217773742 -0.8979067459783141
4619000000.0 0.4780666050999075 -0.9117073574940908
4622000000.0 0.4698614100183504 -0.9123799891624165
4625000000.0 0.44656536499174293 -0.9057045592804467
4628000000.0 0.4869215873759506 -0.8956314822712074
4631000000.0 0.44272897175371945 -0.9189806041799659
4634000000.0 0.45070176479749446 -0.8990277594578828
4638000000.0 0.4588034076759154 -0.9099655253614004
4641000000.0 0.4583676978675233 -0.9147303406070111
4644000000.0 0.4652558309605235 -0.9066851239600093
4647000000.0 0.46817691988769294 -0.9029401115901478
4650000000.0 0.4450864707429526 -0.9196649818462682
4653000000.0 0.46879848756239484 -0.9362343306171199
4656000000.0 0.4426600136177439 -0.9341578136713463
4659000000.0 0.4468446961710681 -0.9138006438139745
4662000000.0 0.43757517264643686 -0.9174302752776521
4666000000.0 0.4273224116701925 -0.9057240111700107
4669000000.0 0.46684080629774094 -0.909370704734059
4672000000.0 0.4394180165414726 -0.9219250667329039
4675000000.0 0.450008270711276 -0.9284323043204545
4678000000.0 0.44656968006625497 -0.9088101062897553
4681000000.0 0.42488590853681224 -0.9443386327903333
4684000000.0 0.42930420738993913 -0.9315322778619325
4688000000.0 0.42030020070756385 -0.9229311759281232
4691000000.0 0.45629423769007943 -0.9048942568638089
4694000000.0 0.4295301221911243 -0.9173048450503093
4697000000.0 0.4226962645013048 -0.8844917867321714
4700000000.0 0.4465720570103184 -0.9238954270202587
4703000000.0 0.47216861767058343 -0.889125425850267
4706000000.0 0.4315910965453064 -0.9339837821778237
4709000000.0 0.42209246289691504 -0.9190467454913521
4712000000.0 0.4377121639522765 -0.9324931474580772
4716000000.0 0.4519505544089064 -0.94444229119536
4719000000.0 0.47806171602939274 -0.930446172633089
4722000000.0 0.47073070194212907 -0.8799286771698485
4725000000.0 0.47284719231849637 -0.9148606753194285
4728000000.0 0.45481662691302766 -0.9361387847728599
4731000000.0 0.48450990656299175 -0.9415376301925442
4734000000.0 0.4527791427291433 -0.9195347745698697
4738000000.0 0.4910042176311632 -0.9325763886256238
4741000000.0 0.4687685683682867 -0.9537532637041019
4744000000.0 0.4278732376278773 -0.9495626984190352
4747000000.0 0.4428333513573202 -0.900123936710386
4750000000.0 0.46976933665604614 -0.9586723059884349
4753000000.0 0.4650258343713132 -0.9216011774404795
4756000000.0 0.45330511078645486 -0.9696453097412373
4759000000.0 0.4263831441063599 -0.9377415445856015
4762000000.0 0.44828580364587445 -0.9418350033378069
4766000000.0 0.44180293118092073 -0.9440588419919026
4769000000.0 0.4498809937459629 -0.9287622634003603
4772000000.0 0.4527663450344559 -0.9238543392370088
4775000000.0 0.43241295158518206 -0.9893088924249361
4778000000.0 0.44548370671000975 -0.9454727826559407
4781000000.0 0.4576360009670105 -0.9159652469229184
4784000000.0 0.4626064089705346 -0.9316139901995236
4788000000.0 0.42359760755762405 -0.9539710353016732
4791000000.0 0.4477946155405458 -0.9415859798231313
4794000000.0 0.47542085309919246 -0.9460659707484005
4797000000.0 0.4397070144020546 -0.9055511441576031
4800000000.0 0.41631309374471304 -0.9238394580529874
4803000000.0 0.3945580450574284 -0.9346970461267415
4806000000.0 0.42908199874201525 -0.9543916307318593
4809000000.0 0.40636147089725094 -0.9716453968480003
4812000000.0 0.39869993728495934 -0.9292480693503317
4816000000.0 0.46999570558892967 -0.9174397668610318
4819000000.0 0.4770634657377617 -0.9663646707107587
4822000000.0 0.4690253544570006 -0.9706361340729308
4825000000.0 0.4747639121083166 -0.9472990083696132
4828000000.0 0.43848917373680873 -0.9171261492350359
4831000000.0 0.40754761336557865 -0.9622064276845481
4834000000.0 0.46948982601645595 -0.9292072399251341
4838000000.0 0.41771768691987254 -0.9726912248964611
4841000000.0 0.430310252879358 -0.9363400696551898
4844000000.0 0.48189229057192606 -0.9396078163583155
4847000000.0 0.47122320217640656 -0.9083957290790934
4850000000.0 0.40620626309995456 -0.9698492158902229
4853000000.0 0.44834277964354885 -0.9153146509338543
4856000000.0 0.43240632584159283 -0.9522769977405208
4859000000.0 0.42345256742125065 -0.9820663669892601
4862000000.0 0.4699744327905449 -0.895120488353956
4866000000.0 0.41551347859333215 -0.9723534438193109
4869000000.0 0.42901094888960023 -0.9565643135519251
4872000000.0 0.4307171444097851 -1.0039403814950327
4875000000.0 0.504924657196458 -0.9699736374552422
4878000000.0 0.4568609267938282 -0.9655754156708187
4881000000.0 0.45638871198047637 -1.0123790487503759
4884000000.0 0.4626177642154053 -0.9391845846900088
4888000000.0 0.48922395826860043 -0.9097380298039022
4891000000.0 0.4771977317199608 -0.9395121502431881
4894000000.0 0.40042897784213816 -0.9373530735038053
4897000000.0 0.4429797236413558 -0.9165229787391067
4900000000.0 0.4406155430572105 -0.9655579452064743
4903000000.0 0.45415646470287035 -0.9667894261171011
4906000000.0 0.45795753514547466 -0.9758294045580356
4909000000.0 0.42386418157696526 -0.9520122048526631
4912000000.0 0.4294637185826698 -0.9831073397863536
4916000000.0 0.48771088220047937 -0.9790398112485692
4919000000.0 0.517490605510634 -0.9638024044848753
4922000000.0 0.4679911685993051 -0.9305014256074136
4925000000.0 0.42937474510852863 -0.9622682011596662
4928000000.0 0.47829861447252664 -0.9198626536328881
4931000000.0 0.492102986880227 -0.9691592396315776
4934000000.0 0.45430743150458797 -0.9080311297698752
4938000000.0 0.4229649725376964 -0.9516481949234709
4941000000.0 0.4681063874245287 -0.957431096473405
4944000000.0 0.46050554679891964 -0.8745979578889822
4947000000.0 0.4588432666193968 -0.9373862386582831
4950000000.0 0.440484278396265 -0.9407820321116531
4953000000.0 0.4190424844776298 -0.9862973917187455
4956000000.0 0.39590732399634787 -0.9982815821137169
4959000000.0 0.4227046376117846 -0.9540350885717362
4962000000.0 0.4358600537360727 -0.9713121200945904
4966000000.0 0.47767205216345354 -0.9975096891191417
4969000000.0 0.48593022296456473 -0.9766389449590934
4972000000.0 0.44813411854181295 -0.9378114483006994
4975000000.0 0.46017004996060423 -0.9162129403348279
4978000000.0 0.41786697168505815 -0.9608889527488396
4981000000.0 0.4511455453553508 -0.9584140511795562
4984000000.0 0.4516470457783447 -0.9233095923135985
4988000000.0 0.4393505337874221 -0.9196765342208748
4991000000.0 0.49766684573679554 -0.9075918424880134
4994000000.0 0.4685229392583154 -0.9141047968080127
4997000000.0 0.397383751113841 -0.9568563891888917
5000000000.0 0.5089345419154443 -0.9770071271333653
5003000000.0 0.4883346069720075 -0.9524459645911256
5006000000.0 0.4560053294313992 -0.9908045063107837
5009000000.0 0.4489258078090824 -0.9616624182782583
5012000000.0 0.46349205664694265 -0.9779686575220328
5016000000.0 0.4947284554033571 -0.9427632864052089
5019000000.0 0.40656924198058314 -0.9692015102058409
5022000000.0 0.4290095063909979 -0.9375268666738403
5025000000.0 0.4727410598343469 -0.9794630472052157
5028000000.0 0.4135522206334515 -0.9758965177619209
5031000000.0 0.42988400444204694 -0.9514237806744275
5034000000.0 0.42477710422034404 -0.991347393198082
5038000000.0 0.41467266787511836 -0.9437880672220167
5041000000.0 0.48039723054454375 -0.9385915112601763
5044000000.0 0.5030331421049027 -0.9014346791212391
5047000000.0 0.4601251947479154 -0.9635606159394465
5050000000.0 0.502915196004394 -0.9065748438022858
5053000000.0 0.4647634963427222 -0.9976075318218423
5056000000.0 0.4943716812367173 -0.9320466968614983
5059000000.0 0.4574524523532722 -0.9549453204172855
5062000000.0 0.413430634411586 -0.979593942157675
5066000000.0 0.5019855957782771 -0.9260620520614244
5069000000.0 0.4543109180087937 -0.9799699065074112
5072000000.0 0.46933876083586124 -0.9005165454805322
5075000000.0 0.4728186218625362 -0.8935429551995657
5078000000.0 0.45357254740776864 -0.9802186055814455
5081000000.0 0.4381011206146948 -0.9276668530705467
5084000000.0 0.4966335257399774 -0.954081328302735
5088000000.0 0.4557124883563773 -0.9150081257663685
5091000000.0 0.4220049617527943 -0.9670716366176204
5094000000.0 0.49672250126319745 -0.9359097835355116
5097000000.0 0.48508237311809616 -0.9077957607726983
5100000000.0 0.4646765402292197 -0.9165211174243357
5103000000.0 0.39525845230534434 -1.0062816806031933
5106000000.0 0.44401260916998236 -1.0158766929158405
5109000000.0 0.5416395255456423 -0.9328515008396367
5112000000.0 0.47209577379941947 -0.9826305900044965
5116000000.0 0.4832220556647614 -0.9036095302409506
5119000000.0 0.42257086880715505 -0.9833055670258308
5122000000.0 0.4460636834181373 -0.9381917006233804
5125000000.0 0.5141357904410019 -0.9404682319418873
5128000000.0 0.4684093818010945 -0.9530207988403314
5131000000.0 0.4626091077756758 -0.9436423706917957
5134000000.0 0.4952183889858976 -0.9081049244453128
5138000000.0 0.5385182169074568 -0.9340470171943631
5141000000.0 0.5190679909357896 -0.8601060762857189
5144000000.0 0.4966096338358541 -0.9481730629596925
5147000000.0 0.48087967093832734 -0.9956681707752486
5150000000.0 0.4849131434406565 -0.9590509748545637
5153000000.0 0.4592852055690636 -0.9544058141499439
5156000000.0 0.4452004716647792 -0.9590853588069752
5159000000.0 0.4995661221153225 -0.9583488156164155
5162000000.0 0.4764973337214245 -0.9423692876438724
5166000000.0 0.4776159344477242 -0.9531253886210415
5169000000.0 0.4796830936753227 -0.9356265003063985
5172000000.0 0.4657699889055322 -0.9485798266015558
