! Created with skrf 1.8.0 (http://scikit-rf.org).
# Hz S RI R 50.0 
!freq ReS11 ImS11
4000000000.0 0.5388258786927749 -0.9052025914221817
4003000000.0 0.5275589766949003 -0.8991329898483766
4006000000.0 0.46493307399494843 -0.8934945915145182
4009000000.0000005 0.6013749972243227 -0.9218151527823059
4011999999.9999995 0.5724015501178127 -0.9056845319640748
4016000000.0 0.48614345413646914 -0.8870793897113538
4019000000.0 0.5262183313396439 -0.9139226145586246
4022000000.0000005 0.5603853689667623 -0.8688375265551336
4025000000.0000005 0.4871797174331869 -0.9475113582965837
4027999999.9999995 0.5016161633179884 -0.8734304091588482
4030999999.9999995 0.49443296947618287 -0.8575952533814907
4034000000.0 0.5239956453799357 -0.9083225568325805
4038000000.0000005 0.5245917402742102 -0.9148941915912021
4041000000.0000005 0.5485181835937053 -0.903145397475855
4043999999.9999995 0.5748663790672403 -0.9852622230575154
4046999999.9999995 0.5606107637222952 -0.9259339213312363
4050000000.0 0.4936189506957537 -0.9269394868641438
4053000000.0 0.5010105275081358 -0.8747024166340278
4056000000.0 0.5088721923389053 -0.8942654409875472
4059000000.0 0.5141658792401363 -0.8925707933961443
4062000000.0000005 0.4589174002729959 -0.8894488090362372
4066000000.0 0.4378917601078792 -0.8533905436315189
4069000000.0 0.49063265758894214 -0.9436287142717922
4072000000.0 0.5238387092747179 -0.8818780174462705
4075000000.0 0.5523693211638853 -0.9185146429141537
4078000000.0000005 0.491075301671272 -0.9109123888879822
4081000000.0000005 0.5629501053970958 -0.8997937311278345
4083999999.9999995 0.49718699230209434 -0.9111383182066054
4088000000.0 0.525626486665714 -0.8935753381699897
4091000000.0 0.5341783599213714 -0.9638138103154995
4094000000.0000005 0.5166566780482132 -0.8842244731545706
4097000000.0000005 0.5173541682803705 -0.9183995390787387
4099999999.9999995 0.5167859041543217 -0.8946613604189966
4102999999.9999995 0.5565160605686412 -0.9124076143021738
4106000000.0 0.46461275124651585 -0.9046722430849723
4109000000.0 0.5168127284753175 -0.902903114030945
4112000000.0 0.5231450445048844 -0.9068039614485245
4115999999.9999995 0.51711451643944 -0.8740294840096973
4119000000.0 0.5225276312773353 -0.9149021558247988
4122000000.0 0.4639315420817864 -0.9128489346697525
4125000000.0 0.5412244529578181 -0.9033059781320656
4128000000.0 0.5114873577443838 -0.8657848946936585
4131000000.0 0.4861029549988425 -0.8683983391489832
4134000000.0000005 0.5106725781418704 -0.8842527757215294
4138000000.0 0.4996768074940786 -0.8636501471612351
4141000000.0 0.5171225164765695 -0.8466330189042303
4144000000.0 0.5206610977382835 -0.8878465479202827
4147000000.0000005 0.5199493853788618 -0.8832024236320749
4150000000.0000005 0.5292951279986466 -0.9403555466059138
4152999999.9999995 0.5291380703373919 -0.8730831093288658
4155999999.9999995 0.5282750972120501 -0.9358077246434774
4159000000.0 0.5314228616881521 -0.8731328753115453
4162000000.0 0.5222277247891992 -0.9117450539722448
4166000000.0000005 0.4983114123825758 -0.9131506355037451
4168999999.9999995 0.5066758950354834 -0.8760265730022915
4171999999.9999995 0.5405931913349274 -0.9113429817357528
4175000000.0 0.5086030605849823 -0.9187390095156063
4178000000.0 0.5040855378221313 -0.8712741617027421
4181000000.0 0.5100500619665151 -0.8714910656001035
4184000000.0 0.5253033111996566 -0.8921310705412954
4187999999.9999995 0.5150273405243544 -0.8972751708305078
4191000000.0 0.544838237522074 -0.8460517670784667
4194000000.0 0.5094139062519162 -0.8659182425836538
4197000000.0 0.5068550577524868 -0.917100449281591
4200000000.0 0.5397714549161432 -0.878405252150735
4203000000.0000005 0.5420704409098077 -0.8679885411071777
4206000000.0000005 0.5067696196662215 -0.8914564980191407
4208999999.9999995 0.5085591961901708 -0.8632184745607447
4211999999.9999995 0.49284745010436026 -0.8919915662368397
4216000000.0 0.5319080501428131 -0.8838716810880481
4219000000.0000005 0.5391008243010347 -0.8855271965886459
4222000000.0000005 0.5155516049932052 -0.8965712179308961
4224999999.9999995 0.5298691878642958 -0.8766443756675103
4227999999.9999995 0.5379492949109362 -0.8864809389142843
4231000000.0 0.5252688928525204 -0.8854162871372986
4234000000.0 0.5368184478984597 -0.8981938423605715
4238000000.0000005 0.5215148849918374 -0.885495221834734
4240999999.9999995 0.5135689108639334 -0.8753351247293908
4244000000.0 0.5171076008170145 -0.8574219273551249
4247000000.0 0.5354037122330457 -0.8644464884116188
4250000000.0 0.504002379947883 -0.8641503578460322
4253000000.0 0.510435569688837 -0.8623097018790375
4256000000.0 0.5297978207770486 -0.9082465124420075
4259000000.0000005 0.4806822138535492 -0.8455192212203341
4261999999.9999995 0.5016517401049867 -0.8848619582780871
4266000000.0 0.5006620793894621 -0.897047277505557
4269000000.0 0.5127349134514085 -0.8758953201054706
4272000000.0000005 0.5007993664748785 -0.8603667676832298
4275000000.0000005 0.5098382401327759 -0.8830776182030328
4277999999.9999995 0.5250593177480815 -0.8826783608791184
4280999999.9999995 0.5239527824793572 -0.8457438387823759
4284000000.0 0.4870905481380044 -0.9083753348165802
4288000000.0000005 0.5319090870112887 -0.8619151694322971
4291000000.0000005 0.4947540751409787 -0.8619342673054065
4293999999.9999995 0.4995574982102252 -0.882802821329178
4297000000.0 0.5100086814569134 -0.8546492281918846
4300000000.0 0.502482115919272 -0.8660948054527282
4303000000.0 0.5080113577139584 -0.8656704721336831
4306000000.0 0.5425236143091766 -0.8638178518171473
4309000000.0 0.5207764048387025 -0.8568173627297975
4312000000.0 0.5525119708191035 -0.8985173586767708
4316000000.0 0.5343614019657499 -0.8864593439583287
4319000000.0 0.5086048890416497 -0.8590860897717647
4322000000.0 0.4570766465299794 -0.8604139980214947
4325000000.0 0.5219195249111661 -0.8869111505771288
4328000000.0 0.49323452878373697 -0.852737525520998
4331000000.0 0.4878363545056575 -0.898298636087022
4334000000.0 0.483824068206438 -0.8687870720119116
4338000000.0 0.5303004744815306 -0.8542664034754898
4341000000.0 0.5483683899782175 -0.8780299386291877
4344000000.0 0.5569035703851193 -0.8739050604471267
4347000000.0 0.48261342764574716 -0.8878058127608054
4350000000.0 0.4746286320218414 -0.8397908013148269
4353000000.0 0.5214072081808799 -0.8555435220190332
4356000000.0 0.479190500036103 -0.8852920782115381
4359000000.0 0.4596220587175903 -0.8254456509263232
4362000000.0 0.46602283612034995 -0.9238873374862129
4366000000.0 0.5138805396042668 -0.9021722833506781
4369000000.0 0.4707379877638639 -0.8562441092497912
4372000000.0 0.4634521073839657 -0.900173682062313
4375000000.0 0.5034228783523906 -0.8609252871904131
4378000000.0 0.4751560695056476 -0.8522802184574498
4381000000.0 0.5093718068438653 -0.8528539180733301
4384000000.0 0.524941793444315 -0.9423744643402825
4388000000.0 0.5039765635890321 -0.8465878017868144
4391000000.0 0.5112624943721265 -0.8872036209105019
4394000000.0 0.4834059038108329 -0.8581728879949954
4397000000.0 0.4893979324652664 -0.8664005737142719
4400000000.0 0.5112339197881924 -0.8918720852568331
4403000000.0 0.4982884772201186 -0.8798885101277472
4406000000.0 0.48489172439276884 -0.8860990873198836
4409000000.0 0.5244184250855579 -0.9340680826292449
4412000000.0 0.4479710969785245 -0.899660073792286
4416000000.0 0.4773657341172708 -0.8720619774541636
4419000000.0 0.4712727527004742 -0.8962708269906968
4422000000.0 0.5133450051123082 -0.8614167622610966
4425000000.0 0.5284075414459322 -0.8791108113340639
4428000000.0 0.477717370832794 -0.8902648446092224
4431000000.0 0.5159391754693208 -0.8968448484056363
4434000000.0 0.4810670255586772 -0.8916543997547385
4438000000.0 0.5029956640708322 -0.9041443749423677
4441000000.0 0.5168632126839274 -0.8868859552435975
4444000000.0 0.48198807880536254 -0.8582442535612866
4447000000.0 0.4823074117076731 -0.8907280103330867
4450000000.0 0.48821628083321966 -0.8664901081018124
4453000000.0 0.5082481143841379 -0.8992367692749049
4456000000.0 0.4679321910395207 -0.8661681212661025
4459000000.0 0.4480901015550335 -0.8709777877120832
4462000000.0 0.525412473440636 -0.9356437186244608
4466000000.0 0.4962575068642263 -0.9279069742191803
4469000000.0 0.5018328821969416 -0.880005171236427
4472000000.0 0.48321094349431787 -0.8996329844218769
4475000000.0 0.4868625769267275 -0.8631926964202308
4478000000.0 0.49573269507401546 -0.9290143124926259
4481000000.0 0.45655954557489026 -0.8741998721778644
4484000000.0 0.4380582131698841 -0.9350095245061399
4488000000.0 0.46761095709754014 -0.8774317781414858
4491000000.0 0.488061699681141 -0.8885521584066682
4494000000.0 0.49109902600286526 -0.8714871374094374
4497000000.0 0.4875336718529413 -0.8697566702426975
4500000000.0 0.49802062621214027 -0.8881889619715204
4503000000.0 0.48612926122307965 -0.901524311543638
4506000000.0 0.4785657809523639 -0.8999603928470177
4509000000.0 0.45344126793330336 -0.8758707046997408
4512000000.0 0.45377580397097483 -0.8773744161242983
4516000000.0 0.4949136027209263 -0.9069451242960689
4519000000.0 0.48341417586364727 -0.86397695151475
4522000000.0 0.46326039031725685 -0.8938429776495367
4525000000.0 0.48844434364637773 -0.8701090474327212
4528000000.0 0.49237366410271666 -0.905618030797614
4531000000.0 0.4916454013539708 -0.8770741603977253
4534000000.0 0.4602321441589157 -0.8825905265227565
4538000000.0 0.4598601059416107 -0.8867377577332375
4541000000.0 0.4399132062788817 -0.8903181042884453
4544000000.0 0.46698540188257426 -0.8635662808765878
4547000000.0 0.48988653363292756 -0.8830360040839957
4550000000.0 0.4767541575786648 -0.9227806586887566
4553000000.0 0.4745075994543114 -0.9002096972302616
4556000000.0 0.45107047488481933 -0.8861731771399911
4559000000.0 0.45284294741015885 -0.9125225660047771
4562000000.0 0.4751266644222721 -0.9058349691701166
4566000000.0 0.470813975369134 -0.9115491665385504
4569000000.0 0.4651113771003166 -0.8819778859276749
4572000000.0 0.46684674523987973 -0.8961780128100574
4575000000.0 0.4540796795404572 -0.9054601894004236
4578000000.0 0.49271698476611275 -0.9147147452647262
4581000000.0 0.4553176533440906 -0.914950557422519
4584000000.0 0.450571919754859 -0.8980529334031015
4588000000.0 0.48325762121506466 -0.9032321204249769
4591000000.0 0.4679342573227592 -0.8795217838099265
4594000000.0 0.45050325846041095 -0.9005101110344313
4597000000.0 0.4449477232644882 -0.915733988716732
4600000000.0 0.4424474473265945 -0.9006274682886839
4603000000.0 0.45274168837142303 -0.9093889226889527
4606000000.0 0.46463030267657884 -0.9164469624377072
4609000000.0 0.4639637941708116 -0.9023052190351165
4612000000.0 0.45319707464485226 -0.9149838772949774
4616000000.0 0.44982863660338473 -0.8881103661263822
4619000000.0 0.46782786956082195 -0.9082646447383481
4622000000.0 0.46285461778507647 -0.906659411452906
4625000000.0 0.41985972237459457 -0.889965267414416
4628000000.0 0.47387514867769115 -0.8904758575943723
4631000000.0 0.44526792176802715 -0.9091823241121166
4634000000.0 0.44058000446604223 -0.905249762604784
4638000000.0 0.4590505878431419 -0.9188646133028043
4641000000.0 0.46854697089670194 -0.8932127646230756
4644000000.0 0.45088354676332676 -0.90634953780308
4647000000.0 0.4548088619751171 -0.9129224355167839
4650000000.0 0.44096612184561185 -0.8923023739102671
4653000000.0 0.47821619995940634 -0.9128097139287494
4656000000.0 0.4599382057139896 -0.9099234498335638
4659000000.0 0.44507644577178385 -0.9112957140781636
4662000000.0 0.4508557946421949 -0.9244732856770258
4666000000.0 0.4428280042052116 -0.905450023092638
4669000000.0 0.4576918674029279 -0.9061090391417408
4672000000.0 0.44474548001414765 -0.9270421072052699
4675000000.0 0.4304798832703348 -0.9113679256751419
4678000000.0 0.430957581327411 -0.8806056057071832
4681000000.0 0.42746725943254094 -0.9192598089366226
4684000000.0 0.39012082454476693 -0.9121936259231364
4688000000.0 0.4157218455527025 -0.9089686457192169
4691000000.0 0.46316839926796527 -0.9082653798142408
4694000000.0 0.46862012682600585 -0.8942641226914887
4697000000.0 0.41261326902513684 -0.8876367181280607
4700000000.0 0.43170167651985636 -0.8997990459570544
4703000000.0 0.4532212658335777 -0.8726289487363365
4706000000.0 0.44007807920445396 -0.9308670586580555
4709000000.0 0.4261505094407718 -0.9029230983711953
4712000000.0 0.4456636050454371 -0.9189991284744814
4716000000.0 0.4363308199144698 -0.9176553685030266
4719000000.0 0.4669486537606952 -0.9136756117829855
4722000000.0 0.4584413847362981 -0.902561035087689
4725000000.0 0.4682337634744663 -0.9131511811792757
4728000000.0 0.46787304102274324 -0.878913151426077
4731000000.0 0.4480576237267983 -0.9468869818290999
4734000000.0 0.47191942473244586 -0.910983504764919
4738000000.0 0.4897449423370059 -0.917684314049683
4741000000.0 0.4691460166218734 -0.9352953286810027
4744000000.0 0.42763654316465455 -0.9303474949806214
4747000000.0 0.44262792975889814 -0.8620474229702658
4750000000.0 0.46710861588680963 -0.9270010666589722
4753000000.0 0.46790567118936893 -0.9126204129822364
4756000000.0 0.4314421760705718 -0.9507398014059851
4759000000.0 0.4378236005639675 -0.9171027207066367
4762000000.0 0.43691158121245854 -0.9257946689188109
4766000000.0 0.4079592347928197 -0.9175919038516588
4769000000.0 0.43846882282127986 -0.9500973107189035
4772000000.0 0.45218583824249614 -0.9350354537491438
4775000000.0 0.4414708602598604 -0.9831484555852033
4778000000.0 0.4300691694912203 -0.9355407900866041
4781000000.0 0.4601340495991916 -0.8986277401564685
4784000000.0 0.4751475544219554 -0.9150988900937943
4788000000.0 0.43611040025638204 -0.9406109813439962
4791000000.0 0.41363251612597096 -0.9230502682933657
4794000000.0 0.48255679905100385 -0.9541880136756353
4797000000.0 0.4182415211297399 -0.8978460277179905
4800000000.0 0.4302219273349346 -0.901270017204457
4803000000.0 0.3787032422523971 -0.951453469306
4806000000.0 0.43518374917124536 -0.9258334702416625
4809000000.0 0.3923256768520954 -0.949521631457377
4812000000.0 0.3954568974008733 -0.9165617573432553
4816000000.0 0.43996212926387174 -0.8982959036164708
4819000000.0 0.47056404244986366 -0.9388989822025353
4822000000.0 0.47911079213887214 -0.9427479714424268
4825000000.0 0.45569608891122404 -0.9297885824530007
4828000000.0 0.4388977703636203 -0.925084303562478
4831000000.0 0.39696799569783514 -0.9681846941291958
4834000000.0 0.43941995319979654 -0.9395601080291788
4838000000.0 0.43284324245940253 -0.9688148456923193
4841000000.0 0.42055676799888614 -0.9345982491005965
4844000000.0 0.47695999994533117 -0.9267738424660913
4847000000.0 0.4351335269392606 -0.889823060687151
4850000000.0 0.40581143742749665 -0.9581150099055197
4853000000.0 0.42855880070225005 -0.9013400387032467
4856000000.0 0.4386407315098765 -0.9030701117191189
4859000000.0 0.44864370540411774 -0.9771264440920489
4862000000.0 0.46155232014755143 -0.9107887983951201
4866000000.0 0.43589211884444906 -0.9502281509212789
4869000000.0 0.4350571864525011 -0.9291616022639579
4872000000.0 0.44273564360294276 -0.9628100039268842
4875000000.0 0.4963164093661537 -0.943609393600131
4878000000.0 0.4151051668006147 -0.9621834961842185
4881000000.0 0.41515729828005354 -0.9993776587629046
4884000000.0 0.4759469595193395 -0.9327552805413497
4888000000.0 0.47063428043640587 -0.9168282953046976
4891000000.0 0.4708973757658248 -0.9559990257338249
4894000000.0 0.4320477762273692 -0.9515898878810529
4897000000.0 0.46968390967005486 -0.913616709110323
4900000000.0 0.4477054837094734 -0.9491949712240434
4903000000.0 0.4864946449318949 -0.9352271447829862
4906000000.0 0.4215519087690748 -0.9359329834607689
4909000000.0 0.4408871798737042 -0.9436297064590898
4912000000.0 0.4303930421361782 -0.9912313593263049
4916000000.0 0.4510857347941232 -0.9339376646447244
4919000000.0 0.4711814117884142 -0.9224664753308929
4922000000.0 0.4570102941925097 -0.9264660527649057
4925000000.0 0.41240654186474296 -0.9198951093537182
4928000000.0 0.4981776298136402 -0.8742908564234874
4931000000.0 0.48029538067022665 -0.9626180333369935
4934000000.0 0.42989946058392003 -0.8958412857233959
4938000000.0 0.4255295111340378 -0.9212669234879148
4941000000.0 0.45657995189438627 -0.8880517586989937
4944000000.0 0.458682003072443 -0.8761354388456032
4947000000.0 0.43774676062430495 -0.9269030055886814
4950000000.0 0.41196959034996017 -0.9036811627145498
4953000000.0 0.43462224884948997 -0.9728640910192277
4956000000.0 0.42572075637013695 -0.9361803317855272
4959000000.0 0.40726224595942073 -0.9048658135400947
4962000000.0 0.41846580294018043 -0.9933912901361986
4966000000.0 0.4739479659356346 -0.9561657539392123
4969000000.0 0.47946152005742937 -0.9917183995157488
4972000000.0 0.45347141633684335 -0.940051434318758
4975000000.0 0.46664285439686604 -0.9279215311510856
4978000000.0 0.4249007108650872 -0.9353380525098196
4981000000.0 0.4476947630668888 -0.9482597814129494
4984000000.0 0.42088845584913814 -0.9258655798013122
4988000000.0 0.4780360282214095 -0.928359596463948
4991000000.0 0.4739822459210983 -0.9543227910660237
4994000000.0 0.46692864969953324 -0.9016064097333512
4997000000.0 0.3952224775629889 -0.95373806940848
5000000000.0 0.4942282987837493 -0.9498753452061509
5003000000.0 0.46066729225699654 -0.9505514723775375
5006000000.0 0.48808064194469436 -0.9848467712112512
5009000000.0 0.4766984079318186 -0.9391298349601819
5012000000.0 0.4376446563273396 -0.9381219356706593
5016000000.0 0.48222719414238224 -0.974557985350335
5019000000.0 0.4322659841275352 -0.9312836983907369
5022000000.0 0.45507582866809404 -0.929157131714925
5025000000.0 0.45527681917764384 -0.9641751387878463
5028000000.0 0.4413905090918266 -0.9714809786437918
5031000000.0 0.41639273161966284 -0.9452987555106228
5034000000.0 0.41824407845688594 -0.9810095221784769
5038000000.0 0.4252361753179788 -0.9180233713576957
5041000000.0 0.4694354200085869 -0.9356264360850662
5044000000.0 0.4609808426431492 -0.9015352123663439
5047000000.0 0.43821378132608035 -0.9393462041516225
5050000000.0 0.5122904560319582 -0.8880090540668036
5053000000.0 0.435675853436196 -0.990251320057468
5056000000.0 0.5001595127001375 -0.9696782152758496
5059000000.0 0.5016324009239329 -0.920630285727867
5062000000.0 0.4064069900292922 -0.9411077711075355
5066000000.0 0.5045385317535206 -0.9688018838167868
5069000000.0 0.46325196453885775 -0.9484311693420224
5072000000.0 0.4417823467020884 -0.9034274795442281
5075000000.0 0.4735594736231481 -0.9253060339730849
5078000000.0 0.4458397516462684 -0.9761749567475834
5081000000.0 0.4304993878627914 -0.9179795465062439
5084000000.0 0.4574407827782269 -0.9264111467554308
5088000000.0 0.4900457643518242 -0.9192164600299403
5091000000.0 0.4379179544468819 -0.9798649479909654
5094000000.0 0.4655826419805999 -0.9631708383586863
5097000000.0 0.4856263511165192 -0.9240023840863154
5100000000.0 0.44194024479430827 -0.9017195149249917
5103000000.0 0.4430296297018858 -0.9216966091619545
5106000000.0 0.42146813181023784 -0.9484737061306283
5109000000.0 0.5206046407083077 -0.900324660339481
5112000000.0 0.44818164109349157 -0.911447610301821
5116000000.0 0.45378082551814275 -0.9088380712938585
5119000000.0 0.4304651637485634 -0.9391462768388403
5122000000.0 0.4631344477742979 -0.9374760651049823
5125000000.0 0.4810422882032889 -0.9101344505664435
5128000000.0 0.43797341652326743 -0.9427309139910799
5131000000.0 0.44931220798916716 -0.9512832150783895
5134000000.0 0.4754385817528922 -0.9051896784719362
5138000000.0 0.493689339559913 -0.9180016944876088
5141000000.0 0.5555272219956685 -0.9090348481627829
5144000000.0 0.49670268156850383 -0.9008842849182831
5147000000.0 0.5336185760266705 -0.9379163182861421
5150000000.0 0.5272978277848301 -0.970358560609627
5153000000.0 0.46118889913910327 -0.9411121281708131
5156000000.0 0.47706990943418903 -0.8913079976523145
5159000000.0 0.491597037033487 -0.937045734709413
5162000000.0 0.4340729039388111 -0.956327950242246
5166000000.0 0.4783023591625046 -0.9558226743477665
5169000000.0 0.48907294388202005 -0.9504502659709595
5172000000.0 0.49645674099030757 -0.9100257497033188
