! Created with skrf 1.8.0 (http://scikit-rf.org).
# Hz S RI R 50.0 
!freq ReS11 ImS11
4000000000.0 0.4883770444532733 -0.8661990898497913
4003000000.0 0.5646466884443755 -0.9240985734231505
4006000000.0 0.5104496516556217 -0.8975766748123277
4009000000.0000005 0.5236819656975854 -0.8735455366458573
4011999999.9999995 0.552679562890145 -0.905010659137343
4016000000.0 0.52691933207566 -0.9625521823933941
4019000000.0 0.500955600794004 -0.9181809973201035
4022000000.0000005 0.5753186020417786 -0.9160572878266471
4025000000.0000005 0.46545459170130266 -0.9067849349395904
4027999999.9999995 0.533935518084593 -0.9390821444809335
4030999999.9999995 0.48771434209347947 -0.8367524130998041
4034000000.0 0.5440544832224394 -0.9354649599425571
4038000000.0000005 0.5096197009127498 -0.9355662958547935
4041000000.0000005 0.5458633019107224 -0.9208890734015481
4043999999.9999995 0.5521290015898644 -0.9803857396671063
4046999999.9999995 0.5668109086128155 -0.9139986929989584
4050000000.0 0.5252836287253233 -0.9049672675312735
4053000000.0 0.5051858333795948 -0.9241133561907175
4056000000.0 0.5259227756957907 -0.8599870120351103
4059000000.0 0.5119183888393212 -0.8886974675005865
4062000000.0000005 0.5036267807330059 -0.9121587930495407
4066000000.0 0.5214775398988797 -0.8268389347548859
4069000000.0 0.5163655678877972 -0.9411227957924955
4072000000.0 0.5785964862936046 -0.8569431156092098
4075000000.0 0.5938874761934655 -0.9465649825839948
4078000000.0000005 0.5370236216842817 -0.8892492411712326
4081000000.0000005 0.5992600068331576 -0.8734001395174474
4083999999.9999995 0.5309146937780268 -0.9300532704752767
4088000000.0 0.5352365779793787 -0.8741011538216895
4091000000.0 0.5652686336778178 -0.9559693905713074
4094000000.0000005 0.5666309603581529 -0.9160644244794951
4097000000.0000005 0.5296202175998291 -0.9450756109735136
4099999999.9999995 0.5363985073591697 -0.8841289010274901
4102999999.9999995 0.5628139249560643 -0.9246965842361174
4106000000.0 0.5222144936839117 -0.9059375271813841
4109000000.0 0.54084605977774 -0.9400966090541617
4112000000.0 0.5661557002645705 -0.907305039113665
4115999999.9999995 0.5330885131161132 -0.8865305990157912
4119000000.0 0.5116205308328228 -0.8960951565959259
4122000000.0 0.5145346770055444 -0.9303457803757315
4125000000.0 0.49084321055736085 -0.9124092581965801
4128000000.0 0.5090282686982026 -0.876931409620962
4131000000.0 0.544258185127046 -0.8933042358984701
4134000000.0000005 0.5510973031822878 -0.8856955384806325
4138000000.0 0.4863451542903609 -0.8641890044714653
4141000000.0 0.5271554728404536 -0.9011951709949274
4144000000.0 0.5749633705117558 -0.9178036972169452
4147000000.0000005 0.5058176768106384 -0.93215578021657
4150000000.0000005 0.5677764700924578 -0.9215526611804539
4152999999.9999995 0.5295181285723191 -0.9033262584872312
4155999999.9999995 0.5564112487419063 -0.9339010643986752
4159000000.0 0.5383009716543135 -0.8989653617183304
4162000000.0 0.518118483648432 -0.9004478102264165
4166000000.0000005 0.5559461993474866 -0.9111128763814715
4168999999.9999995 0.49725607837978736 -0.9008891361342095
4171999999.9999995 0.556963378922529 -0.9150385308502131
4175000000.0 0.5122865416658274 -0.886811766301593
4178000000.0 0.5188665932191511 -0.8873670678594696
4181000000.0 0.494720440611329 -0.9170960930358559
4184000000.0 0.5433694544024865 -0.8807874129156011
4187999999.9999995 0.546942468313148 -0.9034465308860159
4191000000.0 0.5530094247621415 -0.884470380915471
4194000000.0 0.5232727675172092 -0.9011819949695751
4197000000.0 0.547615894867834 -0.8936302766774883
4200000000.0 0.539157383223766 -0.858741164349378
4203000000.0000005 0.5424957006753504 -0.8934191440404892
4206000000.0000005 0.5549627540487014 -0.8916293641698919
4208999999.9999995 0.5246010890987931 -0.8640467726368866
4211999999.9999995 0.5094609264438539 -0.8921901770744453
4216000000.0 0.5294459344455359 -0.8942003010421196
4219000000.0000005 0.5565220044909325 -0.8760892964404567
4222000000.0000005 0.5325435021573499 -0.9043157125901343
4224999999.9999995 0.5279719129477785 -0.8606533586544801
4227999999.9999995 0.5437006407661936 -0.8895422269250647
4231000000.0 0.5334350118228667 -0.8876953637957433
4234000000.0 0.5346236749313473 -0.8972610198618032
4238000000.0000005 0.5243259941588849 -0.898243535775765
4240999999.9999995 0.5224529469968981 -0.9012909116180731
4244000000.0 0.5368532301290543 -0.873520189607189
4247000000.0 0.5468687861798077 -0.8874915585715468
4250000000.0 0.48227523948712137 -0.8709269700027944
4253000000.0 0.48855373346843467 -0.8644217323914701
4256000000.0 0.5292253282842365 -0.8992468290104556
4259000000.0000005 0.5027817531969396 -0.8372702190573172
4261999999.9999995 0.5172025661172547 -0.8983784283401675
4266000000.0 0.4958436738775077 -0.9054633992584381
4269000000.0 0.536596723512337 -0.8761354000942911
4272000000.0000005 0.5257493919183829 -0.8825892582064462
4275000000.0000005 0.519182314967037 -0.8716718460299435
4277999999.9999995 0.5247395276289145 -0.8977201363726176
4280999999.9999995 0.5283950208262095 -0.8759850319492775
4284000000.0 0.4934409462248278 -0.9004887750354154
4288000000.0000005 0.5526214883435101 -0.8597807748832215
4291000000.0000005 0.536507810714874 -0.8559207141615375
4293999999.9999995 0.5204677065461409 -0.8862340026293204
4297000000.0 0.5413916883418579 -0.833447481878004
4300000000.0 0.5344642622924696 -0.8617512102841031
4303000000.0 0.5353340899940718 -0.8657562000180692
4306000000.0 0.5576199779479305 -0.8550371144387652
4309000000.0 0.5478741673240365 -0.8835638503067348
4312000000.0 0.5732845511190998 -0.8734248344709548
4316000000.0 0.5410658809821409 -0.874738289305378
4319000000.0 0.5292853048761869 -0.8803863815252194
4322000000.0 0.5046644715685279 -0.8765235778147947
4325000000.0 0.5376975053946658 -0.8635815714870685
4328000000.0 0.5193099055778205 -0.8748617775850813
4331000000.0 0.5026717840181797 -0.8786853497586729
4334000000.0 0.5108922606375381 -0.9037639237288496
4338000000.0 0.5328224847544473 -0.8498027369812782
4341000000.0 0.5636838501925815 -0.8880518341793122
4344000000.0 0.5453563567541626 -0.898233678196411
4347000000.0 0.49229929067389 -0.8936528038066802
4350000000.0 0.4877325061795821 -0.84752427981181
4353000000.0 0.5285137431564174 -0.8396118599154668
4356000000.0 0.5042214328093906 -0.8801818660716075
4359000000.0 0.4937849953589622 -0.8404775977363795
4362000000.0 0.47857691274539405 -0.9093663637021945
4366000000.0 0.5335053647609052 -0.9035738277844665
4369000000.0 0.5207431048807228 -0.8545453564099453
4372000000.0 0.47502647179608115 -0.8955631453950603
4375000000.0 0.5296672477781539 -0.8586183450859455
4378000000.0 0.4902538464014848 -0.8709123967046511
4381000000.0 0.5350185972406047 -0.866393802023052
4384000000.0 0.5395398796689851 -0.9197268324912289
4388000000.0 0.5250512456335259 -0.8547275258596738
4391000000.0 0.5219862056644816 -0.8792291124916806
4394000000.0 0.5142194529198134 -0.853840446387033
4397000000.0 0.5226525905288925 -0.8806127679765638
4400000000.0 0.5144932610650931 -0.9026141190985425
4403000000.0 0.5243479488248419 -0.8891818934469238
4406000000.0 0.4804099916775638 -0.8959791431569477
4409000000.0 0.5220564102202242 -0.9004877540652871
4412000000.0 0.4629281240737575 -0.9105936069412862
4416000000.0 0.49374119213850465 -0.8855426379128088
4419000000.0 0.490711215317469 -0.8831635753826389
4422000000.0 0.5216205599075188 -0.8662349278204144
4425000000.0 0.5448761545609236 -0.8780238323873567
4428000000.0 0.5031984876655646 -0.8898132439681422
4431000000.0 0.5299305743603722 -0.9004002004166898
4434000000.0 0.4847725157833217 -0.8753739878593179
4438000000.0 0.5208974361552684 -0.8917768013143985
4441000000.0 0.5199419405892232 -0.8844437585830248
4444000000.0 0.5055346252165831 -0.8471946211693876
4447000000.0 0.48786467082698404 -0.8713631625589648
4450000000.0 0.5160359406425672 -0.8673422944675868
4453000000.0 0.5355556176133578 -0.9271933805000905
4456000000.0 0.477901426264719 -0.8769669317885547
4459000000.0 0.46568165304033105 -0.8412739583923468
4462000000.0 0.5302811863888817 -0.9248763963544472
4466000000.0 0.5188485052901302 -0.9300217141138413
4469000000.0 0.5276167447424225 -0.881771534489834
4472000000.0 0.5005200715307268 -0.9214206463062702
4475000000.0 0.5020983136618419 -0.8700335925244809
4478000000.0 0.5073593471386322 -0.9310078578318133
4481000000.0 0.47755563096536124 -0.8626496444624343
4484000000.0 0.45842776578005845 -0.9009262315227651
4488000000.0 0.48775784046552034 -0.9011814744125957
4491000000.0 0.4879406118181198 -0.886773657206058
4494000000.0 0.49044725766373726 -0.871705687328605
4497000000.0 0.5197093910917123 -0.8708849464636907
4500000000.0 0.5139270149366084 -0.8879519752525165
4503000000.0 0.5098226112136722 -0.8975334776166008
4506000000.0 0.487524967660462 -0.8722965169647596
4509000000.0 0.4820324161253661 -0.8689810904202049
4512000000.0 0.4854220123375412 -0.8587923978046851
4516000000.0 0.5274324042769387 -0.9072844396642734
4519000000.0 0.4860971806726768 -0.8706098911568756
4522000000.0 0.484726992405783 -0.8893012746876058
4525000000.0 0.5375846438560856 -0.8785021385030645
4528000000.0 0.4994243482905767 -0.8973203567900162
4531000000.0 0.5119150783550106 -0.8756343120710574
4534000000.0 0.5011067911691396 -0.8719107195758788
4538000000.0 0.493147410117584 -0.8938932064495677
4541000000.0 0.449442116873313 -0.9034475970677343
4544000000.0 0.478016819690004 -0.8817203974608796
4547000000.0 0.5019447895688671 -0.8809955464154189
4550000000.0 0.4698935358284349 -0.9038501052209671
4553000000.0 0.48594232956501304 -0.9150731257986255
4556000000.0 0.4729277832631024 -0.8930589396689841
4559000000.0 0.4637030014521128 -0.9019702069862267
4562000000.0 0.4885168654500798 -0.9008949391038754
4566000000.0 0.496846558731547 -0.9153494130562627
4569000000.0 0.47873688902550166 -0.8882935676402028
4572000000.0 0.49110719794825936 -0.8748224793595474
4575000000.0 0.46667868048014116 -0.9148541079876529
4578000000.0 0.4950268795365878 -0.918213372727575
4581000000.0 0.4680136671959447 -0.9095358813038847
4584000000.0 0.4743212110682872 -0.8984161253219723
4588000000.0 0.5103879054748546 -0.9057929782465106
4591000000.0 0.501223174779511 -0.8852785336253516
4594000000.0 0.46540013030362015 -0.9133743316928935
4597000000.0 0.4848721781596419 -0.9317403146555036
4600000000.0 0.45916444211186536 -0.8964408098245937
4603000000.0 0.4767184018960136 -0.9182197461572923
4606000000.0 0.48107875105638964 -0.9110584980473093
4609000000.0 0.48445980336366434 -0.8981237942392357
4612000000.0 0.4785826174690444 -0.904303041267406
4616000000.0 0.4740982339518742 -0.8931223754121133
4619000000.0 0.4654677230856886 -0.8936961854879625
4622000000.0 0.47556783622489984 -0.9079217622339284
4625000000.0 0.4435070842731089 -0.8811712559944452
4628000000.0 0.4820278917133972 -0.8873562051509939
4631000000.0 0.45489745409197424 -0.889586640365637
4634000000.0 0.48753031933319535 -0.9065165963364437
4638000000.0 0.5038915178284535 -0.9083610105517577
4641000000.0 0.47597531350358613 -0.8934017987474729
4644000000.0 0.4695932057441012 -0.8948482877523386
4647000000.0 0.4940653716266852 -0.9134441069327474
4650000000.0 0.45731293968089676 -0.9080090914230657
4653000000.0 0.4782984902842321 -0.9137147180724818
4656000000.0 0.4460193118335194 -0.8878486871627825
4659000000.0 0.4607981316886953 -0.9178476736243971
4662000000.0 0.47391202896498485 -0.906399830392057
4666000000.0 0.4666058612587416 -0.9203935502880338
4669000000.0 0.48963902796465186 -0.9078120137875704
4672000000.0 0.4556517548180583 -0.9287217129035265
4675000000.0 0.43624163231181434 -0.9058248742609417
4678000000.0 0.4605049470338068 -0.8861041753087199
4681000000.0 0.43579137542693136 -0.9459187084998958
4684000000.0 0.4337838347623595 -0.9501187074435978
4688000000.0 0.4439435832263545 -0.9012237379647186
4691000000.0 0.5003932249664782 -0.9178370591675472
4694000000.0 0.4536868312746557 -0.8989832166208456
4697000000.0 0.42093472301823087 -0.8533997050907546
4700000000.0 0.46703321299605766 -0.8901054591195098
4703000000.0 0.48473332884682824 -0.8769583810073902
4706000000.0 0.4494763279593577 -0.9144879906148538
4709000000.0 0.44730497743575076 -0.933591471908119
4712000000.0 0.4668905638923014 -0.9003651028324906
4716000000.0 0.44554097565786543 -0.9315390932469234
4719000000.0 0.48714167602531955 -0.9075241509001514
4722000000.0 0.48118264927077065 -0.8991542933068138
4725000000.0 0.4823797373045577 -0.9078188804847879
4728000000.0 0.43343594458764984 -0.9270976779157744
4731000000.0 0.4778700588928978 -0.9527521799273193
4734000000.0 0.467759652191925 -0.8865434906557053
4738000000.0 0.49846428662089326 -0.9373727975783712
4741000000.0 0.45884730726792916 -0.9257922407296978
4744000000.0 0.4551724282687968 -0.9137079851097502
4747000000.0 0.463224213009911 -0.9094685034938761
4750000000.0 0.4640943277921031 -0.8994573836607017
4753000000.0 0.46241822293152657 -0.9575169350423698
4756000000.0 0.4655458497246335 -0.9620027148959333
4759000000.0 0.4964743574078973 -0.9338502964943877
4762000000.0 0.4341958529315665 -0.9894941007068591
4766000000.0 0.4419660690094746 -0.928022727889366
4769000000.0 0.4657438810245811 -0.9290235516573527
4772000000.0 0.48556980686371776 -0.9209229324799537
4775000000.0 0.4636461273457687 -0.9778114223987546
4778000000.0 0.4767086636114978 -0.9386907940799173
4781000000.0 0.4539537637440234 -0.9123383315413028
4784000000.0 0.4947844077935985 -0.9363660360164339
4788000000.0 0.4553639577326844 -0.9513558292439527
4791000000.0 0.45261580698854376 -0.9209704084172287
4794000000.0 0.49746415656609655 -0.9335262414434905
4797000000.0 0.44384215688678214 -0.9309018186210186
4800000000.0 0.43199290222875175 -0.909987244212924
4803000000.0 0.40359184980901597 -0.9511972153883442
4806000000.0 0.44662425860739974 -0.9168574403633815
4809000000.0 0.4307100929439543 -0.9236257911999881
4812000000.0 0.41110682496965645 -0.9350336348487522
4816000000.0 0.4640100715678174 -0.8747499368645976
4819000000.0 0.5035642615033594 -0.9352452525053597
4822000000.0 0.49649964082576803 -0.9662769551017465
4825000000.0 0.4786627364069935 -0.9465413387626963
4828000000.0 0.44496725088240807 -0.909070292819523
4831000000.0 0.43312057379401525 -0.9610244854602786
4834000000.0 0.4967233074988661 -0.9532594605557574
4838000000.0 0.45922671489268163 -0.9465790054917791
4841000000.0 0.44795036601838295 -0.9216820611094071
4844000000.0 0.4790213546368625 -0.8954882051911289
4847000000.0 0.4734334090466385 -0.8848159309585785
4850000000.0 0.47208113800614526 -0.9469829170210045
4853000000.0 0.44715656544340004 -0.9100846469599272
4856000000.0 0.4759775733834222 -0.9235240705542427
4859000000.0 0.4758022425154852 -0.9688724401062392
4862000000.0 0.4771342234211894 -0.9060877917145636
4866000000.0 0.44660707545529954 -0.9678595717914765
4869000000.0 0.4534351368521179 -0.9345398609942293
4872000000.0 0.47399361635519177 -0.9864668277915455
4875000000.0 0.5358622046325235 -0.9518763187942371
4878000000.0 0.4451697775142731 -0.9623368022133296
4881000000.0 0.46161274130630614 -0.9983275114129386
4884000000.0 0.47088732875753747 -0.9284966214090455
4888000000.0 0.4949610107052669 -0.908786365151887
4891000000.0 0.5133817400506102 -0.9522713232114324
4894000000.0 0.44753908024931455 -0.9184661476164243
4897000000.0 0.46508865552540013 -0.9130910842830408
4900000000.0 0.4471595896619163 -0.9484452018775021
4903000000.0 0.4807974392411604 -0.9473830407392445
4906000000.0 0.4542501322782696 -0.9640879309274186
4909000000.0 0.4807267713174712 -0.9386158371789359
4912000000.0 0.4683599662066257 -0.9722574751823774
4916000000.0 0.5054256575880212 -0.9555093200421751
4919000000.0 0.508869455103176 -0.9185389752878329
4922000000.0 0.4956460387669209 -0.9621745937432177
4925000000.0 0.44130247040434023 -0.9577845707679975
4928000000.0 0.5038766006708599 -0.9133531794901377
4931000000.0 0.49210098566847277 -0.9348534433746404
4934000000.0 0.45006835617891516 -0.9096646860040897
4938000000.0 0.4303345007998486 -0.9412403257867409
4941000000.0 0.4915807456618328 -0.9192989388812333
4944000000.0 0.4943888171157079 -0.8465789743924169
4947000000.0 0.4527735111396991 -0.914099612819143
4950000000.0 0.45266111738534576 -0.9152235363018923
4953000000.0 0.4356545344250925 -0.9688100246648603
4956000000.0 0.4522654794517591 -0.9802012023901646
4959000000.0 0.41936495432648135 -0.9312285969698713
4962000000.0 0.45588280868934145 -0.9555960260635936
4966000000.0 0.5127371215148208 -0.9694328242091662
4969000000.0 0.5351304251891427 -0.9800113266680842
4972000000.0 0.4596306322888093 -0.9427169811263076
4975000000.0 0.4700260219289969 -0.9237673352716598
4978000000.0 0.4700691679142076 -0.9579722371057705
4981000000.0 0.4472273789268678 -0.9713857587696484
4984000000.0 0.47727910277918273 -0.9179081692158326
4988000000.0 0.4800489413463556 -0.9076616708795842
4991000000.0 0.5362091118722709 -0.9368195516165772
4994000000.0 0.5090699449633663 -0.9268632370346498
4997000000.0 0.4531060411905017 -0.9256955510251355
5000000000.0 0.5164249288701657 -0.9478015078138015
5003000000.0 0.49896008920620205 -0.9822106055359368
5006000000.0 0.4860549528755468 -0.9751571589606081
5009000000.0 0.49182755725940547 -0.9511494115759488
5012000000.0 0.464604632068778 -0.9261383979701922
5016000000.0 0.5138520024500115 -0.9588911251273005
5019000000.0 0.4672856487128526 -0.9462869409641874
5022000000.0 0.4768491595383618 -0.9480367705725146
5025000000.0 0.5031064747677056 -1.0107050682504213
5028000000.0 0.510910450599878 -0.9706659759615908
5031000000.0 0.46199509698653457 -0.9825822152466976
5034000000.0 0.47569029209614677 -0.9894269179293596
5038000000.0 0.4627294469697743 -0.9001699513677905
5041000000.0 0.5161286411276216 -0.9081950448734186
5044000000.0 0.4958300774277173 -0.9199568390956067
5047000000.0 0.49935868203931644 -0.9404872470634331
5050000000.0 0.5507443935560484 -0.8808238619431696
5053000000.0 0.47641593479356414 -0.9803671892557184
5056000000.0 0.5443567517657595 -0.9384839578407713
5059000000.0 0.5126051556624811 -0.9391478971411418
5062000000.0 0.44390604620748214 -0.9606171282364893
5066000000.0 0.5207340868889343 -0.9188164558652177
5069000000.0 0.47975230823698883 -0.9891825254721143
5072000000.0 0.4893268084759827 -0.9087678957129868
5075000000.0 0.5029526946022355 -0.917339117816669
5078000000.0 0.45979672437721797 -0.9474890085024884
5081000000.0 0.497661714711526 -0.9145798429307073
5084000000.0 0.5317369603707742 -0.9199288611502522
5088000000.0 0.5098770101280321 -0.8936337754855904
5091000000.0 0.456900415124924 -0.9383012641529016
5094000000.0 0.5161182574919629 -0.9339382633637013
5097000000.0 0.5306091846398495 -0.9296508843625664
5100000000.0 0.5206442188851528 -0.9190038226089721
5103000000.0 0.4893991098251805 -0.9540177316621576
5106000000.0 0.524112922180466 -0.9442270838999107
5109000000.0 0.5377729305602634 -0.8993119719422867
5112000000.0 0.5013025204328434 -0.946199753559508
5116000000.0 0.4643063112290621 -0.893704705756046
5119000000.0 0.486875704078566 -0.9209756124303201
5122000000.0 0.48762199834434744 -0.9365806246234157
5125000000.0 0.5567186043950542 -0.8606924716252421
5128000000.0 0.49958244869442414 -0.9192701957719641
5131000000.0 0.45891357394865995 -0.896653619046632
5134000000.0 0.5086567876778707 -0.9180346519676641
5138000000.0 0.5120400237783584 -0.9421137416014231
5141000000.0 0.548834973635999 -0.8980377380470035
5144000000.0 0.5517233073234774 -0.907820843993628
5147000000.0 0.5146730193453664 -0.9516537071847573
5150000000.0 0.4977887004719355 -0.9525369842053274
5153000000.0 0.5023708534398468 -0.9389303315606456
5156000000.0 0.49407303434738736 -0.9145094642037006
5159000000.0 0.49416160215437827 -0.9296163364960874
5162000000.0 0.5017475562307113 -0.9164101525689181
5166000000.0 0.5101710867198626 -0.9192523564319631
5169000000.0 0.5329692758979627 -0.9826165121227493
5172000000.0 0.5279557111349182 -0.9261845690289288
5175000000.0 0.5810579707210998 -0.9368760967533603
