! Created with skrf 1.8.0 (http://scikit-rf.org).
# Hz S RI R 50.0 
!freq ReS11 ImS11
4000000000.0 0.5454671170977278 -0.8999071139474972
4003000000.0 0.538838713597869 -0.9237388588712531
4006000000.0 0.5311485643999221 -0.8694204898485643
4009000000.0000005 0.5896034873295835 -0.9103799009172946
4011999999.9999995 0.6211178074623513 -0.8661427283616538
4016000000.0 0.5281832494207777 -0.9160353473453698
4019000000.0 0.5520241886403965 -0.8712913162074448
4022000000.0000005 0.6546535159778248 -0.8761226297534614
4025000000.0000005 0.5048254612225833 -0.9128540607143787
4027999999.9999995 0.5523337387929991 -0.9151964754061871
4030999999.9999995 0.5306104715318752 -0.8195652051875238
4034000000.0 0.5564293263469828 -0.8608123017380777
4038000000.0000005 0.5285422023762059 -0.8952615080958316
4041000000.0000005 0.5338416655155376 -0.8884302300159423
4043999999.9999995 0.582182496391524 -0.9362555190130346
4046999999.9999995 0.6168807294298422 -0.8937590291056106
4050000000.0 0.5482640754814359 -0.8979499829842201
4053000000.0 0.5348471267074785 -0.8684886063467219
4056000000.0 0.5575096565872273 -0.8332833995415518
4059000000.0 0.5520156739424104 -0.8078853068043387
4062000000.0000005 0.5504575675796238 -0.9000209458821277
4066000000.0 0.5130753892845331 -0.8465303595519849
4069000000.0 0.5378160739630908 -0.9083267894395475
4072000000.0 0.5578476815941892 -0.8389517919896201
4075000000.0 0.6090648908509445 -0.9203746449281351
4078000000.0000005 0.5474680322786412 -0.8895317963665705
4081000000.0000005 0.619049142719338 -0.9004491290446608
4083999999.9999995 0.5466059917030179 -0.8970302122444109
4088000000.0 0.6047971093487563 -0.8226249790125999
4091000000.0 0.5800816793902965 -0.9197158652983308
4094000000.0000005 0.5719832302872538 -0.9045675303673744
4097000000.0000005 0.5649545647316594 -0.8954198420680798
4099999999.9999995 0.551266008321158 -0.8770194255527438
4102999999.9999995 0.5737375888779388 -0.8798118125446328
4106000000.0 0.5733161759516141 -0.884482089354718
4109000000.0 0.5546361798036745 -0.8934194092785592
4112000000.0 0.5594061337427374 -0.8324405672127199
4115999999.9999995 0.5788956682946517 -0.8622247564486252
4119000000.0 0.5268651281528918 -0.8862796866338574
4122000000.0 0.5344078835123872 -0.8714601539262244
4125000000.0 0.5180572075505226 -0.8899794996180361
4128000000.0 0.5687189544988636 -0.8533669880883669
4131000000.0 0.5266917606999798 -0.8500701604174847
4134000000.0000005 0.5735335636496284 -0.8494628651494471
4138000000.0 0.5229327537177592 -0.8237216732819758
4141000000.0 0.5223696111223342 -0.8596487474263064
4144000000.0 0.564415354495397 -0.887357166940157
4147000000.0000005 0.562142771850001 -0.8737625330574487
4150000000.0000005 0.6042761815837527 -0.8995430716145036
4152999999.9999995 0.5517050315254176 -0.868580808924249
4155999999.9999995 0.6103402952204191 -0.8767544932139817
4159000000.0 0.5555220350790113 -0.8487793072636269
4162000000.0 0.5569470918518674 -0.8603909894031355
4166000000.0000005 0.5502460969121225 -0.8889810375189993
4168999999.9999995 0.5300798619283443 -0.8809237290222044
4171999999.9999995 0.5610384460982948 -0.8360873489618512
4175000000.0 0.5728860194297158 -0.8371814604637513
4178000000.0 0.5751355793906109 -0.8825831261712297
4181000000.0 0.5267347850956658 -0.891011234458946
4184000000.0 0.5769872300858911 -0.8696841811700948
4187999999.9999995 0.5651998712663715 -0.8951349513181723
4191000000.0 0.5968091047359716 -0.8202946619279797
4194000000.0 0.5443993914527847 -0.8292845859088032
4197000000.0 0.5530399098577232 -0.8790767068177391
4200000000.0 0.5689743965540249 -0.8508470281049894
4203000000.0000005 0.5837442254146659 -0.8655018741576072
4206000000.0000005 0.5576913427255691 -0.8419917371735155
4208999999.9999995 0.5597946318808975 -0.8271065588583794
4211999999.9999995 0.5469916554491823 -0.8733062065002938
4216000000.0 0.567249715159366 -0.8724162554715318
4219000000.0000005 0.5695240548242777 -0.8699850969899483
4222000000.0000005 0.5451396387897125 -0.858941330317333
4224999999.9999995 0.5522419617648305 -0.8429755024723302
4227999999.9999995 0.5564257739276497 -0.8663641840622358
4231000000.0 0.5585177476135091 -0.8552060033582037
4234000000.0 0.5445226300226444 -0.8497054866068805
4238000000.0000005 0.5466458144380588 -0.8697712140948065
4240999999.9999995 0.556298208499798 -0.8646830318497768
4244000000.0 0.5682225791545648 -0.8418236399924572
4247000000.0 0.5671506707435645 -0.8547725331705051
4250000000.0 0.5345509932789227 -0.8567329165959408
4253000000.0 0.556605995427688 -0.8299788263658943
4256000000.0 0.5543300773472799 -0.8510839465704143
4259000000.0000005 0.5247547583928069 -0.8397009378211819
4261999999.9999995 0.5353473071062713 -0.8567837559374757
4266000000.0 0.5432521558328653 -0.8845388678462937
4269000000.0 0.5573715289065335 -0.8497243356132844
4272000000.0000005 0.5452101287150011 -0.8602691854321326
4275000000.0000005 0.5695311582404188 -0.8518962688786742
4277999999.9999995 0.5659969283252433 -0.8799015242932031
4280999999.9999995 0.5669870350872044 -0.8493344880091848
4284000000.0 0.5285051224468658 -0.8632749986158728
4288000000.0000005 0.5623707917271786 -0.8202659059634861
4291000000.0000005 0.542579890341687 -0.8471379993798167
4293999999.9999995 0.5359766168115292 -0.84667752881179
4297000000.0 0.5842228405495737 -0.8578455583665421
4300000000.0 0.5439239219713263 -0.8448226525424232
4303000000.0 0.5382713174894619 -0.8407991501433507
4306000000.0 0.5776715497765876 -0.8359302298394493
4309000000.0 0.5578726871856949 -0.8871928684624446
4312000000.0 0.6208213681675987 -0.8392571454090572
4316000000.0 0.5486209613424373 -0.8700309935412939
4319000000.0 0.5439101056773825 -0.8483299232920023
4322000000.0 0.5185459635057061 -0.8467505978062166
4325000000.0 0.5662443163502818 -0.8474958559861001
4328000000.0 0.5560459337366063 -0.8514437450880253
4331000000.0 0.5444406684412274 -0.884413694751352
4334000000.0 0.5432822239215107 -0.8581598537711707
4338000000.0 0.5810832763393279 -0.8491130030137148
4341000000.0 0.579863831213681 -0.8468818332458968
4344000000.0 0.5801443887608158 -0.8687337766887905
4347000000.0 0.5422280766490903 -0.858407179062076
4350000000.0 0.528567676252365 -0.8427470354018126
4353000000.0 0.5433266282129137 -0.8373659199364839
4356000000.0 0.5274557185636896 -0.8614706471918547
4359000000.0 0.5052210498854319 -0.8182229433480097
4362000000.0 0.510394606248156 -0.8823308644039065
4366000000.0 0.5539157536160793 -0.8878121872141855
4369000000.0 0.5403989659580389 -0.8163284590821658
4372000000.0 0.5026685069968659 -0.8588948604608835
4375000000.0 0.5426481859437444 -0.8503190234402705
4378000000.0 0.521585397468425 -0.8246886695153851
4381000000.0 0.5463812802452699 -0.8346825165752374
4384000000.0 0.5634406830338531 -0.9074501909954208
4388000000.0 0.542118515967623 -0.8450531917715309
4391000000.0 0.5427751946464217 -0.8654427532366988
4394000000.0 0.5269722968779399 -0.8279889232272748
4397000000.0 0.5238429904530988 -0.8655460964070026
4400000000.0 0.5561413523940186 -0.8753776632802905
4403000000.0 0.5491320132203772 -0.8653788047428979
4406000000.0 0.5265063025549823 -0.871902963819029
4409000000.0 0.557407776683662 -0.8842383573494214
4412000000.0 0.47731588504781003 -0.8837158036634243
4416000000.0 0.5191381523579759 -0.8460346531480147
4419000000.0 0.5272002646914931 -0.8598766504989374
4422000000.0 0.5425488742105435 -0.8294282124743404
4425000000.0 0.5746207603633031 -0.8639027297533597
4428000000.0 0.5401698443687825 -0.8575549110284757
4431000000.0 0.5461237764435103 -0.8766963823924141
4434000000.0 0.5204614445572004 -0.8625319775162741
4438000000.0 0.5583266798259434 -0.8821962685056015
4441000000.0 0.5557108612862389 -0.8603798966922951
4444000000.0 0.5432622706111783 -0.8521264606065369
4447000000.0 0.5316738958457807 -0.8652658092927469
4450000000.0 0.5396465774858195 -0.8322268218099931
4453000000.0 0.549155855458749 -0.8826086285867067
4456000000.0 0.516045098940794 -0.8426107036533425
4459000000.0 0.49665203157915117 -0.8313588717937913
4462000000.0 0.56586198533105 -0.9092974850161535
4466000000.0 0.5491860646218105 -0.8988143659778263
4469000000.0 0.5585171475252794 -0.8419146703711871
4472000000.0 0.5245414591521489 -0.8973970963453245
4475000000.0 0.5141100030679937 -0.8468448477012237
4478000000.0 0.5256719925178792 -0.8952676388109915
4481000000.0 0.5082691130909613 -0.8427844526674797
4484000000.0 0.4839193577531112 -0.8874357961295678
4488000000.0 0.5101899466137939 -0.8558477505074359
4491000000.0 0.5194734163400327 -0.870008062096415
4494000000.0 0.5265948814835577 -0.8640627971391415
4497000000.0 0.5274691384983322 -0.8357129189662698
4500000000.0 0.5334040663415855 -0.8587530213891863
4503000000.0 0.5330156951652107 -0.8806551516516833
4506000000.0 0.5195948061343455 -0.8636847017566062
4509000000.0 0.5080558620031446 -0.8627847278793064
4512000000.0 0.5122131266348151 -0.8612608173904686
4516000000.0 0.5446826723944259 -0.8831029766520581
4519000000.0 0.5365735248741517 -0.8318675641097535
4522000000.0 0.5146492207124038 -0.8718743566575364
4525000000.0 0.5375284170719331 -0.8539422306200055
4528000000.0 0.5361722676533971 -0.9013807912663128
4531000000.0 0.5332517517419422 -0.8615887381984568
4534000000.0 0.5322887168390698 -0.8537101452058162
4538000000.0 0.5125660247480209 -0.8649802160159861
4541000000.0 0.49852271514674307 -0.8886434700174066
4544000000.0 0.5190008776412338 -0.8379804139368274
4547000000.0 0.5247046613261317 -0.8316895033724847
4550000000.0 0.5071040615789335 -0.8840004887956829
4553000000.0 0.5161305566159747 -0.8826368902255577
4556000000.0 0.5027447139251406 -0.8671203105430723
4559000000.0 0.5222880048075722 -0.8749305605110392
4562000000.0 0.5352364448597249 -0.8606455649178903
4566000000.0 0.5183934611994796 -0.8706514814216084
4569000000.0 0.49806027655587193 -0.8548152055236804
4572000000.0 0.5267895178842545 -0.8627068730179012
4575000000.0 0.5009645239880092 -0.872511453374726
4578000000.0 0.5395011645778721 -0.8751468818505148
4581000000.0 0.5091840896203619 -0.8882125861555852
4584000000.0 0.5072197969072603 -0.8612377068035895
4588000000.0 0.5448619138300305 -0.8752108280431659
4591000000.0 0.5297850912039026 -0.8634490161825357
4594000000.0 0.5074244928580134 -0.8787142271775261
4597000000.0 0.5013562841904207 -0.8925679516086271
4600000000.0 0.4929577411503989 -0.8754635889263056
4603000000.0 0.4878551118667886 -0.8992327960226388
4606000000.0 0.5046069285274171 -0.8885877582197661
4609000000.0 0.5034509403650761 -0.8848185104249778
4612000000.0 0.5023674717543325 -0.8824370703914228
4616000000.0 0.5061927815293226 -0.8626108943365964
4619000000.0 0.5239326630010048 -0.8760932994439465
4622000000.0 0.5131892523611019 -0.8761616203601157
4625000000.0 0.4751185236292872 -0.8650694011701868
4628000000.0 0.5202122652956931 -0.8574758607997783
4631000000.0 0.489362337918478 -0.8759314337975614
4634000000.0 0.5066954500615959 -0.8771983216012997
4638000000.0 0.5187425158420716 -0.8852183530593531
4641000000.0 0.5289765878414402 -0.8805618733253453
4644000000.0 0.4898730079820497 -0.8724511763477122
4647000000.0 0.5130891750863872 -0.8682044423787517
4650000000.0 0.497425481196591 -0.8852332122813534
4653000000.0 0.5141358220415354 -0.8848953764389352
4656000000.0 0.5022872938002098 -0.8742055801644624
4659000000.0 0.48757284835940806 -0.8930225617299636
4662000000.0 0.49019689826934865 -0.8809559601696333
4666000000.0 0.5005138402682935 -0.8719437357409366
4669000000.0 0.5144401573863676 -0.855811286910954
4672000000.0 0.4849056918656261 -0.9053539872010793
4675000000.0 0.48665935311498043 -0.8886158655810329
4678000000.0 0.4925632046121202 -0.8866458569174213
4681000000.0 0.48688324138781736 -0.9124794954258025
4684000000.0 0.4725087496947642 -0.8979932338409905
4688000000.0 0.47459873484861637 -0.9148922588844405
4691000000.0 0.5254884593464604 -0.873451212610262
4694000000.0 0.4938509519725087 -0.8796045336491226
4697000000.0 0.4738170324255092 -0.8522483230886146
4700000000.0 0.5308275579193531 -0.8660996599710166
4703000000.0 0.5077269114880151 -0.8533275762603075
4706000000.0 0.4802499494251643 -0.8989607419641846
4709000000.0 0.47068711355130816 -0.8929618019108624
4712000000.0 0.4984857611240462 -0.8754598828855721
4716000000.0 0.5059066572060378 -0.9101359671097671
4719000000.0 0.5010187077032964 -0.8719196107438427
4722000000.0 0.56050498729641 -0.8691757593906959
4725000000.0 0.518077930906193 -0.879192539243013
4728000000.0 0.4876011044079456 -0.8822382172812765
4731000000.0 0.518513943273507 -0.915432949374346
4734000000.0 0.500969784940998 -0.84857715742375
4738000000.0 0.5393441300438904 -0.9162755278011511
4741000000.0 0.4992643758702259 -0.8796537419603698
4744000000.0 0.50239063610924 -0.9051931679308781
4747000000.0 0.5162070417564104 -0.854531897293143
4750000000.0 0.49955032191319354 -0.8957468473717911
4753000000.0 0.5235843381393496 -0.8521790243633042
4756000000.0 0.49642638071389406 -0.9075312304191381
4759000000.0 0.5091131732739255 -0.9096000902483555
4762000000.0 0.5310184538505757 -0.895730009110847
4766000000.0 0.4875497642732712 -0.8901720612293346
4769000000.0 0.5495854576957118 -0.8910558397188958
4772000000.0 0.518630940883283 -0.9013130705322074
4775000000.0 0.48846033073080003 -0.9404336023134412
4778000000.0 0.5336777751755764 -0.913781596137888
4781000000.0 0.5163509198120947 -0.9000708363284657
4784000000.0 0.5306388497268035 -0.8663043824218606
4788000000.0 0.4878641792688722 -0.8973008214378166
4791000000.0 0.5065424637978365 -0.8963134248502075
4794000000.0 0.5260375880382633 -0.8941996879907349
4797000000.0 0.4859853629405254 -0.8893982190635547
4800000000.0 0.4881443110548489 -0.8713175393600506
4803000000.0 0.4641043011497097 -0.902812972908091
4806000000.0 0.5012448831393219 -0.9025278020212362
4809000000.0 0.45018094987268054 -0.9288627980247576
4812000000.0 0.46532202519244314 -0.9059938922258237
4816000000.0 0.5007870693482337 -0.8824455210051101
4819000000.0 0.5140144354736209 -0.9012308542406405
4822000000.0 0.5182634962742538 -0.9133746481441781
4825000000.0 0.516131115846787 -0.8960145677279375
4828000000.0 0.4923426406784741 -0.8815104912375828
4831000000.0 0.4567968692998703 -0.9540189272667674
4834000000.0 0.5118730936188522 -0.8811512818072899
4838000000.0 0.49335150403519334 -0.9081078726752068
4841000000.0 0.4854864038227872 -0.8766286855422354
4844000000.0 0.5275891217357264 -0.8866265601874127
4847000000.0 0.505677642558055 -0.8593105652867696
4850000000.0 0.4969845098640525 -0.9163071016798097
4853000000.0 0.49604391211706045 -0.8616175694675811
4856000000.0 0.482410091858424 -0.8913994539727916
4859000000.0 0.5094621800026197 -0.9273353811478491
4862000000.0 0.5028581708113884 -0.8756480086988637
4866000000.0 0.4890912886396766 -0.9252996020311448
4869000000.0 0.49908532024965674 -0.9093331561676791
4872000000.0 0.4854300116589982 -0.9258329913851469
4875000000.0 0.5660899358250316 -0.9157934250993903
4878000000.0 0.4987157040174574 -0.9130830445225815
4881000000.0 0.5091892073544161 -0.9497306949798389
4884000000.0 0.5256068333964468 -0.8998221693237893
4888000000.0 0.5280750513259785 -0.8875907315283157
4891000000.0 0.5490710022355283 -0.8956293067710345
4894000000.0 0.49241411985226885 -0.9103114678100082
4897000000.0 0.5273058815490429 -0.8804824564271658
4900000000.0 0.5332751009842003 -0.9269366591877388
4903000000.0 0.5515303748346211 -0.902718939622816
4906000000.0 0.501916628250033 -0.930771224974715
4909000000.0 0.4966540449725869 -0.883252413672641
4912000000.0 0.49537610868589693 -0.9416782192965192
4916000000.0 0.5165073934780634 -0.9091974838974975
4919000000.0 0.5385483012530445 -0.9255924110376554
4922000000.0 0.5399224675336057 -0.8939401989041429
4925000000.0 0.47589776524883504 -0.8714458358623624
4928000000.0 0.5381480738234948 -0.875133230578632
4931000000.0 0.5395916196371808 -0.8916128121300264
4934000000.0 0.4967530437865209 -0.8569847417298543
4938000000.0 0.48495964063452635 -0.9073783099728236
4941000000.0 0.508325598441803 -0.8941329383526009
4944000000.0 0.5023348247093776 -0.8287639619983312
4947000000.0 0.47444400045369634 -0.8791608004609198
4950000000.0 0.5035918482589465 -0.9010762871111505
4953000000.0 0.4516293390728811 -0.9271668781837299
4956000000.0 0.4614135147450417 -0.9218898629911164
4959000000.0 0.45074125047311886 -0.90552897307967
4962000000.0 0.5197929573417707 -0.9294824919056013
4966000000.0 0.5370671475952721 -0.9063517362067468
4969000000.0 0.5407181926553191 -0.9097728048299566
4972000000.0 0.5285988462309654 -0.8937439789425594
4975000000.0 0.5466875561503378 -0.8654806526524517
4978000000.0 0.5297357723055257 -0.8963116772933817
4981000000.0 0.4939727812570069 -0.8945013426469908
4984000000.0 0.5049789372716134 -0.8656174756817409
4988000000.0 0.5399155053570328 -0.8619525753811687
4991000000.0 0.5722226075963862 -0.8901561176916399
4994000000.0 0.5284239094539713 -0.8925205747319707
4997000000.0 0.48934298230531437 -0.9040038729101543
5000000000.0 0.5745194841408463 -0.899999595240584
5003000000.0 0.5411777377231096 -0.9320445985895505
5006000000.0 0.5551702034254574 -0.9329568799053168
5009000000.0 0.5367439142670594 -0.865464500775751
5012000000.0 0.5139330508591017 -0.8985667792647938
5016000000.0 0.558071531512851 -0.9199457013473109
5019000000.0 0.5191696622702342 -0.8914334066659522
5022000000.0 0.5411190887363311 -0.9015489028815454
5025000000.0 0.5487140624693359 -0.9377911709458174
5028000000.0 0.5241748549017887 -0.9263006566293028
5031000000.0 0.5491310087714277 -0.9261807193057373
5034000000.0 0.508317343246113 -0.942889135457592
5038000000.0 0.5187872778076034 -0.8704827161735709
5041000000.0 0.5897956170790298 -0.8738480686929068
5044000000.0 0.5259644471303374 -0.8722546062663282
5047000000.0 0.545075307039498 -0.8872387337934449
5050000000.0 0.5752194051182763 -0.8140323425467624
5053000000.0 0.5439574412617776 -0.9249894073753389
5056000000.0 0.5560691846156169 -0.8786715271348469
5059000000.0 0.5649848621963357 -0.8977359332279293
5062000000.0 0.5215983912327867 -0.931194539234174
5066000000.0 0.557497634069285 -0.8686946609926958
5069000000.0 0.5550800490504588 -0.8747293676624803
5072000000.0 0.5397444571431788 -0.8574317652061918
5075000000.0 0.5661489470496739 -0.8503154323828233
5078000000.0 0.4914924992935849 -0.911465364397446
5081000000.0 0.5005914910035544 -0.8655359517372323
5084000000.0 0.5734440966886746 -0.8807167695284829
5088000000.0 0.5712316854396873 -0.881784687470317
5091000000.0 0.5267604665328031 -0.9287145071532494
5094000000.0 0.5419605926414589 -0.9090835932430519
5097000000.0 0.6082460623251885 -0.8786291256465694
5100000000.0 0.5269971625160721 -0.8516979803320137
5103000000.0 0.5351059320105207 -0.9456786362039832
5106000000.0 0.619260982771855 -0.880966013852811
5109000000.0 0.543643256248911 -0.8906939883959186
5112000000.0 0.5133591326137008 -0.895038107983148
5116000000.0 0.5075072848278401 -0.8064486042349539
5119000000.0 0.5578338200746327 -0.9162778866135455
5122000000.0 0.5721633488199291 -0.9220850225590023
5125000000.0 0.5460991559763501 -0.877306081526928
5128000000.0 0.5274676637656364 -0.8972047736895479
5131000000.0 0.5181776543738476 -0.8424921432991019
5134000000.0 0.5730910562784944 -0.8321410017323674
5138000000.0 0.5479970638738608 -0.8789207743237144
5141000000.0 0.5790117189921204 -0.8577401544755029
5144000000.0 0.613692686738303 -0.8219872975085181
5147000000.0 0.5532372323582516 -0.8853140073937091
5150000000.0 0.5838827999233452 -0.87020306816623
5153000000.0 0.5349898770126331 -0.8887702955828813
5156000000.0 0.5485554852609409 -0.9017831812184414
5159000000.0 0.5727460027319183 -0.8718829351363255
5162000000.0 0.5284616375268589 -0.8915986862135177
5166000000.0 0.5378704832212244 -0.8899089779073157
5169000000.0 0.5575920490073829 -0.8942591050423188
5172000000.0 0.558937182483741 -0.8980207142038448
5175000000.0 0.5783762675878676 -0.8972614311036172
5178000000.0 0.5867654185276189 -0.9017202589756589
