! Created with skrf 1.8.0 (http://scikit-rf.org).
# Hz S RI R 50.0 
!freq ReS11 ImS11
4000000000.0 0.5350380239633786 -0.861029786442796
4003000000.0 0.5694411278630526 -0.9018953914394443
4006000000.0 0.5056147049931823 -0.893625000287338
4009000000.0000005 0.5199582681815181 -0.8391567096672096
4011999999.9999995 0.5634788226218397 -0.8378589660038485
4016000000.0 0.5070839460020976 -0.9154524611482078
4019000000.0 0.5034767686661104 -0.9029916175473163
4022000000.0000005 0.5769340344021574 -0.8435685251894923
4025000000.0000005 0.5263570379860487 -0.9406669869113626
4027999999.9999995 0.4755877810352688 -0.9463305957990141
4030999999.9999995 0.5158168575300286 -0.8706149370092997
4034000000.0 0.522660923933254 -0.8667607457011188
4038000000.0000005 0.512142140795951 -0.8837308480351065
4041000000.0000005 0.5416244624493964 -0.8683861172128509
4043999999.9999995 0.5499613345888752 -0.9114133733752845
4046999999.9999995 0.5711222255513657 -0.8892077667010648
4050000000.0 0.5013115267729673 -0.9064566231509431
4053000000.0 0.49846454095830894 -0.9142204523403442
4056000000.0 0.4980940458013028 -0.8939292629696954
4059000000.0 0.4914637157087639 -0.8765082124115896
4062000000.0000005 0.5186003564628763 -0.8786535834919813
4066000000.0 0.5200154806805897 -0.8267664270879209
4069000000.0 0.5167217911501796 -0.9253807115422208
4072000000.0 0.5575466589056783 -0.8788663430827595
4075000000.0 0.5721806078477165 -0.8915888836217142
4078000000.0000005 0.5479962609488935 -0.8930791328425913
4081000000.0000005 0.6126796236971169 -0.8600479363883767
4083999999.9999995 0.5113140326695967 -0.8961615064342857
4088000000.0 0.5690205806558154 -0.8991774416492764
4091000000.0 0.5468545923543916 -0.9593961190235432
4094000000.0000005 0.521073493596075 -0.8790222785512342
4097000000.0000005 0.5123609443033018 -0.8803692123179069
4099999999.9999995 0.52417062217177 -0.9154786764215206
4102999999.9999995 0.5334318364104719 -0.8665857155369463
4106000000.0 0.5297000771108735 -0.894262367569787
4109000000.0 0.5192542923826918 -0.9011399595266204
4112000000.0 0.5229086373062085 -0.8558387446057368
4115999999.9999995 0.5489872742247631 -0.8558280998715535
4119000000.0 0.5251526783531516 -0.9209446473996027
4122000000.0 0.5211819287297045 -0.8786168190195209
4125000000.0 0.49815588128916866 -0.9253906365301612
4128000000.0 0.5008990416739908 -0.8587641632402346
4131000000.0 0.46850616427000713 -0.8510934230620638
4134000000.0000005 0.5479371076625724 -0.868951894251
4138000000.0 0.4592690159890094 -0.829249004696878
4141000000.0 0.49894484962583685 -0.8789251615159838
4144000000.0 0.5519829638501368 -0.8578328433955096
4147000000.0000005 0.48746732573374196 -0.8933015812541046
4150000000.0000005 0.5302610496357217 -0.9214409123372381
4152999999.9999995 0.5165748558035737 -0.8730419867142919
4155999999.9999995 0.5432185563729667 -0.8630795614423237
4159000000.0 0.5124865383655148 -0.8498258719892562
4162000000.0 0.5011559517128461 -0.8860882201022462
4166000000.0000005 0.51735784342404 -0.8936310915897824
4168999999.9999995 0.499175039488141 -0.8865231835565448
4171999999.9999995 0.5208016150792978 -0.8924684482774471
4175000000.0 0.5255781898780041 -0.8803068727316536
4178000000.0 0.5376858215248397 -0.8755774642108972
4181000000.0 0.5158795777544055 -0.8869019293190863
4184000000.0 0.5181234780678547 -0.8913564850010853
4187999999.9999995 0.5070290063365801 -0.8630545999004816
4191000000.0 0.5435063881199673 -0.8356848579298036
4194000000.0 0.4940279599422553 -0.8774265911604386
4197000000.0 0.5249164549523359 -0.887274624662166
4200000000.0 0.5276189116681915 -0.8682750399579444
4203000000.0000005 0.5543719144333108 -0.8712486932574627
4206000000.0000005 0.5142199810717889 -0.8808417221854847
4208999999.9999995 0.5293978774747201 -0.8613110525760245
4211999999.9999995 0.48725632427992516 -0.8820080240581619
4216000000.0 0.5359695266828259 -0.88309545862823
4219000000.0000005 0.5365347814783914 -0.8535043874801229
4222000000.0000005 0.5158450678091135 -0.8895350618667008
4224999999.9999995 0.5356668214968101 -0.8681395020729858
4227999999.9999995 0.5188153778387583 -0.8825080335976013
4231000000.0 0.5112976476043292 -0.8680597031815681
4234000000.0 0.5176591118765119 -0.8889396450044773
4238000000.0000005 0.5138073997113801 -0.8979507250668465
4240999999.9999995 0.49936336965795225 -0.8720251614981164
4244000000.0 0.5173842031049801 -0.8655654630387664
4247000000.0 0.5355927558100931 -0.858502033226578
4250000000.0 0.5151846603990466 -0.8656378639872205
4253000000.0 0.48771410737819715 -0.8679102599450448
4256000000.0 0.5343157154045923 -0.8900217057539089
4259000000.0000005 0.4995553804267982 -0.8455787219194243
4261999999.9999995 0.48696057575304696 -0.866074411786708
4266000000.0 0.5233113558544351 -0.88745324433427
4269000000.0 0.5189763148387053 -0.8740187403383137
4272000000.0000005 0.5099487062095742 -0.8710940231180911
4275000000.0000005 0.5199864910939269 -0.88297108600049
4277999999.9999995 0.5330117931886666 -0.8940300747367722
4280999999.9999995 0.5431549872161412 -0.8548893531342939
4284000000.0 0.4859672067527305 -0.8961898098303063
4288000000.0000005 0.5599638265609647 -0.8608287312359151
4291000000.0000005 0.5064707585180852 -0.8504598101557483
4293999999.9999995 0.49282071407831124 -0.8759776796488385
4297000000.0 0.5263271680644807 -0.8629545183398926
4300000000.0 0.5157144396651693 -0.877000510211309
4303000000.0 0.5169940500996968 -0.8731172885866408
4306000000.0 0.5402098300174767 -0.8833013744697853
4309000000.0 0.499435011176791 -0.863994592796667
4312000000.0 0.5574272147705024 -0.8667425820204739
4316000000.0 0.5208573735987935 -0.8585283088677762
4319000000.0 0.516928181050832 -0.8469859303737086
4322000000.0 0.4749056683418239 -0.8666136544594076
4325000000.0 0.5277844395871173 -0.8504797118558489
4328000000.0 0.5154827801249824 -0.8564189649087888
4331000000.0 0.48152899251284365 -0.88704712312845
4334000000.0 0.5119124599770464 -0.8553659633704102
4338000000.0 0.5361928790370944 -0.8611817978657265
4341000000.0 0.5712401645382736 -0.882570333541921
4344000000.0 0.5271301191849793 -0.8785025276837396
4347000000.0 0.5114417214475304 -0.8962159961881098
4350000000.0 0.47876445669549256 -0.8516573662956748
4353000000.0 0.513933495589053 -0.8307399626320366
4356000000.0 0.49574226150288536 -0.8746005488747571
4359000000.0 0.4902810353376472 -0.8409393961094737
4362000000.0 0.4612662982980509 -0.8838077188879392
4366000000.0 0.5008435180087842 -0.8742284266787211
4369000000.0 0.48316332826266467 -0.8542951253960284
4372000000.0 0.4731438093704127 -0.8686801939245171
4375000000.0 0.5108013672829854 -0.8494973685980945
4378000000.0 0.5013169581027641 -0.8641142739254185
4381000000.0 0.5219720094373663 -0.8530334137465473
4384000000.0 0.5268639703818505 -0.9212413527790737
4388000000.0 0.5111993713038425 -0.8495240991293769
4391000000.0 0.5082596287791895 -0.8777668277250801
4394000000.0 0.5019666620474849 -0.850103224027847
4397000000.0 0.5029440281430968 -0.8606885676306052
4400000000.0 0.5181586724293408 -0.8827869196792525
4403000000.0 0.5100712969956614 -0.8737517375309098
4406000000.0 0.49700432016614565 -0.8945474138549975
4409000000.0 0.5148110765250911 -0.9057882953677922
4412000000.0 0.4523932165709451 -0.8883964511310704
4416000000.0 0.4812053071819936 -0.8656853472259929
4419000000.0 0.47198110083031647 -0.8874913172548581
4422000000.0 0.5140941062398283 -0.847609647001996
4425000000.0 0.5362610393199834 -0.881528635276446
4428000000.0 0.4922838454615663 -0.8827831673034854
4431000000.0 0.5200708322761937 -0.887861348507256
4434000000.0 0.49164194069291833 -0.8578570553702883
4438000000.0 0.5149828947265782 -0.8848818506856218
4441000000.0 0.5091641265257985 -0.8921824788634305
4444000000.0 0.4990566846970088 -0.8569068595572875
4447000000.0 0.4703400713685889 -0.882781645850256
4450000000.0 0.49218207844912343 -0.8711615230731004
4453000000.0 0.5033550230432811 -0.8989818554412938
4456000000.0 0.46454890232891605 -0.8681086651747112
4459000000.0 0.4576149109583788 -0.8620104789915952
4462000000.0 0.5234886231266196 -0.9220063179794051
4466000000.0 0.4991409636486475 -0.9144864850638084
4469000000.0 0.49786166554016764 -0.8628652189638819
4472000000.0 0.49487620346773753 -0.9040373990034619
4475000000.0 0.49159588285316724 -0.8591083017770358
4478000000.0 0.5001476303157325 -0.9096034074781927
4481000000.0 0.4652886635850387 -0.8718829295579342
4484000000.0 0.44109678503497934 -0.8917588566059114
4488000000.0 0.4763961691433007 -0.8721484370990893
4491000000.0 0.4899102943379189 -0.8691284391962412
4494000000.0 0.4951058887267132 -0.8702528934405324
4497000000.0 0.4835020075571631 -0.8777768158419268
4500000000.0 0.5048256413975098 -0.8810077110049119
4503000000.0 0.5143124944094377 -0.9102367095663831
4506000000.0 0.4706329224011745 -0.8819379707396371
4509000000.0 0.46782403592778643 -0.8799654491375771
4512000000.0 0.470191106551892 -0.8770428617599553
4516000000.0 0.5128370047636808 -0.9071397549134759
4519000000.0 0.4766495087224211 -0.8607745294564653
4522000000.0 0.4846713995088429 -0.8846403348038234
4525000000.0 0.49082664350335137 -0.8657173235020392
4528000000.0 0.5021765435779065 -0.9012329396164953
4531000000.0 0.4891323995423291 -0.8685370908182825
4534000000.0 0.4753926634660676 -0.8779068628910918
4538000000.0 0.4689809998997947 -0.8790581101004806
4541000000.0 0.4404864451375801 -0.8978368421204221
4544000000.0 0.47037975045291197 -0.8780730532013584
4547000000.0 0.49541997342751765 -0.847655791009057
4550000000.0 0.4709654852089248 -0.895820318239803
4553000000.0 0.4632025727761473 -0.8822584061811618
4556000000.0 0.4507588569434106 -0.8683634806754243
4559000000.0 0.47680413219463336 -0.9031519839845185
4562000000.0 0.4899805301109147 -0.8877542561434315
4566000000.0 0.4608383877515002 -0.8892454788024954
4569000000.0 0.46448377696476784 -0.8637187193137246
4572000000.0 0.47398514520780943 -0.8835673921609164
4575000000.0 0.4538212629800067 -0.9126628759266149
4578000000.0 0.4941848037279478 -0.9067741114701287
4581000000.0 0.44253341795746237 -0.8993050320560325
4584000000.0 0.4623130179905348 -0.8963454460357492
4588000000.0 0.4914827252547173 -0.8984648937489446
4591000000.0 0.487710438166686 -0.8754752881039669
4594000000.0 0.4609276268287465 -0.8981022289718172
4597000000.0 0.47021058475487676 -0.9032007203812111
4600000000.0 0.4458892542393085 -0.902171094628033
4603000000.0 0.4597157425274894 -0.9111340938790732
4606000000.0 0.48167550780892526 -0.896817679336656
4609000000.0 0.4690888508108163 -0.8831984300943785
4612000000.0 0.47263071411335145 -0.9052093860925374
4616000000.0 0.45145208198992487 -0.8825849552979081
4619000000.0 0.4676866995025186 -0.891117997970935
4622000000.0 0.4647020505636016 -0.8868122084078089
4625000000.0 0.4264317771649546 -0.8833962423135231
4628000000.0 0.47896182787248576 -0.8844496249277651
4631000000.0 0.4440518860401532 -0.8926791809650905
4634000000.0 0.4483664667845235 -0.899780641357686
4638000000.0 0.4604101870341609 -0.9008349920065823
4641000000.0 0.46466239152640754 -0.8747782108861962
4644000000.0 0.4506411048651594 -0.8806358374431635
4647000000.0 0.4752291220210303 -0.9059943369462266
4650000000.0 0.44902980465492337 -0.8948658787536612
4653000000.0 0.4690616270813175 -0.9075306160032455
4656000000.0 0.4508455446366262 -0.9025744270089953
4659000000.0 0.44703537193378473 -0.9011041693439681
4662000000.0 0.45630017051781424 -0.9178372527206403
4666000000.0 0.43578856067927996 -0.8936269247474489
4669000000.0 0.4792150140379488 -0.9025261381600116
4672000000.0 0.45028684176455647 -0.9176200382225568
4675000000.0 0.4452107757810268 -0.9082441161073361
4678000000.0 0.4441672596064843 -0.8816756786934048
4681000000.0 0.42266099949858765 -0.9292932985293185
4684000000.0 0.4319966509091784 -0.9119626878420319
4688000000.0 0.4336199618380192 -0.8981258355666397
4691000000.0 0.4805908930575948 -0.8910172398836342
4694000000.0 0.46077557645448974 -0.8817730671426443
4697000000.0 0.39760905610839203 -0.8710793660196964
4700000000.0 0.46068750245699847 -0.9243762347916842
4703000000.0 0.46084142346014134 -0.8826761001666252
4706000000.0 0.4276000054423954 -0.9054351304712435
4709000000.0 0.43514873558854444 -0.9049093839619281
4712000000.0 0.4668291871414501 -0.9152527751669413
4716000000.0 0.44745652685058834 -0.926075246293099
4719000000.0 0.4648966715415606 -0.8912666293502379
4722000000.0 0.47051869138310504 -0.9190481460568033
4725000000.0 0.4630045894301123 -0.8952914929958211
4728000000.0 0.4417082055681133 -0.8683935936376409
4731000000.0 0.4532365389840474 -0.9048833765322329
4734000000.0 0.45293850290733567 -0.8741528970237992
4738000000.0 0.47515902918572384 -0.9694861180966377
4741000000.0 0.44921288975109025 -0.933625868014226
4744000000.0 0.43552759649747697 -0.916348501947249
4747000000.0 0.46342040173728744 -0.8992964769281249
4750000000.0 0.4458378422067079 -0.9269477549784126
4753000000.0 0.44762873039157147 -0.9004800936537539
4756000000.0 0.4429250869074225 -0.9131110215308447
4759000000.0 0.46245598629239576 -0.9248064796581444
4762000000.0 0.40958134846477945 -0.9580173761264341
4766000000.0 0.45534144916119856 -0.8941744945136868
4769000000.0 0.4560317474074144 -0.9361707948571416
4772000000.0 0.46052341742253006 -0.9282562762246823
4775000000.0 0.43736904514136266 -0.9481439185220063
4778000000.0 0.45324733413159224 -0.9144429339485014
4781000000.0 0.4668733811031499 -0.9028125049661436
4784000000.0 0.4581413939171033 -0.898808989031582
4788000000.0 0.4317353196503371 -0.8994254239492397
4791000000.0 0.450494310785273 -0.8972241879677807
4794000000.0 0.4912661654674443 -0.9292125569548405
4797000000.0 0.3969863547320194 -0.9129176212150186
4800000000.0 0.43885844406002117 -0.9117687585981753
4803000000.0 0.4057307888037144 -0.9190667805159909
4806000000.0 0.4556832709822652 -0.9046453926847418
4809000000.0 0.42516459898793324 -0.9525723727668542
4812000000.0 0.39250627218249606 -0.9028468515637093
4816000000.0 0.4638513189318394 -0.8968818287703648
4819000000.0 0.46916759718071444 -0.9347157829480026
4822000000.0 0.48038980007094784 -0.9210700669094456
4825000000.0 0.48578484650555476 -0.9397028163664236
4828000000.0 0.4516761783528841 -0.9193995821681142
4831000000.0 0.425099631204339 -0.9383682180507472
4834000000.0 0.47578324154477314 -0.9120923736488757
4838000000.0 0.44363846193954004 -0.9310777756041648
4841000000.0 0.4252130505087869 -0.92105287872899
4844000000.0 0.4696721107968903 -0.8935807271945385
4847000000.0 0.45054836849883295 -0.8813375826880762
4850000000.0 0.4531716754465332 -0.9460064259340915
4853000000.0 0.45056528724213707 -0.9056584383985888
4856000000.0 0.43713160656021205 -0.8910302735854321
4859000000.0 0.45467687936025303 -0.9358778691423585
4862000000.0 0.4691803184924173 -0.8874976331127504
4866000000.0 0.4191622871685863 -0.9336265651958412
4869000000.0 0.42865020582146635 -0.9159190994258288
4872000000.0 0.4209985120700738 -0.9490216938104585
4875000000.0 0.5145681070387362 -0.9435186622646637
4878000000.0 0.45771680609896337 -0.922578741567471
4881000000.0 0.44563165014790557 -0.9815743591364402
4884000000.0 0.45698838181355933 -0.9043413184160812
4888000000.0 0.4439525576536612 -0.8958513853019784
4891000000.0 0.47719852211002767 -0.9437299579478486
4894000000.0 0.4243864450435616 -0.9304155661422135
4897000000.0 0.48539958344799444 -0.8867026252960839
4900000000.0 0.44315708264488013 -0.9653802580024328
4903000000.0 0.5039116643741597 -0.9598748728621582
4906000000.0 0.4486225490756727 -0.9229059690742154
4909000000.0 0.45026301197136054 -0.9336870890758326
4912000000.0 0.45232774027766876 -0.984103568678802
4916000000.0 0.45844677512714255 -0.9501659787778444
4919000000.0 0.5302060465322317 -0.9521678974179503
4922000000.0 0.44884433549187336 -0.9195786272016173
4925000000.0 0.4277036241602423 -0.9311829063804211
4928000000.0 0.4942475322082347 -0.9059999434437823
4931000000.0 0.49181172923076255 -0.9414104479691142
4934000000.0 0.42820589295290296 -0.9000592244828548
4938000000.0 0.43386799008300947 -0.9341390781146157
4941000000.0 0.44338740309279767 -0.883611471510116
4944000000.0 0.4212261769370719 -0.8668928426477108
4947000000.0 0.4642190750745401 -0.9074609459175828
4950000000.0 0.41875249779663126 -0.8998889617692469
4953000000.0 0.4363107624929691 -0.9904575805663707
4956000000.0 0.44345264898444425 -0.9076063957694441
4959000000.0 0.419776094685438 -0.9224498676969952
4962000000.0 0.43104209701080454 -0.9354333283958296
4966000000.0 0.45343578524382716 -0.8971895580321659
4969000000.0 0.5122378313041683 -0.9388581931078291
4972000000.0 0.4554197672772356 -0.9436566327708036
4975000000.0 0.49604900253302936 -0.8891550103705536
4978000000.0 0.4284306437666435 -0.9356995471477647
4981000000.0 0.44392585899660125 -0.9462335460603677
4984000000.0 0.46551319224877374 -0.8688783089615959
4988000000.0 0.4209476197601412 -0.9009500316339737
4991000000.0 0.5060886382452422 -0.9347347009898493
4994000000.0 0.4529447076064481 -0.9170680974131448
4997000000.0 0.42238474518913394 -0.9238669508011231
5000000000.0 0.48036992616354013 -0.9307072779739479
5003000000.0 0.4829413313991459 -0.9526106077670935
5006000000.0 0.4626912048251122 -0.9834344021038941
5009000000.0 0.4814798674309356 -0.9103791627127386
5012000000.0 0.43501649231228245 -0.9557919701393378
5016000000.0 0.5020281082244263 -0.9249889679992563
5019000000.0 0.4658685170968389 -0.9409898603028286
5022000000.0 0.4597780683594058 -0.926071194950723
5025000000.0 0.48116707908359885 -0.992343678709626
5028000000.0 0.44765161089595557 -0.9245277173157851
5031000000.0 0.4740289955154861 -0.9396438542911856
5034000000.0 0.4422236157855738 -0.957846368558378
5038000000.0 0.4348696924704213 -0.9155767921847667
5041000000.0 0.4800643418367772 -0.8942493425876858
5044000000.0 0.48892979909079537 -0.89954405539425
5047000000.0 0.45590015392039 -0.9349672737322414
5050000000.0 0.5469257208525912 -0.8585091489351052
5053000000.0 0.4872320622237673 -0.9522252830772113
5056000000.0 0.5297125907168914 -0.9210309688125893
5059000000.0 0.5260408911509034 -0.890373627797518
5062000000.0 0.45035248841084186 -0.9480366114571528
5066000000.0 0.4844984430919868 -0.9205062635934547
5069000000.0 0.4542747203298131 -0.9666273813101465
5072000000.0 0.46617073539239895 -0.8921758178263465
5075000000.0 0.45904958263235507 -0.8921329043827488
5078000000.0 0.46562818490127866 -0.9467836016237366
5081000000.0 0.43392814928076406 -0.9238547713018697
5084000000.0 0.5034244747834817 -0.9742666692549513
5088000000.0 0.4638301302126292 -0.8972516721541437
5091000000.0 0.47119358591963123 -0.9591967404237232
5094000000.0 0.4849098136410979 -0.9180021797855983
5097000000.0 0.4997218912280863 -0.8857230001439835
5100000000.0 0.4470845992229613 -0.9124614875508092
5103000000.0 0.44650401602028306 -0.9224528382950721
5106000000.0 0.4782610841953966 -0.9413062986950487
5109000000.0 0.5104490381616809 -0.9589581977419797
5112000000.0 0.4715125682095189 -0.9265836018706839
5116000000.0 0.49211536410784595 -0.8704917761149162
5119000000.0 0.43270702545625894 -0.9459131780659185
5122000000.0 0.48485722275039866 -0.8812174462585819
5125000000.0 0.5077601216899961 -0.9076981826687571
5128000000.0 0.47703307614309776 -0.8567617949324728
5131000000.0 0.4508135702828551 -0.8676480052991624
5134000000.0 0.4750905580049762 -0.9055981185732784
5138000000.0 0.49417590259743993 -0.8785471714946186
5141000000.0 0.4954837109781727 -0.9291439885519124
5144000000.0 0.5267966659489682 -0.9168679531264183
5147000000.0 0.4571771357853674 -0.9334470138051569
5150000000.0 0.49888961324527215 -0.9269064429005718
5153000000.0 0.5174699324893837 -0.9332887690050666
5156000000.0 0.5366312922193762 -0.9155895032387023
5159000000.0 0.5025071370636778 -0.96004193455953
5162000000.0 0.4742655382672727 -0.9378554524054055
5166000000.0 0.5176638032819676 -0.9384801284205726
5169000000.0 0.48286097123505933 -0.9561134353388732
5172000000.0 0.47780624520563997 -0.8955714563271147
