! Created with skrf 1.8.0 (http://scikit-rf.org).
# Hz S RI R 50.0 
!freq ReS11 ImS11
4000000000.0 0.5278286737435027 -0.9045274781662809
4003000000.0 0.5316215278439702 -0.9368523521777952
4006000000.0 0.4933076238123262 -0.9030558208677285
4009000000.0000005 0.4916877686447425 -0.9208896974630948
4011999999.9999995 0.578142051833185 -0.8814104751111771
4016000000.0 0.49989323548068154 -0.924308066256039
4019000000.0 0.537383727705344 -0.8621094404605171
4022000000.0000005 0.5954883663576133 -0.9219090950100496
4025000000.0000005 0.4974259098841982 -0.9355162535791902
4027999999.9999995 0.5312409001286285 -0.9255567489656619
4030999999.9999995 0.4831032897323547 -0.8986562320078528
4034000000.0 0.5239055442608425 -0.8861524728096712
4038000000.0000005 0.5223572451682744 -0.9289507443757918
4041000000.0000005 0.512166915382551 -0.8940356655175069
4043999999.9999995 0.5209541570834766 -0.9271348964069634
4046999999.9999995 0.5590982791852213 -0.971845653838827
4050000000.0 0.5304982411002324 -0.9177168041136029
4053000000.0 0.4623874136296492 -0.8733472902613674
4056000000.0 0.5350917025159516 -0.8986456797166699
4059000000.0 0.5148474631362614 -0.9184724543144616
4062000000.0000005 0.48188540079231557 -0.92275100011783
4066000000.0 0.47167439395848837 -0.849337986178485
4069000000.0 0.5105932450221959 -0.9275245159288663
4072000000.0 0.5144442862467132 -0.9272232908354643
4075000000.0 0.5470529254736123 -0.8809112536790981
4078000000.0000005 0.5103483790876877 -0.9023368103054037
4081000000.0000005 0.5866345531771604 -0.8854316616228534
4083999999.9999995 0.4879892700123755 -0.9187410585359939
4088000000.0 0.5365780223908692 -0.8704559556879556
4091000000.0 0.5486841375303805 -0.9459699369804657
4094000000.0000005 0.5468690173066245 -0.8942057173057157
4097000000.0000005 0.5187071603188862 -0.8836321137886538
4099999999.9999995 0.5115157323562569 -0.8811611660076638
4102999999.9999995 0.5482121517446186 -0.8764280280086456
4106000000.0 0.5108348618371232 -0.9049576521463203
4109000000.0 0.5023764469172557 -0.9072336280837358
4112000000.0 0.5272170969922598 -0.8614511044663425
4115999999.9999995 0.564581112871436 -0.878685754048389
4119000000.0 0.4871022549354309 -0.916900962172577
4122000000.0 0.4898452605469346 -0.9197880643510589
4125000000.0 0.5212936968368687 -0.9044914587247036
4128000000.0 0.5129967984744879 -0.8466850938202004
4131000000.0 0.5088870701414959 -0.8684440299442141
4134000000.0000005 0.5221337575751296 -0.8798085224611274
4138000000.0 0.4920843346504379 -0.8662010467764101
4141000000.0 0.4912754456978946 -0.9056231944160443
4144000000.0 0.5384223265440542 -0.8553026463699822
4147000000.0000005 0.523646120800035 -0.8902552432085408
4150000000.0000005 0.5023052345158233 -0.9169746340013518
4152999999.9999995 0.5135770697967973 -0.8935116160643155
4155999999.9999995 0.5535005718299921 -0.9121348172910958
4159000000.0 0.53164150028932 -0.8618806455148644
4162000000.0 0.5487369293663773 -0.8750297629183185
4166000000.0000005 0.5432822953664177 -0.8863123462735264
4168999999.9999995 0.4931102912272861 -0.8890530080103335
4171999999.9999995 0.5042160447065578 -0.909068818725401
4175000000.0 0.5373963991423565 -0.8849589138258408
4178000000.0 0.5250443138366039 -0.8969698088745994
4181000000.0 0.5309451860702008 -0.9244676147398284
4184000000.0 0.5311599883560753 -0.8831262252710469
4187999999.9999995 0.5027266540062598 -0.8944123030401127
4191000000.0 0.5436980605412578 -0.8769106554970829
4194000000.0 0.5019156054412381 -0.8696504640908405
4197000000.0 0.536522964283204 -0.9048944330150832
4200000000.0 0.5431399270482405 -0.8936757844491844
4203000000.0000005 0.5410730919605129 -0.8979718089230783
4206000000.0000005 0.5247703853592116 -0.8907534235381334
4208999999.9999995 0.5158907493621622 -0.8740047614927798
4211999999.9999995 0.5031575473996623 -0.9010501873630197
4216000000.0 0.5371695784714081 -0.8868295637693805
4219000000.0000005 0.5454165325069245 -0.9003802909826122
4222000000.0000005 0.526172953360603 -0.8864783939064963
4224999999.9999995 0.5090510752213937 -0.8695213575830353
4227999999.9999995 0.5125643009807903 -0.893019663294873
4231000000.0 0.5141408825064151 -0.8824643386246432
4234000000.0 0.5068383033061232 -0.9010587225748597
4238000000.0000005 0.5045678091718768 -0.8755189010606946
4240999999.9999995 0.5063639236928836 -0.8778620740306177
4244000000.0 0.5225235732788861 -0.8790593839306917
4247000000.0 0.5192460192544899 -0.886659432161883
4250000000.0 0.5000106552467934 -0.8816090386191919
4253000000.0 0.4775554100441052 -0.8627536666497545
4256000000.0 0.5488668025767209 -0.8930335682546685
4259000000.0000005 0.4899846300098442 -0.8642068890812903
4261999999.9999995 0.49471580297202966 -0.8899215066383844
4266000000.0 0.4809838786595002 -0.8993525531294508
4269000000.0 0.5232801330450156 -0.8737827649363533
4272000000.0000005 0.5068682603487772 -0.880190675817943
4275000000.0000005 0.5247211329622499 -0.8857878933766009
4277999999.9999995 0.5157777370679238 -0.9052899251900351
4280999999.9999995 0.5239809420198327 -0.8708454910101918
4284000000.0 0.4680978789394342 -0.8877297214410597
4288000000.0000005 0.5430194289148622 -0.8527842277025993
4291000000.0000005 0.48177088043005867 -0.8764776141187568
4293999999.9999995 0.49881939603439535 -0.866604661750358
4297000000.0 0.506053904724784 -0.847365112577775
4300000000.0 0.5040381329122603 -0.8416805041556046
4303000000.0 0.4949028822083809 -0.8893516777607248
4306000000.0 0.5445114702978531 -0.8532514180770462
4309000000.0 0.4990607805190209 -0.8700503061499795
4312000000.0 0.5586496158262061 -0.8934408362064598
4316000000.0 0.5380928983040261 -0.8676146742326758
4319000000.0 0.4889405249177247 -0.8549493757603179
4322000000.0 0.48438752485373154 -0.8675195574908171
4325000000.0 0.5047687009302831 -0.8839174727572425
4328000000.0 0.4930260678311776 -0.873643118831035
4331000000.0 0.4855755214810707 -0.8822232565748331
4334000000.0 0.5036298088251178 -0.9028406411788352
4338000000.0 0.5214641911861946 -0.8942764288947168
4341000000.0 0.5619424973519186 -0.8638904928160643
4344000000.0 0.5217064496343625 -0.8878853238972635
4347000000.0 0.4858994624123516 -0.8879916191869892
4350000000.0 0.4850174820233178 -0.8504118040468668
4353000000.0 0.5233958188070525 -0.8552455493414771
4356000000.0 0.4654990745477588 -0.8843087570152289
4359000000.0 0.4679559306802854 -0.8381222394851557
4362000000.0 0.4681493478846632 -0.9029683301735708
4366000000.0 0.51156564506055 -0.9081514508684012
4369000000.0 0.47639430629882296 -0.8562736139030788
4372000000.0 0.4562647371606045 -0.8837802060388308
4375000000.0 0.5119023721771692 -0.8606555951798982
4378000000.0 0.49143455091174454 -0.8679126711814188
4381000000.0 0.5101742802646017 -0.8553176480406857
4384000000.0 0.5228237655640701 -0.936183419714249
4388000000.0 0.4938884291217948 -0.8545243744161675
4391000000.0 0.5071827343220286 -0.8881247923135669
4394000000.0 0.47752552878268206 -0.8706160762996156
4397000000.0 0.4968633137337512 -0.8704116995676111
4400000000.0 0.5115520698781681 -0.9089221033945316
4403000000.0 0.5148640192904748 -0.8787454585874628
4406000000.0 0.4964573667720923 -0.8928668782124782
4409000000.0 0.5119872346081972 -0.9243390826683076
4412000000.0 0.4458648973161109 -0.9172656951413931
4416000000.0 0.4795453486874256 -0.8806246524772137
4419000000.0 0.47440485226280915 -0.8903921485466628
4422000000.0 0.5150886700111224 -0.8661092422630998
4425000000.0 0.5260861516772948 -0.8987912985191455
4428000000.0 0.49253900719317034 -0.8790000363199961
4431000000.0 0.5046785366845459 -0.9037598719377069
4434000000.0 0.4658250713051437 -0.8693999360740821
4438000000.0 0.5049626679687798 -0.8997535840553348
4441000000.0 0.4948045998752738 -0.8919675229670003
4444000000.0 0.4787764018323214 -0.8679752539816429
4447000000.0 0.46229339608512465 -0.8926603419760659
4450000000.0 0.48289159994672326 -0.8629199634448906
4453000000.0 0.5030839710828191 -0.9147989383957674
4456000000.0 0.4644335609521646 -0.8789241966838723
4459000000.0 0.4458943453852081 -0.8613056617581841
4462000000.0 0.49111466254886926 -0.9364984159656783
4466000000.0 0.4970190155151124 -0.9230350053856755
4469000000.0 0.49475804046135874 -0.8857535876781015
4472000000.0 0.46782413378755533 -0.9080155911898156
4475000000.0 0.46091267857701745 -0.8691437628469777
4478000000.0 0.4698389545863471 -0.9330696140681997
4481000000.0 0.447560215727965 -0.875132486211291
4484000000.0 0.4247647234781885 -0.9008316269178047
4488000000.0 0.4620691810157565 -0.8965125694271212
4491000000.0 0.47182534528948106 -0.8701446722531352
4494000000.0 0.46901848508773875 -0.8779217260428613
4497000000.0 0.4752400464110311 -0.8722074364275277
4500000000.0 0.47527839879766837 -0.8986921022112802
4503000000.0 0.4886241688052576 -0.9159564099336222
4506000000.0 0.47401711654019224 -0.9015218960556738
4509000000.0 0.4587677451278072 -0.8622628006796276
4512000000.0 0.45141636773742866 -0.8882300574333553
4516000000.0 0.46975029438346977 -0.9122523529904436
4519000000.0 0.4602564958717493 -0.8608121097023067
4522000000.0 0.45881682676708135 -0.8964827620059599
4525000000.0 0.5119687909495716 -0.8640156437038443
4528000000.0 0.49445809183646117 -0.9209168847567284
4531000000.0 0.4626061562282622 -0.8809355238646653
4534000000.0 0.47368502116891903 -0.8866432364928205
4538000000.0 0.4646225546959749 -0.8726652790221876
4541000000.0 0.4328654987887724 -0.9036657112245352
4544000000.0 0.4724259021903208 -0.8765676252686185
4547000000.0 0.48055734408195183 -0.8873334091924099
4550000000.0 0.46003048461266616 -0.906272251415896
4553000000.0 0.46267345208257915 -0.9019593789736361
4556000000.0 0.43595436098018475 -0.8778992860076262
4559000000.0 0.44831075473445975 -0.9021499369469663
4562000000.0 0.46724159640654683 -0.8922984935207573
4566000000.0 0.45027015809972454 -0.9214496751663337
4569000000.0 0.4478295244555395 -0.8872280335183189
4572000000.0 0.46360763547836514 -0.903582211347671
4575000000.0 0.4374839081699524 -0.896403455322645
4578000000.0 0.4746148072940022 -0.9001256268633346
4581000000.0 0.4597567511674192 -0.9097113289170853
4584000000.0 0.4380822423957056 -0.8885119306561065
4588000000.0 0.4813774785282367 -0.9333596644701371
4591000000.0 0.48117972721257085 -0.8968134362888271
4594000000.0 0.4482882701477977 -0.8977189805540531
4597000000.0 0.46952998827510056 -0.9259589177018517
4600000000.0 0.42969337101915395 -0.9110493167732414
4603000000.0 0.4432892567596398 -0.9209213193426962
4606000000.0 0.46354017813647336 -0.9059191781805414
4609000000.0 0.44848787750344055 -0.900264860940424
4612000000.0 0.4560810757833135 -0.913037581415213
4616000000.0 0.4307880259766659 -0.8863644953976452
4619000000.0 0.45886361695975764 -0.9067421322513644
4622000000.0 0.4576040947792645 -0.9171094920215958
4625000000.0 0.4207638522059641 -0.9022965458762789
4628000000.0 0.4577756691617345 -0.896210447884559
4631000000.0 0.41802047902424777 -0.9158372536263769
4634000000.0 0.436059367885825 -0.9155602741833199
4638000000.0 0.445384157666396 -0.9133127497599682
4641000000.0 0.4553714484515765 -0.9041990944868108
4644000000.0 0.44277322825014664 -0.8948894323498805
4647000000.0 0.4448838115910899 -0.8964232981178288
4650000000.0 0.4264027278056697 -0.9080524089684678
4653000000.0 0.45316997127923475 -0.9149620253559579
4656000000.0 0.43503156542442867 -0.9320533488681545
4659000000.0 0.4202494411083548 -0.9345414800777606
4662000000.0 0.4481119619470171 -0.9157588208672511
4666000000.0 0.44713541515991506 -0.9126319716582193
4669000000.0 0.4438333064220751 -0.9193577677006621
4672000000.0 0.4217627477707322 -0.9109508687209713
4675000000.0 0.4219571422484798 -0.9156751260897897
4678000000.0 0.43242090485012097 -0.908963464795987
4681000000.0 0.4239037270203792 -0.9575375727033228
4684000000.0 0.4499222402610153 -0.9351595922303899
4688000000.0 0.42686434248020655 -0.921132217470811
4691000000.0 0.466010025252938 -0.9142823260378212
4694000000.0 0.4579456372483046 -0.8992089292345805
4697000000.0 0.4074421436547707 -0.8986607359789955
4700000000.0 0.4355105601299957 -0.9112018676902444
4703000000.0 0.4581730078935123 -0.888670937249684
4706000000.0 0.41889882426250064 -0.9239730440261452
4709000000.0 0.4151710680854517 -0.9244013083714453
4712000000.0 0.4427627984523138 -0.9186860272322864
4716000000.0 0.4495543487314745 -0.9328374756516791
4719000000.0 0.4632600399899647 -0.9209318252933026
4722000000.0 0.4673650633565359 -0.8994582830040005
4725000000.0 0.4480948570674247 -0.8950214721825244
4728000000.0 0.40275094191725536 -0.9268299300985245
4731000000.0 0.4608772391566767 -0.9408507001940059
4734000000.0 0.46893821233937216 -0.8930592525720884
4738000000.0 0.45680371537361164 -0.9528422823287589
4741000000.0 0.45126735411211094 -0.9099885010117716
4744000000.0 0.4398130696587982 -0.9352770755129572
4747000000.0 0.458060036482701 -0.8540183068811084
4750000000.0 0.4491776423112705 -0.9356021809473202
4753000000.0 0.44854322736317853 -0.9201636138279999
4756000000.0 0.42273403483901395 -0.9382034281433641
4759000000.0 0.4637841947127278 -0.942492193852515
4762000000.0 0.4178593454617525 -0.9411784695099968
4766000000.0 0.4405659025831657 -0.9080552846777645
4769000000.0 0.4178469748658993 -0.9359163822160081
4772000000.0 0.4363353662283095 -0.9252650439018474
4775000000.0 0.42168809863571444 -1.0006795157902433
4778000000.0 0.4189455545899074 -0.9226503587221158
4781000000.0 0.42310721690954345 -0.8955303688268481
4784000000.0 0.46423278600233797 -0.9247964455555187
4788000000.0 0.4302391219258231 -0.9437799674315914
4791000000.0 0.4210632415823401 -0.9218200992979596
4794000000.0 0.4709459304261515 -0.9409816606532176
4797000000.0 0.4362443113836735 -0.9233350149928107
4800000000.0 0.40888152096562647 -0.9264163234033526
4803000000.0 0.4066128884818434 -0.9194669689691235
4806000000.0 0.4438240516550673 -0.9334030182499808
4809000000.0 0.3937816257511211 -0.9209795635418226
4812000000.0 0.3929935773132441 -0.9211100917200645
4816000000.0 0.43048922993458627 -0.9057406117424472
4819000000.0 0.4513779805783972 -0.9565949409249748
4822000000.0 0.45554301650058804 -0.9506239258840955
4825000000.0 0.45497002831585587 -0.9367206246684999
4828000000.0 0.4308671717353334 -0.9357720057493887
4831000000.0 0.3881764957708598 -0.978772764246152
4834000000.0 0.43702305018513504 -0.9216669798166791
4838000000.0 0.41390974002624276 -0.9271930521319126
4841000000.0 0.4211222506145328 -0.915691172747048
4844000000.0 0.4708331212029049 -0.9145960235230439
4847000000.0 0.44938504542132274 -0.8975482367457177
4850000000.0 0.4515228540354087 -0.9672478434509767
4853000000.0 0.4337884546791866 -0.905470725098205
4856000000.0 0.43285588799224994 -0.9243633975218065
4859000000.0 0.41874938698939934 -0.970033906451199
4862000000.0 0.45296051449386665 -0.8916075209630953
4866000000.0 0.4127665127708627 -0.9628502976692336
4869000000.0 0.41530386328449986 -0.9308476848981746
4872000000.0 0.420184028182888 -0.9667132513502462
4875000000.0 0.5120135156389125 -0.9414525057109975
4878000000.0 0.4196295654551554 -0.9662065897510261
4881000000.0 0.43640925398223496 -1.016836216125573
4884000000.0 0.43941789796411385 -0.9366912914388347
4888000000.0 0.48165363691937296 -0.9255577890604042
4891000000.0 0.4392302474396108 -0.9393177256812159
4894000000.0 0.42610166692148427 -0.9240357239457907
4897000000.0 0.4444876743334981 -0.929882400482896
4900000000.0 0.44951917841551947 -0.9363784470051802
4903000000.0 0.43057918175668625 -0.9555830993794502
4906000000.0 0.45194766275533427 -0.9826406690772012
4909000000.0 0.45431539542643434 -0.9193536980943345
4912000000.0 0.44378724846654266 -0.9822243142960073
4916000000.0 0.45966996772082847 -0.9782039281699616
4919000000.0 0.4789305521092686 -0.9776929807419119
4922000000.0 0.47850894744553696 -0.9355450792464941
4925000000.0 0.42345083779630377 -0.9097702870696825
4928000000.0 0.5003596001051785 -0.8978755647037243
4931000000.0 0.46830977807016516 -0.9170568127529628
4934000000.0 0.41396588667304696 -0.9174917789429444
4938000000.0 0.3801386366493972 -0.9338929625443281
4941000000.0 0.41831635804633793 -0.9262969614950367
4944000000.0 0.4315818480465686 -0.8626191872031371
4947000000.0 0.4466265564710267 -0.9096227680752432
4950000000.0 0.4261143092116338 -0.9172336540141591
4953000000.0 0.4457884430768366 -1.0025365812000298
4956000000.0 0.41949981340137554 -0.9096711524121756
4959000000.0 0.415184362712817 -0.9309140915403262
4962000000.0 0.46986954923672497 -0.9704092596653386
4966000000.0 0.44483893214533066 -0.9326652885465759
4969000000.0 0.4916618478910196 -0.9836867409353586
4972000000.0 0.43853574046624466 -0.9466879787660211
4975000000.0 0.43522173237970574 -0.900850140523701
4978000000.0 0.4240491301748369 -0.9319638366599087
4981000000.0 0.4332899879199136 -0.9626560986892456
4984000000.0 0.4505617986689289 -0.9275258202888592
4988000000.0 0.4605406906971411 -0.9285236801341534
4991000000.0 0.5004394875683178 -0.9316797458610475
4994000000.0 0.4443458683702127 -0.9319672334906115
4997000000.0 0.4006179159830823 -0.9591778920103826
5000000000.0 0.46615198398180235 -0.9603170795567566
5003000000.0 0.4583032656731875 -0.9764980506020817
5006000000.0 0.4622726684973256 -0.9778758360269015
5009000000.0 0.48445614755800004 -0.9079894565017026
5012000000.0 0.4419775670232193 -0.9695823235424552
5016000000.0 0.5030402147443745 -0.9527344837420079
5019000000.0 0.4261938636135263 -0.9130851224390473
5022000000.0 0.47434195071798746 -0.9359572320841641
5025000000.0 0.4500342608691628 -0.9975458873077293
5028000000.0 0.44249484474529643 -0.9414193086056875
5031000000.0 0.453608401533525 -0.9587850261740953
5034000000.0 0.4543678647089349 -0.9777610580882788
5038000000.0 0.42628365697809434 -0.9016379242430457
5041000000.0 0.4808189760690836 -0.9303512537296839
5044000000.0 0.45444361386700494 -0.904461630417421
5047000000.0 0.4672268535307116 -0.9394279187349801
5050000000.0 0.5128315085015808 -0.896416102179735
5053000000.0 0.44831348792892195 -0.9878801616733774
5056000000.0 0.49634824399133604 -0.9209012680574729
5059000000.0 0.49463903140840343 -0.8810736053594088
5062000000.0 0.41935927026395936 -0.9697781444400089
5066000000.0 0.4632007490917936 -0.9083865427901798
5069000000.0 0.4834260895565186 -0.9526069215479342
5072000000.0 0.4333602998540333 -0.9188604739866869
5075000000.0 0.48577511090167874 -0.9078128690398836
5078000000.0 0.40912649163371106 -0.9435299904107629
5081000000.0 0.4213445165018686 -0.9435440004302857
5084000000.0 0.46323377241154956 -0.9545171385743987
5088000000.0 0.4923539670525624 -0.9766947454729353
5091000000.0 0.41847183228295715 -0.9349453094467024
5094000000.0 0.45205192358755836 -0.9312807486277854
5097000000.0 0.49891979987931706 -0.962202504882355
5100000000.0 0.4807072327583709 -0.93658484882629
5103000000.0 0.46461125467085845 -0.9773417819069108
5106000000.0 0.467875411363693 -0.9491517897455063
5109000000.0 0.44786854296393425 -0.9156170441479319
5112000000.0 0.41426780014137127 -0.9400512830745785
5116000000.0 0.4783110988088079 -0.9143822620660965
5119000000.0 0.4508247814764324 -0.9400421630928775
5122000000.0 0.45031879830900484 -0.940786764464617
5125000000.0 0.4717447783885313 -0.9170563748508482
5128000000.0 0.48413469330182324 -0.8929742584984124
5131000000.0 0.4417041407744278 -0.924817110928736
5134000000.0 0.3898474301456865 -0.9183324246379923
5138000000.0 0.5283803675237178 -0.9274992434935281
5141000000.0 0.5278863842984511 -0.9339161399763258
5144000000.0 0.5040859689665498 -0.8874426747284283
5147000000.0 0.4410523056750777 -0.9621501385343908
5150000000.0 0.5131723435318065 -0.967046680709736
5153000000.0 0.4760545124583157 -0.9355398375789652
5156000000.0 0.457776068884939 -0.9204301937287096
5159000000.0 0.5151514235704595 -0.9620015965450572
5162000000.0 0.42945471753073255 -0.9034869538399322
5166000000.0 0.4414956956304556 -0.9486846864818341
5169000000.0 0.4572758642335824 -0.9017403126061199
5172000000.0 0.503993570852796 -0.9342192386484778
