! Created with skrf 1.8.0 (http://scikit-rf.org).
# Hz S RI R 50.0 
!freq ReS11 ImS11
4000000000.0 0.5776016775481745 -0.8581286903932208
4003000000.0 0.5727286770205258 -0.9049514382461914
4006000000.0 0.542353647142683 -0.8851731760043636
4009000000.0000005 0.5578166060788798 -0.8639181438873805
4011999999.9999995 0.6033742597456693 -0.8716825996731264
4016000000.0 0.570179155725268 -0.8933570363009098
4019000000.0 0.5289285670590201 -0.8841670596090526
4022000000.0000005 0.616263108301669 -0.8397923001892945
4025000000.0000005 0.5143435922503229 -0.9055325542905944
4027999999.9999995 0.5339379022260223 -0.8855556627112284
4030999999.9999995 0.5046361465690505 -0.8460468234619151
4034000000.0 0.5408364063274941 -0.8853705591106928
4038000000.0000005 0.5194614263344352 -0.89013865588889
4041000000.0000005 0.5530615616749801 -0.8710020613449418
4043999999.9999995 0.6064193331094996 -0.9201837361001036
4046999999.9999995 0.5947523839732984 -0.8843072968098049
4050000000.0 0.5084055073651634 -0.8765390012998397
4053000000.0 0.48194864036737706 -0.8728215881834323
4056000000.0 0.5469072880967657 -0.9051030858468949
4059000000.0 0.551588827567969 -0.8984926431529322
4062000000.0000005 0.516175396587907 -0.9160647505327492
4066000000.0 0.5022368024706105 -0.84358226805144
4069000000.0 0.5321019236767452 -0.9125044849387012
4072000000.0 0.5781002779743217 -0.8411015909493318
4075000000.0 0.5932950198619008 -0.8614412947003036
4078000000.0000005 0.5436232648020836 -0.9023054812512776
4081000000.0000005 0.6247838004698072 -0.8735124629099205
4083999999.9999995 0.5421695521775959 -0.8976546681732088
4088000000.0 0.5595086664582346 -0.8709631380397855
4091000000.0 0.5722116758185726 -0.9220439428517899
4094000000.0000005 0.5449422383008424 -0.8740798628355352
4097000000.0000005 0.5073922330741117 -0.8622515691834717
4099999999.9999995 0.5177903508651648 -0.8720029831011324
4102999999.9999995 0.5740290797990042 -0.8474395554441622
4106000000.0 0.5518983375149181 -0.8972930848456177
4109000000.0 0.5292788914160835 -0.8898486165288696
4112000000.0 0.536845597089601 -0.883416471899641
4115999999.9999995 0.5640035299576346 -0.8752383795679987
4119000000.0 0.5106540691607395 -0.8793991363345807
4122000000.0 0.5286863909043636 -0.914051640000283
4125000000.0 0.5312241072561817 -0.8574175720511964
4128000000.0 0.49840587341419124 -0.8098625450690274
4131000000.0 0.5457067892104225 -0.8877073653333618
4134000000.0000005 0.571794485646292 -0.8464069063628973
4138000000.0 0.5127142639828607 -0.8355534390840872
4141000000.0 0.5593722087535131 -0.8757514494007378
4144000000.0 0.5569952690525642 -0.8691550212347662
4147000000.0000005 0.525709205155807 -0.884541160075138
4150000000.0000005 0.5518204317632179 -0.8953662334449108
4152999999.9999995 0.5672419902839357 -0.8612885503273668
4155999999.9999995 0.5640375575242698 -0.9077307948963758
4159000000.0 0.5478063046280677 -0.8418093279368556
4162000000.0 0.5553147174551993 -0.8580825485511829
4166000000.0000005 0.5124353428479289 -0.8692196404221033
4168999999.9999995 0.5150654482319409 -0.8641230002936553
4171999999.9999995 0.5607167419312376 -0.8711428178138256
4175000000.0 0.54946943802884 -0.8984284995855867
4178000000.0 0.5479822590001495 -0.8715051457175098
4181000000.0 0.5573796125116474 -0.8853954426015533
4184000000.0 0.540035428364592 -0.8864612928494201
4187999999.9999995 0.5333420155795363 -0.8617516851063148
4191000000.0 0.5614156817523607 -0.8293895167534686
4194000000.0 0.5214938062963268 -0.8416876969887779
4197000000.0 0.567316334741039 -0.8626438591889187
4200000000.0 0.563374133772749 -0.8678864033591922
4203000000.0000005 0.5525954758156084 -0.8687413686487284
4206000000.0000005 0.5797952381776341 -0.8715879159288931
4208999999.9999995 0.5613462324965603 -0.8502898319077767
4211999999.9999995 0.5301492500502685 -0.8659318581442513
4216000000.0 0.5574816066739336 -0.8615433421992531
4219000000.0000005 0.5659712222019634 -0.872288136891258
4222000000.0000005 0.5416261825785217 -0.8724864618565263
4224999999.9999995 0.557392109950787 -0.861096661601793
4227999999.9999995 0.537948830304566 -0.8710181515931074
4231000000.0 0.529226928076473 -0.8632171222171543
4234000000.0 0.5450656521950892 -0.8794840574000794
4238000000.0000005 0.5336109683618735 -0.8701198197384934
4240999999.9999995 0.5306172358963677 -0.8560060489999647
4244000000.0 0.5361067998722321 -0.8508318133487583
4247000000.0 0.5524110493048624 -0.854573552844498
4250000000.0 0.5098153326532291 -0.8458908991293971
4253000000.0 0.5285129689636477 -0.8541786925419126
4256000000.0 0.5587438314789199 -0.8911700428479815
4259000000.0000005 0.5183996878309637 -0.8380639759798144
4261999999.9999995 0.5266670045907039 -0.8623076518008173
4266000000.0 0.5060666450987733 -0.8901946772002556
4269000000.0 0.5434600797067999 -0.8722498225035653
4272000000.0000005 0.5609002908675181 -0.8596296172711262
4275000000.0000005 0.5411852657014005 -0.8522474786018293
4277999999.9999995 0.5522212412348452 -0.8788700924478337
4280999999.9999995 0.5535921671737155 -0.8688083660601501
4284000000.0 0.5157022051992997 -0.8887753528609474
4288000000.0000005 0.5737848957906992 -0.8508038380045437
4291000000.0000005 0.532449459611446 -0.8279620190091989
4293999999.9999995 0.5476947987216101 -0.8424733046661469
4297000000.0 0.5823981543897063 -0.8382472115491774
4300000000.0 0.5661506327372702 -0.8583979648559917
4303000000.0 0.5249450199169521 -0.8714015220203728
4306000000.0 0.5525771436873256 -0.847184053341213
4309000000.0 0.5495553109102483 -0.8824940461218865
4312000000.0 0.5705880452428744 -0.8520263387639176
4316000000.0 0.5590920051989654 -0.8744929475164687
4319000000.0 0.5425217518898364 -0.8375830258086507
4322000000.0 0.5286247365358602 -0.871963660029693
4325000000.0 0.547669887764415 -0.8477296857009584
4328000000.0 0.5314633976591818 -0.83906136168016
4331000000.0 0.5342186625367309 -0.8538951412003953
4334000000.0 0.5451826210105054 -0.8876550816518066
4338000000.0 0.5610675815426186 -0.8274814145612188
4341000000.0 0.5642512574827752 -0.8657404660490126
4344000000.0 0.5437765044836492 -0.9045187496821698
4347000000.0 0.5429077564674777 -0.8584477493961937
4350000000.0 0.5274188498569631 -0.8575170298779744
4353000000.0 0.5420557214683991 -0.8212438754890246
4356000000.0 0.4885781701510182 -0.8614869383944715
4359000000.0 0.5121491306075867 -0.8204769634537031
4362000000.0 0.4953009743816404 -0.8871235920427887
4366000000.0 0.5453960153159372 -0.8862566636646244
4369000000.0 0.5248578091743622 -0.8229217531558637
4372000000.0 0.48413824422107976 -0.88049306479751
4375000000.0 0.561242450367593 -0.8479505730876685
4378000000.0 0.5145366692156288 -0.8330738756470976
4381000000.0 0.5454319500015 -0.8434172096537338
4384000000.0 0.5621459213323726 -0.9248217623891258
4388000000.0 0.5388389164159197 -0.8385717756664637
4391000000.0 0.5478009192645159 -0.870759417149088
4394000000.0 0.5192878720380583 -0.8399359175073888
4397000000.0 0.5158857090292532 -0.8617780996253137
4400000000.0 0.5559131470066523 -0.8914859010439056
4403000000.0 0.5378211807024564 -0.869711097810179
4406000000.0 0.5209568343949277 -0.8840114647023682
4409000000.0 0.5443416300041987 -0.8893779167157436
4412000000.0 0.4847127934375299 -0.8649986428138597
4416000000.0 0.5032854820662506 -0.8513754028085274
4419000000.0 0.5256952995907089 -0.8736143019688708
4422000000.0 0.5413567025203463 -0.8464081782651482
4425000000.0 0.5721470804641438 -0.8617970764168006
4428000000.0 0.5278812700590222 -0.8700113458054176
4431000000.0 0.5356547601420503 -0.8662787429417494
4434000000.0 0.519131252353366 -0.8454373365591887
4438000000.0 0.5359233405965255 -0.885224374054634
4441000000.0 0.5493408331998549 -0.8744035854181931
4444000000.0 0.5217818076226682 -0.8441539441191644
4447000000.0 0.5001205654989327 -0.8592612688200865
4450000000.0 0.5280165922455551 -0.8502038020904117
4453000000.0 0.5542144287932176 -0.8933286786034547
4456000000.0 0.4997501567432423 -0.8416904217979737
4459000000.0 0.4664745989868942 -0.8445606920858315
4462000000.0 0.5412655977662522 -0.9021078787801049
4466000000.0 0.5287269772819523 -0.9064363459792237
4469000000.0 0.5405633457835022 -0.8560675106856717
4472000000.0 0.5100226813865297 -0.9011237273024313
4475000000.0 0.5125760033624064 -0.8496632343484786
4478000000.0 0.531736976751125 -0.912981876161957
4481000000.0 0.4966728062616521 -0.851523813485999
4484000000.0 0.48053933450622516 -0.8984960419969614
4488000000.0 0.4998292915358492 -0.8790637068602387
4491000000.0 0.5164816422562332 -0.8636961746438057
4494000000.0 0.5066058313044661 -0.8599458859782855
4497000000.0 0.5149162176525119 -0.854365702679368
4500000000.0 0.5166295368978727 -0.8720477206417734
4503000000.0 0.5248314304193713 -0.8784083144606847
4506000000.0 0.4891056881746925 -0.8719905645666932
4509000000.0 0.5123415395853044 -0.8535996148567377
4512000000.0 0.4902101794110062 -0.857007828619677
4516000000.0 0.538797311887237 -0.881306961838351
4519000000.0 0.5134427761915891 -0.857274203692903
4522000000.0 0.5086138575142376 -0.8818714811835706
4525000000.0 0.5550041184707628 -0.8530729282043406
4528000000.0 0.5313711543333948 -0.896884115119917
4531000000.0 0.550691629110611 -0.8671577587292884
4534000000.0 0.4951545496946609 -0.8459225079419882
4538000000.0 0.5154523764374446 -0.8657973682712893
4541000000.0 0.48705005006813323 -0.8713736981128654
4544000000.0 0.5078094127862841 -0.8531243596610868
4547000000.0 0.5241421539145577 -0.8606786981439225
4550000000.0 0.5087712309803827 -0.884858007696842
4553000000.0 0.509952480602809 -0.8751670236411577
4556000000.0 0.47835656486625033 -0.8543319969916545
4559000000.0 0.5073923990299605 -0.8793775550469631
4562000000.0 0.5205188971658784 -0.8700021022195448
4566000000.0 0.517483990868243 -0.8868147642815287
4569000000.0 0.49860048507663346 -0.8560210261217134
4572000000.0 0.510131367631087 -0.8666302221295938
4575000000.0 0.4819973245875958 -0.8843201823426106
4578000000.0 0.5396373130097791 -0.8939756434704179
4581000000.0 0.4997226142059919 -0.877181539751759
4584000000.0 0.4846070764884918 -0.8812488923465875
4588000000.0 0.5269124208751317 -0.8915049184072866
4591000000.0 0.5353912375063018 -0.8688071650065157
4594000000.0 0.49460764155352416 -0.8842874608657798
4597000000.0 0.487890892992548 -0.8945459812054487
4600000000.0 0.4709211287183095 -0.886622001305605
4603000000.0 0.5076147205125633 -0.8870646469247474
4606000000.0 0.5123637475543587 -0.8907964951233955
4609000000.0 0.4987694425345739 -0.886583259992199
4612000000.0 0.49865403054024876 -0.8922415989114348
4616000000.0 0.4843118964073887 -0.8757473981155272
4619000000.0 0.511428750231872 -0.8644735646492053
4622000000.0 0.5080319286056634 -0.8823787040618967
4625000000.0 0.46532906200926816 -0.8555460354223701
4628000000.0 0.5020078544866655 -0.8721265330436717
4631000000.0 0.488175885443645 -0.8951872384529183
4634000000.0 0.4970273135563559 -0.8783212442239823
4638000000.0 0.5112129339092113 -0.8619843225483427
4641000000.0 0.5128411499639538 -0.8737836090666419
4644000000.0 0.5030397528975469 -0.8988157300505858
4647000000.0 0.515899649305066 -0.8920756779061002
4650000000.0 0.4713421976627896 -0.8900306875767662
4653000000.0 0.504433346015861 -0.900609499703705
4656000000.0 0.484331814339867 -0.8920527775053183
4659000000.0 0.47194815716491334 -0.8709810856056531
4662000000.0 0.49980662940523557 -0.8828443814332815
4666000000.0 0.4844278623525491 -0.901328750432699
4669000000.0 0.5129726314375318 -0.8791044148709292
4672000000.0 0.4903068098092265 -0.9074461844797667
4675000000.0 0.47932746373030255 -0.892042036606548
4678000000.0 0.46038814795981964 -0.8777539817098569
4681000000.0 0.4612562392587503 -0.9014107947911323
4684000000.0 0.4524740174134948 -0.8969558269826293
4688000000.0 0.4673724995805921 -0.8848191068215489
4691000000.0 0.5284694035313465 -0.8769207364677862
4694000000.0 0.47979930751051547 -0.8670323671041392
4697000000.0 0.4721465362194927 -0.8566364197486491
4700000000.0 0.4805523057035562 -0.8743104522172558
4703000000.0 0.5162230369582692 -0.8358624342467299
4706000000.0 0.46389987014557676 -0.9038906137586681
4709000000.0 0.4694118802018495 -0.8852573092582888
4712000000.0 0.5030494979678555 -0.8934345129217238
4716000000.0 0.47941927303957194 -0.9104963392032465
4719000000.0 0.5274177599855431 -0.8893360160814073
4722000000.0 0.4983505118748389 -0.8786711673506707
4725000000.0 0.4930101972108644 -0.8852259416288362
4728000000.0 0.4751134901355301 -0.8872160492766743
4731000000.0 0.5112644644410022 -0.8912580778978586
4734000000.0 0.46930240820013336 -0.8515287358176343
4738000000.0 0.4923525584663755 -0.9038881856669917
4741000000.0 0.5100657760552338 -0.9265604218805036
4744000000.0 0.4748546544998113 -0.925405455577563
4747000000.0 0.49352717319922246 -0.8619889884537115
4750000000.0 0.4950559836662313 -0.9044232790752796
4753000000.0 0.5248262830853133 -0.9067217427054437
4756000000.0 0.4573679368843341 -0.8997625931180523
4759000000.0 0.4887653326470142 -0.8911997165853982
4762000000.0 0.46362106727832236 -0.9297883144222397
4766000000.0 0.4889654729251908 -0.9098725377473843
4769000000.0 0.49037685030115263 -0.9038457937371999
4772000000.0 0.5030315726332433 -0.9064749153015675
4775000000.0 0.4982882516585705 -0.9517823894480655
4778000000.0 0.49869768236100875 -0.9206822137606415
4781000000.0 0.49263003942475725 -0.88353002925504
4784000000.0 0.4950076136871182 -0.8732610822303026
4788000000.0 0.4688697446373725 -0.9081077036942989
4791000000.0 0.4805803017290049 -0.8981993450915802
4794000000.0 0.5253009201590679 -0.9069329587838966
4797000000.0 0.4763539233213102 -0.8629647098161402
4800000000.0 0.48392881769291324 -0.8937942797045118
4803000000.0 0.45338655047968107 -0.9024482470450305
4806000000.0 0.497646481793084 -0.923847841215421
4809000000.0 0.45109659870917607 -0.9069246136468085
4812000000.0 0.44884731926084476 -0.9117287861942118
4816000000.0 0.4845162108385368 -0.8681560145679453
4819000000.0 0.4908446163348758 -0.9153719962611114
4822000000.0 0.5269595104319249 -0.9114202695820177
4825000000.0 0.5167723854924711 -0.9037176407385528
4828000000.0 0.4813772587841285 -0.8964211436175495
4831000000.0 0.4618125779839735 -0.9608534112405132
4834000000.0 0.5031934385094647 -0.9022318555912958
4838000000.0 0.4677795018025751 -0.9272364572722184
4841000000.0 0.4690638957845902 -0.8936682922775182
4844000000.0 0.5003509463060845 -0.8904925090519991
4847000000.0 0.4899780237400606 -0.8657839664082829
4850000000.0 0.48336083154369713 -0.9321551922572611
4853000000.0 0.47162299458971274 -0.8841222454806265
4856000000.0 0.48025897884013746 -0.8852316477435964
4859000000.0 0.5241261301564868 -0.937851471350908
4862000000.0 0.5097293705173849 -0.8580015819162251
4866000000.0 0.4704066968801527 -0.9170814535188453
4869000000.0 0.4767495930432931 -0.8986198100966045
4872000000.0 0.4702734929611464 -0.9392439911308035
4875000000.0 0.5581272336929735 -0.9127495610160463
4878000000.0 0.48936118081741187 -0.923027212005895
4881000000.0 0.4895781107151063 -0.9703563432222058
4884000000.0 0.5219627524618583 -0.9177911010834987
4888000000.0 0.5296083150497044 -0.8879060486414262
4891000000.0 0.5248217599760838 -0.9044031769652474
4894000000.0 0.45303263113361253 -0.9054857762698598
4897000000.0 0.484448647319488 -0.8967114655026752
4900000000.0 0.49396556975543254 -0.9287866697067423
4903000000.0 0.5339501364279654 -0.9199868810454488
4906000000.0 0.5076804920043061 -0.945394980973875
4909000000.0 0.46852172675124026 -0.9242496090307744
4912000000.0 0.48289813959824684 -0.9293772531621327
4916000000.0 0.5177120303540824 -0.9179293457470247
4919000000.0 0.5364929706655654 -0.9347677074795435
4922000000.0 0.51636959560769 -0.8919311688743884
4925000000.0 0.46144056078828777 -0.9510196943846813
4928000000.0 0.5137800369922578 -0.8858664258395006
4931000000.0 0.5458320646761761 -0.9341464780866764
4934000000.0 0.47201641704277064 -0.8481590369061995
4938000000.0 0.47395855286197763 -0.9178491086332049
4941000000.0 0.48394307101619594 -0.897986470480538
4944000000.0 0.5181494677277607 -0.8322035048678322
4947000000.0 0.5011232703253676 -0.8845060359715623
4950000000.0 0.5029809505694565 -0.8754523038000884
4953000000.0 0.4790267589028463 -0.9565301499519097
4956000000.0 0.47135224991260516 -0.9255063940114674
4959000000.0 0.43631981855595237 -0.9049478576138595
4962000000.0 0.48821180027981453 -0.9327866789332622
4966000000.0 0.5251378854241386 -0.896667608631481
4969000000.0 0.5452651692685934 -0.9531216981035393
4972000000.0 0.5362867184220217 -0.9112908183137307
4975000000.0 0.5316696522169283 -0.8630842632968418
4978000000.0 0.5018125081340671 -0.8965993510314632
4981000000.0 0.5036279461006388 -0.9222816651951808
4984000000.0 0.5082573316308945 -0.8925034405151901
4988000000.0 0.5121840030395655 -0.879509629875928
4991000000.0 0.5675593872425712 -0.9201023368273087
4994000000.0 0.5193727666349052 -0.870441134301194
4997000000.0 0.4605822535817795 -0.9202885391769282
5000000000.0 0.5356894254962209 -0.9221031729219817
5003000000.0 0.5270056758901519 -0.9286537180037621
5006000000.0 0.5314996497703875 -0.9416322930448544
5009000000.0 0.4919159128856389 -0.9232325423810823
5012000000.0 0.508329300780375 -0.9154902950181802
5016000000.0 0.5623751719101716 -0.948162406400681
5019000000.0 0.48617658961462495 -0.8841445008604045
5022000000.0 0.5162053074870566 -0.9211374274192332
5025000000.0 0.5607390666889225 -0.9611038316576321
5028000000.0 0.4952322516764205 -0.9062891042244591
5031000000.0 0.4924473368384846 -0.8906387594384917
5034000000.0 0.49822646190854114 -0.9287256891544622
5038000000.0 0.48252331362589107 -0.8656477004395281
5041000000.0 0.5425877012175242 -0.8931078579342033
5044000000.0 0.5372992159680507 -0.859650515086005
5047000000.0 0.5260636120423305 -0.9189500491024063
5050000000.0 0.572647704626495 -0.8473185478941683
5053000000.0 0.5459157976233273 -0.9545711160261412
5056000000.0 0.5468599284943753 -0.8680799801095451
5059000000.0 0.5434721277805399 -0.8835952805426206
5062000000.0 0.496043911591481 -0.9266878065737516
5066000000.0 0.5262415182195366 -0.8631031391754066
5069000000.0 0.5371814661198866 -0.916961611231121
5072000000.0 0.5109197922495532 -0.8753236829352207
5075000000.0 0.5343840228547867 -0.9115983296499086
5078000000.0 0.4965222970269301 -0.9141532598386855
5081000000.0 0.46754750650523247 -0.8545566659575912
5084000000.0 0.5608601322234674 -0.9263086313160193
5088000000.0 0.5208619892172662 -0.891542798160828
5091000000.0 0.4967607473921087 -0.929015736500632
5094000000.0 0.489660210838807 -0.891315836818569
5097000000.0 0.5475843154064008 -0.9041099187831902
5100000000.0 0.47332019975302236 -0.8677431850782127
5103000000.0 0.5378713605348967 -0.9159970592097368
5106000000.0 0.534585590487719 -0.9388595719955346
5109000000.0 0.5905740326781421 -0.8795758431075733
5112000000.0 0.5284878976763553 -0.8764698512331259
5116000000.0 0.524876289792334 -0.865911863233197
5119000000.0 0.5028277844871322 -0.9452948741384501
5122000000.0 0.5037035816228632 -0.8512593937323745
5125000000.0 0.5357250978027803 -0.9032206522813292
5128000000.0 0.5239594676602297 -0.9095473260399378
5131000000.0 0.5102929882072577 -0.8823737165494246
5134000000.0 0.5421604628445957 -0.9039591826268187
5138000000.0 0.591801215363363 -0.8945301713097042
5141000000.0 0.5614089675477253 -0.8836741324943003
5144000000.0 0.6015343185503272 -0.9202523649977405
5147000000.0 0.5792467830954257 -0.8781564214222907
5150000000.0 0.5637572653393725 -0.9167989911193587
5153000000.0 0.5027848581763799 -0.8920332153110822
5156000000.0 0.5652644077761227 -0.8953769778097248
5159000000.0 0.5603500855599404 -0.9618122914245889
5162000000.0 0.48539086117076413 -0.8990287646230736
5166000000.0 0.5034150803958788 -0.916682815941418
5169000000.0 0.5686151393730009 -0.9154415094240899
5172000000.0 0.49457901189404735 -0.854476163737903
5175000000.0 0.5571289312867969 -0.9237961850319003
5178000000.0 0.5469407179748618 -0.9056071217850095
