! Created with skrf 1.8.0 (http://scikit-rf.org).
# Hz S RI R 50.0 
!freq ReS11 ImS11
4000000000.0 0.5011814078107767 -0.8325090689683897
4003000000.0 0.5604478861989507 -0.8908679564596045
4006000000.0 0.5522168805650286 -0.8524440110547736
4009000000.0000005 0.6162616979732556 -0.8857888721949845
4011999999.9999995 0.6434777747649392 -0.9150307143311851
4016000000.0 0.5466407702704956 -0.9061214412409954
4019000000.0 0.5355879569112736 -0.8668467215574777
4022000000.0000005 0.623626305277101 -0.8410860441909127
4025000000.0000005 0.5047580993625983 -0.9195070116536547
4027999999.9999995 0.5415848908757283 -0.9039954641288751
4030999999.9999995 0.514935132709257 -0.8561846044457583
4034000000.0 0.49529426193997617 -0.8655902638789282
4038000000.0000005 0.5336765548738411 -0.9074173288674448
4041000000.0000005 0.5791002917437008 -0.9054181858550657
4043999999.9999995 0.6001523005924588 -0.9156142287209448
4046999999.9999995 0.5782106396311549 -0.8520669303909911
4050000000.0 0.5391131082523768 -0.8885188181840213
4053000000.0 0.5078809514658335 -0.8608155334123855
4056000000.0 0.5372882985130527 -0.8775182141714256
4059000000.0 0.5716074502019324 -0.8414161677759001
4062000000.0000005 0.5289900325853694 -0.8774141452681837
4066000000.0 0.5247014895055124 -0.7885993613738737
4069000000.0 0.5519303590805043 -0.9193635183029818
4072000000.0 0.6258065389428157 -0.8572325348844916
4075000000.0 0.5906839979836968 -0.8739244838033837
4078000000.0000005 0.5484740974408782 -0.8994521940824364
4081000000.0000005 0.587961728857331 -0.846722669016551
4083999999.9999995 0.5341771117008673 -0.9145328462703388
4088000000.0 0.5769298584163953 -0.8433334751199442
4091000000.0 0.5541001475648616 -0.9448897906298989
4094000000.0000005 0.5569096334486969 -0.840849416361029
4097000000.0000005 0.5451764115189882 -0.8627068829006003
4099999999.9999995 0.554394531258646 -0.8779123723023113
4102999999.9999995 0.591577845993404 -0.8741682386935812
4106000000.0 0.5303663419557394 -0.8608772503327313
4109000000.0 0.5205257647992716 -0.8802121934746452
4112000000.0 0.5787395255398515 -0.854039694578285
4115999999.9999995 0.5561090225715541 -0.8607134083069523
4119000000.0 0.5664633702597445 -0.881985372058578
4122000000.0 0.5218833231267552 -0.8781704892857625
4125000000.0 0.5259263398786324 -0.9345159166421526
4128000000.0 0.5040587928170985 -0.8527033982211107
4131000000.0 0.5372873491661732 -0.8472530728333942
4134000000.0000005 0.5418213188320737 -0.8472251476044191
4138000000.0 0.5027213780035091 -0.8598784887125794
4141000000.0 0.5206053463210956 -0.8788533247978624
4144000000.0 0.5618889446698823 -0.8651280412827662
4147000000.0000005 0.5040733298729201 -0.8784690498797031
4150000000.0000005 0.548810790833138 -0.8945596519136246
4152999999.9999995 0.5437432227124963 -0.8814367174650355
4155999999.9999995 0.5629319035131412 -0.8792707386611573
4159000000.0 0.5452832796827696 -0.840767160546532
4162000000.0 0.5434202751738645 -0.8383230129541523
4166000000.0000005 0.5340001985270494 -0.893992723877629
4168999999.9999995 0.5421597814892226 -0.8838658672499028
4171999999.9999995 0.5444781297632453 -0.8640360846964218
4175000000.0 0.5764957949645765 -0.8747039564157734
4178000000.0 0.5681883584472899 -0.8654291511339343
4181000000.0 0.5460845528351322 -0.8934209096608183
4184000000.0 0.5460446476875376 -0.8527243509330981
4187999999.9999995 0.5163082056999844 -0.8765971693169383
4191000000.0 0.5871142548875699 -0.8496874630029498
4194000000.0 0.5386947801087553 -0.8599516735688832
4197000000.0 0.5722094646498448 -0.8698360071688741
4200000000.0 0.5916351634265528 -0.8518959870511991
4203000000.0000005 0.5764400327828574 -0.8472170718738695
4206000000.0000005 0.5637729565786743 -0.8810782075379618
4208999999.9999995 0.5439257518165331 -0.8530699781177569
4211999999.9999995 0.5365964857088886 -0.8680788127284066
4216000000.0 0.5654398929120039 -0.8514410569995984
4219000000.0000005 0.559038296871487 -0.8600275058172662
4222000000.0000005 0.5513235741737206 -0.8783935753834705
4224999999.9999995 0.5505800385504431 -0.8357986001076422
4227999999.9999995 0.5671987424165941 -0.8512094015529111
4231000000.0 0.5530689379352254 -0.8591729004395217
4234000000.0 0.5451044364839103 -0.866786147040325
4238000000.0000005 0.563633648302745 -0.8759599109538648
4240999999.9999995 0.5510998443043018 -0.8566219885044493
4244000000.0 0.5570823261959372 -0.8625182605056698
4247000000.0 0.5615425227996698 -0.8557146317485954
4250000000.0 0.5325226351823779 -0.8441581240034622
4253000000.0 0.546133478975979 -0.8382449239875736
4256000000.0 0.5481748468966572 -0.8870713768455535
4259000000.0000005 0.5254483650309988 -0.8404052604341511
4261999999.9999995 0.5216237910673961 -0.8745254883241891
4266000000.0 0.5286106838344267 -0.882137890585042
4269000000.0 0.5499228384287878 -0.8602545964041305
4272000000.0000005 0.5392480739209937 -0.8671943203680877
4275000000.0000005 0.563140476650474 -0.873731219468486
4277999999.9999995 0.5578904506433241 -0.8708395832293234
4280999999.9999995 0.567995975083635 -0.8493699680517866
4284000000.0 0.5395077901079891 -0.8491723209046166
4288000000.0000005 0.5679289071565026 -0.855608718874531
4291000000.0000005 0.5366137262362809 -0.8461484323399531
4293999999.9999995 0.5439984104823545 -0.8302486218197282
4297000000.0 0.5689068130138342 -0.8413302301408508
4300000000.0 0.549584790247996 -0.8536657327341428
4303000000.0 0.5366014721758335 -0.8578321190803616
4306000000.0 0.56428651422438 -0.8588039038376996
4309000000.0 0.5491714902064335 -0.8401098744306389
4312000000.0 0.5927272576503461 -0.8566793666660232
4316000000.0 0.5343533772326744 -0.8728674679035735
4319000000.0 0.5495679319782256 -0.8425857994654108
4322000000.0 0.5287395545927714 -0.8782612100413668
4325000000.0 0.5402414931640421 -0.8453093491466303
4328000000.0 0.5200350526754498 -0.8492601070876679
4331000000.0 0.5142689451234542 -0.8627622617663073
4334000000.0 0.5266060023392585 -0.8571393207936694
4338000000.0 0.5553467205759249 -0.8297936295538421
4341000000.0 0.600647651549555 -0.8616038628540242
4344000000.0 0.5744678385946278 -0.8860424123094282
4347000000.0 0.5406838296883402 -0.8732817057742243
4350000000.0 0.5444717098256263 -0.853630218707703
4353000000.0 0.5656749467799639 -0.8271562474869528
4356000000.0 0.532875907922024 -0.8828491463643293
4359000000.0 0.5182867626194927 -0.8078267074710477
4362000000.0 0.5017738430410504 -0.8802356556606061
4366000000.0 0.5604308550025355 -0.8774301059698456
4369000000.0 0.5304293784280141 -0.8451957739951592
4372000000.0 0.49614194221419083 -0.8680087817125632
4375000000.0 0.5302837293242366 -0.8521674088917436
4378000000.0 0.5454412270402098 -0.826353751237047
4381000000.0 0.547201739878268 -0.832383935443786
4384000000.0 0.5685252264704863 -0.9185653357718193
4388000000.0 0.5417396968480046 -0.8378189766423767
4391000000.0 0.5493527671841739 -0.8686976075026818
4394000000.0 0.5326016999919869 -0.8499011379118028
4397000000.0 0.5166229425428767 -0.8492035048726783
4400000000.0 0.5337283171669642 -0.8888020280019527
4403000000.0 0.5339905066957289 -0.8477242898098233
4406000000.0 0.5102631571975244 -0.8713776646340315
4409000000.0 0.5521935972627495 -0.883968688555237
4412000000.0 0.48787706935326336 -0.8829474554802517
4416000000.0 0.5162010867662995 -0.851828508808447
4419000000.0 0.5230975612715448 -0.8789574127002036
4422000000.0 0.538651315266081 -0.8523973556389844
4425000000.0 0.5669393713091777 -0.8620226763026537
4428000000.0 0.5231294385500961 -0.8655545033262546
4431000000.0 0.5545488910567529 -0.8660081435900949
4434000000.0 0.5205123951977675 -0.8550516139374451
4438000000.0 0.5532556435796873 -0.8670720595936003
4441000000.0 0.5544960678886506 -0.8724669986710734
4444000000.0 0.5211098745032137 -0.846550974908544
4447000000.0 0.514929106099163 -0.8593212560061474
4450000000.0 0.5359394961359427 -0.8409189532867121
4453000000.0 0.5473994794078937 -0.8617682466340901
4456000000.0 0.5075687335604753 -0.8417367340839998
4459000000.0 0.49910467940921954 -0.8306840338300276
4462000000.0 0.5512892080778068 -0.9051313152006522
4466000000.0 0.5522517560680088 -0.8874403806643154
4469000000.0 0.5538975293904436 -0.8549861308486213
4472000000.0 0.521621883414003 -0.889307935691042
4475000000.0 0.5191343517165378 -0.8308282447392091
4478000000.0 0.5349432703424342 -0.9108148555542305
4481000000.0 0.501124999678844 -0.8469125643886619
4484000000.0 0.5014226594435092 -0.8875268504093285
4488000000.0 0.501481557744672 -0.8580193521011837
4491000000.0 0.5110119594235508 -0.864729714716225
4494000000.0 0.5147338352277071 -0.860404389042021
4497000000.0 0.5480625808773251 -0.8402995999444185
4500000000.0 0.5469758453656737 -0.8660776759765549
4503000000.0 0.5418972212771899 -0.8729737935337816
4506000000.0 0.5142909493941695 -0.850908224492903
4509000000.0 0.5191299320994718 -0.8457762972428087
4512000000.0 0.4957880191837602 -0.8588643933201341
4516000000.0 0.5583890165830161 -0.8821990687605643
4519000000.0 0.5120208448660204 -0.8476195329644154
4522000000.0 0.5065396954890613 -0.8665473299417039
4525000000.0 0.5413506851497409 -0.848159578828468
4528000000.0 0.5304351572624569 -0.8862616473618024
4531000000.0 0.5377228294062621 -0.857719865607539
4534000000.0 0.501961450628442 -0.8696301539448588
4538000000.0 0.5118753444551853 -0.8636961976850207
4541000000.0 0.4843144439620739 -0.8975728074213507
4544000000.0 0.5012691063236155 -0.8315007519402178
4547000000.0 0.5365675243217493 -0.8433653428462625
4550000000.0 0.5008901818632903 -0.8914566566690063
4553000000.0 0.5224871944797572 -0.8870768448685884
4556000000.0 0.5044087668520569 -0.8604036582664643
4559000000.0 0.5018646983996533 -0.8868756392455488
4562000000.0 0.5187437618689705 -0.877531498603889
4566000000.0 0.5203430503386257 -0.8758483220406705
4569000000.0 0.5105136241866753 -0.8647792776477945
4572000000.0 0.5278956059287048 -0.8616230832175662
4575000000.0 0.5217255906345042 -0.890660116370287
4578000000.0 0.5288255478601698 -0.8817222350879682
4581000000.0 0.49791075330418333 -0.8841535831935334
4584000000.0 0.5070391447733358 -0.8637860366456247
4588000000.0 0.5304364011007265 -0.888327946487196
4591000000.0 0.5138763827255446 -0.8806192435572304
4594000000.0 0.49143056702494414 -0.896168158216309
4597000000.0 0.5183916740025498 -0.8997595769176003
4600000000.0 0.49587939290659316 -0.8804219046283628
4603000000.0 0.49748504933468113 -0.8738187304271335
4606000000.0 0.5121626029233937 -0.8778341035338786
4609000000.0 0.5209627581930393 -0.8739310226036615
4612000000.0 0.504085911631775 -0.8796479097957568
4616000000.0 0.48274817411737986 -0.8794764919416407
4619000000.0 0.5177719105856219 -0.8813427719294519
4622000000.0 0.49213092706673595 -0.8715065495727335
4625000000.0 0.47204791120504364 -0.8762539182365718
4628000000.0 0.5086120190725671 -0.8563571137567718
4631000000.0 0.4864092274201758 -0.8719319570417317
4634000000.0 0.508055695247459 -0.8624479979703639
4638000000.0 0.5084988050353567 -0.862877396696871
4641000000.0 0.5237983937983052 -0.8821688897872741
4644000000.0 0.5065917658680337 -0.8694248798766147
4647000000.0 0.5227182846516497 -0.8806512375939821
4650000000.0 0.4838965673991029 -0.8791969842411782
4653000000.0 0.523772230788859 -0.8862565016121067
4656000000.0 0.49427970030813567 -0.8785894482553379
4659000000.0 0.4986492992777124 -0.8810445447929813
4662000000.0 0.5056022798406749 -0.8776856882220846
4666000000.0 0.4938378566599792 -0.8974457181802228
4669000000.0 0.5099498883487328 -0.8929640225301928
4672000000.0 0.49961878488121836 -0.8907601562140222
4675000000.0 0.4878811134735346 -0.8936130830475552
4678000000.0 0.4775031267020247 -0.8633518658467556
4681000000.0 0.482710894558938 -0.8950899518456162
4684000000.0 0.48790221362983677 -0.9066792463239173
4688000000.0 0.46880430227525777 -0.8667483256537111
4691000000.0 0.5174982655837409 -0.9096739232380293
4694000000.0 0.5041250667146187 -0.8764255461507091
4697000000.0 0.46491361801995656 -0.8518900757798018
4700000000.0 0.4932371505272235 -0.8790440456693377
4703000000.0 0.5174533789273396 -0.8618060163866966
4706000000.0 0.5001146873088114 -0.8821651362023764
4709000000.0 0.481999716675455 -0.8933051187803571
4712000000.0 0.5117879665255591 -0.8921320451511354
4716000000.0 0.5181075056295137 -0.9139950379307703
4719000000.0 0.5194762662274842 -0.9004279955564394
4722000000.0 0.5159355329820378 -0.8893544044886224
4725000000.0 0.5059191593580069 -0.873491922518646
4728000000.0 0.46671590819481673 -0.8848498733255598
4731000000.0 0.5375304007988588 -0.9085192160686686
4734000000.0 0.5251281266844822 -0.8796981636838012
4738000000.0 0.5320695724396859 -0.9158143462796218
4741000000.0 0.5197018014001645 -0.9392690953133682
4744000000.0 0.45419934291779474 -0.9182716121187239
4747000000.0 0.49132291984384713 -0.8470238757212327
4750000000.0 0.5332380999087298 -0.8875705806068003
4753000000.0 0.5400306198299764 -0.8768848464566915
4756000000.0 0.4931246016511777 -0.8761546672831413
4759000000.0 0.5103169091825462 -0.8945669970979179
4762000000.0 0.46693762683541595 -0.9184397554247695
4766000000.0 0.5013735870403523 -0.887178217910945
4769000000.0 0.48886338635379434 -0.8975941367887732
4772000000.0 0.49475348917926154 -0.8810427370589777
4775000000.0 0.49646795964616275 -0.9415516896540168
4778000000.0 0.5155046140537833 -0.9018380281749052
4781000000.0 0.5027834628756762 -0.8918712189741824
4784000000.0 0.5280781449983092 -0.8805082461223382
4788000000.0 0.4699765633790426 -0.9084855281703971
4791000000.0 0.48067367890782964 -0.8763711441073865
4794000000.0 0.5129234674915142 -0.8891938998783875
4797000000.0 0.47377317611944736 -0.8673599400576207
4800000000.0 0.4813941016311486 -0.8608815183145199
4803000000.0 0.4634446075024682 -0.9148653718951274
4806000000.0 0.5002106657936718 -0.898079096681467
4809000000.0 0.45229403938401425 -0.9239120559392753
4812000000.0 0.4535489049682224 -0.9073337843342761
4816000000.0 0.5189060084494642 -0.8667072469596778
4819000000.0 0.5136725424094526 -0.9281355886489584
4822000000.0 0.5260577843212313 -0.9246745135410187
4825000000.0 0.5137243161866555 -0.9083222681033102
4828000000.0 0.5024569765661127 -0.9033138502306288
4831000000.0 0.47191284677549306 -0.9096689608624751
4834000000.0 0.5190862539595533 -0.888863640756747
4838000000.0 0.5009562185155931 -0.9250200575295932
4841000000.0 0.4838522029552824 -0.892389771164404
4844000000.0 0.5159740686347001 -0.8764132273032927
4847000000.0 0.518958091062067 -0.8698762325354619
4850000000.0 0.4910474369074346 -0.9325562121965741
4853000000.0 0.4871803831391175 -0.8609122885780839
4856000000.0 0.4650265009054821 -0.8958269492500328
4859000000.0 0.5002170061964154 -0.9454263190886001
4862000000.0 0.510828420259019 -0.8687916639676457
4866000000.0 0.488331465452124 -0.9199076797386498
4869000000.0 0.4973079104685012 -0.8992182694024797
4872000000.0 0.4845520830002865 -0.9548360747813344
4875000000.0 0.5791223163327722 -0.9055068384027778
4878000000.0 0.5115875203237432 -0.9149503282299587
4881000000.0 0.5178574741672292 -0.9952228260266832
4884000000.0 0.5138379200658428 -0.9171201198953636
4888000000.0 0.5489762337954562 -0.8905066783682484
4891000000.0 0.5413348381982477 -0.9273327485511166
4894000000.0 0.4683302015477211 -0.9155614720261885
4897000000.0 0.5078388775818808 -0.8698498028674921
4900000000.0 0.5196638976032112 -0.9275313320280273
4903000000.0 0.5398513341753287 -0.9120012417024558
4906000000.0 0.5056819012415475 -0.9233663450896931
4909000000.0 0.4867340370391533 -0.9270416385703449
4912000000.0 0.5459943500163663 -0.9187783826501944
4916000000.0 0.5498980736251254 -0.9363074036883078
4919000000.0 0.5676275156735462 -0.9042700690060038
4922000000.0 0.578343383286156 -0.8832817616324243
4925000000.0 0.501745939271965 -0.8854056753168231
4928000000.0 0.5515894066159255 -0.8459605475070626
4931000000.0 0.5225174133096835 -0.8818240138373274
4934000000.0 0.496950476982558 -0.8637866543475942
4938000000.0 0.49665870424720016 -0.9042179352808707
4941000000.0 0.5158064385067569 -0.8563567834790219
4944000000.0 0.4942352345471012 -0.8377529933680358
4947000000.0 0.5014153775037038 -0.8623552891946451
4950000000.0 0.48863466921263893 -0.8740419874783564
4953000000.0 0.5048267078351186 -0.9659303709621051
4956000000.0 0.5069943250341788 -0.9189861816017453
4959000000.0 0.43485308956044083 -0.8915082410988142
4962000000.0 0.5111207938281938 -0.9015552649447712
4966000000.0 0.5405102002838474 -0.9085990297259412
4969000000.0 0.5412182090939356 -0.936582611798621
4972000000.0 0.5091949386444834 -0.9107668687841449
4975000000.0 0.5176361037146935 -0.8638735233991164
4978000000.0 0.49522745602972046 -0.8921014022020269
4981000000.0 0.5100808834134571 -0.9366776953585128
4984000000.0 0.5017672381462535 -0.8769586483026952
4988000000.0 0.5289217436359891 -0.8809979713782319
4991000000.0 0.5920244724246075 -0.9069770847827988
4994000000.0 0.5166505708931537 -0.8993445035713576
4997000000.0 0.48939948502601605 -0.9130715461034189
5000000000.0 0.5466476693705548 -0.9108233845784066
5003000000.0 0.5614538851889397 -0.913209628643566
5006000000.0 0.5434559885254258 -0.9554177382115061
5009000000.0 0.5137927154975259 -0.88828241732561
5012000000.0 0.4849441367234597 -0.9129661371838043
5016000000.0 0.54318881701737 -0.8900011380871419
5019000000.0 0.5160501762145667 -0.9185904984552645
5022000000.0 0.5250059925362647 -0.9431167129716533
5025000000.0 0.5426071492367295 -0.9563789342790544
5028000000.0 0.49282801438831536 -0.9146881896211049
5031000000.0 0.526926915128642 -0.9076902462574568
5034000000.0 0.48705794112361406 -0.9704259754256541
5038000000.0 0.4822866083646762 -0.8723005943343325
5041000000.0 0.5290917947824666 -0.8806026665817819
5044000000.0 0.5248850666974767 -0.8230867453445538
5047000000.0 0.5540774233239136 -0.8893848367846621
5050000000.0 0.5792563559707425 -0.8119013073391039
5053000000.0 0.5440890707317964 -0.9309155366320498
5056000000.0 0.5647274760458095 -0.9076645377216805
5059000000.0 0.5940676125702893 -0.8796465835187526
5062000000.0 0.5212201043449107 -0.9363060848672271
5066000000.0 0.5456647672547472 -0.8633655496281412
5069000000.0 0.5247032799937849 -0.8700296989829237
5072000000.0 0.5420257334634428 -0.8560469107573323
5075000000.0 0.5473622730975303 -0.8749488407728023
5078000000.0 0.471871358478742 -0.9110615450047804
5081000000.0 0.4924164241820794 -0.8888638848568999
5084000000.0 0.5706538783533432 -0.9371236305568985
5088000000.0 0.533192870538896 -0.8644685469991962
5091000000.0 0.5222688177533307 -0.8932176098105188
5094000000.0 0.5249029124731236 -0.9052478629056206
5097000000.0 0.5970142813703612 -0.8819040949076336
5100000000.0 0.5172622692788644 -0.8767929465134716
5103000000.0 0.5094723816817659 -0.915381815612228
5106000000.0 0.5964871183943159 -0.9360936128876072
5109000000.0 0.5691388265064183 -0.8571629665757003
5112000000.0 0.538345900443051 -0.845681382759784
5116000000.0 0.5276145559785143 -0.8725369073653899
5119000000.0 0.5894742557831709 -0.9035109974091562
5122000000.0 0.531932840822764 -0.8686601587302702
5125000000.0 0.5398979387647443 -0.8664740241541014
5128000000.0 0.5425751698895209 -0.9060160810656016
5131000000.0 0.532734922718755 -0.8978835279601032
5134000000.0 0.552396681371145 -0.8693015671779836
5138000000.0 0.5241544818785648 -0.8933468182037672
5141000000.0 0.5502073736595426 -0.8583894442655531
5144000000.0 0.5576051750754802 -0.8895202868618588
5147000000.0 0.5076659638892345 -0.9078517379032406
5150000000.0 0.5729934157866967 -0.9114959807133785
5153000000.0 0.5443574207591979 -0.8860806075162064
5156000000.0 0.5608018106496833 -0.863291293728238
5159000000.0 0.5909582983025566 -0.9243495734786134
5162000000.0 0.5393995402492885 -0.9402818146307226
5166000000.0 0.5173235206437412 -0.8942108946786215
5169000000.0 0.5601638427829075 -0.9178375578694813
5172000000.0 0.5374597018356971 -0.857717182783896
5175000000.0 0.5930616037378772 -0.912808629872144
5178000000.0 0.546629202540155 -0.8902997518120566
