! Created with skrf 1.8.0 (http://scikit-rf.org).
# Hz S RI R 50.0 
!freq ReS11 ImS11
4000000000.0 0.5054795541422157 -0.8418128871819661
4003000000.0 0.5540398188330897 -0.8964253533374544
4006000000.0 0.5389344187645844 -0.939509419521681
4009000000.0000005 0.5681257208687192 -0.8799440181362284
4011999999.9999995 0.5882434768956488 -0.8603579096946872
4016000000.0 0.5020070379536217 -0.9003413728418426
4019000000.0 0.5237936261373621 -0.8551895455272416
4022000000.0000005 0.6234750133880683 -0.8164366720050802
4025000000.0000005 0.5162574890735461 -0.9494942043961997
4027999999.9999995 0.5021163601002423 -0.9248110476451664
4030999999.9999995 0.539409344800592 -0.858392967810597
4034000000.0 0.5349374410359429 -0.8595007794256969
4038000000.0000005 0.5352876543030706 -0.8773000404537683
4041000000.0000005 0.5602832199988674 -0.8800385473974681
4043999999.9999995 0.5861040377956912 -0.9460105056839148
4046999999.9999995 0.6037709541030924 -0.8988427968207098
4050000000.0 0.5037703791764827 -0.9160880253077613
4053000000.0 0.4934412562811439 -0.883061216124509
4056000000.0 0.5391397778916031 -0.8927015278445609
4059000000.0 0.5356455610678359 -0.8802221565883835
4062000000.0000005 0.5183229658079697 -0.9053787192136761
4066000000.0 0.5205082333557969 -0.8236938640938578
4069000000.0 0.5378095065024648 -0.9045870770265538
4072000000.0 0.5486389057704382 -0.8433090164880055
4075000000.0 0.6124714096171093 -0.8943151630130065
4078000000.0000005 0.5204365205066319 -0.901618933569635
4081000000.0000005 0.5669756049479739 -0.8898669899897607
4083999999.9999995 0.5027158156016257 -0.8970591131576109
4088000000.0 0.5378958621180775 -0.8152330045135417
4091000000.0 0.5643226721597654 -0.9445031110389468
4094000000.0000005 0.5177404754157208 -0.8634085141357283
4097000000.0000005 0.5470876600782109 -0.8542962881283547
4099999999.9999995 0.5428479732794734 -0.8609944540723217
4102999999.9999995 0.5720664637562581 -0.8780316587572423
4106000000.0 0.5335842166619943 -0.9312676066369558
4109000000.0 0.5206953752573106 -0.8883790998768123
4112000000.0 0.5318874439791343 -0.8921835703905433
4115999999.9999995 0.5558914734156374 -0.8832705188533383
4119000000.0 0.511861087385968 -0.861937530171565
4122000000.0 0.477184854734383 -0.8896712575081591
4125000000.0 0.5377313155312657 -0.9005812340065339
4128000000.0 0.5440297849769339 -0.857085438379765
4131000000.0 0.49530370093661685 -0.8388925690332997
4134000000.0000005 0.5499166970914782 -0.8785567558637721
4138000000.0 0.5206550870408537 -0.8541216890699888
4141000000.0 0.49710228015520497 -0.8742540038322999
4144000000.0 0.5451258167581743 -0.8702650393233732
4147000000.0000005 0.5409259923450432 -0.8945608465819976
4150000000.0000005 0.5287615381173413 -0.892030874978871
4152999999.9999995 0.5171429010560787 -0.8664316347637754
4155999999.9999995 0.5492145241141693 -0.8729811905964969
4159000000.0 0.5348993269078314 -0.8479246369851312
4162000000.0 0.5299020401642737 -0.8428552619936922
4166000000.0000005 0.5202241113730575 -0.8788205728327221
4168999999.9999995 0.5408484636941632 -0.8780915252182587
4171999999.9999995 0.537476249160526 -0.8764201017914586
4175000000.0 0.5518710751918506 -0.8663421587867847
4178000000.0 0.5314037325406956 -0.8885703678472501
4181000000.0 0.5231467550685396 -0.8553498858210012
4184000000.0 0.5212171591075697 -0.8716447274385177
4187999999.9999995 0.5211952951677721 -0.8703588977158847
4191000000.0 0.5581257605143691 -0.8232561182390628
4194000000.0 0.5242349851820919 -0.8713948605253516
4197000000.0 0.5360825302991982 -0.8840018344070205
4200000000.0 0.5387161528975914 -0.861490781940564
4203000000.0000005 0.5578750410431794 -0.8722581872758999
4206000000.0000005 0.562446509804561 -0.8898559482796942
4208999999.9999995 0.524976934001416 -0.8518367410720309
4211999999.9999995 0.5173584863365849 -0.8832544405258088
4216000000.0 0.53711553185386 -0.8583671157914309
4219000000.0000005 0.5526443142648743 -0.8697524641210546
4222000000.0000005 0.5357199095121778 -0.883292497509526
4224999999.9999995 0.5380100223001583 -0.8682292411514356
4227999999.9999995 0.5569094731812938 -0.8826266680431514
4231000000.0 0.5410433429681174 -0.8685473456266108
4234000000.0 0.5368397735290957 -0.8772600792477868
4238000000.0000005 0.5325615681400175 -0.8680688095532103
4240999999.9999995 0.5319428856912191 -0.8666113413528889
4244000000.0 0.547141883340398 -0.8549130897682904
4247000000.0 0.5436003939621892 -0.8690942144230164
4250000000.0 0.5275195763225744 -0.8544644937773831
4253000000.0 0.5250251256350494 -0.8388215165845065
4256000000.0 0.5290980869397637 -0.8825061179514534
4259000000.0000005 0.5075254572136227 -0.8561687367645758
4261999999.9999995 0.5150906356530233 -0.8821226777129831
4266000000.0 0.5087362744891275 -0.8850745032177992
4269000000.0 0.5474302583616468 -0.8669841163621153
4272000000.0000005 0.5203175882495663 -0.863791555387446
4275000000.0000005 0.5443326198942339 -0.8534272565971953
4277999999.9999995 0.5515846525695234 -0.87553433971231
4280999999.9999995 0.5466431594735615 -0.8770746246568818
4284000000.0 0.4996009505825782 -0.8865428555873862
4288000000.0000005 0.557400459523127 -0.8389080410777688
4291000000.0000005 0.530671839093268 -0.8719816003110421
4293999999.9999995 0.507479258678561 -0.8438129648747457
4297000000.0 0.5364441467705977 -0.8536381283197505
4300000000.0 0.5391407163141864 -0.8583370416451688
4303000000.0 0.5057939849447193 -0.8391915312104374
4306000000.0 0.5525781759792677 -0.8444273429667538
4309000000.0 0.5081717326541896 -0.8433036834984501
4312000000.0 0.586814007710218 -0.8415964881872494
4316000000.0 0.5581596977682465 -0.8831156555920499
4319000000.0 0.5211193814460554 -0.845541053866045
4322000000.0 0.5038561809555135 -0.8386908207398619
4325000000.0 0.5290049427686675 -0.8746763756857655
4328000000.0 0.5228621176736922 -0.8590686278331076
4331000000.0 0.48697104655327234 -0.863538200100929
4334000000.0 0.5285501264925055 -0.8759625724672696
4338000000.0 0.5517214371224792 -0.829398821130873
4341000000.0 0.5658249388242745 -0.851280277096431
4344000000.0 0.5590415518224697 -0.8765316106311765
4347000000.0 0.5260539157881207 -0.891871423756587
4350000000.0 0.4947202202238428 -0.8446316189550653
4353000000.0 0.5327405182733129 -0.8145454345544976
4356000000.0 0.5083173836247772 -0.8585689023316605
4359000000.0 0.5052320568166322 -0.8338691348915253
4362000000.0 0.49187724422727885 -0.884177523863907
4366000000.0 0.5306003094499101 -0.8627676743812831
4369000000.0 0.5072307249747943 -0.8302059786506921
4372000000.0 0.49134929279393497 -0.8785598924010799
4375000000.0 0.5444409859708781 -0.8648368620455942
4378000000.0 0.5075969236928051 -0.8364529134547358
4381000000.0 0.5393595009784157 -0.8434439018211554
4384000000.0 0.5306148947114224 -0.9019230379147971
4388000000.0 0.5237516545943994 -0.8251386519092399
4391000000.0 0.5191267584464853 -0.8731437704517679
4394000000.0 0.49920065788051005 -0.8583906638879273
4397000000.0 0.5083756279774256 -0.870547206493602
4400000000.0 0.5418420018262964 -0.8821075922839167
4403000000.0 0.5148056733950366 -0.8756650804636028
4406000000.0 0.4955002498949289 -0.8853639154081365
4409000000.0 0.5301051353601305 -0.9095570378565176
4412000000.0 0.46015065715397163 -0.8810381325001453
4416000000.0 0.5020015672055873 -0.8488201455737739
4419000000.0 0.5092156901977692 -0.8823459446159082
4422000000.0 0.5262303361275196 -0.8582810780353959
4425000000.0 0.5455052812839494 -0.869934138557737
4428000000.0 0.5020299358664989 -0.8645588883785892
4431000000.0 0.5307263364637165 -0.8816516316194596
4434000000.0 0.4957903486681669 -0.8627878135327919
4438000000.0 0.5354690476814938 -0.8813725495233269
4441000000.0 0.5129263327796105 -0.8861337560781517
4444000000.0 0.5167948147227681 -0.8464436397956304
4447000000.0 0.5061804755258413 -0.8576585471888274
4450000000.0 0.5117296392418951 -0.8517703142824862
4453000000.0 0.5279708136274146 -0.8893974171437383
4456000000.0 0.47498515830955534 -0.8539708723053019
4459000000.0 0.46702844540099175 -0.8489563516243557
4462000000.0 0.5362978289766079 -0.9230894824999335
4466000000.0 0.5281878217764435 -0.8897552103863493
4469000000.0 0.5345585913433937 -0.8614268604383775
4472000000.0 0.49283198324182675 -0.8986650679274423
4475000000.0 0.4948839688282573 -0.8437616579376466
4478000000.0 0.5153740067082444 -0.9012078789110951
4481000000.0 0.4770709077231001 -0.850291628598141
4484000000.0 0.45126179346270434 -0.8975566908522499
4488000000.0 0.4869432327210254 -0.8616445211617736
4491000000.0 0.5016481408090541 -0.8647646860637064
4494000000.0 0.4962008678123365 -0.8657174320200967
4497000000.0 0.5117549062514314 -0.8555861830053435
4500000000.0 0.5145179648392633 -0.8650592225045011
4503000000.0 0.5403813980643772 -0.8992131398356524
4506000000.0 0.484923306300313 -0.8860556391626021
4509000000.0 0.48414407120147146 -0.8586374521991215
4512000000.0 0.47685036626240307 -0.8541004521033599
4516000000.0 0.5226954135232023 -0.8949526652695327
4519000000.0 0.4965386706913744 -0.8462797186635242
4522000000.0 0.48866450786570087 -0.8720781583771419
4525000000.0 0.516037996832108 -0.8626875566241776
4528000000.0 0.5211081717916093 -0.91719956886216
4531000000.0 0.5175616130691993 -0.8580714100443032
4534000000.0 0.47696721154816446 -0.8484777613296444
4538000000.0 0.5085668492754514 -0.8646469314383634
4541000000.0 0.46545440340730565 -0.8768510575473275
4544000000.0 0.5243912539386634 -0.8744516243479648
4547000000.0 0.5152601400938626 -0.8493988473411621
4550000000.0 0.4820484855631649 -0.8928760591742917
4553000000.0 0.5007908185929504 -0.8876171275130444
4556000000.0 0.46581621326791994 -0.8727439293745629
4559000000.0 0.4766752498927427 -0.8772661109603055
4562000000.0 0.5004495139573616 -0.8807901199139403
4566000000.0 0.5017210816375514 -0.8745975074994541
4569000000.0 0.48501199068454437 -0.8762083088655944
4572000000.0 0.5027676893118831 -0.876402648968293
4575000000.0 0.46794574806706823 -0.8937401568775891
4578000000.0 0.5226920069989971 -0.8684503625160862
4581000000.0 0.4857035270762603 -0.9124553979752856
4584000000.0 0.4766120956079438 -0.8703313896151017
4588000000.0 0.5105739333894643 -0.8896928943866342
4591000000.0 0.5003857023587683 -0.8748224580707162
4594000000.0 0.4713726804049274 -0.8965158711359917
4597000000.0 0.48381922764397445 -0.8884496165037811
4600000000.0 0.47540579617079004 -0.8815434357281177
4603000000.0 0.4859394951872489 -0.8813159604890366
4606000000.0 0.49588678920855433 -0.8929879778690483
4609000000.0 0.48643300583110444 -0.8876242751383043
4612000000.0 0.4770996111433546 -0.9028927888337881
4616000000.0 0.4582414033647878 -0.8777043213690441
4619000000.0 0.4852692096906962 -0.8707418406138842
4622000000.0 0.4837012715163927 -0.886158437438214
4625000000.0 0.44509199487755985 -0.8742586745750318
4628000000.0 0.48506174364765486 -0.8691346758900895
4631000000.0 0.4602954814733853 -0.8918941458910857
4634000000.0 0.47509989742828557 -0.8872621914328203
4638000000.0 0.48534765881885034 -0.8888406072608034
4641000000.0 0.4829216016812541 -0.8829904864834484
4644000000.0 0.48405458513402977 -0.8883436717973437
4647000000.0 0.49482792170393763 -0.8895712236563561
4650000000.0 0.45464055699634326 -0.8821686355582746
4653000000.0 0.4981527457272516 -0.9011823246466015
4656000000.0 0.4597036536379441 -0.8958951532406392
4659000000.0 0.47078768701383333 -0.879686185324699
4662000000.0 0.48580339109717063 -0.8900615877981786
4666000000.0 0.47042646062463345 -0.8931288990820134
4669000000.0 0.5008731554178378 -0.8880527070704269
4672000000.0 0.4518858203626408 -0.904088653006308
4675000000.0 0.4642722999820734 -0.9131760993257215
4678000000.0 0.4761696136587256 -0.8842787076498763
4681000000.0 0.45803678454465524 -0.9134153791716273
4684000000.0 0.4704466602017427 -0.9150105487299294
4688000000.0 0.453830765730289 -0.8661644162658497
4691000000.0 0.4955428600767948 -0.8689034978354712
4694000000.0 0.48429817498136163 -0.8725640631280841
4697000000.0 0.4548337889380659 -0.862989921619841
4700000000.0 0.48821400427960326 -0.8935729242874894
4703000000.0 0.47656063687263334 -0.8544469293424287
4706000000.0 0.4761091902977837 -0.8979310042629486
4709000000.0 0.45884571511112365 -0.8957334613896103
4712000000.0 0.47654909909136745 -0.9072014695715797
4716000000.0 0.4839195778785981 -0.895923262773298
4719000000.0 0.5157480766425288 -0.8836945124085823
4722000000.0 0.4942839203529755 -0.8812977302986784
4725000000.0 0.4738114242592327 -0.8988458437164865
4728000000.0 0.4328760476661693 -0.8969828952313681
4731000000.0 0.5017054393869739 -0.8671659585450228
4734000000.0 0.4927795719115589 -0.8948136251403177
4738000000.0 0.5278951686044302 -0.9084816664457691
4741000000.0 0.44864317961487243 -0.9406506005304398
4744000000.0 0.4663545185290048 -0.9321593601757203
4747000000.0 0.4757012003079481 -0.8728949283768772
4750000000.0 0.46852808477779373 -0.8842439147465249
4753000000.0 0.4936047183665875 -0.9024753587179491
4756000000.0 0.47727531441714743 -0.8980483161381912
4759000000.0 0.4921313036736597 -0.9182558719307414
4762000000.0 0.4546154905636784 -0.9285482313937024
4766000000.0 0.4883815734262638 -0.8874077114079949
4769000000.0 0.48346204221597366 -0.909847922373051
4772000000.0 0.46705003015320923 -0.9206226383508969
4775000000.0 0.4761161598864132 -0.9409811533381155
4778000000.0 0.46899451786670504 -0.906032452909437
4781000000.0 0.48426397349726846 -0.88153797232712
4784000000.0 0.4899304389089926 -0.8814592337504964
4788000000.0 0.4396800670537355 -0.9110734670424722
4791000000.0 0.4622060298152917 -0.9028099031892362
4794000000.0 0.5076938354367545 -0.9474421215458755
4797000000.0 0.43034704516536515 -0.8936929553723139
4800000000.0 0.45049056474386495 -0.900534831355447
4803000000.0 0.42990036769359397 -0.9054533504519491
4806000000.0 0.4792959506138832 -0.9202661139365387
4809000000.0 0.4371270482601146 -0.908492324203327
4812000000.0 0.429928141065297 -0.9229274394300045
4816000000.0 0.47269089919679796 -0.8782207305195245
4819000000.0 0.5109893641243747 -0.9289941586020116
4822000000.0 0.5007058052515936 -0.9047698485569592
4825000000.0 0.5103615967965259 -0.9253576957486473
4828000000.0 0.45748422036084385 -0.896255983950859
4831000000.0 0.43367411964647007 -0.9340725283876418
4834000000.0 0.4872286992020135 -0.8954658339710334
4838000000.0 0.45156776643438695 -0.934731295333236
4841000000.0 0.45227765951188126 -0.8918164490828457
4844000000.0 0.5073130906339983 -0.8878513949656841
4847000000.0 0.4882949681627543 -0.8728248404051798
4850000000.0 0.46696340178629725 -0.9423464712375187
4853000000.0 0.44245223595142835 -0.8732866475526758
4856000000.0 0.44397279489821045 -0.8749628208040641
4859000000.0 0.4771650033228327 -0.9639691558245471
4862000000.0 0.4871830710624725 -0.8720898139988705
4866000000.0 0.4532013624800001 -0.9243163536107567
4869000000.0 0.46216212657676214 -0.9169241019545202
4872000000.0 0.46638500382428116 -0.9689564704846728
4875000000.0 0.5411872582318942 -0.9106045575467667
4878000000.0 0.4548987535198595 -0.9178724749452134
4881000000.0 0.45510093566347926 -1.02448365619519
4884000000.0 0.4894812994289873 -0.9138872070030762
4888000000.0 0.49911704482545277 -0.8897061666166105
4891000000.0 0.47403326586382327 -0.9225379256124355
4894000000.0 0.4730084470345551 -0.9070536068184804
4897000000.0 0.48853971102813154 -0.8821740382331514
4900000000.0 0.48455340574475886 -0.912547047045365
4903000000.0 0.49912211094518444 -0.9367530579182807
4906000000.0 0.46140460379907433 -0.9363077975209497
4909000000.0 0.46313124507541514 -0.9200081812024251
4912000000.0 0.47580745539470604 -0.955712195335749
4916000000.0 0.513204060395427 -0.8907589354022125
4919000000.0 0.5388243525499613 -0.8980708013623568
4922000000.0 0.5158602160786334 -0.9099490676029995
4925000000.0 0.4690816840742258 -0.893093837184533
4928000000.0 0.5361819343528212 -0.8615989417011799
4931000000.0 0.4854552285829563 -0.9013121992133273
4934000000.0 0.46559065836120883 -0.8882714672422611
4938000000.0 0.43082777856592763 -0.9484486130548833
4941000000.0 0.4735124624149078 -0.8644955065371264
4944000000.0 0.48305023710248696 -0.8372793599257715
4947000000.0 0.4838257742543509 -0.8974847967096737
4950000000.0 0.4829074766597238 -0.9056877703647586
4953000000.0 0.4655327040144377 -0.9354998801567087
4956000000.0 0.4377822819017617 -0.9259423243445876
4959000000.0 0.42174710517937763 -0.9065128192389136
4962000000.0 0.5077159075959014 -0.9556735431728234
4966000000.0 0.5340175395992627 -0.9261157318515497
4969000000.0 0.5009304476306367 -0.931908417277896
4972000000.0 0.46714157154000635 -0.908220443084321
4975000000.0 0.5158102280441035 -0.876487906971392
4978000000.0 0.46624179768772783 -0.8988189816173544
4981000000.0 0.47170263117878636 -0.9221036853403077
4984000000.0 0.4961659562839559 -0.8857116730778964
4988000000.0 0.492088805876871 -0.8977202617444069
4991000000.0 0.5612581552737731 -0.888410222195791
4994000000.0 0.48164258664991816 -0.9119872944469434
4997000000.0 0.4530941285882393 -0.9364278444467321
5000000000.0 0.4948149212037588 -0.9339361236254828
5003000000.0 0.494389694116651 -0.9289905283891393
5006000000.0 0.4738237282569849 -0.9477823508657619
5009000000.0 0.4909560384996192 -0.8861818403308537
5012000000.0 0.46592630804515467 -0.9347231188347148
5016000000.0 0.5355649450501495 -0.9298158366772558
5019000000.0 0.47729931775041046 -0.9198692095650747
5022000000.0 0.48549420161994833 -0.9005494267830642
5025000000.0 0.5289944153728179 -0.9658530950718027
5028000000.0 0.47559729771753856 -0.9339514910053031
5031000000.0 0.49079805577882135 -0.9438678001067985
5034000000.0 0.44327970710086045 -0.9661079337213464
5038000000.0 0.4477809920860793 -0.8749795994713088
5041000000.0 0.5212892015090307 -0.8921945486565637
5044000000.0 0.5242042492825657 -0.8674297354955206
5047000000.0 0.505548743800923 -0.9237394590970478
5050000000.0 0.5449315153289249 -0.8400091681947695
5053000000.0 0.48618174723169555 -0.9600899115345487
5056000000.0 0.5344453664126237 -0.940633719053122
5059000000.0 0.5380520949464223 -0.8982295260220674
5062000000.0 0.47448366676396203 -0.9292897138645662
5066000000.0 0.5189405414493907 -0.889232929926364
5069000000.0 0.5066296738335287 -0.9357531399837045
5072000000.0 0.48481649753171335 -0.8603215068372786
5075000000.0 0.4790532268309449 -0.9049255544963531
5078000000.0 0.49511203088946376 -0.9240719267020406
5081000000.0 0.4417143471123084 -0.883756118331032
5084000000.0 0.5051933537900135 -0.9444225573738247
5088000000.0 0.541073273891938 -0.8569455830363549
5091000000.0 0.46482590209564795 -0.9446201863297717
5094000000.0 0.5378277975863988 -0.8773489366966873
5097000000.0 0.5510842049180682 -0.9167582191997541
5100000000.0 0.450809588079017 -0.9007499872896818
5103000000.0 0.4617921594646281 -0.9563062341606969
5106000000.0 0.5347721737613729 -0.9239907793147251
5109000000.0 0.5518400147948016 -0.8361346014905422
5112000000.0 0.501981739652326 -0.948654472278788
5116000000.0 0.4856613353678529 -0.88944530511789
5119000000.0 0.4853296070578241 -0.8941384478401734
5122000000.0 0.5052633193806548 -0.9160759734896244
5125000000.0 0.5057053652942485 -0.8716179464187863
5128000000.0 0.49862682052556834 -0.875945908818952
5131000000.0 0.46824970003882255 -0.8827105320923199
5134000000.0 0.5258198627785045 -0.8911989014756733
5138000000.0 0.4987720863091503 -0.9032845184965623
5141000000.0 0.5163939177830627 -0.8870217919547461
5144000000.0 0.5422151129695044 -0.8897501005997802
5147000000.0 0.556404029141186 -0.9254545371834629
5150000000.0 0.563608201729962 -0.9217842747511762
5153000000.0 0.4880745993078593 -0.9182484553089074
5156000000.0 0.4957755890254895 -0.8729744959489494
5159000000.0 0.5595568534170792 -0.9534408880170684
5162000000.0 0.5197024975444453 -0.9597161658921654
5166000000.0 0.4843821702255025 -0.9270349839396964
5169000000.0 0.5343702376654874 -0.8964836149452555
5172000000.0 0.5041141010952412 -0.8822189232139983
5175000000.0 0.5169385808655573 -0.9158219907633874
