! Created with skrf 1.8.0 (http://scikit-rf.org).
# Hz S RI R 50.0 
!freq ReS11 ImS11
4000000000.0 0.954710382747656 -0.39984693362339147
4003000000.0 0.9904223676799293 -0.4708706521649415
4006000000.0 0.9387786483133048 -0.5007493727988639
4009000000.0000005 0.9192488855719899 -0.4185083621960514
4011999999.9999995 0.9484904014721727 -0.43159675889229443
4016000000.0 0.9334541215692166 -0.4165828292434255
4019000000.0 0.9158270537548888 -0.4769671247733546
4022000000.0000005 0.966935019253678 -0.388028590416299
4025000000.0000005 0.9248849584619026 -0.5367335041059673
4027999999.9999995 0.9634047960719552 -0.4566244912113059
4030999999.9999995 0.9316297781831928 -0.4791241915815596
4034000000.0 0.9631097184433168 -0.47413969932873234
4038000000.0000005 0.9195822109244545 -0.48162225080106474
4041000000.0000005 0.9357858503907088 -0.4717543431891924
4043999999.9999995 1.0075957621954046 -0.5300004170686535
4046999999.9999995 0.9765069175784371 -0.39761597977721774
4050000000.0 0.9507016438929543 -0.5425298053470915
4053000000.0 0.8757483549323635 -0.48339493394334226
4056000000.0 0.9097078476267015 -0.49649393792358254
4059000000.0 0.9199108301361193 -0.45331196520353223
4062000000.0000005 0.9285945290799685 -0.4792583980599531
4066000000.0 0.8482561637912492 -0.4282642172928422
4069000000.0 0.9636550349762212 -0.4607763532201026
4072000000.0 0.9883186366526212 -0.41905634453965124
4075000000.0 0.9918525522256657 -0.44008579335936593
4078000000.0000005 0.9357083622763775 -0.4899899863182316
4081000000.0000005 0.9946454501739344 -0.43435001674786033
4083999999.9999995 0.9152611365861159 -0.4792026548267418
4088000000.0 0.9779723464651949 -0.4502664461513218
4091000000.0 0.9967369796498682 -0.4980301254793001
4094000000.0000005 0.9646723237400007 -0.4648439361701
4097000000.0000005 0.9383006822604253 -0.46225693972723253
4099999999.9999995 0.8954505786200341 -0.4655347678385354
4102999999.9999995 0.9463475420973466 -0.46473100747759993
4106000000.0 0.9121686362784289 -0.47487687169141046
4109000000.0 0.9133150708345418 -0.5208148621078961
4112000000.0 0.92512183153541 -0.46644133792155146
4115999999.9999995 0.985226693450581 -0.43594668720964813
4119000000.0 0.9003992038669713 -0.5041419852254319
4122000000.0 0.9551788774107106 -0.5214978731015772
4125000000.0 0.9502985198172976 -0.5642097608945926
4128000000.0 0.905007097221119 -0.4477167016764098
4131000000.0 0.938823743910198 -0.4378474409008958
4134000000.0000005 0.9170146746625132 -0.44722838383116675
4138000000.0 0.8872567167046571 -0.49791623195353685
4141000000.0 0.8506708694708826 -0.5457701594262576
4144000000.0 0.9286614165569196 -0.4762508159843763
4147000000.0000005 0.8653799147403753 -0.4842148995807861
4150000000.0000005 0.9438640302952169 -0.49004298984493616
4152999999.9999995 0.9247904021074763 -0.5221577302173985
4155999999.9999995 0.9028151443288767 -0.4910657107787863
4159000000.0 0.9257169512247292 -0.4752760908154068
4162000000.0 0.9040736717538899 -0.4937369708539251
4166000000.0000005 0.9130330217859551 -0.5018082207891814
4168999999.9999995 0.8791007656050396 -0.507048373039823
4171999999.9999995 0.9215265104862981 -0.4664743247129016
4175000000.0 0.9094798408966828 -0.4727412356507769
4178000000.0 0.9508623584439636 -0.4868948101017844
4181000000.0 0.9786794519209252 -0.4763296997063751
4184000000.0 0.9419531208574816 -0.485267866830489
4187999999.9999995 0.9648520714357827 -0.5103608915841578
4191000000.0 0.9231637184113315 -0.39619509610120873
4194000000.0 0.8898379057256126 -0.4760902656991708
4197000000.0 0.9062074516556483 -0.4924896079048411
4200000000.0 0.9375290711584018 -0.46579533939125595
4203000000.0000005 0.8834243532470158 -0.46533925859311087
4206000000.0000005 0.9088380535306794 -0.4842710532355895
4208999999.9999995 0.9240274539657991 -0.49557035833793306
4211999999.9999995 0.9019039234801083 -0.5097861173698913
4216000000.0 0.9030409594345556 -0.4719182328274889
4219000000.0000005 0.8992315443662997 -0.4784661212104053
4222000000.0000005 0.9201647643711454 -0.513431342927003
4224999999.9999995 0.9073643190107865 -0.45051374301180336
4227999999.9999995 0.9361669664130665 -0.4929046631473285
4231000000.0 0.9040217968865512 -0.47634184498345217
4234000000.0 0.9220494168779765 -0.47535649022393744
4238000000.0000005 0.9202302985169104 -0.4862104133327666
4240999999.9999995 0.9160093339666804 -0.5068841111907663
4244000000.0 0.9097689144054779 -0.4478438286495038
4247000000.0 0.9313237225218314 -0.47513739328026394
4250000000.0 0.9209047066446606 -0.5136077153483869
4253000000.0 0.8724295917934676 -0.4533726191086959
4256000000.0 0.9010248496800839 -0.4924440836928289
4259000000.0000005 0.8840628189924096 -0.47986886324685685
4261999999.9999995 0.9014344054419252 -0.49137321425137587
4266000000.0 0.906442382063003 -0.500368535160399
4269000000.0 0.9265952874419789 -0.48602034746482636
4272000000.0000005 0.8918725413717528 -0.5016704147698894
4275000000.0000005 0.8932435994790962 -0.5013123026181046
4277999999.9999995 0.8850231428183051 -0.4754266293352778
4280999999.9999995 0.8991887391015838 -0.47344053645248335
4284000000.0 0.8805767170793057 -0.5227502074327255
4288000000.0000005 0.896424295966946 -0.4702536678771013
4291000000.0000005 0.9089771451162626 -0.4593527106128594
4293999999.9999995 0.8846717271778178 -0.4654891811041681
4297000000.0 0.887470934670704 -0.4781871153383506
4300000000.0 0.8927240733234872 -0.5035919129439776
4303000000.0 0.8940333230225701 -0.47306490905299187
4306000000.0 0.8936498081981179 -0.4832585159936049
4309000000.0 0.893564629792428 -0.48449475374815165
4312000000.0 0.918585166015792 -0.4752287912541554
4316000000.0 0.9377365234220487 -0.46125917543016803
4319000000.0 0.8803753981947051 -0.4824196541575221
4322000000.0 0.8969254890218621 -0.49761980344623485
4325000000.0 0.8951952684966762 -0.49075696757450893
4328000000.0 0.90530378254895 -0.5067552595294946
4331000000.0 0.888779573847762 -0.5308257737991324
4334000000.0 0.8974632232729088 -0.49421625396367275
4338000000.0 0.885564548539721 -0.4844196244432583
4341000000.0 0.9268005757489794 -0.4746932195314958
4344000000.0 0.8994443718489026 -0.46750983206886654
4347000000.0 0.9006748639855874 -0.5044802655161494
4350000000.0 0.8404710729732312 -0.5027187626945999
4353000000.0 0.8728926482982307 -0.4798401814982759
4356000000.0 0.9009686081561877 -0.516985279970434
4359000000.0 0.8357006856946624 -0.48951253378049164
4362000000.0 0.86553848546077 -0.5255487378734505
4366000000.0 0.9149351421437296 -0.5317649669293855
4369000000.0 0.8507906166425143 -0.45888801659203104
4372000000.0 0.8632737834550557 -0.5326281932045458
4375000000.0 0.8884251998358128 -0.5080598529408631
4378000000.0 0.9142169777378066 -0.5007207424199194
4381000000.0 0.8992767633784866 -0.4706828685695794
4384000000.0 0.9147285079366363 -0.5152375271848643
4388000000.0 0.8885231865434253 -0.48245272158885444
4391000000.0 0.8843978349066701 -0.500018235428124
4394000000.0 0.8466023348476043 -0.48287881793377746
4397000000.0 0.8746969212252809 -0.5127390530832232
4400000000.0 0.9132432795187451 -0.5035880626581549
4403000000.0 0.8899676557957588 -0.5080522775038598
4406000000.0 0.855350780769214 -0.5321713543352298
4409000000.0 0.9202870932875817 -0.49771792819189165
4412000000.0 0.8507315243802963 -0.550601998717134
4416000000.0 0.8451250548402285 -0.5135395099352098
4419000000.0 0.857203593981678 -0.5215650772931192
4422000000.0 0.8742319908247491 -0.492634626392201
4425000000.0 0.896296915191392 -0.49171900766559307
4428000000.0 0.876287021527363 -0.5192844446370294
4431000000.0 0.9101015176281039 -0.5229735090034933
4434000000.0 0.8679641122464135 -0.512025393245988
4438000000.0 0.8946921365397446 -0.5311397261329138
4441000000.0 0.9033641365290611 -0.48915966960873625
4444000000.0 0.8695412528184939 -0.48935787625358584
4447000000.0 0.8616468621995661 -0.5079262435808694
4450000000.0 0.8685105235084399 -0.4937081310159641
4453000000.0 0.8930258654725074 -0.5246442652702452
4456000000.0 0.8403721761408987 -0.5012248247071976
4459000000.0 0.8221946202910452 -0.5111765929188518
4462000000.0 0.925000942344792 -0.5325555603535299
4466000000.0 0.8898195697431063 -0.5416235519382772
4469000000.0 0.8802476004475093 -0.4965675002110619
4472000000.0 0.8897242745816033 -0.5537478872001527
4475000000.0 0.8511532377392863 -0.505910456791388
4478000000.0 0.9184301983315288 -0.5704682705590834
4481000000.0 0.8526754927914442 -0.525878063928732
4484000000.0 0.8270531158304997 -0.5447914714460439
4488000000.0 0.8445060399887375 -0.5156718484674625
4491000000.0 0.8641736008345371 -0.5260087911319216
4494000000.0 0.8443369768210295 -0.5151686550985958
4497000000.0 0.8538778387613196 -0.5184129686586025
4500000000.0 0.8724243627334269 -0.4977435383563732
4503000000.0 0.8832346184441897 -0.5236389879503337
4506000000.0 0.8596705724396506 -0.535085527702885
4509000000.0 0.8544974302987475 -0.5232722011769912
4512000000.0 0.8368599406172031 -0.521123386001654
4516000000.0 0.884490415107908 -0.5231842324944564
4519000000.0 0.844562907199335 -0.49785715560344146
4522000000.0 0.8418405726574406 -0.5564333553499367
4525000000.0 0.8880646956496399 -0.4850485823264473
4528000000.0 0.8884620435417188 -0.5556105700191039
4531000000.0 0.8625575229786174 -0.4986099722692237
4534000000.0 0.8629670546084365 -0.5045109924760136
4538000000.0 0.8524056751620626 -0.5506219926624544
4541000000.0 0.8407338510234027 -0.5767517073420761
4544000000.0 0.8558945505457255 -0.5057673235057937
4547000000.0 0.8538297405722113 -0.4994890707397538
4550000000.0 0.856884394808122 -0.5550051000576072
4553000000.0 0.8597497368041687 -0.523769934366748
4556000000.0 0.7989610013594457 -0.5513535158402318
4559000000.0 0.8387642299045385 -0.5577285593548862
4562000000.0 0.8731312574980327 -0.5183100127740432
4566000000.0 0.8549094721446086 -0.5490887431966799
4569000000.0 0.8283349602373541 -0.5393793419589348
4572000000.0 0.8414717996829423 -0.5326502322346596
4575000000.0 0.8566834538686673 -0.563593107734746
4578000000.0 0.883894477692273 -0.5423439819499666
4581000000.0 0.8495770098445335 -0.5701842647766686
4584000000.0 0.8334340947555794 -0.5379670135431044
4588000000.0 0.8644687135915432 -0.5238284928075205
4591000000.0 0.8625357130333217 -0.5273193413735862
4594000000.0 0.8231901111821078 -0.5547406147846372
4597000000.0 0.8616425005650739 -0.5440340356608248
4600000000.0 0.7972194732455394 -0.567060405466168
4603000000.0 0.867447244448859 -0.5631716402771128
4606000000.0 0.8347617158058219 -0.5494760988495445
4609000000.0 0.8370611340800979 -0.5709655705755503
4612000000.0 0.8648422724435088 -0.5847631424513422
4616000000.0 0.8423811402486316 -0.5644613572906891
4619000000.0 0.8679095243237751 -0.548083150575473
4622000000.0 0.8636108066771774 -0.5370288508102407
4625000000.0 0.7847655184320691 -0.5283066357532131
4628000000.0 0.8054519808794558 -0.5091068836853907
4631000000.0 0.8153699196332249 -0.571500268168748
4634000000.0 0.8601218351710291 -0.5454424943095595
4638000000.0 0.8562728707465398 -0.5621021909458412
4641000000.0 0.8627899439855584 -0.5442962585263155
4644000000.0 0.8286894635547637 -0.552052280961172
4647000000.0 0.8676740433648804 -0.5689348950583353
4650000000.0 0.818405716603111 -0.57683564817902
4653000000.0 0.8539800053897484 -0.560229991842619
4656000000.0 0.8158000596319139 -0.5879725696716669
4659000000.0 0.8409718485069777 -0.5487180560136538
4662000000.0 0.8412477458828881 -0.5601477988296167
4666000000.0 0.8320825974888283 -0.5647603885129286
4669000000.0 0.8523687859660208 -0.5619526307104354
4672000000.0 0.8101088343681616 -0.5835811063360057
4675000000.0 0.7922363996964137 -0.584735996805945
4678000000.0 0.8207021182769616 -0.5737438304018438
4681000000.0 0.834917450339681 -0.6015649121841936
4684000000.0 0.7970906413576995 -0.5902282439115816
4688000000.0 0.8387930005536891 -0.5671494470837908
4691000000.0 0.8183555537755925 -0.5423227934573394
4694000000.0 0.818120387021185 -0.5874654271012448
4697000000.0 0.7983402969274676 -0.565956842461204
4700000000.0 0.8443613080800252 -0.5712524518856236
4703000000.0 0.8405500174002453 -0.5891111087785263
4706000000.0 0.8302898765790977 -0.5899399512916405
4709000000.0 0.8095134421999168 -0.5904070222444834
4712000000.0 0.8084471018874784 -0.5781002104280054
4716000000.0 0.8179161449865676 -0.5734757822773294
4719000000.0 0.8263308599597783 -0.5836518915768449
4722000000.0 0.8077206302356346 -0.579475030397597
4725000000.0 0.8479886127020997 -0.5936237391109596
4728000000.0 0.8157428711367299 -0.5875505263190779
4731000000.0 0.8303736675905075 -0.584006602332743
4734000000.0 0.8203078786066802 -0.5745230173987981
4738000000.0 0.8264040770766318 -0.5672472734134443
4741000000.0 0.8414702732897239 -0.5704414450845716
4744000000.0 0.8090177368401456 -0.6351711376803889
4747000000.0 0.7981449259240123 -0.56244386979386
4750000000.0 0.8102945556453107 -0.6090461225613029
4753000000.0 0.8229980067399412 -0.6000404158010518
4756000000.0 0.8183217265089189 -0.5933579165610008
4759000000.0 0.8331502840661288 -0.6133626669242683
4762000000.0 0.8297050292988848 -0.5975282457412829
4766000000.0 0.8171823401024465 -0.5648768736489065
4769000000.0 0.8404689389644572 -0.609206545114995
4772000000.0 0.8169348014373415 -0.5989635092350158
4775000000.0 0.8052828230713653 -0.6400969119446198
4778000000.0 0.8325875539796824 -0.5782659933274585
4781000000.0 0.8290579065564427 -0.5495599647925518
4784000000.0 0.8473339272556281 -0.5559556744455258
4788000000.0 0.8232795769252921 -0.6017881515379477
4791000000.0 0.8171830869962635 -0.6111053976294751
4794000000.0 0.8210933683743304 -0.6073268850303741
4797000000.0 0.8229872671420911 -0.6186816668257896
4800000000.0 0.7826479621361682 -0.5913953837299323
4803000000.0 0.7906722232227029 -0.5921579667250847
4806000000.0 0.8148474949787943 -0.5948736201630705
4809000000.0 0.8128380583941304 -0.6081903776147244
4812000000.0 0.7906029905842467 -0.6190602964680813
4816000000.0 0.8331016453662645 -0.6104266356551626
4819000000.0 0.8245127956848417 -0.6042377961396455
4822000000.0 0.8206995075248293 -0.6200620713930586
4825000000.0 0.8492767152291814 -0.600052263536586
4828000000.0 0.8125935864084434 -0.5970550179764551
4831000000.0 0.8075647825076239 -0.6514931506682817
4834000000.0 0.830934407434841 -0.6097260841467493
4838000000.0 0.8121060304713352 -0.6259176111274077
4841000000.0 0.8063072659332695 -0.6101085380476392
4844000000.0 0.8229010655079975 -0.5931280519546424
4847000000.0 0.8227419267664822 -0.5909587062684626
4850000000.0 0.8454647067551659 -0.6283284515268664
4853000000.0 0.7993654312398655 -0.6227167393687183
4856000000.0 0.8210597865001603 -0.6129012616318094
4859000000.0 0.8325744566005936 -0.6497100458872017
4862000000.0 0.8252940364627788 -0.5847057764203171
4866000000.0 0.8212774439299445 -0.6226233268561521
4869000000.0 0.7961139342631035 -0.6192157077242761
4872000000.0 0.786775806672538 -0.6621003263719709
4875000000.0 0.8742427285416424 -0.606273271353243
4878000000.0 0.814693829904461 -0.6333290449261134
4881000000.0 0.8418579041048031 -0.6551347532503513
4884000000.0 0.8186978067129762 -0.6164410967063043
4888000000.0 0.8332128655207853 -0.5980594215819177
4891000000.0 0.84328589337096 -0.6195320185565072
4894000000.0 0.8099813809834897 -0.6451297860248706
4897000000.0 0.8229255388981633 -0.5824752030212159
4900000000.0 0.8401252839726365 -0.6308406042970804
4903000000.0 0.8352686264609626 -0.6156109429862158
4906000000.0 0.8405905622530028 -0.6291160301401357
4909000000.0 0.8230532839868634 -0.6391371350344617
4912000000.0 0.8385572330767421 -0.6490248473777331
4916000000.0 0.8275352763590962 -0.6456993854849902
4919000000.0 0.8684672326054834 -0.5958000928829571
4922000000.0 0.8492197420309684 -0.5939523566096662
4925000000.0 0.7983600709704433 -0.619362131149661
4928000000.0 0.8421654311391389 -0.5956523789677458
4931000000.0 0.859451546442884 -0.6132248621901676
4934000000.0 0.8110928098757574 -0.6005460467809653
4938000000.0 0.8197971725902591 -0.6264118596225379
4941000000.0 0.7919078340932166 -0.6115468417418832
4944000000.0 0.7866284996418036 -0.5539287771635298
4947000000.0 0.7890846161569062 -0.6104246537134751
4950000000.0 0.8029099484869682 -0.6111163402042008
4953000000.0 0.8151726645093931 -0.6734918660271311
4956000000.0 0.8030892052522336 -0.6656166068163266
4959000000.0 0.783725177783969 -0.6487170627620451
4962000000.0 0.8202770834556901 -0.6415208793875213
4966000000.0 0.8701671795727614 -0.634218576849956
4969000000.0 0.8545491802788399 -0.6617104736956727
4972000000.0 0.8031151272768652 -0.6565675698000253
4975000000.0 0.8205044451595029 -0.5830938987956685
4978000000.0 0.7852987409034051 -0.6267473700198938
4981000000.0 0.7972410278933503 -0.6535309842510548
4984000000.0 0.7872342085706017 -0.6108105316725431
4988000000.0 0.8187784177491216 -0.5992006642012798
4991000000.0 0.8810928235576441 -0.5894619487749089
4994000000.0 0.8339956501380696 -0.6120490070828666
4997000000.0 0.77189084980162 -0.6464850098254882
5000000000.0 0.861223552029576 -0.6352288109095936
5003000000.0 0.8665484247327429 -0.6307154981760139
5006000000.0 0.8634912808255932 -0.6823289408634186
5009000000.0 0.8203713909860675 -0.5984764487781145
5012000000.0 0.7966186480525779 -0.6064948329235192
5016000000.0 0.861026942611506 -0.6261811693249342
5019000000.0 0.7961246426894635 -0.6444428205038933
5022000000.0 0.8137782200542144 -0.6336743486159638
5025000000.0 0.8851091790699692 -0.6820118039482572
5028000000.0 0.8234296334521416 -0.6539658934267998
5031000000.0 0.8419969090241526 -0.6270940170666385
5034000000.0 0.7837055096093232 -0.6738609010748395
5038000000.0 0.7787041142644421 -0.6284365242028177
5041000000.0 0.8609876389664273 -0.5943413670927347
5044000000.0 0.817948542146499 -0.588912705185096
5047000000.0 0.8670291910512349 -0.6049880811081444
5050000000.0 0.8172697303743665 -0.5475713378490524
5053000000.0 0.8634812866185857 -0.6833096492707396
5056000000.0 0.8551841526747439 -0.5721289392657688
5059000000.0 0.8801167417631182 -0.5725386187456523
5062000000.0 0.8359597531960382 -0.6394988593625122
5066000000.0 0.8212255393355891 -0.5789644707769408
5069000000.0 0.8494862625470149 -0.6622212594322139
5072000000.0 0.7778469074944893 -0.6198120056777725
5075000000.0 0.8477116879161735 -0.5915390011011005
5078000000.0 0.8324306462093926 -0.6733376473052531
5081000000.0 0.8088654735247977 -0.633846761422142
5084000000.0 0.8411023786354259 -0.6740219107487547
5088000000.0 0.7953750705742243 -0.5863899754181375
5091000000.0 0.8186346369468451 -0.6617837732529848
5094000000.0 0.8527813964512926 -0.6433159819591084
5097000000.0 0.8780217829066657 -0.593039613199718
5100000000.0 0.8052330028154552 -0.6078111625938108
5103000000.0 0.8273783461806117 -0.6060725893380845
5106000000.0 0.9187244030636083 -0.6263674883504302
5109000000.0 0.8587499768034401 -0.546756417341371
5112000000.0 0.8077964631114372 -0.5743438687337606
5116000000.0 0.7942763285064561 -0.5809293846241171
5119000000.0 0.8290648184810491 -0.6483457184813783
5122000000.0 0.8454337829867992 -0.5977736597425438
5125000000.0 0.84046168291676 -0.6307790384882289
5128000000.0 0.8030931073141373 -0.6098085550766318
5131000000.0 0.8200201909919869 -0.629200248639732
5134000000.0 0.858292123036474 -0.5979054654826351
5138000000.0 0.8834939709148164 -0.6179755171037707
5141000000.0 0.863250066054562 -0.5634973867653147
5144000000.0 0.8705962414893132 -0.5799425545727983
5147000000.0 0.879143561781355 -0.607153980187955
5150000000.0 0.8553305893912232 -0.5682192202673977
5153000000.0 0.8194902104948154 -0.6132830467059595
5156000000.0 0.8493734931411184 -0.6291959962538551
5159000000.0 0.8269603844121493 -0.6084384439053515
5162000000.0 0.8309507684528934 -0.629486827470169
5166000000.0 0.8661097981068124 -0.6925306406562164
5169000000.0 0.8773631485025526 -0.586828854114986
5172000000.0 0.7842101022676724 -0.5977286694878907
5175000000.0 0.8938204763030186 -0.6001157899223832
5178000000.0 0.8605212886715548 -0.6385805155748057
