! Created with skrf 1.8.0 (http://scikit-rf.org).
# Hz S RI R 50.0 
!freq ReS11 ImS11
4000000000.0 0.5914548244882674 -0.8672008818934356
4003000000.0 0.589161542219234 -0.9282238097410022
4006000000.0 0.5109981615187114 -0.8956599484517237
4009000000.0000005 0.568881523429451 -0.8788725971434631
4011999999.9999995 0.5931940619124549 -0.8448003292315851
4016000000.0 0.4992085253138644 -0.8714806688065478
4019000000.0 0.5394119470302948 -0.9082828903412097
4022000000.0000005 0.6058984678017154 -0.8314975702196834
4025000000.0000005 0.5027090989444837 -0.9524834471819661
4027999999.9999995 0.5599033610191114 -0.877269187554411
4030999999.9999995 0.5436224731699382 -0.8122473040697133
4034000000.0 0.49409440982817887 -0.8853253089754443
4038000000.0000005 0.5293798273694514 -0.9017999483900037
4041000000.0000005 0.5914117342297043 -0.8948862104759823
4043999999.9999995 0.608469226902939 -0.9579534003755639
4046999999.9999995 0.6149473055265792 -0.8835166167526367
4050000000.0 0.5117120696906878 -0.9102917391454985
4053000000.0 0.5058285463623993 -0.8498976115872489
4056000000.0 0.5275767197579924 -0.9037203574461696
4059000000.0 0.5472396203509539 -0.8532209230230345
4062000000.0000005 0.5412480755908012 -0.8658268001405571
4066000000.0 0.4809556142153703 -0.8302308619252903
4069000000.0 0.5635748243262155 -0.9402737366406851
4072000000.0 0.5751643608291543 -0.852441517704339
4075000000.0 0.5945293806889578 -0.8938561909271101
4078000000.0000005 0.5580865998031912 -0.9035620265906401
4081000000.0000005 0.6034347394361091 -0.8734395603261231
4083999999.9999995 0.5294331518051048 -0.8830609174097225
4088000000.0 0.5877299628197697 -0.8371214788383133
4091000000.0 0.5873303167596422 -0.9425282390967276
4094000000.0000005 0.5738943429320174 -0.8553172402901061
4097000000.0000005 0.5140149028192157 -0.8654814620703075
4099999999.9999995 0.5539961076596515 -0.8562068644630391
4102999999.9999995 0.592528748391612 -0.8709734280878322
4106000000.0 0.5500047289885592 -0.8384709628086335
4109000000.0 0.5122114981240847 -0.9032654618250877
4112000000.0 0.5566250507866564 -0.8635774167432668
4115999999.9999995 0.5672079464507374 -0.853452864288625
4119000000.0 0.5741144533664213 -0.8596093210346006
4122000000.0 0.5426613915374939 -0.897596605379102
4125000000.0 0.5399834288582506 -0.8965782886613015
4128000000.0 0.5527228255626625 -0.834769561525358
4131000000.0 0.5412492078570172 -0.8547395164775864
4134000000.0000005 0.573382787982013 -0.842491928659594
4138000000.0 0.5033757688662691 -0.8755815007353941
4141000000.0 0.5425509807123388 -0.8583581473757508
4144000000.0 0.5917916724886442 -0.8807821489791768
4147000000.0000005 0.5348038988372683 -0.8795480282431394
4150000000.0000005 0.56947727437534 -0.9230755598716311
4152999999.9999995 0.5617885092114882 -0.8412369244932549
4155999999.9999995 0.570892351271189 -0.8717124605886473
4159000000.0 0.5285171711845706 -0.8110688766593347
4162000000.0 0.5446233219904634 -0.8397234896985737
4166000000.0000005 0.5454910087975927 -0.8832525226608821
4168999999.9999995 0.5384288368254448 -0.8723134223842034
4171999999.9999995 0.5779381942806023 -0.8923287381410602
4175000000.0 0.5617211343559196 -0.8598177703291547
4178000000.0 0.5604764008224824 -0.9085715338723953
4181000000.0 0.5500957885360303 -0.8397608304684571
4184000000.0 0.5485953619792049 -0.8675262021144734
4187999999.9999995 0.5426527245315127 -0.8702893260944111
4191000000.0 0.5849181482386445 -0.8325077584190169
4194000000.0 0.5589678098612826 -0.8405859664231177
4197000000.0 0.5703649477600934 -0.8776381409855403
4200000000.0 0.5706410297656543 -0.8443049533630246
4203000000.0000005 0.5937801633038968 -0.8605576099125034
4206000000.0000005 0.5849544678794779 -0.8820518202781721
4208999999.9999995 0.5644808818629905 -0.8564444308566815
4211999999.9999995 0.5290709484025469 -0.89209137397405
4216000000.0 0.5741414204090148 -0.861101480392229
4219000000.0000005 0.5785181102162587 -0.8661768071835019
4222000000.0000005 0.5604669626621187 -0.8622991887152043
4224999999.9999995 0.5542356092758104 -0.8603054567527816
4227999999.9999995 0.5637911369634387 -0.874269004393437
4231000000.0 0.5500109376086398 -0.86810889527286
4234000000.0 0.5564309284325603 -0.8738748603776647
4238000000.0000005 0.5292211637737936 -0.8653272464725353
4240999999.9999995 0.542713972964453 -0.8666327605302109
4244000000.0 0.5726958318090216 -0.854315948618556
4247000000.0 0.5752749707831478 -0.8623555725008974
4250000000.0 0.5443656088984076 -0.8479275207683191
4253000000.0 0.5459689000581696 -0.8244698761543772
4256000000.0 0.5574630172813636 -0.8637833606702339
4259000000.0000005 0.5041440841168249 -0.8417980667763401
4261999999.9999995 0.5436657552771345 -0.8762067565153462
4266000000.0 0.522297464949672 -0.8910925324247672
4269000000.0 0.5764216635689279 -0.851019561094318
4272000000.0000005 0.5485664715971845 -0.8394061439387114
4275000000.0000005 0.5448479973062013 -0.8560185903216644
4277999999.9999995 0.5752506614083028 -0.852860834535495
4280999999.9999995 0.5589962445849874 -0.8549327351881344
4284000000.0 0.5251863821949103 -0.8649242843758015
4288000000.0000005 0.5751094136634569 -0.8373568182860444
4291000000.0000005 0.5311651243759554 -0.8280156237054402
4293999999.9999995 0.5287772925080327 -0.8554908557798453
4297000000.0 0.5879499769742854 -0.8315198517436388
4300000000.0 0.5384006725789898 -0.8527055908981351
4303000000.0 0.5432531516730992 -0.8365411011380781
4306000000.0 0.5855882229209621 -0.8237740342363855
4309000000.0 0.5479580540075103 -0.8534726603699712
4312000000.0 0.5894105508139768 -0.839540609507821
4316000000.0 0.5846705495433987 -0.869692106329126
4319000000.0 0.5534451665584436 -0.8411429218240216
4322000000.0 0.5115905239706297 -0.8536240304875496
4325000000.0 0.5391606258600826 -0.831342617234866
4328000000.0 0.5526839008721022 -0.8592337094025422
4331000000.0 0.5567790189822345 -0.8913638685788644
4334000000.0 0.5690434101482462 -0.8710819136729414
4338000000.0 0.5690013606453285 -0.835835411615223
4341000000.0 0.5771756643155487 -0.8513227216662871
4344000000.0 0.5574134897269393 -0.8536139981850375
4347000000.0 0.5246363866193637 -0.883040019598589
4350000000.0 0.5315689433157769 -0.8072499794406658
4353000000.0 0.5489794307731815 -0.8138465528974343
4356000000.0 0.5236856468418178 -0.8634869950492814
4359000000.0 0.5192602418361183 -0.8245992840362186
4362000000.0 0.5024354141211724 -0.8833239149455704
4366000000.0 0.5530802961114383 -0.8571469414630563
4369000000.0 0.550072314940567 -0.8047817128563067
4372000000.0 0.5168161531764189 -0.8681126385866297
4375000000.0 0.5698770541974199 -0.8341967970750707
4378000000.0 0.53985505238837 -0.8368341856858997
4381000000.0 0.5516493004525092 -0.8380372313068504
4384000000.0 0.5747864703507742 -0.8929099735401582
4388000000.0 0.5416850461793031 -0.8218251796422967
4391000000.0 0.5635235280408997 -0.8626117325419227
4394000000.0 0.5267105701575041 -0.823594428651901
4397000000.0 0.5391870781663719 -0.852992311716903
4400000000.0 0.5581277560354069 -0.8841795425282857
4403000000.0 0.5627192374504298 -0.8602120581964565
4406000000.0 0.524385453980065 -0.8659619582358044
4409000000.0 0.5623700913657272 -0.8750572711690182
4412000000.0 0.5026677890317657 -0.8741310984563367
4416000000.0 0.5212268080804643 -0.8593861452596716
4419000000.0 0.5366329115227093 -0.8649679084160323
4422000000.0 0.5514647567495068 -0.8336277279945391
4425000000.0 0.5721590950739759 -0.8500441428871897
4428000000.0 0.5292343648605133 -0.8528916081255709
4431000000.0 0.5542035980840861 -0.872101467009069
4434000000.0 0.5284067301824509 -0.8555966261425492
4438000000.0 0.538140000930085 -0.8663304298680194
4441000000.0 0.553078879954351 -0.8681217462123677
4444000000.0 0.522116133886396 -0.8481488801366569
4447000000.0 0.529625742002305 -0.8648937838293795
4450000000.0 0.5452559431541775 -0.8337091984859385
4453000000.0 0.5531390604043058 -0.8875938635353249
4456000000.0 0.5128996349295456 -0.8468491123421704
4459000000.0 0.4994104977278503 -0.8359417871017416
4462000000.0 0.5613329081727296 -0.9042724757618362
4466000000.0 0.5454222509049521 -0.9045513604023323
4469000000.0 0.5470668779151002 -0.842277457111338
4472000000.0 0.5202011434066212 -0.8813057380215936
4475000000.0 0.5187967541391129 -0.8357356521329937
4478000000.0 0.5404463185738073 -0.8983213990464551
4481000000.0 0.5199279497193681 -0.8600339298628301
4484000000.0 0.4893823277904743 -0.8811729956699702
4488000000.0 0.518234736454451 -0.8714084379298461
4491000000.0 0.5229559423197492 -0.8681896543924562
4494000000.0 0.5410405674179604 -0.8328173641361705
4497000000.0 0.5433672049508609 -0.8529202844482818
4500000000.0 0.5302369562627879 -0.8576463290492369
4503000000.0 0.5448534005724134 -0.8987000686958764
4506000000.0 0.5314855102768226 -0.8434231664484342
4509000000.0 0.5200537283362326 -0.8498263322358137
4512000000.0 0.5063006874135614 -0.84322436584619
4516000000.0 0.5518821506343807 -0.8699667622841334
4519000000.0 0.5223248021360003 -0.8417330142153989
4522000000.0 0.5289106354545271 -0.8613357143705829
4525000000.0 0.5606174022833124 -0.8454969526972976
4528000000.0 0.531768296934872 -0.9008618136948086
4531000000.0 0.5473042159106549 -0.8559326784383113
4534000000.0 0.5223152915085065 -0.8466389403773629
4538000000.0 0.5327632087168906 -0.865555878815863
4541000000.0 0.4777683817265854 -0.8693132632964837
4544000000.0 0.522811961942533 -0.8335636158693314
4547000000.0 0.530711494106089 -0.8391608922132767
4550000000.0 0.5069813290845893 -0.8826328874598219
4553000000.0 0.5136101271363884 -0.875522688171793
4556000000.0 0.4869704147100904 -0.8567957116848162
4559000000.0 0.5023606290596896 -0.8693617478785408
4562000000.0 0.54457277815588 -0.8717528026593657
4566000000.0 0.5342384888985449 -0.8753182472256862
4569000000.0 0.5090687267575729 -0.8500348621519408
4572000000.0 0.5349269018482496 -0.8751043438047696
4575000000.0 0.509586920379334 -0.8908942574421757
4578000000.0 0.5531935593343256 -0.878939598400897
4581000000.0 0.5053676495049749 -0.8857553896914294
4584000000.0 0.5082868818200217 -0.8661505567921939
4588000000.0 0.5265479621945595 -0.8884622487744083
4591000000.0 0.5446971896816579 -0.8701624624989044
4594000000.0 0.5136650775578118 -0.8809595482450976
4597000000.0 0.4941824093170899 -0.869310904126863
4600000000.0 0.48969614549550977 -0.8812446310147681
4603000000.0 0.5161440972594686 -0.8565457582993133
4606000000.0 0.5267071687347213 -0.8894825454865372
4609000000.0 0.506447951803011 -0.8787616950295323
4612000000.0 0.531833998616077 -0.8844828972432789
4616000000.0 0.5101018215922886 -0.8647317158651853
4619000000.0 0.5294622083873499 -0.8731563362874724
4622000000.0 0.509879638092685 -0.8744278438025993
4625000000.0 0.4740390171817952 -0.8713470598924115
4628000000.0 0.537969735538765 -0.8633344943081385
4631000000.0 0.5002026510242505 -0.8767214025252503
4634000000.0 0.5028852302125217 -0.8794645657135991
4638000000.0 0.5134898917845132 -0.8940643879041006
4641000000.0 0.5322285145553411 -0.8675463525595597
4644000000.0 0.5035411332875978 -0.8679327546496721
4647000000.0 0.5157073728044351 -0.873157767956475
4650000000.0 0.4950239753955601 -0.8906005605047521
4653000000.0 0.506929002299191 -0.876838525964042
4656000000.0 0.5017816861926798 -0.871068142393228
4659000000.0 0.49576378496744844 -0.8723511799570817
4662000000.0 0.49809179946534976 -0.8832899813250578
4666000000.0 0.49256213153885386 -0.8835440709394486
4669000000.0 0.5214622252328637 -0.8724583901772737
4672000000.0 0.4994326506770936 -0.8796524416572983
4675000000.0 0.5191747394597166 -0.8971683710311366
4678000000.0 0.49761433344835804 -0.8684077984910171
4681000000.0 0.48812420090715136 -0.9043119647152892
4684000000.0 0.49587800809746596 -0.8927296029314574
4688000000.0 0.48432506576178475 -0.8783752905949065
4691000000.0 0.49363811789892775 -0.8690655315738959
4694000000.0 0.5080213499186951 -0.8783052147577053
4697000000.0 0.4820641510938904 -0.8490646387515306
4700000000.0 0.5155216480550564 -0.8714735323852355
4703000000.0 0.5195160369545606 -0.8475001458066772
4706000000.0 0.48840363407001164 -0.9118919862278047
4709000000.0 0.4875235057519112 -0.9038250449350826
4712000000.0 0.48915520178009625 -0.8984788342751012
4716000000.0 0.49358815575600623 -0.9013957892076464
4719000000.0 0.5463988890913452 -0.8733320792316528
4722000000.0 0.523012036169244 -0.8590298205423932
4725000000.0 0.5168303077113973 -0.8719519475877484
4728000000.0 0.5153500887169552 -0.8771187625712765
4731000000.0 0.536706954435873 -0.8941094426094461
4734000000.0 0.5074495503308006 -0.8842062236564564
4738000000.0 0.5343178620638143 -0.8997472058944009
4741000000.0 0.5151286456986977 -0.9028000148381532
4744000000.0 0.49538151098886046 -0.9162621780576595
4747000000.0 0.4870840132362322 -0.8402529354147893
4750000000.0 0.528673790847226 -0.8962188844302332
4753000000.0 0.5066942797019743 -0.8896384625859874
4756000000.0 0.47181757526060575 -0.8924494278546558
4759000000.0 0.4920845971166342 -0.9098310964318429
4762000000.0 0.464272566623974 -0.9040138040147188
4766000000.0 0.49940299915492864 -0.9074912294108809
4769000000.0 0.5133627524991615 -0.8939190305947876
4772000000.0 0.5060101900352713 -0.8971845107611982
4775000000.0 0.5119239158731386 -0.9540835935042484
4778000000.0 0.4792647995734596 -0.8907581988893639
4781000000.0 0.5353465021143722 -0.8786401230933594
4784000000.0 0.5293578430630567 -0.8547684056423251
4788000000.0 0.5107837187217201 -0.9324198068218196
4791000000.0 0.49799187122120714 -0.8816937112276199
4794000000.0 0.5410582397725078 -0.906669003988187
4797000000.0 0.4974690454796675 -0.8902762125798912
4800000000.0 0.4835775360374036 -0.8946584173707539
4803000000.0 0.4585477519140284 -0.8936931622900522
4806000000.0 0.509731310916218 -0.9156641138917153
4809000000.0 0.44402927224225963 -0.921563862813699
4812000000.0 0.4598102359372044 -0.8941281504227488
4816000000.0 0.4977666502824224 -0.8551469805672597
4819000000.0 0.5184125254511762 -0.9053309144814877
4822000000.0 0.5445730915461351 -0.9075449682225487
4825000000.0 0.5203162292371617 -0.921430689260011
4828000000.0 0.48914401504857175 -0.8611865472167098
4831000000.0 0.46871453612174774 -0.9432118425322233
4834000000.0 0.5236342433318258 -0.887929515260163
4838000000.0 0.5153523684941762 -0.921979538017328
4841000000.0 0.49252069074972527 -0.8619471284332282
4844000000.0 0.5405043897312842 -0.8997825116406054
4847000000.0 0.5128506854161515 -0.8661050766757898
4850000000.0 0.5194289485665495 -0.9268627219935068
4853000000.0 0.5134453163153696 -0.8690113001797848
4856000000.0 0.49235563542418903 -0.8813594672940162
4859000000.0 0.5010474258030144 -0.9119286608676179
4862000000.0 0.5298912667932645 -0.861752580798544
4866000000.0 0.4898997252195672 -0.9040055240956625
4869000000.0 0.5043977427147903 -0.9122600867212644
4872000000.0 0.5019350853446929 -0.9448833789934066
4875000000.0 0.5771718134738122 -0.9023562045492742
4878000000.0 0.5028001560864118 -0.9121372103084331
4881000000.0 0.5132993729736817 -0.976218341235211
4884000000.0 0.5126549284913959 -0.8828039220202359
4888000000.0 0.5102126616152179 -0.8946395874112163
4891000000.0 0.532606988360248 -0.8865586549904971
4894000000.0 0.4803025057973954 -0.8854423232302608
4897000000.0 0.513834331507716 -0.8870261916879001
4900000000.0 0.5431987674375442 -0.8963134895057667
4903000000.0 0.5268151225322408 -0.9211353896790724
4906000000.0 0.525254096615844 -0.9465896219724084
4909000000.0 0.4740777114723872 -0.8796716995481018
4912000000.0 0.5262896003990265 -0.9630311404557778
4916000000.0 0.5584252579641481 -0.8938285224500183
4919000000.0 0.5444913662399241 -0.8865910701433184
4922000000.0 0.5439109920913441 -0.9053711081781176
4925000000.0 0.4993238268415616 -0.8758692821286892
4928000000.0 0.5452537318439463 -0.8852592505227874
4931000000.0 0.5417960855322257 -0.8841603681934216
4934000000.0 0.4928546118702474 -0.8598795965180764
4938000000.0 0.5011439305880032 -0.8866767195365214
4941000000.0 0.5217819424982055 -0.8763473143027829
4944000000.0 0.5134671018078066 -0.8311414378773685
4947000000.0 0.5060149653548167 -0.8670288371306776
4950000000.0 0.5210919112579571 -0.8702089946103414
4953000000.0 0.5025236638092679 -0.9524102180410008
4956000000.0 0.5287606616744963 -0.9323784622331401
4959000000.0 0.46079941913838296 -0.8849656989570377
4962000000.0 0.493196564238198 -0.9260173477030749
4966000000.0 0.5521316380901761 -0.9318073821734205
4969000000.0 0.5477742439140552 -0.9258188478138533
4972000000.0 0.48558419430082833 -0.9031155331995253
4975000000.0 0.5341873903184124 -0.8553589820211496
4978000000.0 0.507755425262826 -0.8789979979076211
4981000000.0 0.5263379718820578 -0.9212499186917898
4984000000.0 0.545811317972267 -0.9047348612103333
4988000000.0 0.5430210027479476 -0.8721260417083723
4991000000.0 0.5451149168147627 -0.900785158893769
4994000000.0 0.5309556046079056 -0.8983272859965412
4997000000.0 0.5033131754781422 -0.9276354514768534
5000000000.0 0.5613693773317279 -0.9262713771091654
5003000000.0 0.5507857835173068 -0.8932073133532139
5006000000.0 0.5385196419999667 -0.9624284615434433
5009000000.0 0.5497638726916684 -0.879324337841486
5012000000.0 0.4735843041347798 -0.901660842917239
5016000000.0 0.595042040421896 -0.896668730700444
5019000000.0 0.5037890674511352 -0.8720742437686798
5022000000.0 0.5429315433261187 -0.9065252998143938
5025000000.0 0.5477256674027706 -0.911332556343729
5028000000.0 0.5138952444907179 -0.9095255477244178
5031000000.0 0.5251293521961579 -0.9192882384044345
5034000000.0 0.4992795905430092 -0.9293635081464453
5038000000.0 0.5157157006676595 -0.9144649721510525
5041000000.0 0.5554473698649706 -0.8851711182633315
5044000000.0 0.5551115115255795 -0.871111692395302
5047000000.0 0.5582230000551341 -0.8956293380239211
5050000000.0 0.5958818196674305 -0.8241607398588693
5053000000.0 0.5603422804587884 -0.9096776125105281
5056000000.0 0.5962862085693492 -0.8764360732982825
5059000000.0 0.5849680481816342 -0.8933766006983679
5062000000.0 0.5436198887161245 -0.9439442755643
5066000000.0 0.6035856556064749 -0.8927144442709996
5069000000.0 0.5405082912341237 -0.8856137442668799
5072000000.0 0.5118503464749682 -0.8761365555061962
5075000000.0 0.5829842793042457 -0.8733790936075917
5078000000.0 0.4820483285173383 -0.9481470925781597
5081000000.0 0.51939357806331 -0.8831332731555184
5084000000.0 0.5706155982557687 -0.944676998813923
5088000000.0 0.5255785715788284 -0.8997295250198214
5091000000.0 0.5372324923115024 -0.9230417693589568
5094000000.0 0.5398044080633244 -0.9164802889207762
5097000000.0 0.5636492662129688 -0.885303124860507
5100000000.0 0.548354933536938 -0.8852780799883997
5103000000.0 0.513930254147755 -0.952066736588061
5106000000.0 0.5147926485135268 -0.9088813207665911
5109000000.0 0.5697559382087103 -0.8805600605879839
5112000000.0 0.5071557771337853 -0.8890761736386485
5116000000.0 0.5337900703455098 -0.849028755258695
5119000000.0 0.5358835412259192 -0.9391850604994874
5122000000.0 0.5319554374154657 -0.8954052101279995
5125000000.0 0.5748453810040858 -0.9038391615455263
5128000000.0 0.5283437091962095 -0.8771101559722811
5131000000.0 0.5400120034060041 -0.8920670582892782
5134000000.0 0.5175386216903719 -0.8904936319365435
5138000000.0 0.5732774858712458 -0.8544777621309232
5141000000.0 0.5572587678062195 -0.8582437852080083
5144000000.0 0.588054792640385 -0.8848001650493671
5147000000.0 0.5657945247173775 -0.8883577476226145
5150000000.0 0.6045032622749056 -0.8808651413122119
5153000000.0 0.5598235423390304 -0.8740932589933793
5156000000.0 0.5862594666863186 -0.9026078534999807
5159000000.0 0.5875046478343925 -0.9031878189147694
5162000000.0 0.5355698072724387 -0.9081555312161574
5166000000.0 0.5586184967480767 -0.8969714138233538
5169000000.0 0.5548432380646955 -0.8815089807593123
5172000000.0 0.5570523440647951 -0.881183038457483
5175000000.0 0.5570407502913226 -0.9036426737756571
5178000000.0 0.5297909029258816 -0.9090355670517067
5181000000.0 0.6017080974435909 -0.8959105549643309
