! Created with skrf 1.8.0 (http://scikit-rf.org).
# Hz S RI R 50.0 
!freq ReS11 ImS11
4000000000.0 0.5595987223299138 -0.8538517735080484
4003000000.0 0.5633587353762022 -0.9357507384076484
4006000000.0 0.49561814596018083 -0.8624225211928683
4009000000.0000005 0.5482142556059086 -0.9010876678981876
4011999999.9999995 0.647615883390208 -0.88084458008771
4016000000.0 0.5297091220427034 -0.8778138611893817
4019000000.0 0.5727184184608731 -0.8672784686334037
4022000000.0000005 0.648745808328308 -0.8044957605109069
4025000000.0000005 0.5697314223233836 -0.9171455813132545
4027999999.9999995 0.5584180019569449 -0.8994765295929573
4030999999.9999995 0.5091916270872895 -0.8415092690205188
4034000000.0 0.5281999326667295 -0.8970600580967141
4038000000.0000005 0.5274707427652923 -0.8845581636569428
4041000000.0000005 0.5567456206757478 -0.8822408417164707
4043999999.9999995 0.6107116006876088 -0.9458172028145874
4046999999.9999995 0.6294036994072058 -0.9106207530846011
4050000000.0 0.5384726272084701 -0.9227212459575893
4053000000.0 0.4952209259313545 -0.9065334557759068
4056000000.0 0.5512984295286445 -0.8625955084490413
4059000000.0 0.5479703079874239 -0.8054795766276719
4062000000.0000005 0.5415775796499146 -0.8588748863437409
4066000000.0 0.5373890109842302 -0.8016108034868658
4069000000.0 0.5531732031766075 -0.9366366896241902
4072000000.0 0.597320435722915 -0.8480673529654923
4075000000.0 0.5886506338877072 -0.8521000512300404
4078000000.0000005 0.5493235970893471 -0.8970811885584207
4081000000.0000005 0.5969281745531971 -0.8374594604194492
4083999999.9999995 0.5440816968303702 -0.8843218071102121
4088000000.0 0.5721562881602461 -0.8251134262118544
4091000000.0 0.6476983663162424 -0.9162167043560459
4094000000.0000005 0.5836493941175521 -0.8611866895204023
4097000000.0000005 0.5679213529066589 -0.8640513387588269
4099999999.9999995 0.5601063159987878 -0.8788971339295525
4102999999.9999995 0.5849849466471988 -0.8812306047527353
4106000000.0 0.5475832863288798 -0.8850213219421982
4109000000.0 0.5313336012613928 -0.9149999904357602
4112000000.0 0.5696582988760827 -0.8648880960906161
4115999999.9999995 0.5732853426418669 -0.8916446509247468
4119000000.0 0.5619463016305382 -0.852085428158955
4122000000.0 0.5560665897929458 -0.8865134451429653
4125000000.0 0.5690068911587524 -0.9010446115738764
4128000000.0 0.5707659229769751 -0.8558540406028416
4131000000.0 0.5309993262891511 -0.8432376344399455
4134000000.0000005 0.55410039864811 -0.864425030505514
4138000000.0 0.5084199710540529 -0.8343524826844504
4141000000.0 0.5719402407702274 -0.8844987065137557
4144000000.0 0.5666370309262488 -0.8589183003432019
4147000000.0000005 0.5202776123542626 -0.8402809994095302
4150000000.0000005 0.5777874822637401 -0.9010480292798266
4152999999.9999995 0.5454187195227641 -0.8946155405565922
4155999999.9999995 0.6155291475047109 -0.8802629502715532
4159000000.0 0.5507207232270085 -0.8580845314545132
4162000000.0 0.5551315079689084 -0.8217992024403936
4166000000.0000005 0.5665978353345338 -0.8996265262665174
4168999999.9999995 0.5503453764068381 -0.8755827936671108
4171999999.9999995 0.5703841821025595 -0.8501569293160907
4175000000.0 0.5520747007912503 -0.8754385343262969
4178000000.0 0.5722883899666722 -0.894982097145119
4181000000.0 0.5787315823024961 -0.8739671243950993
4184000000.0 0.5433892765149929 -0.8562985048169942
4187999999.9999995 0.5529386165604346 -0.8375296026459164
4191000000.0 0.5723146716301744 -0.8301885950096077
4194000000.0 0.5258529468995401 -0.8348242673457303
4197000000.0 0.5576855325471107 -0.854223716787474
4200000000.0 0.5614756541072337 -0.8490310025124386
4203000000.0000005 0.5714604006310986 -0.8550858017732627
4206000000.0000005 0.5732699057099446 -0.8707218751434757
4208999999.9999995 0.5677315046360536 -0.8414096680390606
4211999999.9999995 0.5394620878023256 -0.8817487637816478
4216000000.0 0.5654149911205597 -0.8676951730272877
4219000000.0000005 0.5804841081048173 -0.8616324788790921
4222000000.0000005 0.5608157136052386 -0.8763904142589287
4224999999.9999995 0.5673570076291188 -0.8578619168804397
4227999999.9999995 0.5674479680994793 -0.8582530157270564
4231000000.0 0.5579802945806396 -0.8556955163469093
4234000000.0 0.5510091474523 -0.8649194490368852
4238000000.0000005 0.5417132206536853 -0.8775322734866833
4240999999.9999995 0.556251055322094 -0.8573830254124709
4244000000.0 0.561877885293961 -0.8538004765946456
4247000000.0 0.559510707641285 -0.8398211428945277
4250000000.0 0.5246797358826136 -0.8454557047897073
4253000000.0 0.5366773347666645 -0.8359022391054657
4256000000.0 0.5581573290341355 -0.8709894757013202
4259000000.0000005 0.5196670064100233 -0.8250155834161178
4261999999.9999995 0.543498449759544 -0.8746766376206171
4266000000.0 0.5522931820154713 -0.8753715984828904
4269000000.0 0.5703507112917292 -0.8537966889575156
4272000000.0000005 0.5480508551132881 -0.8365947443763725
4275000000.0000005 0.542165518567872 -0.8491635228249794
4277999999.9999995 0.5811321651059446 -0.8718287116913859
4280999999.9999995 0.5573247240629579 -0.8783100604261642
4284000000.0 0.5517237252552473 -0.8788402133255612
4288000000.0000005 0.5989029008678296 -0.8535398483252503
4291000000.0000005 0.5254966657915854 -0.8258054779863452
4293999999.9999995 0.5383468213589372 -0.8498971256140984
4297000000.0 0.5640356635372041 -0.8452772567610379
4300000000.0 0.5404431768079323 -0.8444904931663659
4303000000.0 0.5599256543255199 -0.8521949531768983
4306000000.0 0.587071451243484 -0.8461987002130279
4309000000.0 0.5496603077197164 -0.8473477124020976
4312000000.0 0.613317977103475 -0.8498298868417612
4316000000.0 0.595112750358154 -0.8664462665102582
4319000000.0 0.5600482040602596 -0.8317677732239493
4322000000.0 0.5151411796874713 -0.8278208840896353
4325000000.0 0.5736577249188789 -0.8469712709181458
4328000000.0 0.5381033384516525 -0.8403695715705672
4331000000.0 0.522434186177663 -0.8618330193670319
4334000000.0 0.5464965268715942 -0.874093140407889
4338000000.0 0.551832595206728 -0.822240357525131
4341000000.0 0.5967869997990708 -0.8394455287304343
4344000000.0 0.5568398934180946 -0.869650807569323
4347000000.0 0.5389731607423883 -0.8785943442131481
4350000000.0 0.5354132416186158 -0.8374670807879052
4353000000.0 0.5432250298080452 -0.8166476756305792
4356000000.0 0.5339648737795084 -0.8802232958485642
4359000000.0 0.5307571148521202 -0.8280908685037671
4362000000.0 0.5042024412190684 -0.889977262651578
4366000000.0 0.5492690814978273 -0.8717608033411753
4369000000.0 0.5158879048843676 -0.8180772833312177
4372000000.0 0.5054640649765133 -0.8743509026696202
4375000000.0 0.553013383511734 -0.8310890657449784
4378000000.0 0.5369785562322438 -0.834477329489187
4381000000.0 0.5379410740194631 -0.8452988372937178
4384000000.0 0.5605057810041143 -0.9013966312512952
4388000000.0 0.5484087874461046 -0.8375474609726138
4391000000.0 0.5504471608945254 -0.8535068527857337
4394000000.0 0.5375686671032398 -0.8265312625796728
4397000000.0 0.5329132978029323 -0.8509653946169058
4400000000.0 0.5491659466082979 -0.8708227019015538
4403000000.0 0.5713469026641177 -0.885910702184975
4406000000.0 0.5299525765625067 -0.8714609924354785
4409000000.0 0.558410640847839 -0.8823029522019212
4412000000.0 0.49919384062539185 -0.8761800261205892
4416000000.0 0.541583344718656 -0.8632692205489397
4419000000.0 0.5300674498004245 -0.8673460280148417
4422000000.0 0.5486300525933212 -0.8404411130972642
4425000000.0 0.5767187229578894 -0.8461753333060162
4428000000.0 0.5349791503973833 -0.8328489732392026
4431000000.0 0.5524224029380225 -0.8733221561753827
4434000000.0 0.5368283982689259 -0.8507159130357894
4438000000.0 0.5520983126234794 -0.8831813923164464
4441000000.0 0.5469635611829047 -0.8587910741316954
4444000000.0 0.5394108782516402 -0.8392622396038448
4447000000.0 0.5234419125050469 -0.8691766970083208
4450000000.0 0.5359394961359427 -0.8409189532867121
4453000000.0 0.5600914247584279 -0.8707743895830014
4456000000.0 0.51671338066087 -0.8318795061237234
4459000000.0 0.48846799678939606 -0.8396734161388864
4462000000.0 0.5701904869750836 -0.9191524738348762
4466000000.0 0.5414349938585394 -0.8881086474372311
4469000000.0 0.5362261498541432 -0.8466708350960108
4472000000.0 0.5316752977315073 -0.8853164886794911
4475000000.0 0.5279133901411358 -0.8465502308636679
4478000000.0 0.5423849943876241 -0.8960584409769323
4481000000.0 0.5208861944546426 -0.835290068446316
4484000000.0 0.5023030144727372 -0.8735288532250275
4488000000.0 0.5189001031528953 -0.8550171837383383
4491000000.0 0.5236965095307803 -0.8659920645216703
4494000000.0 0.5249448965739841 -0.8421219552817474
4497000000.0 0.5433314553758247 -0.8333943385553904
4500000000.0 0.5400814539479744 -0.8624805485336
4503000000.0 0.5689161726849 -0.8728345133966193
4506000000.0 0.5416323200356932 -0.8707727521105038
4509000000.0 0.5165403700189728 -0.8597101831125147
4512000000.0 0.5266449176447994 -0.8429839003557875
4516000000.0 0.5340056584193915 -0.8865661045732396
4519000000.0 0.5236525843017457 -0.8333618191686918
4522000000.0 0.5190813759006633 -0.874975406786983
4525000000.0 0.5564956989547452 -0.847804223405321
4528000000.0 0.5505857925227493 -0.8863299788603225
4531000000.0 0.5411374039855978 -0.8678114641882894
4534000000.0 0.5286287180816427 -0.85599500504642
4538000000.0 0.5257281671154659 -0.8548993791545456
4541000000.0 0.4837102630378951 -0.8740469661301928
4544000000.0 0.5237763088808116 -0.8470177554362642
4547000000.0 0.5340775167786156 -0.8510170047423582
4550000000.0 0.5153170756223039 -0.8862471046891071
4553000000.0 0.5083918857624583 -0.8766368406881566
4556000000.0 0.500564070152328 -0.8515626402758197
4559000000.0 0.5051416909612041 -0.8700898089006284
4562000000.0 0.5301304989078802 -0.8845448311059294
4566000000.0 0.5266652411405697 -0.878624619306553
4569000000.0 0.5124586371075874 -0.8630684391608364
4572000000.0 0.5156401821686644 -0.8548629870320901
4575000000.0 0.5034654421451317 -0.8840766293188496
4578000000.0 0.5546754400589521 -0.8871222879940277
4581000000.0 0.5117870218807311 -0.8874777245398711
4584000000.0 0.49351876368231296 -0.8642713138610317
4588000000.0 0.5138242648981701 -0.8808485800671326
4591000000.0 0.5092774316563627 -0.8601063029282694
4594000000.0 0.5159353734498283 -0.8817680431562758
4597000000.0 0.5171814574329632 -0.8782379770578354
4600000000.0 0.4951017606329004 -0.8803105874535125
4603000000.0 0.5066240437120627 -0.8777906269924427
4606000000.0 0.5291055859242597 -0.8751544838426055
4609000000.0 0.5175352402211616 -0.8635429940721439
4612000000.0 0.528757951100832 -0.8679936479225389
4616000000.0 0.4903131803984908 -0.8544909554267226
4619000000.0 0.5084996755346048 -0.8771902793465212
4622000000.0 0.5200753083437678 -0.8737877215980566
4625000000.0 0.4879901303219716 -0.8611429319564198
4628000000.0 0.5230355721280991 -0.8559371545677263
4631000000.0 0.5010620138384054 -0.8800320306978642
4634000000.0 0.4972763787413358 -0.8880246956095712
4638000000.0 0.512600831353069 -0.8773503791154201
4641000000.0 0.5232839092341881 -0.8636441691306251
4644000000.0 0.5114402244223717 -0.889450831563165
4647000000.0 0.5192176039175347 -0.8684885347252844
4650000000.0 0.5034887895623571 -0.8734020314130323
4653000000.0 0.5243805264889024 -0.8735908518450229
4656000000.0 0.5037572238682557 -0.8880101137001415
4659000000.0 0.485274658313908 -0.87712457542239
4662000000.0 0.5041377158535542 -0.8732009974841751
4666000000.0 0.4919415959435938 -0.8674618416214841
4669000000.0 0.5142976738531215 -0.8680850543076883
4672000000.0 0.5054756901391584 -0.892822805151566
4675000000.0 0.49385444331697137 -0.9057105176374131
4678000000.0 0.48714015910233954 -0.8593758774420309
4681000000.0 0.48816289111486083 -0.9057667483031833
4684000000.0 0.4705294421237464 -0.9055835180948487
4688000000.0 0.48894361362534056 -0.885457606237869
4691000000.0 0.528450267653924 -0.8710599684195887
4694000000.0 0.5064328057830817 -0.8660408838411152
4697000000.0 0.4836566929661783 -0.8545880723045355
4700000000.0 0.5275342445012378 -0.8826188270005925
4703000000.0 0.5260985558569656 -0.8325714493285277
4706000000.0 0.4908626687175985 -0.8699693836135047
4709000000.0 0.47957596123126545 -0.8868177997881026
4712000000.0 0.5266681698840221 -0.8765725387524448
4716000000.0 0.4799102610418545 -0.9047661265945822
4719000000.0 0.5131247210917385 -0.8895652117033296
4722000000.0 0.5215872890287122 -0.8641167732075404
4725000000.0 0.49180019337351794 -0.8952697170977374
4728000000.0 0.48909324517011227 -0.8958678344885312
4731000000.0 0.5355607768225662 -0.8849052685554708
4734000000.0 0.5150353614846316 -0.8953599608530648
4738000000.0 0.5301487223607779 -0.9286231799452086
4741000000.0 0.5495116027114141 -0.9279252499079651
4744000000.0 0.5026954172797922 -0.9364391372426989
4747000000.0 0.5022144165577513 -0.8778084105270577
4750000000.0 0.5184204111540163 -0.901817118099844
4753000000.0 0.534434857009219 -0.873335066340416
4756000000.0 0.4896802321941836 -0.8965571437294421
4759000000.0 0.5174448773425653 -0.8724369254348128
4762000000.0 0.4848258141981008 -0.9105277378767925
4766000000.0 0.4967130373684677 -0.9052907982509215
4769000000.0 0.5138808531987491 -0.912389951666086
4772000000.0 0.496016641913353 -0.9058018638478074
4775000000.0 0.494394905891456 -0.9369444907634393
4778000000.0 0.5212153713016978 -0.8835388681842117
4781000000.0 0.5262723452133862 -0.8509162581577355
4784000000.0 0.5381868249159109 -0.8580685165557265
4788000000.0 0.477388084713611 -0.9163630954612935
4791000000.0 0.48238734056639426 -0.9033627926483959
4794000000.0 0.5480240543057261 -0.907351121846264
4797000000.0 0.4743258808773847 -0.8737700293609505
4800000000.0 0.5061849878888013 -0.874901067063632
4803000000.0 0.46079432063378334 -0.8995691638022184
4806000000.0 0.5142386420000822 -0.9109693615050434
4809000000.0 0.469444708715251 -0.9233200759392207
4812000000.0 0.4661166557220011 -0.914903184113781
4816000000.0 0.5072038092406421 -0.8724904584799281
4819000000.0 0.5351912464071573 -0.897716602174158
4822000000.0 0.5182528302385225 -0.9108752554496589
4825000000.0 0.5407934708436859 -0.8973810033333194
4828000000.0 0.5212820851786493 -0.8803481554266317
4831000000.0 0.46887756631402416 -0.9372110982284666
4834000000.0 0.5135882524871296 -0.8788863317768361
4838000000.0 0.5089469580220682 -0.9146126504392076
4841000000.0 0.49588575119483974 -0.8841504981259399
4844000000.0 0.5331901610106271 -0.8957534203287497
4847000000.0 0.5223138261392324 -0.8631971633258851
4850000000.0 0.48810565603625367 -0.9360731849585523
4853000000.0 0.49196867982776216 -0.879628929215754
4856000000.0 0.5090731588261407 -0.8927054331197937
4859000000.0 0.5125808419834803 -0.9249366271383751
4862000000.0 0.5083777657947912 -0.8795789000509658
4866000000.0 0.4772971974425871 -0.9290607084278729
4869000000.0 0.49516532863139867 -0.9136579073291341
4872000000.0 0.49898800860123277 -0.94071996909823
4875000000.0 0.5737202579104348 -0.9119321541934371
4878000000.0 0.5208749296424187 -0.8911154108553433
4881000000.0 0.5133223217855497 -0.9536469606352604
4884000000.0 0.506299097699669 -0.9108841068587751
4888000000.0 0.5524275107148512 -0.8812167554334457
4891000000.0 0.517543274249743 -0.905343812208022
4894000000.0 0.47113096660607884 -0.9065398221083527
4897000000.0 0.5098410980248679 -0.8618126100312191
4900000000.0 0.5024721492652917 -0.9316864089349646
4903000000.0 0.5216096333807086 -0.9138588557028863
4906000000.0 0.4996338318639495 -0.9242198940846111
4909000000.0 0.4828889611471487 -0.921713052411762
4912000000.0 0.5339844274417315 -0.9460157981593151
4916000000.0 0.5252597166862565 -0.9083080173630775
4919000000.0 0.5917230045491414 -0.9137482307738838
4922000000.0 0.5358335303287276 -0.9053487482160777
4925000000.0 0.4863167318707404 -0.9055473657344435
4928000000.0 0.5490721192964041 -0.874374539166229
4931000000.0 0.5373508629828191 -0.9115740210336741
4934000000.0 0.48842779621079774 -0.8326025681555762
4938000000.0 0.45417458239675546 -0.9144551940070984
4941000000.0 0.5055445808867535 -0.8528557411661426
4944000000.0 0.5084833982145343 -0.8330380196303349
4947000000.0 0.4921742587054442 -0.860656650905547
4950000000.0 0.5054907029466681 -0.8601742504194292
4953000000.0 0.5351506962736283 -0.9528256441355386
4956000000.0 0.5044059891719942 -0.9121136148797567
4959000000.0 0.46770128938911215 -0.9172175817735999
4962000000.0 0.5240751295910637 -0.9269732005583834
4966000000.0 0.5385943951812213 -0.9168628991945611
4969000000.0 0.5816574649024352 -0.9080237402849357
4972000000.0 0.5087163182727543 -0.9204657337263903
4975000000.0 0.557146941730221 -0.9017108099816171
4978000000.0 0.5158221026551232 -0.9082266837704596
4981000000.0 0.5162612852209759 -0.8885778439997829
4984000000.0 0.5203154970540391 -0.8757723695885424
4988000000.0 0.5188966931956046 -0.8791128678032483
4991000000.0 0.5751811754311487 -0.9083379326859665
4994000000.0 0.5312748788477323 -0.8625526763490605
4997000000.0 0.5005037233928753 -0.9166991287508288
5000000000.0 0.5342426759771153 -0.900793393351166
5003000000.0 0.5588614567855557 -0.920390410534933
5006000000.0 0.5680628517770301 -0.9509854106822261
5009000000.0 0.507508565757397 -0.9046790152411333
5012000000.0 0.4988915712009606 -0.9333440546099551
5016000000.0 0.5539993518298023 -0.9203068653865719
5019000000.0 0.532378155607628 -0.8945686218541805
5022000000.0 0.5277263724722335 -0.8938016812270159
5025000000.0 0.5535332015603778 -0.9500240098854524
5028000000.0 0.4956777447916073 -0.919080658489363
5031000000.0 0.5127468039768113 -0.8979455010995213
5034000000.0 0.5360548223883518 -0.933220685676832
5038000000.0 0.5056928879148084 -0.8777530583738946
5041000000.0 0.5491042324824872 -0.8956205993180055
5044000000.0 0.5594779189399796 -0.8479773947972193
5047000000.0 0.5605428190834248 -0.8944947781596555
5050000000.0 0.5939491314766957 -0.8278345905118027
5053000000.0 0.5652629445798116 -0.9095601618696207
5056000000.0 0.5806366239753993 -0.8418503375830928
5059000000.0 0.5941172437170643 -0.8554669592057919
5062000000.0 0.5237723740305664 -0.9273791846549267
5066000000.0 0.5669484356765127 -0.8358845077374195
5069000000.0 0.5626472663200439 -0.9004063296908299
5072000000.0 0.5228770943413523 -0.8780603623633777
5075000000.0 0.5634029852771674 -0.8800290713176091
5078000000.0 0.5489039032147992 -0.9117408365115809
5081000000.0 0.49371254101649603 -0.8420941583018731
5084000000.0 0.544137851475462 -0.9218350981969622
5088000000.0 0.5629841265117745 -0.8936094615816766
5091000000.0 0.5283819028911885 -0.9120006244933494
5094000000.0 0.5311479985048695 -0.9012468414484709
5097000000.0 0.5896897176125202 -0.8934271436291937
5100000000.0 0.5653230202457673 -0.8866641558726296
5103000000.0 0.5200568623276187 -0.8711266415859813
5106000000.0 0.5601057721673207 -0.9100993976581249
5109000000.0 0.569227741409809 -0.8568180171014432
5112000000.0 0.5358685054702851 -0.8630046927224522
5116000000.0 0.5045560118135675 -0.8713964197234658
5119000000.0 0.5171967106464773 -0.9031726237856281
5122000000.0 0.5617368764222593 -0.8963544538490845
5125000000.0 0.5680951961322848 -0.8760475608304682
5128000000.0 0.5149315644236748 -0.8330567768834621
5131000000.0 0.5509596233039047 -0.8839445093030056
5134000000.0 0.5659481869279089 -0.8823904139450025
5138000000.0 0.5374561997511309 -0.8643943113639022
5141000000.0 0.6248469356339919 -0.8575734531689565
5144000000.0 0.5826943942539002 -0.8467529675665384
5147000000.0 0.5845751121394456 -0.9022380783525863
5150000000.0 0.5564365290731124 -0.9009407547038117
5153000000.0 0.5609314615649381 -0.9007827425649922
5156000000.0 0.5436758062019722 -0.9007043914712686
5159000000.0 0.6131285548036818 -0.8894396762580615
5162000000.0 0.529519653387803 -0.8972521216326614
5166000000.0 0.5563601338561122 -0.8981713282302313
5169000000.0 0.5729840233985463 -0.9024029679262755
5172000000.0 0.5644720312283724 -0.8514277503935492
5175000000.0 0.5490039127598758 -0.9185401554862108
5178000000.0 0.5619452456591322 -0.8794731113549654
