! Created with skrf 1.8.0 (http://scikit-rf.org).
# Hz S RI R 50.0 
!freq ReS11 ImS11
4000000000.0 0.5263326638754792 -0.9139073144171287
4003000000.0 0.5687840075313797 -0.9694504249145999
4006000000.0 0.5028285007323364 -0.8808594723430481
4009000000.0000005 0.5473236786038047 -0.9031005892380886
4011999999.9999995 0.6118879690105722 -0.8695909887328332
4016000000.0 0.5086383678972393 -0.9326864684796421
4019000000.0 0.5199059734859383 -0.8887749583575125
4022000000.0000005 0.6404419754029022 -0.9035409028417828
4025000000.0000005 0.47937352638547226 -0.9293160411928411
4027999999.9999995 0.5378201077737695 -0.8970102211443189
4030999999.9999995 0.5198905226352745 -0.8564541495229143
4034000000.0 0.5258070308318228 -0.8821316201808171
4038000000.0000005 0.5224238143477358 -0.9272507918155078
4041000000.0000005 0.49395133846606804 -0.8912146632548554
4043999999.9999995 0.5894575865579634 -0.9560814351679798
4046999999.9999995 0.5719824140066049 -0.9019194864062425
4050000000.0 0.5343912598577774 -0.9326771020691654
4053000000.0 0.48936518574045174 -0.90999303138493
4056000000.0 0.5306049963674241 -0.893365974747439
4059000000.0 0.5322894460131098 -0.84942465523023
4062000000.0000005 0.484255645669588 -0.8998702610901642
4066000000.0 0.4917991486343621 -0.8330861637332562
4069000000.0 0.550830007017616 -0.9492394592141131
4072000000.0 0.5636530350402524 -0.8711462176019469
4075000000.0 0.622335304008347 -0.8670500801861429
4078000000.0000005 0.5290591047101644 -0.9380782717760322
4081000000.0000005 0.6151397737549368 -0.8686416764693048
4083999999.9999995 0.5237697036500008 -0.8860857892117455
4088000000.0 0.5779576830747514 -0.874630194986076
4091000000.0 0.5529913613822047 -0.922406263446915
4094000000.0000005 0.5811270736666885 -0.878993524720206
4097000000.0000005 0.5007183928615602 -0.8795507108813262
4099999999.9999995 0.5103900047106174 -0.8971078048549905
4102999999.9999995 0.5598497579367907 -0.8878271792144777
4106000000.0 0.5060921385557274 -0.9011778973699505
4109000000.0 0.5469990676425699 -0.9113480715311123
4112000000.0 0.531318290826197 -0.8985901527210586
4115999999.9999995 0.5575514797254112 -0.9085334188022823
4119000000.0 0.5053723158115766 -0.915562289893868
4122000000.0 0.5108348095970568 -0.8993047864963872
4125000000.0 0.5286558322397357 -0.9230271292025679
4128000000.0 0.5335201823945662 -0.8630948224362047
4131000000.0 0.5487413529353034 -0.8886966372456071
4134000000.0000005 0.5500249288206376 -0.881880927083365
4138000000.0 0.5000507346572854 -0.8962183153193493
4141000000.0 0.5267025756361013 -0.9000025733954138
4144000000.0 0.5662097611369931 -0.8856091195174255
4147000000.0000005 0.5102100113319185 -0.8929487951797263
4150000000.0000005 0.5438568182453114 -0.8947616172598215
4152999999.9999995 0.5392353645702561 -0.8500735090368345
4155999999.9999995 0.5482371245163014 -0.8992948077647227
4159000000.0 0.5592424554669656 -0.8766522979386778
4162000000.0 0.5263812841292088 -0.8673808791276535
4166000000.0000005 0.5219284506822187 -0.9019720843367562
4168999999.9999995 0.5219244072277123 -0.8966151022281295
4171999999.9999995 0.5511067719679981 -0.8973022154339999
4175000000.0 0.554276449017316 -0.8863398076710491
4178000000.0 0.5385715412759403 -0.891500749430913
4181000000.0 0.5344508480114079 -0.8942264892651601
4184000000.0 0.5502165589231753 -0.8800835993359638
4187999999.9999995 0.5152574209941252 -0.9010071593380165
4191000000.0 0.5653636012997273 -0.8466936769877429
4194000000.0 0.5060061875060978 -0.8690853038357079
4197000000.0 0.5416772505449949 -0.9040216368369245
4200000000.0 0.5470325865909762 -0.8776648529628435
4203000000.0000005 0.5545533691946516 -0.8890297967317901
4206000000.0000005 0.5430086084623114 -0.8901853347084995
4208999999.9999995 0.5520679220923024 -0.8598154988011955
4211999999.9999995 0.5296851784515149 -0.9060171567470421
4216000000.0 0.5441825723895314 -0.892452967664935
4219000000.0000005 0.544225759329406 -0.8791110804117442
4222000000.0000005 0.532939560040028 -0.8838603713932442
4224999999.9999995 0.5413006638572326 -0.8798879825290048
4227999999.9999995 0.5529880974585175 -0.8933472812094754
4231000000.0 0.5401370817678999 -0.8644452497175481
4234000000.0 0.5228730210486818 -0.9004611646655748
4238000000.0000005 0.5226341886455124 -0.8955073388454015
4240999999.9999995 0.5254481361053995 -0.8835077242003188
4244000000.0 0.5325233788184032 -0.8682599132068914
4247000000.0 0.5332867532344286 -0.8661433434205823
4250000000.0 0.5133830539207631 -0.8697030573197011
4253000000.0 0.5226108269164174 -0.8629610067321001
4256000000.0 0.5411358526814232 -0.8881639544023927
4259000000.0000005 0.5117359471486771 -0.859793031456387
4261999999.9999995 0.5074755390400117 -0.8756099394025793
4266000000.0 0.5151410536166533 -0.9104148807979753
4269000000.0 0.5395696538141104 -0.8881347056535899
4272000000.0000005 0.5149333255409574 -0.8591847331779585
4275000000.0000005 0.5335381830473265 -0.8597311853796741
4277999999.9999995 0.5556299409384586 -0.8879058555031853
4280999999.9999995 0.5449732018227824 -0.880086607165748
4284000000.0 0.5204641685390341 -0.9082739817829081
4288000000.0000005 0.5513502796026106 -0.8683142319773698
4291000000.0000005 0.5132390818059568 -0.8477259996319924
4293999999.9999995 0.5536340939378515 -0.8505165780063854
4297000000.0 0.5558820873105715 -0.8430091839507412
4300000000.0 0.5181811150346464 -0.8594851015071855
4303000000.0 0.5227827302628433 -0.8825989435109589
4306000000.0 0.5402761512297356 -0.8546288435334367
4309000000.0 0.522481676775189 -0.8665496324125304
4312000000.0 0.5667496143584041 -0.8607175164059029
4316000000.0 0.5560807225317863 -0.8654061454654457
4319000000.0 0.5364526676645013 -0.8426199932078222
4322000000.0 0.4995830984657913 -0.8769365666623202
4325000000.0 0.541416341620263 -0.8688806692599668
4328000000.0 0.5362844267464097 -0.8729433764821747
4331000000.0 0.50963021000228 -0.8906040868878933
4334000000.0 0.5289512438310199 -0.8838913876977474
4338000000.0 0.5440720619083415 -0.8593121603705275
4341000000.0 0.5471191849837039 -0.8993243508437112
4344000000.0 0.5675520605474617 -0.8698899284872894
4347000000.0 0.5285229710546444 -0.8832972717218447
4350000000.0 0.4985008852490622 -0.8369692347343821
4353000000.0 0.5406122159259972 -0.8489913814139375
4356000000.0 0.4931490867651382 -0.8660514907088853
4359000000.0 0.5131162802879194 -0.8420761178089244
4362000000.0 0.4911171100386985 -0.8994257440713768
4366000000.0 0.5541061137402283 -0.8829095858261452
4369000000.0 0.4988195405120299 -0.8542245306040848
4372000000.0 0.48103874896236104 -0.8738106485236609
4375000000.0 0.5486167462623308 -0.8733797519766581
4378000000.0 0.49425952198828565 -0.8541065020156945
4381000000.0 0.5386595460570979 -0.8683753218494602
4384000000.0 0.5342846153802141 -0.9229961031110361
4388000000.0 0.5296420995553105 -0.844262955259832
4391000000.0 0.5355708946808866 -0.8758880150500348
4394000000.0 0.4982056898390429 -0.8591464427144198
4397000000.0 0.5051190059550879 -0.8780080637206329
4400000000.0 0.5438082249724504 -0.8936657244011688
4403000000.0 0.5237626830796354 -0.8716945534824102
4406000000.0 0.5024580776791353 -0.8820311936467897
4409000000.0 0.5362950410403547 -0.900658172321024
4412000000.0 0.4665321976040601 -0.9000857480686373
4416000000.0 0.48538770370488343 -0.857390574937376
4419000000.0 0.4937288339620296 -0.8848642224767899
4422000000.0 0.5229005985992323 -0.8555870453197323
4425000000.0 0.5434032117953057 -0.8729594880704218
4428000000.0 0.49456726960799124 -0.8761570642173167
4431000000.0 0.5294441488577784 -0.8987956216518433
4434000000.0 0.5059036525624321 -0.867985528470738
4438000000.0 0.5256192084272117 -0.8905362022324421
4441000000.0 0.522855839492447 -0.8829018413535845
4444000000.0 0.5150676700626895 -0.8588596965299103
4447000000.0 0.4970885505868359 -0.8889795374318326
4450000000.0 0.5112543817390467 -0.8544687141893169
4453000000.0 0.5293669562055479 -0.9096358782132832
4456000000.0 0.4928613739349623 -0.8623126020714765
4459000000.0 0.4792300561192633 -0.8556586882021027
4462000000.0 0.5349396481658586 -0.9278828161861912
4466000000.0 0.5135691849707754 -0.9134298805566444
4469000000.0 0.5120841296148718 -0.8817640643111537
4472000000.0 0.5027359072015287 -0.9124783404494089
4475000000.0 0.5006525231009611 -0.8601166338165328
4478000000.0 0.5145842590264496 -0.9280848070751672
4481000000.0 0.48667927041722103 -0.8684957339878151
4484000000.0 0.47094911328996886 -0.9075889187410294
4488000000.0 0.487133702220615 -0.8945971370548242
4491000000.0 0.494076953077525 -0.9036888241171475
4494000000.0 0.5192223467221085 -0.8708012789214915
4497000000.0 0.4968868665392825 -0.8676206452726449
4500000000.0 0.5143137925202781 -0.8814805139799424
4503000000.0 0.5350189676940066 -0.9057217793614408
4506000000.0 0.5074270852301382 -0.8841433002257588
4509000000.0 0.4852054395535787 -0.8665855886199247
4512000000.0 0.47526765178883745 -0.8658911281106157
4516000000.0 0.5193568308531721 -0.8975032588580115
4519000000.0 0.5216698635497163 -0.854954357764363
4522000000.0 0.4911635716432181 -0.8958792190467018
4525000000.0 0.534718545848744 -0.8615460786954442
4528000000.0 0.5252765441285583 -0.8997489869500477
4531000000.0 0.4968939845015677 -0.8857236795449313
4534000000.0 0.49892785492961406 -0.8738473649808224
4538000000.0 0.4840573925792038 -0.8701556157296011
4541000000.0 0.4619377741401567 -0.899255525725674
4544000000.0 0.4810133749130534 -0.8476666876717985
4547000000.0 0.4957080297054555 -0.8652291284228673
4550000000.0 0.47733724503503777 -0.9086518059570324
4553000000.0 0.4976763541750743 -0.894374165163039
4556000000.0 0.4781433824682575 -0.8747813014020515
4559000000.0 0.4827000357463837 -0.8916470677376056
4562000000.0 0.5073983187369504 -0.8945787369488198
4566000000.0 0.48965812628811695 -0.9096498130309346
4569000000.0 0.4837322657762986 -0.8820360640121815
4572000000.0 0.5145337543882755 -0.8684481113101449
4575000000.0 0.47526353224355034 -0.8966211448722681
4578000000.0 0.5190970174187408 -0.8904063078714178
4581000000.0 0.4796635436306587 -0.8885707422159226
4584000000.0 0.48250079407881774 -0.8726945214281432
4588000000.0 0.5103089205010872 -0.9156321355737815
4591000000.0 0.5041376279107821 -0.883528720049014
4594000000.0 0.44902227716626686 -0.9070272613582597
4597000000.0 0.49949920339146137 -0.904037157039131
4600000000.0 0.46377292442005924 -0.8975908629774937
4603000000.0 0.4890090348224978 -0.9083721320278283
4606000000.0 0.4823120000203585 -0.9121026830554861
4609000000.0 0.4840315462165704 -0.8968058119815553
4612000000.0 0.4951785340678126 -0.9013846537923049
4616000000.0 0.48289395018995185 -0.8819965458273964
4619000000.0 0.49933134394343714 -0.8861045956377493
4622000000.0 0.4908695902765879 -0.8849197539110638
4625000000.0 0.4733824202034056 -0.8862342521666781
4628000000.0 0.4831986561257584 -0.8888682392743449
4631000000.0 0.46851677365871586 -0.8965262845606725
4634000000.0 0.46895960727793823 -0.894978893737049
4638000000.0 0.4941849432277492 -0.8975898240823319
4641000000.0 0.5087913173651385 -0.8880290426334757
4644000000.0 0.47828933577150134 -0.8852929487090898
4647000000.0 0.48629550873722993 -0.9081626440103696
4650000000.0 0.45867546060653375 -0.889338960796068
4653000000.0 0.494403893652265 -0.9181960959024296
4656000000.0 0.4750729071961928 -0.9121326689977733
4659000000.0 0.4498118589540553 -0.8832717817521435
4662000000.0 0.44554822325155474 -0.9147067181328772
4666000000.0 0.47289344338492134 -0.9113689777756199
4669000000.0 0.46172396825998346 -0.8878295879061586
4672000000.0 0.4520434847938968 -0.9173195881345335
4675000000.0 0.4533117201082726 -0.9059098332189606
4678000000.0 0.47256889999124246 -0.8919950792357674
4681000000.0 0.4621726098307166 -0.9325478541469301
4684000000.0 0.4608870191791909 -0.9091742657576917
4688000000.0 0.44459927258586907 -0.8983344265952841
4691000000.0 0.49077460151913743 -0.8944516627329326
4694000000.0 0.46600582915338484 -0.890630741131146
4697000000.0 0.43471530361534405 -0.8871139337097299
4700000000.0 0.45719132127333467 -0.9012678443843792
4703000000.0 0.4788335088213003 -0.8739405381888149
4706000000.0 0.4445522814730696 -0.9249118975735283
4709000000.0 0.4267378770946057 -0.9012421914965265
4712000000.0 0.4585723262500186 -0.8922323215725482
4716000000.0 0.4667890883700282 -0.907411462958931
4719000000.0 0.4857628558211651 -0.8984821923396703
4722000000.0 0.4857545946412895 -0.9280132939294016
4725000000.0 0.4675811380034425 -0.908565701937768
4728000000.0 0.45318280925100346 -0.8966166213689417
4731000000.0 0.5070016475002934 -0.9382025474963339
4734000000.0 0.49787746900969954 -0.9037051235367327
4738000000.0 0.4923123840176217 -0.9309181175123818
4741000000.0 0.5028196732364398 -0.9244503203520884
4744000000.0 0.4533983308653271 -0.9264585211096812
4747000000.0 0.4760666969007123 -0.8451439736958054
4750000000.0 0.470168374849827 -0.9337684405519471
4753000000.0 0.4840565599887387 -0.8781251028904314
4756000000.0 0.4629996854809726 -0.9265075860087421
4759000000.0 0.4924569740048146 -0.9111810919088132
4762000000.0 0.47795275177361146 -0.94150979905085
4766000000.0 0.46088899422870555 -0.9117767680042815
4769000000.0 0.46190282958667017 -0.920921067155015
4772000000.0 0.47454647029093905 -0.9148251664935889
4775000000.0 0.4656811311932304 -0.9525298141630363
4778000000.0 0.46678294521971814 -0.9196148951024444
4781000000.0 0.4584322748130032 -0.9078435052759601
4784000000.0 0.4756788364606709 -0.8843864656945288
4788000000.0 0.44813747577332264 -0.9243329748531917
4791000000.0 0.4531375246915851 -0.9373701296285768
4794000000.0 0.5147695789428236 -0.9214651080860872
4797000000.0 0.4615527218107716 -0.9060083110477711
4800000000.0 0.422976238916708 -0.9038316961813436
4803000000.0 0.4102201020527318 -0.9096895583787198
4806000000.0 0.46387338295006575 -0.9385363289355962
4809000000.0 0.4029551940802464 -0.940536173548403
4812000000.0 0.44252753823361624 -0.9130118771475156
4816000000.0 0.48112111580310546 -0.8884268843327371
4819000000.0 0.4862467863594008 -0.9350780531241252
4822000000.0 0.5024171119294623 -0.9499293726903506
4825000000.0 0.5096034910779014 -0.9395157111304898
4828000000.0 0.44130597227543245 -0.9135521691511714
4831000000.0 0.4542658829308394 -0.9506317079903438
4834000000.0 0.47362695436452873 -0.9161889319678757
4838000000.0 0.4605498364741343 -0.9611209551850004
4841000000.0 0.4504017034622239 -0.9026173973127456
4844000000.0 0.48358177724577067 -0.911359731709435
4847000000.0 0.48912016833656313 -0.8656658302342319
4850000000.0 0.47280114104816195 -0.9476459597875605
4853000000.0 0.4562151818884851 -0.8959691394340059
4856000000.0 0.4541787920280976 -0.915007482264091
4859000000.0 0.4684430870985686 -0.9457949469115666
4862000000.0 0.476355682105212 -0.8756927707404067
4866000000.0 0.4587440415420132 -0.9439390116350028
4869000000.0 0.45240200859307594 -0.932315962078958
4872000000.0 0.45165812200377786 -0.9668012409765057
4875000000.0 0.5362239950255148 -0.9352736887700793
4878000000.0 0.46834786721436106 -0.9518136106366387
4881000000.0 0.4752137296792276 -1.0077506032246533
4884000000.0 0.49157106844897014 -0.924508342504961
4888000000.0 0.4945556939079676 -0.9171573525259601
4891000000.0 0.4894973650120504 -0.9267839919403805
4894000000.0 0.4810482093713193 -0.9217369649353853
4897000000.0 0.518236161793858 -0.8937331800434296
4900000000.0 0.4772185466755545 -0.935561635215819
4903000000.0 0.49639672849811145 -0.9261232380654586
4906000000.0 0.49718755759828087 -0.9530916856953261
4909000000.0 0.4510956017408129 -0.9378756749826981
4912000000.0 0.45918623366249367 -0.9443720947799868
4916000000.0 0.5215003752935334 -0.9124232204086361
4919000000.0 0.5496469787845445 -0.9109290763548181
4922000000.0 0.5083011503189994 -0.9152097629684927
4925000000.0 0.4319845562815233 -0.9448478760317518
4928000000.0 0.5012519694489123 -0.8726955903168313
4931000000.0 0.4935518321701819 -0.9490239171386295
4934000000.0 0.43669100390467847 -0.8697462032582386
4938000000.0 0.4323463988680372 -0.9504589777692971
4941000000.0 0.5063049538536211 -0.9075454989943283
4944000000.0 0.4771178149037765 -0.8783252204493308
4947000000.0 0.4453694354357237 -0.8863942591122351
4950000000.0 0.47189590363895684 -0.9223026692967037
4953000000.0 0.5059439533086846 -0.9462328154277581
4956000000.0 0.464002710306177 -0.943444423061662
4959000000.0 0.4274928014388698 -0.9052261801835716
4962000000.0 0.4935613346535259 -0.9509120838165886
4966000000.0 0.521534705088823 -0.9310006080124325
4969000000.0 0.5257755806922828 -0.9679840689447893
4972000000.0 0.477930406483294 -0.9478050520835054
4975000000.0 0.5055798328539591 -0.904247324022732
4978000000.0 0.45577285989379734 -0.9387100724655058
4981000000.0 0.46731764749449894 -0.9576804162258048
4984000000.0 0.44385228900280116 -0.8946197791618474
4988000000.0 0.511184497726616 -0.9305136887872885
4991000000.0 0.5779560514003796 -0.9164584444447816
4994000000.0 0.4872725952272382 -0.8901048089840903
4997000000.0 0.4566721183395682 -0.9669597715787825
5000000000.0 0.5063584197474038 -0.9726785852900534
5003000000.0 0.537976197726941 -0.9463682580818533
5006000000.0 0.5098480437686466 -0.9417506300982001
5009000000.0 0.5017204072222757 -0.9328154826917364
5012000000.0 0.489358848151357 -0.9268436602775242
5016000000.0 0.5436132554067898 -0.9439047325601246
5019000000.0 0.4753614171362691 -0.9369920698188279
5022000000.0 0.4694143591465221 -0.9229177908525473
5025000000.0 0.5049515806444512 -0.9923053056601058
5028000000.0 0.4736825595834945 -0.9353207116159503
5031000000.0 0.46321644386083416 -0.9324666991595378
5034000000.0 0.47911695247657315 -0.9901500688949709
5038000000.0 0.45937892563331817 -0.900295745297256
5041000000.0 0.5266685882790252 -0.8917312905461082
5044000000.0 0.49568942971677654 -0.8839814780678257
5047000000.0 0.5163547469919718 -0.873248309439238
5050000000.0 0.5489413118782042 -0.8983626865010887
5053000000.0 0.4899511651068231 -0.9907390127171882
5056000000.0 0.5365618551254353 -0.9328238839924003
5059000000.0 0.5445052967202326 -0.9049224073495485
5062000000.0 0.47196262391305055 -0.9454923780092999
5066000000.0 0.5568980179999918 -0.8791240014428173
5069000000.0 0.49153380474404224 -0.9132152827030235
5072000000.0 0.5064961909623263 -0.9283163109006491
5075000000.0 0.5367104932728608 -0.8902407256455339
5078000000.0 0.4678295496460998 -0.9630980782556708
5081000000.0 0.44946280274909084 -0.8835825626135057
5084000000.0 0.509702368115116 -0.9708393902947827
5088000000.0 0.5042079837372965 -0.9161414948207618
5091000000.0 0.47990207631445775 -0.9438594052132041
5094000000.0 0.4961877480214049 -0.9166424605730416
5097000000.0 0.5322642384678191 -0.9047440881609106
5100000000.0 0.5045853107124986 -0.9099762612087141
5103000000.0 0.5020283734969342 -0.9510328007601405
5106000000.0 0.5603649923743204 -0.9247871048233529
5109000000.0 0.5114312591052805 -0.8942419276781408
5112000000.0 0.49508887494764797 -0.9199278489740528
5116000000.0 0.47433112032345015 -0.8731288116259437
5119000000.0 0.5055065222795077 -0.9661525163459498
5122000000.0 0.49764946150508205 -0.9166078224767416
5125000000.0 0.5443857163897343 -0.8932617832177383
5128000000.0 0.49310785830869114 -0.87263195484235
5131000000.0 0.4905679665010423 -0.9344515056912939
5134000000.0 0.5569398857116912 -0.9344827242572087
5138000000.0 0.5407491571754062 -0.8553040372903298
5141000000.0 0.5585307985534653 -0.8643198172445963
5144000000.0 0.535730923114681 -0.9159208324777666
5147000000.0 0.553742916558612 -0.9294923632033392
5150000000.0 0.5441014310828532 -0.9110433312401173
5153000000.0 0.5153577355996398 -0.9344276385199144
5156000000.0 0.4943114289563432 -0.8744603388897576
5159000000.0 0.5531347099553545 -0.9908337532128149
5162000000.0 0.4650381258691391 -0.9413617634063974
5166000000.0 0.49182068360188885 -0.9323089171494288
5169000000.0 0.5247586024549274 -0.9408916178879647
5172000000.0 0.5355904586318467 -0.8886334709778736
5175000000.0 0.5103490379445188 -0.969765935966873
