! Created with skrf 1.8.0 (http://scikit-rf.org).
# Hz S RI R 50.0 
!freq ReS11 ImS11
4000000000.0 0.5376287826444899 -0.877838014231447
4003000000.0 0.5574408185189993 -0.8830234579031793
4006000000.0 0.48644801539383065 -0.8502049444063797
4009000000.0000005 0.5290363921609795 -0.8643082989001248
4011999999.9999995 0.592105784061278 -0.8888936496399902
4016000000.0 0.528851297978919 -0.9092202030357566
4019000000.0 0.5398660181641279 -0.9002559148960548
4022000000.0000005 0.5511052269072394 -0.8894650949894823
4025000000.0000005 0.497476126586362 -0.9396919403458933
4027999999.9999995 0.5144489974381703 -0.8755541904335566
4030999999.9999995 0.49101377063645957 -0.855563664640093
4034000000.0 0.5205507460277374 -0.869704141293587
4038000000.0000005 0.4767413473502371 -0.8959078153412308
4041000000.0000005 0.5272294544971551 -0.8849509760423201
4043999999.9999995 0.5376034538861261 -0.9327232039899666
4046999999.9999995 0.5955730246918888 -0.897102899711275
4050000000.0 0.5233613732638733 -0.8784650731946072
4053000000.0 0.4889862139517218 -0.9045243796397999
4056000000.0 0.5188521258078943 -0.88398940699264
4059000000.0 0.5145058831197877 -0.8834731052243303
4062000000.0000005 0.5367089966375321 -0.9064786061683756
4066000000.0 0.5257651541545351 -0.8428900199322005
4069000000.0 0.4877206499715472 -0.9336264776298672
4072000000.0 0.5683200561209761 -0.8683590979486266
4075000000.0 0.5485755041773147 -0.9015906726099057
4078000000.0000005 0.5430972515797016 -0.8779736512704038
4081000000.0000005 0.5819047228480475 -0.857251405320275
4083999999.9999995 0.5166962062959268 -0.9051447464026554
4088000000.0 0.5579625077677934 -0.9143324829784809
4091000000.0 0.5740767311420768 -0.9166393286474978
4094000000.0000005 0.5081503708018673 -0.8821516207413541
4097000000.0000005 0.5463957082993024 -0.8751066817602265
4099999999.9999995 0.5415249920178055 -0.8719970262527715
4102999999.9999995 0.5696693217847622 -0.9036194154394146
4106000000.0 0.5484592282761933 -0.879794927254392
4109000000.0 0.5334463107455995 -0.874096036078032
4112000000.0 0.5293116266971594 -0.877452751453307
4115999999.9999995 0.5428539053563942 -0.8913214130562236
4119000000.0 0.5019699740408582 -0.9125279916854764
4122000000.0 0.5179894214349389 -0.9090166465102711
4125000000.0 0.5193404693251734 -0.9138943055075319
4128000000.0 0.5340123001912817 -0.8685214033955908
4131000000.0 0.5288781709505508 -0.8642024027541776
4134000000.0000005 0.5397709766198588 -0.8846447232321553
4138000000.0 0.5004583726817389 -0.8961448392883117
4141000000.0 0.5293456987343669 -0.8756069107337284
4144000000.0 0.5577390715268802 -0.8985164872164696
4147000000.0000005 0.5118103004571399 -0.8769891831222699
4150000000.0000005 0.5316592688283132 -0.894030236735534
4152999999.9999995 0.5493375443193105 -0.8660632918693157
4155999999.9999995 0.5679051446944133 -0.8888809503342242
4159000000.0 0.5466413204424854 -0.8673690991665862
4162000000.0 0.5398995940384286 -0.8630728790962603
4166000000.0000005 0.5357744935888065 -0.8892063983002142
4168999999.9999995 0.508329772523269 -0.8871448217154665
4171999999.9999995 0.5338772769443952 -0.8830484440826252
4175000000.0 0.5441193155296944 -0.9003199726523965
4178000000.0 0.5628711961890991 -0.9165561481990182
4181000000.0 0.5282664601632957 -0.8680423319120717
4184000000.0 0.5433228122893182 -0.8627315777043186
4187999999.9999995 0.5176344030602623 -0.8692613596003108
4191000000.0 0.5650266504150887 -0.8470687982542289
4194000000.0 0.5201152458407929 -0.8501276278672839
4197000000.0 0.5653916892568301 -0.9009361024071925
4200000000.0 0.5522410280161969 -0.8789781016179978
4203000000.0000005 0.539003766594169 -0.8634296184703751
4206000000.0000005 0.5464627717642648 -0.8834616155177695
4208999999.9999995 0.5433356488484964 -0.8659422275284406
4211999999.9999995 0.5067691334555551 -0.8674163969549842
4216000000.0 0.56016350619957 -0.8696377390361857
4219000000.0000005 0.5400964824929243 -0.8836773018005482
4222000000.0000005 0.5172380763142616 -0.8830160626406136
4224999999.9999995 0.5341514230833331 -0.8724959536894771
4227999999.9999995 0.5400355950737057 -0.8627141285731246
4231000000.0 0.5194266929896646 -0.8633744672244199
4234000000.0 0.5225511430868548 -0.8798942666577955
4238000000.0000005 0.5148155797432279 -0.8806097845784099
4240999999.9999995 0.5066882623263826 -0.8730694112673493
4244000000.0 0.5249583080646256 -0.8569146594055658
4247000000.0 0.5431194016320241 -0.8626582817125723
4250000000.0 0.5169378581410672 -0.8663530478822262
4253000000.0 0.5019215662231544 -0.8585482729937122
4256000000.0 0.5470527523742743 -0.8834723247150419
4259000000.0000005 0.4989991654941188 -0.8391070016342507
4261999999.9999995 0.5095319681268806 -0.8973118251894106
4266000000.0 0.5186299062361808 -0.8949930272377045
4269000000.0 0.5553181840928125 -0.8706947091529889
4272000000.0000005 0.5249693176156683 -0.8640898440798822
4275000000.0000005 0.5462063055273702 -0.8643940100307524
4277999999.9999995 0.5549955758496882 -0.8880435465237837
4280999999.9999995 0.5301919159076156 -0.8550643692695145
4284000000.0 0.5238681471035543 -0.8926402624317804
4288000000.0000005 0.5451944521071459 -0.8514961717606193
4291000000.0000005 0.5203607572301269 -0.8620482015173082
4293999999.9999995 0.5256991549314627 -0.8844238877307116
4297000000.0 0.5561001278076646 -0.8410025610223957
4300000000.0 0.5364967342254837 -0.8634559067179595
4303000000.0 0.5066663281441991 -0.8875692985973334
4306000000.0 0.5354362221612609 -0.8702776031192013
4309000000.0 0.5426638792548016 -0.8652353864342581
4312000000.0 0.5905493465504912 -0.8497220807083162
4316000000.0 0.5279860379513147 -0.8755694294425108
4319000000.0 0.5294856789263196 -0.8562017042240788
4322000000.0 0.49721354580906624 -0.8710808430576725
4325000000.0 0.5315606803435573 -0.8653734032261506
4328000000.0 0.5296501280644503 -0.8562182036640118
4331000000.0 0.502020378492172 -0.9080872675561504
4334000000.0 0.5388548373080463 -0.8930995248672301
4338000000.0 0.5484673096692532 -0.8484035059653434
4341000000.0 0.586198021708845 -0.854481388492143
4344000000.0 0.551437553169508 -0.8764664355433973
4347000000.0 0.5186202288011432 -0.8947050580910164
4350000000.0 0.49648938496877704 -0.8336289706855107
4353000000.0 0.5304365665407968 -0.8523455014608362
4356000000.0 0.48872040943029754 -0.8612767444340722
4359000000.0 0.4984763555458963 -0.8203393761853304
4362000000.0 0.4776249580818656 -0.8890440075286385
4366000000.0 0.5325373327716647 -0.8713610437000386
4369000000.0 0.4966171630990711 -0.8588597439678235
4372000000.0 0.4772615482546736 -0.8794505262323173
4375000000.0 0.5281589924756576 -0.8607880733499828
4378000000.0 0.5128080619833466 -0.8545619085452089
4381000000.0 0.5177169483636409 -0.8289143129518559
4384000000.0 0.5362546112065315 -0.9203107774090122
4388000000.0 0.49923598099230804 -0.8498815540389962
4391000000.0 0.5210531292097357 -0.8554357637776779
4394000000.0 0.5062251255852216 -0.8474449588150424
4397000000.0 0.49399372210903914 -0.8695102304243247
4400000000.0 0.5257938805819418 -0.8946843276434394
4403000000.0 0.5251148984904194 -0.8771274596406314
4406000000.0 0.49622507870478594 -0.8866873537924265
4409000000.0 0.5334535025072172 -0.9026037516267066
4412000000.0 0.46544154993680853 -0.8941297910161217
4416000000.0 0.5060963987549291 -0.8667706653458662
4419000000.0 0.5006293537944148 -0.8858297574293599
4422000000.0 0.5259311609263692 -0.8717146578820762
4425000000.0 0.5423680836421854 -0.8628687889873639
4428000000.0 0.5123622935278663 -0.8779521797216134
4431000000.0 0.5230291044620623 -0.892141912607922
4434000000.0 0.5179934219717666 -0.870211030207598
4438000000.0 0.5196823782859544 -0.883686201072679
4441000000.0 0.5244870589524585 -0.8901602549297265
4444000000.0 0.5056060443467728 -0.8567993565868568
4447000000.0 0.4940982001950317 -0.8663761947803633
4450000000.0 0.5126039378756297 -0.8502706130529676
4453000000.0 0.5256333019453102 -0.899346148486599
4456000000.0 0.4846385819545136 -0.8479225245640836
4459000000.0 0.48303587592197694 -0.8396874847349536
4462000000.0 0.5389628225263392 -0.928634530503481
4466000000.0 0.5119341594032295 -0.903128338578534
4469000000.0 0.5149097927290347 -0.8771573136017627
4472000000.0 0.4963570857589916 -0.9045251974338899
4475000000.0 0.4949476086737349 -0.8691956108013531
4478000000.0 0.5226237428809646 -0.9297708686370418
4481000000.0 0.47945028093584907 -0.868609154095526
4484000000.0 0.4705239064534328 -0.8889455617624824
4488000000.0 0.49696948567829013 -0.8630019847496828
4491000000.0 0.49585541528781674 -0.8867999902827084
4494000000.0 0.49770624298654575 -0.8669363459572923
4497000000.0 0.5134885601902128 -0.8460071344873414
4500000000.0 0.5146333705568384 -0.8785364999084551
4503000000.0 0.5427036719100029 -0.9003218494611216
4506000000.0 0.48765451759657386 -0.8710096141881389
4509000000.0 0.48490866532633303 -0.8725585373841943
4512000000.0 0.5120897671593574 -0.8808310035068583
4516000000.0 0.5157215880391173 -0.9038043888381355
4519000000.0 0.5084820452924809 -0.8642879863907599
4522000000.0 0.48879512169805694 -0.8662686331893943
4525000000.0 0.522407445078835 -0.8542491904949845
4528000000.0 0.5183434891024465 -0.8792955992556979
4531000000.0 0.5139612579347308 -0.8778516517286277
4534000000.0 0.47797267473604943 -0.8668753135519928
4538000000.0 0.49491361161997527 -0.8926248453673991
4541000000.0 0.45631351889593963 -0.9014532500665385
4544000000.0 0.48643918887344506 -0.8550569976692279
4547000000.0 0.5074535617290918 -0.8634703877244032
4550000000.0 0.48824483716627615 -0.9090730461794239
4553000000.0 0.48133045498545785 -0.8774504767613203
4556000000.0 0.45815312634646843 -0.8675921728267415
4559000000.0 0.4959764983253569 -0.8971453265275872
4562000000.0 0.5059864078455754 -0.9090702377885036
4566000000.0 0.4872252231292389 -0.9090146104667045
4569000000.0 0.4651536958032071 -0.8596536712554975
4572000000.0 0.47840113153299246 -0.8826075180140236
4575000000.0 0.46591668417313303 -0.9130353691396067
4578000000.0 0.5127787159473518 -0.9006881683704027
4581000000.0 0.4601161625297867 -0.9005583981834115
4584000000.0 0.48493453412736276 -0.8799430370098427
4588000000.0 0.507187391984393 -0.8841584296140013
4591000000.0 0.5094781681286388 -0.8788753531394076
4594000000.0 0.4743710638726446 -0.9085357771328355
4597000000.0 0.5010439064173 -0.9080289136135209
4600000000.0 0.45611148916661914 -0.8932228570596767
4603000000.0 0.4698988329073287 -0.8983039208639331
4606000000.0 0.48230142876385335 -0.9032557526958898
4609000000.0 0.49176537638408446 -0.8877947266948509
4612000000.0 0.4797554469725808 -0.8819546229010626
4616000000.0 0.4817444440397272 -0.8847517432135992
4619000000.0 0.48584997220444015 -0.8876004244237823
4622000000.0 0.47108851318181866 -0.9019613601611645
4625000000.0 0.44862176815714094 -0.8922050890416071
4628000000.0 0.4869361511033383 -0.8636830242525526
4631000000.0 0.45824099848500055 -0.8988195436082121
4634000000.0 0.46897789155363967 -0.8868293481356407
4638000000.0 0.49282948218746353 -0.9011216204968898
4641000000.0 0.48428811144699097 -0.8886090670077331
4644000000.0 0.4652268682151094 -0.8751220295774045
4647000000.0 0.48525538347829766 -0.8903725886610018
4650000000.0 0.45039627825314743 -0.8840794787795823
4653000000.0 0.48535067333781834 -0.9036948160623035
4656000000.0 0.4666295833711155 -0.891681952443702
4659000000.0 0.45316714125185287 -0.9005032883836621
4662000000.0 0.48908791996028445 -0.9133712131373575
4666000000.0 0.45478585007173744 -0.9098644376432465
4669000000.0 0.4941906808089833 -0.9026508005283124
4672000000.0 0.44023078855077663 -0.9132874563321531
4675000000.0 0.4685370743129587 -0.9189868857743123
4678000000.0 0.4581667472341936 -0.8869571702626652
4681000000.0 0.44903307379527735 -0.9227937584573319
4684000000.0 0.446376328497872 -0.9114368882958737
4688000000.0 0.4274458791465584 -0.8951289941718685
4691000000.0 0.4749197814209616 -0.9017093801463604
4694000000.0 0.4938686485803704 -0.8882727365084725
4697000000.0 0.4328782432517098 -0.8896181705492548
4700000000.0 0.46887245138014116 -0.8931685993309572
4703000000.0 0.4744355953231873 -0.8479105506133822
4706000000.0 0.44671493094922415 -0.8730877274517224
4709000000.0 0.45919157067037286 -0.8796514815765718
4712000000.0 0.47545152992963446 -0.8964321851954082
4716000000.0 0.44274002696633036 -0.9197049696907992
4719000000.0 0.5147790701059961 -0.8648765416617296
4722000000.0 0.4931914867892224 -0.8823758414435137
4725000000.0 0.4826869886866775 -0.8728313440908203
4728000000.0 0.4631486669448296 -0.9019055549515761
4731000000.0 0.505615575326427 -0.9538582132118574
4734000000.0 0.485358432088907 -0.8792419404634069
4738000000.0 0.49970429780371245 -0.9513803092657701
4741000000.0 0.4898086483364848 -0.9347815662741569
4744000000.0 0.46750415690955904 -0.9131537849787276
4747000000.0 0.45653636511430457 -0.8703815642815509
4750000000.0 0.4488678996326645 -0.9290076058308109
4753000000.0 0.49824778665203295 -0.9069532181563871
4756000000.0 0.4881523126044919 -0.9122441997700702
4759000000.0 0.49560346091145757 -0.8987402538034832
4762000000.0 0.4491568384022288 -0.9285206439097118
4766000000.0 0.4771011563774823 -0.9157941830714829
4769000000.0 0.44751154982432384 -0.9193772760182053
4772000000.0 0.48783874785428694 -0.91714822443235
4775000000.0 0.4491285686051671 -0.956987886325791
4778000000.0 0.4692056494905614 -0.9576072733713227
4781000000.0 0.46259056175993984 -0.8894028826842134
4784000000.0 0.5006434033051677 -0.9053369066383274
4788000000.0 0.47199781604244484 -0.9200965387538
4791000000.0 0.44712811660393526 -0.8804991975003699
4794000000.0 0.4965503187173742 -0.9361990106556024
4797000000.0 0.4429901535798516 -0.9131996338165529
4800000000.0 0.47247566245806044 -0.8963282837865415
4803000000.0 0.41346198475004037 -0.9186703557275104
4806000000.0 0.471806232841663 -0.9171712106966284
4809000000.0 0.4528136493733679 -0.9184646094264763
4812000000.0 0.43355133424144854 -0.8913029072959242
4816000000.0 0.4770002580298467 -0.9093155049749273
4819000000.0 0.4936882574556385 -0.9288132966266878
4822000000.0 0.5026206162733052 -0.9349303339631437
4825000000.0 0.4758815917410349 -0.893776090081887
4828000000.0 0.4731627479256789 -0.9014488483680619
4831000000.0 0.4435221616469017 -0.956803247799093
4834000000.0 0.48702715344161385 -0.9068897666899702
4838000000.0 0.444207771387594 -0.9454125710676469
4841000000.0 0.44468921339177675 -0.9210995376952807
4844000000.0 0.48911428399605505 -0.8951896120865743
4847000000.0 0.48363816007402977 -0.8894245195429037
4850000000.0 0.4607775628528863 -0.9332048619215902
4853000000.0 0.4699186460475931 -0.8927199945877731
4856000000.0 0.45076956169573346 -0.8990673574402603
4859000000.0 0.48404936192516884 -0.9654804046199871
4862000000.0 0.47330779074612245 -0.868898949895843
4866000000.0 0.44691305573867146 -0.9362357696230126
4869000000.0 0.429758335477889 -0.9135564605456842
4872000000.0 0.4599154957114447 -0.9519734337917407
4875000000.0 0.5410122638917525 -0.9557890954280223
4878000000.0 0.47476378307702505 -0.959948728976271
4881000000.0 0.4632418974996423 -1.008236796375986
4884000000.0 0.4843801143197721 -0.9260851547679787
4888000000.0 0.5145665983815833 -0.8860179177216513
4891000000.0 0.5115232226247884 -0.9046791339521543
4894000000.0 0.4549528515889015 -0.9162735165018786
4897000000.0 0.4989435221190716 -0.8964138578052926
4900000000.0 0.4604203424135929 -0.917567874735058
4903000000.0 0.5009760646851436 -0.9346869945732338
4906000000.0 0.4825878356082352 -0.9412186323541322
4909000000.0 0.4461508940510301 -0.9479974911748205
4912000000.0 0.4603124605343275 -1.0001663557505598
4916000000.0 0.5126996012857021 -0.94638193593533
4919000000.0 0.5313887975517673 -0.9449892768740409
4922000000.0 0.4984426732088054 -0.900183803053859
4925000000.0 0.45042211062891974 -0.9476804121076967
4928000000.0 0.4819513164923023 -0.8974746623482391
4931000000.0 0.5113475655169759 -0.9218625389880477
4934000000.0 0.4578999695067689 -0.8796184792020956
4938000000.0 0.4325913951662438 -0.918620606836423
4941000000.0 0.4691561217876179 -0.8995473150147717
4944000000.0 0.47425194914436974 -0.8407726340210443
4947000000.0 0.4565544848791897 -0.8541487641228043
4950000000.0 0.44689958578043454 -0.9107024694206097
4953000000.0 0.4504615557841094 -0.9656101422065946
4956000000.0 0.4317923357737151 -0.9781072034440033
4959000000.0 0.42791720965326546 -0.9171952183920695
4962000000.0 0.45296008789539544 -0.940986574443505
4966000000.0 0.5334306735184151 -0.9413545064114287
4969000000.0 0.5118781211959684 -0.9468860276026201
4972000000.0 0.47935605703683726 -0.9217848518001731
4975000000.0 0.5024537890562375 -0.9018833559470758
4978000000.0 0.44929640159058515 -0.9271547702060629
4981000000.0 0.4802152623254745 -0.9092846933608361
4984000000.0 0.45587387840129034 -0.8670807355596424
4988000000.0 0.48527487444187445 -0.8929078911382944
4991000000.0 0.5417429456076919 -0.890268428536806
4994000000.0 0.4736251034538276 -0.9101035358169416
4997000000.0 0.4580238727865108 -0.9090619691893362
5000000000.0 0.49758764683194723 -0.9382155601034853
5003000000.0 0.4906478714496334 -0.9258521936050408
5006000000.0 0.5107020451226052 -0.966437548644618
5009000000.0 0.48405929329864394 -0.903579271548318
5012000000.0 0.4798079191873472 -0.9191898722486272
5016000000.0 0.5418427872639453 -0.9161094279143991
5019000000.0 0.47984933007543273 -0.9022712191999251
5022000000.0 0.49051415836008827 -0.9256212789427316
5025000000.0 0.511910925081631 -0.9549953574575856
5028000000.0 0.47539366563526136 -0.9379627615531232
5031000000.0 0.5008095583482706 -0.937305497168212
5034000000.0 0.4801528304659603 -0.9624762408306021
5038000000.0 0.45230818005138784 -0.9004521929199842
5041000000.0 0.5104001277795408 -0.915493391117376
5044000000.0 0.5126232599291967 -0.8742417031682292
5047000000.0 0.5145126450202668 -0.9069792504578178
5050000000.0 0.5210204562411344 -0.8611886654274182
5053000000.0 0.49707056128725347 -0.9624585611246228
5056000000.0 0.5478650037966022 -0.9004435671361847
5059000000.0 0.5259305783579188 -0.8800255296619085
5062000000.0 0.4633397308154081 -0.936264672074268
5066000000.0 0.5600229663201284 -0.8655902623047352
5069000000.0 0.4994163067794739 -0.9359140975189438
5072000000.0 0.5064142598116296 -0.905629875056823
5075000000.0 0.5007626869166 -0.8685342139818175
5078000000.0 0.4438368815447562 -0.9363863177217628
5081000000.0 0.4554499782187443 -0.8730238694520773
5084000000.0 0.47186411433434 -0.9386560531797222
5088000000.0 0.5441570427949185 -0.9121976809382657
5091000000.0 0.4772548577331477 -0.9194187100913791
5094000000.0 0.5022999517124231 -0.9175018391147476
5097000000.0 0.5229528755014152 -0.9090270888568961
5100000000.0 0.47151299010264064 -0.8824802230801446
5103000000.0 0.5326218717774571 -0.9263084678716853
5106000000.0 0.5139918331396597 -0.9480820806639041
5109000000.0 0.5096152987129078 -0.9078164178883315
5112000000.0 0.4844559260787945 -0.9268433373028147
5116000000.0 0.45299033443120046 -0.8526220358650092
5119000000.0 0.49550717262503396 -0.953941935469784
5122000000.0 0.4864053097692642 -0.9171830283738052
5125000000.0 0.5436584722721218 -0.8845501818658688
5128000000.0 0.4735290259730249 -0.9277946135204962
5131000000.0 0.502216295488009 -0.8753644588349833
5134000000.0 0.5244258380554859 -0.9126410023981911
5138000000.0 0.5159106808996671 -0.9277138870224155
5141000000.0 0.5829054573844692 -0.9021039738950003
5144000000.0 0.5198458022143306 -0.9155201225052736
5147000000.0 0.5215982484734971 -0.9330564263081442
5150000000.0 0.5133879229873957 -0.9069313762486769
5153000000.0 0.5227581781096615 -0.9688520230837613
5156000000.0 0.5806436382829343 -0.9213416977984752
5159000000.0 0.5478706185179767 -0.9381335728891647
5162000000.0 0.5236373909117884 -0.9233266620568749
5166000000.0 0.5124021868521199 -0.9253775784449343
5169000000.0 0.5190976393810156 -0.9715022412534546
5172000000.0 0.5280966910700677 -0.884138001783996
5175000000.0 0.5387295339249614 -0.9462190271491467
