! Created with skrf 1.8.0 (http://scikit-rf.org).
# Hz S RI R 50.0 
!freq ReS11 ImS11
4000000000.0 0.4540248242224538 -0.9261775339091624
4003000000.0 0.5253317797415913 -0.9114817636352126
4006000000.0 0.4582468750533091 -0.9262776001009845
4009000000.0000005 0.43950646871620813 -0.8942041301687604
4011999999.9999995 0.5015812508881035 -0.8595284709438691
4016000000.0 0.44826336298486147 -0.9533278962731513
4019000000.0 0.48929635073813493 -0.8661861152288857
4022000000.0000005 0.5393514367232828 -0.8879845816354527
4025000000.0000005 0.43933186207567254 -0.9545232619893693
4027999999.9999995 0.45437141002493114 -0.9150485391683363
4030999999.9999995 0.44939599069388764 -0.8670864372441985
4034000000.0 0.47045825164911526 -0.8915431937711578
4038000000.0000005 0.4525907663251403 -0.9245107168026482
4041000000.0000005 0.43399294815002404 -0.8959256635845179
4043999999.9999995 0.47898385717313274 -1.0012504441063925
4046999999.9999995 0.49528430680214847 -0.9087240908809724
4050000000.0 0.4636390312449454 -0.9627423436372888
4053000000.0 0.43821845699867157 -0.9173768776549123
4056000000.0 0.4521440862681176 -0.9386794778523627
4059000000.0 0.49192675599777735 -0.89513629474221
4062000000.0000005 0.46418553917715344 -0.9323585456033904
4066000000.0 0.4177681554882442 -0.8685210971126784
4069000000.0 0.44391056120795935 -0.9668366935506427
4072000000.0 0.4708715071106863 -0.9259702113825007
4075000000.0 0.5175117388267093 -0.9292739085949228
4078000000.0000005 0.4579653554614201 -0.9072361169908485
4081000000.0000005 0.5053122575596407 -0.9052066110996091
4083999999.9999995 0.4521021314901355 -0.9288946475628539
4088000000.0 0.49578672274064806 -0.8662497111802843
4091000000.0 0.47710403078382 -0.9675417559216124
4094000000.0000005 0.4525979202445102 -0.8830317098299076
4097000000.0000005 0.46816888918974786 -0.929063727917905
4099999999.9999995 0.4454736785527548 -0.9144646128060242
4102999999.9999995 0.4549647342483273 -0.9276746145573599
4106000000.0 0.4360187157735095 -0.9492302667925063
4109000000.0 0.42231732937711725 -0.9353234066661803
4112000000.0 0.49796925536325903 -0.8853277559065006
4115999999.9999995 0.4876773663644569 -0.9132934318689839
4119000000.0 0.4603420168159398 -0.9230801278589388
4122000000.0 0.43996766952070887 -0.9148923001857848
4125000000.0 0.4567363710467223 -0.9130405098573179
4128000000.0 0.4425765200642843 -0.920268816403566
4131000000.0 0.44844994170254 -0.8994880947119184
4134000000.0000005 0.45190589205506115 -0.9211912099798027
4138000000.0 0.4287981655390128 -0.8752898504241822
4141000000.0 0.41357489252329427 -0.9107833577584457
4144000000.0 0.47683894804200305 -0.9137592851156159
4147000000.0000005 0.4048422606615084 -0.924303363139864
4150000000.0000005 0.5196314377468212 -0.9048253975381656
4152999999.9999995 0.45347984577196826 -0.8966399645976061
4155999999.9999995 0.4801637620757616 -0.9276833065601952
4159000000.0 0.45270750719381087 -0.8725738447181541
4162000000.0 0.47001448487327097 -0.8787893690538685
4166000000.0000005 0.46877057546635215 -0.9490141665847539
4168999999.9999995 0.4198435530725841 -0.9296034361659469
4171999999.9999995 0.46635235131153835 -0.9338873003980773
4175000000.0 0.47414248865841974 -0.9165435390884527
4178000000.0 0.48523737648525644 -0.9060806753927538
4181000000.0 0.45405982052384697 -0.8940445559152196
4184000000.0 0.46706253292885364 -0.902224893256787
4187999999.9999995 0.44309108379139805 -0.9173680539103346
4191000000.0 0.4714400790680404 -0.895602097404739
4194000000.0 0.44202566242337393 -0.8940120339569029
4197000000.0 0.46306037091109664 -0.9230775996566175
4200000000.0 0.46870768174702326 -0.901767249851967
4203000000.0000005 0.4912994921766781 -0.9085987122655719
4206000000.0000005 0.45055797597713976 -0.93659034581829
4208999999.9999995 0.44917605419259254 -0.8969788552931139
4211999999.9999995 0.4060136706829671 -0.9316719300240016
4216000000.0 0.47412292970237346 -0.9080206848480386
4219000000.0000005 0.47309391891865166 -0.9142191346306803
4222000000.0000005 0.4272917295899429 -0.9245439633455247
4224999999.9999995 0.450100695795406 -0.8940036953285958
4227999999.9999995 0.4655712357379061 -0.9135073841219169
4231000000.0 0.43532875890737777 -0.9339177640302038
4234000000.0 0.4358907316623896 -0.9259586601542188
4238000000.0000005 0.4375426397992602 -0.9177486106163604
4240999999.9999995 0.40800338291823196 -0.8996405700282659
4244000000.0 0.4529552053667041 -0.9021105846237889
4247000000.0 0.44231717788933056 -0.8989085845434572
4250000000.0 0.4312238163297873 -0.9106240145713089
4253000000.0 0.4291665054247147 -0.8978221802670864
4256000000.0 0.457229660739528 -0.9385239743253903
4259000000.0000005 0.4135755627564069 -0.8760597189623424
4261999999.9999995 0.44067486312480486 -0.9196808222880475
4266000000.0 0.4238368748420616 -0.9437723429794482
4269000000.0 0.44799894818498326 -0.9091798819934857
4272000000.0000005 0.4477696347772644 -0.8991344747589133
4275000000.0000005 0.4518843801906933 -0.9163455110615902
4277999999.9999995 0.43549751860430436 -0.93321910144245
4280999999.9999995 0.4583390244568818 -0.900093731116375
4284000000.0 0.40611383071091783 -0.9281531286847508
4288000000.0000005 0.4675699480449625 -0.9069709613762297
4291000000.0000005 0.4313349131087761 -0.8916634952439688
4293999999.9999995 0.4412344657833907 -0.8981763263378392
4297000000.0 0.4659654643524431 -0.9091124800303869
4300000000.0 0.44725073266091675 -0.8900057652003363
4303000000.0 0.40527778392854297 -0.9097797593601881
4306000000.0 0.4495444384978323 -0.8933862854790136
4309000000.0 0.44390864665308294 -0.9025048272034472
4312000000.0 0.4755095737104131 -0.9195058030735637
4316000000.0 0.4450971148893906 -0.9064300542868029
4319000000.0 0.4151268531184176 -0.9033699207667909
4322000000.0 0.41919155540369424 -0.9133045538069033
4325000000.0 0.4331375700972704 -0.9254967561148081
4328000000.0 0.4327375050367795 -0.9050649704659914
4331000000.0 0.40392192457454035 -0.9071104799794083
4334000000.0 0.41997953655277076 -0.9138356566667934
4338000000.0 0.4595646313663925 -0.8991481012539057
4341000000.0 0.4574227814013092 -0.9191006510386118
4344000000.0 0.45379267927820566 -0.9117280648783214
4347000000.0 0.4124269119995993 -0.9221042055352839
4350000000.0 0.40551795752625025 -0.8845642201983925
4353000000.0 0.4193082877681078 -0.8749219345468701
4356000000.0 0.3915896356102158 -0.9106701657592392
4359000000.0 0.415131571847557 -0.8716825295215376
4362000000.0 0.3850296132559835 -0.9376183595619407
4366000000.0 0.430286346424522 -0.9416621749035037
4369000000.0 0.4165367922402351 -0.8761007468626777
4372000000.0 0.37917504722857087 -0.9213925906192015
4375000000.0 0.4417214670811374 -0.8913278824570294
4378000000.0 0.4128883286546362 -0.8854746257037657
4381000000.0 0.41173802155400874 -0.8817500010526639
4384000000.0 0.44182540420428373 -0.9731113063966924
4388000000.0 0.4219786818384867 -0.9009448412705772
4391000000.0 0.41406220338417843 -0.9204221458704523
4394000000.0 0.40439324088699474 -0.8963498769734018
4397000000.0 0.4175430583377634 -0.9230518859522674
4400000000.0 0.4199365434031669 -0.935285524793106
4403000000.0 0.4266272620972084 -0.9246743495892237
4406000000.0 0.39670293263873857 -0.9320989082093432
4409000000.0 0.42621981118474 -0.9516720954442094
4412000000.0 0.36948420150699357 -0.9339762600306775
4416000000.0 0.40006460986528436 -0.9120192561425823
4419000000.0 0.39204423856899706 -0.9328666738481999
4422000000.0 0.41729255776967855 -0.9033433529620578
4425000000.0 0.42938340606921943 -0.9274852822762494
4428000000.0 0.4008069473493019 -0.932174738118386
4431000000.0 0.4137128492082115 -0.9408117023275671
4434000000.0 0.405932928930806 -0.9056945376322983
4438000000.0 0.42281782244760907 -0.9342170869213524
4441000000.0 0.41036839824474425 -0.9352657011551564
4444000000.0 0.3989364378891557 -0.9015477227845423
4447000000.0 0.38745987944815014 -0.9263937012788408
4450000000.0 0.4175537137190351 -0.9046066646544182
4453000000.0 0.4245535145517663 -0.9357327955229671
4456000000.0 0.3806806197676444 -0.896231960681805
4459000000.0 0.3571549018856789 -0.8977918126918799
4462000000.0 0.40622904307595126 -0.9833290076248313
4466000000.0 0.4036628077416174 -0.9597426832381444
4469000000.0 0.4217012163839037 -0.9106695799296753
4472000000.0 0.39787822268985257 -0.9379930910488344
4475000000.0 0.3759383053936521 -0.9023040802630858
4478000000.0 0.4013183496437353 -0.9587137049470258
4481000000.0 0.3801789959208572 -0.9137248286246362
4484000000.0 0.35927190552392 -0.922525372597437
4488000000.0 0.3765406945184598 -0.9119725374080984
4491000000.0 0.39655685360300774 -0.9455965605186114
4494000000.0 0.37371959849485603 -0.9310252928920233
4497000000.0 0.3974955812424691 -0.9190573256580759
4500000000.0 0.3849628467706814 -0.9243709709323035
4503000000.0 0.37705761949704375 -0.9268948485715417
4506000000.0 0.37509352383207784 -0.9318811288216737
4509000000.0 0.36393519317523765 -0.9085435722314121
4512000000.0 0.3686298192429323 -0.9144853180303842
4516000000.0 0.40372116426495197 -0.9457761142876753
4519000000.0 0.40830683302438636 -0.9026314318614963
4522000000.0 0.3742873953858424 -0.9407126181926833
4525000000.0 0.4043182497792675 -0.9166950422478175
4528000000.0 0.3957734809939541 -0.9622659443341617
4531000000.0 0.381561137649266 -0.9381211634329631
4534000000.0 0.37022880675621195 -0.9049555591034812
4538000000.0 0.3611000442218869 -0.9161764304423985
4541000000.0 0.3193594448380893 -0.9274292145802935
4544000000.0 0.384140574724292 -0.923207913384202
4547000000.0 0.39513589970047797 -0.9088753544156576
4550000000.0 0.37422355225972465 -0.9463575409324099
4553000000.0 0.37634142283313776 -0.929812275078129
4556000000.0 0.35503267540042466 -0.9316266507468028
4559000000.0 0.37706342510695295 -0.9424870647501127
4562000000.0 0.38106247378608943 -0.9445288179810738
4566000000.0 0.3763591365957516 -0.9508144566561558
4569000000.0 0.37578474253807903 -0.9325188599033097
4572000000.0 0.36649793308039574 -0.9431654620480487
4575000000.0 0.3544046043770513 -0.9436328566664766
4578000000.0 0.3868977399700376 -0.9464807356928919
4581000000.0 0.3487895648539146 -0.9437208808307256
4584000000.0 0.340745435695642 -0.9351449372660855
4588000000.0 0.36711499586599855 -0.957441864472711
4591000000.0 0.38698521189976043 -0.9496310649193569
4594000000.0 0.34808259191932267 -0.9355496512179519
4597000000.0 0.34640343069325286 -0.94806746943398
4600000000.0 0.3313210923029974 -0.9481258338068326
4603000000.0 0.3426448484565111 -0.9413257620557224
4606000000.0 0.3695644682797456 -0.9638763062204443
4609000000.0 0.3662867904242503 -0.9288808533825429
4612000000.0 0.33668387236196934 -0.9480270320354285
4616000000.0 0.3501224317263665 -0.9402189638973946
4619000000.0 0.34387522063595977 -0.9518795264358195
4622000000.0 0.346752547094189 -0.9573766940859822
4625000000.0 0.32795503710857665 -0.9452373916121289
4628000000.0 0.375879183364073 -0.9409256145704017
4631000000.0 0.3399160103944934 -0.9470877049266601
4634000000.0 0.3340118860080439 -0.9510786998965237
4638000000.0 0.34666137032117816 -0.9488682037844285
4641000000.0 0.3631979738546313 -0.9410303403548901
4644000000.0 0.34090879621416803 -0.9385665968894656
4647000000.0 0.35244156603035875 -0.9563516148111932
4650000000.0 0.32382006655877205 -0.9438286576863075
4653000000.0 0.3516664365290423 -0.9542145129474902
4656000000.0 0.3080313569690927 -0.9609939455224902
4659000000.0 0.3181863072990624 -0.9482706268831409
4662000000.0 0.3340939051298777 -0.973628955083075
4666000000.0 0.3216213713056753 -0.962932645740835
4669000000.0 0.3448983687915464 -0.9436170920321351
4672000000.0 0.3287805862745125 -0.9845161620405914
4675000000.0 0.3088453182447368 -0.9771941084298512
4678000000.0 0.3377043366418714 -0.9335954834175174
4681000000.0 0.31633443042693904 -0.9736406312080148
4684000000.0 0.30234545178950717 -0.9919748737187193
4688000000.0 0.2644930207062727 -0.9603340820967277
4691000000.0 0.34451820334486205 -0.9493557609752072
4694000000.0 0.3474735163290032 -0.9384930982232375
4697000000.0 0.28578192665789454 -0.9300389975401608
4700000000.0 0.3237072682270513 -0.9553599565545745
4703000000.0 0.3380119426658998 -0.8884984629364814
4706000000.0 0.3142643900252918 -0.9591137483381174
4709000000.0 0.3048029437737263 -0.9651199848608082
4712000000.0 0.3561912408113431 -0.9547834394969674
4716000000.0 0.33424023263161007 -0.9912286188404354
4719000000.0 0.3451743084985938 -0.9711940574345884
4722000000.0 0.3550859840150399 -0.9373999021812398
4725000000.0 0.35921970082760285 -0.9475644808448419
4728000000.0 0.2846573781524894 -0.9648345215701752
4731000000.0 0.34427339547194336 -0.959325324200792
4734000000.0 0.3477534966842087 -0.9451418279222535
4738000000.0 0.343326345007654 -0.9909710692146564
4741000000.0 0.3097529365063229 -1.0164738847577686
4744000000.0 0.3087577753722578 -0.9777660808687696
4747000000.0 0.332865860608741 -0.9121909051020622
4750000000.0 0.3013555134125621 -0.9820907694312694
4753000000.0 0.37130876167394455 -0.964215117997359
4756000000.0 0.3124850794055396 -0.9984329111115187
4759000000.0 0.35903992060773693 -0.9738449174029107
4762000000.0 0.30443312456244903 -1.0096766219130051
4766000000.0 0.32996143400532235 -0.9880018799039941
4769000000.0 0.3193541653738332 -0.9860098794555506
4772000000.0 0.32548094884676537 -0.9864982429484925
4775000000.0 0.29153320351635914 -0.9800784326194746
4778000000.0 0.3060503688299089 -0.9735981647523048
4781000000.0 0.30620466709929006 -0.9722695230859479
4784000000.0 0.3354911351456772 -0.9812002224943072
4788000000.0 0.28342551166047625 -0.9989253844547145
4791000000.0 0.3045605349696999 -0.9573105158712519
4794000000.0 0.33908082241927623 -0.9893709360651969
4797000000.0 0.3230544178781512 -0.9652980262379867
4800000000.0 0.28417771741532577 -0.9413221456041655
4803000000.0 0.262444854166755 -0.9750119533506012
4806000000.0 0.29791720194447874 -0.9800806601955788
4809000000.0 0.23083845244948828 -0.9897932220200546
4812000000.0 0.27807293868123484 -0.959736192904377
4816000000.0 0.32652452542197363 -0.9372363825793336
4819000000.0 0.3282108154997632 -0.9876338741999369
4822000000.0 0.3229212175388856 -1.0021544675472283
4825000000.0 0.3372766024610575 -0.9869462593649139
4828000000.0 0.3159848006908488 -0.9720499622075356
4831000000.0 0.27793087364223534 -1.0071935679831086
4834000000.0 0.3194142784626572 -0.9831006402046208
4838000000.0 0.2842639571256153 -0.9800076407520105
4841000000.0 0.28208300594931596 -0.9507012143423079
4844000000.0 0.3204829222669244 -0.9764098803476994
4847000000.0 0.3160555428384321 -0.9386190848398177
4850000000.0 0.2843778401435944 -1.0017254318533824
4853000000.0 0.3137098207321174 -0.9458341901794418
4856000000.0 0.27164913551677033 -0.9643454981955394
4859000000.0 0.2887287556260236 -1.0093401139670064
4862000000.0 0.3113135844975872 -0.9556426644958829
4866000000.0 0.29005106460032415 -0.9737117969229573
4869000000.0 0.2913151345360758 -0.9835936107201926
4872000000.0 0.2924664772767033 -1.0200338533081899
4875000000.0 0.35677740145754405 -1.012183096282733
4878000000.0 0.29888319237333866 -0.9830924052678757
4881000000.0 0.2867235911811402 -1.0699910010237645
4884000000.0 0.32604071624838193 -1.0014099083160568
4888000000.0 0.32048994642888246 -0.9518553062976581
4891000000.0 0.33265974993643177 -1.0238738059245334
4894000000.0 0.28395077187875584 -0.993537475356356
4897000000.0 0.3216046520994392 -0.9562245184516384
4900000000.0 0.25531530345297615 -1.0077062488739823
4903000000.0 0.3178306391736564 -0.9758222330445008
4906000000.0 0.29402815117826914 -1.0048042080517836
4909000000.0 0.28385956727335965 -0.9939268012783823
4912000000.0 0.298853266086827 -1.0250023737681162
4916000000.0 0.3000547306055346 -0.9828077644279885
4919000000.0 0.31897360473279823 -1.035565371753633
4922000000.0 0.32159806837745797 -0.965237988902774
4925000000.0 0.28198587285743715 -1.0087261157313998
4928000000.0 0.3431539173917172 -0.9535607783379387
4931000000.0 0.31437930988619656 -1.0112166134793208
4934000000.0 0.27672160545162483 -0.9374340615980243
4938000000.0 0.26910761630813845 -0.9908434089234421
4941000000.0 0.3225557283756535 -0.978018164333632
4944000000.0 0.2950598005836905 -0.9432935542510408
4947000000.0 0.2972907762516728 -0.9721054714682371
4950000000.0 0.2879899034161277 -0.9738070420271207
4953000000.0 0.26679479111343485 -0.9981856283768333
4956000000.0 0.28008977797567747 -0.9632136044713135
4959000000.0 0.2638030113027606 -0.9889549139427379
4962000000.0 0.29834840731576795 -0.9978180844754362
4966000000.0 0.301237480318881 -0.9880752486723443
4969000000.0 0.31101903286993066 -1.043058671717088
4972000000.0 0.28659867847476006 -1.0054173348533806
4975000000.0 0.3066589512654096 -0.9922095225198083
4978000000.0 0.2469069201926798 -0.9865270309701752
4981000000.0 0.27375520525577046 -1.0075154807094415
4984000000.0 0.29966823398708503 -0.9716146931586522
4988000000.0 0.31288782719279473 -0.9756563565468622
4991000000.0 0.3565923121741522 -1.0143844782667215
4994000000.0 0.30487888138827873 -0.9485747729001527
4997000000.0 0.23490492026626936 -1.0036401765785876
5000000000.0 0.2753651322240752 -1.01983609278154
5003000000.0 0.30879744435372153 -1.0130671911585285
5006000000.0 0.3148267167039585 -1.036089190064728
5009000000.0 0.2823268407631569 -0.9896356513195594
5012000000.0 0.2579020285285487 -0.9821527231940969
5016000000.0 0.3488030999324586 -1.0072498038072322
5019000000.0 0.2793519457830408 -0.9715892281841985
5022000000.0 0.2810725620360394 -1.0153235355906969
5025000000.0 0.29024128788437065 -1.0398238240275979
5028000000.0 0.26329087157921 -0.9862022502031917
5031000000.0 0.23759970755422238 -1.0063006703428692
5034000000.0 0.26796604129150264 -1.0248801557422367
5038000000.0 0.2764868736020242 -0.9775969871243799
5041000000.0 0.2985618452121483 -0.9751719451449583
5044000000.0 0.295582935222409 -0.9437257431005285
5047000000.0 0.25986532302551624 -0.9806153626166154
5050000000.0 0.3315468241673894 -0.9406922231384491
5053000000.0 0.26718800835829964 -1.0426261185951844
5056000000.0 0.33559505582188937 -0.9683624286739605
5059000000.0 0.2890135693796345 -0.9749471251057882
5062000000.0 0.22261470368308256 -1.0113352733558807
5066000000.0 0.3001068964370365 -0.9857498221109606
5069000000.0 0.30482350284358883 -0.9823128344000831
5072000000.0 0.30519929752980135 -0.9490636860458344
5075000000.0 0.31649865804344446 -0.9466537715721894
5078000000.0 0.2632947934477905 -1.0223856318785716
5081000000.0 0.25647927105613355 -0.9526555526124443
5084000000.0 0.26422945087284283 -0.9724677758759155
5088000000.0 0.2903539960980813 -0.9876254681149561
5091000000.0 0.22671734914664443 -0.9862715563717369
5094000000.0 0.26946869036531507 -1.013967471422009
5097000000.0 0.3219499131210371 -0.9402836008976114
5100000000.0 0.27093692562067295 -0.991297072478003
5103000000.0 0.24750521844898699 -1.0320416983703615
5106000000.0 0.2961294172817631 -1.0227672203572826
5109000000.0 0.25831240934152905 -0.9910868866196325
5112000000.0 0.2743475443578091 -0.995066671668815
5116000000.0 0.2848574055344387 -0.9707348573285413
5119000000.0 0.2506474736510502 -0.9859577684187255
5122000000.0 0.2571067164041201 -0.9661533713463688
5125000000.0 0.2702998736486938 -0.9914240832325623
5128000000.0 0.26756407788500086 -1.013999336198555
5131000000.0 0.25313265316202094 -0.9927333151597315
5134000000.0 0.2584359558217349 -0.9828565780621958
5138000000.0 0.2719420093042499 -0.9549179022577623
5141000000.0 0.3248207541341397 -0.9730403600183837
5144000000.0 0.27700327302379757 -1.0092418915661134
5147000000.0 0.2825884437713142 -0.9983954939557211
5150000000.0 0.2750738585516855 -1.035786656382088
5153000000.0 0.2237119651670504 -1.0650683702411445
5156000000.0 0.2753997480927239 -0.9898356895730034
5159000000.0 0.29255424438230304 -1.034161954141735
5162000000.0 0.22622277752685632 -1.0390974030401492
5166000000.0 0.25415535780274545 -1.003358853176086
5169000000.0 0.26689664153368586 -0.9934338221770476
