! Created with skrf 1.8.0 (http://scikit-rf.org).
# Hz S RI R 50.0 
!freq ReS11 ImS11
4000000000.0 0.5078231309458188 -0.886563481512455
4003000000.0 0.5213686824718848 -0.9227794226174466
4006000000.0 0.4375265810919714 -0.9403474956560126
4009000000.0000005 0.4772106691766659 -0.8838990261383353
4011999999.9999995 0.552691900927451 -0.908815844139591
4016000000.0 0.4551524880072747 -0.9293377794824388
4019000000.0 0.4951156765132765 -0.9059303440727062
4022000000.0000005 0.5954170672374485 -0.9000108418770889
4025000000.0000005 0.47240137062786464 -0.980789824526451
4027999999.9999995 0.47466076380013394 -0.9140350263117373
4030999999.9999995 0.49267374176785295 -0.8841811344759647
4034000000.0 0.4674324512749987 -0.9506199335688647
4038000000.0000005 0.4757086858104077 -0.9358647870515311
4041000000.0000005 0.4925544229622757 -0.883664732834851
4043999999.9999995 0.5367037080623652 -0.9699705720412186
4046999999.9999995 0.5101545104314984 -0.9423298483760102
4050000000.0 0.4439452351052964 -0.942976791635628
4053000000.0 0.44571457845019113 -0.9146668619108009
4056000000.0 0.497369332922588 -0.9385172182280778
4059000000.0 0.5494554998957224 -0.9072808442778715
4062000000.0000005 0.49407685449418204 -0.9096198611183202
4066000000.0 0.47601766963908054 -0.8623361183979381
4069000000.0 0.5099312486072893 -0.9720731368547311
4072000000.0 0.5105652870925688 -0.9003354641007075
4075000000.0 0.5291124115592101 -0.9010299441152316
4078000000.0000005 0.49021599787063935 -0.9038075797853088
4081000000.0000005 0.5656622014896123 -0.9062299874046973
4083999999.9999995 0.49718599811720177 -0.9148974351025776
4088000000.0 0.527186196231817 -0.8587003749839007
4091000000.0 0.5120728830906723 -0.9477678910492999
4094000000.0000005 0.5026204827055356 -0.8659059107788287
4097000000.0000005 0.504896567367792 -0.9305288174430275
4099999999.9999995 0.4762548619751501 -0.8982328882991226
4102999999.9999995 0.5350592459929348 -0.9241256493169027
4106000000.0 0.47662147552972356 -0.9134847184039745
4109000000.0 0.47863837233227213 -0.9374288189329926
4112000000.0 0.5129688519812367 -0.9043857526264475
4115999999.9999995 0.5195749484542728 -0.895961847284746
4119000000.0 0.47683044617359427 -0.9161814416157396
4122000000.0 0.4623179294060744 -0.9535264994463619
4125000000.0 0.4763661664165704 -0.9481774293758451
4128000000.0 0.46571145124572216 -0.8646783307914551
4131000000.0 0.47631795759852535 -0.8805782485156645
4134000000.0000005 0.5355898752921977 -0.8984737659856449
4138000000.0 0.4826285193577511 -0.8868283156448398
4141000000.0 0.469377276098104 -0.9025628561873381
4144000000.0 0.502343853828446 -0.901798930898333
4147000000.0000005 0.4706407711918917 -0.9193459069813175
4150000000.0000005 0.47765513813517885 -0.9369425480998748
4152999999.9999995 0.48940990676413176 -0.9170230900537127
4155999999.9999995 0.5027022325435594 -0.9070567455625547
4159000000.0 0.4757858829925981 -0.8529493082681475
4162000000.0 0.49709152283739755 -0.8970785270063124
4166000000.0000005 0.48652720847144143 -0.9041782340431791
4168999999.9999995 0.4811925838649424 -0.9054260078927603
4171999999.9999995 0.5115663447082194 -0.8907044916522223
4175000000.0 0.49133433135402843 -0.9261936089289303
4178000000.0 0.5232186350099576 -0.9147254814977012
4181000000.0 0.500113348220561 -0.9188009585602442
4184000000.0 0.4864352398075027 -0.9146252739751751
4187999999.9999995 0.47785777468071033 -0.8918074281194336
4191000000.0 0.5155430864418281 -0.8921969187620967
4194000000.0 0.46074373623949494 -0.9016443498037278
4197000000.0 0.5015499205900293 -0.8740483113989714
4200000000.0 0.5058337165205632 -0.8923311641685171
4203000000.0000005 0.5282439732267847 -0.9131500792586773
4206000000.0000005 0.50203216345668 -0.9061152257130296
4208999999.9999995 0.48299449612614276 -0.8685828676948079
4211999999.9999995 0.47714995703862795 -0.9035362073391424
4216000000.0 0.5036216031760126 -0.8963842234466032
4219000000.0000005 0.5042216519907242 -0.9009359497157421
4222000000.0000005 0.465668073495232 -0.9043111052032744
4224999999.9999995 0.49328810419916397 -0.8887169464065842
4227999999.9999995 0.48091099613286614 -0.9073067741163723
4231000000.0 0.4746425995457756 -0.9078582329169178
4234000000.0 0.4798498385613859 -0.9129804103977117
4238000000.0000005 0.47923383838168154 -0.9065639164384532
4240999999.9999995 0.4722343380165429 -0.8961103779016731
4244000000.0 0.47901336616641305 -0.8920726671895004
4247000000.0 0.48326302369163837 -0.8841601058921773
4250000000.0 0.45823463739791537 -0.8691199959385547
4253000000.0 0.4578695412785242 -0.8947045987695663
4256000000.0 0.4875179557663104 -0.9357355206543808
4259000000.0000005 0.4642263078515331 -0.8755483504727937
4261999999.9999995 0.4696393359131501 -0.8999179716271852
4266000000.0 0.45484705781734214 -0.9104352832947692
4269000000.0 0.48248917723708695 -0.8884425284208594
4272000000.0000005 0.46525284431099256 -0.8914522830246657
4275000000.0000005 0.48510158409660115 -0.9184531559681285
4277999999.9999995 0.48830237142849403 -0.921280203702464
4280999999.9999995 0.4881193022949429 -0.8955351135900154
4284000000.0 0.47449053227606885 -0.906795711500122
4288000000.0000005 0.5142342953134263 -0.8701389589210723
4291000000.0000005 0.47254909477980134 -0.8672209090567233
4293999999.9999995 0.47762300766835836 -0.8830339862636712
4297000000.0 0.4962476197716415 -0.8689122138232922
4300000000.0 0.4732452680808856 -0.8810686426808179
4303000000.0 0.4589663469686346 -0.8921777312116513
4306000000.0 0.47516953941599227 -0.8972543395452823
4309000000.0 0.474599805225419 -0.8660585997952408
4312000000.0 0.510516509834804 -0.8905402179898491
4316000000.0 0.5002874424465945 -0.8777726084345995
4319000000.0 0.49716484779185105 -0.8626615413420576
4322000000.0 0.462243784334718 -0.9000965195124802
4325000000.0 0.4896383757297447 -0.8893990585650455
4328000000.0 0.4474159234149847 -0.8970380809229782
4331000000.0 0.45798888172417773 -0.9162008559637185
4334000000.0 0.470428340231837 -0.9296161022012085
4338000000.0 0.4933600511114537 -0.8954025890049228
4341000000.0 0.4815274090332699 -0.894778318897398
4344000000.0 0.5079410817865327 -0.928699086412231
4347000000.0 0.4634438214553626 -0.9037342547378678
4350000000.0 0.43594771457324977 -0.8779077770294453
4353000000.0 0.47448159972413295 -0.8809926747991121
4356000000.0 0.44509736126852695 -0.8956735670435111
4359000000.0 0.46265962200907734 -0.8767936335321664
4362000000.0 0.43092546103596163 -0.9354155915780239
4366000000.0 0.4692008488165248 -0.9265028221968955
4369000000.0 0.4369054714834037 -0.8923399252330498
4372000000.0 0.4271270051935269 -0.9145059115187432
4375000000.0 0.48597902475125054 -0.9031790028386777
4378000000.0 0.45222718160615016 -0.889516283227563
4381000000.0 0.4564245224724729 -0.8815991409334382
4384000000.0 0.49056317959752915 -0.9623838885970578
4388000000.0 0.46927716752338683 -0.8880756387837383
4391000000.0 0.4664550429741661 -0.8840624920936017
4394000000.0 0.4493710261099346 -0.8735241697273864
4397000000.0 0.44338002226801665 -0.9018347040750083
4400000000.0 0.4610147541559503 -0.9224544902138292
4403000000.0 0.4646973382671594 -0.9022908146734303
4406000000.0 0.43187910083294684 -0.9113473136647543
4409000000.0 0.4656234495921535 -0.9353176579403697
4412000000.0 0.40289995230746 -0.9287294497686586
4416000000.0 0.4311670325348626 -0.9063299538378407
4419000000.0 0.4345587641238237 -0.9233544230517148
4422000000.0 0.47029424728254476 -0.8874180695406011
4425000000.0 0.4866537349743509 -0.9137360306266709
4428000000.0 0.44177035273397725 -0.9044127499681837
4431000000.0 0.46768883231115416 -0.9154436560811738
4434000000.0 0.42864089581058085 -0.8931684353321243
4438000000.0 0.4628898725098999 -0.9155474523066481
4441000000.0 0.45980415047692064 -0.9136707462736808
4444000000.0 0.45889749708414507 -0.8898123784516079
4447000000.0 0.43688474536116717 -0.8945540899007071
4450000000.0 0.4685713946806282 -0.8833227230081666
4453000000.0 0.4563671488629195 -0.9331470058082909
4456000000.0 0.43109043859420065 -0.8927223309976932
4459000000.0 0.4185223135528233 -0.8798922222187513
4462000000.0 0.475589557555555 -0.9540685858659623
4466000000.0 0.45632814777714936 -0.9569863189288763
4469000000.0 0.44874833719345913 -0.8901162207911244
4472000000.0 0.45405159553185553 -0.9305667948991291
4475000000.0 0.4368556740400857 -0.8930567210588956
4478000000.0 0.4468508718827577 -0.9644636758902226
4481000000.0 0.42112847247516805 -0.8926913018582083
4484000000.0 0.400882481322477 -0.9316970064521964
4488000000.0 0.42828014524258784 -0.918563012881033
4491000000.0 0.4368452847582709 -0.9220515590227665
4494000000.0 0.4390442827536517 -0.9050661744239124
4497000000.0 0.44184083734763346 -0.8887978094447463
4500000000.0 0.46487890586352504 -0.9138315362324334
4503000000.0 0.43343754423303144 -0.9199796604183381
4506000000.0 0.4299270408546254 -0.8979042319632213
4509000000.0 0.42421397831869584 -0.9010809148147925
4512000000.0 0.4061587470409981 -0.914804117300216
4516000000.0 0.432602783492002 -0.930286430612387
4519000000.0 0.44075103394927206 -0.893127546534723
4522000000.0 0.43310400493175344 -0.920384730730591
4525000000.0 0.45596809856385356 -0.887515930291116
4528000000.0 0.43049235942268166 -0.9501413773057916
4531000000.0 0.4396971950462071 -0.9003508561403045
4534000000.0 0.4350708014031337 -0.9192326288274981
4538000000.0 0.4322722862241474 -0.909670871461422
4541000000.0 0.39784615002656526 -0.919838046030343
4544000000.0 0.410679896895816 -0.8965551386305921
4547000000.0 0.4474525621036952 -0.9195795809370095
4550000000.0 0.42238862974442465 -0.9251804628673284
4553000000.0 0.41582033736693136 -0.9183357217001302
4556000000.0 0.39748147714226634 -0.9141957015372506
4559000000.0 0.42426720867899903 -0.9255193852555311
4562000000.0 0.4374647486333711 -0.9259056071541505
4566000000.0 0.4153094964937384 -0.930460992368956
4569000000.0 0.42754392414953746 -0.9158120561581833
4572000000.0 0.41778080801836165 -0.9070105929924379
4575000000.0 0.40811409767014706 -0.9261290868646002
4578000000.0 0.4424508137811552 -0.9391038066387272
4581000000.0 0.41232540101383325 -0.9295030395247301
4584000000.0 0.41074958057678623 -0.9161851224828703
4588000000.0 0.41591832452467964 -0.9176356680338664
4591000000.0 0.43089061623637726 -0.9033265821679844
4594000000.0 0.39581744302314426 -0.9243409270501912
4597000000.0 0.3910647735465358 -0.9416827608534342
4600000000.0 0.4089722711556646 -0.9370609368003886
4603000000.0 0.4025376243322364 -0.9378707315200774
4606000000.0 0.4215886464247758 -0.9229564498071903
4609000000.0 0.42555992223480466 -0.9214192891857866
4612000000.0 0.4025286096986306 -0.9318644727665577
4616000000.0 0.4019286480771288 -0.9197135813094092
4619000000.0 0.3892682589812852 -0.9269754721790978
4622000000.0 0.39864533433931526 -0.9373222044252962
4625000000.0 0.3751511553440613 -0.9121733795469574
4628000000.0 0.4226311721923567 -0.9162599209189732
4631000000.0 0.3891194693184159 -0.9233794786096691
4634000000.0 0.4007883812996469 -0.9192996751731091
4638000000.0 0.40608695355299196 -0.929170737175853
4641000000.0 0.39266402196389033 -0.9274860710391892
4644000000.0 0.4129323063201838 -0.9278497892275026
4647000000.0 0.41775220938997903 -0.9179125650198147
4650000000.0 0.3984383812550299 -0.9389816987743012
4653000000.0 0.42267239813005975 -0.9445459222043648
4656000000.0 0.3778713475909188 -0.9249294169403217
4659000000.0 0.38960957564188703 -0.9482376653829278
4662000000.0 0.3970904301411697 -0.9229664403971309
4666000000.0 0.3765471810136451 -0.9359470293820901
4669000000.0 0.3932085209082222 -0.9374304819815413
4672000000.0 0.40216916910944484 -0.9590602007813293
4675000000.0 0.37606666105069914 -0.9790843311700292
4678000000.0 0.3838055504023473 -0.9076812085184374
4681000000.0 0.37842339117949564 -0.9602878146789171
4684000000.0 0.3596127300355871 -0.9574824999391619
4688000000.0 0.3616645763850639 -0.94970013344076
4691000000.0 0.4169931281516084 -0.9422417004607403
4694000000.0 0.3888524394040432 -0.9151210489507262
4697000000.0 0.3451260876608952 -0.9096809242392375
4700000000.0 0.37969334887239187 -0.9479071550414508
4703000000.0 0.41808844364837927 -0.8900891553695837
4706000000.0 0.3742754305226128 -0.9491991814984704
4709000000.0 0.40716691824330314 -0.9519903655281223
4712000000.0 0.3995561957152535 -0.9479614288523677
4716000000.0 0.36290288737076354 -0.9374090008782475
4719000000.0 0.42218243203104844 -0.9517823523142324
4722000000.0 0.4232783920631937 -0.9190369987492546
4725000000.0 0.42119905760256693 -0.924896367507084
4728000000.0 0.35383838100293713 -0.9537794317253258
4731000000.0 0.4128907463041067 -0.9742433026247957
4734000000.0 0.4192172536059645 -0.9646535060588606
4738000000.0 0.44524734378084235 -0.9734330608253671
4741000000.0 0.3941251995603995 -0.9708851820751034
4744000000.0 0.3628929334953095 -0.946707648625286
4747000000.0 0.3828047495519137 -0.8982824301365837
4750000000.0 0.38519041873948406 -0.9600914821924914
4753000000.0 0.38439050921202855 -0.9507512764683057
4756000000.0 0.38225642549711786 -0.9486041353311843
4759000000.0 0.3898662833140337 -0.9690810258031126
4762000000.0 0.3630203374481922 -0.969243281389534
4766000000.0 0.36887205591653716 -0.9395416434448499
4769000000.0 0.4038249597685668 -0.9568630611575392
4772000000.0 0.384158630547243 -0.9642181411882317
4775000000.0 0.381065853747545 -0.9606561697831923
4778000000.0 0.38565360784797953 -0.967182505820039
4781000000.0 0.39240455405580466 -0.9348117520499667
4784000000.0 0.3994537629577733 -0.9384625498793178
4788000000.0 0.3725192381630666 -0.980101420619425
4791000000.0 0.34927104308844764 -0.9586871129618784
4794000000.0 0.40824394575278394 -0.9641249796987864
4797000000.0 0.3570347835458616 -0.9098204837407307
4800000000.0 0.36987429649522563 -0.9410670869165708
4803000000.0 0.3432992484479691 -0.9645260010364739
4806000000.0 0.35451015627230587 -0.9786713428173974
4809000000.0 0.3366588672523687 -0.9809774251294675
4812000000.0 0.3372614261318445 -0.9434502045884147
4816000000.0 0.3956635498037374 -0.9417220328975444
4819000000.0 0.40875175535939 -0.9869029677728072
4822000000.0 0.41500912866998935 -0.9871387702056194
4825000000.0 0.41326274144091346 -0.9793364533861975
4828000000.0 0.3524376280018823 -0.9692198913978989
4831000000.0 0.3209615754046031 -0.994303051955718
4834000000.0 0.390844913614554 -0.95428483378297
4838000000.0 0.35184914705826253 -0.9934943284364383
4841000000.0 0.34673056504213495 -0.9716540592023718
4844000000.0 0.4128639250020593 -0.9511869558881081
4847000000.0 0.4097272331963341 -0.9118151967771704
4850000000.0 0.3680658795135665 -0.9927939591652027
4853000000.0 0.35770955548733596 -0.9238813405848755
4856000000.0 0.3839013698814937 -0.9613985741648726
4859000000.0 0.36976008076499123 -0.9970438270006389
4862000000.0 0.41490525310243626 -0.9428261113023281
4866000000.0 0.3538962499549784 -0.9960230761704564
4869000000.0 0.36524851624662746 -0.9635021388649121
4872000000.0 0.37025399498367917 -0.9851666210894062
4875000000.0 0.4508003441782201 -0.9946449064210758
4878000000.0 0.3741807982044012 -0.957034642960269
4881000000.0 0.37136041707180706 -1.0493386298086858
4884000000.0 0.3826562542696592 -0.9582493051540198
4888000000.0 0.4251310694298931 -0.9457574933355999
4891000000.0 0.41561048125679734 -0.9646130337031232
4894000000.0 0.37267234848752434 -0.9760760084042069
4897000000.0 0.39971617280158506 -0.9346605531046384
4900000000.0 0.3962549619306029 -0.9759344894557725
4903000000.0 0.42045086162570017 -0.9895848868437641
4906000000.0 0.4009449231788518 -0.9842568357551098
4909000000.0 0.36252742065021826 -0.9671540292083135
4912000000.0 0.40802313995738415 -1.0338204929691133
4916000000.0 0.37548353778710564 -0.9781102168130187
4919000000.0 0.4249299463548618 -0.9845001068370324
4922000000.0 0.4265047987484155 -0.9655739753606601
4925000000.0 0.310547572261504 -0.9856931029142589
4928000000.0 0.4231480027545718 -0.9364938897697646
4931000000.0 0.4031946902547399 -0.9511829523680722
4934000000.0 0.3659757538772621 -0.8900191726828913
4938000000.0 0.35170196681217014 -0.9644891872790614
4941000000.0 0.39164455766026485 -0.9551527173157168
4944000000.0 0.39101909910551014 -0.9353319285044468
4947000000.0 0.3738031772284046 -0.9551408436372637
4950000000.0 0.35150689043520356 -0.9582311236495211
4953000000.0 0.3398397258390697 -1.0360779085541512
4956000000.0 0.3453096043243743 -0.9833029243761909
4959000000.0 0.31900895078195146 -0.9650358371603868
4962000000.0 0.3974136996125131 -0.9726542734821829
4966000000.0 0.4047390341534941 -0.988789587358812
4969000000.0 0.3845894756023951 -0.9963139497266746
4972000000.0 0.3587460077220045 -0.9707484655043462
4975000000.0 0.39881887077308487 -0.9531199750959258
4978000000.0 0.33457945481463003 -0.9519964914746677
4981000000.0 0.3830880172979592 -1.0061987747549865
4984000000.0 0.352954496258695 -0.9343172509587255
4988000000.0 0.40121085735644757 -0.9560823570797006
4991000000.0 0.45681600797645555 -0.9684664370782439
4994000000.0 0.41256298200423935 -0.9410476501093408
4997000000.0 0.34685308211369575 -0.9910168880793914
5000000000.0 0.38598361554782384 -0.9961916452104577
5003000000.0 0.4139234701375559 -1.0166956475453233
5006000000.0 0.3991867893767248 -0.99360597280347
5009000000.0 0.3761208225214184 -0.9713959643061545
5012000000.0 0.34027129478935264 -0.9738778661460834
5016000000.0 0.45590593098602317 -0.9825884118724872
5019000000.0 0.3646776330267678 -0.9517471630846969
5022000000.0 0.36649716766590434 -0.9785416442283865
5025000000.0 0.38182728361824353 -0.9982768114006442
5028000000.0 0.3565935995988019 -0.9658548619277323
5031000000.0 0.3728942581422654 -0.967827360773974
5034000000.0 0.3288455190427622 -1.008513298408459
5038000000.0 0.33315692677935005 -0.9564971066281494
5041000000.0 0.3954244287254307 -0.9872428838667148
5044000000.0 0.3994410653617725 -0.9603554682453409
5047000000.0 0.3737419972450568 -0.9601382393749393
5050000000.0 0.43674545676257165 -0.9457029803808776
5053000000.0 0.3694633347751692 -1.0002312939667668
5056000000.0 0.43945512055628466 -0.9535679390284262
5059000000.0 0.41491264649940685 -0.9742308805789661
5062000000.0 0.37538224687151034 -1.0204328367393516
5066000000.0 0.3856560989076008 -0.9635521415234235
5069000000.0 0.3938193547145297 -0.9903140731599966
5072000000.0 0.3918107367414587 -0.9826561517943249
5075000000.0 0.3767868343404578 -0.960458576711384
5078000000.0 0.36535660947634163 -1.0218092225221453
5081000000.0 0.37052146688982945 -0.9751671118694144
5084000000.0 0.3728463272342336 -0.9406418514638792
5088000000.0 0.3602486310249472 -0.9574423953927604
5091000000.0 0.37447578318035424 -1.0010981250548001
5094000000.0 0.3743877604836734 -0.9778351057094543
5097000000.0 0.42401037854894835 -0.9925232733035498
5100000000.0 0.398067280869964 -0.955668405589581
5103000000.0 0.3770817437811366 -1.010796111185042
5106000000.0 0.37326383338665 -0.975893110291173
5109000000.0 0.3844160752929533 -0.9625701922464982
5112000000.0 0.3503864931454847 -0.9795815508493552
5116000000.0 0.3762903263680595 -0.9328992813186484
5119000000.0 0.3383658930517888 -0.9956862688245912
5122000000.0 0.3738267474815612 -0.9767755735087328
5125000000.0 0.37965069764193776 -0.9619536109935134
5128000000.0 0.36227213358614413 -0.9906506280622029
5131000000.0 0.39206615671516754 -0.9660865364869025
5134000000.0 0.3686867057913549 -0.970588985067254
5138000000.0 0.4329300591206561 -0.9953791142421544
5141000000.0 0.4188429638227548 -0.9511611661898658
5144000000.0 0.454269626011877 -0.9647909283525524
5147000000.0 0.37843621865740146 -0.9484395257032481
5150000000.0 0.4430673631794997 -0.953871937422065
5153000000.0 0.39499761709838055 -0.9747724301271647
5156000000.0 0.3666416582047011 -0.9506529144367368
5159000000.0 0.3871377183155105 -0.9780926765928558
5162000000.0 0.34818790275896583 -0.994866574145967
5166000000.0 0.36538237399121254 -0.9655686709653618
5169000000.0 0.4336574797208315 -0.9940914004383772
