! Created with skrf 1.8.0 (http://scikit-rf.org).
# Hz S RI R 50.0 
!freq ReS11 ImS11
4000000000.0 0.5104427992510492 -0.8435747833962883
4003000000.0 0.5653259295399271 -0.9095114231171406
4006000000.0 0.5002006657666782 -0.8995161146118464
4009000000.0000005 0.5641299622014744 -0.8862685741918794
4011999999.9999995 0.6366197263533655 -0.84221321643611
4016000000.0 0.5015963752289818 -0.8641276770216225
4019000000.0 0.5576584563298499 -0.8780033573565794
4022000000.0000005 0.6212615789683605 -0.855866728754818
4025000000.0000005 0.5358186039503872 -0.9274108268830191
4027999999.9999995 0.5458892653474022 -0.9447227751342528
4030999999.9999995 0.5430731536358069 -0.827003294357416
4034000000.0 0.5331835487674015 -0.88462639447128
4038000000.0000005 0.53887165582125 -0.9068780918781589
4041000000.0000005 0.5613308627448725 -0.9226694034987656
4043999999.9999995 0.5690598043572254 -0.9638311734778482
4046999999.9999995 0.6006142008396448 -0.8903318696256447
4050000000.0 0.5150810302858744 -0.8911984683514134
4053000000.0 0.4668882928662079 -0.8979734574423754
4056000000.0 0.5841558728089453 -0.8878825732359965
4059000000.0 0.5511409587265625 -0.8685141232409184
4062000000.0000005 0.5511430406617966 -0.928442987425333
4066000000.0 0.5199402279838302 -0.8091579587557068
4069000000.0 0.5560162584315191 -0.8874969825609483
4072000000.0 0.5662067085004137 -0.8490478981479324
4075000000.0 0.6136695168157343 -0.8616193863968438
4078000000.0000005 0.5683281492857144 -0.8874506055309443
4081000000.0000005 0.6267902315071293 -0.8392279842359108
4083999999.9999995 0.5191078719160107 -0.9515100239680486
4088000000.0 0.601034966970557 -0.8534662910753897
4091000000.0 0.5543792326299333 -0.929910320442934
4094000000.0000005 0.5361927869420264 -0.884507312790352
4097000000.0000005 0.5713886980223236 -0.8853161093214273
4099999999.9999995 0.5430579402352346 -0.8676566596736217
4102999999.9999995 0.5516125441298534 -0.8899720178413236
4106000000.0 0.549150897848147 -0.8690626051008761
4109000000.0 0.5319826554529776 -0.8859168676945299
4112000000.0 0.5471978651283338 -0.8777399405947222
4115999999.9999995 0.55326227900311 -0.8460257944708469
4119000000.0 0.5448180282656636 -0.9468266629695382
4122000000.0 0.5288020064265161 -0.8476145438848005
4125000000.0 0.5843717354531401 -0.9480896389757734
4128000000.0 0.5589753222967231 -0.8313955083414253
4131000000.0 0.5434360456422579 -0.8689863142346197
4134000000.0000005 0.5319978391919461 -0.8670949100355607
4138000000.0 0.5531406710968876 -0.8658392015843047
4141000000.0 0.515935092173686 -0.8343614026160259
4144000000.0 0.5342381987673822 -0.8851206963224638
4147000000.0000005 0.5204288605678494 -0.8581933599340341
4150000000.0000005 0.5776697007245426 -0.8626062470957798
4152999999.9999995 0.5492921333035219 -0.8532794061732765
4155999999.9999995 0.5839337523644779 -0.880011940124043
4159000000.0 0.5568587412616908 -0.8335556165230061
4162000000.0 0.5495575638699296 -0.8521460722993374
4166000000.0000005 0.55995440334772 -0.9023430623440262
4168999999.9999995 0.5471270573436039 -0.8693201652706666
4171999999.9999995 0.546489143766594 -0.8847833452405727
4175000000.0 0.5649325120013339 -0.8898220958638472
4178000000.0 0.5493627405578142 -0.8781831752160347
4181000000.0 0.5384289761095719 -0.9094434766207797
4184000000.0 0.5635547504270342 -0.8588440927818752
4187999999.9999995 0.5680090380267732 -0.8715485097335953
4191000000.0 0.5759588141867358 -0.8315694421864309
4194000000.0 0.5526384536071898 -0.8637244041927138
4197000000.0 0.5888428481560113 -0.8748413969378328
4200000000.0 0.5666160988093965 -0.8332312570233759
4203000000.0000005 0.5749521624736904 -0.8646763872126205
4206000000.0000005 0.5560352399027375 -0.8560610500802536
4208999999.9999995 0.5651969862583541 -0.8513987425993158
4211999999.9999995 0.5269655345215861 -0.8830532344198678
4216000000.0 0.5739270497303604 -0.8442633711317412
4219000000.0000005 0.5709153159753153 -0.8612649867345101
4222000000.0000005 0.5520865696229382 -0.8776051835597937
4224999999.9999995 0.5495156268864592 -0.8639126676456508
4227999999.9999995 0.560635838542721 -0.892052609085972
4231000000.0 0.5395847522759496 -0.8644746557376257
4234000000.0 0.5480622617823403 -0.8776306882775522
4238000000.0000005 0.5492548671304667 -0.859353832747243
4240999999.9999995 0.5516340710117844 -0.8664704263898743
4244000000.0 0.5676956750531472 -0.8316024617715398
4247000000.0 0.5560252913963811 -0.8492981173021824
4250000000.0 0.5200664979820245 -0.8438359372922082
4253000000.0 0.539325608281419 -0.85381585946036
4256000000.0 0.570644111523085 -0.8717879838369783
4259000000.0000005 0.5430090596478565 -0.8270459405471478
4261999999.9999995 0.5445113151431538 -0.851528328158986
4266000000.0 0.5274532768023652 -0.87418660575063
4269000000.0 0.5610652131968177 -0.8770406113426883
4272000000.0000005 0.5442172174963269 -0.8474997271313339
4275000000.0000005 0.5598078569720665 -0.8698696174187402
4277999999.9999995 0.5499360967089526 -0.8734449592388072
4280999999.9999995 0.5671750482381679 -0.8603959397308643
4284000000.0 0.5190700491829844 -0.8857582774783707
4288000000.0000005 0.5559957391420358 -0.854091413533467
4291000000.0000005 0.5677567591038839 -0.8358010562895819
4293999999.9999995 0.5406939168293313 -0.8477556866215401
4297000000.0 0.5743352873434733 -0.8560328325108855
4300000000.0 0.539452183097023 -0.8520807078018289
4303000000.0 0.5486285926087574 -0.8678580281862174
4306000000.0 0.5602778313789175 -0.8426662265918948
4309000000.0 0.5580417356154767 -0.8419398765335004
4312000000.0 0.609514911536377 -0.8542270868871435
4316000000.0 0.5808470718420948 -0.8523720140659286
4319000000.0 0.545558229595943 -0.8526267193499295
4322000000.0 0.5238932692908648 -0.850387497614112
4325000000.0 0.568906183945019 -0.8455367201395744
4328000000.0 0.562928196337265 -0.8368238532507414
4331000000.0 0.49863532295467794 -0.8776655272323973
4334000000.0 0.5341632033963777 -0.850350329080856
4338000000.0 0.5689171879127203 -0.8500343007545063
4341000000.0 0.5856046931122563 -0.8593287150042209
4344000000.0 0.5781173220310054 -0.8815202927783817
4347000000.0 0.5313204391862244 -0.8713271182931469
4350000000.0 0.5337147071573066 -0.8272941606761071
4353000000.0 0.5458983644527533 -0.8294570523889466
4356000000.0 0.5406094215996062 -0.8551322396849897
4359000000.0 0.5064144553335524 -0.808384339569975
4362000000.0 0.5155569520373248 -0.9038764783856543
4366000000.0 0.5603566615992378 -0.8822933013539469
4369000000.0 0.5197092052472154 -0.8293969442680443
4372000000.0 0.532586499285017 -0.8643863904275957
4375000000.0 0.5508034965698236 -0.8366016303386269
4378000000.0 0.5403039843233152 -0.8395482303948534
4381000000.0 0.5596752329987215 -0.8350293726571592
4384000000.0 0.5714261834316221 -0.8981094370425297
4388000000.0 0.5583735481466312 -0.8401423979846471
4391000000.0 0.5593300150243643 -0.8614440279345525
4394000000.0 0.5265433194529415 -0.8475742012247744
4397000000.0 0.5283732039712611 -0.8481121489931407
4400000000.0 0.5473962462704308 -0.860176238138162
4403000000.0 0.5559557436378592 -0.8535755920380758
4406000000.0 0.510276524591877 -0.867543587822371
4409000000.0 0.5511876998889851 -0.880631737863429
4412000000.0 0.490033710825686 -0.8843134982597571
4416000000.0 0.5087201717895623 -0.8533096254942423
4419000000.0 0.5224650525573624 -0.8694279500806221
4422000000.0 0.5431725938283772 -0.8456524517481235
4425000000.0 0.5704202299473892 -0.8766767607020156
4428000000.0 0.5347799105011765 -0.8499482776209244
4431000000.0 0.5403837712963099 -0.869397257429251
4434000000.0 0.5241886093607452 -0.8721505549295021
4438000000.0 0.5532490247409415 -0.8701658157618092
4441000000.0 0.5576323505962185 -0.8797899668777538
4444000000.0 0.5295856337784741 -0.834078248413271
4447000000.0 0.5240048872556646 -0.8585950054974608
4450000000.0 0.5458502140493556 -0.8349978008260125
4453000000.0 0.5671592531010579 -0.8705068058090819
4456000000.0 0.509791703139509 -0.8416386579687644
4459000000.0 0.5098202753263897 -0.8323473128071776
4462000000.0 0.5636492490314846 -0.918105107470284
4466000000.0 0.5514240069017668 -0.8932162977988274
4469000000.0 0.5460741341783462 -0.856504569779176
4472000000.0 0.5216423214060231 -0.9051087273840265
4475000000.0 0.5241572621515012 -0.8332130532948163
4478000000.0 0.5229255278158306 -0.9055842966187004
4481000000.0 0.5082870248254358 -0.8326542275571336
4484000000.0 0.5033379687676331 -0.8801433617838699
4488000000.0 0.49698203998036206 -0.8569305035182004
4491000000.0 0.5342308372870006 -0.8623472910656531
4494000000.0 0.5170497776694986 -0.8534117908660316
4497000000.0 0.5414066176714896 -0.8415135406839158
4500000000.0 0.527825476577199 -0.8772326632238021
4503000000.0 0.5652819343991871 -0.8694348762597867
4506000000.0 0.5078926089663471 -0.8696443805687273
4509000000.0 0.5060314573581458 -0.8423770438852927
4512000000.0 0.4992377470037391 -0.8575836731687445
4516000000.0 0.5371940725322798 -0.8682184287206522
4519000000.0 0.541125832494308 -0.8237443443306673
4522000000.0 0.5171042407743106 -0.8601901392660545
4525000000.0 0.5421840400932527 -0.8473119185136757
4528000000.0 0.5322641819178935 -0.891531875833997
4531000000.0 0.5327098450423217 -0.8611949235341783
4534000000.0 0.5185154828393281 -0.8379991008788825
4538000000.0 0.518908961889447 -0.8703895860656223
4541000000.0 0.4832287154578312 -0.8777296030867102
4544000000.0 0.5263721884775685 -0.8490176585629997
4547000000.0 0.5541357246500429 -0.8342047199476339
4550000000.0 0.5066439096514612 -0.8683547212923803
4553000000.0 0.5077802780952249 -0.8677090056927207
4556000000.0 0.5115677124077161 -0.8590850465690587
4559000000.0 0.5034096995553132 -0.864573492692857
4562000000.0 0.5547803545430192 -0.8790913369275627
4566000000.0 0.5426623384060933 -0.8889647749308845
4569000000.0 0.5002540563989384 -0.8537123279363872
4572000000.0 0.521275207315137 -0.863331238685893
4575000000.0 0.5095824541294406 -0.8691733285944738
4578000000.0 0.5477660777754987 -0.867049017912685
4581000000.0 0.5016404492499793 -0.8849527446337493
4584000000.0 0.4915786886471619 -0.8600959991288495
4588000000.0 0.5359615255291548 -0.8723750058578019
4591000000.0 0.5328556802486648 -0.8549688158710842
4594000000.0 0.4945093973183021 -0.881321199815621
4597000000.0 0.5048057877222247 -0.884378361452784
4600000000.0 0.48753790216115844 -0.8820761637966561
4603000000.0 0.5285236863865063 -0.8842236389438075
4606000000.0 0.505372166398691 -0.8760952165209333
4609000000.0 0.5117970238630437 -0.857184109104131
4612000000.0 0.5152099709257671 -0.8811964210837004
4616000000.0 0.49871921965237725 -0.8757798045075528
4619000000.0 0.5326485135094762 -0.8662743822550383
4622000000.0 0.5256988328224497 -0.8753383250342219
4625000000.0 0.4762118880136187 -0.8602859347303383
4628000000.0 0.5356940366814125 -0.8563795979284099
4631000000.0 0.471226932020468 -0.8708859395680435
4634000000.0 0.49393319179846595 -0.8705839531103526
4638000000.0 0.5186285571368496 -0.8710966612806765
4641000000.0 0.5248447421078465 -0.8947212581642497
4644000000.0 0.5026827516656454 -0.874663783968226
4647000000.0 0.5109128942149336 -0.8687217679948432
4650000000.0 0.47486156977629146 -0.8648899248062619
4653000000.0 0.5226884929889672 -0.896753765269188
4656000000.0 0.49833009400927264 -0.8783079763982312
4659000000.0 0.4984987407261517 -0.8763557624701946
4662000000.0 0.49993970632523943 -0.8807094395333807
4666000000.0 0.488482579688124 -0.8844188678297628
4669000000.0 0.5071887933759825 -0.8758164907070412
4672000000.0 0.48989211226125196 -0.9092777409895326
4675000000.0 0.49484921556902645 -0.8919654828552253
4678000000.0 0.495987619070545 -0.8550773951750357
4681000000.0 0.46874008207548096 -0.9107700437518587
4684000000.0 0.47116685714314027 -0.8950367547965695
4688000000.0 0.5067254505376808 -0.8792748970873314
4691000000.0 0.5131919166526994 -0.8628435349318968
4694000000.0 0.5025246040740138 -0.8834762816592628
4697000000.0 0.4682828511701381 -0.8430039718675885
4700000000.0 0.5064776791145507 -0.8721098463343805
4703000000.0 0.5072744655697465 -0.8551179016403347
4706000000.0 0.5013494211712964 -0.9078945294771623
4709000000.0 0.5021737851761168 -0.875186088680008
4712000000.0 0.512913717527483 -0.8757729092328552
4716000000.0 0.5083698663055378 -0.9082946673602177
4719000000.0 0.5405677902811905 -0.8839726874830786
4722000000.0 0.5304607339189567 -0.8871651098708331
4725000000.0 0.5018571755382214 -0.8971420129369739
4728000000.0 0.4754899020828247 -0.8987549431687428
4731000000.0 0.529094205493617 -0.8851689342030543
4734000000.0 0.501808731568083 -0.8675250132931274
4738000000.0 0.552312251810917 -0.9153707146097998
4741000000.0 0.507973988141234 -0.9268590568841357
4744000000.0 0.4756939542046313 -0.899584299357357
4747000000.0 0.5250532815409543 -0.864684117068999
4750000000.0 0.5030954526830125 -0.907863868294453
4753000000.0 0.5194588641452286 -0.8830200302071792
4756000000.0 0.4936869644038697 -0.9007624303156779
4759000000.0 0.5123283356395919 -0.8847322363642846
4762000000.0 0.4799240590669892 -0.8702246514340578
4766000000.0 0.48584807483871184 -0.8918018789059028
4769000000.0 0.4878579875266654 -0.8946875273180079
4772000000.0 0.5148272886378832 -0.8950391698231979
4775000000.0 0.522263742430156 -0.935226071400964
4778000000.0 0.4838787391115354 -0.8847516853639565
4781000000.0 0.510589836385066 -0.8900991060626878
4784000000.0 0.5124800027391052 -0.9074148378125343
4788000000.0 0.4739611555967215 -0.9070646573570512
4791000000.0 0.4735555856237281 -0.8847021818902074
4794000000.0 0.5291070855721025 -0.9036539525809042
4797000000.0 0.4851380856808897 -0.893529739387107
4800000000.0 0.4799106201174652 -0.8729860216213484
4803000000.0 0.4442134752772916 -0.9045301524479364
4806000000.0 0.5157100201655733 -0.9069237549493208
4809000000.0 0.45312276406459956 -0.8932583804056943
4812000000.0 0.45820047732838154 -0.9259300740266942
4816000000.0 0.5018088326519385 -0.8580856758459545
4819000000.0 0.5115636294243426 -0.8896258339849267
4822000000.0 0.5232827830692643 -0.9170162110124686
4825000000.0 0.5344945114176725 -0.9211944008031201
4828000000.0 0.4767057652270493 -0.8954158768024795
4831000000.0 0.4806580978294026 -0.941027994979642
4834000000.0 0.5066633111964132 -0.8984698229437975
4838000000.0 0.4821980331467469 -0.9390257057448358
4841000000.0 0.46111266525349637 -0.8942187616739473
4844000000.0 0.5226505176679526 -0.883421378875898
4847000000.0 0.5007038765351912 -0.8542707227739098
4850000000.0 0.5077789055630936 -0.8986627730657611
4853000000.0 0.48653892902211715 -0.8704061522165953
4856000000.0 0.49614586981192743 -0.8752686985418939
4859000000.0 0.5151470411158066 -0.9411425589485701
4862000000.0 0.5034046521311961 -0.8770340981196305
4866000000.0 0.48627021827211536 -0.9136524145876516
4869000000.0 0.4944582577281599 -0.9232735323980724
4872000000.0 0.5025392013295971 -0.9230824540545477
4875000000.0 0.5894015838495581 -0.9182186228611307
4878000000.0 0.5260436700248515 -0.9177200634240585
4881000000.0 0.5017658789646102 -0.9545580964157582
4884000000.0 0.5126275293052195 -0.9018969777524126
4888000000.0 0.5444180048346932 -0.8911852642380022
4891000000.0 0.526817781732153 -0.9169403028929721
4894000000.0 0.4835000685389266 -0.8983983383642622
4897000000.0 0.512322597514733 -0.8802493686059726
4900000000.0 0.5270745379918873 -0.9269571293203008
4903000000.0 0.5599284990627635 -0.8667385300435292
4906000000.0 0.5355078381890829 -0.919172522524516
4909000000.0 0.4752662545879945 -0.898370507625045
4912000000.0 0.5237699633768746 -0.9552401170515185
4916000000.0 0.550104746654357 -0.9175763884437781
4919000000.0 0.5684118916949406 -0.9257963781947908
4922000000.0 0.5068225860234964 -0.8786311356690767
4925000000.0 0.48251716885505014 -0.9125757678686541
4928000000.0 0.5737802024661699 -0.8902751953131952
4931000000.0 0.5454498584113135 -0.9012896967090711
4934000000.0 0.49851963438511776 -0.8788623651639901
4938000000.0 0.4840624039333727 -0.8803815367710595
4941000000.0 0.49829253415828967 -0.8791717532125602
4944000000.0 0.5016692068912963 -0.8444081610333196
4947000000.0 0.4912905794370807 -0.8533984852003468
4950000000.0 0.4880752253673417 -0.890971397256941
4953000000.0 0.46530176953967284 -0.9646899833633223
4956000000.0 0.4806301469001146 -0.8829572377922116
4959000000.0 0.4494837961963827 -0.8985338821774248
4962000000.0 0.5032490754358832 -0.9271985707300325
4966000000.0 0.5700706611282306 -0.8954946596171854
4969000000.0 0.548599234805335 -0.9229265369559645
4972000000.0 0.5120307336133973 -0.8980361952328613
4975000000.0 0.5229249581708417 -0.8843656994592368
4978000000.0 0.5144973432538105 -0.9109465222599364
4981000000.0 0.49020947052164826 -0.9287886301520691
4984000000.0 0.5218784928803405 -0.8750443502761961
4988000000.0 0.5370926284682451 -0.8891381907627922
4991000000.0 0.574254581660275 -0.8871260935954615
4994000000.0 0.5454879878814876 -0.8971755614187868
4997000000.0 0.526003096009608 -0.9233361113108489
5000000000.0 0.5353562206385266 -0.9119626140236967
5003000000.0 0.5393146583355771 -0.9053729251111523
5006000000.0 0.5343387198643638 -0.942001243570733
5009000000.0 0.5268031370199764 -0.8704652128318009
5012000000.0 0.5155584872661421 -0.9069570285762849
5016000000.0 0.5718943084334077 -0.8980567488740734
5019000000.0 0.5027772781001383 -0.9102882559235509
5022000000.0 0.5067007358008174 -0.90723765882351
5025000000.0 0.5492536193486893 -0.9681197238439061
5028000000.0 0.5064585697561219 -0.9139731966645261
5031000000.0 0.5364142743349407 -0.9298888283122938
5034000000.0 0.5075933235088617 -0.9149888969402492
5038000000.0 0.4950107744916251 -0.890800643211664
5041000000.0 0.5526631881072559 -0.8835332541418831
5044000000.0 0.5369290943709224 -0.8799271048696504
5047000000.0 0.5419944316389766 -0.8813431815186084
5050000000.0 0.5837479123535626 -0.8358699851521252
5053000000.0 0.5160244494026436 -0.9370087300650376
5056000000.0 0.5865789697078122 -0.8796934557329258
5059000000.0 0.5880493345266009 -0.8812960612017504
5062000000.0 0.5292780306879121 -0.9080996446999252
5066000000.0 0.5864449343934843 -0.9094864967283952
5069000000.0 0.537706952830344 -0.9178807696793716
5072000000.0 0.5068253691250503 -0.9035837223633882
5075000000.0 0.555851116908577 -0.8825775458029335
5078000000.0 0.4891790563355024 -0.9132198652162332
5081000000.0 0.481938444427065 -0.8907512684777448
5084000000.0 0.57601115871138 -0.9466775837491834
5088000000.0 0.5470176835859527 -0.894844200383204
5091000000.0 0.5178088952802258 -0.9163295960492933
5094000000.0 0.527810811649273 -0.893281769736215
5097000000.0 0.5690832425348313 -0.8555261500334785
5100000000.0 0.5106298034569894 -0.8797035365999457
5103000000.0 0.5279044422868546 -0.9355527559741053
5106000000.0 0.5651276432249717 -0.9027561965038464
5109000000.0 0.5668973637311296 -0.8715717032502204
5112000000.0 0.5047031749181425 -0.8735367901624164
5116000000.0 0.5547655363973621 -0.8194908206434783
5119000000.0 0.5696011470399358 -0.9521118592119351
5122000000.0 0.5568523223459478 -0.8776106985399135
5125000000.0 0.5464702071478142 -0.8566434919346263
5128000000.0 0.5560006943423733 -0.8746087988478464
5131000000.0 0.508091825798211 -0.8829706690775462
5134000000.0 0.5505873398201468 -0.8965652921905654
5138000000.0 0.5758200618971702 -0.8891164629523161
5141000000.0 0.6103593344907912 -0.8674280994773251
5144000000.0 0.5773845756276406 -0.8875448350818932
5147000000.0 0.5341332270298613 -0.891950250599018
5150000000.0 0.5409751732039778 -0.8667464655098074
5153000000.0 0.5442562584033861 -0.8965931106626066
5156000000.0 0.5866827559421169 -0.8999985375050055
5159000000.0 0.5671046236822683 -0.9308429858154499
5162000000.0 0.5275694458138741 -0.9076830345343669
5166000000.0 0.5448466564220164 -0.8890953739672803
5169000000.0 0.5327089102311704 -0.8583928926823008
5172000000.0 0.5429877921646277 -0.8529211702108587
5175000000.0 0.5827116355092974 -0.889947255085574
5178000000.0 0.5873308559381744 -0.880704717921398
5181000000.0 0.5884954106489177 -0.9048893149270025
