! Created with skrf 1.8.0 (http://scikit-rf.org).
# Hz S RI R 50.0 
!freq ReS11 ImS11
4000000000.0 0.5676311645232639 -0.804856002626264
4003000000.0 0.5786551324589502 -0.9032347587220925
4006000000.0 0.5074273454508765 -0.9374932050194531
4009000000.0000005 0.5460387037224952 -0.8538845468261829
4011999999.9999995 0.6415910283040858 -0.8615476756625825
4016000000.0 0.5107899329600956 -0.8796322997241153
4019000000.0 0.501821446260005 -0.868316605152525
4022000000.0000005 0.6196051313110649 -0.8747377136087826
4025000000.0000005 0.507705046044154 -0.9109187640337113
4027999999.9999995 0.5375167567593545 -0.8788995409270769
4030999999.9999995 0.5203495310488421 -0.8467021554127345
4034000000.0 0.5178897468716905 -0.8776197783439923
4038000000.0000005 0.4912657016347736 -0.898633601955917
4041000000.0000005 0.569699768254353 -0.8926832241323601
4043999999.9999995 0.5794496117806418 -0.9416615966537316
4046999999.9999995 0.5984620996779423 -0.9402589569827398
4050000000.0 0.5236838273755895 -0.8944666347156064
4053000000.0 0.4957037870206886 -0.8593091220650979
4056000000.0 0.5413824935140458 -0.8744229383148212
4059000000.0 0.5324194679509018 -0.8648139203894849
4062000000.0000005 0.5284759315809228 -0.9027685840560176
4066000000.0 0.4900115559986503 -0.8423921720290505
4069000000.0 0.5432037417046288 -0.9566565302810127
4072000000.0 0.5457625555676685 -0.8544707397114505
4075000000.0 0.6017646219012022 -0.8659010434730037
4078000000.0000005 0.516687206849877 -0.8633619541372692
4081000000.0000005 0.6261739202994703 -0.9440480988971471
4083999999.9999995 0.5535510322122975 -0.8936126617454409
4088000000.0 0.5575061296289896 -0.8657923377502559
4091000000.0 0.5374873767216646 -0.9519776501486578
4094000000.0000005 0.5334895547021317 -0.8863265032076441
4097000000.0000005 0.5355992501686712 -0.8536393586531131
4099999999.9999995 0.559500300928221 -0.9070357923216578
4102999999.9999995 0.5629354146821259 -0.921655764021126
4106000000.0 0.5335436105410285 -0.9201693686645589
4109000000.0 0.5009774248210294 -0.9045968947692085
4112000000.0 0.5499596946284171 -0.8686510133305192
4115999999.9999995 0.5717733142754875 -0.8811443129185381
4119000000.0 0.5151053261459583 -0.8948923794274051
4122000000.0 0.528726236032251 -0.8751038563831063
4125000000.0 0.555261638548048 -0.9352235746486437
4128000000.0 0.5281522056075265 -0.8918506706929226
4131000000.0 0.5172070788868514 -0.8877023730217337
4134000000.0000005 0.5607706020018779 -0.8889433423146669
4138000000.0 0.5313412984298342 -0.8851516470348901
4141000000.0 0.5442168491122542 -0.851236486051701
4144000000.0 0.5592480086866889 -0.8672164019150972
4147000000.0000005 0.5402722422980104 -0.8639971775853528
4150000000.0000005 0.5459297509235072 -0.907779301487221
4152999999.9999995 0.5032620393192992 -0.876633525731561
4155999999.9999995 0.569750676404509 -0.8923508756942692
4159000000.0 0.5654224025931296 -0.867436357455491
4162000000.0 0.5335475912345727 -0.8823240123595497
4166000000.0000005 0.5361929015415237 -0.8864207923584071
4168999999.9999995 0.5175231198846673 -0.8788321042726709
4171999999.9999995 0.5750499371337242 -0.8486613359028228
4175000000.0 0.5493649798297332 -0.8847792650494212
4178000000.0 0.5429815658714403 -0.8693436305870221
4181000000.0 0.5298169225571718 -0.8563169880316965
4184000000.0 0.5410804826169315 -0.8412680659036523
4187999999.9999995 0.5371638802678106 -0.858324672977928
4191000000.0 0.5888548415858507 -0.8542583005936997
4194000000.0 0.5337921021734184 -0.8350300075553108
4197000000.0 0.5669868547925752 -0.8755505998840986
4200000000.0 0.5483115666277449 -0.8617593326511432
4203000000.0000005 0.5661657409673428 -0.866064914701743
4206000000.0000005 0.5456761503060681 -0.8719183847408518
4208999999.9999995 0.5251076187632262 -0.8507342986699585
4211999999.9999995 0.5295458059630073 -0.8865280618845169
4216000000.0 0.5528211598407252 -0.8553179401841655
4219000000.0000005 0.5620446539920753 -0.8742628851838359
4222000000.0000005 0.5296452633312205 -0.8881201158130476
4224999999.9999995 0.5369296133502852 -0.8608594315569832
4227999999.9999995 0.5530077376213692 -0.8809755380553155
4231000000.0 0.548126492555729 -0.8741820968730929
4234000000.0 0.561426457723856 -0.8858120058633919
4238000000.0000005 0.52043429860317 -0.8634393649314135
4240999999.9999995 0.5306331209587845 -0.867475883558128
4244000000.0 0.540368641553009 -0.8727542972592277
4247000000.0 0.5533161616709829 -0.8798020327630723
4250000000.0 0.5118265524134448 -0.8606501379278786
4253000000.0 0.521707445885238 -0.8494858283325747
4256000000.0 0.5511364162968935 -0.8847333812522085
4259000000.0000005 0.5077351365903204 -0.847305574634103
4261999999.9999995 0.5192820558830569 -0.847226997896865
4266000000.0 0.5139861428017635 -0.8811440540289228
4269000000.0 0.5588336911808701 -0.8613937958670816
4272000000.0000005 0.5223867239890796 -0.855351340329799
4275000000.0000005 0.5402746363483444 -0.8773394629818949
4277999999.9999995 0.5513229811253518 -0.8641287452180298
4280999999.9999995 0.5603656057708419 -0.8803581751509795
4284000000.0 0.5141016296386376 -0.8927060473484544
4288000000.0000005 0.5465611231198442 -0.8371350379595534
4291000000.0000005 0.5395334394022974 -0.8600737248370417
4293999999.9999995 0.5316566391543611 -0.859077836011197
4297000000.0 0.5487019720346867 -0.8430718131841268
4300000000.0 0.539038008720728 -0.8429644608701726
4303000000.0 0.5300923281211855 -0.8441194866600663
4306000000.0 0.5496448063472873 -0.8567718997943904
4309000000.0 0.5306220532026225 -0.8579622580690257
4312000000.0 0.5774892938519264 -0.8458647634311343
4316000000.0 0.5535056348217151 -0.8764696966611367
4319000000.0 0.5554990725859942 -0.8296219625792208
4322000000.0 0.49661214137803567 -0.8664139330278899
4325000000.0 0.5532334170674142 -0.8787838839449307
4328000000.0 0.525400152285161 -0.8525088663050674
4331000000.0 0.5286000614097095 -0.8674417406535659
4334000000.0 0.5233673863650025 -0.8789654267119088
4338000000.0 0.566340776174419 -0.8553099174104464
4341000000.0 0.5730601540455993 -0.868869527177902
4344000000.0 0.5670402479857684 -0.8891828019047884
4347000000.0 0.4985266231990366 -0.8654452668534862
4350000000.0 0.5140706730482837 -0.8595732985500824
4353000000.0 0.5255414508100709 -0.8113268245423586
4356000000.0 0.5118261934119744 -0.8681520784905844
4359000000.0 0.49985685810935887 -0.8317804701419272
4362000000.0 0.49905856395205483 -0.8938297909683264
4366000000.0 0.5352477556010511 -0.8992507784117502
4369000000.0 0.4942660670610816 -0.84242295533804
4372000000.0 0.47502781039414943 -0.8825250989946591
4375000000.0 0.5649133970487027 -0.8599012257675678
4378000000.0 0.5243136274576068 -0.8459293625752846
4381000000.0 0.5294647691354016 -0.8473951256330016
4384000000.0 0.5575695300841533 -0.9390209624179903
4388000000.0 0.5367329405516627 -0.8510988997783185
4391000000.0 0.5414210291078442 -0.8779335204981741
4394000000.0 0.5159536761932986 -0.8407138822377779
4397000000.0 0.5279300446174279 -0.8692390770574108
4400000000.0 0.5522102881801303 -0.8902150252689454
4403000000.0 0.5304149200450383 -0.8754260401661701
4406000000.0 0.5113702857291056 -0.8690766870113239
4409000000.0 0.5407516551970609 -0.8964635506402485
4412000000.0 0.4846023301700096 -0.8929037501930945
4416000000.0 0.5027601253837702 -0.8666835006713217
4419000000.0 0.5096210247049162 -0.8854822167543762
4422000000.0 0.5271769988826308 -0.8619862178007156
4425000000.0 0.5485074207789126 -0.8739633624764133
4428000000.0 0.5179692135189709 -0.8676051216592877
4431000000.0 0.5294509992951102 -0.8805870640309441
4434000000.0 0.5088778429012382 -0.8579020595695969
4438000000.0 0.5386347296766323 -0.882044487207104
4441000000.0 0.5314769740136549 -0.8711142664712148
4444000000.0 0.5161482330680917 -0.8602950446295483
4447000000.0 0.5042342187424232 -0.8704338452765914
4450000000.0 0.5201343632167867 -0.8447434489385605
4453000000.0 0.539788556398186 -0.8977978770833805
4456000000.0 0.500740720384935 -0.8457796969585383
4459000000.0 0.4872829292264361 -0.8486854988148295
4462000000.0 0.5483295856687762 -0.9224857694042428
4466000000.0 0.5227103233404938 -0.9077811083358214
4469000000.0 0.5360059623235431 -0.8643693958748042
4472000000.0 0.4953688318373241 -0.904899089119421
4475000000.0 0.5037578032490406 -0.8623597954156703
4478000000.0 0.5201948202167543 -0.909813502818768
4481000000.0 0.48399362934900236 -0.8541973971279102
4484000000.0 0.47706288639072886 -0.8909038025179418
4488000000.0 0.5218828871860195 -0.8747296911155311
4491000000.0 0.49747827778892856 -0.8681847552250257
4494000000.0 0.5100891167676429 -0.8558720100944959
4497000000.0 0.5302530696204525 -0.8465084504081
4500000000.0 0.5366999898759129 -0.8754059948225754
4503000000.0 0.525373507916253 -0.8947756781759331
4506000000.0 0.49469797588762704 -0.8633566865667583
4509000000.0 0.5135139384121102 -0.8767896438592102
4512000000.0 0.48165068957465845 -0.8700623308504664
4516000000.0 0.5342389973907027 -0.8830864349783022
4519000000.0 0.5145910581357789 -0.8512429340968906
4522000000.0 0.49763015212864387 -0.8704695209709736
4525000000.0 0.5334722460318642 -0.8505229655744448
4528000000.0 0.5212783439224713 -0.8678441093202395
4531000000.0 0.5104323968405717 -0.8712521679091025
4534000000.0 0.5196364854800628 -0.8685272988043529
4538000000.0 0.507389536961556 -0.8645146221992702
4541000000.0 0.47335283322336874 -0.8927217956875972
4544000000.0 0.5074248434108711 -0.8623971066794907
4547000000.0 0.5204515672074349 -0.856608511612557
4550000000.0 0.501594786837142 -0.8969412567822483
4553000000.0 0.4932540682190347 -0.8823726200984644
4556000000.0 0.46782407779803903 -0.8639601267835797
4559000000.0 0.48764060651001506 -0.8927797438546315
4562000000.0 0.5204950678407991 -0.8735487095351473
4566000000.0 0.5240223407729211 -0.8907976580777635
4569000000.0 0.47945472467945766 -0.8649762308877915
4572000000.0 0.5123850854133783 -0.8624052543337273
4575000000.0 0.4809034294633797 -0.9006244303728466
4578000000.0 0.5252603184784036 -0.8915357696154231
4581000000.0 0.49522218363466 -0.8867270125405639
4584000000.0 0.49067793538100235 -0.8842091320237486
4588000000.0 0.5211306904382045 -0.8740748896607957
4591000000.0 0.5194043244252651 -0.8759190040525089
4594000000.0 0.48295927151143103 -0.8801114344867851
4597000000.0 0.506355001986366 -0.891174813196454
4600000000.0 0.4637818124407706 -0.8817035862583114
4603000000.0 0.4796173019691084 -0.90164310444746
4606000000.0 0.5028361998489158 -0.8958372249877924
4609000000.0 0.5023781818243587 -0.8882136783966041
4612000000.0 0.4878857486146565 -0.8948622706245726
4616000000.0 0.4868114807189019 -0.8698181335085986
4619000000.0 0.503489633213222 -0.8897289720013772
4622000000.0 0.498354854505373 -0.9043294153059753
4625000000.0 0.45805541321325394 -0.869313109459998
4628000000.0 0.5129016621210496 -0.8935225289763044
4631000000.0 0.476112024083835 -0.8982666202044401
4634000000.0 0.47034911647609545 -0.895705398242848
4638000000.0 0.5185634128424716 -0.884219096701768
4641000000.0 0.502352210558759 -0.909372682413728
4644000000.0 0.4861835508746537 -0.8663491051346799
4647000000.0 0.5204013919922887 -0.8937626521740105
4650000000.0 0.477857505850175 -0.8995854301066674
4653000000.0 0.5005919012658283 -0.8903926770092476
4656000000.0 0.48514914419076105 -0.892318588511731
4659000000.0 0.47796430089024217 -0.9117239413554109
4662000000.0 0.48249093587578123 -0.883296101328763
4666000000.0 0.4748087334824729 -0.8798448777694337
4669000000.0 0.4855921050741935 -0.8863763701620425
4672000000.0 0.48008344013033355 -0.9055274107716146
4675000000.0 0.47101037601530327 -0.9107093387180861
4678000000.0 0.4603272615482195 -0.873258459974617
4681000000.0 0.45558894636571545 -0.9168237108462132
4684000000.0 0.44374907368175015 -0.9148670375342414
4688000000.0 0.4692027901784892 -0.8978003448975294
4691000000.0 0.4950395789419246 -0.9016695966208869
4694000000.0 0.5097644344584228 -0.8584512258525006
4697000000.0 0.4486024653424247 -0.8735427431486171
4700000000.0 0.48616149035969647 -0.900730618722444
4703000000.0 0.491691024588166 -0.8596668802556311
4706000000.0 0.4444697972919285 -0.9105094050120158
4709000000.0 0.47148466470607214 -0.8862747850006917
4712000000.0 0.47763890460414415 -0.8954042939913256
4716000000.0 0.45681868543901705 -0.9041117916654716
4719000000.0 0.5036417051718686 -0.8969487814174458
4722000000.0 0.4969224702277838 -0.8991073981523052
4725000000.0 0.4773089725965753 -0.8874489690852646
4728000000.0 0.4909569184837029 -0.8779831654966374
4731000000.0 0.487809400269115 -0.9344213953251761
4734000000.0 0.4996474413461935 -0.8898457829999272
4738000000.0 0.525676688474027 -0.9273635569816733
4741000000.0 0.48684554622508885 -0.9184671734814992
4744000000.0 0.4933255675332179 -0.8945048217398115
4747000000.0 0.4891762875871751 -0.8617044184641289
4750000000.0 0.49613867510777754 -0.9304366932747998
4753000000.0 0.5255992794818533 -0.9296760940433789
4756000000.0 0.478999010090156 -0.9426139809277676
4759000000.0 0.474126945353474 -0.919166752779124
4762000000.0 0.4750728785318332 -0.9259692852485129
4766000000.0 0.495448810418698 -0.892141612119548
4769000000.0 0.49775400049596574 -0.9214538723646872
4772000000.0 0.4931415837366693 -0.8911864293523594
4775000000.0 0.4698776700771965 -0.9683417885556764
4778000000.0 0.4888879719906747 -0.9178155776941054
4781000000.0 0.496074703539241 -0.9141978865240801
4784000000.0 0.492097239648116 -0.9130288423237354
4788000000.0 0.4661935783145874 -0.9457096248039087
4791000000.0 0.47862037456459583 -0.9389320679202209
4794000000.0 0.5320092662445615 -0.9112626624458875
4797000000.0 0.4612926418079287 -0.9073696417610648
4800000000.0 0.46348271752726333 -0.8919358763378914
4803000000.0 0.45021768359613207 -0.941417784501293
4806000000.0 0.48806550349333366 -0.9324419988552519
4809000000.0 0.4352390765465561 -0.9177592553929084
4812000000.0 0.43609170532034786 -0.8968589140731901
4816000000.0 0.49785141712930314 -0.8722019791760244
4819000000.0 0.5107687587254224 -0.9158021524542085
4822000000.0 0.5122886890297851 -0.9238375305350055
4825000000.0 0.4928591017436012 -0.9123356121573022
4828000000.0 0.4685111554927 -0.8924598433660165
4831000000.0 0.46487230094994136 -0.9418100509356597
4834000000.0 0.5024392866571751 -0.9009085730945117
4838000000.0 0.46985901607207725 -0.9495201858857374
4841000000.0 0.44500461901282984 -0.9042279838781997
4844000000.0 0.5066620113386304 -0.8937594054195769
4847000000.0 0.49447326816131226 -0.8817902676618612
4850000000.0 0.47542972691427704 -0.9348811233449318
4853000000.0 0.48918393024261775 -0.874433354213802
4856000000.0 0.47018360683262483 -0.9024042304785399
4859000000.0 0.48375835748098517 -0.9463296210884039
4862000000.0 0.4930597673774822 -0.8803158912222359
4866000000.0 0.45413271007520034 -0.9474958774254512
4869000000.0 0.4843687306794131 -0.9267571242399519
4872000000.0 0.4738027821491292 -0.9425750730097142
4875000000.0 0.5563265047247239 -0.9360480704257448
4878000000.0 0.4920274435517503 -0.9151635015464296
4881000000.0 0.4489639457065082 -0.9711101790527996
4884000000.0 0.5151065763524224 -0.9211896598232094
4888000000.0 0.5162628969833124 -0.9004492635506113
4891000000.0 0.5152707339030123 -0.9554646632085108
4894000000.0 0.4628164192926488 -0.9199828487001243
4897000000.0 0.49635155858161084 -0.8978599459081845
4900000000.0 0.5125995903705916 -0.9123643619454018
4903000000.0 0.5215686926568512 -0.9097429021205208
4906000000.0 0.4871286922328854 -0.9557066635776937
4909000000.0 0.47331061831887844 -0.916775981662103
4912000000.0 0.4999461499079858 -0.9458513809500353
4916000000.0 0.5201267044625859 -0.934178683625074
4919000000.0 0.516496882219778 -0.9391541873437005
4922000000.0 0.5319590780884185 -0.9126910667510079
4925000000.0 0.4804096286607207 -0.9211138997840752
4928000000.0 0.5580513980653272 -0.9027630414913543
4931000000.0 0.5489114055975873 -0.9001857541096965
4934000000.0 0.472655609679959 -0.8869628525488401
4938000000.0 0.43696621152288184 -0.9060818791212475
4941000000.0 0.47778615650440126 -0.9136323089845034
4944000000.0 0.4651081866829433 -0.8663272319176921
4947000000.0 0.470375595120347 -0.8765728272442008
4950000000.0 0.45386879190761686 -0.8917329721647711
4953000000.0 0.4511655713285997 -0.9586894592971931
4956000000.0 0.46076168795099903 -0.9260235719953557
4959000000.0 0.4247447645954887 -0.8865102849359907
4962000000.0 0.47968192595691805 -0.9328061473036224
4966000000.0 0.5103547501564207 -0.917162251691781
4969000000.0 0.5286243417231735 -0.9058479716686948
4972000000.0 0.47390755020871167 -0.9319192600680454
4975000000.0 0.5187192843974516 -0.890505115842482
4978000000.0 0.4745969492909379 -0.9174172924330355
4981000000.0 0.5151559427572633 -0.9156135830381418
4984000000.0 0.5158759518601483 -0.9026101545240264
4988000000.0 0.48537509980469606 -0.907972892099024
4991000000.0 0.5487713304456704 -0.9419113779965005
4994000000.0 0.48639906500229124 -0.9031205675412324
4997000000.0 0.4632914014683829 -0.905188530108284
5000000000.0 0.543528435222523 -0.9190524363074158
5003000000.0 0.5077218510818783 -0.959003600350858
5006000000.0 0.525007620152009 -0.9581020098862014
5009000000.0 0.48303457364237856 -0.9054302577872994
5012000000.0 0.47493559595114476 -0.925272696649331
5016000000.0 0.5794365868850597 -0.9467944898595944
5019000000.0 0.4951067497676632 -0.9296164942444921
5022000000.0 0.5093660259978476 -0.9102046535683986
5025000000.0 0.5025957950168781 -1.0129252700038096
5028000000.0 0.48468451981789784 -0.9281925366500045
5031000000.0 0.5237023831734191 -0.902625160949353
5034000000.0 0.48699116760322647 -0.9378348045918288
5038000000.0 0.4807027132021039 -0.9008180044802417
5041000000.0 0.5806358815833028 -0.8866622811255398
5044000000.0 0.48898713324629584 -0.8810820856766091
5047000000.0 0.5310013256069515 -0.9115973277480819
5050000000.0 0.5678310932028577 -0.8275608099561576
5053000000.0 0.528307240694307 -0.9307845234000802
5056000000.0 0.5646635635264095 -0.8850141070023775
5059000000.0 0.5618976708189963 -0.8714523276059709
5062000000.0 0.479876224890875 -0.9405194625646321
5066000000.0 0.5271291443671452 -0.8819786062255144
5069000000.0 0.5289952417975763 -0.9196772949115573
5072000000.0 0.5279010949160161 -0.9095052653057356
5075000000.0 0.538722321178691 -0.8908819404400945
5078000000.0 0.4759423304930586 -0.9182757017211418
5081000000.0 0.4734615633299434 -0.8838268663939133
5084000000.0 0.5506436141546838 -0.9482809194625929
5088000000.0 0.5311707746659563 -0.8997726442270786
5091000000.0 0.5379639387202371 -0.9028556740034099
5094000000.0 0.5133046586421425 -0.9557534871313893
5097000000.0 0.5048342396557153 -0.8811652893681436
5100000000.0 0.5511124714992552 -0.9048751810358032
5103000000.0 0.4431721004192202 -0.9624320361951515
5106000000.0 0.5285820848785483 -0.9089543443872148
5109000000.0 0.575770504270094 -0.8878984848730753
5112000000.0 0.5040255848246763 -0.8825437226752451
5116000000.0 0.4754009372543348 -0.9176995059980215
5119000000.0 0.5284327636123954 -0.971643009293897
5122000000.0 0.49213277589314774 -0.8564487677254669
5125000000.0 0.543579099650841 -0.869147492921867
5128000000.0 0.5255879348585429 -0.9311128165956872
5131000000.0 0.48178231455880693 -0.8788342166523913
5134000000.0 0.5404325631826332 -0.8964508333910683
5138000000.0 0.5612814625392737 -0.9155211098701264
5141000000.0 0.5695247344459643 -0.9044687454175904
5144000000.0 0.5715791893792377 -0.888616477535148
5147000000.0 0.5245159260102131 -0.9214403194585135
5150000000.0 0.5625972587229915 -0.8415524667119971
5153000000.0 0.5241937291987033 -0.9523055285902557
5156000000.0 0.5390344006034301 -0.8896388905331172
5159000000.0 0.5849333513922226 -0.9380836645364734
5162000000.0 0.50281025504464 -0.9504715026532433
5166000000.0 0.5563605997553129 -0.9285801602172896
5169000000.0 0.5573630644594105 -0.9119020636389388
5172000000.0 0.5318534652987218 -0.8725048752740261
5175000000.0 0.5582524404692776 -0.9000967977244947
5178000000.0 0.5368393426203386 -0.9012029513752027
