! Created with skrf 1.8.0 (http://scikit-rf.org).
# Hz S RI R 50.0 
!freq ReS11 ImS11
4000000000.0 0.5515620047005425 -0.8401979888584827
4003000000.0 0.6458082082451897 -0.9508416742351959
4006000000.0 0.5406086017528963 -0.8924675325511846
4009000000.0000005 0.5102283856272993 -0.9061637695883982
4011999999.9999995 0.6286040083598476 -0.8721797089412776
4016000000.0 0.509315756743021 -0.9502111202399584
4019000000.0 0.5608547076471845 -0.8957179085993368
4022000000.0000005 0.6113805618214059 -0.8436038171652743
4025000000.0000005 0.4755864574319457 -0.9384454993004491
4027999999.9999995 0.5556773490850287 -0.9042087814407054
4030999999.9999995 0.5438635310641795 -0.8122169414129375
4034000000.0 0.546219348574944 -0.8821928222159277
4038000000.0000005 0.5280768630984626 -0.9266326467326712
4041000000.0000005 0.5634993842491105 -0.8947381629195607
4043999999.9999995 0.5591595451831192 -0.9122721626443835
4046999999.9999995 0.5731744715407887 -0.8876109314247792
4050000000.0 0.5248792554292523 -0.8999149963395927
4053000000.0 0.5309748144467976 -0.8552070058948833
4056000000.0 0.5438785127011891 -0.8449258287452014
4059000000.0 0.5645988221308205 -0.8701254753541963
4062000000.0000005 0.5085580554374262 -0.8751269164882671
4066000000.0 0.525384990160394 -0.8022023247308953
4069000000.0 0.5261777830745695 -0.9063640915382601
4072000000.0 0.576500441967164 -0.8324794848399212
4075000000.0 0.619263713036028 -0.9240285084868792
4078000000.0000005 0.49787769876238064 -0.8854558565416981
4081000000.0000005 0.6447486994070091 -0.823385244191644
4083999999.9999995 0.5459360085919229 -0.8944172573130373
4088000000.0 0.6065623865350949 -0.8300719727649947
4091000000.0 0.5683927101833308 -0.9126750989616528
4094000000.0000005 0.5503882991235887 -0.827182648764108
4097000000.0000005 0.5686491474027489 -0.8679155355862459
4099999999.9999995 0.5617530294129304 -0.8633273437346131
4102999999.9999995 0.5990590655876742 -0.8710172220867073
4106000000.0 0.529837378540082 -0.8808052736117622
4109000000.0 0.5409521627035654 -0.8841597239061514
4112000000.0 0.5301375502956465 -0.8807288638775385
4115999999.9999995 0.5720621752202427 -0.8482851121843711
4119000000.0 0.5350253987893128 -0.8621209213829438
4122000000.0 0.529215745966575 -0.8760936517473944
4125000000.0 0.5419650797865027 -0.8892620077506956
4128000000.0 0.574055741245849 -0.8326969151612791
4131000000.0 0.5250144769732393 -0.8830227818234863
4134000000.0000005 0.594556971420464 -0.8647218421299145
4138000000.0 0.5192498882715301 -0.8191962362927688
4141000000.0 0.5538005026998164 -0.8588813323180181
4144000000.0 0.5986568290782017 -0.8658930730992858
4147000000.0000005 0.5571129251792181 -0.8578312076670535
4150000000.0000005 0.5705270220717784 -0.8976030819435685
4152999999.9999995 0.5937842231092436 -0.85026695188184
4155999999.9999995 0.5684704857263329 -0.8711643096685718
4159000000.0 0.5471086273282135 -0.8284918825438982
4162000000.0 0.5797018457102444 -0.8696213760416505
4166000000.0000005 0.5528882751986095 -0.9051002520692003
4168999999.9999995 0.5543546061818255 -0.8761497049080139
4171999999.9999995 0.5874820504303481 -0.8657732711921527
4175000000.0 0.5619626462772791 -0.8640774492360447
4178000000.0 0.541556933300066 -0.8773576947486048
4181000000.0 0.5202542746758871 -0.8657761481726854
4184000000.0 0.5460164673928667 -0.8628109230541956
4187999999.9999995 0.5432030458879672 -0.8589102691320243
4191000000.0 0.5823523798528241 -0.8397401132128182
4194000000.0 0.5593850952109405 -0.8552439942415035
4197000000.0 0.5741908026065516 -0.8692053712717644
4200000000.0 0.5731325211841416 -0.8413969244245277
4203000000.0000005 0.573039766518616 -0.8625348310296779
4206000000.0000005 0.5633521025792292 -0.859060264952577
4208999999.9999995 0.5620776722648655 -0.8532485188107455
4211999999.9999995 0.5113384926215669 -0.8644758100137918
4216000000.0 0.5708142453566841 -0.8702880643945784
4219000000.0000005 0.569959375276569 -0.859879482653168
4222000000.0000005 0.5407380226159736 -0.847838392087341
4224999999.9999995 0.5558614156687839 -0.8380417168203461
4227999999.9999995 0.5588641423210726 -0.8745746027670099
4231000000.0 0.5685186836908 -0.8557303032621894
4234000000.0 0.5646503488860379 -0.8787366129732875
4238000000.0000005 0.5472823574842978 -0.87482008254741
4240999999.9999995 0.5393775687264974 -0.8549943374253819
4244000000.0 0.5538264735975225 -0.845383239734522
4247000000.0 0.566870834822979 -0.840853362875507
4250000000.0 0.5467970480204094 -0.837194777171772
4253000000.0 0.5365987712132189 -0.8520200693963249
4256000000.0 0.5648141159231912 -0.879858674859718
4259000000.0000005 0.5363975091359742 -0.8218277042411691
4261999999.9999995 0.5251592596736339 -0.8527728378645808
4266000000.0 0.5488697999506533 -0.8687071595738929
4269000000.0 0.5486841822573425 -0.8587818584054442
4272000000.0000005 0.5663689264725238 -0.8332497465110886
4275000000.0000005 0.5595392236848289 -0.8666609661614587
4277999999.9999995 0.5694252120073834 -0.878481134010927
4280999999.9999995 0.5570475521592557 -0.8495539958405841
4284000000.0 0.529250537205754 -0.8760471879221134
4288000000.0000005 0.58898634288883 -0.8208386790315563
4291000000.0000005 0.5494015518035502 -0.8481022625275791
4293999999.9999995 0.5358345531944305 -0.8501097670018635
4297000000.0 0.5543091898431505 -0.834364543534743
4300000000.0 0.5638947808898118 -0.8542912102125857
4303000000.0 0.5294038863603188 -0.8362134991479518
4306000000.0 0.5863560309510333 -0.8535789295665375
4309000000.0 0.5617817820227823 -0.8412088203822843
4312000000.0 0.6046194654334153 -0.8454399478101136
4316000000.0 0.5960735599161563 -0.8646180897508181
4319000000.0 0.5622215468310698 -0.8013862368116792
4322000000.0 0.5116865102936545 -0.8589050837648416
4325000000.0 0.5615784007105027 -0.8430593144228951
4328000000.0 0.5493577097082342 -0.8397062726122531
4331000000.0 0.5061251868358989 -0.8651726439759035
4334000000.0 0.5408450843534383 -0.8762934235212608
4338000000.0 0.5583470804233219 -0.8297442440994109
4341000000.0 0.5948974492198843 -0.8625887918919821
4344000000.0 0.5639652908445022 -0.8614541089522418
4347000000.0 0.5344998545881433 -0.8755890621949151
4350000000.0 0.5350752921547913 -0.8203140576073197
4353000000.0 0.5523380990959312 -0.8429295909495225
4356000000.0 0.5339091044377401 -0.8522053274883822
4359000000.0 0.5387915942304952 -0.8238316523369963
4362000000.0 0.51558240067241 -0.8890113700898399
4366000000.0 0.5426344547925055 -0.8774742119747412
4369000000.0 0.5166521979483779 -0.8246586672999203
4372000000.0 0.4839685261617255 -0.8483250586301032
4375000000.0 0.5470651531692601 -0.8383018299021904
4378000000.0 0.5428789672618607 -0.8309279613799379
4381000000.0 0.5278212185758483 -0.8376076588780241
4384000000.0 0.5720502966099784 -0.9027466503477657
4388000000.0 0.540279939616657 -0.8288843653357484
4391000000.0 0.5356771542401665 -0.8660560474848829
4394000000.0 0.5204529900727992 -0.8475454114551421
4397000000.0 0.5512193165170767 -0.8448325186029519
4400000000.0 0.5532863238232147 -0.8758604366091618
4403000000.0 0.5465203318246933 -0.865067183831512
4406000000.0 0.5319426694910936 -0.8656610631106437
4409000000.0 0.5544789602321005 -0.8663996645744443
4412000000.0 0.4925837586777453 -0.8724058000803878
4416000000.0 0.528713525239222 -0.8438827235133958
4419000000.0 0.5296845695455616 -0.8629502065526129
4422000000.0 0.5559073773745389 -0.8485358172883544
4425000000.0 0.5628386204225777 -0.8587944907758571
4428000000.0 0.5362749864355061 -0.8605760283834234
4431000000.0 0.5525847568096331 -0.8746729125791879
4434000000.0 0.5258195309832553 -0.842722908702712
4438000000.0 0.5513161365523562 -0.8859247638707678
4441000000.0 0.5547099571630477 -0.8635518586522197
4444000000.0 0.5228920370960785 -0.8258081797298868
4447000000.0 0.509435086425948 -0.8578957571467987
4450000000.0 0.5423679517179171 -0.8446848011085493
4453000000.0 0.5407027980621522 -0.8830283864607167
4456000000.0 0.5191472660008407 -0.8400265773645911
4459000000.0 0.4977501538332959 -0.8155444567749963
4462000000.0 0.5730203418613787 -0.9005970860212333
4466000000.0 0.5427596282324452 -0.8948606539950114
4469000000.0 0.5524736829309354 -0.8558536620338268
4472000000.0 0.5327930101740667 -0.8900292426865827
4475000000.0 0.5110494432684742 -0.8432298776160358
4478000000.0 0.5551701374039252 -0.8883607270084508
4481000000.0 0.4990762400321897 -0.8481102319421563
4484000000.0 0.4940874221381477 -0.8666242970886239
4488000000.0 0.5230712926745276 -0.8589904797846124
4491000000.0 0.528604442564763 -0.8754946695010565
4494000000.0 0.517556542791374 -0.8313702649888888
4497000000.0 0.5355007114018668 -0.8399192514864521
4500000000.0 0.5212372994531524 -0.8500208510376215
4503000000.0 0.5366590374399228 -0.8689802990601179
4506000000.0 0.5074636274366711 -0.8546746348960782
4509000000.0 0.4999259918335318 -0.8462545265156736
4512000000.0 0.5012509304092376 -0.8424572496734495
4516000000.0 0.52481042138238 -0.8694959011086915
4519000000.0 0.5260496631110242 -0.8446025553824212
4522000000.0 0.5149184359099255 -0.878350254958852
4525000000.0 0.5568588323669934 -0.8390082149118846
4528000000.0 0.5463441475461255 -0.8771473490947084
4531000000.0 0.5532057684701808 -0.8523869539909124
4534000000.0 0.5113186488721251 -0.8445981060660546
4538000000.0 0.5396206138543919 -0.8463986782977831
4541000000.0 0.4823737818277348 -0.87175721258001
4544000000.0 0.5132863610364421 -0.86252292795661
4547000000.0 0.5212167225432974 -0.8669967540149892
4550000000.0 0.5178568040949416 -0.8797622036293321
4553000000.0 0.514405821988369 -0.8719276675360562
4556000000.0 0.5096748156400641 -0.8454704160289901
4559000000.0 0.49833323875729674 -0.8849396135171841
4562000000.0 0.5263799125186507 -0.8699404468993792
4566000000.0 0.5138856901013523 -0.8841093090650034
4569000000.0 0.5053382943693503 -0.8319522875406948
4572000000.0 0.5333969558993091 -0.8678597905037614
4575000000.0 0.5157248562561267 -0.8806674110863157
4578000000.0 0.5417318822717297 -0.886084852112135
4581000000.0 0.5141714607303728 -0.8686904101395703
4584000000.0 0.5083089862992575 -0.8781119555928438
4588000000.0 0.5280322661577239 -0.8643600807090275
4591000000.0 0.533097019262912 -0.8642723572838718
4594000000.0 0.499684719669469 -0.8697332034279409
4597000000.0 0.524343344925665 -0.8770940658190022
4600000000.0 0.48185221359124164 -0.8829900189657913
4603000000.0 0.5032931457750287 -0.8915020465942929
4606000000.0 0.5179398715423752 -0.8861571361044246
4609000000.0 0.5151073481891602 -0.8715754263416278
4612000000.0 0.5278857401569251 -0.8889251795645136
4616000000.0 0.49529822088523046 -0.8556012415609641
4619000000.0 0.5148294952235382 -0.8672422040043946
4622000000.0 0.5164524610115901 -0.870811646698109
4625000000.0 0.47164627557879957 -0.8608547181099445
4628000000.0 0.5261417470149241 -0.864491919277761
4631000000.0 0.5013882532706802 -0.875016483797673
4634000000.0 0.4987042031962655 -0.8709135229789834
4638000000.0 0.5125457862076821 -0.8745874375775455
4641000000.0 0.5220439149105611 -0.844824786480931
4644000000.0 0.5053909443679205 -0.8739805682813571
4647000000.0 0.5082426922025949 -0.879288217031167
4650000000.0 0.4896919733161768 -0.8635714370163335
4653000000.0 0.516898791674235 -0.8709132780350399
4656000000.0 0.4953232594313519 -0.8821033761232399
4659000000.0 0.49429725346085324 -0.8697785797353279
4662000000.0 0.5173191864799657 -0.8842588154772659
4666000000.0 0.5024541170410017 -0.8805695627220308
4669000000.0 0.5225285593823856 -0.8799624113489812
4672000000.0 0.48100592344977067 -0.901236331761994
4675000000.0 0.48695945524151585 -0.8904700033341447
4678000000.0 0.4982639050407915 -0.8820715331508684
4681000000.0 0.46986513425650667 -0.9157355067225736
4684000000.0 0.4770791815319333 -0.8948517931966826
4688000000.0 0.49215316615550697 -0.8917504669400127
4691000000.0 0.523182752593028 -0.8760825980558062
4694000000.0 0.5192573419217893 -0.8530945787850092
4697000000.0 0.47395557442723873 -0.8411775546324944
4700000000.0 0.5041504058578365 -0.8756760886560324
4703000000.0 0.5157455309333193 -0.8514875000754617
4706000000.0 0.5112576138091642 -0.8924206250816517
4709000000.0 0.4937356816740805 -0.8861732678875115
4712000000.0 0.501191149608728 -0.8970865544412182
4716000000.0 0.508923662788843 -0.875895401054523
4719000000.0 0.5276951805558816 -0.881375054706964
4722000000.0 0.5218746927281478 -0.8925846852060185
4725000000.0 0.5053977625343591 -0.8901349375683816
4728000000.0 0.5003630077390766 -0.9138113968173824
4731000000.0 0.5301666871778471 -0.9052125694951082
4734000000.0 0.5234532644497902 -0.8552009134911026
4738000000.0 0.5473084656318163 -0.9032066637051844
4741000000.0 0.49392382470505647 -0.9164265089773544
4744000000.0 0.49100682495065634 -0.9147009362699936
4747000000.0 0.5004531349786 -0.8608786121778382
4750000000.0 0.517457659008322 -0.8724469072007472
4753000000.0 0.5067830782055445 -0.8729989673596299
4756000000.0 0.5280948982901569 -0.9111312120457888
4759000000.0 0.5161855570193921 -0.9177913499176531
4762000000.0 0.47077452836164213 -0.9114020914283414
4766000000.0 0.49896471846309864 -0.8907490342143953
4769000000.0 0.5080375703909503 -0.9213193409524976
4772000000.0 0.49665518975678913 -0.9002608049402275
4775000000.0 0.5142416806358576 -0.9138749372552007
4778000000.0 0.49623407565069 -0.9272853540376959
4781000000.0 0.5389047426456829 -0.8801707647011556
4784000000.0 0.5173027735517389 -0.8729615401464903
4788000000.0 0.5077332460758037 -0.9400459865936049
4791000000.0 0.49179361669902866 -0.8936455004022251
4794000000.0 0.5175045039213059 -0.905230794769651
4797000000.0 0.4897974978595254 -0.8668276823292419
4800000000.0 0.4744899290525827 -0.8798740491389486
4803000000.0 0.45010786163124633 -0.8977562678142813
4806000000.0 0.5104603153762658 -0.8940467574414377
4809000000.0 0.47288776812021327 -0.9044319906080142
4812000000.0 0.4455117150411575 -0.9064550442016344
4816000000.0 0.5127786752837338 -0.8826755835230665
4819000000.0 0.5255587694079169 -0.9115997594721621
4822000000.0 0.5427208740934443 -0.9198804003071407
4825000000.0 0.5480734758007276 -0.9096228147108585
4828000000.0 0.5120484874348005 -0.877504339115125
4831000000.0 0.4626892801376581 -0.933581080688086
4834000000.0 0.5166784792749929 -0.8865652919155778
4838000000.0 0.5028344485113784 -0.9089113624712577
4841000000.0 0.49541696916041134 -0.8887657325078492
4844000000.0 0.5423464268786378 -0.8792788243086861
4847000000.0 0.5104659652949075 -0.8634937592539137
4850000000.0 0.502919197806348 -0.9238985513460639
4853000000.0 0.48724569922434446 -0.8692273663205861
4856000000.0 0.4981580475959889 -0.8837798162418651
4859000000.0 0.5097770140367192 -0.9152368560731055
4862000000.0 0.5163572722441949 -0.8771660691222647
4866000000.0 0.49004308530873125 -0.9215556063095928
4869000000.0 0.48918896212959495 -0.9004223543202395
4872000000.0 0.49570681690156626 -0.9210755379885426
4875000000.0 0.568506216922457 -0.8935279440834577
4878000000.0 0.5081103756162538 -0.9098277326180758
4881000000.0 0.48862924822057274 -0.970623971934594
4884000000.0 0.515253859169897 -0.8808117366319511
4888000000.0 0.510511453966713 -0.8775032831445141
4891000000.0 0.5495842420902026 -0.9071841578617267
4894000000.0 0.48615013587174355 -0.9004614319161495
4897000000.0 0.5142246117009254 -0.8547691949992151
4900000000.0 0.5336299662807759 -0.9287080479741681
4903000000.0 0.5261219135908409 -0.9009570098365534
4906000000.0 0.5078789342985919 -0.9229476697410374
4909000000.0 0.49139882878903246 -0.9141774432906131
4912000000.0 0.5015783649814033 -0.929475446540514
4916000000.0 0.5198327711406886 -0.8939858931142869
4919000000.0 0.5564536566374322 -0.9090666222237563
4922000000.0 0.5217723013910387 -0.8787269370624278
4925000000.0 0.5162432867172038 -0.9306245172861743
4928000000.0 0.5568918821762234 -0.8401376557636042
4931000000.0 0.5327364557977898 -0.89553202814362
4934000000.0 0.5031879012838123 -0.8568642758788676
4938000000.0 0.4749789576326441 -0.9236324820640921
4941000000.0 0.5042796523496087 -0.8633562760449478
4944000000.0 0.5051972167375425 -0.822576271487751
4947000000.0 0.4919396445378207 -0.8687697171859745
4950000000.0 0.5140755543161935 -0.8571844891430228
4953000000.0 0.4976399819235356 -0.9635801342993526
4956000000.0 0.5008400317484615 -0.9093966568125798
4959000000.0 0.44661603785844023 -0.843852441639125
4962000000.0 0.5017842398619552 -0.9326127111753634
4966000000.0 0.5497275572340901 -0.9069577877455984
4969000000.0 0.553982111864938 -0.9435534456555001
4972000000.0 0.5076762044179991 -0.9124266865782203
4975000000.0 0.5363856998799754 -0.8608878960157664
4978000000.0 0.5159419105052846 -0.8786772675028741
4981000000.0 0.4799253553177448 -0.9124649375572683
4984000000.0 0.5097629646968754 -0.8868543961482852
4988000000.0 0.5083966974048415 -0.8795979448040544
4991000000.0 0.5596930438573586 -0.9041978156981667
4994000000.0 0.5508419002288572 -0.8736050866682825
4997000000.0 0.4879297296525781 -0.9024562477286817
5000000000.0 0.5421836497958146 -0.9180575216735739
5003000000.0 0.5506459653989839 -0.8842161759704292
5006000000.0 0.5670612479120666 -0.9399019264308257
5009000000.0 0.5280768818391557 -0.9209370403505117
5012000000.0 0.532978435694495 -0.8813510967657185
5016000000.0 0.5764651163846362 -0.8746761678669985
5019000000.0 0.512140131868652 -0.9205679616471173
5022000000.0 0.5528535330549894 -0.897281848839304
5025000000.0 0.540811619578676 -0.9536066962100058
5028000000.0 0.49228571992713843 -0.9038993587612433
5031000000.0 0.47542516721336314 -0.9143432393264249
5034000000.0 0.5220600876090136 -0.9533235429941378
5038000000.0 0.4922192486454239 -0.8910687164784543
5041000000.0 0.5541684315897186 -0.9071991525914145
5044000000.0 0.5423077503659222 -0.8586618023170839
5047000000.0 0.5411924083608803 -0.901283683805133
5050000000.0 0.5858672418289186 -0.828988250651727
5053000000.0 0.5648221896134349 -0.9164552244099813
5056000000.0 0.5655939589967409 -0.8721715957633818
5059000000.0 0.5418697450127481 -0.8609741529456517
5062000000.0 0.5169077150330127 -0.9268730456481298
5066000000.0 0.5686742459337978 -0.8833616679566167
5069000000.0 0.5461743505175948 -0.8957631366723244
5072000000.0 0.5476814421721492 -0.877424846125438
5075000000.0 0.5705283110885142 -0.837424797848833
5078000000.0 0.5118972392255049 -0.9199974630114981
5081000000.0 0.5078115404137389 -0.8790131611760594
5084000000.0 0.5627019602799688 -0.9215334570873763
5088000000.0 0.5794477251526562 -0.8755262405129249
5091000000.0 0.5037648755267599 -0.916426487474705
5094000000.0 0.5140845246547971 -0.9204683265805284
5097000000.0 0.5669013549454979 -0.8906087945144745
5100000000.0 0.5494696373841217 -0.9041190089740809
5103000000.0 0.5363954243254245 -0.894824202493058
5106000000.0 0.5727851033802763 -0.8970452313390066
5109000000.0 0.5538410860376577 -0.8734780509432106
5112000000.0 0.485957349264637 -0.8971675695705897
5116000000.0 0.5362470526279773 -0.8400961080794319
5119000000.0 0.5552519232231495 -0.8917786449263839
5122000000.0 0.5862146222020618 -0.8708036259213692
5125000000.0 0.5462504529252612 -0.8654649176190488
5128000000.0 0.5763312740621092 -0.8763755929959723
5131000000.0 0.5185244798336184 -0.8449524165429391
5134000000.0 0.5240562967645763 -0.8704309794392375
5138000000.0 0.5620967753766307 -0.8545240160367436
5141000000.0 0.5790596958043466 -0.8900773065207195
5144000000.0 0.6016479742207446 -0.8712604860488806
5147000000.0 0.5692453953077417 -0.8822027096272579
5150000000.0 0.5899574518103359 -0.8514882604625558
5153000000.0 0.5255381871500595 -0.920413158000791
5156000000.0 0.5491037141449149 -0.8593594969272292
5159000000.0 0.5647663714468336 -0.8937949536110787
5162000000.0 0.5835888726713756 -0.873699698876798
5166000000.0 0.5873259064028864 -0.8970967215417167
5169000000.0 0.5414733873404196 -0.859264034306928
5172000000.0 0.5980682750083172 -0.871590298749306
5175000000.0 0.6336589854097999 -0.8890884212285234
5178000000.0 0.5499164561942569 -0.8828534939910029
