! Created with skrf 1.8.0 (http://scikit-rf.org).
# Hz S RI R 50.0 
!freq ReS11 ImS11
4000000000.0 0.5572991308257068 -0.8581545636228654
4003000000.0 0.6125041564164524 -0.9114065086243263
4006000000.0 0.5140370700706867 -0.9002665858628447
4009000000.0000005 0.5827121823992726 -0.8358344380410061
4011999999.9999995 0.6201246076570031 -0.853760314242644
4016000000.0 0.5311870887906998 -0.8763580952267241
4019000000.0 0.5556166169418287 -0.8472157034116115
4022000000.0000005 0.6275344138300032 -0.8415607267363084
4025000000.0000005 0.48268348407135186 -0.8936716621044893
4027999999.9999995 0.5402988033743196 -0.8879183586653888
4030999999.9999995 0.5773480675737936 -0.8377103353819928
4034000000.0 0.5522052354900383 -0.8753218842131153
4038000000.0000005 0.5731931200923416 -0.866606802435964
4041000000.0000005 0.548943445565723 -0.8747576115511388
4043999999.9999995 0.6068345714788205 -0.9109548434281041
4046999999.9999995 0.6155182801434912 -0.8644069881531669
4050000000.0 0.5161499082641533 -0.9203997777582091
4053000000.0 0.5213551622219837 -0.8678076628486268
4056000000.0 0.5285479305962448 -0.8740614050749407
4059000000.0 0.5570043963839655 -0.8256039801764792
4062000000.0000005 0.5208454298741936 -0.8796434774270693
4066000000.0 0.5065819675850909 -0.7957093573708267
4069000000.0 0.5536896420000309 -0.9235731262049269
4072000000.0 0.5779579481725152 -0.8474920457186044
4075000000.0 0.5740977748135929 -0.8886909108731209
4078000000.0000005 0.5486197306697159 -0.8854056402918675
4081000000.0000005 0.6325853855572935 -0.8809050064159683
4083999999.9999995 0.5657186356094915 -0.8841600073892303
4088000000.0 0.5892648735438478 -0.858024477221386
4091000000.0 0.581062432597675 -0.9109638969965647
4094000000.0000005 0.5440616637920817 -0.8599906955669596
4097000000.0000005 0.5350423435948909 -0.8583214333353825
4099999999.9999995 0.5742553018294219 -0.8529441084972759
4102999999.9999995 0.582143568911742 -0.9090415794530508
4106000000.0 0.5633965427255944 -0.8886917402275618
4109000000.0 0.5426967739481164 -0.8794658415303857
4112000000.0 0.5461209200544626 -0.8644295785903822
4115999999.9999995 0.5634183455813842 -0.841709008876947
4119000000.0 0.5590691774204192 -0.8814196891812183
4122000000.0 0.5493628659540519 -0.8644208034527086
4125000000.0 0.562987503065618 -0.9133445067068018
4128000000.0 0.5712259404416083 -0.8141003665040858
4131000000.0 0.5414233239613528 -0.8007148290202755
4134000000.0000005 0.5927780702569725 -0.8706230050632867
4138000000.0 0.5276149858521241 -0.8398389989156834
4141000000.0 0.5342650452943829 -0.868986254952997
4144000000.0 0.5726877659962982 -0.8488312945826282
4147000000.0000005 0.5290566304023757 -0.857211648674062
4150000000.0000005 0.5488477807377298 -0.913339214634256
4152999999.9999995 0.5767628459372589 -0.8544821580544204
4155999999.9999995 0.5919182176408169 -0.8228422557633748
4159000000.0 0.5689197401340061 -0.8214389348634844
4162000000.0 0.5301979144870768 -0.8617277507518518
4166000000.0000005 0.5465855757628194 -0.8757654255779986
4168999999.9999995 0.5219128617143283 -0.844932755648306
4171999999.9999995 0.5647949214807975 -0.8576257243191635
4175000000.0 0.5572408963702203 -0.8858458932784309
4178000000.0 0.5442879764935554 -0.8769566346061437
4181000000.0 0.5273842478533411 -0.8461014477698328
4184000000.0 0.5593734288499725 -0.8578491557580772
4187999999.9999995 0.5693673298901119 -0.8592782199445339
4191000000.0 0.5806592125638905 -0.8140380015135523
4194000000.0 0.5533647255032488 -0.8566934622825856
4197000000.0 0.5500407002703944 -0.8740096289040148
4200000000.0 0.5775743213432964 -0.8370930667671518
4203000000.0000005 0.5847781482231551 -0.85810106584776
4206000000.0000005 0.567352349983995 -0.8843031173036107
4208999999.9999995 0.5676648952220469 -0.8333182094159363
4211999999.9999995 0.5377746705230712 -0.8564286601946944
4216000000.0 0.5833939586187812 -0.8436168394231434
4219000000.0000005 0.5750767875300469 -0.8702767158555078
4222000000.0000005 0.5479598563884963 -0.8522099689383871
4224999999.9999995 0.5617130594520108 -0.8457894645733057
4227999999.9999995 0.573266245708655 -0.8554958522928325
4231000000.0 0.5528590991671846 -0.8730509802726145
4234000000.0 0.5714373330654098 -0.8740660862360132
4238000000.0000005 0.5436866983547439 -0.873095309913338
4240999999.9999995 0.5574599151983863 -0.8630224100917812
4244000000.0 0.5519316013681379 -0.8405458294112769
4247000000.0 0.5520839596552265 -0.8527061680716325
4250000000.0 0.548854960086285 -0.8349449615294307
4253000000.0 0.537448185624205 -0.8276438590914618
4256000000.0 0.5708916608395627 -0.8774678120960389
4259000000.0000005 0.528438468138273 -0.8203545862710738
4261999999.9999995 0.535568633574186 -0.8486958081893455
4266000000.0 0.5364342491140841 -0.871200617504466
4269000000.0 0.5618868022444351 -0.8439107076953343
4272000000.0000005 0.5834747882263998 -0.8649346018228097
4275000000.0000005 0.5633148878582732 -0.84230921356097
4277999999.9999995 0.5579507510809552 -0.8637241324799458
4280999999.9999995 0.5756963826243291 -0.8466003472477014
4284000000.0 0.5047768471302339 -0.86411737532827
4288000000.0000005 0.582030191245599 -0.8396669539751623
4291000000.0000005 0.5333364634634142 -0.8242476597801823
4293999999.9999995 0.5627049542335747 -0.8553526506370238
4297000000.0 0.5625756777890099 -0.8404945446360825
4300000000.0 0.5592349323664865 -0.8307575477003207
4303000000.0 0.5472624078660743 -0.8438669841732795
4306000000.0 0.5644514457149644 -0.8542748332689174
4309000000.0 0.5653091285522821 -0.8254475615575703
4312000000.0 0.594050555294808 -0.8264454126159877
4316000000.0 0.5660754010497321 -0.845735500398886
4319000000.0 0.5556140011710199 -0.8238547784859692
4322000000.0 0.5170714222784912 -0.8473552566326086
4325000000.0 0.5623158049161064 -0.8331805959180788
4328000000.0 0.5463291064180772 -0.8405282425837381
4331000000.0 0.5163773753216486 -0.8621389443337469
4334000000.0 0.5444404914936161 -0.8536595885144365
4338000000.0 0.5527477967728012 -0.8492378574225755
4341000000.0 0.5892658917319966 -0.8429960698168569
4344000000.0 0.5973498187415466 -0.8465822518706642
4347000000.0 0.5499199319382444 -0.8663948069096676
4350000000.0 0.5205915247830286 -0.8254365980869918
4353000000.0 0.5647347275181207 -0.8018394521534968
4356000000.0 0.5286900697607793 -0.8608330783918056
4359000000.0 0.5231863856847773 -0.8271928066878238
4362000000.0 0.5062327995363157 -0.8655438699750444
4366000000.0 0.5566493007619969 -0.8829118813439543
4369000000.0 0.5277284514107209 -0.8358374572481752
4372000000.0 0.5266114070670304 -0.8417374862113658
4375000000.0 0.5738111082803301 -0.8418885249680196
4378000000.0 0.5336963090291275 -0.8053164980880672
4381000000.0 0.5589048369595778 -0.8346230776630172
4384000000.0 0.5727689649499189 -0.8990651500727785
4388000000.0 0.5386430047971726 -0.8210382360209262
4391000000.0 0.5585402589186451 -0.8496466425045373
4394000000.0 0.5159334938310209 -0.8281747710428139
4397000000.0 0.5373264909884781 -0.8424658193107856
4400000000.0 0.5579134160665467 -0.8726619979656763
4403000000.0 0.5516889673737687 -0.8495494892918325
4406000000.0 0.5355206432440128 -0.8622596473033516
4409000000.0 0.5570239409591357 -0.8844292331318245
4412000000.0 0.4925841688775403 -0.8757647829425124
4416000000.0 0.5230013507444871 -0.8314547779851225
4419000000.0 0.5171623227974618 -0.860137588034813
4422000000.0 0.5508513045651734 -0.8212193836488411
4425000000.0 0.5633718751923869 -0.8633806294370543
4428000000.0 0.5334430427413424 -0.8591134386535905
4431000000.0 0.5570672927934385 -0.8779187576549972
4434000000.0 0.5243498084040643 -0.8560993725251849
4438000000.0 0.5527100628221013 -0.8769432112026988
4441000000.0 0.570633524442062 -0.8582548348542525
4444000000.0 0.5261403688276514 -0.8329728039176231
4447000000.0 0.5237710717169343 -0.8483429550507966
4450000000.0 0.5467858483137678 -0.8389037384139425
4453000000.0 0.5395540646494814 -0.8750251491794725
4456000000.0 0.5213138769090638 -0.8374848622262041
4459000000.0 0.5019865631871097 -0.820901880354779
4462000000.0 0.5753332755071915 -0.9038186873645822
4466000000.0 0.5576989928165306 -0.8949939266719016
4469000000.0 0.5393042341702533 -0.8447942862125271
4472000000.0 0.5311245323552711 -0.8755383461876433
4475000000.0 0.5249882931198082 -0.8291631112502369
4478000000.0 0.5479709549890268 -0.8874950026477207
4481000000.0 0.5159712080519774 -0.843782749002881
4484000000.0 0.4865297587599531 -0.879266861184822
4488000000.0 0.5099651392917569 -0.8473038786904792
4491000000.0 0.5269745931783413 -0.8522296395623458
4494000000.0 0.5281712360206277 -0.8392632051104477
4497000000.0 0.5371838909062479 -0.8392386331131817
4500000000.0 0.5316967246291319 -0.8521321164590544
4503000000.0 0.5369126773457116 -0.8550611860896915
4506000000.0 0.5321359690118143 -0.857002344848665
4509000000.0 0.5133774681869155 -0.8379565912013476
4512000000.0 0.5085837896226105 -0.8547822070775917
4516000000.0 0.5597887218418924 -0.8706537785533812
4519000000.0 0.533471750490895 -0.8181205595613807
4522000000.0 0.5364854046741748 -0.8518222370300674
4525000000.0 0.5543218746207565 -0.8340841694522698
4528000000.0 0.5332627021082097 -0.8688454033528779
4531000000.0 0.5586746345839182 -0.8629908288804209
4534000000.0 0.5257162331715324 -0.8327897377034115
4538000000.0 0.5296338656128927 -0.868541087266139
4541000000.0 0.4903423054179905 -0.8547214262524274
4544000000.0 0.5331752886513692 -0.8304123637122773
4547000000.0 0.5465539962447246 -0.8153435175511743
4550000000.0 0.5083280543583213 -0.8678617809636373
4553000000.0 0.5090315446196819 -0.8684330817281275
4556000000.0 0.5145138496519117 -0.843724067621263
4559000000.0 0.5035880940479649 -0.8632093775028624
4562000000.0 0.5240750983206321 -0.8655637326601485
4566000000.0 0.5272811749230759 -0.8713972915223704
4569000000.0 0.5011559017956375 -0.8355151859892317
4572000000.0 0.5155754653740203 -0.8410712399613516
4575000000.0 0.5129645824903755 -0.870063640019799
4578000000.0 0.5282303995825348 -0.8675242916104453
4581000000.0 0.5042366768071116 -0.8772448242597473
4584000000.0 0.49842377198015453 -0.8547730859467151
4588000000.0 0.5240982215442566 -0.8621000500619753
4591000000.0 0.5265190292031073 -0.8404092238319505
4594000000.0 0.485428699935487 -0.8788252145917976
4597000000.0 0.5205770005754771 -0.8784601221895192
4600000000.0 0.47863205007417753 -0.8643143197809734
4603000000.0 0.5184962099436204 -0.8748066814977546
4606000000.0 0.5171428107857652 -0.8720615713886462
4609000000.0 0.5127002890269869 -0.8663664295192381
4612000000.0 0.5207481078438403 -0.857885697997293
4616000000.0 0.49251772145796385 -0.8550120638867115
4619000000.0 0.5424637567798627 -0.8656748014053106
4622000000.0 0.5093105191300052 -0.8814109829528683
4625000000.0 0.4936003811367533 -0.8522005649676373
4628000000.0 0.5205817453396016 -0.8641895671291354
4631000000.0 0.5008323838567639 -0.864913456275424
4634000000.0 0.5092502230400829 -0.8741606637215427
4638000000.0 0.5097944055934501 -0.8625815586857289
4641000000.0 0.5098664808643 -0.8748029851110322
4644000000.0 0.5013520718647043 -0.8645226330031913
4647000000.0 0.5215797050615142 -0.8787707061898462
4650000000.0 0.5046863733278797 -0.8900338682114126
4653000000.0 0.5419910141133327 -0.8787641126341779
4656000000.0 0.5077825572195085 -0.8827858890572071
4659000000.0 0.4838401573980897 -0.8726717399041084
4662000000.0 0.5256393802114394 -0.8828728840202198
4666000000.0 0.4923367136921731 -0.8847587515275414
4669000000.0 0.5025608960899233 -0.8563791671210923
4672000000.0 0.5022593689771068 -0.8810135170065135
4675000000.0 0.49577024685793264 -0.8867858038207239
4678000000.0 0.5002282052719389 -0.8567850530778205
4681000000.0 0.48236366669063147 -0.8891547504657131
4684000000.0 0.5021639711400622 -0.8945251042248098
4688000000.0 0.4453471611863981 -0.8842143331319419
4691000000.0 0.5118796231519454 -0.8841003968206872
4694000000.0 0.5384684571256558 -0.8707357202627337
4697000000.0 0.4758150638774048 -0.8463620042485304
4700000000.0 0.4935681835195089 -0.8681867587453008
4703000000.0 0.5064327919695825 -0.8272925581548637
4706000000.0 0.5010694831644443 -0.8906901624048137
4709000000.0 0.49388943964048887 -0.8953891177198807
4712000000.0 0.5052063210037432 -0.8875927139490213
4716000000.0 0.5144710180364896 -0.8820850096101435
4719000000.0 0.5171628209663335 -0.8658225613630207
4722000000.0 0.5210754773017218 -0.8824589837022712
4725000000.0 0.5015170594368427 -0.8843555255635813
4728000000.0 0.5003391977277402 -0.8576632139654978
4731000000.0 0.5251233856090537 -0.8920846856500612
4734000000.0 0.5102676416138917 -0.8666542273812843
4738000000.0 0.5112851657535517 -0.9146391511096365
4741000000.0 0.512780867473478 -0.9075781164909998
4744000000.0 0.4762798851099378 -0.881325565778374
4747000000.0 0.5001325010326226 -0.805368159450157
4750000000.0 0.5082783231230481 -0.8757922740325145
4753000000.0 0.5294449154702436 -0.8852404578263646
4756000000.0 0.506123495319077 -0.8655176912149831
4759000000.0 0.49918816595196047 -0.890082948726871
4762000000.0 0.4964974153641795 -0.8973508310354387
4766000000.0 0.48432929212195996 -0.8796329961432708
4769000000.0 0.5341483398209675 -0.8807765228771846
4772000000.0 0.5014017509249686 -0.8826690410974856
4775000000.0 0.49016913882376223 -0.9218366311571121
4778000000.0 0.5059117568346558 -0.8739532666783786
4781000000.0 0.5232834037523783 -0.881095863934222
4784000000.0 0.5097388258874276 -0.8620303895510701
4788000000.0 0.5016742630163414 -0.8916190645989762
4791000000.0 0.4830091721844672 -0.871893595256685
4794000000.0 0.5448397050887713 -0.8924391034462582
4797000000.0 0.488381776887983 -0.8759892258661631
4800000000.0 0.48125669026829543 -0.8669376250110524
4803000000.0 0.4742030924045203 -0.8925965607987555
4806000000.0 0.513592820293384 -0.8859280105389491
4809000000.0 0.47938358436881223 -0.8951329558759756
4812000000.0 0.4869092421562107 -0.8984947544225129
4816000000.0 0.5122343704213428 -0.8825107838897073
4819000000.0 0.5486352967892301 -0.8771594729833926
4822000000.0 0.5457935305963908 -0.9001516206768053
4825000000.0 0.5214642571594611 -0.8781032986269306
4828000000.0 0.4968968589082786 -0.8777660920151957
4831000000.0 0.45215982713807124 -0.9292732170272818
4834000000.0 0.5211790361396098 -0.88886766081566
4838000000.0 0.4893927397121022 -0.919018427009326
4841000000.0 0.4973580549711272 -0.8771945442387922
4844000000.0 0.5373883260750107 -0.8701667625830455
4847000000.0 0.5196698036194074 -0.8567604950240679
4850000000.0 0.49891158594335916 -0.90988380755552
4853000000.0 0.5111018640084779 -0.8826715086378638
4856000000.0 0.47825009426260545 -0.8665496362136941
4859000000.0 0.4997191312974798 -0.9082115276149694
4862000000.0 0.507897309783882 -0.8557865739879246
4866000000.0 0.49622959372756814 -0.902971363689016
4869000000.0 0.49207268835377016 -0.9049562150293702
4872000000.0 0.49611578239843 -0.9202344276088625
4875000000.0 0.5673560463280309 -0.8979156428162828
4878000000.0 0.501538641840613 -0.9193506834243033
4881000000.0 0.512500570323692 -0.9727031159190387
4884000000.0 0.5419850675511643 -0.8900710207410255
4888000000.0 0.5512003299716676 -0.8683043174299313
4891000000.0 0.5453585681470838 -0.8881576909316619
4894000000.0 0.48648869593938887 -0.8768012161323316
4897000000.0 0.5338535288418593 -0.8706429079583878
4900000000.0 0.5103335696221417 -0.9250824582518706
4903000000.0 0.534660741133894 -0.911888524199184
4906000000.0 0.5344027213367447 -0.9176586695714399
4909000000.0 0.47189146252157715 -0.9234537232622528
4912000000.0 0.5426627173340721 -0.9222468090273952
4916000000.0 0.5211564981634287 -0.8817507827624596
4919000000.0 0.557120345401853 -0.9014919731778877
4922000000.0 0.5483140816006873 -0.9027896731058571
4925000000.0 0.4724652464288002 -0.9065395923931655
4928000000.0 0.5496974704909299 -0.8856433204538816
4931000000.0 0.5367924101192456 -0.9002302534819514
4934000000.0 0.5014119286940402 -0.8675537417193512
4938000000.0 0.44743383863666386 -0.8948537258079158
4941000000.0 0.5207164407619056 -0.8510478711571384
4944000000.0 0.5313188257683961 -0.8772009115890437
4947000000.0 0.5222691487513754 -0.8489263019335366
4950000000.0 0.5032294706811921 -0.8652021550047309
4953000000.0 0.4943790600650931 -0.9243638319487895
4956000000.0 0.5433532902461895 -0.8921290442261777
4959000000.0 0.4796787542041368 -0.8573922030719341
4962000000.0 0.5207517695368498 -0.9121467682043427
4966000000.0 0.5552549867873571 -0.9159919004709333
4969000000.0 0.5716420108502864 -0.9043073561691327
4972000000.0 0.529977498637029 -0.940026849094202
4975000000.0 0.5306241048789021 -0.8527310325732192
4978000000.0 0.5035681634884879 -0.8965099646633323
4981000000.0 0.5011707934501825 -0.9184025287028478
4984000000.0 0.48758826451230725 -0.8398577145645602
4988000000.0 0.5413967193508021 -0.8455508128988839
4991000000.0 0.5899335373009023 -0.8793292591815028
4994000000.0 0.5389245992544778 -0.8831192282308344
4997000000.0 0.49487225356069575 -0.8973042829225034
5000000000.0 0.5510034222318869 -0.9092477346302439
5003000000.0 0.5559622593801994 -0.9226986206513306
5006000000.0 0.5484342164613975 -0.9020393685110223
5009000000.0 0.5393960350916588 -0.8929415596943882
5012000000.0 0.5227609055106318 -0.9181473737427182
5016000000.0 0.595191187491306 -0.9072068910069804
5019000000.0 0.5174992395046237 -0.9070324132777516
5022000000.0 0.5311329518625306 -0.8987472973757401
5025000000.0 0.5665093923707832 -0.9265282735508461
5028000000.0 0.4983657365563255 -0.9106223808453879
5031000000.0 0.4946214342644376 -0.887103406870781
5034000000.0 0.4986982609067457 -0.9100948483616622
5038000000.0 0.5152283621013103 -0.8815180245243535
5041000000.0 0.5658835303457216 -0.8752824857179025
5044000000.0 0.5276738420024948 -0.824047405304074
5047000000.0 0.5622683630986427 -0.8655727891224687
5050000000.0 0.5726118832021506 -0.8304784896732916
5053000000.0 0.5511794404773726 -0.8904074079630204
5056000000.0 0.5605520845684306 -0.875547077549585
5059000000.0 0.593525177030677 -0.8740260158335456
5062000000.0 0.5482278978207314 -0.9069504777146178
5066000000.0 0.5920315928316504 -0.856426369868615
5069000000.0 0.525903745872144 -0.8804270216520118
5072000000.0 0.5139297255559016 -0.8983391488208026
5075000000.0 0.5333571123559447 -0.8511375425732908
5078000000.0 0.48557866657866516 -0.8953589364531938
5081000000.0 0.5024550220640805 -0.8602307487299818
5084000000.0 0.5707642821832144 -0.9033226968761829
5088000000.0 0.5547281510252311 -0.8468004008167479
5091000000.0 0.48419371292209773 -0.9041744064968731
5094000000.0 0.5282526034543398 -0.9135806620976961
5097000000.0 0.5609926456481904 -0.8735559856594195
5100000000.0 0.567091400666837 -0.8909608631504038
5103000000.0 0.5049164313909301 -0.892515443290273
5106000000.0 0.5867851282993387 -0.9075740318511667
5109000000.0 0.6110737321690886 -0.854414431907089
5112000000.0 0.5254044843341263 -0.8928433789087695
5116000000.0 0.5460517003314586 -0.8475237368400722
5119000000.0 0.5576716147220677 -0.8876444551183277
5122000000.0 0.5562050544247715 -0.8606479366136984
5125000000.0 0.5633227802401554 -0.8768237244025754
5128000000.0 0.5138158897695183 -0.894255871248742
5131000000.0 0.5109517668278171 -0.8748999859939735
5134000000.0 0.5467917344408322 -0.8702169741269531
5138000000.0 0.585445215281536 -0.8851307030699653
5141000000.0 0.5829301796409587 -0.8477586384456468
5144000000.0 0.5945740260637935 -0.8644567256826333
5147000000.0 0.570533494690437 -0.8579555090021743
5150000000.0 0.5582746335755987 -0.8411808572164967
5153000000.0 0.5630130654325805 -0.9093587300257961
5156000000.0 0.5834396758973328 -0.8502371994300034
5159000000.0 0.6044067449851942 -0.9365967476618031
5162000000.0 0.5120442379189536 -0.8324759774330794
5166000000.0 0.5545988526587066 -0.9066162820622441
5169000000.0 0.5821414831533311 -0.8946979944700539
5172000000.0 0.5596683669715278 -0.8645184003297369
5175000000.0 0.5544698767648912 -0.8767734070834095
5178000000.0 0.5498427947156338 -0.8688055690722473
