! Created with skrf 1.8.0 (http://scikit-rf.org).
# Hz S RI R 50.0 
!freq ReS11 ImS11
4000000000.0 0.5286442104555342 -0.8521015478664125
4003000000.0 0.5959485040261936 -0.9265634842712275
4006000000.0 0.5107277614364722 -0.822593346695272
4009000000.0000005 0.5515235506182563 -0.8370443353364866
4011999999.9999995 0.6083534825529171 -0.8253613235767292
4016000000.0 0.5410653133841814 -0.8966185523957728
4019000000.0 0.5706917582767141 -0.8482420222441655
4022000000.0000005 0.6237449517885634 -0.8362803393347505
4025000000.0000005 0.5025126544091346 -0.9407416837313927
4027999999.9999995 0.5312855011790131 -0.9232511550192117
4030999999.9999995 0.5715923604109395 -0.8350859386719095
4034000000.0 0.5043690294121137 -0.88230346187577
4038000000.0000005 0.5464273967425236 -0.8954908964768497
4041000000.0000005 0.5277232093981881 -0.8904579401555792
4043999999.9999995 0.580405723304373 -0.9263459009268874
4046999999.9999995 0.5980774405582191 -0.8837211558552553
4050000000.0 0.5714345200222347 -0.9389870052469109
4053000000.0 0.5041367603110329 -0.8815977469729794
4056000000.0 0.6066459216371956 -0.8804368436492246
4059000000.0 0.5311550728775868 -0.8787742814390905
4062000000.0000005 0.5306571227861095 -0.8777001675054769
4066000000.0 0.5252828894864983 -0.8459478534033189
4069000000.0 0.5479172119204689 -0.897718345474742
4072000000.0 0.5691923512647867 -0.8824989862461601
4075000000.0 0.5989932392432432 -0.8421448249741892
4078000000.0000005 0.5614777411294769 -0.9024124292013478
4081000000.0000005 0.6036264166317982 -0.8276887109413825
4083999999.9999995 0.5244754617227076 -0.9077825538928292
4088000000.0 0.5733394726490966 -0.8450481591854658
4091000000.0 0.5681330822555009 -0.9337348738383854
4094000000.0000005 0.5694524508363624 -0.8469464594518467
4097000000.0000005 0.5478804217864883 -0.8771013791445552
4099999999.9999995 0.5487958973705279 -0.8713204170194064
4102999999.9999995 0.5666578822691791 -0.8818341627406484
4106000000.0 0.5206872684966264 -0.8801696162221134
4109000000.0 0.5653362149590943 -0.9078897319987335
4112000000.0 0.5405971809209317 -0.8428438202936043
4115999999.9999995 0.5504310975562053 -0.8861340307059697
4119000000.0 0.5418318471536652 -0.9265751007449334
4122000000.0 0.5654266868518969 -0.9004158224060932
4125000000.0 0.524846892632068 -0.8920913223652512
4128000000.0 0.5356834378387724 -0.8505427674290671
4131000000.0 0.5677460356623525 -0.892412086260949
4134000000.0000005 0.5395821052467438 -0.8272266101694019
4138000000.0 0.5514474239978483 -0.8553362619670897
4141000000.0 0.5288030621828695 -0.8480847809439678
4144000000.0 0.5697086947338706 -0.8788176457652931
4147000000.0000005 0.51243093842108 -0.9010145302262521
4150000000.0000005 0.574633850824099 -0.8918991559381789
4152999999.9999995 0.5612160894409275 -0.8866745729684232
4155999999.9999995 0.603718207591303 -0.8693558576338447
4159000000.0 0.557015738378988 -0.8316497193564022
4162000000.0 0.5553921613533179 -0.8593776103255426
4166000000.0000005 0.5706196253488484 -0.8916852821319594
4168999999.9999995 0.5243018747866907 -0.873862126277817
4171999999.9999995 0.556696976880064 -0.8526528856811926
4175000000.0 0.5653032177490085 -0.8698994583274463
4178000000.0 0.5821041931763474 -0.8811868544302062
4181000000.0 0.5289467339088845 -0.8951531852253711
4184000000.0 0.5470754499884586 -0.8584703155017203
4187999999.9999995 0.5447161898686237 -0.8628792194717115
4191000000.0 0.5692783050478739 -0.8148328744857691
4194000000.0 0.5185277430226458 -0.8667109318830829
4197000000.0 0.5452792704834075 -0.8680282193617137
4200000000.0 0.5465658691520155 -0.8422325429003734
4203000000.0000005 0.5550447627851152 -0.8690402378199087
4206000000.0000005 0.5712481631096028 -0.8793279972884892
4208999999.9999995 0.5463371333071698 -0.8562115162766317
4211999999.9999995 0.5148532518722703 -0.8863591818481146
4216000000.0 0.5629580729788817 -0.8826852600841806
4219000000.0000005 0.5537729932275655 -0.8550380684603813
4222000000.0000005 0.5353256473755248 -0.8617546537446363
4224999999.9999995 0.5615981472648249 -0.8443062356621315
4227999999.9999995 0.557628670707287 -0.8393588637842266
4231000000.0 0.5527603728187419 -0.8536064690915569
4234000000.0 0.5545688002602844 -0.8681794195287252
4238000000.0000005 0.5458320823255487 -0.8738471864858868
4240999999.9999995 0.5424597576301649 -0.8597445200028122
4244000000.0 0.5723815125430975 -0.832944720830437
4247000000.0 0.5613658677352407 -0.8580040068233488
4250000000.0 0.5521117950018591 -0.8588170820684975
4253000000.0 0.524258147569604 -0.8394600195761491
4256000000.0 0.5656556248774081 -0.8676578296101183
4259000000.0000005 0.5444949986943779 -0.8397530169934266
4261999999.9999995 0.5352347377182123 -0.8573112008836384
4266000000.0 0.5458712584780337 -0.8850167482565844
4269000000.0 0.563675211046887 -0.8387153960932393
4272000000.0000005 0.556075267249132 -0.8471719561745857
4275000000.0000005 0.569512561170213 -0.8749683041020068
4277999999.9999995 0.5684014264188847 -0.876305886322494
4280999999.9999995 0.5483990745393263 -0.8733522803666158
4284000000.0 0.5084107573076381 -0.8929024036068192
4288000000.0000005 0.5839761884898523 -0.8434857480773574
4291000000.0000005 0.5526990117201419 -0.8736099945077429
4293999999.9999995 0.533666341319876 -0.8681526966035428
4297000000.0 0.5803346139917166 -0.8420618917063643
4300000000.0 0.5502620781213031 -0.8353634204711
4303000000.0 0.5431935615254888 -0.8626083601128438
4306000000.0 0.5746195836079877 -0.8276038982159126
4309000000.0 0.5473298409809247 -0.8320562707425648
4312000000.0 0.557137556443211 -0.8438397372768573
4316000000.0 0.5913437387954451 -0.8480294087054148
4319000000.0 0.5512744165324709 -0.8353963848057187
4322000000.0 0.5160615734809354 -0.8300322300258959
4325000000.0 0.581552812673709 -0.8576544476254505
4328000000.0 0.5516958516670036 -0.8581756867999993
4331000000.0 0.5234386691817532 -0.8800311115842684
4334000000.0 0.5428058890387499 -0.8771558178460065
4338000000.0 0.5673990223005544 -0.8500539738050398
4341000000.0 0.596548658341432 -0.8443954796494219
4344000000.0 0.5688829219360273 -0.8506089418666408
4347000000.0 0.5446038336595691 -0.8776207950998318
4350000000.0 0.5227036558437519 -0.8305755214223666
4353000000.0 0.5540591014765186 -0.8143231836880624
4356000000.0 0.5386335523080916 -0.8647278292675513
4359000000.0 0.515270863097777 -0.8138342271785591
4362000000.0 0.5224328662309341 -0.8845818585132118
4366000000.0 0.5617675477482399 -0.8732519886227856
4369000000.0 0.5178199019946934 -0.8208228355897343
4372000000.0 0.5109050786560134 -0.8598071800143879
4375000000.0 0.5573132502038897 -0.8550388431022096
4378000000.0 0.5375562105172093 -0.8362425940890235
4381000000.0 0.5393677677538403 -0.8365004216412494
4384000000.0 0.547858200152458 -0.8999775635226845
4388000000.0 0.5507686072449886 -0.831734539587122
4391000000.0 0.5551200569594248 -0.8492248544914547
4394000000.0 0.5401034963413011 -0.8212605831725661
4397000000.0 0.5338659406404402 -0.8577753094797069
4400000000.0 0.5458120654592515 -0.87119924108146
4403000000.0 0.5400793368504312 -0.8517246835582724
4406000000.0 0.5129074377739214 -0.8809806274496169
4409000000.0 0.5675481988308622 -0.883073521525179
4412000000.0 0.4930711209818093 -0.8821587852149573
4416000000.0 0.5264670367250985 -0.8427020734366679
4419000000.0 0.5329222301242226 -0.875168706254319
4422000000.0 0.5533708966143787 -0.842366074409861
4425000000.0 0.5767882448555771 -0.8704215466281678
4428000000.0 0.5335762934462664 -0.8650601613345406
4431000000.0 0.5617408642121677 -0.8728057938294443
4434000000.0 0.532570693401774 -0.8610106330722331
4438000000.0 0.5560535604731801 -0.8688353061991182
4441000000.0 0.5509152159746278 -0.8668832438061713
4444000000.0 0.5429036722442631 -0.8465301163234136
4447000000.0 0.5261769179284663 -0.8589152464070805
4450000000.0 0.5391715486254751 -0.8531899027582671
4453000000.0 0.5613004015250203 -0.874746293621331
4456000000.0 0.5096789733105653 -0.8296491600291171
4459000000.0 0.509671719016434 -0.8262455372208654
4462000000.0 0.5768264847481737 -0.9130028751751094
4466000000.0 0.554729528603825 -0.8789019971637542
4469000000.0 0.5497736488650987 -0.8504361105537249
4472000000.0 0.5405983184903608 -0.8909394121554697
4475000000.0 0.5319087798409081 -0.8452979650111124
4478000000.0 0.5464778539086115 -0.9012251926701202
4481000000.0 0.5099964883436187 -0.8521718774483877
4484000000.0 0.5076716780815309 -0.8879848749703574
4488000000.0 0.5068074138495813 -0.8628993307961305
4491000000.0 0.5090714790031333 -0.8590527405940613
4494000000.0 0.5386158820561154 -0.8327677814899077
4497000000.0 0.5395028541777441 -0.8438321301451777
4500000000.0 0.5320494045992714 -0.8495515094715568
4503000000.0 0.5565608858873402 -0.8749420334212104
4506000000.0 0.5226791944763856 -0.8543719549988618
4509000000.0 0.5265636924985477 -0.842644463812644
4512000000.0 0.5291844468287892 -0.8634424831811776
4516000000.0 0.5538989571240371 -0.8855078344193821
4519000000.0 0.529292841997263 -0.8425186700652143
4522000000.0 0.5084786770634206 -0.8752823450781151
4525000000.0 0.5547394741235616 -0.8336632592131715
4528000000.0 0.550680909724748 -0.8849997397309275
4531000000.0 0.5667431308336164 -0.8688717459942904
4534000000.0 0.5212198848507412 -0.844174680385236
4538000000.0 0.5274624098682161 -0.8516597724684144
4541000000.0 0.48224689983644187 -0.886497012362367
4544000000.0 0.5084679179834825 -0.8489867069206307
4547000000.0 0.5265990171534297 -0.8471437770767738
4550000000.0 0.5018002080159114 -0.8854609769137078
4553000000.0 0.5203259098292811 -0.8568917395593091
4556000000.0 0.5060469857157668 -0.8431659813386005
4559000000.0 0.5056260524589022 -0.8996964886791045
4562000000.0 0.5372292187965504 -0.8672231241376767
4566000000.0 0.5211332891373956 -0.8714609507975333
4569000000.0 0.5039027034323584 -0.8452355824013107
4572000000.0 0.5228042522253229 -0.8550752331267377
4575000000.0 0.5056677382629451 -0.8756343313581232
4578000000.0 0.544390673483854 -0.8889809234369312
4581000000.0 0.5039348930966048 -0.88973183771229
4584000000.0 0.5057110785935759 -0.8607981275147927
4588000000.0 0.5402160749331096 -0.8668909744877984
4591000000.0 0.5274920588717956 -0.8669560633832557
4594000000.0 0.48124239956748194 -0.8835854902615916
4597000000.0 0.5195026683564925 -0.8755736038801134
4600000000.0 0.48075270972629647 -0.8634683787209931
4603000000.0 0.5066150147751873 -0.889463536027725
4606000000.0 0.5117092209781504 -0.8695860220346356
4609000000.0 0.5169379727656153 -0.8671862941479156
4612000000.0 0.5128091993234913 -0.8841307504155467
4616000000.0 0.4956345505988396 -0.8618635654196746
4619000000.0 0.5118446620658159 -0.8662183330142561
4622000000.0 0.5275283422952475 -0.8967459487148373
4625000000.0 0.47985597136299885 -0.8620843629111322
4628000000.0 0.5382331803966359 -0.8577026610308561
4631000000.0 0.4890678842485095 -0.882804058150475
4634000000.0 0.5160199155007354 -0.8819136328335359
4638000000.0 0.5148235648451985 -0.8848687129681085
4641000000.0 0.5215823678381754 -0.8670842630326436
4644000000.0 0.5178731259129836 -0.864833973364376
4647000000.0 0.5131453166705275 -0.8747715750511005
4650000000.0 0.4868367960771949 -0.8790241219468797
4653000000.0 0.5155765890870677 -0.8916500189948778
4656000000.0 0.48887206344171785 -0.8826760271138586
4659000000.0 0.4880942620567016 -0.8757848280303812
4662000000.0 0.514874398165127 -0.8730197819854617
4666000000.0 0.4819703153095909 -0.874084966569558
4669000000.0 0.5002608450062941 -0.8754997073414853
4672000000.0 0.49458074773223143 -0.9132257130793185
4675000000.0 0.4986153189579292 -0.8971589901589117
4678000000.0 0.5003950589781249 -0.8718526894318451
4681000000.0 0.48490179984002285 -0.8996770393892488
4684000000.0 0.4680209206359457 -0.8778298483083945
4688000000.0 0.46214456480060584 -0.8729775591668076
4691000000.0 0.5458321696544057 -0.8795076613961826
4694000000.0 0.5188919177526913 -0.8742269697023587
4697000000.0 0.4637391261036221 -0.8666806127958885
4700000000.0 0.5114627515801896 -0.8585235844637906
4703000000.0 0.5130229176873623 -0.8486933244004458
4706000000.0 0.4843975114289765 -0.8817320379717909
4709000000.0 0.4853058702590832 -0.8744045261735908
4712000000.0 0.48992750150015224 -0.8909602223781904
4716000000.0 0.5180010484657305 -0.9156710943004549
4719000000.0 0.5313397098430619 -0.8938484764453674
4722000000.0 0.5211383350052954 -0.8673897036445092
4725000000.0 0.5265423575557812 -0.8888615860190346
4728000000.0 0.4967852305652828 -0.8743592369851113
4731000000.0 0.5433381389784121 -0.906460896053031
4734000000.0 0.49760997781297034 -0.876734315230339
4738000000.0 0.4978958693737643 -0.9119372649126164
4741000000.0 0.5168614938869304 -0.9061581120594169
4744000000.0 0.4875795205649743 -0.8600274656211645
4747000000.0 0.4865594334835483 -0.8656921010989975
4750000000.0 0.502100183613879 -0.9062639190903545
4753000000.0 0.5346053637846155 -0.8951853288150732
4756000000.0 0.49484972070835886 -0.8773780881385025
4759000000.0 0.5203750377520515 -0.9127160410198637
4762000000.0 0.4598152331161956 -0.8839218614400931
4766000000.0 0.48175715228753163 -0.9080048264681411
4769000000.0 0.49966104858691257 -0.8694491850581388
4772000000.0 0.5038850715855054 -0.914724030506596
4775000000.0 0.5186811565048147 -0.9502326190015996
4778000000.0 0.5018957534003726 -0.9169460223234155
4781000000.0 0.5325880199674954 -0.8970233388805168
4784000000.0 0.5359943772781298 -0.8912839309749039
4788000000.0 0.4915763462462941 -0.9057423546911569
4791000000.0 0.49969592195757784 -0.8900067270832681
4794000000.0 0.5333243908581837 -0.8703083500697933
4797000000.0 0.4855604632142856 -0.882877678982808
4800000000.0 0.4620496256890315 -0.8858530990535372
4803000000.0 0.4416582406576608 -0.9159344591571249
4806000000.0 0.49411076451282365 -0.9133814324335998
4809000000.0 0.4514650721693607 -0.907554709921246
4812000000.0 0.46084735928614484 -0.8992810798732338
4816000000.0 0.4932345277470799 -0.8776104066163671
4819000000.0 0.5675313221827473 -0.8945511496041962
4822000000.0 0.5160564068564006 -0.9248992055338041
4825000000.0 0.524723709389967 -0.9056733552362866
4828000000.0 0.48964954976093933 -0.8937882291210157
4831000000.0 0.47989839695466324 -0.9278236034288314
4834000000.0 0.5232903000639474 -0.8792196180358531
4838000000.0 0.4798251286685711 -0.931555895890988
4841000000.0 0.49930488228410136 -0.8984980817048321
4844000000.0 0.5243102875729696 -0.8886799794157466
4847000000.0 0.4834821983275609 -0.8717631741147077
4850000000.0 0.5180084985428072 -0.9538127316057737
4853000000.0 0.503134403656894 -0.8722008908980416
4856000000.0 0.48196190843900955 -0.8837978894470501
4859000000.0 0.5249887754154803 -0.9265405604392352
4862000000.0 0.515206549652109 -0.8842910999731258
4866000000.0 0.48761851086683244 -0.9068830791296144
4869000000.0 0.46721234461687255 -0.9068797092675915
4872000000.0 0.4887098768677554 -0.9268611534303116
4875000000.0 0.5585014135080435 -0.8987296311619408
4878000000.0 0.5042898100971832 -0.9364978730189601
4881000000.0 0.4999682335253656 -0.9870516633840677
4884000000.0 0.5145970433469532 -0.9094387980292453
4888000000.0 0.5461235468086291 -0.8826064842153382
4891000000.0 0.5333889556158484 -0.8990927535654578
4894000000.0 0.49161347497043134 -0.9003260310334673
4897000000.0 0.5065149218639288 -0.8785143822337474
4900000000.0 0.5244564640804412 -0.9049633160427963
4903000000.0 0.5260603371685806 -0.9035110776352671
4906000000.0 0.526231725972854 -0.9236187725870393
4909000000.0 0.47856802345092786 -0.9236965745702688
4912000000.0 0.5161805352991433 -0.9335698995858662
4916000000.0 0.5171530067875084 -0.8999233782383387
4919000000.0 0.5752257495514407 -0.9170385329482997
4922000000.0 0.5493670671403051 -0.9146549149130724
4925000000.0 0.48399577422526274 -0.8966836283464786
4928000000.0 0.548059564930116 -0.8711380775790644
4931000000.0 0.52972996697 -0.9408220703949295
4934000000.0 0.5119175969839455 -0.849413493594409
4938000000.0 0.4625187777614298 -0.9064654994290032
4941000000.0 0.5028873677620477 -0.8850896854267967
4944000000.0 0.518668910183071 -0.8452841611947479
4947000000.0 0.5028104056594908 -0.8492869218837963
4950000000.0 0.48475411364753995 -0.8649326268758942
4953000000.0 0.5078998715774542 -0.9458080417886164
4956000000.0 0.5062136106580732 -0.9198178634058785
4959000000.0 0.46055240719322227 -0.9028186566605297
4962000000.0 0.5100806999497034 -0.9052334679882086
4966000000.0 0.5343539185790024 -0.9082405802439634
4969000000.0 0.5822476901171797 -0.9310499843788927
4972000000.0 0.4917065401085968 -0.9367236434029261
4975000000.0 0.5308248943195671 -0.8464795442530247
4978000000.0 0.4737255896363921 -0.9013647364931908
4981000000.0 0.5231950437240713 -0.9142629779902252
4984000000.0 0.49830029778006785 -0.8921495433268252
4988000000.0 0.5441944597242139 -0.8714998306461245
4991000000.0 0.5800010326718139 -0.8943538103272917
4994000000.0 0.5371245062396772 -0.8630378647509384
4997000000.0 0.47413087581831603 -0.8873184807647883
5000000000.0 0.5443251108147402 -0.9280288824457983
5003000000.0 0.5314321851491035 -0.9404134192046852
5006000000.0 0.5330573236099456 -0.9152285110199343
5009000000.0 0.521067127901108 -0.8754260144467187
5012000000.0 0.4948496295702929 -0.9204159216292492
5016000000.0 0.5626870536215927 -0.9207298294763133
5019000000.0 0.48883783065422104 -0.9025391904285189
5022000000.0 0.5414986119136613 -0.9005380358421495
5025000000.0 0.5549050907989416 -0.9794330273527925
5028000000.0 0.49798671484004214 -0.9097067742440619
5031000000.0 0.5149020581265379 -0.9302121083824832
5034000000.0 0.5040951630587605 -0.9751427738247167
5038000000.0 0.4710319969453137 -0.845578292594038
5041000000.0 0.5672024330305504 -0.8794254420387324
5044000000.0 0.5573062091343535 -0.868203479409936
5047000000.0 0.5634291097824546 -0.9022265830443783
5050000000.0 0.5978496202083382 -0.8572657556442578
5053000000.0 0.5512073317277566 -0.9476947067457211
5056000000.0 0.5798162733279483 -0.8872644506747467
5059000000.0 0.6202284687127639 -0.8774724978512165
5062000000.0 0.5318817575088741 -0.9307335604243032
5066000000.0 0.5644763567791791 -0.8687466961644272
5069000000.0 0.5357910259548261 -0.8949369351599937
5072000000.0 0.5074640117066493 -0.8730024962617908
5075000000.0 0.5820865060249437 -0.8650945385593506
5078000000.0 0.4947258005204609 -0.9241895996028657
5081000000.0 0.5226553920494084 -0.8212025087835875
5084000000.0 0.5016243226917912 -0.9451101135639052
5088000000.0 0.552394616616924 -0.8586897361991971
5091000000.0 0.5150335095215508 -0.9311616647179847
5094000000.0 0.5563946434946901 -0.8922829663784113
5097000000.0 0.552716758487482 -0.8880147815639094
5100000000.0 0.5675199906046458 -0.8741440562888824
5103000000.0 0.5368411404314202 -0.9233951208966885
5106000000.0 0.5815542869970791 -0.9231401407075781
5109000000.0 0.5762885025718872 -0.8771828986267098
5112000000.0 0.5390956950286867 -0.8909534809468538
5116000000.0 0.5633481703861231 -0.8737383327244488
5119000000.0 0.5427285018888399 -0.9434842973969015
5122000000.0 0.5417107239073919 -0.8761165536565663
5125000000.0 0.5819544376808088 -0.8625916271168306
5128000000.0 0.5251373451244665 -0.9002110971954411
5131000000.0 0.5487885873803698 -0.8927034929747686
5134000000.0 0.5351309154601037 -0.8939300716449031
5138000000.0 0.5544435594448224 -0.8953892833461019
5141000000.0 0.5577409643438846 -0.8592751504008979
5144000000.0 0.5908811791389047 -0.8628952731538683
5147000000.0 0.5531514018367747 -0.8854038200040337
5150000000.0 0.6056601224306017 -0.9072834918125268
5153000000.0 0.5523596425349374 -0.8755360891413666
5156000000.0 0.5502803235481821 -0.9045614386730225
5159000000.0 0.5685019554738062 -0.8990025426120394
5162000000.0 0.5668023866395329 -0.8993947647900014
5166000000.0 0.5379028442241562 -0.8782421004810077
5169000000.0 0.5485041479667228 -0.8989098631116821
5172000000.0 0.563625963958275 -0.8900551424879404
5175000000.0 0.5907824524466003 -0.9054123176077598
5178000000.0 0.5247979636993909 -0.8902329941950358
