! Created with skrf 1.8.0 (http://scikit-rf.org).
# Hz S RI R 50.0 
!freq ReS11 ImS11
4000000000.0 0.5174534729055051 -0.8224626677676833
4003000000.0 0.5477137932735802 -0.9416885646298686
4006000000.0 0.4935968304708681 -0.9040484737562446
4009000000.0000005 0.5285046575155885 -0.9107309938430583
4011999999.9999995 0.5495769432002959 -0.8740649495313011
4016000000.0 0.4970423995386469 -0.9177915185792166
4019000000.0 0.5399108153399779 -0.8721126588102378
4022000000.0000005 0.6023173165142074 -0.842474689598348
4025000000.0000005 0.5136634422430915 -0.9288189159551472
4027999999.9999995 0.4851511175448505 -0.8959654726172275
4030999999.9999995 0.5257507255596243 -0.8752569272995077
4034000000.0 0.4831179421617239 -0.8755463133237762
4038000000.0000005 0.4854230607212811 -0.9085118391315599
4041000000.0000005 0.5164415182055341 -0.9098845277879205
4043999999.9999995 0.5524938884666688 -0.90316238974371
4046999999.9999995 0.5589304494691689 -0.9176369895337779
4050000000.0 0.49833418360100334 -0.9388146223396144
4053000000.0 0.45933308548782587 -0.8813238730784198
4056000000.0 0.5065901345954452 -0.8873085693157973
4059000000.0 0.516619555948342 -0.8630416485518537
4062000000.0000005 0.510224580371569 -0.9232145457851598
4066000000.0 0.48145481563911013 -0.8564828862381838
4069000000.0 0.50477694596117 -0.9139894442425226
4072000000.0 0.539994514019257 -0.8827890306566826
4075000000.0 0.5625428516049623 -0.927841386549509
4078000000.0000005 0.4972706821009968 -0.9454776184519612
4081000000.0000005 0.615083987359816 -0.9064606229143108
4083999999.9999995 0.5216003102616068 -0.8978717287838066
4088000000.0 0.5784915585017876 -0.8733570767710318
4091000000.0 0.4906008917313145 -0.9577515314683159
4094000000.0000005 0.5199076152017991 -0.9098683878319445
4097000000.0000005 0.5210986094500378 -0.8922773734339647
4099999999.9999995 0.5364273039806194 -0.9153332670082305
4102999999.9999995 0.5607174493143727 -0.8686005299181535
4106000000.0 0.5246602500257511 -0.8662411828629945
4109000000.0 0.5204757640796032 -0.9387333938207842
4112000000.0 0.5130146755830367 -0.8865899159541246
4115999999.9999995 0.48822697072903315 -0.9214142732179857
4119000000.0 0.502637650355918 -0.9021650968738726
4122000000.0 0.5048965752445389 -0.9119180030071811
4125000000.0 0.5414323675530176 -0.9306494692109861
4128000000.0 0.5178003369726726 -0.8683334762466349
4131000000.0 0.5348751657585042 -0.8771115939131161
4134000000.0000005 0.5220171486133887 -0.8782529772029402
4138000000.0 0.47944500329794154 -0.875964059739877
4141000000.0 0.5204959811424283 -0.8928994617099146
4144000000.0 0.5249388011714984 -0.9110196125848128
4147000000.0000005 0.47364844205210954 -0.9059422045439716
4150000000.0000005 0.5577859838573505 -0.8993896111847615
4152999999.9999995 0.5097112470691639 -0.8896753496175142
4155999999.9999995 0.5526778413078558 -0.905533488748985
4159000000.0 0.5244444524970071 -0.8465719137571245
4162000000.0 0.5084252823357432 -0.861992247841191
4166000000.0000005 0.5263209370269605 -0.8959679354695574
4168999999.9999995 0.48678984478751547 -0.8831513038183793
4171999999.9999995 0.5305989154403538 -0.8913716247468758
4175000000.0 0.5129477828757585 -0.9256288241745407
4178000000.0 0.4995252526143178 -0.904562886979761
4181000000.0 0.5173082420142293 -0.890767504190282
4184000000.0 0.5014079320058942 -0.8879519994709946
4187999999.9999995 0.5054924884662042 -0.874780326148088
4191000000.0 0.5617514515559401 -0.8740269431184592
4194000000.0 0.5102102635263008 -0.8590381360537215
4197000000.0 0.5393577217537524 -0.8993074465976224
4200000000.0 0.5331901543131418 -0.8840016548098808
4203000000.0000005 0.5356876380059005 -0.8850784897071498
4206000000.0000005 0.5159655888926409 -0.8987938220769457
4208999999.9999995 0.5070513496135931 -0.8580904294681406
4211999999.9999995 0.48892827088567903 -0.8825853730370082
4216000000.0 0.5364651053539032 -0.899756898968944
4219000000.0000005 0.5283071541273171 -0.8943476176601902
4222000000.0000005 0.5136866528169012 -0.8948392514997884
4224999999.9999995 0.514573145638222 -0.8740245313253203
4227999999.9999995 0.533393720037844 -0.8877908058561729
4231000000.0 0.49560824321256647 -0.8873887308642988
4234000000.0 0.5161153988558942 -0.8844832180160832
4238000000.0000005 0.5039660949348878 -0.8800112825427016
4240999999.9999995 0.5009136882876115 -0.8874493907594204
4244000000.0 0.5239016599650566 -0.8797433527377858
4247000000.0 0.5071617699014692 -0.8587888585392998
4250000000.0 0.48267140718203616 -0.879365915492542
4253000000.0 0.497865631454225 -0.8641739369965052
4256000000.0 0.5223282943255377 -0.905385818039278
4259000000.0000005 0.4679600481592142 -0.8736559450930415
4261999999.9999995 0.49689980336926465 -0.8888683171453263
4266000000.0 0.4924231548335861 -0.9071255962438861
4269000000.0 0.5142821812345836 -0.8727588075869217
4272000000.0000005 0.4957457230059815 -0.8679418429710734
4275000000.0000005 0.5215281883578659 -0.8906994454159515
4277999999.9999995 0.5208722471466147 -0.9022947954596634
4280999999.9999995 0.5338654164269468 -0.8916293192914205
4284000000.0 0.48745482443781296 -0.8976474835765931
4288000000.0000005 0.5213160149013708 -0.8746490834188987
4291000000.0000005 0.5033499934708413 -0.854251798071187
4293999999.9999995 0.4959906872440005 -0.8791277926799013
4297000000.0 0.5235610752737146 -0.849505844725941
4300000000.0 0.5191548334042742 -0.8447980276940843
4303000000.0 0.4958678641217577 -0.8735367165275589
4306000000.0 0.5283377700975228 -0.8544297495081709
4309000000.0 0.507927604282973 -0.8784221584087766
4312000000.0 0.5241544551447689 -0.8769639739323534
4316000000.0 0.5282988964049883 -0.8548252123501561
4319000000.0 0.5110156753901768 -0.8597875055515075
4322000000.0 0.4746441030373052 -0.896628281688819
4325000000.0 0.5184230619492225 -0.865421214767144
4328000000.0 0.4899297783555396 -0.8695508742101712
4331000000.0 0.48541312929623526 -0.8997186720564073
4334000000.0 0.5005221225513976 -0.8801971302677742
4338000000.0 0.5390943814500534 -0.8797069830506508
4341000000.0 0.5307685496760639 -0.8988041177317105
4344000000.0 0.5236477623066614 -0.8855072031326624
4347000000.0 0.4731215972129038 -0.9043078094394088
4350000000.0 0.4850461041358053 -0.8431364416172494
4353000000.0 0.5217952566086902 -0.8732797528456259
4356000000.0 0.46765511968789575 -0.8888670518166631
4359000000.0 0.47081327065832024 -0.8579935033282683
4362000000.0 0.4384975740792456 -0.9123050527265635
4366000000.0 0.5102496143574323 -0.9055246729385114
4369000000.0 0.4819119699728669 -0.8444280637554662
4372000000.0 0.46629321274945107 -0.9000701816618182
4375000000.0 0.5058013602645988 -0.8640232805897987
4378000000.0 0.491068124801993 -0.8490557555723794
4381000000.0 0.49476944861110395 -0.8526860182553245
4384000000.0 0.5176926499853118 -0.9508123398511209
4388000000.0 0.5160959510870062 -0.8608640207314354
4391000000.0 0.5091150100237081 -0.9091554597940804
4394000000.0 0.4617027561562469 -0.8606811609447225
4397000000.0 0.49057197009876596 -0.8761110866986928
4400000000.0 0.5072817996444736 -0.9147625856685261
4403000000.0 0.4946784705805188 -0.8852470209016078
4406000000.0 0.47796877508588753 -0.9043112586466634
4409000000.0 0.501678185561025 -0.9052912915372879
4412000000.0 0.43476299592964474 -0.9106069944971724
4416000000.0 0.4716578880836364 -0.8776067521482188
4419000000.0 0.46723459131632666 -0.894765078169495
4422000000.0 0.5058442498108989 -0.8724315819913762
4425000000.0 0.5179778784997985 -0.8778087037666165
4428000000.0 0.4803873847182407 -0.9028215696807143
4431000000.0 0.5050981700400511 -0.8939518549143055
4434000000.0 0.4833260485924274 -0.8835461524419419
4438000000.0 0.4999085315862732 -0.9015215382753241
4441000000.0 0.5025096102367422 -0.8925704790112752
4444000000.0 0.47580156416149333 -0.8710086895390766
4447000000.0 0.47587321280698447 -0.8817092189339117
4450000000.0 0.49849534683803876 -0.8815483048048838
4453000000.0 0.4898460117210218 -0.9129303126473349
4456000000.0 0.4566218739016967 -0.8608149440301852
4459000000.0 0.45177623572708114 -0.8474514560115662
4462000000.0 0.5008916221067908 -0.9229645472168175
4466000000.0 0.5050623901826691 -0.9188224998254827
4469000000.0 0.5056660997603781 -0.8803245590605224
4472000000.0 0.4749864047204574 -0.9297492579514836
4475000000.0 0.48184929132986565 -0.8689529499073253
4478000000.0 0.48151159724226217 -0.9235285063765726
4481000000.0 0.45545419828209127 -0.8803253640368396
4484000000.0 0.42320074704360083 -0.920998926715165
4488000000.0 0.45880697646465524 -0.8874337488850538
4491000000.0 0.4740242275914103 -0.8949659733004893
4494000000.0 0.4697443849739297 -0.8805671739389513
4497000000.0 0.4786123508039756 -0.875286492256911
4500000000.0 0.4736676865761169 -0.8927754495927123
4503000000.0 0.5000750223045914 -0.9102618335854153
4506000000.0 0.4644679867000464 -0.8838036092700341
4509000000.0 0.4599194513506944 -0.8459371112115439
4512000000.0 0.46586532602804187 -0.8978371896045488
4516000000.0 0.4855671818732146 -0.9041061843417156
4519000000.0 0.4643339391379152 -0.8581298098362662
4522000000.0 0.47050554816224033 -0.9058269545111051
4525000000.0 0.5040306277196299 -0.876051929809186
4528000000.0 0.4900183157336433 -0.8983392059796371
4531000000.0 0.4915722802586649 -0.8931821586283781
4534000000.0 0.4533617338180702 -0.8746964009643732
4538000000.0 0.4662272753447976 -0.900973333779062
4541000000.0 0.42793127669888686 -0.8872818809830587
4544000000.0 0.47681408442739004 -0.9069961419558
4547000000.0 0.4866136853204361 -0.8794930982264171
4550000000.0 0.4453705450597148 -0.9333313823256698
4553000000.0 0.4599624020132883 -0.8911188860763145
4556000000.0 0.4426869899705062 -0.8837814982695885
4559000000.0 0.45881437949521087 -0.9235777699953707
4562000000.0 0.4586798975131694 -0.9102145651411382
4566000000.0 0.4602052160576084 -0.9175122868954945
4569000000.0 0.43780487741077484 -0.8947139745459267
4572000000.0 0.4727431336621133 -0.8764047902453826
4575000000.0 0.4399285200487856 -0.8963025174993106
4578000000.0 0.4969388051252547 -0.9116496667548311
4581000000.0 0.4567694695772021 -0.8967835801797219
4584000000.0 0.45917702653834525 -0.8999503724019713
4588000000.0 0.4756350794123654 -0.9021135997427774
4591000000.0 0.472404444843467 -0.890012819146698
4594000000.0 0.44109175137650763 -0.9065620407061497
4597000000.0 0.4593784061021116 -0.9220578211113597
4600000000.0 0.42720026320100335 -0.9039703110450895
4603000000.0 0.4632403202511345 -0.9206070173089118
4606000000.0 0.4636965798467454 -0.920098574916007
4609000000.0 0.44285816049868254 -0.9135299840771796
4612000000.0 0.4422377495638511 -0.9250380402426589
4616000000.0 0.4360290581680973 -0.8987793468262889
4619000000.0 0.45839053239390265 -0.9036907689519388
4622000000.0 0.438279708024808 -0.9191935254141711
4625000000.0 0.41080284401410494 -0.8928444950466877
4628000000.0 0.4634278320936188 -0.896915379076472
4631000000.0 0.4315642142126112 -0.9150690678230677
4634000000.0 0.43892548251145536 -0.925158380570077
4638000000.0 0.4465564011812633 -0.9035867360239158
4641000000.0 0.46124127765396805 -0.9052548592249648
4644000000.0 0.44214208205944183 -0.9040987109347212
4647000000.0 0.4634100137262299 -0.9006935404986417
4650000000.0 0.43077921038018363 -0.9060403803858688
4653000000.0 0.4565000995730063 -0.9085867106037498
4656000000.0 0.4490835661819633 -0.9117596220340223
4659000000.0 0.41109146523013607 -0.9146717682991512
4662000000.0 0.44178744268988773 -0.9294507322185179
4666000000.0 0.4381244351918705 -0.9148046375625605
4669000000.0 0.46319745227780484 -0.9209251598735204
4672000000.0 0.4361266638613599 -0.9383116730050053
4675000000.0 0.4465162954288078 -0.9159122885270106
4678000000.0 0.41562546263476935 -0.8961887456553279
4681000000.0 0.4216015335838631 -0.9517560929693852
4684000000.0 0.4274292888141976 -0.9515360144054903
4688000000.0 0.40672374283141427 -0.9328327427311583
4691000000.0 0.4754263766062215 -0.9062675543658165
4694000000.0 0.4500684063216023 -0.8954227619141011
4697000000.0 0.42623555756411957 -0.892051259722034
4700000000.0 0.4599926716075416 -0.9106392895721469
4703000000.0 0.4559992680290615 -0.8736818285951744
4706000000.0 0.424680592440806 -0.9087551855709313
4709000000.0 0.4250706333426208 -0.916786023148097
4712000000.0 0.41566921196444684 -0.9175341342996354
4716000000.0 0.4109061495375536 -0.9481610563082917
4719000000.0 0.4616382167927449 -0.9095947506367821
4722000000.0 0.47715246332523403 -0.9001949476216246
4725000000.0 0.4503207322635576 -0.9161880913362765
4728000000.0 0.4290489409227632 -0.9171683012642975
4731000000.0 0.45519498872901787 -0.9160067922311947
4734000000.0 0.42702885978225114 -0.9166385318319406
4738000000.0 0.4610093097803621 -0.9326508832116404
4741000000.0 0.43407899470842704 -0.9718925239928654
4744000000.0 0.4414314031168186 -0.9206452547826695
4747000000.0 0.44004448225985554 -0.8742551787723741
4750000000.0 0.41938710037785076 -0.9405726661584621
4753000000.0 0.4222113678216972 -0.9361525160460056
4756000000.0 0.42993498052437007 -0.9187657752810234
4759000000.0 0.45119401936523107 -0.9207096634822496
4762000000.0 0.4219252402124693 -0.9502901351692333
4766000000.0 0.4214773845421044 -0.909126838000708
4769000000.0 0.4392379517222107 -0.921409159276997
4772000000.0 0.4437149717797821 -0.9353019725161723
4775000000.0 0.44545541160460245 -0.9576023610236358
4778000000.0 0.4199953373655091 -0.9295280181527418
4781000000.0 0.4302738083582942 -0.9420052728645344
4784000000.0 0.4477878768723439 -0.9194334897266441
4788000000.0 0.4062265118176352 -0.9625524611185793
4791000000.0 0.41092825178610226 -0.9079212214312367
4794000000.0 0.4724411904215824 -0.9318901248845162
4797000000.0 0.4314016367126895 -0.9192560803865939
4800000000.0 0.422827009034755 -0.9291057117706784
4803000000.0 0.3768702255059676 -0.9380030878040133
4806000000.0 0.4306171662710151 -0.9474783514853846
4809000000.0 0.410646647740153 -0.9288235578950182
4812000000.0 0.3729797149656447 -0.9484162205834802
4816000000.0 0.45580624049022167 -0.9047138745268809
4819000000.0 0.45878612303159116 -0.9544616040734976
4822000000.0 0.4526991446170603 -0.9504645658051147
4825000000.0 0.4324362414776919 -0.9340252715891656
4828000000.0 0.42719626650320885 -0.9394738956172247
4831000000.0 0.391839455456569 -0.9614062522747467
4834000000.0 0.45013033786586065 -0.9254663670335154
4838000000.0 0.4304757630177639 -0.9679902743294061
4841000000.0 0.38513219713757024 -0.9386099767782445
4844000000.0 0.4612292789479213 -0.925477448285887
4847000000.0 0.4502984011162498 -0.8976015454667607
4850000000.0 0.4201207940119879 -0.9542750721881439
4853000000.0 0.4306186212559809 -0.9036353825917306
4856000000.0 0.4336713541478633 -0.9438297814646129
4859000000.0 0.4289706834473431 -0.9802769485528997
4862000000.0 0.4406490349197075 -0.9149972045896994
4866000000.0 0.41122825401545954 -0.9557409467482884
4869000000.0 0.4214482389936092 -0.9273712200015389
4872000000.0 0.42641374449293845 -0.9704152825311596
4875000000.0 0.49150125125099176 -0.9466468478103568
4878000000.0 0.4463978604057862 -0.9652149908821596
4881000000.0 0.4197043647449269 -1.0015145388524822
4884000000.0 0.42810776324614064 -0.9351209265114936
4888000000.0 0.4619608667239558 -0.9218904412542341
4891000000.0 0.47581231233611143 -0.944080548823463
4894000000.0 0.39628371180861843 -0.9293286186984421
4897000000.0 0.45867446898880065 -0.9081959079431673
4900000000.0 0.43805677690057965 -0.9476143964163218
4903000000.0 0.43729271830647837 -0.9511002901013473
4906000000.0 0.4625741523314727 -0.9712536137516928
4909000000.0 0.41879115325854627 -0.9508871132891683
4912000000.0 0.4530678949274612 -0.9833496540165421
4916000000.0 0.4529231603751839 -0.9356624923199585
4919000000.0 0.4819036731314187 -0.9220213814715633
4922000000.0 0.46117373436625697 -0.9494230065528213
4925000000.0 0.4027032627903109 -0.9755090850709385
4928000000.0 0.48680597832120137 -0.9151569483350529
4931000000.0 0.43748710647172284 -0.9263978378967554
4934000000.0 0.40753313403654 -0.9023300993042747
4938000000.0 0.4058596427096771 -0.9645196533598119
4941000000.0 0.44344321067147274 -0.8969463273310568
4944000000.0 0.4284533796801639 -0.8765224968927262
4947000000.0 0.42972208095786524 -0.9108484334302763
4950000000.0 0.38964871562986303 -0.9155877734344644
4953000000.0 0.38686824643660306 -0.9761218613682164
4956000000.0 0.4052595788938831 -0.9418557565517031
4959000000.0 0.386392831612295 -0.9246878826805567
4962000000.0 0.439420850421056 -0.9712783565330412
4966000000.0 0.44656185573382956 -0.9114949723321188
4969000000.0 0.4819459932507657 -0.961609109011057
4972000000.0 0.4223703786343459 -0.9567629878840754
4975000000.0 0.4564466959950204 -0.9185785201802036
4978000000.0 0.4353503788433277 -0.9531781048906165
4981000000.0 0.4322522758347329 -0.9626501608838025
4984000000.0 0.407653899001614 -0.9491071279017771
4988000000.0 0.4666792819941692 -0.9289392606354614
4991000000.0 0.47698573325691723 -0.944799446383407
4994000000.0 0.447704281168046 -0.924418469514888
4997000000.0 0.3812253973764137 -0.9938595293360784
5000000000.0 0.46917375945854145 -0.9703101314445295
5003000000.0 0.44314083138803784 -0.9467273038701762
5006000000.0 0.4554824332450497 -0.9784718564573827
5009000000.0 0.4230934238213831 -0.9397060667373315
5012000000.0 0.42467811017261287 -0.9461313174217001
5016000000.0 0.4865639512718444 -0.9391789308637356
5019000000.0 0.43225204988413346 -0.9467912112051011
5022000000.0 0.4318532561087399 -0.9486252503890621
5025000000.0 0.4543607554669855 -1.0167698767820936
5028000000.0 0.43486045711915433 -0.9737514646738094
5031000000.0 0.43690237933801396 -0.9329693648910462
5034000000.0 0.4404724096611089 -0.9803648868813486
5038000000.0 0.41721737314439733 -0.9287298377483788
5041000000.0 0.4781437389848275 -0.9575757355795491
5044000000.0 0.4714579933564119 -0.946456038401549
5047000000.0 0.4557453230251544 -0.9240433232732144
5050000000.0 0.5170148768057929 -0.8920853733187394
5053000000.0 0.45231745895183273 -1.009958278023918
5056000000.0 0.4901597755034137 -0.9373237158811458
5059000000.0 0.5065710142539821 -0.9172564752530994
5062000000.0 0.44011714061919915 -0.9776932890363726
5066000000.0 0.4731239973254898 -0.9075283874134771
5069000000.0 0.48899320173500754 -0.9453183997231398
5072000000.0 0.43549533256754075 -0.9324561763069044
5075000000.0 0.45553827092063315 -0.9324767420000994
5078000000.0 0.4055591589945814 -0.9573577125145398
5081000000.0 0.43899478825212357 -0.8974077067025227
5084000000.0 0.4832558765066038 -0.9450328098687161
5088000000.0 0.49522301323871576 -0.926437399956891
5091000000.0 0.40663995872201864 -0.956661523456156
5094000000.0 0.4390038283611193 -0.9737029780503323
5097000000.0 0.46237973484330924 -0.9341379143255478
5100000000.0 0.43749601103068053 -0.8992044032331827
5103000000.0 0.421864017486276 -0.9544406461449323
5106000000.0 0.4521578034710102 -0.957562226180165
5109000000.0 0.4983566278460707 -0.912484558434399
5112000000.0 0.4489991188136321 -0.9843924937024939
5116000000.0 0.46577513278115895 -0.9129539603017683
5119000000.0 0.44282575016935727 -0.9297097347949754
5122000000.0 0.5035632313685539 -0.9240683097382583
5125000000.0 0.5083173520258315 -0.8957569634131286
5128000000.0 0.46012860230000685 -0.9528229367528895
5131000000.0 0.44773451901899686 -0.9330496714253524
5134000000.0 0.473242639948132 -0.9067731023089858
5138000000.0 0.5025142816870398 -0.906386773253172
5141000000.0 0.5161683636599661 -0.91226972322948
5144000000.0 0.4521324662667129 -0.9700453248387608
5147000000.0 0.4763711532202953 -0.9443873109451535
5150000000.0 0.501521144317002 -0.9361402734964217
5153000000.0 0.46582522887651895 -0.9887719235788576
5156000000.0 0.4804916694098429 -0.9238814154413734
5159000000.0 0.46125915533208545 -0.9684834270266995
5162000000.0 0.47724672457304274 -0.9671916597918748
5166000000.0 0.45211231238296684 -0.9691572101967869
5169000000.0 0.43542428586920096 -0.9730644311399727
5172000000.0 0.4566875738541824 -0.9332549920223043
