! Created with skrf 1.8.0 (http://scikit-rf.org).
# Hz S RI R 50.0 
!freq ReS11 ImS11
4000000000.0 0.5718170616773394 -0.8929830402033164
4003000000.0 0.5400019374758872 -0.9470494978166731
4006000000.0 0.48285491413286274 -0.91946302193941
4009000000.0000005 0.5296924398706044 -0.9124038216489679
4011999999.9999995 0.5443119876108312 -0.9163100462366238
4016000000.0 0.5125676254816456 -0.9042994120368415
4019000000.0 0.4870675443397141 -0.8902122192754267
4022000000.0000005 0.5632410034310148 -0.836866965331927
4025000000.0000005 0.4978939459730629 -0.8940696324387977
4027999999.9999995 0.500044554647743 -0.8759753196395267
4030999999.9999995 0.503228425989573 -0.8711045444035352
4034000000.0 0.49656196888931003 -0.9176682090821672
4038000000.0000005 0.48844650370079556 -0.9102035984229547
4041000000.0000005 0.5058446333410918 -0.8652150150512224
4043999999.9999995 0.5724550388526772 -0.9207803232592795
4046999999.9999995 0.5513924558676448 -0.9347762493050065
4050000000.0 0.47961190044911783 -0.9177811188074227
4053000000.0 0.5069257362962833 -0.8664138892361861
4056000000.0 0.5036180667205794 -0.8857949385513094
4059000000.0 0.514275687922441 -0.8952402898857271
4062000000.0000005 0.48515960925091234 -0.8799136923637435
4066000000.0 0.4776726854857469 -0.8403864788411854
4069000000.0 0.5145826073228666 -0.9583833993348323
4072000000.0 0.5430412355683092 -0.8592957062549701
4075000000.0 0.5576552094378129 -0.9070760203617253
4078000000.0000005 0.5285386520271576 -0.8715109481439755
4081000000.0000005 0.5841860151270931 -0.8708390854300729
4083999999.9999995 0.49117360692254614 -0.937073152700236
4088000000.0 0.5439031248455366 -0.8346415841695063
4091000000.0 0.5609627557931738 -0.9594740427771639
4094000000.0000005 0.5472746826567267 -0.8758820098171363
4097000000.0000005 0.5463957082993024 -0.8751066817602265
4099999999.9999995 0.5231323354232401 -0.9030612873135901
4102999999.9999995 0.5507987323403115 -0.9101356633984963
4106000000.0 0.498977982545039 -0.8806862558733001
4109000000.0 0.5099548134246428 -0.9274401279762773
4112000000.0 0.5133715408834459 -0.9009724611293005
4115999999.9999995 0.520900393170343 -0.8855024976541099
4119000000.0 0.478352234492143 -0.8749546595440444
4122000000.0 0.5196481034143191 -0.8770013370635604
4125000000.0 0.49909229533859123 -0.925551623378006
4128000000.0 0.5464154268764496 -0.853201204192146
4131000000.0 0.49771991524833126 -0.8635564609648799
4134000000.0000005 0.5153418216754528 -0.8968764653464243
4138000000.0 0.4599765301786459 -0.8847923823259641
4141000000.0 0.5110138193051732 -0.8953778442205097
4144000000.0 0.5140321801977559 -0.881657128925695
4147000000.0000005 0.4723569086013219 -0.881660683306789
4150000000.0000005 0.4989269054225768 -0.910700590976614
4152999999.9999995 0.5124487135265072 -0.8980464299055493
4155999999.9999995 0.5524252659099361 -0.8765500702918628
4159000000.0 0.5061739663918253 -0.8735874113519392
4162000000.0 0.5287053479258177 -0.8956037988283223
4166000000.0000005 0.5141062422471281 -0.9057176499412722
4168999999.9999995 0.5133807982493962 -0.8634789631584181
4171999999.9999995 0.5070962002051079 -0.8938541010816736
4175000000.0 0.5034577059129 -0.8934939713425529
4178000000.0 0.5425110042289263 -0.8950795920989495
4181000000.0 0.49009112047570036 -0.8819447064417693
4184000000.0 0.4997051189016685 -0.8785301209698126
4187999999.9999995 0.48876718477551384 -0.8929196412471919
4191000000.0 0.5310112476491865 -0.8435357387159922
4194000000.0 0.49190413701699925 -0.8803773987517325
4197000000.0 0.5328969482784492 -0.8817796744400194
4200000000.0 0.5242893705259697 -0.8720948483701901
4203000000.0000005 0.5261587543606232 -0.887802868928119
4206000000.0000005 0.5070615583536977 -0.8833898424823785
4208999999.9999995 0.5126686872591988 -0.8648024725005337
4211999999.9999995 0.5039913839834953 -0.893728244858493
4216000000.0 0.5157651183709833 -0.8756960655321333
4219000000.0000005 0.5253355507754615 -0.8865178523322588
4222000000.0000005 0.5006590620912407 -0.9024792223135047
4224999999.9999995 0.5265758063278474 -0.8884702591181993
4227999999.9999995 0.5156119605792515 -0.8857539515348536
4231000000.0 0.5106324431744754 -0.8690222498010951
4234000000.0 0.5097280412024411 -0.9034139607781945
4238000000.0000005 0.4939125058362944 -0.8787361259768779
4240999999.9999995 0.4880589915535032 -0.8861170622166387
4244000000.0 0.5098489631732902 -0.8625682879118208
4247000000.0 0.5071175257672265 -0.8656390281123009
4250000000.0 0.508820448934435 -0.8661073166959568
4253000000.0 0.4951336580955217 -0.8477822926974411
4256000000.0 0.5111288355721549 -0.9003299752558681
4259000000.0000005 0.4756044963079726 -0.8620616085745915
4261999999.9999995 0.4844064432187982 -0.8715562252095341
4266000000.0 0.5021200601176412 -0.9019656827036211
4269000000.0 0.5089368757112557 -0.8786544594927559
4272000000.0000005 0.5278100927722214 -0.874197341254832
4275000000.0000005 0.5059376874577163 -0.8611958825707989
4277999999.9999995 0.5275011688805431 -0.9175510674781191
4280999999.9999995 0.5271248870229568 -0.867551759545373
4284000000.0 0.4789996723547958 -0.8979868247044598
4288000000.0000005 0.5306907996947237 -0.8549473080867285
4291000000.0000005 0.4879416858518559 -0.8604236640937643
4293999999.9999995 0.48465045439327475 -0.8754435780835373
4297000000.0 0.5215109465396426 -0.8623758582873661
4300000000.0 0.49860242942435296 -0.8934253174812223
4303000000.0 0.47654711543635825 -0.88869720267475
4306000000.0 0.5230546240875279 -0.8810812023221527
4309000000.0 0.5102867760032739 -0.8760728234062141
4312000000.0 0.546265854119918 -0.8684749963393524
4316000000.0 0.5248937479731997 -0.9014986539987674
4319000000.0 0.48754330700890075 -0.8704433778735624
4322000000.0 0.4642365394044803 -0.8564181641285723
4325000000.0 0.5071166302365969 -0.8761916000235875
4328000000.0 0.4944438208035132 -0.87014278734924
4331000000.0 0.45788503389986124 -0.9018876643702131
4334000000.0 0.5127718027618766 -0.8642004752143505
4338000000.0 0.503226450298 -0.8619470648605676
4341000000.0 0.536850865548514 -0.8868843029072591
4344000000.0 0.5105843589999659 -0.9041965454033922
4347000000.0 0.49247128686954506 -0.8930024616661711
4350000000.0 0.47103809335099966 -0.8463891035238699
4353000000.0 0.5129054053928248 -0.8309079718967017
4356000000.0 0.4727958832825775 -0.8912691679298704
4359000000.0 0.47524591070504757 -0.8499094555271126
4362000000.0 0.4722315849818616 -0.9101624782662984
4366000000.0 0.4918341371818533 -0.9124343134583217
4369000000.0 0.4628497827383026 -0.8596866582207343
4372000000.0 0.43486284612718396 -0.8970087078358593
4375000000.0 0.5014129035093344 -0.8720729243701816
4378000000.0 0.46997624584664577 -0.8882098412806148
4381000000.0 0.5076926267257634 -0.861034631486945
4384000000.0 0.514484620207047 -0.9259355306389757
4388000000.0 0.5005141926021642 -0.8560893239881129
4391000000.0 0.5057307917116098 -0.8920908713084721
4394000000.0 0.4699577647191769 -0.8563289640568622
4397000000.0 0.48177017668897915 -0.8857285235519778
4400000000.0 0.4942136784624338 -0.9043157903076919
4403000000.0 0.49414591789944096 -0.8840685149709506
4406000000.0 0.47554350962570713 -0.8911046921650256
4409000000.0 0.5030671062058347 -0.9192859505299888
4412000000.0 0.4357929508658067 -0.9179698644875123
4416000000.0 0.4663204138783821 -0.8849915874238969
4419000000.0 0.46460946763987376 -0.8982297588999306
4422000000.0 0.49503533761688245 -0.8674899015251571
4425000000.0 0.5162648219126835 -0.8785418830435546
4428000000.0 0.4799562335665125 -0.8774243023611447
4431000000.0 0.49064641321642033 -0.8933202220169315
4434000000.0 0.47117594654333594 -0.8860175450329381
4438000000.0 0.4956696812063112 -0.8957500252314179
4441000000.0 0.503331902283346 -0.9093992979449874
4444000000.0 0.49706350964495283 -0.8634786197104873
4447000000.0 0.4642657682135446 -0.8892739287921704
4450000000.0 0.48145214584784735 -0.8728878174011273
4453000000.0 0.500684397968414 -0.9054183354035303
4456000000.0 0.46181324004816504 -0.8712558706918125
4459000000.0 0.4364820933618325 -0.8560344719855764
4462000000.0 0.4995022534575516 -0.9387943910613699
4466000000.0 0.49448901445529553 -0.9272706153449328
4469000000.0 0.5005611599145121 -0.8870203000930923
4472000000.0 0.47756538811656246 -0.9261379358982302
4475000000.0 0.4622879127578617 -0.8677265240009469
4478000000.0 0.46368938019797945 -0.9376339607618664
4481000000.0 0.45242556401540335 -0.880398275440758
4484000000.0 0.4414962704012584 -0.9095790979232959
4488000000.0 0.4637479935941856 -0.8864183352378472
4491000000.0 0.4706544895914408 -0.8893765759180722
4494000000.0 0.4792063774814758 -0.8721241463429663
4497000000.0 0.46867941049730705 -0.8764475611993654
4500000000.0 0.48316764886184616 -0.8854669206277258
4503000000.0 0.5011520974459475 -0.9154438520075809
4506000000.0 0.45818097507100447 -0.8710557722067792
4509000000.0 0.4574642692420518 -0.8733337533761032
4512000000.0 0.465443368427092 -0.8801771934973303
4516000000.0 0.48284483364346387 -0.9109027696192947
4519000000.0 0.4695027867105274 -0.8593390667447837
4522000000.0 0.46339198667563614 -0.910694734594516
4525000000.0 0.497453293065719 -0.8665516824270165
4528000000.0 0.4799252081799884 -0.9282272506558618
4531000000.0 0.4705064775559946 -0.8946149080167982
4534000000.0 0.4589790915048394 -0.8836152514950335
4538000000.0 0.456383067187165 -0.8835607294634054
4541000000.0 0.44140374593564796 -0.8967717786052569
4544000000.0 0.45755340234780467 -0.8806595181724488
4547000000.0 0.46501004157912684 -0.8714970183581874
4550000000.0 0.44048966073797435 -0.8996443099629724
4553000000.0 0.44673935502546486 -0.8970816737006908
4556000000.0 0.44727160699764307 -0.8984570049681566
4559000000.0 0.4584330047719028 -0.9035908066406457
4562000000.0 0.48036825384250886 -0.9023248189837503
4566000000.0 0.45820505855535665 -0.8932811206444689
4569000000.0 0.45759459108231443 -0.8806631453221256
4572000000.0 0.4541280106705103 -0.888289494565931
4575000000.0 0.4523745875327785 -0.9307840795432805
4578000000.0 0.4918988675152313 -0.9200124009508457
4581000000.0 0.45043137917392095 -0.9162441131758672
4584000000.0 0.44609273239486136 -0.8847900242502944
4588000000.0 0.48158715121285856 -0.9145737585697188
4591000000.0 0.4750838775747711 -0.8876465880840974
4594000000.0 0.4323034902528352 -0.9199179018101051
4597000000.0 0.44974780569835626 -0.9150375407159022
4600000000.0 0.42959375802512356 -0.8934393216159261
4603000000.0 0.444350750488683 -0.9128600311657225
4606000000.0 0.4535738619250282 -0.9064780194627208
4609000000.0 0.4608380060020243 -0.8990013062633587
4612000000.0 0.4496525814622345 -0.9087600785460771
4616000000.0 0.44355294853834626 -0.8918308920420672
4619000000.0 0.4506042178699581 -0.904820240237822
4622000000.0 0.4427733176003422 -0.9138894994950346
4625000000.0 0.4175543580962623 -0.8844792710769471
4628000000.0 0.4464873211901714 -0.9075398697703533
4631000000.0 0.4324039361084383 -0.9098113607376304
4634000000.0 0.4434816738212395 -0.9013642596632196
4638000000.0 0.45606128609698515 -0.9031417212431532
4641000000.0 0.4589518876466425 -0.9085547794728152
4644000000.0 0.4376641115369874 -0.9024178161557646
4647000000.0 0.4370623170412863 -0.9041053316136537
4650000000.0 0.44998288003324044 -0.9096830815721826
4653000000.0 0.464009518737303 -0.9228978480833505
4656000000.0 0.4235079695710451 -0.9124433736965782
4659000000.0 0.43664192409974667 -0.9059293721196642
4662000000.0 0.4565362165385189 -0.9063956937542872
4666000000.0 0.4250235502828165 -0.921295147511841
4669000000.0 0.4509199919118158 -0.9092813040963803
4672000000.0 0.4471121991088928 -0.9163524698148693
4675000000.0 0.4149107420169591 -0.8976877640719569
4678000000.0 0.437677261794639 -0.8833915285800684
4681000000.0 0.411500376510264 -0.9178772160066271
4684000000.0 0.3970076511392461 -0.9327334312444839
4688000000.0 0.40875995865105974 -0.9250825140763306
4691000000.0 0.43458153930447363 -0.907286870284651
4694000000.0 0.4540749116897429 -0.8976396945296411
4697000000.0 0.39710334674094955 -0.8950427778346661
4700000000.0 0.4310567849755941 -0.9089251516877503
4703000000.0 0.43973922763807144 -0.8579413141617857
4706000000.0 0.43298499284088465 -0.9126665610850961
4709000000.0 0.42021801628265576 -0.9141908753188566
4712000000.0 0.4130437433430224 -0.9311686311333182
4716000000.0 0.40341112888698033 -0.941449317959182
4719000000.0 0.4425478883223518 -0.8988516655203999
4722000000.0 0.4465480211308178 -0.8908191877041403
4725000000.0 0.40948921526928544 -0.9080220033798115
4728000000.0 0.4221768734111388 -0.9259941172547236
4731000000.0 0.4467206900923522 -0.9106809126807797
4734000000.0 0.4224577101905585 -0.8876601611798224
4738000000.0 0.4441265900756 -0.9099441767194932
4741000000.0 0.4447987641860313 -0.947915137280013
4744000000.0 0.4036437017478731 -0.9285637825395125
4747000000.0 0.4365095062948702 -0.8818592924353926
4750000000.0 0.449542896853487 -0.9259724050127467
4753000000.0 0.4467542144437528 -0.909016165818145
4756000000.0 0.43963410590220686 -0.9717414004938988
4759000000.0 0.42509552865350175 -0.9306155326358609
4762000000.0 0.4099297121563122 -0.937967739392025
4766000000.0 0.43537469228641873 -0.922405547404126
4769000000.0 0.4423477653241085 -0.9327129143499973
4772000000.0 0.4330497307859324 -0.9244238558665815
4775000000.0 0.43755767055176964 -0.9572949400729063
4778000000.0 0.4217058535504673 -0.9352614089467428
4781000000.0 0.45964774570347927 -0.9197647512002661
4784000000.0 0.4555138292797086 -0.8846642847102503
4788000000.0 0.42309684702206285 -0.9075839173368044
4791000000.0 0.4268076953225556 -0.9184426136457747
4794000000.0 0.46958853502731746 -0.9362163272467441
4797000000.0 0.4326262914313509 -0.9113529433243175
4800000000.0 0.41542771464767775 -0.9116241943329633
4803000000.0 0.3820766809108721 -0.9419330849876538
4806000000.0 0.43514136428935934 -0.9389972124568029
4809000000.0 0.367536920013557 -0.9393212650686119
4812000000.0 0.39693479258477943 -0.9271022201293829
4816000000.0 0.44648834757428524 -0.9053580238123478
4819000000.0 0.4487938929098201 -0.9356098297439016
4822000000.0 0.4482149688708622 -0.9334154109902295
4825000000.0 0.45364417750647434 -0.9431166975142676
4828000000.0 0.43373637936257436 -0.9169493408376329
4831000000.0 0.39942178023700675 -0.9512578922881443
4834000000.0 0.4260222012231654 -0.930156547124128
4838000000.0 0.4258785761107311 -0.9530912461936251
4841000000.0 0.41432598701466883 -0.8943312124863063
4844000000.0 0.4632967024681863 -0.9285440019786215
4847000000.0 0.4249104752465439 -0.8872015323970951
4850000000.0 0.4306943233948878 -0.95183119923844
4853000000.0 0.4345780527049849 -0.9011887712685994
4856000000.0 0.41409529737688516 -0.9168556111690312
4859000000.0 0.43427880778161426 -0.9747361709449399
4862000000.0 0.44381258638013377 -0.879222459459981
4866000000.0 0.41074305222450674 -0.943222176165566
4869000000.0 0.3998255183210812 -0.9391268968768752
4872000000.0 0.4026604124313902 -0.9593188986244173
4875000000.0 0.4686560542364594 -0.9407321760038012
4878000000.0 0.4358371091448969 -0.9416284804794341
4881000000.0 0.4348288617600004 -0.9868165230871138
4884000000.0 0.4381806001227128 -0.9116425385585534
4888000000.0 0.46536589405614526 -0.9287579921611199
4891000000.0 0.45722132974257224 -0.953517029976279
4894000000.0 0.4135213005658169 -0.9367360226119849
4897000000.0 0.47856052605789035 -0.8929350101357566
4900000000.0 0.42478210123091037 -0.9436130976527998
4903000000.0 0.44284335772301875 -0.9398011662946657
4906000000.0 0.4238829656814405 -0.9570213968637628
4909000000.0 0.4368170368852112 -0.9548563095848639
4912000000.0 0.4164309629682806 -0.9931556902382859
4916000000.0 0.45583002922127586 -0.9398542567583883
4919000000.0 0.47530127173698805 -0.951933188807283
4922000000.0 0.47839925384266896 -0.9531583322310219
4925000000.0 0.4200035400841531 -0.9271740339159247
4928000000.0 0.4728626660379097 -0.8951397248871614
4931000000.0 0.4771485593931816 -0.9611969064217405
4934000000.0 0.4169907040048446 -0.916940074496929
4938000000.0 0.3974150319995754 -0.9320574120945386
4941000000.0 0.4405607298533324 -0.9135989850715048
4944000000.0 0.43143022785716917 -0.8939900675440371
4947000000.0 0.4115259760929672 -0.8925565362491279
4950000000.0 0.4366749161605243 -0.907366537673202
4953000000.0 0.4472749508506728 -0.9839604003774347
4956000000.0 0.4177861438607227 -0.9382399822209232
4959000000.0 0.37776219412713596 -0.8936157445141995
4962000000.0 0.45929200173024864 -0.9646528596289359
4966000000.0 0.4881669096817543 -0.9539057271372922
4969000000.0 0.4436055557469087 -0.9763251039377208
4972000000.0 0.4133469987344892 -0.9336820393484369
4975000000.0 0.4433946030470549 -0.9373924239661202
4978000000.0 0.4209822560577636 -0.9517791184794018
4981000000.0 0.4230073741806758 -0.9572970375509025
4984000000.0 0.4201299927858736 -0.9076331176419157
4988000000.0 0.4561322044383298 -0.9533695042214037
4991000000.0 0.4928356286973766 -0.9300850102182237
4994000000.0 0.4793432792521371 -0.9625616538711137
4997000000.0 0.3969126324761852 -0.9518026480431226
5000000000.0 0.44662547451318224 -0.9358467524981435
5003000000.0 0.4762576791386117 -0.9608157176851362
5006000000.0 0.449652306618 -0.9742922976436543
5009000000.0 0.4547613492015626 -0.9341407800544741
5012000000.0 0.44265115981927083 -0.9517473448365679
5016000000.0 0.5040382691321417 -0.969923658942
5019000000.0 0.4260811831875781 -0.9041759668535725
5022000000.0 0.43837537911435465 -0.9526028942425819
5025000000.0 0.48371705682575017 -1.0088283671733795
5028000000.0 0.4138914818394926 -0.9678589417788355
5031000000.0 0.43086113619081645 -0.9416028682398531
5034000000.0 0.42289882218022135 -0.9703345739283067
5038000000.0 0.4010357910424646 -0.8961323692705959
5041000000.0 0.4945882388575441 -0.9060535658442265
5044000000.0 0.4632284719112153 -0.8859470143218812
5047000000.0 0.4465113606520931 -0.9251077034121584
5050000000.0 0.5034082824535798 -0.8935863472518211
5053000000.0 0.4575261624351451 -0.9870209165786457
5056000000.0 0.5068405296506948 -0.9437355861274025
5059000000.0 0.48268417925913465 -0.9025849306587563
5062000000.0 0.4418665885459067 -0.9533292713220838
5066000000.0 0.48446552403102183 -0.9226365142169646
5069000000.0 0.4751539939306728 -0.9523421182911294
5072000000.0 0.4083868183729529 -0.8922866737927011
5075000000.0 0.46692147761823194 -0.9009247605987594
5078000000.0 0.4315539782947537 -0.9538665975490672
5081000000.0 0.4288402314659686 -0.9381086917408535
5084000000.0 0.5022265898417052 -0.9460348136672231
5088000000.0 0.4890570974035109 -0.9492012604641722
5091000000.0 0.3990565594718818 -0.9569540027203718
5094000000.0 0.42808768211379833 -0.9118123460067316
5097000000.0 0.4656491397197419 -0.8965104279293035
5100000000.0 0.4672898624014101 -0.9303206041724884
5103000000.0 0.41579654279714556 -0.8980717039643011
5106000000.0 0.48750365961779146 -0.9405597226009539
5109000000.0 0.49497932603073036 -0.8921067731864554
5112000000.0 0.45905526876976516 -0.9374710830712432
5116000000.0 0.4670387935916479 -0.9444970251071731
5119000000.0 0.4370420678860651 -0.9349568437560971
5122000000.0 0.4560906673577282 -0.896360733413919
5125000000.0 0.4589773835474561 -0.8930952020928937
5128000000.0 0.4360032540715805 -0.913722217522484
5131000000.0 0.4661210701842736 -0.9062612871829756
5134000000.0 0.4586591010620597 -0.9387857151776512
5138000000.0 0.48748154408390076 -0.9128593836853354
5141000000.0 0.4640422543742987 -0.9198908503798733
5144000000.0 0.48693439661509763 -0.8973406525881498
5147000000.0 0.46458310259415464 -0.958058443873709
5150000000.0 0.5331202844548301 -0.8940406091206485
5153000000.0 0.4326328709772394 -0.9289878939641856
5156000000.0 0.46279282831174307 -0.9551408790184956
5159000000.0 0.4964107080839199 -0.9406417681107166
5162000000.0 0.41812889379711693 -0.9492351999188692
5166000000.0 0.4566944179349176 -0.9243772965206697
5169000000.0 0.4524249044178498 -0.9454161540012405
5172000000.0 0.4637859269268654 -0.9296868720185126
