! Created with skrf 1.8.0 (http://scikit-rf.org).
# Hz S RI R 50.0 
!freq ReS11 ImS11
4000000000.0 0.42576986628825686 -0.9184822856752918
4003000000.0 0.47067267059037576 -0.9414173682897145
4006000000.0 0.3524607260604238 -0.9715584718893482
4009000000.0000005 0.4086212435650607 -0.9367936765285693
4011999999.9999995 0.4620542172682625 -0.9231554178831963
4016000000.0 0.3972351972549067 -0.9346768319121094
4019000000.0 0.43745010678501695 -0.9294768684302592
4022000000.0000005 0.4817520272333425 -0.913213402419
4025000000.0000005 0.39616155932169755 -0.9251994490442024
4027999999.9999995 0.44940608388240655 -0.9269712782116378
4030999999.9999995 0.38677215437190204 -0.8948810276863706
4034000000.0 0.40641166436384346 -0.9640357407168034
4038000000.0000005 0.4251682239904801 -0.9831970217489535
4041000000.0000005 0.4101592770479713 -0.9290435592788706
4043999999.9999995 0.46317347224124283 -1.0100550021117078
4046999999.9999995 0.4469781840894891 -1.003456022367959
4050000000.0 0.4165251300042758 -0.9862521536767204
4053000000.0 0.38292573829912 -0.9399198952664363
4056000000.0 0.4143307141672272 -0.9207870583633581
4059000000.0 0.39308817263855056 -0.926806304606396
4062000000.0000005 0.4134466733153519 -0.9527347782570165
4066000000.0 0.4037327010562557 -0.87828821220589
4069000000.0 0.4347379530652671 -0.959752987559776
4072000000.0 0.4258051991278705 -0.9228078117581665
4075000000.0 0.43822457180714114 -0.9579501205032328
4078000000.0000005 0.4325407575312846 -0.9528218098742257
4081000000.0000005 0.46932560809852675 -0.91940899120422
4083999999.9999995 0.38036827966755726 -0.9794283216698773
4088000000.0 0.4455223547278421 -0.9220808942353916
4091000000.0 0.45397416060481877 -0.9716170615288525
4094000000.0000005 0.393893620631875 -0.9200779120509874
4097000000.0000005 0.42539596905618604 -0.9488598916171206
4099999999.9999995 0.41446483657764843 -0.916632243465704
4102999999.9999995 0.4042118278454232 -0.9379564089257403
4106000000.0 0.37530439379227265 -0.9466972153683783
4109000000.0 0.3905637553811766 -0.9828242338150257
4112000000.0 0.4332225577275587 -0.9328128727995494
4115999999.9999995 0.4252412467001233 -0.9481822252504861
4119000000.0 0.3913117415645413 -0.9757902083552372
4122000000.0 0.3891118209095973 -1.0155343954998333
4125000000.0 0.40560990947375564 -0.9556074823130688
4128000000.0 0.4314665829905604 -0.9318397465214981
4131000000.0 0.41085921299974615 -0.9428180135106361
4134000000.0000005 0.4077834073978011 -0.9806789794548955
4138000000.0 0.37857873231421585 -0.9405654115921399
4141000000.0 0.41937064678504404 -0.9355039655100349
4144000000.0 0.4456062492841276 -0.9518127778801293
4147000000.0000005 0.4009855435690235 -0.9638919213692403
4150000000.0000005 0.3953862260991987 -0.9763905740264673
4152999999.9999995 0.3981382251915331 -0.9271784060403193
4155999999.9999995 0.4504809184112155 -0.9408059284770065
4159000000.0 0.41456206398727946 -0.9288941532507677
4162000000.0 0.4241600527485088 -0.9493170465909085
4166000000.0000005 0.39178961205359214 -0.9716796951850042
4168999999.9999995 0.39391361871966407 -0.9466395731114176
4171999999.9999995 0.4121415369020205 -0.9313423721233642
4175000000.0 0.41858271979767275 -0.9684318462770051
4178000000.0 0.4261735740799473 -0.9602842209727563
4181000000.0 0.4212104927157922 -0.9734328952669914
4184000000.0 0.40113151448087647 -0.9417018365975219
4187999999.9999995 0.3929113386941796 -0.9521308614451599
4191000000.0 0.4237880327662058 -0.9090681745205835
4194000000.0 0.3794153540934089 -0.9327040419024201
4197000000.0 0.4236458689436057 -0.9607045716782117
4200000000.0 0.4189925094989541 -0.937737596840238
4203000000.0000005 0.4218277071723272 -0.9595337888869131
4206000000.0000005 0.40959953415804007 -0.958099064945192
4208999999.9999995 0.38930426449258565 -0.9231194071897915
4211999999.9999995 0.3680916657027306 -0.9779335321304703
4216000000.0 0.42427910925200196 -0.9371331986365987
4219000000.0000005 0.4147458300034894 -0.9338512907189187
4222000000.0000005 0.38877932256318903 -0.9400313718250946
4224999999.9999995 0.38455504206592867 -0.9299565863138648
4227999999.9999995 0.3969669841115515 -0.9503876050453242
4231000000.0 0.3861078856000012 -0.9534344674173226
4234000000.0 0.3847874628860618 -0.9530949753304474
4238000000.0000005 0.38437766080442576 -0.9541795214601234
4240999999.9999995 0.3689410222360198 -0.9357973826483321
4244000000.0 0.38080674773387124 -0.966540141243382
4247000000.0 0.3925336728358347 -0.9163157316643773
4250000000.0 0.3716675271346257 -0.9239727211495593
4253000000.0 0.36550742149584026 -0.9202710671622516
4256000000.0 0.3683292325206101 -0.951719501015749
4259000000.0000005 0.3551639426534668 -0.914293944727396
4261999999.9999995 0.35600056437103067 -0.9471332508266183
4266000000.0 0.36613367852431167 -0.973677048170184
4269000000.0 0.3896339164061018 -0.9390594128678565
4272000000.0000005 0.37894456782781105 -0.9203856242585434
4275000000.0000005 0.365967274660428 -0.9440052502141901
4277999999.9999995 0.38227071135253776 -0.9594175901596992
4280999999.9999995 0.3848413642582081 -0.9436370226128071
4284000000.0 0.3611541059399018 -0.9711233033632385
4288000000.0000005 0.41699545008164635 -0.9401603478771235
4291000000.0000005 0.3545651434662907 -0.9099781629873541
4293999999.9999995 0.36458299642042924 -0.958663792920426
4297000000.0 0.4079374493289888 -0.9323943713889755
4300000000.0 0.3609249370680663 -0.9286011914107065
4303000000.0 0.35816793945675046 -0.9548595853045726
4306000000.0 0.3591560105158693 -0.960616465249106
4309000000.0 0.3812716890999214 -0.9261833659351849
4312000000.0 0.4198294351448518 -0.9473506206202995
4316000000.0 0.3947865936022988 -0.9652734095907376
4319000000.0 0.3480881474934382 -0.9355892527320856
4322000000.0 0.3253203377798294 -0.9373142105280626
4325000000.0 0.3723824585300701 -0.9412897266889808
4328000000.0 0.3888109022385511 -0.9221922792646201
4331000000.0 0.34741080803165547 -0.9706716744168628
4334000000.0 0.34537813206904533 -0.9239787645103722
4338000000.0 0.3849320124078386 -0.9270462184996736
4341000000.0 0.3824701929024453 -0.9463680293964194
4344000000.0 0.4006171453545768 -0.95016292417328
4347000000.0 0.3287278188863909 -0.9570017836519237
4350000000.0 0.33887249407342046 -0.913394393060045
4353000000.0 0.38425291035559594 -0.9189396731336097
4356000000.0 0.3141788384806375 -0.9503273979466293
4359000000.0 0.3329595138069851 -0.914338839916975
4362000000.0 0.3161600255653712 -0.9753459704811978
4366000000.0 0.36558616549820006 -0.9579474715939941
4369000000.0 0.32032043402277327 -0.9292023763543924
4372000000.0 0.32431855252036673 -0.9364169178581733
4375000000.0 0.36996012243749854 -0.960167688994607
4378000000.0 0.33817379233463185 -0.9407994641435873
4381000000.0 0.3477927736791805 -0.936627125454666
4384000000.0 0.35315508437994436 -1.0157887545650617
4388000000.0 0.34711083361781764 -0.9328786418125502
4391000000.0 0.351920700588289 -0.9431493426123261
4394000000.0 0.3339379122532609 -0.9374646326072533
4397000000.0 0.32491910208743124 -0.946373864014844
4400000000.0 0.34017490434199116 -0.9715522567807853
4403000000.0 0.34876836894035823 -0.9544944477081176
4406000000.0 0.3041656274236103 -0.9599214491723207
4409000000.0 0.33795755435885116 -0.9751920539551182
4412000000.0 0.284315544633674 -0.9601136040883832
4416000000.0 0.31399376144779173 -0.9509920971187251
4419000000.0 0.3219978509597738 -0.9547203396502377
4422000000.0 0.34745360366763395 -0.9523119730718592
4425000000.0 0.35406467592586816 -0.9612453194646516
4428000000.0 0.3220184524214305 -0.9624417029349747
4431000000.0 0.3443093956561458 -0.9782585521936927
4434000000.0 0.31424333730748377 -0.939630026815748
4438000000.0 0.33329547156718964 -0.9708581170581623
4441000000.0 0.33037759829097907 -0.9652759618717434
4444000000.0 0.31080390116296136 -0.9298873172637873
4447000000.0 0.314028878789621 -0.9627011600798284
4450000000.0 0.3318300794622757 -0.942161166804234
4453000000.0 0.33407216675663004 -0.9723824952420148
4456000000.0 0.29125435062554256 -0.9493448828891811
4459000000.0 0.29349478912532706 -0.9260205102252247
4462000000.0 0.32757714704287066 -1.0030110321783097
4466000000.0 0.312788119171369 -1.0179621795967198
4469000000.0 0.32619194613083324 -0.9484515207968467
4472000000.0 0.29941587260760255 -0.9705205608007681
4475000000.0 0.30959495310993007 -0.9330219994997928
4478000000.0 0.2912025804092921 -0.991133342210191
4481000000.0 0.28657434655268044 -0.9337909485050524
4484000000.0 0.2779667424366223 -0.9755584253438947
4488000000.0 0.28733549113023243 -0.9669164627937694
4491000000.0 0.2808065082398262 -0.9612296727459926
4494000000.0 0.3063899852929706 -0.9523124154927135
4497000000.0 0.3034476949641622 -0.9605791819189314
4500000000.0 0.31249885473245415 -0.9575508462105313
4503000000.0 0.31270229884232503 -0.9772771427373149
4506000000.0 0.29602979969921916 -0.979237245901988
4509000000.0 0.2880669526435406 -0.9506832923882433
4512000000.0 0.2675862440947998 -0.9495382549269509
4516000000.0 0.3057796359863217 -1.005867514545145
4519000000.0 0.28241731021768496 -0.9497738547709316
4522000000.0 0.2906643577175456 -0.9747728286045747
4525000000.0 0.3149480202198898 -0.9819007664030877
4528000000.0 0.3015598098512994 -0.9809122980000933
4531000000.0 0.3047906117308119 -0.963992874263532
4534000000.0 0.2769207466069713 -0.9612441278491406
4538000000.0 0.27692983894017253 -0.9764670570103005
4541000000.0 0.23851502305753186 -0.9698021174542988
4544000000.0 0.2692784542750255 -0.9704639661694068
4547000000.0 0.30717379657371213 -0.9500847610261901
4550000000.0 0.24842186720896597 -0.9827751366418263
4553000000.0 0.24431891257217841 -0.9777551543629768
4556000000.0 0.25703574843143573 -0.9688235313565292
4559000000.0 0.24298242755656602 -0.9721747405643373
4562000000.0 0.28231542803461374 -0.9846212244401449
4566000000.0 0.26820604623737015 -1.0059410977298202
4569000000.0 0.2543408651724186 -0.9677712698965449
4572000000.0 0.23516609670687044 -0.9722482400412481
4575000000.0 0.2509263317458562 -0.9793817638850233
4578000000.0 0.27878653793425695 -0.9921837306234287
4581000000.0 0.2580736870346664 -0.9847902521976791
4584000000.0 0.2505625810147787 -0.9829854234533394
4588000000.0 0.265253477468955 -0.9939095562139713
4591000000.0 0.25811703894831955 -0.9722751819250478
4594000000.0 0.22986032145672314 -0.9893041562905304
4597000000.0 0.2371016989883945 -0.9898461621439593
4600000000.0 0.24178575837213429 -0.9899771773216659
4603000000.0 0.24056233547869244 -0.9630809701599835
4606000000.0 0.23810482355232737 -1.0136007232274373
4609000000.0 0.24520756278983472 -0.9679773314199618
4612000000.0 0.23729490050771027 -0.9680487378489453
4616000000.0 0.23725393025616556 -0.9741729133181907
4619000000.0 0.23656159558902412 -0.9791753398041574
4622000000.0 0.22567210835814577 -1.0051516019222062
4625000000.0 0.203313668207811 -0.9742463088992985
4628000000.0 0.24731496441515102 -1.009499805267645
4631000000.0 0.22589791030817097 -0.9806866848515627
4634000000.0 0.21546640478223897 -0.997448705212228
4638000000.0 0.23848799621204247 -0.9961052799853725
4641000000.0 0.21681013497202792 -0.9855588569498425
4644000000.0 0.21051807225154318 -0.979028131852176
4647000000.0 0.21847788127450937 -0.9821031588660072
4650000000.0 0.21185831454616985 -0.982067688041904
4653000000.0 0.20675025161084992 -0.9936265160219745
4656000000.0 0.2232434907675187 -1.0190481315069242
4659000000.0 0.20198990296895294 -1.0065872141412522
4662000000.0 0.20368789073378074 -0.9950037552707997
4666000000.0 0.19550616717098296 -0.9889829637781774
4669000000.0 0.21731107041615533 -0.9994615816802273
4672000000.0 0.20129970604584807 -1.0330161376132683
4675000000.0 0.22943411907677225 -1.011751168701721
4678000000.0 0.23062220766184732 -0.9892710287465725
4681000000.0 0.18193613229080563 -1.010782149316637
4684000000.0 0.17673630204807145 -1.0262909345330304
4688000000.0 0.18448935211589382 -0.9977534161699935
4691000000.0 0.2313828642807662 -0.9961070774239545
4694000000.0 0.2090682721723175 -0.9985466760567867
4697000000.0 0.16560009515238666 -0.9615304533359146
4700000000.0 0.18820934019338215 -0.9928071317063323
4703000000.0 0.2253629164235291 -0.941117921608651
4706000000.0 0.15377839712079788 -1.040025292809527
4709000000.0 0.1882703197070742 -0.9741510504557805
4712000000.0 0.1736417505256821 -1.033428070773359
4716000000.0 0.1874574370487322 -1.0282977052519677
4719000000.0 0.2363852569881914 -0.9785974772143154
4722000000.0 0.23100186740192113 -1.0283450499517164
4725000000.0 0.20495359751300674 -1.00439801786919
4728000000.0 0.17723184429063255 -0.9929028219380936
4731000000.0 0.18068279531352302 -1.0407099672137698
4734000000.0 0.2220080398197361 -0.9928454630210353
4738000000.0 0.2436534939669611 -1.0788048691749024
4741000000.0 0.1800317587197825 -1.040404176550869
4744000000.0 0.1694397929259439 -1.0222746094524833
4747000000.0 0.2103798970526281 -0.9807786678879931
4750000000.0 0.1920664241957239 -1.0461506750274412
4753000000.0 0.20933846350133894 -1.0277192871909862
4756000000.0 0.17261461539507658 -1.0415187741000675
4759000000.0 0.19166993280327332 -1.014850360418592
4762000000.0 0.1130840653813037 -1.0473828413955717
4766000000.0 0.19013648882417716 -1.0043563203889605
4769000000.0 0.16226418918083044 -1.0263947607410182
4772000000.0 0.14643772186435977 -1.0251393918491336
4775000000.0 0.17209827936218774 -1.0455896754987135
4778000000.0 0.16318946313910507 -1.0344584684312967
4781000000.0 0.1695936282699697 -0.9827014510484952
4784000000.0 0.16688950185860604 -1.013539443410977
4788000000.0 0.14743059226176947 -1.0350556312864674
4791000000.0 0.1927346256473628 -1.0081532394324006
4794000000.0 0.1849864635631465 -1.0631140241174362
4797000000.0 0.14181238268184032 -0.9902783920850435
4800000000.0 0.148326698316874 -0.9773328130825447
4803000000.0 0.07332067126846942 -1.0358653793814556
4806000000.0 0.13629531950406581 -1.0326007299404245
4809000000.0 0.11130878451743034 -1.045072806763675
4812000000.0 0.09589183612363669 -1.016510171864244
4816000000.0 0.1669610667092095 -0.9966976505400531
4819000000.0 0.1700693848145117 -1.041455642205617
4822000000.0 0.16601155217800673 -1.0610426001746152
4825000000.0 0.164963478358376 -1.0268062650626715
4828000000.0 0.11995173547813512 -0.9928244133740795
4831000000.0 0.11199685101560483 -1.0407432516942121
4834000000.0 0.15544436605245346 -1.0389556098259902
4838000000.0 0.13863238889803228 -1.0672791097642176
4841000000.0 0.11082179085356328 -1.0087070371409448
4844000000.0 0.1692006712430557 -1.0415909463585409
4847000000.0 0.18077210398697496 -1.0045199470864927
4850000000.0 0.115922564447931 -1.0380546714864685
4853000000.0 0.12210671570771725 -1.012616220164365
4856000000.0 0.11659588991322428 -1.0181074204750484
4859000000.0 0.11494575713888205 -1.0972517993180626
4862000000.0 0.1417850473411569 -1.03365700997892
4866000000.0 0.10054715184502483 -1.052342915996041
4869000000.0 0.11534819902319537 -1.0238592246699973
4872000000.0 0.11787667880433778 -1.0605031894773584
4875000000.0 0.19831775522548276 -1.029825938695755
4878000000.0 0.12277251678152395 -1.0443224961325261
4881000000.0 0.09854109281711448 -1.0771282536939184
4884000000.0 0.1253274617945092 -1.0263939201999666
4888000000.0 0.13612402186397277 -1.0217067871842869
4891000000.0 0.1496466908265981 -1.035338805642041
4894000000.0 0.06808925180941372 -1.0411955834798945
4897000000.0 0.15055595660425214 -1.0166481693601888
4900000000.0 0.15513965745141672 -1.0412976258221185
4903000000.0 0.09419990976414488 -1.0400048636916952
4906000000.0 0.11516288051445434 -1.0759851528650888
4909000000.0 0.10158764785589652 -1.0349278221831186
4912000000.0 0.08649969233424948 -1.089303960310163
4916000000.0 0.11359285124877849 -1.0564113140864924
4919000000.0 0.13380879911594623 -1.0537819908734811
4922000000.0 0.13498881580873068 -1.0022415104505065
4925000000.0 0.06502597424510725 -1.0446239876252086
4928000000.0 0.15985731747643517 -1.0009043242928397
4931000000.0 0.09044869694002 -1.0530743383541579
4934000000.0 0.11732940903461342 -1.014686796124821
4938000000.0 0.05804593518923912 -1.0297414644375795
4941000000.0 0.13769206918630306 -1.0360478496005863
4944000000.0 0.09033366632164497 -0.9585596355785756
4947000000.0 0.0961860289937912 -1.00106492559916
4950000000.0 0.09575952253118813 -1.0230101751350427
4953000000.0 0.03827947059330633 -1.0442922476114738
4956000000.0 0.07023643090274478 -1.0674385676965268
4959000000.0 0.05666079881926095 -0.9993795675269173
4962000000.0 0.0887515922301661 -1.0631454337482147
4966000000.0 0.11934869269855591 -1.0566436822051417
4969000000.0 0.09157145091370839 -1.0618522978340517
4972000000.0 0.06885772304730908 -1.0264612863230624
4975000000.0 0.11435923315232016 -1.0201162189254078
4978000000.0 0.057160205794102914 -1.0466760808374727
4981000000.0 0.05714653767475991 -1.0294929805475348
4984000000.0 0.0664720815329673 -1.0143459804361064
4988000000.0 0.09296462900558927 -1.0334957293236648
4991000000.0 0.12242681711709613 -1.0465825045791968
4994000000.0 0.06759858041982453 -1.0300155374080633
4997000000.0 0.018785679394870636 -1.0453014960165865
5000000000.0 0.07564560457800157 -1.0587515298943024
5003000000.0 0.09286667432927892 -1.0830704254912917
5006000000.0 0.06846999715526059 -1.088963606150501
5009000000.0 0.01678093412750392 -1.0263263293849647
5012000000.0 0.03794741635843302 -1.063194328521054
5016000000.0 0.08523123270892702 -1.0482939726703886
5019000000.0 0.01850894984418605 -1.050932207279184
5022000000.0 0.06341472642681656 -1.0625282137763987
5025000000.0 0.03768398613563806 -1.0805351441800102
5028000000.0 0.04101840220094377 -1.0463919295538986
5031000000.0 0.035038007145399785 -1.0299387413944772
5034000000.0 0.022528460885610002 -1.0796833535287773
5038000000.0 0.013237391040761826 -1.0042593675983034
5041000000.0 0.08052404682098957 -1.0380919981431729
5044000000.0 0.04665217654366477 -1.0267837841449872
5047000000.0 0.018937713353001318 -1.0325998514286099
5050000000.0 0.06526956064747663 -1.023733254513939
5053000000.0 -0.0027553819140199165 -1.070012747448753
5056000000.0 0.07870004110351536 -1.0594571891063582
5059000000.0 0.04522454348272653 -1.0113814383815924
5062000000.0 -0.018019435413163976 -1.0233183793426939
5066000000.0 0.02191652364378638 -1.0696629296778901
5069000000.0 0.009537759564864912 -1.0666304876571249
5072000000.0 0.047701742273383696 -1.0630587710509636
5075000000.0 0.0007015377287101221 -1.0388042426046198
5078000000.0 -0.01236420837851998 -1.064101367909885
5081000000.0 -0.03402055367690077 -1.0197841879196425
5084000000.0 0.003922481821737767 -1.0259122434136472
5088000000.0 -0.004736372980689296 -1.1011067652977453
5091000000.0 -0.033857566302020636 -1.0723873359441418
5094000000.0 -0.05245381660046422 -1.0339967411990203
5097000000.0 -0.018109905049468522 -0.9847629752341818
5100000000.0 0.003364980224894565 -1.037056043597204
5103000000.0 -0.09482868775197179 -1.0594940251732967
5106000000.0 -0.023043008517681707 -1.0486050037540722
5109000000.0 -0.004429612393527682 -1.0194001776872739
5112000000.0 -0.05194327768507617 -1.0178675233110515
5116000000.0 -0.031079638929992215 -0.9824667406797855
5119000000.0 -0.0905783418339311 -1.0481864221244814
5122000000.0 -0.02238595583155195 -1.038606488696463
5125000000.0 0.005663776183491398 -1.0036683724972981
5128000000.0 -0.02497027649116418 -1.0384176816386652
5131000000.0 -0.04219318881368955 -1.051739339283913
5134000000.0 -0.02347479366012739 -1.0621906478120122
5138000000.0 -0.009981977779641993 -1.0777946573937092
5141000000.0 -0.021120658774653578 -1.069168396942238
5144000000.0 -0.028902874484248164 -0.9733352556061862
5147000000.0 -0.05249188830274826 -1.0261475771037871
5150000000.0 -0.07081362393423313 -1.0873445133535746
5153000000.0 -0.08261081653906333 -1.1017829399288037
5156000000.0 0.004129115673303929 -1.0469154505312699
5159000000.0 -0.058555789621444754 -1.097270892756647
5162000000.0 -0.09535177080961371 -1.0878977055391572
