! Created with skrf 1.8.0 (http://scikit-rf.org).
# Hz S RI R 50.0 
!freq ReS11 ImS11
4000000000.0 0.5483035955920726 -0.8453095769959447
4003000000.0 0.5888714858114131 -0.9301816613633129
4006000000.0 0.5086237483151039 -0.8876955911324015
4009000000.0000005 0.5706128627351181 -0.8974168791091264
4011999999.9999995 0.5660745838625104 -0.9152569601197404
4016000000.0 0.5165389609415986 -0.9226594036886719
4019000000.0 0.5658402898894366 -0.9179519066626334
4022000000.0000005 0.6031950539264312 -0.8592877079191173
4025000000.0000005 0.488394820989138 -0.9369719961762306
4027999999.9999995 0.5338271824282022 -0.8764611912637013
4030999999.9999995 0.5167616003741613 -0.7929756754965883
4034000000.0 0.5120780818964883 -0.8828410484336703
4038000000.0000005 0.5486459736639314 -0.8812388309176027
4041000000.0000005 0.5034120722655939 -0.8782861914894642
4043999999.9999995 0.6140180993560246 -0.9430565076931021
4046999999.9999995 0.5989742370403712 -0.8828991437738752
4050000000.0 0.5380524806837037 -0.8850876593088871
4053000000.0 0.5098141017202671 -0.8741234996210476
4056000000.0 0.5537230576744113 -0.8680467799896907
4059000000.0 0.5280362504081693 -0.8497686381570587
4062000000.0000005 0.5529408945089583 -0.9065738149172227
4066000000.0 0.48419989895230625 -0.8062520424486905
4069000000.0 0.5278639625134112 -0.9506991463404822
4072000000.0 0.5641588130623996 -0.8595416675180394
4075000000.0 0.6162434424127902 -0.8740066005435957
4078000000.0000005 0.5823570777611753 -0.8793958328383944
4081000000.0000005 0.6544497721906047 -0.8632786394588929
4083999999.9999995 0.554048941501979 -0.8532440793242667
4088000000.0 0.546888785090329 -0.8595886563704404
4091000000.0 0.5361359464317359 -0.9105838893413352
4094000000.0000005 0.548677045974165 -0.8805792892795014
4097000000.0000005 0.5372304458321602 -0.8688404196913659
4099999999.9999995 0.5414010307271797 -0.8625074045781286
4102999999.9999995 0.5701000643802258 -0.9045720669506083
4106000000.0 0.5293436860215118 -0.8834844507089389
4109000000.0 0.5478789777536798 -0.8840720419384382
4112000000.0 0.5293576300138214 -0.882524258219293
4115999999.9999995 0.5445846283406411 -0.8470204212931062
4119000000.0 0.5092058400038383 -0.9091948785235308
4122000000.0 0.531136803606069 -0.8787769224026788
4125000000.0 0.5766331746235185 -0.9366817353547597
4128000000.0 0.5507660462723222 -0.8412964616260693
4131000000.0 0.5150391468683185 -0.8943306514090547
4134000000.0000005 0.5444723205155401 -0.8419316121969167
4138000000.0 0.5018032037480576 -0.8653377946565235
4141000000.0 0.5267769882942657 -0.8517452504540816
4144000000.0 0.5478545743199738 -0.8812803239144319
4147000000.0000005 0.5183575045935733 -0.8582065430915522
4150000000.0000005 0.5833733852807126 -0.8897648280122791
4152999999.9999995 0.5407882767463574 -0.8895404691703911
4155999999.9999995 0.5628036124261906 -0.8732101560046245
4159000000.0 0.5546198150194271 -0.8878016696240022
4162000000.0 0.5161213542587717 -0.8586568589401238
4166000000.0000005 0.5273347901492886 -0.8668644429781827
4168999999.9999995 0.5344211230172273 -0.8579671061955068
4171999999.9999995 0.5543783428840845 -0.844914375602424
4175000000.0 0.5767342709158667 -0.8692732112067592
4178000000.0 0.5568550017856129 -0.873671873454801
4181000000.0 0.5298618365038286 -0.8745798433192482
4184000000.0 0.5678630915610423 -0.8872098664192982
4187999999.9999995 0.5711737049226209 -0.8454301280055143
4191000000.0 0.5798617751796415 -0.8424999864144731
4194000000.0 0.5533688298914643 -0.8788301638250429
4197000000.0 0.5485490627698562 -0.870215718773895
4200000000.0 0.5658521257041375 -0.842789691755723
4203000000.0000005 0.5841303439073938 -0.8560126257961193
4206000000.0000005 0.5634639128187838 -0.8819302647576026
4208999999.9999995 0.5595606140029936 -0.8466150018469689
4211999999.9999995 0.5304324972641641 -0.8761064116560371
4216000000.0 0.5733708347886446 -0.852057070560395
4219000000.0000005 0.5723967663276592 -0.8811615538148564
4222000000.0000005 0.5444763396316967 -0.8663281689156868
4224999999.9999995 0.5602325643493533 -0.851707032635891
4227999999.9999995 0.5528349397545198 -0.8692201541641628
4231000000.0 0.5464416415483777 -0.8696602328008467
4234000000.0 0.5696180380756537 -0.8616483383112697
4238000000.0000005 0.5329891840920007 -0.8836473842444554
4240999999.9999995 0.5418532675310025 -0.8725693055575339
4244000000.0 0.5511039836528201 -0.84055068884329
4247000000.0 0.5630887474495319 -0.8595183688486052
4250000000.0 0.5513227464914818 -0.837640349596083
4253000000.0 0.5457888080198724 -0.848727355901328
4256000000.0 0.5525334747793993 -0.8799370350585163
4259000000.0000005 0.513335346755765 -0.8409979432458365
4261999999.9999995 0.5218581634467518 -0.8685956366358691
4266000000.0 0.5431695100020113 -0.8859809412455986
4269000000.0 0.540406506606165 -0.865789740822378
4272000000.0000005 0.5504394967087942 -0.8535568528718276
4275000000.0000005 0.5683590116363961 -0.864369338640394
4277999999.9999995 0.5623365588693873 -0.8820092755135374
4280999999.9999995 0.5672892825758041 -0.8504639724159195
4284000000.0 0.5369271721403042 -0.8870903191633994
4288000000.0000005 0.5694880369448303 -0.8362421877656036
4291000000.0000005 0.5543474629326846 -0.815416427133406
4293999999.9999995 0.54169413204362 -0.8474625208373562
4297000000.0 0.5500201170125953 -0.8297217978410454
4300000000.0 0.5511734695219859 -0.8392742496285958
4303000000.0 0.5371852239307291 -0.8642732237488916
4306000000.0 0.545996043155319 -0.8586063743085642
4309000000.0 0.5546338799098445 -0.8567155104601243
4312000000.0 0.5671530882351115 -0.83357615833234
4316000000.0 0.5596599529379018 -0.8622455365143437
4319000000.0 0.5526955798490037 -0.8188265260901545
4322000000.0 0.48730317149093855 -0.8426543291684436
4325000000.0 0.5482711996363426 -0.8371737705011795
4328000000.0 0.541311164608512 -0.8340049808241694
4331000000.0 0.525320871835944 -0.8817051720872745
4334000000.0 0.5364091649001465 -0.8828292850493091
4338000000.0 0.5687838257009763 -0.8280533186274961
4341000000.0 0.5747598838425123 -0.8720229470059019
4344000000.0 0.5769652161711428 -0.8668741770789791
4347000000.0 0.5387495010671886 -0.8867019353495008
4350000000.0 0.5156012693562151 -0.8233476611409754
4353000000.0 0.5545032089788924 -0.8332029477562243
4356000000.0 0.5313837089576768 -0.868255505007841
4359000000.0 0.5516661327780521 -0.8149779959397819
4362000000.0 0.5190761842797327 -0.8963245542019236
4366000000.0 0.5403292031685608 -0.8835439999048345
4369000000.0 0.5205493125565873 -0.8178929637708976
4372000000.0 0.5059326139433683 -0.8642071945626664
4375000000.0 0.5540030316690501 -0.8480068968710441
4378000000.0 0.5308332669054446 -0.8342925029789461
4381000000.0 0.5271563577188921 -0.8270302145064583
4384000000.0 0.5576370653494619 -0.9022217756513068
4388000000.0 0.5509283751525264 -0.8295308573246367
4391000000.0 0.542241714334986 -0.861822992498083
4394000000.0 0.5376531890128073 -0.83443514936195
4397000000.0 0.5267547669543982 -0.8638399889206919
4400000000.0 0.5532635694723879 -0.8675011532046679
4403000000.0 0.5461097306176592 -0.8696114377431545
4406000000.0 0.517993193665585 -0.8733441229561572
4409000000.0 0.5497965221604929 -0.9042019078570881
4412000000.0 0.48471245697645915 -0.8958101077958058
4416000000.0 0.5225075464766054 -0.8540723909275649
4419000000.0 0.5177888799007937 -0.8701487811740488
4422000000.0 0.5454718332064122 -0.8418768576987383
4425000000.0 0.5697769695816024 -0.8461150039864976
4428000000.0 0.5287925494725946 -0.8619936605731972
4431000000.0 0.5547276672904433 -0.8824279167472066
4434000000.0 0.5258371185461047 -0.8660171514109452
4438000000.0 0.5607017653569045 -0.8813323166813212
4441000000.0 0.5433561023582548 -0.8701922563790825
4444000000.0 0.5262652378067332 -0.8420430944767138
4447000000.0 0.516479261362182 -0.8581244987383048
4450000000.0 0.5281643206189884 -0.8397353021329168
4453000000.0 0.549145956122353 -0.8881749128976866
4456000000.0 0.5179390768818375 -0.8417145543351964
4459000000.0 0.5018468221102812 -0.8253466036571291
4462000000.0 0.5593441179455113 -0.9149790740611152
4466000000.0 0.5384779833211643 -0.8930120774901038
4469000000.0 0.5629252992644792 -0.853297497398163
4472000000.0 0.5322902961137563 -0.8970432430936974
4475000000.0 0.5085933771039193 -0.8549015870066746
4478000000.0 0.5296697523847467 -0.8976185790349893
4481000000.0 0.49480187104630746 -0.8705154405756038
4484000000.0 0.48005142585902627 -0.8826034729783502
4488000000.0 0.4987098388137007 -0.8675538253489874
4491000000.0 0.5217207733021432 -0.8839437942700117
4494000000.0 0.5301260392498983 -0.8755554469511646
4497000000.0 0.5326597877449356 -0.8503145786173092
4500000000.0 0.536757396665226 -0.864712088690684
4503000000.0 0.5387899226405913 -0.886445351681088
4506000000.0 0.5127008318672475 -0.8562113076427237
4509000000.0 0.512195997389124 -0.8461834708306688
4512000000.0 0.4912601859427309 -0.8526837172705706
4516000000.0 0.5347940281797388 -0.8744066825806689
4519000000.0 0.5174003049166299 -0.8388728638742555
4522000000.0 0.5175650376980575 -0.8804740371320089
4525000000.0 0.5402326969894669 -0.8427025284899803
4528000000.0 0.5424026368976897 -0.892547135786241
4531000000.0 0.5244613177213163 -0.8530374317730125
4534000000.0 0.5072821461691214 -0.8641467953736186
4538000000.0 0.5233806828157695 -0.8611952916437455
4541000000.0 0.4940624739845455 -0.87360011934472
4544000000.0 0.527778898709997 -0.8407854205048721
4547000000.0 0.5272527533582478 -0.8710419919882664
4550000000.0 0.5199143494127625 -0.8813431679302807
4553000000.0 0.5312547244430448 -0.8797927305487507
4556000000.0 0.49804683521368187 -0.8721597991207961
4559000000.0 0.5091325383311178 -0.8747838279043135
4562000000.0 0.5245738365217729 -0.8647298699614469
4566000000.0 0.5016982918420574 -0.8730956406566758
4569000000.0 0.5208934815816315 -0.8588548064192401
4572000000.0 0.5167884538626754 -0.8642280781546843
4575000000.0 0.49300753777105677 -0.9057389366028518
4578000000.0 0.5505520082314785 -0.8908144440726234
4581000000.0 0.5027410609238074 -0.8725557281704244
4584000000.0 0.500957122979286 -0.8752898924135564
4588000000.0 0.5419064408004154 -0.8858470185035181
4591000000.0 0.5393654939556412 -0.8720647065688709
4594000000.0 0.49640573939570953 -0.8848216518649358
4597000000.0 0.504776479864947 -0.8948341250589988
4600000000.0 0.477275678723045 -0.8857701342862973
4603000000.0 0.5116499938428494 -0.8704426287003825
4606000000.0 0.5166546823083846 -0.8685524292913536
4609000000.0 0.5137271703498381 -0.8772443542719587
4612000000.0 0.5049712742890076 -0.885385496034667
4616000000.0 0.49903649595969035 -0.8651977307348411
4619000000.0 0.5176699869673014 -0.8722631285223414
4622000000.0 0.5197468131353276 -0.8660590213070695
4625000000.0 0.48730788575231043 -0.8528573618065578
4628000000.0 0.5164992297402933 -0.8636710356278477
4631000000.0 0.4996638662717799 -0.8884349078756839
4634000000.0 0.5012376973275338 -0.8655636428156506
4638000000.0 0.522152760622459 -0.8882634164443044
4641000000.0 0.49290334001951186 -0.8906974962455243
4644000000.0 0.4940483728450724 -0.8801753257037574
4647000000.0 0.508057553475973 -0.8905386603000945
4650000000.0 0.5012023567569437 -0.8651219372630312
4653000000.0 0.5184210881930016 -0.8716111236393946
4656000000.0 0.49453024500057297 -0.8746275389815594
4659000000.0 0.4984012963439732 -0.8869344116890632
4662000000.0 0.5142628659068824 -0.900484364108928
4666000000.0 0.5053145638840731 -0.8857419047923296
4669000000.0 0.5043317480490056 -0.873682390964247
4672000000.0 0.4808819129476895 -0.9101360410415229
4675000000.0 0.46674181004185694 -0.9086461373041708
4678000000.0 0.48073462148337537 -0.8577673253956706
4681000000.0 0.47417238364308173 -0.9064711743437887
4684000000.0 0.48518522232906336 -0.9008500345443149
4688000000.0 0.47998549238241367 -0.8904108165472265
4691000000.0 0.5202784873718006 -0.8695580762601305
4694000000.0 0.4877399214924228 -0.8587815426358651
4697000000.0 0.4699905016226569 -0.8760747822744221
4700000000.0 0.4911065021212791 -0.8753928992557057
4703000000.0 0.5178464057824648 -0.8455854230522437
4706000000.0 0.4846625678625531 -0.8873782280145658
4709000000.0 0.4557643575184921 -0.8723782290024246
4712000000.0 0.5031558078530338 -0.8588870552215737
4716000000.0 0.5000567507392114 -0.8998500134962795
4719000000.0 0.5513082746837901 -0.8892811477893705
4722000000.0 0.5206180708236342 -0.8659382860783563
4725000000.0 0.5030347080890225 -0.885503456649057
4728000000.0 0.49733090329350893 -0.8865682779289666
4731000000.0 0.5169534897217948 -0.918458816070631
4734000000.0 0.5248423128831171 -0.8747419804799691
4738000000.0 0.5436702189032252 -0.8995240055495036
4741000000.0 0.5085371686200243 -0.8929887345920389
4744000000.0 0.492203353935992 -0.8873480162049658
4747000000.0 0.5251694598014015 -0.8869562851263522
4750000000.0 0.5287924591551072 -0.8878600686242746
4753000000.0 0.49987518831578726 -0.8943478466004658
4756000000.0 0.49981796223484876 -0.8613838504316337
4759000000.0 0.5362213805469309 -0.9011380086108577
4762000000.0 0.4563970484836878 -0.9020719874254165
4766000000.0 0.50513144332347 -0.9128549981907387
4769000000.0 0.4916928243344889 -0.8938846141881198
4772000000.0 0.48695554755652826 -0.8932188980071961
4775000000.0 0.4972670025738672 -0.9317400874988827
4778000000.0 0.5018922243398268 -0.9078903700568586
4781000000.0 0.5086205541345353 -0.8916795609773976
4784000000.0 0.5007381628782318 -0.8971737673845092
4788000000.0 0.49368283667395374 -0.9202222863354514
4791000000.0 0.48855291564701364 -0.8976375591358052
4794000000.0 0.5355478046430694 -0.9143568862069453
4797000000.0 0.4745690424798473 -0.8770035234341975
4800000000.0 0.49697720309226723 -0.8981902173557511
4803000000.0 0.4519289089416322 -0.9069462223138449
4806000000.0 0.48565395637872 -0.9189170383440746
4809000000.0 0.47204770850379263 -0.9000892395959356
4812000000.0 0.4522665133097354 -0.9050227055929606
4816000000.0 0.5310948223669855 -0.8704270845417607
4819000000.0 0.5417647392661513 -0.9064063435274617
4822000000.0 0.5112833035105533 -0.917108671351535
4825000000.0 0.5205041313258899 -0.9043680798413143
4828000000.0 0.4992260986832513 -0.8965670749546842
4831000000.0 0.4814428915026636 -0.9240737631087153
4834000000.0 0.5135754747377745 -0.888557613321168
4838000000.0 0.4940036307534745 -0.9122401700892578
4841000000.0 0.47667915428715274 -0.8802754486409408
4844000000.0 0.5167797848627469 -0.8838663062539849
4847000000.0 0.5043592875452013 -0.8877172095265656
4850000000.0 0.4932691709006031 -0.9145328559563627
4853000000.0 0.47777850427991153 -0.8638822879737014
4856000000.0 0.4782929653584209 -0.8922186118365328
4859000000.0 0.49734053166226583 -0.9357063195445819
4862000000.0 0.5173469609514487 -0.8853606049680667
4866000000.0 0.46935247633164157 -0.9147025569253695
4869000000.0 0.5038017588823571 -0.891047003425467
4872000000.0 0.47606306652407343 -0.9453285854494591
4875000000.0 0.5851988375891735 -0.9413025604793361
4878000000.0 0.5112280575481554 -0.9101313176294245
4881000000.0 0.48951242980718257 -0.9803267869469257
4884000000.0 0.503124872931205 -0.8971786573150736
4888000000.0 0.5345369685011693 -0.9001169391191215
4891000000.0 0.5461509936505746 -0.8751254011900067
4894000000.0 0.4905849319507506 -0.8878709156202453
4897000000.0 0.5457470690212802 -0.8950885720278001
4900000000.0 0.512575668980542 -0.9211159254036743
4903000000.0 0.5272676171478266 -0.9188593607393862
4906000000.0 0.519205509356608 -0.9217426776426996
4909000000.0 0.5254992652226429 -0.9224294697124004
4912000000.0 0.4830614516525848 -0.9336056473495508
4916000000.0 0.5634905582159466 -0.9184819077461928
4919000000.0 0.5543149906360504 -0.9296061388925011
4922000000.0 0.5379178678188085 -0.9065689582692406
4925000000.0 0.4950215387172795 -0.9017231965065982
4928000000.0 0.5797261629792767 -0.8639377313721124
4931000000.0 0.5377667998659412 -0.9058745118333605
4934000000.0 0.4884418839034148 -0.854206588560233
4938000000.0 0.48946468866843973 -0.8891213706097801
4941000000.0 0.494666438521923 -0.8479159111168137
4944000000.0 0.4942749596984368 -0.8121193957723105
4947000000.0 0.4888146272183266 -0.8840101385432388
4950000000.0 0.49971210860935544 -0.8846697672591153
4953000000.0 0.4740256052707813 -0.9085440664564626
4956000000.0 0.4975380593436396 -0.9315032523375883
4959000000.0 0.4530735824815071 -0.8828113870741717
4962000000.0 0.5218880131039119 -0.9119376139364154
4966000000.0 0.5454020808792431 -0.9212367963962087
4969000000.0 0.5590770603928344 -0.9268117299159613
4972000000.0 0.510970916689311 -0.9199087357723387
4975000000.0 0.5371798458788798 -0.8914312253601436
4978000000.0 0.4987177799235203 -0.9078273928361383
4981000000.0 0.5101037483131068 -0.9139352592991915
4984000000.0 0.48739954450082296 -0.860163580351677
4988000000.0 0.5258931912809423 -0.8920111363530687
4991000000.0 0.5640416840056424 -0.9037722743552361
4994000000.0 0.523587369545055 -0.9046476227503065
4997000000.0 0.48166611785268365 -0.9162328566606528
5000000000.0 0.5277438383397213 -0.9172350226042314
5003000000.0 0.5544955679209415 -0.9370864496799384
5006000000.0 0.5278665831494213 -0.9573382911229602
5009000000.0 0.5298467523830868 -0.9161926317204081
5012000000.0 0.5100929377357954 -0.9133805508417647
5016000000.0 0.5564609373641166 -0.9207267925958517
5019000000.0 0.5160138123595437 -0.899233617324973
5022000000.0 0.5215698712488971 -0.8969280315371114
5025000000.0 0.5663614605133749 -0.9593605048186846
5028000000.0 0.5204562046961451 -0.9389464357061352
5031000000.0 0.4948196059366258 -0.9261475093954674
5034000000.0 0.5219237175834339 -0.9414307210175029
5038000000.0 0.5159401595017447 -0.9018912086033188
5041000000.0 0.5706737887397139 -0.8569926002154007
5044000000.0 0.5094284869228877 -0.8742516938466962
5047000000.0 0.5666693432332671 -0.9239213547735485
5050000000.0 0.5779011250513673 -0.8290489096653668
5053000000.0 0.5225236422225448 -0.936371839447342
5056000000.0 0.5605078955004911 -0.8642892639455033
5059000000.0 0.5815162542079788 -0.8738004105901154
5062000000.0 0.5027401160765017 -0.9468223192187808
5066000000.0 0.5501407799014497 -0.874892910768875
5069000000.0 0.5490162895059038 -0.9118534744714848
5072000000.0 0.5316220915527594 -0.8745124698822927
5075000000.0 0.553144116945216 -0.9144285251571891
5078000000.0 0.49485675931789364 -0.9062341931152262
5081000000.0 0.48686789225611615 -0.8705844599382757
5084000000.0 0.4963290887677893 -0.9517395913515077
5088000000.0 0.5595800839718121 -0.8850903237008381
5091000000.0 0.520920068292251 -0.895693884053739
5094000000.0 0.5274460634796501 -0.9134788819987774
5097000000.0 0.5562120660313715 -0.88351324176523
5100000000.0 0.5427515653690704 -0.8736633868900721
5103000000.0 0.5037724426732733 -0.9290421886199525
5106000000.0 0.5685743836598114 -0.9377483912337731
5109000000.0 0.5309976168652066 -0.8763322287042126
5112000000.0 0.5433110264735119 -0.8996647493159742
5116000000.0 0.5122332163277148 -0.8554722313315448
5119000000.0 0.5254908253734321 -0.9346697384439557
5122000000.0 0.5423409413970537 -0.8588373807341655
5125000000.0 0.562668038202595 -0.8427406906263352
5128000000.0 0.5796384908226794 -0.9301518377522793
5131000000.0 0.5331414219579721 -0.9011676567097092
5134000000.0 0.5512830514511544 -0.9237686210853768
5138000000.0 0.524414319956968 -0.8994682796345803
5141000000.0 0.6260249248178221 -0.8708209583929825
5144000000.0 0.5948125581894856 -0.8659610850859416
5147000000.0 0.5495136027853627 -0.917108574163036
5150000000.0 0.5743920906739671 -0.9093442383165296
5153000000.0 0.5529260235416524 -0.9371552010682473
5156000000.0 0.5557303494467876 -0.8674967865789458
5159000000.0 0.5772753258527359 -0.9221322482769143
5162000000.0 0.5469401150953574 -0.9011447368895218
5166000000.0 0.5354549845732443 -0.8816201851219654
5169000000.0 0.5666074490466483 -0.881797150159108
5172000000.0 0.5277717037551375 -0.8997885672388966
5175000000.0 0.5527116547930502 -0.9195801217548807
5178000000.0 0.5639808377521145 -0.8863429820392373
