! Created with skrf 1.8.0 (http://scikit-rf.org).
# Hz S RI R 50.0 
!freq ReS11 ImS11
4000000000.0 0.5370135970023961 -0.8416173245739771
4003000000.0 0.6155279737427859 -0.9154888952163535
4006000000.0 0.5030674994757593 -0.8420877094307639
4009000000.0000005 0.5479304211218152 -0.8796526826532655
4011999999.9999995 0.5897050809775424 -0.8292372148617104
4016000000.0 0.5371920572757538 -0.8515395704715761
4019000000.0 0.5263475558966138 -0.8507647667045586
4022000000.0000005 0.6305765800943232 -0.8060253740496506
4025000000.0000005 0.4774530307665641 -0.8869305853144414
4027999999.9999995 0.5303964210185668 -0.8760989715412881
4030999999.9999995 0.5142581327499381 -0.8449647505491652
4034000000.0 0.4977572294513125 -0.8886039908887963
4038000000.0000005 0.5688565785028452 -0.8790328786109209
4041000000.0000005 0.5598502544074839 -0.8388867789121505
4043999999.9999995 0.5875090901616579 -0.896658997772951
4046999999.9999995 0.6106339625274357 -0.8922301228366797
4050000000.0 0.5620713955046017 -0.9001032029540224
4053000000.0 0.515484904210191 -0.8293510760427498
4056000000.0 0.5560500714059937 -0.8841923309233917
4059000000.0 0.5395525466346225 -0.8618413927058016
4062000000.0000005 0.5243273603545648 -0.9000061899524757
4066000000.0 0.5014298146886781 -0.8302296747335489
4069000000.0 0.5585702779356303 -0.9078491245650034
4072000000.0 0.5832274547863002 -0.8390873331534198
4075000000.0 0.5974839769973185 -0.8746525768646157
4078000000.0000005 0.5455710512809223 -0.9000505747864646
4081000000.0000005 0.6063371780182601 -0.8381837215127336
4083999999.9999995 0.5201072261305099 -0.9025833574364275
4088000000.0 0.5604944436836427 -0.8144063208303006
4091000000.0 0.6199908797191069 -0.9130157896665254
4094000000.0000005 0.5685954876421333 -0.848690189391169
4097000000.0000005 0.5281919020890231 -0.8984670140863882
4099999999.9999995 0.5552929023151163 -0.8423221863667908
4102999999.9999995 0.60332198656841 -0.8581121601118528
4106000000.0 0.5406038243151339 -0.8383506185874978
4109000000.0 0.5339502190309031 -0.8842723396295226
4112000000.0 0.5858072452604489 -0.8643929153895699
4115999999.9999995 0.5274672303598995 -0.826673747397505
4119000000.0 0.5476374757947975 -0.8842183697922933
4122000000.0 0.5482913077609664 -0.9306552018722721
4125000000.0 0.5175082854956771 -0.8963504242207606
4128000000.0 0.5286023961425537 -0.8173557763751127
4131000000.0 0.5399061182782766 -0.8625371765172837
4134000000.0000005 0.5908259131243875 -0.8462302085788066
4138000000.0 0.49341297571326576 -0.8333557537496002
4141000000.0 0.5843728027445783 -0.8813839711222544
4144000000.0 0.5222227175480179 -0.8862111332952637
4147000000.0000005 0.540048267412079 -0.8795314291839327
4150000000.0000005 0.5560337896175276 -0.874198947072242
4152999999.9999995 0.5499449904460277 -0.8367330092332422
4155999999.9999995 0.5313876054037991 -0.8604244378404974
4159000000.0 0.5533369130549548 -0.8105478417451262
4162000000.0 0.5422661987629506 -0.846615180936875
4166000000.0000005 0.5756651486833135 -0.8545882082262686
4168999999.9999995 0.529763642325098 -0.867683695394661
4171999999.9999995 0.5892727221018956 -0.8421660702603936
4175000000.0 0.5923968937943893 -0.8554284745427341
4178000000.0 0.5509137395027767 -0.858064593653919
4181000000.0 0.5261002256717153 -0.8873543613373165
4184000000.0 0.5574452415106361 -0.8544871925307795
4187999999.9999995 0.5613910448070912 -0.8576657223482997
4191000000.0 0.5689421997683797 -0.8339967388255646
4194000000.0 0.5406056887101769 -0.8354307106312827
4197000000.0 0.5530027689273408 -0.8667988713894934
4200000000.0 0.5574239491232048 -0.8492370152053004
4203000000.0000005 0.5457679139609715 -0.8444235375674751
4206000000.0000005 0.5616800553348398 -0.8856564864955748
4208999999.9999995 0.5570225092423189 -0.8353932519629625
4211999999.9999995 0.5363398405768292 -0.8623184000849716
4216000000.0 0.5769174965960123 -0.8483548264420164
4219000000.0000005 0.5621480137213912 -0.8457851420138816
4222000000.0000005 0.5545095399015154 -0.8578993703634268
4224999999.9999995 0.5545514527799761 -0.8493314443728454
4227999999.9999995 0.5630159822175731 -0.8671351043780736
4231000000.0 0.5443270384114347 -0.8623789072654497
4234000000.0 0.5468419621335682 -0.8599858071245933
4238000000.0000005 0.5508435595001 -0.8665361414614279
4240999999.9999995 0.5394642240810127 -0.8419559368511467
4244000000.0 0.5623871797288253 -0.8423925833543839
4247000000.0 0.567261109325347 -0.853396557935132
4250000000.0 0.5523485410304985 -0.8291117236721752
4253000000.0 0.5479251506614087 -0.8534836885312602
4256000000.0 0.546321403620672 -0.8646706578577599
4259000000.0000005 0.5286533878311265 -0.8270033273081463
4261999999.9999995 0.5335959198756941 -0.8720574727362489
4266000000.0 0.5479657574755147 -0.896199126115029
4269000000.0 0.5576377471158136 -0.8230247044896167
4272000000.0000005 0.5506257156157442 -0.8488546877864979
4275000000.0000005 0.5720555734849182 -0.8747003030845003
4277999999.9999995 0.5694264948951205 -0.8491474598995451
4280999999.9999995 0.5539935074556834 -0.8573758334036681
4284000000.0 0.5140083782052094 -0.8744882829300262
4288000000.0000005 0.5902629066947729 -0.8301826160817899
4291000000.0000005 0.5384714487145787 -0.8178985808229106
4293999999.9999995 0.5456223834563776 -0.8388353691999202
4297000000.0 0.558165567445914 -0.8202853674599594
4300000000.0 0.5752079030695013 -0.8410270097179752
4303000000.0 0.5398984535709563 -0.833427634616008
4306000000.0 0.5928229521830174 -0.8489896921515248
4309000000.0 0.5644086145553098 -0.8437201768530342
4312000000.0 0.5786766653758131 -0.8625219666888703
4316000000.0 0.5690888451738392 -0.846016216512703
4319000000.0 0.5782619665659099 -0.809232573348756
4322000000.0 0.5257085459128481 -0.8472321701180212
4325000000.0 0.5548425026030614 -0.8434880621850742
4328000000.0 0.5288125266697373 -0.8419375182140548
4331000000.0 0.5177608767764771 -0.869864171301131
4334000000.0 0.5544733905774033 -0.8448852268719593
4338000000.0 0.5687797437692436 -0.8153636816317662
4341000000.0 0.5678149925454274 -0.8417875501025124
4344000000.0 0.568458950856813 -0.8587833282328515
4347000000.0 0.5362612799189868 -0.8865259832440531
4350000000.0 0.5085007716924527 -0.8235352245986055
4353000000.0 0.537099183252755 -0.8201368349942008
4356000000.0 0.5209694922069418 -0.8651284577277376
4359000000.0 0.508657063164808 -0.8228109967546458
4362000000.0 0.5138498888946906 -0.8654040344634578
4366000000.0 0.5467521552053194 -0.8529831743656037
4369000000.0 0.5229681150360661 -0.8178230098809282
4372000000.0 0.4936009319622492 -0.8494561835479535
4375000000.0 0.5573100437434554 -0.8282719855515082
4378000000.0 0.5331643445018744 -0.8388862226645257
4381000000.0 0.5370663998712242 -0.8454584682421118
4384000000.0 0.5609041545247663 -0.9145784339391756
4388000000.0 0.534249665138165 -0.8374352901347155
4391000000.0 0.562561740163358 -0.8497364682865461
4394000000.0 0.5101222496359693 -0.8152203266158575
4397000000.0 0.5352511189387388 -0.8542104834496781
4400000000.0 0.5451956262702864 -0.8712129579736183
4403000000.0 0.5470362136691691 -0.8613774878968536
4406000000.0 0.5321677016683343 -0.8707287357992657
4409000000.0 0.5503757870492365 -0.8915776754130265
4412000000.0 0.48151795386733987 -0.8834750999861716
4416000000.0 0.5298200698699733 -0.8444872352065825
4419000000.0 0.534871440833994 -0.8650639124273919
4422000000.0 0.5507855678943931 -0.8391671045092727
4425000000.0 0.5563762087334725 -0.8542760310780975
4428000000.0 0.5231198852337198 -0.8642753119543355
4431000000.0 0.5519412858532762 -0.8594487748142103
4434000000.0 0.5237126014037534 -0.8493311957166264
4438000000.0 0.5518625714656988 -0.8692722884153234
4441000000.0 0.5463614420842104 -0.8669999764552476
4444000000.0 0.5199369192991169 -0.8254763544287338
4447000000.0 0.5219628566061589 -0.8627111453921805
4450000000.0 0.5325783821078878 -0.8504080050127492
4453000000.0 0.554380848364144 -0.8721533436080047
4456000000.0 0.5081205506874881 -0.8363407464788213
4459000000.0 0.5087882007538272 -0.8218813459257164
4462000000.0 0.5633240214405607 -0.8993701872961724
4466000000.0 0.5446398167182411 -0.891399253978659
4469000000.0 0.5639136886176104 -0.8532398140351866
4472000000.0 0.517192579012041 -0.8950798816364282
4475000000.0 0.5173329788452743 -0.8371443308841806
4478000000.0 0.526088214487314 -0.89535773946463
4481000000.0 0.5089260351568388 -0.8452371905604126
4484000000.0 0.4752910107419846 -0.8710145139791227
4488000000.0 0.5126833048606345 -0.845817936954449
4491000000.0 0.5276556353597309 -0.8603211466198839
4494000000.0 0.5347024780159028 -0.8196451592903073
4497000000.0 0.5391520835372354 -0.8455782443010035
4500000000.0 0.5389409607253143 -0.8695521630038011
4503000000.0 0.5433113840176522 -0.8703192929604184
4506000000.0 0.5150056362566459 -0.8645438747113634
4509000000.0 0.5296685396429264 -0.8400659026279319
4512000000.0 0.5073747999072209 -0.8434847079214607
4516000000.0 0.5225091279836127 -0.8739175816361326
4519000000.0 0.5098108479095678 -0.8211063077716487
4522000000.0 0.5093956456434316 -0.8760608669550559
4525000000.0 0.5501009135234435 -0.8383452576114596
4528000000.0 0.5413435110445846 -0.9051940973301251
4531000000.0 0.5321112996497308 -0.8540454072106527
4534000000.0 0.5137216253684876 -0.8535946948288273
4538000000.0 0.5319400082006527 -0.8584525160995562
4541000000.0 0.487026052070337 -0.8587792535392049
4544000000.0 0.5208832056565074 -0.847993319864942
4547000000.0 0.5524950233936714 -0.8462237250757707
4550000000.0 0.5163611084666917 -0.8890647596726339
4553000000.0 0.5310025524756963 -0.8582845530184053
4556000000.0 0.49437804000744934 -0.8409347606270721
4559000000.0 0.5140820211336117 -0.8546842959677299
4562000000.0 0.5396253506026663 -0.8666262757114527
4566000000.0 0.518487825489508 -0.8810543827014663
4569000000.0 0.5222435870614319 -0.8464255764211228
4572000000.0 0.5231176178946966 -0.8544007565187273
4575000000.0 0.506246621879394 -0.8721434800553902
4578000000.0 0.5342794194342151 -0.8747368831626025
4581000000.0 0.4984222427237509 -0.8792972967558392
4584000000.0 0.5303432477533646 -0.865295508396805
4588000000.0 0.5298769656554989 -0.8711163412686871
4591000000.0 0.517785952860333 -0.8469092464963239
4594000000.0 0.49125628192879334 -0.8671493098769973
4597000000.0 0.5095592990094615 -0.8677915040136995
4600000000.0 0.48520484639034545 -0.8595239131123554
4603000000.0 0.5072863108567506 -0.8764528251082421
4606000000.0 0.5217936340387473 -0.8751974441189003
4609000000.0 0.5204894947107266 -0.8548194259624069
4612000000.0 0.5198944525106616 -0.8706043054410748
4616000000.0 0.5071685657786 -0.854803186725269
4619000000.0 0.5122014345034586 -0.8601233266362782
4622000000.0 0.4910488213293329 -0.8778515982390672
4625000000.0 0.47238567290852085 -0.8511360428726346
4628000000.0 0.5149509608810141 -0.8469187773234657
4631000000.0 0.47772076492478066 -0.8772100045009084
4634000000.0 0.4913917870139751 -0.8603325355455301
4638000000.0 0.5141285881531923 -0.8764495476352973
4641000000.0 0.5215044078750963 -0.8702666022656921
4644000000.0 0.5143259735802442 -0.8690746356447409
4647000000.0 0.4990022176730654 -0.8864001562680889
4650000000.0 0.48859740159853216 -0.8699653830212754
4653000000.0 0.5198363895017102 -0.8744271819957696
4656000000.0 0.48842934063661114 -0.8717126572058858
4659000000.0 0.48984137600104616 -0.8758522421624668
4662000000.0 0.5016101423327985 -0.8673565008608995
4666000000.0 0.49134683181583794 -0.8711812630006408
4669000000.0 0.5284356701927342 -0.8563653684084717
4672000000.0 0.5140118764710738 -0.888674334543399
4675000000.0 0.490397972381231 -0.8820409752201701
4678000000.0 0.4921721184123311 -0.883616744725019
4681000000.0 0.4778768523547918 -0.9015443423782873
4684000000.0 0.48770908741326346 -0.8937274583707409
4688000000.0 0.4725408283301194 -0.8849668169522958
4691000000.0 0.538723995123138 -0.8916747244038677
4694000000.0 0.4895796092641755 -0.874485236926517
4697000000.0 0.47611224727806 -0.8579799153910435
4700000000.0 0.5021414104341669 -0.8577541044386948
4703000000.0 0.5204071111524721 -0.8364702100426012
4706000000.0 0.484059727770034 -0.9034974141130425
4709000000.0 0.5006264165060185 -0.8907201904452616
4712000000.0 0.5025278374732599 -0.8823464962127952
4716000000.0 0.47678249498595826 -0.8815778734614519
4719000000.0 0.5192119109077252 -0.8568279354174635
4722000000.0 0.5124151136080864 -0.8743345499623025
4725000000.0 0.49931653143367083 -0.8886441246717613
4728000000.0 0.48864390714299955 -0.8603972849888603
4731000000.0 0.5240896803327272 -0.8946684802007172
4734000000.0 0.523858179291789 -0.8620794480707622
4738000000.0 0.5265592026515383 -0.9036937761040307
4741000000.0 0.4958592426525517 -0.9058593379555444
4744000000.0 0.5121234426175286 -0.9189134149070561
4747000000.0 0.5048839766429305 -0.8494325519183072
4750000000.0 0.5123927976784378 -0.9090615588760951
4753000000.0 0.49996017574739005 -0.8978992157232127
4756000000.0 0.49460126726128495 -0.8834354182893608
4759000000.0 0.5017401199954451 -0.9167211999221165
4762000000.0 0.4820725012945243 -0.8825173214135348
4766000000.0 0.46954671055787944 -0.8858784222871147
4769000000.0 0.5295911266649405 -0.9023774789567015
4772000000.0 0.5030745357811528 -0.8945325826457128
4775000000.0 0.5132240127600459 -0.9314102680159988
4778000000.0 0.47419905924735506 -0.892852637858236
4781000000.0 0.514503823239249 -0.86030704806723
4784000000.0 0.5143261057232772 -0.8580870148302449
4788000000.0 0.5003730240378946 -0.9186660512738538
4791000000.0 0.48769471188674873 -0.878450576182828
4794000000.0 0.5572782996114354 -0.8845661568407556
4797000000.0 0.47245199091923845 -0.8913337199604147
4800000000.0 0.4704977960550355 -0.880711563133648
4803000000.0 0.4557855476103717 -0.8954593673467357
4806000000.0 0.49174901697012563 -0.8849282432960828
4809000000.0 0.4520702003363963 -0.9014261441448653
4812000000.0 0.46712259231948605 -0.9209823286486389
4816000000.0 0.5266899917663856 -0.8336513896525388
4819000000.0 0.5334180799779356 -0.892824432809967
4822000000.0 0.531236250046889 -0.882573755594474
4825000000.0 0.52773215060232 -0.8939243298002766
4828000000.0 0.5011451604351982 -0.8915580227734
4831000000.0 0.46276725572212096 -0.927705008908874
4834000000.0 0.5163384457524811 -0.8955504903225683
4838000000.0 0.4948136952306331 -0.9025045971663869
4841000000.0 0.4983364961919067 -0.896497215887861
4844000000.0 0.5138522720780825 -0.8555083072630286
4847000000.0 0.518173028071316 -0.8501258841233134
4850000000.0 0.49425261479506666 -0.9297748973844293
4853000000.0 0.5039356944030734 -0.8652877479444427
4856000000.0 0.504907225001193 -0.8804278479565543
4859000000.0 0.519056103621508 -0.92207538304995
4862000000.0 0.5133124545082992 -0.858918102116323
4866000000.0 0.4764472367203885 -0.9029668770462288
4869000000.0 0.4915059704447703 -0.8935015863244621
4872000000.0 0.4772952001136317 -0.9271439854007125
4875000000.0 0.5691179365807927 -0.8829654545128622
4878000000.0 0.5285092358591924 -0.9018176408226856
4881000000.0 0.4818660973243311 -0.9465707039998751
4884000000.0 0.5297861168944992 -0.8935669722807311
4888000000.0 0.5362268985189151 -0.8570693696371459
4891000000.0 0.5378918678388267 -0.9124839350316548
4894000000.0 0.47935451689532144 -0.897441312119521
4897000000.0 0.5404636452958026 -0.8626717532005707
4900000000.0 0.5207498795958605 -0.9057069064786378
4903000000.0 0.5187693398935077 -0.8972151121532874
4906000000.0 0.5208619901113736 -0.9008445957429547
4909000000.0 0.49114595236819525 -0.892727021123607
4912000000.0 0.5053531641147374 -0.9125357932640338
4916000000.0 0.5282642168001388 -0.922795780049004
4919000000.0 0.547756839528034 -0.9076098197675482
4922000000.0 0.5503279430316443 -0.9004436508428344
4925000000.0 0.46381272332625145 -0.8959812336773268
4928000000.0 0.5575522083929905 -0.8717837447701928
4931000000.0 0.541698202177374 -0.8788604117018247
4934000000.0 0.47896821824258556 -0.8701647828844297
4938000000.0 0.4843560865369115 -0.8997556285847226
4941000000.0 0.5572636915450833 -0.8901025085083325
4944000000.0 0.5176562003391003 -0.8414927330403459
4947000000.0 0.47822651889037293 -0.8755251249848862
4950000000.0 0.47356015127218665 -0.8617491471691258
4953000000.0 0.492241526175846 -0.9258685370952933
4956000000.0 0.4924262443963019 -0.920424303508115
4959000000.0 0.4718037559762583 -0.8656590025110618
4962000000.0 0.5097904047236813 -0.8848291906605379
4966000000.0 0.5333334503008784 -0.8872182079473392
4969000000.0 0.5548243602877776 -0.9177838330628806
4972000000.0 0.5221689652526676 -0.8942807524877007
4975000000.0 0.5042166563047364 -0.8644872893878517
4978000000.0 0.48962855300919084 -0.8820377224903955
4981000000.0 0.5078170601250429 -0.9115524041514554
4984000000.0 0.5074294605335554 -0.8546484705147853
4988000000.0 0.49372246397962083 -0.8821006675520295
4991000000.0 0.5565208475017516 -0.8731642858898094
4994000000.0 0.5353754412011985 -0.9030640257505979
4997000000.0 0.49314165868328563 -0.8941078867931004
5000000000.0 0.5259004798838883 -0.888115501800951
5003000000.0 0.5589385380828901 -0.922445051195415
5006000000.0 0.5384944455942365 -0.9205287340234841
5009000000.0 0.530452069527924 -0.886332389858808
5012000000.0 0.5061105086299524 -0.8993024659808759
5016000000.0 0.5572912803831623 -0.8997878135623749
5019000000.0 0.5204116771462932 -0.8916845963792971
5022000000.0 0.5106592750745921 -0.8750818089598523
5025000000.0 0.5337769649776687 -0.9228970276923375
5028000000.0 0.531328267633964 -0.8842961744973343
5031000000.0 0.4952407412861602 -0.8934343730678282
5034000000.0 0.5029018452332442 -0.9332503425938364
5038000000.0 0.5030555824631008 -0.8735893166507176
5041000000.0 0.5576364596198491 -0.8951576302122886
5044000000.0 0.546792526371057 -0.8673130062026214
5047000000.0 0.5343760552375699 -0.8838930648108339
5050000000.0 0.5994253033176626 -0.8179563833310156
5053000000.0 0.5220847807546829 -0.9309740186182568
5056000000.0 0.5674229716428612 -0.9121370687164394
5059000000.0 0.572865739347663 -0.8585001268218839
5062000000.0 0.5146199081589387 -0.9417219695627279
5066000000.0 0.5765029428778832 -0.8417648052368334
5069000000.0 0.5541788882383076 -0.893207376280826
5072000000.0 0.5232938338377922 -0.8995569520217916
5075000000.0 0.5483003012580298 -0.8870499414136217
5078000000.0 0.47699775295141733 -0.911628326102229
5081000000.0 0.5038108353165663 -0.8873956520370958
5084000000.0 0.5058010456664752 -0.8930643259133773
5088000000.0 0.5556807940583539 -0.8428995574423186
5091000000.0 0.5462395630982988 -0.9157278527751891
5094000000.0 0.5552097094230214 -0.8745039702649919
5097000000.0 0.5592258374731225 -0.8550535778953923
5100000000.0 0.5212513250796317 -0.8555614397413613
5103000000.0 0.5175639836438419 -0.9076544711935408
5106000000.0 0.5583875134665497 -0.9067499978074789
5109000000.0 0.535902616494909 -0.8211692855195012
5112000000.0 0.5337756875375262 -0.8801299265465601
5116000000.0 0.5261332526751032 -0.8741863267630382
5119000000.0 0.5639585225932102 -0.9013211366094509
5122000000.0 0.5449313062184502 -0.8992141812026351
5125000000.0 0.5993175769774279 -0.8833820666579784
5128000000.0 0.5571346632306682 -0.8546094059298917
5131000000.0 0.5412473169515195 -0.9028191789358255
5134000000.0 0.5016444185573659 -0.8583409624752352
5138000000.0 0.5327073180249152 -0.8903610789843015
5141000000.0 0.6167549340698094 -0.9008953486388831
5144000000.0 0.5835386000945776 -0.8469511511890278
5147000000.0 0.5612097138996952 -0.8991217505279734
5150000000.0 0.5590071206433004 -0.8662822608211076
5153000000.0 0.5706751462250524 -0.8773241836471681
5156000000.0 0.5467506980637132 -0.9148151346048985
5159000000.0 0.5944861548906814 -0.9146005103682722
5162000000.0 0.5217923901971697 -0.8737718554774891
5166000000.0 0.526618766838625 -0.9141903997223434
5169000000.0 0.5597719523385252 -0.8948641715635335
5172000000.0 0.5548352824774525 -0.8766164500083898
5175000000.0 0.6292581689084606 -0.8892385436048744
5178000000.0 0.5342151826961712 -0.8677902864406772
