! Created with skrf 1.8.0 (http://scikit-rf.org).
# Hz S RI R 50.0 
!freq ReS11 ImS11
4000000000.0 0.5755541380738391 -0.8694834755284182
4003000000.0 0.5611869122520803 -0.8715561300570451
4006000000.0 0.5114847083458907 -0.8752718585409782
4009000000.0000005 0.5560619556275526 -0.8829465021280634
4011999999.9999995 0.6017167823794061 -0.8728193154685779
4016000000.0 0.5288878031855845 -0.9167456242957429
4019000000.0 0.6076661531247175 -0.8675377915186081
4022000000.0000005 0.6024786436359616 -0.8411820266454845
4025000000.0000005 0.4889360577412686 -0.9213268336044264
4027999999.9999995 0.5029068072030164 -0.8506136113996582
4030999999.9999995 0.548875807571681 -0.8402011120173067
4034000000.0 0.5015792223414651 -0.8861371667763152
4038000000.0000005 0.5294647579587632 -0.9068493465909835
4041000000.0000005 0.5395020307100739 -0.8853192662852881
4043999999.9999995 0.5969356830815602 -0.9511439559024124
4046999999.9999995 0.5955444121784279 -0.8798469514221985
4050000000.0 0.5169411900158645 -0.8700256615146523
4053000000.0 0.5095012585357681 -0.840919579382042
4056000000.0 0.5474288275303733 -0.8729278332529996
4059000000.0 0.5534661305999761 -0.8230156276624634
4062000000.0000005 0.516978539301355 -0.9083578059902739
4066000000.0 0.4968668308615336 -0.8310502061159005
4069000000.0 0.49470764401889544 -0.9280565467818588
4072000000.0 0.5980579573068927 -0.8119406254170543
4075000000.0 0.6148193159242457 -0.8567766635922517
4078000000.0000005 0.5287325726447845 -0.8933835881728347
4081000000.0000005 0.6072478393500276 -0.8603315114921898
4083999999.9999995 0.5250340765609064 -0.8990877785062749
4088000000.0 0.5679200631736947 -0.8384243644678782
4091000000.0 0.5901176567448126 -0.9140539205363731
4094000000.0000005 0.5545673704059425 -0.8561479089947392
4097000000.0000005 0.5392747766166743 -0.8585721996131167
4099999999.9999995 0.5450630312328215 -0.87381987350761
4102999999.9999995 0.5623843017991859 -0.8703671555925275
4106000000.0 0.5285736971213162 -0.8941449850925121
4109000000.0 0.560936000233014 -0.9102687175224062
4112000000.0 0.5525316490108422 -0.8758495145715272
4115999999.9999995 0.5938306656349363 -0.8387975485468092
4119000000.0 0.5199234770540484 -0.8802749758439045
4122000000.0 0.5308170888590772 -0.885491973920332
4125000000.0 0.5443615130270454 -0.9103529020178805
4128000000.0 0.5585897077243969 -0.8454361424983333
4131000000.0 0.5368715450183073 -0.8825375222054714
4134000000.0000005 0.5351261081352265 -0.8332492867341096
4138000000.0 0.5218003737669633 -0.8602892221723096
4141000000.0 0.5275788904107006 -0.8441118716492328
4144000000.0 0.5453537563715148 -0.8493724013705787
4147000000.0000005 0.5445777780164401 -0.8514492143535495
4150000000.0000005 0.5530364338138309 -0.8746015784920046
4152999999.9999995 0.5613698540307369 -0.8609364155521537
4155999999.9999995 0.58373603123104 -0.8851372977635953
4159000000.0 0.5307769666751978 -0.8205116313587688
4162000000.0 0.5266478540040563 -0.8493602774735132
4166000000.0000005 0.5382206909292929 -0.8596586648744209
4168999999.9999995 0.5228711700713977 -0.8419557556904941
4171999999.9999995 0.5593771095563177 -0.8489575518115199
4175000000.0 0.5658475199158471 -0.8537606842015766
4178000000.0 0.5350371956295414 -0.8814041306585679
4181000000.0 0.5454384413330631 -0.8721177244938881
4184000000.0 0.5263936362326098 -0.8808085658289618
4187999999.9999995 0.5338262599924384 -0.8542118698572094
4191000000.0 0.5761852476937441 -0.8202687280534278
4194000000.0 0.5324444267706027 -0.851831482747431
4197000000.0 0.5348978835825717 -0.8586724136279227
4200000000.0 0.5557039559880497 -0.8524974982003488
4203000000.0000005 0.5836855899344007 -0.8595132602668597
4206000000.0000005 0.5571466089091985 -0.8696187099837349
4208999999.9999995 0.5718364461523551 -0.8280704726649784
4211999999.9999995 0.5318215782796357 -0.8733150643317874
4216000000.0 0.5491336242276423 -0.8391919001582636
4219000000.0000005 0.5642343897151901 -0.856749835585691
4222000000.0000005 0.5442243365681796 -0.8654092390675272
4224999999.9999995 0.5462592938395261 -0.8635874415757754
4227999999.9999995 0.5352971801910791 -0.8707775314995159
4231000000.0 0.5495437515413454 -0.8750366594802929
4234000000.0 0.5433606886603031 -0.889480920953615
4238000000.0000005 0.5381384417568342 -0.8743878828449227
4240999999.9999995 0.5397317754710493 -0.857893082769933
4244000000.0 0.5555207105049395 -0.8508918124458309
4247000000.0 0.5572132791976603 -0.8581485602301606
4250000000.0 0.5370538518950934 -0.8316659374638428
4253000000.0 0.5134144278881014 -0.8294105011657072
4256000000.0 0.5639042240235275 -0.8783168698534609
4259000000.0000005 0.5242804869706794 -0.8254302171465632
4261999999.9999995 0.5266138055979597 -0.857791572319429
4266000000.0 0.5385808028276793 -0.8782864583168436
4269000000.0 0.5592509201910044 -0.8664627272744662
4272000000.0000005 0.5328818030917088 -0.8667359522383372
4275000000.0000005 0.5579147765386645 -0.8633383758452149
4277999999.9999995 0.5557549793173258 -0.8840680367690422
4280999999.9999995 0.565114867112959 -0.8531223346902188
4284000000.0 0.5078888260529523 -0.8904037473028921
4288000000.0000005 0.5765417291721223 -0.8554595251536413
4291000000.0000005 0.5318362148424399 -0.8353349296385427
4293999999.9999995 0.5365775631815408 -0.8609396835881532
4297000000.0 0.570359973959746 -0.8259869151873086
4300000000.0 0.553685277928653 -0.8429144201109716
4303000000.0 0.5361414910849576 -0.8528196311064812
4306000000.0 0.5594519279597083 -0.8509980907992032
4309000000.0 0.5151637940926885 -0.8370620990097556
4312000000.0 0.5944023184710434 -0.8453354432039792
4316000000.0 0.5855973984245882 -0.8560729885676489
4319000000.0 0.5586971444395339 -0.8418571056474036
4322000000.0 0.5132293580808952 -0.851750859764228
4325000000.0 0.5602856321824896 -0.8297885065808479
4328000000.0 0.5362023392876095 -0.8355079862409861
4331000000.0 0.531310136921471 -0.8696210808926959
4334000000.0 0.5455027783812806 -0.8727968628082851
4338000000.0 0.553343118395846 -0.8418770798632559
4341000000.0 0.5844498297493521 -0.8605187861769644
4344000000.0 0.5512056897648767 -0.8663278429241991
4347000000.0 0.5332974623220202 -0.8667086670496071
4350000000.0 0.5166825563496406 -0.8295764172449105
4353000000.0 0.563211903525054 -0.8306744920703903
4356000000.0 0.5167238446966316 -0.8347009990155988
4359000000.0 0.5030799152395772 -0.7999387412747814
4362000000.0 0.5063999298566169 -0.871369364831269
4366000000.0 0.5518005983866444 -0.8731389895457131
4369000000.0 0.5136739024652116 -0.8211131241673149
4372000000.0 0.4882878331658766 -0.8676212052129162
4375000000.0 0.5467481935692795 -0.8421195900878828
4378000000.0 0.5271436122951288 -0.8474666704328583
4381000000.0 0.5408418473873184 -0.8410412288689708
4384000000.0 0.5708693362295094 -0.919882888736027
4388000000.0 0.5395810450729517 -0.8227672937618754
4391000000.0 0.5552184136571691 -0.8562999632192098
4394000000.0 0.5241890850193781 -0.8283278168477409
4397000000.0 0.5188639738523518 -0.8501501344170062
4400000000.0 0.5447774077796149 -0.8716992985895001
4403000000.0 0.5354923424017588 -0.863118502812215
4406000000.0 0.5235415584271933 -0.8676673239428224
4409000000.0 0.5405583406883933 -0.8960862070272249
4412000000.0 0.4768103816279865 -0.8752844110067118
4416000000.0 0.5128770986405231 -0.8505989148938328
4419000000.0 0.5177256597960725 -0.8709538618898057
4422000000.0 0.5353363602689998 -0.8451399100661409
4425000000.0 0.5642761544125865 -0.8481810028850566
4428000000.0 0.5194303373546671 -0.8668663092548563
4431000000.0 0.5438184613730455 -0.8625646192125715
4434000000.0 0.5260280429905767 -0.8431369107139777
4438000000.0 0.5468870527164739 -0.8928968471048282
4441000000.0 0.5409427127976463 -0.8694428962211372
4444000000.0 0.5209512159106658 -0.828974087271245
4447000000.0 0.5220518882910844 -0.8680525120186584
4450000000.0 0.5249550192454788 -0.8436346460728175
4453000000.0 0.542262312397042 -0.8643413085832581
4456000000.0 0.5142130940111386 -0.8623096353369315
4459000000.0 0.4921032517553008 -0.8343583883780312
4462000000.0 0.5444491275096854 -0.8953404268199565
4466000000.0 0.5377087713694914 -0.9013256952849871
4469000000.0 0.5413184615203285 -0.8463056784329366
4472000000.0 0.5044289777261939 -0.903724959446514
4475000000.0 0.5328146592912647 -0.8224142249846569
4478000000.0 0.5433089243230902 -0.9049031001341171
4481000000.0 0.5025612582226292 -0.8491296972619423
4484000000.0 0.4644648275388533 -0.8890021159987973
4488000000.0 0.5146989360460283 -0.8701495822617993
4491000000.0 0.516413427461862 -0.8782776042726708
4494000000.0 0.5111091714805898 -0.8587289207017552
4497000000.0 0.5240922474245637 -0.8495154158296963
4500000000.0 0.5130731662996812 -0.8756107982286201
4503000000.0 0.5396366211912209 -0.8785936444499602
4506000000.0 0.5145746622956663 -0.8483514296765327
4509000000.0 0.5063625524219799 -0.8285973828713087
4512000000.0 0.4942860884496012 -0.8522186838802449
4516000000.0 0.5420291997992295 -0.8835532847719316
4519000000.0 0.5200079205121395 -0.850755829656469
4522000000.0 0.5125499652218186 -0.8531740580623746
4525000000.0 0.5428785824632512 -0.8466058191594517
4528000000.0 0.5285004171280544 -0.8883205872491697
4531000000.0 0.511909044536923 -0.8773684473321133
4534000000.0 0.5053696636119434 -0.8337233931472281
4538000000.0 0.4996786451667335 -0.8573401305013402
4541000000.0 0.4889517261160596 -0.8734471273297144
4544000000.0 0.5194005323531032 -0.8710236054993814
4547000000.0 0.5144402587720471 -0.8550460081206847
4550000000.0 0.49608819714069874 -0.8773903070306894
4553000000.0 0.5128440447530382 -0.8686490522124498
4556000000.0 0.4737722665161348 -0.8699554859578382
4559000000.0 0.5030531073750821 -0.8796507401887677
4562000000.0 0.5022738099570345 -0.8796118467579714
4566000000.0 0.5140830372418641 -0.8692312785813765
4569000000.0 0.49456461521443695 -0.8484385472814566
4572000000.0 0.5151857132531492 -0.8590071085286434
4575000000.0 0.49507102228693217 -0.8779648530757631
4578000000.0 0.5174787839269249 -0.8795226802435954
4581000000.0 0.49836683572601864 -0.8837175061812184
4584000000.0 0.49270403816729935 -0.8580485492596185
4588000000.0 0.5481208005711105 -0.8772908890728928
4591000000.0 0.5130646009037764 -0.8540103757313999
4594000000.0 0.4906217171036501 -0.8635535493012705
4597000000.0 0.509662170810981 -0.8844710801879123
4600000000.0 0.4852764458110403 -0.8783544218920163
4603000000.0 0.5046419296134783 -0.8732279244096264
4606000000.0 0.4961713828196864 -0.8698394565720879
4609000000.0 0.5141678030077841 -0.8785265269158651
4612000000.0 0.515099899890125 -0.8776583168512452
4616000000.0 0.5007570594653493 -0.8528020564846694
4619000000.0 0.5231138854921673 -0.86936202672998
4622000000.0 0.5105684657608427 -0.8763134968348893
4625000000.0 0.4750484802979429 -0.874133992595981
4628000000.0 0.5106995649296013 -0.83899730823358
4631000000.0 0.4922453267383221 -0.8846012928595443
4634000000.0 0.4879696990213005 -0.902931298466106
4638000000.0 0.5036642400253065 -0.8734201445003844
4641000000.0 0.5018634568763867 -0.8640424342090312
4644000000.0 0.49028526580231035 -0.8620053710955474
4647000000.0 0.5109754608055399 -0.881924548942591
4650000000.0 0.4825726884253803 -0.8782206765165537
4653000000.0 0.5142216351358128 -0.8650321551889735
4656000000.0 0.49263196314117363 -0.8708382159078525
4659000000.0 0.4904222555998195 -0.8950237005529283
4662000000.0 0.501240908586404 -0.8757670198316757
4666000000.0 0.48413758610966495 -0.8548943512078421
4669000000.0 0.49728409571181764 -0.8594304884828314
4672000000.0 0.4889710254143691 -0.9011783106511387
4675000000.0 0.47413966907732763 -0.8725010471017847
4678000000.0 0.4845578368547793 -0.8806257461857063
4681000000.0 0.48326601562740434 -0.928501675974743
4684000000.0 0.46070164188050944 -0.8889802649132155
4688000000.0 0.4573796237661206 -0.8790790118833988
4691000000.0 0.4924647572718703 -0.8813941750681633
4694000000.0 0.500001210611347 -0.8771605637355145
4697000000.0 0.44806010755199555 -0.8555199058704104
4700000000.0 0.4669163579404873 -0.8784967626884141
4703000000.0 0.5080460591614595 -0.8414321733133826
4706000000.0 0.48212802580437925 -0.8722369742251747
4709000000.0 0.47316559675718384 -0.8967246255157729
4712000000.0 0.4879977596745325 -0.870518943166378
4716000000.0 0.5065407371762288 -0.8862405429487548
4719000000.0 0.5434764880490562 -0.8849985096158537
4722000000.0 0.5258257839681515 -0.8796537172337437
4725000000.0 0.502125724582742 -0.8722739084506664
4728000000.0 0.48818743212287624 -0.8685940883718748
4731000000.0 0.526275093888756 -0.8955208695705732
4734000000.0 0.48192639758041084 -0.8449395229341399
4738000000.0 0.5523017715402512 -0.9239309477242278
4741000000.0 0.5069992043363425 -0.8958596254692903
4744000000.0 0.47611347104764856 -0.9069154426025406
4747000000.0 0.48279368928597516 -0.8614972936211881
4750000000.0 0.5044849685135577 -0.8814211960329909
4753000000.0 0.5243536219315177 -0.90529126377341
4756000000.0 0.46427835458030764 -0.9057749869290673
4759000000.0 0.5321885973116195 -0.8787154721909098
4762000000.0 0.4531598388011928 -0.8983625601766071
4766000000.0 0.4910767880887803 -0.8824867291006284
4769000000.0 0.4815951594578564 -0.896325096924362
4772000000.0 0.5109916496314086 -0.908021679398177
4775000000.0 0.48722319708805856 -0.9358454360977445
4778000000.0 0.49705550924936104 -0.9019278932376076
4781000000.0 0.5118620965902234 -0.8447937617007288
4784000000.0 0.5051900775216627 -0.8699946441424969
4788000000.0 0.49906821825890524 -0.9247042761088318
4791000000.0 0.49523212823957075 -0.8482023116474097
4794000000.0 0.5162240429775191 -0.9216102853060127
4797000000.0 0.4733158088558247 -0.8883342421994097
4800000000.0 0.4358342947395928 -0.8952189170343147
4803000000.0 0.4497161002808404 -0.8911590218302474
4806000000.0 0.4777581260020013 -0.8934665778871561
4809000000.0 0.4560245265808633 -0.9148792772219186
4812000000.0 0.43980855033028954 -0.9001643389587578
4816000000.0 0.48824965839945034 -0.8530912622567901
4819000000.0 0.5283814758292247 -0.904510710216056
4822000000.0 0.5074756505742541 -0.9193761182567097
4825000000.0 0.5074047954867548 -0.9093549197928674
4828000000.0 0.5008862330604513 -0.8733002072591218
4831000000.0 0.45666549678816726 -0.926808981446052
4834000000.0 0.5244719902284071 -0.8755566044239789
4838000000.0 0.47225346150443615 -0.9003484423748462
4841000000.0 0.4730158002422624 -0.8764254238820974
4844000000.0 0.5229108221100319 -0.8686310434181927
4847000000.0 0.501146744223326 -0.8444798210038382
4850000000.0 0.5002780500959807 -0.9189067746228963
4853000000.0 0.4859621443506407 -0.8615305283841923
4856000000.0 0.48833669571782057 -0.8906584226008296
4859000000.0 0.48781388792271113 -0.9378279903416893
4862000000.0 0.49332719998379837 -0.8513229578679109
4866000000.0 0.47459967756148885 -0.9227480571327165
4869000000.0 0.47901368689433005 -0.9160508297801333
4872000000.0 0.46888389694634036 -0.9120612610942459
4875000000.0 0.5472064519691611 -0.9067348897842754
4878000000.0 0.47858423291877816 -0.9117969040661544
4881000000.0 0.500006678255944 -0.980337505845661
4884000000.0 0.5065063534967876 -0.9046490716256882
4888000000.0 0.5271564507960332 -0.8957474541855589
4891000000.0 0.5389264777476056 -0.8975648361287744
4894000000.0 0.48253668896650365 -0.927412626369823
4897000000.0 0.47882020954554694 -0.8686068427704942
4900000000.0 0.5201893147196104 -0.8752710715060029
4903000000.0 0.5235229646010229 -0.9010728226250895
4906000000.0 0.5156190202133022 -0.9266815361779629
4909000000.0 0.4849664553743849 -0.9223593596578602
4912000000.0 0.4751273027311727 -0.941613635081958
4916000000.0 0.5415231687348736 -0.9042215811752049
4919000000.0 0.5544245318071408 -0.8979397002425186
4922000000.0 0.5352221824045971 -0.8825482882985892
4925000000.0 0.4762290228526532 -0.9019837870584426
4928000000.0 0.5338086500615786 -0.8645501970112163
4931000000.0 0.5322765727879994 -0.8976263814866691
4934000000.0 0.4701699641211981 -0.8627065886645949
4938000000.0 0.4955392706102828 -0.8912913256182322
4941000000.0 0.5075437455890002 -0.9059496866362446
4944000000.0 0.4841530080309258 -0.8373740062056332
4947000000.0 0.50477232960786 -0.8829509847389051
4950000000.0 0.5175392312987064 -0.8978966361383895
4953000000.0 0.48854393983978994 -0.9707969376531209
4956000000.0 0.4901417125966604 -0.9173983114702479
4959000000.0 0.46025118344052485 -0.8787103847732086
4962000000.0 0.5023036939556298 -0.9088029664603292
4966000000.0 0.5256136196833804 -0.9066126766214779
4969000000.0 0.5405738718425586 -0.9141710025936872
4972000000.0 0.4890301136906776 -0.8926635796807757
4975000000.0 0.52228396254792 -0.8921791745803003
4978000000.0 0.49835392523653044 -0.8955774415636002
4981000000.0 0.49793088030923005 -0.897069874468832
4984000000.0 0.4997593453472323 -0.8692543065899163
4988000000.0 0.5103798494913445 -0.8895700299245339
4991000000.0 0.594521805798841 -0.8568316836909153
4994000000.0 0.5294162318616165 -0.878090591823019
4997000000.0 0.47796833871126276 -0.9297604990243307
5000000000.0 0.5389262268718047 -0.8969452186391867
5003000000.0 0.5327671041907844 -0.9241557236771737
5006000000.0 0.5211596824936526 -0.94439952060579
5009000000.0 0.5289386280163476 -0.9102103004161584
5012000000.0 0.49362366041597416 -0.8932747127838453
5016000000.0 0.543784952210205 -0.9238356674942326
5019000000.0 0.5128956179126478 -0.8722004785691615
5022000000.0 0.5424458018849978 -0.8884941946238323
5025000000.0 0.5655782230434636 -0.9553821843052797
5028000000.0 0.5092671880542274 -0.8886749432998268
5031000000.0 0.49203841875227217 -0.9006362002735889
5034000000.0 0.5169006854741323 -0.9240392979459164
5038000000.0 0.48005398860602067 -0.8703692665269815
5041000000.0 0.5685268894774772 -0.8783345991414124
5044000000.0 0.5213294114723721 -0.8346366479715903
5047000000.0 0.5255492806356562 -0.8830930173576992
5050000000.0 0.5843027213591967 -0.8294136249680177
5053000000.0 0.5333723560064029 -0.9121012898875878
5056000000.0 0.5688143178392465 -0.8639725693268318
5059000000.0 0.5682323970346769 -0.8843385390227823
5062000000.0 0.5348182405171812 -0.8792103254096594
5066000000.0 0.5443135123359961 -0.8968463346541439
5069000000.0 0.5571372959490871 -0.8944872144764432
5072000000.0 0.4877591182260934 -0.8765123877567091
5075000000.0 0.5708661485637989 -0.8484573952400557
5078000000.0 0.46259897044052445 -0.8969756131708017
5081000000.0 0.47544648533221423 -0.8874792289955183
5084000000.0 0.5726942222550463 -0.9072280826904544
5088000000.0 0.5654444250232682 -0.8487824232037275
5091000000.0 0.4847665711033923 -0.9526073821259899
5094000000.0 0.5633249432140827 -0.8952125992092521
5097000000.0 0.5402727018061483 -0.86433015773132
5100000000.0 0.49506513716331607 -0.8920590185949604
5103000000.0 0.5329886318344051 -0.9282752593009098
5106000000.0 0.6001522879662344 -0.9156714403024558
5109000000.0 0.6107296643527769 -0.8548178599252156
5112000000.0 0.5561517218626338 -0.8867614038001435
5116000000.0 0.4622873023909563 -0.8407261416987053
5119000000.0 0.5298197167461788 -0.9341508635044156
5122000000.0 0.5053916190433411 -0.9069326000238265
5125000000.0 0.5655652434790224 -0.8951855747493074
5128000000.0 0.5336462434693894 -0.9035359527333006
5131000000.0 0.5442786649624696 -0.8633369025145146
5134000000.0 0.5416979416864193 -0.8936649525716986
5138000000.0 0.5551887495061809 -0.9079413173647803
5141000000.0 0.6166441356783703 -0.8667294574166136
5144000000.0 0.5670194292170996 -0.8883112434946421
5147000000.0 0.5764484051330018 -0.895220266405023
5150000000.0 0.5558227113037926 -0.8443628614747303
5153000000.0 0.5402459916164934 -0.909158897738829
5156000000.0 0.5708972427715897 -0.9218012912984868
5159000000.0 0.5796189008576638 -0.8978719120855025
5162000000.0 0.533071590261472 -0.8546044838048783
5166000000.0 0.527533823896185 -0.9234545085257988
5169000000.0 0.5643549275325452 -0.8973903621786512
5172000000.0 0.5331075325663027 -0.8664227199192397
5175000000.0 0.5740589175599675 -0.9101664339996021
