! Created with skrf 1.8.0 (http://scikit-rf.org).
# Hz S RI R 50.0 
!freq ReS11 ImS11
4000000000.0 0.571332179503028 -0.8295430921672504
4003000000.0 0.6308155033224312 -0.9250500216063651
4006000000.0 0.5303848445690954 -0.8541269299053821
4009000000.0000005 0.5595411903212651 -0.8636121490739094
4011999999.9999995 0.6278919058399882 -0.8694637576312143
4016000000.0 0.5736406806491682 -0.9555324801402532
4019000000.0 0.5519544885654396 -0.8350159130989915
4022000000.0000005 0.63765901692085 -0.8347800845701034
4025000000.0000005 0.5444965542358582 -0.9130659244232502
4027999999.9999995 0.5282178342475708 -0.8654136717204521
4030999999.9999995 0.5430198055435419 -0.8172192243180723
4034000000.0 0.5457004008873021 -0.8800727582450956
4038000000.0000005 0.5120185038149456 -0.9282541693987467
4041000000.0000005 0.5455709831329484 -0.9171845786669477
4043999999.9999995 0.5615096634112299 -0.8902945787570687
4046999999.9999995 0.5782372645819305 -0.9161491100752551
4050000000.0 0.53985164780132 -0.8976788733847477
4053000000.0 0.535587393197485 -0.8572699528433602
4056000000.0 0.5418591357723566 -0.8646720838260157
4059000000.0 0.5570104266884426 -0.8127579904095108
4062000000.0000005 0.528246347047922 -0.8972733350048534
4066000000.0 0.5181328341555678 -0.7878663086511329
4069000000.0 0.5351554104018874 -0.9226221483187732
4072000000.0 0.6065889438325618 -0.8626639765199039
4075000000.0 0.5782902005909605 -0.8401913861772329
4078000000.0000005 0.5426011178500669 -0.8979656933190171
4081000000.0000005 0.603879616345403 -0.9079417638050691
4083999999.9999995 0.5522936531073531 -0.9037533607222158
4088000000.0 0.572234184147206 -0.8178931994703726
4091000000.0 0.6038006646807118 -0.9126245817874178
4094000000.0000005 0.5389603514707687 -0.8476796754642364
4097000000.0000005 0.5472487674474499 -0.8865604954392436
4099999999.9999995 0.5704070290825477 -0.8806864403957718
4102999999.9999995 0.6109453546673053 -0.883586256510151
4106000000.0 0.522407341225727 -0.8774400192246339
4109000000.0 0.5189995498579062 -0.8878750888069747
4112000000.0 0.5634178990404616 -0.8900914219601637
4115999999.9999995 0.5553263386566212 -0.87983256367489
4119000000.0 0.5568087943672246 -0.8375297384457262
4122000000.0 0.5158866268854154 -0.8573730559572479
4125000000.0 0.5258444413662968 -0.8803738544800406
4128000000.0 0.5581510142862179 -0.8473910930813826
4131000000.0 0.5417489008001182 -0.8293367729135265
4134000000.0000005 0.5602386547968808 -0.8188067341532362
4138000000.0 0.5105951827361755 -0.8370701805442085
4141000000.0 0.5619740709593875 -0.8399136656682044
4144000000.0 0.5429632605462024 -0.8250165972125408
4147000000.0000005 0.5651597043810149 -0.8371072752142148
4150000000.0000005 0.5558897460986485 -0.916856823547053
4152999999.9999995 0.5410918324237558 -0.8719888077785692
4155999999.9999995 0.5848178484093378 -0.869325718718076
4159000000.0 0.5297089675542033 -0.8355150220335752
4162000000.0 0.5722481261429552 -0.848661421210156
4166000000.0000005 0.5547650437847864 -0.8708547621729248
4168999999.9999995 0.5277974648813908 -0.8519686329906433
4171999999.9999995 0.5746801310621104 -0.8583048697898192
4175000000.0 0.5698041432649444 -0.884590773029268
4178000000.0 0.5697377475440467 -0.8758498331800281
4181000000.0 0.5276898762132625 -0.8730835296323081
4184000000.0 0.549326711211101 -0.8551698021404157
4187999999.9999995 0.5410268808008505 -0.8487734464771618
4191000000.0 0.5786209811808511 -0.8186016653143336
4194000000.0 0.5452921188592753 -0.8291541065431591
4197000000.0 0.5601396243094137 -0.8628463746832409
4200000000.0 0.5640844810761512 -0.8519946507795054
4203000000.0000005 0.5883678077954012 -0.8693142801547283
4206000000.0000005 0.5631580140581182 -0.8584975253267674
4208999999.9999995 0.5717844378016648 -0.8454310858511817
4211999999.9999995 0.5357444462721913 -0.8628817964015632
4216000000.0 0.5671841776746105 -0.8326066988392584
4219000000.0000005 0.5735270894147241 -0.8637979923302371
4222000000.0000005 0.5442176908015178 -0.862359171350256
4224999999.9999995 0.5458942941351828 -0.845306551395137
4227999999.9999995 0.5685371810341264 -0.8681788056487268
4231000000.0 0.5722419822326577 -0.8690846709839263
4234000000.0 0.5433086627998711 -0.874491203281138
4238000000.0000005 0.555840026361224 -0.8668934746861878
4240999999.9999995 0.5593561048017237 -0.8521119777151545
4244000000.0 0.5453165098709434 -0.8405929382428563
4247000000.0 0.5656074618049887 -0.8509544278874752
4250000000.0 0.5278284906785626 -0.8323851940572711
4253000000.0 0.5376916209968929 -0.8151438677223087
4256000000.0 0.5636885002895934 -0.8649091895298453
4259000000.0000005 0.5318806134531239 -0.8223781330324873
4261999999.9999995 0.5290874421200464 -0.8603151110510112
4266000000.0 0.5482513802474552 -0.8664892475887599
4269000000.0 0.5732378651190214 -0.8450045090857045
4272000000.0000005 0.5626091293852731 -0.8333396295969295
4275000000.0000005 0.5557682089690742 -0.8568774178461012
4277999999.9999995 0.5793003008100512 -0.8565586894853723
4280999999.9999995 0.5456034250624058 -0.8308994914111134
4284000000.0 0.5271058750872815 -0.857516245095226
4288000000.0000005 0.5873732871252981 -0.8240040532141393
4291000000.0000005 0.5389853709225312 -0.8381052805400225
4293999999.9999995 0.5432345048560859 -0.8485860528041225
4297000000.0 0.5686326635732826 -0.8401085592367565
4300000000.0 0.5436299398161987 -0.821192892183279
4303000000.0 0.524176715513075 -0.849493521972134
4306000000.0 0.5732971112193259 -0.8583263784089208
4309000000.0 0.5654049486435901 -0.8422379142369524
4312000000.0 0.6023638608051196 -0.8290138467266958
4316000000.0 0.5532989408887476 -0.8590461757937721
4319000000.0 0.5570474173127031 -0.8050631202223575
4322000000.0 0.5138315524987771 -0.8532230824779754
4325000000.0 0.5553683459868082 -0.8426480910820946
4328000000.0 0.5375007562291395 -0.8360811139011154
4331000000.0 0.5252592072700896 -0.8543155922978718
4334000000.0 0.5666358494301498 -0.8422315238170135
4338000000.0 0.5553358653524982 -0.8305874034437525
4341000000.0 0.5747746525250783 -0.8579250804413363
4344000000.0 0.5684053096906481 -0.8588255678282777
4347000000.0 0.5352092696383774 -0.8573163839355216
4350000000.0 0.5506646981942588 -0.8160352880719156
4353000000.0 0.5564470081960898 -0.7999491590598163
4356000000.0 0.5404575317541312 -0.8598852621106039
4359000000.0 0.5274416812583324 -0.8017985628392608
4362000000.0 0.5182577278968102 -0.8846682245376772
4366000000.0 0.5579823312394946 -0.8759922734042882
4369000000.0 0.536448603472654 -0.8207710342224668
4372000000.0 0.5083526320146567 -0.8567600386746278
4375000000.0 0.5700354779374985 -0.820361303495266
4378000000.0 0.52646765794923 -0.823029409366745
4381000000.0 0.5539907525759671 -0.8397733549025049
4384000000.0 0.5710061495099162 -0.9184909306683775
4388000000.0 0.5415895330777487 -0.8240163096179538
4391000000.0 0.5489784845653031 -0.8571247566010386
4394000000.0 0.5157011892213079 -0.8202797047116994
4397000000.0 0.5387098507714979 -0.8351833047784486
4400000000.0 0.5382333675450837 -0.8666510998159338
4403000000.0 0.5502110923158849 -0.8512323792520988
4406000000.0 0.5165140582089663 -0.8688642949493528
4409000000.0 0.5515507965731612 -0.888122255181227
4412000000.0 0.47766978405023297 -0.8662724167394529
4416000000.0 0.5293557088281644 -0.8506452981338657
4419000000.0 0.5310107347364121 -0.8560094590686441
4422000000.0 0.5612259567514678 -0.8305653293708977
4425000000.0 0.573492577631915 -0.863891198141804
4428000000.0 0.5338334026919678 -0.8579152204591713
4431000000.0 0.5618090849711104 -0.8615848286575192
4434000000.0 0.518133962281927 -0.8533145208436861
4438000000.0 0.5374416747925632 -0.872165470701831
4441000000.0 0.5403961051929334 -0.8729594321611942
4444000000.0 0.5345755167136348 -0.8301110509133699
4447000000.0 0.5210041928755361 -0.8541613978415417
4450000000.0 0.5328886248129358 -0.8415444762906441
4453000000.0 0.5605742155796039 -0.859329833480678
4456000000.0 0.5160781237089704 -0.8360274101759458
4459000000.0 0.5010296802757771 -0.8194236241438845
4462000000.0 0.563233962898902 -0.8993948099003535
4466000000.0 0.5465971340510258 -0.8827873138183552
4469000000.0 0.5508229532460938 -0.840018051593725
4472000000.0 0.5262732200899269 -0.8893719065932559
4475000000.0 0.5159495642414982 -0.8279756252341854
4478000000.0 0.5443687724673631 -0.8953884009481814
4481000000.0 0.5163095952523764 -0.8357801231746285
4484000000.0 0.4967759059457034 -0.8839923396415705
4488000000.0 0.5086126189544526 -0.8536143968081173
4491000000.0 0.5211523532445282 -0.8558260934974469
4494000000.0 0.5323647510026319 -0.8455170634683395
4497000000.0 0.5306799465369239 -0.8461490082721355
4500000000.0 0.538095644401946 -0.8628367952257273
4503000000.0 0.546634917525987 -0.8819204743240551
4506000000.0 0.540141118892273 -0.8586462640030581
4509000000.0 0.5130329649544847 -0.8439790567743957
4512000000.0 0.5112566228835407 -0.8609634188594812
4516000000.0 0.5554150174319479 -0.8629331248887346
4519000000.0 0.5494834146163696 -0.8452894335945836
4522000000.0 0.5273730059552678 -0.8702324531668653
4525000000.0 0.5570018948418668 -0.8267163271383201
4528000000.0 0.5527778353218469 -0.8816224952118521
4531000000.0 0.5371986829620926 -0.8373295587672949
4534000000.0 0.5324245983376685 -0.8413851799481369
4538000000.0 0.5196969575026726 -0.8496061864381856
4541000000.0 0.5019748719427504 -0.8608295652434284
4544000000.0 0.520818274498902 -0.8508906161504656
4547000000.0 0.5236869731790426 -0.8559610586966242
4550000000.0 0.49998958424699014 -0.8615034062673681
4553000000.0 0.5154642786211946 -0.8709332949863979
4556000000.0 0.4989881166684539 -0.8444666863274232
4559000000.0 0.5211409569586859 -0.8664380465436012
4562000000.0 0.515172123268962 -0.8826853911163721
4566000000.0 0.5258886981851592 -0.8571159460691552
4569000000.0 0.5134571390885736 -0.8500562606445428
4572000000.0 0.5270812842017314 -0.8563292616075655
4575000000.0 0.5177370999561105 -0.8723731682347909
4578000000.0 0.5438079920144189 -0.8929607761511547
4581000000.0 0.5111775553815272 -0.8767519659541564
4584000000.0 0.515250642091402 -0.8608568959298877
4588000000.0 0.533338940181236 -0.8656572594298445
4591000000.0 0.5372188110762723 -0.8426689692862641
4594000000.0 0.5043543935923628 -0.8664804311008754
4597000000.0 0.5330983489158077 -0.8840982137242094
4600000000.0 0.483296484113968 -0.8437393918224748
4603000000.0 0.5114482861705771 -0.8954550274128554
4606000000.0 0.5169046991528699 -0.8779943271137269
4609000000.0 0.5114144442696719 -0.8719147981542232
4612000000.0 0.522345291574047 -0.8789533119367445
4616000000.0 0.49280651707179357 -0.8486931895790795
4619000000.0 0.5113781131328758 -0.8585925927419914
4622000000.0 0.5170981740220959 -0.8632369916443365
4625000000.0 0.4837516201039371 -0.8509617512924462
4628000000.0 0.5213475943426966 -0.8567460049784297
4631000000.0 0.500581675381077 -0.877995298402326
4634000000.0 0.5197831049614308 -0.8568339149031312
4638000000.0 0.5169596101587719 -0.8651525622239472
4641000000.0 0.5252321465224186 -0.8569384370753168
4644000000.0 0.5069078908294201 -0.8669342549368677
4647000000.0 0.5142393178866558 -0.864951265711492
4650000000.0 0.4882376503991622 -0.8720949077293036
4653000000.0 0.5351186181228046 -0.8811324126496749
4656000000.0 0.5190031203833254 -0.8735479246021554
4659000000.0 0.4962249085613783 -0.8812719874606119
4662000000.0 0.518065104128855 -0.8709613470698143
4666000000.0 0.49865641649571674 -0.879808904618423
4669000000.0 0.518488773382186 -0.8532214996090342
4672000000.0 0.4919755758457267 -0.8801144159237434
4675000000.0 0.4910607098980088 -0.869160826256443
4678000000.0 0.5002389721884771 -0.8416672860966073
4681000000.0 0.49571264219473227 -0.9089425622239763
4684000000.0 0.47560241647521995 -0.8912265429992944
4688000000.0 0.48270188264954994 -0.8892067941669342
4691000000.0 0.534648756965257 -0.8679261732357817
4694000000.0 0.5024477214740468 -0.8676904579277148
4697000000.0 0.45517860252874953 -0.8647546935405691
4700000000.0 0.5035101683943102 -0.8616159460062994
4703000000.0 0.5101997244451537 -0.8125487971500424
4706000000.0 0.5073968252247919 -0.8830744284478814
4709000000.0 0.4915873610933734 -0.8898984789361704
4712000000.0 0.5047710435100011 -0.8774305042646289
4716000000.0 0.5118059154613245 -0.8775537963418781
4719000000.0 0.5238453583686122 -0.8817278637243625
4722000000.0 0.5421578134180728 -0.8778168741983686
4725000000.0 0.5162451243799075 -0.8877892664953765
4728000000.0 0.5054477060713736 -0.8844884396367744
4731000000.0 0.5372632726664742 -0.8851208911684483
4734000000.0 0.49292803219153836 -0.8573060902425538
4738000000.0 0.5235962543265681 -0.8867472020462832
4741000000.0 0.5107190677493697 -0.8975830303246027
4744000000.0 0.5028330912717546 -0.9033907957984374
4747000000.0 0.5197985638725805 -0.8374703307407486
4750000000.0 0.49722416828906774 -0.862035461245737
4753000000.0 0.5455526661402739 -0.8739796340978317
4756000000.0 0.5348295158129102 -0.8892020783896231
4759000000.0 0.5037369219155504 -0.8759538136677023
4762000000.0 0.4894631501981744 -0.909868333784767
4766000000.0 0.4789163568363398 -0.8880860437927862
4769000000.0 0.5022456603057466 -0.8772211002238252
4772000000.0 0.49683885713003423 -0.900254598543388
4775000000.0 0.49260200271628085 -0.945043170980697
4778000000.0 0.49353576494475737 -0.8527455638125402
4781000000.0 0.5300201067975172 -0.8743224291842262
4784000000.0 0.5303917103961986 -0.8613736054217855
4788000000.0 0.5062817009999975 -0.9013615400836789
4791000000.0 0.49706406441453266 -0.8729307947400522
4794000000.0 0.5345570280271723 -0.8813720459297576
4797000000.0 0.49975006604474026 -0.8849697463100828
4800000000.0 0.4955745061019662 -0.87223654998692
4803000000.0 0.4637687607987886 -0.8989672872941912
4806000000.0 0.5176567544211061 -0.8897286570828692
4809000000.0 0.4606800990790407 -0.8888453337536046
4812000000.0 0.4567722414143681 -0.8804782814577914
4816000000.0 0.5128794916576973 -0.8464096697256673
4819000000.0 0.530213535588796 -0.8705609749334575
4822000000.0 0.518753088652949 -0.8925783915332783
4825000000.0 0.53680785179679 -0.8838634974947902
4828000000.0 0.5017240642827656 -0.8827412677048854
4831000000.0 0.4945396716019558 -0.923071519395329
4834000000.0 0.5222936005607923 -0.8763826237546273
4838000000.0 0.5039879429045696 -0.9152891033013419
4841000000.0 0.4963475710304335 -0.8864652773736518
4844000000.0 0.5433178076754834 -0.874914296304419
4847000000.0 0.520950965960614 -0.8625948337371556
4850000000.0 0.4948848330359205 -0.9150705407288083
4853000000.0 0.49821686783164526 -0.863604013313138
4856000000.0 0.5007412484256211 -0.8542228263501253
4859000000.0 0.5091081151427506 -0.9257796095679591
4862000000.0 0.5252372344106533 -0.878531601011519
4866000000.0 0.49479939910536896 -0.9127609882672043
4869000000.0 0.49372150855162394 -0.9009503848902121
4872000000.0 0.49003616029465147 -0.940654606633866
4875000000.0 0.5521619741792293 -0.9070941365631273
4878000000.0 0.5234816596591689 -0.9188459163852591
4881000000.0 0.5134554559371843 -0.9627110425657633
4884000000.0 0.5384945517147034 -0.8858226595462145
4888000000.0 0.5313585132499858 -0.8688340441339323
4891000000.0 0.5546837915544981 -0.9102253944749359
4894000000.0 0.48684003666623155 -0.8986486278775514
4897000000.0 0.5399520440835324 -0.8676554796330292
4900000000.0 0.5131395950281666 -0.8966543858435848
4903000000.0 0.5397501590669987 -0.8956981973871813
4906000000.0 0.5184935524409796 -0.9327736969932813
4909000000.0 0.4930030721920534 -0.8889589391596633
4912000000.0 0.5218184935714231 -0.8930020868984531
4916000000.0 0.5337316970561354 -0.8973451951048212
4919000000.0 0.5604407419257822 -0.8909526973251723
4922000000.0 0.5402673768111355 -0.9109549002329271
4925000000.0 0.4750111372926945 -0.8999984295671982
4928000000.0 0.5767442140871646 -0.8511569105948832
4931000000.0 0.5529927297688454 -0.8864741201718979
4934000000.0 0.5228985447707833 -0.8316727393261857
4938000000.0 0.48808297076860724 -0.86960015087427
4941000000.0 0.5265464769630059 -0.8664027594009394
4944000000.0 0.5169776955174372 -0.815150462444507
4947000000.0 0.5006204028708572 -0.8703279859927896
4950000000.0 0.5109694257556706 -0.861970950196704
4953000000.0 0.5025855325163627 -0.9320805428002565
4956000000.0 0.4594589485075883 -0.8965012708909013
4959000000.0 0.46741627594863894 -0.8818395977910557
4962000000.0 0.4873057104551884 -0.913231949393175
4966000000.0 0.5381616848535483 -0.8833099682699854
4969000000.0 0.5864398649032119 -0.902200722219977
4972000000.0 0.5097366996341307 -0.9177993061677657
4975000000.0 0.5258305368306627 -0.8605820266169562
4978000000.0 0.5124739979672533 -0.8840575843786492
4981000000.0 0.514295304159768 -0.9316729640575444
4984000000.0 0.5299654367969735 -0.8799200472067968
4988000000.0 0.5286913803009973 -0.8475462427831488
4991000000.0 0.5912379599549243 -0.8899996699567846
4994000000.0 0.5379469597669674 -0.8584401178197172
4997000000.0 0.5185646902632922 -0.9001019153377134
5000000000.0 0.5366980226401498 -0.9152176122724742
5003000000.0 0.5734753925622009 -0.8945990684203545
5006000000.0 0.5786059954918338 -0.9492159130597848
5009000000.0 0.5594503985189091 -0.8944993085959598
5012000000.0 0.5030334343464389 -0.9218220641422893
5016000000.0 0.5416568634509884 -0.8897363330821637
5019000000.0 0.5255260858756012 -0.8783824467814213
5022000000.0 0.5126945050130156 -0.8770489488339943
5025000000.0 0.558769812835622 -0.9536303286802814
5028000000.0 0.490356211935283 -0.9122031210632474
5031000000.0 0.5409066177826398 -0.8748705111624361
5034000000.0 0.5181769563237826 -0.9386863939865464
5038000000.0 0.5010135637735422 -0.8766665933572844
5041000000.0 0.5647749714876192 -0.8748878926424217
5044000000.0 0.5507320519444661 -0.8489883473725891
5047000000.0 0.5494888042848288 -0.897928384473328
5050000000.0 0.626822192292546 -0.8449599482085728
5053000000.0 0.55694981545534 -0.9503575557364352
5056000000.0 0.56919823282588 -0.861549646057644
5059000000.0 0.5330675573016364 -0.8453867283969747
5062000000.0 0.5186169861531269 -0.9087931904028301
5066000000.0 0.5517262632763038 -0.8295817513421444
5069000000.0 0.5139213894387585 -0.8855921782699514
5072000000.0 0.5357837167029137 -0.863018876487584
5075000000.0 0.580811045309991 -0.8613408715204813
5078000000.0 0.5136477876373973 -0.9047285095408143
5081000000.0 0.5094283585296321 -0.9089241027550023
5084000000.0 0.526851899349952 -0.9201136601484918
5088000000.0 0.5476207082245428 -0.8525456816867636
5091000000.0 0.49351407640324496 -0.9344087228725247
5094000000.0 0.570856623357002 -0.843733309787738
5097000000.0 0.6042162482389946 -0.8897132612807553
5100000000.0 0.5414106032892569 -0.8990914409502685
5103000000.0 0.5307809281501213 -0.887206048631172
5106000000.0 0.5998902144312767 -0.9076846784704427
5109000000.0 0.6178947794484265 -0.8490190545126919
5112000000.0 0.502134936082125 -0.865244124380828
5116000000.0 0.5259094635373632 -0.8286112318545398
5119000000.0 0.5492743280440159 -0.8885922923144005
5122000000.0 0.515352220408456 -0.8267256973571324
5125000000.0 0.525918481752576 -0.8598052132263658
5128000000.0 0.5124986416569948 -0.8989649195818593
5131000000.0 0.51257811438412 -0.8911369141254997
5134000000.0 0.5861716753383069 -0.8730498274820364
5138000000.0 0.5565350327368235 -0.8573695284104939
5141000000.0 0.621014969675324 -0.8661630055703198
5144000000.0 0.6054255002957235 -0.8503324616115255
5147000000.0 0.5638161290012353 -0.8938630353277283
5150000000.0 0.5643225177405944 -0.8808556777876158
5153000000.0 0.5727077030961517 -0.8873798780344027
5156000000.0 0.5853285379069436 -0.8893893438359075
5159000000.0 0.5760425893213931 -0.9340727806400642
5162000000.0 0.5591927095555757 -0.8741232587623493
5166000000.0 0.5384324961048677 -0.9218602372417438
5169000000.0 0.5990080581971364 -0.8847679873431905
5172000000.0 0.5318612827338942 -0.8582518554922239
5175000000.0 0.5792113905526168 -0.8756428259865019
5178000000.0 0.5648413035450469 -0.8877903803816705
5181000000.0 0.5698934621210812 -0.8657215820635744
