! Created with skrf 1.8.0 (http://scikit-rf.org).
# Hz S RI R 50.0 
!freq ReS11 ImS11
4000000000.0 -0.10136993715233877 -1.0743625053820987
4003000000.0 -0.1312316857940324 -1.0527102807509618
4006000000.0 -0.1390897967787661 -1.0001895621448227
4009000000.0000005 -0.1642453035890207 -1.0382357860621816
4011999999.9999995 -0.11875389098594899 -1.0664838632120865
4016000000.0 -0.14917365987979503 -1.0395567314170822
4019000000.0 -0.11719364054501533 -0.9917006929446736
4022000000.0000005 -0.14370544138906774 -1.0668806722577635
4025000000.0000005 -0.18258695944092657 -1.0072053621052552
4027999999.9999995 -0.1871796248531904 -1.005684658539018
4030999999.9999995 -0.17035271039693 -1.0260820537754225
4034000000.0 -0.20695897962366805 -0.9771258768325456
4038000000.0000005 -0.18470235599874188 -0.9918968486411764
4041000000.0000005 -0.18398692016845725 -0.9724430522492592
4043999999.9999995 -0.18833222254050663 -1.0123448526966543
4046999999.9999995 -0.22290814895136354 -1.0162248301016883
4050000000.0 -0.20160417844395018 -1.0015725367644672
4053000000.0 -0.21851185439540602 -0.9839874441189972
4056000000.0 -0.22501156482136186 -0.9838719318779428
4059000000.0 -0.2733922901999539 -0.9556470041540274
4062000000.0000005 -0.24476959894326347 -1.0090685621989453
4066000000.0 -0.2227160453931718 -0.9581624918655982
4069000000.0 -0.28315030923848794 -1.0026517100832715
4072000000.0 -0.2850774988295144 -0.9872355826701353
4075000000.0 -0.2787432282588118 -0.9761063623709744
4078000000.0000005 -0.2769322177874738 -0.988228515462474
4081000000.0000005 -0.3156716052611094 -0.9817556081080547
4083999999.9999995 -0.30859556797909704 -0.9866238045059404
4088000000.0 -0.28716288937573475 -0.9768614619923207
4091000000.0 -0.2769324266892996 -1.0068811470236856
4094000000.0000005 -0.3012020880515141 -0.9664394419262727
4097000000.0000005 -0.31416383791026486 -0.9778362053009654
4099999999.9999995 -0.3309811188376094 -0.964805704627422
4102999999.9999995 -0.3414122773700833 -0.9652591516807743
4106000000.0 -0.35728194561990484 -0.9497075941029042
4109000000.0 -0.350149777197556 -0.9509446365547264
4112000000.0 -0.3745087422113351 -0.9344496303000515
4115999999.9999995 -0.39532487552159246 -0.9602741043192351
4119000000.0 -0.36084050755040425 -0.9532763363950784
4122000000.0 -0.40033426415808615 -0.9161630916507524
4125000000.0 -0.38434396390431996 -0.9316581625880058
4128000000.0 -0.3525907365385946 -0.9365090599742247
4131000000.0 -0.4234617876565796 -0.9084447594729285
4134000000.0000005 -0.3786287098276742 -0.9365227177292751
4138000000.0 -0.43768335669683045 -0.9081027119759815
4141000000.0 -0.41118735986880917 -0.9337686835866978
4144000000.0 -0.41474456148146044 -0.926695998425782
4147000000.0000005 -0.43847389401493525 -0.9442570339852988
4150000000.0000005 -0.46433756956182304 -0.8918123430032946
4152999999.9999995 -0.41129220963058477 -0.8842561855575264
4155999999.9999995 -0.47499613610510505 -0.9179249080822599
4159000000.0 -0.4741153844092158 -0.8561469051142031
4162000000.0 -0.483486276319169 -0.8887880701440399
4166000000.0000005 -0.5023528657389885 -0.9138416299614984
4168999999.9999995 -0.5084407504648767 -0.8564621254623545
4171999999.9999995 -0.5104136762292537 -0.882629336974517
4175000000.0 -0.5191496432244016 -0.9042111221975535
4178000000.0 -0.5117824938447367 -0.8715534188447016
4181000000.0 -0.5495598147655736 -0.8191048601563935
4184000000.0 -0.51802276017191 -0.8307759442198762
4187999999.9999995 -0.5581628903524106 -0.8173071228749454
4191000000.0 -0.549457377874784 -0.855703184487054
4194000000.0 -0.5818477477713878 -0.8424102756524976
4197000000.0 -0.5770176813640996 -0.8424978295069263
4200000000.0 -0.5758847749961753 -0.8700503760263122
4203000000.0000005 -0.6239935369127713 -0.8480823820450835
4206000000.0000005 -0.6012443017689636 -0.8190995154377202
4208999999.9999995 -0.617521904971812 -0.7739604248360243
4211999999.9999995 -0.665563454276441 -0.7679844639481461
4216000000.0 -0.6409205887899889 -0.829662242895044
4219000000.0000005 -0.6322357857188009 -0.7786722004654696
4222000000.0000005 -0.6352721492255888 -0.7678600670475935
4224999999.9999995 -0.6663026663046262 -0.7491052759349199
4227999999.9999995 -0.6900153308553466 -0.7259259318769358
4231000000.0 -0.717104878913629 -0.7350777632652109
4234000000.0 -0.7355216225542927 -0.7115741470839325
4238000000.0000005 -0.7190703375530904 -0.7106060115564179
4240999999.9999995 -0.7057189631006224 -0.6511722346495843
4244000000.0 -0.7245791040904259 -0.6943686191071184
4247000000.0 -0.737010074132545 -0.6761834769359893
4250000000.0 -0.7379257098287326 -0.6701752870842668
4253000000.0 -0.7600402667771967 -0.6580446701519647
4256000000.0 -0.8274890685233749 -0.6657169362947931
4259000000.0000005 -0.7839285591302748 -0.5980237060900742
4261999999.9999995 -0.8089872591378084 -0.608637981619017
4266000000.0 -0.8310003776862258 -0.5863827882779976
4269000000.0 -0.802651168669369 -0.5992166068198945
4272000000.0000005 -0.7930002187125467 -0.5839385082258846
4275000000.0000005 -0.8139501051593699 -0.6041209964112428
4277999999.9999995 -0.8586599902578642 -0.5792372162782291
4280999999.9999995 -0.8565194545446541 -0.5630460484737139
4284000000.0 -0.8837765952642754 -0.5157100442462964
4288000000.0000005 -0.8403770965271601 -0.5149064138804182
4291000000.0000005 -0.8834794283377712 -0.49555768671882927
4293999999.9999995 -0.912934526200246 -0.48441544370125555
4297000000.0 -0.8788040246946696 -0.483185014217887
4300000000.0 -0.9047156764593397 -0.4731863062246825
4303000000.0 -0.9122241550824599 -0.4553700299167379
4306000000.0 -0.9280782620836681 -0.42393849201163547
4309000000.0 -0.9487010027424533 -0.4304491668124203
4312000000.0 -0.9537896834649107 -0.37749004581370804
4316000000.0 -0.9345732699958126 -0.3602170845609884
4319000000.0 -0.9436200921121244 -0.37489330681030136
4322000000.0 -0.9898445895011704 -0.3173856509932321
4325000000.0 -0.9794085502049645 -0.3063628584597864
4328000000.0 -0.9670813317839351 -0.29098274506697636
4331000000.0 -0.9685607980644539 -0.2658854450684712
4334000000.0 -0.9920688632263575 -0.257564284731703
4338000000.0 -0.994708872107357 -0.2472892133019936
4341000000.0 -0.9993583943978643 -0.20785235911022926
4344000000.0 -0.9946624446706948 -0.20688615880361916
4347000000.0 -0.9990157577521142 -0.1733945758261874
4350000000.0 -1.0135740192405507 -0.14231967861420686
4353000000.0 -1.028771091062789 -0.10931514210164933
4356000000.0 -1.0200459174135432 -0.127954484935782
4359000000.0 -1.0416402966115388 -0.06974934097900021
4362000000.0 -1.0069851272275843 -0.073775583158114
4366000000.0 -1.022762478810376 -0.023315428045429465
4369000000.0 -1.0502705264243333 -0.030802460421572864
4372000000.0 -1.0317675287894446 0.00031780795200303524
4375000000.0 -0.9967008237697427 0.0685111961218729
4378000000.0 -1.074721698619137 0.08830645696508871
4381000000.0 -1.058130483859597 0.11405455781680562
4384000000.0 -0.9908292663419341 0.12306864441704785
4388000000.0 -1.0368639854119064 0.14536278051893814
4391000000.0 -0.9762734732143281 0.1715646421564933
4394000000.0 -1.0254707240701098 0.17686930727456213
4397000000.0 -1.0348714289757117 0.21711185625723078
4400000000.0 -0.9874663235067459 0.22446400234414332
4403000000.0 -1.0077207016208265 0.25180113981265767
4406000000.0 -0.9833325490969458 0.3073539983691437
4409000000.0 -0.9710841716718761 0.31794879004015497
4412000000.0 -1.029591917372141 0.23602411743306884
4416000000.0 -1.0176108361119929 0.296318643599713
4419000000.0 -1.0087845906666253 0.3683308091940417
4422000000.0 -0.9813986110440314 0.4635473142874368
4425000000.0 -0.902722453213155 0.44065711558794807
4428000000.0 -0.9353578479810074 0.4833916606223968
4431000000.0 -0.8887125620101365 0.46825666012791056
4434000000.0 -0.9242110664185406 0.52310152714493
4438000000.0 -0.8665679808392627 0.48040529282397226
4441000000.0 -0.8626100429676733 0.5449190994816352
4444000000.0 -0.9028284139079693 0.576070452922091
4447000000.0 -0.9353492883863381 0.5728992933711021
4450000000.0 -0.8480248131067987 0.7088710945412492
4453000000.0 -0.7872619626825432 0.5913917784355651
4456000000.0 -0.8626172672987726 0.6644747828540533
4459000000.0 -0.8966232427769595 0.7758602748220265
4462000000.0 -0.7233005719224295 0.6864986159467242
4466000000.0 -0.7881655952202888 0.7230746069036629
4469000000.0 -0.6947107990728162 0.754089807443407
4472000000.0 -0.7111897971015466 0.7427371717966472
4475000000.0 -0.6930570505358338 0.8489758740080539
4478000000.0 -0.6575877359091085 0.717080410792636
4481000000.0 -0.6702551540877826 0.8391662722045656
4484000000.0 -0.6590749621613758 0.8336608929306751
4488000000.0 -0.5848917391582831 0.8477479718370554
4491000000.0 -0.6053445487588442 0.8363420321031395
4494000000.0 -0.5657790376740359 0.8933823772681075
4497000000.0 -0.5669185666639713 0.916581658321376
4500000000.0 -0.4963867247955544 0.8967483701418622
4503000000.0 -0.5079099219517911 0.9377009348491199
4506000000.0 -0.4995647982391958 0.9384726464832369
4509000000.0 -0.4070458858948806 0.9371263103754157
4512000000.0 -0.43842446247266004 0.9404283954595126
4516000000.0 -0.37684968753665166 0.9566892827239781
4519000000.0 -0.3588181543507546 1.014892096432844
4522000000.0 -0.3559711627048093 0.9918578301725003
4525000000.0 -0.3367842631966469 1.0390803630552958
4528000000.0 -0.2624085209192756 0.9960843003970814
4531000000.0 -0.23942179059693858 1.0014793308519252
4534000000.0 -0.22548574987800823 1.0473585155417395
4538000000.0 -0.21638603806838053 1.0353879306809266
4541000000.0 -0.18610064851082264 1.0424452450377713
4544000000.0 -0.1557248359115017 1.0474674641197093
4547000000.0 -0.09543321948236255 1.0215757232860776
4550000000.0 -0.12477851397144563 1.0234751847677455
4553000000.0 -0.07351176126613496 1.0125582931112271
4556000000.0 -0.06359821627302092 1.0542072417046167
4559000000.0 -0.05874683518800328 1.045163315038631
4562000000.0 -0.0175748380337174 1.0579540925891175
4566000000.0 -0.020490678428512876 1.0501671069754595
4569000000.0 0.014799640779498469 1.0714317980227706
4572000000.0 0.04690961274536526 1.0045974974634646
4575000000.0 0.03335902257256307 0.9918683679215863
4578000000.0 0.08620032593791233 1.037100355483699
4581000000.0 0.1301074852684287 1.0117759887301063
4584000000.0 0.14362338387089943 1.0260616926228057
4588000000.0 0.13495574454946002 0.99058306693204
4591000000.0 0.1872522363398517 0.9991209697774251
4594000000.0 0.23169421058957634 1.0198226040004517
4597000000.0 0.26155238769252454 1.024570707312737
4600000000.0 0.24404633816553506 0.9600882643098239
4603000000.0 0.24833758150686527 0.9646435602738751
4606000000.0 0.27827971146819225 1.016058501376322
4609000000.0 0.3288878985564702 1.0182664427509374
4612000000.0 0.359859438939103 0.9795374381990877
4616000000.0 0.3594048419089293 0.9543303965021593
4619000000.0 0.344617903561768 0.9679069111431507
4622000000.0 0.3922260643740928 0.9606450363537067
4625000000.0 0.3701474073718242 0.9204852605849535
4628000000.0 0.39747130894731453 0.9199495959271298
4631000000.0 0.4745036726434445 0.8957257250953942
4634000000.0 0.4281656299653184 0.9201413262363991
4638000000.0 0.47140311375306576 0.918917270735351
4641000000.0 0.4912449593001595 0.9063475565813772
4644000000.0 0.5032777937774933 0.8886962921684695
4647000000.0 0.49345992049845167 0.88716791697628
4650000000.0 0.565660572766549 0.8676052888209691
4653000000.0 0.5558748893205967 0.8345910192128903
4656000000.0 0.5783490970037417 0.8375292829597984
4659000000.0 0.5530094750949466 0.8208278276475439
4662000000.0 0.5575428955828005 0.8245576396489911
4666000000.0 0.6105549012688043 0.8441847399942889
4669000000.0 0.5947802170312175 0.8454635332131074
4672000000.0 0.6202533378076667 0.7951321438188138
4675000000.0 0.6210102410171854 0.7114181442831173
4678000000.0 0.620425839279553 0.8112442143998564
4681000000.0 0.7184177888033816 0.7158272827759892
4684000000.0 0.6444195626073969 0.7191894886901276
4688000000.0 0.6551262410911747 0.7502757687437638
4691000000.0 0.601796238914899 0.7036077105908956
4694000000.0 0.7568911732393871 0.7215898515741932
4697000000.0 0.7257850099164895 0.749179606421011
4700000000.0 0.7532138808031554 0.7621313807945389
4703000000.0 0.8476694570793158 0.6891034699888611
4706000000.0 0.7013425267710661 0.6871183030683053
4709000000.0 0.7416753874705112 0.6395923481730497
4712000000.0 0.7700968772299636 0.6391615714436195
4716000000.0 0.7585963893146345 0.6738109523319632
4719000000.0 0.8113665729111493 0.6157622945747347
4722000000.0 0.8340391071964085 0.6533714078603716
4725000000.0 0.8242985688147397 0.6155449485904789
4728000000.0 0.8022497627477523 0.6014916121048877
4731000000.0 0.7763337991888859 0.5873727845636115
4734000000.0 0.8100995446670899 0.5970842246866842
4738000000.0 0.8048325776844064 0.5487504647386335
4741000000.0 0.7950275416959645 0.5465520093203794
4744000000.0 0.8570967601489863 0.5478588401117104
4747000000.0 0.8875381106175154 0.5603767378027793
4750000000.0 0.8432734304431491 0.48972762012376814
4753000000.0 0.9169811374520133 0.49281632871627357
4756000000.0 0.8778510816494665 0.4605431648772236
4759000000.0 0.8678694175282211 0.4655858350550033
4762000000.0 0.8475010329365716 0.5096132406779678
4766000000.0 0.8624482166325578 0.44047177921383746
4769000000.0 0.9280553686519042 0.4935306637887257
4772000000.0 0.9321882247868787 0.4433616348950564
4775000000.0 0.8944605322509693 0.43485743368832297
4778000000.0 0.8733676697836473 0.47825673847433176
4781000000.0 0.9011299908574417 0.4310342456064149
4784000000.0 0.8921167096872321 0.44927837617355015
4788000000.0 0.9142827356059126 0.42281141652739707
4791000000.0 0.9478138527673953 0.382390926380209
4794000000.0 0.9148716940760894 0.35706625078164556
4797000000.0 0.969418081106341 0.405474887361557
4800000000.0 0.9629120325777105 0.3495918889193854
4803000000.0 0.9382802580314306 0.37650570466522726
4806000000.0 0.9321773837669056 0.3581550368228743
4809000000.0 0.9406491601578015 0.3534556415926597
4812000000.0 0.9754616380305543 0.34541982902228563
4816000000.0 0.9870884296998079 0.2979271505592592
4819000000.0 0.9580727154106665 0.2953947289737929
4822000000.0 0.9784158169461207 0.30556163876792264
4825000000.0 0.9642272490798623 0.2780246359883599
4828000000.0 0.9482613288503834 0.30199727244818864
4831000000.0 0.9473490425406433 0.28000272038259916
4834000000.0 0.9729097583690322 0.23031880189477622
4838000000.0 0.984169646607385 0.269440679532436
4841000000.0 0.9815632577354411 0.25363529180581357
4844000000.0 0.9705093501665851 0.24791254523843587
4847000000.0 0.990373908456711 0.23743621340542725
4850000000.0 0.985190865100479 0.263910892398664
4853000000.0 0.9934022064814518 0.22337471743346657
4856000000.0 0.9882479891441243 0.21721051945546813
4859000000.0 0.9687256581533775 0.1964271526677577
4862000000.0 0.9957367853442404 0.2001031588555344
4866000000.0 1.005783238067999 0.19678248885862204
4869000000.0 1.008864622664668 0.18136098710068166
4872000000.0 0.995073494665662 0.16734794448861387
4875000000.0 1.0238092112475383 0.16977037731752362
4878000000.0 1.0190748486903705 0.13400821111525513
4881000000.0 0.9977737180163637 0.1611192158273735
4884000000.0 1.015757458577753 0.16526241667673564
4888000000.0 1.0156101152887413 0.16567746637568814
4891000000.0 1.0088116166101984 0.13212450330801412
4894000000.0 0.9914500280270545 0.11812812071093204
4897000000.0 1.0114589249051633 0.12417213347253603
4900000000.0 1.0144174401289154 0.07638320368292967
4903000000.0 1.0140068697457316 0.08944616252853577
4906000000.0 1.0095548324876082 0.10692038517709296
4909000000.0 1.0127653064435949 0.08270594200071302
4912000000.0 1.0108239231425777 0.061462394296920686
4916000000.0 1.0171731280077296 0.08424649041734045
4919000000.0 1.0268320630921643 0.07616859993471548
4922000000.0 1.0275015720301797 0.07490608156371359
4925000000.0 0.9963796722145644 0.06544147170214953
4928000000.0 1.0150827382082956 0.06465363865980323
4931000000.0 1.0315656212870543 0.05353012236633742
4934000000.0 0.9900091301006735 0.06366434230985202
4938000000.0 1.0051877862909353 0.014067777021398276
4941000000.0 1.0215257969893912 0.011947852903617717
4944000000.0 0.9931140159237988 0.03637229646203333
4947000000.0 1.0087364040515487 0.03025427098677791
4950000000.0 1.0291019628669429 0.00410878705356249
4953000000.0 1.0223518446674145 -0.01821170024728469
4956000000.0 1.0313262717123681 -0.034106449672589745
4959000000.0 1.006832988128139 -0.0333550847742915
4962000000.0 1.022385405073968 -0.01739451462526509
4966000000.0 1.014580256739577 -0.006641660573754149
4969000000.0 1.0240719159624945 -0.005900848878904408
4972000000.0 1.0148073557867412 -0.05531763876746676
4975000000.0 1.0069749076368453 -0.025142280608185574
4978000000.0 1.0057779852445135 -0.05267489350082716
4981000000.0 1.0242767976799327 -0.03516944892819629
4984000000.0 1.0154129616503358 -0.012528832009175761
4988000000.0 1.0108127982438586 -0.046739341574814186
4991000000.0 1.0451836173505376 -0.014187225684285099
4994000000.0 1.0148563678565055 -0.031688460220099635
4997000000.0 1.0238986264694871 -0.07513717850898521
5000000000.0 1.0183802665954738 -0.03987773672438477
5003000000.0 1.0560741197542582 -0.05821974742406949
5006000000.0 1.055798821502347 -0.08762789385774455
5009000000.0 1.0259873592438722 -0.05878403962016232
5012000000.0 0.9856595951292002 -0.10431660548226573
5016000000.0 1.0624056215872286 -0.08196127734896103
5019000000.0 1.0079867036624266 -0.09723662546768047
5022000000.0 1.0262436990660346 -0.10020639417252208
5025000000.0 1.1058894904501504 -0.09869812679203022
5028000000.0 1.0352753223275948 -0.13466922011808075
5031000000.0 0.9981898348143416 -0.11452452366534671
5034000000.0 1.0545736293185943 -0.14654883692573195
5038000000.0 0.9795965578651227 -0.12649482016821778
5041000000.0 1.0616578610004783 -0.05594912126681456
5044000000.0 1.0184964442077464 -0.09069285941227306
5047000000.0 1.0451281018374194 -0.09251413983658091
5050000000.0 1.0287141845925327 -0.05298180651358003
5053000000.0 1.0481652877636525 -0.13687256926318875
5056000000.0 1.016393528882519 -0.1003168712161544
5059000000.0 1.043824725654145 -0.06391023508830296
5062000000.0 1.0150563102414927 -0.17939883681252383
5066000000.0 1.0194357242265395 -0.1197905425966852
5069000000.0 1.0101401129539784 -0.16449143531690208
5072000000.0 0.9819616001944625 -0.14651660056436872
5075000000.0 1.020120827355349 -0.1341269989532401
5078000000.0 1.0340006189805202 -0.19947842641051927
5081000000.0 0.9569700304114674 -0.15677022253568584
5084000000.0 1.0385165546719555 -0.1490580409207234
5088000000.0 1.0041452954831027 -0.13193086165603268
5091000000.0 1.023750010445047 -0.2108172668847509
5094000000.0 1.0429483684719434 -0.16131809579276407
5097000000.0 1.063521486773298 -0.1447887252607144
5100000000.0 0.9676816254288901 -0.12877147384850396
5103000000.0 1.028057455470699 -0.18685833461573104
5106000000.0 1.0919963712331484 -0.14936172391346375
5109000000.0 1.0023929635186337 -0.15022481022473327
5112000000.0 1.029226110792186 -0.1895963288633195
5116000000.0 0.9399980294976007 -0.18835425455148147
5119000000.0 1.0167109202268487 -0.15512178402063226
5122000000.0 1.0194066852295762 -0.14955748344010605
5125000000.0 1.0447913434503961 -0.1885271391498497
5128000000.0 1.0207600862001718 -0.22975573068893024
5131000000.0 0.9998572413946496 -0.19343428067295154
5134000000.0 0.9621394546168436 -0.23774822988780822
5138000000.0 1.030320416485692 -0.214016586238925
5141000000.0 0.9892790937110238 -0.14577724191546054
5144000000.0 1.0374394144687653 -0.2203000148348238
5147000000.0 1.043866155750257 -0.19628424768347233
5150000000.0 1.0086534779256313 -0.21167835844077842
5153000000.0 0.9951566702520709 -0.24430063012656913
5156000000.0 0.9937065655246041 -0.23898251737910955
5159000000.0 1.019834495659518 -0.20944799167876796
5162000000.0 1.0043038098930244 -0.23822746450058468
5166000000.0 1.0600357883271274 -0.2818796548460248
5169000000.0 1.0298133576370747 -0.23018341243613039
