! Created with skrf 1.8.0 (http://scikit-rf.org).
# Hz S RI R 50.0 
!freq ReS11 ImS11
4000000000.0 0.4885327009782603 -0.9133121666191233
4003000000.0 0.506326743799562 -0.9554091402561266
4006000000.0 0.4736738521741264 -0.9330410943801967
4009000000.0000005 0.5163327264243873 -0.8876851881048847
4011999999.9999995 0.5278460170806738 -0.9062050545765368
4016000000.0 0.4603823518632635 -0.9414050642634653
4019000000.0 0.48627858356494946 -0.9167018861129043
4022000000.0000005 0.5553617000766587 -0.872624022232384
4025000000.0000005 0.4801735331000163 -0.9278270561445098
4027999999.9999995 0.46690266169116945 -0.9196335635750916
4030999999.9999995 0.4543766957678381 -0.8515944272156338
4034000000.0 0.5261567119246742 -0.9054034863347697
4038000000.0000005 0.4452915297600816 -0.9190419093051014
4041000000.0000005 0.5218307153047245 -0.9423347236675726
4043999999.9999995 0.5463911916146238 -0.9533010300955033
4046999999.9999995 0.5208556213370468 -0.8947377907085684
4050000000.0 0.47068862830686753 -0.9662229774179565
4053000000.0 0.4376927863816439 -0.9035327670903667
4056000000.0 0.4750389079736136 -0.9287979096996817
4059000000.0 0.47934961034530876 -0.861228167052193
4062000000.0000005 0.46367772173276967 -0.9082911092491124
4066000000.0 0.42959360559085347 -0.8446483993081769
4069000000.0 0.4629512563238928 -0.9473075284053518
4072000000.0 0.5468942376256892 -0.8916328692613631
4075000000.0 0.5160920766016416 -0.9695812692151577
4078000000.0000005 0.4924913133891492 -0.9334646710656969
4081000000.0000005 0.5090812206851874 -0.9162325940736031
4083999999.9999995 0.4455952045034499 -0.9550358790108238
4088000000.0 0.5328122922395044 -0.8983650757352443
4091000000.0 0.4850036650373972 -0.9754413444257788
4094000000.0000005 0.489023377411518 -0.8894039210419626
4097000000.0000005 0.45905610981249845 -0.9272911942329307
4099999999.9999995 0.43230757857781044 -0.8925831839780285
4102999999.9999995 0.5024539385278696 -0.9359281270904539
4106000000.0 0.47821438613604483 -0.9219223987771119
4109000000.0 0.4636957922088157 -0.9396304460993462
4112000000.0 0.48920525130596204 -0.9050018906538082
4115999999.9999995 0.48466983487389753 -0.9411005038008323
4119000000.0 0.4626539659825546 -0.9071166500836122
4122000000.0 0.4868605312008709 -0.9341791225532489
4125000000.0 0.49441200821829867 -0.9375871664169148
4128000000.0 0.47602579451741905 -0.9057275243010243
4131000000.0 0.4769369926228684 -0.889110310660998
4134000000.0000005 0.5075681904166085 -0.9362520194916168
4138000000.0 0.4824644426770293 -0.8962385048513641
4141000000.0 0.4862325413230422 -0.921602345807252
4144000000.0 0.5012561119596879 -0.8692438771541646
4147000000.0000005 0.4371773068414784 -0.9012917500628225
4150000000.0000005 0.5023717464741169 -0.9464087732743072
4152999999.9999995 0.47882519101035664 -0.9029455465388051
4155999999.9999995 0.5093699694816669 -0.9148448295526391
4159000000.0 0.5034274605749265 -0.8955466618596333
4162000000.0 0.48999747362534374 -0.8813479266304224
4166000000.0000005 0.4737086813384921 -0.9259571700985509
4168999999.9999995 0.4395218404351848 -0.9098682968795468
4171999999.9999995 0.4630411549343127 -0.9113788091026274
4175000000.0 0.47916243707466494 -0.9060229300268525
4178000000.0 0.4840276735348422 -0.911865967487724
4181000000.0 0.4666603978479482 -0.9158942701562087
4184000000.0 0.47156622251367686 -0.8950612711154209
4187999999.9999995 0.4525344216075091 -0.875901987868339
4191000000.0 0.4897849738778287 -0.8727894591822796
4194000000.0 0.4715238387558994 -0.9099281202824003
4197000000.0 0.4680701421110222 -0.8958865256662056
4200000000.0 0.4851978925418138 -0.8884888044510595
4203000000.0000005 0.5069061814183424 -0.8925617742483889
4206000000.0000005 0.495460055793039 -0.9166060615226511
4208999999.9999995 0.49331941216913006 -0.8789114653248697
4211999999.9999995 0.4610404805192529 -0.9106136598957137
4216000000.0 0.50193478845672 -0.8903915062829313
4219000000.0000005 0.4937064379580514 -0.9232195498154723
4222000000.0000005 0.4717803747322019 -0.9065702397816676
4224999999.9999995 0.48025497594398164 -0.8964121553371647
4227999999.9999995 0.481549527004805 -0.8984890876981395
4231000000.0 0.46686648163472677 -0.9111871107961143
4234000000.0 0.4861477974416859 -0.9125076906425488
4238000000.0000005 0.4673980500457615 -0.9205811405078368
4240999999.9999995 0.4477377825394933 -0.9049953735843971
4244000000.0 0.467781100305277 -0.883198800492551
4247000000.0 0.46983872664822607 -0.9029978761870339
4250000000.0 0.4633168162121104 -0.8831297881220364
4253000000.0 0.46190083829979134 -0.8811032729784735
4256000000.0 0.4741476882905957 -0.9258424613188342
4259000000.0000005 0.4381876980349578 -0.8760340403370782
4261999999.9999995 0.45042048896506787 -0.9194419129847016
4266000000.0 0.45554427887363974 -0.9195377338192624
4269000000.0 0.47070020757834113 -0.8872388541094925
4272000000.0000005 0.4635524610731784 -0.9004798586083885
4275000000.0000005 0.47087489527563975 -0.9047081151328895
4277999999.9999995 0.487924205720759 -0.9170690660516104
4280999999.9999995 0.5013906410368774 -0.8989618602760264
4284000000.0 0.4345087313695812 -0.9054378667640199
4288000000.0000005 0.48637101689615647 -0.8933373621448935
4291000000.0000005 0.44831579403963223 -0.8763003052999356
4293999999.9999995 0.451571131841168 -0.9009615440667129
4297000000.0 0.4780975676809436 -0.877342519473011
4300000000.0 0.46878089665615796 -0.8912910215157456
4303000000.0 0.4813542572820977 -0.9188702553112379
4306000000.0 0.4703896799622144 -0.9176484568377232
4309000000.0 0.473643023509545 -0.914456145459897
4312000000.0 0.4994048514186088 -0.8879898822891202
4316000000.0 0.48499076768259247 -0.8960866936954299
4319000000.0 0.4799181944046019 -0.8921837665281852
4322000000.0 0.41602339592235105 -0.8823942608745576
4325000000.0 0.44484880417867073 -0.919990219617413
4328000000.0 0.4347353234663577 -0.8843121051110272
4331000000.0 0.4572487451196507 -0.9257021357708296
4334000000.0 0.4507009946186997 -0.9302778851320468
4338000000.0 0.4786341105860569 -0.8979453095922504
4341000000.0 0.4664108186961174 -0.9268377718154712
4344000000.0 0.47800934105781323 -0.9222193137177114
4347000000.0 0.44402399645735535 -0.9142581347980617
4350000000.0 0.4315507772424138 -0.8852605249540882
4353000000.0 0.481094314701458 -0.8654903300064788
4356000000.0 0.43716508774458696 -0.8943055762731815
4359000000.0 0.4435506465235479 -0.8695793076955151
4362000000.0 0.41138959394053876 -0.9414419744373108
4366000000.0 0.45553229195997336 -0.9092767302168886
4369000000.0 0.41762071772890685 -0.8757570115472354
4372000000.0 0.42572184454083095 -0.9175998780814009
4375000000.0 0.4539028146650503 -0.8845006822452735
4378000000.0 0.4467198732937795 -0.8708640234410128
4381000000.0 0.44833830965616267 -0.8819168196737778
4384000000.0 0.4590972984861812 -0.9785320641022709
4388000000.0 0.4613926571680014 -0.8909295965352785
4391000000.0 0.4618488821877351 -0.9139749977242058
4394000000.0 0.4353980557467949 -0.8805699843835753
4397000000.0 0.43423908862800986 -0.9000092589176394
4400000000.0 0.453885464258593 -0.9289196808838234
4403000000.0 0.4646803492595051 -0.9212552861766925
4406000000.0 0.4360718259518242 -0.9083559407365125
4409000000.0 0.4536643857028233 -0.9504176719975075
4412000000.0 0.387184870707587 -0.9373645058968468
4416000000.0 0.4421624497100056 -0.9115700549496164
4419000000.0 0.4340661201464879 -0.9234279593741527
4422000000.0 0.44566726259670975 -0.8777811732256109
4425000000.0 0.4672862636196826 -0.9159090573142168
4428000000.0 0.4410639808168762 -0.9196865022155014
4431000000.0 0.4524000307083546 -0.9186558829959122
4434000000.0 0.4156003240567317 -0.9092323992364428
4438000000.0 0.44677272278641994 -0.9333645934304797
4441000000.0 0.44771242867043626 -0.9229081957085695
4444000000.0 0.42661188072301076 -0.8848392140125939
4447000000.0 0.4177716179727097 -0.9179810069321012
4450000000.0 0.4456988164396348 -0.9012054297745706
4453000000.0 0.4586155738194149 -0.9249911960453279
4456000000.0 0.4089971617512139 -0.8953916838639449
4459000000.0 0.40966272600825426 -0.8917277084063923
4462000000.0 0.45967661039948143 -0.9604765523336671
4466000000.0 0.4472570156361143 -0.9591111252481167
4469000000.0 0.4514681418489436 -0.9034143243359392
4472000000.0 0.436156343722942 -0.9363584569682243
4475000000.0 0.4217788243466722 -0.8892720255217477
4478000000.0 0.4284439968178935 -0.9596161983761371
4481000000.0 0.4242581210323364 -0.9054508016206659
4484000000.0 0.3960411190522237 -0.9481391852649468
4488000000.0 0.415552508075498 -0.9091315394252828
4491000000.0 0.40890447106182537 -0.9293205718510533
4494000000.0 0.4289992219005323 -0.9099591322593175
4497000000.0 0.4379730110336572 -0.913145531405885
4500000000.0 0.4397995178520378 -0.9211725142481209
4503000000.0 0.4448416769228287 -0.9337014294632151
4506000000.0 0.4244867616213865 -0.9125494441420288
4509000000.0 0.39366833691154673 -0.8922165372527278
4512000000.0 0.39704240951310676 -0.9117484100825695
4516000000.0 0.4328718720945783 -0.9335585747663236
4519000000.0 0.4368132699514855 -0.8950068431953404
4522000000.0 0.40097786009517017 -0.8921262853580596
4525000000.0 0.4525358411115711 -0.9156693731328738
4528000000.0 0.4254031393403423 -0.954465629109386
4531000000.0 0.41970979016082555 -0.908064776854818
4534000000.0 0.3979129232950048 -0.9015074145540424
4538000000.0 0.4173955305013115 -0.9126143150945413
4541000000.0 0.37349641857929056 -0.9177212378217126
4544000000.0 0.41704442340341646 -0.9433343534939371
4547000000.0 0.4361860640424993 -0.897950131620937
4550000000.0 0.38681109772731925 -0.9514113162928548
4553000000.0 0.39786674818754136 -0.925209390173692
4556000000.0 0.3825010741241058 -0.9054136942756208
4559000000.0 0.38799174507138107 -0.9325249814069758
4562000000.0 0.41427571807716 -0.9280290263199287
4566000000.0 0.4229674648462237 -0.9210625724153794
4569000000.0 0.39961356668646 -0.921804922102067
4572000000.0 0.3807144445229542 -0.9217683903779489
4575000000.0 0.39445307837728055 -0.9388470155068298
4578000000.0 0.42876565114455134 -0.933705705797566
4581000000.0 0.3922361542564734 -0.9230987673737061
4584000000.0 0.3970078257528463 -0.9177812071283619
4588000000.0 0.41027135470902115 -0.9564856518606855
4591000000.0 0.419024929100385 -0.9141484122509708
4594000000.0 0.387958387400681 -0.9215037837838754
4597000000.0 0.38564082386911314 -0.9450201567329068
4600000000.0 0.373149496505633 -0.9275221679600247
4603000000.0 0.3741508461140598 -0.9432751244382245
4606000000.0 0.4045758279211743 -0.9633054459059617
4609000000.0 0.39958464596987964 -0.938894328692716
4612000000.0 0.39302620907752805 -0.9382015815169835
4616000000.0 0.37579371306834153 -0.9368093914034784
4619000000.0 0.39082018124397067 -0.9192172818930335
4622000000.0 0.384858973259939 -0.9375297257120624
4625000000.0 0.3666694549016698 -0.928445798911584
4628000000.0 0.3808530459061803 -0.9398115831127297
4631000000.0 0.36707719180464365 -0.9343264729159431
4634000000.0 0.37168768136697106 -0.9519671409250539
4638000000.0 0.4084073216459541 -0.9415773652499803
4641000000.0 0.38599585293599914 -0.9364436639318128
4644000000.0 0.37792522551725083 -0.9418182776810335
4647000000.0 0.4076946753670815 -0.9465216860065584
4650000000.0 0.3736526100359484 -0.9294370616710748
4653000000.0 0.4044031699617375 -0.9555726473281446
4656000000.0 0.386090106210512 -0.9434271298975639
4659000000.0 0.370382465454942 -0.945693519544328
4662000000.0 0.37138250573089115 -0.960392807850754
4666000000.0 0.3793211278828318 -0.943457123382595
4669000000.0 0.392973146270827 -0.9386909863024471
4672000000.0 0.3822092419569014 -0.9751201651165579
4675000000.0 0.3758010182225708 -0.9587076075364352
4678000000.0 0.3485781609779185 -0.9250221877171507
4681000000.0 0.3555315062686986 -0.9624656561858685
4684000000.0 0.3643148785058548 -0.9675703042932996
4688000000.0 0.3398137889144337 -0.953310463667864
4691000000.0 0.41281741451995846 -0.9550534429125678
4694000000.0 0.3655354152589154 -0.9355691120644295
4697000000.0 0.35809973893376423 -0.9245263250860757
4700000000.0 0.3880491883550805 -0.9473555602565363
4703000000.0 0.39666576885419214 -0.9120279495505423
4706000000.0 0.35667508099339323 -0.9388270660077132
4709000000.0 0.3577833106109876 -0.9397657836812364
4712000000.0 0.3623434515552646 -0.9496400860491826
4716000000.0 0.3970862551200127 -0.9539287544161784
4719000000.0 0.40219204812251425 -0.9472415813794955
4722000000.0 0.3880626109138177 -0.9179474927653453
4725000000.0 0.389213832735194 -0.9462496178045551
4728000000.0 0.35086805826616907 -0.9446388202337963
4731000000.0 0.39256299298802105 -0.9962639190670345
4734000000.0 0.3828747220693154 -0.9394811922004799
4738000000.0 0.3832848344431326 -0.972383331697697
4741000000.0 0.36596421208742064 -0.9860231295505374
4744000000.0 0.3503312392420297 -0.969657648904131
4747000000.0 0.3866519609276521 -0.9191614150944518
4750000000.0 0.3572203244538709 -0.9456527161088072
4753000000.0 0.3517572453919636 -0.9760411157569909
4756000000.0 0.3724735750877277 -0.9829897474233401
4759000000.0 0.3817525841207705 -0.9836603791808947
4762000000.0 0.33442996562615956 -0.9914545813325171
4766000000.0 0.35095483184306914 -0.9755047712416225
4769000000.0 0.35343964335338807 -0.9714805570827888
4772000000.0 0.3681368761023301 -0.9712513472996571
4775000000.0 0.34243935376755513 -1.0206770243255208
4778000000.0 0.3581446693149303 -0.974791494549247
4781000000.0 0.36837216471806006 -0.9651255684195529
4784000000.0 0.36961026510956496 -0.9393890486416845
4788000000.0 0.3638094675423509 -0.9991512533144233
4791000000.0 0.36019638693275424 -0.9659889248923236
4794000000.0 0.390795978022697 -0.9687793576081213
4797000000.0 0.3575649622765567 -0.9486268438452891
4800000000.0 0.3195773858033944 -0.9618698325450129
4803000000.0 0.3107989137540892 -0.9796990576952327
4806000000.0 0.36096215600458925 -0.988680246378708
4809000000.0 0.30419242981509853 -0.9994054414407193
4812000000.0 0.3082958290235006 -0.9582955739810222
4816000000.0 0.38230084485920474 -0.9447057763888169
4819000000.0 0.3829327287425401 -0.9969746364528743
4822000000.0 0.38669069941041756 -0.9713350503403342
4825000000.0 0.37541990442522394 -0.9918026541591107
4828000000.0 0.34465491330596654 -0.9589849542322721
4831000000.0 0.33454534190145435 -1.0058472508484895
4834000000.0 0.37815865166308893 -0.9711189958483614
4838000000.0 0.35922076647209866 -0.990973016834929
4841000000.0 0.32937932948275656 -0.957766142963857
4844000000.0 0.3818830556907317 -0.9596402920207026
4847000000.0 0.3736781338544061 -0.916622370328759
4850000000.0 0.37126265257752833 -0.9716190080934117
4853000000.0 0.35267852140813793 -0.9528745354366221
4856000000.0 0.38381308344024234 -0.9404761241841958
4859000000.0 0.37557569175999345 -1.0270070823741957
4862000000.0 0.36401129483417183 -0.9337090372648672
4866000000.0 0.3270945420678583 -1.0140044365943661
4869000000.0 0.35633683966313556 -0.9869511445927248
4872000000.0 0.33409480081831294 -1.0015208790642374
4875000000.0 0.4470043343404554 -1.0102462322715358
4878000000.0 0.3588280497904266 -0.977285143435978
4881000000.0 0.34057228885227064 -1.0268082156145875
4884000000.0 0.36940186741815106 -0.9612156019472428
4888000000.0 0.3701877987617769 -0.9593501213644489
4891000000.0 0.36870982351681986 -0.9990239996349786
4894000000.0 0.35667859415250536 -0.9737258673691369
4897000000.0 0.3575284775845381 -0.9493551891395965
4900000000.0 0.3724775517998139 -0.9775395568362488
4903000000.0 0.38244281675185887 -0.9772456140829711
4906000000.0 0.3583567040537883 -1.0010185139830599
4909000000.0 0.3641103452217635 -0.9986031661881887
4912000000.0 0.33410722998593423 -1.035806840052454
4916000000.0 0.36430354162644407 -0.9887829742775713
4919000000.0 0.38933595307389135 -0.957432568514194
4922000000.0 0.3953237647928678 -0.9527791224703221
4925000000.0 0.3359862552130607 -0.9603914382167396
4928000000.0 0.3919007573821114 -0.9459323190287258
4931000000.0 0.3801852962064895 -0.9988821006749076
4934000000.0 0.3267468756364139 -0.9307734479172827
4938000000.0 0.3224650576967031 -0.9868966810806987
4941000000.0 0.34181181682832606 -0.9589731867484186
4944000000.0 0.338159874336332 -0.9086800698821
4947000000.0 0.30650327605745065 -0.9614988735713675
4950000000.0 0.3434788701478751 -0.9702480996456858
4953000000.0 0.340621581465195 -1.0414947446979066
4956000000.0 0.3514260796441391 -0.9755338479121061
4959000000.0 0.30930278270827344 -0.9543734112996398
4962000000.0 0.35758408969951494 -1.0008823623485401
4966000000.0 0.3924781410578011 -0.9831681423871417
4969000000.0 0.39044480817495886 -1.017161877265763
4972000000.0 0.3449224355952935 -0.9770996891509314
4975000000.0 0.38512826133633415 -0.9454545454891253
4978000000.0 0.362666302696725 -1.0059118318690132
4981000000.0 0.3322893475952134 -1.007949373331823
4984000000.0 0.35746762362227424 -0.9596906514303172
4988000000.0 0.356547193454952 -0.9608718374944561
4991000000.0 0.38895506211525066 -0.9899623491078422
4994000000.0 0.35490763853342944 -0.9947197297500283
4997000000.0 0.28518687581938507 -0.9721513009667359
5000000000.0 0.3765975890556472 -0.9842664708061604
5003000000.0 0.3531916257974894 -1.0154157982160608
5006000000.0 0.39131367888261787 -1.0351885570606185
5009000000.0 0.36484822439587955 -0.9663334150418474
5012000000.0 0.3248466683873595 -0.9853196470344501
5016000000.0 0.4045668920289787 -1.0040703550312013
5019000000.0 0.3705902755216335 -0.9675798988773734
5022000000.0 0.3526562646346459 -0.9816442744848042
5025000000.0 0.37499288140991105 -1.0410823132979115
5028000000.0 0.3198178294481151 -0.9717634108218018
5031000000.0 0.34448086212695034 -0.9605011415355897
5034000000.0 0.3288275533461895 -1.035885999228816
5038000000.0 0.3101549747321628 -0.9703942916037183
5041000000.0 0.40293643219148584 -0.9878545830398673
5044000000.0 0.36251619074202973 -0.9384821890419757
5047000000.0 0.3766070739497098 -0.9569099397263225
5050000000.0 0.4292240136136238 -0.9531101410749288
5053000000.0 0.31900588843286637 -1.0323590600806862
5056000000.0 0.38514318817944787 -0.9766614774735243
5059000000.0 0.4255568998173127 -0.9458248279964685
5062000000.0 0.3658446485216317 -1.0300450319626067
5066000000.0 0.3874542856614364 -0.9942334839614935
5069000000.0 0.3620357301153642 -0.9944674606594228
5072000000.0 0.34891858374785795 -0.9629556967870202
5075000000.0 0.385604842876465 -0.9720420551384001
5078000000.0 0.34477016202001826 -0.9870094440993038
5081000000.0 0.32929830761565176 -0.9615434843604324
5084000000.0 0.3652909530171505 -0.9982607669287298
5088000000.0 0.3889174655191472 -0.9589927670551923
5091000000.0 0.3519305313106799 -1.005744703518471
5094000000.0 0.31824399236334533 -0.9555350969893295
5097000000.0 0.4106989394309545 -0.9118995849507965
5100000000.0 0.3714933453883395 -0.9752719455130454
5103000000.0 0.25624802577501193 -0.995198444233294
5106000000.0 0.3758054391465353 -1.0085993148983534
5109000000.0 0.3790315577131612 -1.031362493995772
5112000000.0 0.2976068698818388 -0.9599566289179542
5116000000.0 0.3200845477612978 -0.9411696363909388
5119000000.0 0.27936579872065637 -1.0239375461756577
5122000000.0 0.3406579184627813 -0.9425898817787489
5125000000.0 0.3452624730251923 -0.9937444797413063
5128000000.0 0.36312382680255856 -0.9665311408570678
5131000000.0 0.3826464439542281 -0.9548060552772708
5134000000.0 0.3737806649347545 -0.9982297164378942
5138000000.0 0.39521382536328464 -0.9978402963405868
5141000000.0 0.41582619240974233 -0.9648812300907936
5144000000.0 0.4265068622961948 -0.9184328239294084
5147000000.0 0.3424050783186983 -0.9731595427418481
5150000000.0 0.37114250356532685 -1.05234720224531
5153000000.0 0.3645424479624345 -0.9862008449902406
5156000000.0 0.35903185416594685 -0.972771356509258
5159000000.0 0.3546114966158666 -0.9876089758095473
5162000000.0 0.340037616120125 -1.010514507713633
5166000000.0 0.36544522212387787 -0.9915806515163894
5169000000.0 0.39381389960524094 -1.0149922010980483
5172000000.0 0.34972343428212394 -0.9422440079265211
