! Created with skrf 1.8.0 (http://scikit-rf.org).
# Hz S RI R 50.0 
!freq ReS11 ImS11
4000000000.0 0.532718023284809 -0.8582030721678731
4003000000.0 0.5928496449284044 -0.9561056497258447
4006000000.0 0.5335793276814048 -0.8975103713776043
4009000000.0000005 0.5633700109153238 -0.8741901048317371
4011999999.9999995 0.5942895162348896 -0.8808421336046071
4016000000.0 0.5588727036334822 -0.9249032074089353
4019000000.0 0.5897970220418336 -0.904318851597334
4022000000.0000005 0.6275566161671762 -0.8261934078789464
4025000000.0000005 0.5126363963155476 -0.8943573320011676
4027999999.9999995 0.5467397641040923 -0.8902337150110216
4030999999.9999995 0.5419138171528461 -0.8507856790661483
4034000000.0 0.5538020708847057 -0.8759575052614809
4038000000.0000005 0.5362783372133815 -0.9253537624369902
4041000000.0000005 0.5450375416734349 -0.8848139291826973
4043999999.9999995 0.5669221595813707 -0.9198436729785924
4046999999.9999995 0.5837149497859708 -0.8570537121481754
4050000000.0 0.5338763594928664 -0.8942102669068771
4053000000.0 0.5052173115765105 -0.9138660676462276
4056000000.0 0.5237317667708263 -0.8856825255715621
4059000000.0 0.5686201438031856 -0.8524246406901506
4062000000.0000005 0.542973998284341 -0.9065986093720373
4066000000.0 0.5121725119671079 -0.8257962194112061
4069000000.0 0.5384719409993421 -0.9056855658119515
4072000000.0 0.5837681964292782 -0.8171876545111291
4075000000.0 0.5720416684054843 -0.8518014589848217
4078000000.0000005 0.49810633256311415 -0.9014961752561683
4081000000.0000005 0.6343187926521576 -0.8640474189945544
4083999999.9999995 0.5272464659780148 -0.8794712391037955
4088000000.0 0.6016053975194205 -0.8542292887718713
4091000000.0 0.6011094710825875 -0.9668909740510114
4094000000.0000005 0.5758338429191817 -0.8860259859266228
4097000000.0000005 0.5203710099090949 -0.8471294539373929
4099999999.9999995 0.5097658699765544 -0.8856450052209704
4102999999.9999995 0.5663614766052051 -0.8818763431013029
4106000000.0 0.5282101061893215 -0.9449317704920615
4109000000.0 0.5540819193402104 -0.895674258432609
4112000000.0 0.549679142751298 -0.8772254401946598
4115999999.9999995 0.5734815733698044 -0.8865202655245288
4119000000.0 0.552926484475091 -0.8844870427811229
4122000000.0 0.5399335263148377 -0.9292110273322368
4125000000.0 0.534867567442042 -0.9197135250894327
4128000000.0 0.5521711903864571 -0.8519158305636328
4131000000.0 0.5470238413944896 -0.869917316134763
4134000000.0000005 0.5477426008307006 -0.865718506675883
4138000000.0 0.5168089534171636 -0.8453263335694944
4141000000.0 0.5388522892796223 -0.8567509001434005
4144000000.0 0.584322319834881 -0.8689886678351401
4147000000.0000005 0.5063260181452288 -0.8808142414461846
4150000000.0000005 0.5769617310577729 -0.9050554981403793
4152999999.9999995 0.5443868600821606 -0.8619817617959321
4155999999.9999995 0.5719160019238586 -0.8943493428463729
4159000000.0 0.529758788533647 -0.8692892918972872
4162000000.0 0.5375870584083892 -0.8588395078090473
4166000000.0000005 0.5564808650722234 -0.8724407063367734
4168999999.9999995 0.5045314228603504 -0.8609294184994042
4171999999.9999995 0.5505569907838952 -0.8658614459191597
4175000000.0 0.5512189523300572 -0.8656352818436129
4178000000.0 0.5459745240139561 -0.8651205907187077
4181000000.0 0.5508145792438277 -0.8807565526715193
4184000000.0 0.545524543701452 -0.865859877198366
4187999999.9999995 0.544400311762749 -0.8773275268771142
4191000000.0 0.5907667474789315 -0.8281767667051185
4194000000.0 0.53144270038586 -0.8560963992193804
4197000000.0 0.5391744892989762 -0.8827317648891897
4200000000.0 0.5772036116118942 -0.8726992870955912
4203000000.0000005 0.58037400081861 -0.8800606182146758
4206000000.0000005 0.5541229881773311 -0.8854995028254432
4208999999.9999995 0.5475930653044204 -0.8676548047908431
4211999999.9999995 0.5233747949475556 -0.8871489577066308
4216000000.0 0.557296888688602 -0.8493807543252747
4219000000.0000005 0.5648880220279726 -0.8513281615384412
4222000000.0000005 0.5472223290421038 -0.8652746034903267
4224999999.9999995 0.5506433363938187 -0.8689570751101571
4227999999.9999995 0.5696637056643485 -0.879759668314553
4231000000.0 0.5281715639684617 -0.8655836745531093
4234000000.0 0.5492364714526337 -0.881776287934603
4238000000.0000005 0.5381177678508142 -0.8853180839356262
4240999999.9999995 0.5322774388807867 -0.8745953665599726
4244000000.0 0.5547757603630024 -0.847516718660678
4247000000.0 0.5557782369803073 -0.8400101606747324
4250000000.0 0.5282388901642622 -0.8264467603451652
4253000000.0 0.5167515867063607 -0.8514995556785516
4256000000.0 0.5553310850813931 -0.8754862733225861
4259000000.0000005 0.524141067400083 -0.8410226529528622
4261999999.9999995 0.5411643297690232 -0.8600364192561432
4266000000.0 0.5242923611372416 -0.894159516591208
4269000000.0 0.5550897551592251 -0.8441949364730542
4272000000.0000005 0.5619819820726488 -0.8466105778182995
4275000000.0000005 0.5629375323366481 -0.8759895939991738
4277999999.9999995 0.5412378515778007 -0.8625474024735061
4280999999.9999995 0.5451985868464323 -0.853616529018263
4284000000.0 0.5216155125456432 -0.8850055809189546
4288000000.0000005 0.5644575912393307 -0.8532615969518059
4291000000.0000005 0.5406592313165378 -0.8386509332467795
4293999999.9999995 0.552250577329207 -0.8642301323377629
4297000000.0 0.5495128538045959 -0.8693789473670029
4300000000.0 0.5566809642157394 -0.8470278139844377
4303000000.0 0.5019837927652592 -0.8474260399257659
4306000000.0 0.564197065447644 -0.8411872153879768
4309000000.0 0.5534278969900155 -0.8558155022282958
4312000000.0 0.5992547853059341 -0.8655467661059745
4316000000.0 0.5235874211390907 -0.8638979212906315
4319000000.0 0.5428928864042469 -0.8411665687945791
4322000000.0 0.5248797981233227 -0.8546710822506429
4325000000.0 0.5516243017079862 -0.8589711431248791
4328000000.0 0.5486758912186386 -0.8407741881769888
4331000000.0 0.5282042859249788 -0.8734842758410852
4334000000.0 0.5731267734035354 -0.8831827807354617
4338000000.0 0.5492438313450735 -0.8432975228956869
4341000000.0 0.5736640304660634 -0.8668753885050933
4344000000.0 0.5645936826465705 -0.8626930283507681
4347000000.0 0.5283750266095073 -0.8751965192647734
4350000000.0 0.5100628644158631 -0.8319992436912136
4353000000.0 0.5394145124988128 -0.8404488815923248
4356000000.0 0.5069030789131256 -0.8752289052502491
4359000000.0 0.5164956921612289 -0.8254369017529523
4362000000.0 0.49554341411704306 -0.8850642367826259
4366000000.0 0.5537762975166884 -0.8906227809676849
4369000000.0 0.5129080753438353 -0.8458620025088078
4372000000.0 0.5031120157458083 -0.8816338782658535
4375000000.0 0.5515425937087668 -0.8349491087250108
4378000000.0 0.5417639694715265 -0.8475096084928387
4381000000.0 0.5378134984571991 -0.8437260192720211
4384000000.0 0.5544378166724071 -0.9188101327468101
4388000000.0 0.5466185626401748 -0.8409752619133544
4391000000.0 0.5417449213209077 -0.8542135217632472
4394000000.0 0.5155411202645024 -0.8381822845493507
4397000000.0 0.5352050823188782 -0.8632207746196636
4400000000.0 0.5510907997512974 -0.8811539948417615
4403000000.0 0.5466364026542785 -0.8743730023542408
4406000000.0 0.5122383805283609 -0.8691747882239969
4409000000.0 0.538732288235044 -0.8955935259055713
4412000000.0 0.4837632710467108 -0.8827723508091592
4416000000.0 0.514657457609242 -0.8553215894510995
4419000000.0 0.5117502012210077 -0.8665785192950739
4422000000.0 0.551848345298587 -0.8418789545964163
4425000000.0 0.5577203865286747 -0.8742353147017503
4428000000.0 0.530915698425474 -0.8707734128635939
4431000000.0 0.5514508914382352 -0.8671464393733708
4434000000.0 0.5135524432916635 -0.8617182826459605
4438000000.0 0.5415392560064469 -0.8742926269428192
4441000000.0 0.554944828129557 -0.8681549668341927
4444000000.0 0.5327547849871375 -0.8486664137084207
4447000000.0 0.5146330897148237 -0.8621760984549335
4450000000.0 0.5375955590719297 -0.8598425236562122
4453000000.0 0.5346410814848354 -0.8741029291425504
4456000000.0 0.4972310869291367 -0.8505103234447848
4459000000.0 0.4933232771238064 -0.8376169376885392
4462000000.0 0.5465933098803514 -0.9040191426727597
4466000000.0 0.5445458958369678 -0.9017150382859369
4469000000.0 0.5466831434431371 -0.8468686626377044
4472000000.0 0.5160525170768396 -0.8924480444250537
4475000000.0 0.5294758484278531 -0.8378907782406866
4478000000.0 0.5454243543955934 -0.9150603921552568
4481000000.0 0.4832803178574559 -0.84399162551991
4484000000.0 0.4947943175841415 -0.8829257797231576
4488000000.0 0.501663885863299 -0.8539480929243386
4491000000.0 0.5309515242383525 -0.8700566535046528
4494000000.0 0.49733416466091884 -0.861633388715102
4497000000.0 0.5340430571295707 -0.8593558490953945
4500000000.0 0.5341823277418045 -0.8643710657762422
4503000000.0 0.5395151542846667 -0.8904641881129154
4506000000.0 0.5119160309380699 -0.8657506329885205
4509000000.0 0.5321957540134197 -0.8545142412789115
4512000000.0 0.49896659928417736 -0.8387131118444071
4516000000.0 0.5298848507334922 -0.8844504118239354
4519000000.0 0.5173429300360952 -0.835142656754239
4522000000.0 0.5083894418090077 -0.8750115051698456
4525000000.0 0.5493223965282579 -0.8616949463909469
4528000000.0 0.5336110277724897 -0.8788372953131692
4531000000.0 0.5227388108134977 -0.8518658990818393
4534000000.0 0.515873581750702 -0.8496251010549348
4538000000.0 0.5142749898435666 -0.862963694219612
4541000000.0 0.4920309859793112 -0.8771664013212854
4544000000.0 0.5047052931307465 -0.8729991906587756
4547000000.0 0.5484425891455129 -0.8591443918334132
4550000000.0 0.49449672377957327 -0.884682895100698
4553000000.0 0.5220281613380339 -0.8751988246220668
4556000000.0 0.4712901702881963 -0.8675693161315603
4559000000.0 0.5054601502508211 -0.8842369861916555
4562000000.0 0.5361655461411005 -0.8787917490307233
4566000000.0 0.5297920127484174 -0.8829011418065561
4569000000.0 0.503648135147074 -0.8579124242036995
4572000000.0 0.5059366577881919 -0.8806310172893924
4575000000.0 0.5062914655953364 -0.8798845727905
4578000000.0 0.5408455526550847 -0.8819824124516835
4581000000.0 0.5070549132696842 -0.878923894500073
4584000000.0 0.5066465296698202 -0.8764396152757133
4588000000.0 0.5091721459617363 -0.8870700310931621
4591000000.0 0.5174050184465004 -0.8706064555174466
4594000000.0 0.5010836045901292 -0.8824336780685373
4597000000.0 0.5033493220966319 -0.8810034621396887
4600000000.0 0.4771569371019261 -0.8749546434122385
4603000000.0 0.5060174123606873 -0.896177688894099
4606000000.0 0.520884427360163 -0.8729142414675903
4609000000.0 0.4951272818721787 -0.8763777122464388
4612000000.0 0.5092852766678961 -0.9015325853116203
4616000000.0 0.49634223308198316 -0.881366466583539
4619000000.0 0.5160363186460627 -0.875750193927112
4622000000.0 0.5043441021705506 -0.8876652102794209
4625000000.0 0.4856198350791062 -0.8380448985738342
4628000000.0 0.5280630017857133 -0.8653326082615389
4631000000.0 0.48935761279460005 -0.8879085306786728
4634000000.0 0.4888184095906811 -0.8801936309878895
4638000000.0 0.5168362284982296 -0.8929043869456943
4641000000.0 0.5084456776725205 -0.8718004891422999
4644000000.0 0.49495649870054764 -0.8792395033829632
4647000000.0 0.5152983689934484 -0.8867549459873032
4650000000.0 0.48334997516090916 -0.8797567836994061
4653000000.0 0.5339790756808975 -0.892564258126754
4656000000.0 0.4909960027648961 -0.8908063187340258
4659000000.0 0.48070419071261905 -0.8818959438275003
4662000000.0 0.5066652486494283 -0.9144412028621617
4666000000.0 0.47147340280584404 -0.8971257752522953
4669000000.0 0.5177955695812414 -0.8799259286444323
4672000000.0 0.4847536562285312 -0.899470871881555
4675000000.0 0.47428188060095827 -0.9059693824745276
4678000000.0 0.4888511668244401 -0.8803632568223976
4681000000.0 0.4723813466309585 -0.9057981661507262
4684000000.0 0.46981336836272947 -0.9154561613282994
4688000000.0 0.4793293073716556 -0.8961533053828787
4691000000.0 0.49584658108657204 -0.8745327699142703
4694000000.0 0.49657595826991296 -0.8808930311946793
4697000000.0 0.44660102677553426 -0.8762332849668079
4700000000.0 0.5013903550256458 -0.8872578027285927
4703000000.0 0.5074420276158645 -0.8487328677122122
4706000000.0 0.47284044028146976 -0.8756219658243126
4709000000.0 0.48372202011982307 -0.880467311236517
4712000000.0 0.5186264828881741 -0.8762960457986365
4716000000.0 0.5082388957288849 -0.9086077679558776
4719000000.0 0.5331826765644138 -0.8854313530117275
4722000000.0 0.513413219897014 -0.8955986619326188
4725000000.0 0.5155526991701107 -0.878764283863795
4728000000.0 0.48682511976000414 -0.8915616870329992
4731000000.0 0.5197130005230154 -0.9002915706712856
4734000000.0 0.4996557553633199 -0.8856671267865734
4738000000.0 0.5495471702439624 -0.9106791654945985
4741000000.0 0.49132454918928936 -0.9121853317783406
4744000000.0 0.482099820661196 -0.8884938972858119
4747000000.0 0.47236431603185297 -0.8858950406566267
4750000000.0 0.4746038414929426 -0.9136500415750771
4753000000.0 0.5148104810327196 -0.8884061929742226
4756000000.0 0.4886728865809049 -0.8810809409305879
4759000000.0 0.5122989487677658 -0.8854808118950812
4762000000.0 0.46633111482798056 -0.9431460005269936
4766000000.0 0.48495823307319885 -0.8702757261310842
4769000000.0 0.5079212937303537 -0.9138190655898424
4772000000.0 0.5111413597588015 -0.9328689969726609
4775000000.0 0.49752183333439004 -0.936657399104329
4778000000.0 0.4918834114302778 -0.9131247986078511
4781000000.0 0.4741538338666462 -0.8723228740657223
4784000000.0 0.508732885941527 -0.8958142180798745
4788000000.0 0.47138802355743853 -0.9188581111956051
4791000000.0 0.5035843663471937 -0.8918488514735196
4794000000.0 0.5392482397931261 -0.9064907034505727
4797000000.0 0.4691669509521454 -0.8825702741714028
4800000000.0 0.48729833968627256 -0.8808289188395126
4803000000.0 0.4691159760186865 -0.9069198158041467
4806000000.0 0.4773909647481003 -0.9262882990742666
4809000000.0 0.4522619295306972 -0.9043571858512692
4812000000.0 0.4604977497313688 -0.9159413399996496
4816000000.0 0.49915509452908524 -0.880251928621213
4819000000.0 0.5259059217660137 -0.9062395058505699
4822000000.0 0.5365362057704754 -0.9178366832305337
4825000000.0 0.5295539995750819 -0.9098958170810985
4828000000.0 0.4801561248705135 -0.8886023622008358
4831000000.0 0.45928495793832613 -0.9473668583465957
4834000000.0 0.5026407509523908 -0.9016382076838216
4838000000.0 0.47424642302733055 -0.9295551715093656
4841000000.0 0.4915822914451229 -0.8980480888301634
4844000000.0 0.5212706680771565 -0.8981418913067112
4847000000.0 0.5084929295291472 -0.8656088570812219
4850000000.0 0.4790295906277881 -0.9273943815140826
4853000000.0 0.48615605231674014 -0.8724534615649697
4856000000.0 0.47989413253953583 -0.914171949752929
4859000000.0 0.5011570666232283 -0.9393109248772276
4862000000.0 0.5039794811428899 -0.8775004423141308
4866000000.0 0.4761263610849687 -0.9305107336697922
4869000000.0 0.4819952725230606 -0.9227339745121081
4872000000.0 0.48011780230610646 -0.9305911816039875
4875000000.0 0.5455835071549595 -0.92179914304182
4878000000.0 0.5069249767672277 -0.9294800144007153
4881000000.0 0.4826024268521616 -0.9638008530191322
4884000000.0 0.5201078623371114 -0.8900683430836749
4888000000.0 0.5064380086034187 -0.8645051508040035
4891000000.0 0.5331892815228764 -0.9225940288091642
4894000000.0 0.4654089992881497 -0.9229276718554891
4897000000.0 0.5134618365968827 -0.8838211170539017
4900000000.0 0.5081176189205289 -0.9280690354261258
4903000000.0 0.5221106400226477 -0.9149363579687938
4906000000.0 0.507316317612051 -0.9082247329576842
4909000000.0 0.4964606888728535 -0.9300837518669333
4912000000.0 0.4934560963715258 -0.9392194404635388
4916000000.0 0.5304096054665929 -0.9338452177994313
4919000000.0 0.540686909774452 -0.9149122759321412
4922000000.0 0.5529808499166045 -0.8929845282178878
4925000000.0 0.47017684334099963 -0.9307595134587943
4928000000.0 0.5266333023148007 -0.896949082719029
4931000000.0 0.5099809688223228 -0.8987973603121762
4934000000.0 0.46647795422522864 -0.9033597131248119
4938000000.0 0.48042008669284236 -0.8874208836712514
4941000000.0 0.49508405537457095 -0.8633995946016066
4944000000.0 0.4689000449296264 -0.8256112728450251
4947000000.0 0.4950620221960552 -0.8553603987481843
4950000000.0 0.48583715797378535 -0.8953456506181248
4953000000.0 0.4769250066960371 -0.9741076864338454
4956000000.0 0.5146608188317567 -0.9113501342216613
4959000000.0 0.45657704937262333 -0.9085924330124859
4962000000.0 0.5060705887597691 -0.9355603748550086
4966000000.0 0.5026587626491946 -0.9439271652366373
4969000000.0 0.5318176053326398 -0.9004416902122447
4972000000.0 0.5238092678801783 -0.9072484992079949
4975000000.0 0.5329766188335597 -0.8786822693036541
4978000000.0 0.4697814267558741 -0.9221734445378715
4981000000.0 0.4910503078892272 -0.9181885933229557
4984000000.0 0.4723663210815075 -0.8731533653540732
4988000000.0 0.49923711561318285 -0.8724082713640212
4991000000.0 0.5776502717061078 -0.894715299341931
4994000000.0 0.5315659347120115 -0.9003937684858265
4997000000.0 0.47647858461017367 -0.9490796181995311
5000000000.0 0.5499327831625649 -0.9274570964426365
5003000000.0 0.5563749743264339 -0.912836806752813
5006000000.0 0.5439224651265645 -0.968932534173998
5009000000.0 0.5277830485824151 -0.913494051317832
5012000000.0 0.5172794023812411 -0.9153057616988655
5016000000.0 0.5840291817033136 -0.9148289671259855
5019000000.0 0.5061010271708277 -0.90622316697953
5022000000.0 0.5238874885772133 -0.9129448825828514
5025000000.0 0.5408154894753261 -0.9666312632568792
5028000000.0 0.5121742504262398 -0.9148196877636067
5031000000.0 0.5012486509992056 -0.9156721079048008
5034000000.0 0.4950887134615238 -0.9713618604333534
5038000000.0 0.4895172651359452 -0.8836722884951709
5041000000.0 0.5372737484258383 -0.8987733945760423
5044000000.0 0.49895296369192144 -0.8645903240718846
5047000000.0 0.5584394701788351 -0.8826940584807554
5050000000.0 0.5628248082499112 -0.8425972515674716
5053000000.0 0.5381846667073066 -0.9552422242973102
5056000000.0 0.560424354329371 -0.908460775824907
5059000000.0 0.5447314052008068 -0.8680224310569351
5062000000.0 0.5013268649672523 -0.9391787876124118
5066000000.0 0.5660646976508904 -0.8833514147965633
5069000000.0 0.5163369086506029 -0.9094128155158504
5072000000.0 0.5050057610056742 -0.8597235290554954
5075000000.0 0.5383292790075396 -0.8759639429339792
5078000000.0 0.504405404360622 -0.906492628936911
5081000000.0 0.5146856692604429 -0.8999586935741646
5084000000.0 0.5266054320870328 -0.9239895630037724
5088000000.0 0.5546615429098983 -0.9102865815590999
5091000000.0 0.4672137157743971 -0.9162286652227518
5094000000.0 0.5187663817054209 -0.917639017286435
5097000000.0 0.5577931312344195 -0.8606710098280164
5100000000.0 0.550497030777536 -0.9110419826395101
5103000000.0 0.4924584800482235 -0.9138089203106177
5106000000.0 0.5455162888205736 -0.9077602391554649
5109000000.0 0.5962243991956284 -0.865889126681143
5112000000.0 0.5518297755160629 -0.9011884814645756
5116000000.0 0.5359262925347535 -0.8195899946859166
5119000000.0 0.537122324065034 -0.9579143699946521
5122000000.0 0.5580011254669384 -0.9058632360324217
5125000000.0 0.5641970990774112 -0.8736618733485008
5128000000.0 0.5167811982820588 -0.876609059123072
5131000000.0 0.5801504407582706 -0.8689772637399644
5134000000.0 0.5426466461393928 -0.9170272327544433
5138000000.0 0.5562111509941622 -0.8829341432204705
5141000000.0 0.5907709441422457 -0.8397960434719861
5144000000.0 0.5895489356732652 -0.9134183171516925
5147000000.0 0.5671921809057707 -0.8775104651751864
5150000000.0 0.5282973433589577 -0.9143435177241004
5153000000.0 0.5666679003320854 -0.8736785233629556
5156000000.0 0.5553850753274656 -0.929249794470478
5159000000.0 0.5984004765654175 -0.9042182909853826
5162000000.0 0.5226816009515489 -0.917042642352967
5166000000.0 0.5385483241818918 -0.9512592620752245
5169000000.0 0.5472536112182969 -0.8930354272382841
5172000000.0 0.5750175984460602 -0.8636654958085348
5175000000.0 0.594104060542861 -0.8796123481950314
5178000000.0 0.5596312764436723 -0.9326674031293112
