! Created with skrf 1.8.0 (http://scikit-rf.org).
# Hz S RI R 50.0 
!freq ReS11 ImS11
4000000000.0 0.5629995596503076 -0.8546236188346032
4003000000.0 0.5854890797667933 -0.87320069503466
4006000000.0 0.5092075051490375 -0.8936566816106163
4009000000.0000005 0.5622960042329348 -0.8659350375521555
4011999999.9999995 0.6096688708265954 -0.8102792480266301
4016000000.0 0.5483614176718654 -0.8912867177072628
4019000000.0 0.5520528387561144 -0.8640301470070304
4022000000.0000005 0.6302335977729245 -0.8015551289413718
4025000000.0000005 0.5214879467496772 -0.9186524731008512
4027999999.9999995 0.5569059464267363 -0.8950380694217983
4030999999.9999995 0.5400784454049403 -0.8615782082660719
4034000000.0 0.554536966248782 -0.8735068252905722
4038000000.0000005 0.5683459724238753 -0.8765942054917644
4041000000.0000005 0.554401519488976 -0.8581653703584124
4043999999.9999995 0.5778903214761562 -0.920790874289526
4046999999.9999995 0.6071061773820804 -0.8491245891557
4050000000.0 0.553083719130874 -0.8739562568872703
4053000000.0 0.5259385402317114 -0.8651119736437356
4056000000.0 0.5070678910808301 -0.8327746183265219
4059000000.0 0.5486922433319732 -0.8244701114764135
4062000000.0000005 0.5396866028121168 -0.873501084223108
4066000000.0 0.5130800493604718 -0.815067990830557
4069000000.0 0.5497026917275865 -0.9019043310566875
4072000000.0 0.5983633516440222 -0.8647970087298193
4075000000.0 0.5977224522889105 -0.8650935530668736
4078000000.0000005 0.5699659026365977 -0.8742823932631113
4081000000.0000005 0.6149102004135568 -0.8676754905870875
4083999999.9999995 0.5223315615883429 -0.9022407788319259
4088000000.0 0.6068383135725026 -0.8174668242947085
4091000000.0 0.5723932317104905 -0.8889418166793189
4094000000.0000005 0.5704591670009248 -0.8542649034030755
4097000000.0000005 0.5580800741827082 -0.8644262291020298
4099999999.9999995 0.5626251636693067 -0.8721291830580078
4102999999.9999995 0.5749645785000502 -0.8927859538856153
4106000000.0 0.5302442058888991 -0.8990594211287727
4109000000.0 0.5404851224858171 -0.8770509057701725
4112000000.0 0.5297471412767616 -0.8995876950605611
4115999999.9999995 0.5733838263971887 -0.8915930727380691
4119000000.0 0.5601559201398668 -0.8898720611526088
4122000000.0 0.549128405087402 -0.8724898175981329
4125000000.0 0.5601930547587892 -0.9128955329218864
4128000000.0 0.5579751443379932 -0.835459341086588
4131000000.0 0.5600482973978418 -0.8748482706766262
4134000000.0000005 0.5697547974901346 -0.8329669823449034
4138000000.0 0.5303935773243705 -0.8328049559797105
4141000000.0 0.5314731821569108 -0.8535554557346945
4144000000.0 0.5821206663708132 -0.867573668509211
4147000000.0000005 0.5192625508765835 -0.8525262230925582
4150000000.0000005 0.5532615640233841 -0.885160238227411
4152999999.9999995 0.5475200551238512 -0.8568091597739899
4155999999.9999995 0.5907126333234052 -0.8671243974946258
4159000000.0 0.543852204515699 -0.8681657946195112
4162000000.0 0.5493371871008237 -0.8412637200791344
4166000000.0000005 0.5377339345054246 -0.8889272933242033
4168999999.9999995 0.5602072070249448 -0.8879608199530954
4171999999.9999995 0.5865460928601459 -0.8516985780654681
4175000000.0 0.5518148405489938 -0.8808608588772562
4178000000.0 0.5680095014123633 -0.8514740601706231
4181000000.0 0.5432806531436749 -0.8486584918640117
4184000000.0 0.5612176703539141 -0.8858719812481506
4187999999.9999995 0.5408636169802675 -0.8602061512694887
4191000000.0 0.56461205603639 -0.8312345163377169
4194000000.0 0.5473591556249764 -0.8337643394944869
4197000000.0 0.5366506477094649 -0.863332804365126
4200000000.0 0.5783629638716309 -0.8533424793674927
4203000000.0000005 0.5806200885279732 -0.8484245266341421
4206000000.0000005 0.5588443611012737 -0.8584174776959477
4208999999.9999995 0.5723511444640703 -0.8495448832899649
4211999999.9999995 0.5278812899179954 -0.8770213839547615
4216000000.0 0.5748326719910377 -0.8507743372375858
4219000000.0000005 0.5654155892948457 -0.8407644574925135
4222000000.0000005 0.5532213768187422 -0.8578785178042438
4224999999.9999995 0.5567171758036191 -0.8542023954882353
4227999999.9999995 0.5654319198895892 -0.8676258738242375
4231000000.0 0.5565483176460714 -0.8687437619437122
4234000000.0 0.5648256161320668 -0.87350436821254
4238000000.0000005 0.5474910610709754 -0.861835465451748
4240999999.9999995 0.5447593868025794 -0.8462429212893372
4244000000.0 0.5566135144629762 -0.8606356965725634
4247000000.0 0.5611141500189236 -0.843193932391938
4250000000.0 0.5329095237060167 -0.8484598990475559
4253000000.0 0.5443999382733968 -0.8381211299990178
4256000000.0 0.545125217902382 -0.8676849531623161
4259000000.0000005 0.5321488516764539 -0.8201753829430308
4261999999.9999995 0.5482981715281667 -0.8732269252837718
4266000000.0 0.5523570425459406 -0.8890031494863763
4269000000.0 0.5507578010381269 -0.8561388879938246
4272000000.0000005 0.5587795193346765 -0.8521072680642104
4275000000.0000005 0.5698909063729081 -0.8578337435472109
4277999999.9999995 0.5803434993330947 -0.8638288157404145
4280999999.9999995 0.5673927319141284 -0.8510580313228208
4284000000.0 0.5267999038146057 -0.8660578611684145
4288000000.0000005 0.5704621896523786 -0.8353076081064773
4291000000.0000005 0.5382522274895575 -0.8350741939379738
4293999999.9999995 0.5608273183644555 -0.8396109822453701
4297000000.0 0.5796660869883401 -0.8370533112627297
4300000000.0 0.567354339469111 -0.8320946617375653
4303000000.0 0.5314121235664522 -0.839862755487587
4306000000.0 0.5937692642801239 -0.8157559464061999
4309000000.0 0.5430967503970281 -0.8465563963198028
4312000000.0 0.5910046335770147 -0.848103378999031
4316000000.0 0.5524680360540632 -0.8420885355613689
4319000000.0 0.5316520731299962 -0.8039449895176345
4322000000.0 0.536160818923244 -0.8537494309351791
4325000000.0 0.560124550601573 -0.8305679196577959
4328000000.0 0.5531980914169671 -0.8402373334462139
4331000000.0 0.5218532485564564 -0.8508695822192466
4334000000.0 0.5697280641549346 -0.8677506569569384
4338000000.0 0.5767991395238604 -0.8332420186992332
4341000000.0 0.6001953035549905 -0.8451020819017303
4344000000.0 0.5900435997288679 -0.8749356144974172
4347000000.0 0.5334059676565873 -0.8660373278598907
4350000000.0 0.5175900138431793 -0.8350433732323751
4353000000.0 0.5691517077622589 -0.8196696938658793
4356000000.0 0.5350279439487389 -0.8390947781690786
4359000000.0 0.5320965538529904 -0.7977961214875569
4362000000.0 0.524438413760397 -0.8832230162190786
4366000000.0 0.5513068550825851 -0.846216806402431
4369000000.0 0.5259143260638074 -0.8202187148475576
4372000000.0 0.4951046526504995 -0.8631745536648231
4375000000.0 0.570394647807354 -0.83859848540483
4378000000.0 0.5216651022964546 -0.822115044694968
4381000000.0 0.5565711315214338 -0.8253026985579479
4384000000.0 0.5772049785450152 -0.9046293823426599
4388000000.0 0.5576328091040124 -0.8169462422786218
4391000000.0 0.5629596784516046 -0.8574227155452914
4394000000.0 0.5296592155425762 -0.8265843741509181
4397000000.0 0.5439739146593023 -0.839497782288227
4400000000.0 0.5473719673185594 -0.8637472857945592
4403000000.0 0.5332259236837679 -0.8542279019134862
4406000000.0 0.5302789074967325 -0.861574097200509
4409000000.0 0.5455373734595899 -0.8752911121976013
4412000000.0 0.48943479162580017 -0.878329620428892
4416000000.0 0.5179538487211783 -0.8502576868444902
4419000000.0 0.5307785682759018 -0.8548077322687742
4422000000.0 0.533527195588543 -0.8306750651910438
4425000000.0 0.5582493463832491 -0.8627389147875733
4428000000.0 0.5291571933533741 -0.8466883810880128
4431000000.0 0.5519726938057906 -0.8692357928052166
4434000000.0 0.5241755057078121 -0.8433998086820018
4438000000.0 0.5547895240468481 -0.8647185583118154
4441000000.0 0.5492571132161171 -0.867656594307536
4444000000.0 0.5279282478072957 -0.8357145287449981
4447000000.0 0.5198079938187956 -0.8520174832001062
4450000000.0 0.5433390367313347 -0.8394290388916928
4453000000.0 0.5573994672516029 -0.8818290437642355
4456000000.0 0.5108352836081367 -0.8518651272160686
4459000000.0 0.5021219726193167 -0.8299141035243622
4462000000.0 0.5813472973061614 -0.895969412030007
4466000000.0 0.5545938111726492 -0.8927926878785355
4469000000.0 0.552894805757041 -0.8534270439100314
4472000000.0 0.5303881803275103 -0.8712039788209959
4475000000.0 0.5268660829574842 -0.8403931923213495
4478000000.0 0.5353310047286433 -0.8974440990376793
4481000000.0 0.5074641618910496 -0.8312734357702745
4484000000.0 0.49239784100419004 -0.8809041621712166
4488000000.0 0.5189811914476087 -0.8475858074932345
4491000000.0 0.543220349937029 -0.8637191468358154
4494000000.0 0.5286802425884902 -0.8454033921803257
4497000000.0 0.5410270450278927 -0.8309653411750155
4500000000.0 0.5537983435314929 -0.8246339401580229
4503000000.0 0.5523491193349388 -0.8712310902921188
4506000000.0 0.5366984614951883 -0.8685901591984218
4509000000.0 0.4981711305106546 -0.846601049973455
4512000000.0 0.49192410529589375 -0.8393236277187164
4516000000.0 0.5409676735840506 -0.8707283257175993
4519000000.0 0.5280540919687635 -0.8373069445775625
4522000000.0 0.5048341250834492 -0.8628064194970266
4525000000.0 0.53996083433266 -0.8260568458298507
4528000000.0 0.539672621414739 -0.8966176199192951
4531000000.0 0.5077958891449204 -0.8468932836088903
4534000000.0 0.5246076940683803 -0.8269016067818538
4538000000.0 0.5170984482481215 -0.8292592633747187
4541000000.0 0.4921660458029908 -0.8666315978618091
4544000000.0 0.5213596006469305 -0.8422163930638997
4547000000.0 0.5324447786637201 -0.8547052769138367
4550000000.0 0.5124703316099579 -0.8696786222680933
4553000000.0 0.5119533689324267 -0.8818277212886609
4556000000.0 0.5068282879252387 -0.8503292376537082
4559000000.0 0.5197931853938996 -0.8660156480092938
4562000000.0 0.5362975938966267 -0.8773467903045375
4566000000.0 0.5257273213712299 -0.8689229674698924
4569000000.0 0.48827204182927586 -0.853832033679109
4572000000.0 0.5323888209898826 -0.8573073760272659
4575000000.0 0.5036302120522229 -0.8761993669764524
4578000000.0 0.5403965904205001 -0.8731970529561557
4581000000.0 0.4968782351505916 -0.8764008819386906
4584000000.0 0.5100820247498841 -0.8633994310779027
4588000000.0 0.5396106480849654 -0.8509902689468539
4591000000.0 0.5210923844750106 -0.858517422855632
4594000000.0 0.5067586853244004 -0.864458054107135
4597000000.0 0.5133743275780493 -0.8642963373873305
4600000000.0 0.4922491358738327 -0.86340009530559
4603000000.0 0.5060405214088134 -0.8837320204329222
4606000000.0 0.5092818841689934 -0.8715848582703947
4609000000.0 0.5085134461728359 -0.8664228692575952
4612000000.0 0.5118489719907325 -0.8718678306519296
4616000000.0 0.5004261838291688 -0.8549650322940495
4619000000.0 0.5285989126804725 -0.880109364712484
4622000000.0 0.5208434977229442 -0.872739910906255
4625000000.0 0.4796287038443635 -0.8555696799213348
4628000000.0 0.5230358568328494 -0.8423801848176384
4631000000.0 0.49495000911375253 -0.8806640675754669
4634000000.0 0.5055720548162949 -0.8666128437389529
4638000000.0 0.5199049495612516 -0.8693978620297645
4641000000.0 0.512008541533655 -0.8717213488887391
4644000000.0 0.5113041833311875 -0.8808431211435761
4647000000.0 0.5243210647434036 -0.8675095049037
4650000000.0 0.5014668843139263 -0.8808278100293023
4653000000.0 0.5155477459067002 -0.8611217277357388
4656000000.0 0.5064445942049703 -0.8788503606181866
4659000000.0 0.4935733332088345 -0.8684641070499304
4662000000.0 0.5022293846142305 -0.8730803671388837
4666000000.0 0.49820457313206723 -0.8678982641755214
4669000000.0 0.504403486127318 -0.8762344907492317
4672000000.0 0.4813979179438124 -0.898806891684255
4675000000.0 0.47892851555035654 -0.8713060899956876
4678000000.0 0.4952779309042472 -0.8496344244604386
4681000000.0 0.4755992781488223 -0.9201471643477617
4684000000.0 0.47519031778865906 -0.872263501146923
4688000000.0 0.4716414956337862 -0.8775511575427041
4691000000.0 0.5243869716812405 -0.8727427164688542
4694000000.0 0.5018329351440068 -0.8521356163463576
4697000000.0 0.4631476042779107 -0.8468574612167346
4700000000.0 0.4846002789445753 -0.877394288474992
4703000000.0 0.5222989169263366 -0.8493644610867072
4706000000.0 0.47868304932635863 -0.8981668130821449
4709000000.0 0.4906979019334291 -0.8716317695975363
4712000000.0 0.49420525690188977 -0.9084478788526792
4716000000.0 0.5102177986514438 -0.8830045395173297
4719000000.0 0.5345713260933396 -0.8689861064051277
4722000000.0 0.5071357442885206 -0.873272955249647
4725000000.0 0.510354092759178 -0.8872425045600463
4728000000.0 0.4773567333652222 -0.8673683130637336
4731000000.0 0.534635602276472 -0.8943428993482025
4734000000.0 0.5108046159565073 -0.8776349720686311
4738000000.0 0.5096096913804692 -0.9000775793493555
4741000000.0 0.5202842151288588 -0.9131968952531541
4744000000.0 0.4856403614684802 -0.8940500917234356
4747000000.0 0.526269748007619 -0.8413628431226916
4750000000.0 0.5070039364839174 -0.8779779977306389
4753000000.0 0.4910643145997201 -0.8966494039546247
4756000000.0 0.4987507178248263 -0.8618487326428665
4759000000.0 0.5129141215983226 -0.88954152184644
4762000000.0 0.5035812367212751 -0.9019812364739577
4766000000.0 0.4761176544064793 -0.867941057038052
4769000000.0 0.5103023089625036 -0.8752514875494134
4772000000.0 0.48342333263817 -0.8694496510761746
4775000000.0 0.4791329042351574 -0.9454823033913866
4778000000.0 0.4907720123999304 -0.900296860889768
4781000000.0 0.5117779419748377 -0.8738508325234157
4784000000.0 0.5223211591539091 -0.8476845827359887
4788000000.0 0.480374705202131 -0.9057492144094383
4791000000.0 0.4873630549191652 -0.8724372077154813
4794000000.0 0.5433053361998633 -0.8941103687680221
4797000000.0 0.494868085529737 -0.8569696014744228
4800000000.0 0.46793046644615116 -0.8763585320888907
4803000000.0 0.4453075299252234 -0.9032728981172773
4806000000.0 0.4895495291490213 -0.8891233139135784
4809000000.0 0.46562504280802197 -0.9059934665935508
4812000000.0 0.4517976088999438 -0.9061051075707879
4816000000.0 0.5183895821924045 -0.8792842585268725
4819000000.0 0.5462177538490254 -0.9124839015496653
4822000000.0 0.5142159711754231 -0.9222883595564391
4825000000.0 0.5240441656797524 -0.9088351468680047
4828000000.0 0.47324330894471367 -0.8830826785138333
4831000000.0 0.49314331611058854 -0.9151559615028616
4834000000.0 0.5056923974266463 -0.8827048628673678
4838000000.0 0.5070838105758861 -0.9056613027506298
4841000000.0 0.48214979188910156 -0.8873547733356225
4844000000.0 0.543112053872317 -0.8719577116112365
4847000000.0 0.533958620126004 -0.8467499033355738
4850000000.0 0.5013034587999134 -0.8995608690351347
4853000000.0 0.4807191221171823 -0.8604018089497378
4856000000.0 0.5094828870863759 -0.8871562733952987
4859000000.0 0.5009103628383658 -0.9178820064883838
4862000000.0 0.5053150856288935 -0.8443114539964178
4866000000.0 0.48844123709486315 -0.9031296437799998
4869000000.0 0.503503199212089 -0.9055714605340647
4872000000.0 0.5057700848102896 -0.9248846208892078
4875000000.0 0.5697971282590675 -0.9056170194780427
4878000000.0 0.5021389625783487 -0.8982997709855313
4881000000.0 0.500263999566167 -0.9568472106092395
4884000000.0 0.5211951918544935 -0.8912286772843029
4888000000.0 0.5326808822985664 -0.8899837417471931
4891000000.0 0.520669385522908 -0.9109906400333507
4894000000.0 0.48506860930186674 -0.8938966363078605
4897000000.0 0.5325086368298975 -0.8695333113122381
4900000000.0 0.5239638276527548 -0.9255089134882676
4903000000.0 0.5322012867258783 -0.8990426728245194
4906000000.0 0.49816266044116453 -0.9054702157106141
4909000000.0 0.5018538002121599 -0.9120119246049169
4912000000.0 0.5174617255246383 -0.9322497525718805
4916000000.0 0.5508436118710986 -0.8991062661241408
4919000000.0 0.5500723179736718 -0.8897484191777134
4922000000.0 0.54382890187558 -0.8902099239534002
4925000000.0 0.4664339029816028 -0.9051764408001073
4928000000.0 0.5173148660669548 -0.8597423353305765
4931000000.0 0.5436114761458735 -0.9099025181575348
4934000000.0 0.4781029698233341 -0.853953790164826
4938000000.0 0.48568962574115593 -0.877633776062088
4941000000.0 0.49249256581949924 -0.8514903147150501
4944000000.0 0.5049418405224649 -0.8361751048592997
4947000000.0 0.5012890094522173 -0.870926607019147
4950000000.0 0.48419100872081205 -0.8869969518863587
4953000000.0 0.4599730885733424 -0.9258842941932438
4956000000.0 0.48677853486240646 -0.8820023054996168
4959000000.0 0.4626034348689607 -0.8858989323603127
4962000000.0 0.5078858065995012 -0.898661524005973
4966000000.0 0.5580355277104831 -0.9163064609321857
4969000000.0 0.5415913063106275 -0.9145035737753328
4972000000.0 0.5105971001216671 -0.8964003243025304
4975000000.0 0.5205618830416041 -0.8775894841286244
4978000000.0 0.49068924821442933 -0.8933592022387153
4981000000.0 0.49540229356762944 -0.8944372816398471
4984000000.0 0.5338071825905272 -0.8694690945857233
4988000000.0 0.5334924898807271 -0.8818820250927721
4991000000.0 0.5859099399988774 -0.8649882388397084
4994000000.0 0.5312477485586637 -0.8602173094797866
4997000000.0 0.48612729431223806 -0.9026082292538944
5000000000.0 0.5331190464176043 -0.9133146742906477
5003000000.0 0.5232389616965277 -0.8707023182617079
5006000000.0 0.5332117784672075 -0.9740873655509286
5009000000.0 0.5498366260400311 -0.8734541575304844
5012000000.0 0.5147059604916533 -0.8969930601409583
5016000000.0 0.5647183802891002 -0.9031565568726022
5019000000.0 0.518853960587315 -0.8839619378321955
5022000000.0 0.5181289226572556 -0.9060250048659231
5025000000.0 0.5704205883787407 -0.9480135260834215
5028000000.0 0.49801658965157736 -0.8978206318845376
5031000000.0 0.5257454586571602 -0.8883224159028855
5034000000.0 0.49038181964976085 -0.9494321717597246
5038000000.0 0.5093884830829045 -0.8376506110498723
5041000000.0 0.5648838913643757 -0.8591425580407872
5044000000.0 0.5495228835084577 -0.8566956398502124
5047000000.0 0.5347363837873635 -0.8818940721733985
5050000000.0 0.6034378714722262 -0.8199996213266154
5053000000.0 0.5630530355110261 -0.9256075773605839
5056000000.0 0.5758656072863373 -0.8439753263852648
5059000000.0 0.5948700113936418 -0.8674690721402187
5062000000.0 0.5087948992892823 -0.911360962576371
5066000000.0 0.5320448103318902 -0.8746992630763692
5069000000.0 0.5359356075687848 -0.8685280115081582
5072000000.0 0.5368286403070988 -0.8394724438127394
5075000000.0 0.5310623957346288 -0.8721738238949733
5078000000.0 0.5101400009913921 -0.8942407952511501
5081000000.0 0.5189156931036918 -0.853348594189524
5084000000.0 0.5592196418175053 -0.8836573550692701
5088000000.0 0.5390188345305867 -0.8629202890780279
5091000000.0 0.5239159551410872 -0.8918925699824378
5094000000.0 0.4872238706689767 -0.9034907152735937
5097000000.0 0.5999385242582463 -0.885734591857027
5100000000.0 0.5606866124274528 -0.9034799277968598
5103000000.0 0.5700422826915492 -0.8817685175231258
5106000000.0 0.6082691070393882 -0.9123801589736138
5109000000.0 0.5506098811614741 -0.8651205449960757
5112000000.0 0.5143820329586166 -0.9173781962465289
5116000000.0 0.5101488637566254 -0.8260467695408232
5119000000.0 0.5783492260656296 -0.8371248501928592
5122000000.0 0.533174774750499 -0.8888460703328864
5125000000.0 0.5730339161693261 -0.8613745898735867
5128000000.0 0.5229552148064496 -0.8992697603952284
5131000000.0 0.580301071904 -0.8634018886476251
5134000000.0 0.563019482979733 -0.8661429557155558
5138000000.0 0.5888044050547065 -0.9008829681304217
5141000000.0 0.6184310200404994 -0.8802812890244359
5144000000.0 0.5626944498301477 -0.8501038917107044
5147000000.0 0.5728920900658231 -0.8738487459188471
5150000000.0 0.5810727660584035 -0.8707054508897267
5153000000.0 0.5809482838571977 -0.8682761881477494
5156000000.0 0.564687412405134 -0.9214433872993577
5159000000.0 0.6151458974399509 -0.8812675909136651
5162000000.0 0.5192596363903103 -0.8924575728484424
5166000000.0 0.5229224292728087 -0.8867379951583326
5169000000.0 0.5831436717791016 -0.8868235819077455
5172000000.0 0.5660026250799959 -0.8613730260492718
5175000000.0 0.5787247932318688 -0.8885227019969706
5178000000.0 0.5605501515834488 -0.8646511986718002
