! Created with skrf 1.8.0 (http://scikit-rf.org).
# Hz S RI R 50.0 
!freq ReS11 ImS11
4000000000.0 0.4696982820818617 -0.8810992705924722
4003000000.0 0.4887599548211615 -0.9732341974991046
4006000000.0 0.4394648903952729 -0.953404312982169
4009000000.0000005 0.4881217025898478 -0.903138062813494
4011999999.9999995 0.4843837781476104 -0.9038885136515306
4016000000.0 0.47996540096156065 -0.9205297488392413
4019000000.0 0.45799573409246663 -0.9052341387049364
4022000000.0000005 0.5432283741508104 -0.8828408024629718
4025000000.0000005 0.4761007640643157 -0.893247546516551
4027999999.9999995 0.4765453996795944 -0.9057390985646627
4030999999.9999995 0.4455748121554165 -0.8824054486459428
4034000000.0 0.4174156686646649 -0.8842219865384829
4038000000.0000005 0.4578880362278708 -0.9395390645663649
4041000000.0000005 0.4927820757846698 -0.9267639276037073
4043999999.9999995 0.5187206452471415 -0.9897471847841974
4046999999.9999995 0.5086693843311869 -0.9492550671193083
4050000000.0 0.4747887668833244 -0.9345620525718809
4053000000.0 0.4553400668841727 -0.9443721509304424
4056000000.0 0.47068654900349766 -0.9449672909720411
4059000000.0 0.5288901062886237 -0.9047481235989241
4062000000.0000005 0.4427302681860237 -0.880541171131893
4066000000.0 0.4414572710061022 -0.8630752100844913
4069000000.0 0.4480115478988126 -0.9652258525426262
4072000000.0 0.49952673070306775 -0.8794843244801546
4075000000.0 0.5053556112787481 -0.9461605600507604
4078000000.0000005 0.4546794185848456 -0.9347660287539332
4081000000.0000005 0.5239488768010613 -0.9280033213143296
4083999999.9999995 0.4503716180642571 -0.9063695958038314
4088000000.0 0.4889517662264111 -0.8792948199401093
4091000000.0 0.47291397975848487 -0.991620310820282
4094000000.0000005 0.4670541943750859 -0.9093205163209374
4097000000.0000005 0.47990562616808996 -0.91429461329741
4099999999.9999995 0.47259968348304565 -0.9163436708885083
4102999999.9999995 0.4828687965007825 -0.8980996079082129
4106000000.0 0.4490366762191612 -0.9651126487457771
4109000000.0 0.43010110024834675 -0.9321629490782116
4112000000.0 0.48512886008553946 -0.9188679166752156
4115999999.9999995 0.47676701911910246 -0.9079673120204447
4119000000.0 0.45798835159088946 -0.920349846994105
4122000000.0 0.4268120712080263 -0.9093095868365398
4125000000.0 0.46865476949449447 -0.9456873560626435
4128000000.0 0.467074929813827 -0.8973114319395441
4131000000.0 0.428919658225644 -0.8989056125109868
4134000000.0000005 0.4618370353361886 -0.9331133564617661
4138000000.0 0.44831160543248955 -0.9104496435563435
4141000000.0 0.4716227726349251 -0.9044566691619534
4144000000.0 0.4814557530564305 -0.8975297733951602
4147000000.0000005 0.42127859490455893 -0.9199353769218016
4150000000.0000005 0.47656639389993677 -0.9596761107342666
4152999999.9999995 0.46667718424570764 -0.8989701243963211
4155999999.9999995 0.4794530864771741 -0.9224878707625022
4159000000.0 0.4363618355623927 -0.8920319532103337
4162000000.0 0.4815758993259346 -0.9188816952902171
4166000000.0000005 0.4451602523151565 -0.9465873086082524
4168999999.9999995 0.43112999382400297 -0.9362677250516884
4171999999.9999995 0.46853173278665305 -0.9237225322075295
4175000000.0 0.5018321999489025 -0.9134142637576179
4178000000.0 0.49429250891811216 -0.9287631638078281
4181000000.0 0.44818639532604576 -0.9355668483604391
4184000000.0 0.4587196637702418 -0.9050439070156439
4187999999.9999995 0.4556112054313537 -0.9307147386638212
4191000000.0 0.48376287982839616 -0.8928600446228734
4194000000.0 0.44881350061386205 -0.9032892567579647
4197000000.0 0.4663635669109082 -0.9200336445871923
4200000000.0 0.4774656854508341 -0.9123710142345866
4203000000.0000005 0.4774786293671702 -0.9087847776579432
4206000000.0000005 0.46320419992514905 -0.9254159114996904
4208999999.9999995 0.47449119893034764 -0.894961397617542
4211999999.9999995 0.45721444270852163 -0.9299351909025916
4216000000.0 0.4804509115158231 -0.9071079467917476
4219000000.0000005 0.47599584975965215 -0.9372275050330057
4222000000.0000005 0.4466242890530813 -0.9312149019623601
4224999999.9999995 0.4511453309305521 -0.9049182687936616
4227999999.9999995 0.4669923858564542 -0.9332396671468339
4231000000.0 0.44384223959711466 -0.9239091140456697
4234000000.0 0.45609640447434463 -0.9309591036882638
4238000000.0000005 0.4442978849067536 -0.9193660479008688
4240999999.9999995 0.4542632081503569 -0.9265651445120916
4244000000.0 0.4645983210463766 -0.905496378732427
4247000000.0 0.4628400030558213 -0.9054885053869264
4250000000.0 0.4427320109723717 -0.8915146209624352
4253000000.0 0.4450950269528069 -0.8843592278718428
4256000000.0 0.46263301625019304 -0.9386782262582523
4259000000.0000005 0.41547494916583017 -0.8859928671797795
4261999999.9999995 0.4282680006724806 -0.8969867655424688
4266000000.0 0.43909519334840114 -0.9171570267995516
4269000000.0 0.4419313230773819 -0.9157145566054518
4272000000.0000005 0.4473260378645929 -0.9265398690014092
4275000000.0000005 0.44609427114126615 -0.9239107063981551
4277999999.9999995 0.474366200801768 -0.9174508364072371
4280999999.9999995 0.46498681607905334 -0.9242389583799435
4284000000.0 0.4105059245554887 -0.9531397820811005
4288000000.0000005 0.46756145086602274 -0.8873562782545026
4291000000.0000005 0.43882661208648543 -0.9014968477483067
4293999999.9999995 0.44537612274376553 -0.9181631000409897
4297000000.0 0.4713019513111233 -0.886381903317108
4300000000.0 0.4562619633562859 -0.9145453977006306
4303000000.0 0.4234228767665013 -0.885639525867017
4306000000.0 0.48990164887118665 -0.9176638462803853
4309000000.0 0.44103321865193285 -0.8822206475949987
4312000000.0 0.47899230993521125 -0.921280888587171
4316000000.0 0.45736934203092694 -0.8917785681797101
4319000000.0 0.45474182072234687 -0.8852420217109944
4322000000.0 0.4294685415703648 -0.8963816836590924
4325000000.0 0.4464258264044022 -0.8917678746960985
4328000000.0 0.42162826397583913 -0.9113075474448126
4331000000.0 0.39666708320769356 -0.9317142532426232
4334000000.0 0.424924910387839 -0.894920764470199
4338000000.0 0.4732870370431353 -0.924659056212805
4341000000.0 0.4628185318177606 -0.9121105474655874
4344000000.0 0.4461806570922821 -0.9479183965985503
4347000000.0 0.4255973144023718 -0.9323372003460957
4350000000.0 0.42588825880124 -0.8921946996947797
4353000000.0 0.4467719489391302 -0.8748044428013491
4356000000.0 0.42114613164701303 -0.9007547605763271
4359000000.0 0.4037177365319391 -0.8825497523098979
4362000000.0 0.3909797572131593 -0.9426376455692498
4366000000.0 0.46007670685069463 -0.9297172864503881
4369000000.0 0.40637577911938744 -0.8945555856293831
4372000000.0 0.39263389964947204 -0.9244230299813362
4375000000.0 0.4343559523444831 -0.905424326794031
4378000000.0 0.40560135464754743 -0.8926672898836853
4381000000.0 0.43519637492862334 -0.9148596459933144
4384000000.0 0.4581029216360683 -0.9725150136170716
4388000000.0 0.43625826000035006 -0.891958087366889
4391000000.0 0.43730561775964716 -0.9380099832525246
4394000000.0 0.42629109159224216 -0.8965745727911816
4397000000.0 0.4068127233065807 -0.9210997600075457
4400000000.0 0.41508225199604215 -0.9376783775784825
4403000000.0 0.42404260513617614 -0.9280710445921807
4406000000.0 0.4103220510157546 -0.9310105544380243
4409000000.0 0.43697843643925355 -0.9406825829110989
4412000000.0 0.3636459334030495 -0.9262514271516789
4416000000.0 0.4068557042064113 -0.9161588894231513
4419000000.0 0.3978070170684552 -0.9302395382786203
4422000000.0 0.4333768314829377 -0.9035939927885251
4425000000.0 0.43267942401836224 -0.928896522399596
4428000000.0 0.41145298449202394 -0.9173354415736305
4431000000.0 0.42940426676715293 -0.9318209500188127
4434000000.0 0.40518000200817667 -0.9151349827520623
4438000000.0 0.42777992855921204 -0.9434006944936566
4441000000.0 0.42093973153016345 -0.9370377624083293
4444000000.0 0.4132408494009169 -0.9008043119635242
4447000000.0 0.39759066405461824 -0.917686567219577
4450000000.0 0.404365532664651 -0.909566274999215
4453000000.0 0.4251090740045208 -0.9370319900103085
4456000000.0 0.3854310824145235 -0.9058686391576884
4459000000.0 0.37364597464267535 -0.8976685226147134
4462000000.0 0.41668441236419435 -0.9665363833360099
4466000000.0 0.40655483397154446 -0.9676498077174334
4469000000.0 0.4112785702812538 -0.928308760962012
4472000000.0 0.39811850146190486 -0.9568542203032993
4475000000.0 0.4067385281806603 -0.8984056471652568
4478000000.0 0.39241580228063605 -0.973923125948969
4481000000.0 0.37708948401043885 -0.9032065869872806
4484000000.0 0.3698051312898084 -0.9505562529641591
4488000000.0 0.3816832244077816 -0.9241916485495091
4491000000.0 0.4145039428766333 -0.94839192730916
4494000000.0 0.3843020187218584 -0.9221507474211096
4497000000.0 0.4092629860290286 -0.9034881215662529
4500000000.0 0.3955651843005337 -0.9190830196596403
4503000000.0 0.41196556807042023 -0.9548271789976316
4506000000.0 0.3980794793212864 -0.9442021381337786
4509000000.0 0.39245243898290555 -0.9133619825103416
4512000000.0 0.3753204504137981 -0.9253330861587112
4516000000.0 0.40854799935208747 -0.9524231337231193
4519000000.0 0.39049243871106903 -0.9101036742754203
4522000000.0 0.3838955445150897 -0.9431227158479913
4525000000.0 0.4020015249724532 -0.9231947345044866
4528000000.0 0.3910640486614391 -0.9421844043159099
4531000000.0 0.392749811200373 -0.9407264123938417
4534000000.0 0.3610966509318771 -0.9379239480341031
4538000000.0 0.3812016565557828 -0.9192088715919893
4541000000.0 0.3452158550421114 -0.9337290877828435
4544000000.0 0.4057013729726466 -0.9407216315754408
4547000000.0 0.3969058121553826 -0.9075393869932915
4550000000.0 0.36738969972352425 -0.9281004804611419
4553000000.0 0.37618243288867403 -0.9524643268784556
4556000000.0 0.3493198684275831 -0.9203708356241789
4559000000.0 0.38566366330217006 -0.9467925135028163
4562000000.0 0.37780753942542106 -0.9468897736977995
4566000000.0 0.37354300629610887 -0.9641848639311179
4569000000.0 0.37812328253228705 -0.9440508880615661
4572000000.0 0.3686922078295562 -0.9307004177798583
4575000000.0 0.3596326455022341 -0.9699247676624667
4578000000.0 0.39329957801422033 -0.970758150845029
4581000000.0 0.3609469013086856 -0.9409675124825171
4584000000.0 0.36479628810180653 -0.9314938181095673
4588000000.0 0.38729431205924403 -0.9578281720231183
4591000000.0 0.38460793183021114 -0.932163470043591
4594000000.0 0.3521714585084466 -0.9414000416408744
4597000000.0 0.36028170602033566 -0.9529587973555569
4600000000.0 0.3382855746266743 -0.9548289940585265
4603000000.0 0.3513720374650291 -0.965649595966712
4606000000.0 0.37810587450217475 -0.9512074575536582
4609000000.0 0.3608656883486623 -0.939696424557187
4612000000.0 0.3659215247208273 -0.9516643978879563
4616000000.0 0.3544986346850362 -0.9470258052798997
4619000000.0 0.3569444047764095 -0.9380747194305629
4622000000.0 0.3612097561589597 -0.9409309610854097
4625000000.0 0.3200016771458348 -0.9415553305449669
4628000000.0 0.3558130433192303 -0.9545038000188659
4631000000.0 0.36258331528600607 -0.9559554987123413
4634000000.0 0.34479172887237186 -0.9371736267235615
4638000000.0 0.3718231836385615 -0.9530567113509146
4641000000.0 0.34420037131528225 -0.9453146105596303
4644000000.0 0.3317693727209753 -0.9518305683732363
4647000000.0 0.36526144045659414 -0.9483232184378423
4650000000.0 0.3388838173678188 -0.9383531820967492
4653000000.0 0.355003387891901 -0.9412768206508442
4656000000.0 0.3474136470112188 -0.954207286905127
4659000000.0 0.3510758254740425 -0.9529066462716851
4662000000.0 0.3529388879269029 -0.9721374985630855
4666000000.0 0.3242086992472734 -0.962986222415502
4669000000.0 0.3745686112392573 -0.9612560388097029
4672000000.0 0.34866235974712845 -0.9806328131370715
4675000000.0 0.33612351427442544 -0.9805547985810353
4678000000.0 0.3453983069069186 -0.9415354464761074
4681000000.0 0.31811310508690693 -0.9804199385501332
4684000000.0 0.30895362101895024 -0.9588043408585022
4688000000.0 0.3115263637839193 -0.9715136738640814
4691000000.0 0.3809253378874959 -0.9848945695138477
4694000000.0 0.3476183085380353 -0.9294619818543204
4697000000.0 0.31428579407057045 -0.9342901141851203
4700000000.0 0.3431438615001055 -0.96203905987616
4703000000.0 0.34371011460515666 -0.9163073875127645
4706000000.0 0.3318465893616994 -0.9780038740606941
4709000000.0 0.3276928415726457 -0.9495312535819981
4712000000.0 0.3486646908615839 -0.9596425775019923
4716000000.0 0.32598969605750333 -0.9926756323096433
4719000000.0 0.36276606766039127 -0.9624783868599273
4722000000.0 0.36995797969392874 -0.9353030138413745
4725000000.0 0.36380432601678847 -0.9332520379674822
4728000000.0 0.3268883588052449 -0.9655901791998733
4731000000.0 0.3264403837941014 -0.9782129630800022
4734000000.0 0.35547513189236163 -0.945758987510204
4738000000.0 0.3770104710334976 -1.005748268705653
4741000000.0 0.3338416892527369 -0.999764995252688
4744000000.0 0.31982862552213154 -1.0165158412196855
4747000000.0 0.3474249626677257 -0.9171990624166455
4750000000.0 0.33284039818057876 -0.9902396194132276
4753000000.0 0.3346176599976367 -0.9842578914754226
4756000000.0 0.3223123987781579 -0.9815570317359059
4759000000.0 0.34115799894426707 -1.0193065627067677
4762000000.0 0.3056154937846839 -0.9804326761451702
4766000000.0 0.316158637205903 -0.9751930302395226
4769000000.0 0.32683701673887866 -0.9750797656996333
4772000000.0 0.33325982399346477 -0.9577097866320224
4775000000.0 0.3069989918850749 -1.0049129494798241
4778000000.0 0.30504825991799867 -1.0162279860998336
4781000000.0 0.3261071979186277 -0.9713028130984961
4784000000.0 0.3047124493171479 -0.9697723053972026
4788000000.0 0.29493622088027444 -0.9956740474193254
4791000000.0 0.3250562884369498 -0.9411909806848672
4794000000.0 0.37637441956410866 -0.99162609729175
4797000000.0 0.30919776819295186 -0.9534472130669471
4800000000.0 0.2960653700931778 -0.9564274724866548
4803000000.0 0.25042177232880825 -0.9797466014278161
4806000000.0 0.3007073355915969 -1.0042493437594167
4809000000.0 0.2837617626143904 -0.9939546303012432
4812000000.0 0.25216934901079685 -0.9828373984254755
4816000000.0 0.3201076249543208 -0.9448827859253283
4819000000.0 0.3387911037902931 -0.9895821878827659
4822000000.0 0.34704430844139045 -1.016030025299903
4825000000.0 0.3445980254106463 -0.9872889611796866
4828000000.0 0.30973056719018877 -0.9558481053301272
4831000000.0 0.27824512065403484 -1.0210269363432916
4834000000.0 0.3167361765087114 -0.9825444056214905
4838000000.0 0.2947595022660625 -0.9877414436619579
4841000000.0 0.300768140518627 -0.9703121117057631
4844000000.0 0.3540702388711611 -0.9806428025149567
4847000000.0 0.3241373678584305 -0.9484593276636842
4850000000.0 0.2940502926627742 -1.0105367313948705
4853000000.0 0.2946482528591452 -0.9538777550710296
4856000000.0 0.3144277933375463 -0.9583435452796978
4859000000.0 0.3308605559780951 -1.0128068340588305
4862000000.0 0.3218865871141899 -0.9372086330596151
4866000000.0 0.2998820729389699 -0.9927757797711959
4869000000.0 0.2951965883162396 -0.9924856196322721
4872000000.0 0.2922868931287903 -1.030106610780605
4875000000.0 0.37934767365241095 -0.991327227498952
4878000000.0 0.2937886024678771 -0.988163305235105
4881000000.0 0.27435260050461974 -1.0587020022152722
4884000000.0 0.32392363538097657 -1.0075788373594123
4888000000.0 0.33328670514496905 -0.9658859643322247
4891000000.0 0.3407548488652842 -1.0001517691602706
4894000000.0 0.28503808905247974 -0.9703752534705278
4897000000.0 0.32706361257466143 -0.9552561216313993
4900000000.0 0.3341775212128541 -1.0298361963048703
4903000000.0 0.3178896233490195 -1.0069416891229308
4906000000.0 0.28226971927004696 -1.0028360936830112
4909000000.0 0.2885444786981739 -1.0195138327552433
4912000000.0 0.31298039636554464 -1.0233677532491245
4916000000.0 0.296951155128351 -1.038230040464116
4919000000.0 0.3501657412370166 -1.0007128055177237
4922000000.0 0.28788113946597693 -0.9675040192308538
4925000000.0 0.28385544261374407 -0.986627347909544
4928000000.0 0.3866809326812064 -0.9706783718974415
4931000000.0 0.2918317150650157 -0.9825537680304044
4934000000.0 0.3218764425423225 -0.9369056937777616
4938000000.0 0.22969672505400784 -1.0079669215361833
4941000000.0 0.31500786607689196 -0.9851434606564952
4944000000.0 0.30826387914117837 -0.8972008316701319
4947000000.0 0.31680499330978334 -0.9993258782534005
4950000000.0 0.3064440963888816 -1.001631297173287
4953000000.0 0.2903804879647678 -1.024395460653353
4956000000.0 0.29647244603770834 -1.001519510343633
4959000000.0 0.283009408461844 -1.0071190273109398
4962000000.0 0.2796527066160367 -1.0311018537883534
4966000000.0 0.33853093398266926 -0.9964690265194558
4969000000.0 0.3423599173852645 -1.0433549724902687
4972000000.0 0.3101760307030977 -0.989231470585635
4975000000.0 0.2991060056178527 -0.9386810033773239
4978000000.0 0.2794874436167951 -1.0017299870384964
4981000000.0 0.2606227981891717 -0.9998005658228851
4984000000.0 0.29352489349143174 -0.9754030709118036
4988000000.0 0.3207307856049129 -1.0143213337859576
4991000000.0 0.35479175539989016 -1.0021100606978992
4994000000.0 0.28152995803971287 -0.9921991859513859
4997000000.0 0.25617883053259555 -0.9764074175044919
5000000000.0 0.33046488355398457 -0.9974521804412364
5003000000.0 0.35256904662575855 -1.0249786480141978
5006000000.0 0.30335846832837 -1.0228749841542828
5009000000.0 0.31880198579716246 -1.0005670137730447
5012000000.0 0.28135838161114396 -1.0040676372188764
5016000000.0 0.35837075205654784 -1.0177474350504734
5019000000.0 0.27849417167861074 -1.0174178856608163
5022000000.0 0.2901164861566231 -1.0092076455643537
5025000000.0 0.29740545665144286 -1.032872242612014
5028000000.0 0.25818297616151853 -0.984135340576068
5031000000.0 0.2783245274160581 -0.9725707796801752
5034000000.0 0.27570575496795147 -1.037040042772838
5038000000.0 0.2554264212753811 -0.9521812915359973
5041000000.0 0.30901071974201877 -0.9841648428330689
5044000000.0 0.3102227229338359 -0.9488812392221482
5047000000.0 0.3213470787118542 -1.033439431524393
5050000000.0 0.347093237780122 -0.9478199038031596
5053000000.0 0.31095470286684346 -1.0253739287867782
5056000000.0 0.3408675228769783 -1.0091199732039087
5059000000.0 0.3142680285072237 -0.9651875481823907
5062000000.0 0.270845411795674 -1.0582499768248534
5066000000.0 0.30363626844065156 -1.013720844431106
5069000000.0 0.29761462020072155 -0.9924681707559404
5072000000.0 0.30376312381085047 -1.0108088041729582
5075000000.0 0.32935583277242625 -1.0257836111440932
5078000000.0 0.2943596580272447 -1.0264569190881354
5081000000.0 0.25585010703717725 -0.9830128001961751
5084000000.0 0.2330773861332815 -0.9713561274047666
5088000000.0 0.32660912055798347 -1.0279543168791219
5091000000.0 0.2572945615065964 -0.9666869401823426
5094000000.0 0.28515325115729495 -0.9955990462625788
5097000000.0 0.3234642523967078 -0.9403380294189205
5100000000.0 0.3223870766391065 -0.9900429745702708
5103000000.0 0.23247270048853108 -1.0062217624889276
5106000000.0 0.30927687680262117 -1.0011204560444074
5109000000.0 0.33250304439463174 -0.955409776115465
5112000000.0 0.29431632037280914 -1.0176586846338382
5116000000.0 0.2963247157314774 -0.995694074293385
5119000000.0 0.27905155342600957 -1.0365103308377834
5122000000.0 0.25687353083834 -0.9866287189822918
5125000000.0 0.35523018842141457 -0.9313788176698278
5128000000.0 0.25513883084744476 -1.021767578114248
5131000000.0 0.29526544268988236 -0.9866810581550286
5134000000.0 0.28418965700030996 -0.9594902665368137
5138000000.0 0.26709710355772703 -0.9695664515636304
5141000000.0 0.318521853806027 -0.9822647225371675
5144000000.0 0.3004664437352669 -0.960322401746744
5147000000.0 0.2890921683315675 -0.981311216557921
5150000000.0 0.2926131474898394 -1.04493859029797
5153000000.0 0.33022939367904364 -1.0577396658717648
5156000000.0 0.305073031100299 -1.0142542364941318
5159000000.0 0.2878982133586987 -1.0605628422952171
5162000000.0 0.2613005980282297 -0.9957929811216164
5166000000.0 0.29099029014722744 -1.0462331049321898
5169000000.0 0.31824985383391585 -1.0033725998608019
