! Created with skrf 1.8.0 (http://scikit-rf.org).
# Hz S RI R 50.0 
!freq ReS11 ImS11
4000000000.0 0.5700324938689245 -0.829436971456526
4003000000.0 0.5974337646485806 -0.9197153174357431
4006000000.0 0.525675275138493 -0.8941837731616034
4009000000.0000005 0.5386922269278012 -0.848701246662267
4011999999.9999995 0.5722193744160993 -0.8569745917122509
4016000000.0 0.5632117111804066 -0.8823493804209062
4019000000.0 0.5673963565820032 -0.9001251786179345
4022000000.0000005 0.6154715110598745 -0.8321905767330373
4025000000.0000005 0.552417230532599 -0.9146120627149338
4027999999.9999995 0.5423433658110675 -0.9147690883160333
4030999999.9999995 0.5306366879567564 -0.8284945062823239
4034000000.0 0.5212614773731457 -0.8813809120942215
4038000000.0000005 0.5680226229723775 -0.9119087389899007
4041000000.0000005 0.5600861363826285 -0.8942911079547208
4043999999.9999995 0.5721848616779374 -0.8902796292187776
4046999999.9999995 0.6009602372851925 -0.9049350935882146
4050000000.0 0.5365189261857105 -0.9081851601938358
4053000000.0 0.5081875928132853 -0.8497230098365589
4056000000.0 0.5534910558842923 -0.8954622909148123
4059000000.0 0.5723039739925196 -0.8688197030561537
4062000000.0000005 0.531833049763924 -0.8952832806073179
4066000000.0 0.5196512311478919 -0.8056061217763395
4069000000.0 0.5355122885551775 -0.9358284511438711
4072000000.0 0.5558525290515617 -0.8207842548743287
4075000000.0 0.5856067129859561 -0.8921874183511075
4078000000.0000005 0.5382472959207715 -0.9085082877304196
4081000000.0000005 0.6129577846064325 -0.9345547357550319
4083999999.9999995 0.5264485395754929 -0.9079195822949306
4088000000.0 0.5994839569777097 -0.8200391585933346
4091000000.0 0.577207282944949 -0.889540151034448
4094000000.0000005 0.5737830867514423 -0.8358700366691107
4097000000.0000005 0.5294720273464479 -0.8777782071490656
4099999999.9999995 0.5667475039577121 -0.8858563042654446
4102999999.9999995 0.6046494385225814 -0.8660867489436551
4106000000.0 0.5710793708070013 -0.8802956519414813
4109000000.0 0.5417905437263428 -0.8828612422765514
4112000000.0 0.556705990136426 -0.8633857641049345
4115999999.9999995 0.5821753084760604 -0.8591826549712654
4119000000.0 0.5599167665648764 -0.8865813175789085
4122000000.0 0.5389702951271029 -0.9129207270177292
4125000000.0 0.5488935394716649 -0.8924851342208473
4128000000.0 0.5632171285652097 -0.8239711389876759
4131000000.0 0.534634133390669 -0.8452124870221854
4134000000.0000005 0.5835643112875601 -0.8790037722083748
4138000000.0 0.4883282777900221 -0.8302499436130558
4141000000.0 0.581037939293905 -0.8390487679707858
4144000000.0 0.5681275343113589 -0.8505809872311811
4147000000.0000005 0.5276218583100742 -0.885020203248873
4150000000.0000005 0.5691640111427473 -0.87439365057578
4152999999.9999995 0.5514011591313094 -0.8823032216062496
4155999999.9999995 0.5618241617162822 -0.8862824253250108
4159000000.0 0.5726844372254531 -0.8572355131846565
4162000000.0 0.544779382987918 -0.8465072057415229
4166000000.0000005 0.5429577595058664 -0.8772231360665552
4168999999.9999995 0.5145485049417009 -0.8694256368847251
4171999999.9999995 0.5817552904695733 -0.8532144176560122
4175000000.0 0.5849226980450193 -0.8502454572742355
4178000000.0 0.5640618210232621 -0.88223285389353
4181000000.0 0.5596898632781128 -0.8923233465806895
4184000000.0 0.5700000847220275 -0.8703895734723627
4187999999.9999995 0.5267563766208714 -0.8761784834806066
4191000000.0 0.6120037592085983 -0.8345110047112745
4194000000.0 0.5614888225487509 -0.8458752280223889
4197000000.0 0.5652506285194795 -0.8831412277777112
4200000000.0 0.5751311852791466 -0.8649768009400368
4203000000.0000005 0.5910972291247276 -0.858724216926859
4206000000.0000005 0.5712205139512695 -0.8569985947858956
4208999999.9999995 0.5574620877416746 -0.8577299503269888
4211999999.9999995 0.5328955909960653 -0.8708143710747652
4216000000.0 0.584200877036292 -0.8470843027303355
4219000000.0000005 0.5731851916141342 -0.869564225582701
4222000000.0000005 0.5459560078444129 -0.8703244298603752
4224999999.9999995 0.5276938523045026 -0.832454056263632
4227999999.9999995 0.5671011131616334 -0.8693007362471632
4231000000.0 0.5750647669750841 -0.8601637563907176
4234000000.0 0.5574941936564898 -0.8706663113178131
4238000000.0000005 0.5514815656302641 -0.8581701673878072
4240999999.9999995 0.5498783236075913 -0.8646874960968438
4244000000.0 0.5354822919761532 -0.8518199115410531
4247000000.0 0.5773408717773836 -0.8435744481195421
4250000000.0 0.5498495092642344 -0.8519664902887718
4253000000.0 0.5397416169578065 -0.8461777770871197
4256000000.0 0.5541495459117074 -0.8669207071093382
4259000000.0000005 0.5244989244887638 -0.8362068337902335
4261999999.9999995 0.5433939156593709 -0.8497270933683096
4266000000.0 0.5540918514257163 -0.8580226418550905
4269000000.0 0.5790631397679845 -0.8360878695745853
4272000000.0000005 0.554369094466655 -0.8505225508551624
4275000000.0000005 0.5699312605874424 -0.8490143871006783
4277999999.9999995 0.5642757423790089 -0.8538315537141745
4280999999.9999995 0.572209671689978 -0.8605733293269666
4284000000.0 0.5522693166560253 -0.8857752786281989
4288000000.0000005 0.5636110040634268 -0.8353760924674719
4291000000.0000005 0.5549270027908544 -0.8129334737299401
4293999999.9999995 0.5416743144569787 -0.837770310756392
4297000000.0 0.5496330193300573 -0.8174764702009361
4300000000.0 0.5235419403463499 -0.8161430521519268
4303000000.0 0.5103105323079945 -0.8551289447409832
4306000000.0 0.594647979123287 -0.8378283045506905
4309000000.0 0.555486019166735 -0.8519792846210611
4312000000.0 0.595506940075086 -0.8681175266681447
4316000000.0 0.5665528120220245 -0.8374047220469423
4319000000.0 0.5764382694162523 -0.8454868777011237
4322000000.0 0.5361154486816231 -0.8375066960675301
4325000000.0 0.5542032453857239 -0.8756522436359515
4328000000.0 0.541508460360664 -0.863602091821577
4331000000.0 0.5210301764251543 -0.8540872736181526
4334000000.0 0.5562164955155202 -0.8680212749883371
4338000000.0 0.58660291845988 -0.8564412850618174
4341000000.0 0.599198348179341 -0.839907995018335
4344000000.0 0.5799689776655912 -0.8567028945396353
4347000000.0 0.5432607191710778 -0.8571040250647267
4350000000.0 0.5383181647123741 -0.8481403841834263
4353000000.0 0.5652385691901544 -0.8138885514300013
4356000000.0 0.5408796675516032 -0.8750017915283286
4359000000.0 0.5396963534022652 -0.8178539175332677
4362000000.0 0.514345845053148 -0.8946839065771955
4366000000.0 0.5691286206256856 -0.876903265711158
4369000000.0 0.5095189409967197 -0.8376261300507458
4372000000.0 0.5125823843053967 -0.8550221166129042
4375000000.0 0.5634877860334279 -0.8402845812543303
4378000000.0 0.528717567187022 -0.8326889161509327
4381000000.0 0.5528180289036673 -0.8346079090240448
4384000000.0 0.5638406168442894 -0.9113204466557945
4388000000.0 0.5584058488228019 -0.8182287133696367
4391000000.0 0.5409827217756555 -0.8475060233761021
4394000000.0 0.5186931160247952 -0.8261072186365255
4397000000.0 0.5393665674006186 -0.8333657144145586
4400000000.0 0.5527640024752002 -0.8659687351255916
4403000000.0 0.5502631315584552 -0.8557251317236364
4406000000.0 0.5208693717180424 -0.8608989684047476
4409000000.0 0.5600170878775421 -0.8839018410635034
4412000000.0 0.48970331265203176 -0.8687450277201366
4416000000.0 0.5202666337045418 -0.8487195045075775
4419000000.0 0.5158146721316154 -0.8638640504088906
4422000000.0 0.5517423984203372 -0.8361419725521197
4425000000.0 0.5750796411130805 -0.8546282767262472
4428000000.0 0.5329742873494006 -0.8580083451886897
4431000000.0 0.5627084878066446 -0.8682753399286581
4434000000.0 0.5365536852472488 -0.850693815555714
4438000000.0 0.5574142090941843 -0.8722120589393724
4441000000.0 0.565708413821691 -0.8642769375907878
4444000000.0 0.5316714550987007 -0.8370950113747985
4447000000.0 0.5293673179581104 -0.8668004076809107
4450000000.0 0.5423627734126552 -0.8356818702118296
4453000000.0 0.5593601734659388 -0.873583183432818
4456000000.0 0.5154594273386937 -0.8302698511025798
4459000000.0 0.4965766177597882 -0.8343268388968192
4462000000.0 0.5673817118543792 -0.8997141686141745
4466000000.0 0.5575738574678507 -0.9064747436302654
4469000000.0 0.5557498190978086 -0.8343640026497094
4472000000.0 0.5325949185337415 -0.8958912569038736
4475000000.0 0.5342022781679887 -0.8385615181502173
4478000000.0 0.5516065529101817 -0.9245215426552427
4481000000.0 0.5055373977034696 -0.8347942225640268
4484000000.0 0.5029043868952119 -0.8813153590464299
4488000000.0 0.5230712926745276 -0.8589904797846124
4491000000.0 0.522680986053212 -0.8622905310793083
4494000000.0 0.5246779701836088 -0.8517675922859046
4497000000.0 0.5438600251696579 -0.8445329473124221
4500000000.0 0.5420196276284479 -0.8441256643195072
4503000000.0 0.5609164185693933 -0.8813674368178022
4506000000.0 0.5142932806499527 -0.8546644859212853
4509000000.0 0.5180482921339422 -0.8369671610133773
4512000000.0 0.5108821999558206 -0.8558906373586144
4516000000.0 0.5485348324233853 -0.8560217902949763
4519000000.0 0.5235992249029124 -0.8333959283882442
4522000000.0 0.5235867182456526 -0.864196480209683
4525000000.0 0.5440620249499574 -0.842581783405324
4528000000.0 0.5400577702103876 -0.875989626945812
4531000000.0 0.5334598830526154 -0.8704252312024505
4534000000.0 0.5129309686375703 -0.8400774224493455
4538000000.0 0.5059264846565478 -0.8695007076946244
4541000000.0 0.4873597962156054 -0.8656569315284782
4544000000.0 0.5251596137313947 -0.8270905090656417
4547000000.0 0.5414605835161184 -0.8340128245266312
4550000000.0 0.5212433385956339 -0.8956730286194658
4553000000.0 0.5316133290030315 -0.8718966898444702
4556000000.0 0.5111796684666086 -0.8676374988071696
4559000000.0 0.5265772994668448 -0.8847475099411442
4562000000.0 0.5356015911603034 -0.8796390237785048
4566000000.0 0.522854342974961 -0.8881521467069109
4569000000.0 0.5001283059261907 -0.8582061031069809
4572000000.0 0.5236216756077643 -0.8524694235627742
4575000000.0 0.5011487182845735 -0.8755029720997618
4578000000.0 0.5487527095730964 -0.8873146284967057
4581000000.0 0.5148808084967654 -0.8610426742297645
4584000000.0 0.5207974258162344 -0.8740122194018334
4588000000.0 0.5321555803779943 -0.8735536865029175
4591000000.0 0.5441386581379457 -0.8489521997650897
4594000000.0 0.4959436414609232 -0.8750633342229379
4597000000.0 0.527477069186734 -0.8989034771263763
4600000000.0 0.47137092461097685 -0.876446523907317
4603000000.0 0.5157496467572431 -0.882537823899096
4606000000.0 0.5307392304653096 -0.8679360820403375
4609000000.0 0.503810787465225 -0.8833677763778206
4612000000.0 0.5122915512852025 -0.8562299021031904
4616000000.0 0.5148265379623697 -0.862205791590179
4619000000.0 0.5207641776098308 -0.8725693416310076
4622000000.0 0.5199749019249997 -0.8702321150956291
4625000000.0 0.4983421454721569 -0.8662701207906657
4628000000.0 0.5296208770920285 -0.8471124786193126
4631000000.0 0.49682926068818606 -0.8752026790985805
4634000000.0 0.49998594665790447 -0.8785964317204815
4638000000.0 0.5106749706721694 -0.874885309194551
4641000000.0 0.5224431162855612 -0.8766519058776284
4644000000.0 0.5104158186769492 -0.8707786885418427
4647000000.0 0.5207674789951231 -0.8721995421464154
4650000000.0 0.4970640348283595 -0.8758275741342666
4653000000.0 0.5150198934020525 -0.8835699516896207
4656000000.0 0.4886737280276795 -0.8894062847674205
4659000000.0 0.5115470322295294 -0.8625946580906191
4662000000.0 0.501065875880032 -0.8888399800327611
4666000000.0 0.4942814002049298 -0.8719330139771908
4669000000.0 0.5090881727013544 -0.8851267920714156
4672000000.0 0.4942965533165749 -0.9074026351348025
4675000000.0 0.49356795674287673 -0.9026173197712023
4678000000.0 0.5037836265582982 -0.8524310926952534
4681000000.0 0.48950157718727233 -0.9037867581365046
4684000000.0 0.4858987007246429 -0.9065297868417788
4688000000.0 0.481091415820915 -0.8646798608273506
4691000000.0 0.5199234634455626 -0.8867568054647986
4694000000.0 0.5000053779716165 -0.8591880098808896
4697000000.0 0.4996960053937584 -0.8802352834849732
4700000000.0 0.5149782689353166 -0.8773171721780452
4703000000.0 0.4999254882014509 -0.8467402052111833
4706000000.0 0.497876654317388 -0.8850443277092213
4709000000.0 0.47158296178648046 -0.8820097349573987
4712000000.0 0.49602785927645804 -0.8902152981487833
4716000000.0 0.4937897728832888 -0.8932867806766599
4719000000.0 0.5450727938281409 -0.8817940020343562
4722000000.0 0.5266853437286243 -0.8589120172575069
4725000000.0 0.5242863083945124 -0.8752417228538483
4728000000.0 0.4946676924985975 -0.9111833050853942
4731000000.0 0.5139099610793841 -0.894354642873861
4734000000.0 0.5428384091483069 -0.8802074540600573
4738000000.0 0.5149991566983033 -0.8975559441843636
4741000000.0 0.5080015930766134 -0.9320409553268734
4744000000.0 0.4842445394406807 -0.898755165005518
4747000000.0 0.49632174975455756 -0.8662945728297318
4750000000.0 0.5102262619928484 -0.9059213261787114
4753000000.0 0.5153451501069511 -0.9024333973118697
4756000000.0 0.5353843707970366 -0.9187432998818147
4759000000.0 0.5280221409353317 -0.8908845096521764
4762000000.0 0.4743340947304561 -0.9137492814433137
4766000000.0 0.49007631356519377 -0.8942178424294996
4769000000.0 0.5040562723977375 -0.9222759735772561
4772000000.0 0.5044559564226903 -0.8999925230894351
4775000000.0 0.5331518506864212 -0.9413621307158646
4778000000.0 0.49867362195358 -0.8755384140157465
4781000000.0 0.5076784430427753 -0.8681657761600697
4784000000.0 0.5344176598639976 -0.8788177037631
4788000000.0 0.4790723479305068 -0.9186852915260402
4791000000.0 0.48572212553059985 -0.8765067082674993
4794000000.0 0.5310269613765719 -0.9212390475738597
4797000000.0 0.4952898022913243 -0.8817650643015283
4800000000.0 0.5070104609724972 -0.925046799445291
4803000000.0 0.4492005537387037 -0.8903421812327061
4806000000.0 0.4993753404639646 -0.9113293527993651
4809000000.0 0.4416701916794621 -0.9017011065737113
4812000000.0 0.47765002976153903 -0.910890114430131
4816000000.0 0.5071952219091846 -0.8750376427492174
4819000000.0 0.543897684786762 -0.9273962820542229
4822000000.0 0.5112242408923694 -0.9304395740912381
4825000000.0 0.5334434235588977 -0.8744396560248632
4828000000.0 0.5059644202656195 -0.8861929828823026
4831000000.0 0.4821224033583515 -0.9474350557918917
4834000000.0 0.5164568978963835 -0.8971149666051544
4838000000.0 0.4858275071105267 -0.9110125914881309
4841000000.0 0.4886933494806065 -0.8807444799432804
4844000000.0 0.5260786748859791 -0.8872897653577868
4847000000.0 0.5112855849252158 -0.8502319068830583
4850000000.0 0.49870545942377664 -0.9122182987036578
4853000000.0 0.5033103740355352 -0.8691145627444767
4856000000.0 0.4889263363390788 -0.8919819240868523
4859000000.0 0.4919214066860864 -0.9264373590222693
4862000000.0 0.5075092477509815 -0.8757482628337363
4866000000.0 0.5103888223225075 -0.9207398672807678
4869000000.0 0.4940137865943398 -0.9083216895855106
4872000000.0 0.501620433905953 -0.9503687939105292
4875000000.0 0.5822428256309936 -0.9288058747369698
4878000000.0 0.5103892566345085 -0.9080090710435624
4881000000.0 0.5094579749130944 -1.0007879626776706
4884000000.0 0.5343419210833071 -0.8870459226477015
4888000000.0 0.5330955302010068 -0.8918330523402037
4891000000.0 0.5437350207377584 -0.9064371565318834
4894000000.0 0.498746260418011 -0.9015664134647692
4897000000.0 0.5497863207904032 -0.8607000881135366
4900000000.0 0.5156865957521266 -0.9022419957072026
4903000000.0 0.5309122455513651 -0.9140239119543706
4906000000.0 0.5343754372384828 -0.9269790636882754
4909000000.0 0.4779343015474469 -0.9147350874061494
4912000000.0 0.5041199776550191 -0.951915737020915
4916000000.0 0.5506704069845717 -0.9050980571128269
4919000000.0 0.5532687416805085 -0.9180652853808804
4922000000.0 0.5558285730291918 -0.8874839581538754
4925000000.0 0.4721997924578074 -0.8745461272135006
4928000000.0 0.5530506923538746 -0.8737896802398519
4931000000.0 0.5281197185650552 -0.8928950721680682
4934000000.0 0.4977925306408862 -0.8845361712755991
4938000000.0 0.46079901073302126 -0.9175393147560165
4941000000.0 0.49895891818226656 -0.8574664387010538
4944000000.0 0.5116372134937262 -0.8118896941454621
4947000000.0 0.49488686849787844 -0.8494227146891702
4950000000.0 0.5052522004807429 -0.872236290827585
4953000000.0 0.5085539846649673 -0.9363223347938717
4956000000.0 0.5169976416944825 -0.8792517833630528
4959000000.0 0.48175509003168315 -0.8940048383630732
4962000000.0 0.5228968352086164 -0.9119574619181737
4966000000.0 0.5443868941766178 -0.9113426788202322
4969000000.0 0.5568704560560588 -0.9110792065383263
4972000000.0 0.5206466670597346 -0.9292729653723736
4975000000.0 0.5216962249670258 -0.9051413456592625
4978000000.0 0.4999792457333907 -0.8884176915082003
4981000000.0 0.5034573889347208 -0.9068873490732899
4984000000.0 0.5192841461613922 -0.872548347870966
4988000000.0 0.5255851580650046 -0.8848583435623283
4991000000.0 0.559107710714969 -0.8740789112657664
4994000000.0 0.5578700850487508 -0.8834123842595152
4997000000.0 0.4900692123355419 -0.917248457424951
5000000000.0 0.553745305976876 -0.8943060120269011
5003000000.0 0.554400697797791 -0.8951273044190509
5006000000.0 0.5162173292860599 -0.9423218117761104
5009000000.0 0.5460943781943672 -0.881308559562827
5012000000.0 0.5140920715790217 -0.9007966387946169
5016000000.0 0.5573213133685113 -0.9008455827625558
5019000000.0 0.5377357308400053 -0.8758851269847184
5022000000.0 0.5204073974431267 -0.8829192860910977
5025000000.0 0.5589869053208391 -0.9517415100106447
5028000000.0 0.5066360700676004 -0.9228568988847553
5031000000.0 0.5223412531769382 -0.8903776673613227
5034000000.0 0.504319775121503 -0.9467643229654787
5038000000.0 0.5060819248249503 -0.8570768069473638
5041000000.0 0.5876577167065655 -0.8730023112866997
5044000000.0 0.5559359956982306 -0.8653231212164292
5047000000.0 0.5232880473955819 -0.8841377028160968
5050000000.0 0.601347052529002 -0.8184782375009755
5053000000.0 0.5753599852865602 -0.9129803538516055
5056000000.0 0.582414642781276 -0.8962855726127925
5059000000.0 0.6060671535013366 -0.8398939977782365
5062000000.0 0.5149799160173354 -0.940273794667686
5066000000.0 0.5650403534006195 -0.8791720221330357
5069000000.0 0.5509291215571334 -0.921615763424595
5072000000.0 0.5381270658502537 -0.8489630209356613
5075000000.0 0.5650185484820522 -0.8793448889053002
5078000000.0 0.5243920074577549 -0.9140567747429749
5081000000.0 0.5279257689354173 -0.8709343194113736
5084000000.0 0.5233366528986707 -0.9095870249258103
5088000000.0 0.568699753148852 -0.825723818666581
5091000000.0 0.5157947705608996 -0.9095695019096002
5094000000.0 0.5419685104402727 -0.9385758112288174
5097000000.0 0.5617857334619928 -0.8687456046697486
5100000000.0 0.513687667398977 -0.9016150692745564
5103000000.0 0.5187438117592692 -0.8815689922179839
5106000000.0 0.5651733878392091 -0.9175101818231806
5109000000.0 0.5757087411076168 -0.8373251770962618
5112000000.0 0.545077717758526 -0.86116974555055
5116000000.0 0.5237401041135583 -0.8796025830391472
5119000000.0 0.5342897808004042 -0.8958256580788388
5122000000.0 0.5784985500754842 -0.9104570475790796
5125000000.0 0.5355188747835172 -0.8624462583677577
5128000000.0 0.5742994735165106 -0.8537295913719591
5131000000.0 0.559699129186444 -0.8950001407462758
5134000000.0 0.5445774001801043 -0.8963310296115816
5138000000.0 0.5891049039913854 -0.8495004214385846
5141000000.0 0.5652039735244359 -0.8658982362125185
5144000000.0 0.5659844419826122 -0.890073447076333
5147000000.0 0.5718283000134254 -0.893753123810906
5150000000.0 0.6002927455064986 -0.8337983160349773
5153000000.0 0.6072312763155348 -0.9252165498400391
5156000000.0 0.6032026506894892 -0.8849292581521833
5159000000.0 0.5869646204711455 -0.9174055725886334
5162000000.0 0.4917908534182015 -0.9167699317363451
5166000000.0 0.5378335202122586 -0.8811686572820947
5169000000.0 0.5706673144010155 -0.9016011797053455
5172000000.0 0.6172589771945598 -0.8764123236952043
5175000000.0 0.5835347634637966 -0.909882001332399
5178000000.0 0.5509660537611751 -0.8514436714966505
