! Created with skrf 1.8.0 (http://scikit-rf.org).
# Hz S RI R 50.0 
!freq ReS11 ImS11
4000000000.0 0.5540331434900062 -0.8417200491786978
4003000000.0 0.5411145739169603 -0.9316019738446802
4006000000.0 0.4920976791716615 -0.8978368925220763
4009000000.0000005 0.5352410944601086 -0.8632296980442428
4011999999.9999995 0.5962911172063514 -0.8810604830236681
4016000000.0 0.5319532092633692 -0.8723139826321578
4019000000.0 0.5326498490861458 -0.9046757921052984
4022000000.0000005 0.6092470556854327 -0.8884554340157255
4025000000.0000005 0.47778103258833793 -0.9059059819870117
4027999999.9999995 0.5455335795590599 -0.9154115010550286
4030999999.9999995 0.5479804538559686 -0.8607289367360678
4034000000.0 0.5164909726130418 -0.8907306285559451
4038000000.0000005 0.5251252984428314 -0.9029432067446073
4041000000.0000005 0.5336414672555267 -0.8821425191638845
4043999999.9999995 0.5507485327391599 -0.945165363084061
4046999999.9999995 0.5878229753380684 -0.9181007454544698
4050000000.0 0.5456487842165622 -0.8871309467126678
4053000000.0 0.49418997178460944 -0.8751506729644777
4056000000.0 0.5487772609944175 -0.8844522640932215
4059000000.0 0.5533894976688095 -0.8486685143550818
4062000000.0000005 0.5101570479319008 -0.8936648552524638
4066000000.0 0.5142111731400991 -0.8357101682322164
4069000000.0 0.5316633846176517 -0.9105280467626718
4072000000.0 0.559330580249183 -0.8525664218970276
4075000000.0 0.5958365316390056 -0.8556242611798939
4078000000.0000005 0.5589340091788552 -0.890055443774211
4081000000.0000005 0.5872347123268523 -0.9126250908721631
4083999999.9999995 0.5046533367625079 -0.9104905148771874
4088000000.0 0.5351010183078715 -0.8590351244690095
4091000000.0 0.601596687180864 -0.9220501228451454
4094000000.0000005 0.5281030572251599 -0.8809896519526823
4097000000.0000005 0.560392904855761 -0.8922320768976139
4099999999.9999995 0.5396090037937648 -0.8780908658702665
4102999999.9999995 0.5538707101198289 -0.9007000584760664
4106000000.0 0.5621046028118166 -0.8791713708387972
4109000000.0 0.5144653320807898 -0.9077059894183581
4112000000.0 0.5390421059838534 -0.8964622142123019
4115999999.9999995 0.5441197160873723 -0.8906639805932509
4119000000.0 0.5393343343040409 -0.8916106640037237
4122000000.0 0.505848573783965 -0.9215394894179858
4125000000.0 0.5496957240538133 -0.911209421810545
4128000000.0 0.5510361966486914 -0.8380036647951867
4131000000.0 0.5235271375272705 -0.896234935515357
4134000000.0000005 0.534165657578441 -0.8746383142437475
4138000000.0 0.5123673136308298 -0.8833912535741566
4141000000.0 0.5482420856986161 -0.8849717731352865
4144000000.0 0.5648596694785756 -0.8827900575350983
4147000000.0000005 0.5106984216748804 -0.8858881589735738
4150000000.0000005 0.5407168132717338 -0.9127438716918826
4152999999.9999995 0.5657144522934336 -0.8678916847380473
4155999999.9999995 0.5328454323781903 -0.9003775776063365
4159000000.0 0.5264808743227247 -0.85601286892345
4162000000.0 0.5128194845697606 -0.8677880255761373
4166000000.0000005 0.5254330593136971 -0.8915838081299742
4168999999.9999995 0.5261390376956561 -0.8938355974378843
4171999999.9999995 0.5424161789783299 -0.8860039506575913
4175000000.0 0.5515186969268332 -0.8720960398044316
4178000000.0 0.5324016374763176 -0.8681183347181208
4181000000.0 0.5173082420142293 -0.890767504190282
4184000000.0 0.5363799605325476 -0.8425745993629834
4187999999.9999995 0.531100628794531 -0.8698484918441945
4191000000.0 0.5322958262127195 -0.8334082146070403
4194000000.0 0.5348891602705479 -0.8480437241753841
4197000000.0 0.5319257825143139 -0.8906086392122027
4200000000.0 0.5738589227173514 -0.8654294197029313
4203000000.0000005 0.5521964419929629 -0.8762872178552216
4206000000.0000005 0.5310606555794215 -0.886225737492085
4208999999.9999995 0.5224824305515902 -0.8632279705861424
4211999999.9999995 0.516747688820607 -0.8727263658047778
4216000000.0 0.5690057537583814 -0.8645346403838328
4219000000.0000005 0.5521579909717127 -0.8654301873063992
4222000000.0000005 0.5183223502021239 -0.8735710014825512
4224999999.9999995 0.5352052110488847 -0.8499758141735918
4227999999.9999995 0.531297356750605 -0.8853487615005978
4231000000.0 0.5427416898085775 -0.8666167897416999
4234000000.0 0.5561058999651854 -0.882673452851984
4238000000.0000005 0.5392703107277577 -0.8844778468903384
4240999999.9999995 0.5292596507424119 -0.8685107475066937
4244000000.0 0.5665897251025722 -0.8567129837932913
4247000000.0 0.546922679158411 -0.8472655627483695
4250000000.0 0.5211013920231774 -0.8596353347967876
4253000000.0 0.5128837698598143 -0.8404910353400337
4256000000.0 0.5479811850421668 -0.882413071944051
4259000000.0000005 0.48621846548469105 -0.8380877617694042
4261999999.9999995 0.5254606152183878 -0.8728351117109496
4266000000.0 0.5276432386603896 -0.8877973788727939
4269000000.0 0.5503319187222652 -0.8361989853124976
4272000000.0000005 0.5292841350330751 -0.8675648248332244
4275000000.0000005 0.528337619389133 -0.8779863404126116
4277999999.9999995 0.5457900633716379 -0.8926870622867606
4280999999.9999995 0.540542291251262 -0.8565182473513103
4284000000.0 0.5054848831800172 -0.8845634699124284
4288000000.0000005 0.5584681449801293 -0.8525234908152082
4291000000.0000005 0.5336474442045819 -0.8529821220295839
4293999999.9999995 0.5232091134221748 -0.8296370856956824
4297000000.0 0.5335934106892263 -0.849261342110743
4300000000.0 0.5301132231341766 -0.8673640293878534
4303000000.0 0.5038206080360499 -0.8548140060211439
4306000000.0 0.5589135655402322 -0.8456120953393411
4309000000.0 0.5458245550670004 -0.8765496278617718
4312000000.0 0.577172752638845 -0.8532717523155474
4316000000.0 0.5720699208011429 -0.8512633952274671
4319000000.0 0.526125592573858 -0.8505074459579032
4322000000.0 0.5209661639628085 -0.8720174570284379
4325000000.0 0.5389936539709874 -0.8707720303038022
4328000000.0 0.5211898515295239 -0.852634534215433
4331000000.0 0.500633512334363 -0.869740759844561
4334000000.0 0.5615528780806816 -0.8772977884566537
4338000000.0 0.5380846813061525 -0.8578476084239282
4341000000.0 0.5724615401222903 -0.8757879194628879
4344000000.0 0.5620043006645961 -0.8870824988516843
4347000000.0 0.5223343102938159 -0.8714535339747187
4350000000.0 0.5205755016170546 -0.8189752148793065
4353000000.0 0.5224920573347646 -0.8337128568975759
4356000000.0 0.5219742431878753 -0.8726625612195322
4359000000.0 0.50440248669563 -0.8452960087007133
4362000000.0 0.4803626671025318 -0.9098417846613426
4366000000.0 0.5426576100117837 -0.8863783538037605
4369000000.0 0.48382971768104777 -0.8317394774034458
4372000000.0 0.47591520627291606 -0.870744651126525
4375000000.0 0.5406416080143924 -0.8438566499901067
4378000000.0 0.5023441802982272 -0.8452000611504632
4381000000.0 0.5333867162642261 -0.8482565895079519
4384000000.0 0.5678581567957439 -0.9209503455497262
4388000000.0 0.5261919974410111 -0.8410666420266898
4391000000.0 0.5272120225617771 -0.8663495964822925
4394000000.0 0.4965308315815782 -0.8429129090538623
4397000000.0 0.5351086131460914 -0.8694877056941849
4400000000.0 0.5349231142652134 -0.8853112852525238
4403000000.0 0.546810516759348 -0.8685661065009055
4406000000.0 0.5189013845802513 -0.874292258258704
4409000000.0 0.5380711381056348 -0.900693269096261
4412000000.0 0.46482781875632895 -0.905780379047026
4416000000.0 0.49671447466243657 -0.8526453842157558
4419000000.0 0.49884852783075656 -0.880430174145849
4422000000.0 0.5318156318216434 -0.8502997958425815
4425000000.0 0.5508060800417827 -0.8855935608697634
4428000000.0 0.5178174086453728 -0.8707566878755483
4431000000.0 0.5335961666894248 -0.8830555130095465
4434000000.0 0.5077598364960565 -0.8700389108264185
4438000000.0 0.5380702399961341 -0.8908179526407928
4441000000.0 0.5422628146581991 -0.8750923859694916
4444000000.0 0.5056878846061256 -0.8507536469712796
4447000000.0 0.5007455588319534 -0.8776164773100585
4450000000.0 0.523384830597882 -0.8604030301640235
4453000000.0 0.5274484135081601 -0.8858849309278014
4456000000.0 0.4978486959886265 -0.8434436146073718
4459000000.0 0.4697229663317791 -0.8381665138927586
4462000000.0 0.542209896315556 -0.9169710892415046
4466000000.0 0.5379356748509266 -0.9148591402562003
4469000000.0 0.5318243953476409 -0.8730368769724999
4472000000.0 0.5117686341515477 -0.9014225416069552
4475000000.0 0.49263978104580836 -0.8607539776753976
4478000000.0 0.5270540850186507 -0.9218866277488218
4481000000.0 0.4754907292139481 -0.8656638648303743
4484000000.0 0.4725758561065706 -0.8969587762842013
4488000000.0 0.47866700048673166 -0.851112043397626
4491000000.0 0.5083854970527164 -0.8794921769344075
4494000000.0 0.5017671698623624 -0.8774383075204791
4497000000.0 0.509143042031658 -0.8445288692945754
4500000000.0 0.5168214992028828 -0.8662219671129716
4503000000.0 0.5146992775585678 -0.8896302688989592
4506000000.0 0.5024126207823029 -0.8675500950485073
4509000000.0 0.48510315849966723 -0.8646212069645138
4512000000.0 0.4876104895561144 -0.8645378136799744
4516000000.0 0.5357912044030883 -0.8834561790352968
4519000000.0 0.505389441562165 -0.8496423837883424
4522000000.0 0.4819824342880168 -0.871698634990564
4525000000.0 0.5374839895778362 -0.8691229525449946
4528000000.0 0.5235899732582086 -0.8951427190804104
4531000000.0 0.5163524548134237 -0.8685623622755139
4534000000.0 0.4997813317090416 -0.8715657340813567
4538000000.0 0.48282199732292824 -0.8819149039664381
4541000000.0 0.4858869090055497 -0.8816072280711078
4544000000.0 0.5097725889886107 -0.869170429513614
4547000000.0 0.4915016454329424 -0.8623561196956074
4550000000.0 0.4801113075246473 -0.8892855890337656
4553000000.0 0.49807124193572433 -0.8816238522117742
4556000000.0 0.48264105822875547 -0.8664365680412072
4559000000.0 0.5084384570060771 -0.8746017545205907
4562000000.0 0.5017898350588588 -0.895318868244258
4566000000.0 0.5054871559321726 -0.8947695482671282
4569000000.0 0.5013254890227028 -0.8605556371965031
4572000000.0 0.5060442756494645 -0.8861281914366875
4575000000.0 0.48719710516806347 -0.8824136574232075
4578000000.0 0.5175103685357132 -0.9057198291396431
4581000000.0 0.4915392466678987 -0.8946261538264366
4584000000.0 0.4904660620637719 -0.8741517819800497
4588000000.0 0.5019360484072931 -0.902357618309283
4591000000.0 0.48940807664801667 -0.8755184277719958
4594000000.0 0.4688812864769446 -0.8819833606527614
4597000000.0 0.48918823495456387 -0.8987008405121775
4600000000.0 0.47097916603196 -0.8763937601966201
4603000000.0 0.48180773860786896 -0.895838799403371
4606000000.0 0.508385458684737 -0.881731131242677
4609000000.0 0.5131916349855435 -0.8836448358274078
4612000000.0 0.499939874226092 -0.8990450361140072
4616000000.0 0.4894783382942596 -0.8834384852568367
4619000000.0 0.4915045220967547 -0.8772343274767622
4622000000.0 0.48253535340994286 -0.8747166557897947
4625000000.0 0.4591638334466909 -0.8720369190919718
4628000000.0 0.48841747801614055 -0.8668797543037383
4631000000.0 0.4717105174201005 -0.8692402722967316
4634000000.0 0.47921474840973577 -0.8819395748076511
4638000000.0 0.490941153663112 -0.8849392894499458
4641000000.0 0.49451356407165575 -0.9031231595328274
4644000000.0 0.5037006781793292 -0.8838943415929899
4647000000.0 0.4942686907152141 -0.8998013613348581
4650000000.0 0.47550659706244613 -0.8960706152983549
4653000000.0 0.4921774741206825 -0.8982242483363557
4656000000.0 0.4773902647916707 -0.8872670274761204
4659000000.0 0.4792436953366507 -0.8880162318280891
4662000000.0 0.4855980759218291 -0.9012405380648971
4666000000.0 0.4790342710219132 -0.8816987192190539
4669000000.0 0.48985961216547275 -0.8789783602966086
4672000000.0 0.4799154166336189 -0.9280496730811838
4675000000.0 0.46515256760523616 -0.9004587931135697
4678000000.0 0.47271218778818247 -0.8791188045436162
4681000000.0 0.45854544305029077 -0.917974049599724
4684000000.0 0.43642652646021785 -0.9176350447906153
4688000000.0 0.4427543399348159 -0.8850528633874312
4691000000.0 0.4889310157513311 -0.8804138254747439
4694000000.0 0.48208268159305634 -0.8887943247065041
4697000000.0 0.4382107920443203 -0.8789671209440119
4700000000.0 0.49197807917197417 -0.8981454355403398
4703000000.0 0.5065222239231258 -0.8540281923219123
4706000000.0 0.4754383127068328 -0.9184027898371397
4709000000.0 0.4606658488252282 -0.9056842662456706
4712000000.0 0.47718015408457526 -0.8977818339240651
4716000000.0 0.4873432850471536 -0.887308800572896
4719000000.0 0.5159304672644659 -0.8731570206033303
4722000000.0 0.48688107254433743 -0.8847729881364744
4725000000.0 0.4740848175722874 -0.8665564242234378
4728000000.0 0.47229170227356276 -0.87775878027348
4731000000.0 0.48168124563613407 -0.9054650802427842
4734000000.0 0.47594544360206575 -0.8932987528310314
4738000000.0 0.5050834949504645 -0.9279337941585165
4741000000.0 0.48974098684136597 -0.9185712263583574
4744000000.0 0.4627924990930126 -0.9486652674399844
4747000000.0 0.4847542775271918 -0.8743410829994271
4750000000.0 0.4772176899785367 -0.9082466364837108
4753000000.0 0.4737744717152052 -0.9069237253921284
4756000000.0 0.4656595698108426 -0.9081819235508739
4759000000.0 0.4917640633431333 -0.9275294377953276
4762000000.0 0.4494137400901996 -0.9248875279664234
4766000000.0 0.4678808130851579 -0.9042984985390392
4769000000.0 0.4902572982737967 -0.9242008296316478
4772000000.0 0.4854727511588884 -0.9181544102142825
4775000000.0 0.46850139742549324 -0.9429538214131185
4778000000.0 0.4406671976798545 -0.9343165013484199
4781000000.0 0.491603007682426 -0.9131298983956626
4784000000.0 0.5024626325954495 -0.8913740195312276
4788000000.0 0.47343117155441594 -0.9231615273991653
4791000000.0 0.45954348161709346 -0.9210450924112532
4794000000.0 0.46494648021145524 -0.9144752371613012
4797000000.0 0.49368997115283997 -0.9220492360883037
4800000000.0 0.46308193223782634 -0.9006109893616305
4803000000.0 0.42600759790527326 -0.9070998910480611
4806000000.0 0.4855269811586784 -0.9077210942111177
4809000000.0 0.4189476104956693 -0.9280537642857127
4812000000.0 0.4437235509143354 -0.9208703032716314
4816000000.0 0.5007705261547513 -0.895183165052626
4819000000.0 0.5042945368544116 -0.9100702473199096
4822000000.0 0.5033462180036643 -0.9424785431057715
4825000000.0 0.49771170557098376 -0.9481000498565407
4828000000.0 0.4620097444791842 -0.914057134332722
4831000000.0 0.43079402610251427 -0.9427891282778198
4834000000.0 0.4822886800614639 -0.8998127758825246
4838000000.0 0.46832118064496486 -0.934065889643982
4841000000.0 0.44071694347596646 -0.9139346738465177
4844000000.0 0.5065704485217944 -0.9145189687176798
4847000000.0 0.5011145584954753 -0.876671408385333
4850000000.0 0.47446061564106784 -0.9257499537176618
4853000000.0 0.4584970540244841 -0.8877681386101769
4856000000.0 0.4595851998736087 -0.8995257101930294
4859000000.0 0.4906229495399429 -0.9564618060769016
4862000000.0 0.49385583607598976 -0.8824239983885332
4866000000.0 0.44775051785442627 -0.94478171173759
4869000000.0 0.44960163383322393 -0.9241812190274836
4872000000.0 0.448837934221016 -0.9475322441621891
4875000000.0 0.5402559246204985 -0.9338768652903349
4878000000.0 0.4695313805020307 -0.9182605109082476
4881000000.0 0.4771277336177556 -0.9741670422152345
4884000000.0 0.4857545626066274 -0.9178290148095073
4888000000.0 0.49799009842307085 -0.916295599065368
4891000000.0 0.49792980454229474 -0.9106881213929782
4894000000.0 0.46325489493132715 -0.9096528080837233
4897000000.0 0.49625338018421816 -0.8800577998418795
4900000000.0 0.48388934488399316 -0.9246058097528611
4903000000.0 0.4987280592647279 -0.9217708477578265
4906000000.0 0.5047125698744122 -0.9275753987778353
4909000000.0 0.4407416534358262 -0.9158019312384631
4912000000.0 0.49908290087715196 -0.9467379188891786
4916000000.0 0.5355694348695769 -0.9313785586980776
4919000000.0 0.5385574527427016 -0.9311012957527055
4922000000.0 0.4996013708276816 -0.9134722756386232
4925000000.0 0.45773212233761107 -0.922410385734369
4928000000.0 0.49486653198025715 -0.8752711607789556
4931000000.0 0.5430672840031436 -0.953305444552969
4934000000.0 0.456052289904965 -0.855497760820479
4938000000.0 0.4783532811150903 -0.9480265841216918
4941000000.0 0.4752172788278879 -0.8825590813365326
4944000000.0 0.45849846657018345 -0.8852713287715462
4947000000.0 0.46864342972906003 -0.8693238097508627
4950000000.0 0.4633566172439178 -0.9347335277907736
4953000000.0 0.4618086637393325 -0.9834973808121963
4956000000.0 0.48365429677006744 -0.8986270920604038
4959000000.0 0.43444068415449355 -0.9327367260953315
4962000000.0 0.4881298268699279 -0.9167862897102265
4966000000.0 0.5064096032157896 -0.8897365374144135
4969000000.0 0.5179626618946295 -0.9256716736092485
4972000000.0 0.4959101745246687 -0.9057680948933832
4975000000.0 0.4721751542026118 -0.9053716721993303
4978000000.0 0.47733527672300935 -0.9203109628088326
4981000000.0 0.4895783163471553 -0.9337392483767677
4984000000.0 0.46238374990344266 -0.8924622383946806
4988000000.0 0.5148691798875286 -0.916921629646376
4991000000.0 0.5296422927381228 -0.9081972090457211
4994000000.0 0.5151263018806248 -0.9078410786644134
4997000000.0 0.460807015568908 -0.9358863060062935
5000000000.0 0.5199031617971868 -0.919128949372433
5003000000.0 0.494192717380314 -0.9248169136009896
5006000000.0 0.5004218594479041 -0.9510204437907401
5009000000.0 0.496947010171955 -0.9125381748961907
5012000000.0 0.4783976888187491 -0.9245840941236814
5016000000.0 0.5456353275996026 -0.916762635134055
5019000000.0 0.4946992000811532 -0.9286620748675852
5022000000.0 0.4786773486265326 -0.9086912405053967
5025000000.0 0.5150482517022881 -0.9626792895750316
5028000000.0 0.4891432355751476 -0.9402142406714282
5031000000.0 0.4984050228575589 -0.922625284378022
5034000000.0 0.46863932382632284 -0.9608303047252513
5038000000.0 0.48162318553645506 -0.8991019117561335
5041000000.0 0.5269883265913032 -0.9071944766965743
5044000000.0 0.5017747042427301 -0.8733023029833582
5047000000.0 0.5149038540788693 -0.9335594241111063
5050000000.0 0.54576008174133 -0.8514123164724873
5053000000.0 0.5268100299266613 -0.9681998964879642
5056000000.0 0.5451271485890468 -0.9312777461701425
5059000000.0 0.5513965931529061 -0.9031740182179353
5062000000.0 0.4455469276463951 -0.9485923653103383
5066000000.0 0.5207573515609069 -0.8955756589301038
5069000000.0 0.49913072490703897 -0.903867402499231
5072000000.0 0.4973320808975855 -0.8561757713145812
5075000000.0 0.5090899742030388 -0.9211552530920679
5078000000.0 0.4916191331297718 -0.9209146787304909
5081000000.0 0.4696883424635404 -0.8852209130626549
5084000000.0 0.4866938303000155 -0.9083129818907657
5088000000.0 0.5395962517016627 -0.8789967602611364
5091000000.0 0.46123489119997263 -0.8959675419926225
5094000000.0 0.5383769045808176 -0.9015785821803446
5097000000.0 0.5765478800835377 -0.8761824355498637
5100000000.0 0.551465730604218 -0.8808649289106596
5103000000.0 0.5144041805792725 -0.9538295991008023
5106000000.0 0.5398431747702037 -0.8965930799292514
5109000000.0 0.5214396247216999 -0.8526849267829247
5112000000.0 0.4910794344711281 -0.9412942918068239
5116000000.0 0.48270413995954936 -0.8520730405031673
5119000000.0 0.5427583599219847 -0.8805768719000806
5122000000.0 0.5141633660143807 -0.8831262272073079
5125000000.0 0.5535473764186363 -0.9040040033574731
5128000000.0 0.5162738431121552 -0.9101661879941216
5131000000.0 0.5077258134495719 -0.9278082320612424
5134000000.0 0.5108307785785493 -0.9322002931373634
5138000000.0 0.5019867149954091 -0.8808376600562494
5141000000.0 0.5778738182726582 -0.8539174064212194
5144000000.0 0.5222176299128714 -0.8903287688583298
5147000000.0 0.5203772731082763 -0.940593863649816
5150000000.0 0.5343262116572908 -0.8727799568045229
5153000000.0 0.5075708889502398 -0.9004630796927153
5156000000.0 0.5055145689378713 -0.952786544655831
5159000000.0 0.5947447506745315 -0.9110622766168894
5162000000.0 0.5226555530317227 -0.91069090617257
5166000000.0 0.5086305001879445 -0.955653964441138
5169000000.0 0.548472164261876 -0.8961249403108342
5172000000.0 0.523364043594251 -0.9139485093204673
5175000000.0 0.5586146814399237 -0.9449269681650003
