! Created with skrf 1.8.0 (http://scikit-rf.org).
# Hz S RI R 50.0 
!freq ReS11 ImS11
4000000000.0 0.5456119143557956 -0.8796502896495934
4003000000.0 0.6075442980132094 -0.9141923248425587
4006000000.0 0.5433985830663227 -0.8759346025483299
4009000000.0000005 0.5801851570738944 -0.8504644582647136
4011999999.9999995 0.6310889475399073 -0.8592107836677297
4016000000.0 0.544100681594052 -0.8775552477925249
4019000000.0 0.5478100547759616 -0.8869684569838764
4022000000.0000005 0.6362789962213828 -0.8085725821968222
4025000000.0000005 0.5025942885229474 -0.9224076802985361
4027999999.9999995 0.5374439378064099 -0.8961975935051893
4030999999.9999995 0.5275712083372756 -0.8418353193790917
4034000000.0 0.5410426883830873 -0.8566236413865573
4038000000.0000005 0.5313459563509344 -0.8699183092368972
4041000000.0000005 0.5873163190100825 -0.8914696507512188
4043999999.9999995 0.5848963051231063 -0.9000976020522362
4046999999.9999995 0.561216945017478 -0.8738554800106156
4050000000.0 0.5326042297988707 -0.8888008822046461
4053000000.0 0.5411970108891266 -0.8960149916242293
4056000000.0 0.5241696356676128 -0.8611208966133311
4059000000.0 0.5816044313084836 -0.8615098520021847
4062000000.0000005 0.5294176286066399 -0.8641674057615675
4066000000.0 0.5143486042855551 -0.829152760516064
4069000000.0 0.5380358723381009 -0.914928378960734
4072000000.0 0.5785364431172144 -0.8143092779333587
4075000000.0 0.5654255202874549 -0.8737813967446729
4078000000.0000005 0.5353882780611489 -0.8980512330559867
4081000000.0000005 0.6241482772373682 -0.8777609887186457
4083999999.9999995 0.5374606776493922 -0.8813608396804755
4088000000.0 0.5601132208597086 -0.8319540284094882
4091000000.0 0.5638595459785458 -0.9372733938052901
4094000000.0000005 0.5563053221746678 -0.8469733574080901
4097000000.0000005 0.502271286159939 -0.87872601263397
4099999999.9999995 0.5407731249240444 -0.9041760900326694
4102999999.9999995 0.5934084738270681 -0.8392901097464174
4106000000.0 0.5367204902029713 -0.8736470976460815
4109000000.0 0.5374412311928795 -0.875938619999197
4112000000.0 0.5329694351433008 -0.8584154814262956
4115999999.9999995 0.5709290126711536 -0.8677776386490439
4119000000.0 0.5489809588440027 -0.8659569007776682
4122000000.0 0.5368170455825947 -0.8803780697078557
4125000000.0 0.5507404604615467 -0.9135704331936187
4128000000.0 0.5675076522734553 -0.8409259462242663
4131000000.0 0.5689124138938257 -0.8453047556875221
4134000000.0000005 0.5622467568389485 -0.8678484595767223
4138000000.0 0.5245967934410982 -0.8800137874110806
4141000000.0 0.514842195399426 -0.8868541765029867
4144000000.0 0.5715837826183758 -0.8891957553236186
4147000000.0000005 0.5519470382579887 -0.8575325007128898
4150000000.0000005 0.5271654717677225 -0.880034105734969
4152999999.9999995 0.5610838984941583 -0.8489958014194947
4155999999.9999995 0.5636742161882449 -0.8811445979135509
4159000000.0 0.5695553294201875 -0.85419609201689
4162000000.0 0.576388597006525 -0.8495826134410038
4166000000.0000005 0.5567006856838509 -0.8945083890050568
4168999999.9999995 0.5264458117605849 -0.8889464514297736
4171999999.9999995 0.5677951678196805 -0.8746221158597938
4175000000.0 0.5695127635148585 -0.8588568093606945
4178000000.0 0.5780385279242688 -0.8616025405431552
4181000000.0 0.5421987202458862 -0.8588927725944926
4184000000.0 0.5510055491596826 -0.8559129619954535
4187999999.9999995 0.5453911844408763 -0.8652390460143715
4191000000.0 0.5551395500511195 -0.8244925493299631
4194000000.0 0.521222120525363 -0.83483451858161
4197000000.0 0.5709093451952834 -0.8694018629979114
4200000000.0 0.573287990516443 -0.8558339930063036
4203000000.0000005 0.5660919277880507 -0.898429419828211
4206000000.0000005 0.5716740256995654 -0.8716723448313555
4208999999.9999995 0.5736416043254324 -0.8445394787018998
4211999999.9999995 0.5396993775708121 -0.8598950332364206
4216000000.0 0.5645310231593061 -0.8556857609149404
4219000000.0000005 0.5662634642337205 -0.8738137478182132
4222000000.0000005 0.5497199419425693 -0.8734484407527694
4224999999.9999995 0.5493933771971387 -0.8427710651081008
4227999999.9999995 0.5711231554336853 -0.8649674272610446
4231000000.0 0.5540494544435944 -0.8572690824706525
4234000000.0 0.5560370815220502 -0.8794481360901141
4238000000.0000005 0.5470462434606833 -0.8672526075116744
4240999999.9999995 0.520101195581791 -0.8565875084421453
4244000000.0 0.5704354999026082 -0.8486520974278884
4247000000.0 0.5574304104159394 -0.861382342809193
4250000000.0 0.5599496857415978 -0.8661934034543477
4253000000.0 0.5241930251950117 -0.8270819987660465
4256000000.0 0.5556189320467613 -0.8658160250088676
4259000000.0000005 0.5465132077266228 -0.8212948242372476
4261999999.9999995 0.5224936537044033 -0.858332378641725
4266000000.0 0.5296993389921287 -0.8825656965328262
4269000000.0 0.5656634557656864 -0.8641657834195886
4272000000.0000005 0.541661781541854 -0.8654430320526243
4275000000.0000005 0.5680733817660285 -0.8677547613275893
4277999999.9999995 0.5533316547134249 -0.8651639318074649
4280999999.9999995 0.5633686685555584 -0.8660327245589152
4284000000.0 0.5301258085697248 -0.8812774208200347
4288000000.0000005 0.5937826228174654 -0.84951983170055
4291000000.0000005 0.5423605603110895 -0.8214225120270915
4293999999.9999995 0.552469307840891 -0.855336053643075
4297000000.0 0.5708572311476511 -0.8310489974295037
4300000000.0 0.5609028506349139 -0.8346279891157061
4303000000.0 0.5339312147361808 -0.8685398874573836
4306000000.0 0.5673713901816403 -0.8502582949901155
4309000000.0 0.5751828207817136 -0.8334117650579622
4312000000.0 0.5882614159804135 -0.8757327991939742
4316000000.0 0.5837836430017245 -0.8497732954527023
4319000000.0 0.551289827849967 -0.8238814101441762
4322000000.0 0.5159906782461986 -0.8561561043013347
4325000000.0 0.5610319781690184 -0.8446525066754808
4328000000.0 0.551051320207072 -0.8539962978695647
4331000000.0 0.5323148998114121 -0.8952124667141929
4334000000.0 0.5581123501078264 -0.8672824922095468
4338000000.0 0.5730129493175691 -0.8392114179440369
4341000000.0 0.6003665886180511 -0.8665348902293084
4344000000.0 0.5858033712486886 -0.875604486874613
4347000000.0 0.5494423406779501 -0.8745503581751368
4350000000.0 0.5272855002797099 -0.8458965216310337
4353000000.0 0.5610753670052341 -0.8208647425091792
4356000000.0 0.5130375852183897 -0.8516707944310763
4359000000.0 0.5175317875140188 -0.8251226692689696
4362000000.0 0.508233593922249 -0.865670590580156
4366000000.0 0.5553787298702769 -0.8697990466908476
4369000000.0 0.5172807854719803 -0.8189553651523273
4372000000.0 0.5131132578659634 -0.8770983478370832
4375000000.0 0.5752529710032128 -0.8269782710040673
4378000000.0 0.5410391412258313 -0.8191411174690898
4381000000.0 0.553163376433199 -0.8511278268696301
4384000000.0 0.5717737225386941 -0.9021081682699559
4388000000.0 0.5369398134755202 -0.8431162890312667
4391000000.0 0.5562390114394298 -0.8393997641250298
4394000000.0 0.5238685463923883 -0.8348428928903397
4397000000.0 0.5401525271319509 -0.8561967311432402
4400000000.0 0.5590391191016344 -0.8858959560354166
4403000000.0 0.5495723189086628 -0.8536287135965049
4406000000.0 0.5160845903529102 -0.8650245359343072
4409000000.0 0.5516828885001326 -0.8789381677400706
4412000000.0 0.4913035513734305 -0.8775392577542745
4416000000.0 0.5201183639589053 -0.8551509449029355
4419000000.0 0.5227373281390633 -0.8601612666817775
4422000000.0 0.5472078743994306 -0.8449836314562513
4425000000.0 0.5763091231545487 -0.861113732516358
4428000000.0 0.5319915753041432 -0.8418665646485027
4431000000.0 0.5493857745022434 -0.8773651252323792
4434000000.0 0.5225824568837812 -0.8595252757340845
4438000000.0 0.553731975030732 -0.8776228813826346
4441000000.0 0.5427695300360006 -0.866495957332616
4444000000.0 0.5584151196521965 -0.8345064265684756
4447000000.0 0.5344174163947955 -0.8402663944477798
4450000000.0 0.5381627613956927 -0.8311469754555469
4453000000.0 0.5520539599077967 -0.8846239819757244
4456000000.0 0.5221222881840355 -0.8321128061193479
4459000000.0 0.4842916021873393 -0.8334670319886348
4462000000.0 0.5582781519345295 -0.9147968958371838
4466000000.0 0.5554810455133551 -0.8868962579969332
4469000000.0 0.5350652511296035 -0.8605627492200234
4472000000.0 0.512467361989076 -0.8846426133773408
4475000000.0 0.5271155693259919 -0.8349460370786415
4478000000.0 0.5503244458089955 -0.8957455379800214
4481000000.0 0.5095351481309658 -0.8502889294579381
4484000000.0 0.5026023504466792 -0.8787479139683522
4488000000.0 0.48768041918275506 -0.8564118809594047
4491000000.0 0.5322288376352751 -0.8591697837308306
4494000000.0 0.527316327409742 -0.8252527897328048
4497000000.0 0.535531264839596 -0.8486221409942025
4500000000.0 0.5430558515603114 -0.8500923669617614
4503000000.0 0.5509078740774203 -0.8826473983967729
4506000000.0 0.5099837528478589 -0.8560885688321238
4509000000.0 0.5092370885071679 -0.8450579696500855
4512000000.0 0.501000962391384 -0.8471256514348416
4516000000.0 0.5485181426292242 -0.8666867014857352
4519000000.0 0.5320684726802851 -0.8354900283019444
4522000000.0 0.5232426057224945 -0.8622131562410453
4525000000.0 0.5522041044154636 -0.8465330919314091
4528000000.0 0.5500217701897444 -0.8677400121526986
4531000000.0 0.528874798291602 -0.8372128764866782
4534000000.0 0.511502640658116 -0.8637549017829393
4538000000.0 0.5235688377170269 -0.8679915660483938
4541000000.0 0.5065088569754561 -0.8674986422084202
4544000000.0 0.5251907456630572 -0.8432258790381999
4547000000.0 0.5492468439450883 -0.8443615387877688
4550000000.0 0.5078078094330596 -0.8881371464984571
4553000000.0 0.5191772829239105 -0.8560692587289327
4556000000.0 0.508011297744777 -0.8567881677612733
4559000000.0 0.5145931484330338 -0.8663020578868821
4562000000.0 0.5219237562223675 -0.8724795682323097
4566000000.0 0.5246076441725112 -0.8820895239281219
4569000000.0 0.5109721237067528 -0.8549795997457899
4572000000.0 0.5050111817736657 -0.8598224670841134
4575000000.0 0.503640262058972 -0.8777474478560388
4578000000.0 0.5537221111164616 -0.8823436668817719
4581000000.0 0.5119721698080639 -0.8838272831777547
4584000000.0 0.5039667600787232 -0.8761573812342911
4588000000.0 0.5267358776320605 -0.8760832233819225
4591000000.0 0.5332211597459526 -0.8561808319951341
4594000000.0 0.5039367500464031 -0.8808662161321645
4597000000.0 0.5123442590223183 -0.8913264044577522
4600000000.0 0.47461889002919233 -0.8865471677019611
4603000000.0 0.48893784014357244 -0.8889293395659459
4606000000.0 0.511057448163673 -0.8643034714229627
4609000000.0 0.5215132615425095 -0.871302166445096
4612000000.0 0.528681603614161 -0.882834802919858
4616000000.0 0.5017716315064931 -0.863054117566582
4619000000.0 0.5086250677604066 -0.8640063709829249
4622000000.0 0.4945430458547979 -0.8730841261098679
4625000000.0 0.47646668762058886 -0.8458058196536131
4628000000.0 0.5289031236947968 -0.8364899431506925
4631000000.0 0.492148451939888 -0.8718959358296392
4634000000.0 0.506311032430793 -0.8796042722734949
4638000000.0 0.5121972882668908 -0.8812638606492185
4641000000.0 0.5226169843971021 -0.8614954036160299
4644000000.0 0.5126934764983024 -0.8582905916876049
4647000000.0 0.5204270146809777 -0.8798274955759782
4650000000.0 0.472302647797792 -0.8984051721800929
4653000000.0 0.5289141588659153 -0.889370156418864
4656000000.0 0.4837911211695127 -0.8666042021620405
4659000000.0 0.49663903268333653 -0.8852246245853665
4662000000.0 0.5025382023763487 -0.8851393237908547
4666000000.0 0.49685133734150555 -0.880934480179743
4669000000.0 0.5322810979438041 -0.8650925479065181
4672000000.0 0.4869628778322054 -0.9097468536230423
4675000000.0 0.4965218486652003 -0.8973211501996773
4678000000.0 0.5066755520971977 -0.8709165823958496
4681000000.0 0.4936249431568095 -0.9159062192271286
4684000000.0 0.46872046738984996 -0.8959399642994678
4688000000.0 0.4714397815088058 -0.8738035309530819
4691000000.0 0.5253074956980025 -0.8854913821329656
4694000000.0 0.4915392397436692 -0.8933412476140605
4697000000.0 0.490400706490524 -0.8554976519293469
4700000000.0 0.5297951070351664 -0.8657100353096346
4703000000.0 0.5068646319518718 -0.8344775707737896
4706000000.0 0.49504721942668417 -0.8990064934509356
4709000000.0 0.4608466301794126 -0.852014073203006
4712000000.0 0.5094099825544561 -0.8789565603364307
4716000000.0 0.5103230122590111 -0.9112791392897458
4719000000.0 0.5412992021303425 -0.8495751514937258
4722000000.0 0.5057295416131716 -0.8546252372628088
4725000000.0 0.49689061138227997 -0.8674270663713166
4728000000.0 0.5017973479859478 -0.8862269586543151
4731000000.0 0.5335847379617913 -0.8798043784734431
4734000000.0 0.5104923653059454 -0.8747539849507885
4738000000.0 0.543816243933423 -0.9161272735600853
4741000000.0 0.4953493285128272 -0.9075646700869833
4744000000.0 0.4798702739394823 -0.886356353473126
4747000000.0 0.5169196724003836 -0.8511986243093783
4750000000.0 0.5177118183076217 -0.875145708167058
4753000000.0 0.5065546292280206 -0.8916659780070819
4756000000.0 0.49271387844731784 -0.8812902450668684
4759000000.0 0.4799253178094265 -0.8653821029579787
4762000000.0 0.4836323463550325 -0.89637452245416
4766000000.0 0.4861812161617729 -0.9076502635521861
4769000000.0 0.51834456858062 -0.8732762389160704
4772000000.0 0.5154039534941179 -0.8630475962801456
4775000000.0 0.4882710378866372 -0.950741439227754
4778000000.0 0.4947051091951784 -0.8894062919534766
4781000000.0 0.5365315897494689 -0.865380015188381
4784000000.0 0.5370658582164366 -0.8746610145479673
4788000000.0 0.5082965142957451 -0.9091080261681361
4791000000.0 0.49085866892910723 -0.896273232486495
4794000000.0 0.5347195490518531 -0.8978172603496347
4797000000.0 0.4964001241101965 -0.8877198076603775
4800000000.0 0.4924683880948431 -0.8713495372489065
4803000000.0 0.46185775188313893 -0.9025771871405738
4806000000.0 0.5108874037601635 -0.8837027843413567
4809000000.0 0.46743823612960106 -0.8964970608926579
4812000000.0 0.46913344895483233 -0.8936465904749065
4816000000.0 0.5171147610666871 -0.8670101816388979
4819000000.0 0.5172452783031332 -0.9245998992121188
4822000000.0 0.539820305276314 -0.8823143482578983
4825000000.0 0.5365800483390222 -0.8948802098863499
4828000000.0 0.48086270042102985 -0.888514000305582
4831000000.0 0.47248178277226605 -0.9202975660200696
4834000000.0 0.5065637509553846 -0.895280961083348
4838000000.0 0.5068775407086508 -0.920306462031818
4841000000.0 0.4778338835139942 -0.8934854363697583
4844000000.0 0.5079033568268598 -0.8863950258261278
4847000000.0 0.5136009866088063 -0.8457152383919938
4850000000.0 0.5181308309008399 -0.9247581722716073
4853000000.0 0.49257948840783816 -0.8757907298990922
4856000000.0 0.5094717023056986 -0.8879307050555053
4859000000.0 0.5156354286636211 -0.9422475972370219
4862000000.0 0.5147411250492526 -0.8632052625243896
4866000000.0 0.48165584371258385 -0.8941878607355832
4869000000.0 0.47834384433290544 -0.9068169079732102
4872000000.0 0.48062656728403486 -0.9211465665043993
4875000000.0 0.5679731067953316 -0.9040346932933022
4878000000.0 0.4963037679882623 -0.9082974122698146
4881000000.0 0.5095513498377024 -0.9515685434742169
4884000000.0 0.5130523148093309 -0.9157122992339718
4888000000.0 0.5414580451066359 -0.8742169070690567
4891000000.0 0.5507886076596338 -0.8800450591637283
4894000000.0 0.469453497992957 -0.9042876982443867
4897000000.0 0.5422275969823634 -0.8845965352187903
4900000000.0 0.5089190550343856 -0.909210869329135
4903000000.0 0.5046215434238369 -0.8975536178873649
4906000000.0 0.49846435640854053 -0.9017796368262869
4909000000.0 0.5141497683927507 -0.9261463461605773
4912000000.0 0.5109468657317409 -0.9419091756274701
4916000000.0 0.5468646314781037 -0.9310531397099294
4919000000.0 0.5811024415340766 -0.8876316209741242
4922000000.0 0.5381030759416601 -0.9156097969880893
4925000000.0 0.4889240874071109 -0.9057909632447712
4928000000.0 0.5818406419770795 -0.8801414645287259
4931000000.0 0.5388150820044519 -0.9085299897656264
4934000000.0 0.49679972587076315 -0.8570834854098918
4938000000.0 0.47469104632098913 -0.8884047473302203
4941000000.0 0.49339701815762615 -0.8716852151094351
4944000000.0 0.5043149833516313 -0.827123076363205
4947000000.0 0.5049385950356587 -0.8907971705382993
4950000000.0 0.4899000838013947 -0.8534913972355042
4953000000.0 0.4789481493166561 -0.9273233463643304
4956000000.0 0.48212237896997 -0.8901116756344805
4959000000.0 0.4794430966850803 -0.8774103595270928
4962000000.0 0.48923531979748264 -0.9423734211623891
4966000000.0 0.537334377502181 -0.855789125969464
4969000000.0 0.5517321905175803 -0.8938469901899461
4972000000.0 0.5237762860183905 -0.8852658731498103
4975000000.0 0.515752786302076 -0.8827633372792887
4978000000.0 0.5054020069761225 -0.8878716733428685
4981000000.0 0.5301868813955466 -0.9267926168192824
4984000000.0 0.5019585377398306 -0.8744033975168077
4988000000.0 0.5113290771261979 -0.852216472530273
4991000000.0 0.5779235295706621 -0.888661401251209
4994000000.0 0.5002514659813518 -0.8651986541157808
4997000000.0 0.5245144027282813 -0.9096449422952443
5000000000.0 0.5864928965315743 -0.903209696647578
5003000000.0 0.5687623095853086 -0.9090910087829949
5006000000.0 0.5474077639282531 -0.9486725987209078
5009000000.0 0.5412532590677981 -0.8996434704604954
5012000000.0 0.5076258715782891 -0.8950167254471277
5016000000.0 0.5659218519255275 -0.9128408229670265
5019000000.0 0.5117939886477637 -0.8898592798329537
5022000000.0 0.5376948521184466 -0.9056340829028002
5025000000.0 0.5455916968393589 -0.9252145722533361
5028000000.0 0.5044948665320447 -0.8955523404480363
5031000000.0 0.5061601973024672 -0.8943999443407932
5034000000.0 0.5293670877395659 -0.9491117568296419
5038000000.0 0.4621424276107582 -0.8863614454684857
5041000000.0 0.572575687409015 -0.8749986312346759
5044000000.0 0.586134477014725 -0.8640957939336422
5047000000.0 0.5440414196965178 -0.9058926918576701
5050000000.0 0.5973447846871872 -0.8237610952416433
5053000000.0 0.5549672729182931 -0.9578475378553672
5056000000.0 0.5772606973586951 -0.8455972456282201
5059000000.0 0.5979103436526256 -0.8791966585474138
5062000000.0 0.518111987270857 -0.9456005592921172
5066000000.0 0.5766056390648087 -0.8563583117843121
5069000000.0 0.5546299205361747 -0.8737438011223686
5072000000.0 0.5339863232478341 -0.8740813980438691
5075000000.0 0.5647992938668482 -0.9012436680503708
5078000000.0 0.4975401673249767 -0.9264973344912968
5081000000.0 0.5062616558236417 -0.8524799541190897
5084000000.0 0.5398882437700487 -0.93292693689136
5088000000.0 0.5612454489753718 -0.9090716101534516
5091000000.0 0.5405590257268669 -0.9512947365952125
5094000000.0 0.5077266217877259 -0.899169269950998
5097000000.0 0.5491794563714951 -0.862325953455815
5100000000.0 0.5794940770237834 -0.8518820862138019
5103000000.0 0.5167464013314365 -0.9358785875302116
5106000000.0 0.552369595039709 -0.9346577189604095
5109000000.0 0.5487242652638185 -0.9039316835127229
5112000000.0 0.5073730367503921 -0.8632439148823834
5116000000.0 0.5359382920464858 -0.857893338247191
5119000000.0 0.5654825568079074 -0.9034468400400366
5122000000.0 0.5287478581194979 -0.8836371381311201
5125000000.0 0.6029748745835226 -0.8605343435236039
5128000000.0 0.5175865684671556 -0.87641586425598
5131000000.0 0.5740785827059515 -0.8924044528350735
5134000000.0 0.5305770047474065 -0.8936992232052343
5138000000.0 0.5329424456275333 -0.9232760364607443
5141000000.0 0.5678217370644875 -0.8713807972995098
5144000000.0 0.5735997397609317 -0.8628199300171926
5147000000.0 0.5648162424241383 -0.9177520795901434
5150000000.0 0.5826453742634485 -0.8865882496550543
5153000000.0 0.5841857240571048 -0.8867373400128932
5156000000.0 0.5655641782192247 -0.8979104111284585
5159000000.0 0.5774838222923708 -0.8942854461332463
5162000000.0 0.5166963951342208 -0.8669810244273459
5166000000.0 0.5753427222974971 -0.8948662989201389
5169000000.0 0.5515233510666337 -0.8943131598163476
5172000000.0 0.5660410550953188 -0.8869725269493809
5175000000.0 0.6251051288840651 -0.9106805326408467
5178000000.0 0.5505469519711141 -0.9057159310326386
