! Created with skrf 1.8.0 (http://scikit-rf.org).
# Hz S RI R 50.0 
!freq ReS11 ImS11
4000000000.0 0.5292047464037204 -0.8469128595220924
4003000000.0 0.563945947259105 -0.9007019846357902
4006000000.0 0.47668678513655405 -0.8937115910280116
4009000000.0000005 0.5637646092886083 -0.8863304900737802
4011999999.9999995 0.5855059045961406 -0.8555690137008387
4016000000.0 0.495025424820831 -0.9268011180032564
4019000000.0 0.5264779479554397 -0.8904458535156713
4022000000.0000005 0.5542160129647324 -0.8483816501656297
4025000000.0000005 0.4701062504637353 -0.929067072019101
4027999999.9999995 0.5390547533793564 -0.9016456905421233
4030999999.9999995 0.5051439176011667 -0.8813553675660023
4034000000.0 0.522130084112989 -0.9080690720630329
4038000000.0000005 0.5382106830387706 -0.9104466358788418
4041000000.0000005 0.5429797299899249 -0.8786747337101638
4043999999.9999995 0.5494750294388804 -0.9195047139076165
4046999999.9999995 0.6055752094548967 -0.8917316115980785
4050000000.0 0.5036970976466628 -0.9246839022568132
4053000000.0 0.4812503629888547 -0.894003836553975
4056000000.0 0.5144602187798855 -0.8919491735244424
4059000000.0 0.5106997380911178 -0.8458331459401363
4062000000.0000005 0.5096633847547996 -0.8907671917355642
4066000000.0 0.5084585932927993 -0.8427434668431845
4069000000.0 0.5054138232679204 -0.943827217069755
4072000000.0 0.545683489131434 -0.8656344811519145
4075000000.0 0.576517299625062 -0.9019347382921221
4078000000.0000005 0.5374235683153077 -0.9217905132778748
4081000000.0000005 0.6045004576879883 -0.8894706914868976
4083999999.9999995 0.5227120248291044 -0.8919399780148336
4088000000.0 0.5751839157938727 -0.86978010595182
4091000000.0 0.5871509846392846 -0.9516323798473846
4094000000.0000005 0.549070663679299 -0.888217200367297
4097000000.0000005 0.5469081556997039 -0.8684986606781285
4099999999.9999995 0.5549923138160436 -0.9170549405204699
4102999999.9999995 0.5951627646723412 -0.9021911718107813
4106000000.0 0.545046377142243 -0.8947530516486877
4109000000.0 0.5351619501376599 -0.8931978727431354
4112000000.0 0.5348113974283898 -0.8619910104890721
4115999999.9999995 0.5622673052067804 -0.8623986700779683
4119000000.0 0.5404482273306634 -0.8659962627865097
4122000000.0 0.5138055528990635 -0.8858720994011169
4125000000.0 0.50670195315395 -0.8968125778705603
4128000000.0 0.5347958519954076 -0.8305100655571259
4131000000.0 0.5216169907268966 -0.8776877591563035
4134000000.0000005 0.5312900887873961 -0.8817607541263343
4138000000.0 0.4748643122612016 -0.872679966380274
4141000000.0 0.5166442784890483 -0.8475000934376071
4144000000.0 0.551958639819931 -0.8896323564545866
4147000000.0000005 0.5051832017667837 -0.8840102368512689
4150000000.0000005 0.5605842138717783 -0.9086055673787791
4152999999.9999995 0.5402942616469325 -0.8835432076619084
4155999999.9999995 0.5658355480371716 -0.896612113156031
4159000000.0 0.5358539597347733 -0.8677367970335036
4162000000.0 0.5027882882957911 -0.8576306768522582
4166000000.0000005 0.531845020850994 -0.8852349061667302
4168999999.9999995 0.5107180193426328 -0.8748413514659215
4171999999.9999995 0.5496029792447203 -0.9134001087794539
4175000000.0 0.5217927704457485 -0.894728643052143
4178000000.0 0.5637442225007412 -0.8888220855448811
4181000000.0 0.5033993461446897 -0.8738763988479409
4184000000.0 0.545872898226397 -0.8601660341752703
4187999999.9999995 0.5308741072151408 -0.8637822586789766
4191000000.0 0.5586772740480243 -0.851983421309935
4194000000.0 0.5229196995978788 -0.8830721844232133
4197000000.0 0.5327648789086616 -0.8621878461376098
4200000000.0 0.5323550201595033 -0.888101101899381
4203000000.0000005 0.5469423960229142 -0.846988625092352
4206000000.0000005 0.5451540846130656 -0.8981159188428149
4208999999.9999995 0.5444378536236678 -0.86609327762509
4211999999.9999995 0.5187252961301395 -0.9131610976553297
4216000000.0 0.5377845628096203 -0.8872087974067308
4219000000.0000005 0.553776634999638 -0.8749283490455745
4222000000.0000005 0.5342341819604215 -0.901222355203743
4224999999.9999995 0.5361485574307528 -0.8720329952728593
4227999999.9999995 0.5475203245869762 -0.8947271362690358
4231000000.0 0.5348146301049661 -0.8568790619390058
4234000000.0 0.5328715024545241 -0.8864855785973489
4238000000.0000005 0.5214376009657307 -0.8874131218544595
4240999999.9999995 0.5088392949113318 -0.8879947411335712
4244000000.0 0.5138449463648151 -0.8708332386793659
4247000000.0 0.5228862546155859 -0.873278114714888
4250000000.0 0.5029982898204273 -0.8720909784641298
4253000000.0 0.503893352591047 -0.8538569300955833
4256000000.0 0.5441793843852265 -0.8946360305221998
4259000000.0000005 0.5139400074333008 -0.8566830013848248
4261999999.9999995 0.5070632184617466 -0.8603699878550183
4266000000.0 0.5060357202061077 -0.8812295583882815
4269000000.0 0.5374784400686168 -0.8907628703029496
4272000000.0000005 0.523763829802087 -0.861390618880064
4275000000.0000005 0.5409687777340625 -0.8771111927446601
4277999999.9999995 0.5423009024054504 -0.9013107531260426
4280999999.9999995 0.5340321354934446 -0.8928381050713451
4284000000.0 0.5148410312267568 -0.8946427636662667
4288000000.0000005 0.5675311181561905 -0.873003983846167
4291000000.0000005 0.5210816711411279 -0.8753952759203282
4293999999.9999995 0.5348529411148419 -0.8708233812776359
4297000000.0 0.5495313702502338 -0.840245350635241
4300000000.0 0.516529775076952 -0.8470924193922941
4303000000.0 0.4926051427435483 -0.8579176331078001
4306000000.0 0.5554263833668254 -0.8709284908153766
4309000000.0 0.5227649699398912 -0.8546948400466328
4312000000.0 0.5842658638517453 -0.8538525057204229
4316000000.0 0.5491485115304061 -0.9103405540268906
4319000000.0 0.5264792911486978 -0.835524424850618
4322000000.0 0.5052563771866123 -0.8597785718381515
4325000000.0 0.525040721273416 -0.8893357794846294
4328000000.0 0.5033956427470069 -0.8495793692637246
4331000000.0 0.5061963748092909 -0.8842617949772705
4334000000.0 0.5204613653650868 -0.8552150746705697
4338000000.0 0.5543727660990586 -0.8709361895456001
4341000000.0 0.5476743407673271 -0.8653549975020619
4344000000.0 0.5564671887970751 -0.8630370541712735
4347000000.0 0.5115734359761881 -0.8902240747433625
4350000000.0 0.5139472167928318 -0.8659706077114245
4353000000.0 0.5363039355676366 -0.8446505093960989
4356000000.0 0.5034085044231383 -0.8645905373614274
4359000000.0 0.48682996951778235 -0.8177870723190023
4362000000.0 0.4872596735866418 -0.9123184093978711
4366000000.0 0.5123181077889188 -0.8758822501512302
4369000000.0 0.49766314383510357 -0.8368382745303411
4372000000.0 0.4739433511555086 -0.8861020121143649
4375000000.0 0.5335968964230479 -0.874556609921272
4378000000.0 0.5163724571754167 -0.8414990259957973
4381000000.0 0.5113491608363702 -0.87434941998518
4384000000.0 0.551512713216942 -0.9278138878721583
4388000000.0 0.5140842581989613 -0.8445021316977144
4391000000.0 0.5220011320493508 -0.8733755493827633
4394000000.0 0.5041650837572857 -0.8568777103164867
4397000000.0 0.5034401201137473 -0.8682594516876477
4400000000.0 0.5234099009796229 -0.8877507965694129
4403000000.0 0.5285825372256383 -0.8714272174931456
4406000000.0 0.4939344114269224 -0.8858429348757352
4409000000.0 0.5204419045170707 -0.9023002818727799
4412000000.0 0.469862847615228 -0.8980005930982686
4416000000.0 0.49673945634745986 -0.86275019743848
4419000000.0 0.49500018436009285 -0.8831599640592145
4422000000.0 0.5293643236864057 -0.8559725827782046
4425000000.0 0.535210126953753 -0.8810905938679527
4428000000.0 0.5067476734217449 -0.87493052946031
4431000000.0 0.540388425102732 -0.8836444551292961
4434000000.0 0.5031361904965145 -0.8635225168286687
4438000000.0 0.5208985914152882 -0.9063630025367949
4441000000.0 0.5262586849406594 -0.8799777140567646
4444000000.0 0.513990106683974 -0.843016661181765
4447000000.0 0.49892548017183 -0.8744453311462458
4450000000.0 0.5298604146125023 -0.8540695897799437
4453000000.0 0.5199702129832334 -0.8974825248311327
4456000000.0 0.47579814452054503 -0.8601620965681434
4459000000.0 0.4656439389052436 -0.834604634840724
4462000000.0 0.5446236991886768 -0.9225931559619076
4466000000.0 0.5252347815690062 -0.9182156897293876
4469000000.0 0.5306870827133401 -0.8621882895459387
4472000000.0 0.4976022797011602 -0.9130033295271343
4475000000.0 0.4889463923382411 -0.8381989015150765
4478000000.0 0.5136303605548772 -0.9183372780133773
4481000000.0 0.4778722106295752 -0.8656787324591169
4484000000.0 0.45525676961058986 -0.9002068058933717
4488000000.0 0.49567549730804805 -0.8607207200441059
4491000000.0 0.50596942761452 -0.880776522824996
4494000000.0 0.48605482746116585 -0.8815194533530228
4497000000.0 0.49990558578371513 -0.8791583072993017
4500000000.0 0.5060365881563871 -0.8733235744007929
4503000000.0 0.5241571229737148 -0.8923052044672086
4506000000.0 0.49006996271100345 -0.8925933003866136
4509000000.0 0.48634852473108325 -0.8409375167223224
4512000000.0 0.48616614046355 -0.8749232249546983
4516000000.0 0.5162999089742206 -0.8965856143731953
4519000000.0 0.4896401814146131 -0.8492367057939771
4522000000.0 0.48428294498983754 -0.8920166284992013
4525000000.0 0.5304419178363352 -0.8668878456350675
4528000000.0 0.5009245683275663 -0.9139764921066831
4531000000.0 0.5237664819030108 -0.8919061140839739
4534000000.0 0.49002580692347436 -0.8630721340420292
4538000000.0 0.5030341229381596 -0.8727742909768581
4541000000.0 0.4506011317876226 -0.8959708589458039
4544000000.0 0.48776138780240497 -0.8692406619165036
4547000000.0 0.5071903426090502 -0.8645054956284883
4550000000.0 0.4708319588936855 -0.9025879497812954
4553000000.0 0.4958972889410973 -0.8989185706746281
4556000000.0 0.48042176087523614 -0.8719212114847782
4559000000.0 0.4744179328436964 -0.8744616892668677
4562000000.0 0.5197074793548327 -0.8998931025940051
4566000000.0 0.4999556513377011 -0.8861784449464116
4569000000.0 0.4612747122548894 -0.8571720876201568
4572000000.0 0.4907727822629694 -0.8843266971225094
4575000000.0 0.4741683815634654 -0.9066967362034946
4578000000.0 0.5067511575003991 -0.9062949113829374
4581000000.0 0.48271826782661426 -0.8873742551466006
4584000000.0 0.48680386289003585 -0.8853621360916621
4588000000.0 0.5142599451794766 -0.895942045292607
4591000000.0 0.5092806282779209 -0.8735713589762042
4594000000.0 0.46164860740509184 -0.8884836630537345
4597000000.0 0.4949989747981759 -0.8905483209599145
4600000000.0 0.4576191573095324 -0.893412461908033
4603000000.0 0.4746536300963927 -0.8894624572538277
4606000000.0 0.4770968520749025 -0.9032259719229012
4609000000.0 0.46982464680429026 -0.893848454804789
4612000000.0 0.4802317654717101 -0.8997304349018658
4616000000.0 0.47222958535494886 -0.8889503146925235
4619000000.0 0.4793408597703934 -0.8846037285730566
4622000000.0 0.4866478497793575 -0.8783345263147836
4625000000.0 0.45322702845919305 -0.8762635224053611
4628000000.0 0.49557285605808254 -0.8839473050995763
4631000000.0 0.4688854722256852 -0.9082407002711832
4634000000.0 0.4747677458065922 -0.8920069043708043
4638000000.0 0.47832872631500123 -0.890409355928416
4641000000.0 0.48651528143525513 -0.8860554854015718
4644000000.0 0.48945293463908596 -0.8918745980216624
4647000000.0 0.484249790594117 -0.8980922668705039
4650000000.0 0.45730008164693126 -0.8958192399405989
4653000000.0 0.46894165928766113 -0.9004459033127854
4656000000.0 0.4741343041977175 -0.8917864136388707
4659000000.0 0.4465199805566077 -0.9070609103381739
4662000000.0 0.47701268072667913 -0.9112393992617553
4666000000.0 0.4688684827136534 -0.9097819808586155
4669000000.0 0.47987952000851486 -0.9062924672855696
4672000000.0 0.44953453988936487 -0.9195587124075972
4675000000.0 0.4581529145673616 -0.9182445181849718
4678000000.0 0.4474431151638332 -0.8635855743247343
4681000000.0 0.4546395999663052 -0.9363172219731739
4684000000.0 0.4557155646973612 -0.9143708181388701
4688000000.0 0.45741389104242214 -0.9025631781636928
4691000000.0 0.5032334363561626 -0.8971446724608517
4694000000.0 0.46491786900426646 -0.8928084022873795
4697000000.0 0.4485407552939528 -0.8837591550616514
4700000000.0 0.48346445542493843 -0.8936331629044533
4703000000.0 0.49305709638582373 -0.8832644926193739
4706000000.0 0.44768972543215324 -0.9112528420061171
4709000000.0 0.4675891773208357 -0.9101103378710731
4712000000.0 0.4630933197385403 -0.8979420167290498
4716000000.0 0.4564576467885781 -0.9099678834068362
4719000000.0 0.4980389586650606 -0.8775842604288501
4722000000.0 0.4915880114574338 -0.9061536540209791
4725000000.0 0.48331230246261186 -0.9132799575132078
4728000000.0 0.4607594875946251 -0.8957767446645822
4731000000.0 0.4907043886891735 -0.9022062906274043
4734000000.0 0.47419245771515606 -0.8987683202417468
4738000000.0 0.49456350161271617 -0.9277734602347004
4741000000.0 0.49005138829709916 -0.9087186914065299
4744000000.0 0.46797375630705085 -0.9284616326483889
4747000000.0 0.4815838160725852 -0.8696315960557031
4750000000.0 0.49762211584827676 -0.9262560494771187
4753000000.0 0.49764961860462 -0.8867875610710975
4756000000.0 0.44627140621058914 -0.9187258442508451
4759000000.0 0.5151101378000503 -0.9195769550485422
4762000000.0 0.4353108300621025 -0.9210138257142176
4766000000.0 0.46423378217681643 -0.9084820908384366
4769000000.0 0.4728548479917448 -0.9304758571500471
4772000000.0 0.4594686159181318 -0.9152975866596933
4775000000.0 0.48753528690966913 -0.9690461638563146
4778000000.0 0.4598455792691085 -0.9291996747015157
4781000000.0 0.4829883814554813 -0.9041274350555076
4784000000.0 0.46992322951900656 -0.8888173750963818
4788000000.0 0.4586864404982425 -0.9367397700080672
4791000000.0 0.45953510607436576 -0.9106297461340966
4794000000.0 0.4893390682804917 -0.935471144210531
4797000000.0 0.4750440612044361 -0.8995234589493954
4800000000.0 0.44117294790785505 -0.9030835451244819
4803000000.0 0.4412336903623425 -0.9107764054049595
4806000000.0 0.47083015614831925 -0.9098879444503586
4809000000.0 0.4077023079684078 -0.9114042230250127
4812000000.0 0.4190126800201923 -0.928583704108461
4816000000.0 0.4830816406419143 -0.8805022879644403
4819000000.0 0.4678249345517351 -0.910883595455035
4822000000.0 0.5141212505150927 -0.9406067490638319
4825000000.0 0.4899379210621276 -0.9131859360745751
4828000000.0 0.46830255221550343 -0.9052614314756035
4831000000.0 0.41735788212193825 -0.9647096597757355
4834000000.0 0.48114056931021254 -0.8994471254688037
4838000000.0 0.4784995646981126 -0.9426671983362549
4841000000.0 0.4377374046387846 -0.9210808167931146
4844000000.0 0.5156534715297166 -0.9222809562544174
4847000000.0 0.47405916899857614 -0.8830768512849547
4850000000.0 0.4437107377443523 -0.9349996661139022
4853000000.0 0.44761419872404595 -0.8991324891745032
4856000000.0 0.45146687504159033 -0.9160904412734703
4859000000.0 0.4865029493114279 -0.9452440776043554
4862000000.0 0.4722973287797529 -0.9134941139679086
4866000000.0 0.45791606884216296 -0.9308044768425459
4869000000.0 0.4602030220303361 -0.9438384954926599
4872000000.0 0.42862939188408267 -0.9620650520920211
4875000000.0 0.5381055642657222 -0.9329336099150648
4878000000.0 0.4582850784629541 -0.9367663193056438
4881000000.0 0.4619103964901367 -0.9978753751716267
4884000000.0 0.482714046394098 -0.9120304606359377
4888000000.0 0.5207028705442364 -0.9064914117829072
4891000000.0 0.5082541314424007 -0.9225292953493429
4894000000.0 0.4464268330017878 -0.9298553355958186
4897000000.0 0.5053463573689155 -0.9153094168449899
4900000000.0 0.46872345706409246 -0.9128469152412463
4903000000.0 0.47653715517408757 -0.9001457986942609
4906000000.0 0.46127683780285944 -0.9234190264904889
4909000000.0 0.4504969830823419 -0.9150157024280832
4912000000.0 0.4838273798887403 -0.9490301478875061
4916000000.0 0.5217927183992696 -0.9375637214807583
4919000000.0 0.5243585434535257 -0.9382024651128094
4922000000.0 0.5147901932315545 -0.9205742723329716
4925000000.0 0.4495193060007613 -0.9122316758393052
4928000000.0 0.5092310683269913 -0.8551706992131753
4931000000.0 0.5156234901643115 -0.9221037257835428
4934000000.0 0.4716495648194457 -0.8440451297896944
4938000000.0 0.43639511147696863 -0.9548143855112523
4941000000.0 0.49656269279957427 -0.8975707999398097
4944000000.0 0.46732775089641276 -0.857579367162131
4947000000.0 0.4651380140748427 -0.9029984590178183
4950000000.0 0.43457364570987145 -0.9092668603823124
4953000000.0 0.45351012523674195 -0.9583598118463328
4956000000.0 0.46795797759672997 -0.8965959904507965
4959000000.0 0.4010939235749867 -0.8766581746970029
4962000000.0 0.46361968548244514 -0.9569137212929302
4966000000.0 0.5228305191840757 -0.9280496260628828
4969000000.0 0.5118883172111994 -0.992259000052526
4972000000.0 0.4790169908071691 -0.8974656441487406
4975000000.0 0.4942075620878404 -0.8746667431174773
4978000000.0 0.448583172918188 -0.9404464808105897
4981000000.0 0.4940586478541554 -0.9629792037079428
4984000000.0 0.4781461385379725 -0.8976711202857883
4988000000.0 0.4942759343437182 -0.8944861161554994
4991000000.0 0.5535383633450249 -0.9133118819239033
4994000000.0 0.48741567589249835 -0.9102817174776627
4997000000.0 0.45421513885760795 -0.9254400168346463
5000000000.0 0.4882757624483757 -0.9367961374760067
5003000000.0 0.48690194381329244 -0.9502302826411224
5006000000.0 0.5213744928261275 -0.9466058906781497
5009000000.0 0.5063155962743685 -0.9136687890626951
5012000000.0 0.47452095371781355 -0.9371091933637549
5016000000.0 0.5325253035612945 -0.9547145803717259
5019000000.0 0.4751261068570668 -0.9410708805120263
5022000000.0 0.486434859952228 -0.9095816031548793
5025000000.0 0.5099884713960734 -0.9766968332658603
5028000000.0 0.48036383036105307 -0.9369838447785609
5031000000.0 0.45529386581932213 -0.908497935075591
5034000000.0 0.4719732094306516 -0.9485435956033317
5038000000.0 0.4680940092414248 -0.9210469714277454
5041000000.0 0.5073240052950876 -0.8996389347983486
5044000000.0 0.5315058150194526 -0.8935082259637589
5047000000.0 0.4898791899685082 -0.9085555545688726
5050000000.0 0.5521564496819045 -0.8401902477972929
5053000000.0 0.47783929657958313 -0.9596129986729102
5056000000.0 0.5284197025765587 -0.8875100806838674
5059000000.0 0.5548054928039262 -0.8926583967130732
5062000000.0 0.4973522418264529 -0.9392544146539459
5066000000.0 0.5351565801914133 -0.9125794151273041
5069000000.0 0.4843889710056391 -0.9206252733328342
5072000000.0 0.47004827840178237 -0.8895112230439779
5075000000.0 0.5038119754468184 -0.8984382391617363
5078000000.0 0.47196092830737585 -0.9512226613533163
5081000000.0 0.46523205802241197 -0.8946951947909996
5084000000.0 0.5105766924770675 -0.9502591301434911
5088000000.0 0.5239705983834348 -0.9065900866077745
5091000000.0 0.46225991774306285 -0.9438517113886238
5094000000.0 0.4945336454046552 -0.8988424928637926
5097000000.0 0.562409693106245 -0.898328640928814
5100000000.0 0.4912714048382582 -0.9194156125453553
5103000000.0 0.4688051251636187 -0.9169189365226293
5106000000.0 0.5331523658073358 -0.9678047856628761
5109000000.0 0.5236163140839969 -0.8423384016095576
5112000000.0 0.47667311487196307 -0.9060383751230447
5116000000.0 0.512599400202291 -0.8742018619240601
5119000000.0 0.5015551894941415 -0.9250390195266793
5122000000.0 0.529313432523654 -0.9221032548110903
5125000000.0 0.5355683929717392 -0.891790891902174
5128000000.0 0.49205650793930444 -0.9179786760170439
5131000000.0 0.49864236581638355 -0.8595937620647359
5134000000.0 0.5049312059335703 -0.8990905099316635
5138000000.0 0.5608834734112708 -0.9138366168795828
5141000000.0 0.5570847659663718 -0.9152661702197925
5144000000.0 0.5549439668006557 -0.9394535660777771
5147000000.0 0.4944118382169978 -0.9451369301446584
5150000000.0 0.511159767029158 -0.9242815493204728
5153000000.0 0.5408870169859475 -0.9184589541602957
5156000000.0 0.5037642188416462 -0.892005395034692
5159000000.0 0.5019992335659402 -0.9324863910093988
5162000000.0 0.49678112428332677 -0.8981866180861615
5166000000.0 0.5082396160682974 -0.955768200421582
5169000000.0 0.5230429223296569 -0.9315064350440263
5172000000.0 0.5367401661932124 -0.9040409442872263
5175000000.0 0.5792466076053271 -0.9523943518782001
