! Created with skrf 1.8.0 (http://scikit-rf.org).
# Hz S RI R 50.0 
!freq ReS11 ImS11
4000000000.0 0.5148437768897333 -0.8633990303363099
4003000000.0 0.5559877924943644 -0.9295025797447254
4006000000.0 0.4723828935836251 -0.926707835403052
4009000000.0000005 0.49009641497300194 -0.9513548650920847
4011999999.9999995 0.5683861152645676 -0.8994673397341864
4016000000.0 0.4814786639843198 -0.9163508126941351
4019000000.0 0.5262146878134297 -0.9003030935995129
4022000000.0000005 0.5805845906988001 -0.9247989912347792
4025000000.0000005 0.463720103489348 -0.9269381513019758
4027999999.9999995 0.4984304969353559 -0.9056028273935779
4030999999.9999995 0.4839816222300243 -0.871471683083555
4034000000.0 0.4911103062339647 -0.9235706053377761
4038000000.0000005 0.4724465951860883 -0.9218463841727084
4041000000.0000005 0.5066973258680564 -0.9316123544111696
4043999999.9999995 0.5553060565864694 -0.9524979829188864
4046999999.9999995 0.5470669439462481 -0.9037733993526097
4050000000.0 0.48514680183191694 -0.9236045303684166
4053000000.0 0.48467131788325873 -0.8796952297334213
4056000000.0 0.5132164841706769 -0.8863923979390306
4059000000.0 0.5307108625386613 -0.894294414396902
4062000000.0000005 0.4925231821503786 -0.9267299532043921
4066000000.0 0.46226374523311464 -0.8310870654784723
4069000000.0 0.45110069237573835 -0.9268192886357907
4072000000.0 0.5458319959587402 -0.8618103869673768
4075000000.0 0.5662431849781294 -0.9154450609094725
4078000000.0000005 0.47619937873372714 -0.9144589450335424
4081000000.0000005 0.5243405270137379 -0.9308976839547481
4083999999.9999995 0.4755546379962999 -0.9413671823205056
4088000000.0 0.5297030383699862 -0.8756426939571338
4091000000.0 0.5542776263099718 -0.9359004323761051
4094000000.0000005 0.4773494651539742 -0.8829106832028425
4097000000.0000005 0.4924808579876985 -0.9134965398685405
4099999999.9999995 0.49237235490661535 -0.8792535913839808
4102999999.9999995 0.513358674553897 -0.9069805312789352
4106000000.0 0.48070082312758416 -0.9127087153183844
4109000000.0 0.48698632834757904 -0.910787261597182
4112000000.0 0.5104162104329422 -0.8924892100209523
4115999999.9999995 0.5330861744208956 -0.9258291978904839
4119000000.0 0.4801021584706368 -0.9118504235842223
4122000000.0 0.48382045846620825 -0.8931297866104337
4125000000.0 0.5028668921563274 -0.9133311837601992
4128000000.0 0.5068966682301383 -0.897769229985397
4131000000.0 0.4960796916675775 -0.8485415105667772
4134000000.0000005 0.5181643657916868 -0.8678346768359505
4138000000.0 0.48715156179579955 -0.8985303474727043
4141000000.0 0.45909597125520923 -0.8781773166923739
4144000000.0 0.503365124330769 -0.8929509981985452
4147000000.0000005 0.49310151355409815 -0.9058225455942337
4150000000.0000005 0.4757908168871425 -0.9300415111140261
4152999999.9999995 0.5173258166314991 -0.8780372583007642
4155999999.9999995 0.5203475298891592 -0.9170747826341845
4159000000.0 0.5020480968236871 -0.8420390386462107
4162000000.0 0.4911854343530746 -0.8826547606576792
4166000000.0000005 0.49324668352795087 -0.9005970285229831
4168999999.9999995 0.4555081157910323 -0.89344714102993
4171999999.9999995 0.4957624440323787 -0.908844421519073
4175000000.0 0.5042902230318105 -0.9117279731059433
4178000000.0 0.5133396304773973 -0.9139562036248716
4181000000.0 0.45730138433691603 -0.935207373925385
4184000000.0 0.511746054420555 -0.8883621714574008
4187999999.9999995 0.46822062905400597 -0.9044731888850202
4191000000.0 0.5132686185501633 -0.8521679316005134
4194000000.0 0.48547312858125763 -0.9023191967536247
4197000000.0 0.5166680808211229 -0.9122513161212547
4200000000.0 0.5160651033929564 -0.903445989625262
4203000000.0000005 0.5282429873817712 -0.8952467941122201
4206000000.0000005 0.5171448694282936 -0.8849498860517299
4208999999.9999995 0.5095841263773874 -0.8748664354461686
4211999999.9999995 0.47081597772116374 -0.9139717924116121
4216000000.0 0.5164223900738943 -0.8859366808065091
4219000000.0000005 0.5159910839623967 -0.9052173643152839
4222000000.0000005 0.4900106038966189 -0.9019071355346059
4224999999.9999995 0.49706131407726606 -0.8840289120175118
4227999999.9999995 0.5058631191780373 -0.8855526348616723
4231000000.0 0.511746045027526 -0.8930283349260209
4234000000.0 0.5054605958689558 -0.9031483612143074
4238000000.0000005 0.4860760085572907 -0.9167375052790946
4240999999.9999995 0.49767423698267055 -0.8753520459000526
4244000000.0 0.5011417308664232 -0.8886878089834176
4247000000.0 0.49847319971574805 -0.8856450554011811
4250000000.0 0.48425510860078436 -0.8917911863844703
4253000000.0 0.4840865426588449 -0.8711036739782803
4256000000.0 0.5094130383842048 -0.928995107757438
4259000000.0000005 0.4667828172166346 -0.8509260107912543
4261999999.9999995 0.4719653457616453 -0.911145867898977
4266000000.0 0.472119534162303 -0.919781781784472
4269000000.0 0.5035487259822469 -0.8810060241950471
4272000000.0000005 0.4966433699779418 -0.8765597851892927
4275000000.0000005 0.5041331834332681 -0.9026039540532813
4277999999.9999995 0.5313145147785849 -0.9026109109103023
4280999999.9999995 0.49574713647310176 -0.8926560415965232
4284000000.0 0.47740692235448023 -0.9055014654694505
4288000000.0000005 0.5236336413612505 -0.8829705890163319
4291000000.0000005 0.4779609222396493 -0.8778652134940801
4293999999.9999995 0.4834493712084569 -0.8814147361536477
4297000000.0 0.4969657373113314 -0.8544954890965387
4300000000.0 0.4896915119278166 -0.867095989723549
4303000000.0 0.46989267949346225 -0.8921225891331886
4306000000.0 0.5194542762271142 -0.8801027199631144
4309000000.0 0.4929796450234502 -0.8839206490291088
4312000000.0 0.5057023088146073 -0.9007056288753887
4316000000.0 0.5050769750442523 -0.9177667521244466
4319000000.0 0.45959211555705326 -0.8691955569615417
4322000000.0 0.4764922640964342 -0.8903182959154826
4325000000.0 0.4904329866663919 -0.8812485399225395
4328000000.0 0.48466632100933715 -0.8675918625065406
4331000000.0 0.46522368767402694 -0.9026377499719114
4334000000.0 0.46958204645765705 -0.8843072663698602
4338000000.0 0.48998420944672083 -0.8790268194215539
4341000000.0 0.5317584894675523 -0.8955536035246516
4344000000.0 0.49612494021300213 -0.8996539631805524
4347000000.0 0.474364142694877 -0.8919460454921715
4350000000.0 0.4702009430780417 -0.8598895763516132
4353000000.0 0.49339270240504723 -0.8756499217306688
4356000000.0 0.45502271570227626 -0.880967966264982
4359000000.0 0.4510522490924643 -0.849691437615551
4362000000.0 0.42962090421649346 -0.9104149074821233
4366000000.0 0.5021653483053784 -0.912676338920021
4369000000.0 0.4497073098073725 -0.8643089528878715
4372000000.0 0.4486674947599083 -0.8992121246527683
4375000000.0 0.489131912231852 -0.8881255625308595
4378000000.0 0.46400566139400146 -0.8741412685910691
4381000000.0 0.4774414243325139 -0.8631354682302335
4384000000.0 0.483183281056923 -0.9612348761082675
4388000000.0 0.475024741286146 -0.8791497210091568
4391000000.0 0.4739910964377732 -0.9026725893818048
4394000000.0 0.46470198182593536 -0.874598345301673
4397000000.0 0.4724212385802401 -0.8909820749196847
4400000000.0 0.48214535901653177 -0.9200742215972955
4403000000.0 0.4833282593085071 -0.9109115749836849
4406000000.0 0.45858296244643804 -0.8998413151167364
4409000000.0 0.4820012883541491 -0.9263238707149931
4412000000.0 0.4115131605573934 -0.9090171213472347
4416000000.0 0.4595338461019228 -0.8970827176319516
4419000000.0 0.43984325204204033 -0.9002910780424991
4422000000.0 0.47475960634774106 -0.8853638666209713
4425000000.0 0.5178891230331129 -0.9044720295470645
4428000000.0 0.4628710738138527 -0.9044101562673981
4431000000.0 0.48738698814256765 -0.9180464306075962
4434000000.0 0.46467723761055285 -0.8952879701187207
4438000000.0 0.47457628132004986 -0.9215666383740582
4441000000.0 0.4856607153282224 -0.9076939966284285
4444000000.0 0.4667442625518605 -0.893587344781355
4447000000.0 0.4481565275562745 -0.9046528550621675
4450000000.0 0.47173383084236864 -0.8937427271198739
4453000000.0 0.4747160559135888 -0.9175235235140365
4456000000.0 0.4444113506024266 -0.8937560439826528
4459000000.0 0.4332219934098633 -0.8596900776775298
4462000000.0 0.4864883586032804 -0.9648728853106798
4466000000.0 0.4697809334019648 -0.9266345418305916
4469000000.0 0.4926071281215266 -0.9007479424325406
4472000000.0 0.45125954823436637 -0.9210762354190548
4475000000.0 0.44479435014322877 -0.886706991574068
4478000000.0 0.47734356889272817 -0.9482320990771517
4481000000.0 0.43566330151927407 -0.8895773486316038
4484000000.0 0.41202401215649764 -0.9067910860522126
4488000000.0 0.46103729591757775 -0.8971440249237561
4491000000.0 0.45711856506523363 -0.9080626211351445
4494000000.0 0.4514101002739842 -0.8947560610991327
4497000000.0 0.4527927732631965 -0.8974176552580462
4500000000.0 0.45127531846256513 -0.8986464781784598
4503000000.0 0.47071850638625884 -0.9194666529799239
4506000000.0 0.4372513637795015 -0.8976577734652333
4509000000.0 0.4547348299772865 -0.8812600583428478
4512000000.0 0.4454171315225983 -0.8958755466240329
4516000000.0 0.47215658464524535 -0.9310887615144938
4519000000.0 0.45304333636288313 -0.8817838516370435
4522000000.0 0.43082778610165007 -0.9142455572502404
4525000000.0 0.48755351186167173 -0.9039124198239512
4528000000.0 0.4567128838109526 -0.916509949329068
4531000000.0 0.46388383489003865 -0.9038595854404721
4534000000.0 0.4586567074216602 -0.901019613134252
4538000000.0 0.45860158962088093 -0.905124703411178
4541000000.0 0.4121768729693445 -0.9076871145962214
4544000000.0 0.44004399427355495 -0.900121871098489
4547000000.0 0.4780321705920058 -0.9011006946966624
4550000000.0 0.4351485798803063 -0.9364720446843384
4553000000.0 0.42179840393424206 -0.9154204766013454
4556000000.0 0.4228845768596599 -0.9124587681394087
4559000000.0 0.4248940403955194 -0.9255542109975414
4562000000.0 0.4619213789036157 -0.9320291512938981
4566000000.0 0.4474481933352977 -0.9122518123063196
4569000000.0 0.42133725825781415 -0.8989237345936225
4572000000.0 0.4327096627643383 -0.9132427238405678
4575000000.0 0.41572439752642937 -0.9247593909217521
4578000000.0 0.46635723767851844 -0.9297732965815173
4581000000.0 0.4276739759244454 -0.9185182167009991
4584000000.0 0.4205870358122356 -0.9184132490415373
4588000000.0 0.44969253279820737 -0.9263347798980748
4591000000.0 0.4305607420345209 -0.9306164558308849
4594000000.0 0.41276399308416234 -0.9074815668244077
4597000000.0 0.42519941636068387 -0.9245825256951692
4600000000.0 0.41497019183678185 -0.9190703429935686
4603000000.0 0.42708861064046716 -0.934645750548657
4606000000.0 0.4369716912579704 -0.9251298051442071
4609000000.0 0.431536905176932 -0.9124305414688748
4612000000.0 0.4223966114016676 -0.9352276955326568
4616000000.0 0.41907067624228955 -0.910441205555186
4619000000.0 0.43457636533837884 -0.9321576838095937
4622000000.0 0.4176613428802167 -0.9188834620773099
4625000000.0 0.39154485074367373 -0.9165929465512854
4628000000.0 0.4336573617069459 -0.9175561075233697
4631000000.0 0.42500957861509614 -0.92453407001948
4634000000.0 0.41283054260862057 -0.9358934929424259
4638000000.0 0.4367756746662752 -0.9211918967845086
4641000000.0 0.4321126751771617 -0.921498628659714
4644000000.0 0.41958242517011635 -0.9039553010649095
4647000000.0 0.41430966769395094 -0.9206097965027772
4650000000.0 0.4016802070419944 -0.9196971827636277
4653000000.0 0.44602027799620725 -0.9308131989196688
4656000000.0 0.4094425729080897 -0.9209033029122474
4659000000.0 0.43144638722297673 -0.934159250452601
4662000000.0 0.4111750635536111 -0.9398650999247548
4666000000.0 0.3982230720291629 -0.9344624886583124
4669000000.0 0.4248915550547106 -0.9048179574222518
4672000000.0 0.3857984344970498 -0.9549187257024451
4675000000.0 0.40051664792268193 -0.9183940492821371
4678000000.0 0.3981509394780172 -0.9195879655295909
4681000000.0 0.3886831022534916 -0.952366880808145
4684000000.0 0.3932623273448548 -0.9403816485107303
4688000000.0 0.4002445306425125 -0.9353917231639954
4691000000.0 0.4293658409867651 -0.9251508256182521
4694000000.0 0.43283197645292776 -0.9288335845751841
4697000000.0 0.3876144957242158 -0.8737686815549215
4700000000.0 0.4101757799706969 -0.9254850065929309
4703000000.0 0.433455019316562 -0.8881385028621315
4706000000.0 0.396380605084815 -0.9375337662229141
4709000000.0 0.4035873768724279 -0.933923520006825
4712000000.0 0.4099461780271318 -0.9289424332872087
4716000000.0 0.40388582375658577 -0.9687499993947339
4719000000.0 0.43158237608594197 -0.9215625694052029
4722000000.0 0.42185235543843413 -0.9219082414517111
4725000000.0 0.4083042491081074 -0.9417473098215886
4728000000.0 0.4174569274928908 -0.917095978367036
4731000000.0 0.4470004118633344 -0.968724792220317
4734000000.0 0.4454634242273946 -0.9002937931160894
4738000000.0 0.46373787221369683 -0.9862978359571763
4741000000.0 0.4049938398736962 -0.9596083642895998
4744000000.0 0.4056212912506879 -0.947824647996098
4747000000.0 0.40250005463877514 -0.9080586227801775
4750000000.0 0.41007039724917194 -0.9536270882511598
4753000000.0 0.4101545028522629 -0.9573794572533035
4756000000.0 0.4083378158816391 -0.9568478220331508
4759000000.0 0.4123995884455258 -0.9344266987283388
4762000000.0 0.3789007184583917 -0.9806552044015192
4766000000.0 0.4045514631708167 -0.9361088938195085
4769000000.0 0.40956205371948873 -0.9622039775560818
4772000000.0 0.3736714385178683 -0.9569080945571589
4775000000.0 0.3953215010006537 -0.9857507825126396
4778000000.0 0.40049503917642404 -0.9518703301607603
4781000000.0 0.4168521447143867 -0.9382136577485606
4784000000.0 0.4317063470110324 -0.9220426418239931
4788000000.0 0.3957106525448175 -0.9777279884958108
4791000000.0 0.3970584415043171 -0.9244016580652811
4794000000.0 0.4427440220609067 -0.9696335988275103
4797000000.0 0.37461974563503964 -0.9254392388258301
4800000000.0 0.4085421810810742 -0.9246685231033019
4803000000.0 0.34989953878391344 -0.9257656456569197
4806000000.0 0.38686600852890246 -0.9718350692813651
4809000000.0 0.35771422792385693 -0.9432161780930582
4812000000.0 0.3559987355813777 -0.9756223627369313
4816000000.0 0.42707047774343154 -0.9141321770113755
4819000000.0 0.4222431355838435 -0.9658125273572751
4822000000.0 0.4333992300043358 -0.9653681122579525
4825000000.0 0.4532744553545349 -0.9607023724386399
4828000000.0 0.40453161640163865 -0.9417495483043775
4831000000.0 0.3455407514020196 -0.9886968675480803
4834000000.0 0.4098600307482714 -0.9556202844204869
4838000000.0 0.38952024525500406 -0.9762757791657017
4841000000.0 0.36520747712389556 -0.9425173192607496
4844000000.0 0.4380517492975866 -0.9465432962430776
4847000000.0 0.4095732523608968 -0.926172872963801
4850000000.0 0.3840691416578624 -0.9932410945369264
4853000000.0 0.38503654821385536 -0.9194000931554693
4856000000.0 0.39982029653431234 -0.9434744818346816
4859000000.0 0.39663125897415136 -0.978037042083621
4862000000.0 0.41114215497657364 -0.9052056767132536
4866000000.0 0.37107403498228214 -0.9810164236744242
4869000000.0 0.3874342535955956 -0.9684421740787426
4872000000.0 0.405635453388094 -0.9917325208983011
4875000000.0 0.49945826634489576 -0.9665246105002038
4878000000.0 0.396099004827344 -0.9725951430566422
4881000000.0 0.3802129896159534 -1.0448913672443607
4884000000.0 0.4130185242296729 -0.9417243157982054
4888000000.0 0.42816337791887527 -0.9381013630554944
4891000000.0 0.42877873334633887 -0.9753512908020122
4894000000.0 0.3695987670605131 -0.9286975124042672
4897000000.0 0.4276218250487253 -0.9301739067363043
4900000000.0 0.39978045092286413 -0.9630658809919045
4903000000.0 0.4258420375303813 -0.971305621376763
4906000000.0 0.3820747383444571 -0.9805549823576545
4909000000.0 0.38874344126490384 -0.9570398441167995
4912000000.0 0.40972257009256385 -0.9817278384411433
4916000000.0 0.40148182964734114 -0.971357729268138
4919000000.0 0.45906141855641697 -0.966301928707759
4922000000.0 0.44762739447852956 -0.9593562214807554
4925000000.0 0.3846250346001005 -0.9503493875292783
4928000000.0 0.43818799380085316 -0.9187439230972011
4931000000.0 0.4147019527850522 -0.9781723498156586
4934000000.0 0.42543473876683147 -0.9258768898616367
4938000000.0 0.38640641425666444 -0.9600660173605768
4941000000.0 0.41772714242227077 -0.9397003011224745
4944000000.0 0.406482033466785 -0.866665330155975
4947000000.0 0.3687827537342011 -0.9257744088010228
4950000000.0 0.37724858854731913 -0.9352988237596397
4953000000.0 0.37313767009110493 -0.9824263980998542
4956000000.0 0.39370045449937185 -0.938794120619906
4959000000.0 0.3808010860608351 -0.9523935683210185
4962000000.0 0.40727315252028695 -1.0091297703878597
4966000000.0 0.42130357519298794 -0.9804996436553294
4969000000.0 0.45543434088204654 -0.9722453888045428
4972000000.0 0.4044912683686317 -0.994146064130394
4975000000.0 0.4351849938606077 -0.9429296567665088
4978000000.0 0.38850157204199054 -0.9748394845425307
4981000000.0 0.38462285711625327 -0.9777512773238001
4984000000.0 0.4126493443420053 -0.9344693151557624
4988000000.0 0.4059967376770227 -0.9465071771209722
4991000000.0 0.45234644827948 -0.9586151078570043
4994000000.0 0.3979626675775918 -0.9564286078459849
4997000000.0 0.3734256183000058 -0.9947596035818598
5000000000.0 0.44157807606685995 -0.994316735364686
5003000000.0 0.4102591321135802 -0.9889909610573456
5006000000.0 0.42972088194530134 -0.9951407106846228
5009000000.0 0.39152480600779027 -0.9575287689928267
5012000000.0 0.36910263124953774 -0.9834058458400372
5016000000.0 0.445423294186813 -0.9635842847635266
5019000000.0 0.40791270417193004 -0.9448348730899752
5022000000.0 0.4062903082498517 -0.955951237840776
5025000000.0 0.4387198719977822 -1.023395362717633
5028000000.0 0.37230795222686974 -0.97284491934765
5031000000.0 0.40046272648678893 -0.9628367066541847
5034000000.0 0.36559861950767175 -1.021650175420096
5038000000.0 0.3638278983111362 -0.9525058931077559
5041000000.0 0.4101958921744683 -0.9411327154308415
5044000000.0 0.4281007191522162 -0.9367576883309641
5047000000.0 0.42309653631049954 -0.9597927039417427
5050000000.0 0.4766767100241565 -0.927573749380163
5053000000.0 0.4096367536921821 -0.9717783582198324
5056000000.0 0.4291519554878299 -0.9350165097739523
5059000000.0 0.46723935844395803 -0.934999441245945
5062000000.0 0.40443530294428714 -0.9827169614587394
5066000000.0 0.4730361907493813 -0.9513535683839032
5069000000.0 0.39648107539876287 -0.9727337865332224
5072000000.0 0.4175459525444785 -0.9316706429671376
5075000000.0 0.4508494720063442 -0.9243412473901585
5078000000.0 0.3699588359330447 -1.0000024600939004
5081000000.0 0.364091077190349 -0.9588424280777177
5084000000.0 0.4284876047764415 -0.9905411513781535
5088000000.0 0.43840574886499284 -0.9346454204348007
5091000000.0 0.3611440071733289 -0.9902978049740273
5094000000.0 0.4072924517880107 -0.9782263077909312
5097000000.0 0.5128451064951585 -0.9180592955587186
5100000000.0 0.3774700907154163 -0.9338277464829803
5103000000.0 0.38876262386605603 -0.9683898129262327
5106000000.0 0.43295307574804826 -0.9819414609823657
5109000000.0 0.466274967573335 -0.9340521014543295
5112000000.0 0.36731979054500563 -0.9491831075369883
5116000000.0 0.4343191417654197 -0.956596774779952
5119000000.0 0.36643377003585864 -0.9533423537639756
5122000000.0 0.3931575797539704 -0.9749082384289948
5125000000.0 0.4322094978172694 -0.9818382916483614
5128000000.0 0.39877277414611 -0.9777366914909792
5131000000.0 0.44687865905527674 -0.9511164840041189
5134000000.0 0.4145383792196148 -0.9423086916611481
5138000000.0 0.44570598011272283 -0.9272082659601812
5141000000.0 0.4433670562492578 -0.9166947869197253
5144000000.0 0.4583646618763838 -0.9303285804914663
5147000000.0 0.4563718818048941 -1.0025687476011496
5150000000.0 0.43929536036728417 -0.9576172058352594
5153000000.0 0.43821681855905686 -0.9488096901226413
5156000000.0 0.4550469118161088 -0.945298740849355
5159000000.0 0.5103728209253227 -0.978630061340398
5162000000.0 0.40453558802496076 -0.9511119363299279
5166000000.0 0.39978694744690146 -0.9473265732069184
5169000000.0 0.45802720954902826 -0.9616227623155608
5172000000.0 0.43763500920455817 -0.9458528726387299
