! Created with skrf 1.8.0 (http://scikit-rf.org).
# Hz S RI R 50.0 
!freq ReS11 ImS11
4000000000.0 0.5615512773665502 -0.8221579709968998
4003000000.0 0.6044794745501165 -0.9487946770594362
4006000000.0 0.5361596194544395 -0.8394376454515303
4009000000.0000005 0.5479072583545258 -0.8740582525360272
4011999999.9999995 0.5958869974515084 -0.8456675803054081
4016000000.0 0.5454828762782359 -0.890371320959418
4019000000.0 0.5330429016150264 -0.8326188485138273
4022000000.0000005 0.5909577392026113 -0.8384980393499055
4025000000.0000005 0.5074826470578188 -0.9250594736320449
4027999999.9999995 0.5401286310871377 -0.8753955569643492
4030999999.9999995 0.5185932350025351 -0.8266949894491735
4034000000.0 0.5285421664441968 -0.8727062958478333
4038000000.0000005 0.49856308615778766 -0.9025111353090202
4041000000.0000005 0.5252831259115955 -0.8921532098587382
4043999999.9999995 0.5812708588368648 -0.9643148380402214
4046999999.9999995 0.5874307918256243 -0.8537728099394486
4050000000.0 0.5074840184017904 -0.9139504998844159
4053000000.0 0.5273898478167314 -0.8761475424252003
4056000000.0 0.5275606259324795 -0.8785194453160478
4059000000.0 0.5453010300145953 -0.8063099893437484
4062000000.0000005 0.5132149406096698 -0.8807423485109495
4066000000.0 0.5241786733156337 -0.8168910134118628
4069000000.0 0.5401906820980902 -0.9285923516287352
4072000000.0 0.598050650711047 -0.8373136199862264
4075000000.0 0.6098212028693697 -0.8771096212455376
4078000000.0000005 0.5276289919054209 -0.8864045316678949
4081000000.0000005 0.5874721955209572 -0.8650209415256594
4083999999.9999995 0.5242905310425688 -0.9043092551729415
4088000000.0 0.5972208907173002 -0.8563145956824814
4091000000.0 0.5853522352624659 -0.892250097119461
4094000000.0000005 0.5625098999681821 -0.8574885718839328
4097000000.0000005 0.5580184738398098 -0.8777564757526286
4099999999.9999995 0.5634030704385828 -0.8810132933663903
4102999999.9999995 0.5922767794756854 -0.8638864534129813
4106000000.0 0.5424197013618023 -0.8988790117412138
4109000000.0 0.5434316160047092 -0.8854603822713483
4112000000.0 0.5572124848271678 -0.8514216772009917
4115999999.9999995 0.5493391701247873 -0.8356963001521324
4119000000.0 0.5330945515426841 -0.8656766556669705
4122000000.0 0.5112304358109994 -0.8487311779282091
4125000000.0 0.5452106892376926 -0.8864796100514188
4128000000.0 0.5301230840489374 -0.8561125837711614
4131000000.0 0.5487708523795445 -0.8953589833678126
4134000000.0000005 0.5479842378988558 -0.8758421564347363
4138000000.0 0.5153611800643736 -0.8435010498385146
4141000000.0 0.5427948154947536 -0.8475798846673337
4144000000.0 0.5367082581594577 -0.8820598140058864
4147000000.0000005 0.5331397836762555 -0.8754031015435172
4150000000.0000005 0.5910911198570626 -0.8821042790994182
4152999999.9999995 0.5584752791981397 -0.8691743168071289
4155999999.9999995 0.5480152275940602 -0.8554851916592063
4159000000.0 0.5741986928208734 -0.809974500705119
4162000000.0 0.5652481705604094 -0.8411859322452409
4166000000.0000005 0.5368062934444999 -0.8571416287235373
4168999999.9999995 0.5316294954923484 -0.87725381504997
4171999999.9999995 0.5391884666789243 -0.8348927426945346
4175000000.0 0.5587218441499548 -0.8579508445340474
4178000000.0 0.5486283866808134 -0.8730305512471681
4181000000.0 0.5606200267748708 -0.8685932078102381
4184000000.0 0.5510122081429911 -0.8355327010082791
4187999999.9999995 0.568303440158816 -0.8723571740904951
4191000000.0 0.5660509807179318 -0.8174431797980592
4194000000.0 0.5450846176334586 -0.842469465056722
4197000000.0 0.5566667269852843 -0.8621633394861477
4200000000.0 0.5607660665910227 -0.8354603094851711
4203000000.0000005 0.5684282857159613 -0.8607920068257371
4206000000.0000005 0.565155059635273 -0.8681468261294635
4208999999.9999995 0.5473343684308888 -0.852950580576719
4211999999.9999995 0.5356812523395499 -0.8845093069724168
4216000000.0 0.5637783319027435 -0.8619167354207584
4219000000.0000005 0.5724733726095025 -0.8605191420637508
4222000000.0000005 0.5397004882851457 -0.8595277642733494
4224999999.9999995 0.5546113179196925 -0.8391934959739507
4227999999.9999995 0.5523652473977119 -0.8605958586642841
4231000000.0 0.5609948656265417 -0.8620769777969648
4234000000.0 0.559840824653565 -0.851218437069039
4238000000.0000005 0.537961351234516 -0.8591140376328883
4240999999.9999995 0.5412022788984725 -0.8528379267445759
4244000000.0 0.547422239548705 -0.8480682756244773
4247000000.0 0.5486213630471434 -0.8427519769393647
4250000000.0 0.5345317251038632 -0.8439567651181998
4253000000.0 0.5232686578334363 -0.8334847028543894
4256000000.0 0.5588573882487888 -0.8590466449661606
4259000000.0000005 0.5216999883214637 -0.8282078710583132
4261999999.9999995 0.5324805124196997 -0.8584790065821213
4266000000.0 0.5391209425311765 -0.8826270543600783
4269000000.0 0.5621215690702848 -0.8433892173200406
4272000000.0000005 0.5485964678298654 -0.8358042389105524
4275000000.0000005 0.5571644774310281 -0.8564255213274061
4277999999.9999995 0.5653050796596452 -0.8629253627255731
4280999999.9999995 0.5734284078329926 -0.8414159288273796
4284000000.0 0.5350085494023623 -0.8910275912274321
4288000000.0000005 0.586686394074689 -0.8392754345272524
4291000000.0000005 0.5520829812808754 -0.836373020671685
4293999999.9999995 0.5319804345668051 -0.8175134918408336
4297000000.0 0.5509992929661592 -0.8112317983941361
4300000000.0 0.5547456527746191 -0.8521724787207882
4303000000.0 0.5234324276078837 -0.8423688727032088
4306000000.0 0.5564842167078072 -0.863627776492181
4309000000.0 0.5630063957550182 -0.831999737921492
4312000000.0 0.6092453407929701 -0.8393035669990835
4316000000.0 0.573180773443873 -0.8403969441113148
4319000000.0 0.5680143938970889 -0.8187266100952977
4322000000.0 0.5282638312732153 -0.8290561235767738
4325000000.0 0.5623215018895734 -0.8451773404261527
4328000000.0 0.563332999730863 -0.8375033263314364
4331000000.0 0.5290356516347684 -0.8835972464026197
4334000000.0 0.5406648052675829 -0.8642062860068226
4338000000.0 0.5775953632292459 -0.8470179865593972
4341000000.0 0.5856046931122563 -0.8593287150042209
4344000000.0 0.5802564487174148 -0.8599627461857409
4347000000.0 0.5376419593381139 -0.8622187752203555
4350000000.0 0.5235718900116944 -0.8278192553842535
4353000000.0 0.5563682904868716 -0.8360753690764623
4356000000.0 0.519858233333479 -0.8405043440619114
4359000000.0 0.5401816697700107 -0.8107009255726689
4362000000.0 0.5011265589218036 -0.8907611710655776
4366000000.0 0.5490693405831478 -0.8467711388155178
4369000000.0 0.5174737958253635 -0.8329821626275794
4372000000.0 0.508558331975357 -0.8558982127920065
4375000000.0 0.5586000214428313 -0.8227363603567667
4378000000.0 0.5360754671441665 -0.8108643659827258
4381000000.0 0.5412440978388312 -0.8118343191103329
4384000000.0 0.5765716200531033 -0.9000344384820766
4388000000.0 0.5543876244511974 -0.8434299793680617
4391000000.0 0.5610660611032393 -0.8478067566879254
4394000000.0 0.5430664485185899 -0.8185448237151377
4397000000.0 0.5370518931278223 -0.8410863065540187
4400000000.0 0.5354190561471281 -0.8657114859437991
4403000000.0 0.5593614581187655 -0.8415221434370088
4406000000.0 0.5283115865861485 -0.8673602340275464
4409000000.0 0.5558801158106101 -0.8753867664433614
4412000000.0 0.4915019413087831 -0.8817653553560199
4416000000.0 0.5221507657409938 -0.8300731607033601
4419000000.0 0.5290312810201075 -0.8714106092845044
4422000000.0 0.5549121971725008 -0.8428218592294598
4425000000.0 0.5576269467694297 -0.8515970657893991
4428000000.0 0.5392551684386317 -0.8528047447750354
4431000000.0 0.5565128007340358 -0.8607592976883636
4434000000.0 0.5278211214512931 -0.8468500754996698
4438000000.0 0.5442037345655999 -0.8755723729623963
4441000000.0 0.5540812490637284 -0.8666442822013731
4444000000.0 0.5322514946842847 -0.836799813520839
4447000000.0 0.522194194972704 -0.863947872899421
4450000000.0 0.5468790257603029 -0.8473471558838067
4453000000.0 0.5419233399932071 -0.8640617883067918
4456000000.0 0.5064603419690767 -0.8409606785414276
4459000000.0 0.49365368130110754 -0.8270896518813637
4462000000.0 0.5740877311564119 -0.9147139316483907
4466000000.0 0.5447322891715023 -0.8774381055102796
4469000000.0 0.5507456487918341 -0.8433253165434288
4472000000.0 0.519651319173869 -0.873431968878263
4475000000.0 0.5237306162771231 -0.8375359684745693
4478000000.0 0.5420270161994947 -0.8883059303568817
4481000000.0 0.5013398665727682 -0.8432121993913694
4484000000.0 0.4944621655832302 -0.8856692861279389
4488000000.0 0.49670007734450716 -0.8614180625152354
4491000000.0 0.5236135146462969 -0.8581831159396132
4494000000.0 0.5449531603120561 -0.8396831341142413
4497000000.0 0.5301226428608183 -0.8429708915954902
4500000000.0 0.5361697725807297 -0.8314954337023177
4503000000.0 0.5566824921585014 -0.8680319836061945
4506000000.0 0.5157849849115052 -0.8518862090072772
4509000000.0 0.5330268849067504 -0.8419318297681561
4512000000.0 0.4990068656858919 -0.8557074953650535
4516000000.0 0.5517850676042793 -0.8763347329239236
4519000000.0 0.5273413977543095 -0.8122546226822703
4522000000.0 0.5059008507877439 -0.8660653330397405
4525000000.0 0.5816188756459778 -0.8354809896524289
4528000000.0 0.5330117590974156 -0.8788547402187454
4531000000.0 0.5454135076324644 -0.8585240478730332
4534000000.0 0.5430055618926887 -0.85239500063679
4538000000.0 0.514634161378376 -0.8412623093712519
4541000000.0 0.5040077271005676 -0.8670454820591715
4544000000.0 0.5307025536840264 -0.8473148632981394
4547000000.0 0.532028958182369 -0.8298285071940087
4550000000.0 0.5137588158519794 -0.868465154647504
4553000000.0 0.5153348454440567 -0.8814893578666134
4556000000.0 0.49977204215704996 -0.8443948042532889
4559000000.0 0.5076861323343991 -0.8599248916530429
4562000000.0 0.531270799554582 -0.8651745617112756
4566000000.0 0.5317046504241565 -0.8588422290234616
4569000000.0 0.5139636322413704 -0.8439093815558043
4572000000.0 0.5204630604587009 -0.8569400009127834
4575000000.0 0.5189988930841118 -0.8761998829259409
4578000000.0 0.5393144332797277 -0.8758055427180917
4581000000.0 0.5034729189836669 -0.8701106936704264
4584000000.0 0.49927069998539186 -0.8603603414768053
4588000000.0 0.5393081013296098 -0.8731257848901999
4591000000.0 0.5421600302427366 -0.8677263431564636
4594000000.0 0.4839651961521879 -0.869822901272601
4597000000.0 0.5239404513927142 -0.8800899380883302
4600000000.0 0.4974331085536465 -0.8584479695250982
4603000000.0 0.502842732939867 -0.8669355268272367
4606000000.0 0.5161188206032775 -0.8691921806961915
4609000000.0 0.5143823137643455 -0.8697356336225882
4612000000.0 0.5108884495687852 -0.870302960685083
4616000000.0 0.5214680795335616 -0.8539981110098332
4619000000.0 0.5102056262835246 -0.8526423499344244
4622000000.0 0.5228683658239865 -0.8559490221339675
4625000000.0 0.47542440251701157 -0.8445307733111448
4628000000.0 0.5269349590350064 -0.8587531023157399
4631000000.0 0.4898133347668891 -0.8605858452717677
4634000000.0 0.4938710438491787 -0.8572936394381288
4638000000.0 0.5120968958492553 -0.8800601287112616
4641000000.0 0.5191796734532599 -0.8621101812460491
4644000000.0 0.5198775239710076 -0.8718689791170439
4647000000.0 0.5364693387475926 -0.8739523520795544
4650000000.0 0.5074495071141407 -0.8763414307260783
4653000000.0 0.5197647631350277 -0.8893036040087858
4656000000.0 0.4917753769239762 -0.8800055394604749
4659000000.0 0.49386003645327364 -0.877877511042409
4662000000.0 0.507505789011149 -0.8778028223077234
4666000000.0 0.47858427527466496 -0.8841467314855802
4669000000.0 0.5032465225581023 -0.8530355192180069
4672000000.0 0.4992849819584343 -0.9036919737185223
4675000000.0 0.48444580748124677 -0.8735421662759737
4678000000.0 0.5206662714883349 -0.8772877719091711
4681000000.0 0.5091108632656844 -0.9007156075618618
4684000000.0 0.4802826789558715 -0.865823040444032
4688000000.0 0.46984827537914786 -0.8835833551871466
4691000000.0 0.5281167346279926 -0.8626591989217068
4694000000.0 0.5120271526168657 -0.854056447313711
4697000000.0 0.4515891841010997 -0.852647556758722
4700000000.0 0.5273195250509711 -0.8735095450415435
4703000000.0 0.5132099973097438 -0.8164624985635834
4706000000.0 0.504576941997125 -0.8920339146308499
4709000000.0 0.4682994664528783 -0.8924779216781197
4712000000.0 0.5022811082378569 -0.8720341488212938
4716000000.0 0.4967493085793354 -0.8821509315180861
4719000000.0 0.5223891864710936 -0.8744536109008905
4722000000.0 0.48826148789316337 -0.8557974068144089
4725000000.0 0.48998916939989523 -0.876008233034267
4728000000.0 0.5049642224796725 -0.8652218769238279
4731000000.0 0.5352319829078471 -0.8727474233401256
4734000000.0 0.48782008758936685 -0.8743675648582607
4738000000.0 0.5436772442454882 -0.8938609991839093
4741000000.0 0.49231588055146486 -0.8879206856044125
4744000000.0 0.4900567073593868 -0.8764214711234483
4747000000.0 0.4791706418676569 -0.8379204998046201
4750000000.0 0.48376715271487136 -0.8496578624054287
4753000000.0 0.4864031635580109 -0.8861935832526012
4756000000.0 0.5270083234418166 -0.9066486823420747
4759000000.0 0.514423889886782 -0.8565512909832192
4762000000.0 0.46721751441504206 -0.9090504394812454
4766000000.0 0.5040777513453933 -0.8715675363831338
4769000000.0 0.5161308005337255 -0.8677005908295439
4772000000.0 0.5165148622988497 -0.8693924865075813
4775000000.0 0.5037705114190567 -0.9239929210623975
4778000000.0 0.5078648153449051 -0.9166179702787505
4781000000.0 0.5014642328133959 -0.8964035475319219
4784000000.0 0.5147356062185404 -0.8548952415057807
4788000000.0 0.4912299462441879 -0.8822492866500603
4791000000.0 0.5040437532239286 -0.8688173934227554
4794000000.0 0.5422416536352941 -0.8721358409580281
4797000000.0 0.4974678025773235 -0.8674042756972907
4800000000.0 0.47638656119152967 -0.8946173875106374
4803000000.0 0.45724393469740376 -0.8881456563901898
4806000000.0 0.5134559621743688 -0.9055372125914902
4809000000.0 0.46600890623629043 -0.8946303538657314
4812000000.0 0.4651307876727062 -0.8702298846815945
4816000000.0 0.5064317449980016 -0.8705555560936865
4819000000.0 0.5259127024628978 -0.9011196531601736
4822000000.0 0.5280794650642702 -0.9081628784898202
4825000000.0 0.53025527243899 -0.8911235522165968
4828000000.0 0.49628745509750744 -0.8786367176452179
4831000000.0 0.46695917252604446 -0.9214035278445483
4834000000.0 0.5320186816833957 -0.8823273067724229
4838000000.0 0.4853205547213202 -0.9163021973743294
4841000000.0 0.4656235481356801 -0.8765963289589979
4844000000.0 0.5244938804569712 -0.8849933701230872
4847000000.0 0.5171798840848365 -0.8614733287032871
4850000000.0 0.5136053756237761 -0.908575859610614
4853000000.0 0.488057370124804 -0.858059101923948
4856000000.0 0.49524153013745387 -0.8771602386759089
4859000000.0 0.5285248448355204 -0.9226752647635649
4862000000.0 0.5049524898095162 -0.8615381884943478
4866000000.0 0.4826620747847687 -0.898858137062711
4869000000.0 0.4936039466232809 -0.8792110699222726
4872000000.0 0.4914585096347018 -0.9108791068905254
4875000000.0 0.5707764821581611 -0.9147532052246587
4878000000.0 0.5284909658645024 -0.910876468347404
4881000000.0 0.5028957925230975 -0.9567859295454907
4884000000.0 0.533150591405293 -0.8869720668215454
4888000000.0 0.5336963823367321 -0.8657909304127949
4891000000.0 0.5341203804399927 -0.8833374266484937
4894000000.0 0.47941579660090133 -0.8881288487699907
4897000000.0 0.5233720279661159 -0.8670359942319639
4900000000.0 0.5056431704885056 -0.9058647138002889
4903000000.0 0.5340696585281145 -0.8847325891610595
4906000000.0 0.5204645481274757 -0.9161770154749602
4909000000.0 0.509830661253428 -0.8898026417306244
4912000000.0 0.5446510078666853 -0.9172630396141624
4916000000.0 0.5436992829692407 -0.9155792128775126
4919000000.0 0.5544873106327377 -0.8936300297974709
4922000000.0 0.5355129894623842 -0.8772365214928871
4925000000.0 0.4896265118570873 -0.9217278252200266
4928000000.0 0.5570451278756186 -0.8325426044020255
4931000000.0 0.567112615534637 -0.9144510240350298
4934000000.0 0.522152223194186 -0.8550462209860005
4938000000.0 0.48396705475586316 -0.8901437469069085
4941000000.0 0.49399789501633407 -0.8652757706310077
4944000000.0 0.5208147932899014 -0.8336132334368074
4947000000.0 0.4935910109576299 -0.8877320700738969
4950000000.0 0.5221655027355226 -0.858517570757481
4953000000.0 0.5013393516938751 -0.9316800956154693
4956000000.0 0.5041068545954872 -0.9080115441789984
4959000000.0 0.4589788895943362 -0.8689628208367941
4962000000.0 0.5049852445428243 -0.9106723017260793
4966000000.0 0.5446426097163982 -0.9048317294968179
4969000000.0 0.5620792957280863 -0.9155021308460356
4972000000.0 0.5114396013897341 -0.8974959793604547
4975000000.0 0.5228388766770796 -0.8620067510102737
4978000000.0 0.4971088653970148 -0.9000411202386581
4981000000.0 0.5409789411384001 -0.8847375752777711
4984000000.0 0.5108333902677102 -0.8678380539359524
4988000000.0 0.5362080269751781 -0.8711605032182759
4991000000.0 0.5916606131904595 -0.8706956877744529
4994000000.0 0.5067642757358136 -0.8946705375253032
4997000000.0 0.5101988803025179 -0.9003046273540896
5000000000.0 0.5595535433940022 -0.8970800398462583
5003000000.0 0.5510567007966143 -0.9191026650409011
5006000000.0 0.564637697699512 -0.9269651040847148
5009000000.0 0.5307487989010895 -0.8829299991460788
5012000000.0 0.477644423398825 -0.8856315571554287
5016000000.0 0.5807777641683666 -0.9279954122840712
5019000000.0 0.5254186713587573 -0.8874948530202778
5022000000.0 0.5190379811027805 -0.9009887331080748
5025000000.0 0.5688925032544501 -0.9547289746398969
5028000000.0 0.49088714295216307 -0.8942768756183067
5031000000.0 0.5292954331057407 -0.8877580256746475
5034000000.0 0.5086985199372271 -0.9699105522950922
5038000000.0 0.4831796011783831 -0.8837200634100522
5041000000.0 0.5374264318889183 -0.8516608484536513
5044000000.0 0.536450037491828 -0.8384609856068554
5047000000.0 0.556728259987224 -0.8625841679570962
5050000000.0 0.5784490464816427 -0.8658024636364348
5053000000.0 0.5291480785542372 -0.9498679407047368
5056000000.0 0.5624072725766416 -0.8510735789012678
5059000000.0 0.574490312107678 -0.8556359122993826
5062000000.0 0.5450559276456408 -0.9126110779089912
5066000000.0 0.5604752417980463 -0.8326016148797877
5069000000.0 0.5253855379020254 -0.8795088560887575
5072000000.0 0.543799343944432 -0.8469763449394109
5075000000.0 0.5787616239481183 -0.8608010695761712
5078000000.0 0.49587987420732277 -0.9227829192641568
5081000000.0 0.5092128718763906 -0.8379732961176347
5084000000.0 0.5526152283195633 -0.8811154216615397
5088000000.0 0.5817190410462405 -0.8655594047418604
5091000000.0 0.533096671468791 -0.8858858107423953
5094000000.0 0.5461729382129602 -0.8362286849651608
5097000000.0 0.5731169447004765 -0.8370939442266183
5100000000.0 0.49351551328153925 -0.8709908135610074
5103000000.0 0.5439560255439035 -0.9174480528823444
5106000000.0 0.5364797985045026 -0.9556842975700134
5109000000.0 0.5830410529045127 -0.8516597642051008
5112000000.0 0.5186941037368119 -0.9044570609482896
5116000000.0 0.5054016454616208 -0.8615102337077076
5119000000.0 0.582649526576471 -0.8830734005225105
5122000000.0 0.5472945636543188 -0.8913210922344363
5125000000.0 0.5345382434726692 -0.8448972846142486
5128000000.0 0.5448825110438352 -0.8571463671932895
5131000000.0 0.5400323738181182 -0.8835491789733714
5134000000.0 0.5299027658249941 -0.8858830186341609
5138000000.0 0.5501782977291785 -0.8802307371649017
5141000000.0 0.6324151850053013 -0.8439746745291765
5144000000.0 0.6300539066548735 -0.8708093312058252
5147000000.0 0.5726717658143683 -0.8787735896064321
5150000000.0 0.5778061012520981 -0.8743140054480532
5153000000.0 0.5200547728839358 -0.8742654963222736
5156000000.0 0.5515586355062739 -0.8551173335291565
5159000000.0 0.6067336900808008 -0.9036285013969645
5162000000.0 0.5331723668925233 -0.863068867354837
5166000000.0 0.5728585807371739 -0.9041653702075269
5169000000.0 0.5654227320195913 -0.8788302248809425
5172000000.0 0.5661090994920382 -0.8431127579631016
5175000000.0 0.5630052543113617 -0.9042763226361421
5178000000.0 0.5101984616710149 -0.8802080820107292
