! Created with skrf 1.8.0 (http://scikit-rf.org).
# Hz S RI R 50.0 
!freq ReS11 ImS11
4000000000.0 0.993217022834055 0.28178648389666794
4003000000.0 1.0275128384006118 0.28005440151181427
4006000000.0 0.9833931592357854 0.20347504213823098
4009000000.0000005 0.9789461558976331 0.2650698572101963
4011999999.9999995 1.054756594679859 0.2593758039005533
4016000000.0 1.0684551006700465 0.19873573944919132
4019000000.0 1.042323895868861 0.17984524407896996
4022000000.0000005 0.9829115352735451 0.26952226426928905
4025000000.0000005 1.052614881273865 0.11428022248717118
4027999999.9999995 1.0327918982779278 0.1425462431700703
4030999999.9999995 0.9895757782341489 0.21132042111953933
4034000000.0 1.0609334320082418 0.15698922139747729
4038000000.0000005 1.088681066545092 0.13694447638473786
4041000000.0000005 1.0240656914907935 0.17775964777389044
4043999999.9999995 1.1045720681408908 0.15557696236241647
4046999999.9999995 1.0174086651785144 0.19926998843633748
4050000000.0 1.0970185825736596 0.07529845242368971
4053000000.0 0.9701346155256626 0.06980644998803737
4056000000.0 1.0242112580264744 0.15700700140262944
4059000000.0 1.0448557646295684 0.14559623015562362
4062000000.0000005 1.0678013671661983 0.030471285695286343
4066000000.0 0.9204292243037799 0.09216396347879385
4069000000.0 1.0802785593311348 0.04863302189000368
4072000000.0 0.9960515099399291 0.16466544960681584
4075000000.0 1.0484993939906395 0.134339256107744
4078000000.0000005 1.0529248094375818 0.08744122498601478
4081000000.0000005 1.0999081060902396 0.17676328700818578
4083999999.9999995 1.0623535203544636 0.047265829959755284
4088000000.0 1.0461163648661693 0.12345637846200283
4091000000.0 1.1375933292223133 0.025220296707734943
4094000000.0000005 1.0535519416360972 0.08441425977096995
4097000000.0000005 1.0355207026189668 0.0340981720189666
4099999999.9999995 1.0601819612405576 0.05643853873172083
4102999999.9999995 1.078350790199987 0.04385143151401605
4106000000.0 1.0283445942813418 0.06408635852050318
4109000000.0 1.0456582089121713 -0.030159787947383873
4112000000.0 1.0585994493539626 0.00765788342849625
4115999999.9999995 1.0525795671648195 0.11440791441533321
4119000000.0 1.0456552939336745 -0.036579531169069486
4122000000.0 1.080426876395992 -0.030615722938309456
4125000000.0 1.0961617806387616 -0.06806707558842917
4128000000.0 0.999384447216077 -0.0017864163127460169
4131000000.0 0.9983873618066265 0.059816923869313164
4134000000.0000005 1.0028893253421887 -0.01955115453119082
4138000000.0 0.9794586325214443 -0.007975881728873636
4141000000.0 1.0132997744591585 -0.04671505571488136
4144000000.0 1.0413192191468603 -0.016584717953962706
4147000000.0000005 0.9460744401151606 -0.07690135810951056
4150000000.0000005 1.114697595830564 -0.01370209163985843
4152999999.9999995 1.0721705368072576 -0.09932228940018079
4155999999.9999995 1.0716895692476012 -0.035636372878297504
4159000000.0 1.0379401000502946 -0.04162457004108956
4162000000.0 1.0326834539181076 -0.042722872294366526
4166000000.0000005 1.0256716516804785 -0.1000606324065153
4168999999.9999995 1.0398329754154465 -0.10089417947242758
4171999999.9999995 1.0501609443658644 -0.035389779552143105
4175000000.0 1.0245920351443607 -0.05925788334679806
4178000000.0 1.0602198929953333 -0.10637433609937436
4181000000.0 1.0270890798142434 -0.09603886824811617
4184000000.0 1.0765944461184052 -0.1401202557743476
4187999999.9999995 1.0899329524851304 -0.04264983411726617
4191000000.0 1.0068278911462334 -0.04702637293506559
4194000000.0 0.9992669190844387 -0.08427833816785743
4197000000.0 1.0303917166727599 -0.14148190638197486
4200000000.0 1.0119515063121267 -0.13498551540484088
4203000000.0000005 0.9880166002096172 -0.0667620299868508
4206000000.0000005 1.0522991131999972 -0.1068077007733215
4208999999.9999995 1.0399572899471878 -0.09250809336410964
4211999999.9999995 1.0190680685065268 -0.09060998456573843
4216000000.0 1.011505849313512 -0.12844590346507107
4219000000.0000005 1.0191101307698331 -0.1145247028406842
4222000000.0000005 1.018042763929123 -0.14535053625122935
4224999999.9999995 1.0382810506822164 -0.11740442147580885
4227999999.9999995 1.0161768202343204 -0.09839141427507259
4231000000.0 1.004415386291505 -0.12380160727515727
4234000000.0 1.0492839168161652 -0.09206644106533068
4238000000.0000005 1.0521816664203594 -0.14762413388530304
4240999999.9999995 1.0592321397645208 -0.11863028482695959
4244000000.0 1.0136192386997753 -0.10083323735846922
4247000000.0 1.0679271549501455 -0.09904176240165535
4250000000.0 1.0445207907798515 -0.15956139810422215
4253000000.0 1.0006301684141967 -0.1260143832740076
4256000000.0 1.0015232630548276 -0.1555911961059434
4259000000.0000005 1.0044667055225254 -0.14681308004034255
4261999999.9999995 1.0253683949397696 -0.16352246267022075
4266000000.0 1.0256377504091376 -0.12375255431786236
4269000000.0 1.065294584403561 -0.1690828834520406
4272000000.0000005 1.0161613870739512 -0.20044871246881962
4275000000.0000005 0.9941331132379476 -0.17740483249753075
4277999999.9999995 1.0086891606202613 -0.1525321541494185
4280999999.9999995 0.9989702449104852 -0.17523780223709096
4284000000.0 1.0111594648467932 -0.17484917781995934
4288000000.0000005 1.0131859681082895 -0.1670267917076984
4291000000.0000005 1.04018932633649 -0.1547059440696163
4293999999.9999995 1.0109735802247228 -0.17944501877681251
4297000000.0 0.9596846845550906 -0.1647718714976606
4300000000.0 1.0183962420989021 -0.19893723774044042
4303000000.0 1.0375213624225188 -0.18115431981900187
4306000000.0 1.0313441318558216 -0.16820496558693498
4309000000.0 1.0258688059844676 -0.18637491773234482
4312000000.0 1.0208330885866663 -0.17973406331888037
4316000000.0 1.0277454826949912 -0.2121460825541182
4319000000.0 0.9910032545614373 -0.1901385049866013
4322000000.0 0.9627048450535265 -0.22165301651089175
4325000000.0 0.9974378758416937 -0.19294795947839444
4328000000.0 1.0197947068633657 -0.22725442412640212
4331000000.0 0.9893310796705936 -0.25269451412491434
4334000000.0 1.029995942265262 -0.20921003484311967
4338000000.0 1.0202416797773157 -0.203479735065969
4341000000.0 0.9960287891090782 -0.20661974076931633
4344000000.0 0.9922772133200952 -0.20978039781271185
4347000000.0 1.0157680002366243 -0.2421850418533001
4350000000.0 0.9350392762099371 -0.23927032912214297
4353000000.0 0.9814738122962329 -0.212688801718096
4356000000.0 1.0237633229272647 -0.1919273426899168
4359000000.0 0.977434898464884 -0.2511119313144927
4362000000.0 1.0102440651872189 -0.23707719230745938
4366000000.0 0.9651639275996423 -0.2574173857555084
4369000000.0 0.9631869129712658 -0.2254787613147785
4372000000.0 0.9572959984424794 -0.2740954125489412
4375000000.0 0.9689878999636214 -0.2532763088013854
4378000000.0 0.9886305921067746 -0.2536916897192384
4381000000.0 1.0019599534450574 -0.23676569808336412
4384000000.0 1.0275815186594774 -0.291751752391703
4388000000.0 0.9857453625526389 -0.24446949584123467
4391000000.0 0.990534703190133 -0.24306535446379834
4394000000.0 0.951669859332878 -0.23164701421717981
4397000000.0 0.9809789200018673 -0.23647278880867484
4400000000.0 1.0125366582086301 -0.2708281500844572
4403000000.0 0.9933660060193159 -0.2616163693037518
4406000000.0 0.9536680239183801 -0.2823934937932393
4409000000.0 1.02231906331151 -0.27257907732384257
4412000000.0 0.9526462649546314 -0.3073813721730014
4416000000.0 0.96325487002415 -0.27464480196290336
4419000000.0 0.9619089018091296 -0.27810938381965156
4422000000.0 0.9663798076348057 -0.2751580654336872
4425000000.0 0.9983169902191472 -0.26059952643326195
4428000000.0 0.9774169435112487 -0.2859443917005719
4431000000.0 0.9793496218629014 -0.2862212044787503
4434000000.0 0.9685493251133643 -0.26652131173610794
4438000000.0 0.9997531425071899 -0.2936837736907808
4441000000.0 0.9901696999907854 -0.2544929156079668
4444000000.0 0.9620535288951537 -0.2717453435292869
4447000000.0 0.975938891227659 -0.2853128424258536
4450000000.0 0.9782485614451348 -0.27568922011280483
4453000000.0 0.9816725228835282 -0.2802363897619129
4456000000.0 0.9483037671545974 -0.3036065686101317
4459000000.0 0.9080420624786324 -0.3041235475206227
4462000000.0 1.0124943007772083 -0.31389001620287604
4466000000.0 1.002846200938299 -0.3208712791732807
4469000000.0 0.9761336464397272 -0.2751150459186551
4472000000.0 0.9944010033018633 -0.33626468928319686
4475000000.0 0.9518122634107838 -0.3002923782985111
4478000000.0 1.0024428508043401 -0.31641976958921675
4481000000.0 0.9602719360085628 -0.311529586023357
4484000000.0 0.9288498838477 -0.348182677545966
4488000000.0 0.9335426346788712 -0.30611653961569063
4491000000.0 0.963215921885625 -0.3246992483598715
4494000000.0 0.950184012060273 -0.317037357744262
4497000000.0 0.9665472168048221 -0.30177980768035545
4500000000.0 0.9803158802951828 -0.3110755762782913
4503000000.0 0.9801456360561328 -0.34420781854004834
4506000000.0 0.9397389360828563 -0.3339789716120577
4509000000.0 0.9332658230407014 -0.32202638090226704
4512000000.0 0.9491177015299017 -0.3425379452470395
4516000000.0 0.9663914619283276 -0.316830539593175
4519000000.0 0.9410150330817146 -0.30367787382982225
4522000000.0 0.9528717521339296 -0.3522268601362938
4525000000.0 0.9315577280881815 -0.29345109230927546
4528000000.0 0.9601324769134143 -0.3569193910974691
4531000000.0 0.9584008621245628 -0.3359093320706005
4534000000.0 0.9367999871107376 -0.32610617082732896
4538000000.0 0.9407751292612898 -0.33267709377564525
4541000000.0 0.9411151692943548 -0.37591734785342495
4544000000.0 0.9271240571203206 -0.328655516045455
4547000000.0 0.945528019524676 -0.3199935591842424
4550000000.0 0.9226077179487239 -0.3767710845704873
4553000000.0 0.9451963752627993 -0.3758321899528113
4556000000.0 0.9002997753768397 -0.35658867646071335
4559000000.0 0.9514136251577987 -0.3910860529941635
4562000000.0 0.9606172350980984 -0.3456121114459568
4566000000.0 0.9523128340515058 -0.36851515304034577
4569000000.0 0.9035685452562069 -0.3424179397139926
4572000000.0 0.9287397068698398 -0.3552962519019784
4575000000.0 0.92860454790443 -0.38940628129423543
4578000000.0 0.9746554765195723 -0.3596931590536599
4581000000.0 0.9512414515987174 -0.3904055826711817
4584000000.0 0.9278109886163425 -0.3727268321681573
4588000000.0 0.972694439827711 -0.3593471796353033
4591000000.0 0.9250667839458941 -0.3347788614855853
4594000000.0 0.9269308102084967 -0.377871225034034
4597000000.0 0.9540531389229711 -0.3649063763723533
4600000000.0 0.8729502225146467 -0.402772813170281
4603000000.0 0.9446914494024431 -0.38934531486231627
4606000000.0 0.9207625586579902 -0.36977309486291965
4609000000.0 0.9325278384288299 -0.4100964200538542
4612000000.0 0.9697085407292734 -0.3909298435726906
4616000000.0 0.9199026226936666 -0.39450923415536915
4619000000.0 0.9589946506473558 -0.3826713637297659
4622000000.0 0.9250199626813466 -0.37930614435488885
4625000000.0 0.8699017061225657 -0.3775424255904447
4628000000.0 0.8830250579299543 -0.3535956294072302
4631000000.0 0.8785965642572251 -0.41981265036400595
4634000000.0 0.9158110258531159 -0.37829138829059195
4638000000.0 0.9119196140728002 -0.3933030488447061
4641000000.0 0.9464473298425412 -0.3809230836275088
4644000000.0 0.9168119013856656 -0.4065396883119391
4647000000.0 0.9442399623804385 -0.3953406800622742
4650000000.0 0.9064802634678513 -0.4388917808133387
4653000000.0 0.9321920495576258 -0.40354260640985584
4656000000.0 0.9009706076373933 -0.4481429368680518
4659000000.0 0.9019004722411788 -0.4082353118317009
4662000000.0 0.920514591925254 -0.3987793364618727
4666000000.0 0.9186800302620844 -0.38862093076795384
4669000000.0 0.9158510523813933 -0.39147377632096253
4672000000.0 0.8975087428005041 -0.4292723800254204
4675000000.0 0.879301261280798 -0.42936364319170095
4678000000.0 0.9130203026572977 -0.4247562686606726
4681000000.0 0.9048209111884191 -0.46099401698668574
4684000000.0 0.8590910144354365 -0.4275695264870361
4688000000.0 0.8916400796706604 -0.4101219283886987
4691000000.0 0.8804615793259434 -0.4016524133575522
4694000000.0 0.9177154485289931 -0.4455444122551239
4697000000.0 0.9071884683291204 -0.4320671474073015
4700000000.0 0.9301477289246819 -0.42949253053561537
4703000000.0 0.9241869320704079 -0.4517303115494674
4706000000.0 0.9082308117316367 -0.4338998149829294
4709000000.0 0.8923557249281354 -0.4544203408173166
4712000000.0 0.8974201501804965 -0.453605877410908
4716000000.0 0.9028133741709893 -0.4345843531431281
4719000000.0 0.9210704415260182 -0.4620365378219727
4722000000.0 0.9433805432049174 -0.430678080223386
4725000000.0 0.8807703039598588 -0.4327774960202575
4728000000.0 0.8942857071169221 -0.4579424150973579
4731000000.0 0.9208908981346291 -0.4229941528893579
4734000000.0 0.895883929398711 -0.41398671477237037
4738000000.0 0.9024680189430828 -0.4490853012536033
4741000000.0 0.9008254974231664 -0.4626154977903359
4744000000.0 0.8761732211881632 -0.47775250448586287
4747000000.0 0.9057607459957624 -0.4506725240556515
4750000000.0 0.8846877356306708 -0.4833451108642498
4753000000.0 0.9352505446785186 -0.4833713749962928
4756000000.0 0.8920744619764072 -0.4562071637107338
4759000000.0 0.9080804031206129 -0.45003075642146273
4762000000.0 0.8721500106447199 -0.45787050618969505
4766000000.0 0.8900428276279304 -0.4816004992254137
4769000000.0 0.9184961049734366 -0.46085793454403057
4772000000.0 0.8947039753365644 -0.48714721851535175
4775000000.0 0.9003753045468945 -0.47504055059511346
4778000000.0 0.9234575386766395 -0.4694905630538416
4781000000.0 0.9110403627072923 -0.44924372227658715
4784000000.0 0.8758260360727799 -0.4544774878880351
4788000000.0 0.9229196880828828 -0.5127087335384624
4791000000.0 0.876426220697091 -0.4816377413648407
4794000000.0 0.8773358457373647 -0.4788785745689458
4797000000.0 0.8898937290307688 -0.49653494818803956
4800000000.0 0.8803889252879844 -0.46999643404618907
4803000000.0 0.855273864529102 -0.4799887933281149
4806000000.0 0.883977316046468 -0.45944394771841734
4809000000.0 0.86675236714679 -0.485962749334322
4812000000.0 0.8794854909201857 -0.5105546872295732
4816000000.0 0.8957148449007702 -0.4736838612301728
4819000000.0 0.8997215190589932 -0.48269809784031614
4822000000.0 0.8999058771024007 -0.5029899995754115
4825000000.0 0.8853085512376333 -0.492006870917903
4828000000.0 0.8679868916302691 -0.49110632369679696
4831000000.0 0.8823227951129293 -0.5155611145375251
4834000000.0 0.8507960368102581 -0.48223580885108464
4838000000.0 0.8981552127569781 -0.5335915679199488
4841000000.0 0.8743208192427451 -0.510021771658112
4844000000.0 0.8850205172736966 -0.4845711356706537
4847000000.0 0.8783439091581245 -0.49456043957755946
4850000000.0 0.8833629361084827 -0.5313634095814548
4853000000.0 0.8866799272018723 -0.48455174369231063
4856000000.0 0.87753285376078 -0.4876906390105317
4859000000.0 0.8992489885781776 -0.5287848983025365
4862000000.0 0.8692128272627474 -0.49812683369534705
4866000000.0 0.8919084888964326 -0.5330631635443347
4869000000.0 0.8710429627339951 -0.5333538577035569
4872000000.0 0.8831676989268304 -0.5482788893165385
4875000000.0 0.9127075715867972 -0.5064447232112892
4878000000.0 0.8820041037776962 -0.5330999512848964
4881000000.0 0.9134128483184987 -0.5469220258104803
4884000000.0 0.8803129639327101 -0.5137262882234906
4888000000.0 0.8897359224943768 -0.49072382829666134
4891000000.0 0.8945626421350454 -0.5170947597836636
4894000000.0 0.8680722984060067 -0.5387670747873576
4897000000.0 0.8897027392595038 -0.47411009536557014
4900000000.0 0.8789602914882948 -0.5509663140067175
4903000000.0 0.9031132650742879 -0.4973473968514229
4906000000.0 0.8906999192086014 -0.5314056983192965
4909000000.0 0.8663294777814217 -0.5547731979133378
4912000000.0 0.8919924810980906 -0.5507587304963607
4916000000.0 0.900935982350577 -0.5251564887944468
4919000000.0 0.9240052901469953 -0.5245554654965461
4922000000.0 0.9139476478426616 -0.5001568733861154
4925000000.0 0.8880775629434838 -0.5272688883670571
4928000000.0 0.8986511688023222 -0.4774960664765071
4931000000.0 0.9053882578058385 -0.5039407033666621
4934000000.0 0.8406509404829954 -0.5027048620815392
4938000000.0 0.8533130893078307 -0.5514461483788052
4941000000.0 0.8659731798978698 -0.5139016603850783
4944000000.0 0.8488877329275177 -0.4846288306040981
4947000000.0 0.8451521288086625 -0.5036228021463693
4950000000.0 0.8537644207557348 -0.5467342649157902
4953000000.0 0.8601368449467477 -0.5782000231279976
4956000000.0 0.8728769854015096 -0.5660152761215345
4959000000.0 0.8618835814796477 -0.5771513490137691
4962000000.0 0.8787876183695855 -0.5619639537390214
4966000000.0 0.8891997135855103 -0.5626395732634529
4969000000.0 0.8911829981006589 -0.516312252372565
4972000000.0 0.8641105821477583 -0.5526518757577022
4975000000.0 0.8853874011975965 -0.5181039401373227
4978000000.0 0.8460503182806058 -0.5280079922640264
4981000000.0 0.8681064660345916 -0.5245748431213213
4984000000.0 0.844706250185876 -0.5154946878654016
4988000000.0 0.8643170287708689 -0.5229125046801704
4991000000.0 0.9336163806362743 -0.5113990347925138
4994000000.0 0.9016203592723291 -0.5213299192582037
4997000000.0 0.877825839009492 -0.5574002803506197
5000000000.0 0.8996805644379295 -0.5431361043616588
5003000000.0 0.8972300156376265 -0.5410828034212505
5006000000.0 0.9207856224112865 -0.5613062821039934
5009000000.0 0.9077181294736916 -0.5502036490507873
5012000000.0 0.8542231608560629 -0.5400291558456385
5016000000.0 0.9429358406990968 -0.5014157724502744
5019000000.0 0.8432650574495215 -0.5424835566532087
5022000000.0 0.8593238525568495 -0.5305592155295394
5025000000.0 0.9149214080967383 -0.5942398504830129
5028000000.0 0.8612244191975573 -0.5762381906188733
5031000000.0 0.864303429859584 -0.5794313142182481
5034000000.0 0.8857405726368689 -0.598398889186009
5038000000.0 0.8342462295150659 -0.532442617713479
5041000000.0 0.8715643532131325 -0.5018408442675406
5044000000.0 0.873816525028855 -0.4980705239668426
5047000000.0 0.8701535328630143 -0.5134593135068015
5050000000.0 0.8991116075911402 -0.45672036863785226
5053000000.0 0.9079494802343664 -0.598364316205588
5056000000.0 0.9122671511021888 -0.49272620941098605
5059000000.0 0.928796035687254 -0.4784429584130119
5062000000.0 0.8553412599479226 -0.5580939262973328
5066000000.0 0.9029581143151109 -0.4833685935549341
5069000000.0 0.8510339061695666 -0.5486338444144885
5072000000.0 0.81601451849203 -0.5576571011955317
5075000000.0 0.9038322932954495 -0.52265153202287
5078000000.0 0.8778827067669979 -0.5723745011974661
5081000000.0 0.8470994049418797 -0.5626577372394831
5084000000.0 0.9056424965589388 -0.5743401740762241
5088000000.0 0.8973715550951133 -0.5003136946509601
5091000000.0 0.8513680862437716 -0.5867465750235179
5094000000.0 0.9057871738215098 -0.533489479353555
5097000000.0 0.9064860929222524 -0.4982527804511269
5100000000.0 0.8685163281238847 -0.5088615221979885
5103000000.0 0.8653948678529255 -0.5706823868513912
5106000000.0 0.9337880694018501 -0.5225896546352348
5109000000.0 0.9134875923235144 -0.5084208656204916
5112000000.0 0.897107178243667 -0.5270504722456294
5116000000.0 0.8004669562535137 -0.4948899106670316
5119000000.0 0.8825446209843469 -0.5571731505994085
5122000000.0 0.8968475509066434 -0.5073923340104528
5125000000.0 0.8681259624820604 -0.5406307320343315
5128000000.0 0.8620265682894321 -0.5683484290853854
5131000000.0 0.8608721920447505 -0.4955913127792946
5134000000.0 0.8570217077638338 -0.5190641750795255
5138000000.0 0.8970594827626165 -0.5368932078006292
5141000000.0 0.9019082522988202 -0.4857943949269954
5144000000.0 0.8676398198716688 -0.5199937246200786
5147000000.0 0.8900721540738554 -0.5455814687883715
5150000000.0 0.8780580588643422 -0.5398642127748168
5153000000.0 0.8519286185728099 -0.5201516826381059
5156000000.0 0.8913298107665623 -0.5304633685244918
5159000000.0 0.8778600560703723 -0.5304220960352668
5162000000.0 0.833650428080595 -0.5437019016843806
5166000000.0 0.8837111139494719 -0.5990752011596406
5169000000.0 0.9285088800404221 -0.5820382817201487
5172000000.0 0.8375759109221013 -0.5448459087667235
