! Created with skrf 1.8.0 (http://scikit-rf.org).
# Hz S RI R 50.0 
!freq ReS11 ImS11
4000000000.0 0.5194869858898747 -0.8807228048985837
4003000000.0 0.5349926389455111 -0.9554618805843771
4006000000.0 0.48067876362924655 -0.9179052580950549
4009000000.0000005 0.50859186934835 -0.9027343978234901
4011999999.9999995 0.5511974336946115 -0.8904218965143027
4016000000.0 0.49360175474543744 -0.8910602891842065
4019000000.0 0.5045386349082519 -0.8935306134791721
4022000000.0000005 0.5836630115217859 -0.854564032561815
4025000000.0000005 0.46169111676569485 -0.9363701429422184
4027999999.9999995 0.520014065252588 -0.9273417972107074
4030999999.9999995 0.5290845975302843 -0.8270568262320629
4034000000.0 0.5190038559368795 -0.8746715757612009
4038000000.0000005 0.5034313691224763 -0.9254498937517014
4041000000.0000005 0.4722458015169736 -0.9104863721873524
4043999999.9999995 0.5427694529028182 -0.9425915299996273
4046999999.9999995 0.5579462002317682 -0.8914687390422072
4050000000.0 0.48842689542471734 -0.9186662729349977
4053000000.0 0.4985483017727743 -0.9055633553931437
4056000000.0 0.5272271971197158 -0.9057045625096979
4059000000.0 0.5047711836927535 -0.8853036724932764
4062000000.0000005 0.46607594501583405 -0.9243848294501699
4066000000.0 0.4577155980707288 -0.8564665091489134
4069000000.0 0.5123935062210554 -0.9168439514657244
4072000000.0 0.4993329434750613 -0.8856704884085012
4075000000.0 0.5143065279939265 -0.8891810478076264
4078000000.0000005 0.47597929301471936 -0.9120346991999375
4081000000.0000005 0.5177182198098057 -0.9183959960663288
4083999999.9999995 0.44957470489393775 -0.9078384314712279
4088000000.0 0.5272529650045263 -0.893843204340437
4091000000.0 0.530158473942546 -0.9473300421234974
4094000000.0000005 0.5107449062288549 -0.9037062323833726
4097000000.0000005 0.4977624341017848 -0.9027013258890111
4099999999.9999995 0.5122468948588866 -0.8952276493234347
4102999999.9999995 0.4950079569138484 -0.8906582859581889
4106000000.0 0.49774645945056134 -0.9521879301417097
4109000000.0 0.4575041357345875 -0.9124069705008891
4112000000.0 0.4697073126850837 -0.8867614975165383
4115999999.9999995 0.5051850354329454 -0.8826844894939854
4119000000.0 0.4877126731459095 -0.9223186184354494
4122000000.0 0.48853110612760303 -0.9104737058105222
4125000000.0 0.45204253026144714 -0.9268895422647864
4128000000.0 0.484187523306978 -0.8507135398045816
4131000000.0 0.479677988637137 -0.8847357708004591
4134000000.0000005 0.5116311800045872 -0.8762572664709057
4138000000.0 0.484663215172517 -0.8916704637420115
4141000000.0 0.4730069382043614 -0.8925913100190492
4144000000.0 0.5112337458243376 -0.8869454650547051
4147000000.0000005 0.45794386677031274 -0.8825609149247063
4150000000.0000005 0.520470471700906 -0.917078693146786
4152999999.9999995 0.45579942156491765 -0.898138923993045
4155999999.9999995 0.514005789020208 -0.9018648087411526
4159000000.0 0.5076764948141983 -0.8764423047630989
4162000000.0 0.48978028748074165 -0.8881347428360323
4166000000.0000005 0.49293351076028846 -0.91649960213692
4168999999.9999995 0.45612501276050416 -0.8839196378439678
4171999999.9999995 0.4980797636938931 -0.8857926706125002
4175000000.0 0.49276611939395165 -0.9204969002928869
4178000000.0 0.48358187507451733 -0.8998975965258493
4181000000.0 0.4712023059573627 -0.8865823460570217
4184000000.0 0.5000438083297394 -0.877429229918334
4187999999.9999995 0.4858410448499032 -0.8692993171066886
4191000000.0 0.5148686655034904 -0.8598489036541128
4194000000.0 0.4726744984795581 -0.875828023590488
4197000000.0 0.49615364162830067 -0.8891294207618928
4200000000.0 0.5009062734414761 -0.9016367543274421
4203000000.0000005 0.5123694787882169 -0.9070114077500845
4206000000.0000005 0.4861748886391467 -0.8895434354856446
4208999999.9999995 0.500075078258017 -0.8813370817305429
4211999999.9999995 0.48658340770515074 -0.9038184615038944
4216000000.0 0.5058991391851878 -0.88170608921214
4219000000.0000005 0.505843470578989 -0.9060747996414916
4222000000.0000005 0.47949498826946424 -0.9047913391591965
4224999999.9999995 0.4830368452000373 -0.8764614808949496
4227999999.9999995 0.48953576093115625 -0.8963920969223036
4231000000.0 0.4725843669050675 -0.8933243861545418
4234000000.0 0.49098596719530796 -0.8973598572491536
4238000000.0000005 0.4712434874798088 -0.8995825803672003
4240999999.9999995 0.46712128803180186 -0.8891625297288708
4244000000.0 0.48119579459078443 -0.8954314360905156
4247000000.0 0.49036726928363183 -0.8880161960624464
4250000000.0 0.4798782393411516 -0.8613412648436277
4253000000.0 0.4555703364935428 -0.8784446731673228
4256000000.0 0.4938874828936885 -0.9059990745159977
4259000000.0000005 0.466710757236365 -0.862396156440441
4261999999.9999995 0.4666627494324065 -0.8973984226329276
4266000000.0 0.4608667010223184 -0.9126215375590212
4269000000.0 0.4962819896750549 -0.8743470606725657
4272000000.0000005 0.4886516109952495 -0.8740846753113266
4275000000.0000005 0.4852345894518416 -0.8936683870446609
4277999999.9999995 0.4890312770925276 -0.8993534338789404
4280999999.9999995 0.5046795872311702 -0.8955569233129371
4284000000.0 0.45791900510054195 -0.8961962602607094
4288000000.0000005 0.5113133203187343 -0.8591103260819247
4291000000.0000005 0.4798051528783589 -0.8771740624659398
4293999999.9999995 0.4711273941563738 -0.8888195322358748
4297000000.0 0.502183738057925 -0.8562350075026476
4300000000.0 0.4861335578305734 -0.8655789595204043
4303000000.0 0.4596669022867403 -0.8940808067886847
4306000000.0 0.5156820802963279 -0.8703027726907494
4309000000.0 0.49860566108796067 -0.8612083585786479
4312000000.0 0.5008099670985807 -0.8888418960639101
4316000000.0 0.4983093281904502 -0.9016514755841163
4319000000.0 0.492874665137733 -0.8929193115176384
4322000000.0 0.46353777659468176 -0.86898520015058
4325000000.0 0.4964830502826707 -0.90426837726809
4328000000.0 0.49021816132461377 -0.8894473573686174
4331000000.0 0.4647527072931986 -0.8832830453483924
4334000000.0 0.47563359797111576 -0.9024761911420178
4338000000.0 0.501347573076718 -0.8721519695341649
4341000000.0 0.5220626546136833 -0.8902114133959075
4344000000.0 0.49876015432500465 -0.9250358665107443
4347000000.0 0.4666207997699315 -0.9104271181610378
4350000000.0 0.4581783822594989 -0.8646906984237291
4353000000.0 0.4844072836232491 -0.8631391458126781
4356000000.0 0.436863786199847 -0.9002075877502056
4359000000.0 0.4650358175087338 -0.846409141150146
4362000000.0 0.43532230207997924 -0.9399500112701565
4366000000.0 0.49105766079834856 -0.9082026362580236
4369000000.0 0.44097010474337095 -0.8642926285837829
4372000000.0 0.43708859568055536 -0.9027345851126896
4375000000.0 0.48445757228681513 -0.882061328329364
4378000000.0 0.4572511898181769 -0.8632308732030692
4381000000.0 0.46355138670406615 -0.8574392196785432
4384000000.0 0.5038281046575682 -0.9438062842345476
4388000000.0 0.4562397456640725 -0.8714774925561422
4391000000.0 0.4818075251250471 -0.887421358864644
4394000000.0 0.44690061073615517 -0.8744234670882176
4397000000.0 0.4588087822328335 -0.8864130736194903
4400000000.0 0.46291915495475766 -0.9178575910405266
4403000000.0 0.46431360105163266 -0.8963034482393286
4406000000.0 0.4564053443335736 -0.9079547790765852
4409000000.0 0.48142295944037206 -0.9080219094761152
4412000000.0 0.4172168960700267 -0.9108361260449912
4416000000.0 0.45444903490071 -0.8930922067574734
4419000000.0 0.4434312352516081 -0.9064778694734161
4422000000.0 0.47476485417521896 -0.8754125108964996
4425000000.0 0.48820265363814086 -0.8989556565712848
4428000000.0 0.46194783379126747 -0.9001147219005774
4431000000.0 0.47684381641439927 -0.9182956279167949
4434000000.0 0.4593019321315883 -0.8987549548207768
4438000000.0 0.47804103914881735 -0.9043608196438182
4441000000.0 0.4813507942197775 -0.9178623702275426
4444000000.0 0.44821599674055385 -0.8810010385745015
4447000000.0 0.43394742019286664 -0.901426097257155
4450000000.0 0.45230428763920166 -0.8702064791511577
4453000000.0 0.4618500975980478 -0.9195190930531869
4456000000.0 0.4247860438824924 -0.8883943736206023
4459000000.0 0.4045837146779624 -0.862372267059986
4462000000.0 0.48953987439270646 -0.943979916375784
4466000000.0 0.4724483070093375 -0.9421028534873326
4469000000.0 0.45078511654109643 -0.9079665873835785
4472000000.0 0.4465383669486208 -0.9174902152958884
4475000000.0 0.43220610239021495 -0.8866581322998188
4478000000.0 0.47188088790396626 -0.9366011727742651
4481000000.0 0.4327197056221567 -0.90239579113108
4484000000.0 0.40392509780195995 -0.9092204251998239
4488000000.0 0.4397666559725033 -0.9001778651960166
4491000000.0 0.4477378232845661 -0.9076935371897306
4494000000.0 0.45155106896140423 -0.8869624521888888
4497000000.0 0.4595963325647587 -0.8783750726867376
4500000000.0 0.4610018985540765 -0.8792768460845941
4503000000.0 0.45742370548189076 -0.9287487526232039
4506000000.0 0.4492137795989156 -0.904749393238626
4509000000.0 0.4368206099190182 -0.8772725018285561
4512000000.0 0.4393968415642427 -0.9055539856389481
4516000000.0 0.4466540468952177 -0.9128993198362247
4519000000.0 0.4342084599472315 -0.8928761247972054
4522000000.0 0.4389489784173803 -0.9152837234056268
4525000000.0 0.46701940936770925 -0.897362682374776
4528000000.0 0.4575728075473037 -0.927906121511286
4531000000.0 0.4672299903385049 -0.8995924026128043
4534000000.0 0.4299552682584519 -0.9018322307896811
4538000000.0 0.44766762394402737 -0.8896366415117674
4541000000.0 0.3986123943946895 -0.9145720570124084
4544000000.0 0.4336319869487732 -0.8992698441352078
4547000000.0 0.4583189992883811 -0.8841065187819587
4550000000.0 0.41521357921037466 -0.9109448520572763
4553000000.0 0.42554628743827255 -0.9175824867891025
4556000000.0 0.42380123225649957 -0.8964839924568431
4559000000.0 0.4243513906684767 -0.9367158521168841
4562000000.0 0.4424889116265125 -0.9238236901083257
4566000000.0 0.436464107592247 -0.9221564622666065
4569000000.0 0.4264618523061269 -0.8872257076035821
4572000000.0 0.4319987220420429 -0.8980421321534375
4575000000.0 0.4058928649811161 -0.9284660531376179
4578000000.0 0.46791506904241703 -0.9305344289931645
4581000000.0 0.4117760012986883 -0.9166892930303089
4584000000.0 0.423908369150995 -0.9122054157968555
4588000000.0 0.44486664511589485 -0.9318985774337201
4591000000.0 0.4208274794330643 -0.9147933355722361
4594000000.0 0.3906969588295357 -0.9231291789605724
4597000000.0 0.44113914140542076 -0.9221951293702725
4600000000.0 0.40405502810582167 -0.9128450152105314
4603000000.0 0.42093146428311634 -0.9243078569185718
4606000000.0 0.443420137471617 -0.9255037359781718
4609000000.0 0.43812708159653135 -0.9185785731112259
4612000000.0 0.41763549844312653 -0.9431108323274733
4616000000.0 0.41002583283317606 -0.9150313974700532
4619000000.0 0.4327340742539154 -0.9279020791740129
4622000000.0 0.4013986267251125 -0.9216206442055117
4625000000.0 0.3751777496186276 -0.9161694794085871
4628000000.0 0.43376947227950263 -0.8989260803523768
4631000000.0 0.4015696115562534 -0.9203020923104737
4634000000.0 0.4148497214448247 -0.9162315807659147
4638000000.0 0.41757768452278893 -0.9258887872952214
4641000000.0 0.41971807744405176 -0.9232037172331071
4644000000.0 0.40948059630710343 -0.9269194301742489
4647000000.0 0.4220079688523566 -0.9207158530698345
4650000000.0 0.39353275955001643 -0.9058708329197899
4653000000.0 0.43152333816407873 -0.9363255374589335
4656000000.0 0.4052793507478168 -0.9249125664864782
4659000000.0 0.39530259562387865 -0.9246747190265351
4662000000.0 0.40461720688890424 -0.9358553671731236
4666000000.0 0.3942454841621369 -0.9489426808302216
4669000000.0 0.4174331796607256 -0.9153787474800595
4672000000.0 0.4140613660903673 -0.9474138485869236
4675000000.0 0.39940603445989553 -0.9564699679642273
4678000000.0 0.3872847599065209 -0.9103810145791092
4681000000.0 0.37449317280139577 -0.96872827310549
4684000000.0 0.40109871033366806 -0.9330786386035718
4688000000.0 0.3760231575889619 -0.948258639602347
4691000000.0 0.4277045869374456 -0.9357588836537206
4694000000.0 0.39954461007735875 -0.9159610497064596
4697000000.0 0.3562491282191656 -0.9198662638034322
4700000000.0 0.41522221257610403 -0.9358645014142853
4703000000.0 0.4254906545477615 -0.8994774916827336
4706000000.0 0.36750971737828186 -0.923991022063964
4709000000.0 0.37486672546707706 -0.932678160914673
4712000000.0 0.41557173569176936 -0.9186378921936385
4716000000.0 0.39237697869633514 -0.9303186780966378
4719000000.0 0.42357817294400074 -0.8902024510613175
4722000000.0 0.40187799592251355 -0.9161419098241438
4725000000.0 0.40095167661808817 -0.8945822986475495
4728000000.0 0.3730486013021897 -0.9125516971680733
4731000000.0 0.4221394293981987 -0.9611623063023357
4734000000.0 0.4015721721296527 -0.8992478443287515
4738000000.0 0.43775635793621975 -0.9423363841416156
4741000000.0 0.4450969585680279 -0.9655458878245262
4744000000.0 0.37056050842965305 -0.954825631871674
4747000000.0 0.40319963410252013 -0.8963272248543059
4750000000.0 0.37635220500456823 -0.9457710351925548
4753000000.0 0.40646640301127984 -0.9361701530550056
4756000000.0 0.38345587005378345 -0.9367561713407911
4759000000.0 0.42670346137956866 -0.9438977774692286
4762000000.0 0.377599520735333 -0.9602841356322278
4766000000.0 0.3828618819621299 -0.9310712524501068
4769000000.0 0.3746345585069611 -0.9466293015670005
4772000000.0 0.41997995688270834 -0.9547370749297359
4775000000.0 0.3985993890015571 -0.9889301480142952
4778000000.0 0.3838738261007493 -0.9522024291030073
4781000000.0 0.41285786104933253 -0.9117143568836318
4784000000.0 0.3891095106814506 -0.9129743329048505
4788000000.0 0.3629804064368588 -0.9767333081346826
4791000000.0 0.39201390643162637 -0.9325952501983646
4794000000.0 0.452795891355498 -0.9650843837402097
4797000000.0 0.3879298319550051 -0.9491591451173275
4800000000.0 0.375813106454845 -0.9297145370928357
4803000000.0 0.3574190242216261 -0.9546051631918411
4806000000.0 0.3840203152330137 -0.9601531398059437
4809000000.0 0.35335195145335657 -0.9553233823442313
4812000000.0 0.34043489554332096 -0.9469511136492585
4816000000.0 0.3960946458051789 -0.9024313507597292
4819000000.0 0.41202554399469005 -0.9584621064390044
4822000000.0 0.4103910577459118 -0.9801607105578981
4825000000.0 0.39396372738526825 -0.9617468841073912
4828000000.0 0.3812536680773095 -0.95463421035779
4831000000.0 0.3397451645546119 -0.9828710751723277
4834000000.0 0.41010171584318583 -0.9365492215185645
4838000000.0 0.3715793721702309 -0.9667675798468127
4841000000.0 0.36961638317542045 -0.9351905278098106
4844000000.0 0.41086421329737033 -0.9321764652557119
4847000000.0 0.4053572503227196 -0.9047674135255349
4850000000.0 0.36708628451717673 -0.9746916219706377
4853000000.0 0.38774873482951805 -0.926642124151994
4856000000.0 0.38331719364037403 -0.9350412782652239
4859000000.0 0.38559000814439254 -1.003782632419833
4862000000.0 0.4051818759021534 -0.9249671838465524
4866000000.0 0.37330570755592307 -0.9613991414927535
4869000000.0 0.38254294918018594 -0.9448404289626118
4872000000.0 0.36553623576707883 -0.9892662740104664
4875000000.0 0.444388773661935 -0.9617405794143749
4878000000.0 0.38630992745137305 -0.9682789239730439
4881000000.0 0.38735925886962663 -0.9955223532194765
4884000000.0 0.3760492785373809 -0.965647928942479
4888000000.0 0.42506833410202316 -0.9332291547303296
4891000000.0 0.4091177294325441 -0.9526580163911467
4894000000.0 0.3584826148080877 -0.9680202878995604
4897000000.0 0.41352428730213464 -0.9192546560103001
4900000000.0 0.3768335905211974 -0.9734962348984766
4903000000.0 0.39499117071114326 -0.9617610846535383
4906000000.0 0.37858030136950954 -0.9586615667469321
4909000000.0 0.39591731373568123 -0.9634086698201776
4912000000.0 0.36805631555145685 -1.0070548542049087
4916000000.0 0.4113432437312865 -0.9721844629338032
4919000000.0 0.4038224746415956 -0.9596030350150232
4922000000.0 0.4221611979315618 -0.9670272732062536
4925000000.0 0.3745272023882474 -0.9530291867579382
4928000000.0 0.43219024177049953 -0.9290731433746686
4931000000.0 0.4206547591294474 -0.9626811037539346
4934000000.0 0.38585059422202894 -0.9178429730538171
4938000000.0 0.3806264816414592 -0.9440791209837467
4941000000.0 0.3930069712507176 -0.9327826099035454
4944000000.0 0.37815359153236716 -0.8939622686595168
4947000000.0 0.3638420697505971 -0.9175356749555293
4950000000.0 0.33033862143280546 -0.9446144017933171
4953000000.0 0.37829753838576274 -0.9761460995277347
4956000000.0 0.38100516388511285 -0.9619421687271649
4959000000.0 0.3225130708331239 -0.9640893324570459
4962000000.0 0.35857723667617153 -1.0004068893407867
4966000000.0 0.3991636235106756 -0.9847819607536518
4969000000.0 0.42743131832649905 -0.9995362031252532
4972000000.0 0.37204000182836133 -0.98077728438727
4975000000.0 0.41712919177267116 -0.9093905292108473
4978000000.0 0.35317998685932056 -0.9659031536039865
4981000000.0 0.357317453483521 -0.9585465651872115
4984000000.0 0.4012369233766464 -0.940727781833329
4988000000.0 0.39238857439365327 -0.9519514264928403
4991000000.0 0.4452969205938716 -0.9331322499746022
4994000000.0 0.37459431544770344 -0.9447037160441198
4997000000.0 0.3569283381296434 -0.9754989723639068
5000000000.0 0.40897595404386056 -0.9945437762708106
5003000000.0 0.41549639508065656 -0.9761436388410871
5006000000.0 0.43753683188942283 -0.9863942856208876
5009000000.0 0.3845902031088048 -0.9347927734572455
5012000000.0 0.39546387495564994 -0.9638110437353117
5016000000.0 0.43727750884086275 -0.9770152860296843
5019000000.0 0.3903791550291238 -0.9682321395449247
5022000000.0 0.40978356885823175 -0.973175021524658
5025000000.0 0.454373679643417 -0.9973963375142347
5028000000.0 0.3782838433873858 -0.9976550569048125
5031000000.0 0.39701961634212984 -0.9576749147398853
5034000000.0 0.3675170180933899 -0.9935241350116444
5038000000.0 0.36133242237651314 -0.9173467662975554
5041000000.0 0.4472722391559441 -0.9535331050329616
5044000000.0 0.4033565846685572 -0.9298327228103916
5047000000.0 0.4110466398872951 -0.9528447699371141
5050000000.0 0.47285689852219637 -0.9070382226098597
5053000000.0 0.43821958120660376 -0.9962853967021483
5056000000.0 0.41541379422602376 -0.9408451813461092
5059000000.0 0.455294109757335 -0.9134084193351105
5062000000.0 0.3749158632459259 -0.981268224678594
5066000000.0 0.42303599560595556 -0.9256065787336755
5069000000.0 0.4040524554376503 -0.9546466687256928
5072000000.0 0.4234043393664161 -0.9116386475905702
5075000000.0 0.40872175584916987 -0.8786662189850643
5078000000.0 0.3664366299186716 -0.9742377575445218
5081000000.0 0.37321135007348005 -0.9579071965562913
5084000000.0 0.4045501801207226 -0.9892630569103152
5088000000.0 0.39699117058812283 -0.9480760318159279
5091000000.0 0.3733614417613947 -0.9697651400947421
5094000000.0 0.3801455165758713 -0.9849555086996837
5097000000.0 0.46302566226858727 -0.9615418878631978
5100000000.0 0.38268042148531095 -0.9532069438715949
5103000000.0 0.3587923461611059 -1.0130537696007493
5106000000.0 0.41432813529854934 -0.9791167589059484
5109000000.0 0.44639647742020344 -0.9680155898656567
5112000000.0 0.35719446030632057 -0.9311778015647323
5116000000.0 0.4066832699417322 -0.910387358895929
5119000000.0 0.37584199184701245 -0.9736837182095841
5122000000.0 0.3840170581682782 -0.9637624771521242
5125000000.0 0.4311298272989462 -0.9427959525385511
5128000000.0 0.4526634473803916 -0.9616481754113944
5131000000.0 0.38315981156554296 -0.9428213818898458
5134000000.0 0.4030569636324183 -0.947382792155354
5138000000.0 0.4272796273903009 -0.9202715667919279
5141000000.0 0.48610053029447337 -0.9616259609239799
5144000000.0 0.4614579500451083 -0.9527633910542048
5147000000.0 0.4253638749845556 -0.9893919946988077
5150000000.0 0.4712650810406268 -0.924679415251447
5153000000.0 0.423795268181264 -0.9749402123805567
5156000000.0 0.4098100060952602 -0.9514836785575581
5159000000.0 0.4223991672752872 -0.9782730276968776
5162000000.0 0.3551935595976717 -0.9440786111501023
5166000000.0 0.3696767394011505 -0.9569646329249917
5169000000.0 0.4438395666972018 -0.975422683858755
