! Created with skrf 1.8.0 (http://scikit-rf.org).
# Hz S RI R 50.0 
!freq ReS11 ImS11
4000000000.0 0.42157660706817585 -0.906087978197962
4003000000.0 0.488430861314565 -0.961736542016493
4006000000.0 0.45512598114832287 -0.9813174258116444
4009000000.0000005 0.4393189098548557 -0.9408469986986296
4011999999.9999995 0.498130576179705 -0.9310435139645008
4016000000.0 0.4219116887218115 -0.9522429819049439
4019000000.0 0.4260709365537423 -0.9335216957787711
4022000000.0000005 0.499467930443766 -0.9126454528064847
4025000000.0000005 0.4165530678305678 -0.9366741490065078
4027999999.9999995 0.44663172165708825 -0.9293391007325782
4030999999.9999995 0.42941299922169607 -0.8878613492009747
4034000000.0 0.40378729544938163 -0.9092294464778025
4038000000.0000005 0.3919561379039369 -0.9510388768250471
4041000000.0000005 0.4260314074130481 -0.9607567881849054
4043999999.9999995 0.4664533479690023 -0.9775765328379927
4046999999.9999995 0.4914308817443037 -0.9638879719335289
4050000000.0 0.43177148192258136 -0.9573338505537647
4053000000.0 0.39231526965698726 -0.9099117923994305
4056000000.0 0.44419219248467856 -0.9443088873967695
4059000000.0 0.4048503274182287 -0.9202929057294695
4062000000.0000005 0.4254602848194365 -0.966260619585864
4066000000.0 0.45222447412864364 -0.8305745967154773
4069000000.0 0.4236998735634665 -0.997629252939438
4072000000.0 0.45675011805677646 -0.9256974564002848
4075000000.0 0.44290632383380946 -1.0002271298443368
4078000000.0000005 0.46382919536148426 -0.9151893500466988
4081000000.0000005 0.49655228626481995 -0.9286126795714542
4083999999.9999995 0.4276039721373345 -0.9529554356197137
4088000000.0 0.4351484501507842 -0.9255800838767816
4091000000.0 0.5015263657250912 -0.9816684911352117
4094000000.0000005 0.44508321191052236 -0.9149197279356736
4097000000.0000005 0.43404990799926346 -0.9451600116820758
4099999999.9999995 0.4284558778397798 -0.9336482698181509
4102999999.9999995 0.4801261113214807 -0.9277115658253334
4106000000.0 0.42805708945048904 -0.9642564108103967
4109000000.0 0.3976587326453613 -0.9644873889355616
4112000000.0 0.4481579331837146 -0.9501999045963629
4115999999.9999995 0.43011741233392514 -0.966784144552812
4119000000.0 0.4525344966902688 -0.9468388699282763
4122000000.0 0.4186660522106017 -0.9275351849323302
4125000000.0 0.4194377703186158 -0.9614231875014144
4128000000.0 0.42301310415965104 -0.909664727720778
4131000000.0 0.41678717225902345 -0.9417854218475268
4134000000.0000005 0.45329639989082016 -0.9274717270730696
4138000000.0 0.4046010778355345 -0.9386457425071367
4141000000.0 0.43057313874503594 -0.940682817834237
4144000000.0 0.4459615534588148 -0.9292886201906102
4147000000.0000005 0.41149719345426183 -0.9119091574697777
4150000000.0000005 0.45760582677110206 -0.9377438743142918
4152999999.9999995 0.42282484697530964 -0.9355899334288164
4155999999.9999995 0.46639645164381943 -0.9593293221422386
4159000000.0 0.4256363942608305 -0.8922423223199667
4162000000.0 0.4410116863762243 -0.925602615732454
4166000000.0000005 0.4476211970984263 -0.9547925005493751
4168999999.9999995 0.41580204102734564 -0.9268914584656095
4171999999.9999995 0.4180116737612327 -0.931330126253276
4175000000.0 0.41018109074299536 -0.9379336258716866
4178000000.0 0.4221155398543203 -0.9473990445430773
4181000000.0 0.4132714819296002 -0.9287019180809637
4184000000.0 0.4132756138262883 -0.9162094630503345
4187999999.9999995 0.4226849249064557 -0.9372761108023866
4191000000.0 0.45791776577017546 -0.907777597986161
4194000000.0 0.4019590694483236 -0.9164208338712703
4197000000.0 0.43337777429399116 -0.9506066045539057
4200000000.0 0.4340138121934264 -0.9006902214499378
4203000000.0000005 0.44155455632193474 -0.9279911352594743
4206000000.0000005 0.4377460328378383 -0.9267906085101699
4208999999.9999995 0.4101352322984749 -0.9209063968398904
4211999999.9999995 0.4023911142515201 -0.936078005037866
4216000000.0 0.4476461009632231 -0.9296842218397234
4219000000.0000005 0.4475822375591155 -0.9293277294960658
4222000000.0000005 0.4095529653603339 -0.9316925753824057
4224999999.9999995 0.42094002304333245 -0.9182881543174478
4227999999.9999995 0.424146052114604 -0.9346003706225278
4231000000.0 0.41105265609130925 -0.943070096052935
4234000000.0 0.4075393253718355 -0.9217344083807849
4238000000.0000005 0.39888302040299356 -0.9408823704137299
4240999999.9999995 0.40086872938834184 -0.9332404703501941
4244000000.0 0.41360224978498056 -0.9181562908619985
4247000000.0 0.4251029096401484 -0.9187114759647177
4250000000.0 0.3974083304362518 -0.9263466136911326
4253000000.0 0.3937882485583133 -0.9186028033404479
4256000000.0 0.41880888629948454 -0.9556312919860719
4259000000.0000005 0.39163142512431487 -0.8958447088183676
4261999999.9999995 0.3955398307329948 -0.9341215587607171
4266000000.0 0.38275853733185095 -0.964135023910058
4269000000.0 0.4064821677918786 -0.9324067547502528
4272000000.0000005 0.4115975391139164 -0.921652137711056
4275000000.0000005 0.41643973186668215 -0.9274386701858889
4277999999.9999995 0.4389467012779288 -0.9608543085490888
4280999999.9999995 0.4218028905357207 -0.9364681797234297
4284000000.0 0.39870365018007925 -0.958886952869777
4288000000.0000005 0.42881009641104595 -0.9045541130507943
4291000000.0000005 0.40136565695498355 -0.9173021382809091
4293999999.9999995 0.39325145954743335 -0.9289426757471544
4297000000.0 0.4286198598917167 -0.9212183266647791
4300000000.0 0.41707871252629347 -0.9260195335800527
4303000000.0 0.3855111938254858 -0.9229459287373597
4306000000.0 0.42053959973463567 -0.91255943515337
4309000000.0 0.404876681306633 -0.9107668475575887
4312000000.0 0.43876384679321406 -0.9451466163117725
4316000000.0 0.4234932556067881 -0.9497474548429801
4319000000.0 0.3908524254940644 -0.9246124952796091
4322000000.0 0.35534554972119914 -0.924241983585798
4325000000.0 0.39503511536791464 -0.9191965730402838
4328000000.0 0.3834083421639194 -0.94895627338065
4331000000.0 0.399601205340996 -0.9287634044063839
4334000000.0 0.4065138433162988 -0.9181965830051221
4338000000.0 0.4008711167458954 -0.930738388014598
4341000000.0 0.4202679132129741 -0.9450172754576042
4344000000.0 0.40501136736283627 -0.9474571628581093
4347000000.0 0.37930749203252434 -0.9620549620048793
4350000000.0 0.37366791459761667 -0.9318905882333426
4353000000.0 0.3987331583863348 -0.9169729277412416
4356000000.0 0.3708284715013671 -0.9304006612383833
4359000000.0 0.3715553415151304 -0.8917094323313751
4362000000.0 0.33758475273482447 -0.9664402267615961
4366000000.0 0.40148998867182417 -0.9341744408021996
4369000000.0 0.3683706355728417 -0.9088605751028148
4372000000.0 0.3378798379392133 -0.9431484946637011
4375000000.0 0.38710373229473205 -0.9299516951550643
4378000000.0 0.37325722682830753 -0.9064314800990101
4381000000.0 0.3839061239658047 -0.9098419987877038
4384000000.0 0.3991784543540047 -0.9994084445386662
4388000000.0 0.3833136634094755 -0.9079343405875826
4391000000.0 0.3810369909573475 -0.9493214240350074
4394000000.0 0.3648336452227671 -0.9133383648928651
4397000000.0 0.368674233259194 -0.9512262024742568
4400000000.0 0.37659066101286565 -0.968051712542619
4403000000.0 0.37306845023842766 -0.9478016749237124
4406000000.0 0.3587703002712597 -0.9368138913607401
4409000000.0 0.3697913652829191 -0.9751558146312285
4412000000.0 0.30546358864031087 -0.9436977580408996
4416000000.0 0.3575955765095287 -0.9256661349171362
4419000000.0 0.3441971177704165 -0.9434015606468762
4422000000.0 0.37882903257558004 -0.9264472598139363
4425000000.0 0.408097737216638 -0.9425525404690187
4428000000.0 0.3563171872033417 -0.9419748136763494
4431000000.0 0.37643136666140226 -0.9556508914200672
4434000000.0 0.3619824717105354 -0.9465609493933969
4438000000.0 0.37342477147606584 -0.9577544990936663
4441000000.0 0.37057870752021976 -0.9479188364991551
4444000000.0 0.3630649266845345 -0.9266268105661633
4447000000.0 0.35755724414762746 -0.9571181321276634
4450000000.0 0.3536480659159509 -0.9511859091147186
4453000000.0 0.36132437933346656 -0.9608375683155719
4456000000.0 0.33384366077739486 -0.9379227469223113
4459000000.0 0.3166042254523954 -0.9069178910358655
4462000000.0 0.37829720231759517 -0.9899005141463127
4466000000.0 0.34902783291533185 -0.9787885278820929
4469000000.0 0.3608296434126652 -0.9631539503299438
4472000000.0 0.34216509735452505 -0.9683615793621244
4475000000.0 0.34667478107428645 -0.9344971607605229
4478000000.0 0.33649900523309695 -0.9976268030787776
4481000000.0 0.32259166605234113 -0.9285448956901474
4484000000.0 0.3091914384296503 -0.9730027665155848
4488000000.0 0.3322967870499922 -0.9497436494287218
4491000000.0 0.3548038600288692 -0.9611419999551873
4494000000.0 0.3401796345069645 -0.9109089449893853
4497000000.0 0.35371351314391414 -0.9459044638329055
4500000000.0 0.3488078186621686 -0.9481261627424963
4503000000.0 0.35942460779319374 -0.9772924632691979
4506000000.0 0.33316187972123806 -0.9521630414153678
4509000000.0 0.3311030017476347 -0.9423109757304663
4512000000.0 0.29869812282887775 -0.9409960366276076
4516000000.0 0.3376588788533961 -0.9601433663985603
4519000000.0 0.3264114946598813 -0.9371882005614266
4522000000.0 0.3236426850092966 -0.9549115838565567
4525000000.0 0.3619881433531227 -0.942303906741474
4528000000.0 0.34533114833778156 -0.9654706671868136
4531000000.0 0.33340705921935326 -0.9706567956439409
4534000000.0 0.30519561189005173 -0.9291817940049336
4538000000.0 0.3233832225451543 -0.9407490983384995
4541000000.0 0.28640443423587264 -0.9559506478132103
4544000000.0 0.31650735462733054 -0.9508727546331615
4547000000.0 0.33318870382840404 -0.943127561141867
4550000000.0 0.31308470156065615 -0.9707034678586746
4553000000.0 0.30826366076701134 -0.9574710647287064
4556000000.0 0.30921518663320946 -0.9541083575213668
4559000000.0 0.30012191206670635 -0.9657766075346549
4562000000.0 0.3288185759715593 -0.9712398433389237
4566000000.0 0.307865875074868 -0.9687041092159485
4569000000.0 0.3002423006280831 -0.9596644690645632
4572000000.0 0.303652898807104 -0.9659476385548366
4575000000.0 0.2943625752501111 -0.9748151911307741
4578000000.0 0.32842071326319655 -0.9765475914120819
4581000000.0 0.3044004005047631 -0.9727774786083198
4584000000.0 0.29108008400236124 -0.9663123205833255
4588000000.0 0.3170555314109644 -0.9956763046302732
4591000000.0 0.33173748893386523 -0.9716115301285032
4594000000.0 0.27879649994096795 -0.9615188446121449
4597000000.0 0.2941547005106071 -0.9783621157586946
4600000000.0 0.2837790676860156 -0.9721352172606044
4603000000.0 0.2827612863979511 -0.9734803873340991
4606000000.0 0.2988515829260261 -0.9832484891988692
4609000000.0 0.30504278752569375 -0.9640334269364055
4612000000.0 0.29330154506845174 -0.981644075645085
4616000000.0 0.27991969715529647 -0.9633216672439094
4619000000.0 0.2943685870733243 -0.9766290888925448
4622000000.0 0.2747149066143169 -0.9723954563302042
4625000000.0 0.2613273424590409 -0.9704516693219798
4628000000.0 0.3114282578332236 -0.9818660753587041
4631000000.0 0.28080134602682494 -0.9694213748727962
4634000000.0 0.28207079232122323 -0.9774995123971348
4638000000.0 0.2939817080667534 -0.9832247230989929
4641000000.0 0.2917495268191375 -0.9692085107657827
4644000000.0 0.26923183121134353 -0.9893831794212546
4647000000.0 0.28087920164896174 -0.9790891557533772
4650000000.0 0.27815171264233673 -0.9668546106378819
4653000000.0 0.2853885022555507 -0.9870070518694674
4656000000.0 0.27818115537243404 -0.9700069093173864
4659000000.0 0.25695245149505774 -1.0031381392954692
4662000000.0 0.28190493946158035 -0.9831895456034306
4666000000.0 0.23835676863715946 -0.9886618858435895
4669000000.0 0.2709526528112643 -1.0091200206945175
4672000000.0 0.26808621270318744 -1.0205679623813053
4675000000.0 0.25632467617067944 -0.9983602830172328
4678000000.0 0.2703530062426384 -0.9736246159124897
4681000000.0 0.23667328143835636 -0.9836717378355682
4684000000.0 0.23512210311735063 -1.0012357283874176
4688000000.0 0.22361004655958522 -0.9880767711062245
4691000000.0 0.28148228955341775 -0.9901893678057886
4694000000.0 0.27543884183435324 -0.9758707480001679
4697000000.0 0.21049905110478848 -0.9675501609526915
4700000000.0 0.27702377169258785 -0.9763527435219328
4703000000.0 0.29078517795368314 -0.939369827237885
4706000000.0 0.2172354566636148 -0.9881018423270278
4709000000.0 0.2361599592085444 -0.9810662648079496
4712000000.0 0.2694051606535181 -1.0081694181714775
4716000000.0 0.2555781574025107 -1.0269607062781059
4719000000.0 0.3058823765565262 -1.00391863540107
4722000000.0 0.23896727014464034 -0.962267290305954
4725000000.0 0.25128170360595237 -0.9909828559404305
4728000000.0 0.2281713240418101 -0.965823090292696
4731000000.0 0.26593551786816416 -1.0050069062892082
4734000000.0 0.27897201999648263 -0.9881821869314293
4738000000.0 0.2754576209285711 -1.034297818546882
4741000000.0 0.219428405122639 -0.9995363619302932
4744000000.0 0.2478821224252441 -0.98813779993362
4747000000.0 0.2788741916819428 -0.9556424214341909
4750000000.0 0.26770056073457626 -0.9952507375783459
4753000000.0 0.25185655978479604 -1.0092343352536475
4756000000.0 0.2367043901334978 -0.9873593233826865
4759000000.0 0.23936084769638155 -1.0083742014380734
4762000000.0 0.22265296975342558 -1.0501245876225365
4766000000.0 0.21874235902450095 -0.9891625289494502
4769000000.0 0.24798709454263346 -1.0067457137046603
4772000000.0 0.2276361244631377 -0.9993960123400759
4775000000.0 0.22983514130885807 -1.0585690132291772
4778000000.0 0.2221354563677183 -1.0326761844604986
4781000000.0 0.24926111257608288 -0.9860703075856746
4784000000.0 0.24635395344030947 -0.9982398257084961
4788000000.0 0.2148477476649794 -1.0335873501762467
4791000000.0 0.22107597903763582 -0.9992875239220895
4794000000.0 0.2826051883532813 -1.0275776336262197
4797000000.0 0.22346008139646958 -0.9966605767108685
4800000000.0 0.23392857693780855 -0.9896629658819911
4803000000.0 0.1750997656230911 -1.027929861827227
4806000000.0 0.24338243459833372 -1.008595141802518
4809000000.0 0.16340299012719076 -1.0165933892137198
4812000000.0 0.15910059987990688 -1.0040206776760894
4816000000.0 0.24484331116007488 -0.9746562279928493
4819000000.0 0.2600563995792179 -1.000279930617461
4822000000.0 0.23374417005708936 -1.0282073707859107
4825000000.0 0.25966078823690075 -1.0291867591700055
4828000000.0 0.2118049028431126 -1.0008361126908036
4831000000.0 0.1714019243727984 -1.0217332965607924
4834000000.0 0.23625495550338355 -1.014497107286097
4838000000.0 0.1891789781822711 -1.0354272553598292
4841000000.0 0.20597573785417622 -0.989941861673231
4844000000.0 0.25145139677018424 -1.0105330792283178
4847000000.0 0.23401544398737106 -0.9827229862790671
4850000000.0 0.17017119407648904 -1.035970613643804
4853000000.0 0.2238024045919545 -0.9693851957855864
4856000000.0 0.1998137692399735 -0.9842345091958783
4859000000.0 0.20291151287070852 -1.052237896492194
4862000000.0 0.22743862999321898 -0.9907249217352561
4866000000.0 0.18847472600709772 -1.0344714867532492
4869000000.0 0.2029654976394526 -1.0061795781358196
4872000000.0 0.16330510835095852 -1.0245618520670259
4875000000.0 0.24994931863909506 -1.0538991039051746
4878000000.0 0.19993579856324392 -1.0262151851783974
4881000000.0 0.16145249990045152 -1.090242258897405
4884000000.0 0.21058688318324545 -1.0264913084042702
4888000000.0 0.2293521145338353 -0.9910660622001318
4891000000.0 0.23582449040269043 -1.024760334502091
4894000000.0 0.1590240165737885 -1.0081129805789057
4897000000.0 0.2266322837761965 -0.9995350068410221
4900000000.0 0.21667662197499282 -1.0466586602521397
4903000000.0 0.19916209877876467 -1.0276079271453904
4906000000.0 0.19831150085422844 -1.045884579319139
4909000000.0 0.16861933498781212 -1.01264998230782
4912000000.0 0.1803169765428767 -1.0577122468480937
4916000000.0 0.22634708533440828 -1.0642165343101921
4919000000.0 0.2688328238455026 -1.0360061055043976
4922000000.0 0.18136880877674322 -1.0155755723943807
4925000000.0 0.16198487667762484 -1.003246631323712
4928000000.0 0.23699432119017494 -0.9664783425732115
4931000000.0 0.19060919439284346 -1.0492046205265249
4934000000.0 0.19136343260419264 -0.9892273262140155
4938000000.0 0.16898668672173323 -1.0211195251126814
4941000000.0 0.17891136101414817 -0.9842025896827484
4944000000.0 0.21685654385904096 -0.9748735941317382
4947000000.0 0.17823005364955008 -0.9839104925860732
4950000000.0 0.1796381445738292 -0.997732034390825
4953000000.0 0.13918036841709774 -1.0342572017891083
4956000000.0 0.14783225435597042 -1.0291822233007828
4959000000.0 0.12766737209261642 -0.9892207021482577
4962000000.0 0.16031372429616803 -1.0769693566377594
4966000000.0 0.18569758584437945 -1.0187979769890512
4969000000.0 0.20233052118845712 -1.0612902641753328
4972000000.0 0.1841279733883407 -1.0386471439457614
4975000000.0 0.2239271238851135 -0.9756015282916246
4978000000.0 0.18505919682959626 -1.0305094943757056
4981000000.0 0.1751836063823371 -1.0115549373642534
4984000000.0 0.14967163402838896 -1.0238579990001964
4988000000.0 0.18411943163580397 -1.005888689310881
4991000000.0 0.23266929674220727 -1.0579151685221087
4994000000.0 0.18735972691155844 -1.0500205622352667
4997000000.0 0.1358554524324901 -1.0243170403391015
5000000000.0 0.17645579135922418 -1.0212722843215931
5003000000.0 0.19292110991946382 -1.0255339913331474
5006000000.0 0.14347165610724338 -1.0769494077297783
5009000000.0 0.1714139082411601 -1.0154247001489631
5012000000.0 0.1527065659091008 -1.0603075666570734
5016000000.0 0.19603827227992388 -1.0557505388206536
5019000000.0 0.13846995771220505 -1.0403079161968478
5022000000.0 0.15451820827593282 -1.0324478923703595
5025000000.0 0.16608375742149112 -1.0610438567915088
5028000000.0 0.18293825808193198 -1.0277840446739652
5031000000.0 0.13886339097673933 -1.04669832220428
5034000000.0 0.13090303585612584 -1.0817025534609206
5038000000.0 0.15751463805044408 -1.0115868291402568
5041000000.0 0.1966251402431931 -0.9956702898146144
5044000000.0 0.16339886525101655 -0.970173165434947
5047000000.0 0.17005594685584613 -1.0260029335233483
5050000000.0 0.20067890265690635 -1.0061242383816555
5053000000.0 0.09587072804879415 -1.0774301328852007
5056000000.0 0.13556541555009688 -0.98534061274968
5059000000.0 0.18745493477526198 -1.008967218200546
5062000000.0 0.10007841272059242 -1.0702786309768832
5066000000.0 0.1518749063043332 -1.0341086349817734
5069000000.0 0.18658401599300056 -1.0424975514746941
5072000000.0 0.15169550756083622 -1.0178199394847998
5075000000.0 0.1976328900577457 -1.014707181643066
5078000000.0 0.12707437011510736 -1.0581621834304098
5081000000.0 0.13527012003321714 -1.0168862021362188
5084000000.0 0.138244304333062 -1.0473727363158416
5088000000.0 0.12823927370481536 -1.034352421886595
5091000000.0 0.11066191840243678 -1.0151805847315774
5094000000.0 0.10604679038016673 -1.0637757655578257
5097000000.0 0.11414065132713364 -1.0516345929859625
5100000000.0 0.1155406352380779 -1.0622561049981485
5103000000.0 0.07943351314999508 -1.0316217253010784
5106000000.0 0.153769399561274 -1.020109404568065
5109000000.0 0.1408484384430123 -1.0389016948949341
5112000000.0 0.12972243318498466 -1.0430470834545718
5116000000.0 0.09050435344591518 -1.03866124099573
5119000000.0 0.1412693274749749 -1.0742766389055785
5122000000.0 0.08894290985484915 -0.9812744086573122
5125000000.0 0.19480602125266394 -0.9946129771760672
5128000000.0 0.1163482725202114 -1.0260236873807875
5131000000.0 0.10347931830466228 -1.0167617511211509
5134000000.0 0.11179070131696667 -1.0402239312155221
5138000000.0 0.14143399340808582 -0.9890160862264485
5141000000.0 0.16133548753343596 -1.0856242315847817
5144000000.0 0.09614958399185569 -1.013682468419804
5147000000.0 0.0991949378405429 -1.044024557447385
5150000000.0 0.15003184275483683 -1.0691835196137252
5153000000.0 0.07244997863321395 -1.0703947653372416
5156000000.0 0.11801306470200207 -1.0084142961123723
5159000000.0 0.14109719532629533 -1.0824808039401448
5162000000.0 0.08171401669265421 -1.042906752649801
5166000000.0 0.09434528848360724 -1.0226962275441422
