! Created with skrf 1.8.0 (http://scikit-rf.org).
# Hz S RI R 50.0 
!freq ReS11 ImS11
4000000000.0 0.5425980620703652 -0.8298024287333281
4003000000.0 0.5775551593759474 -0.8934313350015958
4006000000.0 0.5612197946416158 -0.8407853495950772
4009000000.0000005 0.5843133490937019 -0.8951223069566077
4011999999.9999995 0.5825490421656949 -0.8928659311416589
4016000000.0 0.5400397178666864 -0.9338853321326588
4019000000.0 0.5401578467024962 -0.8595435364081396
4022000000.0000005 0.6162048237315356 -0.8222057966751052
4025000000.0000005 0.5397361424043551 -0.9062279408677801
4027999999.9999995 0.5276394982208027 -0.8636352041369015
4030999999.9999995 0.5555435825349255 -0.8050008646360707
4034000000.0 0.5486406250894036 -0.8816856699685381
4038000000.0000005 0.5593619873677411 -0.892816905449411
4041000000.0000005 0.5406715204876141 -0.8662479285611232
4043999999.9999995 0.5614190434738614 -0.8952784911000713
4046999999.9999995 0.613348208357468 -0.864214337014625
4050000000.0 0.5449212909211828 -0.8866781913462053
4053000000.0 0.5049583896095319 -0.8404787023697887
4056000000.0 0.5673958051466463 -0.8566053668682856
4059000000.0 0.5196647819830025 -0.8214718068684982
4062000000.0000005 0.541706391982719 -0.8668355652240284
4066000000.0 0.5141677197274733 -0.815354742343177
4069000000.0 0.5224447158113836 -0.9175305601403594
4072000000.0 0.5640482824673251 -0.8184797963745214
4075000000.0 0.6001496447568504 -0.8688270612189486
4078000000.0000005 0.5597181618226168 -0.8877428725494811
4081000000.0000005 0.6212828487835103 -0.871271236713624
4083999999.9999995 0.5337860014872481 -0.866923749647543
4088000000.0 0.5751410070344335 -0.850339389329051
4091000000.0 0.589555450781182 -0.9067785971856034
4094000000.0000005 0.5470341719699645 -0.8658697563883476
4097000000.0000005 0.536241662739577 -0.8489627999603226
4099999999.9999995 0.5764658420120259 -0.8924664707304335
4102999999.9999995 0.5986022352654609 -0.8527230775369365
4106000000.0 0.5741874016156899 -0.8869713077509614
4109000000.0 0.5039593378862072 -0.8812675273569367
4112000000.0 0.5693325585348653 -0.8439245775262276
4115999999.9999995 0.5785508026392857 -0.8396580330301071
4119000000.0 0.5361447527057752 -0.8662142396874961
4122000000.0 0.5069110703331245 -0.8889194041865122
4125000000.0 0.5278315412961158 -0.8763494420430271
4128000000.0 0.5432037848392499 -0.8519392382938535
4131000000.0 0.5145921154460383 -0.8213965646972187
4134000000.0000005 0.5512624309009251 -0.8540934986695572
4138000000.0 0.4921736918053351 -0.8388790839048613
4141000000.0 0.5530485705258539 -0.8847211975002406
4144000000.0 0.5526976220931539 -0.841030530117011
4147000000.0000005 0.5335183733611434 -0.8593671365884162
4150000000.0000005 0.5518382192661042 -0.9094875859753152
4152999999.9999995 0.5271957672767288 -0.8561525482861245
4155999999.9999995 0.5600170686775252 -0.8729643184583874
4159000000.0 0.5733260015389977 -0.8427960093737702
4162000000.0 0.5393854062233858 -0.8609162720574784
4166000000.0000005 0.5581237727378112 -0.8823450631451322
4168999999.9999995 0.5407023174309658 -0.8721879885368858
4171999999.9999995 0.5800754758991372 -0.8851024181424003
4175000000.0 0.550751477082921 -0.826590616190065
4178000000.0 0.5498519341221593 -0.8797817591203015
4181000000.0 0.5764119440938307 -0.8696692825990227
4184000000.0 0.5774733233466398 -0.8480073710336902
4187999999.9999995 0.5505559621622033 -0.8573394173398794
4191000000.0 0.5817794456256783 -0.8183429122187774
4194000000.0 0.5539531886887156 -0.8718689556539012
4197000000.0 0.5588158035954187 -0.8549206837509901
4200000000.0 0.5499413685205443 -0.8740438911228166
4203000000.0000005 0.5751942627784692 -0.8576508830773448
4206000000.0000005 0.5737589116023295 -0.8588783807123667
4208999999.9999995 0.5598936809401045 -0.8483756915145101
4211999999.9999995 0.5289903201415074 -0.8782015234766863
4216000000.0 0.5661598871935017 -0.8431128041779196
4219000000.0000005 0.5710124918225339 -0.8485099085802625
4222000000.0000005 0.5359835030164337 -0.8680963388235786
4224999999.9999995 0.5800008495249018 -0.8353031633065713
4227999999.9999995 0.5588890844407906 -0.8644099742421987
4231000000.0 0.5539874850514623 -0.860987067318366
4234000000.0 0.5788869261600802 -0.856018424070957
4238000000.0000005 0.5514744892032553 -0.8644209509103185
4240999999.9999995 0.5392469202308334 -0.8641971028290616
4244000000.0 0.5624141496927951 -0.8429297119571809
4247000000.0 0.5682529133213687 -0.8525525419976883
4250000000.0 0.5519569406834091 -0.8496736154225516
4253000000.0 0.5350989521378915 -0.8386051199139681
4256000000.0 0.5523560694075025 -0.8791009192629429
4259000000.0000005 0.5198246432762472 -0.8296160103316694
4261999999.9999995 0.5460329016762742 -0.8560778900804445
4266000000.0 0.5523607436212065 -0.8622636046044347
4269000000.0 0.5638696382482149 -0.8422946215297643
4272000000.0000005 0.5386502320112272 -0.8368773827573438
4275000000.0000005 0.5595008828955441 -0.8380094707209305
4277999999.9999995 0.5522699020288688 -0.8874146494791361
4280999999.9999995 0.55111034065472 -0.8413623102880836
4284000000.0 0.5235303592402603 -0.8571861689304511
4288000000.0000005 0.5647242402151111 -0.8253446900357837
4291000000.0000005 0.5489348254478192 -0.8309772651912356
4293999999.9999995 0.5553987765992406 -0.8513356540235005
4297000000.0 0.5871036055223342 -0.8154848623068713
4300000000.0 0.5443244385608721 -0.8155417689005038
4303000000.0 0.5332425230765693 -0.847302914272862
4306000000.0 0.5702340567058184 -0.8464385257675269
4309000000.0 0.574279733263702 -0.8466259119504809
4312000000.0 0.6167464981394214 -0.8476428118775969
4316000000.0 0.5474475711318325 -0.8534481700484123
4319000000.0 0.542218507266843 -0.8339979714454198
4322000000.0 0.531247288239941 -0.8376338288413607
4325000000.0 0.5224974760714701 -0.8157817596867593
4328000000.0 0.5335570543383013 -0.842296659406744
4331000000.0 0.5212383427784439 -0.8517966163990012
4334000000.0 0.5446271553588973 -0.8586628757433411
4338000000.0 0.5827911956924028 -0.8411184254103643
4341000000.0 0.5835152915573174 -0.851124874864199
4344000000.0 0.5765289177848613 -0.8515518178603508
4347000000.0 0.5609104463074778 -0.8698740986712732
4350000000.0 0.5130577720975084 -0.808408551107761
4353000000.0 0.5536828629097644 -0.8383486364759603
4356000000.0 0.5388513974000196 -0.8473764354633471
4359000000.0 0.5370649856657669 -0.8039665072381306
4362000000.0 0.5070514326790917 -0.8791157848031499
4366000000.0 0.5471457069116458 -0.8722362239200713
4369000000.0 0.5343018295412845 -0.8326453248027859
4372000000.0 0.4885287986459181 -0.8771998723060574
4375000000.0 0.5515884196054917 -0.8344010541025252
4378000000.0 0.5336923344077891 -0.8111755232540517
4381000000.0 0.5496055354990987 -0.8260136709301591
4384000000.0 0.5450033390842748 -0.8936768117968487
4388000000.0 0.5353402902382012 -0.8246756861672022
4391000000.0 0.5582692602536445 -0.8616525253652931
4394000000.0 0.5309581685775419 -0.830773496119241
4397000000.0 0.5446714314919381 -0.8404409095871408
4400000000.0 0.556165768595801 -0.8767385091409385
4403000000.0 0.5585278802985519 -0.8584135185876169
4406000000.0 0.5366958607553032 -0.8672770620415775
4409000000.0 0.5539163904956144 -0.8802229634176523
4412000000.0 0.4877950277869477 -0.8644791501624708
4416000000.0 0.531427247992565 -0.8524784406675261
4419000000.0 0.5203753664021786 -0.8675642519019661
4422000000.0 0.5540107779190718 -0.822122439683535
4425000000.0 0.5664680355410672 -0.8630698741873817
4428000000.0 0.5433858638693392 -0.8541438551039852
4431000000.0 0.5668787166661458 -0.863056218593899
4434000000.0 0.5288334266454726 -0.8413552168449439
4438000000.0 0.5555042613260518 -0.8706874817250259
4441000000.0 0.5571505794496623 -0.863896304453715
4444000000.0 0.5372767249516153 -0.8373149873060759
4447000000.0 0.5199732076348699 -0.8528433332471491
4450000000.0 0.5430852950401495 -0.838543912717002
4453000000.0 0.541153460814359 -0.8731209369338111
4456000000.0 0.5087305178799801 -0.8350740200881593
4459000000.0 0.5048248862854593 -0.8246559631160993
4462000000.0 0.566587416727038 -0.9066867251309344
4466000000.0 0.5512327523057954 -0.8874792615241245
4469000000.0 0.5566560108127833 -0.8506050035111881
4472000000.0 0.5460912248589262 -0.8838166628065993
4475000000.0 0.5109273600306565 -0.840047747713697
4478000000.0 0.549319832523107 -0.8858211422760233
4481000000.0 0.5132575222704591 -0.831640413196841
4484000000.0 0.5011261724992011 -0.8658761469440346
4488000000.0 0.48723686412194955 -0.8637544872943488
4491000000.0 0.5335080907495532 -0.8512989071463484
4494000000.0 0.541106760579587 -0.8456954359696907
4497000000.0 0.5375416161111386 -0.8454770857187337
4500000000.0 0.5398971856439841 -0.8510817464888338
4503000000.0 0.5438045922453616 -0.877513962190329
4506000000.0 0.5144559812223405 -0.8414824299423471
4509000000.0 0.5005561266742854 -0.843285282795747
4512000000.0 0.508598438737721 -0.8482559987367135
4516000000.0 0.5297013711417056 -0.8657276943139982
4519000000.0 0.5255081528097628 -0.8336786248876442
4522000000.0 0.5298390839315592 -0.855686094541714
4525000000.0 0.5525633720711962 -0.8367943694815725
4528000000.0 0.549012177893621 -0.9003061696222644
4531000000.0 0.5521417474294726 -0.8504492585551218
4534000000.0 0.515676478085262 -0.8373347301317167
4538000000.0 0.5256992600868298 -0.8615245688538329
4541000000.0 0.4896741292245988 -0.8535722887329218
4544000000.0 0.5325002477699486 -0.8184053408170496
4547000000.0 0.5407686473861588 -0.8311557119476891
4550000000.0 0.508119178251116 -0.8753026608632457
4553000000.0 0.5178588450523208 -0.8648919197529767
4556000000.0 0.49105960734395027 -0.8616687764250153
4559000000.0 0.5088155238835792 -0.8752122399547158
4562000000.0 0.5401237257783145 -0.8672090181011352
4566000000.0 0.522807238204481 -0.8736921027287967
4569000000.0 0.49998932429376747 -0.8457158492432293
4572000000.0 0.5357603372795763 -0.8518046458054067
4575000000.0 0.5066122975474249 -0.8742353382777412
4578000000.0 0.5474084019607386 -0.8764516418528994
4581000000.0 0.5149870798841636 -0.8731446325067849
4584000000.0 0.5025136571994353 -0.8624709754465791
4588000000.0 0.5422687069794461 -0.8708797116747446
4591000000.0 0.522890058814635 -0.8558517909749755
4594000000.0 0.5132691919391124 -0.8550772613741243
4597000000.0 0.5181934673513103 -0.8832407742002983
4600000000.0 0.47997478673016125 -0.8576317970000416
4603000000.0 0.49416721045623496 -0.8640942801697612
4606000000.0 0.5454837409381861 -0.87615445239553
4609000000.0 0.5255502512611963 -0.8573817426005962
4612000000.0 0.5237242572218751 -0.8625827206636107
4616000000.0 0.4939661689322435 -0.855877287100074
4619000000.0 0.531062586504345 -0.8625541789213161
4622000000.0 0.5189179903746983 -0.8670983426042693
4625000000.0 0.47699946569302565 -0.8438090557255897
4628000000.0 0.5212136346038208 -0.8511183799535512
4631000000.0 0.48861334704374215 -0.8623078032322089
4634000000.0 0.5123454202425295 -0.8915443987708853
4638000000.0 0.5117959929360365 -0.8793575815054301
4641000000.0 0.5216116861513916 -0.8651839175614399
4644000000.0 0.5164834430513185 -0.8706343203333329
4647000000.0 0.5230359287457217 -0.8803600863722344
4650000000.0 0.4901054937385606 -0.8545534884121295
4653000000.0 0.5427451871937488 -0.8603709667532524
4656000000.0 0.5066357162878267 -0.8710933478826224
4659000000.0 0.5099891129664242 -0.8703191503911568
4662000000.0 0.5246478926396565 -0.8821744323523633
4666000000.0 0.5081899522941975 -0.8609196681093487
4669000000.0 0.5123425609444638 -0.8580539271451968
4672000000.0 0.5078310113630572 -0.8849003875698809
4675000000.0 0.4938188387946969 -0.8772546773297909
4678000000.0 0.5034693187567103 -0.8594540631738011
4681000000.0 0.46363023451978286 -0.8816731304090564
4684000000.0 0.46674964792840623 -0.8934062662461952
4688000000.0 0.4828857718322881 -0.8826251298615678
4691000000.0 0.5072607523787904 -0.8665697988630755
4694000000.0 0.5135351785815867 -0.846827904827517
4697000000.0 0.4899799909725719 -0.8517114039948018
4700000000.0 0.5141597601693719 -0.8718905464705325
4703000000.0 0.5185399714602053 -0.8404185225753524
4706000000.0 0.47087229087808163 -0.8800094769593976
4709000000.0 0.494431376047195 -0.8594652853101024
4712000000.0 0.5117779324891364 -0.8863732194313362
4716000000.0 0.49789076367787943 -0.8903818635815808
4719000000.0 0.5134474354228902 -0.8995446752726849
4722000000.0 0.5024241712665373 -0.8824425801906116
4725000000.0 0.5255627419508322 -0.8627737860922492
4728000000.0 0.5183641679181179 -0.8854150722805565
4731000000.0 0.5376932095654179 -0.9105771904139462
4734000000.0 0.5335973201301126 -0.8787052600955608
4738000000.0 0.5345631840061889 -0.89765635592952
4741000000.0 0.5023105949165918 -0.9160682921535706
4744000000.0 0.5029195170276116 -0.8943205155765765
4747000000.0 0.5129826538588722 -0.8303758365873113
4750000000.0 0.5165627557748074 -0.8846917560386256
4753000000.0 0.5166343721022945 -0.8842598428485334
4756000000.0 0.5049710233148774 -0.8601197734951505
4759000000.0 0.5107885634335038 -0.8835245728751498
4762000000.0 0.4875488537772995 -0.9214574733450055
4766000000.0 0.5086972870857045 -0.8700626538722013
4769000000.0 0.5015952248121908 -0.9155587352812663
4772000000.0 0.5099091037735539 -0.8906319566893199
4775000000.0 0.5041579976534973 -0.9034103052726158
4778000000.0 0.48888800284194 -0.9077454687393236
4781000000.0 0.49435801740145424 -0.8798398417832447
4784000000.0 0.5464851397660977 -0.8847652093940073
4788000000.0 0.49071404105645633 -0.8867847925737653
4791000000.0 0.48332110964678116 -0.879990730232488
4794000000.0 0.5421948212334876 -0.925070523745352
4797000000.0 0.4798659196513438 -0.8806771981669267
4800000000.0 0.4758759524660711 -0.8798840349121733
4803000000.0 0.4711755977691424 -0.9017248309868757
4806000000.0 0.546396145619309 -0.8957274846994409
4809000000.0 0.45177066826370826 -0.8840172922776481
4812000000.0 0.47217108301831046 -0.8971841775825191
4816000000.0 0.4997134159474347 -0.8753187867949941
4819000000.0 0.5379024561848761 -0.8856246685163458
4822000000.0 0.535630513252447 -0.9044839818867116
4825000000.0 0.5220536906009177 -0.891834794366925
4828000000.0 0.49382843375427254 -0.8741617054922164
4831000000.0 0.5002695892502582 -0.9216497950040007
4834000000.0 0.5280080673243837 -0.89830402184678
4838000000.0 0.49567485310182036 -0.900828398207798
4841000000.0 0.48352568534528645 -0.8778257972478978
4844000000.0 0.5319122869707573 -0.8772500297666438
4847000000.0 0.525896539325805 -0.8552766928254759
4850000000.0 0.5006455231626981 -0.9203896403826587
4853000000.0 0.5160670907057233 -0.8688336068127404
4856000000.0 0.5079367749717472 -0.8754220890493364
4859000000.0 0.4993648832931992 -0.9094034898713863
4862000000.0 0.5004329770662648 -0.8389632255234641
4866000000.0 0.5009268058781573 -0.9132175043282409
4869000000.0 0.4767682361409859 -0.8930847726410387
4872000000.0 0.4818883946578735 -0.9217251477914027
4875000000.0 0.5694324564692593 -0.9008029498874774
4878000000.0 0.5189823601578043 -0.8943928448537258
4881000000.0 0.4973671812711499 -0.9869742716270535
4884000000.0 0.5131661280247082 -0.8884164658613712
4888000000.0 0.527812472928758 -0.8723641521595418
4891000000.0 0.5472206715219824 -0.8871743970585564
4894000000.0 0.4900101568805029 -0.8787213813067495
4897000000.0 0.5152398974086128 -0.8643389607466385
4900000000.0 0.5157551862996951 -0.9002818180838519
4903000000.0 0.5413364537879983 -0.8973168974298812
4906000000.0 0.5015473079737595 -0.9275219260860894
4909000000.0 0.47161588444836194 -0.9058803134785686
4912000000.0 0.5376802889501594 -0.9274327552457307
4916000000.0 0.5465771275231543 -0.9319442577757542
4919000000.0 0.5615937613759229 -0.9024809153418185
4922000000.0 0.5297383377757036 -0.8674473139554018
4925000000.0 0.47312924807511203 -0.8653104250941177
4928000000.0 0.5643653309275116 -0.8600797623457902
4931000000.0 0.5569224790922039 -0.8900626420988337
4934000000.0 0.4884032641123681 -0.830114660016581
4938000000.0 0.4723414942954114 -0.8797188382211878
4941000000.0 0.5104038570209578 -0.8481037755454056
4944000000.0 0.5124958426863913 -0.8357084921137227
4947000000.0 0.5011772567679486 -0.8619195470992644
4950000000.0 0.5225693574597231 -0.8850642998591604
4953000000.0 0.5143435223278282 -0.9610753220270689
4956000000.0 0.5000892076402835 -0.9159378071438018
4959000000.0 0.48194176707434777 -0.8853110975749854
4962000000.0 0.5089689415117414 -0.9159173896050263
4966000000.0 0.5441100203746182 -0.9307527253586393
4969000000.0 0.5683432785095343 -0.9393658047051181
4972000000.0 0.48500485691393946 -0.9057497378256096
4975000000.0 0.5326029870161383 -0.843180394575966
4978000000.0 0.5098683982330148 -0.8854329651789457
4981000000.0 0.5158423431305846 -0.9023282785946992
4984000000.0 0.5116044974639076 -0.8674809747010084
4988000000.0 0.5336673610480585 -0.8591877424225602
4991000000.0 0.5808781779264527 -0.8718017066356668
4994000000.0 0.5289547532841968 -0.8663603988366934
4997000000.0 0.49455033951904215 -0.8922209560075387
5000000000.0 0.5473207378233287 -0.9118842054682398
5003000000.0 0.5570472521769518 -0.8788768381422938
5006000000.0 0.5476482174615316 -0.9316098322306731
5009000000.0 0.537882508985822 -0.8735463621416157
5012000000.0 0.5144948878041868 -0.8716890032285094
5016000000.0 0.5730302431417198 -0.9119328959306812
5019000000.0 0.5073812658524393 -0.8742256131641676
5022000000.0 0.4972646265935343 -0.9315529222792068
5025000000.0 0.5549068386050915 -0.9386240033949975
5028000000.0 0.5371226586692823 -0.902912738936704
5031000000.0 0.5044161834684837 -0.8961749873383722
5034000000.0 0.5298965271290772 -0.9325979680390195
5038000000.0 0.4907459820697476 -0.8723128155103513
5041000000.0 0.5738985224325341 -0.8739082644078984
5044000000.0 0.526667294297615 -0.8539043773643229
5047000000.0 0.5523320470901663 -0.8866748369617796
5050000000.0 0.6167654828253111 -0.8341318912704008
5053000000.0 0.5202252628074417 -0.9116628935586958
5056000000.0 0.5946489139080928 -0.8783061743384901
5059000000.0 0.5720407097716091 -0.8366123959478116
5062000000.0 0.5233125460901307 -0.9374112579433803
5066000000.0 0.578868955871869 -0.859480951665138
5069000000.0 0.5655434942032701 -0.8914843568908428
5072000000.0 0.5389830487631496 -0.8682898997299784
5075000000.0 0.5637213683198486 -0.8912375016468076
5078000000.0 0.5157553922171445 -0.9198677837289102
5081000000.0 0.5137219513793192 -0.8651473106699029
5084000000.0 0.5365729216581576 -0.9160261619380157
5088000000.0 0.5153273400907212 -0.9000551629498796
5091000000.0 0.5199524253722629 -0.8909069059012171
5094000000.0 0.5194123074073944 -0.906592418765952
5097000000.0 0.59960439562292 -0.8631971253497184
5100000000.0 0.5149690276298238 -0.8321338033535557
5103000000.0 0.5340205184130999 -0.928937839609374
5106000000.0 0.5760464249690981 -0.883706767308515
5109000000.0 0.5843661260137214 -0.8667006917362525
5112000000.0 0.5495374502339034 -0.8710762184362648
5116000000.0 0.5214474425999314 -0.819078505498007
5119000000.0 0.5282354169563905 -0.901602158729945
5122000000.0 0.5325018716819263 -0.879925227806525
5125000000.0 0.5247742271678323 -0.8849006159337689
5128000000.0 0.5075572299503278 -0.8802727400972062
5131000000.0 0.5394685429788508 -0.8945509924266228
5134000000.0 0.5349235348915067 -0.8527773664460363
5138000000.0 0.5586925937042413 -0.8691307527176404
5141000000.0 0.5741104713868921 -0.8100542421921719
5144000000.0 0.5660360508602409 -0.8618744097805989
5147000000.0 0.5741149366845708 -0.8868261076884696
5150000000.0 0.6026090261359263 -0.8919733978132656
5153000000.0 0.5519547541558575 -0.881621137912929
5156000000.0 0.5677678879520457 -0.891227525313127
5159000000.0 0.5918941469746943 -0.8774408354293122
5162000000.0 0.5228813653666888 -0.85479461719513
5166000000.0 0.5035648011576146 -0.9275891080619937
5169000000.0 0.5526387142264282 -0.8849153735546194
5172000000.0 0.576367097128101 -0.8971164767246329
5175000000.0 0.5897261185630271 -0.9086209607400519
5178000000.0 0.5368373471854039 -0.9113804093245219
