! Created with skrf 1.8.0 (http://scikit-rf.org).
# Hz S RI R 50.0 
!freq ReS11 ImS11
4000000000.0 0.3049454464795326 -0.9487219837843528
4003000000.0 0.3616841507736116 -0.9927386381192977
4006000000.0 0.29554373647124865 -0.9943069837898356
4009000000.0000005 0.3058367822417097 -1.0045243422136845
4011999999.9999995 0.3638714072034091 -0.9969145624771217
4016000000.0 0.2849093720660952 -0.9868501715109647
4019000000.0 0.3143330603257908 -0.9401600360301178
4022000000.0000005 0.3772171737835017 -1.0070555842466027
4025000000.0000005 0.2469987131462665 -1.021587772725436
4027999999.9999995 0.2739715152740249 -0.9733460688555956
4030999999.9999995 0.3050875925862293 -0.949628133454016
4034000000.0 0.26156615938623384 -1.001227013311423
4038000000.0000005 0.2605413865493791 -0.9940841965216032
4041000000.0000005 0.27639577281963534 -0.9714329547146962
4043999999.9999995 0.32577775387027275 -1.0299311413137964
4046999999.9999995 0.35122975054936 -1.0042433210042754
4050000000.0 0.2843440215904457 -0.9990403545227476
4053000000.0 0.2564675705671905 -0.9724028568500789
4056000000.0 0.30076424404891833 -0.9861063917899077
4059000000.0 0.2922501687644551 -0.9728803239160863
4062000000.0000005 0.2640095518556317 -1.0095284371456752
4066000000.0 0.24947836068414658 -0.9742506892597128
4069000000.0 0.24709580865728573 -1.0208977918585656
4072000000.0 0.3010208376579877 -0.9888444580366395
4075000000.0 0.3161213034462065 -0.997588485958563
4078000000.0000005 0.2955160110179939 -0.9624477768919154
4081000000.0000005 0.2925600320043523 -0.94045163608558
4083999999.9999995 0.2948549845933845 -1.0149415204971133
4088000000.0 0.3225132261783168 -0.9842123781316655
4091000000.0 0.29006631059282495 -1.0101913269987584
4094000000.0000005 0.2925312821641204 -0.9860829093498533
4097000000.0000005 0.2517784198567091 -1.0039508722401456
4099999999.9999995 0.3039878872036782 -1.0143997116431007
4102999999.9999995 0.284919994836348 -1.0299416591973873
4106000000.0 0.27040573663080725 -1.0114579752118562
4109000000.0 0.2567642676314451 -1.030527925693572
4112000000.0 0.26248625245199997 -1.0125002175792244
4115999999.9999995 0.27108964165554406 -1.0016706422683728
4119000000.0 0.27956634411302467 -1.0173008785426734
4122000000.0 0.24675313955484204 -0.9795461571785828
4125000000.0 0.2551370548857099 -0.9959901865514211
4128000000.0 0.2750115394526625 -0.9680178385229445
4131000000.0 0.24162503498619703 -0.9847845899057358
4134000000.0000005 0.270085973768945 -0.982481365722149
4138000000.0 0.2476003970442535 -0.9651364891267045
4141000000.0 0.2437987977043002 -0.9655507129084139
4144000000.0 0.29389477669328395 -1.0137531433711893
4147000000.0000005 0.2433357358147236 -1.0079653765755443
4150000000.0000005 0.23752074567088166 -1.0327052899730444
4152999999.9999995 0.24141301904531637 -0.9862219924403073
4155999999.9999995 0.23444108092011906 -1.0092969880493898
4159000000.0 0.21730793556290476 -0.9694453651840258
4162000000.0 0.24891951787134808 -0.9794176832018293
4166000000.0000005 0.23679212104468955 -1.038429323094359
4168999999.9999995 0.22778226119463638 -0.9581628376485198
4171999999.9999995 0.23488834099116207 -1.0151775654200388
4175000000.0 0.23848884085072058 -1.0065526025986677
4178000000.0 0.24040864413515628 -0.9948249191561603
4181000000.0 0.21225146523939759 -0.9997481811476165
4184000000.0 0.22661006757973262 -0.9656264324884662
4187999999.9999995 0.21659560287954335 -0.9709629464989522
4191000000.0 0.25126090139990825 -0.9700648978602132
4194000000.0 0.21587929214123164 -0.9793113847461633
4197000000.0 0.23243709157379347 -1.0043260240519913
4200000000.0 0.23928563550779927 -1.003355639157418
4203000000.0000005 0.24447108189128955 -1.0102531915225719
4206000000.0000005 0.24562512904906622 -1.0061027165769076
4208999999.9999995 0.21139551314112395 -0.9728232882160587
4211999999.9999995 0.17844386347615804 -1.009156114689608
4216000000.0 0.255267671908768 -1.0028641885515996
4219000000.0000005 0.22885238169689517 -1.00819840736676
4222000000.0000005 0.22059959293364018 -0.9903850046098651
4224999999.9999995 0.20670992430650495 -0.9946550991682921
4227999999.9999995 0.20360620802211493 -0.9984791372755449
4231000000.0 0.19362218899283476 -0.9939198332726551
4234000000.0 0.198451077150888 -1.0207294078102782
4238000000.0000005 0.17293937019777295 -1.0023040804881356
4240999999.9999995 0.18110375140401178 -0.9850675754770775
4244000000.0 0.19345056711260641 -0.9881064724579067
4247000000.0 0.1942230117311285 -0.9765638744861326
4250000000.0 0.1961636734803765 -0.9725803138654898
4253000000.0 0.15285081240028517 -0.9721939554781341
4256000000.0 0.19232661270942833 -1.033797719577739
4259000000.0000005 0.17028045897320068 -0.9655285723400775
4261999999.9999995 0.15839793987889292 -0.9943187292642812
4266000000.0 0.14510171973254424 -1.0191155845884656
4269000000.0 0.17895970575363662 -0.9983595414625681
4272000000.0000005 0.19333372020954692 -1.001487083077306
4275000000.0000005 0.1805050256955175 -1.01393705489882
4277999999.9999995 0.18383818766000293 -1.0036341080018822
4280999999.9999995 0.1899115836666857 -1.0134299996742901
4284000000.0 0.13784030990417329 -1.0329260729081031
4288000000.0000005 0.19950811936748228 -0.9771161661121265
4291000000.0000005 0.1570476898973321 -0.9774277774721487
4293999999.9999995 0.14686622952611555 -0.9837920766952208
4297000000.0 0.17352527413212993 -0.9909435373144845
4300000000.0 0.16555457561402198 -0.9790614086931263
4303000000.0 0.1286832694696708 -0.9953998701258097
4306000000.0 0.1886395968789688 -0.9939164058445313
4309000000.0 0.15893742091452073 -0.9943737965688734
4312000000.0 0.19754465404561988 -0.9917189213220137
4316000000.0 0.15402706616567868 -1.0134808492475076
4319000000.0 0.15299453554557224 -0.96936651883017
4322000000.0 0.11174488280739797 -0.9826441027265448
4325000000.0 0.15622707320553114 -1.0127099908112298
4328000000.0 0.13247372744016428 -0.9966191358749648
4331000000.0 0.09798405008020966 -1.0004978989480715
4334000000.0 0.14991335242091958 -0.9974809101125213
4338000000.0 0.1564418130702675 -0.9989769221257851
4341000000.0 0.150876551683588 -1.0185119127193512
4344000000.0 0.13779285277752212 -1.0286182324906623
4347000000.0 0.0986869743923241 -1.014782646909837
4350000000.0 0.11115306189999685 -0.9873337732886183
4353000000.0 0.1399114379617577 -0.9750681985124666
4356000000.0 0.06934376841172951 -0.9767591286822737
4359000000.0 0.09480918562996737 -0.9583438634160795
4362000000.0 0.0514287594212397 -1.0163619004792181
4366000000.0 0.1074115070674313 -1.0228527864037873
4369000000.0 0.08154687962008439 -0.9633561219144752
4372000000.0 0.06222764009776521 -0.9936459251467022
4375000000.0 0.1176533881848924 -0.992201162640625
4378000000.0 0.09033110345461992 -0.9864260372415394
4381000000.0 0.08775971030125296 -0.9893808092606238
4384000000.0 0.07280338923592894 -1.0770699684410565
4388000000.0 0.08644563056268806 -0.9859876753400753
4391000000.0 0.0685193154533123 -1.0246216569668376
4394000000.0 0.062225298148888 -0.9993283588545689
4397000000.0 0.062267654434521036 -1.0120167257366484
4400000000.0 0.05514285940683039 -1.0305351338066968
4403000000.0 0.0524983462497165 -1.019852197656697
4406000000.0 0.051319364494523956 -1.0119924390309771
4409000000.0 0.03919909663066151 -1.0435022418670319
4412000000.0 0.0036632610767391993 -1.0054601142919695
4416000000.0 0.042686909926078376 -0.9945671105810963
4419000000.0 0.013816283136881213 -1.0061023032363106
4422000000.0 0.051161220172520394 -1.0073646476966045
4425000000.0 0.0643172157017618 -1.0243707777725326
4428000000.0 0.027079801160484862 -1.019680663553615
4431000000.0 0.03160446383385451 -1.0324385186551313
4434000000.0 0.019811105186080036 -1.0035817803044205
4438000000.0 0.04045990026511226 -1.0189939951172826
4441000000.0 0.014862669802859108 -1.0266784372579059
4444000000.0 0.016497893509515305 -0.9939767745314699
4447000000.0 0.006538899395042652 -1.0073068835878751
4450000000.0 0.013366516110702442 -0.9929601951058887
4453000000.0 0.0056020760810703285 -1.03375797586975
4456000000.0 0.004983639282503061 -0.9942616284783363
4459000000.0 -0.012164366973240692 -0.9782888096834548
4462000000.0 -0.01063840259278881 -1.0552611008022117
4466000000.0 -0.021721478178626907 -1.0458814215659578
4469000000.0 -0.001787912706187167 -1.017273324977702
4472000000.0 -0.021066013175840448 -1.0079310349476573
4475000000.0 -0.026101397375663526 -0.9803857031282119
4478000000.0 -0.020535183683489333 -1.017270022408698
4481000000.0 -0.029994462214620654 -0.9787835682932933
4484000000.0 -0.05843897343329346 -1.0154085494391396
4488000000.0 -0.041093240540174325 -1.0301253641010195
4491000000.0 -0.013076096852197627 -1.0184330791874268
4494000000.0 -0.05346964077443028 -1.0034132827303859
4497000000.0 -0.04376538003368202 -1.0231730031833868
4500000000.0 -0.05797166282072219 -1.0031383514813614
4503000000.0 -0.05403545241212454 -1.0358660739156487
4506000000.0 -0.05545684494593622 -1.0062870274987827
4509000000.0 -0.06687165758539987 -0.9862127773286786
4512000000.0 -0.06845049165540412 -1.0082602080743537
4516000000.0 -0.0632292618948686 -1.00611737357025
4519000000.0 -0.059972685740373344 -0.9792553060264384
4522000000.0 -0.08454201367913194 -1.0118793267595705
4525000000.0 -0.06085243430942755 -1.0327437158740103
4528000000.0 -0.09286139465857296 -1.0113218812902391
4531000000.0 -0.09471199156102894 -1.026214204305402
4534000000.0 -0.1287618405894258 -0.9896960307688801
4538000000.0 -0.0762215609184364 -1.0122603681028906
4541000000.0 -0.11643401912194284 -0.9820022020974323
4544000000.0 -0.11295146244349608 -1.0315330752445524
4547000000.0 -0.11932979471012767 -0.9951496824421032
4550000000.0 -0.13689094083999392 -1.015460630149453
4553000000.0 -0.1268747543809357 -1.0095779833150638
4556000000.0 -0.12446963891751822 -1.0079731232343982
4559000000.0 -0.12952452582075918 -1.0163010698442456
4562000000.0 -0.1410931711193108 -1.0216767217450933
4566000000.0 -0.1357873981750044 -1.0127030192321917
4569000000.0 -0.16348640764600433 -1.0187289214728659
4572000000.0 -0.15200340981996308 -1.0059425998579261
4575000000.0 -0.165462110092213 -1.0108019170681677
4578000000.0 -0.15443554193601502 -0.9998392947409543
4581000000.0 -0.16841922286053845 -0.9800164332644264
4584000000.0 -0.1703079772452616 -0.990330888032104
4588000000.0 -0.17682451332471602 -1.0149283353337641
4591000000.0 -0.19576422459535903 -0.9980887269369006
4594000000.0 -0.19550301301430448 -0.9885213136482388
4597000000.0 -0.21226533539686762 -1.0065381998945646
4600000000.0 -0.2092699904602913 -1.0114728532905597
4603000000.0 -0.21577533298595397 -0.9730827632907411
4606000000.0 -0.22197225932657422 -1.0325860478448121
4609000000.0 -0.19281515340584254 -1.005431463529133
4612000000.0 -0.22371178806906283 -0.9709438745251979
4616000000.0 -0.21323231285518085 -0.9898354541381528
4619000000.0 -0.24539946651350242 -0.9895626475253292
4622000000.0 -0.27804000724122624 -0.983641548504366
4625000000.0 -0.2553739090962496 -1.006546243648684
4628000000.0 -0.25971109626373556 -1.0652715865318076
4631000000.0 -0.22185110019573254 -1.015868974711732
4634000000.0 -0.28844820037326474 -0.9911291944857941
4638000000.0 -0.26241053045143786 -1.0110502669765542
4641000000.0 -0.28495461072099626 -0.9805611760447244
4644000000.0 -0.26102732363544684 -0.952292081072264
4647000000.0 -0.26419878405678465 -0.9652094947852364
4650000000.0 -0.27919947496172653 -0.9608041157962708
4653000000.0 -0.2795624550818187 -0.9629153756946242
4656000000.0 -0.25039003298788026 -0.9947225539122493
4659000000.0 -0.3309593662298285 -0.9953383281144264
4662000000.0 -0.3189112614759204 -0.98387666341478
4666000000.0 -0.37131021153378174 -0.9783773030458236
4669000000.0 -0.31899818408172986 -0.993920516464377
4672000000.0 -0.3039345041748479 -1.0408850723716676
4675000000.0 -0.3616607381938722 -0.9985542211414509
4678000000.0 -0.33938075279907537 -0.9258655255824824
4681000000.0 -0.3271528944286547 -0.976356461458295
4684000000.0 -0.40672735524926296 -1.008258869060608
4688000000.0 -0.37348456689071147 -0.9092805112084188
4691000000.0 -0.39760878089556073 -0.9940152268622077
4694000000.0 -0.3356242307130284 -0.9815796989652998
4697000000.0 -0.3734754769420995 -0.8723123714657541
4700000000.0 -0.37851917310681216 -0.9607216611654374
4703000000.0 -0.2934744050216677 -0.9164956080536023
4706000000.0 -0.4357327981706277 -0.9711658239698724
4709000000.0 -0.4392878495638873 -0.9201804410540667
4712000000.0 -0.39810340680308626 -0.9720234476635647
4716000000.0 -0.43077311070800933 -0.9853879063452473
4719000000.0 -0.35426700977552295 -0.9834549718426986
4722000000.0 -0.3955396377398507 -0.9855964427944081
4725000000.0 -0.415080121593228 -0.9116447065030024
4728000000.0 -0.4606600825126113 -0.9554381537910532
4731000000.0 -0.4608396935854501 -0.9838946241859965
4734000000.0 -0.41780103315148887 -0.9084953431880292
4738000000.0 -0.40860496928614615 -1.0136770408612321
4741000000.0 -0.4848072286112185 -0.9911091900480405
4744000000.0 -0.5066511993791243 -0.9254784827710021
4747000000.0 -0.4146472995292528 -0.908129766406509
4750000000.0 -0.47213273203496664 -0.9525635509113458
4753000000.0 -0.45978312245799535 -0.9348838998545533
4756000000.0 -0.4805075483520116 -0.9435862532991959
4759000000.0 -0.5129056578140223 -0.991308801722563
4762000000.0 -0.5407133289962461 -0.9481132827978248
4766000000.0 -0.5029240615354624 -0.9107076361517311
4769000000.0 -0.5219141229789914 -0.8839405618215257
4772000000.0 -0.5247655255477464 -0.8806903883473252
4775000000.0 -0.5712354584716005 -0.9269079074247536
4778000000.0 -0.6074342018038972 -0.866770731212928
4781000000.0 -0.5451893881224762 -0.9137832493014627
4784000000.0 -0.5303662115783648 -0.8944869587754363
4788000000.0 -0.6094806758509332 -0.8733429235604853
4791000000.0 -0.5596886432675698 -0.8920821266849969
4794000000.0 -0.560467588771072 -0.8896080500997537
4797000000.0 -0.5949894420865407 -0.845423378930632
4800000000.0 -0.5791065902618319 -0.8291761099173113
4803000000.0 -0.6312267259136785 -0.8040270237895082
4806000000.0 -0.635512352069542 -0.8497128010233514
4809000000.0 -0.6862999983168828 -0.7862857755121869
4812000000.0 -0.649099734728031 -0.8000044858420778
4816000000.0 -0.578417163168625 -0.8187521403930942
4819000000.0 -0.6521212372579512 -0.8608578296135639
4822000000.0 -0.6347973656417691 -0.8560025132273166
4825000000.0 -0.6629880629180416 -0.8383376560768427
4828000000.0 -0.6970751385069389 -0.8033023498147625
4831000000.0 -0.6949097058198744 -0.8214915911876342
4834000000.0 -0.6765857559903224 -0.7955153412665438
4838000000.0 -0.7264413416187185 -0.7787964944594894
4841000000.0 -0.718833700867574 -0.740538619635244
4844000000.0 -0.6895166530336039 -0.7939095087435505
4847000000.0 -0.6921739009861968 -0.7745565950491663
4850000000.0 -0.769556486441951 -0.7667773517306886
4853000000.0 -0.6948164951994874 -0.7246832600395101
4856000000.0 -0.7044609246583846 -0.7140150388780113
4859000000.0 -0.8146287422029603 -0.711491629818368
4862000000.0 -0.7329716743018597 -0.7252184780061252
4866000000.0 -0.806189762835716 -0.70442640652426
4869000000.0 -0.7464673971845552 -0.7134448748257524
4872000000.0 -0.7746980410623296 -0.6895434911186606
4875000000.0 -0.7962660807178031 -0.7287169229044483
4878000000.0 -0.7767684603143007 -0.6540283203583241
4881000000.0 -0.8262124170525322 -0.6702183819389033
4884000000.0 -0.8643745615219776 -0.6771272265741026
4888000000.0 -0.7782088130468616 -0.6643217517307637
4891000000.0 -0.8393352883313836 -0.6409082703990832
4894000000.0 -0.7756312484296066 -0.6202835398470857
4897000000.0 -0.8348394044090277 -0.6169889931340761
4900000000.0 -0.8576737503681667 -0.6325745279357083
4903000000.0 -0.8800937500468387 -0.5769239217699663
4906000000.0 -0.8601391808621207 -0.5887028139622239
4909000000.0 -0.8450352104994343 -0.5777084784507408
4912000000.0 -0.8600418009986239 -0.5207253069384541
4916000000.0 -0.9048124581850757 -0.5308159778858902
4919000000.0 -0.8918165391892784 -0.5121143070183863
4922000000.0 -0.8847729851879983 -0.5422921460226385
4925000000.0 -0.9436581153817566 -0.4815849076283143
4928000000.0 -0.9515948897959123 -0.49605766516750743
4931000000.0 -0.9458840538171306 -0.4409565222074927
4934000000.0 -0.9490660143771709 -0.47658760313409454
4938000000.0 -0.9692053431669055 -0.4402818748151276
4941000000.0 -0.9322505128822773 -0.40346735138584244
4944000000.0 -0.9434794750355597 -0.41045863060103105
4947000000.0 -0.9588390203107038 -0.4130806143616985
4950000000.0 -0.9754905257154094 -0.4028661188758764
4953000000.0 -0.9414169228602309 -0.36150017288650604
4956000000.0 -1.0103003789876803 -0.33059801673519046
4959000000.0 -0.9547168467534499 -0.3179053899765292
4962000000.0 -0.9907603657651113 -0.2844459506559435
4966000000.0 -0.9734250330093579 -0.2954894895231977
4969000000.0 -0.9704781910093586 -0.2549920191779826
4972000000.0 -0.9542135626653494 -0.26026202763251816
4975000000.0 -1.0409386023030867 -0.21007162431806103
4978000000.0 -1.0198624544339228 -0.21166421044578565
4981000000.0 -0.9973171624674714 -0.19122064671723904
4984000000.0 -1.0323481413649513 -0.11777648936123553
4988000000.0 -1.0473381485958568 -0.14825005298355487
4991000000.0 -1.050513682317114 -0.08876409284355069
4994000000.0 -1.0028956734583412 -0.10589547822528961
4997000000.0 -1.012714400639124 -0.08383543558290646
5000000000.0 -0.9898229401360924 -0.05211787158721659
5003000000.0 -1.0096109992764268 -0.023437759542950853
5006000000.0 -0.9799526354818933 -0.021814741003342186
5009000000.0 -1.050862475617187 0.048953113926149316
5012000000.0 -1.0619814882667264 0.056433108331821025
5016000000.0 -1.0456785198074543 0.05185348039175941
5019000000.0 -1.0382243754805887 0.04735948009032087
5022000000.0 -1.0118834634647076 0.09614422716670273
5025000000.0 -0.982037471540802 0.10528186030066072
5028000000.0 -1.0012974769933773 0.11249301536974943
5031000000.0 -1.0281302014251188 0.17335582534843386
5034000000.0 -1.0040162654983038 0.15066851571518414
5038000000.0 -1.0035097807892766 0.20019837043338135
5041000000.0 -0.9990333589998575 0.23495457290660665
5044000000.0 -0.9617804829333291 0.23682232067793052
5047000000.0 -0.9607830353511058 0.3407834483558846
5050000000.0 -0.9802440545667623 0.3373934121676008
5053000000.0 -0.9138555994293411 0.3319891713111218
5056000000.0 -0.9082181321876116 0.38945253697315946
5059000000.0 -0.8988888362692766 0.43782717978848007
5062000000.0 -0.9456453854994892 0.4205046634985851
5066000000.0 -0.9251311072663562 0.4837031216418701
5069000000.0 -0.9369132217353989 0.44472791265704703
5072000000.0 -0.9901965568738545 0.4686330086829772
5075000000.0 -0.8505633880548291 0.4884248601839446
5078000000.0 -0.8944176386653233 0.5250623016352932
5081000000.0 -0.8659991594805516 0.5802039109368615
5084000000.0 -0.7463749959519312 0.5571431315693189
5088000000.0 -0.8265135845528971 0.651066278819793
5091000000.0 -0.7398770801957709 0.6091125517368655
5094000000.0 -0.7344566868536089 0.6407524180214668
5097000000.0 -0.6976395974081394 0.649300935506116
5100000000.0 -0.7415981851913056 0.6962468499723592
5103000000.0 -0.7335983818546458 0.72453701559166
5106000000.0 -0.6509551680999315 0.7028629864043082
5109000000.0 -0.6578923188244366 0.7389370048021324
5112000000.0 -0.6515658029425152 0.797381543199397
5116000000.0 -0.669672454497831 0.7942277199235903
5119000000.0 -0.5592437852021013 0.8218059315177421
5122000000.0 -0.532374844762038 0.8288281291899402
5125000000.0 -0.558837729098137 0.7897057747646283
5128000000.0 -0.562031107037462 0.8663872345642851
5131000000.0 -0.5193816398492191 0.8742925902412919
5134000000.0 -0.4369672014367877 0.875073211577065
5138000000.0 -0.4532875351879617 0.8873054576167232
5141000000.0 -0.4469374421190227 0.9499193742351109
5144000000.0 -0.3552790681103466 0.897918020470676
5147000000.0 -0.4358413936701903 0.9283472877394874
5150000000.0 -0.3311330539328166 0.9419581590733619
5153000000.0 -0.3708988019006835 0.9844099173083534
5156000000.0 -0.31657133197737425 0.9289417027345241
