! Created with skrf 1.8.0 (http://scikit-rf.org).
# Hz S RI R 50.0 
!freq ReS11 ImS11
4000000000.0 0.4158190318269942 -0.9756855582163263
4003000000.0 0.39738235537750954 -0.9873772231792487
4006000000.0 0.35714342913190616 -0.9704929875093851
4009000000.0000005 0.4082978753946612 -0.9519243033414099
4011999999.9999995 0.41735419607358026 -0.9518267852373185
4016000000.0 0.3420255081260726 -0.9728535474154721
4019000000.0 0.36655708228760653 -0.9620471344952964
4022000000.0000005 0.44731666704807954 -0.9516114030731215
4025000000.0000005 0.3516351060566143 -0.9908086647439784
4027999999.9999995 0.40828916311999713 -0.9763206805975398
4030999999.9999995 0.3822965497029493 -0.9006498537618339
4034000000.0 0.38298793883365656 -0.8939252860329685
4038000000.0000005 0.38605008695325904 -0.954070852904561
4041000000.0000005 0.3696243695912772 -0.9383999339237741
4043999999.9999995 0.367523947131024 -1.0177593117269341
4046999999.9999995 0.4106777031706354 -0.9755029078762767
4050000000.0 0.37312206067098175 -0.9815934165413345
4053000000.0 0.34496979789819837 -0.9297062959931586
4056000000.0 0.3665978809432612 -0.9347435786928698
4059000000.0 0.38171117173002256 -0.9554440342142755
4062000000.0000005 0.3742021371670335 -0.9569052523732783
4066000000.0 0.33367991862571234 -0.9175022597181652
4069000000.0 0.37243895002276406 -0.9837474577355647
4072000000.0 0.4168802375087256 -0.9542092644558777
4075000000.0 0.3850927589407127 -0.9970059941632702
4078000000.0000005 0.3518464303930595 -0.9956691474098148
4081000000.0000005 0.42753551159159975 -0.9543957931498281
4083999999.9999995 0.34050157785619606 -0.9524737678647401
4088000000.0 0.43174913289619093 -0.973384589728635
4091000000.0 0.43015441127115883 -1.005457933188273
4094000000.0000005 0.40772128250812933 -0.9502757800628253
4097000000.0000005 0.3839179929133428 -0.9752557583392913
4099999999.9999995 0.3546924299519882 -0.959960363716421
4102999999.9999995 0.3810814533976634 -0.9769777113900796
4106000000.0 0.32975267746421116 -0.9586874541042771
4109000000.0 0.3408739494762337 -0.9838297037791367
4112000000.0 0.38599843879834633 -0.9581687602343019
4115999999.9999995 0.37606719803859506 -0.9549233794352768
4119000000.0 0.36573272533264156 -0.9819792695455398
4122000000.0 0.3247816035911606 -0.9883039688062082
4125000000.0 0.36676955895539703 -0.9874481899366956
4128000000.0 0.3613179203343611 -0.9157732812296262
4131000000.0 0.349134455434395 -0.9465342137158034
4134000000.0000005 0.35747050498600863 -0.9250497480073956
4138000000.0 0.34157430293453395 -0.9555721459201748
4141000000.0 0.36230769851527783 -0.9602149582284393
4144000000.0 0.3834064697518688 -0.9583280246210601
4147000000.0000005 0.3266771623693718 -0.9729553899643264
4150000000.0000005 0.36704011619254157 -0.9910608592024418
4152999999.9999995 0.37041615633878033 -0.9516493061772809
4155999999.9999995 0.37870768983538794 -0.9651525261458981
4159000000.0 0.3491000177267272 -0.9442764097933284
4162000000.0 0.3692379280895078 -0.9599362795050222
4166000000.0000005 0.3351766234383816 -0.975429013271904
4168999999.9999995 0.3184240905514695 -0.9666289069708789
4171999999.9999995 0.36035917926947675 -0.9316826173273841
4175000000.0 0.3730654630269017 -0.950538900508008
4178000000.0 0.35490200541604056 -0.9703235178268991
4181000000.0 0.34631194326201786 -0.953654894885911
4184000000.0 0.3467806993193199 -0.9376150908292461
4187999999.9999995 0.35105912357219315 -0.9502777452377192
4191000000.0 0.3705253087561472 -0.9149287797240119
4194000000.0 0.3467668723656665 -0.9461047971666383
4197000000.0 0.3723211204663482 -0.960166395053721
4200000000.0 0.3773650274174352 -0.9559736665522871
4203000000.0000005 0.3738177364644439 -0.969033518118064
4206000000.0000005 0.3539244260236552 -0.9832799336754526
4208999999.9999995 0.3504031182118885 -0.9431640577360285
4211999999.9999995 0.32292428085016645 -0.9573220270534512
4216000000.0 0.37138979724425825 -0.9627667072249403
4219000000.0000005 0.34915589171105227 -0.9687073735428804
4222000000.0000005 0.3354333597748457 -0.9521706891771141
4224999999.9999995 0.3468498722091685 -0.9364423740819915
4227999999.9999995 0.3525494508442328 -0.954653424557454
4231000000.0 0.3317962182428923 -0.9682144372495226
4234000000.0 0.3346093713028712 -0.974711256852434
4238000000.0000005 0.3347340340127004 -0.9633874540869004
4240999999.9999995 0.32246669932406885 -0.9524707023864067
4244000000.0 0.3370661816076047 -0.9535412770805476
4247000000.0 0.33423764377681503 -0.9431410357373634
4250000000.0 0.32985702450287513 -0.9325300486655452
4253000000.0 0.3134263468703263 -0.942053445777309
4256000000.0 0.3224228441582423 -0.9903372588341369
4259000000.0000005 0.30775458476386686 -0.9317658588925998
4261999999.9999995 0.3120793818015257 -0.960141660132202
4266000000.0 0.29250718152181865 -0.9597119977990288
4269000000.0 0.3289124874502153 -0.9402341059444576
4272000000.0000005 0.3406055604374208 -0.9635955327092187
4275000000.0000005 0.32195131980372765 -0.9498696736075564
4277999999.9999995 0.33606701791408466 -0.978563852776961
4280999999.9999995 0.3309097585040145 -0.9478593525393059
4284000000.0 0.27622325696578737 -0.9689116634082029
4288000000.0000005 0.34135747431368174 -0.9552259051404606
4291000000.0000005 0.3277733121364902 -0.9385092121758214
4293999999.9999995 0.30604698976512623 -0.9605366960029212
4297000000.0 0.34521371306086024 -0.946646989263681
4300000000.0 0.321786483305899 -0.9194579246473662
4303000000.0 0.27659161538655574 -0.9512967024035419
4306000000.0 0.34440798519185606 -0.935642768371448
4309000000.0 0.3258453664157117 -0.9528033636054773
4312000000.0 0.33637437859215924 -0.9637353489515845
4316000000.0 0.3202447436691324 -0.9585180205272594
4319000000.0 0.30824720475983125 -0.9339672600055573
4322000000.0 0.2874839024929936 -0.9536065891724367
4325000000.0 0.3094255687683942 -0.9595876634534994
4328000000.0 0.2866188351652245 -0.9432378031761763
4331000000.0 0.2881855376004188 -0.9849425949574495
4334000000.0 0.2853776297416189 -0.9832771698991236
4338000000.0 0.3191277457882692 -0.9581151412354727
4341000000.0 0.3394115130970897 -0.9577131930027667
4344000000.0 0.3256037781037215 -0.9572852695116729
4347000000.0 0.28735878632850226 -0.9878171746515125
4350000000.0 0.2868296553909711 -0.9326331867010059
4353000000.0 0.31374283611357945 -0.9587154366194549
4356000000.0 0.25212982448722027 -0.946736097756356
4359000000.0 0.27234542430729336 -0.9173411697194895
4362000000.0 0.2532758673245905 -0.987041120567805
4366000000.0 0.2758662096701019 -0.9808449908717303
4369000000.0 0.2687619832443118 -0.9528836241198669
4372000000.0 0.24780712856380804 -0.9515935060024343
4375000000.0 0.29865498243733724 -0.9476629771943534
4378000000.0 0.28420315346939395 -0.9404628978568392
4381000000.0 0.28939009496440343 -0.9570850325973804
4384000000.0 0.2803873453591077 -1.024420508426756
4388000000.0 0.2715285094606705 -0.9459052718594355
4391000000.0 0.2873151381870224 -0.9744712478336548
4394000000.0 0.2606995764380135 -0.9430671659483942
4397000000.0 0.2625109559679999 -0.9623486046739598
4400000000.0 0.2693652843333206 -0.9975131614094545
4403000000.0 0.28544352199877077 -0.9799620944028524
4406000000.0 0.24633827750177456 -0.9852885342815634
4409000000.0 0.263921198538803 -0.9980714460908802
4412000000.0 0.2068271710612834 -0.973345042424059
4416000000.0 0.24699734047351413 -0.9685566444085908
4419000000.0 0.21692084840725645 -0.9786946675984325
4422000000.0 0.2703570935617905 -0.975042569006439
4425000000.0 0.28553803716157117 -0.9810943668176292
4428000000.0 0.24621386262213535 -0.9709338895792211
4431000000.0 0.2647561953904659 -0.9846660476685565
4434000000.0 0.24268520333499388 -0.9729528267275913
4438000000.0 0.2548570856150187 -0.9814451497349657
4441000000.0 0.25306501923779073 -0.9864709854885872
4444000000.0 0.23618762337681126 -0.965249140908246
4447000000.0 0.22346638146437686 -0.9724923634628377
4450000000.0 0.25135512826124506 -0.969182719101688
4453000000.0 0.24239875959965135 -0.987981443930365
4456000000.0 0.21511555250738884 -0.9507438886446311
4459000000.0 0.21467279567271874 -0.9541941413550223
4462000000.0 0.22962186560194686 -1.0215019620327421
4466000000.0 0.2425952614991269 -1.0092928688151794
4469000000.0 0.25300092114840517 -0.96668347776638
4472000000.0 0.2091791559734411 -1.0090019801536823
4475000000.0 0.23328481112648575 -0.9509270089795787
4478000000.0 0.21410853827209575 -1.0284476206315465
4481000000.0 0.2064706701325576 -0.9572033157550441
4484000000.0 0.18996957501309614 -0.9983871571838561
4488000000.0 0.21017496683277587 -0.9757871041230151
4491000000.0 0.21913218089268266 -0.9861807309482158
4494000000.0 0.21135464461379444 -0.9808966561722967
4497000000.0 0.2256672202799836 -0.9653285185243556
4500000000.0 0.21884730609657188 -0.9724763181156895
4503000000.0 0.2071354842123842 -1.0077067440111778
4506000000.0 0.1912697096400054 -0.9825267551336305
4509000000.0 0.1892012736777925 -0.9801838710974541
4512000000.0 0.1875207303170085 -0.9659044093908254
4516000000.0 0.20277205299864887 -0.996272511251852
4519000000.0 0.20893466096821606 -0.9783310005045629
4522000000.0 0.18423441009618946 -0.9854682558143768
4525000000.0 0.2174178508451644 -0.9851033440077763
4528000000.0 0.19416379040278436 -1.011387428593572
4531000000.0 0.1918952565800242 -0.9787555365504865
4534000000.0 0.16603702660562203 -0.9809099959639107
4538000000.0 0.19051511618615513 -0.9908388019792544
4541000000.0 0.1630900703538275 -0.9829063228607571
4544000000.0 0.18666361193251646 -0.9672292611952371
4547000000.0 0.20010604991093522 -0.9820265688297969
4550000000.0 0.1723064184128011 -1.0084728370537637
4553000000.0 0.16694073834495193 -0.9868227574494587
4556000000.0 0.16573725713241116 -0.9794692298872917
4559000000.0 0.1771160958436196 -1.009067488663066
4562000000.0 0.1831015455776604 -1.003878948622161
4566000000.0 0.17054840195677717 -1.006926536108424
4569000000.0 0.1641919550915127 -0.9762893247360451
4572000000.0 0.17386480807350513 -0.9726390755402242
4575000000.0 0.16036852846394473 -1.017548590595612
4578000000.0 0.17686863196776942 -0.9950893515406226
4581000000.0 0.14561919282876068 -0.9931362059734787
4584000000.0 0.15355607656887077 -0.9861763250585841
4588000000.0 0.15739892692985247 -1.0036559116727402
4591000000.0 0.16534586322931477 -1.008846604460648
4594000000.0 0.12756489149418276 -1.0012062532961372
4597000000.0 0.12409038793993798 -1.014001591498086
4600000000.0 0.12865580910937952 -0.9922664039923541
4603000000.0 0.13979415624809688 -0.9992823474120134
4606000000.0 0.1446372709532645 -1.0302643710313666
4609000000.0 0.15123588879413796 -1.0037015186776928
4612000000.0 0.14609353893492344 -0.983879806952135
4616000000.0 0.12132073313831937 -0.995258926390522
4619000000.0 0.13564570085188948 -0.9851602582122378
4622000000.0 0.096174313914415 -0.9918810204265294
4625000000.0 0.09630765097298799 -0.997448622914347
4628000000.0 0.12646192917696203 -1.029296613918638
4631000000.0 0.1060183090212847 -1.00555771819966
4634000000.0 0.1017481271514114 -1.012847651639699
4638000000.0 0.12052820599227704 -1.0219562971115526
4641000000.0 0.12615431050330722 -1.007370235148956
4644000000.0 0.10662073421345991 -0.9904349447855031
4647000000.0 0.12789847582720473 -1.0093456589182765
4650000000.0 0.10251604446634727 -1.0151850319036788
4653000000.0 0.11420623260483825 -1.010042734908013
4656000000.0 0.11507731549461378 -0.9892665785305538
4659000000.0 0.07239953982889397 -1.0381491141761805
4662000000.0 0.0770038687766581 -1.0372281486054338
4666000000.0 0.06061921555233646 -1.0202961542236988
4669000000.0 0.09082756163135888 -1.0233750268507869
4672000000.0 0.0779645898926083 -1.0278911176836252
4675000000.0 0.0753859427138284 -1.0303634886312067
4678000000.0 0.07284302566155174 -0.9963252660653342
4681000000.0 0.054502669557258285 -1.0354829491945472
4684000000.0 0.0495969553698902 -1.0610415010732652
4688000000.0 0.034192094491293124 -1.0146695249530557
4691000000.0 0.09767837517377528 -1.0493463240643028
4694000000.0 0.1170577000278808 -0.9994568002716446
4697000000.0 0.05319658608049612 -0.9562057605429763
4700000000.0 0.06760750992878149 -0.997127290616954
4703000000.0 0.14181896903228242 -0.946180777402443
4706000000.0 0.012725009079401293 -1.0356645307403822
4709000000.0 0.06508905068636685 -1.0238067516041238
4712000000.0 0.058675465363314 -1.0108889312729605
4716000000.0 0.04796442426980442 -1.054214073715509
4719000000.0 0.10560028449496364 -0.9828614709528174
4722000000.0 0.05889681813658071 -0.9985396943248147
4725000000.0 0.09569399140100908 -1.0155996138311225
4728000000.0 0.04663471915570918 -1.0021891091113824
4731000000.0 0.10196645183374317 -1.054373032063629
4734000000.0 0.0505253037589319 -1.0013748142503474
4738000000.0 0.08184252037731854 -1.0429338738143539
4741000000.0 0.04747515433830846 -1.0441898511958712
4744000000.0 0.057410584941569406 -1.005660010159058
4747000000.0 0.06947461438682967 -0.9403524109994141
4750000000.0 0.05672124376326831 -1.046307732838059
4753000000.0 0.04815311295018645 -1.043573742829224
4756000000.0 0.05867704923441488 -1.0372107028832398
4759000000.0 0.054624921998399655 -1.02600085213839
4762000000.0 0.013909713441676005 -1.054174063219496
4766000000.0 0.033253678273951745 -1.0665047323472008
4769000000.0 0.03987424807541941 -1.0150667397380986
4772000000.0 0.015390297366130276 -0.9943005553320261
4775000000.0 0.01869785660187484 -1.0788013003383812
4778000000.0 -0.022509251035030542 -1.0442774005079942
4781000000.0 0.03682241111099907 -1.0166242501927032
4784000000.0 0.03683002920772813 -1.0212365640888312
4788000000.0 -0.017826614428919113 -1.032792364689717
4791000000.0 0.008233697413515928 -1.0116280942986795
4794000000.0 0.034791176962803066 -1.05989695824943
4797000000.0 -0.02639892136985983 -0.9946232157701536
4800000000.0 0.002795204333711304 -1.0053040792219916
4803000000.0 -0.06496082837106495 -1.0477261534355007
4806000000.0 -0.021861972827551895 -1.049915764400722
4809000000.0 -0.06201622167663548 -1.026269945819821
4812000000.0 -0.04723493389499772 -1.0112088380125894
4816000000.0 0.020163455260122476 -1.0153550534985873
4819000000.0 0.018610619150460417 -1.081632687597864
4822000000.0 0.015594120438738313 -1.0725632110392653
4825000000.0 0.022242515879361102 -1.0534612357949635
4828000000.0 -0.04861877546180332 -1.0292380868804445
4831000000.0 -0.07349052014077673 -1.0505626195594757
4834000000.0 -0.015350617857809723 -1.0436854738577246
4838000000.0 -0.043065855651484686 -1.0219537368749103
4841000000.0 -0.06805885791189703 -1.0287431690120559
4844000000.0 -0.01027426779033741 -1.0280628380014623
4847000000.0 -0.027185406222420716 -1.005569565048606
4850000000.0 -0.0685237264597241 -1.051775428901506
4853000000.0 -0.04443068598083677 -1.0004405343032128
4856000000.0 -0.05142331266076461 -1.0256511944398354
4859000000.0 -0.09440327211902055 -1.0845951872553385
4862000000.0 -0.0328160920241079 -1.0039427439934683
4866000000.0 -0.06636708855351725 -1.0385346885768583
4869000000.0 -0.09246022799905351 -1.0320022586536588
4872000000.0 -0.06743181267386789 -1.0571283758278205
4875000000.0 0.001195602887411218 -1.0806227252224878
4878000000.0 -0.05584170076454248 -1.024323481649063
4881000000.0 -0.11872153050598822 -1.1122696411129729
4884000000.0 -0.04602112421220317 -1.034213344006036
4888000000.0 -0.05777093126778138 -1.0135380182552343
4891000000.0 -0.055265890410804264 -1.0377287377977018
4894000000.0 -0.10383406386175298 -1.0250380043933152
4897000000.0 -0.07529895608167914 -1.0068129172305733
4900000000.0 -0.09820799937792601 -1.057916724150256
4903000000.0 -0.06988150864658499 -1.0556044096473198
4906000000.0 -0.08459699722932978 -1.0341937481676775
4909000000.0 -0.100477245458581 -1.0578136064215926
4912000000.0 -0.13229803464346251 -1.0530726183135668
4916000000.0 -0.129602957717652 -1.088599473429939
4919000000.0 -0.10896045100782992 -1.0764294219264603
4922000000.0 -0.11435906157748632 -1.0384149566178897
4925000000.0 -0.1526948740641565 -0.9955810709408401
4928000000.0 -0.08448410381849208 -1.0041749881385509
4931000000.0 -0.11849243861851871 -1.0452157074363027
4934000000.0 -0.13343157360760727 -1.009152558764521
4938000000.0 -0.16291293265270612 -1.0085525459992426
4941000000.0 -0.13961542470457888 -1.0071952618776423
4944000000.0 -0.14772689621793256 -0.9967142776498624
4947000000.0 -0.14304710126464698 -1.0289340712158255
4950000000.0 -0.15161716562284921 -1.019032138374
4953000000.0 -0.20084093008853798 -1.0393677875911123
4956000000.0 -0.11374283686510528 -1.0115604353587888
4959000000.0 -0.20116605399918674 -0.975409354465378
4962000000.0 -0.163262473015168 -1.046848293593472
4966000000.0 -0.1302823834340323 -1.052225971095731
4969000000.0 -0.12466809753391894 -1.0696610396520514
4972000000.0 -0.16751763153365207 -1.002509512107471
4975000000.0 -0.14588526129188722 -1.006292005669325
4978000000.0 -0.18172914902857484 -1.0263570384132827
4981000000.0 -0.19796892263135213 -1.0105120337555393
4984000000.0 -0.17164726836073946 -1.0099534810683783
4988000000.0 -0.17862674448987564 -0.9943270361221443
4991000000.0 -0.16407899700857637 -1.0514825233570952
4994000000.0 -0.19264720262107926 -1.0206395652720186
4997000000.0 -0.2183147315758463 -1.0275106029831036
5000000000.0 -0.224538251205546 -1.0270224834969433
5003000000.0 -0.21921674755171583 -0.997420805200385
5006000000.0 -0.2290827640200832 -1.0660002762611835
5009000000.0 -0.2231880473800198 -1.0056863785071277
5012000000.0 -0.25215684892660567 -1.0116237507380383
5016000000.0 -0.19413373190738836 -1.059611151977362
5019000000.0 -0.24854641619754297 -1.00155707944793
5022000000.0 -0.24128619009289454 -0.9933946643952286
5025000000.0 -0.26717274496910665 -1.0481995761006049
5028000000.0 -0.2450255836639722 -1.0209716722903612
5031000000.0 -0.23110217023645613 -0.9921430567250685
5034000000.0 -0.26930619438446424 -1.0512731175973842
5038000000.0 -0.268992606212342 -1.0042247297433273
5041000000.0 -0.22706012288393074 -0.9941992116574041
5044000000.0 -0.23391668612678812 -0.9851265818278487
5047000000.0 -0.22337915902306915 -0.9828639733183873
5050000000.0 -0.2209667823952009 -0.982170865189932
5053000000.0 -0.30226660511455966 -0.9868923098818704
5056000000.0 -0.23374677994487464 -0.9845670559746873
5059000000.0 -0.30510169620357236 -1.0236080096176638
5062000000.0 -0.35420333396767606 -0.9698040936940289
5066000000.0 -0.319982203230885 -1.0183826254854256
5069000000.0 -0.26566988407264164 -1.0124713043568605
5072000000.0 -0.3035730702600835 -0.9806960965150704
5075000000.0 -0.29169511796901776 -0.9534041847422023
5078000000.0 -0.3320661491270687 -0.9751130271567995
5081000000.0 -0.3143268828758008 -0.9839933034378133
5084000000.0 -0.33823640558240964 -0.961005948379063
5088000000.0 -0.31815770122411585 -1.012303157992899
5091000000.0 -0.35432603820351627 -0.9237452115096266
5094000000.0 -0.41287324462541625 -0.8955655324667842
5097000000.0 -0.30748739053865526 -0.964031913691692
5100000000.0 -0.37059486405012376 -0.9878693086350134
5103000000.0 -0.4768638817061761 -0.9463437594569197
5106000000.0 -0.38200812062418493 -0.9386425624563732
5109000000.0 -0.3900606063886849 -0.933974176389089
5112000000.0 -0.4059164066384517 -0.9116155864850701
5116000000.0 -0.4012882971874202 -0.9169118746874025
5119000000.0 -0.4110471014351002 -0.8721407972188644
5122000000.0 -0.44978833832703125 -0.9203030246282294
5125000000.0 -0.37696428357231315 -0.901456363444557
5128000000.0 -0.4099269438070469 -0.9410345260411513
5131000000.0 -0.47235749709638664 -0.9507197865210681
5134000000.0 -0.4403947171177315 -0.9053723443680575
5138000000.0 -0.44133198488936765 -0.9354670861202571
5141000000.0 -0.4373211933526807 -0.973268112619303
5144000000.0 -0.4789199981550452 -0.8331143089710403
5147000000.0 -0.47791248524298857 -0.9349140408469258
5150000000.0 -0.48896150921523823 -0.9606168187701611
5153000000.0 -0.5024267461556016 -0.9416664559588068
5156000000.0 -0.4620613657249368 -0.8733928928539096
5159000000.0 -0.5204849606716553 -0.9147497238849738
