! Created with skrf 1.8.0 (http://scikit-rf.org).
# Hz S RI R 50.0 
!freq ReS11 ImS11
4000000000.0 0.505406651438263 -0.9024194649975257
4003000000.0 0.5904528435984786 -0.8655203069085315
4006000000.0 0.4912756195056776 -0.8961160701684061
4009000000.0000005 0.5504573674877099 -0.9110197753643093
4011999999.9999995 0.5902532343491497 -0.9197480683240038
4016000000.0 0.5440281574853845 -0.926909330271497
4019000000.0 0.5287288271006411 -0.9122042755368696
4022000000.0000005 0.6501098199219786 -0.8296751688338347
4025000000.0000005 0.5034747021161512 -0.8926325578168984
4027999999.9999995 0.5676277550705182 -0.8796294148418012
4030999999.9999995 0.553060400208715 -0.8912753647203716
4034000000.0 0.5048660363157309 -0.903771221380827
4038000000.0000005 0.5076295581167068 -0.8908504764605496
4041000000.0000005 0.543752291687007 -0.8789746244098693
4043999999.9999995 0.5725961712708554 -0.9472723677162178
4046999999.9999995 0.5778420947914978 -0.9342373790316029
4050000000.0 0.5265495614170689 -0.9510910407100862
4053000000.0 0.513144984445828 -0.9071262818932699
4056000000.0 0.5381667183929667 -0.9148546880102405
4059000000.0 0.5341390067219048 -0.8679477138830998
4062000000.0000005 0.5406487925706339 -0.9037437939440718
4066000000.0 0.5009716562299531 -0.846154416375325
4069000000.0 0.5230106818052138 -0.9335250363312224
4072000000.0 0.5969608225174781 -0.859727178891043
4075000000.0 0.602384921944226 -0.9051466937965271
4078000000.0000005 0.5271063010127345 -0.8773511763178734
4081000000.0000005 0.5878267274401472 -0.8558444087603949
4083999999.9999995 0.5302420783979129 -0.9065726163949623
4088000000.0 0.5411549156672232 -0.8592352247434283
4091000000.0 0.5574181018407902 -0.944059792745842
4094000000.0000005 0.5653922089848508 -0.8646256772991109
4097000000.0000005 0.5578624057921042 -0.8786996592916675
4099999999.9999995 0.5485029295569407 -0.9072416047752568
4102999999.9999995 0.5735755754140645 -0.910177945057949
4106000000.0 0.5531058163929111 -0.8742823356866516
4109000000.0 0.4991818577059117 -0.9132707738743607
4112000000.0 0.5507797807727185 -0.9007324741390947
4115999999.9999995 0.5972711548425556 -0.8687731604089698
4119000000.0 0.5036708262206141 -0.9140440084963611
4122000000.0 0.49997662921888647 -0.8817456880747939
4125000000.0 0.5154574454427456 -0.9197276520770442
4128000000.0 0.5374617719499318 -0.8487540526778675
4131000000.0 0.5152040778998979 -0.8866854663449981
4134000000.0000005 0.5561144801615426 -0.8635493752566317
4138000000.0 0.5234395373723214 -0.8588912516828423
4141000000.0 0.5542189103123 -0.8927642473669132
4144000000.0 0.5519271698861082 -0.855654083688596
4147000000.0000005 0.5181181258489934 -0.9024944938239565
4150000000.0000005 0.5449429759745705 -0.8812461602816878
4152999999.9999995 0.5716536920676114 -0.8722747736056504
4155999999.9999995 0.5509806916839588 -0.8813642860001514
4159000000.0 0.5524227215080871 -0.8476962169347179
4162000000.0 0.541320532007987 -0.888569682813608
4166000000.0000005 0.5542648439707681 -0.9058363363263281
4168999999.9999995 0.5232958568500401 -0.8661448752335329
4171999999.9999995 0.5660607114977814 -0.8723260294152212
4175000000.0 0.5790648319920705 -0.8824631032378556
4178000000.0 0.5623996578385233 -0.8719348628357917
4181000000.0 0.5598365952253463 -0.8772548059482043
4184000000.0 0.5472158218267977 -0.8747530405156623
4187999999.9999995 0.5298853102049786 -0.8945421638027966
4191000000.0 0.575617062421261 -0.8450314521713875
4194000000.0 0.530388580104938 -0.8787780821585945
4197000000.0 0.5302447898421895 -0.8932714320600872
4200000000.0 0.5367859674545883 -0.8686483198593681
4203000000.0000005 0.5492671103281472 -0.8817029750164385
4206000000.0000005 0.5309745816009349 -0.8716475874035143
4208999999.9999995 0.549695588415267 -0.8606195954219721
4211999999.9999995 0.5029396296831149 -0.8756104866483344
4216000000.0 0.567310768319075 -0.8774320877467926
4219000000.0000005 0.5676167395776697 -0.885627627050795
4222000000.0000005 0.5110111693240332 -0.8850056754557467
4224999999.9999995 0.5405156033531878 -0.877339335925855
4227999999.9999995 0.5482680431973568 -0.8794066594926433
4231000000.0 0.5252356249177599 -0.8904074757903725
4234000000.0 0.5450869435076648 -0.8685056262733263
4238000000.0000005 0.5200943633165094 -0.8721758433583661
4240999999.9999995 0.5125304738283654 -0.8677379751860714
4244000000.0 0.541898018572603 -0.8623608786309799
4247000000.0 0.5406586364440964 -0.8652417385318762
4250000000.0 0.521720415169862 -0.844698933035587
4253000000.0 0.5168534548833484 -0.8324817325294267
4256000000.0 0.5488970527319138 -0.8826738417109421
4259000000.0000005 0.5054547285375006 -0.8344188027876636
4261999999.9999995 0.5292547103424692 -0.8855548735933465
4266000000.0 0.5450723350997444 -0.8863914712031934
4269000000.0 0.5377967180363344 -0.8613344665047863
4272000000.0000005 0.5292834736842078 -0.8773745323976606
4275000000.0000005 0.5278514780040908 -0.8698873044173407
4277999999.9999995 0.5304706300226231 -0.8717782140908815
4280999999.9999995 0.5384517901264964 -0.8867872088984488
4284000000.0 0.5101931612862058 -0.8645794277632481
4288000000.0000005 0.5501335804232688 -0.8670529097011465
4291000000.0000005 0.5210726236773447 -0.8339527824021261
4293999999.9999995 0.5210677562117134 -0.873613309952169
4297000000.0 0.5398274171593923 -0.8410250485676194
4300000000.0 0.5531197071005208 -0.8707669785257836
4303000000.0 0.5239228191357093 -0.8688554377966841
4306000000.0 0.5612435695965389 -0.8600172127159029
4309000000.0 0.5503994956542023 -0.8677895209918469
4312000000.0 0.6018447413147477 -0.877193821598295
4316000000.0 0.5343895000939262 -0.8689397434328889
4319000000.0 0.509280606127368 -0.8406404345047004
4322000000.0 0.5193473577573477 -0.8436637051095369
4325000000.0 0.5423759683003468 -0.867976755557788
4328000000.0 0.5062741735469699 -0.8592690928876342
4331000000.0 0.5133363126576818 -0.8556404668197463
4334000000.0 0.5227150547209776 -0.8697882266626938
4338000000.0 0.5537820978602712 -0.8455572757379365
4341000000.0 0.5958518602357995 -0.8826683526328042
4344000000.0 0.553841173646295 -0.858188638476739
4347000000.0 0.5243653617630567 -0.8810046197046991
4350000000.0 0.5053996876279103 -0.8351170010586951
4353000000.0 0.5370008511994209 -0.8364440563976203
4356000000.0 0.4933807053199367 -0.8702065983609578
4359000000.0 0.5105518884872049 -0.8372422314313205
4362000000.0 0.4882457163449276 -0.9116305645594829
4366000000.0 0.5179082709442684 -0.8972465635405235
4369000000.0 0.5144654154851852 -0.8502392485409994
4372000000.0 0.5012062307428725 -0.8802650949928535
4375000000.0 0.5349440181515548 -0.8569113905676502
4378000000.0 0.517136646343844 -0.8566913886356707
4381000000.0 0.5271259007602742 -0.8646671871414624
4384000000.0 0.5659072657180273 -0.9211848159824033
4388000000.0 0.5162536696900191 -0.8576674770536356
4391000000.0 0.5322517500913798 -0.8735462871902718
4394000000.0 0.5136947113529071 -0.8435327856446332
4397000000.0 0.5171031097285893 -0.845138398574072
4400000000.0 0.5172844940541224 -0.8950831859692009
4403000000.0 0.5216413519089991 -0.881933570847703
4406000000.0 0.5046122724320429 -0.8841356023636872
4409000000.0 0.5352331090187165 -0.9059495622363082
4412000000.0 0.47496549721706904 -0.8901784944591205
4416000000.0 0.5118037760670812 -0.862621646797171
4419000000.0 0.4967607139711654 -0.8802178372077548
4422000000.0 0.5264990922377222 -0.8570581111442026
4425000000.0 0.5470825664141218 -0.873661899399129
4428000000.0 0.5256628117091218 -0.8718486589918748
4431000000.0 0.5236971787662954 -0.9044469483322926
4434000000.0 0.5086510573836656 -0.859864769139741
4438000000.0 0.536551676697874 -0.8901113573501369
4441000000.0 0.5273306317120415 -0.8856761340239954
4444000000.0 0.5176374178087891 -0.8512720278757012
4447000000.0 0.4998733532487049 -0.8666883561168203
4450000000.0 0.5296570255758909 -0.847976232047435
4453000000.0 0.536649219978977 -0.8842222240039181
4456000000.0 0.49245741719588143 -0.8458048374942081
4459000000.0 0.47314643202049167 -0.8404495863042105
4462000000.0 0.5409490307003146 -0.8992606186735879
4466000000.0 0.532950890040544 -0.9032701132650984
4469000000.0 0.5237374040198133 -0.8527080341797411
4472000000.0 0.5159549209410642 -0.8897047142359535
4475000000.0 0.5012765260275003 -0.8534877700884093
4478000000.0 0.5187097829528278 -0.9114191586748537
4481000000.0 0.4898268435853148 -0.8691113348646711
4484000000.0 0.44784831308542766 -0.88659501826834
4488000000.0 0.4907066277303146 -0.8655967786126642
4491000000.0 0.49979088312660697 -0.8846865397771821
4494000000.0 0.5126733273420719 -0.8780011908658625
4497000000.0 0.5067741800252795 -0.8576260446542119
4500000000.0 0.5187283191005496 -0.8595029935676095
4503000000.0 0.5096183008590862 -0.9049419485962169
4506000000.0 0.49261696984379466 -0.8732021638665517
4509000000.0 0.5051618973283518 -0.8630523958266543
4512000000.0 0.4750602640071415 -0.8686039684472043
4516000000.0 0.5134877326689824 -0.8994530192243294
4519000000.0 0.5058545546195479 -0.8440430827163066
4522000000.0 0.5003879303822847 -0.8857753306574174
4525000000.0 0.5470245964137896 -0.8678239936482086
4528000000.0 0.4985948547430893 -0.9020347426366195
4531000000.0 0.5166367315467508 -0.8694306705423203
4534000000.0 0.48883555405157786 -0.8757768763987004
4538000000.0 0.4921432338808675 -0.8795069248023497
4541000000.0 0.46056341201439854 -0.8871687833796598
4544000000.0 0.4936319298533569 -0.8710098496750349
4547000000.0 0.5028994247185359 -0.8659279482060984
4550000000.0 0.49642371798795776 -0.8774262989573097
4553000000.0 0.4910651355071164 -0.8949354937996626
4556000000.0 0.4563895592238372 -0.8684363161085809
4559000000.0 0.492119861521193 -0.8866556791495925
4562000000.0 0.5084056403486942 -0.9091491269962171
4566000000.0 0.5065153524245147 -0.9026707670079714
4569000000.0 0.4855885616396878 -0.8707380597014024
4572000000.0 0.49189647797952674 -0.8880277485397209
4575000000.0 0.4746954221849151 -0.8985603104880056
4578000000.0 0.5325060444714244 -0.9155162451776406
4581000000.0 0.49134206641843614 -0.9070176447602303
4584000000.0 0.4674337156444419 -0.89246135371203
4588000000.0 0.5034223416081564 -0.8828762533952969
4591000000.0 0.5129911954667923 -0.876916557736268
4594000000.0 0.4754340657287111 -0.8957296791225897
4597000000.0 0.49504262793709836 -0.8926168147149053
4600000000.0 0.4605767042507941 -0.8937867339859678
4603000000.0 0.47850303894991403 -0.8979081909481339
4606000000.0 0.49192227929514065 -0.899294423484502
4609000000.0 0.4953164411399599 -0.8875960618175804
4612000000.0 0.49143077019273185 -0.8969635918546871
4616000000.0 0.4756161258662752 -0.8836439130806444
4619000000.0 0.4932553742912413 -0.8894377815251815
4622000000.0 0.4951759193497216 -0.9044229360852785
4625000000.0 0.4422847490490526 -0.8839059705857585
4628000000.0 0.49577156411938683 -0.8878857423949422
4631000000.0 0.46084039768076634 -0.8891723231112847
4634000000.0 0.4826229540361096 -0.8843793188389185
4638000000.0 0.5103840653863587 -0.8872798598300965
4641000000.0 0.48189158497642487 -0.8887047671557415
4644000000.0 0.47926397166684287 -0.8881535755272266
4647000000.0 0.5056308163769224 -0.8957687726220659
4650000000.0 0.46639986057408295 -0.8998952470014212
4653000000.0 0.49148109956677116 -0.9033680037775006
4656000000.0 0.4724679432784813 -0.8991096582854717
4659000000.0 0.47623838092582615 -0.8989171591393093
4662000000.0 0.4885314934321207 -0.9068482510252128
4666000000.0 0.46969856615493 -0.9122660505649067
4669000000.0 0.49054930792754425 -0.8951294896955261
4672000000.0 0.4646829239844898 -0.9157794378519185
4675000000.0 0.4596223820540864 -0.9155213569472083
4678000000.0 0.47988936251710995 -0.8676232845134705
4681000000.0 0.47187492240945156 -0.9073231079626822
4684000000.0 0.457209585831516 -0.9188422715776248
4688000000.0 0.4398216317390874 -0.8970602450071621
4691000000.0 0.48793038682134227 -0.8896375813740648
4694000000.0 0.49723422491193187 -0.8908880612145612
4697000000.0 0.4346136610922257 -0.8902196830805605
4700000000.0 0.49944076677605964 -0.8928916586842932
4703000000.0 0.48421658733693096 -0.8773585190465139
4706000000.0 0.45059977514103283 -0.8969726970174468
4709000000.0 0.4711894014099992 -0.8793268059317322
4712000000.0 0.47013231786352366 -0.8876047370083453
4716000000.0 0.4874596108406083 -0.905069247519537
4719000000.0 0.5062411031999338 -0.8869383969357385
4722000000.0 0.4983230562256052 -0.9132554921827137
4725000000.0 0.4801665489663038 -0.8935016931418892
4728000000.0 0.4685753544705957 -0.8821822448544474
4731000000.0 0.5051775224179371 -0.9037008673573383
4734000000.0 0.48639012458206743 -0.8910411568528908
4738000000.0 0.4825067489073924 -0.9318390459647282
4741000000.0 0.4790535130969772 -0.9369789809379907
4744000000.0 0.4582958143584276 -0.9044617353839818
4747000000.0 0.482123783039739 -0.8885889338327745
4750000000.0 0.46097164260995593 -0.9324479253143775
4753000000.0 0.4994828527226207 -0.9144024930697356
4756000000.0 0.48202039092820737 -0.9402248433343076
4759000000.0 0.5059938203058771 -0.9158425229690315
4762000000.0 0.4526853045113637 -0.9170550616433747
4766000000.0 0.4665416100322516 -0.9228354290419714
4769000000.0 0.48583764665240037 -0.920443438004622
4772000000.0 0.4876822060954394 -0.915307403402765
4775000000.0 0.463383117035988 -0.969147184391626
4778000000.0 0.48875207977324064 -0.9481884161964149
4781000000.0 0.49814816079163193 -0.8827674167034089
4784000000.0 0.47918764741099473 -0.8920454118161237
4788000000.0 0.47524483335749473 -0.930895214603912
4791000000.0 0.4535718935233124 -0.9162344450849162
4794000000.0 0.5281421117002172 -0.9301264650701506
4797000000.0 0.467251914773661 -0.9128081120738364
4800000000.0 0.45846269230555614 -0.9214303504445054
4803000000.0 0.4389306137829261 -0.8993172240162427
4806000000.0 0.4796529994496906 -0.9417338395210366
4809000000.0 0.4252325464560867 -0.9422461058592153
4812000000.0 0.4295837505429214 -0.9230477467862949
4816000000.0 0.47471960712296385 -0.8992770813775727
4819000000.0 0.4901596582851304 -0.9045405617249598
4822000000.0 0.5093012183835408 -0.9361583964356016
4825000000.0 0.5355220704512028 -0.9152397933669342
4828000000.0 0.4546149861889412 -0.9326021382229344
4831000000.0 0.4605534710551078 -0.9555461262529112
4834000000.0 0.4848669391221001 -0.8963798965483105
4838000000.0 0.46639149248119816 -0.9516009224626621
4841000000.0 0.4587387299534615 -0.9018085161846904
4844000000.0 0.5146001353918155 -0.9000542712838906
4847000000.0 0.4890539291330478 -0.8950352907747987
4850000000.0 0.4839618094950378 -0.9204986186231041
4853000000.0 0.46851260980411114 -0.9066004421985718
4856000000.0 0.4693478058731077 -0.8964829648613887
4859000000.0 0.4956597883685895 -0.952944937614662
4862000000.0 0.4922307285251261 -0.882748110882754
4866000000.0 0.4483490591541634 -0.9563908805973794
4869000000.0 0.47564350528286536 -0.9097935797502825
4872000000.0 0.47788743690763014 -0.9638070129932396
4875000000.0 0.5432272177615034 -0.9309974123134896
4878000000.0 0.4735631288492598 -0.9089310872021076
4881000000.0 0.47760077346339297 -0.9953343800910994
4884000000.0 0.5035457327975325 -0.9089852761702828
4888000000.0 0.49716518638455576 -0.9078660150527486
4891000000.0 0.5050606037601815 -0.93631355090906
4894000000.0 0.455080405320704 -0.9282605295863643
4897000000.0 0.4993842554222669 -0.8834686036182442
4900000000.0 0.4870444582047991 -0.9163010689937504
4903000000.0 0.4987490899357552 -0.9093332557521026
4906000000.0 0.4408738669629102 -0.9593183521088504
4909000000.0 0.46084641606175414 -0.9384618458310242
4912000000.0 0.4937842153578046 -0.9492155162085646
4916000000.0 0.5071455396119158 -0.9260970609214575
4919000000.0 0.5578774428035094 -0.9143887563105948
4922000000.0 0.5316306796570283 -0.9260031375167235
4925000000.0 0.48076274417901915 -0.9424780415584455
4928000000.0 0.5184486510614614 -0.8818379249767331
4931000000.0 0.5000873365187244 -0.8957170270291007
4934000000.0 0.4775178017083255 -0.8772869151370655
4938000000.0 0.4558299591653595 -0.9106463906417747
4941000000.0 0.5089178092921721 -0.891298754354301
4944000000.0 0.48971161108844846 -0.8515050562202708
4947000000.0 0.4599053238520283 -0.8873213636257239
4950000000.0 0.4547391053849018 -0.8967245165935609
4953000000.0 0.46383316403621105 -0.9701036758226589
4956000000.0 0.46182789902446153 -0.9265817418321256
4959000000.0 0.43235067540847416 -0.9051765320854249
4962000000.0 0.49376596565165687 -0.9667390625913729
4966000000.0 0.5063712350439928 -0.9198712782075508
4969000000.0 0.547648952641978 -0.9415649587961892
4972000000.0 0.4772139519922265 -0.9501275163268877
4975000000.0 0.47402303393419215 -0.898961931894097
4978000000.0 0.49129599410714725 -0.9227888428703208
4981000000.0 0.458549672682802 -0.9348446625949973
4984000000.0 0.48844638638885496 -0.8904908668561252
4988000000.0 0.47019955280596704 -0.8886135929533607
4991000000.0 0.5590570549950558 -0.9090721598395941
4994000000.0 0.5006349841472484 -0.8881967359579785
4997000000.0 0.47495725286800733 -0.9654591223993941
5000000000.0 0.49790706011046815 -0.940454597807645
5003000000.0 0.49644576803873663 -0.9289370650414454
5006000000.0 0.5062027145360869 -0.9540248472544268
5009000000.0 0.48167748371448704 -0.9072536043299132
5012000000.0 0.4747611495957699 -0.9358185106612977
5016000000.0 0.5330617329287791 -0.9198691324321298
5019000000.0 0.4727257024378992 -0.9288340222453
5022000000.0 0.4780048776391515 -0.9379201103253012
5025000000.0 0.5191598945107014 -0.9789876006812327
5028000000.0 0.4858751715244623 -0.9498006380525861
5031000000.0 0.4892591705358252 -0.9359662301154321
5034000000.0 0.4969859321567254 -0.9368499786918361
5038000000.0 0.4619550514047975 -0.9136408143083834
5041000000.0 0.5170203941111985 -0.9100915124068836
5044000000.0 0.5170897461732439 -0.8974777319636702
5047000000.0 0.5079063826627586 -0.9019654450821801
5050000000.0 0.5494168237601765 -0.8536042012178977
5053000000.0 0.5246230434489019 -0.978067891054623
5056000000.0 0.5307550089017004 -0.9125929494967142
5059000000.0 0.5436999825270213 -0.9024913219509307
5062000000.0 0.4897189945128845 -0.9587355647506097
5066000000.0 0.5315739403000896 -0.878885624551536
5069000000.0 0.48835877424540286 -0.9356405701381807
5072000000.0 0.5124727980239587 -0.9005745742117242
5075000000.0 0.5547138394044041 -0.8824776795218541
5078000000.0 0.4500697613863964 -0.9493650989804421
5081000000.0 0.4594617587077405 -0.8924251106542647
5084000000.0 0.5169877599922554 -0.950518468114367
5088000000.0 0.5483779173777091 -0.9051644848500224
5091000000.0 0.4525499957242395 -0.9473185043171549
5094000000.0 0.5002379268591467 -0.9605711373932059
5097000000.0 0.5581232345155434 -0.9268150693490753
5100000000.0 0.5052980283876694 -0.8858502823451313
5103000000.0 0.4592439594102969 -0.9219232749347276
5106000000.0 0.542424738384793 -0.9588038608125624
5109000000.0 0.5730298239406597 -0.8904081582190306
5112000000.0 0.43579615114571013 -0.9193188932466634
5116000000.0 0.5010229428357381 -0.8486669417703052
5119000000.0 0.5006850556542145 -0.9062967136942577
5122000000.0 0.5216561320973696 -0.900640202272063
5125000000.0 0.5453981695958386 -0.8996483425653676
5128000000.0 0.5570799418084911 -0.8794651823719086
5131000000.0 0.5240552696765656 -0.8681797627561595
5134000000.0 0.5420906947223867 -0.9238582725679735
5138000000.0 0.5106762586261593 -0.9342984466618945
5141000000.0 0.5890518149258402 -0.87958089193017
5144000000.0 0.5212656365283227 -0.8803367834142852
5147000000.0 0.5208159111852098 -0.9467882205666829
5150000000.0 0.5361609420902858 -0.9574804460519335
5153000000.0 0.4887752486163381 -0.95419556694352
5156000000.0 0.551405670940979 -0.8989203775593172
5159000000.0 0.5753098074224505 -0.932272996127626
5162000000.0 0.4996783959454697 -0.8716707859012246
5166000000.0 0.5150164581447709 -0.9670129872869067
5169000000.0 0.511599774742418 -0.900818728729921
5172000000.0 0.541400898264099 -0.906442998241569
5175000000.0 0.5676158768025616 -0.9407101663221902
