! Created with skrf 1.8.0 (http://scikit-rf.org).
# Hz S RI R 50.0 
!freq ReS11 ImS11
4000000000.0 0.5833668684003651 -0.8883979526510275
4003000000.0 0.5618388273789522 -0.9503407123790019
4006000000.0 0.5076045664654179 -0.8782372772919804
4009000000.0000005 0.5498401381545934 -0.9036309202327932
4011999999.9999995 0.5986828129094003 -0.9180587329162593
4016000000.0 0.50286473766798 -0.8925986072434889
4019000000.0 0.5091114867950244 -0.8818635970471915
4022000000.0000005 0.5714568323647332 -0.8466346599844179
4025000000.0000005 0.4856459330870463 -0.9306007480713889
4027999999.9999995 0.5978078840621717 -0.9158997777102321
4030999999.9999995 0.5511597128341756 -0.8276643825604455
4034000000.0 0.5577249608750469 -0.8776514030635851
4038000000.0000005 0.5422216418801203 -0.953468644057959
4041000000.0000005 0.5354131136961557 -0.9157611593416973
4043999999.9999995 0.556820679466175 -0.9302087628750926
4046999999.9999995 0.6057023364708198 -0.9401778717154765
4050000000.0 0.5293934931992254 -0.9262011955671998
4053000000.0 0.472582947853063 -0.9007608387378853
4056000000.0 0.547025959867588 -0.8989839751279902
4059000000.0 0.527651718656126 -0.9005679267786186
4062000000.0000005 0.5216054157177323 -0.888033157725916
4066000000.0 0.5100872070955486 -0.8279417889597516
4069000000.0 0.523512069176004 -0.9243245555798832
4072000000.0 0.588589561054361 -0.859496143437658
4075000000.0 0.592111020903725 -0.8767386077074716
4078000000.0000005 0.5385999510356217 -0.9135958179448453
4081000000.0000005 0.6082286425638862 -0.8804636085370864
4083999999.9999995 0.5106571827848644 -0.89357748897281
4088000000.0 0.5616371244352586 -0.8393880069129349
4091000000.0 0.5760444952180372 -0.9598625723068379
4094000000.0000005 0.5481435912573143 -0.8922242460320722
4097000000.0000005 0.5430295228807365 -0.8843725966008549
4099999999.9999995 0.5152754697507611 -0.8988832443000591
4102999999.9999995 0.5563144624348767 -0.9194724665891438
4106000000.0 0.486548006082939 -0.9055752877926757
4109000000.0 0.5392746546221666 -0.9002124737743824
4112000000.0 0.5414684484943798 -0.8986655173374648
4115999999.9999995 0.5456395605586559 -0.8464458498823046
4119000000.0 0.5250696518789203 -0.8932467519140923
4122000000.0 0.5582766748776236 -0.904887759893406
4125000000.0 0.4996544537814619 -0.963280231560692
4128000000.0 0.5198357751532814 -0.8604530623198602
4131000000.0 0.5178610889412484 -0.8767555610749791
4134000000.0000005 0.5366822877935545 -0.8592518229278373
4138000000.0 0.4946906571257266 -0.8499193740230757
4141000000.0 0.5462666477174026 -0.8722287477995491
4144000000.0 0.5417152018169767 -0.9106305276632825
4147000000.0000005 0.511848269850169 -0.8969641418575102
4150000000.0000005 0.5632448907226985 -0.8655652356886376
4152999999.9999995 0.5246125048483572 -0.8633134529763362
4155999999.9999995 0.5584742471674886 -0.8901268301323491
4159000000.0 0.5431310562897972 -0.8709637226696745
4162000000.0 0.5329322833790361 -0.8504054100130709
4166000000.0000005 0.5071393810806828 -0.8959750427888434
4168999999.9999995 0.5223336877894463 -0.8675113823197023
4171999999.9999995 0.5643440675721003 -0.8737901212725497
4175000000.0 0.5753508797292296 -0.8847366356513805
4178000000.0 0.5398154622579174 -0.8972402768011423
4181000000.0 0.5355067427687137 -0.9076408554347343
4184000000.0 0.5499577607080334 -0.8802459625445159
4187999999.9999995 0.5278537491259788 -0.8920553269023831
4191000000.0 0.561809986554417 -0.8655500005049719
4194000000.0 0.5192052502293238 -0.8509426938044802
4197000000.0 0.5259204055215102 -0.8807863807449937
4200000000.0 0.5626752681103602 -0.8700790825083696
4203000000.0000005 0.5443093126693749 -0.8896000198889855
4206000000.0000005 0.5476103839961677 -0.8646652023165099
4208999999.9999995 0.5448542036460038 -0.8458307309010062
4211999999.9999995 0.5154183269906307 -0.8938712145280953
4216000000.0 0.5472486393463578 -0.8839747921158791
4219000000.0000005 0.5397496945430869 -0.8976065572615408
4222000000.0000005 0.5406047245533225 -0.8819293845821807
4224999999.9999995 0.537455178943489 -0.8685687129042579
4227999999.9999995 0.5321680036710228 -0.8733292023158729
4231000000.0 0.5298159737927407 -0.8796946405669245
4234000000.0 0.5379011068370902 -0.9007484489545468
4238000000.0000005 0.5258303075802934 -0.8788567476865672
4240999999.9999995 0.5148287355190035 -0.8873655368932513
4244000000.0 0.5357938521426482 -0.8566032716023875
4247000000.0 0.5534833872556881 -0.8775415604089918
4250000000.0 0.5107566620601822 -0.8475574345104665
4253000000.0 0.5208019854858422 -0.8656955103498415
4256000000.0 0.5305950416926791 -0.900937235875651
4259000000.0000005 0.5091420025037493 -0.8450782600188957
4261999999.9999995 0.5153317429438496 -0.8712364324538351
4266000000.0 0.5036665413796164 -0.900597219578078
4269000000.0 0.5442170050226038 -0.873229010818917
4272000000.0000005 0.5279452614113591 -0.8614949032578287
4275000000.0000005 0.5226396138089551 -0.8699663919364966
4277999999.9999995 0.5401720622644697 -0.9024128901033701
4280999999.9999995 0.5341633393469669 -0.8697345629682631
4284000000.0 0.4924420259307381 -0.8907072409275723
4288000000.0000005 0.5510672830891401 -0.8450118188482663
4291000000.0000005 0.5114548897118368 -0.8745716339584332
4293999999.9999995 0.5283838322633043 -0.8700204125208091
4297000000.0 0.5360826790522021 -0.8673180641777765
4300000000.0 0.5384606239890043 -0.8426675946717361
4303000000.0 0.523992969800914 -0.8510522993387238
4306000000.0 0.5300279339063025 -0.8565779286877986
4309000000.0 0.5108955372493584 -0.8773397399647056
4312000000.0 0.554582805905189 -0.8664516502581252
4316000000.0 0.5680477797177039 -0.8656378407808625
4319000000.0 0.5474210793320667 -0.8476106430525813
4322000000.0 0.4858717516678046 -0.8658230095307733
4325000000.0 0.5438053070152932 -0.8632804153090688
4328000000.0 0.5266848514128203 -0.8800557874387842
4331000000.0 0.505723555826091 -0.8902572938145411
4334000000.0 0.5309684852086428 -0.8596300205358157
4338000000.0 0.5474247704754536 -0.8606374292571052
4341000000.0 0.5490329018800504 -0.8670087316055396
4344000000.0 0.5429110208571912 -0.8865490681673914
4347000000.0 0.5301234379451798 -0.8699003617042402
4350000000.0 0.5084927416327389 -0.8608599533631703
4353000000.0 0.5294775707986954 -0.8648233004586815
4356000000.0 0.5089189518765315 -0.8588258659912503
4359000000.0 0.5069287209723798 -0.8302313727691805
4362000000.0 0.4945376875666014 -0.9154744827739979
4366000000.0 0.5232726691263342 -0.8874881620786438
4369000000.0 0.4918092433054109 -0.8413411252890507
4372000000.0 0.4761027827181585 -0.8775582194574456
4375000000.0 0.5348729412139123 -0.8660172728114561
4378000000.0 0.5100431639129368 -0.8465572669896545
4381000000.0 0.5316831256728859 -0.8528015432617745
4384000000.0 0.5540538886087977 -0.9377411867623151
4388000000.0 0.5139535963173533 -0.8339625482931559
4391000000.0 0.5345793580427218 -0.8815117656587488
4394000000.0 0.5194695564873267 -0.8482708081338599
4397000000.0 0.5084272266067963 -0.8701045509216948
4400000000.0 0.5246558049507274 -0.8981139513375114
4403000000.0 0.5198933036699281 -0.8792732544221182
4406000000.0 0.5093098768771024 -0.8856189585177899
4409000000.0 0.530935441715912 -0.8986788862897035
4412000000.0 0.4655296832663959 -0.8937409983575036
4416000000.0 0.5043271016442537 -0.8736257604869038
4419000000.0 0.4904287887318353 -0.8847785792886977
4422000000.0 0.5239764904395212 -0.8728207948597241
4425000000.0 0.5531057573323603 -0.886399507549585
4428000000.0 0.5078253152674345 -0.8809042373906988
4431000000.0 0.5316579514249776 -0.8834526040114427
4434000000.0 0.506976485395437 -0.8813030648765972
4438000000.0 0.520901330102947 -0.9031941859605961
4441000000.0 0.5234437656755455 -0.877221840800233
4444000000.0 0.5047415138187262 -0.8587549034139349
4447000000.0 0.49520726669630366 -0.8795065779869544
4450000000.0 0.5084144915824051 -0.8648753430606986
4453000000.0 0.5168252892142116 -0.9025246844117077
4456000000.0 0.4725270544182395 -0.862066615160509
4459000000.0 0.46773123382065773 -0.8448961897734732
4462000000.0 0.5369995938604447 -0.9272698612537272
4466000000.0 0.5086046078203498 -0.9119732033671567
4469000000.0 0.5239718404298666 -0.8614182599314028
4472000000.0 0.4991122391446981 -0.9263707120346092
4475000000.0 0.5023217659355566 -0.8624586468008679
4478000000.0 0.5039367066999165 -0.9296303687907852
4481000000.0 0.49071930482375326 -0.8626362795430818
4484000000.0 0.45885795321848455 -0.8959525101729842
4488000000.0 0.4781981383282961 -0.8933664354007808
4491000000.0 0.506019128909019 -0.8789225850590836
4494000000.0 0.5043153158695217 -0.8749554370494939
4497000000.0 0.5148611141981041 -0.8647324892882189
4500000000.0 0.49929223187102995 -0.8822615099524163
4503000000.0 0.5212953971836005 -0.8908362460061752
4506000000.0 0.4983108472093234 -0.8846722493077712
4509000000.0 0.49897940681456765 -0.8647830199493083
4512000000.0 0.48302987750442855 -0.8800507743754442
4516000000.0 0.5142258740188657 -0.9054195371106376
4519000000.0 0.5023241154822937 -0.8569378334649917
4522000000.0 0.4925153675160808 -0.8862666112749119
4525000000.0 0.521840120892711 -0.8538803627409025
4528000000.0 0.5148919359193769 -0.9001073099517698
4531000000.0 0.5323216737353385 -0.891453619537445
4534000000.0 0.4858732326637799 -0.8662100545362893
4538000000.0 0.5000342375934862 -0.8665822180791486
4541000000.0 0.44777450895670484 -0.8893457710998378
4544000000.0 0.4973630895735765 -0.871889751536054
4547000000.0 0.5133235448040459 -0.8794601264935453
4550000000.0 0.5007514113508875 -0.9056327514600429
4553000000.0 0.4883365646106308 -0.8813104260159187
4556000000.0 0.45912417679159545 -0.8641859620464146
4559000000.0 0.4814669742646521 -0.8831589330973202
4562000000.0 0.5185495013705228 -0.9058298655692857
4566000000.0 0.5142172667823381 -0.9028148063557326
4569000000.0 0.471450057389984 -0.8890867475560974
4572000000.0 0.5014216324964521 -0.8746904641806985
4575000000.0 0.4729755629822108 -0.9082764428351743
4578000000.0 0.5131413156446698 -0.9087546848574034
4581000000.0 0.46705481699569695 -0.9008158439416095
4584000000.0 0.485386346383447 -0.8786201033875478
4588000000.0 0.5186164601625033 -0.9059352583037131
4591000000.0 0.5052835237061314 -0.884449148687291
4594000000.0 0.46318757997456805 -0.8890223289913682
4597000000.0 0.4910274632214289 -0.9039356099108737
4600000000.0 0.4475761188911699 -0.8887523167015932
4603000000.0 0.4918554962893985 -0.9067047249176745
4606000000.0 0.4848114336501949 -0.9183015503187029
4609000000.0 0.5014372768516484 -0.8942823975293356
4612000000.0 0.4800673246829539 -0.8950104204289443
4616000000.0 0.4759315202511267 -0.8814363772791912
4619000000.0 0.4910319940522946 -0.8906631361000344
4622000000.0 0.47697996520983843 -0.8821545021140836
4625000000.0 0.4509375002925905 -0.8800157955028791
4628000000.0 0.5043184947927446 -0.884780838726162
4631000000.0 0.46604568913372446 -0.8870305424247704
4634000000.0 0.4712942666625761 -0.8948290630917398
4638000000.0 0.4753975404504901 -0.9058795373620909
4641000000.0 0.48273163053118767 -0.8798955385012626
4644000000.0 0.46500762467325873 -0.8816527242203294
4647000000.0 0.49654033026511524 -0.8939227957379046
4650000000.0 0.4599283177090614 -0.8982705122009288
4653000000.0 0.48669212536468803 -0.9067261822042484
4656000000.0 0.470763069924124 -0.895804873688437
4659000000.0 0.45176811956398344 -0.9028455979560376
4662000000.0 0.47979952242576124 -0.893387689119994
4666000000.0 0.46866455659177975 -0.9044374451486001
4669000000.0 0.48284839265367485 -0.8903323445487109
4672000000.0 0.4628980973460263 -0.8993179146536562
4675000000.0 0.4673143340866175 -0.8953451780020154
4678000000.0 0.45555990307764943 -0.8892058561700197
4681000000.0 0.47901978653385574 -0.91196778496368
4684000000.0 0.4415348567674145 -0.9148340960337336
4688000000.0 0.46320688411067357 -0.9139854833590011
4691000000.0 0.4703526937117915 -0.9081065688510799
4694000000.0 0.47456596719989064 -0.9046511416385171
4697000000.0 0.44950765870123227 -0.8712080209030605
4700000000.0 0.474921735780827 -0.8825551376957638
4703000000.0 0.4502468074281755 -0.8814054537301577
4706000000.0 0.4764063795566205 -0.9380918091641303
4709000000.0 0.45087252973485265 -0.9064616737937633
4712000000.0 0.4680456335903492 -0.889500371500049
4716000000.0 0.46884319494756566 -0.9338258143457666
4719000000.0 0.4647102392028099 -0.8982766522448382
4722000000.0 0.4939244427148849 -0.9079620020294147
4725000000.0 0.4515658496989365 -0.9086670042161201
4728000000.0 0.4607878383857364 -0.8948569977397379
4731000000.0 0.5109269211229919 -0.9199637119057866
4734000000.0 0.4625430738131045 -0.8923601065752277
4738000000.0 0.49178779459393934 -0.9203507776650924
4741000000.0 0.4541818503962034 -0.9122503836775149
4744000000.0 0.4429497271124803 -0.9242129402698677
4747000000.0 0.4548376671562575 -0.9114112839390082
4750000000.0 0.45722261556074184 -0.912568399141604
4753000000.0 0.48311228135671197 -0.9099963386626174
4756000000.0 0.472306979370074 -0.9405741330517696
4759000000.0 0.46225810146726076 -0.925810543026348
4762000000.0 0.45766015019014167 -0.9428618205835342
4766000000.0 0.48031285691959924 -0.922750621127065
4769000000.0 0.471764305703639 -0.8985073782190411
4772000000.0 0.48123542371486616 -0.9016846561165969
4775000000.0 0.48670982356100445 -0.959045125592065
4778000000.0 0.44112808267283055 -0.9362474444228125
4781000000.0 0.4857758358733482 -0.9134493922966783
4784000000.0 0.5011282450159902 -0.8980233273761733
4788000000.0 0.44563590056383334 -0.9337233354608057
4791000000.0 0.44772582023502006 -0.9155144567635632
4794000000.0 0.499105783646419 -0.9410638051994348
4797000000.0 0.4520741272541967 -0.9183853642674397
4800000000.0 0.4390635241219701 -0.9065495985956437
4803000000.0 0.41218188291867675 -0.9201385888410977
4806000000.0 0.48034516423051576 -0.9528369946160667
4809000000.0 0.43568592963506914 -0.9499231177015109
4812000000.0 0.43548926239774066 -0.9044279700489785
4816000000.0 0.47963640602288893 -0.8922373660289409
4819000000.0 0.5062917909992335 -0.9148317847450865
4822000000.0 0.5017538895058633 -0.94405411603277
4825000000.0 0.49829118405981276 -0.9195584074455071
4828000000.0 0.4728577193020834 -0.9341800177622746
4831000000.0 0.4420132345660061 -0.9750461830512226
4834000000.0 0.48831168064589503 -0.9169222230028206
4838000000.0 0.45395624090402775 -0.9247774409713502
4841000000.0 0.4444750835710026 -0.9168455951547624
4844000000.0 0.5182651165251976 -0.9024394425563804
4847000000.0 0.4782968617310125 -0.89002097876183
4850000000.0 0.4438461274758412 -0.943549217921593
4853000000.0 0.44558767020556983 -0.9011615014799699
4856000000.0 0.451611385735116 -0.9246848032427707
4859000000.0 0.47309582924701565 -0.9437782394141153
4862000000.0 0.47955812153115396 -0.8960098761267038
4866000000.0 0.46513340010424825 -0.9366697789638913
4869000000.0 0.4677937036221708 -0.9173705361704398
4872000000.0 0.47121139070534424 -0.9430067221031696
4875000000.0 0.5325692547344162 -0.9338422040275692
4878000000.0 0.4620908847256223 -0.9096760260180624
4881000000.0 0.48139889763103577 -0.9909749398741234
4884000000.0 0.464398559724417 -0.9129806452286481
4888000000.0 0.49654346265510035 -0.9114763105127153
4891000000.0 0.5242821350683672 -0.9465755562634001
4894000000.0 0.4710134103701515 -0.9227472577810111
4897000000.0 0.5135009490968676 -0.8857325546144204
4900000000.0 0.4691955610007406 -0.9234536587058064
4903000000.0 0.4998427598715721 -0.947481519855293
4906000000.0 0.4802914926522186 -0.9240230236032502
4909000000.0 0.479678391596351 -0.9243657152730862
4912000000.0 0.47038052315882456 -0.9672005891017299
4916000000.0 0.49530538040243666 -0.9009824632517588
4919000000.0 0.5113158127888615 -0.9385001624247484
4922000000.0 0.5007865585988296 -0.9090261874668247
4925000000.0 0.46396471574432735 -0.9328294126146032
4928000000.0 0.5227999581550095 -0.8748952058995162
4931000000.0 0.53480435111862 -0.9361603682898918
4934000000.0 0.4677510434372108 -0.8686318462940028
4938000000.0 0.4441214670254592 -0.9146309970021111
4941000000.0 0.4742722540120924 -0.8794111680545081
4944000000.0 0.4712391674047733 -0.852189243551279
4947000000.0 0.47180219110482485 -0.8907427017639493
4950000000.0 0.4483766888302408 -0.9167420406910992
4953000000.0 0.501261116245082 -0.9774491908126213
4956000000.0 0.47550836248668393 -0.9244002262777283
4959000000.0 0.4384907784036748 -0.9192436593925082
4962000000.0 0.474120862709266 -0.971600639385668
4966000000.0 0.44623928319720174 -0.9386117500220292
4969000000.0 0.5337284788984331 -0.9384969929398363
4972000000.0 0.49735767404629183 -0.9241497869907879
4975000000.0 0.47869710336279425 -0.9060325728517692
4978000000.0 0.4965097050368393 -0.9477829500264836
4981000000.0 0.5143600356314878 -0.9711732287502264
4984000000.0 0.47908583360743906 -0.9183264958763948
4988000000.0 0.5073666801629364 -0.8727270353688648
4991000000.0 0.5447255214216543 -0.9142130499695069
4994000000.0 0.5200626994626724 -0.9143303443283225
4997000000.0 0.4462671264045268 -0.9409283326726141
5000000000.0 0.5077780701806154 -0.9440767667649473
5003000000.0 0.5191916011422372 -0.9613777244062025
5006000000.0 0.5148693647784034 -0.9801047824557209
5009000000.0 0.4852666834138555 -0.9162508601724839
5012000000.0 0.456366564853819 -0.9340030903542449
5016000000.0 0.5461124238112547 -0.9379812943262351
5019000000.0 0.5022583294454271 -0.9482716607791404
5022000000.0 0.500797283649543 -0.9204130452093824
5025000000.0 0.5213887484020305 -0.9633826266725781
5028000000.0 0.4765973570769175 -0.9516340389743716
5031000000.0 0.49539928410730794 -0.9439075637986359
5034000000.0 0.4805935920096424 -0.9731748231833341
5038000000.0 0.4476605015263771 -0.9149096479401237
5041000000.0 0.5139666766175368 -0.9507853020172772
5044000000.0 0.5275064200375285 -0.8712809685930394
5047000000.0 0.4815667648537374 -0.9292511380559456
5050000000.0 0.559667042649258 -0.8815720676525689
5053000000.0 0.49243247233795345 -0.9456443897174642
5056000000.0 0.5234635678483184 -0.8919558786277688
5059000000.0 0.5089785927280832 -0.8827706339663073
5062000000.0 0.4918686145556269 -0.9537070310527336
5066000000.0 0.5237778953343835 -0.8987716673447966
5069000000.0 0.525564892675316 -0.9173899245689732
5072000000.0 0.48431598309209345 -0.8958502816616896
5075000000.0 0.5279690867583197 -0.9043769811891041
5078000000.0 0.48284537604569727 -0.9680633518504409
5081000000.0 0.44571489426617583 -0.9063155648758812
5084000000.0 0.4896966569695662 -0.9653697100611669
5088000000.0 0.525621774237365 -0.9201955542752117
5091000000.0 0.4516244252506236 -0.9564452117563672
5094000000.0 0.49500223599853455 -0.9490149991670858
5097000000.0 0.4768080032665126 -0.8845336682332913
5100000000.0 0.4752209206429602 -0.8911048959787724
5103000000.0 0.47560315872476955 -0.9617905507832807
5106000000.0 0.5362786310109885 -0.9436005124602311
5109000000.0 0.5064115326978843 -0.9159332852976465
5112000000.0 0.46994567520614394 -0.9017940643978659
5116000000.0 0.469911366453041 -0.8551153486878087
5119000000.0 0.5218722720469786 -0.9327130033274755
5122000000.0 0.5359543277065215 -0.9198170249710702
5125000000.0 0.4749183180523526 -0.8784115420174552
5128000000.0 0.4753785029052813 -0.9214930318739766
5131000000.0 0.469933614698902 -0.8985590851632692
5134000000.0 0.5160340832423937 -0.9123513591036573
5138000000.0 0.5088618037952923 -0.8812905900809581
5141000000.0 0.5289968566604268 -0.9397175941505072
5144000000.0 0.5410999795483713 -0.892241520386672
5147000000.0 0.49568381427820646 -0.9302820366718509
5150000000.0 0.5346483073123488 -0.912136974614246
5153000000.0 0.5141144254192918 -0.9463483204830573
5156000000.0 0.5166091901787102 -0.9411383599890986
5159000000.0 0.5500453415522997 -0.9444930786389782
5162000000.0 0.5019737960587879 -0.9292858348427122
5166000000.0 0.5254261482538105 -0.9443296349255034
5169000000.0 0.4970635889364281 -0.9661897169320068
5172000000.0 0.5033495248497674 -0.9108425531182458
5175000000.0 0.5324613800589114 -0.9742183428805307
