! Created with skrf 1.8.0 (http://scikit-rf.org).
# Hz S RI R 50.0 
!freq ReS11 ImS11
4000000000.0 0.5582078745920628 -0.8526111220132886
4003000000.0 0.5596606467600103 -0.883099738653247
4006000000.0 0.5237208427308889 -0.875016809955427
4009000000.0000005 0.5291457060729772 -0.8763236016090734
4011999999.9999995 0.6222648694621232 -0.8680159170815074
4016000000.0 0.5654375812110378 -0.8633664491975431
4019000000.0 0.5409111130059794 -0.8906522446329552
4022000000.0000005 0.625923734624699 -0.8227605769136193
4025000000.0000005 0.5385236920954123 -0.8807246884748733
4027999999.9999995 0.6142852762034802 -0.8906401640609837
4030999999.9999995 0.5148009615136848 -0.8594261678111375
4034000000.0 0.5504287899132605 -0.8677942447367276
4038000000.0000005 0.5603921374291755 -0.9147873075779825
4041000000.0000005 0.5639586837990003 -0.8564390651063034
4043999999.9999995 0.5845141987259933 -0.9102432614643143
4046999999.9999995 0.6281780353230408 -0.8710214020599103
4050000000.0 0.5542217586889738 -0.8960142154488421
4053000000.0 0.5077468930544599 -0.8600344617940222
4056000000.0 0.5738993527672163 -0.8172745697058
4059000000.0 0.5434367065026817 -0.8324547207125116
4062000000.0000005 0.5258974022368772 -0.9025073987609431
4066000000.0 0.5538669140607965 -0.8012014901522077
4069000000.0 0.5494792158364062 -0.9253273062073137
4072000000.0 0.5831252589025471 -0.8630035419026878
4075000000.0 0.6145803788399573 -0.9009918412810379
4078000000.0000005 0.5444226567847422 -0.9192800788419923
4081000000.0000005 0.6230829161586446 -0.832995246332585
4083999999.9999995 0.5546962946309156 -0.89144071056658
4088000000.0 0.567554730658829 -0.835530254873452
4091000000.0 0.6255274801164225 -0.9087431515986756
4094000000.0000005 0.5349683539816475 -0.832361287244303
4097000000.0000005 0.5412430777135728 -0.8539633918867049
4099999999.9999995 0.5254370006335631 -0.8736178948091164
4102999999.9999995 0.6018550700266897 -0.8726416886527518
4106000000.0 0.5770162859090111 -0.8765966516189196
4109000000.0 0.543263632094195 -0.8875873815816651
4112000000.0 0.5668655546595671 -0.8821220981237007
4115999999.9999995 0.5697055039282832 -0.8571237082923089
4119000000.0 0.5740098232179838 -0.8820421560282737
4122000000.0 0.5365186536185049 -0.8674813374408781
4125000000.0 0.519007492718115 -0.8858211935055422
4128000000.0 0.5527606907963413 -0.8317015804195868
4131000000.0 0.5276799913500234 -0.8445358878690704
4134000000.0000005 0.5481927081864814 -0.8633852923820846
4138000000.0 0.5275519193715891 -0.8601990273657851
4141000000.0 0.5291454338684677 -0.8719338660034522
4144000000.0 0.5822704922878812 -0.8608144179602014
4147000000.0000005 0.5503151467068587 -0.8802483059645855
4150000000.0000005 0.5828492862325616 -0.8634449380626412
4152999999.9999995 0.5330388361680359 -0.8603778795672081
4155999999.9999995 0.574828193502606 -0.8747864622414051
4159000000.0 0.5526505925040148 -0.8534180926691434
4162000000.0 0.5556791998374275 -0.8631940273738042
4166000000.0000005 0.5656033506968017 -0.8524655973815036
4168999999.9999995 0.5252268790941326 -0.8416329026706505
4171999999.9999995 0.5496451869688821 -0.8614723986496094
4175000000.0 0.5666396891374096 -0.8491324672112885
4178000000.0 0.5582886656711573 -0.8384732751942074
4181000000.0 0.5579628049309571 -0.9006665451280598
4184000000.0 0.5486907998721147 -0.8519073032643852
4187999999.9999995 0.5434085728937621 -0.8443936690647134
4191000000.0 0.5872657327172179 -0.8484415114835597
4194000000.0 0.5678422258059888 -0.8471747312364096
4197000000.0 0.5825322598188525 -0.874729151790528
4200000000.0 0.5625007634885975 -0.8440469307791953
4203000000.0000005 0.5588730963692041 -0.8477127793164494
4206000000.0000005 0.5664586927404315 -0.8666838448560268
4208999999.9999995 0.5506021834821828 -0.8408713565021971
4211999999.9999995 0.5390409626814436 -0.8777041790212291
4216000000.0 0.5659112582734624 -0.8605197667306768
4219000000.0000005 0.55918116459796 -0.8576598517354169
4222000000.0000005 0.5432373419314537 -0.863247487709478
4224999999.9999995 0.5496837567772374 -0.8375227107611902
4227999999.9999995 0.5591943606359816 -0.8380984099069921
4231000000.0 0.5501124454062121 -0.8528036964611053
4234000000.0 0.5629275012121797 -0.877877807355824
4238000000.0000005 0.5521791030751675 -0.8646798153503019
4240999999.9999995 0.5492286331166321 -0.8550895971591578
4244000000.0 0.5540742411512551 -0.846881455941796
4247000000.0 0.5557547831814966 -0.8529726804297662
4250000000.0 0.5419325953529849 -0.8512689841169909
4253000000.0 0.5327615257596671 -0.848094311944101
4256000000.0 0.5497508469084318 -0.8856601107851813
4259000000.0000005 0.5299968498367031 -0.8170221922257508
4261999999.9999995 0.5575002901067988 -0.8428520466266024
4266000000.0 0.5215606882413988 -0.875882535108687
4269000000.0 0.5769628531797335 -0.8433340552061637
4272000000.0000005 0.5473181999754853 -0.858975467004808
4275000000.0000005 0.5491486102360481 -0.8700356596777681
4277999999.9999995 0.5584315655547546 -0.8466919858985591
4280999999.9999995 0.5719791515515649 -0.8653090121193304
4284000000.0 0.5293819237205453 -0.8583443424558166
4288000000.0000005 0.5682427977210277 -0.8423156558323969
4291000000.0000005 0.5420425623305787 -0.8226628308691789
4293999999.9999995 0.5331837857839998 -0.845116906572718
4297000000.0 0.5674550785902225 -0.8053071957042318
4300000000.0 0.5528557674611874 -0.8374334318980514
4303000000.0 0.5466752906441459 -0.841122019494966
4306000000.0 0.553226681880111 -0.8207206200415562
4309000000.0 0.5403713551194086 -0.8264849697374563
4312000000.0 0.6082458061341895 -0.8419631113964845
4316000000.0 0.5534478009990432 -0.8608752146763592
4319000000.0 0.5227591725930983 -0.8090988315210098
4322000000.0 0.5234908357718151 -0.8443437615717265
4325000000.0 0.5383822871507346 -0.834466423194831
4328000000.0 0.5325499526788087 -0.8373452249185189
4331000000.0 0.5281725757205797 -0.8764534576036921
4334000000.0 0.5666768300046128 -0.8458022352914659
4338000000.0 0.5620440287703409 -0.83799024862751
4341000000.0 0.5963234525217713 -0.8550436830137073
4344000000.0 0.5753128650592444 -0.862091044279572
4347000000.0 0.5225797558004492 -0.8484946641197487
4350000000.0 0.518051084813647 -0.8095705705794111
4353000000.0 0.5565803446279812 -0.8284876892320675
4356000000.0 0.5249767802392304 -0.8650183100710876
4359000000.0 0.5279542834108593 -0.808023101200242
4362000000.0 0.489345390619529 -0.8898691391615581
4366000000.0 0.5461957797548131 -0.8748290247652907
4369000000.0 0.5329795727736957 -0.8270629157387809
4372000000.0 0.4954424655263966 -0.8572779121722248
4375000000.0 0.5487443476068841 -0.823478676921514
4378000000.0 0.5470205612889126 -0.8375244787423566
4381000000.0 0.5507128549807723 -0.8382022031995445
4384000000.0 0.5764989166042191 -0.8884877996293324
4388000000.0 0.5525545093091646 -0.826147687960525
4391000000.0 0.5572605362545124 -0.8543415839549653
4394000000.0 0.5309465472622034 -0.8302118990827821
4397000000.0 0.5180053884692476 -0.842885223971167
4400000000.0 0.5610141254036337 -0.8822919586740363
4403000000.0 0.5498346623985976 -0.8558202135460631
4406000000.0 0.5332495271550561 -0.8630673572002685
4409000000.0 0.5406420165817342 -0.889353932146073
4412000000.0 0.4999820903928248 -0.8763825278240814
4416000000.0 0.5240235475325132 -0.86054481033195
4419000000.0 0.5302272497591228 -0.8673365126328875
4422000000.0 0.5525580197676578 -0.8392584856107326
4425000000.0 0.5598964455735261 -0.8638452685093279
4428000000.0 0.5297563412835299 -0.8538509590084085
4431000000.0 0.5649941657253568 -0.8555525675652735
4434000000.0 0.5341859440538241 -0.8461497863794444
4438000000.0 0.556802416016181 -0.8673742769919373
4441000000.0 0.5606049569741282 -0.8741387820355824
4444000000.0 0.5282164840628586 -0.8276781729868953
4447000000.0 0.5179532859983296 -0.8497271592563274
4450000000.0 0.5171611643329257 -0.8401428670618417
4453000000.0 0.5459228567263015 -0.862987713336046
4456000000.0 0.5182916685801651 -0.8380039561870963
4459000000.0 0.49134925225401543 -0.833295128690208
4462000000.0 0.5597114777055305 -0.8916258685176515
4466000000.0 0.5547134633059566 -0.9099472432322231
4469000000.0 0.5526029384278617 -0.8508915207471717
4472000000.0 0.5078810606385353 -0.8731264263085694
4475000000.0 0.534095440015371 -0.8321939840586955
4478000000.0 0.5406755629897058 -0.9008814252494695
4481000000.0 0.50367687427639 -0.8407747833637973
4484000000.0 0.5057062420877112 -0.8811099777381136
4488000000.0 0.500714857426112 -0.846271950403785
4491000000.0 0.5250797204332347 -0.8682909050942729
4494000000.0 0.5291139357202566 -0.8446025263511021
4497000000.0 0.5234186946310954 -0.8303354649053617
4500000000.0 0.531286104998833 -0.8515456131147441
4503000000.0 0.5406930872968878 -0.8734341779096872
4506000000.0 0.5297270072396782 -0.8574437270495902
4509000000.0 0.5367662228457069 -0.8419091017173708
4512000000.0 0.4928011278272676 -0.836379336041791
4516000000.0 0.5473712307184762 -0.8623992597549158
4519000000.0 0.539548670786578 -0.843435393513119
4522000000.0 0.5143880057737888 -0.8758273363767224
4525000000.0 0.5562137298681376 -0.8284414475213531
4528000000.0 0.5395615853390066 -0.8700086175548389
4531000000.0 0.5433010392828655 -0.845546834346555
4534000000.0 0.5266312325386739 -0.8523969922895234
4538000000.0 0.5152801943542386 -0.8520538070867261
4541000000.0 0.48838851298648805 -0.8715636155242271
4544000000.0 0.5043031492516679 -0.844144956949826
4547000000.0 0.5327159684530164 -0.8243056437917415
4550000000.0 0.5186164100975468 -0.8717202147435554
4553000000.0 0.5143055260284259 -0.8767663774163383
4556000000.0 0.4962461267101932 -0.8539390823630126
4559000000.0 0.5313021571011942 -0.8573022271087056
4562000000.0 0.5424768295679554 -0.8553101448807836
4566000000.0 0.5249802665753602 -0.8692304002207705
4569000000.0 0.49604166134281946 -0.8476962164034896
4572000000.0 0.5170301548150559 -0.8622314455699522
4575000000.0 0.5070525901789479 -0.8700577872554567
4578000000.0 0.5487956387192927 -0.8684813748545708
4581000000.0 0.5038399853472948 -0.8697614134460421
4584000000.0 0.5123924683064568 -0.8511059570832584
4588000000.0 0.5378419087487398 -0.8682134045270526
4591000000.0 0.5359149228986774 -0.8458197394925744
4594000000.0 0.5011247575989531 -0.8722823142708197
4597000000.0 0.5157722124561772 -0.888738495840975
4600000000.0 0.46761533738013594 -0.8582031747606857
4603000000.0 0.5141396017730917 -0.8792360648367942
4606000000.0 0.5176916103234804 -0.870237535579276
4609000000.0 0.5203312002183736 -0.8653900398133906
4612000000.0 0.5227125447001588 -0.8877510955561851
4616000000.0 0.49999309836218425 -0.8601701256912787
4619000000.0 0.5283848071271245 -0.8554850439723722
4622000000.0 0.523406862201001 -0.868462138864793
4625000000.0 0.4884826394785352 -0.8480459640416693
4628000000.0 0.5246878025295881 -0.8432820849588245
4631000000.0 0.498022084353251 -0.8762196054524201
4634000000.0 0.49857534402506554 -0.85593726959405
4638000000.0 0.5185249854056898 -0.8828695998247864
4641000000.0 0.5273624918873528 -0.8689431662088319
4644000000.0 0.5118256084480897 -0.8632338518358
4647000000.0 0.5092438348175023 -0.8717252515007208
4650000000.0 0.49445571178519376 -0.8680795937549262
4653000000.0 0.5220432420737531 -0.8927889619830329
4656000000.0 0.5031158367089286 -0.8750274633064128
4659000000.0 0.49895793265616756 -0.866566637604049
4662000000.0 0.5042315048829604 -0.8935627961954796
4666000000.0 0.48392108381297805 -0.8728446726115643
4669000000.0 0.5210708997501067 -0.8798201436624672
4672000000.0 0.4823806942663321 -0.8986549643770374
4675000000.0 0.47429085369006474 -0.8829559629158275
4678000000.0 0.4996331161863083 -0.8809524610959156
4681000000.0 0.4834438277238194 -0.8926713827426834
4684000000.0 0.4648127110357485 -0.8947336816103462
4688000000.0 0.4865150982859736 -0.8698037779399609
4691000000.0 0.515827450629447 -0.8925088805364004
4694000000.0 0.5258739743448072 -0.8603790018498767
4697000000.0 0.469436652041898 -0.8768203392708829
4700000000.0 0.518539390458766 -0.8613559409637646
4703000000.0 0.5308286057704429 -0.8422396624226295
4706000000.0 0.5064564158301075 -0.8794951686416174
4709000000.0 0.49300571084146394 -0.8759951730150375
4712000000.0 0.48873240348647495 -0.8603005013624786
4716000000.0 0.48171956839330426 -0.8880713188968941
4719000000.0 0.5182439039627624 -0.8472044569133043
4722000000.0 0.5152572276212481 -0.8641042657470235
4725000000.0 0.5066832037478387 -0.8792569365332298
4728000000.0 0.5011641204706568 -0.8847462561945728
4731000000.0 0.5435242052643754 -0.8988804271127991
4734000000.0 0.5108637826203462 -0.8641689785911302
4738000000.0 0.5411714301840045 -0.924041718048471
4741000000.0 0.5300020384510105 -0.900134336788624
4744000000.0 0.48020923253658165 -0.892322759649216
4747000000.0 0.514815008671666 -0.83470733632839
4750000000.0 0.5094001852740969 -0.919241279334883
4753000000.0 0.4894244404361845 -0.9140221635933558
4756000000.0 0.47419935907095506 -0.8904085867317358
4759000000.0 0.5182795685824544 -0.9004656173606266
4762000000.0 0.4876161845564324 -0.9030093765919328
4766000000.0 0.486064676210624 -0.8635885074600684
4769000000.0 0.5038361450812037 -0.858371271751332
4772000000.0 0.5269596113938446 -0.8891091763747536
4775000000.0 0.5071487835181501 -0.9246310057805718
4778000000.0 0.5337622163297636 -0.9167781954047977
4781000000.0 0.509977783548379 -0.8753031724762442
4784000000.0 0.5289007361593239 -0.8599916862254311
4788000000.0 0.5127507973436707 -0.9191080342641647
4791000000.0 0.47354668668296196 -0.8857443404018501
4794000000.0 0.5426943699117979 -0.9104846068468511
4797000000.0 0.4771312708648372 -0.8646152319918705
4800000000.0 0.48369351180594994 -0.8764765999163479
4803000000.0 0.4618556469902084 -0.8884803432231708
4806000000.0 0.5050834603753862 -0.8933175689814392
4809000000.0 0.47566093614628957 -0.8992475539247761
4812000000.0 0.46789929083403925 -0.8894821087709435
4816000000.0 0.5111600814372563 -0.877090454627819
4819000000.0 0.5290793340542559 -0.8978893148615701
4822000000.0 0.5038251888105569 -0.9149809045079417
4825000000.0 0.5343196226807205 -0.9129812610249509
4828000000.0 0.5060977860124068 -0.8885599609119303
4831000000.0 0.49259283557939887 -0.9317046717358932
4834000000.0 0.5071691217964046 -0.8918210522688165
4838000000.0 0.5046491597247504 -0.9218945451902809
4841000000.0 0.4699829064574835 -0.8852563324976392
4844000000.0 0.5142758463620294 -0.8748411629566083
4847000000.0 0.5087198339882582 -0.8705413771820543
4850000000.0 0.5019752139561483 -0.9178947713301165
4853000000.0 0.4877545723629011 -0.8529659223972226
4856000000.0 0.4852852612095074 -0.8871794674971063
4859000000.0 0.5176479828631941 -0.9324489032323343
4862000000.0 0.5032763083634307 -0.85651931831509
4866000000.0 0.4802646509651989 -0.9101479553323879
4869000000.0 0.48969575078880423 -0.8812480660252313
4872000000.0 0.5031907273922503 -0.9431215361786135
4875000000.0 0.5609881434261479 -0.9082610958471091
4878000000.0 0.4863678613266528 -0.9251835718992983
4881000000.0 0.5008783158365122 -0.9770789246444574
4884000000.0 0.5140947146218042 -0.9007543591516259
4888000000.0 0.5418844760955089 -0.860621236774879
4891000000.0 0.565598359122628 -0.8829143228942817
4894000000.0 0.5108964780955942 -0.8751243288422874
4897000000.0 0.5434422921020717 -0.8740685381408209
4900000000.0 0.5298839532490812 -0.8967007559261818
4903000000.0 0.511646221971844 -0.8850946024780035
4906000000.0 0.4965596036794496 -0.9159153861435005
4909000000.0 0.5037096817132117 -0.8889143382699564
4912000000.0 0.5307052048340692 -0.9479731291918123
4916000000.0 0.5172417768021758 -0.8982254378331773
4919000000.0 0.5465062966112995 -0.9171870419751142
4922000000.0 0.55019174984566 -0.8500698263819039
4925000000.0 0.4781970861616612 -0.9062103497395257
4928000000.0 0.5534323073561365 -0.852585066676746
4931000000.0 0.5084720246885348 -0.8775646981495846
4934000000.0 0.5085640661359794 -0.8243994401192605
4938000000.0 0.48211047905724735 -0.9192154600975657
4941000000.0 0.5063632724510917 -0.8875631879703239
4944000000.0 0.49783976832058674 -0.8387518279051746
4947000000.0 0.4665520453999908 -0.8664744041305664
4950000000.0 0.4818600011488812 -0.8744750644600856
4953000000.0 0.48067682146242524 -0.9273297810605898
4956000000.0 0.48557836952500405 -0.9089876059744696
4959000000.0 0.45972787271548793 -0.8612873132780325
4962000000.0 0.5323606006941 -0.9201256832549588
4966000000.0 0.5259478706969007 -0.8924302099966337
4969000000.0 0.5607430273783187 -0.9025119051313468
4972000000.0 0.49978299384831654 -0.9033353558488569
4975000000.0 0.5225486105606401 -0.8577213639590779
4978000000.0 0.4937595722057068 -0.9197864365033204
4981000000.0 0.5219346977417674 -0.9057712179968361
4984000000.0 0.507816496988365 -0.8680015992078169
4988000000.0 0.5308362427311081 -0.8596319663677354
4991000000.0 0.5688563070221331 -0.8476267873212132
4994000000.0 0.5571700060797313 -0.8781160794779881
4997000000.0 0.49614002949821917 -0.8933042350397248
5000000000.0 0.5641315970576419 -0.8786010644267216
5003000000.0 0.5619787942154715 -0.8982627880793127
5006000000.0 0.5621835993674219 -0.9378377367463383
5009000000.0 0.5346232264692599 -0.8731966116619129
5012000000.0 0.5117518165044737 -0.8835513998429687
5016000000.0 0.5624883322175015 -0.8760842643944646
5019000000.0 0.5244413217986159 -0.8921830935319726
5022000000.0 0.5533821768186487 -0.9072948857606188
5025000000.0 0.5532329812124359 -0.9536396536635589
5028000000.0 0.5157992398085671 -0.9101372392637497
5031000000.0 0.5323587416298052 -0.8908849635415534
5034000000.0 0.5202928366335289 -0.9280169904011863
5038000000.0 0.4781302588845063 -0.8875024679893079
5041000000.0 0.5407382458674341 -0.8763150016116311
5044000000.0 0.5527132230682571 -0.8412853518139408
5047000000.0 0.5419603391312021 -0.8703345052860986
5050000000.0 0.6170322420041228 -0.8006156124342698
5053000000.0 0.520156405998084 -0.9260304066572294
5056000000.0 0.5545494515097122 -0.8816079075326452
5059000000.0 0.5887724118470604 -0.8634981099334758
5062000000.0 0.4885648156351805 -0.9265324282812353
5066000000.0 0.5430871720195795 -0.826231056040031
5069000000.0 0.5583615643093987 -0.9108126163963437
5072000000.0 0.5180603349881849 -0.8632750723796638
5075000000.0 0.5214203307803381 -0.8606221200049651
5078000000.0 0.5147203382280823 -0.883411179961515
5081000000.0 0.5138646754317704 -0.8740713801503235
5084000000.0 0.5520675578182145 -0.8962929159480681
5088000000.0 0.4880421799250961 -0.8761053755377294
5091000000.0 0.4998730618983142 -0.8986435389425518
5094000000.0 0.547784809944394 -0.9131019992181614
5097000000.0 0.6046404351348286 -0.8680419651922922
5100000000.0 0.567217499879385 -0.8647136981354564
5103000000.0 0.5228598651558826 -0.9000084885868584
5106000000.0 0.5619035346771615 -0.8773029979416476
5109000000.0 0.5735526611545071 -0.8652928426169446
5112000000.0 0.5114012324706898 -0.8720037841303026
5116000000.0 0.535772578307613 -0.8282689386041576
5119000000.0 0.5851212404427316 -0.9132426409091025
5122000000.0 0.5246088793211674 -0.8789114963064899
5125000000.0 0.5499504976168563 -0.8042019928999649
5128000000.0 0.5294947795879399 -0.9177714347710948
5131000000.0 0.5360730131969029 -0.8831471892076659
5134000000.0 0.5052452938253269 -0.828456567927595
5138000000.0 0.5183546022708423 -0.8291079468759146
5141000000.0 0.6007830848409921 -0.8177160413254758
5144000000.0 0.578448764182576 -0.8988192340261587
5147000000.0 0.5177890981995187 -0.9081467257022154
5150000000.0 0.5821637449185642 -0.8874331379522766
5153000000.0 0.5679694503362217 -0.8840017844719591
5156000000.0 0.5623454105024501 -0.885337105535905
5159000000.0 0.6044699436909824 -0.928628731777324
5162000000.0 0.5225605781314637 -0.8456461515127298
5166000000.0 0.545514634416168 -0.9004003311917972
5169000000.0 0.573334366971615 -0.8625801289953998
5172000000.0 0.5639189895598238 -0.8457273741336515
5175000000.0 0.5667480033288534 -0.8761384120010005
5178000000.0 0.5387044427164223 -0.8695756264532937
