! Created with skrf 1.8.0 (http://scikit-rf.org).
# Hz S RI R 50.0 
!freq ReS11 ImS11
4000000000.0 0.5401442085788373 -0.8698750271412132
4003000000.0 0.5560964779580584 -0.9217255119291513
4006000000.0 0.5058551165761479 -0.893362637076693
4009000000.0000005 0.5186046364773893 -0.926136153534368
4011999999.9999995 0.571488665570539 -0.8859516310718945
4016000000.0 0.5258886075868269 -0.9412456374978514
4019000000.0 0.5008359739041333 -0.8983464606798118
4022000000.0000005 0.5570126034450084 -0.9032839418936989
4025000000.0000005 0.4998658243951787 -0.9552187942629384
4027999999.9999995 0.47480192635542423 -0.9194475579634264
4030999999.9999995 0.5294009876732295 -0.8408145934472555
4034000000.0 0.48833442967068247 -0.8697039090749733
4038000000.0000005 0.5263324970998041 -0.9119043487875662
4041000000.0000005 0.4967500895236914 -0.8547554374460737
4043999999.9999995 0.540981443688598 -0.9638853994879472
4046999999.9999995 0.5895990255963138 -0.9355881975258469
4050000000.0 0.5064325368653351 -0.9329897112155142
4053000000.0 0.4849584705407653 -0.8984834010268092
4056000000.0 0.5274210195026725 -0.878726851483137
4059000000.0 0.5059301671265191 -0.8697116848232018
4062000000.0000005 0.5086131766990438 -0.9188956861775
4066000000.0 0.48220525065136643 -0.8441644661853482
4069000000.0 0.5388010190462768 -0.9376198494329135
4072000000.0 0.5592469757600169 -0.8576026627902945
4075000000.0 0.5689264165892853 -0.8519206102152727
4078000000.0000005 0.5192070284608464 -0.9057681947843418
4081000000.0000005 0.5219292999320784 -0.8789670117444537
4083999999.9999995 0.515429681078772 -0.9113021235737586
4088000000.0 0.5688745666013691 -0.8604650888481529
4091000000.0 0.5087004562776768 -0.9267580319389198
4094000000.0000005 0.4989561295656001 -0.9246471458672939
4097000000.0000005 0.5111493217480731 -0.8559444673100876
4099999999.9999995 0.4890499360137008 -0.8946269214264679
4102999999.9999995 0.5456978101305403 -0.8987860807132961
4106000000.0 0.5128803616528251 -0.9073602344697241
4109000000.0 0.5005915781572189 -0.9260796831927444
4112000000.0 0.5060785841726344 -0.8997356969420003
4115999999.9999995 0.5457930694817043 -0.863760389359141
4119000000.0 0.480182987728774 -0.9076935558501731
4122000000.0 0.5066070445036518 -0.9427087546848057
4125000000.0 0.5107401401581486 -0.9157085222496099
4128000000.0 0.5266359577116781 -0.8358511563326958
4131000000.0 0.5260202363199088 -0.886273393916256
4134000000.0000005 0.4879470074956093 -0.8978814607182366
4138000000.0 0.4703458122814211 -0.8839060163953983
4141000000.0 0.5152078271802624 -0.8500986170818209
4144000000.0 0.5518617706162127 -0.8896670303400547
4147000000.0000005 0.502894253111177 -0.875996027166303
4150000000.0000005 0.5270017815617962 -0.8999130460477586
4152999999.9999995 0.49485506912710225 -0.9070095562816933
4155999999.9999995 0.5124621663867535 -0.8912071827860795
4159000000.0 0.5185393665264703 -0.865899356262528
4162000000.0 0.5117121647251313 -0.8810432748248009
4166000000.0000005 0.5065987506110554 -0.9156095908944659
4168999999.9999995 0.47638151509681526 -0.8845316762709874
4171999999.9999995 0.5519331049790032 -0.9063004657416063
4175000000.0 0.5347271173875453 -0.9122333529502387
4178000000.0 0.5149621012541397 -0.8981563444731739
4181000000.0 0.5158316515479153 -0.8722750705244777
4184000000.0 0.5049191740992004 -0.8892042058726436
4187999999.9999995 0.5291460792477972 -0.8899557142510003
4191000000.0 0.5421098400127581 -0.8459193566517589
4194000000.0 0.49925921707640397 -0.8585914604626169
4197000000.0 0.5225332688039388 -0.8958998784461033
4200000000.0 0.5226881700243808 -0.8720686475361284
4203000000.0000005 0.5388583220997707 -0.8910421296415101
4206000000.0000005 0.5296629145717221 -0.9028210286722875
4208999999.9999995 0.5282262670848256 -0.8827894181946532
4211999999.9999995 0.4879691549305509 -0.9161112990117054
4216000000.0 0.5199673271391378 -0.87880179642469
4219000000.0000005 0.5239110652193023 -0.8881783683334568
4222000000.0000005 0.5133696943842394 -0.9043011561721301
4224999999.9999995 0.5051583837364568 -0.8723885567130543
4227999999.9999995 0.5245817699655104 -0.8914055604546625
4231000000.0 0.5174728026350546 -0.8863364235697854
4234000000.0 0.5273555253069989 -0.9087657932061227
4238000000.0000005 0.49887240316357995 -0.8860354203704951
4240999999.9999995 0.47820940190106637 -0.8830971513474805
4244000000.0 0.49606420141535457 -0.8824236268991145
4247000000.0 0.5303933850888869 -0.8895617082678825
4250000000.0 0.5075947519672916 -0.8729162505224429
4253000000.0 0.4881017174811154 -0.8673502345592522
4256000000.0 0.5261864484381559 -0.9084723504487916
4259000000.0000005 0.4888526998786372 -0.8596102785718709
4261999999.9999995 0.4908283010508848 -0.8921250487624232
4266000000.0 0.4911918151073445 -0.9158059495560218
4269000000.0 0.519467984288683 -0.8663638809777773
4272000000.0000005 0.5130505281602195 -0.882648605041818
4275000000.0000005 0.5281447005079657 -0.9032875617734547
4277999999.9999995 0.5394367045732508 -0.9011108928939912
4280999999.9999995 0.5208326368954356 -0.8715053614516497
4284000000.0 0.4711856257737094 -0.908621896583239
4288000000.0000005 0.5344473490112369 -0.8635252196720384
4291000000.0000005 0.5096900387008277 -0.8460512203892092
4293999999.9999995 0.49139734116269324 -0.8811731336700382
4297000000.0 0.5246035941761243 -0.8698993971237815
4300000000.0 0.5276621400182374 -0.8692977659840553
4303000000.0 0.4799141184482458 -0.8623772082390424
4306000000.0 0.5531060976183775 -0.8657540865961831
4309000000.0 0.5014165492133784 -0.889232357727889
4312000000.0 0.5350237127792917 -0.8852203970767754
4316000000.0 0.5287320948514758 -0.8942899580153234
4319000000.0 0.5315534072061565 -0.8590516413181721
4322000000.0 0.4785088564709598 -0.8624802139967775
4325000000.0 0.48638485839182655 -0.889950847226348
4328000000.0 0.5013539884954902 -0.8605664184991153
4331000000.0 0.4834696923767251 -0.8733623829748911
4334000000.0 0.5209061685881371 -0.9037645556616715
4338000000.0 0.5250743012298682 -0.8578520859090124
4341000000.0 0.5450204549315734 -0.8780737600218012
4344000000.0 0.5214809048064493 -0.8956706283783167
4347000000.0 0.48034504080231 -0.888337575808613
4350000000.0 0.498814933183007 -0.8583732159704287
4353000000.0 0.5143154358983658 -0.8578443643935212
4356000000.0 0.47856865764654616 -0.8850917571270663
4359000000.0 0.4755999226301486 -0.8387547025154126
4362000000.0 0.4662797186102202 -0.9101437148389226
4366000000.0 0.5193982485412382 -0.9105597049545627
4369000000.0 0.4832800803745467 -0.8531906901555758
4372000000.0 0.4707313060451055 -0.8705370172726908
4375000000.0 0.5030855929264996 -0.8683347927985239
4378000000.0 0.4919681289156572 -0.8504004158620637
4381000000.0 0.5009788498104206 -0.8639282989958643
4384000000.0 0.5219762902062728 -0.933225947673512
4388000000.0 0.5025949285328746 -0.8675928647711088
4391000000.0 0.5039721917818939 -0.9031175829642688
4394000000.0 0.48092045040965015 -0.8533310724446899
4397000000.0 0.48990730842318114 -0.8778660570342902
4400000000.0 0.4977450683725816 -0.9020555165306303
4403000000.0 0.5116602245606099 -0.8760093493374755
4406000000.0 0.47830768245375344 -0.8937978982251403
4409000000.0 0.5148109781814973 -0.9038803829301187
4412000000.0 0.44338726461121536 -0.9119636402854255
4416000000.0 0.47657154928378376 -0.872293810626502
4419000000.0 0.47008879695114625 -0.8869113202403585
4422000000.0 0.5091993402022387 -0.8703302089282194
4425000000.0 0.5175475504417523 -0.8907130437891653
4428000000.0 0.4800571574026561 -0.8875455444886685
4431000000.0 0.499856223429463 -0.9079165509559642
4434000000.0 0.4783859546881125 -0.8845948848507125
4438000000.0 0.4969451912016861 -0.9078527601966905
4441000000.0 0.5098021732098549 -0.9068906945439754
4444000000.0 0.4833348379123295 -0.8673769910164418
4447000000.0 0.47611228146154483 -0.8894096907276247
4450000000.0 0.494081204224474 -0.8622761599911377
4453000000.0 0.5197317880556919 -0.9039489112859399
4456000000.0 0.46504988448630247 -0.8655660213447823
4459000000.0 0.45814812549817885 -0.8505345264439472
4462000000.0 0.5126956614227928 -0.930706583129801
4466000000.0 0.494347294302247 -0.9130264118642917
4469000000.0 0.49506432783408827 -0.8770812158214731
4472000000.0 0.4705513381709283 -0.902824750927778
4475000000.0 0.4778263210178357 -0.8764801187490825
4478000000.0 0.4867288705347527 -0.9294938864753634
4481000000.0 0.4581068024200897 -0.8594550900247713
4484000000.0 0.44402903530128995 -0.9110102039046029
4488000000.0 0.4757660922425156 -0.8944124702318688
4491000000.0 0.4943457870107798 -0.8974155797424077
4494000000.0 0.4723640519770466 -0.8812926673404184
4497000000.0 0.48552401233299664 -0.8745064611709521
4500000000.0 0.4881825623271016 -0.8836067075619147
4503000000.0 0.5042513609982258 -0.9050350021813766
4506000000.0 0.48596533837793376 -0.9009785491307842
4509000000.0 0.47723686304312757 -0.8887344599562917
4512000000.0 0.45602213846570994 -0.8824736849558057
4516000000.0 0.48940720869179954 -0.8995691237247276
4519000000.0 0.45969483659930727 -0.8719590387730883
4522000000.0 0.45912785389949234 -0.8739126048537278
4525000000.0 0.4916274233290812 -0.8735482415795266
4528000000.0 0.48425627740463734 -0.8931890323065165
4531000000.0 0.4892789864072505 -0.8887334031708394
4534000000.0 0.4714668187442258 -0.8747891056105683
4538000000.0 0.47734921913166894 -0.898997422559429
4541000000.0 0.4376621974151428 -0.90458080757436
4544000000.0 0.47823430191803823 -0.8753132168436297
4547000000.0 0.4889832542830931 -0.8565543865773635
4550000000.0 0.47023688603286573 -0.9099788406680865
4553000000.0 0.46783083461047137 -0.8816788879364124
4556000000.0 0.4537206649387266 -0.8825891366943877
4559000000.0 0.4611980705150197 -0.8926835728846372
4562000000.0 0.47816976224074065 -0.913531384545516
4566000000.0 0.46435304523719356 -0.898830061209673
4569000000.0 0.43806783653264597 -0.8900971348053379
4572000000.0 0.4555809372696932 -0.8975374674355283
4575000000.0 0.4574648525246645 -0.9203175659254119
4578000000.0 0.4939611706903442 -0.9101101025976173
4581000000.0 0.44888259452966006 -0.9089554312993204
4584000000.0 0.44648820501554676 -0.9011827228557693
4588000000.0 0.48189347228105106 -0.9214528699438659
4591000000.0 0.4633700708854516 -0.882611000071613
4594000000.0 0.4257299991886927 -0.9013820132885154
4597000000.0 0.4507985183005223 -0.9277616430861428
4600000000.0 0.441558035317036 -0.9033552981987154
4603000000.0 0.4511813781094255 -0.9162899688078078
4606000000.0 0.45330141614317687 -0.9076982929588997
4609000000.0 0.4625598031773531 -0.9014043452998562
4612000000.0 0.4596596557133954 -0.9269449635714182
4616000000.0 0.44355094638636217 -0.906913860577848
4619000000.0 0.4594439231160278 -0.9017612217519699
4622000000.0 0.44939728749190994 -0.8911017717399802
4625000000.0 0.4379593222140309 -0.8897146889948877
4628000000.0 0.46305653934920354 -0.8906555128876867
4631000000.0 0.4345074805995568 -0.9163082980695293
4634000000.0 0.45556775673813665 -0.9050599587324051
4638000000.0 0.46267462401451154 -0.905747203661119
4641000000.0 0.46207264592437847 -0.909288482163569
4644000000.0 0.4587032714337491 -0.9019833058950758
4647000000.0 0.45635918263754777 -0.9129353825903854
4650000000.0 0.43464785669896056 -0.9126436708198243
4653000000.0 0.46413473681680106 -0.9364209596193915
4656000000.0 0.4348368948130009 -0.9206776148255256
4659000000.0 0.4388638707366669 -0.918745542263293
4662000000.0 0.4540340434777605 -0.9081180976748846
4666000000.0 0.43060340926109547 -0.9010485762051209
4669000000.0 0.45856316424387256 -0.9124681734437713
4672000000.0 0.44010458730939117 -0.9345415469111176
4675000000.0 0.42759145714038366 -0.9309638296297131
4678000000.0 0.4387803938541937 -0.9006490186653477
4681000000.0 0.4505892722562205 -0.9199725704030033
4684000000.0 0.42540750779218106 -0.9538397946368646
4688000000.0 0.42259653737880637 -0.90207060962931
4691000000.0 0.4617929497895999 -0.9078039959209984
4694000000.0 0.44891733028908565 -0.9066592205366868
4697000000.0 0.40620125109993144 -0.8859784589281734
4700000000.0 0.4327035197633302 -0.8942886008557973
4703000000.0 0.4444599403476446 -0.8568901797745224
4706000000.0 0.44210069185030637 -0.9220373667502874
4709000000.0 0.45754006522746943 -0.9148909537278701
4712000000.0 0.4602771806784016 -0.9074449213568359
4716000000.0 0.42973175940952646 -0.9381237822340428
4719000000.0 0.440138620221016 -0.9249498160644609
4722000000.0 0.4524610974384837 -0.8999907071322857
4725000000.0 0.4433058946239152 -0.9044872348294742
4728000000.0 0.41885823697647806 -0.9053427390491529
4731000000.0 0.43404873550547485 -0.9347895308608232
4734000000.0 0.45885419917585263 -0.914071819739343
4738000000.0 0.46880676408224825 -0.9231251792772319
4741000000.0 0.4706386888539591 -0.9383376832330806
4744000000.0 0.4514608792560758 -0.9156784427498086
4747000000.0 0.455865145588776 -0.8875099642787699
4750000000.0 0.45559730790294706 -0.928175953123647
4753000000.0 0.43768934024210726 -0.8987490653134603
4756000000.0 0.44905108304972907 -0.9602789911018365
4759000000.0 0.4688670374327792 -0.9223447936356711
4762000000.0 0.42403340019508357 -0.9618267028780292
4766000000.0 0.47665062640904454 -0.90080784181547
4769000000.0 0.46898084645905663 -0.9402171503658854
4772000000.0 0.46661338179021883 -0.9002806481760504
4775000000.0 0.43773429484816123 -0.9823814876822037
4778000000.0 0.4238505737618742 -0.9480305729671533
4781000000.0 0.43630635765477727 -0.9271442079642896
4784000000.0 0.45944409448475565 -0.9155791438315004
4788000000.0 0.43613652699758637 -0.9541281161712433
4791000000.0 0.4274186407532192 -0.9285321973650944
4794000000.0 0.4604304685417686 -0.9361866649952628
4797000000.0 0.4341719598516072 -0.9296404390115997
4800000000.0 0.42463491564103084 -0.9169115530470141
4803000000.0 0.3848967899395369 -0.914423205769905
4806000000.0 0.44773052195704566 -0.9513645986062151
4809000000.0 0.39375144393438777 -0.935756561913649
4812000000.0 0.3908587858672245 -0.9163271558867778
4816000000.0 0.4530497237182679 -0.8970698243503343
4819000000.0 0.4652714079041941 -0.9488395757177455
4822000000.0 0.4805408020378412 -0.9411575769517354
4825000000.0 0.46867952378470756 -0.9358825166655667
4828000000.0 0.43042179910792266 -0.9366335739189118
4831000000.0 0.3976568560147732 -0.9744498214499022
4834000000.0 0.4376841407118476 -0.910749393380626
4838000000.0 0.43899295422296086 -0.9460635570028093
4841000000.0 0.41884447620545195 -0.925082387054997
4844000000.0 0.4739789797113966 -0.9087355105498391
4847000000.0 0.4457149391120767 -0.9091296442284463
4850000000.0 0.43178426519760027 -0.9680680472440437
4853000000.0 0.44240384301450036 -0.9124770400981742
4856000000.0 0.43181072002406484 -0.9160748220148884
4859000000.0 0.41650573127534296 -0.9508583409146402
4862000000.0 0.45221433152030066 -0.9032471058559534
4866000000.0 0.4182516543638385 -0.9678318670263321
4869000000.0 0.4111510925065493 -0.9562692947597108
4872000000.0 0.44697998862874533 -0.9810817302905229
4875000000.0 0.528418705937602 -0.9394023952022804
4878000000.0 0.4505365042375972 -0.9325386903717303
4881000000.0 0.4166121392258548 -0.9983343486563951
4884000000.0 0.43355663703367875 -0.926668237100096
4888000000.0 0.46558605015987037 -0.9182824690957921
4891000000.0 0.46676174360170725 -0.9400404517060811
4894000000.0 0.395923950245787 -0.9531090154190895
4897000000.0 0.4486483204800088 -0.9314456321099054
4900000000.0 0.44639915142345155 -0.946792949409786
4903000000.0 0.4462398227637342 -0.9494802540947037
4906000000.0 0.43341352283273676 -0.9610535467786953
4909000000.0 0.4426530905434821 -0.970456234399108
4912000000.0 0.4471563162859815 -0.9683212146750385
4916000000.0 0.46044361795043987 -0.9212397036702252
4919000000.0 0.4603799638938689 -0.9494013867666582
4922000000.0 0.4529517919930482 -0.9075065550300482
4925000000.0 0.414200655659663 -0.9507836118501284
4928000000.0 0.4898695591103445 -0.9219006927895006
4931000000.0 0.4362624178312358 -0.9628018158818016
4934000000.0 0.4460908066263124 -0.8712765244327348
4938000000.0 0.3859284100034499 -0.9330988877702164
4941000000.0 0.42020860056131637 -0.9316355994134026
4944000000.0 0.4276845369860568 -0.894619322135007
4947000000.0 0.4211584948498025 -0.9108765674093023
4950000000.0 0.4308804029712965 -0.8893871366990949
4953000000.0 0.43441787243958974 -0.9835278144227655
4956000000.0 0.39836367977881165 -0.9705901954086179
4959000000.0 0.37068826705831814 -0.9147566258959019
4962000000.0 0.43434478144398203 -0.9665742234473668
4966000000.0 0.4669519861291475 -0.9374790706918539
4969000000.0 0.4789023646093706 -0.957279210723851
4972000000.0 0.4524629777474336 -0.9407705238244046
4975000000.0 0.4704176897735255 -0.9589231287364596
4978000000.0 0.43811542014291227 -0.9525203316992872
4981000000.0 0.4136034414507822 -0.9444309752612526
4984000000.0 0.43201978369580374 -0.9358277639998281
4988000000.0 0.4512100729672753 -0.9229948759807426
4991000000.0 0.4953677914871033 -0.9647440353967426
4994000000.0 0.44802391801690544 -0.9379837467581075
4997000000.0 0.42653853774901285 -0.9278560550293707
5000000000.0 0.47520397272013903 -0.9311623393890349
5003000000.0 0.4835800889318439 -0.9369695783417908
5006000000.0 0.47407375396213575 -0.949974572534587
5009000000.0 0.43831745007880024 -0.9063472759912559
5012000000.0 0.43432684660775495 -0.9538288993972879
5016000000.0 0.4768468060792267 -0.9565501485622661
5019000000.0 0.4360049353137548 -0.9424061418492516
5022000000.0 0.4445605534004733 -0.9363507721484849
5025000000.0 0.4714711931365256 -1.006778748562414
5028000000.0 0.4431716468354463 -0.9591867088022297
5031000000.0 0.4716717345047909 -0.9327586143757984
5034000000.0 0.4692208782876484 -0.969291235960638
5038000000.0 0.4116053829811631 -0.9361369673367318
5041000000.0 0.49696756993758506 -0.905433157126961
5044000000.0 0.4472412167592711 -0.890792588681167
5047000000.0 0.45798365345198333 -0.9468839826179567
5050000000.0 0.5200215850925584 -0.8806064985830746
5053000000.0 0.4491408195195799 -0.9865201225903741
5056000000.0 0.476103265970881 -0.905768566096812
5059000000.0 0.4577970639261718 -0.9105036122247425
5062000000.0 0.4477700057649617 -0.9630983435030556
5066000000.0 0.46988745348874517 -0.9620645026200261
5069000000.0 0.44813190592752256 -0.9611277712194561
5072000000.0 0.45799766116924345 -0.912465887333514
5075000000.0 0.4827927400703906 -0.9203412824546464
5078000000.0 0.41514437281604094 -0.9566392622246453
5081000000.0 0.4345242630510941 -0.9221868516988454
5084000000.0 0.4516488989336977 -0.9832917460953874
5088000000.0 0.43897809592710874 -0.9136347057728661
5091000000.0 0.4552803919356203 -0.915902070090541
5094000000.0 0.4341286757266085 -0.9620247696895252
5097000000.0 0.4749784889751367 -0.9429283641255002
5100000000.0 0.4436992644313281 -0.9217107823656124
5103000000.0 0.47606083680152084 -0.9345614192222796
5106000000.0 0.5183129366924286 -0.9829829766713014
5109000000.0 0.5069700770572837 -0.8932776808128329
5112000000.0 0.45976409321454587 -0.9499855870653704
5116000000.0 0.4110367086555389 -0.8743947309006774
5119000000.0 0.4709642791222985 -0.9534914820355668
5122000000.0 0.4650358476748516 -0.9549093451049497
5125000000.0 0.47269645515705555 -0.89608347705607
5128000000.0 0.42258316249727107 -0.8731314594181271
5131000000.0 0.44866795771116375 -0.8747408037768954
5134000000.0 0.4700170252447141 -0.8691752485718566
5138000000.0 0.47149673627705985 -0.9118645344384245
5141000000.0 0.535559255775595 -0.903238489056921
5144000000.0 0.4858948068221656 -0.9112308843922454
5147000000.0 0.5032058552864489 -0.998398596079485
5150000000.0 0.49401746018892984 -0.9345477674812515
5153000000.0 0.4806040330604412 -0.9790099138992227
5156000000.0 0.43867372286945083 -0.9099043733318178
5159000000.0 0.4937892030957335 -0.9460217088302095
5162000000.0 0.46194994954786417 -0.9306745371519464
5166000000.0 0.5026466884787608 -0.9316728237611769
5169000000.0 0.5005726459771913 -0.944772506027737
5172000000.0 0.509043743650905 -0.8979153469666719
