! Created with skrf 1.8.0 (http://scikit-rf.org).
# Hz S RI R 50.0 
!freq ReS11 ImS11
4000000000.0 0.570332686742132 -0.8497110545447326
4003000000.0 0.5769458769732146 -0.9345096021793811
4006000000.0 0.49387090401455636 -0.8998345478086511
4009000000.0000005 0.5190673925153524 -0.8393185507761267
4011999999.9999995 0.5875058177655743 -0.8875914016988264
4016000000.0 0.5686705968622789 -0.9302929459403955
4019000000.0 0.518817802998117 -0.8892506078142186
4022000000.0000005 0.6151962729041773 -0.8382787380622057
4025000000.0000005 0.554878482011743 -0.9619754561849628
4027999999.9999995 0.5253574650850799 -0.8966144231840534
4030999999.9999995 0.556038248011778 -0.8565811272637237
4034000000.0 0.5357187045819216 -0.9395768948103537
4038000000.0000005 0.5559277397692235 -0.9057199247703938
4041000000.0000005 0.5618815038415881 -0.8851356756653684
4043999999.9999995 0.5995099692538076 -0.957709489190309
4046999999.9999995 0.6147794115840275 -0.9091076128492136
4050000000.0 0.5558717244108206 -0.9174995540195678
4053000000.0 0.5461821320878445 -0.8781296104000542
4056000000.0 0.5234014510294893 -0.9171332648305952
4059000000.0 0.5983468885223915 -0.8435897377200303
4062000000.0000005 0.5676682349650681 -0.9041347887485165
4066000000.0 0.5154386674501696 -0.854393366467623
4069000000.0 0.5536713669047333 -0.9774584488278737
4072000000.0 0.6044042556965196 -0.8443459031238939
4075000000.0 0.6233983284130543 -0.8804955394342635
4078000000.0000005 0.5689072415024369 -0.8923742736471634
4081000000.0000005 0.6089684160420942 -0.89252516361185
4083999999.9999995 0.5668933150674871 -0.9190081276864097
4088000000.0 0.5913889898759119 -0.8518637845103807
4091000000.0 0.6106136853331845 -0.9343616091580852
4094000000.0000005 0.537168069116541 -0.9062818222203387
4097000000.0000005 0.5811363610387694 -0.8830664507875422
4099999999.9999995 0.5272495279281953 -0.8567183839857075
4102999999.9999995 0.5896727128535358 -0.878517793775019
4106000000.0 0.5701779779337022 -0.9144556252225862
4109000000.0 0.5476929569442718 -0.8945218123370109
4112000000.0 0.5833394743984425 -0.8863562954780229
4115999999.9999995 0.5751531466132291 -0.8856394058432279
4119000000.0 0.545927128167402 -0.8565830742245256
4122000000.0 0.5264875151151822 -0.8869284937702996
4125000000.0 0.5573916049682239 -0.9179486706790158
4128000000.0 0.5419795255639808 -0.8975551059071569
4131000000.0 0.5601262611099453 -0.8893570447142926
4134000000.0000005 0.5924334763299416 -0.8477064234051152
4138000000.0 0.5248812054851809 -0.8628738639903667
4141000000.0 0.5443962622255007 -0.8775314936390958
4144000000.0 0.5789762634394199 -0.8909782624179643
4147000000.0000005 0.5120667834995589 -0.8878289656346279
4150000000.0000005 0.5848177624444231 -0.9428561332522453
4152999999.9999995 0.5560997856198758 -0.8666444152167087
4155999999.9999995 0.6033974085718693 -0.8645465036292767
4159000000.0 0.57748669981183 -0.8516692328624362
4162000000.0 0.5487817629119357 -0.8708935589909421
4166000000.0000005 0.5760894546185257 -0.8909389063888911
4168999999.9999995 0.5412168362714331 -0.8699319390570286
4171999999.9999995 0.5879867513334807 -0.8627492420357668
4175000000.0 0.5876006125215348 -0.879921665431722
4178000000.0 0.5828252596683989 -0.8733788977279459
4181000000.0 0.5579617176054344 -0.8775828110723
4184000000.0 0.5591820506046556 -0.864405373042269
4187999999.9999995 0.5664085275300503 -0.8760066453558778
4191000000.0 0.5906778627744989 -0.8587255937379356
4194000000.0 0.5445634523304366 -0.8432380029951032
4197000000.0 0.5743412952800747 -0.8873127368530181
4200000000.0 0.5879095273322059 -0.8819787484305712
4203000000.0000005 0.5737222002280115 -0.8945645969060964
4206000000.0000005 0.5823376548084827 -0.8835677047851337
4208999999.9999995 0.5590561693552001 -0.8585226301453325
4211999999.9999995 0.5401991465038577 -0.8862205734276732
4216000000.0 0.5738571391573963 -0.8878456107180397
4219000000.0000005 0.5805934011144771 -0.8818063723142782
4222000000.0000005 0.5566293181094395 -0.888970096315306
4224999999.9999995 0.5568241765193316 -0.8498925095868357
4227999999.9999995 0.5608580280768849 -0.866444980461805
4231000000.0 0.5526159667780352 -0.8675288118837747
4234000000.0 0.5882726398319529 -0.8801014092087747
4238000000.0000005 0.5433916897793751 -0.8765240842529131
4240999999.9999995 0.5493527424856448 -0.8560301191874012
4244000000.0 0.5638333902311331 -0.8585484326501961
4247000000.0 0.5581047829358686 -0.8462129239592705
4250000000.0 0.5422840514726697 -0.8655620563912095
4253000000.0 0.5434897482597149 -0.8387804909603502
4256000000.0 0.5673481956499389 -0.8836882841857734
4259000000.0000005 0.5342095092742594 -0.8342295256073962
4261999999.9999995 0.5323670578690396 -0.8707999224484965
4266000000.0 0.5561829117913925 -0.8754563043959684
4269000000.0 0.5474315878826578 -0.8603678315510159
4272000000.0000005 0.5513943421218872 -0.8362012551066582
4275000000.0000005 0.5856161201155663 -0.8698335692028237
4277999999.9999995 0.5883466199626587 -0.8748438825962066
4280999999.9999995 0.5759349586104099 -0.8464536395223619
4284000000.0 0.540667611052056 -0.8864394720515905
4288000000.0000005 0.5843404303051696 -0.8293385089783057
4291000000.0000005 0.5479580622134482 -0.8536554696376043
4293999999.9999995 0.550266662015396 -0.860493723292347
4297000000.0 0.571868492454833 -0.8567135798117139
4300000000.0 0.5417399778544065 -0.8589509949708611
4303000000.0 0.5501071408709322 -0.8561252138967381
4306000000.0 0.579948989561884 -0.8381263858200984
4309000000.0 0.5525542282239122 -0.8680807045550782
4312000000.0 0.6049154618700128 -0.8627407004876294
4316000000.0 0.5604919897034317 -0.8840001799912162
4319000000.0 0.5543312417552156 -0.8655457052024003
4322000000.0 0.5299642848661242 -0.8542945319012267
4325000000.0 0.5670218660206481 -0.8675679037790331
4328000000.0 0.540659670030957 -0.8415802755551296
4331000000.0 0.5478446489998721 -0.9019808120024179
4334000000.0 0.5646638914673663 -0.8720611286632022
4338000000.0 0.5638098507252078 -0.8566447486302552
4341000000.0 0.5896389383217366 -0.8636714698978565
4344000000.0 0.574072722223266 -0.8786174789703648
4347000000.0 0.5363168925528176 -0.8736753631372943
4350000000.0 0.5250060672757203 -0.8244590113302397
4353000000.0 0.5351806322381661 -0.8310991967364398
4356000000.0 0.5288662682277261 -0.8751676265339753
4359000000.0 0.5325412038828177 -0.8300861117015738
4362000000.0 0.5193856155295385 -0.8882138752890553
4366000000.0 0.5641953352891896 -0.8816125377322985
4369000000.0 0.535342041856863 -0.8375724340323153
4372000000.0 0.5017859454357206 -0.8707928566502566
4375000000.0 0.5722645749534208 -0.8544783452383679
4378000000.0 0.5318168478575118 -0.8404454604700583
4381000000.0 0.525036200707401 -0.8397424000648395
4384000000.0 0.5793811997066511 -0.921118876189638
4388000000.0 0.5626072393869088 -0.832500669749329
4391000000.0 0.56294440681514 -0.8664630670647696
4394000000.0 0.5293645822511643 -0.8393176364440106
4397000000.0 0.5342817598559425 -0.861390853571128
4400000000.0 0.5743275346339326 -0.8749572616888663
4403000000.0 0.5525527206989588 -0.8538695411081914
4406000000.0 0.5247375293650901 -0.8717594013344424
4409000000.0 0.557183243116577 -0.8814740201736015
4412000000.0 0.49022870309927613 -0.8835301979071036
4416000000.0 0.5381728837830824 -0.8528465825176474
4419000000.0 0.5244174513661455 -0.8636797128202139
4422000000.0 0.5367664283401764 -0.8435075766818965
4425000000.0 0.5756405081818994 -0.8652505813408744
4428000000.0 0.5296826166915296 -0.8553649345634212
4431000000.0 0.57270372246001 -0.8702947849960452
4434000000.0 0.5224122670898785 -0.8567567049449373
4438000000.0 0.561819093856292 -0.8751943202593302
4441000000.0 0.565789857161229 -0.8693051553911827
4444000000.0 0.530638468269986 -0.8411235427709488
4447000000.0 0.5266868227514118 -0.8711968498795304
4450000000.0 0.5478384312128561 -0.8377641993443956
4453000000.0 0.5557247367498134 -0.8776897931420553
4456000000.0 0.5203450850562562 -0.857133659919981
4459000000.0 0.49583907892107715 -0.8382600950788148
4462000000.0 0.5767431661436299 -0.9206782138736144
4466000000.0 0.5413928325900905 -0.9021208002856791
4469000000.0 0.5531389463637069 -0.8543633779565836
4472000000.0 0.5398490277683128 -0.8884825378143559
4475000000.0 0.5168106293291813 -0.8383043805044925
4478000000.0 0.556271068716824 -0.8984088087403002
4481000000.0 0.4952952849074392 -0.846646510890387
4484000000.0 0.49343742635537324 -0.8854115608072042
4488000000.0 0.5065032800469176 -0.866166212164093
4491000000.0 0.5428705175090529 -0.8621041859389771
4494000000.0 0.5331468853040591 -0.854834378990305
4497000000.0 0.5264599867443666 -0.843129338740471
4500000000.0 0.5310652525479749 -0.8605753372050966
4503000000.0 0.5657540735370623 -0.8611881762060267
4506000000.0 0.535043093748833 -0.8670351017524238
4509000000.0 0.510104536548314 -0.8452709679000601
4512000000.0 0.5049205022822465 -0.860049694630407
4516000000.0 0.554174693729615 -0.8808774663650596
4519000000.0 0.5363139472871354 -0.850755084909131
4522000000.0 0.5134546583625259 -0.8800016362844931
4525000000.0 0.5500634040352885 -0.8468288277272492
4528000000.0 0.5581041489753868 -0.89870443362226
4531000000.0 0.5298989727169009 -0.867350150606665
4534000000.0 0.5350500767476118 -0.8502894296113912
4538000000.0 0.5288105231494072 -0.8681400845388778
4541000000.0 0.47983742512649263 -0.8580024439868689
4544000000.0 0.5036688657007677 -0.8546226885899975
4547000000.0 0.5519001229716747 -0.8483179279262465
4550000000.0 0.5115174286017631 -0.8709296671138314
4553000000.0 0.5153141147638038 -0.8805604637953259
4556000000.0 0.5061607452433556 -0.860896466892757
4559000000.0 0.5138894552464782 -0.8840158792816735
4562000000.0 0.540419612207885 -0.8706678557581431
4566000000.0 0.536010262320058 -0.8685032420952179
4569000000.0 0.5087979086881803 -0.8486951606544872
4572000000.0 0.5191911530168671 -0.8621044962900095
4575000000.0 0.5164106040172357 -0.8654767755227694
4578000000.0 0.5671099447632558 -0.8948532147049151
4581000000.0 0.5171076794524976 -0.8867746494162958
4584000000.0 0.5144124051709177 -0.8622232099255468
4588000000.0 0.5530801579466768 -0.8826759805654073
4591000000.0 0.5510749024188673 -0.8598901731018335
4594000000.0 0.5079583826939209 -0.8637736395314948
4597000000.0 0.5282926339929443 -0.8991459943437774
4600000000.0 0.5083671278012286 -0.8726092968526072
4603000000.0 0.5009761126876873 -0.8786709026641186
4606000000.0 0.521504831710152 -0.8799432512855827
4609000000.0 0.5216166742798012 -0.8758561016300135
4612000000.0 0.5217491875712933 -0.8838314473639254
4616000000.0 0.500208391248772 -0.8779160545928781
4619000000.0 0.5238005620475471 -0.8781160559762832
4622000000.0 0.5251799672450632 -0.8811277488073385
4625000000.0 0.48462921733371367 -0.8710053008004038
4628000000.0 0.5379308494193331 -0.8611030160630057
4631000000.0 0.5047537950569443 -0.8738207275534897
4634000000.0 0.5127122861214777 -0.8914358531623461
4638000000.0 0.5259484129549381 -0.8688962278390036
4641000000.0 0.5192127577324014 -0.8696396492471156
4644000000.0 0.5062392323176926 -0.8773071091088295
4647000000.0 0.5274733892748382 -0.8733942567128572
4650000000.0 0.49681809552506584 -0.8700646062024014
4653000000.0 0.5438000690996698 -0.8954303035336141
4656000000.0 0.49470787729061205 -0.8817626437277637
4659000000.0 0.5108309439264204 -0.8712592380681474
4662000000.0 0.511305936806371 -0.8902387267404643
4666000000.0 0.5106774086660357 -0.8864019658914398
4669000000.0 0.5130168954472608 -0.8773103633722263
4672000000.0 0.5059833554441734 -0.8997462314081084
4675000000.0 0.4909952683139248 -0.8845395157403033
4678000000.0 0.4979516859843693 -0.8733407641019915
4681000000.0 0.4770452814447135 -0.8894082343968163
4684000000.0 0.48480776425100325 -0.9127087373935562
4688000000.0 0.4857708038082431 -0.8866635342312151
4691000000.0 0.5255660535804587 -0.8753271260676648
4694000000.0 0.5059940916599498 -0.8436118613876482
4697000000.0 0.4956075323489556 -0.8616596563791539
4700000000.0 0.5180038035711649 -0.8813464570019522
4703000000.0 0.5141888952440503 -0.8647371726827117
4706000000.0 0.4933029779188387 -0.8596413753097
4709000000.0 0.49563644796587025 -0.885138302624933
4712000000.0 0.5039597622243276 -0.8897000089787187
4716000000.0 0.49552887297668313 -0.8835098668077045
4719000000.0 0.5273493311337737 -0.8986879620533861
4722000000.0 0.5387373056470051 -0.8590662620578509
4725000000.0 0.5017244492466196 -0.8686435247298079
4728000000.0 0.5072866521477551 -0.8703187441131056
4731000000.0 0.5154020145971394 -0.9170477098036729
4734000000.0 0.5076643040843751 -0.8798965159505417
4738000000.0 0.5445041979274121 -0.9202600330677229
4741000000.0 0.5105574674107703 -0.9247181746735118
4744000000.0 0.4873007669826145 -0.9104132183595878
4747000000.0 0.48521839908436926 -0.8630301092681899
4750000000.0 0.5287378853791411 -0.9138529964981077
4753000000.0 0.4945834781430857 -0.886508511035967
4756000000.0 0.5231121044637037 -0.9214126592487991
4759000000.0 0.5032656510745428 -0.9002116565303634
4762000000.0 0.5044228720427967 -0.8968623281899095
4766000000.0 0.5120706726245433 -0.8989060458833129
4769000000.0 0.4975595491697923 -0.8938310119649315
4772000000.0 0.5082308104836513 -0.8897732527756185
4775000000.0 0.5255207917030544 -0.9480191376408472
4778000000.0 0.5018693657548993 -0.8878334074581516
4781000000.0 0.5043563962620422 -0.8918566826326032
4784000000.0 0.5375011358596908 -0.8967120680808727
4788000000.0 0.5290574351086618 -0.9054804854867413
4791000000.0 0.48602961183591237 -0.8763257370685368
4794000000.0 0.5244993153918297 -0.8940431773000546
4797000000.0 0.4919140743256336 -0.8708093663367629
4800000000.0 0.477705380849593 -0.9076270048291728
4803000000.0 0.46906393989900097 -0.9154518716709066
4806000000.0 0.5116395881983699 -0.9311377640224318
4809000000.0 0.46689331190002004 -0.9099581028064336
4812000000.0 0.47230796308875084 -0.9136665648663217
4816000000.0 0.5123166103810535 -0.8808378098868008
4819000000.0 0.5274359484506665 -0.9328244202076785
4822000000.0 0.549141745530733 -0.9061759328627329
4825000000.0 0.5329749315362877 -0.913282405989538
4828000000.0 0.497107285166839 -0.8801275498848526
4831000000.0 0.4841849976964424 -0.9428955611596928
4834000000.0 0.5090668388695225 -0.8910922082273733
4838000000.0 0.49569529904706705 -0.9162498299730345
4841000000.0 0.4904492495878709 -0.892676361813306
4844000000.0 0.5464329071130543 -0.8897859168025346
4847000000.0 0.5129687372730882 -0.8577208613010064
4850000000.0 0.5049459447144781 -0.9351078242297475
4853000000.0 0.5009118766368883 -0.8717057850287472
4856000000.0 0.5043662913212938 -0.8952930515564541
4859000000.0 0.5318395621760925 -0.9333388399968406
4862000000.0 0.5457872514165 -0.861475152014382
4866000000.0 0.49506997897556604 -0.917348769228116
4869000000.0 0.5046963845058756 -0.9130278918480847
4872000000.0 0.5175638070506292 -0.9360896644439313
4875000000.0 0.5806524833714756 -0.8965196757978345
4878000000.0 0.5106947911286687 -0.9111924062705281
4881000000.0 0.5021078422297661 -0.956482324383165
4884000000.0 0.5259786830890743 -0.8865339460437749
4888000000.0 0.5457931086748394 -0.8802082673108337
4891000000.0 0.5418201516021011 -0.9034177801146444
4894000000.0 0.5114850909706359 -0.8959015294541506
4897000000.0 0.5274350445150416 -0.8625024687874877
4900000000.0 0.5323210730894301 -0.8984577312433271
4903000000.0 0.5454682525353304 -0.9170348007840244
4906000000.0 0.5457668839101225 -0.9419167521345865
4909000000.0 0.5170487697303121 -0.9216559894165419
4912000000.0 0.5125237034238943 -0.9358670076702454
4916000000.0 0.5475362986824444 -0.8905982819999274
4919000000.0 0.5572800235695263 -0.9000186416450756
4922000000.0 0.5812201550362943 -0.8829718275670453
4925000000.0 0.510732685233533 -0.8862152763413371
4928000000.0 0.5374429797093144 -0.8409654433786569
4931000000.0 0.5374697513653367 -0.9110201918974503
4934000000.0 0.5083241398566256 -0.8953930992607736
4938000000.0 0.48724746760908133 -0.9152903970599939
4941000000.0 0.5220136011695533 -0.8867268161022653
4944000000.0 0.494235864958337 -0.8349192839492416
4947000000.0 0.5019839521030155 -0.8791304383041503
4950000000.0 0.50887472673392 -0.8823144143102511
4953000000.0 0.5037231231241127 -0.9287083995980945
4956000000.0 0.4893242541211503 -0.9033207121266632
4959000000.0 0.47063697673177285 -0.892572607384719
4962000000.0 0.5456198606065806 -0.9248092785806401
4966000000.0 0.5548732441788369 -0.926257991842805
4969000000.0 0.5750271154547151 -0.9364508250526191
4972000000.0 0.5289030845080905 -0.9276160564083773
4975000000.0 0.5347334202346736 -0.8760146860068252
4978000000.0 0.4880144215800869 -0.9016125255920788
4981000000.0 0.506626742644871 -0.8891118565392089
4984000000.0 0.5110003867545393 -0.9098473581219566
4988000000.0 0.5450805564434579 -0.8777376575044746
4991000000.0 0.6175686452892413 -0.8986852593763656
4994000000.0 0.5268889989192533 -0.8618509846825537
4997000000.0 0.5013345859218267 -0.9084432954177253
5000000000.0 0.5208820293857661 -0.928085538929271
5003000000.0 0.5455960730868336 -0.9292957190344386
5006000000.0 0.5831029842642299 -0.9400108050033991
5009000000.0 0.4989554723009748 -0.9043505798978486
5012000000.0 0.5342729051399022 -0.9153954346603459
5016000000.0 0.5815537445172084 -0.8849715761711776
5019000000.0 0.5337204878962721 -0.9089531112721193
5022000000.0 0.5405612497695071 -0.8845292091907817
5025000000.0 0.5584585127236068 -0.9588965530419917
5028000000.0 0.5223693588506244 -0.9108092979501772
5031000000.0 0.5343300330362182 -0.898063991647003
5034000000.0 0.5004520307750746 -0.949497526595742
5038000000.0 0.5221059704613453 -0.8757803846050011
5041000000.0 0.5947828190149255 -0.8801828677713702
5044000000.0 0.5383248878979481 -0.8712244034192738
5047000000.0 0.573630171532569 -0.9045364738318529
5050000000.0 0.5870570125165725 -0.8318150111299123
5053000000.0 0.5491009144975258 -0.9595099663928571
5056000000.0 0.5672805441449191 -0.9019729448656382
5059000000.0 0.5652788483776465 -0.8766299505319357
5062000000.0 0.5360541155829055 -0.9134943985058477
5066000000.0 0.5494002252255092 -0.875931278771744
5069000000.0 0.5329761364744338 -0.8905675727462784
5072000000.0 0.5671567345494727 -0.9010904286597321
5075000000.0 0.5609108560291858 -0.8919140855885985
5078000000.0 0.5194267909076722 -0.9208466542353191
5081000000.0 0.49387616646118143 -0.8846918849801595
5084000000.0 0.5628971098277605 -0.9126876794353354
5088000000.0 0.598560508489692 -0.8443148828309024
5091000000.0 0.556888689741737 -0.9210817699898463
5094000000.0 0.5279466921597096 -0.9229089774316239
5097000000.0 0.5879790992374484 -0.9129703631190142
5100000000.0 0.5571563313721162 -0.855564740110281
5103000000.0 0.5345160236193756 -0.879897133838906
5106000000.0 0.6187985727365408 -0.9216095418032502
5109000000.0 0.5794991516752086 -0.8646036175820622
5112000000.0 0.5214331692229147 -0.8768351637232751
5116000000.0 0.5167902376696021 -0.8640516592592685
5119000000.0 0.5747590928927109 -0.8926038729862505
5122000000.0 0.5737525581808205 -0.875567745275392
5125000000.0 0.5742847966296196 -0.8635320255648754
5128000000.0 0.549267140421744 -0.9003366599217639
5131000000.0 0.5268537692604643 -0.8494472893270699
5134000000.0 0.5288947086465214 -0.8919483253519409
5138000000.0 0.5874884843468972 -0.8561618300893017
5141000000.0 0.5700741368546491 -0.8224228636908667
5144000000.0 0.5931273798163754 -0.8891043307679316
5147000000.0 0.5496756454752288 -0.9297500239833116
5150000000.0 0.5878520503473477 -0.8838852673069278
5153000000.0 0.5331676615946208 -0.9155166102397438
5156000000.0 0.6077076007957218 -0.8950712344626535
5159000000.0 0.5649474061654138 -0.948115506084942
5162000000.0 0.5466961378188575 -0.9001667270747398
5166000000.0 0.598443159343906 -0.895976794232227
5169000000.0 0.5714702409628198 -0.9030821120832311
5172000000.0 0.5364057032385956 -0.8691777388489934
5175000000.0 0.6064021289715332 -0.8836644310351494
5178000000.0 0.5412775182894606 -0.853660006459496
5181000000.0 0.6187072380640638 -0.8743675243941954
