! Created with skrf 1.8.0 (http://scikit-rf.org).
# Hz S RI R 50.0 
!freq ReS11 ImS11
4000000000.0 0.8714823922994742 -0.5738694495460639
4003000000.0 0.9395904999578218 -0.596481951988959
4006000000.0 0.8321582764933527 -0.5793142719214253
4009000000.0000005 0.8660681708252638 -0.56599506109559
4011999999.9999995 0.8729798480287025 -0.5285334026259004
4016000000.0 0.8335233036465457 -0.5869401521673315
4019000000.0 0.8454386313017779 -0.5637532343560734
4022000000.0000005 0.8908779125691343 -0.4532660144625581
4025000000.0000005 0.8362760723303362 -0.6717230895424495
4027999999.9999995 0.8541913787252811 -0.6239710334190885
4030999999.9999995 0.8205266142226625 -0.573805824774269
4034000000.0 0.8710183570929496 -0.5842133602891012
4038000000.0000005 0.8573547132111184 -0.6033672328418722
4041000000.0000005 0.8938454686162186 -0.5450763499545963
4043999999.9999995 0.8941206617638455 -0.6258479121882062
4046999999.9999995 0.8599832295721426 -0.5576960538803616
4050000000.0 0.8493117267376403 -0.5700817334109798
4053000000.0 0.8070366944149626 -0.5990601328193074
4056000000.0 0.8516001150272426 -0.5678213498570953
4059000000.0 0.8592899844693472 -0.5434747972096167
4062000000.0000005 0.8511817568332485 -0.6073295265477798
4066000000.0 0.7369863207200567 -0.6146877025469584
4069000000.0 0.8631188603586258 -0.6361183034381228
4072000000.0 0.8300288902468996 -0.5300913657204461
4075000000.0 0.9251497123890854 -0.5744819781274246
4078000000.0000005 0.8918200514873422 -0.6070017965187107
4081000000.0000005 0.9418077000705877 -0.5240367689717814
4083999999.9999995 0.8353561644967199 -0.5768164321533602
4088000000.0 0.8940995431823112 -0.5436420605314133
4091000000.0 0.935886104052953 -0.643004216513369
4094000000.0000005 0.8558184661717512 -0.5477663097484647
4097000000.0000005 0.8649025239301802 -0.5597677965165525
4099999999.9999995 0.8578350086330566 -0.5780226502677878
4102999999.9999995 0.8955702020505689 -0.5886581781038134
4106000000.0 0.8415955113687308 -0.6283100574608335
4109000000.0 0.8045802701792594 -0.6049431613649296
4112000000.0 0.8551086700679992 -0.5655335360247131
4115999999.9999995 0.8887737778436489 -0.5758492342377648
4119000000.0 0.8457622875536296 -0.6110316412300155
4122000000.0 0.8282714870363508 -0.6122100452393628
4125000000.0 0.8785108636673958 -0.6403616106806967
4128000000.0 0.8238991283869583 -0.5388670777676664
4131000000.0 0.8385801105656147 -0.5356642610279971
4134000000.0000005 0.8317912682540692 -0.550714276131793
4138000000.0 0.8334673485553439 -0.577316039565007
4141000000.0 0.824325406692403 -0.5919652620318746
4144000000.0 0.872108408240297 -0.5720891851020133
4147000000.0000005 0.7976283140142267 -0.5562555357072291
4150000000.0000005 0.8678825994479795 -0.5929057856332048
4152999999.9999995 0.8538685602738866 -0.6019937067794942
4155999999.9999995 0.8821208108611169 -0.564352257108241
4159000000.0 0.8536976646008362 -0.5451131751513884
4162000000.0 0.8353398487515638 -0.5683487906602156
4166000000.0000005 0.8569704724343249 -0.5922329449013772
4168999999.9999995 0.8383814737437573 -0.6022870003992903
4171999999.9999995 0.859776615233118 -0.5604199864780903
4175000000.0 0.8588155556804148 -0.5474953114804114
4178000000.0 0.8703944503853112 -0.5716935611791703
4181000000.0 0.8425022173658379 -0.567066930581261
4184000000.0 0.8265663856295654 -0.558436790210132
4187999999.9999995 0.8324388915231413 -0.6251505134960743
4191000000.0 0.8631902344087001 -0.5248446656465262
4194000000.0 0.8501616770219249 -0.5554287972225175
4197000000.0 0.8366726039914314 -0.5664845195734527
4200000000.0 0.8192136404888415 -0.5690890278723993
4203000000.0000005 0.8743431786690906 -0.5460291245448756
4206000000.0000005 0.8808504503825518 -0.5785646220818174
4208999999.9999995 0.8617825007840796 -0.5497932968895141
4211999999.9999995 0.8214740971012268 -0.5941316016288977
4216000000.0 0.8181127668020032 -0.5548190219892515
4219000000.0000005 0.865342926638947 -0.5646654565826699
4222000000.0000005 0.8435857144941192 -0.5873998974240824
4224999999.9999995 0.8594766609725077 -0.5607903033057772
4227999999.9999995 0.8844994769863307 -0.5872058058757891
4231000000.0 0.8282231223029171 -0.5614427876507396
4234000000.0 0.8776643540749203 -0.5536092403724651
4238000000.0000005 0.8462992104134454 -0.5945058798892522
4240999999.9999995 0.8534806473659303 -0.5861712921814854
4244000000.0 0.872014237496662 -0.5662566880650126
4247000000.0 0.8654360763812258 -0.5529272748116901
4250000000.0 0.8415634483715423 -0.576267153586106
4253000000.0 0.8159591105884914 -0.5520299135484843
4256000000.0 0.8453993929197454 -0.5556470569527152
4259000000.0000005 0.8311677723477533 -0.5836616710967373
4261999999.9999995 0.8327299630156548 -0.5924265222039621
4266000000.0 0.8494812564300647 -0.6004344009005805
4269000000.0 0.8683953285162437 -0.5666261873526912
4272000000.0000005 0.8355697309225576 -0.5650240843726627
4275000000.0000005 0.8088099114128365 -0.6199698445430142
4277999999.9999995 0.8496026840705927 -0.6125837908668557
4280999999.9999995 0.859483674995152 -0.5567155909558742
4284000000.0 0.8459710781400483 -0.5596416412434874
4288000000.0000005 0.8570678787807454 -0.5402208898974139
4291000000.0000005 0.8506551618973681 -0.5732916986420513
4293999999.9999995 0.8375399011811832 -0.5611657122264977
4297000000.0 0.8209215420085746 -0.5766560493371655
4300000000.0 0.8595951926047581 -0.5771850995062691
4303000000.0 0.8324206265292775 -0.5819927212151197
4306000000.0 0.8556816665244065 -0.5746350187892844
4309000000.0 0.8309495660837616 -0.5446274246490956
4312000000.0 0.8761150192829893 -0.5910932346954751
4316000000.0 0.8593572969023453 -0.5480518236347728
4319000000.0 0.8142588784031821 -0.554191849054757
4322000000.0 0.809359703113758 -0.556644818911167
4325000000.0 0.84704832089766 -0.5709059719432723
4328000000.0 0.8281907189504978 -0.5632647356149728
4331000000.0 0.8352380227174113 -0.6198818853742093
4334000000.0 0.8676299535653691 -0.5554981222326996
4338000000.0 0.8403164274247337 -0.5469636029998791
4341000000.0 0.8585363516769238 -0.5427207313169697
4344000000.0 0.8402172432395043 -0.6070064775422018
4347000000.0 0.8646750734545151 -0.616264857860391
4350000000.0 0.8147465424779752 -0.5930072276418983
4353000000.0 0.8238087900079578 -0.538741912387082
4356000000.0 0.8347654951962962 -0.5699005690225606
4359000000.0 0.8288839375961807 -0.5357606350360814
4362000000.0 0.8223143694949044 -0.5974208429403199
4366000000.0 0.8396445623202337 -0.5790735086895419
4369000000.0 0.8107687228136594 -0.5648365491184961
4372000000.0 0.8139531857276394 -0.6013635723875258
4375000000.0 0.839585339810764 -0.5608685223797596
4378000000.0 0.8296865566251048 -0.5508396212837505
4381000000.0 0.8402157096731315 -0.5372726592653433
4384000000.0 0.8768675093900891 -0.6049613407006793
4388000000.0 0.8242557349679792 -0.5510596001420875
4391000000.0 0.8438813210507912 -0.5816454212795154
4394000000.0 0.8344944844826776 -0.5442519061928665
4397000000.0 0.8263837695805766 -0.5741684010556726
4400000000.0 0.873654927757947 -0.5836084691895859
4403000000.0 0.8249940113430204 -0.5721981127037746
4406000000.0 0.7665501448517575 -0.6503470946479806
4409000000.0 0.8420248717864307 -0.5922047123419165
4412000000.0 0.7863105466646735 -0.6217943065157125
4416000000.0 0.8143715594871483 -0.5816253615376357
4419000000.0 0.8357031640552698 -0.5786085746161514
4422000000.0 0.8291990142574713 -0.5652523457328951
4425000000.0 0.8531738246042408 -0.5638915981627016
4428000000.0 0.8197322300860077 -0.595816199530381
4431000000.0 0.8328059268269953 -0.581770098040939
4434000000.0 0.8009597643835307 -0.5820726169487682
4438000000.0 0.8693592152723659 -0.6092477440859299
4441000000.0 0.8566835529799742 -0.5802901181770811
4444000000.0 0.817944111386784 -0.5759861061151524
4447000000.0 0.814781954312976 -0.5816944331436573
4450000000.0 0.8114793196270272 -0.5732596236699631
4453000000.0 0.8226390659312276 -0.6367864942124276
4456000000.0 0.7975795585415861 -0.5770598413811185
4459000000.0 0.76276091423526 -0.5829167061316596
4462000000.0 0.8849560977351579 -0.6241508031003807
4466000000.0 0.8449911824477894 -0.6275246789473649
4469000000.0 0.8378463756938109 -0.5556016736239823
4472000000.0 0.8309701892624806 -0.6220868503867335
4475000000.0 0.7955474230708464 -0.565104866700489
4478000000.0 0.8494720374853268 -0.6297476697801847
4481000000.0 0.7880874276767953 -0.575706003195661
4484000000.0 0.7783324491731183 -0.6234196460725329
4488000000.0 0.7949649723370737 -0.5943938127410836
4491000000.0 0.8334706274645688 -0.6004868268026049
4494000000.0 0.8104503385810471 -0.5957741197169388
4497000000.0 0.8183628793479663 -0.5814389696799792
4500000000.0 0.8309416665697439 -0.5771240312428875
4503000000.0 0.839936988557149 -0.5890396994416768
4506000000.0 0.8021657754249402 -0.5852416034303327
4509000000.0 0.8066803962464852 -0.583195233436209
4512000000.0 0.802667824375909 -0.5779384255851835
4516000000.0 0.8321425298538402 -0.5846022804955081
4519000000.0 0.8064749597975978 -0.5603273374345299
4522000000.0 0.8103454004854885 -0.5935013384423597
4525000000.0 0.834818417952031 -0.5530570976984343
4528000000.0 0.8372657652503618 -0.601488256347169
4531000000.0 0.8154653101812109 -0.5689258410386624
4534000000.0 0.794367262669745 -0.5803107816832851
4538000000.0 0.8030098937058544 -0.6042360030900846
4541000000.0 0.7972796155266841 -0.6293987378402928
4544000000.0 0.8038318636256587 -0.5751622687457159
4547000000.0 0.8352102889866515 -0.5712395256296964
4550000000.0 0.8009416226213034 -0.6077232673230084
4553000000.0 0.8045117167572421 -0.6105921667109481
4556000000.0 0.7727824832020881 -0.5893631939449958
4559000000.0 0.8068898154831039 -0.6075170611018422
4562000000.0 0.8193870165773621 -0.5898859415882793
4566000000.0 0.7760115558029129 -0.6504838563701305
4569000000.0 0.7625347680471258 -0.6056307153679208
4572000000.0 0.8007246190663933 -0.5961451039988784
4575000000.0 0.8029394499381107 -0.6170182919652318
4578000000.0 0.8278148143043427 -0.6009031651006503
4581000000.0 0.7926163409681164 -0.6276928533322295
4584000000.0 0.7652199047332682 -0.6380228680334574
4588000000.0 0.8117638846891998 -0.5955905996997006
4591000000.0 0.8175568510904065 -0.5782307737139794
4594000000.0 0.7927705741602666 -0.5937770112818714
4597000000.0 0.8250871339693255 -0.6252535109514372
4600000000.0 0.7590430366943762 -0.6218806066465133
4603000000.0 0.8238710510893491 -0.6116214026340153
4606000000.0 0.7968802002982337 -0.5962744119799839
4609000000.0 0.7922190462506994 -0.6093325032587673
4612000000.0 0.8496031360215738 -0.6177472463729128
4616000000.0 0.7806429764028393 -0.5983734938740994
4619000000.0 0.8172165922752579 -0.5867106871119222
4622000000.0 0.8177371218915774 -0.5802447266124312
4625000000.0 0.7669792817650543 -0.5875622170930055
4628000000.0 0.7665615520023376 -0.5640963171027562
4631000000.0 0.7716177516955801 -0.6176345813371643
4634000000.0 0.7979167010594217 -0.6057343546932299
4638000000.0 0.8007690318478926 -0.622113246538428
4641000000.0 0.81668445575859 -0.5980799738532194
4644000000.0 0.7944691956897894 -0.6018197056710907
4647000000.0 0.8144975854333152 -0.600644401985659
4650000000.0 0.7917856747022486 -0.6181676630750363
4653000000.0 0.8149915252716633 -0.6255403578604528
4656000000.0 0.7818336686554266 -0.6285648734769052
4659000000.0 0.7915655172410542 -0.6100571450759932
4662000000.0 0.801650972462663 -0.6117227024624864
4666000000.0 0.7910681259914971 -0.6080212862544485
4669000000.0 0.8123380832156157 -0.5812958839094028
4672000000.0 0.7854920740463096 -0.6446659070331446
4675000000.0 0.7486367352943877 -0.6358754765021941
4678000000.0 0.7838572265761894 -0.6017568590536733
4681000000.0 0.7836763759736547 -0.6483519134247944
4684000000.0 0.7658023173511359 -0.6338042456821864
4688000000.0 0.7716080381928694 -0.6174339420862431
4691000000.0 0.7916511259711213 -0.6105236929991423
4694000000.0 0.8020656541296948 -0.6275899498912006
4697000000.0 0.7743157224733581 -0.6421068228665503
4700000000.0 0.8057741919754585 -0.6323804232331797
4703000000.0 0.8067395739503332 -0.632143419726902
4706000000.0 0.8149805460734141 -0.6364414567320147
4709000000.0 0.7680998484864884 -0.6388081957877123
4712000000.0 0.7966837768862223 -0.6080566996837274
4716000000.0 0.7976178949838261 -0.6417176326595563
4719000000.0 0.8211839166850539 -0.6376504326112618
4722000000.0 0.8190928077636138 -0.647740516457944
4725000000.0 0.7756249717403161 -0.6484709603333376
4728000000.0 0.780465761310347 -0.6281781682248037
4731000000.0 0.776040099505653 -0.6136174393808915
4734000000.0 0.784345389374161 -0.6172373838255657
4738000000.0 0.8044059225870879 -0.6313313871379573
4741000000.0 0.8055893730955604 -0.641611872952167
4744000000.0 0.7838044858376714 -0.656991918656225
4747000000.0 0.783971138627631 -0.6218543381147875
4750000000.0 0.7838848003824124 -0.6362323257858404
4753000000.0 0.7873879063302803 -0.6652292783775388
4756000000.0 0.7555389498524506 -0.6152130992596869
4759000000.0 0.7831123131608573 -0.6319009037346413
4762000000.0 0.7747699253219469 -0.644737660682988
4766000000.0 0.7792489607286418 -0.6369347613661938
4769000000.0 0.7891373603574451 -0.6810569314384799
4772000000.0 0.7926646341859426 -0.6633192800325706
4775000000.0 0.7673699657007019 -0.6754037446289647
4778000000.0 0.7984085381368418 -0.6398621763994048
4781000000.0 0.8010487284857702 -0.6246704410446157
4784000000.0 0.7895284816055654 -0.5952257130584084
4788000000.0 0.7988481127466466 -0.6501034962012037
4791000000.0 0.7706623238742616 -0.6561809138711119
4794000000.0 0.792055726879982 -0.6293530614658981
4797000000.0 0.7719324632029239 -0.6468866692606854
4800000000.0 0.7409831670075901 -0.656728619336076
4803000000.0 0.7340637124550338 -0.6676331572161945
4806000000.0 0.7900656983586605 -0.6597412614017817
4809000000.0 0.7657764223745978 -0.6525923962310624
4812000000.0 0.7450055051433586 -0.6440445604786542
4816000000.0 0.7815936422465841 -0.6180885560056912
4819000000.0 0.7932318118998197 -0.6378858962143754
4822000000.0 0.8290573868860651 -0.6609732906253418
4825000000.0 0.8002397192678491 -0.6281733375998639
4828000000.0 0.7749667043177676 -0.6457530717677165
4831000000.0 0.7574437067246472 -0.7007279514686693
4834000000.0 0.792219772640458 -0.6431564724133905
4838000000.0 0.7909152743780772 -0.6780978362511348
4841000000.0 0.7714849803308532 -0.6581638148976062
4844000000.0 0.7943671177642047 -0.6424806636633232
4847000000.0 0.7719317427991363 -0.6198782468056522
4850000000.0 0.7785422406454217 -0.6825259252409057
4853000000.0 0.7701734540832853 -0.6413810326579755
4856000000.0 0.772965823629711 -0.6203704224702211
4859000000.0 0.8020188195940539 -0.6841207785332649
4862000000.0 0.7695556888877053 -0.6200498660412517
4866000000.0 0.7921893552502031 -0.6691232295514531
4869000000.0 0.7562026863622051 -0.6552263576847883
4872000000.0 0.7631184779789749 -0.6883315263957512
4875000000.0 0.8284157322420609 -0.6494398100589556
4878000000.0 0.7606597011286562 -0.6735249925005407
4881000000.0 0.7975769596834003 -0.7036231821851701
4884000000.0 0.7812351859024964 -0.6417285661088955
4888000000.0 0.7839461523955782 -0.6367558208989645
4891000000.0 0.7951593056735267 -0.6319220168089226
4894000000.0 0.7735875250862945 -0.6732629299473193
4897000000.0 0.7844982797113567 -0.6542729799312157
4900000000.0 0.786002809396298 -0.6527534512346663
4903000000.0 0.8108653551776712 -0.6553485719331665
4906000000.0 0.8075489108116511 -0.6588888790808066
4909000000.0 0.7693818321587069 -0.6659683246849868
4912000000.0 0.7729965453529729 -0.6977325312329915
4916000000.0 0.7913453647610502 -0.6797367642422931
4919000000.0 0.8070353515777038 -0.7000971004719013
4922000000.0 0.7880306114087374 -0.6536628271587075
4925000000.0 0.7456539866452813 -0.6756946758782114
4928000000.0 0.8063621450670371 -0.6425800841863085
4931000000.0 0.812765143915448 -0.6440096174173566
4934000000.0 0.7601023759934298 -0.6313638836765216
4938000000.0 0.7541237913000005 -0.6602953536521666
4941000000.0 0.792812210398305 -0.6528158419382365
4944000000.0 0.7512542051466355 -0.6008596027135652
4947000000.0 0.7616493765217087 -0.6582572731487133
4950000000.0 0.7768232982311715 -0.6482646566815395
4953000000.0 0.7684161438467283 -0.6719527015802789
4956000000.0 0.7728218045756691 -0.6861555390691141
4959000000.0 0.7359215261084634 -0.6568629633167158
4962000000.0 0.7982053336509614 -0.6748224352454533
4966000000.0 0.8013162369060263 -0.6610251721191943
4969000000.0 0.8352813199005253 -0.6686010293070668
4972000000.0 0.8013959328287703 -0.6894823809485656
4975000000.0 0.7842453343457003 -0.6501556226120268
4978000000.0 0.7519904080343193 -0.6748357142834673
4981000000.0 0.7689552832569947 -0.6577441950385556
4984000000.0 0.763386934610773 -0.6348934765700782
4988000000.0 0.7820117009098861 -0.637527818504109
4991000000.0 0.8388859096457306 -0.6330235566818849
4994000000.0 0.7898746211109702 -0.6687196177792172
4997000000.0 0.79337562043695 -0.706172709974123
5000000000.0 0.8248028719008057 -0.6434422047293447
5003000000.0 0.833412339725936 -0.6780442366907037
5006000000.0 0.8291306485140687 -0.6838046722520562
5009000000.0 0.8020210138221021 -0.6496037468893003
5012000000.0 0.7796424892178226 -0.6656810006770848
5016000000.0 0.8407198384254696 -0.639643880385504
5019000000.0 0.7409372981299371 -0.6733617725840184
5022000000.0 0.789059573377833 -0.6836310201563812
5025000000.0 0.85335536595702 -0.69619060976235
5028000000.0 0.7845484242751517 -0.668998871452096
5031000000.0 0.788332632761121 -0.6594688284059994
5034000000.0 0.8019217755307683 -0.7062332945684069
5038000000.0 0.7451052682603972 -0.6532915759771177
5041000000.0 0.8120516681354475 -0.6108491826782948
5044000000.0 0.8021314759789461 -0.621050579813978
5047000000.0 0.8083145862684813 -0.6520108491869652
5050000000.0 0.8434341573879455 -0.5672276926818685
5053000000.0 0.8097675008745918 -0.7183521000000251
5056000000.0 0.8697981858605114 -0.615990250303224
5059000000.0 0.8171581619643943 -0.6022831019426379
5062000000.0 0.799204176681757 -0.707965735105558
5066000000.0 0.8043080320557925 -0.5970485810078392
5069000000.0 0.8390515951013626 -0.661011437596091
5072000000.0 0.7597176702315961 -0.646564495299832
5075000000.0 0.8645216974785785 -0.6266948231017363
5078000000.0 0.7711625811827745 -0.6729105392677688
5081000000.0 0.7622454339162379 -0.6488862558129558
5084000000.0 0.8484793406017556 -0.6730950007885693
5088000000.0 0.7871870323652173 -0.6410764320864628
5091000000.0 0.8148576402122822 -0.692519635673266
5094000000.0 0.7949813259021274 -0.6632756314010753
5097000000.0 0.8270620667354397 -0.6351578619002727
5100000000.0 0.7745409036331956 -0.6576774405236241
5103000000.0 0.8002784279613493 -0.677257689582962
5106000000.0 0.8725976772809199 -0.6570644549645807
5109000000.0 0.8489178537782692 -0.5921033817257109
5112000000.0 0.7904076484507797 -0.6742499292223911
5116000000.0 0.7937225460081504 -0.6486169814967955
5119000000.0 0.8493342627853684 -0.6454490225799395
5122000000.0 0.7947075566490558 -0.642705926605063
5125000000.0 0.8220416248291534 -0.6552880062647571
5128000000.0 0.753770431129773 -0.6696895967131551
5131000000.0 0.780390700380064 -0.606973732165228
5134000000.0 0.8175467038853808 -0.6867717991686012
5138000000.0 0.809678922680056 -0.6676102105653214
5141000000.0 0.8447173329600097 -0.6216199680654533
5144000000.0 0.8253280662729789 -0.6263946128984812
5147000000.0 0.8374162197378373 -0.6371172083831186
5150000000.0 0.8187805533977326 -0.6522035917599736
5153000000.0 0.7874133177329488 -0.6393312204525261
5156000000.0 0.7951591410592214 -0.6374281123675816
5159000000.0 0.8399100577950009 -0.6576056175856213
5162000000.0 0.7616944180458605 -0.672911523497862
5166000000.0 0.8129328281353619 -0.6929550441697196
5169000000.0 0.841282170613324 -0.6524316502559977
5172000000.0 0.8111969704463033 -0.6274269307140887
5175000000.0 0.8776265160088947 -0.6496566872502487
5178000000.0 0.7992858286382039 -0.6429731605152365
5181000000.0 0.8689204136700146 -0.6410113278764994
