! Created with skrf 1.8.0 (http://scikit-rf.org).
# Hz S RI R 50.0 
!freq ReS11 ImS11
4000000000.0 0.5282053232977846 -0.8512823997056865
4003000000.0 0.5838719302777877 -0.9122569398979055
4006000000.0 0.5056878779340089 -0.8511400231214592
4009000000.0000005 0.5718979645935224 -0.8783498721496661
4011999999.9999995 0.6243315678808251 -0.8599603086274359
4016000000.0 0.5304173866613687 -0.8870057776903109
4019000000.0 0.5463568553185478 -0.8836723896320805
4022000000.0000005 0.6113028925939555 -0.7978603276483726
4025000000.0000005 0.5186725255472668 -0.9030217282905424
4027999999.9999995 0.552779229463648 -0.8836778378695812
4030999999.9999995 0.5613704017326002 -0.8239679841861999
4034000000.0 0.5592499412373428 -0.8640486749878638
4038000000.0000005 0.5538360611368641 -0.8891990062505417
4041000000.0000005 0.5447356448362852 -0.885586451706237
4043999999.9999995 0.5551321346646734 -0.9036739924569412
4046999999.9999995 0.5859023104311482 -0.8716935001868842
4050000000.0 0.5437800919796205 -0.922484044351078
4053000000.0 0.5474739556899546 -0.8580280346649235
4056000000.0 0.5399843005765382 -0.8854897523512907
4059000000.0 0.5272688526395477 -0.852712656937499
4062000000.0000005 0.5224435016932439 -0.8719424163759719
4066000000.0 0.4762591584896827 -0.8017575986123981
4069000000.0 0.5807027238653459 -0.8905968832639687
4072000000.0 0.6038109945374289 -0.8474018727034025
4075000000.0 0.5702439911571214 -0.8594352249819222
4078000000.0000005 0.561792491770357 -0.878310799155296
4081000000.0000005 0.5996753960646883 -0.8601077985594516
4083999999.9999995 0.550432130857019 -0.8682116369677734
4088000000.0 0.5781712234484722 -0.8632582196746633
4091000000.0 0.6175342889911727 -0.914228504554092
4094000000.0000005 0.5499642822033711 -0.8740519927744419
4097000000.0000005 0.5462133864843397 -0.8807901683229105
4099999999.9999995 0.5646629990727909 -0.8755531104462126
4102999999.9999995 0.5639280438453392 -0.8459954099423947
4106000000.0 0.5452002320647089 -0.8868914108239404
4109000000.0 0.5496065637822348 -0.896011388371134
4112000000.0 0.5503049219461147 -0.8783992372797558
4115999999.9999995 0.5406650183444891 -0.8961591148211948
4119000000.0 0.5533485983221353 -0.8522859025146428
4122000000.0 0.5400290529239847 -0.8822569928247551
4125000000.0 0.5438856747111931 -0.9146483315977342
4128000000.0 0.5515571986140166 -0.8480249498254978
4131000000.0 0.5279387882650659 -0.8489026793371903
4134000000.0000005 0.5244591115749733 -0.8282251057192307
4138000000.0 0.5287841488473953 -0.8588795617485793
4141000000.0 0.570952631575515 -0.8383238604905591
4144000000.0 0.5539862142768118 -0.8350006637472529
4147000000.0000005 0.5418380481253658 -0.8685226125835297
4150000000.0000005 0.555055143399131 -0.8628008933409613
4152999999.9999995 0.5595148708149992 -0.8516143594420387
4155999999.9999995 0.5466795027849713 -0.8565746076304039
4159000000.0 0.5414900441801294 -0.8434659240341749
4162000000.0 0.5569211824757538 -0.8465267651125518
4166000000.0000005 0.5368473820299633 -0.8935952695944968
4168999999.9999995 0.5308680972516502 -0.8427923982525681
4171999999.9999995 0.5500665321136475 -0.8678827549220022
4175000000.0 0.5621682769444938 -0.8511861629826096
4178000000.0 0.5493692694221075 -0.8818422597020891
4181000000.0 0.5668718844287799 -0.8498707095410543
4184000000.0 0.5462871039862649 -0.8433410716685747
4187999999.9999995 0.5441726412171854 -0.8544184702737134
4191000000.0 0.5808760415730161 -0.8204839343477731
4194000000.0 0.5358448196024579 -0.8291523885932406
4197000000.0 0.5551032577925727 -0.8457105549294839
4200000000.0 0.5624809027199525 -0.8565095582610026
4203000000.0000005 0.5711773566143612 -0.8602205497788117
4206000000.0000005 0.557539276995702 -0.870054315202121
4208999999.9999995 0.5453880171239647 -0.8322383897041155
4211999999.9999995 0.5256432948153807 -0.8679682697014459
4216000000.0 0.574674554365119 -0.8441289412009092
4219000000.0000005 0.5626826517766946 -0.8575050558749686
4222000000.0000005 0.5343147988123927 -0.8687481908900062
4224999999.9999995 0.5669742580506969 -0.8305293048718927
4227999999.9999995 0.5667860866120091 -0.836309219451129
4231000000.0 0.5703436293348988 -0.8495810417842415
4234000000.0 0.5894239280032465 -0.865365747523808
4238000000.0000005 0.5481754814715557 -0.8577692155941974
4240999999.9999995 0.5461873693265614 -0.8615518305409812
4244000000.0 0.544347159794798 -0.841257128823329
4247000000.0 0.5545224709313723 -0.8634604479369034
4250000000.0 0.5134112028019846 -0.8445366425695546
4253000000.0 0.5397951892629762 -0.8204661405691581
4256000000.0 0.5483148596550531 -0.8570815995309152
4259000000.0000005 0.5226347755204558 -0.833467273780832
4261999999.9999995 0.5236128404249409 -0.8601677004200717
4266000000.0 0.5290797882698575 -0.8899806939495232
4269000000.0 0.5724156646128942 -0.8394033762502056
4272000000.0000005 0.5450589446053833 -0.8453861623741641
4275000000.0000005 0.5699829860458495 -0.8654956169293245
4277999999.9999995 0.5740785285631405 -0.8614407480227627
4280999999.9999995 0.5848726727340648 -0.8619690459973537
4284000000.0 0.52312556297376 -0.8663128747025729
4288000000.0000005 0.5562517996293859 -0.8204401025186486
4291000000.0000005 0.5521387916522112 -0.8124280996959992
4293999999.9999995 0.5346093375737238 -0.8334206537460391
4297000000.0 0.5374338150819711 -0.8339144824031058
4300000000.0 0.5461799608634957 -0.8432817925006524
4303000000.0 0.5384221988607863 -0.8459499368821084
4306000000.0 0.5905259084282207 -0.8344255671751087
4309000000.0 0.5524688833927136 -0.8304032150430827
4312000000.0 0.5733719476581003 -0.853029643907849
4316000000.0 0.5502308472863338 -0.8607834222902452
4319000000.0 0.5669502711381382 -0.8027875012091348
4322000000.0 0.5363059450009524 -0.8219698145242567
4325000000.0 0.5646829877372262 -0.8462665269177776
4328000000.0 0.5353391577008063 -0.8368711228417137
4331000000.0 0.5335762959214937 -0.8682217320116229
4334000000.0 0.5444741503363707 -0.8444520193320288
4338000000.0 0.5402406099530566 -0.8411180403380633
4341000000.0 0.5957756637125164 -0.8342542940286309
4344000000.0 0.5825997140117833 -0.875482274582028
4347000000.0 0.5390381902681891 -0.8616224272755129
4350000000.0 0.5071722166930426 -0.8212602128941674
4353000000.0 0.5679630801982836 -0.8280924755313402
4356000000.0 0.5294663341053327 -0.8563191641162148
4359000000.0 0.538340435003239 -0.7997300792683382
4362000000.0 0.5187445630180259 -0.8866117499757137
4366000000.0 0.540192171083609 -0.8594536975631769
4369000000.0 0.5295284768936334 -0.8455694192118673
4372000000.0 0.49336866312588745 -0.8538973037730327
4375000000.0 0.5605805784261488 -0.8221513893545936
4378000000.0 0.5340125343391147 -0.8207489083284276
4381000000.0 0.5423292214789676 -0.8197828924400725
4384000000.0 0.5665397792872919 -0.9038849341752414
4388000000.0 0.5519410832838504 -0.8269506334398089
4391000000.0 0.5523361732857196 -0.8595299283062987
4394000000.0 0.5207522912593099 -0.8320204883437695
4397000000.0 0.5388877488253628 -0.8461673371903438
4400000000.0 0.5472479085633417 -0.8660108389837025
4403000000.0 0.5428604051749818 -0.8605279346498237
4406000000.0 0.5267752966667578 -0.866732708050698
4409000000.0 0.5532565629730974 -0.8762183831071693
4412000000.0 0.4820239078442773 -0.8744339685488087
4416000000.0 0.5202084365557269 -0.8545470679638516
4419000000.0 0.5256390093807599 -0.8543085849701761
4422000000.0 0.5501628266537856 -0.8342457856949015
4425000000.0 0.5619652363580117 -0.8565081652090543
4428000000.0 0.5387246723446567 -0.8569099175918311
4431000000.0 0.5680787061630148 -0.8728923197173528
4434000000.0 0.5197922148791081 -0.8557944795145161
4438000000.0 0.5518206230979548 -0.8612732653883896
4441000000.0 0.5554791903226554 -0.847230732702688
4444000000.0 0.5384232111973293 -0.8358458594943511
4447000000.0 0.5180909175301472 -0.8519269161672092
4450000000.0 0.540177941805461 -0.8452458960002731
4453000000.0 0.5572262694683101 -0.8808681652763163
4456000000.0 0.513515728996971 -0.8369493666268488
4459000000.0 0.49510410293503204 -0.827152466545881
4462000000.0 0.5667787830599678 -0.8955286615266151
4466000000.0 0.556063662008108 -0.8965785727933333
4469000000.0 0.5569239519037861 -0.8450325598074228
4472000000.0 0.524023881376179 -0.8754218823870036
4475000000.0 0.5250622691764799 -0.833000501707668
4478000000.0 0.5514190779332229 -0.9077271652575345
4481000000.0 0.4869396975393488 -0.8345052516841995
4484000000.0 0.5027874552648364 -0.8892793647302446
4488000000.0 0.4983795975972733 -0.8421104512229125
4491000000.0 0.5219719917927591 -0.8826023444214203
4494000000.0 0.524171268806827 -0.8573122917795781
4497000000.0 0.5345013384532492 -0.8400282825312033
4500000000.0 0.5434018802796434 -0.8540071578234925
4503000000.0 0.5482419054270594 -0.8492985565758995
4506000000.0 0.5183288476164095 -0.8689188395973921
4509000000.0 0.5210954291186254 -0.8364620802719143
4512000000.0 0.4924612106706745 -0.8437168882406074
4516000000.0 0.5524251418410752 -0.8702171324059291
4519000000.0 0.5124994270258095 -0.827689161933577
4522000000.0 0.50624513058519 -0.8611426207022699
4525000000.0 0.5549906485102964 -0.8455817720003804
4528000000.0 0.5615394742448316 -0.8740946255827677
4531000000.0 0.5293144365447121 -0.8564047781133569
4534000000.0 0.5195120707713807 -0.8425467580521104
4538000000.0 0.5157077646917894 -0.8597180805358138
4541000000.0 0.4949704014814219 -0.8620731636026222
4544000000.0 0.5122519751402246 -0.8400997646255017
4547000000.0 0.5360080904337883 -0.8487953881525243
4550000000.0 0.4973379451834836 -0.8720924355577411
4553000000.0 0.5082453392524904 -0.8701229989835902
4556000000.0 0.49426457186964057 -0.8475392098602341
4559000000.0 0.5216208329065402 -0.8546394741411166
4562000000.0 0.5150753257574083 -0.875631337116378
4566000000.0 0.5210872357839618 -0.875390125492926
4569000000.0 0.5150432200797186 -0.8500025391432314
4572000000.0 0.5010289743593964 -0.8453047217923586
4575000000.0 0.5062080272109512 -0.8923465856888826
4578000000.0 0.5375806624402304 -0.8696038524152725
4581000000.0 0.5136276644313564 -0.877041449400858
4584000000.0 0.5068309699950063 -0.8720091972946937
4588000000.0 0.535938361411479 -0.8579517443820099
4591000000.0 0.5028554683415015 -0.844875422536916
4594000000.0 0.49997855295976157 -0.8739680430461324
4597000000.0 0.5073695966160443 -0.861301626842576
4600000000.0 0.48461006055624745 -0.8811009785677405
4603000000.0 0.5040415490757151 -0.8885352510897594
4606000000.0 0.5111565695237319 -0.8660760513687277
4609000000.0 0.5053666253425394 -0.8660004101620741
4612000000.0 0.5125626401032888 -0.8764649846594376
4616000000.0 0.49266971822197214 -0.8588972726800594
4619000000.0 0.5105103587840326 -0.8708667053764061
4622000000.0 0.5045878841903617 -0.8569436329125666
4625000000.0 0.48358678599672345 -0.8570817680527509
4628000000.0 0.501137091150852 -0.8591897551272251
4631000000.0 0.49833801538681427 -0.8812359902332921
4634000000.0 0.49320356599429455 -0.8499441386467154
4638000000.0 0.5056012257740368 -0.8758893406795778
4641000000.0 0.51880280143465 -0.8730081973722645
4644000000.0 0.48982881135717427 -0.8700509879643417
4647000000.0 0.5052356538168241 -0.8776348119692148
4650000000.0 0.48063974156814604 -0.8656330738860527
4653000000.0 0.5087402363832892 -0.8751265776334745
4656000000.0 0.49134625545027977 -0.8768254323170857
4659000000.0 0.5146601618062141 -0.8670448488608203
4662000000.0 0.5114451588927685 -0.8752406387369496
4666000000.0 0.4985465809682945 -0.8632822630383337
4669000000.0 0.5027705188291456 -0.8675006176453101
4672000000.0 0.48770764599329125 -0.8836731873767515
4675000000.0 0.4798913580851565 -0.8886402489541007
4678000000.0 0.4810880441607511 -0.8621051930124536
4681000000.0 0.48862585458257857 -0.883747712811177
4684000000.0 0.4761664494775848 -0.9016739034510709
4688000000.0 0.48142361489084157 -0.8672379252731027
4691000000.0 0.5333864830920828 -0.8929553069370787
4694000000.0 0.5182512753820854 -0.8647913580855665
4697000000.0 0.45178242093626214 -0.8589277185735446
4700000000.0 0.5304569237270926 -0.8697292875837807
4703000000.0 0.5164359181715106 -0.8438527298096744
4706000000.0 0.4827768428212107 -0.8983853437138178
4709000000.0 0.4992703979489145 -0.8674442931824037
4712000000.0 0.5043300471509081 -0.8835853303098806
4716000000.0 0.4888389278985964 -0.8794409256237191
4719000000.0 0.5256734683410063 -0.8774804024488934
4722000000.0 0.5450176183688693 -0.8991268477008934
4725000000.0 0.5081769913618407 -0.8795385455381229
4728000000.0 0.47830426692189476 -0.8713916274209098
4731000000.0 0.5151439951963388 -0.896676959873484
4734000000.0 0.494726849215587 -0.8715303445540925
4738000000.0 0.5298001787981258 -0.9152218180562494
4741000000.0 0.5480999436479721 -0.8843496434772384
4744000000.0 0.49534613816572515 -0.8712456094953593
4747000000.0 0.49553903270440547 -0.8401656555517881
4750000000.0 0.5195559681698946 -0.8848131934624115
4753000000.0 0.5233018767385456 -0.8825023508033949
4756000000.0 0.4522799668508355 -0.8959534008485704
4759000000.0 0.5105192041848325 -0.8693531947363736
4762000000.0 0.48139584023347587 -0.8818043190791693
4766000000.0 0.4911043154569784 -0.8781409764310405
4769000000.0 0.4849996939038781 -0.8996797770120577
4772000000.0 0.5375550783080607 -0.909718228510525
4775000000.0 0.5092666626626575 -0.9616370695366644
4778000000.0 0.4838142586237436 -0.88676843750243
4781000000.0 0.524557807925297 -0.8615224817504775
4784000000.0 0.507002424427914 -0.8531081588676075
4788000000.0 0.4782091660390756 -0.9024427369050079
4791000000.0 0.4941148224442916 -0.8788068376434597
4794000000.0 0.541679811598612 -0.8884759727060375
4797000000.0 0.5019678357345956 -0.8625776872093912
4800000000.0 0.47527585971733916 -0.87901343193559
4803000000.0 0.46716736910653556 -0.8978763545818301
4806000000.0 0.4773307149697371 -0.9131949724978841
4809000000.0 0.4878114385718526 -0.904042484754937
4812000000.0 0.47264997733450514 -0.892426013447182
4816000000.0 0.5009244014105092 -0.8637750938174873
4819000000.0 0.5398247351494232 -0.885309212712125
4822000000.0 0.5240182577837975 -0.9253823815746123
4825000000.0 0.550013035914666 -0.8883513306573756
4828000000.0 0.5053118701174073 -0.8918350605987917
4831000000.0 0.47108563784622925 -0.9381996886835212
4834000000.0 0.5104856287123589 -0.8849050196632181
4838000000.0 0.49458512177771513 -0.9044945743069159
4841000000.0 0.4860179530437766 -0.9040790523248223
4844000000.0 0.5260378610261556 -0.8710222000328979
4847000000.0 0.507421081523936 -0.848148495172514
4850000000.0 0.5077263264896124 -0.9232016628446377
4853000000.0 0.4989366106076588 -0.8890567257373098
4856000000.0 0.49052495418242786 -0.8874870800785678
4859000000.0 0.4963506881135815 -0.922377705172848
4862000000.0 0.5104667603052263 -0.8592400581017378
4866000000.0 0.48585149070158984 -0.9090396428292938
4869000000.0 0.4970437083045252 -0.8842113099000317
4872000000.0 0.4860228904692798 -0.8992866993569981
4875000000.0 0.5650264492975052 -0.8955852247515314
4878000000.0 0.5309574270226287 -0.8802804575163263
4881000000.0 0.49506083010081 -0.9567236961846587
4884000000.0 0.5197963946678834 -0.9043593582507738
4888000000.0 0.5262954019794741 -0.8863880988862622
4891000000.0 0.5390776668049515 -0.9082477507276844
4894000000.0 0.49790334958176263 -0.887428252635633
4897000000.0 0.5339631168122115 -0.8723809673929196
4900000000.0 0.5037250809049252 -0.8883804509877782
4903000000.0 0.5492487970813384 -0.8935045908058148
4906000000.0 0.5400153903636206 -0.896284970378569
4909000000.0 0.5020506388730958 -0.8927852454861664
4912000000.0 0.5293825350133228 -0.9404857745177344
4916000000.0 0.5196223618514744 -0.9358519794522019
4919000000.0 0.5621107985919942 -0.9036329555910596
4922000000.0 0.5378385987025991 -0.9008807655871013
4925000000.0 0.48362312203053676 -0.9137912462444647
4928000000.0 0.5642493915271759 -0.8434445344918867
4931000000.0 0.5514832241267544 -0.886035007431305
4934000000.0 0.4821863066392209 -0.8461721149245278
4938000000.0 0.47700911597976914 -0.8738148929977413
4941000000.0 0.4774668160491584 -0.827461455470519
4944000000.0 0.5209931620803119 -0.8377136185360696
4947000000.0 0.4942686711735309 -0.8777257241191226
4950000000.0 0.527407294667976 -0.8842495560988427
4953000000.0 0.5166047739922701 -0.9419139673062449
4956000000.0 0.4834059119591691 -0.9280887353328429
4959000000.0 0.4752976835611166 -0.8798157371927848
4962000000.0 0.5200413213449698 -0.8833516472907667
4966000000.0 0.5307673402120852 -0.900496765848089
4969000000.0 0.5622064544297919 -0.918971806722479
4972000000.0 0.5170710002267667 -0.8771121047208316
4975000000.0 0.5202078672383448 -0.8746146072960509
4978000000.0 0.4892679080545167 -0.8876810963490145
4981000000.0 0.5278928171235109 -0.9219953572228063
4984000000.0 0.5057017157478746 -0.8800805699813042
4988000000.0 0.5517061210350356 -0.8700099131506622
4991000000.0 0.5707514251676737 -0.9191030589479015
4994000000.0 0.5088779161869025 -0.8846875396986771
4997000000.0 0.49183465111769753 -0.9351207433066082
5000000000.0 0.5659924087208416 -0.9110717256605603
5003000000.0 0.5339161766150176 -0.9307041667966642
5006000000.0 0.5411765363437088 -0.9333649207009539
5009000000.0 0.49832728093570633 -0.8852287113567507
5012000000.0 0.529070916830071 -0.9042943899196293
5016000000.0 0.5537438144181864 -0.9076072641604669
5019000000.0 0.5076929449485608 -0.8971508042684607
5022000000.0 0.5250981274775889 -0.8978634502201341
5025000000.0 0.5207991208732228 -0.9510895102404747
5028000000.0 0.5134177148510983 -0.910610696831016
5031000000.0 0.5331127667783121 -0.9028239574134802
5034000000.0 0.5200615333032949 -0.9151052768277839
5038000000.0 0.4755941067782925 -0.8657267260331956
5041000000.0 0.5700066913220185 -0.8771155605572659
5044000000.0 0.5354625063652696 -0.8586944551141418
5047000000.0 0.5298678617525955 -0.8938833865343051
5050000000.0 0.5854652691961267 -0.8332995018484962
5053000000.0 0.5671723258472293 -0.9392206067411786
5056000000.0 0.5896301499210619 -0.8794458685072186
5059000000.0 0.5727308365348569 -0.8327536691426194
5062000000.0 0.5366269136625534 -0.9143430939835686
5066000000.0 0.556501235299334 -0.8634774181189728
5069000000.0 0.5432065350571222 -0.8754985271325879
5072000000.0 0.5115933584059529 -0.8654072982178698
5075000000.0 0.5564785533553488 -0.8718247527624834
5078000000.0 0.4980032876989717 -0.9221357793053122
5081000000.0 0.49885040331882335 -0.8612381136701384
5084000000.0 0.5382179435032397 -0.8618640988997125
5088000000.0 0.5668035097840596 -0.8684161431791102
5091000000.0 0.5003494149275481 -0.8857711797383179
5094000000.0 0.5508024945607983 -0.9037406857448549
5097000000.0 0.5787263594528691 -0.8335791997398958
5100000000.0 0.49375734966330315 -0.8888079904585862
5103000000.0 0.5205191502189086 -0.9205267751289488
5106000000.0 0.6107184678960443 -0.8790980867761657
5109000000.0 0.5941478097417205 -0.8658582694662614
5112000000.0 0.556142363658187 -0.868092719417012
5116000000.0 0.4889962066260197 -0.8900108635817837
5119000000.0 0.591727018782662 -0.9304605367373537
5122000000.0 0.5153543599593418 -0.8952630898308107
5125000000.0 0.5632494304767118 -0.845812422213595
5128000000.0 0.5218555109582665 -0.8997785615754242
5131000000.0 0.5664032913410247 -0.8371192528228644
5134000000.0 0.4920790675527174 -0.8901400798480421
5138000000.0 0.5567599127784753 -0.8610353546625353
5141000000.0 0.5610496708719261 -0.8523569668734593
5144000000.0 0.5792684090548584 -0.8980253506018949
5147000000.0 0.5707837488460684 -0.92327676313169
5150000000.0 0.5834183482192697 -0.8774779494434506
5153000000.0 0.5909043861749237 -0.9015266885141043
5156000000.0 0.5654360478074546 -0.8372885233579495
5159000000.0 0.629281281716606 -0.9288708817074984
5162000000.0 0.5317984067561574 -0.9227637261287593
5166000000.0 0.5484660571680592 -0.9180957727078887
5169000000.0 0.5687269156695975 -0.9134286692131837
5172000000.0 0.5787865328317132 -0.827888909520973
5175000000.0 0.5629753723705296 -0.8972553778536057
5178000000.0 0.5563228760223174 -0.8896855435595085
