! Created with skrf 1.8.0 (http://scikit-rf.org).
# Hz S RI R 50.0 
!freq ReS11 ImS11
4000000000.0 0.570716578464913 -0.8542124088635685
4003000000.0 0.5711873307014783 -0.9136687369519294
4006000000.0 0.499646364297469 -0.9262260946212122
4009000000.0000005 0.5252538517236831 -0.8686582158650031
4011999999.9999995 0.5799521264543424 -0.88786956240755
4016000000.0 0.5147171509304396 -0.9110775233203617
4019000000.0 0.5757770120717982 -0.878537348766401
4022000000.0000005 0.6031595513650346 -0.8744508556907877
4025000000.0000005 0.48538947310286334 -0.9338620847687825
4027999999.9999995 0.5502722892231493 -0.8870797920718457
4030999999.9999995 0.5396058501661974 -0.8355668804545744
4034000000.0 0.5067245760686792 -0.8678607756084444
4038000000.0000005 0.5370047781315296 -0.8853159907351876
4041000000.0000005 0.5661947505954334 -0.8599624795261783
4043999999.9999995 0.5674511284064678 -0.9087175943637866
4046999999.9999995 0.5648045031161438 -0.864331522783714
4050000000.0 0.5798117974348773 -0.9416754557889853
4053000000.0 0.5210666389722873 -0.8694146917109322
4056000000.0 0.5137506666255808 -0.8587866296460179
4059000000.0 0.545703461062403 -0.857319114449961
4062000000.0000005 0.48254519190593087 -0.8937921397134588
4066000000.0 0.5063176640171165 -0.8513502611795163
4069000000.0 0.5211892603758819 -0.940520239208988
4072000000.0 0.612239725716289 -0.8867828474436037
4075000000.0 0.6402768909019614 -0.9109533265275824
4078000000.0000005 0.5497081655719008 -0.9049405182891808
4081000000.0000005 0.5706353291920416 -0.8900532682197565
4083999999.9999995 0.534308940485999 -0.8873594421835465
4088000000.0 0.589414372059372 -0.8548637610589246
4091000000.0 0.5644622866051417 -0.9153437615972031
4094000000.0000005 0.5335420391771423 -0.8739442578451153
4097000000.0000005 0.5739371144516374 -0.8902823675210624
4099999999.9999995 0.548332460397891 -0.8718020205099032
4102999999.9999995 0.5559873873658402 -0.8853520126585731
4106000000.0 0.5514984603920451 -0.8998257056825885
4109000000.0 0.5429241486333879 -0.8825066609349917
4112000000.0 0.5170762600277565 -0.8669342327713191
4115999999.9999995 0.5665834048288195 -0.8525365464186409
4119000000.0 0.49346576576821327 -0.8850722716059389
4122000000.0 0.5621673096865913 -0.9169514619183571
4125000000.0 0.5637849732516416 -0.8991392551420364
4128000000.0 0.5560249835130657 -0.8435028620162685
4131000000.0 0.5375725703293469 -0.9090164445462472
4134000000.0000005 0.5461824035955039 -0.8902252669634916
4138000000.0 0.515044567119681 -0.8605827099245604
4141000000.0 0.5444058562998499 -0.8673562450746289
4144000000.0 0.5474525109930082 -0.8551560869731614
4147000000.0000005 0.5414449367034428 -0.8814999022068588
4150000000.0000005 0.5351697199923094 -0.8734555819475125
4152999999.9999995 0.5606436298469312 -0.8597806916095355
4155999999.9999995 0.5896175101942857 -0.9003803168628921
4159000000.0 0.5562445711587805 -0.8287598082085813
4162000000.0 0.5725770396507647 -0.8496925346688372
4166000000.0000005 0.5402261932525224 -0.8976711374006976
4168999999.9999995 0.533540862075704 -0.8576777924325286
4171999999.9999995 0.5444512332625786 -0.885394173494566
4175000000.0 0.5295338193907562 -0.860172945508572
4178000000.0 0.5456555540688389 -0.8790431485519145
4181000000.0 0.5391755110737484 -0.8571699142954832
4184000000.0 0.5595948438211809 -0.8714579600246735
4187999999.9999995 0.5570686310323777 -0.883370310427416
4191000000.0 0.5777105478356066 -0.8350833969279335
4194000000.0 0.5506471341267907 -0.8577306262316882
4197000000.0 0.5559353176623413 -0.868321197847029
4200000000.0 0.5451077941391644 -0.8616642447278752
4203000000.0000005 0.57396798764333 -0.8595330381325692
4206000000.0000005 0.5758517117508696 -0.8913285099695205
4208999999.9999995 0.5442852517922934 -0.8502898118720483
4211999999.9999995 0.5204896256226398 -0.8861853202189938
4216000000.0 0.5534337186434451 -0.8383451389194361
4219000000.0000005 0.5728211881955706 -0.8640372691343673
4222000000.0000005 0.5441907281853278 -0.8608404075652965
4224999999.9999995 0.5427074124379814 -0.8445494703996695
4227999999.9999995 0.5547553308642524 -0.8730632301319949
4231000000.0 0.5522893573031451 -0.8633817211370799
4234000000.0 0.5721704896369898 -0.876338931984294
4238000000.0000005 0.5365179923815255 -0.8653474743941942
4240999999.9999995 0.5391069632542834 -0.8695845789388644
4244000000.0 0.5474060374012527 -0.8541797508885337
4247000000.0 0.5604384493521217 -0.8817067445813296
4250000000.0 0.535563221355303 -0.8616393963045018
4253000000.0 0.5212005734774493 -0.8391634346211527
4256000000.0 0.5601570980403789 -0.8774722192408202
4259000000.0000005 0.5136178760761807 -0.8439634272159152
4261999999.9999995 0.53038356718917 -0.8683852534115979
4266000000.0 0.5368238268789512 -0.88530552462817
4269000000.0 0.546132882803013 -0.8543075486369389
4272000000.0000005 0.5473313361734603 -0.8580698587501848
4275000000.0000005 0.5538950502354512 -0.8673909834535105
4277999999.9999995 0.5693299939679122 -0.8994325843505889
4280999999.9999995 0.5781546738083254 -0.8608504718592684
4284000000.0 0.519907565813208 -0.8979525346873393
4288000000.0000005 0.5588956003428418 -0.8431671408439045
4291000000.0000005 0.5350138150045942 -0.8504868620828264
4293999999.9999995 0.5326513902236629 -0.8469289124744318
4297000000.0 0.553694933711279 -0.831939019181021
4300000000.0 0.5356928440132428 -0.8537161234060658
4303000000.0 0.5201920455446365 -0.8362570276959829
4306000000.0 0.5637566687095192 -0.8334209669592788
4309000000.0 0.5493800363290421 -0.874279601555835
4312000000.0 0.58247804268471 -0.8585827036758032
4316000000.0 0.5744931466360015 -0.8501017817407436
4319000000.0 0.5455982706229133 -0.8354177528957347
4322000000.0 0.52024188483228 -0.8382904052726952
4325000000.0 0.5486962634937544 -0.8408333474810421
4328000000.0 0.528791608593876 -0.8601402056825642
4331000000.0 0.5132952756553051 -0.8770641226195391
4334000000.0 0.5488196823263827 -0.8525717173721203
4338000000.0 0.5704370754506183 -0.8453040778634715
4341000000.0 0.5797507422577799 -0.8603053211799394
4344000000.0 0.5600635410108352 -0.8558568340593601
4347000000.0 0.543811955975727 -0.885032028591198
4350000000.0 0.5216497007096655 -0.8280058574770999
4353000000.0 0.5364523965208411 -0.7968586076290683
4356000000.0 0.5165012335099208 -0.863666418217258
4359000000.0 0.5370192132649737 -0.8135597355704325
4362000000.0 0.48747276955334073 -0.905976342187166
4366000000.0 0.5414302872227564 -0.8788236497494633
4369000000.0 0.5272535429345211 -0.8322272819801593
4372000000.0 0.4998897932620792 -0.8673066359812877
4375000000.0 0.5460433294529234 -0.8535144811481358
4378000000.0 0.5342705397584233 -0.8220949256938307
4381000000.0 0.5524665052342878 -0.8427153473311196
4384000000.0 0.5517091010285191 -0.9147871029458385
4388000000.0 0.5422273285041249 -0.8428955975743856
4391000000.0 0.5439611391092667 -0.8552939688161469
4394000000.0 0.5282291885086294 -0.8424050640002669
4397000000.0 0.5323775254585581 -0.8550193009451218
4400000000.0 0.5600009083110742 -0.8737641678476064
4403000000.0 0.5528409519237751 -0.8600934876840608
4406000000.0 0.5159487551030176 -0.874722818159074
4409000000.0 0.5451473429561877 -0.8846521956764861
4412000000.0 0.471942989080654 -0.8783130510317112
4416000000.0 0.5225187675848487 -0.8608397979702129
4419000000.0 0.5166290380178418 -0.874627945848959
4422000000.0 0.5371478251889336 -0.840606346997246
4425000000.0 0.5714090034334041 -0.8681277429281897
4428000000.0 0.5141978787674994 -0.8611304944415337
4431000000.0 0.5502920744923672 -0.8610673011078344
4434000000.0 0.5267335129521198 -0.8649042294133302
4438000000.0 0.5533735495610921 -0.881720021509474
4441000000.0 0.5577611660087571 -0.8764084762291987
4444000000.0 0.520279391676637 -0.8455129155650501
4447000000.0 0.5127824299175188 -0.872097360836529
4450000000.0 0.5258331795346556 -0.8581833964973378
4453000000.0 0.5277806006463012 -0.8872976858805414
4456000000.0 0.5169468435170348 -0.842574503215225
4459000000.0 0.506156982204676 -0.8262938678510613
4462000000.0 0.5577511911610311 -0.9023572413599079
4466000000.0 0.5349192248199146 -0.9007851148338517
4469000000.0 0.56034278344972 -0.8440640056006972
4472000000.0 0.5156812921884026 -0.8874142258322855
4475000000.0 0.5201792129098372 -0.8403001537607219
4478000000.0 0.5374003186359207 -0.9219880838070635
4481000000.0 0.49255994045793805 -0.8377042171804254
4484000000.0 0.47482436923607085 -0.8893751998915445
4488000000.0 0.5151793866786714 -0.8613352949084923
4491000000.0 0.5179574570496792 -0.8689848100825117
4494000000.0 0.508531654282504 -0.8517410588620569
4497000000.0 0.5414456766561 -0.8618095821447735
4500000000.0 0.5413615092505879 -0.8495632302074776
4503000000.0 0.5530601308843976 -0.8839602946244207
4506000000.0 0.5104822661778091 -0.8472186154593002
4509000000.0 0.5114601776095021 -0.8583788947636704
4512000000.0 0.5137769261307061 -0.8600320686197652
4516000000.0 0.5272842323968627 -0.8643636155607941
4519000000.0 0.5202699989761392 -0.8520933888787707
4522000000.0 0.5095653345942183 -0.8740239308949027
4525000000.0 0.5414792864910055 -0.8320379855529854
4528000000.0 0.5226161226308138 -0.8898414288091973
4531000000.0 0.5252415493992417 -0.8646374668912509
4534000000.0 0.49745929168192 -0.8563494745806859
4538000000.0 0.5235309630617587 -0.8875916573825308
4541000000.0 0.47970828469193216 -0.8846755139015297
4544000000.0 0.49954050611308815 -0.8639100992019442
4547000000.0 0.5329530490489738 -0.8551794227895066
4550000000.0 0.5021787475745096 -0.8888868262964682
4553000000.0 0.5300848533756021 -0.8827792123980744
4556000000.0 0.4817921119100774 -0.8678368309019502
4559000000.0 0.5090912801133427 -0.8893923355040356
4562000000.0 0.5271531520737169 -0.8746979443416358
4566000000.0 0.5076297072249502 -0.8903076947157662
4569000000.0 0.5042171378374523 -0.8686820328558351
4572000000.0 0.5064742137776022 -0.8691229902791813
4575000000.0 0.49199346930998966 -0.8862320262068974
4578000000.0 0.5419626603925127 -0.8713002520167568
4581000000.0 0.49933509697424483 -0.8862824109390248
4584000000.0 0.5057774612508579 -0.8677327596489581
4588000000.0 0.538359110001228 -0.8914370840013126
4591000000.0 0.516600486011835 -0.8574479376205151
4594000000.0 0.5019466547152228 -0.8806384038080014
4597000000.0 0.5189980526299737 -0.8841868678628519
4600000000.0 0.484028358552859 -0.8787486290733793
4603000000.0 0.4831107923669329 -0.8829580954153743
4606000000.0 0.5136878560014567 -0.8847799710887034
4609000000.0 0.5059326881802384 -0.8851693609782436
4612000000.0 0.5024373402488684 -0.8812300562449293
4616000000.0 0.49739003451998487 -0.8676286887522991
4619000000.0 0.5177367228085916 -0.8709209799273527
4622000000.0 0.4898269980299693 -0.872913864181176
4625000000.0 0.46889641402936466 -0.8499085083203357
4628000000.0 0.519408608467374 -0.8739386274151639
4631000000.0 0.4788032235133248 -0.8737623979266674
4634000000.0 0.5069523231755411 -0.8662147631708577
4638000000.0 0.5022505639312813 -0.8961944507877296
4641000000.0 0.4998776655208497 -0.8753103007033884
4644000000.0 0.5058803916999661 -0.876546051979661
4647000000.0 0.5072875906727724 -0.8801717860645435
4650000000.0 0.4881654209135153 -0.8810511082687328
4653000000.0 0.5082231133745867 -0.8878336126721934
4656000000.0 0.48837512590401844 -0.8839597742524448
4659000000.0 0.48472794055616664 -0.8963016714706259
4662000000.0 0.4964911091965223 -0.8781897000545489
4666000000.0 0.4838802612989267 -0.8797617024489344
4669000000.0 0.5054691600928388 -0.8926623726991763
4672000000.0 0.4935072491001483 -0.8993030002943257
4675000000.0 0.46751757509588426 -0.8877020035287373
4678000000.0 0.5084227530596845 -0.8608981846987096
4681000000.0 0.49924876975177124 -0.9081945354074024
4684000000.0 0.46959746504314276 -0.8899086291150402
4688000000.0 0.4786007385780904 -0.8875376370811335
4691000000.0 0.5224052321568816 -0.8928375249459348
4694000000.0 0.4891551187943566 -0.8762468722012369
4697000000.0 0.46499420543014397 -0.8627972968772201
4700000000.0 0.5039973754080901 -0.880721211535175
4703000000.0 0.5001616983751862 -0.8294623741790271
4706000000.0 0.4752035199460311 -0.896766094678873
4709000000.0 0.4756158933068811 -0.890039351741712
4712000000.0 0.506282197534562 -0.8943192961908535
4716000000.0 0.5091934845549351 -0.8849534548573824
4719000000.0 0.5182947936851313 -0.9012033385493551
4722000000.0 0.5278523332997487 -0.8822992705303668
4725000000.0 0.5020788355138247 -0.8829897409005902
4728000000.0 0.49088738660477976 -0.8932157526624591
4731000000.0 0.532702638416231 -0.9056902835898851
4734000000.0 0.4956822784673443 -0.8553689523759708
4738000000.0 0.513466532060365 -0.9129434248836523
4741000000.0 0.5192423239070605 -0.9089851117027179
4744000000.0 0.49987792530596165 -0.915130357522423
4747000000.0 0.4992373493390414 -0.8794568644679552
4750000000.0 0.49910605271240643 -0.882838528558645
4753000000.0 0.498714937310346 -0.8876376715763731
4756000000.0 0.4976644297536803 -0.8940053015748817
4759000000.0 0.5052095370319959 -0.888335227083939
4762000000.0 0.48619121711934293 -0.9234817785082712
4766000000.0 0.47480443325604577 -0.9154942226601974
4769000000.0 0.5261240909283091 -0.9168085637823156
4772000000.0 0.4954100937702379 -0.8874424856388303
4775000000.0 0.4977635311849769 -0.9708047402497556
4778000000.0 0.47630715371587484 -0.9165393848404173
4781000000.0 0.5009909397847496 -0.8811255845940552
4784000000.0 0.5142606656938622 -0.8884026364928014
4788000000.0 0.49208162513629494 -0.9314177110844385
4791000000.0 0.4785779101456139 -0.879674832203835
4794000000.0 0.5515525018191059 -0.9296230163485895
4797000000.0 0.49966931082833216 -0.8999206303706613
4800000000.0 0.4741309776161272 -0.8816042885545788
4803000000.0 0.4740788939138582 -0.8871012416562989
4806000000.0 0.4914824846333279 -0.9186143311654781
4809000000.0 0.44965611258434757 -0.8902137127335608
4812000000.0 0.45583660208306787 -0.9322681503782358
4816000000.0 0.4950770595435749 -0.8628453588192151
4819000000.0 0.5219844351827946 -0.9110279465245016
4822000000.0 0.5200179908848283 -0.945112044691208
4825000000.0 0.533518688490856 -0.8970832864342968
4828000000.0 0.4978911144568111 -0.8800311888667474
4831000000.0 0.47053789900560805 -0.9189058840541775
4834000000.0 0.5042163273244971 -0.8929563724435159
4838000000.0 0.5115496898152375 -0.912006739995282
4841000000.0 0.48393289633287306 -0.9044987247713379
4844000000.0 0.5284268539293645 -0.9014259528065457
4847000000.0 0.49509450047124626 -0.8602781271867848
4850000000.0 0.49300034030996565 -0.9099541023733307
4853000000.0 0.498323741972838 -0.8872699251318422
4856000000.0 0.4842388744909501 -0.8969074902315244
4859000000.0 0.5163690052746321 -0.9340910278014056
4862000000.0 0.5047798629392088 -0.868828112822572
4866000000.0 0.4818751084970095 -0.9194423515328418
4869000000.0 0.48885845974380426 -0.9184329127450314
4872000000.0 0.4707115325116797 -0.9289894207477859
4875000000.0 0.5365242875935214 -0.9210207207483094
4878000000.0 0.5002095082843063 -0.9241065915766407
4881000000.0 0.502959416799186 -0.9725785134567434
4884000000.0 0.5104296582500274 -0.9086610325496582
4888000000.0 0.5194986572914686 -0.8775962849495125
4891000000.0 0.5180316345918488 -0.9102007658604433
4894000000.0 0.4840183972242723 -0.9050731451960672
4897000000.0 0.5074903905890186 -0.8964491538424488
4900000000.0 0.5148365633186566 -0.911332269062562
4903000000.0 0.5438975077433044 -0.9249051407161991
4906000000.0 0.495246181320773 -0.9285521931613283
4909000000.0 0.4798923569961519 -0.9062965788872062
4912000000.0 0.5368784818328954 -0.9518699226735747
4916000000.0 0.5320844322235306 -0.897573501619048
4919000000.0 0.552197985689522 -0.9550251365442215
4922000000.0 0.5536155526151957 -0.9052700456876186
4925000000.0 0.47510647150242247 -0.9134609541194582
4928000000.0 0.5364374962228871 -0.8583853794228108
4931000000.0 0.5213264770287198 -0.901578215192998
4934000000.0 0.46861261656949005 -0.8706826427232609
4938000000.0 0.4539601213686415 -0.918649748421651
4941000000.0 0.5073258678345604 -0.8894347940212395
4944000000.0 0.49066243963191264 -0.8474518483064148
4947000000.0 0.4642179087060942 -0.867834317016083
4950000000.0 0.47799497292349247 -0.8644334809724479
4953000000.0 0.4856668204476561 -0.950194675846968
4956000000.0 0.4799050890458134 -0.8602832457178493
4959000000.0 0.4604539310220832 -0.8856728988581497
4962000000.0 0.5179088637815235 -0.9676049819336391
4966000000.0 0.5535371223588734 -0.9155181615170531
4969000000.0 0.529335790390528 -0.9217574756699379
4972000000.0 0.5077809994414987 -0.9199374129849011
4975000000.0 0.5123001668364124 -0.8659246104677734
4978000000.0 0.4943597858875525 -0.9089259540125871
4981000000.0 0.4899138572128543 -0.9043531577369913
4984000000.0 0.5095696273235418 -0.865959130661147
4988000000.0 0.5257357119375888 -0.8828421745934842
4991000000.0 0.5718297668852594 -0.9197373854384254
4994000000.0 0.5051452713732012 -0.8977718287865102
4997000000.0 0.5074107027301844 -0.9253833320092546
5000000000.0 0.532555087811017 -0.9190213339612325
5003000000.0 0.5351552557467981 -0.9428270518452007
5006000000.0 0.5538067702387948 -0.9208834672844862
5009000000.0 0.5447764066046269 -0.8833694320999198
5012000000.0 0.5138434594289204 -0.9252879025570593
5016000000.0 0.5803311204148871 -0.9332002164540658
5019000000.0 0.5050829050230855 -0.9019090529677821
5022000000.0 0.5215773597016485 -0.9129902619182999
5025000000.0 0.5774148081148763 -0.9528074751201178
5028000000.0 0.5065675738299863 -0.9060287290261727
5031000000.0 0.5117054876269855 -0.9038954884772576
5034000000.0 0.4919623032223892 -0.9411553958644034
5038000000.0 0.4834374534747437 -0.8888477992906332
5041000000.0 0.5174898762246107 -0.8730831980222042
5044000000.0 0.54823995861473 -0.8509258568555844
5047000000.0 0.5440253904067178 -0.8868815776579624
5050000000.0 0.5581811127490394 -0.8185824169616136
5053000000.0 0.5325285715037015 -0.935990321494704
5056000000.0 0.5475994488804815 -0.870008710437491
5059000000.0 0.5889815746191265 -0.8806555571059175
5062000000.0 0.5025563582339838 -0.943277954569421
5066000000.0 0.5090835733605235 -0.8373883491791807
5069000000.0 0.5303155810964053 -0.8831223580590115
5072000000.0 0.5179828743386679 -0.887773484216126
5075000000.0 0.5420371729613628 -0.8816238704546457
5078000000.0 0.4912405731512199 -0.9231399388528261
5081000000.0 0.49115834380199497 -0.8738375629922371
5084000000.0 0.5324539025365314 -0.8897134947998232
5088000000.0 0.5340643229761585 -0.8594485277080486
5091000000.0 0.4873510713616949 -0.9421292909827406
5094000000.0 0.557232949822456 -0.9092210019272768
5097000000.0 0.522542444878171 -0.8887951014890686
5100000000.0 0.4793435359030599 -0.9008372690323252
5103000000.0 0.5047837154778478 -0.9270910174389682
5106000000.0 0.5928928922411644 -0.8903460656860798
5109000000.0 0.5511786424414289 -0.8841358646844868
5112000000.0 0.5371592627919761 -0.8778849927540913
5116000000.0 0.5448339692968684 -0.8616047436639558
5119000000.0 0.5729785986987674 -0.9433423736455702
5122000000.0 0.5589298959495396 -0.8389604390511347
5125000000.0 0.5741199792813364 -0.8774304285678048
5128000000.0 0.5113451870972141 -0.888503974102654
5131000000.0 0.5191520317605401 -0.8705762895615526
5134000000.0 0.5520629701973346 -0.8880392049195645
5138000000.0 0.5774337886390708 -0.8761468758400749
5141000000.0 0.6026169958977374 -0.8704259783619757
5144000000.0 0.5203810049114024 -0.8575619741459908
5147000000.0 0.558917028340916 -0.8952111137233842
5150000000.0 0.5754556961854727 -0.8881195420505257
5153000000.0 0.566789791600043 -0.8786642003025626
5156000000.0 0.555851915509283 -0.8978713185358119
5159000000.0 0.5263096472453688 -0.9037455889032746
5162000000.0 0.5096811334067607 -0.8826272926263494
5166000000.0 0.5309831584241579 -0.9004216350173333
5169000000.0 0.581220121995838 -0.9202099982391796
5172000000.0 0.5391990170443753 -0.8960030774941883
5175000000.0 0.6000108377640488 -0.9039376209474335
5178000000.0 0.5511388608215331 -0.9438463904928182
