! Created with skrf 1.8.0 (http://scikit-rf.org).
# Hz S RI R 50.0 
!freq ReS11 ImS11
4000000000.0 0.5723163355264205 -0.828706995261796
4003000000.0 0.5454071103596883 -0.9163447886925562
4006000000.0 0.47978776504925824 -0.904628661772976
4009000000.0000005 0.5725829647595285 -0.8867141596787003
4011999999.9999995 0.6000901941533168 -0.8878612621008143
4016000000.0 0.5032388291796045 -0.9111159164548941
4019000000.0 0.5337370025046838 -0.8526269329534164
4022000000.0000005 0.6309769897274073 -0.8270330774010464
4025000000.0000005 0.5041674447784151 -0.8844590729457675
4027999999.9999995 0.5344420442765591 -0.913687845718807
4030999999.9999995 0.541638833629879 -0.8320677909142277
4034000000.0 0.547387351853917 -0.8876657497951566
4038000000.0000005 0.5119536379384122 -0.903109124508932
4041000000.0000005 0.5540699525478022 -0.8776309265223436
4043999999.9999995 0.5588628421672991 -0.9428083759680042
4046999999.9999995 0.6063572053938908 -0.8817867287559876
4050000000.0 0.49616937878317424 -0.9205034094311475
4053000000.0 0.5198705408161071 -0.9027969149828577
4056000000.0 0.5374737606492292 -0.9084854267376886
4059000000.0 0.5585098025628992 -0.8508180947677616
4062000000.0000005 0.5350782933725426 -0.8676218499708606
4066000000.0 0.48870490932075855 -0.8238573541408764
4069000000.0 0.5293300587798938 -0.8820293671962512
4072000000.0 0.5548799117527705 -0.8675730346979553
4075000000.0 0.6186064999286481 -0.9076331923337007
4078000000.0000005 0.5462077118824612 -0.8965451855637476
4081000000.0000005 0.5625145280516964 -0.8838437778328132
4083999999.9999995 0.5297949266262447 -0.918847576794924
4088000000.0 0.5652214773071801 -0.8417601290667782
4091000000.0 0.5865739561157789 -0.9331127715317377
4094000000.0000005 0.56827408886372 -0.8706327929884182
4097000000.0000005 0.5168754688817189 -0.903266803550338
4099999999.9999995 0.560068572427819 -0.8609273825042918
4102999999.9999995 0.5547770422487948 -0.9176568780274311
4106000000.0 0.5399751685552863 -0.9308265377619832
4109000000.0 0.528025215671483 -0.9036273767228595
4112000000.0 0.5544247438679863 -0.8924348327882533
4115999999.9999995 0.538873621506623 -0.8513609023140132
4119000000.0 0.5598454075713429 -0.9076976817968453
4122000000.0 0.5180637038723367 -0.8857687608813479
4125000000.0 0.525137913776027 -0.9213505821100053
4128000000.0 0.5446273307780954 -0.8743399443755195
4131000000.0 0.5223760429573283 -0.8656208023611751
4134000000.0000005 0.5359856200671229 -0.9081410093934251
4138000000.0 0.5151144855364369 -0.8509997313980759
4141000000.0 0.541511541899639 -0.8622642508256019
4144000000.0 0.5428090957162368 -0.8678478094558304
4147000000.0000005 0.5020640903121645 -0.8607346712462945
4150000000.0000005 0.5326656886459215 -0.8818199266173585
4152999999.9999995 0.5202318755885323 -0.8738985148365662
4155999999.9999995 0.576574321186681 -0.8857942467390382
4159000000.0 0.5326191209814004 -0.8384304062540039
4162000000.0 0.5356368329522273 -0.8705699916963331
4166000000.0000005 0.5500635113444283 -0.8935850274660636
4168999999.9999995 0.5277744813066404 -0.8704943012294578
4171999999.9999995 0.5555127137671493 -0.8586780628512445
4175000000.0 0.5542937075017486 -0.8768484656082617
4178000000.0 0.5591812058631012 -0.8725547728304959
4181000000.0 0.5482243780606723 -0.883506910705983
4184000000.0 0.522882622536314 -0.8660778268455773
4187999999.9999995 0.5410466828877415 -0.8510677040408343
4191000000.0 0.5524706072823714 -0.8514086788214645
4194000000.0 0.5440430893095918 -0.8613343875343183
4197000000.0 0.5598643358060293 -0.8817912233704761
4200000000.0 0.5391293696090499 -0.8754525489465785
4203000000.0000005 0.5696216185123396 -0.8610939068740364
4206000000.0000005 0.5443223720492127 -0.8887325894595088
4208999999.9999995 0.5377405817923655 -0.8573388643452966
4211999999.9999995 0.5171886343530239 -0.8878234167894754
4216000000.0 0.5642595860804885 -0.8480795150639115
4219000000.0000005 0.5552779821704751 -0.8865374634598944
4222000000.0000005 0.543673627593455 -0.8671444409569118
4224999999.9999995 0.5391578289938289 -0.8594888446580615
4227999999.9999995 0.548712699707065 -0.8707184556539244
4231000000.0 0.5366880735736959 -0.8774950234300178
4234000000.0 0.5380308281432185 -0.882240055990594
4238000000.0000005 0.5373714852653537 -0.8774908908427254
4240999999.9999995 0.5139534342009646 -0.8730138634368185
4244000000.0 0.5375186363579696 -0.85541340898753
4247000000.0 0.5550796697751474 -0.8621253340839985
4250000000.0 0.5244457814265944 -0.8558795021706888
4253000000.0 0.516954729654614 -0.8557051033367098
4256000000.0 0.5639258218985905 -0.8833266033570952
4259000000.0000005 0.5205847423939285 -0.8334029298989535
4261999999.9999995 0.5217341334392186 -0.8595761194825757
4266000000.0 0.5060290988870186 -0.8819279133986804
4269000000.0 0.5298305382611609 -0.8698791503148289
4272000000.0000005 0.5283690363923335 -0.8608713839879704
4275000000.0000005 0.5505825960197801 -0.8756107678002835
4277999999.9999995 0.5421174067778367 -0.8791650131811127
4280999999.9999995 0.5583096728723331 -0.8770429398798064
4284000000.0 0.48664057955470413 -0.9088960417622594
4288000000.0000005 0.5713432637732707 -0.8644902508582349
4291000000.0000005 0.5352444537465445 -0.8626754752284032
4293999999.9999995 0.5424810572069059 -0.8571583575321813
4297000000.0 0.560506136062574 -0.8482033101601563
4300000000.0 0.539933318977969 -0.8483157448497899
4303000000.0 0.548244283224297 -0.8524087010076632
4306000000.0 0.5534854654840896 -0.8587620660936333
4309000000.0 0.5351086551184827 -0.8517207275246977
4312000000.0 0.5865659189574972 -0.8595841908097921
4316000000.0 0.559861660061805 -0.8640285231644925
4319000000.0 0.5306260384439033 -0.856200782505424
4322000000.0 0.501742236053204 -0.8508684681724412
4325000000.0 0.5399558601754634 -0.848336374157806
4328000000.0 0.5182999745793384 -0.8493956357796131
4331000000.0 0.5152213920299835 -0.8809227642974616
4334000000.0 0.5297781815226326 -0.8605933300658986
4338000000.0 0.5628673625190382 -0.8493234939853372
4341000000.0 0.5633441589829367 -0.8746808717450526
4344000000.0 0.562858223903016 -0.8666526611025835
4347000000.0 0.5374918647223679 -0.8974123505495795
4350000000.0 0.5104067274699567 -0.8362158933826273
4353000000.0 0.5437721776472703 -0.8266395199135237
4356000000.0 0.5151381158681378 -0.8599864381254351
4359000000.0 0.4901366234803763 -0.8279648249582249
4362000000.0 0.509028532070573 -0.9061581361211652
4366000000.0 0.5430298972650176 -0.8786324758166708
4369000000.0 0.5125656347487366 -0.8538347596719095
4372000000.0 0.5015414942416403 -0.8702756157019341
4375000000.0 0.5431069806265596 -0.8421823808061075
4378000000.0 0.524176010003251 -0.824090716933277
4381000000.0 0.5282105657949563 -0.8401973289043128
4384000000.0 0.5540620025465648 -0.9055964667343455
4388000000.0 0.5346468221588727 -0.8488721599705124
4391000000.0 0.5393574620351563 -0.8689979779510383
4394000000.0 0.5185748759573555 -0.8438600454649146
4397000000.0 0.5331001668085438 -0.8563968604656214
4400000000.0 0.5391012384549388 -0.8783200267122611
4403000000.0 0.5147328527038925 -0.8546903805039189
4406000000.0 0.5099098665684326 -0.8654428716326915
4409000000.0 0.5336537608172663 -0.8862410694418826
4412000000.0 0.4942383422201807 -0.8857847899477537
4416000000.0 0.49915421796894477 -0.8541215999503607
4419000000.0 0.5181973656198671 -0.8860259563565303
4422000000.0 0.5265953789735776 -0.8377312926133238
4425000000.0 0.5678594478334751 -0.8673084426571405
4428000000.0 0.5249496843572776 -0.867607198059675
4431000000.0 0.546221141465758 -0.8761395652537278
4434000000.0 0.5237225529966347 -0.8666597162049586
4438000000.0 0.5390584941148047 -0.8759235625126346
4441000000.0 0.5233762587529724 -0.8789445642056619
4444000000.0 0.5143218852034844 -0.842292088077811
4447000000.0 0.5073178667641611 -0.8711731676201708
4450000000.0 0.523943342640609 -0.8595369078821326
4453000000.0 0.5439929770691321 -0.8819295844744628
4456000000.0 0.4863530440092516 -0.8528055992185062
4459000000.0 0.4856949812056465 -0.8415838521452219
4462000000.0 0.5429157120699468 -0.924064442340936
4466000000.0 0.5227544649785942 -0.8998244756671545
4469000000.0 0.5365993275908243 -0.8480891407895745
4472000000.0 0.5120920215629676 -0.9086522179123919
4475000000.0 0.502609648856476 -0.8455126819104111
4478000000.0 0.5168733426757424 -0.9181981335090927
4481000000.0 0.48512853675762946 -0.8448045221769411
4484000000.0 0.47486101452595264 -0.878643672606684
4488000000.0 0.4937448323003502 -0.861987606783059
4491000000.0 0.5032144876477846 -0.8743144078184121
4494000000.0 0.5081978594678934 -0.8526241936069844
4497000000.0 0.5184671786647316 -0.8726929462504761
4500000000.0 0.5178866870479706 -0.8540299072277739
4503000000.0 0.5365857085583405 -0.8822457965519612
4506000000.0 0.5030942651868003 -0.8510878004460884
4509000000.0 0.49713343691904494 -0.8521683969959077
4512000000.0 0.497080306375116 -0.8688505579946588
4516000000.0 0.5329687378340331 -0.8944503205721497
4519000000.0 0.5143213163370662 -0.8378348373863008
4522000000.0 0.4872987137262751 -0.8663098725876864
4525000000.0 0.5474643764342106 -0.8419520421685378
4528000000.0 0.5355977511958341 -0.9000707051715345
4531000000.0 0.5244530644383327 -0.8614964404138244
4534000000.0 0.49862549416301405 -0.8484854955166561
4538000000.0 0.5133759712778354 -0.8613585867506783
4541000000.0 0.46614223900130536 -0.8590156039741459
4544000000.0 0.49920983607875946 -0.8527744739396833
4547000000.0 0.5298192830441264 -0.8591107352709748
4550000000.0 0.488399133323237 -0.882682418186289
4553000000.0 0.505070816930305 -0.8731122954218207
4556000000.0 0.47938203706287946 -0.8654417093928337
4559000000.0 0.4868671911958744 -0.9006086818100996
4562000000.0 0.5219064339104673 -0.9021509394452671
4566000000.0 0.49505512510825983 -0.8953410312953818
4569000000.0 0.5013019075463652 -0.8679419578109169
4572000000.0 0.5063567615892797 -0.8615419916680356
4575000000.0 0.48701383978725354 -0.8879876274464666
4578000000.0 0.5311776870598186 -0.8852648849428828
4581000000.0 0.4885407647636122 -0.8931430203392269
4584000000.0 0.490941519491481 -0.8772428140452755
4588000000.0 0.5196854671256568 -0.8909137157534723
4591000000.0 0.5174989684798189 -0.860488684228454
4594000000.0 0.467687459228215 -0.8810564006748665
4597000000.0 0.49952934034212193 -0.8977646119084531
4600000000.0 0.4729840437246722 -0.8868960529158376
4603000000.0 0.4874045494266551 -0.8847639989235028
4606000000.0 0.5034712407059668 -0.9016604377892177
4609000000.0 0.5060847348078872 -0.8802136244113814
4612000000.0 0.4976549476071307 -0.8984133550429086
4616000000.0 0.49809324056582605 -0.8744311852072397
4619000000.0 0.5149250602483781 -0.8972001621479122
4622000000.0 0.4882998096604846 -0.8851049627638437
4625000000.0 0.46780830448668953 -0.856966400618178
4628000000.0 0.5195122338336922 -0.8716719782581828
4631000000.0 0.4796948669583373 -0.9115863026355
4634000000.0 0.47614507322461336 -0.8846186846365762
4638000000.0 0.4928486830048807 -0.8860317858389832
4641000000.0 0.48516351894073595 -0.8746706823283532
4644000000.0 0.4884777017592833 -0.8863240589820209
4647000000.0 0.48710507896831257 -0.8863734180887564
4650000000.0 0.4888548378575978 -0.8915053252956515
4653000000.0 0.5106836199566026 -0.8930836961086251
4656000000.0 0.4746010198032621 -0.8966563266611143
4659000000.0 0.48334272768242126 -0.8898529661469426
4662000000.0 0.49044106400507315 -0.8979791764547826
4666000000.0 0.47447477246619474 -0.8973614995248842
4669000000.0 0.5042102727630647 -0.8870012322459412
4672000000.0 0.48023475449912273 -0.9137929548568001
4675000000.0 0.48095312102818294 -0.9158561014168961
4678000000.0 0.48848114643172236 -0.8798602078036448
4681000000.0 0.46731555968512983 -0.9046868290252637
4684000000.0 0.4570175475038001 -0.8907121388398285
4688000000.0 0.45142061370273734 -0.8932561323498939
4691000000.0 0.5010416253201166 -0.891624232760143
4694000000.0 0.48830317564803727 -0.895570663821875
4697000000.0 0.431296846907975 -0.8719777531435872
4700000000.0 0.47231273894821413 -0.9037287569016123
4703000000.0 0.4951077975377666 -0.8744579642744721
4706000000.0 0.47258179551428736 -0.8982219919952661
4709000000.0 0.46341354536546003 -0.8929448722697281
4712000000.0 0.5054436008820111 -0.8902654404112589
4716000000.0 0.469529328544292 -0.8871724097211304
4719000000.0 0.507618594401069 -0.9059478949488005
4722000000.0 0.48688668075209085 -0.9033418044482365
4725000000.0 0.4949530654603186 -0.892785625764419
4728000000.0 0.47423874614039707 -0.8903278456720244
4731000000.0 0.48592236728258886 -0.8929208130321875
4734000000.0 0.4827914147295023 -0.8800286928082761
4738000000.0 0.5325298235632614 -0.9215443359716881
4741000000.0 0.49411799708903836 -0.9271382530054859
4744000000.0 0.458855629523716 -0.9070514320424474
4747000000.0 0.516790045708072 -0.840541993955439
4750000000.0 0.4854667746777083 -0.9032391542512475
4753000000.0 0.5075293928638739 -0.8734856961850507
4756000000.0 0.4720876946353532 -0.8973299905922888
4759000000.0 0.491605733571748 -0.9072083851427433
4762000000.0 0.4755223329205899 -0.9523862553770106
4766000000.0 0.4532514373343709 -0.8957543107260059
4769000000.0 0.47829177752790686 -0.905484487600936
4772000000.0 0.5027233055321396 -0.9055665198910194
4775000000.0 0.4654519820156522 -0.9354766666381784
4778000000.0 0.4685934311822691 -0.9303406542701247
4781000000.0 0.512064143572946 -0.8762896175470467
4784000000.0 0.49993042530372356 -0.8762472114366247
4788000000.0 0.47933293588100134 -0.922173311315765
4791000000.0 0.48104872141307664 -0.9093526925156565
4794000000.0 0.5293236372858348 -0.9302413336325186
4797000000.0 0.4674494160694782 -0.9011692158819742
4800000000.0 0.4685246736224308 -0.8902341324161946
4803000000.0 0.4446371400919624 -0.9125092825589537
4806000000.0 0.46511780531154423 -0.9045380708629527
4809000000.0 0.4478901487219564 -0.9193946822119472
4812000000.0 0.44338748552706964 -0.8934010769278048
4816000000.0 0.5075446904109471 -0.9099382377334964
4819000000.0 0.5024329105701372 -0.9154801274016295
4822000000.0 0.5232219021233521 -0.9261660726686002
4825000000.0 0.5087880838040166 -0.8981716180826856
4828000000.0 0.4702360039762755 -0.8858539814244216
4831000000.0 0.4514627640635467 -0.9332111796008298
4834000000.0 0.4937617118262901 -0.9155996513323602
4838000000.0 0.4682083853191756 -0.9290495819081709
4841000000.0 0.46097177997167776 -0.8707164387160062
4844000000.0 0.5064681439748263 -0.9063618569746599
4847000000.0 0.49413990785996814 -0.8748469462793542
4850000000.0 0.4850764500469872 -0.916481360496078
4853000000.0 0.4757277562854556 -0.8999967948041163
4856000000.0 0.4559376094843646 -0.8821289502176962
4859000000.0 0.48478751458075314 -0.9455670358683569
4862000000.0 0.507134253259842 -0.8688630166594211
4866000000.0 0.48039410949393163 -0.9285097389457981
4869000000.0 0.4698015044937279 -0.9173713998786069
4872000000.0 0.47712756067355083 -0.942803676274265
4875000000.0 0.5300446819891323 -0.9220827028923594
4878000000.0 0.48563054390393334 -0.9305500024303127
4881000000.0 0.47577238136549804 -0.9749421246500826
4884000000.0 0.5155721905820844 -0.9106944595358698
4888000000.0 0.49143987795027266 -0.917605187525854
4891000000.0 0.4982901099165213 -0.9351644391160708
4894000000.0 0.48484862021401065 -0.9193310237252754
4897000000.0 0.5123497714415972 -0.8941835454329996
4900000000.0 0.49468185975757695 -0.9030866009145044
4903000000.0 0.5149293408741564 -0.9099200551598572
4906000000.0 0.49398280837098035 -0.9388731880576863
4909000000.0 0.4825674066803169 -0.9308901342588523
4912000000.0 0.4714445875394222 -0.923335824616917
4916000000.0 0.5144653009669621 -0.9341390920018421
4919000000.0 0.5333827054513374 -0.9315606716554985
4922000000.0 0.5189987930781655 -0.9223684930188721
4925000000.0 0.4482710570740884 -0.9049305948509986
4928000000.0 0.5307807962865582 -0.8678775532835273
4931000000.0 0.5251272456796258 -0.9316516026252555
4934000000.0 0.476501609930041 -0.8972463697740435
4938000000.0 0.46249471655403407 -0.900227561103619
4941000000.0 0.4748387578159893 -0.9124592022920415
4944000000.0 0.4912500354339911 -0.8534070399774036
4947000000.0 0.506439362251094 -0.9078639450038622
4950000000.0 0.49097603530793027 -0.8833281582427983
4953000000.0 0.4801285068561454 -0.9701737160909378
4956000000.0 0.4689361537081426 -0.9053586384928963
4959000000.0 0.44478603948103 -0.8870196947478158
4962000000.0 0.5082808629685901 -0.9369171379107061
4966000000.0 0.499818409294587 -0.9196545186068628
4969000000.0 0.5205995500992031 -0.9123620436215966
4972000000.0 0.4654186419227775 -0.9343920478956662
4975000000.0 0.5198010741886586 -0.9178350833183285
4978000000.0 0.49173578841099086 -0.9131521255408468
4981000000.0 0.5217842264672908 -0.9737212008810576
4984000000.0 0.5020297327824161 -0.8743705784689316
4988000000.0 0.4902911374871427 -0.8911935988090269
4991000000.0 0.5556052931707907 -0.9234428123813372
4994000000.0 0.5376012964654527 -0.8910509131508145
4997000000.0 0.44650181253250026 -0.9365491759816553
5000000000.0 0.526366605665004 -0.9332175930125524
5003000000.0 0.5120217986096025 -0.9176806237308979
5006000000.0 0.5548255532386137 -0.9341836442055989
5009000000.0 0.5211268023867575 -0.912741731824065
5012000000.0 0.5092313368685721 -0.93591482986852
5016000000.0 0.5455712734183634 -0.929426719719192
5019000000.0 0.47735984834965384 -0.9146548721297918
5022000000.0 0.4994850643727901 -0.9083665713423992
5025000000.0 0.5212857694368327 -0.955386680721287
5028000000.0 0.5023186348501758 -0.9425649655442085
5031000000.0 0.4901117796559742 -0.9182448018862363
5034000000.0 0.4824949421454609 -0.9593059003379907
5038000000.0 0.47036995141914933 -0.8923545354152989
5041000000.0 0.5549551319330727 -0.9012997675434683
5044000000.0 0.5348147485222692 -0.8818740738710604
5047000000.0 0.4912643641242963 -0.9022121900342461
5050000000.0 0.5797010745287431 -0.858057175590285
5053000000.0 0.5406687703378136 -0.9799761866601653
5056000000.0 0.5239479327247397 -0.8804210206891118
5059000000.0 0.5747295682070372 -0.8873397487218908
5062000000.0 0.4797687224674794 -0.9564600868427381
5066000000.0 0.5682126700445072 -0.9021835866181617
5069000000.0 0.5128790243451796 -0.8983631825571515
5072000000.0 0.5119368491487419 -0.8869130361033388
5075000000.0 0.5333508183158711 -0.891776863177091
5078000000.0 0.4626324086459971 -0.9529965416926227
5081000000.0 0.479959332673807 -0.908864919841599
5084000000.0 0.5536179509868391 -0.946627987723135
5088000000.0 0.536983723938809 -0.9200452156026018
5091000000.0 0.49325769434980005 -0.9346135178165804
5094000000.0 0.48882269621054125 -0.9173971268256331
5097000000.0 0.553575058634262 -0.9021111663233679
5100000000.0 0.541176689277214 -0.8610094200633556
5103000000.0 0.5313358965100048 -0.9234629803019789
5106000000.0 0.4880843834113088 -0.9309648514617974
5109000000.0 0.5364140036752294 -0.8624800910419739
5112000000.0 0.5248055833464539 -0.9263923492221753
5116000000.0 0.5279167616976481 -0.863202322987009
5119000000.0 0.5561784728535295 -0.9196848131713192
5122000000.0 0.5261390160023561 -0.8857855436037699
5125000000.0 0.548118710635977 -0.8725805257028343
5128000000.0 0.4868725927941986 -0.9057470310498882
5131000000.0 0.5328300277739664 -0.8877009890544441
5134000000.0 0.5559626259465857 -0.8779228257264251
5138000000.0 0.5248985770244876 -0.8654398301135271
5141000000.0 0.5805888590016827 -0.888997861988247
5144000000.0 0.5301151514787998 -0.8734545248176944
5147000000.0 0.5495425949923127 -0.9098696090775722
5150000000.0 0.5804956159759455 -0.895832386671761
5153000000.0 0.5228689691722276 -0.908172039265734
5156000000.0 0.5253079884064675 -0.9145520241366845
5159000000.0 0.5902094491327909 -0.8899066722108241
5162000000.0 0.5399872267111137 -0.9052581940555622
5166000000.0 0.5144931938087439 -0.9698115229585382
5169000000.0 0.5604518590608099 -0.9385561265246514
5172000000.0 0.5183927168391756 -0.8738246327177874
5175000000.0 0.5691730109332793 -0.911924511755273
5178000000.0 0.5232389063964696 -0.9146900664240791
