! Created with skrf 1.8.0 (http://scikit-rf.org).
# Hz S RI R 50.0 
!freq ReS11 ImS11
4000000000.0 0.5443093622380634 -0.8640930403701419
4003000000.0 0.6197731264656658 -0.898757611114085
4006000000.0 0.5060420032314046 -0.8746678555163148
4009000000.0000005 0.5150788796538468 -0.8519885665099004
4011999999.9999995 0.594300430435247 -0.9104151048455125
4016000000.0 0.5577568323204958 -0.8976057051209378
4019000000.0 0.5312131699563913 -0.8968379776154343
4022000000.0000005 0.6230400579392706 -0.8533116263450571
4025000000.0000005 0.5685212062592572 -0.8989776735657654
4027999999.9999995 0.5525316366198684 -0.8395999155149815
4030999999.9999995 0.5402160850730062 -0.8729652542055908
4034000000.0 0.5673093295796654 -0.8439353784570304
4038000000.0000005 0.5156863303237276 -0.9004257235610336
4041000000.0000005 0.5337902609727478 -0.8680343706280146
4043999999.9999995 0.6356210303042307 -0.8940098387498501
4046999999.9999995 0.5969277595942363 -0.8709070028337134
4050000000.0 0.5467814878438674 -0.9133936811391545
4053000000.0 0.49751497021786156 -0.8331670981724448
4056000000.0 0.5853154085339822 -0.8525168262022417
4059000000.0 0.5521890917593371 -0.8937663567631012
4062000000.0000005 0.5180339010626539 -0.8738495372321722
4066000000.0 0.536517585110479 -0.8086760886858538
4069000000.0 0.5823366163565467 -0.8995126267938799
4072000000.0 0.5908414041912418 -0.8638074731271439
4075000000.0 0.587825719518555 -0.8768761166391323
4078000000.0000005 0.5625783784370076 -0.8647294289891451
4081000000.0000005 0.6275832496012808 -0.8502969566310531
4083999999.9999995 0.5463588298256744 -0.8602986950392788
4088000000.0 0.5503231495518801 -0.8376651595315725
4091000000.0 0.6157307072257795 -0.892206103591823
4094000000.0000005 0.55308143452167 -0.8730598455701294
4097000000.0000005 0.5112554161295637 -0.8718577370871241
4099999999.9999995 0.5393897231567096 -0.827304986381036
4102999999.9999995 0.5867616097577532 -0.8901205128279764
4106000000.0 0.5460149329135411 -0.9065060484874775
4109000000.0 0.5359773677330546 -0.9074165945216861
4112000000.0 0.5598733564972203 -0.8929932742347897
4115999999.9999995 0.5697226951451698 -0.8671687714298683
4119000000.0 0.5104573440888179 -0.9084724276980786
4122000000.0 0.5423892122298819 -0.9055993115696551
4125000000.0 0.5120239402002892 -0.8879901530243345
4128000000.0 0.5224569065044313 -0.831169577970183
4131000000.0 0.5293419547325935 -0.8543044590628461
4134000000.0000005 0.5491059521024507 -0.8321574879009779
4138000000.0 0.5456282698373447 -0.8727348888462965
4141000000.0 0.5422173732458208 -0.8339882997959795
4144000000.0 0.6032904791296545 -0.9013313005160217
4147000000.0000005 0.5157063633941474 -0.8977579222993509
4150000000.0000005 0.5547392737426748 -0.9244714415611118
4152999999.9999995 0.5584284353868317 -0.8939191851226753
4155999999.9999995 0.577466297976047 -0.8450984302634271
4159000000.0 0.5432202812379927 -0.8520499398652145
4162000000.0 0.5853460850532859 -0.8177942933459151
4166000000.0000005 0.5525658271941915 -0.9005679136940753
4168999999.9999995 0.5356882882272247 -0.8608034741985573
4171999999.9999995 0.5577115886157351 -0.8711287728201841
4175000000.0 0.5510791878746893 -0.8537228284188016
4178000000.0 0.5921799645940506 -0.8613944217769169
4181000000.0 0.5544353089230714 -0.8623646606295194
4184000000.0 0.5600320893020336 -0.8748263380788155
4187999999.9999995 0.5450032672379352 -0.8537323486282262
4191000000.0 0.5775648304008585 -0.8352464697897619
4194000000.0 0.5572720916431136 -0.8562044596892227
4197000000.0 0.5772932492258558 -0.851771862890847
4200000000.0 0.5685896337516565 -0.8614559207441433
4203000000.0000005 0.5892241090006348 -0.858457835101375
4206000000.0000005 0.5692163774208123 -0.8690864591282006
4208999999.9999995 0.5407858903308682 -0.8373833532635443
4211999999.9999995 0.5469627124042088 -0.8961290277887457
4216000000.0 0.5817618471414929 -0.8387370818258596
4219000000.0000005 0.5728223595396478 -0.868160831824129
4222000000.0000005 0.5599062291405763 -0.8594413181111814
4224999999.9999995 0.5407925438789829 -0.8546354560071611
4227999999.9999995 0.5598069336700209 -0.8642823552795674
4231000000.0 0.5551409049764535 -0.8506952388567741
4234000000.0 0.5534939303595516 -0.8772808097596765
4238000000.0000005 0.5363456482930458 -0.8782956319677668
4240999999.9999995 0.5442649910993396 -0.8676843413012237
4244000000.0 0.5661553946564477 -0.8591987127620767
4247000000.0 0.5616460732682922 -0.8423059424776977
4250000000.0 0.5501511834376582 -0.8523047402145181
4253000000.0 0.5436573759864979 -0.8491588858470767
4256000000.0 0.5539544806186154 -0.8686891411256572
4259000000.0000005 0.5322402474638872 -0.8521175714261404
4261999999.9999995 0.5344380509984168 -0.8610484841583814
4266000000.0 0.5239841489148067 -0.8668484799898121
4269000000.0 0.5773534667266922 -0.8428083618356469
4272000000.0000005 0.5402712551481247 -0.8585877010414963
4275000000.0000005 0.5421972702831896 -0.8585407069237542
4277999999.9999995 0.5670168510233806 -0.875185264410456
4280999999.9999995 0.5670073460005456 -0.8585284162720225
4284000000.0 0.5352270808273375 -0.87977819729218
4288000000.0000005 0.5818662111134947 -0.8689762341520058
4291000000.0000005 0.5497778524964295 -0.8321708671327815
4293999999.9999995 0.5496718614959291 -0.8698916768723105
4297000000.0 0.5662031053785834 -0.820640272035569
4300000000.0 0.5560254593410578 -0.8213241512328056
4303000000.0 0.5542731599224782 -0.8611522292437455
4306000000.0 0.5894834496739847 -0.8429638726883365
4309000000.0 0.5470849854449342 -0.8355793491796358
4312000000.0 0.6021235238757756 -0.8464169105478807
4316000000.0 0.5550598462030372 -0.8692421921615969
4319000000.0 0.5768673329850196 -0.8208616591966549
4322000000.0 0.520591480328662 -0.8411507655079214
4325000000.0 0.5586855786199284 -0.8300745008889072
4328000000.0 0.5648452377779145 -0.836455295806416
4331000000.0 0.5127677000800795 -0.8646836443564746
4334000000.0 0.5569552814368233 -0.8823276460008432
4338000000.0 0.5653834569453784 -0.8354104506736393
4341000000.0 0.5784880254324622 -0.8395364472005886
4344000000.0 0.5924406759679344 -0.8513048149330176
4347000000.0 0.5340654637905746 -0.8606481341586136
4350000000.0 0.5171557740684614 -0.8355006209707293
4353000000.0 0.5601172722553 -0.8025612398391361
4356000000.0 0.5269489396734995 -0.8633247557275744
4359000000.0 0.5308330696976978 -0.8135110109768087
4362000000.0 0.5408442964817585 -0.8942122825213555
4366000000.0 0.5600611788690248 -0.8927337726957564
4369000000.0 0.5229601026117106 -0.8184079296960176
4372000000.0 0.5180669429520928 -0.8636841457949592
4375000000.0 0.5584831372587259 -0.8436068470255367
4378000000.0 0.5474309056786466 -0.8232493966023748
4381000000.0 0.541028630288164 -0.8286743218962118
4384000000.0 0.5608510672377583 -0.8995607245345694
4388000000.0 0.5409334489783679 -0.8392346377961104
4391000000.0 0.5529678305996507 -0.8571954786843762
4394000000.0 0.539996365840653 -0.8293373380114227
4397000000.0 0.5466208354199433 -0.8409754947612059
4400000000.0 0.5560685607006775 -0.8747656452583374
4403000000.0 0.5515828809484353 -0.8710689728030283
4406000000.0 0.5290702445411624 -0.8667681033182308
4409000000.0 0.5685466104302306 -0.8720274795064126
4412000000.0 0.4984338602824707 -0.8872717717601752
4416000000.0 0.5157623598947859 -0.8538017878883559
4419000000.0 0.522668689214918 -0.8621827320952005
4422000000.0 0.5562031701347173 -0.836349369052283
4425000000.0 0.5745790575243479 -0.849147629984677
4428000000.0 0.5441371118580992 -0.8531480836879692
4431000000.0 0.5506144028738392 -0.8633047869843019
4434000000.0 0.5291337086664616 -0.8473452234311557
4438000000.0 0.5607878936028453 -0.8708580547263868
4441000000.0 0.5532646684263288 -0.8502391004484663
4444000000.0 0.5544176345090825 -0.8443319153448942
4447000000.0 0.520130576905258 -0.852316813237312
4450000000.0 0.5391004131207777 -0.8306482373535621
4453000000.0 0.5515210102206525 -0.8928305832003202
4456000000.0 0.5149822094173434 -0.8364806535322858
4459000000.0 0.49019185769127555 -0.8263319130806561
4462000000.0 0.5595656854454736 -0.903308920049807
4466000000.0 0.5484777411463861 -0.8905806881733732
4469000000.0 0.5607576576701987 -0.8378786654514973
4472000000.0 0.5383736819630982 -0.8801211726895818
4475000000.0 0.5176232600568985 -0.8342414463916632
4478000000.0 0.531298207456684 -0.8899841025006618
4481000000.0 0.5036259304634203 -0.844233594057023
4484000000.0 0.48162855194030096 -0.8811101846279096
4488000000.0 0.5129327076988255 -0.8557839390657804
4491000000.0 0.5292504518470911 -0.8582941665030572
4494000000.0 0.5256092585850836 -0.8393113614831678
4497000000.0 0.540992098995061 -0.8404102277068264
4500000000.0 0.5302300852560315 -0.8506067489001436
4503000000.0 0.535708245100553 -0.8891731816477715
4506000000.0 0.5105210981355532 -0.8415661138894877
4509000000.0 0.5031886539454428 -0.844504141576525
4512000000.0 0.501505133579976 -0.8515158137484661
4516000000.0 0.5341288713997387 -0.8764212602462996
4519000000.0 0.542676805737128 -0.8339617924538312
4522000000.0 0.5209618987759177 -0.8748679625241254
4525000000.0 0.5593916246613612 -0.8327154531584389
4528000000.0 0.5560104734611284 -0.8928058854776573
4531000000.0 0.5321054384784828 -0.837917843474312
4534000000.0 0.5325151739850509 -0.8557010548898376
4538000000.0 0.5215532614737479 -0.853878367146053
4541000000.0 0.48526115140164483 -0.8601495458584842
4544000000.0 0.5275445816153305 -0.8694640685907808
4547000000.0 0.5327013008601407 -0.8478084624215134
4550000000.0 0.5222083392225534 -0.8795689293843809
4553000000.0 0.5326882816607106 -0.8576583676703481
4556000000.0 0.5101585482415887 -0.8565909555429208
4559000000.0 0.5091122930851504 -0.87369123415174
4562000000.0 0.5438009539626425 -0.8797044433076309
4566000000.0 0.5076584648405228 -0.8604399931564111
4569000000.0 0.5066494930693897 -0.8401707810291366
4572000000.0 0.5188087192998715 -0.8654365523626786
4575000000.0 0.5008131583446336 -0.8780580108356018
4578000000.0 0.5414134471389841 -0.8638367578074257
4581000000.0 0.5239923953866891 -0.8889313887002823
4584000000.0 0.5032238710770294 -0.8655372107013615
4588000000.0 0.5358246690802579 -0.8677728446904405
4591000000.0 0.5308228190056596 -0.8496474389321398
4594000000.0 0.49627536035193404 -0.8562816264097806
4597000000.0 0.517477499449432 -0.8676307313153722
4600000000.0 0.494267481775144 -0.8711031194021177
4603000000.0 0.5155686234898265 -0.8788121229701129
4606000000.0 0.5364536425223698 -0.8868735454865708
4609000000.0 0.5319648763050062 -0.8646409780305159
4612000000.0 0.5398990841141966 -0.8708447344594281
4616000000.0 0.5119454339467973 -0.8508259759747302
4619000000.0 0.5160827919232447 -0.8593680136259668
4622000000.0 0.5240424111717058 -0.8709309076898794
4625000000.0 0.4611574996103655 -0.8564874790726427
4628000000.0 0.5221632419573707 -0.8498528591933656
4631000000.0 0.5091157584995158 -0.8730157714285669
4634000000.0 0.5233704131642288 -0.8723891656669192
4638000000.0 0.5095066496356104 -0.8763423387957245
4641000000.0 0.5200838466524491 -0.8679046273105211
4644000000.0 0.5169725855406998 -0.8638110123485819
4647000000.0 0.5114400561489427 -0.8630873429047321
4650000000.0 0.4968445319938475 -0.8674340824044994
4653000000.0 0.5180433611929744 -0.8938748621077782
4656000000.0 0.5043382037705447 -0.8900061143865817
4659000000.0 0.5035241539716225 -0.8703431647728564
4662000000.0 0.5235841878724816 -0.890938559167358
4666000000.0 0.49551887263413663 -0.8706973233996292
4669000000.0 0.5297082984627646 -0.8859613239009084
4672000000.0 0.4877253726402852 -0.8996024104494011
4675000000.0 0.5061336508008969 -0.8873940783312388
4678000000.0 0.5049451263857164 -0.8910246795526249
4681000000.0 0.49139744128274176 -0.8827275196126119
4684000000.0 0.46224529509172135 -0.9050929093473958
4688000000.0 0.47961440468284844 -0.8742241600308723
4691000000.0 0.5134921019093134 -0.8872246986546579
4694000000.0 0.5074672624492342 -0.8631131929623327
4697000000.0 0.4730296713581185 -0.8609598543641566
4700000000.0 0.5023964739397127 -0.8890895926096226
4703000000.0 0.5246642274828508 -0.8486528480587497
4706000000.0 0.48583015931505946 -0.8941937867165427
4709000000.0 0.47753267591590215 -0.9061533131569053
4712000000.0 0.4899296734791163 -0.9006899242985499
4716000000.0 0.505089929706985 -0.8873849192006038
4719000000.0 0.5116009207285168 -0.8742408829041113
4722000000.0 0.5377872247579137 -0.8687182660125056
4725000000.0 0.5166774974950737 -0.872987546397839
4728000000.0 0.4947290860517353 -0.8717685727864448
4731000000.0 0.5384530684034134 -0.8968709847132501
4734000000.0 0.525353800358787 -0.8723108237858103
4738000000.0 0.5144525983770504 -0.9099720771991806
4741000000.0 0.5128207594415982 -0.9231739879777253
4744000000.0 0.5071378192192952 -0.9023716743670959
4747000000.0 0.5077242875244473 -0.8597163211289391
4750000000.0 0.49261280696917575 -0.8938608267394059
4753000000.0 0.5169222776251399 -0.8920746374757482
4756000000.0 0.5267108840646342 -0.8859560091968064
4759000000.0 0.5218912734479998 -0.9047172777051207
4762000000.0 0.4928471529625478 -0.9203657079872718
4766000000.0 0.4901860144004359 -0.8733008078949472
4769000000.0 0.4915180008776454 -0.9116969857532965
4772000000.0 0.5164821230250572 -0.8977274677985596
4775000000.0 0.5052470048247153 -0.9338139769369072
4778000000.0 0.5040915349797452 -0.92855609723548
4781000000.0 0.5058960417768543 -0.8624420928023172
4784000000.0 0.5071806149369258 -0.8429799931971046
4788000000.0 0.511156627200128 -0.9076051573973674
4791000000.0 0.48869168348783115 -0.8882210233233012
4794000000.0 0.5307399675631803 -0.896503677921429
4797000000.0 0.4951166258325703 -0.8670443776441388
4800000000.0 0.4908791491081217 -0.8895051545125348
4803000000.0 0.4245343786496476 -0.8748460233317561
4806000000.0 0.48961395450545775 -0.8956459070786587
4809000000.0 0.47328605671254026 -0.8948564006089451
4812000000.0 0.45433057437224444 -0.8831637481693166
4816000000.0 0.5080902177372499 -0.8651082301299322
4819000000.0 0.529328580645877 -0.8834159368500203
4822000000.0 0.5206366832449887 -0.8943669958825866
4825000000.0 0.5492194267549431 -0.9035620358225457
4828000000.0 0.4921283022809746 -0.871980276346661
4831000000.0 0.45678575261514714 -0.9396038472649517
4834000000.0 0.5340543379839315 -0.8895721254268509
4838000000.0 0.4981174006513915 -0.9335787766496583
4841000000.0 0.4978004367713306 -0.8933650314319906
4844000000.0 0.5261127428511669 -0.8539955814347957
4847000000.0 0.5207761100494348 -0.8648395764181926
4850000000.0 0.49508052910490263 -0.9296530477023841
4853000000.0 0.5098061970752554 -0.8722683296644183
4856000000.0 0.5016889479615347 -0.895556734853674
4859000000.0 0.5100646567480506 -0.9308179510499605
4862000000.0 0.5108259199327315 -0.8536276958911225
4866000000.0 0.4946777266573281 -0.9196038560604769
4869000000.0 0.5049016516898058 -0.9160951317281728
4872000000.0 0.5030719046309201 -0.9268683978171778
4875000000.0 0.5556870870075807 -0.9125071713497442
4878000000.0 0.49104165111130527 -0.8972326847953459
4881000000.0 0.5039151455219002 -0.9467911290869845
4884000000.0 0.5237238697073413 -0.892272164993855
4888000000.0 0.5382072634882477 -0.886173150619243
4891000000.0 0.5368464508607304 -0.8988218832419939
4894000000.0 0.5157598524761169 -0.9127089689850317
4897000000.0 0.5235926176349558 -0.8665772229575548
4900000000.0 0.5173411179407496 -0.9092092389877435
4903000000.0 0.5233995711857403 -0.8894325621641369
4906000000.0 0.5356167689335231 -0.9260678361461072
4909000000.0 0.4999985253460986 -0.9238848860063976
4912000000.0 0.4948166111193057 -0.8957162008087718
4916000000.0 0.5335992910523497 -0.929547973148837
4919000000.0 0.5619703482756738 -0.8804585073136558
4922000000.0 0.5120686998527322 -0.8885970819080645
4925000000.0 0.5041240634011358 -0.8966821787635854
4928000000.0 0.5693343381132681 -0.8863489716417258
4931000000.0 0.5479436317140262 -0.9090885464411496
4934000000.0 0.5026746446928074 -0.8584484515041297
4938000000.0 0.49127704169514647 -0.9039285456713844
4941000000.0 0.5105175282688521 -0.8389812878824814
4944000000.0 0.5112811570281147 -0.8116072022970072
4947000000.0 0.5285806476870154 -0.8551315103378627
4950000000.0 0.4993953821748031 -0.8906208819658678
4953000000.0 0.5100120816247518 -0.9303357643439776
4956000000.0 0.4974306426807989 -0.8954512780236203
4959000000.0 0.46597409264689604 -0.9009204517638056
4962000000.0 0.5362058672210632 -0.914330848055575
4966000000.0 0.5460959062421707 -0.9009823225616991
4969000000.0 0.5362105374951988 -0.9029561939277969
4972000000.0 0.48666348318207 -0.9249263151452243
4975000000.0 0.5434878341045551 -0.8868116207598892
4978000000.0 0.5105766472288056 -0.9310371347691209
4981000000.0 0.5092084835951963 -0.8997558972147743
4984000000.0 0.5168019467893328 -0.8774068182824822
4988000000.0 0.5326887416918402 -0.873944771978426
4991000000.0 0.5747391308745967 -0.8794667429236143
4994000000.0 0.5085822957224726 -0.8640500568777536
4997000000.0 0.4808185994333827 -0.9159582810616317
5000000000.0 0.5556121993309664 -0.8873608046898851
5003000000.0 0.5626722438442016 -0.9281776066513829
5006000000.0 0.5428455932951347 -0.9374405382487997
5009000000.0 0.4997568641506681 -0.9043494700917688
5012000000.0 0.5276472737263879 -0.8853873294262928
5016000000.0 0.5775231574329367 -0.8958496783817558
5019000000.0 0.506552207000355 -0.8981026534752362
5022000000.0 0.511348170056154 -0.8860857619978596
5025000000.0 0.5532311771027221 -0.961799866598095
5028000000.0 0.5024287898934514 -0.9306339159313854
5031000000.0 0.5100018253634794 -0.8863210297085408
5034000000.0 0.516717069855689 -0.9317109182692104
5038000000.0 0.5021961907791779 -0.8785203375581018
5041000000.0 0.5570534948226635 -0.8930162009188799
5044000000.0 0.5407515146575257 -0.8557781749950302
5047000000.0 0.5613672096927556 -0.8855984632924814
5050000000.0 0.5901218947297615 -0.8457005916551672
5053000000.0 0.5485177916757623 -0.9398826198024037
5056000000.0 0.5882165718561405 -0.8733105781847337
5059000000.0 0.5830149979191721 -0.8628900875210477
5062000000.0 0.5295315596396846 -0.9701068085529778
5066000000.0 0.5599878804646979 -0.8474045090522704
5069000000.0 0.5556692480516411 -0.875569323104284
5072000000.0 0.5148217765553558 -0.9021084850247494
5075000000.0 0.5427022174168002 -0.9020051646086464
5078000000.0 0.49770463234014917 -0.9201176312634165
5081000000.0 0.5150804117234908 -0.8674589625775211
5084000000.0 0.5826957891368398 -0.9429177646250657
5088000000.0 0.5863005764480199 -0.8507714762323983
5091000000.0 0.5074527523001465 -0.9106826321188997
5094000000.0 0.5322805958388361 -0.8798383997695534
5097000000.0 0.5870152017286118 -0.8454537356486818
5100000000.0 0.5601101535177967 -0.8713919439871451
5103000000.0 0.4856762079167056 -0.9531815296147865
5106000000.0 0.5880769532547014 -0.9313441501830062
5109000000.0 0.5835846111187692 -0.8673616137108483
5112000000.0 0.5351062845237143 -0.877814483408065
5116000000.0 0.5250844460347335 -0.8643082473118258
5119000000.0 0.5862502327942052 -0.9285343622326749
5122000000.0 0.5497702327204362 -0.868267985081754
5125000000.0 0.5543889270866542 -0.8639171824937735
5128000000.0 0.5165657210232673 -0.8569837983531112
5131000000.0 0.5615234709947573 -0.8720665958199213
5134000000.0 0.54554403074686 -0.8626759582965726
5138000000.0 0.5614690785474784 -0.8813216263710896
5141000000.0 0.6318917465472544 -0.8337382785604424
5144000000.0 0.5755482797369047 -0.8752341987136516
5147000000.0 0.573244411055145 -0.8594134076742217
5150000000.0 0.6100302267059428 -0.8573833662474954
5153000000.0 0.5667419302445735 -0.8881919275618061
5156000000.0 0.55327878913006 -0.9017828154798782
5159000000.0 0.6017142010370804 -0.8679609141191122
5162000000.0 0.5540639852645219 -0.8776998344723372
5166000000.0 0.5198721321582382 -0.8828554417809977
5169000000.0 0.5830607841851091 -0.8876276630361646
5172000000.0 0.5456150706628164 -0.8761025691390758
5175000000.0 0.566804305363162 -0.8975990597179047
5178000000.0 0.5390053121274139 -0.9243940487512143
