! Created with skrf 1.8.0 (http://scikit-rf.org).
# Hz S RI R 50.0 
!freq ReS11 ImS11
4000000000.0 0.5547592067901929 -0.8900639868172351
4003000000.0 0.5819740867752707 -0.9436315952374098
4006000000.0 0.49751058075449806 -0.8998138411281356
4009000000.0000005 0.5682516777639448 -0.8883919907519988
4011999999.9999995 0.5879762692025672 -0.8728411027046985
4016000000.0 0.5265871196105213 -0.9419642840773391
4019000000.0 0.5260570497578247 -0.9366465270258457
4022000000.0000005 0.6141692691480798 -0.8917296664707962
4025000000.0000005 0.49754604714341655 -0.9139156693901093
4027999999.9999995 0.538682983608825 -0.906549280465227
4030999999.9999995 0.5379966637287599 -0.8634288024254542
4034000000.0 0.5087047093898597 -0.8735198322645761
4038000000.0000005 0.548674859165617 -0.9221289384583913
4041000000.0000005 0.547516350510298 -0.852900032794454
4043999999.9999995 0.5780776524690294 -0.9315507591699461
4046999999.9999995 0.6079204598983386 -0.9020010710411921
4050000000.0 0.5520782820012367 -0.9434868822321556
4053000000.0 0.5420781994648891 -0.8879778604838248
4056000000.0 0.5432491193829219 -0.8610712948624881
4059000000.0 0.5373885855148747 -0.8606510678698036
4062000000.0000005 0.5359302963162745 -0.8677249464145996
4066000000.0 0.4764841256688243 -0.835587369342264
4069000000.0 0.5584879334086928 -0.9702235767425895
4072000000.0 0.5816623136310227 -0.8991615348219354
4075000000.0 0.5956439556950844 -0.9273469222734062
4078000000.0000005 0.5616453020599376 -0.9174731719628523
4081000000.0000005 0.6111013852138993 -0.892037694456562
4083999999.9999995 0.5477697635158738 -0.9025815349588235
4088000000.0 0.5912842360230509 -0.8570678531425119
4091000000.0 0.6200192893173918 -0.9038261454498536
4094000000.0000005 0.5596469537463662 -0.8924071554454087
4097000000.0000005 0.5626520934717727 -0.8723263202679702
4099999999.9999995 0.5704956258954664 -0.862504551513016
4102999999.9999995 0.5630605736311425 -0.9024873905192506
4106000000.0 0.5503377306974573 -0.8959382808315917
4109000000.0 0.5541150998721239 -0.9279378893822454
4112000000.0 0.5700056199489308 -0.8985685530250246
4115999999.9999995 0.5772462323143258 -0.8857929454550949
4119000000.0 0.5760858502659317 -0.8736897261057155
4122000000.0 0.5329761063648277 -0.9127128273798725
4125000000.0 0.5407948120459747 -0.8890865630183274
4128000000.0 0.5523681305970402 -0.8457000051376
4131000000.0 0.5569595621775031 -0.8505039369700141
4134000000.0000005 0.5757208446150193 -0.8608447617878623
4138000000.0 0.5479299182461241 -0.8614685233141003
4141000000.0 0.5513785184201693 -0.8876045791670968
4144000000.0 0.5662833079715229 -0.9075892337302313
4147000000.0000005 0.5707184579452694 -0.8795756060049303
4150000000.0000005 0.5766179875063216 -0.9147708135082842
4152999999.9999995 0.5256090406942077 -0.9071913463211235
4155999999.9999995 0.5875394490019954 -0.8970389207683471
4159000000.0 0.5845836721947671 -0.8490817253676184
4162000000.0 0.5509919591777843 -0.8435496313510111
4166000000.0000005 0.5459132300797698 -0.8749495767835096
4168999999.9999995 0.5042630583130973 -0.8536624806801683
4171999999.9999995 0.5899301830863286 -0.8650229617341055
4175000000.0 0.5605167976623925 -0.8939037548698042
4178000000.0 0.5902014837644632 -0.8886219524474807
4181000000.0 0.5702935201869825 -0.8839910417869943
4184000000.0 0.5732699388298171 -0.8729284759272763
4187999999.9999995 0.5538280110269213 -0.8584363058092956
4191000000.0 0.5904245668590019 -0.8406318937555314
4194000000.0 0.5666673697647842 -0.864144213464871
4197000000.0 0.548652708389578 -0.8737574852253309
4200000000.0 0.5795739749757606 -0.854879401482385
4203000000.0000005 0.561827201673539 -0.8614083587583851
4206000000.0000005 0.5776542913557904 -0.8755508008623321
4208999999.9999995 0.5673074173507128 -0.8756474695090434
4211999999.9999995 0.5277856010573925 -0.8666785647181559
4216000000.0 0.5562427402616099 -0.85568909166515
4219000000.0000005 0.5930413125179321 -0.8761591617228591
4222000000.0000005 0.5409147767555919 -0.8863122736127304
4224999999.9999995 0.5603469106713481 -0.8493203908590378
4227999999.9999995 0.5776162372528368 -0.8551141375140974
4231000000.0 0.5597767946741006 -0.8709205388921255
4234000000.0 0.5690814002125417 -0.8640901047833949
4238000000.0000005 0.5453354305512823 -0.8538486479261715
4240999999.9999995 0.5503073924385138 -0.8598712138383178
4244000000.0 0.5773239801036133 -0.8529167258844466
4247000000.0 0.5645801804392018 -0.852259824213431
4250000000.0 0.5415946588298591 -0.86166292357501
4253000000.0 0.5430604665434522 -0.8469184075555357
4256000000.0 0.5657762458854855 -0.8812679778953054
4259000000.0000005 0.5367432523563216 -0.8438594579736882
4261999999.9999995 0.5558496277387258 -0.8706448280657321
4266000000.0 0.5431764964306304 -0.8736207816789617
4269000000.0 0.5648914219681941 -0.8626709331504634
4272000000.0000005 0.5659728391711359 -0.8523285842667999
4275000000.0000005 0.5657274322524032 -0.8630173112213154
4277999999.9999995 0.5673084036701914 -0.8864082996824817
4280999999.9999995 0.5670079979848933 -0.8696894976968755
4284000000.0 0.5421762955111663 -0.8947411250600439
4288000000.0000005 0.5893898363281347 -0.8302035436157689
4291000000.0000005 0.5681841124172983 -0.8663817473847962
4293999999.9999995 0.5264051700810612 -0.8328143031435478
4297000000.0 0.549194907388497 -0.8422853002071611
4300000000.0 0.5688975149992128 -0.8418572169501595
4303000000.0 0.5653634089058999 -0.8656665270313273
4306000000.0 0.5901472484803194 -0.8629479756998123
4309000000.0 0.5495835364905426 -0.8238522708891163
4312000000.0 0.5921497670720745 -0.8538685949363662
4316000000.0 0.5894236565465655 -0.8586224204554914
4319000000.0 0.5597609050513311 -0.8540863205958323
4322000000.0 0.5184758960894305 -0.8587179503981961
4325000000.0 0.5723427319697205 -0.8389312368809507
4328000000.0 0.5457134983010836 -0.8336312795261362
4331000000.0 0.5254515618767261 -0.8690997327648587
4334000000.0 0.5767982401175166 -0.8820628319434264
4338000000.0 0.5697514051821884 -0.8667876885107039
4341000000.0 0.5814713885157209 -0.8436434760529435
4344000000.0 0.5635327957193882 -0.873027441434727
4347000000.0 0.5710636652141102 -0.869219481143927
4350000000.0 0.5190339033171935 -0.8289288631736937
4353000000.0 0.541916277013396 -0.8325702301324874
4356000000.0 0.5233006388533771 -0.8423749240508467
4359000000.0 0.5334978534278435 -0.7967208288780813
4362000000.0 0.5188519749525851 -0.8953270457964637
4366000000.0 0.5495001597121867 -0.8874542460135545
4369000000.0 0.523321731226369 -0.8120228498329066
4372000000.0 0.5226639656968659 -0.8806085611432575
4375000000.0 0.548581238980836 -0.8410017357868776
4378000000.0 0.5409317783351488 -0.83882927585209
4381000000.0 0.566213147005204 -0.8393113236605041
4384000000.0 0.5696758412513993 -0.9002618620926321
4388000000.0 0.5656436464543634 -0.8418295283766384
4391000000.0 0.5615258146071773 -0.8534951005977189
4394000000.0 0.5227132447593581 -0.8322784049478179
4397000000.0 0.5378651174447364 -0.8506774455906766
4400000000.0 0.5475359319589032 -0.8810789260931702
4403000000.0 0.5460874785078076 -0.8521567789039817
4406000000.0 0.5250474734160409 -0.8646257810284306
4409000000.0 0.5588118557808952 -0.8883201965807689
4412000000.0 0.4963068555939891 -0.8825605373141722
4416000000.0 0.533390601397786 -0.846602387907663
4419000000.0 0.530081916281798 -0.8729442387397479
4422000000.0 0.5546545085186565 -0.8358874163879283
4425000000.0 0.5698296521450766 -0.8626668391362045
4428000000.0 0.5409928728072939 -0.8600647712275188
4431000000.0 0.5559538764367685 -0.862606897526243
4434000000.0 0.5301626597596052 -0.8569058331140496
4438000000.0 0.5533106320423844 -0.8688617869769284
4441000000.0 0.5574646517606816 -0.8693200392019974
4444000000.0 0.5369783196496921 -0.835193693016897
4447000000.0 0.5340799161500835 -0.8614647101093535
4450000000.0 0.5451626936998897 -0.8453652031906218
4453000000.0 0.5533406836038524 -0.87911499570436
4456000000.0 0.5211404280106495 -0.8395431696191531
4459000000.0 0.5053893709949281 -0.8337338623625601
4462000000.0 0.5637265048879926 -0.9137478533816132
4466000000.0 0.5705314109169523 -0.8904079831416931
4469000000.0 0.5512909161333011 -0.8511448527268842
4472000000.0 0.5301722835526894 -0.9067874648786572
4475000000.0 0.530358983660606 -0.8487430917983241
4478000000.0 0.5406813970225921 -0.8993414647100172
4481000000.0 0.5226152059320938 -0.8503938932667615
4484000000.0 0.49223154812820485 -0.8814801400429627
4488000000.0 0.525958662558266 -0.8556771127711611
4491000000.0 0.5391715129184933 -0.8675993611325601
4494000000.0 0.5264152050570383 -0.8603334746124522
4497000000.0 0.5375577361290695 -0.8592876416606268
4500000000.0 0.5437564499300092 -0.8609543701884584
4503000000.0 0.5465106259899108 -0.8859649029810839
4506000000.0 0.5256503855510941 -0.8700351547000165
4509000000.0 0.5195691560823028 -0.8511683333987368
4512000000.0 0.49999050121080646 -0.8540358726145314
4516000000.0 0.5374700680808066 -0.8791970976340868
4519000000.0 0.5241538072595694 -0.8375510985302002
4522000000.0 0.5094964929029246 -0.8657596653079433
4525000000.0 0.5525802802594022 -0.8574232606180774
4528000000.0 0.5373435884827937 -0.9046629294849917
4531000000.0 0.5393747914628245 -0.8599990495803456
4534000000.0 0.5099286680028536 -0.8428879071166239
4538000000.0 0.5302228487872476 -0.8716640426640945
4541000000.0 0.4817314718326459 -0.874803232099313
4544000000.0 0.5322269652932197 -0.8439043727895508
4547000000.0 0.5396524800276905 -0.8554027181788493
4550000000.0 0.49980851899494105 -0.8594416371774645
4553000000.0 0.5233693434105826 -0.8729938191164301
4556000000.0 0.5150929019511005 -0.8646566843840298
4559000000.0 0.523623066268686 -0.8798187543752394
4562000000.0 0.5345360865403498 -0.8615279038250481
4566000000.0 0.5251534467945357 -0.8904553413851914
4569000000.0 0.5238085602936962 -0.8522641306630759
4572000000.0 0.5144791661809723 -0.8670624969911618
4575000000.0 0.5176005517294092 -0.8956780198937195
4578000000.0 0.5476532440966273 -0.8717580493402914
4581000000.0 0.5116600571738475 -0.875423796577701
4584000000.0 0.49748103124460985 -0.8694385171847688
4588000000.0 0.5289373710911383 -0.8738086415843147
4591000000.0 0.534564486137453 -0.8563725491446299
4594000000.0 0.5113081439611549 -0.9008791605037838
4597000000.0 0.5116635416532898 -0.902101963554879
4600000000.0 0.4896947043091253 -0.8744296303975532
4603000000.0 0.5010620471299374 -0.9003884757462279
4606000000.0 0.5341498041193412 -0.8853105749928137
4609000000.0 0.5181579916686203 -0.8655228866093483
4612000000.0 0.5207371288899053 -0.8840650330883374
4616000000.0 0.5159543473429334 -0.8720375346795106
4619000000.0 0.5295432925593027 -0.8653074808766728
4622000000.0 0.5117380238029029 -0.8824008591468694
4625000000.0 0.47937392034812826 -0.8655302034081963
4628000000.0 0.5193830617198748 -0.8745050849805236
4631000000.0 0.49357606159125084 -0.8698373954564403
4634000000.0 0.4997580466428172 -0.8717572446244164
4638000000.0 0.508158615144713 -0.8767945824546093
4641000000.0 0.5291117735190298 -0.8654884351552548
4644000000.0 0.5245444782992287 -0.8964037774320532
4647000000.0 0.5363247725720804 -0.8950734472246664
4650000000.0 0.5001643692391463 -0.8572750238781337
4653000000.0 0.5270822650080016 -0.884264947901732
4656000000.0 0.5140320745256262 -0.8866733634343344
4659000000.0 0.5071381866055394 -0.8751234702991312
4662000000.0 0.5087606249290626 -0.902802535673128
4666000000.0 0.506885865058872 -0.8763638692852358
4669000000.0 0.5425816292668056 -0.875371665389505
4672000000.0 0.5008419893329412 -0.9221521456571358
4675000000.0 0.5038807897955312 -0.8901849004393311
4678000000.0 0.4883638725054974 -0.8703771630578238
4681000000.0 0.48429581674033306 -0.898854512565211
4684000000.0 0.5078656207996514 -0.8898674676206733
4688000000.0 0.4780963789492656 -0.8806592105064962
4691000000.0 0.5227542095836325 -0.9024402008421543
4694000000.0 0.5201254350618272 -0.8798367946629766
4697000000.0 0.4544066687639462 -0.8515976591606214
4700000000.0 0.5012297742403443 -0.8665793128095568
4703000000.0 0.5204928427900577 -0.8552423797737176
4706000000.0 0.4793408993811583 -0.9245887315700845
4709000000.0 0.4990179192333124 -0.894314300962331
4712000000.0 0.4979045822674018 -0.8865650412432332
4716000000.0 0.5179346131735818 -0.8806831979431529
4719000000.0 0.5336022769617595 -0.9001889446219988
4722000000.0 0.5349999016135409 -0.8938913013721581
4725000000.0 0.5011194192363237 -0.8763462265217196
4728000000.0 0.4878288447511373 -0.9045758452394383
4731000000.0 0.5211036892901773 -0.9027302849060668
4734000000.0 0.5246709194653537 -0.8883189206469252
4738000000.0 0.5380111093558481 -0.9317982506638836
4741000000.0 0.4967331179769935 -0.908665583599022
4744000000.0 0.48253903325485636 -0.9082272585870285
4747000000.0 0.4902473198070606 -0.8463017098613971
4750000000.0 0.5198218077808283 -0.8875173888774175
4753000000.0 0.48810313803508126 -0.9197973659471479
4756000000.0 0.5010768641335248 -0.9034449228699108
4759000000.0 0.5168442349882105 -0.8870887649084236
4762000000.0 0.4947430891841323 -0.9353305848119743
4766000000.0 0.5088509818545575 -0.8900876795334735
4769000000.0 0.5162671688113949 -0.9027184714701394
4772000000.0 0.5171342043766576 -0.9077892007967725
4775000000.0 0.4926928298830899 -0.9607806933457737
4778000000.0 0.5017777270494215 -0.9159651895679067
4781000000.0 0.5064581413986017 -0.8804410458369573
4784000000.0 0.5193565160706911 -0.8640254852633373
4788000000.0 0.5256614059488152 -0.9129468482723178
4791000000.0 0.49681919681681497 -0.8854925141300443
4794000000.0 0.5406179116065207 -0.9130240531386401
4797000000.0 0.4737215296246958 -0.8754085777150724
4800000000.0 0.488314329730152 -0.8842971770525421
4803000000.0 0.4582007303333072 -0.9279729588150819
4806000000.0 0.5080936527658103 -0.9206836663350269
4809000000.0 0.48065451213398874 -0.9172360631634336
4812000000.0 0.4646606511135524 -0.8906061350996038
4816000000.0 0.5103850023813681 -0.8760058130499548
4819000000.0 0.5267146808450028 -0.8842097401141258
4822000000.0 0.5533546209114593 -0.9263402818087619
4825000000.0 0.5458871990351459 -0.8929228333932312
4828000000.0 0.5010509945099254 -0.8875948114756415
4831000000.0 0.48841033345356577 -0.9637857283991101
4834000000.0 0.5239275987291533 -0.8870138643138501
4838000000.0 0.4927642545941947 -0.925037681325517
4841000000.0 0.5022883691201279 -0.8750624668205678
4844000000.0 0.522603183004837 -0.8996812729535427
4847000000.0 0.510773858269469 -0.8735073576687573
4850000000.0 0.49983032775281183 -0.9258834626583908
4853000000.0 0.5065882485969975 -0.8734365102193808
4856000000.0 0.49613032492173886 -0.8899733274480329
4859000000.0 0.5383658625154789 -0.9273872414326345
4862000000.0 0.5080822469710418 -0.870840765488253
4866000000.0 0.4875031780529458 -0.9084010118747716
4869000000.0 0.5109388393413518 -0.8909081586085595
4872000000.0 0.49660682930266814 -0.9496661295041817
4875000000.0 0.5835471644155052 -0.8864784367733229
4878000000.0 0.4947610986957811 -0.9114680939106344
4881000000.0 0.5215840128718113 -0.990898297906393
4884000000.0 0.5173878658587702 -0.900202499772153
4888000000.0 0.5474569448658836 -0.8752478939798202
4891000000.0 0.5330997993116838 -0.9076204037068333
4894000000.0 0.47641771372307395 -0.8903397614014136
4897000000.0 0.537709793527927 -0.874345677218766
4900000000.0 0.5277206805565245 -0.9082726371484352
4903000000.0 0.5371217658395866 -0.9056547244499262
4906000000.0 0.5045072739531026 -0.916047466801343
4909000000.0 0.4775199629780592 -0.9058061957491327
4912000000.0 0.5216133378475215 -0.9530369072967667
4916000000.0 0.5298772013064025 -0.9200208971429861
4919000000.0 0.5543941422197085 -0.91231393152078
4922000000.0 0.5572690716929689 -0.8841235553065364
4925000000.0 0.4776498583286716 -0.9156954514602438
4928000000.0 0.5563847951589181 -0.8560170324127152
4931000000.0 0.5903523717709587 -0.9187367913583551
4934000000.0 0.4875543222476775 -0.8495365789834401
4938000000.0 0.4722779026756945 -0.9314543765719616
4941000000.0 0.4965057226230837 -0.891430612873821
4944000000.0 0.5046131832174414 -0.8416582690094949
4947000000.0 0.5341500744326967 -0.884375542172505
4950000000.0 0.5000903622193132 -0.9009421352808574
4953000000.0 0.4896909642496049 -0.9531638170295521
4956000000.0 0.5099395477094514 -0.9304727401865698
4959000000.0 0.514511456838314 -0.8849094912937365
4962000000.0 0.5094054520263527 -0.9345778749327074
4966000000.0 0.5724589392030471 -0.9083206177868992
4969000000.0 0.5579856852252544 -0.927928226684686
4972000000.0 0.5293570090704814 -0.918355294644944
4975000000.0 0.5511584081846264 -0.8926347185560093
4978000000.0 0.49341412911223165 -0.9127306189535531
4981000000.0 0.5328536076585736 -0.9233493124633594
4984000000.0 0.49903254939896 -0.8868643727847594
4988000000.0 0.5189443144107148 -0.8844859370822205
4991000000.0 0.5795420336290662 -0.8888661983132118
4994000000.0 0.5248396652728793 -0.8611220157193147
4997000000.0 0.49844210674301975 -0.9260863638573889
5000000000.0 0.5450921950665624 -0.9166319384551179
5003000000.0 0.5857368980263458 -0.9371660762396452
5006000000.0 0.5438904135710072 -0.9575717921554522
5009000000.0 0.5363296796445403 -0.8999695967928805
5012000000.0 0.4887379856899435 -0.8947318435036168
5016000000.0 0.5609938482063446 -0.875619738671299
5019000000.0 0.5182955726022851 -0.9115367332659464
5022000000.0 0.5252019797052339 -0.8928481631838107
5025000000.0 0.5644488092099615 -0.9714394293506956
5028000000.0 0.5065277664483837 -0.9337875609564443
5031000000.0 0.5252794757675866 -0.8899519857370866
5034000000.0 0.5332256005717105 -0.9594164578258143
5038000000.0 0.47466235790762035 -0.8735697342255125
5041000000.0 0.5561879199928665 -0.8989728025755388
5044000000.0 0.5671303118813019 -0.8787201388493542
5047000000.0 0.525935337488401 -0.9047998030040325
5050000000.0 0.5861073797534916 -0.816338594781033
5053000000.0 0.5591406972678972 -0.9445835690481992
5056000000.0 0.5640817625082365 -0.8627011775607791
5059000000.0 0.5892119135766285 -0.8810437515069783
5062000000.0 0.5279267886255173 -0.9125943414665578
5066000000.0 0.543381083430994 -0.8821545899612819
5069000000.0 0.5489621536857321 -0.8986947180482925
5072000000.0 0.5261727377006817 -0.8843139545470959
5075000000.0 0.5744632277863075 -0.8932452091069183
5078000000.0 0.4931895475534237 -0.9267685926683711
5081000000.0 0.4992894010503778 -0.8878883037459493
5084000000.0 0.5643214954143326 -0.8895076449958637
5088000000.0 0.5657012727067614 -0.8642911012653149
5091000000.0 0.4995021000875067 -0.9492524210821285
5094000000.0 0.5347117400031537 -0.9461217099370659
5097000000.0 0.6010157311908637 -0.911288209509531
5100000000.0 0.5580554936073028 -0.8982040028216566
5103000000.0 0.4945064940645537 -0.8993897140112111
5106000000.0 0.5278962423059697 -0.8998687408190835
5109000000.0 0.6011845202511925 -0.8651689429974545
5112000000.0 0.5301972282933509 -0.9011750743778111
5116000000.0 0.5391537066369675 -0.8601444181413309
5119000000.0 0.5618781440158793 -0.914167625572996
5122000000.0 0.5611210120137768 -0.8946473391185559
5125000000.0 0.5686598835853833 -0.8655135612211673
5128000000.0 0.5666562080821463 -0.8674520715497792
5131000000.0 0.4889554793255827 -0.8434895789259529
5134000000.0 0.5504057508366129 -0.8890350609798443
5138000000.0 0.5642879351990205 -0.8875055220185422
5141000000.0 0.6052000289766405 -0.8895389620968961
5144000000.0 0.5788896914479642 -0.8493679160380257
5147000000.0 0.5634146075270408 -0.926277820742381
5150000000.0 0.5620205642415369 -0.890100409750926
5153000000.0 0.568695673952264 -0.8636683422361369
5156000000.0 0.5754647981135057 -0.8707684824591136
5159000000.0 0.6014834650983489 -0.9488161999965339
5162000000.0 0.5694300018675964 -0.8957620450024324
5166000000.0 0.573326944092224 -0.8972088302638179
5169000000.0 0.5708702696187462 -0.9149579909676082
5172000000.0 0.5822514235194761 -0.8664347791674636
5175000000.0 0.5536979882943301 -0.9177391411721307
5178000000.0 0.5079686747822512 -0.916560888017836
