! Created with skrf 1.8.0 (http://scikit-rf.org).
# Hz S RI R 50.0 
!freq ReS11 ImS11
4000000000.0 0.5855708101287612 -0.8149290696283082
4003000000.0 0.5726801586746348 -0.9372311886504969
4006000000.0 0.5397924941763684 -0.9053960391042382
4009000000.0000005 0.5647805095882604 -0.8946199660034889
4011999999.9999995 0.6073871321877193 -0.8881415172557274
4016000000.0 0.49827477500299644 -0.8634222998576305
4019000000.0 0.5220127586884789 -0.8455681882169606
4022000000.0000005 0.6138858079506616 -0.8393039050962083
4025000000.0000005 0.5415074585819756 -0.9200934202015078
4027999999.9999995 0.5226148922966165 -0.9092578866373663
4030999999.9999995 0.5274433515798143 -0.8386066463187212
4034000000.0 0.5264800195011308 -0.8924213916708552
4038000000.0000005 0.534542279943409 -0.8707139097516222
4041000000.0000005 0.565430104201052 -0.8525353293265704
4043999999.9999995 0.5851973170619825 -0.9760267200479128
4046999999.9999995 0.6143526303028843 -0.865214873554154
4050000000.0 0.546468762973528 -0.9223382660846087
4053000000.0 0.49419288461083244 -0.8602033652176102
4056000000.0 0.5524029075119188 -0.856374137962664
4059000000.0 0.5301908064781414 -0.8518562085254558
4062000000.0000005 0.5168052234415488 -0.8705445471737405
4066000000.0 0.5051556282749485 -0.8345147798876957
4069000000.0 0.568514219555971 -0.8980415342302155
4072000000.0 0.5673140686903965 -0.8443372219480738
4075000000.0 0.6175875904322121 -0.8739589239148542
4078000000.0000005 0.5161331262352654 -0.8846895741730555
4081000000.0000005 0.6115015346437565 -0.8960293428023324
4083999999.9999995 0.5479199490174518 -0.9348835513706698
4088000000.0 0.588752435583055 -0.8097891149085618
4091000000.0 0.6163434108469129 -0.9056554764345607
4094000000.0000005 0.5600982390458984 -0.8739467533778431
4097000000.0000005 0.5578549869392102 -0.8758399033603256
4099999999.9999995 0.5057451176770453 -0.8573822806997234
4102999999.9999995 0.5710000877964491 -0.8882843042660926
4106000000.0 0.5821441433335924 -0.8975847841606797
4109000000.0 0.5551570786564393 -0.8995112775706897
4112000000.0 0.5279438408467718 -0.8728281579645125
4115999999.9999995 0.5612955983221759 -0.8453845750387963
4119000000.0 0.565215605591508 -0.8740253888341563
4122000000.0 0.5307052513793064 -0.8751411661695321
4125000000.0 0.54984159788014 -0.8740746235038006
4128000000.0 0.5582298299321304 -0.8382327468340872
4131000000.0 0.5524360454502805 -0.8352411744377494
4134000000.0000005 0.556911603272421 -0.8536951821465594
4138000000.0 0.5241849103299189 -0.8800922171998071
4141000000.0 0.5404723064520325 -0.8823423634736707
4144000000.0 0.5695152153637912 -0.8755691185340221
4147000000.0000005 0.5525923580644031 -0.8556492578910289
4150000000.0000005 0.5419054664584684 -0.8615803551411231
4152999999.9999995 0.5359505065544564 -0.8289243901294385
4155999999.9999995 0.5819405851814899 -0.8527968360888527
4159000000.0 0.5468444019628532 -0.8446198775302185
4162000000.0 0.5705352813678871 -0.8714622066546831
4166000000.0000005 0.5365055011665943 -0.8963653283699621
4168999999.9999995 0.531046410179204 -0.8975532226247348
4171999999.9999995 0.554850673536559 -0.8673297779761958
4175000000.0 0.588468463655103 -0.8558236166313842
4178000000.0 0.5436335063286502 -0.8763572226250967
4181000000.0 0.5667698104439916 -0.8838075945074461
4184000000.0 0.5528155157816712 -0.8757373372574825
4187999999.9999995 0.550840640957307 -0.841206405350223
4191000000.0 0.5613548858686708 -0.807251931274212
4194000000.0 0.5340856515634818 -0.8502267278802897
4197000000.0 0.5516048015899638 -0.8886199512132427
4200000000.0 0.5584652861464776 -0.8831540637151172
4203000000.0000005 0.5663221897542581 -0.8696996978641918
4206000000.0000005 0.5653600571999455 -0.8821415866530619
4208999999.9999995 0.5394854630729672 -0.8524990192379208
4211999999.9999995 0.5137942818881354 -0.8680982346754551
4216000000.0 0.5436132813657306 -0.8269215418988201
4219000000.0000005 0.5619276650621396 -0.8599446199883449
4222000000.0000005 0.5456004985516116 -0.8572287209538898
4224999999.9999995 0.5543394493873585 -0.8540930500116912
4227999999.9999995 0.553869943320004 -0.8575817334627869
4231000000.0 0.5537780817808873 -0.8730114204425938
4234000000.0 0.5502644823765206 -0.8877723746844017
4238000000.0000005 0.5344658620192981 -0.8693643935216467
4240999999.9999995 0.5196266148800972 -0.8407406764441123
4244000000.0 0.546979827869367 -0.8327352076895354
4247000000.0 0.566700673480833 -0.8371158016574373
4250000000.0 0.5389095341499418 -0.8606165338709594
4253000000.0 0.5285083061136244 -0.8318954244957957
4256000000.0 0.5611690348651052 -0.8736860555192687
4259000000.0000005 0.5097568872227074 -0.8323466967202899
4261999999.9999995 0.5444214910401028 -0.8634941382051582
4266000000.0 0.5441794321931294 -0.8809946257484672
4269000000.0 0.5687634905158521 -0.8523270219504477
4272000000.0000005 0.5687183274426206 -0.8598089216415868
4275000000.0000005 0.5485868315825357 -0.8525919672924084
4277999999.9999995 0.5465963080386061 -0.8885537757546873
4280999999.9999995 0.5637453857388383 -0.8690822107833382
4284000000.0 0.528044251288637 -0.8861546197492141
4288000000.0000005 0.5837260193811155 -0.8526385158100108
4291000000.0000005 0.5215701824888306 -0.8559084097327594
4293999999.9999995 0.5215885442144016 -0.8405468415712599
4297000000.0 0.5676905869310993 -0.8591626170957083
4300000000.0 0.5593919705617956 -0.8446241063649546
4303000000.0 0.5251805345596731 -0.8461155532653908
4306000000.0 0.5674842469704653 -0.833116780803021
4309000000.0 0.5506441448804239 -0.8567671557230936
4312000000.0 0.6078565978051673 -0.8506403843465832
4316000000.0 0.572346056212082 -0.8510186126412765
4319000000.0 0.5394950478344114 -0.816065246436178
4322000000.0 0.535697592152754 -0.8248662092915191
4325000000.0 0.5713737911608426 -0.873574302210257
4328000000.0 0.545113633021144 -0.8528440143152566
4331000000.0 0.5073739495532064 -0.8875871148722568
4334000000.0 0.5441434237705661 -0.8687643752095583
4338000000.0 0.5701167162158383 -0.8383921764609393
4341000000.0 0.5595261630455668 -0.8374437274612274
4344000000.0 0.5688250067280578 -0.8654356304444731
4347000000.0 0.5511638869565619 -0.880121908575014
4350000000.0 0.5173022625264929 -0.8325963930349356
4353000000.0 0.5456242681027372 -0.8313822005002696
4356000000.0 0.5097421766757462 -0.8610255830897583
4359000000.0 0.5270333264628884 -0.8019250066207635
4362000000.0 0.505469381719478 -0.8991327545052367
4366000000.0 0.55856724068984 -0.870139376268852
4369000000.0 0.521251653103839 -0.8274002368399412
4372000000.0 0.4896128293240794 -0.8602927708019762
4375000000.0 0.5495934918698188 -0.8431645779798159
4378000000.0 0.5378696205844045 -0.8407280436229205
4381000000.0 0.5412956875247541 -0.8605729077342783
4384000000.0 0.5881739619997525 -0.9129089410216679
4388000000.0 0.5528702269725276 -0.8535350232566574
4391000000.0 0.5432094241959822 -0.8675428024037185
4394000000.0 0.5285104913602764 -0.834272603208732
4397000000.0 0.5193155984428366 -0.8501593228514224
4400000000.0 0.5502537698409116 -0.8737670289938181
4403000000.0 0.5522569276052391 -0.8633524312636368
4406000000.0 0.5171979553484332 -0.8768384322729309
4409000000.0 0.5499329599838363 -0.897033937775132
4412000000.0 0.48257780944871287 -0.8703773541801525
4416000000.0 0.5307478239155151 -0.855149059257346
4419000000.0 0.5185300863033522 -0.8732956702827022
4422000000.0 0.5426750145476628 -0.8404911802214327
4425000000.0 0.564864934550303 -0.8597657227002277
4428000000.0 0.5360104435399179 -0.8727414395750531
4431000000.0 0.5545807547738663 -0.8776803563632393
4434000000.0 0.5212467127370399 -0.8535191261811588
4438000000.0 0.5441191089186872 -0.8731805894665556
4441000000.0 0.5392624884005367 -0.8710855850386313
4444000000.0 0.5283716209964024 -0.8440800202413337
4447000000.0 0.507684374708188 -0.8651046472435625
4450000000.0 0.554115895604938 -0.8420499367991107
4453000000.0 0.541922471697212 -0.8836764151971522
4456000000.0 0.5065509715405648 -0.8438460097605106
4459000000.0 0.47237806622977463 -0.8356782313550108
4462000000.0 0.5601488461974791 -0.9012100789864221
4466000000.0 0.544020186012866 -0.8942096776321984
4469000000.0 0.5527906716144696 -0.8643392023942025
4472000000.0 0.5217607555147006 -0.8997137055523845
4475000000.0 0.522648825522424 -0.8438055528255726
4478000000.0 0.5167728930215788 -0.9094304964812567
4481000000.0 0.5025023130494928 -0.8628364081474382
4484000000.0 0.48975229656101604 -0.877345941447866
4488000000.0 0.5146950640317793 -0.8715530125513189
4491000000.0 0.519242028348248 -0.8840474499191009
4494000000.0 0.5214133832424714 -0.8622630301663451
4497000000.0 0.5166670054203794 -0.8514050424111771
4500000000.0 0.5318278976458115 -0.8608660097100911
4503000000.0 0.5549002685418349 -0.8720761957094691
4506000000.0 0.5074311263450936 -0.8741193681975197
4509000000.0 0.5160192852877314 -0.8509741945076258
4512000000.0 0.4884272939747073 -0.8609519161120651
4516000000.0 0.539120918360004 -0.865786335436827
4519000000.0 0.523168902972579 -0.8426951659594178
4522000000.0 0.5245441712840312 -0.8741145076117851
4525000000.0 0.5668408752633819 -0.8364072986906996
4528000000.0 0.5255211318937975 -0.8930800866201213
4531000000.0 0.5286554957937905 -0.8534355216309432
4534000000.0 0.5032814866200485 -0.857615505482914
4538000000.0 0.511828575960781 -0.8595834743213987
4541000000.0 0.4663799159899182 -0.8659569755065795
4544000000.0 0.5201825733403831 -0.857311716340323
4547000000.0 0.5347620260437126 -0.8471718314619567
4550000000.0 0.5147524323285031 -0.889565209621522
4553000000.0 0.5094197026999223 -0.8766185966397175
4556000000.0 0.49041804825203017 -0.8590985971615315
4559000000.0 0.5134931323259434 -0.8756102093264826
4562000000.0 0.5301049070291622 -0.864758547499428
4566000000.0 0.5029093369594351 -0.890862361249546
4569000000.0 0.5006037139589234 -0.8572287213888009
4572000000.0 0.5160005140549055 -0.8619651754119926
4575000000.0 0.4970581025919426 -0.8813183715850001
4578000000.0 0.5183618527496756 -0.8903522240570929
4581000000.0 0.5053162641400106 -0.8805777596102022
4584000000.0 0.5077164437030806 -0.8769306132918543
4588000000.0 0.5194101301005497 -0.8768082908679709
4591000000.0 0.5256743138218825 -0.8602279085729996
4594000000.0 0.49119448804147003 -0.8845315041749874
4597000000.0 0.5123442590223183 -0.8913264044577522
4600000000.0 0.48602658558889894 -0.8722026620849912
4603000000.0 0.5047202851012229 -0.8879600499218685
4606000000.0 0.5126042290525734 -0.8895960550984549
4609000000.0 0.5077249014652997 -0.8978351631938133
4612000000.0 0.5069603802793068 -0.8855078458697402
4616000000.0 0.4974763700386479 -0.8561763434639316
4619000000.0 0.5035060029410361 -0.8687323472051874
4622000000.0 0.5214577234017386 -0.8893006709075425
4625000000.0 0.48194026402959256 -0.8631062653735021
4628000000.0 0.5205302180233297 -0.8619424884016809
4631000000.0 0.49736805578059307 -0.8789889474315056
4634000000.0 0.4770826165247621 -0.8808477370784998
4638000000.0 0.5220288157166508 -0.872773225750791
4641000000.0 0.5089395197365317 -0.882265713089777
4644000000.0 0.4911507765680907 -0.8692880786886444
4647000000.0 0.5068341110322804 -0.8872446641569555
4650000000.0 0.4876878509842939 -0.8921033809233982
4653000000.0 0.5375794531690566 -0.8881774764563382
4656000000.0 0.47904280933555 -0.880534339151608
4659000000.0 0.4959021638237924 -0.8822182734065975
4662000000.0 0.5067578695400136 -0.8782905990928385
4666000000.0 0.5061882150161194 -0.8910121649277646
4669000000.0 0.5079436399433193 -0.8758665004957337
4672000000.0 0.47173348153545425 -0.8985272938841311
4675000000.0 0.5017141133529474 -0.9083248203673236
4678000000.0 0.4846837155567822 -0.8678545670040028
4681000000.0 0.467458638118382 -0.9014972411755455
4684000000.0 0.450252963939817 -0.9110964510394884
4688000000.0 0.45445905814069887 -0.8867011586055646
4691000000.0 0.5217733703190346 -0.8905825144350297
4694000000.0 0.4986986850544444 -0.8854096546331486
4697000000.0 0.46935739132704923 -0.8813857563229759
4700000000.0 0.4724704062676397 -0.8738903525794279
4703000000.0 0.492880476553155 -0.8524445551115064
4706000000.0 0.49055001518653824 -0.8849612192781515
4709000000.0 0.48726292344820765 -0.8980176850849644
4712000000.0 0.49860380655315806 -0.9014259954672112
4716000000.0 0.5052124339055892 -0.898311201070502
4719000000.0 0.5208933032268365 -0.8802139226741136
4722000000.0 0.5229030900618298 -0.8756489449262062
4725000000.0 0.4909061821717498 -0.8944172751779733
4728000000.0 0.49491803758401753 -0.8993605706470963
4731000000.0 0.5184360012282141 -0.9106271481946417
4734000000.0 0.510954909576927 -0.8785627750077566
4738000000.0 0.5068852977704452 -0.9332416911917234
4741000000.0 0.5062556465376689 -0.917455821189681
4744000000.0 0.48785187116942264 -0.9328105932092005
4747000000.0 0.4917224511245908 -0.8562563345540681
4750000000.0 0.48050176721430854 -0.9036179376000513
4753000000.0 0.5131999038199664 -0.8866845921267805
4756000000.0 0.5131011347127448 -0.898036730076789
4759000000.0 0.5216498805266103 -0.8754619332281912
4762000000.0 0.4617239232148881 -0.9171250467778209
4766000000.0 0.4974992663083667 -0.932380941693847
4769000000.0 0.5050042497465871 -0.8961698369029603
4772000000.0 0.4854570014786221 -0.8923454250293916
4775000000.0 0.48913793756238844 -0.9331789829868546
4778000000.0 0.48275175784758056 -0.9040590511515584
4781000000.0 0.5086886457963833 -0.8977630105606274
4784000000.0 0.5097306009540404 -0.8630417165264376
4788000000.0 0.4910108076994856 -0.941676095564583
4791000000.0 0.4975820563203138 -0.8985163279168508
4794000000.0 0.519499517732201 -0.9054328739516126
4797000000.0 0.49007125065188495 -0.866603662809903
4800000000.0 0.4583456000572956 -0.8945057665689502
4803000000.0 0.4580859604384642 -0.9337616461606334
4806000000.0 0.4958136270076187 -0.9055452589784916
4809000000.0 0.45071187317054245 -0.9045089880800965
4812000000.0 0.4352457452880602 -0.8888735739796175
4816000000.0 0.5016436859502167 -0.8827044341170542
4819000000.0 0.5213022520882524 -0.9238037129127145
4822000000.0 0.5415828604603181 -0.9181496339787065
4825000000.0 0.5255792364785803 -0.895116824119634
4828000000.0 0.49593250262164595 -0.9089071441866244
4831000000.0 0.44264090780933674 -0.927750508850099
4834000000.0 0.5061007491891032 -0.8881971278316974
4838000000.0 0.5036128002550662 -0.9339058956985434
4841000000.0 0.4636629152916699 -0.8943880218142258
4844000000.0 0.507805318790308 -0.9012301655143535
4847000000.0 0.5059103461864212 -0.8714934698776984
4850000000.0 0.5002218781122635 -0.9327369166535536
4853000000.0 0.4793231206906729 -0.891030416931187
4856000000.0 0.4737534311764916 -0.8877453594433535
4859000000.0 0.5196424808424644 -0.9200739604863161
4862000000.0 0.5073018658986899 -0.8651595437287509
4866000000.0 0.4970557106993969 -0.9235786138002142
4869000000.0 0.4627966427414511 -0.8961838809627954
4872000000.0 0.4544433048501556 -0.9489582905351128
4875000000.0 0.545337381819682 -0.8957986092522172
4878000000.0 0.5005130394299475 -0.8923596740443225
4881000000.0 0.5045852451545244 -0.9927195538161935
4884000000.0 0.5184397080728305 -0.9134930766470509
4888000000.0 0.5497902350796333 -0.8805111976245575
4891000000.0 0.5249190664644264 -0.9152251593157243
4894000000.0 0.4593527771615346 -0.9197589918368549
4897000000.0 0.5124576500436105 -0.9000122321572457
4900000000.0 0.4969392304497077 -0.890453185351437
4903000000.0 0.5059474364963513 -0.9128693980084395
4906000000.0 0.5084579305214207 -0.9178653389703537
4909000000.0 0.4896499062890046 -0.9281322046444902
4912000000.0 0.5100745898569605 -0.9251930130321493
4916000000.0 0.5315621918394956 -0.9322922600175877
4919000000.0 0.5364116727637361 -0.9120888616943476
4922000000.0 0.5160249674745278 -0.8717566569315688
4925000000.0 0.45815049773863575 -0.9135035750161806
4928000000.0 0.5225744667791 -0.8422356676309979
4931000000.0 0.5347783613763797 -0.8951718196800977
4934000000.0 0.47957977167675875 -0.8784513318851723
4938000000.0 0.471303968367217 -0.9182661404043863
4941000000.0 0.4868441917721302 -0.8948902918719377
4944000000.0 0.4976043221569181 -0.832027943573694
4947000000.0 0.49060949738639326 -0.8779030412253134
4950000000.0 0.47526984094750835 -0.8738156560935836
4953000000.0 0.46833454785051204 -0.9364982024207241
4956000000.0 0.4793005103747372 -0.9157156428787828
4959000000.0 0.4723362927400531 -0.8986166044927818
4962000000.0 0.4894739010628486 -0.9442147524816469
4966000000.0 0.537809058226349 -0.901282190351068
4969000000.0 0.5372013134794535 -0.9502660448773358
4972000000.0 0.4926771384829636 -0.91568079680099
4975000000.0 0.4984959228024542 -0.872183775173199
4978000000.0 0.5149967664703574 -0.9013069925270798
4981000000.0 0.4782995415030305 -0.9459416024702567
4984000000.0 0.5321995668945279 -0.9011943333304959
4988000000.0 0.5360924459633142 -0.858076589802643
4991000000.0 0.5576100914289848 -0.9043385026441921
4994000000.0 0.5038043643532644 -0.9140231787810957
4997000000.0 0.481274293935518 -0.9212227947860221
5000000000.0 0.5559170634689339 -0.9381855004888477
5003000000.0 0.552875512582158 -0.9140643199335113
5006000000.0 0.5410640344713896 -0.9424530155551258
5009000000.0 0.5071489565729317 -0.8934435069305898
5012000000.0 0.483934043286538 -0.9227840942753028
5016000000.0 0.5496525771993042 -0.8921665675933075
5019000000.0 0.49116579156770246 -0.8864335745952188
5022000000.0 0.5231668542956494 -0.9069325580531891
5025000000.0 0.5340791763960571 -0.9582627389986171
5028000000.0 0.5196929640725176 -0.9400915378064366
5031000000.0 0.4934598581090601 -0.8845608283146897
5034000000.0 0.4837915300136059 -0.9315915807574126
5038000000.0 0.4797051004105075 -0.8966687315338555
5041000000.0 0.5298083929391564 -0.8891674432236228
5044000000.0 0.5191898964743208 -0.8916478941772745
5047000000.0 0.5083910923015239 -0.9045709336396652
5050000000.0 0.5636622760621335 -0.8371010630997812
5053000000.0 0.5387515922144357 -0.9357900487505558
5056000000.0 0.5950037518568553 -0.8883191266353908
5059000000.0 0.5634438497490316 -0.8605317466612683
5062000000.0 0.4949572130628099 -0.9200804463969581
5066000000.0 0.5525520423638713 -0.8530322648704868
5069000000.0 0.5171793457461864 -0.9276537759256269
5072000000.0 0.5170533359610247 -0.8449026571420721
5075000000.0 0.5566023624606924 -0.8950318179036187
5078000000.0 0.4962253479869017 -0.9342913543611473
5081000000.0 0.5136097739796323 -0.8592702061481224
5084000000.0 0.5364313373128364 -0.9298309054108096
5088000000.0 0.5502224911154542 -0.8945147522105208
5091000000.0 0.5231778270534814 -0.9316086216637338
5094000000.0 0.47773496306872115 -0.8887517321156546
5097000000.0 0.56408523702335 -0.8809391406196991
5100000000.0 0.5219655080206909 -0.8719975310764156
5103000000.0 0.5421710357950585 -0.9155886927231808
5106000000.0 0.5482154059961649 -0.8906687645878512
5109000000.0 0.604766051646903 -0.8699834021902056
5112000000.0 0.5038561386820352 -0.8940995325647605
5116000000.0 0.5221651935257208 -0.870836328290965
5119000000.0 0.5178071250581315 -0.9293876289319013
5122000000.0 0.5267764097479206 -0.8818899383415183
5125000000.0 0.5518008871800524 -0.8966643330256561
5128000000.0 0.522067707856533 -0.8986278240579245
5131000000.0 0.5576467222627176 -0.8937455524753323
5134000000.0 0.5530707236041219 -0.877897139370017
5138000000.0 0.5884118342963487 -0.9028382441707121
5141000000.0 0.5753852285863547 -0.8330572488283188
5144000000.0 0.5511262038403618 -0.8668802131538821
5147000000.0 0.5637157447295579 -0.9160089902192364
5150000000.0 0.6065947096841744 -0.887443164009891
5153000000.0 0.5809949232307423 -0.9194778598437825
5156000000.0 0.5431597617591495 -0.8714563052424329
5159000000.0 0.5831613736053195 -0.8893918352252199
5162000000.0 0.494119059110277 -0.8615679623792334
5166000000.0 0.5314532777210788 -0.891597841198086
5169000000.0 0.5632006068677461 -0.8915815792958994
5172000000.0 0.556438833518753 -0.8468693801061655
5175000000.0 0.6006855087599791 -0.9100855634715215
5178000000.0 0.5204933091882772 -0.8791730879567452
