! Created with skrf 1.8.0 (http://scikit-rf.org).
# Hz S RI R 50.0 
!freq ReS11 ImS11
4000000000.0 0.3270486631017899 -0.9551241404399926
4003000000.0 0.349341660676361 -1.031638171102544
4006000000.0 0.2846705157098261 -1.0001282284457431
4009000000.0000005 0.33585619273869644 -0.9896961708024202
4011999999.9999995 0.3684103590792133 -0.9780944333693788
4016000000.0 0.29615072701734946 -1.0025414806900952
4019000000.0 0.3496883133597436 -0.9598169615630375
4022000000.0000005 0.39518568795444464 -0.967852722894493
4025000000.0000005 0.2807606985486212 -0.9519113802724468
4027999999.9999995 0.31287573316019923 -0.9670452432565657
4030999999.9999995 0.36324713237603623 -0.9449272286572397
4034000000.0 0.32511042565236975 -0.9595113470349308
4038000000.0000005 0.30725791242374884 -0.985106665539416
4041000000.0000005 0.33503310475868425 -0.9656652635426981
4043999999.9999995 0.369188696209104 -0.9720032853352378
4046999999.9999995 0.3601248017053631 -1.009919665146282
4050000000.0 0.33934883585286946 -1.0031137556094747
4053000000.0 0.32130089447291943 -0.9789488248670639
4056000000.0 0.3167924100388124 -0.989198814058016
4059000000.0 0.3141771750532403 -0.9342308851243558
4062000000.0000005 0.3273154755419763 -0.9529268222033785
4066000000.0 0.2774368973620568 -0.9167725581530635
4069000000.0 0.3304905584534744 -1.0371938223275725
4072000000.0 0.3443007982486489 -0.9768516572785148
4075000000.0 0.33744955520524544 -0.976972602691249
4078000000.0000005 0.32644612764073644 -0.9856550173461349
4081000000.0000005 0.34747558318734434 -0.9869330822859868
4083999999.9999995 0.3283514870287613 -0.9768550794807752
4088000000.0 0.33952822600925897 -0.9765478523803633
4091000000.0 0.3564880639048187 -0.9870315269916192
4094000000.0000005 0.3290122603373167 -0.9552433788061593
4097000000.0000005 0.3128949074933373 -0.9976240866167305
4099999999.9999995 0.3104923738279514 -0.9646147482438657
4102999999.9999995 0.36963777139814125 -0.9957667034668163
4106000000.0 0.3016819227738141 -1.003852937588688
4109000000.0 0.2665501484520322 -0.9989971407233332
4112000000.0 0.339704744288258 -0.94936120148269
4115999999.9999995 0.31123390133185846 -0.9803949415464793
4119000000.0 0.29721180482381304 -0.9810071373716357
4122000000.0 0.2662618486955133 -0.9736000268197128
4125000000.0 0.29918048758621335 -0.9836439570656281
4128000000.0 0.32609795115151946 -0.9269895571568124
4131000000.0 0.2861311772745844 -0.9914892713698775
4134000000.0000005 0.3234022830978577 -0.9676791882646912
4138000000.0 0.2846229640923073 -0.9631746304026451
4141000000.0 0.3001213871870146 -0.9756552474108208
4144000000.0 0.31194539106036323 -0.9724392209264183
4147000000.0000005 0.28727309171122645 -0.9929679002536876
4150000000.0000005 0.2782519417054174 -0.9948530099654279
4152999999.9999995 0.29677444044452694 -0.9778778418493701
4155999999.9999995 0.3124110445384035 -0.9978979829725639
4159000000.0 0.3263826461204815 -0.9593674100572946
4162000000.0 0.30429445088374596 -0.9691001849705124
4166000000.0000005 0.2828288983889101 -0.9911450153291649
4168999999.9999995 0.25773836937230243 -0.9641794713898567
4171999999.9999995 0.305091906976361 -0.9696757859030205
4175000000.0 0.29384388101567305 -0.9864155455916921
4178000000.0 0.29902528473464873 -0.9742985488953068
4181000000.0 0.2589894035679274 -0.9808726212838746
4184000000.0 0.27851861716964194 -0.9641248333474193
4187999999.9999995 0.2688284691279096 -0.9683739388143733
4191000000.0 0.2963210249416528 -0.9576233704162076
4194000000.0 0.26691643922246 -0.961969508406495
4197000000.0 0.29039823534635567 -0.9908895304111109
4200000000.0 0.3076755352162784 -0.9536856253042212
4203000000.0000005 0.2965345858735402 -1.0011178162638628
4206000000.0000005 0.2883317897946246 -0.9826814074260835
4208999999.9999995 0.2702500285625361 -0.962533360964114
4211999999.9999995 0.247353850847079 -0.9848377231738251
4216000000.0 0.2937203268867696 -0.9986089854293431
4219000000.0000005 0.29634670627508525 -0.9996646144917142
4222000000.0000005 0.24925012080593084 -0.9753537321423861
4224999999.9999995 0.26907269257479566 -0.9606011550478294
4227999999.9999995 0.2591558860151761 -0.9919747450663831
4231000000.0 0.2585660678669728 -0.9869367763026703
4234000000.0 0.23586246928556454 -0.9958378032789319
4238000000.0000005 0.2558480602351668 -0.9908787682462232
4240999999.9999995 0.23165273643619783 -0.968306309379077
4244000000.0 0.2538068177176874 -0.9733936230692416
4247000000.0 0.2641624832699021 -0.9601608410897652
4250000000.0 0.24756056355945202 -0.9659036244254238
4253000000.0 0.23248332693820495 -0.9628206094309774
4256000000.0 0.25198386205955897 -1.0173323821289546
4259000000.0000005 0.24068385280222698 -0.952630817756856
4261999999.9999995 0.21704919581949636 -1.0013403123861038
4266000000.0 0.21940719625750588 -1.0031748707270303
4269000000.0 0.25147619579293534 -0.978211511233524
4272000000.0000005 0.2419040987524257 -0.9608810649054522
4275000000.0000005 0.2234995608915377 -0.9910269869154527
4277999999.9999995 0.2594592546885873 -1.0114748354754879
4280999999.9999995 0.24892334852781467 -0.9984959719685834
4284000000.0 0.2052491222317812 -0.9927803812930672
4288000000.0000005 0.2547502363162387 -0.9946435544559351
4291000000.0000005 0.21728968885161462 -0.960408905489348
4293999999.9999995 0.2187649983581424 -0.9727751456932385
4297000000.0 0.23741919237734074 -0.9736379814925705
4300000000.0 0.23289538831387158 -0.9671667510180533
4303000000.0 0.19894349254132285 -0.9863574569425259
4306000000.0 0.24734487355793858 -0.9903440985231309
4309000000.0 0.23963700484717793 -0.9803132347186416
4312000000.0 0.24628194823424446 -0.9821783486579204
4316000000.0 0.24352701183614403 -0.9887532970808272
4319000000.0 0.21256989522787026 -0.9673808969992383
4322000000.0 0.19853139491024147 -0.966570846133384
4325000000.0 0.21494163422932044 -1.0012323301143273
4328000000.0 0.23816381893598015 -0.9666213085316182
4331000000.0 0.1885569758814028 -0.989786140391071
4334000000.0 0.1982099152103276 -0.998355192358607
4338000000.0 0.22910242554560478 -0.9787045913732761
4341000000.0 0.25340199138058106 -1.0000025753236956
4344000000.0 0.2237849097502847 -0.9918675164118342
4347000000.0 0.18250836452151215 -0.9864993866695663
4350000000.0 0.18131247097951858 -0.9578808371439944
4353000000.0 0.21742774012536115 -0.9628278344613367
4356000000.0 0.15067693993884473 -0.9814964121309564
4359000000.0 0.16286315972006837 -0.9427256761999634
4362000000.0 0.14699404075285494 -1.014887396837914
4366000000.0 0.18347615950289198 -1.008613601428027
4369000000.0 0.17075780552269526 -0.9589764779477027
4372000000.0 0.12735275661891754 -0.9781851906650394
4375000000.0 0.17882901782398575 -0.9825132651330923
4378000000.0 0.1706194513661325 -0.983232986922295
4381000000.0 0.16143250514922486 -0.9686978868690594
4384000000.0 0.160762925257653 -1.0542650846819313
4388000000.0 0.1695439030231755 -0.9799817911465059
4391000000.0 0.1693536770292443 -1.0180846350416424
4394000000.0 0.15228386158820406 -0.9793469513145666
4397000000.0 0.14266455825515734 -1.0061273302796683
4400000000.0 0.14161698995075522 -1.0180766155202416
4403000000.0 0.14928186185053338 -1.0086510449454544
4406000000.0 0.12382202934702313 -0.9969911543135167
4409000000.0 0.1369214913497091 -1.03153045832446
4412000000.0 0.09764677177489128 -0.9997335891596528
4416000000.0 0.13117082183830325 -0.9888930026165443
4419000000.0 0.11428083489728363 -1.004801856564865
4422000000.0 0.16295906673733346 -0.9878525847727836
4425000000.0 0.14346528378260137 -1.0033156547281783
4428000000.0 0.1332489243386335 -1.012204445353035
4431000000.0 0.12612309544925776 -1.0070765781513766
4434000000.0 0.1026456744120855 -0.9913124026304393
4438000000.0 0.11449535916074743 -1.0163097606291933
4441000000.0 0.10732348749529436 -1.0077867156502167
4444000000.0 0.1151302533334761 -0.9778326584935296
4447000000.0 0.10952089332331788 -0.9885271223149572
4450000000.0 0.11526901333958706 -0.9991393851021007
4453000000.0 0.12594847765959755 -1.032808170503782
4456000000.0 0.10135528560896634 -0.9883846839417101
4459000000.0 0.098148972738482 -0.9787191470154475
4462000000.0 0.09315792326445038 -1.0615062402653748
4466000000.0 0.09995999628774482 -1.0375012537852077
4469000000.0 0.09722776332250821 -0.9957474009804661
4472000000.0 0.07820705482058216 -1.0284048411182392
4475000000.0 0.11336681595314085 -0.9878508784128752
4478000000.0 0.08807303356999424 -1.0331545803174493
4481000000.0 0.06695530257376375 -0.9956102487521097
4484000000.0 0.021406879908276555 -1.0138639835505914
4488000000.0 0.0692334892536266 -1.0116027032811856
4491000000.0 0.07500519739759465 -1.0249285564326667
4494000000.0 0.06608629946042333 -1.0243347792640045
4497000000.0 0.08343884455860395 -0.9906567426102184
4500000000.0 0.04350157700817331 -1.0106367219366679
4503000000.0 0.07134208300449657 -1.034563274998079
4506000000.0 0.05370578616674154 -1.0159240067476127
4509000000.0 0.06244940008854 -0.987071227838305
4512000000.0 0.04535915969400628 -1.004699947552008
4516000000.0 0.04499450777060021 -1.0370044100478804
4519000000.0 0.057282111585094386 -0.9988605957151755
4522000000.0 0.05237720669586238 -1.0188048998290626
4525000000.0 0.06625148859864893 -1.0265849776421356
4528000000.0 0.05956420938824525 -1.0270966614516015
4531000000.0 0.021479658054178175 -1.0119224997627814
4534000000.0 0.009530449478212799 -1.0249535691307876
4538000000.0 0.01709467997284303 -1.0180076446303896
4541000000.0 0.007135202881912106 -0.9942485973244315
4544000000.0 0.016666224408193542 -0.9987082369976861
4547000000.0 0.014803580871329658 -0.9897637227243137
4550000000.0 0.004115884185674601 -1.0204531102826604
4553000000.0 0.005178037795937007 -1.0089397963104185
4556000000.0 -0.0011773488743398453 -1.0201063784151194
4559000000.0 0.024973615939714977 -1.010633204832225
4562000000.0 0.013743191671190591 -0.9992418764630615
4566000000.0 0.012598112601776734 -1.017748682683902
4569000000.0 -0.01975333691618203 -1.0161158570240316
4572000000.0 0.002020099636399486 -1.0051997738035896
4575000000.0 -0.039376412640098724 -1.0064350042652923
4578000000.0 -0.005678557972795817 -1.016798958824864
4581000000.0 -0.03961972520391388 -0.9970225647724159
4584000000.0 -0.02339276994256151 -1.013989352417314
4588000000.0 -0.02206320253338595 -1.0186121991609218
4591000000.0 -0.04693460323794518 -1.011048631158796
4594000000.0 -0.041595089018906795 -1.001803642189356
4597000000.0 -0.058983235633672915 -1.0140394004387436
4600000000.0 -0.04919106077879354 -1.0121092843578623
4603000000.0 -0.042148550984318245 -0.9932864878407617
4606000000.0 -0.05177262239022512 -1.0427894217311935
4609000000.0 -0.06294812032259636 -1.019214620453782
4612000000.0 -0.05328867107105856 -0.9957889309803419
4616000000.0 -0.07309978337779574 -0.9861718613815169
4619000000.0 -0.06622916495328657 -1.025320911027704
4622000000.0 -0.0947353796902311 -1.0038700288926776
4625000000.0 -0.10066671144888731 -1.033621157304916
4628000000.0 -0.08345231448517351 -1.0797440930379536
4631000000.0 -0.08171276046964032 -1.0138035628237287
4634000000.0 -0.10874867498746438 -1.0201553713197784
4638000000.0 -0.10568496930898405 -1.0170979819726953
4641000000.0 -0.09767526811559403 -1.0042807632881503
4644000000.0 -0.0932711420446319 -0.9843445714918555
4647000000.0 -0.09446195053478477 -1.0040593312670008
4650000000.0 -0.1104126670968371 -0.990629424257226
4653000000.0 -0.1141072837727154 -1.0009530773558466
4656000000.0 -0.10702456744220762 -1.0221873180061203
4659000000.0 -0.1273453138998358 -0.9958027377567703
4662000000.0 -0.1502457447703552 -1.0357451006736813
4666000000.0 -0.16132651048279711 -1.0224295644511043
4669000000.0 -0.15294306463312973 -1.026680284273441
4672000000.0 -0.158428689725555 -1.0741165626235427
4675000000.0 -0.17023973333603135 -1.0083975429296066
4678000000.0 -0.16764912742784488 -0.9804563108036161
4681000000.0 -0.16367342577468544 -1.0110319842115352
4684000000.0 -0.1891293176668027 -0.9972119674021716
4688000000.0 -0.19114827343201812 -1.0230784334709437
4691000000.0 -0.16156123303967174 -1.0253548661162941
4694000000.0 -0.1134169957238603 -0.9832907778834582
4697000000.0 -0.19419092228427878 -0.9490059235503857
4700000000.0 -0.1681389600892996 -0.9937055811696416
4703000000.0 -0.10623008230845207 -0.930743688468244
4706000000.0 -0.2249985296334877 -1.0151715537810189
4709000000.0 -0.17641573090510665 -0.9835049039506619
4712000000.0 -0.17872812433376892 -0.9966456899435545
4716000000.0 -0.23908910539942185 -1.0251570433524666
4719000000.0 -0.13851808701557433 -1.003892704355306
4722000000.0 -0.16164113988233164 -1.0094448198053738
4725000000.0 -0.21207869076803457 -0.9952144231051183
4728000000.0 -0.2622008054169572 -1.0047868196770595
4731000000.0 -0.21250758388238483 -1.0025387400173484
4734000000.0 -0.18951065180790572 -1.0239702237791029
4738000000.0 -0.17702432993217432 -1.0718228343703937
4741000000.0 -0.2479386217296746 -1.025718902602127
4744000000.0 -0.25284137903905174 -1.0100801433547313
4747000000.0 -0.2226140166515082 -0.961874417027531
4750000000.0 -0.248762771148582 -1.0211615596853085
4753000000.0 -0.23288140874200053 -1.002525502797485
4756000000.0 -0.25591604385248345 -1.0257299353416924
4759000000.0 -0.2339019340617512 -1.0760735673122799
4762000000.0 -0.32728751523519617 -0.9960457605809906
4766000000.0 -0.27865949808746454 -1.0075404358358027
4769000000.0 -0.2674770466588221 -1.0348897164554813
4772000000.0 -0.24827081848149612 -0.9944715728070259
4775000000.0 -0.3187935980785175 -1.0497166617545093
4778000000.0 -0.34126190076194657 -1.0294712368539685
4781000000.0 -0.2734510690077543 -0.981659616725913
4784000000.0 -0.2604064000890935 -0.98771284619439
4788000000.0 -0.3464282924847571 -0.9925237193761047
4791000000.0 -0.2998795945747056 -0.9583389459443467
4794000000.0 -0.2967367475803607 -1.0334845493953262
4797000000.0 -0.31952897589363266 -0.9289584922513875
4800000000.0 -0.32226129787236535 -0.9522546615188523
4803000000.0 -0.37012645948513184 -0.9429195380838105
4806000000.0 -0.32550050613304293 -1.0030132570980062
4809000000.0 -0.40309833558882985 -0.9768549128245384
4812000000.0 -0.38220271250606674 -0.9233523141968059
4816000000.0 -0.32884442304808703 -0.9726767376747146
4819000000.0 -0.3448971536472243 -0.9996612188744394
4822000000.0 -0.3540964120539226 -1.0272141410805982
4825000000.0 -0.3382632666542964 -1.0199720696934615
4828000000.0 -0.3754444170440614 -0.9677763400063989
4831000000.0 -0.4050850984352059 -0.9949128076862237
4834000000.0 -0.36536186223085765 -0.9856018828857246
4838000000.0 -0.4020437006363258 -0.9604756660729388
4841000000.0 -0.40538837997086796 -0.9460465420347794
4844000000.0 -0.39426580447756343 -0.9915523197233906
4847000000.0 -0.3624708978358717 -0.9453500091022428
4850000000.0 -0.4566187559575679 -0.9701873468312641
4853000000.0 -0.3914569722899327 -0.9070051225823074
4856000000.0 -0.4157368059750368 -0.92101926127102
4859000000.0 -0.47744777206033984 -0.9534851205671204
4862000000.0 -0.39950206469080557 -0.9176030046189378
4866000000.0 -0.46229249571460473 -0.9279732457390147
4869000000.0 -0.44423593317993054 -0.9509141046511118
4872000000.0 -0.4535964420304711 -0.9295486002949205
4875000000.0 -0.41191815689540623 -0.9870716620474547
4878000000.0 -0.4691552394706349 -0.9295649277786178
4881000000.0 -0.5100565399244449 -0.9568390177087316
4884000000.0 -0.47322776663052124 -0.929000780091844
4888000000.0 -0.47000387897036094 -0.8993210568633877
4891000000.0 -0.4964257785580733 -0.9236481519150069
4894000000.0 -0.48861589112570536 -0.8689408803571603
4897000000.0 -0.5098389983489677 -0.8822295489501422
4900000000.0 -0.5074007421709633 -0.9188692043708689
4903000000.0 -0.5295037246358683 -0.9153990923536703
4906000000.0 -0.5588026811027902 -0.9379599021645076
4909000000.0 -0.524070296098756 -0.8842713994352589
4912000000.0 -0.5748259169375337 -0.9032014138837767
4916000000.0 -0.6080826797859751 -0.8610045590413264
4919000000.0 -0.5711736467821507 -0.9074772473676012
4922000000.0 -0.5643950127990894 -0.8843296159175332
4925000000.0 -0.5918372214214661 -0.8202256378141866
4928000000.0 -0.5572967921628327 -0.8539981593542316
4931000000.0 -0.5572325884175341 -0.8892068435134418
4934000000.0 -0.5358791615641371 -0.8530006274055177
4938000000.0 -0.6233862119668943 -0.8369481635649516
4941000000.0 -0.6018563979155609 -0.8425559838326604
4944000000.0 -0.5842671981140786 -0.8270707512417326
4947000000.0 -0.5843311572573195 -0.8173312360091392
4950000000.0 -0.6191180868896411 -0.8633267668732927
4953000000.0 -0.631826489299791 -0.8199248833987166
4956000000.0 -0.6618554280074777 -0.800414210787031
4959000000.0 -0.6602982857795886 -0.7863127293802281
4962000000.0 -0.6727277863767566 -0.7840591953744074
4966000000.0 -0.6489079950565073 -0.8151856578220721
4969000000.0 -0.6638414039637698 -0.7872334603130278
4972000000.0 -0.6525072367389684 -0.7803150038126843
4975000000.0 -0.6947744000833883 -0.7605272061962123
4978000000.0 -0.7092225423946664 -0.7761616825368788
4981000000.0 -0.7044232749830693 -0.7421645450238562
4984000000.0 -0.7258971610492355 -0.702502562498265
4988000000.0 -0.7441501954169607 -0.7690787607931482
4991000000.0 -0.750115745389941 -0.7536525378063165
4994000000.0 -0.7019402242813894 -0.680416702116675
4997000000.0 -0.750231484889224 -0.693024846368989
5000000000.0 -0.7711683076823183 -0.6483952265095319
5003000000.0 -0.7991498705570547 -0.6694020294504387
5006000000.0 -0.7774487540854232 -0.6898517743229765
5009000000.0 -0.7998029761162847 -0.6374991843326097
5012000000.0 -0.8010164321055336 -0.6578990648760541
5016000000.0 -0.7984206478784057 -0.6835150226027942
5019000000.0 -0.8293802930223323 -0.6323359317686471
5022000000.0 -0.8415116804329634 -0.6142438798264998
5025000000.0 -0.8162834012331118 -0.5735612233993964
5028000000.0 -0.8494593437357928 -0.6323454339404151
5031000000.0 -0.8566226588191544 -0.5573928092639873
5034000000.0 -0.8563359990088976 -0.5880144246518865
5038000000.0 -0.8631416618484985 -0.5630665353147568
5041000000.0 -0.8805628060974171 -0.5238775389521733
5044000000.0 -0.8408231504156141 -0.5313030340825557
5047000000.0 -0.8974674874990114 -0.47001110982117633
5050000000.0 -0.9207827842187024 -0.5449829999347797
5053000000.0 -0.88225297004857 -0.4825535700424224
5056000000.0 -0.9088978474423268 -0.4242974785875703
5059000000.0 -0.9361859441850036 -0.39593171003257704
5062000000.0 -0.9673410477160338 -0.44876072211733004
5066000000.0 -1.0036655790700082 -0.4672509636577126
5069000000.0 -0.9254672473567153 -0.42341052548260105
5072000000.0 -0.998489055212825 -0.4854332122014803
5075000000.0 -0.9154398627559376 -0.3761733418640289
5078000000.0 -0.9386381768422638 -0.41611848011121233
5081000000.0 -0.9664693214491906 -0.3643321118289216
5084000000.0 -0.9253425489805535 -0.312969137998294
5088000000.0 -1.0065388670070372 -0.31523477309488335
5091000000.0 -0.903856854190999 -0.270645019926862
5094000000.0 -0.9290018809811664 -0.24290559898037273
5097000000.0 -0.9229172982214668 -0.1646992072465165
5100000000.0 -1.0481837758641999 -0.20220097782798518
5103000000.0 -1.0086194140944154 -0.13623815476390577
5106000000.0 -0.9455607926122678 -0.10703099678762451
5109000000.0 -0.9857954564656805 -0.17939135338790524
5112000000.0 -1.0537819640005202 -0.10212660956038733
5116000000.0 -1.0770688421906804 -0.12739471037212813
5119000000.0 -1.0113028782548708 -0.011378951463696052
5122000000.0 -0.9931111621700359 -0.051054422255680354
5125000000.0 -0.9299765212098015 -0.1505658393173296
5128000000.0 -1.0376258534402882 -0.05773732147953847
5131000000.0 -1.0763997634309097 -0.0021833503979327706
5134000000.0 -1.0144893001163782 0.007325768780646502
5138000000.0 -0.9669281861253609 -0.018616378175731585
5141000000.0 -1.060435738033209 0.08157393859145184
5144000000.0 -0.9505919544141698 0.12038200762960316
5147000000.0 -1.0271618000277682 0.08221801641721715
5150000000.0 -1.0520507057315491 0.1591625427275805
5153000000.0 -1.0633478010688726 0.16789242378762465
5156000000.0 -0.9450657146054113 0.162709088354202
