! Created with skrf 1.8.0 (http://scikit-rf.org).
# Hz S RI R 50.0 
!freq ReS11 ImS11
4000000000.0 0.5481856716978535 -0.8775583727419141
4003000000.0 0.5823465956569197 -0.9112130092951312
4006000000.0 0.4776123512138999 -0.8875079870931291
4009000000.0000005 0.5223686333214327 -0.8811565586720146
4011999999.9999995 0.6075139561294889 -0.8778954409209363
4016000000.0 0.5553852257851584 -0.93938180554636
4019000000.0 0.560996129844869 -0.847389940782718
4022000000.0000005 0.6339990713649816 -0.8234515022628612
4025000000.0000005 0.530103898291225 -0.954966195942371
4027999999.9999995 0.5324801865078858 -0.8684630165586952
4030999999.9999995 0.5524642895354486 -0.8422415969650133
4034000000.0 0.5697048813774501 -0.8448967614103569
4038000000.0000005 0.522866956457691 -0.9195595798797109
4041000000.0000005 0.5804336873630664 -0.890583832438357
4043999999.9999995 0.622461398746505 -0.9053639144839924
4046999999.9999995 0.5621942430514062 -0.8739493037666939
4050000000.0 0.5418338407637658 -0.9035631482886224
4053000000.0 0.5136505626814223 -0.8833688361991512
4056000000.0 0.5396036785143231 -0.8785715318967631
4059000000.0 0.555667619417831 -0.8461638112396076
4062000000.0000005 0.5149140905656007 -0.9325479280460064
4066000000.0 0.513014863155896 -0.8188163292649377
4069000000.0 0.5428331491392264 -0.9292694627843608
4072000000.0 0.5587748881247883 -0.8741068350672507
4075000000.0 0.618251761517865 -0.8912584464016677
4078000000.0000005 0.544860521220458 -0.8745037968588911
4081000000.0000005 0.6192354310966515 -0.8298770479360651
4083999999.9999995 0.5524109212379918 -0.9323523974635737
4088000000.0 0.5915123618817744 -0.8497426323833751
4091000000.0 0.6111377318893287 -0.9090006802178684
4094000000.0000005 0.5714868021045432 -0.8787070965759837
4097000000.0000005 0.536934793287131 -0.8915335043401789
4099999999.9999995 0.5601950373245826 -0.8663465631402689
4102999999.9999995 0.6269566911591288 -0.8595593454199006
4106000000.0 0.5174007142548065 -0.885364081197473
4109000000.0 0.5548773210502518 -0.9006389133893608
4112000000.0 0.5395597804713551 -0.8560480082631317
4115999999.9999995 0.5758822780830836 -0.8525015676237955
4119000000.0 0.5448319740058262 -0.8951692570126811
4122000000.0 0.5364116315270323 -0.8975939445845699
4125000000.0 0.5150669625032545 -0.8841577109086701
4128000000.0 0.5438022846047172 -0.8528329475652078
4131000000.0 0.5701504228575182 -0.8709979438457811
4134000000.0000005 0.5799551279677112 -0.8426948972016373
4138000000.0 0.5385217786644172 -0.8805728186895576
4141000000.0 0.5293634897593796 -0.8429317246444875
4144000000.0 0.5686695418051052 -0.8747732377079404
4147000000.0000005 0.5513720351776915 -0.900620680641227
4150000000.0000005 0.5712923546243359 -0.9138738420912572
4152999999.9999995 0.5609666873914032 -0.8836368510404211
4155999999.9999995 0.5616839915824461 -0.8851669467384139
4159000000.0 0.5526403128662682 -0.8515136537791619
4162000000.0 0.5613586861215749 -0.8568066038903185
4166000000.0000005 0.5517117646652117 -0.8630259571552964
4168999999.9999995 0.5379638712114402 -0.8559938410453348
4171999999.9999995 0.5813676274029476 -0.8657422842975332
4175000000.0 0.545151539040968 -0.8743385843567785
4178000000.0 0.5481136198328342 -0.9060406447180405
4181000000.0 0.5474165899987542 -0.8832638399000787
4184000000.0 0.5480581818574175 -0.8559974908689607
4187999999.9999995 0.5705171798419998 -0.8772669154985275
4191000000.0 0.5948642884024464 -0.8202511329236428
4194000000.0 0.5201557118376126 -0.8218425347317247
4197000000.0 0.555015430754787 -0.8796321017885733
4200000000.0 0.5823600014186706 -0.8359871035047809
4203000000.0000005 0.5567902090997414 -0.8611645225263098
4206000000.0000005 0.5662339747398355 -0.868849159587995
4208999999.9999995 0.5539140156839164 -0.8504195929442457
4211999999.9999995 0.5315780882299257 -0.8861080171935655
4216000000.0 0.5515083841436865 -0.8636628568874227
4219000000.0000005 0.573997597272479 -0.8742484839797531
4222000000.0000005 0.5489399071341923 -0.862580728479959
4224999999.9999995 0.5366495140350589 -0.8248045989617919
4227999999.9999995 0.5777200527755888 -0.8676048457362692
4231000000.0 0.5503917175024435 -0.8518578242324334
4234000000.0 0.5571160439055831 -0.8526248920780168
4238000000.0000005 0.530611300647818 -0.8667893983261636
4240999999.9999995 0.5310892745059834 -0.8534814441305139
4244000000.0 0.5542301596601095 -0.8561833949552575
4247000000.0 0.569046949642755 -0.8484531891955231
4250000000.0 0.5292928866515418 -0.8355279036641461
4253000000.0 0.5263760579652123 -0.8294840771315564
4256000000.0 0.5531775517702605 -0.8719138277167515
4259000000.0000005 0.5360492341762649 -0.8297563872098971
4261999999.9999995 0.5329819821311419 -0.8631904308565079
4266000000.0 0.5419443753180829 -0.8849844840148224
4269000000.0 0.5453366796446769 -0.8425798975567896
4272000000.0000005 0.5372215019546 -0.8594849285491181
4275000000.0000005 0.5452074146179519 -0.8625173227584506
4277999999.9999995 0.5681349407556088 -0.8839847922324259
4280999999.9999995 0.557606690177647 -0.858426001921849
4284000000.0 0.5229803662731151 -0.8602976773884433
4288000000.0000005 0.5809960635568092 -0.861722931717588
4291000000.0000005 0.5414678518850619 -0.825140104674328
4293999999.9999995 0.5372196794107228 -0.8557539970466306
4297000000.0 0.5545495988384318 -0.8278013966715175
4300000000.0 0.5569468621092976 -0.8563878805565853
4303000000.0 0.5193775450785005 -0.8603320172023964
4306000000.0 0.5564722458012403 -0.8402553308038465
4309000000.0 0.5359162566751572 -0.8436619473947441
4312000000.0 0.5698827215890843 -0.842505022537473
4316000000.0 0.5293574952398045 -0.8597451941134188
4319000000.0 0.5411828984462639 -0.8447533991011026
4322000000.0 0.5065375915760782 -0.8593928103013797
4325000000.0 0.566850344268149 -0.8616173356834471
4328000000.0 0.5561855533726049 -0.8654446384948646
4331000000.0 0.5348332782610346 -0.8723123434894346
4334000000.0 0.5364971080346055 -0.8539937019176497
4338000000.0 0.5691840365510297 -0.8522443796666658
4341000000.0 0.5828227947860177 -0.8630300867416806
4344000000.0 0.5545944224814799 -0.8549869747070061
4347000000.0 0.5315551292132633 -0.8740469724168491
4350000000.0 0.4939881664176238 -0.8381306876332671
4353000000.0 0.5545681172474705 -0.818046730849096
4356000000.0 0.5289984667936475 -0.858126387902684
4359000000.0 0.5229269845614636 -0.8146441850336407
4362000000.0 0.5089347885325234 -0.89752401163476
4366000000.0 0.5346770641094853 -0.863245195536031
4369000000.0 0.5175868421313642 -0.8295184465850476
4372000000.0 0.5021124992276026 -0.872644908221636
4375000000.0 0.5517387423947901 -0.8496592904647184
4378000000.0 0.5406230197740242 -0.832710254148729
4381000000.0 0.5169043965446698 -0.8349535858571007
4384000000.0 0.5752998819398596 -0.9127749032022205
4388000000.0 0.5502967548925046 -0.8356645964531919
4391000000.0 0.5424342381423531 -0.8648558931165127
4394000000.0 0.5239452020006384 -0.8290807147732866
4397000000.0 0.5281323399282647 -0.8417401052218303
4400000000.0 0.5555146068366794 -0.8781744544506455
4403000000.0 0.5520620223221947 -0.8620542915973585
4406000000.0 0.5176453720823675 -0.8637113320906156
4409000000.0 0.5571390784144055 -0.8843719627060836
4412000000.0 0.4835110974276897 -0.8889249675141537
4416000000.0 0.5191939076760653 -0.8538797736487553
4419000000.0 0.5249049351971691 -0.861231304776647
4422000000.0 0.5480824970213489 -0.8487362622133698
4425000000.0 0.5627397322276282 -0.8653604522099954
4428000000.0 0.533495024520419 -0.8513202679723892
4431000000.0 0.54963750380833 -0.8698612644786288
4434000000.0 0.5175070194641802 -0.8405356797345165
4438000000.0 0.550064945823957 -0.8892122290816583
4441000000.0 0.5508505740999303 -0.8592575253283112
4444000000.0 0.5177527446771275 -0.83486140113966
4447000000.0 0.5112965123334755 -0.8642461153863341
4450000000.0 0.5454684130864598 -0.8437120921857777
4453000000.0 0.5566542621439465 -0.8945898164426414
4456000000.0 0.5147119207195828 -0.8525007110110072
4459000000.0 0.49934118231510116 -0.8232352143615533
4462000000.0 0.5518792566870765 -0.9291968547483567
4466000000.0 0.5348449707027 -0.9074000191652827
4469000000.0 0.5475822135179271 -0.8599362049596213
4472000000.0 0.51827237175135 -0.881978528740919
4475000000.0 0.5137743272370682 -0.8636821249058453
4478000000.0 0.5518316341996612 -0.9112845045295738
4481000000.0 0.497952610671777 -0.8318423812016484
4484000000.0 0.4712226577022915 -0.8887537338594298
4488000000.0 0.5165036783550515 -0.8523324397278613
4491000000.0 0.5304592597207176 -0.8787373148718141
4494000000.0 0.5278848133480828 -0.8584049011440273
4497000000.0 0.5362536459533382 -0.8363843561728855
4500000000.0 0.5503088417692419 -0.8455597376701129
4503000000.0 0.5430796137087976 -0.8793535697004897
4506000000.0 0.5082174977928389 -0.8570438849228669
4509000000.0 0.5216683893690428 -0.8513111238284886
4512000000.0 0.5218707643902889 -0.8505601060720958
4516000000.0 0.5256915806410563 -0.8763658957945019
4519000000.0 0.5275226293026156 -0.8338932683938367
4522000000.0 0.5157838276160347 -0.8737803791025153
4525000000.0 0.5354711661992424 -0.8437674194896025
4528000000.0 0.5426512335676876 -0.9005068328531389
4531000000.0 0.5201090089247276 -0.8610820010002365
4534000000.0 0.5145199951326769 -0.849965811868034
4538000000.0 0.5164741071991169 -0.8653453826337952
4541000000.0 0.48628246045187534 -0.877960968427703
4544000000.0 0.5319922033959436 -0.8468925688824325
4547000000.0 0.5290698912468785 -0.842853539063295
4550000000.0 0.5113996854103945 -0.863449429648278
4553000000.0 0.510072371625991 -0.8617532207914214
4556000000.0 0.5055843157642739 -0.8596378335025854
4559000000.0 0.5018414079939308 -0.8857849639591504
4562000000.0 0.5155465740561713 -0.8769278314494816
4566000000.0 0.5340136466705294 -0.8865948967061767
4569000000.0 0.4969471199246711 -0.8612857502344236
4572000000.0 0.519184725717097 -0.8573637493688506
4575000000.0 0.500325825534915 -0.878379871012132
4578000000.0 0.5403351365864387 -0.8893329701557788
4581000000.0 0.5069427202794587 -0.8833856920262746
4584000000.0 0.5035877998761705 -0.8629647244011376
4588000000.0 0.5250876398075556 -0.8774852762652429
4591000000.0 0.5265894279913865 -0.8659398727976373
4594000000.0 0.49270644989853407 -0.8738786743945164
4597000000.0 0.5066400468744338 -0.8951861456136907
4600000000.0 0.4793448539543776 -0.8735471074661303
4603000000.0 0.4845001192866909 -0.8841192434544749
4606000000.0 0.5165429124634587 -0.8732981833235662
4609000000.0 0.5014872576683806 -0.862771733465219
4612000000.0 0.5088157349918296 -0.8731719702069055
4616000000.0 0.4905860688626984 -0.8737040291795501
4619000000.0 0.5219493369510992 -0.8699811347219037
4622000000.0 0.5006883254230756 -0.882949632171982
4625000000.0 0.4616547389009842 -0.856771048632178
4628000000.0 0.5233429515329634 -0.8615279829409254
4631000000.0 0.49504011781838425 -0.8704734483791211
4634000000.0 0.5031349373202099 -0.873071328210325
4638000000.0 0.4909214344991709 -0.8849899662862694
4641000000.0 0.5121427488535143 -0.8880366453652755
4644000000.0 0.5079856060803806 -0.8694996235056591
4647000000.0 0.5296469488709372 -0.8823275337153125
4650000000.0 0.48272607833994297 -0.8850635300373169
4653000000.0 0.5222584254424549 -0.8944393626438798
4656000000.0 0.5031831273141655 -0.8849099765961301
4659000000.0 0.48813488592764576 -0.8773919806595942
4662000000.0 0.49606569666325806 -0.8887336595823826
4666000000.0 0.49151572935214843 -0.8769158906071618
4669000000.0 0.5025287402775491 -0.8590277694162949
4672000000.0 0.508567186741209 -0.9144828720070703
4675000000.0 0.4993164486315474 -0.8794076271697309
4678000000.0 0.5053462576450135 -0.8650952090551999
4681000000.0 0.47177373962939867 -0.9074170957372718
4684000000.0 0.476534697746559 -0.8905901678178526
4688000000.0 0.47613611631341735 -0.9028766943054534
4691000000.0 0.5344788050203294 -0.8798471859054178
4694000000.0 0.5002298825502396 -0.8637423947150463
4697000000.0 0.4659735865495419 -0.8670266982284731
4700000000.0 0.5090767343264903 -0.8855600176059669
4703000000.0 0.4887203807878666 -0.8519799780215104
4706000000.0 0.48672218150185176 -0.91535105333884
4709000000.0 0.49042351576247506 -0.8853848436978261
4712000000.0 0.5019825943531014 -0.8790029257400049
4716000000.0 0.5141443931588645 -0.9094198024558676
4719000000.0 0.5289096135901592 -0.8844065319775729
4722000000.0 0.5054276933356945 -0.88167968360334
4725000000.0 0.49483562292984334 -0.8604789995449914
4728000000.0 0.47779320823428373 -0.8752025287700353
4731000000.0 0.5276421126348958 -0.9094124775624534
4734000000.0 0.5003458708111002 -0.8654673209046706
4738000000.0 0.5477323733816042 -0.920771865620599
4741000000.0 0.47966676911345774 -0.9068050079176952
4744000000.0 0.4744509725443943 -0.8870222588378647
4747000000.0 0.5107343974490832 -0.8478668903098241
4750000000.0 0.5024837125773141 -0.8986905401461124
4753000000.0 0.5108660049360819 -0.8943698494493817
4756000000.0 0.4762426781867076 -0.9216018926005632
4759000000.0 0.5236620761843793 -0.9101426766155553
4762000000.0 0.47825985961160056 -0.9378289695523432
4766000000.0 0.471587887054594 -0.9150720600865498
4769000000.0 0.5183576503598415 -0.9046721660233588
4772000000.0 0.49099691950310775 -0.8930920648316604
4775000000.0 0.5059041682031447 -0.9514820246534771
4778000000.0 0.4945236325643852 -0.9195936819133902
4781000000.0 0.5107393508823632 -0.8812189485895238
4784000000.0 0.5071803851681125 -0.8550465268786718
4788000000.0 0.5248198430012679 -0.9232185754310047
4791000000.0 0.4725823656474788 -0.8738767998019937
4794000000.0 0.5200427577244502 -0.9238255396383334
4797000000.0 0.4740283845658388 -0.8957712095879161
4800000000.0 0.4739157473446033 -0.8755381987447907
4803000000.0 0.4141866029019614 -0.9234859178431276
4806000000.0 0.48630223783962256 -0.8767374728778385
4809000000.0 0.4806950427836486 -0.8845250535169362
4812000000.0 0.4638663540142244 -0.9092562270524499
4816000000.0 0.515053324568 -0.8765738747768127
4819000000.0 0.5333256630399936 -0.9051484134424633
4822000000.0 0.5384824846825738 -0.907989162992761
4825000000.0 0.5292890755302848 -0.9174026718847029
4828000000.0 0.49266694046136256 -0.8918188542110264
4831000000.0 0.4621676019276535 -0.9372479438507102
4834000000.0 0.5102352266231938 -0.9035420597898021
4838000000.0 0.48532988694996965 -0.9178805818283632
4841000000.0 0.48331279757240203 -0.9144372439845609
4844000000.0 0.5317521558797962 -0.8831466292657509
4847000000.0 0.5093682166328133 -0.867773866610627
4850000000.0 0.47728311011218216 -0.9322867920055329
4853000000.0 0.5099885596445167 -0.8761485364448962
4856000000.0 0.5004549281299621 -0.8983528453120703
4859000000.0 0.5126885861813983 -0.9640886745306799
4862000000.0 0.5126978247511351 -0.8629381255275977
4866000000.0 0.49381486674017794 -0.912687633292863
4869000000.0 0.4884879937887217 -0.911106759928099
4872000000.0 0.5051236957419852 -0.9164802882668543
4875000000.0 0.5891993271225777 -0.9456055589948713
4878000000.0 0.5312556918686292 -0.9203770987453117
4881000000.0 0.5052737436390738 -0.9769474419714548
4884000000.0 0.5318953478019246 -0.9149835816708759
4888000000.0 0.5329529722106895 -0.894330903202161
4891000000.0 0.5298483524723072 -0.8926872595923492
4894000000.0 0.4738150236640365 -0.9077586585585409
4897000000.0 0.5297840401955259 -0.897240241274025
4900000000.0 0.5034462199550781 -0.8875425550804205
4903000000.0 0.5013190833262654 -0.8784822528691766
4906000000.0 0.5377366578359987 -0.9467297966179895
4909000000.0 0.4948750659367706 -0.9067591844433052
4912000000.0 0.501331774234512 -0.945905505630594
4916000000.0 0.5207738825716257 -0.9125241813648679
4919000000.0 0.5816108634860541 -0.907373074264141
4922000000.0 0.5405132354994 -0.896425682619384
4925000000.0 0.48152397062940966 -0.9262571814990486
4928000000.0 0.5774859953817212 -0.8413735287675949
4931000000.0 0.5295419897674237 -0.909073605749138
4934000000.0 0.5046903547569705 -0.8435081587320821
4938000000.0 0.5066072428277728 -0.8988539243574488
4941000000.0 0.5000160207788195 -0.867356260089582
4944000000.0 0.4827620459498775 -0.8366563370268599
4947000000.0 0.5131881087474073 -0.896578632913672
4950000000.0 0.4831600177835188 -0.8552759403562394
4953000000.0 0.5038873801120473 -0.9403480049298263
4956000000.0 0.4850222667641216 -0.9020213669909497
4959000000.0 0.4823741445715772 -0.8998116055145493
4962000000.0 0.5272536686427693 -0.9071213078921678
4966000000.0 0.5835949465894621 -0.9273605309260431
4969000000.0 0.5595344784332408 -0.9075025871849108
4972000000.0 0.4847066785777467 -0.9186170320156708
4975000000.0 0.5415038212246616 -0.8765069410535904
4978000000.0 0.4968136551510779 -0.9059317333897633
4981000000.0 0.5060424306871084 -0.9089075082576688
4984000000.0 0.5203980377869195 -0.87820490914408
4988000000.0 0.5183625233055265 -0.8798936258534604
4991000000.0 0.5872482315076787 -0.8654012177155743
4994000000.0 0.5361588676452224 -0.8760893086968355
4997000000.0 0.4796551690132657 -0.9387062865152896
5000000000.0 0.5714135112761943 -0.9354197469488805
5003000000.0 0.52045961085718 -0.9358402274492756
5006000000.0 0.5643722361526606 -0.9770554152147831
5009000000.0 0.5108956497918441 -0.922030253884152
5012000000.0 0.5090558034758342 -0.9093011778663914
5016000000.0 0.5534206368416513 -0.9033379579337504
5019000000.0 0.51364865803643 -0.9115457867902128
5022000000.0 0.5324172952718029 -0.9027335260855229
5025000000.0 0.5568790906269545 -0.9362942019459757
5028000000.0 0.5099937240212562 -0.9073297293901934
5031000000.0 0.45808780233785007 -0.9189155271878362
5034000000.0 0.5044626464346702 -0.9651884296232318
5038000000.0 0.47655197888174683 -0.8757068194080797
5041000000.0 0.587410790390103 -0.8954741204515686
5044000000.0 0.5548907213043426 -0.852813704552261
5047000000.0 0.5582391748827769 -0.882928579029381
5050000000.0 0.5918146133207298 -0.8357684468480274
5053000000.0 0.5108026790639296 -0.9314277522895184
5056000000.0 0.5690616024642998 -0.8604850121683303
5059000000.0 0.5535174978817337 -0.8569211556697036
5062000000.0 0.5294701101265992 -0.9152540197152019
5066000000.0 0.5529430030938431 -0.8927022241281795
5069000000.0 0.5353674512641665 -0.9218157593115098
5072000000.0 0.5484948085432675 -0.8733742222854392
5075000000.0 0.5628999267310728 -0.8555859731779335
5078000000.0 0.5338306352506234 -0.9258806772247961
5081000000.0 0.4951304219583834 -0.874907670984718
5084000000.0 0.567479586659805 -0.9126304802296885
5088000000.0 0.5524038913049198 -0.899985219281964
5091000000.0 0.5110026981047104 -0.9245985726608139
5094000000.0 0.4931858207507165 -0.8733449299634616
5097000000.0 0.566231610113805 -0.8705732391137935
5100000000.0 0.5287285857948082 -0.8773698870592521
5103000000.0 0.5002291757287365 -0.9465057781768158
5106000000.0 0.5890745098170214 -0.8851833705817798
5109000000.0 0.5597257785715446 -0.878339055428895
5112000000.0 0.5416763063177548 -0.9108563652746207
5116000000.0 0.46755633829529686 -0.8573759288764884
5119000000.0 0.5272481695035314 -0.9329992498141868
5122000000.0 0.5650314601250515 -0.8646296098996035
5125000000.0 0.5588164317531723 -0.877226323503988
5128000000.0 0.5117813205581674 -0.8826741260649335
5131000000.0 0.4833390691244921 -0.8835432398765456
5134000000.0 0.5139947491966173 -0.8895515600225582
5138000000.0 0.5582953464253145 -0.8674598122094387
5141000000.0 0.5839447971207745 -0.8379306345657511
5144000000.0 0.5563619097719823 -0.8702210971067127
5147000000.0 0.583540093245888 -0.9031490328904542
5150000000.0 0.5861689425250363 -0.865381949066073
5153000000.0 0.5737785743508088 -0.881553697764728
5156000000.0 0.5998828986637943 -0.8989410250773789
5159000000.0 0.5573652917432109 -0.9244168247373891
5162000000.0 0.5529855739547229 -0.916649841674618
5166000000.0 0.5216308276730768 -0.8986038767004549
5169000000.0 0.5681444406603379 -0.9021389038642138
5172000000.0 0.5464937901268869 -0.8881154430667588
5175000000.0 0.5552559931544012 -0.8955533220668369
5178000000.0 0.5486467196245526 -0.8685766502201573
5181000000.0 0.6039099515486077 -0.9057662124548158
