! Created with skrf 1.8.0 (http://scikit-rf.org).
# Hz S RI R 50.0 
!freq ReS11 ImS11
4000000000.0 0.3514475516760217 -0.9739596331997934
4003000000.0 0.36881267390128003 -1.0332238805114442
4006000000.0 0.2886480952428745 -1.014682008088213
4009000000.0000005 0.355638354078478 -1.002595632891602
4011999999.9999995 0.3787582466268541 -0.9612523335928455
4016000000.0 0.2813724764296089 -0.987797945279116
4019000000.0 0.30652517738191254 -0.921700130687154
4022000000.0000005 0.3731378757693212 -1.0023872942194907
4025000000.0000005 0.321996967930728 -1.0119609041290965
4027999999.9999995 0.25512881019241884 -0.9696770769009615
4030999999.9999995 0.3501703158164542 -0.9852254499793048
4034000000.0 0.28765292474751686 -0.9617497729695358
4038000000.0000005 0.32064756518876825 -0.9542235819759165
4041000000.0000005 0.3122512694185735 -0.9774068613959055
4043999999.9999995 0.33695220674972115 -1.0033330317973366
4046999999.9999995 0.3509302701949788 -1.0306080621989109
4050000000.0 0.31248987588238325 -1.0120358889325745
4053000000.0 0.2926503733788367 -0.9776925165343606
4056000000.0 0.27252202076404103 -0.9712193722941173
4059000000.0 0.3483508859079211 -0.9653183483629979
4062000000.0000005 0.2934163097757479 -0.981726891140302
4066000000.0 0.29724256884948386 -0.9383644025825435
4069000000.0 0.27431679070742154 -1.0442128186848805
4072000000.0 0.3182414406432802 -0.9900677276325149
4075000000.0 0.3553590341041299 -1.007806677500521
4078000000.0000005 0.316445742732051 -0.9889185134948242
4081000000.0000005 0.3611212097238542 -0.9838135753503461
4083999999.9999995 0.31702565214830014 -1.0125472406330074
4088000000.0 0.30058010807708235 -0.9725925669090729
4091000000.0 0.2912472601479773 -1.0022865249528172
4094000000.0000005 0.2914640277162403 -0.9697761644842806
4097000000.0000005 0.3060685614767248 -0.9789976644017166
4099999999.9999995 0.2838396154488053 -0.9546619008613801
4102999999.9999995 0.3151715791346888 -0.9859770272568639
4106000000.0 0.28719370210645134 -0.979418648169082
4109000000.0 0.3020790304448114 -1.0073135815390257
4112000000.0 0.2892527223385742 -0.9716763715891102
4115999999.9999995 0.28267406994764127 -0.9635542252173656
4119000000.0 0.2759407397684199 -0.9926288638045067
4122000000.0 0.2652019961308999 -1.000525358998307
4125000000.0 0.2662504223306611 -0.9869827474261103
4128000000.0 0.31136445989122075 -0.940138981258862
4131000000.0 0.26583494613161984 -0.9790385903738065
4134000000.0000005 0.3092359232092327 -0.9807854368967028
4138000000.0 0.24184829188085633 -0.9685795081138173
4141000000.0 0.26927017778065526 -0.9766576862589241
4144000000.0 0.2980196614775126 -0.9812117447713808
4147000000.0000005 0.2779756431215448 -0.9973273611278961
4150000000.0000005 0.2641936752689145 -1.013303491986028
4152999999.9999995 0.2683649060148245 -0.9555984352428593
4155999999.9999995 0.3047861224667434 -0.9832548573248441
4159000000.0 0.26600519337321715 -0.9558048046402622
4162000000.0 0.2815251406542102 -0.9629563369277415
4166000000.0000005 0.24340696300410544 -1.0042118901190298
4168999999.9999995 0.24370518531555962 -0.9849686961032998
4171999999.9999995 0.29028408832720753 -0.9912341995546196
4175000000.0 0.267530172490325 -1.018710842548508
4178000000.0 0.2666558386665392 -0.9837736724033861
4181000000.0 0.2448620411879091 -0.986873767594073
4184000000.0 0.2754622583084664 -0.9632517933752716
4187999999.9999995 0.23039994589877721 -0.9730855798902917
4191000000.0 0.28729240298664105 -0.9585186815873885
4194000000.0 0.23248818235723284 -0.9755624425939954
4197000000.0 0.2530073432058286 -0.9940252744967778
4200000000.0 0.27923297994241164 -0.9913796030741603
4203000000.0000005 0.28058013638059187 -1.008458376438759
4206000000.0000005 0.24943208080937257 -1.0037794999275935
4208999999.9999995 0.2411569044702036 -0.9525925704621352
4211999999.9999995 0.2092410506647133 -0.9942876715212365
4216000000.0 0.2605505874923602 -0.9924128902255487
4219000000.0000005 0.2522172914187971 -0.9960055287617918
4222000000.0000005 0.24901222818786586 -0.9907232905024288
4224999999.9999995 0.25120352215784336 -0.9762881347260756
4227999999.9999995 0.23661935392404151 -0.9790475767916944
4231000000.0 0.22570482988954238 -0.9761612716282939
4234000000.0 0.2249028963637433 -1.0175098104836617
4238000000.0000005 0.2211372602166246 -1.0018291182781718
4240999999.9999995 0.2079227644928825 -0.967962717289332
4244000000.0 0.22612066397875139 -0.9793491068685182
4247000000.0 0.22790519259017966 -0.9754006462510895
4250000000.0 0.223944226294409 -0.965608738317257
4253000000.0 0.206736552875726 -0.9781903321969392
4256000000.0 0.21176556944975491 -1.0272441730830828
4259000000.0000005 0.19719600525237635 -0.9556879899393511
4261999999.9999995 0.18552026477074346 -0.9842258996040387
4266000000.0 0.17731229761733763 -1.0132078652199958
4269000000.0 0.19829695143960474 -0.9905692866442986
4272000000.0000005 0.21157029619091516 -0.983202754011253
4275000000.0000005 0.22089236119412306 -1.0094620567331067
4277999999.9999995 0.20647771161002262 -1.0195755279855752
4280999999.9999995 0.22068689781543818 -0.9975239670040852
4284000000.0 0.1539459755776547 -1.0137750380380046
4288000000.0000005 0.22797998050361687 -0.9845465480512542
4291000000.0000005 0.18627062385936125 -0.9811983820700867
4293999999.9999995 0.1769291843955781 -0.9785800245553619
4297000000.0 0.23666495211349683 -0.9757741421110261
4300000000.0 0.2036923725208927 -0.972468347890256
4303000000.0 0.18048944335720296 -1.0024925677619685
4306000000.0 0.2208422623181084 -1.0006419085195073
4309000000.0 0.1873626897505018 -0.9877369164280901
4312000000.0 0.23368401542723377 -1.005138301284986
4316000000.0 0.1927446743907138 -0.9978504883034173
4319000000.0 0.18291624064853151 -0.9781521884074985
4322000000.0 0.16589962979724548 -1.0009192755476202
4325000000.0 0.1734959697866944 -0.9979959790145029
4328000000.0 0.17442604854355115 -0.9874612989941011
4331000000.0 0.14165372233293588 -0.9954176513209718
4334000000.0 0.15190778370209362 -1.0079614630572322
4338000000.0 0.17516332446076688 -0.9941086899611347
4341000000.0 0.17630007328289826 -1.0144177197278128
4344000000.0 0.1700707515763199 -1.0212620228987666
4347000000.0 0.14924570424671818 -1.014078777197421
4350000000.0 0.12280372189337285 -0.9671984363256108
4353000000.0 0.16867814437380324 -0.9904042621016899
4356000000.0 0.11835199594268564 -0.9886259225664721
4359000000.0 0.14569960486352174 -0.952960060347422
4362000000.0 0.08812389429039857 -1.0201832549153953
4366000000.0 0.15422486194837376 -1.0331150113048087
4369000000.0 0.1390253820914572 -0.9793742911515251
4372000000.0 0.10765828096991314 -1.014854177616706
4375000000.0 0.1530470753077814 -0.9943345631342889
4378000000.0 0.12361687191221377 -0.9746588389583976
4381000000.0 0.13705064735334044 -0.991835031392609
4384000000.0 0.10950302471493512 -1.057871823749713
4388000000.0 0.13353963871222085 -0.9836819045227223
4391000000.0 0.13059242977474378 -1.0094367481777597
4394000000.0 0.11000498987533347 -0.989270957156166
4397000000.0 0.10211152980882715 -0.995786625382392
4400000000.0 0.10210857637042708 -1.0265129390278176
4403000000.0 0.1020213655239603 -1.0193865622875466
4406000000.0 0.08783330459451777 -1.009163780568092
4409000000.0 0.11452382499988506 -1.0306088313328814
4412000000.0 0.04593122154364654 -0.9972686076557129
4416000000.0 0.08788019483834614 -0.9959589615644218
4419000000.0 0.06725883803112054 -1.0134562798501743
4422000000.0 0.11702442358826881 -0.9984224162588934
4425000000.0 0.09993859309178271 -1.030636935896872
4428000000.0 0.06980119927279188 -1.0118539914038112
4431000000.0 0.08640430563564344 -1.022502465482456
4434000000.0 0.08316779549657616 -1.0029406742824034
4438000000.0 0.07776130230978134 -1.0127522596349325
4441000000.0 0.06396744489852635 -1.0333425613813603
4444000000.0 0.07908639405443252 -0.9996312684326909
4447000000.0 0.060439814615386056 -0.9945126414186753
4450000000.0 0.05605314224825669 -0.9958771792437355
4453000000.0 0.06945643538225771 -1.008366995879558
4456000000.0 0.05254314824525663 -0.9955789478129552
4459000000.0 0.04806704755646385 -0.9958802415038768
4462000000.0 0.04360905699043338 -1.0589777945986723
4466000000.0 0.04362102118580413 -1.045500768252713
4469000000.0 0.05805030585884968 -1.0013986427503223
4472000000.0 0.0080306177938273 -1.0226081789390782
4475000000.0 0.028739654031906647 -0.9896098257692938
4478000000.0 0.025481596175599808 -1.0268417175006168
4481000000.0 0.03018035603412711 -0.9735469547606813
4484000000.0 -0.017205834952855548 -0.990995287574054
4488000000.0 0.0199032301078218 -1.0023291770214198
4491000000.0 0.02350465149706521 -1.0302831711482834
4494000000.0 0.015485854636231422 -1.0087314958322886
4497000000.0 0.023026989425130928 -1.0273270478498555
4500000000.0 -0.0010836326892587622 -0.9910745158198869
4503000000.0 0.011867303211250013 -1.0276628319308558
4506000000.0 -0.011775797180313907 -1.0192248023315649
4509000000.0 -0.007196770005385267 -1.0024093503993399
4512000000.0 -0.01373797229357232 -0.9983723435092596
4516000000.0 -0.022965913972987306 -1.0327774519238482
4519000000.0 -0.003317437239315879 -1.0171201524152975
4522000000.0 -0.020434377309364482 -1.0057236745274127
4525000000.0 -0.0032430753962638392 -1.027545132458792
4528000000.0 -0.021698597771787453 -1.026963351534425
4531000000.0 -0.016273655782549135 -1.0143473319980163
4534000000.0 -0.04540113379468036 -1.0130981208665522
4538000000.0 -0.025542678399999075 -1.0210265678937303
4541000000.0 -0.0620160989621365 -0.9764354925123055
4544000000.0 -0.029040992254906972 -1.0210979976588144
4547000000.0 -0.051237052431018115 -1.004745138582628
4550000000.0 -0.07928827917181608 -1.0269563736622003
4553000000.0 -0.07507510867190414 -1.0193034552876512
4556000000.0 -0.06728945607963643 -1.009137899866457
4559000000.0 -0.059807459860168666 -1.0132400791182172
4562000000.0 -0.07693314089532916 -1.0176041813679755
4566000000.0 -0.06538703238184074 -1.0311669247009085
4569000000.0 -0.09249121546608902 -1.0151208251075343
4572000000.0 -0.08230644462868603 -1.0183145290836049
4575000000.0 -0.0866247497237676 -1.0044838420145457
4578000000.0 -0.09623352993452289 -1.0246008288530426
4581000000.0 -0.08855062139230468 -0.9931256613330571
4584000000.0 -0.11420159809744959 -1.0322746384028139
4588000000.0 -0.08998295988689609 -1.0149259039171512
4591000000.0 -0.10707052874213435 -1.0227041117404472
4594000000.0 -0.1180866649596101 -1.0110442874836971
4597000000.0 -0.11576876541266498 -1.0276416924195215
4600000000.0 -0.12227780678045286 -1.0220867181720705
4603000000.0 -0.12209897060709071 -0.9847902146531884
4606000000.0 -0.11736622564855162 -1.0314243021394083
4609000000.0 -0.10654594676363868 -1.0074492809781261
4612000000.0 -0.1354565507883423 -0.9851065080957399
4616000000.0 -0.14473471688793682 -0.9862059914616506
4619000000.0 -0.15602416723661378 -0.9847927498335546
4622000000.0 -0.20043315755798757 -1.0068287617463663
4625000000.0 -0.19215425182133405 -1.0078795987465017
4628000000.0 -0.15670249044697598 -1.0502894344888074
4631000000.0 -0.15092089829535538 -1.0429584461384276
4634000000.0 -0.18134894349801736 -1.009383004673266
4638000000.0 -0.17918982108823958 -1.0225529503050208
4641000000.0 -0.18133660767717796 -0.982885792372995
4644000000.0 -0.19328805082355055 -0.9826010385542461
4647000000.0 -0.1700629810379482 -1.001520446516047
4650000000.0 -0.18780630582792898 -0.9888752820638933
4653000000.0 -0.18493538054325742 -0.9848301772504081
4656000000.0 -0.1822627499492002 -1.0011426781999284
4659000000.0 -0.2361005290337352 -0.9993396728156893
4662000000.0 -0.23228322796551432 -1.0013587654758367
4666000000.0 -0.23131531383649706 -0.9907966183214032
4669000000.0 -0.232994737647165 -1.0211203707735608
4672000000.0 -0.2360727536145784 -1.036419216452732
4675000000.0 -0.253768804966942 -1.0391644701008602
4678000000.0 -0.2517441515770217 -0.9387281545000147
4681000000.0 -0.2524394286249758 -0.9946547072363876
4684000000.0 -0.2615744630941494 -1.0523933405172543
4688000000.0 -0.32049343288486076 -0.9971604055164347
4691000000.0 -0.25358120819274454 -1.0481916087090613
4694000000.0 -0.21151041553068461 -0.9624983225060852
4697000000.0 -0.2951088084302541 -0.9369203078673116
4700000000.0 -0.29690237685385745 -1.0134535920272012
4703000000.0 -0.2048543943935754 -0.9378619413398377
4706000000.0 -0.28548812493902703 -0.9755228986725875
4709000000.0 -0.2932900589051646 -1.0084615048712953
4712000000.0 -0.3069333063451682 -0.9929222261341091
4716000000.0 -0.3176112613886578 -1.0161175454430884
4719000000.0 -0.22477124075873806 -0.9929937497098426
4722000000.0 -0.255872890500839 -0.988413753650258
4725000000.0 -0.26872201278156554 -0.9801072030685788
4728000000.0 -0.3145513929082354 -0.9819601456800562
4731000000.0 -0.3223308053267371 -1.0459133752699308
4734000000.0 -0.3039932645896865 -0.9890641374879954
4738000000.0 -0.3413464215884051 -1.0688352469151647
4741000000.0 -0.36923185994392776 -1.0129194374832524
4744000000.0 -0.36957366326338015 -0.925957413294851
4747000000.0 -0.335808215139 -0.9690785117682181
4750000000.0 -0.3420508466217931 -0.9798440197878981
4753000000.0 -0.33755978682732524 -0.96974363422966
4756000000.0 -0.38266274343566936 -0.9672422226353207
4759000000.0 -0.3373197924151869 -1.0191575418067589
4762000000.0 -0.41980177859856693 -0.985854057787818
4766000000.0 -0.3884025118958443 -0.9577237160938458
4769000000.0 -0.38742644008901567 -0.9497667181884506
4772000000.0 -0.3515705665586232 -0.9718965200303717
4775000000.0 -0.43686235515207295 -0.9865182834031756
4778000000.0 -0.47088424988773814 -0.9462291872011175
4781000000.0 -0.4239825099986298 -0.9340569409679217
4784000000.0 -0.423045267871386 -0.9594692860034988
4788000000.0 -0.44160518307990804 -0.935962875265805
4791000000.0 -0.3953411921704179 -0.9132185145548791
4794000000.0 -0.41633859046866833 -0.9773070127704669
4797000000.0 -0.431842385162601 -0.9182688078180092
4800000000.0 -0.4261366102948718 -0.9395435741111429
4803000000.0 -0.4976019278837012 -0.8870540193671476
4806000000.0 -0.5071674618165908 -0.9668455840123491
4809000000.0 -0.5243072930606577 -0.9109869747934973
4812000000.0 -0.4931193463232844 -0.8886608336233117
4816000000.0 -0.4735853893468592 -0.9180202858077131
4819000000.0 -0.48656767167150705 -0.9188046524093386
4822000000.0 -0.5211433300346068 -0.958519998931235
4825000000.0 -0.49093889818321307 -0.9437908455124253
4828000000.0 -0.5380945489909005 -0.891587576139925
4831000000.0 -0.5668122389970528 -0.8925185026957259
4834000000.0 -0.4986082733210271 -0.9139283666814048
4838000000.0 -0.5489657217031112 -0.8569499667467633
4841000000.0 -0.5589927511519492 -0.8459620469269691
4844000000.0 -0.5228825772610369 -0.9123859364808978
4847000000.0 -0.522371613515146 -0.8718317173700003
4850000000.0 -0.6075595841784001 -0.8640372491660853
4853000000.0 -0.584048611300954 -0.8309298221119452
4856000000.0 -0.5605104026312938 -0.8547544778928079
4859000000.0 -0.630960453912407 -0.8511246722433994
4862000000.0 -0.5650609850314636 -0.8342444680700981
4866000000.0 -0.6101456498659854 -0.853038004855744
4869000000.0 -0.6108047402746565 -0.834838172716132
4872000000.0 -0.6387949172947143 -0.8526542751862962
4875000000.0 -0.62589376326379 -0.9112735434625371
4878000000.0 -0.6399776944652833 -0.8192454063246736
4881000000.0 -0.7013829790229313 -0.8380298291489736
4884000000.0 -0.6314927915631806 -0.8196733824756268
4888000000.0 -0.6586349711544212 -0.7741862136204469
4891000000.0 -0.6809064351083641 -0.7686401413719992
4894000000.0 -0.6557626645774459 -0.7700376402929608
4897000000.0 -0.6710730619343285 -0.7867993869427274
4900000000.0 -0.6863897967025336 -0.7897533402363405
4903000000.0 -0.7121623029388625 -0.7889886346970226
4906000000.0 -0.7183955046904758 -0.7519486111589562
4909000000.0 -0.7045694131080047 -0.7449634759134718
4912000000.0 -0.7340616711601563 -0.7211423838683252
4916000000.0 -0.7337899220415367 -0.7576368036553685
4919000000.0 -0.7380421035075523 -0.763539350677869
4922000000.0 -0.7385428272312545 -0.7547990140484946
4925000000.0 -0.7723767825528304 -0.6837982237577749
4928000000.0 -0.7483665206613839 -0.72340643970967
4931000000.0 -0.8135398481207509 -0.6797175047916126
4934000000.0 -0.7631678092625771 -0.6884236534074515
4938000000.0 -0.7840735248052707 -0.627819795026897
4941000000.0 -0.7652288591297376 -0.6524204877263968
4944000000.0 -0.8259538178077773 -0.6417887696671113
4947000000.0 -0.7866556182459313 -0.6561467497950559
4950000000.0 -0.8331882769416092 -0.6492031196850746
4953000000.0 -0.8254201882238188 -0.6215657947209476
4956000000.0 -0.8250616915680522 -0.6150117684433921
4959000000.0 -0.8613252170733257 -0.5973613479387287
4962000000.0 -0.8583479116899326 -0.5869558202232609
4966000000.0 -0.8276267333247964 -0.5696908516368043
4969000000.0 -0.859584783871374 -0.5579844082240728
4972000000.0 -0.8615654691152936 -0.5558016101973055
4975000000.0 -0.8941610926763901 -0.5220125101762346
4978000000.0 -0.9035277751918552 -0.5258873238543077
4981000000.0 -0.9018673800683579 -0.5317090060946995
4984000000.0 -0.9284489762673069 -0.479978748459986
4988000000.0 -0.9383738282526706 -0.525685685279656
4991000000.0 -0.9293036358045039 -0.47224281456165196
4994000000.0 -0.8996778279182763 -0.4240037034038332
4997000000.0 -0.9108078287665383 -0.42781112186993575
5000000000.0 -0.9528218788768108 -0.3864589817997049
5003000000.0 -0.9433844908319811 -0.381739011007365
5006000000.0 -0.9131913684133703 -0.4154016050509134
5009000000.0 -0.9698971145630544 -0.32436920296792215
5012000000.0 -0.998416647431179 -0.36534832214788243
5016000000.0 -0.967334681705327 -0.3727800455708469
5019000000.0 -0.9944732260733657 -0.3321712989097929
5022000000.0 -1.0150922565329328 -0.25365668783549306
5025000000.0 -0.9498566838994086 -0.26135478461729283
5028000000.0 -0.9634429009534472 -0.2861358010233997
5031000000.0 -0.9824813229280792 -0.23616236743028723
5034000000.0 -0.9828430372485768 -0.24229301291185718
5038000000.0 -1.0010679680578023 -0.21863161133136588
5041000000.0 -0.9806145525008746 -0.17126509354495545
5044000000.0 -0.9810821342946006 -0.200724136365815
5047000000.0 -1.0133398626091483 -0.13561361827403529
5050000000.0 -1.0830227951604177 -0.10646109164444484
5053000000.0 -1.0009016989792487 -0.09218457910619648
5056000000.0 -0.9866862175981986 -0.06408300941601835
5059000000.0 -1.0411436357543757 0.025992058511757343
5062000000.0 -1.0190626618126029 -0.035048580203199564
5066000000.0 -1.0776651306509173 0.06056046275058652
5069000000.0 -1.0324586838970524 0.0009076947834020244
5072000000.0 -1.0975670489861686 -0.09343236886755918
5075000000.0 -0.9646964739582491 0.04704130782481514
5078000000.0 -1.0221418161958113 0.01686970448846009
5081000000.0 -1.0335708031521957 0.1371696457633348
5084000000.0 -0.9579442459333111 0.11691959548454223
5088000000.0 -1.0340052937074926 0.18305862775095572
5091000000.0 -0.9534822050815327 0.18916662949031787
5094000000.0 -0.9350200356834779 0.21053835090871753
5097000000.0 -0.9090254312584757 0.2320477045839238
5100000000.0 -1.0019608501553399 0.29618482505346705
5103000000.0 -0.9904823267429993 0.36300908834670453
5106000000.0 -0.8679192207986695 0.33945975413741675
5109000000.0 -0.9316876653894018 0.3252652185087156
5112000000.0 -0.9565513962185224 0.35586606598481907
5116000000.0 -0.9783380397120357 0.3666427139515279
5119000000.0 -0.87960836845702 0.471343598944869
5122000000.0 -0.8901866749071956 0.45705124180396717
5125000000.0 -0.8821420964329068 0.3782842780811103
5128000000.0 -0.9056865379049649 0.46862967269817185
5131000000.0 -0.913141932585845 0.5645729160103221
5134000000.0 -0.8324465994948517 0.5377903670388935
5138000000.0 -0.8500021418621038 0.5246926839997322
5141000000.0 -0.8506934997454155 0.6175121268227729
5144000000.0 -0.7813662840683853 0.6153660331869437
5147000000.0 -0.8059062508187835 0.6066859265130032
5150000000.0 -0.7768976326390036 0.6712820701285809
5153000000.0 -0.7976678507576753 0.6955869041370468
5156000000.0 -0.6986310121712893 0.6655189147372372
