! Created with skrf 1.8.0 (http://scikit-rf.org).
# Hz S RI R 50.0 
!freq ReS11 ImS11
4000000000.0 0.49309631768782414 -0.8843780540163335
4003000000.0 0.46575467184727737 -0.9363494777996827
4006000000.0 0.4586636602303238 -0.9232880430825953
4009000000.0000005 0.465507204084446 -0.8866434231090445
4011999999.9999995 0.4844858040928173 -0.9147210688883041
4016000000.0 0.4725099741204556 -0.9688718794900225
4019000000.0 0.49083058003414487 -0.8783287038002558
4022000000.0000005 0.5633476589284794 -0.9043053538112321
4025000000.0000005 0.38905414581977527 -0.950042926623426
4027999999.9999995 0.463128856797298 -0.9502528151322294
4030999999.9999995 0.4399298575258574 -0.8915724581235527
4034000000.0 0.4527971236371926 -0.9140048719504172
4038000000.0000005 0.4424870341022791 -0.9287354745351777
4041000000.0000005 0.4774195691116614 -0.936246020219888
4043999999.9999995 0.4691110583663735 -0.9621273237850324
4046999999.9999995 0.5009245091939093 -0.9536004770210933
4050000000.0 0.4869687058601222 -0.9599645735427849
4053000000.0 0.4418402739292118 -0.8978922598350206
4056000000.0 0.46220222122159405 -0.9512841881085206
4059000000.0 0.48397990481742803 -0.9035524775903534
4062000000.0000005 0.46295125609824694 -0.9388651424458785
4066000000.0 0.4611335465256066 -0.8844035202615368
4069000000.0 0.4604643839632143 -0.9732561866764472
4072000000.0 0.521640625007904 -0.9777535209583302
4075000000.0 0.4950964869016906 -0.9238663836746338
4078000000.0000005 0.4802879044170121 -0.9138185263261697
4081000000.0000005 0.5238128392519842 -0.9092102458016034
4083999999.9999995 0.4380070167419223 -0.9630826905457947
4088000000.0 0.47745833208283356 -0.8943494479793959
4091000000.0 0.527059445372614 -0.9722261681331307
4094000000.0000005 0.4482396403717795 -0.9074968267600024
4097000000.0000005 0.4624485909839303 -0.9266786481596099
4099999999.9999995 0.45380825395372554 -0.9179257333405937
4102999999.9999995 0.4922638819750935 -0.9459254002938946
4106000000.0 0.45212860498714214 -0.9641181681026199
4109000000.0 0.4318733847287535 -0.9296905652195654
4112000000.0 0.4558298757929478 -0.9198050074217566
4115999999.9999995 0.4833610915511244 -0.9130459579538913
4119000000.0 0.448375856098865 -0.9747828790738031
4122000000.0 0.43559334491964224 -0.935864392396578
4125000000.0 0.4378308672994719 -0.9316625996780169
4128000000.0 0.4601708565303152 -0.891240200974256
4131000000.0 0.4242996285814284 -0.9417873356505602
4134000000.0000005 0.4660659223241158 -0.88091237712959
4138000000.0 0.42041006359223937 -0.888952541118867
4141000000.0 0.4619994448097085 -0.9204923206923592
4144000000.0 0.4848706109551576 -0.9340074123320272
4147000000.0000005 0.421985924708039 -0.923272261370331
4150000000.0000005 0.4683652676634206 -0.9269899357776092
4152999999.9999995 0.4432670025249882 -0.9079506448538759
4155999999.9999995 0.4847458014110976 -0.910379278881564
4159000000.0 0.4686840461979393 -0.9112122636880643
4162000000.0 0.45310380980774545 -0.9076559204399336
4166000000.0000005 0.46641191653603503 -0.9509977435908823
4168999999.9999995 0.45203742429728555 -0.9138174779345061
4171999999.9999995 0.4560198233021847 -0.9324511451400909
4175000000.0 0.4772492701313604 -0.9175182175693816
4178000000.0 0.4645131959665767 -0.9388573180414002
4181000000.0 0.4412635522665296 -0.924455561156784
4184000000.0 0.4449261553235695 -0.9221727705896198
4187999999.9999995 0.46136552004678044 -0.9066041361287885
4191000000.0 0.48840562519078273 -0.8967610803503737
4194000000.0 0.44731819875828627 -0.9105280436615303
4197000000.0 0.4624618798151573 -0.9252064308817248
4200000000.0 0.4623984395711678 -0.9133615545149124
4203000000.0000005 0.4829587336840069 -0.9306145420895433
4206000000.0000005 0.4548516925054448 -0.9257240153860512
4208999999.9999995 0.44969132124926303 -0.8923269171164883
4211999999.9999995 0.4164666627420309 -0.9273553417769159
4216000000.0 0.46998127446051885 -0.9075086794812481
4219000000.0000005 0.473093177757654 -0.912128563334441
4222000000.0000005 0.4441496240337863 -0.9232555331673632
4224999999.9999995 0.43705210356356305 -0.8920536589289932
4227999999.9999995 0.4501714006989873 -0.9252664226900263
4231000000.0 0.4534731078068561 -0.9106606009696178
4234000000.0 0.446486679470086 -0.9327720250896524
4238000000.0000005 0.4247734668621638 -0.9264023105923781
4240999999.9999995 0.4404096139751339 -0.9159295702727667
4244000000.0 0.44182454422782436 -0.9138955112525429
4247000000.0 0.45391365614279566 -0.9030820975393807
4250000000.0 0.44163896855530993 -0.907414282971242
4253000000.0 0.4236340463811114 -0.9058016820641448
4256000000.0 0.4446142951044946 -0.9290310866745641
4259000000.0000005 0.4145280497375781 -0.8854606445260056
4261999999.9999995 0.40147678415099725 -0.9077916647919303
4266000000.0 0.4246972184533252 -0.9401907471016643
4269000000.0 0.44634951204968687 -0.9354124523606254
4272000000.0000005 0.448292000517467 -0.9204374130423041
4275000000.0000005 0.4422283506084766 -0.916474394638773
4277999999.9999995 0.4389000843252584 -0.9426736175719992
4280999999.9999995 0.4501453897236394 -0.9245935484012726
4284000000.0 0.4084183752522334 -0.953979143408618
4288000000.0000005 0.4638529398823897 -0.9032947022619895
4291000000.0000005 0.41846125706293785 -0.902575367766279
4293999999.9999995 0.42918297417212653 -0.9396264379183362
4297000000.0 0.46179934459777944 -0.8955532824620895
4300000000.0 0.429780033317433 -0.896422989709488
4303000000.0 0.40177287329850403 -0.9018392617037387
4306000000.0 0.4659924333634729 -0.9139520342112095
4309000000.0 0.4477852627975785 -0.9236935042930648
4312000000.0 0.47912029936019923 -0.9036417398944708
4316000000.0 0.45249298999769416 -0.9302163349332526
4319000000.0 0.43871350767505746 -0.9177722340884301
4322000000.0 0.4231102648895891 -0.8942165013471196
4325000000.0 0.4442005107330337 -0.9165234825871749
4328000000.0 0.4349333143730994 -0.8966028744085787
4331000000.0 0.39864028083867187 -0.9555392516949555
4334000000.0 0.4400350840360972 -0.944517894224182
4338000000.0 0.43490637189533154 -0.9190448088098456
4341000000.0 0.4634139585635003 -0.9135605147928915
4344000000.0 0.46937106888865354 -0.9273457045367102
4347000000.0 0.4117760965038219 -0.9384659381531749
4350000000.0 0.3949760484871514 -0.8821369832749467
4353000000.0 0.4333898263483224 -0.8824461779656472
4356000000.0 0.4044432102656288 -0.9255981139804945
4359000000.0 0.4125306514017647 -0.8966193906758959
4362000000.0 0.39050278939895167 -0.9467906335741129
4366000000.0 0.42585426161224127 -0.9293466379278374
4369000000.0 0.3928167326853561 -0.8926829511815838
4372000000.0 0.3944069161757579 -0.9210114409679822
4375000000.0 0.4407833338696815 -0.9050600333514702
4378000000.0 0.40485162650873124 -0.8992671148458058
4381000000.0 0.4136436937541477 -0.9051696564504544
4384000000.0 0.4311239645395676 -0.9785323802496786
4388000000.0 0.4145586464361889 -0.9053890812763098
4391000000.0 0.4319169547718036 -0.9101283545361286
4394000000.0 0.39492835509841895 -0.9018545442484376
4397000000.0 0.4114447687599547 -0.9187617034377126
4400000000.0 0.4171649669989097 -0.9434394859208386
4403000000.0 0.4345423847261419 -0.9298525387787723
4406000000.0 0.39792372425074896 -0.9321371215892749
4409000000.0 0.4133834516153659 -0.9555594817330291
4412000000.0 0.3509838821954435 -0.9361516269416166
4416000000.0 0.407993855146619 -0.9115671798280606
4419000000.0 0.4014949344957142 -0.9143224995595755
4422000000.0 0.41774033151848977 -0.915257756738413
4425000000.0 0.44180080363877167 -0.929079309509419
4428000000.0 0.40696214551155063 -0.9302130674312656
4431000000.0 0.43574564270312377 -0.9461907980715718
4434000000.0 0.3909711479269435 -0.9205835444471533
4438000000.0 0.41143648331154503 -0.940702848222435
4441000000.0 0.40470232692931624 -0.9468896025546443
4444000000.0 0.42067553123311224 -0.9135141908191675
4447000000.0 0.38318354595178056 -0.9246895493562215
4450000000.0 0.40790610046735726 -0.9004315440535788
4453000000.0 0.40195591475015097 -0.9480503989621979
4456000000.0 0.37662398160541344 -0.9170628931778441
4459000000.0 0.37243346529312316 -0.9087135472717307
4462000000.0 0.42751391207179584 -0.9805496903085555
4466000000.0 0.39445643072143055 -0.9521393254730732
4469000000.0 0.4057272312929156 -0.9353715427910021
4472000000.0 0.3708981912873714 -0.9579754262227287
4475000000.0 0.39818330577481786 -0.9041944352133899
4478000000.0 0.3890281743329763 -0.9753149389605458
4481000000.0 0.3643641101064299 -0.9098523683992286
4484000000.0 0.35078341464910434 -0.947298710294791
4488000000.0 0.3902794751252364 -0.9377280136885495
4491000000.0 0.38634413921322974 -0.9303533987605714
4494000000.0 0.3763125820847449 -0.9087060987318603
4497000000.0 0.4032035904815815 -0.9137750942736282
4500000000.0 0.4002398547356411 -0.9329001255962965
4503000000.0 0.39959037957694704 -0.9488311634751014
4506000000.0 0.3670067706651498 -0.931105655380892
4509000000.0 0.3579140360338889 -0.9123645030349314
4512000000.0 0.38318231446679174 -0.925494348206729
4516000000.0 0.37550266436497415 -0.9383974158993119
4519000000.0 0.3969448077950565 -0.9167220148363225
4522000000.0 0.4032461582806503 -0.9395041065539169
4525000000.0 0.4076131553051246 -0.921153734136623
4528000000.0 0.40037279323627917 -0.9470833256487934
4531000000.0 0.38143344332125145 -0.9377004107509235
4534000000.0 0.3495246896992542 -0.9284987631334137
4538000000.0 0.3650786261785433 -0.9361781255458561
4541000000.0 0.334591723260685 -0.9281765699302014
4544000000.0 0.39883719123154937 -0.941233718707299
4547000000.0 0.3773230467371835 -0.930237345527985
4550000000.0 0.35439460341774204 -0.9557707186547056
4553000000.0 0.3732382633057991 -0.952454170882951
4556000000.0 0.34371796087412826 -0.9338267704951564
4559000000.0 0.3612981997190319 -0.9621220562980157
4562000000.0 0.37763115330726155 -0.9405048125418138
4566000000.0 0.37526576869019057 -0.9554513571448862
4569000000.0 0.37679347681994724 -0.9447827123090653
4572000000.0 0.3584047794519864 -0.9434432346325794
4575000000.0 0.34474716654142107 -0.9474189467375789
4578000000.0 0.3685931553475098 -0.9618041559172568
4581000000.0 0.3650941241566357 -0.940264472510049
4584000000.0 0.35415416070714134 -0.9378234492279193
4588000000.0 0.38246600910016015 -0.9588978375878335
4591000000.0 0.35962464954255263 -0.954207673737901
4594000000.0 0.34339532190588345 -0.9485396605988614
4597000000.0 0.3657984285618273 -0.9752047676126662
4600000000.0 0.3278443359138238 -0.96148848750569
4603000000.0 0.34401921265281676 -0.9653698412481063
4606000000.0 0.34745680377170274 -0.951237092139081
4609000000.0 0.3540191648490098 -0.9614667688936567
4612000000.0 0.35283473663358844 -0.962905387079348
4616000000.0 0.32216669472476955 -0.9455541228366888
4619000000.0 0.349670843620415 -0.9419719903579111
4622000000.0 0.34221289968207597 -0.9664747138556812
4625000000.0 0.3189375948887121 -0.9553447734794289
4628000000.0 0.3699503812796111 -0.9470303878010597
4631000000.0 0.32935830715833253 -0.9627126389744596
4634000000.0 0.32454423870235644 -0.9529122248167381
4638000000.0 0.35778622385692627 -0.9349989596021122
4641000000.0 0.3559361262584214 -0.954703005253884
4644000000.0 0.34325026651817314 -0.966007085958392
4647000000.0 0.34529997924314815 -0.9540915932635031
4650000000.0 0.3280207344800561 -0.9538147700185222
4653000000.0 0.36222276782335133 -0.9672991107664519
4656000000.0 0.3401725706632146 -0.9586560823878574
4659000000.0 0.3224277672840295 -0.9636027992816515
4662000000.0 0.33052095495155165 -0.9802643835037448
4666000000.0 0.3162052507307801 -0.968522304372478
4669000000.0 0.33402202180250945 -0.9736111918072162
4672000000.0 0.32069471372398983 -0.9903004445716779
4675000000.0 0.3215255172969321 -0.9842985366465768
4678000000.0 0.3289180244225832 -0.9386053283811172
4681000000.0 0.29863369077854823 -0.9872031731020179
4684000000.0 0.293660989921939 -0.9728462083570861
4688000000.0 0.29012502896365 -0.9792362377386705
4691000000.0 0.3590520336907092 -0.965381555660728
4694000000.0 0.3449450569204767 -0.9388086119845356
4697000000.0 0.2999068652967831 -0.9363200155754674
4700000000.0 0.3224863547915417 -0.9589414213002854
4703000000.0 0.3498133052419493 -0.9064052224163683
4706000000.0 0.29755370058704145 -0.9631075469522202
4709000000.0 0.31281451880002575 -0.946635794139809
4712000000.0 0.31421858832570126 -0.9401241187842605
4716000000.0 0.3214419235097868 -0.9980460302616031
4719000000.0 0.3732227201042053 -0.9738173159274547
4722000000.0 0.33562141164413783 -0.9667436509447461
4725000000.0 0.3148263327358619 -0.954088432568414
4728000000.0 0.3151196999973273 -0.9829263044812075
4731000000.0 0.3206500111160553 -0.9918425138811985
4734000000.0 0.3303981767933244 -0.9593943761788896
4738000000.0 0.338699011167212 -1.0099565525085907
4741000000.0 0.2957246719585541 -1.0010891913927147
4744000000.0 0.28792344942376424 -0.9745709269498439
4747000000.0 0.32999840892779203 -0.9442191143655067
4750000000.0 0.33421953700765983 -0.9759759112412256
4753000000.0 0.3254342685321099 -0.9883481740785679
4756000000.0 0.2880976498680396 -0.9853993695210407
4759000000.0 0.3273201585924693 -0.984765623293403
4762000000.0 0.29819147877351665 -0.9955588960437621
4766000000.0 0.29063188715659616 -0.98498466505705
4769000000.0 0.3199656475338207 -0.9664096010605655
4772000000.0 0.29034771425126404 -1.0054297246905135
4775000000.0 0.3133797271954978 -1.0186199166430436
4778000000.0 0.28615653695293236 -1.0063220784023983
4781000000.0 0.32688572962258844 -0.9750917820252304
4784000000.0 0.31849280934557356 -0.9756400312546267
4788000000.0 0.28004976406364235 -0.9785310526178255
4791000000.0 0.3040258299316966 -0.9798453799667467
4794000000.0 0.33994340530651385 -1.0027123756835699
4797000000.0 0.2924676552089149 -0.9961544307604083
4800000000.0 0.2782693367596619 -0.9616004727567626
4803000000.0 0.24492989150125016 -0.9893733136546339
4806000000.0 0.3067564453398044 -1.006786122650147
4809000000.0 0.24589830249620748 -1.0017127439331464
4812000000.0 0.2582882241746459 -0.9695351037483955
4816000000.0 0.31596116915453865 -0.9436970721434951
4819000000.0 0.3277236817742604 -0.9953823254776132
4822000000.0 0.31809147674909954 -1.0240998425573404
4825000000.0 0.3264711597354205 -1.0020089354103272
4828000000.0 0.2941011100197169 -0.9817860968422149
4831000000.0 0.2668193030046109 -1.0244945615591812
4834000000.0 0.3227457676759531 -0.975805503827226
4838000000.0 0.2925495795579835 -1.008062698410842
4841000000.0 0.2923224174465604 -0.983257605158689
4844000000.0 0.3118556284567727 -1.0027083262640684
4847000000.0 0.31750503830159243 -0.9403327015301938
4850000000.0 0.30947170281247266 -1.0077882539540377
4853000000.0 0.2996279015904672 -0.9685524380939925
4856000000.0 0.28428805921683176 -0.983076064887696
4859000000.0 0.2856304475829512 -1.047115011436499
4862000000.0 0.30959196081100554 -0.9401944996377903
4866000000.0 0.29300525885111756 -1.0142866769763907
4869000000.0 0.2917413862905902 -0.9769827394393525
4872000000.0 0.27445574059210154 -1.036053204279297
4875000000.0 0.34894058470122047 -1.0014008768402556
4878000000.0 0.2822734224450339 -1.00726034759573
4881000000.0 0.2771365782263938 -1.0775550201894695
4884000000.0 0.2991904883471336 -0.995182022112205
4888000000.0 0.34248234519839904 -0.9816018575515807
4891000000.0 0.31111706539738015 -1.0043665598914628
4894000000.0 0.2712819601411073 -0.9949273440654874
4897000000.0 0.301719565744455 -0.9788521542514792
4900000000.0 0.28639581058385766 -1.047804362344701
4903000000.0 0.3009770385253979 -1.0287810141522113
4906000000.0 0.315678022448453 -1.014857201000603
4909000000.0 0.2711124398421998 -1.0011068583461247
4912000000.0 0.2689325206557599 -1.036614822699112
4916000000.0 0.31776990275231864 -1.0256251712124733
4919000000.0 0.3367348317293293 -1.0034322354671756
4922000000.0 0.30594249264967055 -1.010842925966836
4925000000.0 0.2349320390357299 -0.9897252250550175
4928000000.0 0.32119756137526867 -0.9816967767667181
4931000000.0 0.3638279361577167 -1.008979866224439
4934000000.0 0.2677943937671234 -0.9466328280795915
4938000000.0 0.2461208193843148 -0.9907738784066994
4941000000.0 0.27360913424795474 -0.9759356630103995
4944000000.0 0.30143643405632536 -0.9401037605885474
4947000000.0 0.2521134269691773 -0.9930247458446113
4950000000.0 0.24198275051109164 -0.9877868839403773
4953000000.0 0.24807510756975848 -1.0261511116254654
4956000000.0 0.24399020030632462 -1.0435493841197687
4959000000.0 0.2636988744453089 -0.9603156410579713
4962000000.0 0.29004485637534866 -0.9972355928328115
4966000000.0 0.30145876264636784 -0.9865247253108762
4969000000.0 0.2960873425938319 -1.0297465971888835
4972000000.0 0.2829837429464458 -1.0053901289836868
4975000000.0 0.3262000358268636 -0.9786399168435098
4978000000.0 0.27017356235620765 -0.9927698767287245
4981000000.0 0.272392696975935 -1.0232814143332432
4984000000.0 0.25064445049777295 -0.959407012679687
4988000000.0 0.3070416873428754 -0.9968573636329565
4991000000.0 0.31301569072629465 -1.0165686551918263
4994000000.0 0.2956638267428028 -0.9918028621601649
4997000000.0 0.23960384233592302 -0.9845435158277617
5000000000.0 0.3200892133088702 -1.0094911567267337
5003000000.0 0.30250383244084655 -1.0349723821965469
5006000000.0 0.28222703116714937 -1.038892110631598
5009000000.0 0.27731155112946226 -1.0192526852921784
5012000000.0 0.2669477105134068 -1.0383060984304475
5016000000.0 0.3090307346242933 -1.0035980913335083
5019000000.0 0.2494591986018434 -0.9928474537882742
5022000000.0 0.28103522000733167 -1.0245586180425321
5025000000.0 0.2817884652407512 -1.0245582454933706
5028000000.0 0.26995302759037104 -1.0220292146633765
5031000000.0 0.2423546781496802 -0.9849020305929957
5034000000.0 0.2709549925315945 -1.0225573074946368
5038000000.0 0.2635033037363681 -0.9911735159067737
5041000000.0 0.28727031257546637 -1.0196968385079772
5044000000.0 0.2818300386073687 -0.9455165100319596
5047000000.0 0.2551059570390552 -1.0239422467817547
5050000000.0 0.33194963635264274 -1.0022487957073076
5053000000.0 0.24322324672330453 -1.0399643328584192
5056000000.0 0.2908071046076753 -1.005214771517359
5059000000.0 0.302780436753926 -0.9815009363176461
5062000000.0 0.2654207079463131 -1.0366412005831958
5066000000.0 0.3023558031339195 -0.9825180023272356
5069000000.0 0.2676709062446188 -0.9866346545268991
5072000000.0 0.2707469939504299 -0.9825460373714048
5075000000.0 0.31069725174881807 -1.0074657354590018
5078000000.0 0.21427884871718866 -1.0264587039026727
5081000000.0 0.2335257638586738 -0.9869378175951202
5084000000.0 0.24445603712384767 -1.014600764168695
5088000000.0 0.31009931777106586 -1.0007425041557352
5091000000.0 0.1837223971259695 -1.0340207167044118
5094000000.0 0.23664290089322298 -1.020945382347779
5097000000.0 0.2897428548585974 -1.0011468916106427
5100000000.0 0.25910886027908814 -0.9570966344382233
5103000000.0 0.23273000391884724 -1.013838918551477
5106000000.0 0.2586948437677669 -1.0372102882530023
5109000000.0 0.323462761112002 -0.9988174240681511
5112000000.0 0.2208930678395034 -0.9919215361872527
5116000000.0 0.272684606893192 -0.9858884689501768
5119000000.0 0.24154935624603674 -1.0089065834016533
5122000000.0 0.2307285393380898 -1.0339175188552319
5125000000.0 0.32037540558772837 -0.9485176321196791
5128000000.0 0.2889908064995409 -1.011589083119147
5131000000.0 0.22821095352237486 -1.0151074647797724
5134000000.0 0.2884884392229794 -0.9991432030272331
5138000000.0 0.3325099472251598 -0.9686804023119807
5141000000.0 0.31088792208865124 -0.9991135534234314
5144000000.0 0.2796866653088912 -1.0065221951747831
5147000000.0 0.2632327690334225 -1.022156344060567
5150000000.0 0.26583533399060144 -1.034783297257163
5153000000.0 0.22385319766989392 -1.0603926462218194
5156000000.0 0.2794615003508606 -1.016786332828015
5159000000.0 0.29453251802166813 -1.0462217952936665
5162000000.0 0.23417536083302104 -1.0258723228541897
5166000000.0 0.237885129592951 -1.033913788785478
5169000000.0 0.26222781433614895 -1.040199079279138
5172000000.0 0.2361666037841289 -1.0161874893754095
