! Created with skrf 1.8.0 (http://scikit-rf.org).
# Hz S RI R 50.0 
!freq ReS11 ImS11
4000000000.0 0.057022236004976024 -1.0456190960676464
4003000000.0 0.024552306376561917 -1.06079987093169
4006000000.0 -0.02786887359678114 -1.0084378682948396
4009000000.0000005 0.016559414828453634 -1.056355656393965
4011999999.9999995 0.04687451618828736 -1.0581123012683191
4016000000.0 0.0005454347296923179 -1.051139280987771
4019000000.0 0.02461942175323839 -1.002159320932964
4022000000.0000005 0.04354462717016283 -1.0538012023182803
4025000000.0000005 -0.003545178007495542 -1.0305498029052815
4027999999.9999995 -0.03664043435275832 -1.009861206993762
4030999999.9999995 0.011292579267591418 -1.0126397781328749
4034000000.0 -0.01594516880492286 -1.007643868203547
4038000000.0000005 0.003094001312546224 -1.0214215280696481
4041000000.0000005 -0.01878233114265207 -1.006427801852118
4043999999.9999995 0.017618782112792136 -1.0391273051328165
4046999999.9999995 -0.024056808532229634 -1.040180867975327
4050000000.0 0.003113125232680536 -0.9967728643331831
4053000000.0 -0.04147902048994501 -1.0071065469980003
4056000000.0 -0.011303895033965006 -1.0209970846728575
4059000000.0 -0.03900913012716095 -1.0074538124439953
4062000000.0000005 -0.038338228228362636 -1.0382060519591876
4066000000.0 -0.04155663614756207 -0.9764503744185722
4069000000.0 -0.06824261630945606 -1.0318418354340115
4072000000.0 -0.025432827582156564 -1.0009939723945853
4075000000.0 -0.03777447360382845 -1.0330132608208518
4078000000.0000005 -0.09511380379127882 -1.0028966471397236
4081000000.0000005 -0.05074831971474428 -1.0185921462922976
4083999999.9999995 -0.08704731014990946 -1.0476037896409305
4088000000.0 -0.027037981703371225 -1.0047909109788615
4091000000.0 -0.057914083152842834 -1.0227253743933948
4094000000.0000005 -0.07619162771786679 -1.0063958074071393
4097000000.0000005 -0.09597531976428224 -1.0138450745558405
4099999999.9999995 -0.0693714055680352 -1.009157602457499
4102999999.9999995 -0.054186678094343944 -1.0242821895988785
4106000000.0 -0.09501526039662933 -1.0080967531150262
4109000000.0 -0.1344638953100408 -1.028183923146848
4112000000.0 -0.10651214677024139 -0.9961280279153889
4115999999.9999995 -0.14799857368068153 -1.0017892950496694
4119000000.0 -0.1211435873025053 -1.020339437690475
4122000000.0 -0.17208067776561956 -0.9886159951444117
4125000000.0 -0.12199126713321662 -0.9785823646760868
4128000000.0 -0.13123684835068128 -0.9602583630051015
4131000000.0 -0.15644287471283477 -0.9768037241230032
4134000000.0000005 -0.1367467188148259 -1.007818416540126
4138000000.0 -0.1687520527810437 -0.9966891294448025
4141000000.0 -0.15712689103950905 -0.9884230864420723
4144000000.0 -0.13825935633555436 -1.0155096977145603
4147000000.0000005 -0.15454793434244757 -1.014414559243222
4150000000.0000005 -0.17633639785127875 -1.0128071813618593
4152999999.9999995 -0.16151319227272715 -1.000100014639093
4155999999.9999995 -0.19158712850994472 -1.0183215126007419
4159000000.0 -0.17815232839793127 -0.9618484558068341
4162000000.0 -0.18542911246202815 -1.0021274546607017
4166000000.0000005 -0.20548638421201318 -1.0167978285862411
4168999999.9999995 -0.2077002271828732 -0.9583325946370035
4171999999.9999995 -0.22181116547749496 -1.005882115725788
4175000000.0 -0.21875295235667647 -1.0234506661372857
4178000000.0 -0.21289451645872498 -0.9918015731750124
4181000000.0 -0.2543209365719943 -0.9608557249132053
4184000000.0 -0.20594006715159766 -0.9498757867258248
4187999999.9999995 -0.2380371453520667 -0.949886255927116
4191000000.0 -0.22456697402628562 -0.9869471678485885
4194000000.0 -0.25093033074805826 -0.9771026607374353
4197000000.0 -0.25887580709346325 -0.9954046893656266
4200000000.0 -0.2331906151556124 -1.0087397132994065
4203000000.0000005 -0.26477510608628124 -1.0018957857213382
4206000000.0000005 -0.273751502832311 -0.9908366408695102
4208999999.9999995 -0.28671593531278994 -0.9554539146645613
4211999999.9999995 -0.33946014955553994 -0.9472107713071215
4216000000.0 -0.2771560348521656 -1.0076801689207424
4219000000.0000005 -0.2919835493854539 -0.9830685376374622
4222000000.0000005 -0.29748293037848783 -0.9411496199031728
4224999999.9999995 -0.3136033644334647 -0.9454671300211179
4227999999.9999995 -0.33104285847980097 -0.9498913102393917
4231000000.0 -0.34691234416703093 -0.9500374507413535
4234000000.0 -0.3826360704956572 -0.9668041674758823
4238000000.0000005 -0.3592612264453603 -0.9393742635765493
4240999999.9999995 -0.3645525643700491 -0.9053268774138494
4244000000.0 -0.36057226370243034 -0.921485436527116
4247000000.0 -0.36629494249255373 -0.8998104235929019
4250000000.0 -0.3721258200688462 -0.9194004318782605
4253000000.0 -0.39799496034627935 -0.9097132213141895
4256000000.0 -0.4213729288834545 -0.9736785868734757
4259000000.0000005 -0.4126463783050466 -0.8719187889744248
4261999999.9999995 -0.4365689625780557 -0.903130403112536
4266000000.0 -0.4677787353758828 -0.8975993560077264
4269000000.0 -0.41634928725088877 -0.9071935335299443
4272000000.0000005 -0.42414061989897495 -0.9088235565730409
4275000000.0000005 -0.44530621764885114 -0.921100376721585
4277999999.9999995 -0.46801863474912975 -0.9384950337637541
4280999999.9999995 -0.4748075776228085 -0.9078757714686475
4284000000.0 -0.5006417281984215 -0.8662451713489718
4288000000.0000005 -0.44839625211237855 -0.8811964592525846
4291000000.0000005 -0.48278473225226126 -0.8697696105230439
4293999999.9999995 -0.5075787808608361 -0.8487710748805184
4297000000.0 -0.47885041035793624 -0.8820044310755502
4300000000.0 -0.49751317538431195 -0.8586899625964346
4303000000.0 -0.5258133100703679 -0.8388094093357525
4306000000.0 -0.49768816432117335 -0.8663720996254232
4309000000.0 -0.5382716362772204 -0.8474244116205081
4312000000.0 -0.5435876297011816 -0.8771276045778311
4316000000.0 -0.5570649681135991 -0.8285275226981128
4319000000.0 -0.5432045080535091 -0.8070331146317613
4322000000.0 -0.5846547105514973 -0.7987420537032488
4325000000.0 -0.5825591054624523 -0.8394854311201913
4328000000.0 -0.588847217770836 -0.8136696576427012
4331000000.0 -0.6178713556070677 -0.8031685132262576
4334000000.0 -0.6227748308801695 -0.8032079512755859
4338000000.0 -0.616642734294792 -0.8011734723383328
4341000000.0 -0.6236080673068284 -0.7945142783262173
4344000000.0 -0.6450348901555263 -0.7980599530319774
4347000000.0 -0.6738151418070149 -0.770403516241676
4350000000.0 -0.6603683995543744 -0.7417772785839066
4353000000.0 -0.6565474398713107 -0.7636293164097928
4356000000.0 -0.6867433854641639 -0.7255897566312816
4359000000.0 -0.6884759014025329 -0.7292573153824239
4362000000.0 -0.7092998659773679 -0.709383795567828
4366000000.0 -0.7168296183412176 -0.7169725828716187
4369000000.0 -0.7134094703569976 -0.7055569174181009
4372000000.0 -0.7302396831078014 -0.6897300579314841
4375000000.0 -0.7264273020317925 -0.6838007776717169
4378000000.0 -0.7584432834079391 -0.6834901346252981
4381000000.0 -0.7539991458782072 -0.6456343703028367
4384000000.0 -0.791201266996365 -0.6735081673341813
4388000000.0 -0.7763617977940953 -0.6456126088402031
4391000000.0 -0.7909584217843705 -0.641809315274328
4394000000.0 -0.8204237012648 -0.6133020121574168
4397000000.0 -0.8161100346948803 -0.6131481566545622
4400000000.0 -0.8420970156322459 -0.5800581367778047
4403000000.0 -0.8424119431593293 -0.5698406773663454
4406000000.0 -0.8526665086057607 -0.5661529794260055
4409000000.0 -0.8473726810527906 -0.5344114235786539
4412000000.0 -0.8318090892357466 -0.5587534707164998
4416000000.0 -0.8485069768171499 -0.5415183776975905
4419000000.0 -0.8753553026769557 -0.5345869696772377
4422000000.0 -0.8876115866588177 -0.5271168297934692
4425000000.0 -0.8994062078035967 -0.47299522040028197
4428000000.0 -0.9054984978496398 -0.4794887782765507
4431000000.0 -0.8949387162756248 -0.4794451863960837
4434000000.0 -0.8977761268821287 -0.4638381863610567
4438000000.0 -0.8999136423560721 -0.4124242306058763
4441000000.0 -0.9595950968054281 -0.3731585471451798
4444000000.0 -0.9593239005618759 -0.39933894372968787
4447000000.0 -0.9348396465059868 -0.3922004141455291
4450000000.0 -1.0071993053939046 -0.2848426476213734
4453000000.0 -0.927726804064491 -0.3395277987588241
4456000000.0 -0.9954001410903668 -0.3488456202160281
4459000000.0 -1.0187877434243011 -0.3529798410177777
4462000000.0 -0.9411644426792676 -0.2760168038068584
4466000000.0 -1.0137779657881705 -0.31996293654784186
4469000000.0 -1.009564481339443 -0.24603167695294964
4472000000.0 -0.9593197916541816 -0.22854348138985686
4475000000.0 -1.0431418038787177 -0.21886245518830816
4478000000.0 -0.9576414355539704 -0.1922294495352685
4481000000.0 -1.0534178637297484 -0.16438192242252525
4484000000.0 -1.0376141733872795 -0.17781347063837832
4488000000.0 -1.0455629703651244 -0.13080431388703406
4491000000.0 -1.0280319463752636 -0.11810226795495227
4494000000.0 -1.0285414188590518 -0.13743583671132337
4497000000.0 -1.061553251772013 -0.066989523258973
4500000000.0 -1.032515378743823 -0.01228793819498386
4503000000.0 -1.0264012525044912 -0.015413262735930966
4506000000.0 -1.0296631187407346 0.026653162570010824
4509000000.0 -0.9969054175548725 0.04113818277641934
4512000000.0 -0.9920298430979266 0.017585056536519317
4516000000.0 -1.0083476458713425 0.11640119340660021
4519000000.0 -1.0400282527482962 0.0790744016216145
4522000000.0 -1.037302372285114 0.06249005800831603
4525000000.0 -1.0688442389489323 0.18207557211602987
4528000000.0 -1.0208046627971432 0.16125682622578447
4531000000.0 -1.0047839930680662 0.23527337647832916
4534000000.0 -1.007072025085706 0.230902383957229
4538000000.0 -1.0168684033912252 0.22429174976387917
4541000000.0 -0.9695284059412693 0.23758718045318514
4544000000.0 -1.01835963408792 0.2734035014792506
4547000000.0 -0.9974740172876293 0.3549223525133321
4550000000.0 -1.0156063362305598 0.3307443613891442
4553000000.0 -0.9526940326902704 0.3616881501660555
4556000000.0 -1.0203742477304134 0.36977079512936906
4559000000.0 -0.9680018002680184 0.36980913387002395
4562000000.0 -0.9511799190416438 0.45609089864969454
4566000000.0 -0.944862232439015 0.43073477112017255
4569000000.0 -0.969159419545042 0.5139825545593655
4572000000.0 -0.9010616738153346 0.4876666811443685
4575000000.0 -0.8556861561462239 0.463424057304248
4578000000.0 -0.8585086915223011 0.5235336307325281
4581000000.0 -0.8674505817966273 0.5148924196778193
4584000000.0 -0.8711737889588423 0.5978313853020623
4588000000.0 -0.8472796670020718 0.5901557605767024
4591000000.0 -0.8377386519396323 0.6494733649054465
4594000000.0 -0.855833849819063 0.6577315127672072
4597000000.0 -0.7655180907249274 0.7102737916263334
4600000000.0 -0.8004828251935292 0.7002059354174072
4603000000.0 -0.7645881436132831 0.6757109115754432
4606000000.0 -0.8094536713062996 0.7460772142820176
4609000000.0 -0.7481110446130919 0.7262494182142085
4612000000.0 -0.6810962590009905 0.7326279367732711
4616000000.0 -0.6257102295151364 0.7294045523405346
4619000000.0 -0.6778551411475053 0.7939307285991696
4622000000.0 -0.6043436746682783 0.838020252708721
4625000000.0 -0.65022019662048 0.8406168711733845
4628000000.0 -0.641967272579495 0.8914340334654144
4631000000.0 -0.6018670505586089 0.8762276947307875
4634000000.0 -0.5510677720162892 0.8743241574113749
4638000000.0 -0.5468939351331793 0.9204507630071771
4641000000.0 -0.47158828275244474 0.8997100083187903
4644000000.0 -0.4865004637507325 0.9444513807894371
4647000000.0 -0.4569078672670014 0.8789048708519757
4650000000.0 -0.42350063748050426 0.9160686350578271
4653000000.0 -0.3604240357422859 0.9263970662695634
4656000000.0 -0.4205909144823672 0.9994461913096204
4659000000.0 -0.3762252982705394 0.9320118335866457
4662000000.0 -0.3924890172199592 0.9372024963363703
4666000000.0 -0.33125953148999365 1.029570764456953
4669000000.0 -0.27769483369792214 1.0208555468085636
4672000000.0 -0.25180068807822825 0.9934513793033554
4675000000.0 -0.22419080395291338 0.9787891444112258
4678000000.0 -0.23924719811749015 0.9863824318177056
4681000000.0 -0.10929644236407984 1.001208969880814
4684000000.0 -0.14345243681396125 0.9548405216229507
4688000000.0 -0.2071249607821372 1.0309932496156822
4691000000.0 -0.18919647975414455 0.9764207477691393
4694000000.0 -0.07058305987909774 1.0277443283544567
4697000000.0 -0.04210428456696969 1.040402670276386
4700000000.0 -0.11791805497756985 1.036616311258716
4703000000.0 -0.04122213539496353 1.0291413807067435
4706000000.0 -0.08765332798933861 1.0085838475684046
4709000000.0 0.016286460662606445 1.024239277367744
4712000000.0 0.05724769051641482 0.9931035467265349
4716000000.0 0.032500980205138044 1.0322487971852823
4719000000.0 0.11995278254107446 1.0519476081461734
4722000000.0 0.14831396024143026 1.054020454800817
4725000000.0 0.15864035823049544 0.9953750576895208
4728000000.0 0.18226118574323302 0.9923915088024912
4731000000.0 0.16070169896817704 0.9873086419922624
4734000000.0 0.1981303809462261 0.9995749008112452
4738000000.0 0.19498648151949652 0.9395568321049264
4741000000.0 0.23381240655305863 0.9466842722418516
4744000000.0 0.2700836889971068 0.9562826512489234
4747000000.0 0.3207316772429154 1.010677054392974
4750000000.0 0.33188221752300734 0.9214027027273044
4753000000.0 0.3530845498541748 0.9520593885095188
4756000000.0 0.3768928216158881 0.9223220900683389
4759000000.0 0.3802121306511172 0.9396069156162385
4762000000.0 0.34890569245851755 0.9158560971504238
4766000000.0 0.3924637217101795 0.8973799000766365
4769000000.0 0.4446338472179831 0.9509164786855125
4772000000.0 0.4728231591503444 0.9290720930297838
4775000000.0 0.45097939091624095 0.8865267442660991
4778000000.0 0.4271808019953921 0.9172881102830307
4781000000.0 0.4831658506428989 0.913975733677953
4784000000.0 0.4883975515772565 0.9114769551547901
4788000000.0 0.4930990615364166 0.8879844939397081
4791000000.0 0.5637506545880137 0.8620605896616396
4794000000.0 0.5544921300196024 0.8017509805603598
4797000000.0 0.5841668605407597 0.8701430773704055
4800000000.0 0.6057676730107746 0.8110021844124726
4803000000.0 0.5390024064569336 0.8535194659719566
4806000000.0 0.5972697289378399 0.8099394736143295
4809000000.0 0.5972028818022316 0.7981206025830185
4812000000.0 0.6081179679071262 0.8131679126276127
4816000000.0 0.6801198816144821 0.763591427518489
4819000000.0 0.6847127989614544 0.7256242873316162
4822000000.0 0.6795618155284304 0.7236111204898543
4825000000.0 0.6966891483173877 0.7035608193693595
4828000000.0 0.6800233371440134 0.7303066666666178
4831000000.0 0.6687798152826269 0.7291573035480781
4834000000.0 0.7117317724378738 0.674056659166488
4838000000.0 0.7117524022632713 0.6807296984502272
4841000000.0 0.7455661023793095 0.6743506904086082
4844000000.0 0.7565125353288145 0.6388298087847246
4847000000.0 0.7783314275281096 0.6563022150606553
4850000000.0 0.7605455678778981 0.6437647560688221
4853000000.0 0.788291044309637 0.6410263700912279
4856000000.0 0.7963520044415721 0.6204880127961568
4859000000.0 0.8031250325783721 0.6005755957900866
4862000000.0 0.8178914614481143 0.6186177734347826
4866000000.0 0.8155493342593982 0.6043032906047179
4869000000.0 0.8225324698933139 0.5830464133863056
4872000000.0 0.806524550690702 0.5577088329458184
4875000000.0 0.8629817613234811 0.5733318108792648
4878000000.0 0.8689246102004042 0.5200299282302476
4881000000.0 0.8185077790585624 0.5320005520391082
4884000000.0 0.8644689754034551 0.5100715703301417
4888000000.0 0.871935151895769 0.5288168297014343
4891000000.0 0.8710359489373966 0.4982037560713775
4894000000.0 0.872533103245903 0.5017313965996322
4897000000.0 0.8787722284222884 0.4735667826887144
4900000000.0 0.893645909246968 0.4408630601409301
4903000000.0 0.8910845235742183 0.4517198370803101
4906000000.0 0.8982122609374464 0.4617252491381164
4909000000.0 0.9156076595615822 0.44007956826882827
4912000000.0 0.9053128427164875 0.4070744501921724
4916000000.0 0.8968370090782997 0.43980706821460824
4919000000.0 0.9171920597914704 0.4061539835901767
4922000000.0 0.9244322889603125 0.40130373016604926
4925000000.0 0.9178616855497639 0.39936739724582543
4928000000.0 0.947569724879597 0.3706418917970955
4931000000.0 0.9543820693723384 0.39002404196813567
4934000000.0 0.9235126749105388 0.37116221647622116
4938000000.0 0.946359558457303 0.342413435797305
4941000000.0 0.9418317487913914 0.3372310586453394
4944000000.0 0.9316390539873483 0.3519466147805975
4947000000.0 0.9408360682749168 0.32175389139351585
4950000000.0 0.9614593861146753 0.29210316774287404
4953000000.0 0.964166884862376 0.3095854352308336
4956000000.0 0.9939901503768394 0.3108225389032965
4959000000.0 0.9705624932060573 0.2743410840694628
4962000000.0 0.9704664234843257 0.2760525649099189
4966000000.0 0.9608687584946991 0.27504280644033874
4969000000.0 0.9935638948094984 0.27180696349045674
4972000000.0 1.0034298053854092 0.2301149323957815
4975000000.0 0.9732967904767271 0.2699321956951669
4978000000.0 0.966112092909349 0.2483668175232719
4981000000.0 0.9653983153882291 0.23904106070152065
4984000000.0 0.9932188294353905 0.2369368151423033
4988000000.0 0.9662455888274291 0.2148842842399481
4991000000.0 0.9985716049263552 0.23881509203864237
4994000000.0 0.9943903812158609 0.21448744742929376
4997000000.0 1.0114343840450788 0.20019185777673393
5000000000.0 1.0113061109912367 0.2048021296017512
5003000000.0 1.0195809033983212 0.19642121844386323
5006000000.0 1.0193273696116134 0.19573669138726524
5009000000.0 1.0024299033347641 0.17846195844860235
5012000000.0 0.9774661315160624 0.14339550513909238
5016000000.0 1.0227545913498792 0.17247043289994374
5019000000.0 0.992559913867486 0.13190946813888194
5022000000.0 1.0080084743328528 0.13285470335088329
5025000000.0 1.0415194235010907 0.1505834670184445
5028000000.0 1.0230826720820683 0.10357057913652157
5031000000.0 0.9850172980163515 0.09896849075805952
5034000000.0 1.043503321059562 0.10434288907440414
5038000000.0 0.9742375964566725 0.09892201577400828
5041000000.0 1.0362162873725327 0.1208063046629409
5044000000.0 0.9843662773190263 0.10346681078555081
5047000000.0 1.0356735559169203 0.11310109009064712
5050000000.0 1.0108476542059526 0.1610969534235533
5053000000.0 1.0694000554224063 0.08023946255931769
5056000000.0 1.0107358858087383 0.09040604059384466
5059000000.0 1.0071062965526445 0.13898382484887967
5062000000.0 1.0084042067731174 0.030425425986840005
5066000000.0 1.0100170137780846 0.10587396053453618
5069000000.0 1.03325070676435 0.05459629031465213
5072000000.0 0.9897496204328793 0.032056050137141356
5075000000.0 1.0555394690347737 0.04944784122099377
5078000000.0 1.0628390527631812 -0.017547704990669155
5081000000.0 0.9929688462080997 0.043497881430124785
5084000000.0 1.079082447725591 0.017232148664423963
5088000000.0 1.020746397961391 0.03324415237392414
5091000000.0 0.9981478749516567 -0.018494633207818745
5094000000.0 1.0882892174968342 0.020048087218777988
5097000000.0 1.0296180238554589 0.04765622597050684
5100000000.0 0.99199018811026 0.018199150378999718
5103000000.0 1.0080095667091442 0.02079927443330498
5106000000.0 1.0837596955131767 0.04066896830605521
5109000000.0 1.0200055006574515 0.02818908733446418
5112000000.0 1.0246976295646963 -0.03640300199096402
5116000000.0 0.9611871267709284 0.003773859203618668
5119000000.0 1.0067508248821253 0.038045598257938684
5122000000.0 1.0484959783703638 0.0013808653349428046
5125000000.0 1.043109227980724 -0.03915383234064329
5128000000.0 1.0129181482341338 -0.041439540565996524
5131000000.0 1.0095354009312396 -0.018709546452907178
5134000000.0 1.0027316748292396 -0.009433775257713328
5138000000.0 1.0667244290055562 -0.02141323446126764
5141000000.0 1.0561855986180817 -0.011010395944355766
5144000000.0 1.088481381432146 0.003398933982483643
5147000000.0 1.0372851082484067 -0.04139174419443159
5150000000.0 1.031370859928897 -0.03360011337800228
5153000000.0 1.0270639131957138 -0.09444241422798427
5156000000.0 1.07999030532977 -0.08306893121703668
5159000000.0 1.0594598533890185 -0.07407198466554177
5162000000.0 1.025683435442118 -0.04501622346850015
5166000000.0 1.103566329538084 -0.1459885214209779
