! Created with skrf 1.8.0 (http://scikit-rf.org).
# Hz S RI R 50.0 
!freq ReS11 ImS11
4000000000.0 0.5201804908458422 -0.8754771885985466
4003000000.0 0.557696608785869 -0.9208326074669599
4006000000.0 0.4753304840058513 -0.8665359259351169
4009000000.0000005 0.5920375130907065 -0.9118841375411091
4011999999.9999995 0.6559767398898413 -0.8915955812555607
4016000000.0 0.5450194149410957 -0.9066649051011758
4019000000.0 0.5472753503722902 -0.8812973755114705
4022000000.0000005 0.6119749585502461 -0.827894891395484
4025000000.0000005 0.49419034744097146 -0.9406721185248678
4027999999.9999995 0.5298803156199302 -0.8823016443715436
4030999999.9999995 0.5377213001598993 -0.8504379935787922
4034000000.0 0.4732362137983998 -0.8822722167815948
4038000000.0000005 0.5293637273365104 -0.8967301004344554
4041000000.0000005 0.5118481093291191 -0.8903837208907627
4043999999.9999995 0.6050587829784934 -0.9259156584850665
4046999999.9999995 0.5896570842727145 -0.9237580995300105
4050000000.0 0.48701754465623365 -0.8975380515975487
4053000000.0 0.4742184320123265 -0.8365893996988154
4056000000.0 0.5479274881757146 -0.930196445816884
4059000000.0 0.530803391143563 -0.8462320784314145
4062000000.0000005 0.5242647537337946 -0.8901115794545232
4066000000.0 0.5100424744767398 -0.8270429142134098
4069000000.0 0.5639033267311006 -0.9167179462404033
4072000000.0 0.5521782496732583 -0.8637283739242996
4075000000.0 0.6119207760249519 -0.8712796211985374
4078000000.0000005 0.5289650274458072 -0.8751656870681301
4081000000.0000005 0.6085953919585684 -0.8600088526829237
4083999999.9999995 0.5102994342096476 -0.8750536742161075
4088000000.0 0.5518097745050139 -0.853217719404787
4091000000.0 0.5962511215318013 -0.8958821619723318
4094000000.0000005 0.574687955887046 -0.8913658871811183
4097000000.0000005 0.5511952908211116 -0.8858784942731274
4099999999.9999995 0.5269292282635115 -0.8843170708285882
4102999999.9999995 0.5785795274771404 -0.8882300797383036
4106000000.0 0.5486168784866245 -0.9062331289663744
4109000000.0 0.496288385385674 -0.9131089487819884
4112000000.0 0.5619079331515084 -0.8830593557355692
4115999999.9999995 0.5672083949161173 -0.9123129773419104
4119000000.0 0.5390265636362299 -0.8674543436942697
4122000000.0 0.5385219467986119 -0.9144959491234281
4125000000.0 0.507985904068866 -0.9002281803167814
4128000000.0 0.5552373357171491 -0.8668401590602738
4131000000.0 0.5431581853819518 -0.8822739689342276
4134000000.0000005 0.5480612747916075 -0.8722705393121465
4138000000.0 0.4979338800139715 -0.8513581132584955
4141000000.0 0.5292772920466686 -0.8451592755686171
4144000000.0 0.5525112110606043 -0.8686216551671888
4147000000.0000005 0.5309635781513968 -0.8815219736300587
4150000000.0000005 0.6086449976548582 -0.8924152832951381
4152999999.9999995 0.5425255045616807 -0.8615573013241464
4155999999.9999995 0.5493834377924864 -0.902031727966961
4159000000.0 0.5526637457500803 -0.8648398264879105
4162000000.0 0.546516833245644 -0.8583564132955486
4166000000.0000005 0.5161762287131818 -0.9125882115192826
4168999999.9999995 0.5163219903615449 -0.8684276587866283
4171999999.9999995 0.5396458169316954 -0.8413058517670506
4175000000.0 0.5784199615846276 -0.8500632594346758
4178000000.0 0.5363354293111633 -0.8825968152215004
4181000000.0 0.5181748772529899 -0.8936104219439533
4184000000.0 0.5648602482664353 -0.8736174245558203
4187999999.9999995 0.5363997139592513 -0.8734230368542582
4191000000.0 0.5757217919247 -0.8524632799982699
4194000000.0 0.5350518662025456 -0.8679710389889838
4197000000.0 0.5495920442520469 -0.8710215131585937
4200000000.0 0.5603575327368884 -0.8631456713287882
4203000000.0000005 0.568960130616852 -0.8653242471953516
4206000000.0000005 0.5417064670195121 -0.8770330996509235
4208999999.9999995 0.5517075793159346 -0.8455736517068628
4211999999.9999995 0.5246520465763329 -0.8852191017010103
4216000000.0 0.5575024927240271 -0.871624962611882
4219000000.0000005 0.5570231526334215 -0.872075369277722
4222000000.0000005 0.5341581154353972 -0.871841062688391
4224999999.9999995 0.5388813823891495 -0.8465290074569995
4227999999.9999995 0.5507192177556715 -0.8667196514428004
4231000000.0 0.5410927153235476 -0.8713055063461583
4234000000.0 0.5483334194774214 -0.8789107419118032
4238000000.0000005 0.5276035302381513 -0.8620179641418428
4240999999.9999995 0.5289748281362341 -0.8641525761718258
4244000000.0 0.5360728459396353 -0.8729596043681789
4247000000.0 0.5508730568887288 -0.8567657460393355
4250000000.0 0.5207736929245335 -0.8600040664397338
4253000000.0 0.5142109971464176 -0.8591294220255987
4256000000.0 0.5481001772300633 -0.885973604782955
4259000000.0000005 0.5265034300508098 -0.8507121870827254
4261999999.9999995 0.5109551347503756 -0.863358577005521
4266000000.0 0.533811434214473 -0.8782991777397188
4269000000.0 0.5443507004944191 -0.8706844805964306
4272000000.0000005 0.5291097506525309 -0.8562049673438157
4275000000.0000005 0.5752894425306512 -0.8654447239804384
4277999999.9999995 0.5571107340209737 -0.8713997572812874
4280999999.9999995 0.5549146405475317 -0.8482395051828545
4284000000.0 0.507504912188332 -0.8939455202405014
4288000000.0000005 0.5586632277112574 -0.8401351298587635
4291000000.0000005 0.5091904863861796 -0.8430233408128363
4293999999.9999995 0.5334494230222702 -0.8566174335605412
4297000000.0 0.5482289608896598 -0.8224255929599035
4300000000.0 0.5389020943024123 -0.8714719533541508
4303000000.0 0.521701978701932 -0.8830302473220312
4306000000.0 0.5649487025742091 -0.8463511811275364
4309000000.0 0.5524263020682911 -0.8363218968261801
4312000000.0 0.6188628841380726 -0.8426957554680717
4316000000.0 0.5650170271025754 -0.8486492561819364
4319000000.0 0.5499851487309289 -0.8368382959757641
4322000000.0 0.5292116030085698 -0.8583897385370349
4325000000.0 0.5541703431795819 -0.8413626853290805
4328000000.0 0.5203774250162709 -0.8668040687980835
4331000000.0 0.5256890102865125 -0.8645841279185773
4334000000.0 0.5467187030371277 -0.864651442126483
4338000000.0 0.5659339415033251 -0.8726614715694476
4341000000.0 0.5815024196849444 -0.8184976572732221
4344000000.0 0.5597131179897212 -0.8734280200050559
4347000000.0 0.5020399666803825 -0.8882875007763291
4350000000.0 0.526512750099409 -0.8476049240791589
4353000000.0 0.5674318069155372 -0.8288020079213972
4356000000.0 0.5107343112188557 -0.856177775372063
4359000000.0 0.5199507985731778 -0.8237608950304712
4362000000.0 0.495048108023106 -0.905598729309021
4366000000.0 0.5347560991120807 -0.8749471219080488
4369000000.0 0.5157956587791593 -0.84246289473724
4372000000.0 0.5077944017793014 -0.8663372394486757
4375000000.0 0.5440582814706489 -0.8470493622220022
4378000000.0 0.5294831258716767 -0.8463658611554025
4381000000.0 0.5160816079612565 -0.8430864613930618
4384000000.0 0.538311703214303 -0.9232754598010945
4388000000.0 0.5236159863963339 -0.8358782923995702
4391000000.0 0.5672100836709548 -0.8530525333746005
4394000000.0 0.49906502354046584 -0.8381122875243779
4397000000.0 0.5188882098025422 -0.8596028747682976
4400000000.0 0.5373125727210963 -0.881812434751686
4403000000.0 0.5467514424551192 -0.8583047484449533
4406000000.0 0.5230563707872862 -0.8797677038086593
4409000000.0 0.5240855575922705 -0.9051313150411743
4412000000.0 0.4781936907197297 -0.8921773585202529
4416000000.0 0.5100003062494657 -0.853204200166286
4419000000.0 0.5173203738281379 -0.8781630792824329
4422000000.0 0.5372193968593066 -0.8435076509694873
4425000000.0 0.5530447680960332 -0.873468824552184
4428000000.0 0.520082259015942 -0.8621275441706793
4431000000.0 0.5488519428812941 -0.8679513942716337
4434000000.0 0.5118092382542668 -0.8517318519494532
4438000000.0 0.5426108271997415 -0.8836369602611664
4441000000.0 0.5417064753061264 -0.868851701546991
4444000000.0 0.5202361801106529 -0.8475002516573352
4447000000.0 0.509496617247029 -0.8660296104033539
4450000000.0 0.542596610766714 -0.8572790987570872
4453000000.0 0.5441459665124826 -0.8968624287620897
4456000000.0 0.5028281154288601 -0.851857868009973
4459000000.0 0.4839145363022214 -0.8449533299966998
4462000000.0 0.5313244938455279 -0.9206507743565164
4466000000.0 0.5274264974174002 -0.9111303075557342
4469000000.0 0.5397231805184679 -0.8522051476540062
4472000000.0 0.5087322398095802 -0.8894522182403756
4475000000.0 0.5103578578227311 -0.8478697216387784
4478000000.0 0.520727215022148 -0.9128863991387197
4481000000.0 0.48653295254185336 -0.8531394532197871
4484000000.0 0.47372554364586633 -0.8784125681020352
4488000000.0 0.4874189840998069 -0.8744446254883089
4491000000.0 0.504824100058143 -0.8771197376379649
4494000000.0 0.5201885300038287 -0.875773858366232
4497000000.0 0.5212385454479285 -0.8424017462723936
4500000000.0 0.5315055597080431 -0.8677786190649868
4503000000.0 0.5184873619567587 -0.8913712234586284
4506000000.0 0.5032594881231259 -0.856712602906329
4509000000.0 0.4973868702496652 -0.8525947839934667
4512000000.0 0.5152114902878671 -0.8334684563432679
4516000000.0 0.5264934858467764 -0.9017593403761585
4519000000.0 0.5019517210809464 -0.8495981686380976
4522000000.0 0.4826645708426575 -0.8701113057543315
4525000000.0 0.5407200338229764 -0.8554033228217948
4528000000.0 0.5085263831313761 -0.8956572417005155
4531000000.0 0.514421315892022 -0.8780171478404369
4534000000.0 0.5021198869560793 -0.8640947311370932
4538000000.0 0.4951052088614793 -0.8789560264642218
4541000000.0 0.48458412403575984 -0.8828048553312096
4544000000.0 0.4921282488212563 -0.8611080929479962
4547000000.0 0.5181558929703577 -0.8523688770314
4550000000.0 0.4876119764580026 -0.8941271770505195
4553000000.0 0.5043673497550282 -0.8804322833943381
4556000000.0 0.484927806564977 -0.8635791452064491
4559000000.0 0.4850134477671938 -0.8715234890544132
4562000000.0 0.4939365481581811 -0.8789220712061534
4566000000.0 0.5164808512272171 -0.8810498037520511
4569000000.0 0.49666260385445726 -0.8592133600727705
4572000000.0 0.5126333837107311 -0.8734423111342096
4575000000.0 0.5037053677352845 -0.8947732221957534
4578000000.0 0.5237901673157629 -0.8887386460587566
4581000000.0 0.4897080532750655 -0.8972599174615354
4584000000.0 0.49127191965174266 -0.8759373122680842
4588000000.0 0.5292892581810543 -0.8937620803534064
4591000000.0 0.5170858979945481 -0.8968479988152711
4594000000.0 0.4795569468918961 -0.8908943676954746
4597000000.0 0.49147462602807584 -0.8841395124585744
4600000000.0 0.469243910881346 -0.8829917581541604
4603000000.0 0.4875539796500522 -0.8822853602022308
4606000000.0 0.5070740968670895 -0.8859901696694038
4609000000.0 0.49438077293390215 -0.8879519189472642
4612000000.0 0.5026005199038444 -0.8680652178905648
4616000000.0 0.4856804641600755 -0.8696414669914162
4619000000.0 0.5048293441567697 -0.8686755343319617
4622000000.0 0.49846874754844095 -0.8920191335052529
4625000000.0 0.4712697895552945 -0.8634676459433384
4628000000.0 0.5069692853302401 -0.8730462131744572
4631000000.0 0.4707253043242372 -0.8632014515937261
4634000000.0 0.4974452537330747 -0.8954352743350579
4638000000.0 0.4956733045357835 -0.8862593167507015
4641000000.0 0.4880706446185604 -0.8762239187198458
4644000000.0 0.5049284885693912 -0.8889316238034586
4647000000.0 0.49943001553435584 -0.878569339538028
4650000000.0 0.4844824314209569 -0.9043559928302115
4653000000.0 0.5183350876361409 -0.8983918764160899
4656000000.0 0.48425640733865516 -0.9081949920058373
4659000000.0 0.4847186886837031 -0.8910165862804095
4662000000.0 0.5059164711288442 -0.8835985956655411
4666000000.0 0.4768524315564422 -0.8704058762645048
4669000000.0 0.4920663250725653 -0.8738955113220298
4672000000.0 0.5040171425239225 -0.9169626000781211
4675000000.0 0.47316201223840726 -0.9055552969200866
4678000000.0 0.4892826638734425 -0.876400593689248
4681000000.0 0.4961590709092777 -0.9208085552826131
4684000000.0 0.4615132657654839 -0.9103062504653306
4688000000.0 0.4700200597936851 -0.8970281563746266
4691000000.0 0.5034900948867725 -0.8938170574268351
4694000000.0 0.5009029453486056 -0.8567717331056242
4697000000.0 0.4815148586643233 -0.8860761399142602
4700000000.0 0.4696930255902332 -0.902383466731362
4703000000.0 0.5093860326889394 -0.8441035921288215
4706000000.0 0.46618003806851643 -0.9270472654257252
4709000000.0 0.46848258164675094 -0.8960726008486339
4712000000.0 0.48440056892329186 -0.9305260403742479
4716000000.0 0.5007908072224259 -0.9042249108900494
4719000000.0 0.5142540898796032 -0.8795338017704138
4722000000.0 0.5100279014483106 -0.8948846477084295
4725000000.0 0.47968151761042765 -0.8756331553311579
4728000000.0 0.48699958554515926 -0.8977682088355877
4731000000.0 0.5066595402934243 -0.9084927506488231
4734000000.0 0.505082119712699 -0.8631345184496385
4738000000.0 0.5136506489140205 -0.9180819180206552
4741000000.0 0.478621646178272 -0.9201827487076839
4744000000.0 0.4710959844740242 -0.912986907568419
4747000000.0 0.48823332868370156 -0.8726328226106868
4750000000.0 0.5084379278740578 -0.8813023746965075
4753000000.0 0.4914648375114161 -0.8764560726802807
4756000000.0 0.4686352760419653 -0.9169306647448039
4759000000.0 0.4999023180458081 -0.9029459971142189
4762000000.0 0.4917305360361872 -0.9107182214010695
4766000000.0 0.47947339007398715 -0.8631339907266132
4769000000.0 0.4763799467789017 -0.8983080551520388
4772000000.0 0.49935730744249995 -0.9066054473505928
4775000000.0 0.4851090878820179 -0.954420977915404
4778000000.0 0.5092564537551979 -0.8972170107099045
4781000000.0 0.5023721554226285 -0.9212292630996953
4784000000.0 0.49809570910110573 -0.858849081006749
4788000000.0 0.5021080880173265 -0.9000613292227146
4791000000.0 0.455058315741629 -0.9028607307518899
4794000000.0 0.5145002623663868 -0.928786753745284
4797000000.0 0.4629568381465866 -0.8842179874496718
4800000000.0 0.47545411247090597 -0.8911451010018372
4803000000.0 0.42590501353372234 -0.89312242919149
4806000000.0 0.45625037399431234 -0.9167070894502212
4809000000.0 0.45097052864829035 -0.956277910819478
4812000000.0 0.46256927750579235 -0.9023576854558042
4816000000.0 0.4826049524935281 -0.8880216905380944
4819000000.0 0.5103747958402095 -0.9314810689472356
4822000000.0 0.5214585897257398 -0.9169034396323807
4825000000.0 0.5234695643670955 -0.9239209267308307
4828000000.0 0.4863013024895379 -0.915705813682583
4831000000.0 0.44071826148788606 -0.9349953256981287
4834000000.0 0.5004888099227984 -0.8943917564282734
4838000000.0 0.48711629207713736 -0.9145482350036069
4841000000.0 0.4746598362511609 -0.893700891658709
4844000000.0 0.5184670695084445 -0.9113166642138653
4847000000.0 0.4957724933227712 -0.8730802193847159
4850000000.0 0.49570320135488577 -0.9111082761188174
4853000000.0 0.4887942868353571 -0.8849632103504692
4856000000.0 0.48394838584129374 -0.8993523037389757
4859000000.0 0.47443054682899294 -0.9419595199047833
4862000000.0 0.501932770423957 -0.8655725425380836
4866000000.0 0.48913825929583143 -0.9161528359607569
4869000000.0 0.4696158988142795 -0.927627369900355
4872000000.0 0.462303175746875 -0.9413482765749827
4875000000.0 0.5492628748956523 -0.9135466698159679
4878000000.0 0.46789536809278 -0.9164428033005281
4881000000.0 0.4962543454160933 -0.9845801995368344
4884000000.0 0.4863485554750823 -0.9010571799157738
4888000000.0 0.5104639139967962 -0.8960206022063882
4891000000.0 0.515324294026665 -0.8945050618087441
4894000000.0 0.4751718613637376 -0.9253867047147147
4897000000.0 0.5404090561173938 -0.8844929695379316
4900000000.0 0.4934087279298583 -0.9261033681153363
4903000000.0 0.5205685182461894 -0.9126486734805194
4906000000.0 0.5044212992963538 -0.9172740026722616
4909000000.0 0.4697221093527928 -0.9190994381222981
4912000000.0 0.5051012214728359 -0.953869567070931
4916000000.0 0.5222949326368003 -0.9218468746050126
4919000000.0 0.5293960115746974 -0.9095435474256763
4922000000.0 0.5363133404321859 -0.8876470215285002
4925000000.0 0.4564758490416852 -0.9017256398035629
4928000000.0 0.5100150238882935 -0.8796724258036176
4931000000.0 0.5304377841546978 -0.921589295023843
4934000000.0 0.48667629954865355 -0.8811225922334062
4938000000.0 0.47706531707239297 -0.9071622176644556
4941000000.0 0.4865962639910292 -0.904370502846662
4944000000.0 0.4984267797108335 -0.8344354995660459
4947000000.0 0.48034238322964823 -0.8793298703818766
4950000000.0 0.47230484721759963 -0.8985174369621418
4953000000.0 0.48084642347902135 -0.9459841107580627
4956000000.0 0.4509831931511529 -0.9009529151854744
4959000000.0 0.42631103331924225 -0.8988139016304565
4962000000.0 0.5007140076443068 -0.9249274221782018
4966000000.0 0.5219651195559188 -0.9745755473183206
4969000000.0 0.54522065608004 -0.9474764752527114
4972000000.0 0.4651134482977204 -0.9020424423592446
4975000000.0 0.5143221031375793 -0.8772805797153358
4978000000.0 0.5200321898662118 -0.9107133869168399
4981000000.0 0.4624398555276461 -0.9531823546871627
4984000000.0 0.5075301965573856 -0.891601643415225
4988000000.0 0.5248931865066472 -0.9101919317511973
4991000000.0 0.5838283710622203 -0.9045576425143926
4994000000.0 0.5028252193897459 -0.891187632567477
4997000000.0 0.49238345232605263 -0.943629090541888
5000000000.0 0.5126687944734962 -0.933404478489723
5003000000.0 0.5372753249532902 -0.943067143959167
5006000000.0 0.5305330899071865 -0.9384967456463152
5009000000.0 0.491607211485496 -0.9148394280295363
5012000000.0 0.4935394084309016 -0.9129999645135198
5016000000.0 0.5451737242145677 -0.9335881416089946
5019000000.0 0.5128436370935547 -0.8993015757597107
5022000000.0 0.5195724443879406 -0.9080060743643996
5025000000.0 0.5181341740534913 -0.9590730745963936
5028000000.0 0.5065152259118234 -0.9496741108667944
5031000000.0 0.47906627811801855 -0.9228407305639386
5034000000.0 0.49311200746828354 -0.9428395445188031
5038000000.0 0.4646223790540217 -0.8804600184909278
5041000000.0 0.5453428494180131 -0.9105221379887138
5044000000.0 0.5061757175387815 -0.8868602636257779
5047000000.0 0.5424678888482763 -0.9156891289129114
5050000000.0 0.5679139646242789 -0.8349022035571554
5053000000.0 0.5303897723541986 -0.9293418706310284
5056000000.0 0.5334804046273345 -0.8751053305027416
5059000000.0 0.545346802445045 -0.8442999938336223
5062000000.0 0.4766362476148363 -0.951100594639263
5066000000.0 0.5519614316561859 -0.900040345188837
5069000000.0 0.5264750106924863 -0.9282200538378973
5072000000.0 0.5148496551689407 -0.8726571544316527
5075000000.0 0.5436438463524973 -0.9043909772529588
5078000000.0 0.5022979689680401 -0.9303205973146643
5081000000.0 0.46945638640644277 -0.9013404235246832
5084000000.0 0.5132213889179211 -0.9051570029961149
5088000000.0 0.550777975905943 -0.9009159264836908
5091000000.0 0.47662056380954926 -0.9282884499200754
5094000000.0 0.5064804721326402 -0.8686675953765279
5097000000.0 0.5421277617062689 -0.9320901907483068
5100000000.0 0.5484290291308807 -0.9055984919150883
5103000000.0 0.5134487027017525 -0.9556866138708546
5106000000.0 0.5816580147905226 -0.9352626086445732
5109000000.0 0.503917839527476 -0.8971715945069665
5112000000.0 0.5109690511408835 -0.8637358743675441
5116000000.0 0.5217170211940424 -0.8686149692680464
5119000000.0 0.5200246696091713 -0.9488564815730836
5122000000.0 0.5198121330578105 -0.8377685335554932
5125000000.0 0.5814315868879205 -0.8555090841298583
5128000000.0 0.5017832156461255 -0.9234063216114037
5131000000.0 0.4729105024183996 -0.8605310685955547
5134000000.0 0.5445287298934196 -0.903967574780784
5138000000.0 0.5393525145167064 -0.8729739683178047
5141000000.0 0.5723301288097777 -0.8843905338725121
5144000000.0 0.5551472035733895 -0.9020655049619959
5147000000.0 0.539370519310155 -0.9325074152480626
5150000000.0 0.5977065577127673 -0.8409158562086212
5153000000.0 0.5400309767009744 -0.8761639684277198
5156000000.0 0.5701420441686806 -0.9015496287634049
5159000000.0 0.5462971964982051 -0.9605783843710842
5162000000.0 0.52732056418562 -0.9287354335173059
5166000000.0 0.5280387315397439 -0.9011676698644829
5169000000.0 0.5293531109776317 -0.8847022535782649
5172000000.0 0.579338682525601 -0.8721046840581805
5175000000.0 0.5699294868096886 -0.9105197261908933
5178000000.0 0.5206364715760088 -0.9301329087897108
