! Created with skrf 1.8.0 (http://scikit-rf.org).
# Hz S RI R 50.0 
!freq ReS11 ImS11
4000000000.0 0.5548720614811166 -0.8146066092249189
4003000000.0 0.5752324047544977 -0.9255940427209558
4006000000.0 0.4839422599597595 -0.9286372969228738
4009000000.0000005 0.5119814054053204 -0.8552881157581217
4011999999.9999995 0.6021056706252085 -0.8253319702511671
4016000000.0 0.5053154705185299 -0.8899069534229727
4019000000.0 0.5157456800928425 -0.9351170757970209
4022000000.0000005 0.6364062586592665 -0.8724246024027881
4025000000.0000005 0.5041684515941252 -0.9327348438443488
4027999999.9999995 0.4907178644951487 -0.9056253569076109
4030999999.9999995 0.5190264896357023 -0.8807860056981209
4034000000.0 0.4944193069592991 -0.8904055361182956
4038000000.0000005 0.5134664660145304 -0.9270427564885287
4041000000.0000005 0.5377265647452132 -0.8553943327981854
4043999999.9999995 0.544388617296135 -0.8811578595868305
4046999999.9999995 0.5911703196855231 -0.9157360904459241
4050000000.0 0.498998687548742 -0.960416484684636
4053000000.0 0.48970287018485503 -0.8762307002049341
4056000000.0 0.5083552619154842 -0.8758136892268334
4059000000.0 0.5059201138694194 -0.8553338526922536
4062000000.0000005 0.4928218704863388 -0.8664668060995452
4066000000.0 0.46062045808437624 -0.8475262209962383
4069000000.0 0.49300350080606126 -0.9239234198449529
4072000000.0 0.5288524701764337 -0.8751708119454515
4075000000.0 0.5684870007184502 -0.9135057739804668
4078000000.0000005 0.516564620253791 -0.9060798504444736
4081000000.0000005 0.5669958918954467 -0.9180074217962892
4083999999.9999995 0.4888943813731653 -0.9001924810018735
4088000000.0 0.5935699400473885 -0.887927786759815
4091000000.0 0.5542328005765211 -0.9188311542016797
4094000000.0000005 0.544731071864758 -0.8708358384931347
4097000000.0000005 0.5166371234424719 -0.9268422612912354
4099999999.9999995 0.5173168294019835 -0.8941224386465236
4102999999.9999995 0.5946173204662156 -0.885949023292417
4106000000.0 0.5090771049039251 -0.9169077858208677
4109000000.0 0.553763886147741 -0.9197172693644862
4112000000.0 0.5534131007104106 -0.8973391834052271
4115999999.9999995 0.5273171910599873 -0.8797085627074861
4119000000.0 0.5119525346861891 -0.8866837396818159
4122000000.0 0.486028400305963 -0.8803362684261848
4125000000.0 0.49657727882789787 -0.9283303303577545
4128000000.0 0.5376667627648484 -0.8350796198360363
4131000000.0 0.5050334407458434 -0.8914033865648814
4134000000.0000005 0.5409082982519011 -0.8797508923812488
4138000000.0 0.49891395125212906 -0.8848541963444898
4141000000.0 0.5337083995891063 -0.888031878206721
4144000000.0 0.5331434740687668 -0.8714295090624204
4147000000.0000005 0.530200512136819 -0.8923247219725693
4150000000.0000005 0.5368469974713167 -0.9018687732999494
4152999999.9999995 0.5219929330354083 -0.8985076000768865
4155999999.9999995 0.5335864543866368 -0.9081684069211491
4159000000.0 0.5088605003175248 -0.8700363173999004
4162000000.0 0.5216582802760451 -0.8939842945861771
4166000000.0000005 0.5352801692595368 -0.8947209227751832
4168999999.9999995 0.5297919893820348 -0.8918235709840439
4171999999.9999995 0.5197620378999056 -0.9099887501286723
4175000000.0 0.5330222009719825 -0.9141771281463571
4178000000.0 0.5407116845937259 -0.9103134089287731
4181000000.0 0.5088875380466544 -0.895955824147182
4184000000.0 0.5258087044569633 -0.8740436864063788
4187999999.9999995 0.516472594002071 -0.8937310421009559
4191000000.0 0.567034739948691 -0.8534385030046269
4194000000.0 0.5206308754898789 -0.8479973316367508
4197000000.0 0.5194627734679809 -0.8826863911639794
4200000000.0 0.5366490952378494 -0.8789184745926647
4203000000.0000005 0.5418867631276261 -0.8913534863204421
4206000000.0000005 0.5373962951865987 -0.8703242097154058
4208999999.9999995 0.5331885350016561 -0.8707182750553555
4211999999.9999995 0.4744050500878447 -0.8975224426789635
4216000000.0 0.525198868083703 -0.8577600409976329
4219000000.0000005 0.5424494234158229 -0.8720156933172112
4222000000.0000005 0.52974041962243 -0.8989784646012186
4224999999.9999995 0.5302167601626826 -0.8611751104666678
4227999999.9999995 0.5204829430237993 -0.8649231975682351
4231000000.0 0.5249913731835363 -0.8877019406436576
4234000000.0 0.530873574104139 -0.901937317162025
4238000000.0000005 0.4984858751029314 -0.8818997534876087
4240999999.9999995 0.5050113381865505 -0.8750054572549525
4244000000.0 0.5102856025003947 -0.8700340579168366
4247000000.0 0.5515089320205703 -0.8796692370735647
4250000000.0 0.5023450547058637 -0.8640111647791034
4253000000.0 0.5068959456362363 -0.8654420720232145
4256000000.0 0.5270912951508382 -0.8969078980259957
4259000000.0000005 0.49393395487377284 -0.8353368008693174
4261999999.9999995 0.5065061928807372 -0.8878129363348153
4266000000.0 0.5160976752980124 -0.9040865618575481
4269000000.0 0.5323901219386218 -0.8692391410716681
4272000000.0000005 0.531547375564562 -0.8526262587613731
4275000000.0000005 0.5144156059325212 -0.8853898425391704
4277999999.9999995 0.5403693643740748 -0.8930936885629555
4280999999.9999995 0.529980765128023 -0.8763076959586638
4284000000.0 0.5046538138128689 -0.9222438248727537
4288000000.0000005 0.5216533638930657 -0.8620974624004454
4291000000.0000005 0.49893857723239765 -0.8617467017872011
4293999999.9999995 0.5073038599797985 -0.8613504831523927
4297000000.0 0.5282809897922907 -0.863696206010525
4300000000.0 0.5358362422298618 -0.846353216837468
4303000000.0 0.5045659767730238 -0.8522908115728424
4306000000.0 0.5535882287727845 -0.865098335372272
4309000000.0 0.523084289098664 -0.8669936361168157
4312000000.0 0.5469801118826482 -0.8656783641906567
4316000000.0 0.5413878773256899 -0.8841810898114311
4319000000.0 0.5280624606214183 -0.858339797027777
4322000000.0 0.4848659409205045 -0.8787076321525701
4325000000.0 0.5206702689444701 -0.8487791637289078
4328000000.0 0.5070692789512672 -0.8848822599800472
4331000000.0 0.5109277591685711 -0.9216190548092011
4334000000.0 0.49415723831042396 -0.871884616221684
4338000000.0 0.5503290214622899 -0.8434966536905202
4341000000.0 0.5302636768767591 -0.8773122141554466
4344000000.0 0.5355223137617197 -0.8744251686393749
4347000000.0 0.511996317045562 -0.892920305516784
4350000000.0 0.48940837633067147 -0.8538735483691948
4353000000.0 0.5307450829439159 -0.82991582678346
4356000000.0 0.4821898687932572 -0.8664098752618603
4359000000.0 0.4901955115598614 -0.8446671074026739
4362000000.0 0.4856514399717354 -0.9099745121607347
4366000000.0 0.515842758748404 -0.8834610906317478
4369000000.0 0.4933636750317192 -0.8547522789496288
4372000000.0 0.484864753465734 -0.8847827368281143
4375000000.0 0.5116471525897182 -0.8574722768834507
4378000000.0 0.503164235215546 -0.8587350333909893
4381000000.0 0.5165719709389653 -0.8488039690264967
4384000000.0 0.542426319749341 -0.9382783960368808
4388000000.0 0.5106096904802984 -0.8492723435815652
4391000000.0 0.5257967510831988 -0.8738477220077081
4394000000.0 0.4825825873624264 -0.8542956910089116
4397000000.0 0.4885600390367624 -0.8874789096429665
4400000000.0 0.5323604843551686 -0.8952587908295337
4403000000.0 0.5080568474315952 -0.8755930648766019
4406000000.0 0.48574188232540333 -0.8891106851609705
4409000000.0 0.5140289189218961 -0.9100153777103817
4412000000.0 0.44042720539799807 -0.9049462581687897
4416000000.0 0.491425834094262 -0.8756595637699511
4419000000.0 0.4834838478652551 -0.8906130365274264
4422000000.0 0.5212742708904352 -0.8522347957084535
4425000000.0 0.5330903519150257 -0.8789130662288578
4428000000.0 0.5033396706072842 -0.8782031553858791
4431000000.0 0.5127554310996826 -0.9001950402470414
4434000000.0 0.48926485106215845 -0.8817717133565323
4438000000.0 0.5133900898891184 -0.8803854594839529
4441000000.0 0.5034448751865044 -0.9034254153193523
4444000000.0 0.4952209611723778 -0.858747525717435
4447000000.0 0.4931726940422241 -0.8791760917498899
4450000000.0 0.5041046784726722 -0.8676937412325064
4453000000.0 0.509079397265694 -0.9042417499057767
4456000000.0 0.46834553923746075 -0.8752717304109272
4459000000.0 0.46625145094150144 -0.8553964913822378
4462000000.0 0.5240408007950315 -0.9385106812800176
4466000000.0 0.5184650454487664 -0.9391644156885439
4469000000.0 0.5201560051351842 -0.8749132440970037
4472000000.0 0.4916232146162433 -0.9185126279483213
4475000000.0 0.4782904550381059 -0.8630400829602802
4478000000.0 0.4946919660362724 -0.9228444300907562
4481000000.0 0.4704719980507135 -0.868641164443474
4484000000.0 0.4493982218767166 -0.8894158175325824
4488000000.0 0.4754395472781038 -0.8814374602230051
4491000000.0 0.4931423897071281 -0.8925532757840171
4494000000.0 0.4841138186905335 -0.8750506739340507
4497000000.0 0.5080655712138185 -0.8594795221017124
4500000000.0 0.522031298080195 -0.892530012767501
4503000000.0 0.5154928799304381 -0.8951010142690674
4506000000.0 0.469533886203854 -0.88469381147636
4509000000.0 0.480085450602685 -0.8567820493317448
4512000000.0 0.4533582133778124 -0.8642720993212442
4516000000.0 0.501885457432754 -0.8941721115871877
4519000000.0 0.5036384852643776 -0.8629055371843565
4522000000.0 0.46713753637985794 -0.8887336469076198
4525000000.0 0.5062309949984682 -0.8641963401040953
4528000000.0 0.48489975561817744 -0.9146225882713479
4531000000.0 0.48986006741897614 -0.8806091893219876
4534000000.0 0.48022649364237235 -0.891814610648151
4538000000.0 0.4810776346850612 -0.8785276313036532
4541000000.0 0.44808340754126946 -0.8955527282422868
4544000000.0 0.45789028146781746 -0.8843643260541527
4547000000.0 0.5092810314726844 -0.8621470716278361
4550000000.0 0.47083953986232135 -0.8869797030079266
4553000000.0 0.4793046755902801 -0.8918063257455371
4556000000.0 0.45529869895487873 -0.8731772226077854
4559000000.0 0.46962653308802577 -0.8949103106099658
4562000000.0 0.48893588886132117 -0.8965348698762589
4566000000.0 0.48914512921435066 -0.8917092371633499
4569000000.0 0.44132231420473234 -0.873453994207118
4572000000.0 0.4872321635839256 -0.8807012461733559
4575000000.0 0.45589165373973006 -0.912036076079135
4578000000.0 0.5113721904848825 -0.9186613277450496
4581000000.0 0.47196702999933876 -0.9091870932470302
4584000000.0 0.45703932596436725 -0.895214082255992
4588000000.0 0.4895153502582448 -0.9004291127624549
4591000000.0 0.4921717114936117 -0.8906634360235471
4594000000.0 0.4497176415924709 -0.9047196173295479
4597000000.0 0.46974387186645983 -0.9286226206323285
4600000000.0 0.4477837147849082 -0.8870701137234844
4603000000.0 0.4691354055150936 -0.9044681425179235
4606000000.0 0.46107350037786676 -0.9133115105775894
4609000000.0 0.4801681392286751 -0.8936149603050545
4612000000.0 0.4616097976347133 -0.9127896346126716
4616000000.0 0.46045255215473224 -0.884072192391009
4619000000.0 0.4782747956414185 -0.877247420021597
4622000000.0 0.46928443688272214 -0.893423630098128
4625000000.0 0.4333194241281629 -0.8896981719068023
4628000000.0 0.4716530832681691 -0.8822580726467252
4631000000.0 0.46552231349309675 -0.8897037900547364
4634000000.0 0.4614189861497115 -0.9107438381459706
4638000000.0 0.47328104637516477 -0.9006758333056116
4641000000.0 0.48429001040943553 -0.8783679667236843
4644000000.0 0.45553494017083423 -0.8911945103374487
4647000000.0 0.47717372609024455 -0.8973147897070636
4650000000.0 0.4616264536971315 -0.8976112026952338
4653000000.0 0.47980268390964564 -0.9175485369176621
4656000000.0 0.4606129109193604 -0.9243189773980359
4659000000.0 0.4534569521620888 -0.9093015145240535
4662000000.0 0.44721187996836814 -0.9135487826329884
4666000000.0 0.4563347085222369 -0.8998951553490265
4669000000.0 0.47122888763866266 -0.9043536610222646
4672000000.0 0.46324843874753463 -0.9333606319617079
4675000000.0 0.4539198021308432 -0.9198256574038726
4678000000.0 0.43777544917562305 -0.8997173898319648
4681000000.0 0.4564380775933352 -0.9463605856773183
4684000000.0 0.40229488348266734 -0.9264903603185681
4688000000.0 0.4627391659919406 -0.9014771383552043
4691000000.0 0.4815537940893487 -0.9176355460252151
4694000000.0 0.4525908497985621 -0.8958284468779968
4697000000.0 0.4282942798465139 -0.8807870259810888
4700000000.0 0.46920272356090115 -0.9010817548855349
4703000000.0 0.47116280495188795 -0.8477093041689987
4706000000.0 0.4071573808342639 -0.9124607522127234
4709000000.0 0.4247349304942961 -0.918366450296422
4712000000.0 0.47262192607689535 -0.930737055472184
4716000000.0 0.430175376070443 -0.9468137638045299
4719000000.0 0.4968763036344935 -0.9043615564021412
4722000000.0 0.46935135271476197 -0.8867568861269643
4725000000.0 0.4586966277631945 -0.9107043375916014
4728000000.0 0.4597407889085481 -0.9181206650973375
4731000000.0 0.47960747282083144 -0.9408081876676838
4734000000.0 0.46339960107162287 -0.8938565584784973
4738000000.0 0.49485614453447735 -0.9218900827873497
4741000000.0 0.4498017567987367 -0.943924625610943
4744000000.0 0.449404678771496 -0.9302762889146858
4747000000.0 0.46746857865949953 -0.8626265832793809
4750000000.0 0.4488028104182049 -0.9223615509287203
4753000000.0 0.46768713195964573 -0.933927683287435
4756000000.0 0.44959742664753893 -0.9243505944476738
4759000000.0 0.44987579549622914 -0.9277781980318588
4762000000.0 0.43985857034905834 -0.9494970954211336
4766000000.0 0.4496941243448124 -0.901814991392594
4769000000.0 0.43846960934508256 -0.9119329612694703
4772000000.0 0.4863631369569902 -0.9171997749911764
4775000000.0 0.42661779257461113 -0.9693529665158866
4778000000.0 0.44486222003479087 -0.9172316815263167
4781000000.0 0.43933736867028184 -0.9118002191805271
4784000000.0 0.48001765131414303 -0.8896685851617657
4788000000.0 0.42035767298980686 -0.9175090030040953
4791000000.0 0.4225362133708809 -0.9052983374584785
4794000000.0 0.4630615010018453 -0.9235124153030895
4797000000.0 0.4450528060100259 -0.9172540041650376
4800000000.0 0.42135531959011124 -0.911662741830049
4803000000.0 0.4033188973799052 -0.9232427992073335
4806000000.0 0.4475405101187122 -0.9354338206573836
4809000000.0 0.40324267732622643 -0.9495103448390358
4812000000.0 0.42894861530362416 -0.9416701337530351
4816000000.0 0.4564125552177433 -0.8938071260654119
4819000000.0 0.4640350408136811 -0.9310931596187854
4822000000.0 0.4794219037119224 -0.9402564184231141
4825000000.0 0.4825161670929524 -0.9300148430609668
4828000000.0 0.46362302950559686 -0.9042638379057343
4831000000.0 0.40713648670190694 -0.970140528626626
4834000000.0 0.4734579239021339 -0.9162553214122107
4838000000.0 0.43840167377826805 -0.9458549184087411
4841000000.0 0.4473949464888817 -0.9422050706184116
4844000000.0 0.48435163554222016 -0.9203336327621756
4847000000.0 0.4447160419844661 -0.8770991196057241
4850000000.0 0.44170905553054596 -0.9423187889372295
4853000000.0 0.4444757242460764 -0.9074365537470045
4856000000.0 0.43903821942347493 -0.9076500353441087
4859000000.0 0.46249096537346535 -0.9728453420995488
4862000000.0 0.4690363295872129 -0.8949229295048842
4866000000.0 0.4433994930038853 -0.9321382827871953
4869000000.0 0.4332259370221431 -0.944887613299357
4872000000.0 0.4407906038724399 -0.9639389196351748
4875000000.0 0.5167354591170975 -0.9190676888887125
4878000000.0 0.45149081818344095 -0.9244568296788617
4881000000.0 0.4376838172314054 -0.980010633742443
4884000000.0 0.4672493767756704 -0.9406975975834523
4888000000.0 0.48728934748626307 -0.9140315518356502
4891000000.0 0.46552123070569545 -0.9164662169078056
4894000000.0 0.4085434688249351 -0.9472633978440066
4897000000.0 0.4744806589662136 -0.9096005287808095
4900000000.0 0.45370193330105 -0.9554329323984384
4903000000.0 0.46757887724964076 -0.9481700535224091
4906000000.0 0.4557933179274031 -0.9545931691193379
4909000000.0 0.4274812301653388 -0.9550923419263739
4912000000.0 0.4318623129053678 -0.9657201461219181
4916000000.0 0.47747499680328054 -0.9045920641261069
4919000000.0 0.4815189000011317 -0.9102431451420973
4922000000.0 0.4990650475255237 -0.9103637085840598
4925000000.0 0.43906459274499715 -0.9247825684608524
4928000000.0 0.5126555018415921 -0.9187653408907236
4931000000.0 0.4715145402544521 -0.9301357595161589
4934000000.0 0.45263093880170685 -0.8842864487668464
4938000000.0 0.445074675419034 -0.9672684576698575
4941000000.0 0.4477418799196301 -0.9212997092370239
4944000000.0 0.4646743337718954 -0.8732378076256547
4947000000.0 0.45357449894109014 -0.9135530856708877
4950000000.0 0.4409286305552864 -0.8999582418039394
4953000000.0 0.45548377307848276 -0.9943279495979972
4956000000.0 0.44302841437032137 -0.9285497325928744
4959000000.0 0.3896044979890796 -0.9395340643111851
4962000000.0 0.4503049059063974 -0.990026939094429
4966000000.0 0.4909617820960481 -0.9372324286986726
4969000000.0 0.4870394263949046 -0.9781170455413736
4972000000.0 0.42959615151260927 -0.9691374046568549
4975000000.0 0.48218259551735454 -0.8965684072252617
4978000000.0 0.44530891897737235 -0.935264307530818
4981000000.0 0.45602281867864786 -0.9388679690170234
4984000000.0 0.45417310769158903 -0.9110074138109765
4988000000.0 0.4687073849701731 -0.9043139081848465
4991000000.0 0.5276025568440829 -0.9418997983340459
4994000000.0 0.4865668057648765 -0.8952962507377751
4997000000.0 0.41054537749933945 -0.9548328496583414
5000000000.0 0.49618207141008636 -0.9451528681972923
5003000000.0 0.4903321229224663 -0.951131266637119
5006000000.0 0.4683758219875273 -0.9967380595126824
5009000000.0 0.4959358921015641 -0.9240328147685348
5012000000.0 0.45280577999850546 -0.9347333254161391
5016000000.0 0.5210136541849721 -0.9241087837315863
5019000000.0 0.45977735675480025 -0.9163226903124294
5022000000.0 0.4694847489580486 -0.927957360259212
5025000000.0 0.46786947886981184 -1.0238777922095865
5028000000.0 0.43278655697292406 -0.9492700242982728
5031000000.0 0.4931584725977459 -0.9232492977627218
5034000000.0 0.44517879470448896 -0.986008090257436
5038000000.0 0.4345948820924063 -0.9047401228695031
5041000000.0 0.479711115237771 -0.9431020575925834
5044000000.0 0.47474619387162953 -0.853916359037758
5047000000.0 0.49294088175243167 -0.9224600464996691
5050000000.0 0.5341437920304404 -0.9141890819107019
5053000000.0 0.44319604824401415 -0.9881201884877595
5056000000.0 0.5111510549388578 -0.9223932883673042
5059000000.0 0.5411788671447455 -0.8788952647114268
5062000000.0 0.44986302627103253 -0.9593416169037727
5066000000.0 0.5024442868113588 -0.9143831273647892
5069000000.0 0.4952804349588109 -0.9417113188566332
5072000000.0 0.49206720914817964 -0.9102422482936765
5075000000.0 0.4801125942965765 -0.9168262368631767
5078000000.0 0.44871311266437064 -0.9540222519984607
5081000000.0 0.41787652583561957 -0.9231890481126093
5084000000.0 0.46089517590356605 -0.9158817463660003
5088000000.0 0.46247865229269874 -0.8965361515987456
5091000000.0 0.431231243827936 -0.9584623028424004
5094000000.0 0.46388486702284776 -0.9434225499619153
5097000000.0 0.5091986114179903 -0.8737991051451773
5100000000.0 0.49427199047890136 -0.9282814134933256
5103000000.0 0.45907233082480053 -0.9483201643548604
5106000000.0 0.4912639876254476 -0.9445271088629392
5109000000.0 0.5261448773827528 -0.8893935658942538
5112000000.0 0.44156834857101723 -0.919944408009954
5116000000.0 0.4247893045759738 -0.8785319145011461
5119000000.0 0.44107502579329255 -1.0022405490496844
5122000000.0 0.516237114764866 -0.93506022701207
5125000000.0 0.5106435452695361 -0.9051320185852587
5128000000.0 0.5158610642100706 -0.8941329799943946
5131000000.0 0.4607558234457265 -0.903349995565274
5134000000.0 0.4954413273963022 -0.9199173860944674
5138000000.0 0.5229794454738136 -0.9002858100230958
5141000000.0 0.5302871695153407 -0.8884649132101865
5144000000.0 0.5084767335170313 -0.8985533413348268
5147000000.0 0.48381437361648144 -0.9471677621013098
5150000000.0 0.5214592260080784 -0.9251275314283663
5153000000.0 0.4989043664992917 -0.9450912479193199
5156000000.0 0.5220134424014469 -0.9355273579566838
5159000000.0 0.5299639603449227 -0.938742877092451
5162000000.0 0.4409988667063399 -0.8909181599753484
5166000000.0 0.5018354838904986 -0.9266963496099476
5169000000.0 0.524053379481716 -0.8972867631680382
5172000000.0 0.4860345114214807 -0.8852396864712376
5175000000.0 0.5284590495704461 -0.9462308340073469
