! Created with skrf 1.8.0 (http://scikit-rf.org).
# Hz S RI R 50.0 
!freq ReS11 ImS11
4000000000.0 0.5694488591531733 -0.8685035514369084
4003000000.0 0.6122566395629203 -0.9153644987837577
4006000000.0 0.5147197670195663 -0.9061189839584466
4009000000.0000005 0.6028101633783376 -0.9072445542758454
4011999999.9999995 0.6146818186740973 -0.8824341256537406
4016000000.0 0.5493240532315077 -0.9118745790353804
4019000000.0 0.5284962299710607 -0.8641529765290568
4022000000.0000005 0.5680720814837272 -0.8066092733826857
4025000000.0000005 0.5225938618672161 -0.8811778778476713
4027999999.9999995 0.5316219732990404 -0.891058417095739
4030999999.9999995 0.5319581691700555 -0.8624465167031886
4034000000.0 0.5265494836957427 -0.9104227549783704
4038000000.0000005 0.5592394377197835 -0.894562769458265
4041000000.0000005 0.5421484981454334 -0.8899152980787638
4043999999.9999995 0.5808762094878412 -0.9171883899873546
4046999999.9999995 0.582090835471098 -0.9020700191890704
4050000000.0 0.5331911958925277 -0.877375852892655
4053000000.0 0.498732121902966 -0.8772150488263784
4056000000.0 0.563248161591982 -0.8674204277677493
4059000000.0 0.5185710282323952 -0.8733088634254608
4062000000.0000005 0.543012493873174 -0.8883837487888641
4066000000.0 0.5307335091959154 -0.8251390335352218
4069000000.0 0.5323182894885372 -0.915360080972366
4072000000.0 0.5975594388514158 -0.822549486833014
4075000000.0 0.581912644163455 -0.8894299079041217
4078000000.0000005 0.5274243610978143 -0.8742097506458502
4081000000.0000005 0.6572071061249677 -0.8563877164891681
4083999999.9999995 0.5201998242595153 -0.875477424805547
4088000000.0 0.5664322147066884 -0.8432262087231444
4091000000.0 0.5939914366356229 -0.9438637103927291
4094000000.0000005 0.5925189584401392 -0.8723387233759664
4097000000.0000005 0.5616380970534762 -0.8865832462120367
4099999999.9999995 0.5356177064661424 -0.8998934617031059
4102999999.9999995 0.5771950775603353 -0.8621121018444288
4106000000.0 0.5220796642377026 -0.8949200486403517
4109000000.0 0.5348812665639783 -0.8829486140170123
4112000000.0 0.5777172904534584 -0.8781036560918951
4115999999.9999995 0.5878070257107685 -0.8637271434031762
4119000000.0 0.5631445752935943 -0.9074859550902913
4122000000.0 0.5311763437680032 -0.8839627498498134
4125000000.0 0.5723043532969718 -0.900446040353355
4128000000.0 0.6015657882173102 -0.8039694944285461
4131000000.0 0.5352838891668755 -0.8715856253744082
4134000000.0000005 0.539587375421795 -0.8606728438617494
4138000000.0 0.5391837638849617 -0.8750674923657666
4141000000.0 0.5450458861753137 -0.8763971229380986
4144000000.0 0.5822520433196315 -0.8942507935164198
4147000000.0000005 0.5260544213439977 -0.850794913878773
4150000000.0000005 0.5674379698754936 -0.9015670797768088
4152999999.9999995 0.524112179766742 -0.8738424925011836
4155999999.9999995 0.5618723669905028 -0.8801084363335846
4159000000.0 0.5656876766708743 -0.8866351579094214
4162000000.0 0.5763780992801925 -0.8268703333076238
4166000000.0000005 0.5456875327781253 -0.8777319737966397
4168999999.9999995 0.5250997627221651 -0.8681701250364632
4171999999.9999995 0.5605243396669555 -0.8683850545027479
4175000000.0 0.5923309968719006 -0.8799107268604309
4178000000.0 0.5700348830619574 -0.8794176756190747
4181000000.0 0.5677655161874199 -0.8715900329206882
4184000000.0 0.5642433454920588 -0.8611683749425694
4187999999.9999995 0.5537427841778673 -0.8406921125951932
4191000000.0 0.5899541036274911 -0.8323904313488582
4194000000.0 0.5465991496272047 -0.8720445801953023
4197000000.0 0.5718630451828695 -0.8691420215826061
4200000000.0 0.5719823627284624 -0.8738825917913488
4203000000.0000005 0.554597657240611 -0.8725870097704964
4206000000.0000005 0.5682874759406494 -0.8763827242973162
4208999999.9999995 0.5698386116774308 -0.8428525563178775
4211999999.9999995 0.5289041133185075 -0.8760590849989857
4216000000.0 0.579981319259576 -0.8488441256429695
4219000000.0000005 0.5733572806444441 -0.8671991093133437
4222000000.0000005 0.5324766407300578 -0.8689625207106112
4224999999.9999995 0.5665999571358837 -0.8513826596917939
4227999999.9999995 0.583273816769224 -0.8663101207867672
4231000000.0 0.557776298597882 -0.850106155356998
4234000000.0 0.5568237951958901 -0.8649118770975941
4238000000.0000005 0.5500792970030167 -0.879652240376315
4240999999.9999995 0.5517487321190631 -0.856234991048903
4244000000.0 0.5750496805937421 -0.8356287350116371
4247000000.0 0.5570629652395669 -0.8539920219772458
4250000000.0 0.548813075649689 -0.8530959824757645
4253000000.0 0.5395173325996405 -0.8376930745638446
4256000000.0 0.573187113612601 -0.8843743261707788
4259000000.0000005 0.5373310139719417 -0.8466650765093189
4261999999.9999995 0.5409533547667511 -0.851712724719035
4266000000.0 0.5314625036632675 -0.8672416916422134
4269000000.0 0.5774999658345773 -0.8397309478541403
4272000000.0000005 0.5430978139243052 -0.8455678184262971
4275000000.0000005 0.5708602935811058 -0.8503699273681833
4277999999.9999995 0.5617909061757086 -0.8680398099010393
4280999999.9999995 0.574518265295073 -0.8486401227513762
4284000000.0 0.538670139992407 -0.887466123218338
4288000000.0000005 0.6048058734667907 -0.841462407825259
4291000000.0000005 0.5357275685100741 -0.827213527961837
4293999999.9999995 0.5413620928764165 -0.8511524632532053
4297000000.0 0.564850011258299 -0.8223192344475458
4300000000.0 0.5503932697971018 -0.8365292364542807
4303000000.0 0.5522847560794516 -0.8626885892929387
4306000000.0 0.5832897815602504 -0.8590179102756174
4309000000.0 0.5695173607603276 -0.8429559466222705
4312000000.0 0.5989998620976754 -0.8624774866303306
4316000000.0 0.5720285177053266 -0.8758625653322468
4319000000.0 0.5443305276093912 -0.8425964273514599
4322000000.0 0.527811366890349 -0.8415702332552379
4325000000.0 0.5772924198869089 -0.8229862834468893
4328000000.0 0.5520720840872839 -0.8666176237354972
4331000000.0 0.536006359416749 -0.8712317876092252
4334000000.0 0.5657937200131942 -0.8836816022686287
4338000000.0 0.5647885455438135 -0.8246742436741814
4341000000.0 0.5945645560775362 -0.8454382542665508
4344000000.0 0.574774265901815 -0.8625125497892278
4347000000.0 0.5581486798064078 -0.8778953284831634
4350000000.0 0.49936863612229065 -0.8469668755923424
4353000000.0 0.5709444597605869 -0.8085639131036361
4356000000.0 0.5223860538655373 -0.8798649558764857
4359000000.0 0.5227155327958151 -0.8197700455915061
4362000000.0 0.5203349776529282 -0.8831378874940565
4366000000.0 0.5501363491863909 -0.8740492526456596
4369000000.0 0.5337295602338595 -0.837201682620236
4372000000.0 0.5112800681401439 -0.8651638381223457
4375000000.0 0.5603597899811382 -0.8463203347673297
4378000000.0 0.5399141297066312 -0.8229158293068205
4381000000.0 0.5520661096241234 -0.8401086468935484
4384000000.0 0.5682890639529785 -0.920145601881079
4388000000.0 0.5478820987215831 -0.8351225818390973
4391000000.0 0.5377279113672884 -0.8581554730919725
4394000000.0 0.5384496198188009 -0.8321585016020754
4397000000.0 0.5265801819774221 -0.8507819975861173
4400000000.0 0.5564626901528935 -0.8853794948943017
4403000000.0 0.5403557846279732 -0.8494024795284
4406000000.0 0.5241999609052832 -0.8765403209762862
4409000000.0 0.5587137629569342 -0.8835899283444677
4412000000.0 0.4942474789854762 -0.8824553355387436
4416000000.0 0.5108263540443547 -0.856151081093951
4419000000.0 0.5195515300006699 -0.8619892801847974
4422000000.0 0.5449759248847121 -0.8538320558942689
4425000000.0 0.5637109736938456 -0.8658564952999057
4428000000.0 0.5366085442788455 -0.8721585139001415
4431000000.0 0.5530624194608185 -0.8689783131457881
4434000000.0 0.5316348885856986 -0.8609417883789048
4438000000.0 0.566597476137731 -0.8734869412549824
4441000000.0 0.561042488471108 -0.860569239646485
4444000000.0 0.5408730521385825 -0.8335112914310137
4447000000.0 0.524771144598686 -0.8478748962051902
4450000000.0 0.5438159530008946 -0.8302372187727023
4453000000.0 0.5519822130945005 -0.8702483187825919
4456000000.0 0.5184819591005704 -0.8375857731603322
4459000000.0 0.5025548396905393 -0.8307127177515938
4462000000.0 0.5591452528224448 -0.9063311126318637
4466000000.0 0.5446267723565911 -0.8864214078713909
4469000000.0 0.5556102994757132 -0.8425725882941063
4472000000.0 0.5311272120892065 -0.8814755359725048
4475000000.0 0.5294820056032145 -0.8333388041890714
4478000000.0 0.5410684554374005 -0.9085584053426476
4481000000.0 0.49880083990535606 -0.8595981555441898
4484000000.0 0.48205091183177556 -0.8890094115841969
4488000000.0 0.5178847603407695 -0.8529595349372885
4491000000.0 0.5165278556547447 -0.8739753022216972
4494000000.0 0.5359978801006804 -0.8478319719117069
4497000000.0 0.5259170901313799 -0.8304434214739863
4500000000.0 0.5450529276710214 -0.8460655695374568
4503000000.0 0.5497681462550885 -0.876237631066098
4506000000.0 0.5030201182066364 -0.847958463676846
4509000000.0 0.5218300267346458 -0.8320089368324779
4512000000.0 0.4871007878366519 -0.8588223647246704
4516000000.0 0.5264320053649181 -0.8777285358833022
4519000000.0 0.5236947326654 -0.8348381841298564
4522000000.0 0.5080638017260888 -0.8728365898369975
4525000000.0 0.576348955672806 -0.8472992932394134
4528000000.0 0.5334557108001852 -0.884837388162794
4531000000.0 0.5356901336575081 -0.8684873177458543
4534000000.0 0.527903392205622 -0.8623254808472729
4538000000.0 0.5235862817758586 -0.8790549756137082
4541000000.0 0.5039521178371686 -0.8837939404852004
4544000000.0 0.5126219966195883 -0.8339314093789378
4547000000.0 0.5228713819531725 -0.8489782818091521
4550000000.0 0.5108328073216531 -0.8789887153685689
4553000000.0 0.5311127371219306 -0.875200500797178
4556000000.0 0.4988255070463863 -0.8405272797684176
4559000000.0 0.5086570410871729 -0.8754264506752572
4562000000.0 0.5298083908866064 -0.8697865704985217
4566000000.0 0.5234684960986306 -0.8894896950846315
4569000000.0 0.4959634665604391 -0.8499550697074272
4572000000.0 0.5211674461801592 -0.8558174138379058
4575000000.0 0.5034880052423563 -0.8910428251596377
4578000000.0 0.5482460932821865 -0.885259431740832
4581000000.0 0.5021292453394653 -0.8775066211010711
4584000000.0 0.5080972628741249 -0.8705868914304498
4588000000.0 0.5479291080273861 -0.8907451959663475
4591000000.0 0.5078070675535769 -0.8619907600577426
4594000000.0 0.5011031832106778 -0.8862122013490497
4597000000.0 0.5009410472933873 -0.8746568647107372
4600000000.0 0.48596738582948096 -0.8778828610332826
4603000000.0 0.5085935698643691 -0.8784641335380629
4606000000.0 0.5372338588300087 -0.8891510551606328
4609000000.0 0.49822870101634287 -0.880657703829827
4612000000.0 0.5119873798011402 -0.8866958976119417
4616000000.0 0.5035034597810757 -0.8660354730523429
4619000000.0 0.5166157514757949 -0.86759704973094
4622000000.0 0.5440667812454741 -0.8662150716138585
4625000000.0 0.48802969575370786 -0.8611058425134812
4628000000.0 0.5268066756539839 -0.8570834817609216
4631000000.0 0.4967342186869992 -0.8789926919499941
4634000000.0 0.507793911041998 -0.8888974141999975
4638000000.0 0.5136755300243039 -0.8732336516038629
4641000000.0 0.5176759684352863 -0.8767734042712831
4644000000.0 0.5093377820608855 -0.8842789545394588
4647000000.0 0.5270194658532708 -0.8701658803288485
4650000000.0 0.4911122664027832 -0.8745719510004617
4653000000.0 0.5304233368654631 -0.8822361054067706
4656000000.0 0.5077426519751752 -0.8817025776743173
4659000000.0 0.5075994247211242 -0.8721198501266006
4662000000.0 0.5291332503768565 -0.8792657429940954
4666000000.0 0.5009571608379597 -0.8790250158688987
4669000000.0 0.5320228125067384 -0.8920727883091928
4672000000.0 0.5098627922377752 -0.9038137283922131
4675000000.0 0.4787045842349511 -0.8907450712559032
4678000000.0 0.5037554714283264 -0.8813776085195336
4681000000.0 0.4954820284245993 -0.9125011822573055
4684000000.0 0.482123476190596 -0.8898603469653452
4688000000.0 0.4842999383131442 -0.8840486608174105
4691000000.0 0.5158809392042981 -0.8735693486120879
4694000000.0 0.5081004189534464 -0.8784880311683415
4697000000.0 0.4671703165015852 -0.8566105602280102
4700000000.0 0.518197818137246 -0.8812859933621404
4703000000.0 0.543810358237206 -0.826850356146178
4706000000.0 0.5031804211761763 -0.8837614078886873
4709000000.0 0.4885120402468164 -0.8823183083821291
4712000000.0 0.5012392469958132 -0.8634422673465117
4716000000.0 0.4846575818863682 -0.9105465254317385
4719000000.0 0.5104075944932273 -0.8893206477977347
4722000000.0 0.5189199351604891 -0.8600371017836278
4725000000.0 0.5116307420324835 -0.8740813057179281
4728000000.0 0.5297465585423149 -0.9091949222025034
4731000000.0 0.49520519782339334 -0.9036179360404969
4734000000.0 0.5316726614836385 -0.8698052738349794
4738000000.0 0.533895903592182 -0.8917781368544027
4741000000.0 0.5089574489426755 -0.9305137851485448
4744000000.0 0.5169242405138981 -0.9293219810078283
4747000000.0 0.4987771721429757 -0.868055612201148
4750000000.0 0.49243330140010455 -0.9023187651633124
4753000000.0 0.5209061976001976 -0.8953951801834147
4756000000.0 0.5126049443744051 -0.8952779142868332
4759000000.0 0.5177749991015994 -0.8959660728647026
4762000000.0 0.49085063328641737 -0.9089820810876745
4766000000.0 0.4689493192361165 -0.9081786844997232
4769000000.0 0.5308906325776692 -0.8936773086155481
4772000000.0 0.49471848344232877 -0.8737146059843738
4775000000.0 0.49531689724988337 -0.9187509307459136
4778000000.0 0.5216536274576096 -0.9245821536358355
4781000000.0 0.5200057913422814 -0.8960296917321824
4784000000.0 0.5136294864267252 -0.8896829853391337
4788000000.0 0.5108250404455246 -0.9021678426325487
4791000000.0 0.4730546355648203 -0.8725644151828135
4794000000.0 0.5329204611622519 -0.9150138638360051
4797000000.0 0.4758263024429688 -0.901174616036057
4800000000.0 0.47031868487079703 -0.87031168126711
4803000000.0 0.46334730875927943 -0.9347666542764023
4806000000.0 0.5033891594678581 -0.9020737826416915
4809000000.0 0.4625640035866745 -0.9280345175091733
4812000000.0 0.4686709727912147 -0.9103401888652838
4816000000.0 0.5185873855334828 -0.8683086633300204
4819000000.0 0.5117368235686959 -0.9223078505213165
4822000000.0 0.5453865857004305 -0.9333190511394124
4825000000.0 0.5270615233329096 -0.8886761378631621
4828000000.0 0.5075769851804566 -0.9010825134327864
4831000000.0 0.4688539830758357 -0.9458798580051173
4834000000.0 0.5392743341172017 -0.8851814641365491
4838000000.0 0.49754906691086653 -0.9095529911995156
4841000000.0 0.4872733947322947 -0.892024035210103
4844000000.0 0.5258314549412614 -0.8954016774399012
4847000000.0 0.5151533675374544 -0.8440720181770924
4850000000.0 0.4927815975841092 -0.9207588211794593
4853000000.0 0.4771434523984076 -0.8748307132283649
4856000000.0 0.48242196048276753 -0.8797344573373594
4859000000.0 0.4980951762553898 -0.933091123126743
4862000000.0 0.512825504208859 -0.8637351848674564
4866000000.0 0.48325402077679436 -0.8981399873933437
4869000000.0 0.49803888485358855 -0.9237100098909248
4872000000.0 0.4924342805634829 -0.941033963389347
4875000000.0 0.5302679729950011 -0.9043786706633193
4878000000.0 0.5189851928614176 -0.9001607579242457
4881000000.0 0.5179808957849527 -0.9588212891305499
4884000000.0 0.5229801967651531 -0.8768893356823834
4888000000.0 0.5437012249248621 -0.8917523048836014
4891000000.0 0.5458591686132385 -0.9215194885721051
4894000000.0 0.49120950750152703 -0.8961825667860309
4897000000.0 0.5415834945805097 -0.8859754973013182
4900000000.0 0.5320587629872414 -0.9043387117614101
4903000000.0 0.5195339527121724 -0.8840727629774946
4906000000.0 0.5068090885607873 -0.9004830237554701
4909000000.0 0.4753537689738426 -0.9131667643809952
4912000000.0 0.5053117671154642 -0.9388675091342894
4916000000.0 0.5468756491683373 -0.899155903843729
4919000000.0 0.5337332569000465 -0.9098553841374616
4922000000.0 0.5515013564921319 -0.90429965647648
4925000000.0 0.48090437051411256 -0.8867551505526392
4928000000.0 0.5623081422578384 -0.8544273861251118
4931000000.0 0.5448589034074097 -0.8801276781137939
4934000000.0 0.5133520927821625 -0.8596687283853931
4938000000.0 0.48797191384295957 -0.9304450805612782
4941000000.0 0.4925036012329374 -0.8810901387878557
4944000000.0 0.5398546044054735 -0.7990005212241712
4947000000.0 0.508471571500763 -0.873453270294012
4950000000.0 0.5112382566093944 -0.8958559876853275
4953000000.0 0.49660441275764483 -0.936056034738266
4956000000.0 0.4959551465750152 -0.9175629877216377
4959000000.0 0.44911753437822954 -0.8863246797076771
4962000000.0 0.5314465328782256 -0.9200424059334124
4966000000.0 0.5144484232553364 -0.9313614753200343
4969000000.0 0.5637329553502853 -0.9387481062572838
4972000000.0 0.5080973630165224 -0.914228694159239
4975000000.0 0.5130550420324523 -0.8742408923672617
4978000000.0 0.4988190036603054 -0.9256651590441412
4981000000.0 0.47620992182404037 -0.8858982965188573
4984000000.0 0.5209846640256002 -0.8816405633838407
4988000000.0 0.5174674541204257 -0.8691924512300997
4991000000.0 0.5722226075963862 -0.8901561176916399
4994000000.0 0.5513508893428125 -0.864411165758609
4997000000.0 0.4835370442107587 -0.8927399003549077
5000000000.0 0.5566211172576052 -0.9165774081365705
5003000000.0 0.5607704861560108 -0.9191472604147389
5006000000.0 0.5411620005028295 -0.9730911008501218
5009000000.0 0.5213206012672625 -0.8831572711912454
5012000000.0 0.521160854983582 -0.9166907544419729
5016000000.0 0.5631033539415715 -0.9451091570939755
5019000000.0 0.5302395441183406 -0.9287152649372422
5022000000.0 0.5196398758776025 -0.9009774097110351
5025000000.0 0.5598709542582597 -0.9768470491694325
5028000000.0 0.5213152581626377 -0.9258809207726033
5031000000.0 0.503606585358826 -0.8991745189060002
5034000000.0 0.5242462992723054 -0.9523888507307104
5038000000.0 0.48698105968125893 -0.8706745697841002
5041000000.0 0.5863979795953363 -0.8871334493076901
5044000000.0 0.5502701757454531 -0.8682542916866738
5047000000.0 0.5325089298205514 -0.9337358877600528
5050000000.0 0.6059177481947468 -0.8256022713984821
5053000000.0 0.527437621062276 -0.9506844830022136
5056000000.0 0.593109254771861 -0.8823922514261145
5059000000.0 0.5934031817307702 -0.8926572972457834
5062000000.0 0.5113256848151635 -0.9328462230041328
5066000000.0 0.5477531985244382 -0.88533351451396
5069000000.0 0.49236040789069535 -0.9226394733288492
5072000000.0 0.5167159051188162 -0.8899680452132146
5075000000.0 0.5404330421962849 -0.8571044312418905
5078000000.0 0.4849196128118276 -0.9092394412499518
5081000000.0 0.47442449247110835 -0.881110202840335
5084000000.0 0.5362905952853307 -0.9062241338585331
5088000000.0 0.5835176825278154 -0.8451057140506766
5091000000.0 0.5016292883541212 -0.9139491503309736
5094000000.0 0.5529776023730679 -0.9088567082815275
5097000000.0 0.6071209406597936 -0.8380648192357277
5100000000.0 0.5621631124942846 -0.8934988203722273
5103000000.0 0.51788219777768 -0.9470628361582858
5106000000.0 0.5744435429927663 -0.927318717262029
5109000000.0 0.5847692303849857 -0.8952481386442985
5112000000.0 0.5409815785276288 -0.8653250414892384
5116000000.0 0.5143596953495684 -0.8603286230564475
5119000000.0 0.5517642432858367 -0.9438672554332799
5122000000.0 0.5618114692452012 -0.8719281497428948
5125000000.0 0.5780393438491291 -0.8719676079017273
5128000000.0 0.5270769834577855 -0.8885080878153084
5131000000.0 0.5260479721803362 -0.9059054791004717
5134000000.0 0.4887981656060095 -0.8528717991720349
5138000000.0 0.5423675877445093 -0.8349946666083302
5141000000.0 0.632160499210451 -0.8354250484092242
5144000000.0 0.5683609478895089 -0.8366103828874824
5147000000.0 0.6151966727376315 -0.9316567972253578
5150000000.0 0.5699730840366899 -0.888581375249961
5153000000.0 0.5685502501574092 -0.88420666567062
5156000000.0 0.5813917418080018 -0.8895752720244676
5159000000.0 0.6430063826494019 -0.9254309231097939
5162000000.0 0.57756663829992 -0.9059700070555599
5166000000.0 0.5705500546017177 -0.9020395387100889
5169000000.0 0.5506126695566134 -0.8918824027977339
5172000000.0 0.5479660344246922 -0.9207670848803577
5175000000.0 0.5785875263283131 -0.9030057938401688
5178000000.0 0.5400852389290235 -0.8719589733378826
