! Created with skrf 1.8.0 (http://scikit-rf.org).
# Hz S RI R 50.0 
!freq ReS11 ImS11
4000000000.0 0.552827328946392 -0.8331489403769777
4003000000.0 0.5731759340262215 -0.9010687377679429
4006000000.0 0.4892359625228746 -0.9191345145137398
4009000000.0000005 0.5431001610007726 -0.889788906165534
4011999999.9999995 0.6140143101349911 -0.8410258542856073
4016000000.0 0.541430753496247 -0.8794308467767813
4019000000.0 0.5694864373670385 -0.8733812583522692
4022000000.0000005 0.6371289175805037 -0.7959882249367174
4025000000.0000005 0.5331245905895255 -0.9142201767848323
4027999999.9999995 0.5438082641302637 -0.8882392928081998
4030999999.9999995 0.5669476271018766 -0.8125837587797453
4034000000.0 0.5538644624211343 -0.8629793472144821
4038000000.0000005 0.5221307448279022 -0.9012172926563367
4041000000.0000005 0.5317619002953595 -0.8778675698496877
4043999999.9999995 0.5765529268343637 -0.9274395126220016
4046999999.9999995 0.6074756292671755 -0.9193181533199
4050000000.0 0.5225377848060876 -0.9213421427090287
4053000000.0 0.5218684856953245 -0.8471204594991013
4056000000.0 0.5856947557644254 -0.890154521958355
4059000000.0 0.5610623662067254 -0.8418092063170995
4062000000.0000005 0.5314787312542535 -0.8594249797897122
4066000000.0 0.5082074423304285 -0.799386186523223
4069000000.0 0.5267604513311277 -0.8888404428938945
4072000000.0 0.5893671733767092 -0.8487651853213243
4075000000.0 0.5949023557332168 -0.8804676895879087
4078000000.0000005 0.5643471037418225 -0.8976890502282993
4081000000.0000005 0.5969820183322624 -0.8749462482844723
4083999999.9999995 0.5271099676611373 -0.8602264895931141
4088000000.0 0.5731117192608601 -0.8697247991639003
4091000000.0 0.5874579381475946 -0.9010194741299868
4094000000.0000005 0.5690695251051137 -0.8529404086417467
4097000000.0000005 0.5485546701638875 -0.8600649239986382
4099999999.9999995 0.516817128974276 -0.8784256610890142
4102999999.9999995 0.5356577859645516 -0.8991236128082337
4106000000.0 0.5322572119706477 -0.8788601699251931
4109000000.0 0.5188863901078197 -0.849896460872534
4112000000.0 0.5378212168477042 -0.8680911935405317
4115999999.9999995 0.6062643050438059 -0.8587754136857068
4119000000.0 0.5456664813866269 -0.866424722116127
4122000000.0 0.5333531007162302 -0.8760571033579412
4125000000.0 0.5487097804711023 -0.8804533379061632
4128000000.0 0.5082005528135947 -0.8397374250118373
4131000000.0 0.49595902933510916 -0.8463932425034398
4134000000.0000005 0.5480966698524274 -0.8791624279271039
4138000000.0 0.5529313455142949 -0.8669655501464031
4141000000.0 0.5258343661304357 -0.87772896540765
4144000000.0 0.5799435771870518 -0.8884117343353184
4147000000.0000005 0.5470702967934263 -0.8346027246034824
4150000000.0000005 0.5423787523926036 -0.8589524173394094
4152999999.9999995 0.5208738903401077 -0.8711515703661099
4155999999.9999995 0.5933240599656663 -0.8826001476608355
4159000000.0 0.5697980966311663 -0.8551698555788712
4162000000.0 0.5819828738581331 -0.8318121544617794
4166000000.0000005 0.544255926739728 -0.8761141591075288
4168999999.9999995 0.5168713986000896 -0.8615375885529851
4171999999.9999995 0.5798079637672475 -0.8576488422245262
4175000000.0 0.5829342285542164 -0.8505336687748145
4178000000.0 0.5726018704617705 -0.8670342782455478
4181000000.0 0.56815980971909 -0.8419972930154985
4184000000.0 0.5645312501537032 -0.8461553111959991
4187999999.9999995 0.5605500865064513 -0.8498389998633158
4191000000.0 0.5895118881591621 -0.8218262000142258
4194000000.0 0.5519432448474847 -0.8478208216573155
4197000000.0 0.6011159452337849 -0.8521089272433777
4200000000.0 0.5708749729403122 -0.8612833785676596
4203000000.0000005 0.5775848029759905 -0.8519766482080805
4206000000.0000005 0.58250880713843 -0.873372094079699
4208999999.9999995 0.5548472276699559 -0.8476963598988316
4211999999.9999995 0.5255695469564111 -0.8529554839959291
4216000000.0 0.5847214833423238 -0.8699806167922464
4219000000.0000005 0.5575294295372943 -0.8596663955119467
4222000000.0000005 0.5547658413812906 -0.8634229506723358
4224999999.9999995 0.5545128436133555 -0.8415921237515744
4227999999.9999995 0.5652993050630042 -0.8490777061897608
4231000000.0 0.5499677598062611 -0.858391335764255
4234000000.0 0.5437141214159871 -0.850902964606379
4238000000.0000005 0.5439338717490891 -0.8567101635378984
4240999999.9999995 0.5376646546543287 -0.8517646863653268
4244000000.0 0.5732156342127473 -0.8572669819636799
4247000000.0 0.5490828075797467 -0.8427838519129565
4250000000.0 0.5315923718702944 -0.8519475612517597
4253000000.0 0.5179382224743533 -0.8374883426450361
4256000000.0 0.5625816083317264 -0.8676449355335314
4259000000.0000005 0.5348042571198006 -0.8277505625162719
4261999999.9999995 0.5336143487418863 -0.846064584314004
4266000000.0 0.5392715748603847 -0.8701184685770711
4269000000.0 0.5584806071023222 -0.8481441489088236
4272000000.0000005 0.5472775518791317 -0.8448318551080269
4275000000.0000005 0.5650794650371769 -0.8555258575236
4277999999.9999995 0.5713928530750428 -0.8658329732241011
4280999999.9999995 0.5527455134776247 -0.8667046233599939
4284000000.0 0.5124159898539199 -0.8608585237516523
4288000000.0000005 0.5773736176658308 -0.8286844429370767
4291000000.0000005 0.5349906238410199 -0.8125169367461701
4293999999.9999995 0.550639378931791 -0.8438353516682295
4297000000.0 0.5560071502742814 -0.8234922375460835
4300000000.0 0.5662272315012136 -0.8271752201998787
4303000000.0 0.5126727670989893 -0.8563886899676647
4306000000.0 0.5704629412687581 -0.8396615935669524
4309000000.0 0.5539541893824199 -0.8319658712077074
4312000000.0 0.5898728029186454 -0.8435708105198712
4316000000.0 0.5559946054298609 -0.8221100919624534
4319000000.0 0.5725600572502132 -0.8150775140395019
4322000000.0 0.5270268115102019 -0.8705450790260408
4325000000.0 0.5665786247938047 -0.8586712990050692
4328000000.0 0.5480731901856758 -0.8482369122412377
4331000000.0 0.5752797275637799 -0.8592029140759511
4334000000.0 0.5377099108437666 -0.8252880855361957
4338000000.0 0.5748375407253857 -0.8176378750586465
4341000000.0 0.5805171505424589 -0.83778908200969
4344000000.0 0.5771615965777771 -0.8719140606437514
4347000000.0 0.5531346256347007 -0.8522165400327264
4350000000.0 0.5380269416135661 -0.824622737752221
4353000000.0 0.5453797788185789 -0.833927927227404
4356000000.0 0.5196179106531806 -0.8523449736861627
4359000000.0 0.5313918403074265 -0.8063339389026919
4362000000.0 0.5179766968917295 -0.8807536784585434
4366000000.0 0.5404937996764394 -0.8696912162369493
4369000000.0 0.5275101501240121 -0.8421975167233539
4372000000.0 0.5003209251585122 -0.8648796665451786
4375000000.0 0.5511881962275913 -0.8245277461077816
4378000000.0 0.501948522983954 -0.8192924199055248
4381000000.0 0.5527553330672859 -0.8373062309803618
4384000000.0 0.5606773055367471 -0.9161593287578017
4388000000.0 0.5507774442809553 -0.8290626020861078
4391000000.0 0.5630437233949797 -0.8442900511344823
4394000000.0 0.5293027007478364 -0.8211060042814231
4397000000.0 0.5338744137197344 -0.8478198585848193
4400000000.0 0.5610929570014164 -0.8766848500688476
4403000000.0 0.5307797052194965 -0.854358321437228
4406000000.0 0.5222211164358576 -0.8731314985931224
4409000000.0 0.5602428627534702 -0.8756271072695309
4412000000.0 0.49188922444372896 -0.8885138470648466
4416000000.0 0.5185355589332151 -0.8507904468946674
4419000000.0 0.5204246975327399 -0.8647487544306689
4422000000.0 0.5399701499626051 -0.8374375263964674
4425000000.0 0.5746792306824068 -0.8569496142125688
4428000000.0 0.5335280191017512 -0.8652091957060426
4431000000.0 0.551868850937029 -0.8707734031290824
4434000000.0 0.5251363824622962 -0.8659704763968549
4438000000.0 0.5514230893526082 -0.8642026438601144
4441000000.0 0.5406158385864006 -0.8588561310895562
4444000000.0 0.5252548992518803 -0.84139490509469
4447000000.0 0.5192175412296255 -0.8559127569451068
4450000000.0 0.548544368948603 -0.8275720868642713
4453000000.0 0.5451580011647104 -0.8759240048803452
4456000000.0 0.5095717105307562 -0.8441202222676687
4459000000.0 0.5137197357903159 -0.8233563704687472
4462000000.0 0.5603513158246842 -0.9001852386474232
4466000000.0 0.5461236086126262 -0.9091015726507834
4469000000.0 0.5568524937194992 -0.8629278072286113
4472000000.0 0.5281019443134102 -0.8931933364474043
4475000000.0 0.5205487210130195 -0.8334000326610758
4478000000.0 0.5457397756085127 -0.9022703943159804
4481000000.0 0.5147046888400773 -0.8388440771614646
4484000000.0 0.4850986644085708 -0.8620094171330043
4488000000.0 0.5060222597325384 -0.8557856407250646
4491000000.0 0.526532604943764 -0.8669319685369246
4494000000.0 0.5342142525866442 -0.8395215553757209
4497000000.0 0.5461902493967522 -0.8440307826155296
4500000000.0 0.5398372449771178 -0.855877074139949
4503000000.0 0.512578984441209 -0.8832930254666596
4506000000.0 0.5150784437599951 -0.8507638776195026
4509000000.0 0.5148215278728726 -0.8419667211870654
4512000000.0 0.4962271387586223 -0.8528103715805885
4516000000.0 0.5404459951020891 -0.8849830147316626
4519000000.0 0.5349071881875003 -0.8419175504188141
4522000000.0 0.5166653001446719 -0.8721728851334603
4525000000.0 0.5464009656489481 -0.8167879506798743
4528000000.0 0.5505100768502167 -0.888323122499
4531000000.0 0.5467250867300646 -0.8555925717082389
4534000000.0 0.5138166104915871 -0.8528852000589797
4538000000.0 0.5170874626174764 -0.8467168800623138
4541000000.0 0.49598421223335 -0.8651858257744846
4544000000.0 0.5201038454688763 -0.8477890106224111
4547000000.0 0.5320007619655636 -0.8332051348307814
4550000000.0 0.49995740634038444 -0.8906809788829312
4553000000.0 0.5177958763656823 -0.8668478574112648
4556000000.0 0.49313995905181246 -0.840388984226422
4559000000.0 0.49922111117570933 -0.8691182754189591
4562000000.0 0.5239983073869424 -0.8556578223018679
4566000000.0 0.5313980141761191 -0.8655709121764031
4569000000.0 0.49851650382353263 -0.8309065644470668
4572000000.0 0.5235457982602947 -0.8474949266871394
4575000000.0 0.5236703614538842 -0.8731499249203045
4578000000.0 0.5333922221573965 -0.8550874816957104
4581000000.0 0.514246743166364 -0.8660039627335623
4584000000.0 0.5147893182340749 -0.8520731329888231
4588000000.0 0.5469079848315413 -0.8791907276212368
4591000000.0 0.5228304976311616 -0.8558732213992997
4594000000.0 0.495296925495079 -0.8705569413887034
4597000000.0 0.5259098136752476 -0.8734621959503184
4600000000.0 0.4859401398060854 -0.8647757604308829
4603000000.0 0.512463734654112 -0.8674226557627884
4606000000.0 0.5240830827545635 -0.8702722323230178
4609000000.0 0.5109814688562626 -0.8696694258414998
4612000000.0 0.5296781225888929 -0.8707567856765808
4616000000.0 0.5122464735846658 -0.8611979758216443
4619000000.0 0.5134844835234668 -0.8712348604458812
4622000000.0 0.4925326477947105 -0.8650391886619209
4625000000.0 0.4894820904062601 -0.8523186474867404
4628000000.0 0.5104693206336723 -0.8611830610316199
4631000000.0 0.4762689507605976 -0.8644451052044307
4634000000.0 0.5079354459671294 -0.8682297788528613
4638000000.0 0.5280853165836612 -0.8764667968838142
4641000000.0 0.5278665899617059 -0.8542633390642813
4644000000.0 0.49158996383677095 -0.8776140155998704
4647000000.0 0.5197102480682602 -0.8702361449389351
4650000000.0 0.5086657505368348 -0.8689703523029296
4653000000.0 0.537295708181085 -0.8808322206193359
4656000000.0 0.4925719222516546 -0.8880385081118973
4659000000.0 0.4926574728456615 -0.8728099339672861
4662000000.0 0.4887189656965345 -0.875060135125533
4666000000.0 0.4825997668879227 -0.8717736839614804
4669000000.0 0.5015721514282923 -0.8626768864406078
4672000000.0 0.5031260106125293 -0.9136064695793139
4675000000.0 0.5055020717508243 -0.8745129257609425
4678000000.0 0.4998094032468471 -0.8481078352972455
4681000000.0 0.4776149420206789 -0.8752418569413186
4684000000.0 0.4612556400105027 -0.8831620156401899
4688000000.0 0.4692284242590984 -0.8865688401764531
4691000000.0 0.48923118609354543 -0.8820822278301966
4694000000.0 0.5063217746677102 -0.842830852885537
4697000000.0 0.4658087296822467 -0.8727963483052104
4700000000.0 0.5271167260039473 -0.8721615048314755
4703000000.0 0.4927479037430362 -0.8500999017532963
4706000000.0 0.46719675636458297 -0.8761951353707806
4709000000.0 0.4735687721601265 -0.8830863853003509
4712000000.0 0.5018920294016241 -0.8819648802592626
4716000000.0 0.5142502139777437 -0.8899510978158718
4719000000.0 0.5256913821093709 -0.8574854696964631
4722000000.0 0.5296796446234976 -0.8668289370765985
4725000000.0 0.4955856098061184 -0.8591200294747597
4728000000.0 0.4784889372400519 -0.8659559571642432
4731000000.0 0.5092717878336421 -0.9044645030063743
4734000000.0 0.529873778145839 -0.8628919515402497
4738000000.0 0.5164499563830369 -0.9058939621095059
4741000000.0 0.5036269406976156 -0.9050732345354925
4744000000.0 0.489136490654005 -0.9077290712689801
4747000000.0 0.5107967202367858 -0.8556880200510071
4750000000.0 0.5143609594690768 -0.8926993673800893
4753000000.0 0.5119416014084599 -0.9063968312074617
4756000000.0 0.4974722114402873 -0.8801863486670916
4759000000.0 0.51079010868357 -0.8722685185228879
4762000000.0 0.47155870038482106 -0.9258969812122002
4766000000.0 0.4813886527479692 -0.8767303276500215
4769000000.0 0.49906074987671156 -0.8712161641873833
4772000000.0 0.5020367069093428 -0.896403471257581
4775000000.0 0.5073931214257064 -0.9448662843974042
4778000000.0 0.508740897418889 -0.9043556060056657
4781000000.0 0.5201474256953311 -0.8737503439529695
4784000000.0 0.5076491144038013 -0.8588778460942192
4788000000.0 0.5017184839523511 -0.8878472713958553
4791000000.0 0.4741743993053477 -0.8677685430610049
4794000000.0 0.5381600712433654 -0.904555504035188
4797000000.0 0.4857383275182764 -0.8861658610400971
4800000000.0 0.47703568919917905 -0.8876889535137986
4803000000.0 0.4659213374581693 -0.892260315681155
4806000000.0 0.5253242069074228 -0.888106421103257
4809000000.0 0.4807124038475333 -0.916226680332753
4812000000.0 0.4709988310202705 -0.9049385318545364
4816000000.0 0.5056560618995385 -0.8533022518733792
4819000000.0 0.5012672029062781 -0.9039746461271748
4822000000.0 0.532871761703152 -0.8918335356018096
4825000000.0 0.5304516859773445 -0.8861164003143777
4828000000.0 0.5005985141619562 -0.8781079799665344
4831000000.0 0.4787512095372951 -0.9238083145780698
4834000000.0 0.5051158666996163 -0.8885749138172956
4838000000.0 0.5080835197168553 -0.907681748340735
4841000000.0 0.47996847293845596 -0.8913020588036777
4844000000.0 0.5369203510747833 -0.8760415951552506
4847000000.0 0.5063102940303995 -0.8617386213343055
4850000000.0 0.49263601557230297 -0.9292436486933949
4853000000.0 0.4980199599160529 -0.872322944391541
4856000000.0 0.4926292218091224 -0.8727358807523686
4859000000.0 0.5231056536445502 -0.9414110485944744
4862000000.0 0.49841413352641517 -0.8708904594994739
4866000000.0 0.48345491227053183 -0.9004497762452492
4869000000.0 0.5015179106865025 -0.9066567384636041
4872000000.0 0.482925312715503 -0.918442905118464
4875000000.0 0.558121578545407 -0.903317791267034
4878000000.0 0.5088343996425518 -0.9028816129669692
4881000000.0 0.5133784632470872 -0.9566133245017088
4884000000.0 0.516240188566865 -0.8840498959399016
4888000000.0 0.5445021374773764 -0.8764529892731963
4891000000.0 0.5365794891014822 -0.919641835770886
4894000000.0 0.4539694386077254 -0.9078870871110891
4897000000.0 0.520716178851475 -0.8904619145669944
4900000000.0 0.5293910174003021 -0.8998056250892897
4903000000.0 0.510803425197055 -0.9231962194369892
4906000000.0 0.49516284177599984 -0.8994855665815277
4909000000.0 0.5222663052390457 -0.8899466893508095
4912000000.0 0.5068510733568782 -0.9343486151324687
4916000000.0 0.5392426047680279 -0.8955284465620469
4919000000.0 0.538727398222587 -0.9195907194869055
4922000000.0 0.5557685390354569 -0.8849516802508478
4925000000.0 0.4757100998413289 -0.9023374180901322
4928000000.0 0.5696111435598608 -0.853973207947142
4931000000.0 0.5458557560832549 -0.892972012836147
4934000000.0 0.5172157311455944 -0.8760634254336669
4938000000.0 0.4880952334209414 -0.8995611171703304
4941000000.0 0.5153108545570702 -0.8695709635542023
4944000000.0 0.49926209136579786 -0.8406566825263292
4947000000.0 0.49863585298519614 -0.8521780497766451
4950000000.0 0.5171996798035126 -0.8520580381162665
4953000000.0 0.4775286967486486 -0.9802420544928623
4956000000.0 0.4843893012460467 -0.8894147607285392
4959000000.0 0.4855907438567936 -0.8635665453126999
4962000000.0 0.5051592702120732 -0.9247633492911593
4966000000.0 0.5579298198696995 -0.8693253397038374
4969000000.0 0.556104819075381 -0.9023091254130948
4972000000.0 0.4898364600038375 -0.9044244216581881
4975000000.0 0.5079489380011064 -0.840602650432497
4978000000.0 0.5189239835298669 -0.9276988659151586
4981000000.0 0.5199093112645814 -0.9073389617734566
4984000000.0 0.5077316487500084 -0.8766728323887407
4988000000.0 0.5453712995481267 -0.8860030599603976
4991000000.0 0.5780376099460218 -0.8812818286858363
4994000000.0 0.5505611993444338 -0.8855128656222332
4997000000.0 0.5071849392135264 -0.86583695516415
5000000000.0 0.5643602159020362 -0.8796998208792607
5003000000.0 0.5615985603663123 -0.909844055397865
5006000000.0 0.5312074646542959 -0.915727262896565
5009000000.0 0.512016790747208 -0.8747703269377642
5012000000.0 0.48510776355218915 -0.8920475236125112
5016000000.0 0.5731278265649075 -0.9151107839878063
5019000000.0 0.5216401001520459 -0.9087364637756699
5022000000.0 0.5484575507163998 -0.902391780003565
5025000000.0 0.5482187384860321 -0.9481429179286303
5028000000.0 0.5126681026338068 -0.9018497950739743
5031000000.0 0.5142375744742 -0.8834721337752522
5034000000.0 0.5291639380216213 -0.9535457379106461
5038000000.0 0.4926091420899681 -0.8588879386208449
5041000000.0 0.5548934899552891 -0.8725563552463261
5044000000.0 0.553524805313179 -0.8778756430271977
5047000000.0 0.5511418063361434 -0.8769935745586109
5050000000.0 0.5765415998503562 -0.8399360159669701
5053000000.0 0.5089084202745724 -0.9407036414791639
5056000000.0 0.5452793195827687 -0.8721623584321527
5059000000.0 0.5759991185738613 -0.8398385098334193
5062000000.0 0.5229212970896636 -0.9145563911069952
5066000000.0 0.5508823498587675 -0.8452199594795982
5069000000.0 0.5158836390920865 -0.867548533997675
5072000000.0 0.5425163864430265 -0.8501221787379016
5075000000.0 0.5868149857123798 -0.8945365080324758
5078000000.0 0.4958364584840863 -0.9112013631248297
5081000000.0 0.5347376826254103 -0.8543170631923207
5084000000.0 0.5615184651713842 -0.8737233703538285
5088000000.0 0.5572463507003779 -0.8383115730377315
5091000000.0 0.47838149953431025 -0.9004512374130867
5094000000.0 0.5338663668663997 -0.9253416055649056
5097000000.0 0.5721204366943812 -0.8478130471868022
5100000000.0 0.508948203163549 -0.8718024588140363
5103000000.0 0.5240793662125356 -0.8923306365611651
5106000000.0 0.5559379949338399 -0.9090518694847327
5109000000.0 0.575734506841882 -0.8424589585120292
5112000000.0 0.5168016647167601 -0.8813146633831501
5116000000.0 0.5072216939963923 -0.8073428622512315
5119000000.0 0.5595418838476609 -0.912819039439971
5122000000.0 0.5791846552844351 -0.8784125086909398
5125000000.0 0.526545776849687 -0.8591385650983081
5128000000.0 0.5382201202114023 -0.93199566130726
5131000000.0 0.536839898957254 -0.853094537967791
5134000000.0 0.5333110055685563 -0.8573893697288444
5138000000.0 0.5510111435887513 -0.8236716950662832
5141000000.0 0.5845927353922596 -0.868424624749516
5144000000.0 0.585341808747067 -0.8488352719345763
5147000000.0 0.5869134896344599 -0.8879736859783129
5150000000.0 0.565161325649582 -0.9066496005611048
5153000000.0 0.5871271374472526 -0.8957810703461773
5156000000.0 0.5682164251918328 -0.9097863865709517
5159000000.0 0.5871367840337807 -0.9241041627511087
5162000000.0 0.5154809093011743 -0.8996878292721813
5166000000.0 0.5334693907027235 -0.9187892577154406
5169000000.0 0.5852175792723118 -0.9002800896013087
5172000000.0 0.5693376123873128 -0.8715181396157871
5175000000.0 0.5937972429142222 -0.9199758775690918
5178000000.0 0.575830202483044 -0.898451150579032
5181000000.0 0.5932700346265015 -0.9000462114404606
