! Created with skrf 1.8.0 (http://scikit-rf.org).
# Hz S RI R 50.0 
!freq ReS11 ImS11
4000000000.0 0.5460688559872288 -0.8208977572382256
4003000000.0 0.6164496207590622 -0.8788723522675213
4006000000.0 0.525019947811288 -0.8708969338982271
4009000000.0000005 0.536211906155082 -0.8983619896380232
4011999999.9999995 0.619916648863344 -0.8418326720393017
4016000000.0 0.520992096209729 -0.8817591972762
4019000000.0 0.5103235115077683 -0.8671041178935844
4022000000.0000005 0.59292611277062 -0.8613582832866885
4025000000.0000005 0.5085022534559851 -0.932787662944953
4027999999.9999995 0.5381539839240027 -0.8783267421499007
4030999999.9999995 0.5528346625789022 -0.8094457935927257
4034000000.0 0.5562260294278374 -0.8995968318151921
4038000000.0000005 0.5832208119296852 -0.9018105804043208
4041000000.0000005 0.5321387019242552 -0.844474161100005
4043999999.9999995 0.6057391304873891 -0.9325301628319949
4046999999.9999995 0.5731708763160833 -0.8930203520928388
4050000000.0 0.5279141491081113 -0.8558080277705329
4053000000.0 0.5234873199620157 -0.8573336925559495
4056000000.0 0.576673054812106 -0.8943875185613469
4059000000.0 0.5423512485605919 -0.8737711518663942
4062000000.0000005 0.5087481677105435 -0.8948211840478899
4066000000.0 0.5227668740974944 -0.8251559067720577
4069000000.0 0.5169148185365531 -0.8873825948354174
4072000000.0 0.5882708060483822 -0.8522417319425593
4075000000.0 0.5935910443829554 -0.8910147040831095
4078000000.0000005 0.561205515614802 -0.8790023470059448
4081000000.0000005 0.5970899312670903 -0.8434964218027063
4083999999.9999995 0.5370026144330318 -0.854781054523109
4088000000.0 0.5847840671357858 -0.84471533615514
4091000000.0 0.6053462946240021 -0.908062576946088
4094000000.0000005 0.5596489549333974 -0.8708438777180876
4097000000.0000005 0.5644359086935685 -0.8743461448942997
4099999999.9999995 0.5133305156056981 -0.8725398734283961
4102999999.9999995 0.5697307645229284 -0.8914911749744356
4106000000.0 0.5543927203528676 -0.8971815854458872
4109000000.0 0.5608625366212584 -0.8789477874061064
4112000000.0 0.5940877740467732 -0.8609967140863727
4115999999.9999995 0.5430230482221216 -0.8788651802883056
4119000000.0 0.5566839288560662 -0.8950107317426158
4122000000.0 0.5591492837959605 -0.9293012288505935
4125000000.0 0.4975023552087128 -0.9242077953285739
4128000000.0 0.5421434211218458 -0.8470236228470813
4131000000.0 0.5444063434694216 -0.8578780997807586
4134000000.0000005 0.5657016387103747 -0.8633411663329509
4138000000.0 0.5505193517815167 -0.8360033969242605
4141000000.0 0.5355955636336605 -0.8666364119203094
4144000000.0 0.598425316035659 -0.8524371164488508
4147000000.0000005 0.5203381783032537 -0.8762844829064605
4150000000.0000005 0.5644329210378803 -0.8947866593927876
4152999999.9999995 0.517765645633982 -0.8463588813309919
4155999999.9999995 0.5746196054460703 -0.8499571380409084
4159000000.0 0.5658927942674603 -0.8501847975457738
4162000000.0 0.5705655891351422 -0.8421318275978289
4166000000.0000005 0.5486788071125354 -0.8818737282770379
4168999999.9999995 0.5367164347905283 -0.879273551726795
4171999999.9999995 0.5778607509975543 -0.8553996084102494
4175000000.0 0.5810688085428072 -0.8677619880138984
4178000000.0 0.5804004200833623 -0.8735905886900877
4181000000.0 0.570177546907245 -0.8378899020523828
4184000000.0 0.5727579752109836 -0.8741648979686141
4187999999.9999995 0.5589639613919156 -0.8674461365561594
4191000000.0 0.5486006945635581 -0.7941312957545182
4194000000.0 0.5436201536821688 -0.8662131009647984
4197000000.0 0.5547161996600074 -0.877656030336374
4200000000.0 0.5792098581722122 -0.8504017593616702
4203000000.0000005 0.5680015597499228 -0.8725276865477756
4206000000.0000005 0.5497681362731162 -0.8734393582320372
4208999999.9999995 0.5842227865815046 -0.8512940291364702
4211999999.9999995 0.5305330132427045 -0.8458642663637462
4216000000.0 0.5624084215244773 -0.8499560341571071
4219000000.0000005 0.5710503711558461 -0.8682627648557939
4222000000.0000005 0.5731923001460342 -0.8519174124950273
4224999999.9999995 0.5420114424875874 -0.8434236923547273
4227999999.9999995 0.5411486571805662 -0.8521178804384067
4231000000.0 0.542919256957694 -0.8619887644628248
4234000000.0 0.5607017070644408 -0.8719060380026364
4238000000.0000005 0.5319712874853637 -0.8634664366888707
4240999999.9999995 0.5522314176843628 -0.87236960469184
4244000000.0 0.55739863679043 -0.8474100309542419
4247000000.0 0.588743014049159 -0.8510863030486909
4250000000.0 0.5520509178508533 -0.8588831791133704
4253000000.0 0.526422110370374 -0.8413745713923413
4256000000.0 0.5394855059256345 -0.8754910513318465
4259000000.0000005 0.5201994620779407 -0.8216407885277754
4261999999.9999995 0.5459180930616426 -0.8727090155524002
4266000000.0 0.5278908711605561 -0.8793217613054791
4269000000.0 0.553264984935921 -0.8539869560080324
4272000000.0000005 0.5600685045759844 -0.8414143276590956
4275000000.0000005 0.5449111517462017 -0.856549686145794
4277999999.9999995 0.5591777985908497 -0.8861114034268833
4280999999.9999995 0.5664820208201439 -0.866077356680854
4284000000.0 0.5326541705984573 -0.8637724866664651
4288000000.0000005 0.5831463059613129 -0.8288542506872381
4291000000.0000005 0.5318613376261 -0.8359457690845418
4293999999.9999995 0.5372425899560902 -0.8643299673391417
4297000000.0 0.5799469857643705 -0.8324285733898086
4300000000.0 0.5328604023367648 -0.8236598890603838
4303000000.0 0.541807298107042 -0.8430911609359047
4306000000.0 0.5910151391366858 -0.8551026887394846
4309000000.0 0.5403813641094933 -0.8407666875888139
4312000000.0 0.5841764889645055 -0.8596254501555131
4316000000.0 0.5902271770382279 -0.8331400004072078
4319000000.0 0.5548121254084373 -0.8418601599094224
4322000000.0 0.5231017696385412 -0.8350012686656408
4325000000.0 0.5501708480392604 -0.8360881069933982
4328000000.0 0.5563772267241511 -0.8651504371098409
4331000000.0 0.5145111400245941 -0.8686006152009333
4334000000.0 0.5545870780358346 -0.8446198447672633
4338000000.0 0.5793328640069624 -0.8445253975236667
4341000000.0 0.5936165866928267 -0.8473923178390997
4344000000.0 0.5508974351746911 -0.8648457628799492
4347000000.0 0.5440421277055972 -0.8482646170073552
4350000000.0 0.5139499828069103 -0.8552005249383925
4353000000.0 0.5480136011354513 -0.8259914574034664
4356000000.0 0.5242952289741423 -0.8466754764645377
4359000000.0 0.5280724775533663 -0.8332845779864774
4362000000.0 0.5097521820770581 -0.883751996938279
4366000000.0 0.5412244216695461 -0.8775619186171257
4369000000.0 0.5232921663994089 -0.8441427090013729
4372000000.0 0.50651332433834 -0.8588413178978214
4375000000.0 0.5533974184232788 -0.8310826692822869
4378000000.0 0.5259172591659346 -0.8277937222955662
4381000000.0 0.5506435951952338 -0.8317641608789513
4384000000.0 0.5814861555597289 -0.9161170217714678
4388000000.0 0.5436002297514042 -0.8241938423981361
4391000000.0 0.5562366728052113 -0.8525520351280236
4394000000.0 0.5149412238810843 -0.8277713919825294
4397000000.0 0.5358860640684375 -0.8515158376926016
4400000000.0 0.5586476132690574 -0.870432246567756
4403000000.0 0.5444588224679524 -0.861061399166589
4406000000.0 0.5294213793225147 -0.8548980491893378
4409000000.0 0.5531729196050897 -0.8728775898484923
4412000000.0 0.49128030490924246 -0.8640660737453657
4416000000.0 0.5349098780327548 -0.8546337663899292
4419000000.0 0.5173726197859764 -0.8625441404024888
4422000000.0 0.5398181623553866 -0.8369348231969296
4425000000.0 0.5653009563506518 -0.8652493466578722
4428000000.0 0.5320007983681678 -0.8648390886747234
4431000000.0 0.5431993612979975 -0.8694059755250921
4434000000.0 0.5190681126445769 -0.8541664497433917
4438000000.0 0.5403278766877482 -0.8688168622788542
4441000000.0 0.5612636966717783 -0.8685401691354224
4444000000.0 0.5299792173553199 -0.8332514754209791
4447000000.0 0.5306357942552635 -0.8509941355396806
4450000000.0 0.5445048025221962 -0.8421555468840005
4453000000.0 0.5581440576066871 -0.8701619931459673
4456000000.0 0.5155483906397824 -0.8372833737355867
4459000000.0 0.4916057943110429 -0.828606479595661
4462000000.0 0.5630471168209137 -0.9144201606170248
4466000000.0 0.5405051815256772 -0.8929628265941779
4469000000.0 0.5422464501723112 -0.8473812614449208
4472000000.0 0.522967700481599 -0.8869741236071804
4475000000.0 0.5075360842145645 -0.8268167373402737
4478000000.0 0.5350526684476861 -0.8876096009603074
4481000000.0 0.4983237173489983 -0.8355657366032938
4484000000.0 0.47951089668774305 -0.8757907658177495
4488000000.0 0.5038378076262972 -0.8607334181769044
4491000000.0 0.5384221258372266 -0.8823707072439715
4494000000.0 0.5329460670863116 -0.8473443850773101
4497000000.0 0.519777999650867 -0.8363040655164995
4500000000.0 0.5463229227260418 -0.8608919314239825
4503000000.0 0.5581379039009364 -0.871137995739399
4506000000.0 0.5010067058850958 -0.8772387133317913
4509000000.0 0.5310945524019268 -0.8507985336369593
4512000000.0 0.510446314884051 -0.8417122365261899
4516000000.0 0.5456884139341294 -0.8561813003708663
4519000000.0 0.5261274598773424 -0.8400435610278467
4522000000.0 0.5217675148529234 -0.8608950003779887
4525000000.0 0.566025456725578 -0.8251223218430552
4528000000.0 0.5500392658661636 -0.8810335627393393
4531000000.0 0.537621804989403 -0.8521765115058281
4534000000.0 0.5235451405362388 -0.8381186403804142
4538000000.0 0.5067784913974731 -0.8576399735054251
4541000000.0 0.4769292880898729 -0.8759421893628744
4544000000.0 0.5142122638324689 -0.845620681982372
4547000000.0 0.5284824818782307 -0.855033080088332
4550000000.0 0.5169429079283925 -0.8715331375866255
4553000000.0 0.5297729407410219 -0.864161656312249
4556000000.0 0.49808839098801777 -0.8623118106879069
4559000000.0 0.5109611437685351 -0.8835036767009201
4562000000.0 0.5263419180043055 -0.8664103757082184
4566000000.0 0.5218169626435678 -0.8864604533812237
4569000000.0 0.4964447157123101 -0.8556284440813908
4572000000.0 0.5056745053770619 -0.8500160109063286
4575000000.0 0.5033592412788538 -0.8763780091314344
4578000000.0 0.5365611491069702 -0.8903819020301116
4581000000.0 0.5162698872538556 -0.8832300196944308
4584000000.0 0.5027718460517494 -0.8756831365225104
4588000000.0 0.5198030685431585 -0.8834576774907492
4591000000.0 0.5329188637157586 -0.8643361836225252
4594000000.0 0.504191305636929 -0.8601875851493347
4597000000.0 0.5090155862833935 -0.8973359020822718
4600000000.0 0.47320987665082725 -0.8721342115001254
4603000000.0 0.49621740919303436 -0.8858361941343901
4606000000.0 0.5201657104517128 -0.8694286852608829
4609000000.0 0.5135207241054404 -0.8548344856749316
4612000000.0 0.5057751646145925 -0.8691111598555034
4616000000.0 0.5007139614395977 -0.8543009890841718
4619000000.0 0.5059838722932435 -0.8772400575465606
4622000000.0 0.5098848796116499 -0.869109489468867
4625000000.0 0.4946824265590044 -0.8615581910647266
4628000000.0 0.506378266435169 -0.848159003014993
4631000000.0 0.48934689663266884 -0.8750341019465158
4634000000.0 0.4932727919712206 -0.8771303860182582
4638000000.0 0.5251488398943094 -0.8665821240339628
4641000000.0 0.526767071206377 -0.888652719619588
4644000000.0 0.49770911306426413 -0.8677653392035409
4647000000.0 0.5091677811853895 -0.8821226713796184
4650000000.0 0.5064887984270136 -0.8800415082310367
4653000000.0 0.5285879170212431 -0.8800744651726915
4656000000.0 0.4965024109180748 -0.8612211886698721
4659000000.0 0.497757867246645 -0.8785091554080838
4662000000.0 0.5143059989784363 -0.8835262562863081
4666000000.0 0.492281687719563 -0.9000146103512349
4669000000.0 0.49219112692765604 -0.8719916933247072
4672000000.0 0.4928586148185543 -0.9023412733299294
4675000000.0 0.5089371180440424 -0.9036551558094552
4678000000.0 0.4914987628139467 -0.8699121131366696
4681000000.0 0.4835406856348192 -0.9069053882311613
4684000000.0 0.46638346038061 -0.8959902447542912
4688000000.0 0.49092929213649555 -0.8687833917112953
4691000000.0 0.4918565640277231 -0.8820910545419725
4694000000.0 0.49164309879945184 -0.8510843876100148
4697000000.0 0.4658611530390349 -0.8827662600938677
4700000000.0 0.500207611852574 -0.8726021283245476
4703000000.0 0.5124072922003953 -0.8586932082580034
4706000000.0 0.49110752998434143 -0.8987221374521566
4709000000.0 0.4909655242017718 -0.8910143402650693
4712000000.0 0.5177289285389447 -0.8828354912980887
4716000000.0 0.5069389557877252 -0.8979754498907451
4719000000.0 0.5417307956286381 -0.8770642637751545
4722000000.0 0.5184583050855893 -0.8664762275493018
4725000000.0 0.4933182436498338 -0.8849409449863704
4728000000.0 0.4911320307545364 -0.8690039536332528
4731000000.0 0.5093997442836534 -0.8882503125163456
4734000000.0 0.49411349846836833 -0.8481510932325781
4738000000.0 0.5266030539534745 -0.9161846627467336
4741000000.0 0.4958950228598101 -0.9166679395632145
4744000000.0 0.4770980484923005 -0.9234899248189262
4747000000.0 0.5001323585001031 -0.8487066529209659
4750000000.0 0.4924764989907572 -0.8669484476000138
4753000000.0 0.5000930480529153 -0.8826378724967977
4756000000.0 0.5106505995604304 -0.9051180642141631
4759000000.0 0.5266264325695124 -0.9043626570593662
4762000000.0 0.4887371775267708 -0.9045896792789923
4766000000.0 0.5097321997171751 -0.8804214759544353
4769000000.0 0.5097643045281024 -0.9033608543743985
4772000000.0 0.5115319849011106 -0.9125956817533285
4775000000.0 0.49206007936625384 -0.9344380361701765
4778000000.0 0.49499809316234433 -0.8843368575356189
4781000000.0 0.5237190995869281 -0.8744689540501799
4784000000.0 0.4905284430158549 -0.8569684210633128
4788000000.0 0.4748931877488003 -0.9106757103916181
4791000000.0 0.4854694035167156 -0.870447774144641
4794000000.0 0.561093023594881 -0.8985912855824844
4797000000.0 0.4745517685924483 -0.8815958777287577
4800000000.0 0.5158445655831232 -0.9190110739883557
4803000000.0 0.4603404048408404 -0.9043234911694858
4806000000.0 0.5071524053875882 -0.9171478862910856
4809000000.0 0.454176362575498 -0.9131894620027406
4812000000.0 0.44619854895388367 -0.8979407340603203
4816000000.0 0.5114392008919514 -0.8652791204849649
4819000000.0 0.519512781751067 -0.9055866146152759
4822000000.0 0.5262473807692329 -0.9188633624877433
4825000000.0 0.5196116351109026 -0.9149909976029751
4828000000.0 0.4931007313498831 -0.8997217849029738
4831000000.0 0.47266046394683875 -0.9142887465522723
4834000000.0 0.5153195267466197 -0.8935265053146576
4838000000.0 0.49990879239735486 -0.9114884770573417
4841000000.0 0.47091330155376665 -0.8829414997219605
4844000000.0 0.5405820520376692 -0.8710809550727706
4847000000.0 0.5205790084988594 -0.8434728153013468
4850000000.0 0.4927210674172935 -0.9261536393972855
4853000000.0 0.49435371611289647 -0.8784478294221986
4856000000.0 0.4897545122972966 -0.8800304921909841
4859000000.0 0.5200386042784866 -0.9353100907948569
4862000000.0 0.5247281439534793 -0.868241669449187
4866000000.0 0.4807804729851163 -0.9063618237220118
4869000000.0 0.4958155608531847 -0.9151430045627247
4872000000.0 0.49623754230809025 -0.9248704965128798
4875000000.0 0.5619975043050013 -0.9231172975796249
4878000000.0 0.49108480570222895 -0.912230992248309
4881000000.0 0.5017072351484327 -0.957941131063495
4884000000.0 0.5148292269292426 -0.8961605783303955
4888000000.0 0.5371176896346999 -0.8917237802759853
4891000000.0 0.5278537780570726 -0.9128830882653262
4894000000.0 0.48056656362356 -0.8980731316181637
4897000000.0 0.5097842487673533 -0.8599842380106131
4900000000.0 0.5134904205202764 -0.8936069919358041
4903000000.0 0.5373290856797502 -0.9028628026025247
4906000000.0 0.5266287689459902 -0.921001481115518
4909000000.0 0.5189423011108417 -0.9022306921983502
4912000000.0 0.5097549012823482 -0.9138747992808096
4916000000.0 0.5094006477139563 -0.8987369267425984
4919000000.0 0.5774341971110645 -0.8996552018865875
4922000000.0 0.5400720274971886 -0.8786528749838313
4925000000.0 0.4864929637244785 -0.9194816182760227
4928000000.0 0.5304747690882207 -0.861283615516264
4931000000.0 0.532162672326392 -0.903964524128957
4934000000.0 0.4719588080411647 -0.8808625350389593
4938000000.0 0.482447125686347 -0.901935286938991
4941000000.0 0.51107641851398 -0.8566260703463091
4944000000.0 0.5025872214145148 -0.8374325307864801
4947000000.0 0.5043626021888338 -0.875488879269354
4950000000.0 0.47502872526215 -0.8649352432661296
4953000000.0 0.4819005490717162 -0.937863790114957
4956000000.0 0.44399246449781776 -0.9138410657791536
4959000000.0 0.45525124352343393 -0.8822322804953067
4962000000.0 0.5050548988872167 -0.953458062384057
4966000000.0 0.5743807442133688 -0.8952056143255082
4969000000.0 0.5932931182690017 -0.8837493774960565
4972000000.0 0.5044883112923382 -0.8835428516342245
4975000000.0 0.514364492317444 -0.8902270064009071
4978000000.0 0.5206919511139539 -0.8792279819333131
4981000000.0 0.48234132617831743 -0.9049694623131259
4984000000.0 0.5011674309832789 -0.8538508364444071
4988000000.0 0.5216186384793019 -0.893137103027715
4991000000.0 0.5825484837748176 -0.8865327810662551
4994000000.0 0.5166879803824934 -0.8718793585112663
4997000000.0 0.48728194816782744 -0.9182942917132151
5000000000.0 0.5580420485067192 -0.9085183548710529
5003000000.0 0.5383223676587177 -0.9236675749737381
5006000000.0 0.5344061503737374 -0.9646700946675756
5009000000.0 0.5079761879154199 -0.887747947964425
5012000000.0 0.4817842667957126 -0.9077041118896523
5016000000.0 0.5848235601228826 -0.945575464201446
5019000000.0 0.5112352462703288 -0.9109782090611618
5022000000.0 0.5278326347229996 -0.928954634813017
5025000000.0 0.5609483535467545 -0.9690308760233338
5028000000.0 0.5121553396871006 -0.9366355037461745
5031000000.0 0.5066923384319683 -0.8736563303627436
5034000000.0 0.4900622882381864 -0.9854878358280204
5038000000.0 0.481334647711354 -0.8611612301607294
5041000000.0 0.5521549195650042 -0.893113915300292
5044000000.0 0.5384566493895786 -0.8770184113969202
5047000000.0 0.54750704336954 -0.8780757390810277
5050000000.0 0.5847492379397203 -0.8271923702290964
5053000000.0 0.5579789730829736 -0.9403656188881291
5056000000.0 0.594353844157154 -0.8908778896586196
5059000000.0 0.5939230190575281 -0.8716073092884946
5062000000.0 0.4786738118393261 -0.9169441762361068
5066000000.0 0.5655239198830592 -0.8542024078110614
5069000000.0 0.5459116718551734 -0.9269191469104971
5072000000.0 0.5468435086620743 -0.8707534748748844
5075000000.0 0.5407028821985856 -0.8857283127625093
5078000000.0 0.53212880455501 -0.9295688299890174
5081000000.0 0.5188686736927407 -0.8972675434055657
5084000000.0 0.5289609573729293 -0.918958279824498
5088000000.0 0.5585806835647631 -0.9038837154820634
5091000000.0 0.5166719209753182 -0.9340495802036599
5094000000.0 0.560046832803216 -0.9166229274300028
5097000000.0 0.5551860547272292 -0.8602572037150222
5100000000.0 0.5456102091703976 -0.8598334482919672
5103000000.0 0.5001408126535303 -0.8833528565149926
5106000000.0 0.5889997996495138 -0.9188126641929002
5109000000.0 0.5694006889486698 -0.8023949046473604
5112000000.0 0.4756539323940326 -0.9095608068275519
5116000000.0 0.5441755108380241 -0.7987565446919164
5119000000.0 0.5415991151757467 -0.9301058124446338
5122000000.0 0.572166401978832 -0.8830265925189661
5125000000.0 0.5575455823164579 -0.8537259285510156
5128000000.0 0.518498111776854 -0.8802137874933227
5131000000.0 0.5350614211075516 -0.922770953119602
5134000000.0 0.5312541460123907 -0.9171511882902517
5138000000.0 0.6092977628754538 -0.8895337984853846
5141000000.0 0.6401208339370649 -0.8639487974703639
5144000000.0 0.5629516403898549 -0.9023246974081358
5147000000.0 0.5375732854609956 -0.9111616212401759
5150000000.0 0.5805621985359668 -0.907616379434957
5153000000.0 0.6091351972158974 -0.8862845159584061
5156000000.0 0.5836763645474765 -0.8694224906195689
5159000000.0 0.6162150336973182 -0.8995923307275333
5162000000.0 0.5317217934040314 -0.8933240335964626
5166000000.0 0.5611430687717164 -0.8879348539458546
5169000000.0 0.5485845092201379 -0.8846664836052089
5172000000.0 0.5509013921406278 -0.8372285643702321
5175000000.0 0.5835721563069027 -0.9220130098069639
5178000000.0 0.5239680825325123 -0.8937400222910767
5181000000.0 0.5734839938788981 -0.9064631794606741
