! Created with skrf 1.8.0 (http://scikit-rf.org).
# Hz S RI R 50.0 
!freq ReS11 ImS11
4000000000.0 0.6613817108502698 0.7331945718695387
4003000000.0 0.7890150324129416 0.7526642061093684
4006000000.0 0.8068955378117098 0.6445744766469955
4009000000.0000005 0.7312368333771869 0.7286030788002378
4011999999.9999995 0.7874447263693896 0.6808277323531158
4016000000.0 0.790146673831511 0.6248240260369531
4019000000.0 0.8477830422858477 0.6552930738342498
4022000000.0000005 0.7441743397279081 0.676286291802501
4025000000.0000005 0.8941440407672115 0.5756721724119933
4027999999.9999995 0.8700088514001982 0.6447184319321658
4030999999.9999995 0.7595669347386659 0.6155615201330324
4034000000.0 0.842942732931481 0.6320303645192404
4038000000.0000005 0.9195945803221677 0.5987152194714114
4041000000.0000005 0.8729999261703123 0.5846507215692966
4043999999.9999995 0.9146701104221393 0.578505128660797
4046999999.9999995 0.8731619649363004 0.6054844475501013
4050000000.0 0.9038513785231641 0.47530244020144297
4053000000.0 0.8720770474623416 0.48881792610935115
4056000000.0 0.878302797278166 0.46585586847144334
4059000000.0 0.8807744711193819 0.5611143508736688
4062000000.0000005 0.9071479419726527 0.4370020092327763
4066000000.0 0.8409418770050485 0.4112346078253639
4069000000.0 0.9867471613388177 0.48973334620408165
4072000000.0 0.8829859837056436 0.5386632310824095
4075000000.0 0.9454866485627076 0.5107455602631277
4078000000.0000005 0.9592436334233425 0.4123558086586677
4081000000.0000005 0.9170543723481821 0.5185532219664114
4083999999.9999995 0.9665369689937933 0.4458279330523904
4088000000.0 0.9633912916149252 0.4632376592238912
4091000000.0 1.1171499874940005 0.44575481029061115
4094000000.0000005 0.9913938664879395 0.4384202178666824
4097000000.0000005 0.9447323555392965 0.38032417121406925
4099999999.9999995 0.9685178461524453 0.38420970996392617
4102999999.9999995 0.9860159210913078 0.40667103842461505
4106000000.0 0.9729139215121609 0.3524977538236926
4109000000.0 1.0144358626640815 0.3090181069841702
4112000000.0 1.0055485183494808 0.3490568998926188
4115999999.9999995 0.9732352309347356 0.4106989656698373
4119000000.0 1.0056540013650737 0.300794208594056
4122000000.0 1.0414998158656579 0.29164712780192364
4125000000.0 1.1008008507514133 0.23631028260866044
4128000000.0 0.962779200569324 0.3068119197625804
4131000000.0 0.9931739709595698 0.28624301062277147
4134000000.0000005 0.9508735869811445 0.2539600521568713
4138000000.0 0.9789098081301147 0.268274962956525
4141000000.0 1.0063775972267286 0.20785468777992622
4144000000.0 1.0201820475468473 0.2567813174163531
4147000000.0000005 0.9605379339747294 0.24827210663613677
4150000000.0000005 1.0419968778033475 0.2783969896895453
4152999999.9999995 1.0165835460965829 0.23376057571737308
4155999999.9999995 1.0632073468403573 0.22094797126290677
4159000000.0 1.0292560310461087 0.27278030997871927
4162000000.0 1.0052064362970659 0.17990171959918722
4166000000.0000005 0.9926279825967886 0.17641762599718433
4168999999.9999995 1.0204215662051457 0.14970731347398902
4171999999.9999995 0.9909880164873669 0.22701425401135095
4175000000.0 1.004768844347897 0.17664091015656433
4178000000.0 1.066958605214352 0.12827714237825544
4181000000.0 1.0530474819797013 0.21719825157966938
4184000000.0 1.0750489332518138 0.16450256864896248
4187999999.9999995 1.0464836815064733 0.1801536369879567
4191000000.0 1.0049263364696803 0.2350267592006469
4194000000.0 0.9963900431772259 0.13520886740643934
4197000000.0 1.041244908557162 0.07357934602949176
4200000000.0 1.0191055551667116 0.10921466120036763
4203000000.0000005 1.0065722823147305 0.13171704727115183
4206000000.0000005 1.0527152572180314 0.08884762324796416
4208999999.9999995 1.0476697766595036 0.16758276064781155
4211999999.9999995 1.047418578397258 0.08198784466392309
4216000000.0 1.0001720406803598 0.09566194170362696
4219000000.0000005 1.0193668446323332 0.11427987271535689
4222000000.0000005 1.04233143265114 0.07140719406437124
4224999999.9999995 0.9845520612493837 0.08425431895207527
4227999999.9999995 1.0609284070715788 0.10343190512241818
4231000000.0 1.015234564329784 0.07911212270543763
4234000000.0 1.0169806193362114 0.1473438427806501
4238000000.0000005 1.0534502656806992 0.07340442102568243
4240999999.9999995 1.0480072050976643 0.05855635298833259
4244000000.0 1.0427513764391634 0.08111051660696225
4247000000.0 1.0958387575911948 0.07760338406745387
4250000000.0 1.0723536684795683 0.04703491229365464
4253000000.0 1.0189012339599777 0.0701194488138529
4256000000.0 0.9711232915372928 0.01863253151724331
4259000000.0000005 1.0400970223950285 0.045084446517946464
4261999999.9999995 1.0366875034211418 0.037469554359199075
4266000000.0 1.0276104701746531 0.06284068545007632
4269000000.0 1.088704132589881 0.04013123903372562
4272000000.0000005 1.0283881298580901 -0.016524905379623755
4275000000.0000005 1.0223662162892928 -0.011586145686030225
4277999999.9999995 0.9946338208455289 0.015509758373771554
4280999999.9999995 1.0167635646825133 0.0060951015059310665
4284000000.0 1.0569978796476254 -0.013410604743849086
4288000000.0000005 1.0583025210610522 -0.02808560396361004
4291000000.0000005 1.0522502422175684 0.006676470905045695
4293999999.9999995 1.0361210239330838 -0.015049823817828711
4297000000.0 1.0216706789666932 -0.026189227893499867
4300000000.0 1.0716039353277456 -0.027794100193913596
4303000000.0 1.0392001767307733 -0.011822499059452096
4306000000.0 1.0544298866056943 -0.033348351698455236
4309000000.0 1.0140848059497638 -0.010536407599628872
4312000000.0 1.0409934607386164 -0.037141841497936035
4316000000.0 1.0045588857629792 0.0045969200168265445
4319000000.0 1.0378557008348694 -0.001956920379293181
4322000000.0 0.9883392425834167 -0.10141069356292798
4325000000.0 1.0235201205262279 -0.010805901742517998
4328000000.0 1.0484083947664562 -0.08874757733907279
4331000000.0 1.0027979109310996 -0.04981252444340756
4334000000.0 1.0268322874821747 -0.0880960185875318
4338000000.0 1.039291514721136 -0.07151564723732506
4341000000.0 1.0474621331409555 -0.04971481724571458
4344000000.0 1.0049441698312693 -0.07538109401763954
4347000000.0 1.0034036140311806 -0.07898924665585488
4350000000.0 1.005814242159497 -0.08707314240691488
4353000000.0 0.9904913190170437 -0.07576557080773544
4356000000.0 1.0508880288876898 -0.09244902362052215
4359000000.0 1.008613659229347 -0.08192266128141518
4362000000.0 1.0345794774921935 -0.09695524181728787
4366000000.0 1.013245479445926 -0.10432707440113642
4369000000.0 1.0158193223127314 -0.0799802000788597
4372000000.0 0.9740543373148258 -0.1258301316142328
4375000000.0 0.9954056759597483 -0.09556076364068722
4378000000.0 1.015587861708986 -0.1264745795036003
4381000000.0 1.0335547297073935 -0.08526239814717468
4384000000.0 1.0350374465773684 -0.1783037735824486
4388000000.0 0.9972937504888613 -0.10485775497215516
4391000000.0 1.0192665556325566 -0.11149625538862978
4394000000.0 0.9820965584457765 -0.12298486094884126
4397000000.0 0.9940934656424364 -0.1110187670102471
4400000000.0 1.0464769838791337 -0.0932850692124888
4403000000.0 1.0121216039382714 -0.13351923968225593
4406000000.0 1.0125421167396944 -0.16592047588233666
4409000000.0 1.046331316334911 -0.13887482892770658
4412000000.0 0.9930422662006584 -0.1690537494809119
4416000000.0 0.9933139909707509 -0.14368019527715004
4419000000.0 1.006174171394736 -0.1521501615999431
4422000000.0 0.986122532209172 -0.1486183902757815
4425000000.0 1.0189576163965803 -0.12130720265002015
4428000000.0 0.9998639628973109 -0.15156698207954483
4431000000.0 1.0158658056738386 -0.1558425816567366
4434000000.0 1.0043422279619358 -0.18708847197654543
4438000000.0 1.0183868487424945 -0.1704862934991575
4441000000.0 1.034043317697424 -0.15589380787512386
4444000000.0 0.959348807814455 -0.15557752234808275
4447000000.0 0.9932987154040033 -0.1842318535334893
4450000000.0 0.9732794277972445 -0.15298806098333156
4453000000.0 1.026439743353662 -0.17999823312106206
4456000000.0 0.973194427094509 -0.19184454794347688
4459000000.0 0.9504668528396337 -0.20869661679146634
4462000000.0 1.056567021235377 -0.21398078651611385
4466000000.0 1.0149607702906234 -0.20685676402724257
4469000000.0 1.0045231663675525 -0.18447644619550974
4472000000.0 1.0065393543010195 -0.22319048720852763
4475000000.0 0.9856314923962628 -0.21925369818501572
4478000000.0 1.0521719623280257 -0.23896521725178893
4481000000.0 0.9696493978888587 -0.21140046796520995
4484000000.0 0.9687873908778627 -0.2415388002827052
4488000000.0 0.9704557636745315 -0.2386856576664036
4491000000.0 0.983470572586691 -0.22734691140053737
4494000000.0 0.973977435990228 -0.22020360258869132
4497000000.0 0.9753824035098565 -0.20830790901085505
4500000000.0 0.9947868067027151 -0.22905790695101724
4503000000.0 1.0152774535592326 -0.23116988481386563
4506000000.0 0.975006238234683 -0.22232795222103846
4509000000.0 0.9633227770523187 -0.2334903317694626
4512000000.0 0.9582384784065967 -0.25286906094052586
4516000000.0 1.0023400355729044 -0.22723987671047124
4519000000.0 0.9845396719373467 -0.2124162378828025
4522000000.0 0.954768932814894 -0.24616664419914658
4525000000.0 0.9654986608069466 -0.20543921518067904
4528000000.0 1.0178184021995746 -0.25655228195723734
4531000000.0 0.9869592684783353 -0.20906199492339256
4534000000.0 0.9565403244003775 -0.2195618270280914
4538000000.0 0.9749149006832143 -0.2657282331174502
4541000000.0 0.9637031481740135 -0.3062805399249966
4544000000.0 0.9486413113266985 -0.24816697597180704
4547000000.0 0.9643547675401272 -0.21629108811281797
4550000000.0 0.9678176490339669 -0.2921561329453417
4553000000.0 0.9807386646770632 -0.2859308211652546
4556000000.0 0.93355212269921 -0.286740576967953
4559000000.0 0.9686514064756135 -0.27994600049368384
4562000000.0 0.981518150991701 -0.2799632282649376
4566000000.0 0.970908005881242 -0.2745015089919577
4569000000.0 0.9321914185724971 -0.26018545040434127
4572000000.0 0.9531656912202421 -0.2860914927426204
4575000000.0 0.957176652931171 -0.3041850696905013
4578000000.0 0.9873645230905456 -0.2768813708969805
4581000000.0 0.9838423244667319 -0.32415737621275936
4584000000.0 0.951672812155879 -0.28814862316032863
4588000000.0 0.9763306569277586 -0.26244638106796264
4591000000.0 0.9721175756572477 -0.25178990822544867
4594000000.0 0.9419949253531508 -0.31121004410896885
4597000000.0 0.9860399641507396 -0.3232170319356029
4600000000.0 0.9096380123115139 -0.3279880706153307
4603000000.0 0.9704582551609267 -0.3133319681991238
4606000000.0 0.9538760126870488 -0.3034725248285963
4609000000.0 0.9773232234361424 -0.3235922843166213
4612000000.0 1.005540833465108 -0.31446759541704844
4616000000.0 0.9498977126406359 -0.3263705656059621
4619000000.0 0.9704401122409101 -0.2858026412513066
4622000000.0 0.9519952769866157 -0.29121879664814126
4625000000.0 0.9151853121847715 -0.3091936367230178
4628000000.0 0.9056847526281923 -0.29534569909080766
4631000000.0 0.9066936623668929 -0.3520009510970489
4634000000.0 0.958584863918127 -0.33884607685272605
4638000000.0 0.9683311277816872 -0.3384672243119168
4641000000.0 0.9598443562052077 -0.3092622677033179
4644000000.0 0.9594513793944001 -0.33267276359311204
4647000000.0 0.9345284269063574 -0.33452017332792316
4650000000.0 0.9481781578761219 -0.35048653942528485
4653000000.0 0.963296238061556 -0.34932425219794583
4656000000.0 0.9250744460802635 -0.3844329501362694
4659000000.0 0.932109944066278 -0.3405463011661014
4662000000.0 0.9380288838679186 -0.3478380006463559
4666000000.0 0.9413877336604207 -0.3343783320752274
4669000000.0 0.950085426361335 -0.3365737255243631
4672000000.0 0.9295681736912064 -0.3794985228259097
4675000000.0 0.9109011609292824 -0.37122895862333055
4678000000.0 0.9267324003375186 -0.33937583640724833
4681000000.0 0.919554650342701 -0.39646246886663455
4684000000.0 0.905682713979104 -0.3616576276194001
4688000000.0 0.9238227400699344 -0.33872554859217996
4691000000.0 0.9128078878707955 -0.34073147960041594
4694000000.0 0.9251135304471588 -0.38967199018166776
4697000000.0 0.9360700513331469 -0.36638300241251814
4700000000.0 0.9502207879821915 -0.36510828249668886
4703000000.0 0.9372818629400013 -0.38250049635457684
4706000000.0 0.9340272899595593 -0.3786228553449727
4709000000.0 0.8978298873429257 -0.3776340981410317
4712000000.0 0.9108499234415532 -0.39306710551031293
4716000000.0 0.9505973771903007 -0.3939859152344057
4719000000.0 0.9153919850640495 -0.40374365006155355
4722000000.0 0.9607171076398524 -0.3802207509525628
4725000000.0 0.9399736391085586 -0.40228218750729383
4728000000.0 0.8798007812163026 -0.3897551382756322
4731000000.0 0.9327393122789298 -0.37831326607790555
4734000000.0 0.9422941337956995 -0.37623331320011694
4738000000.0 0.9239140597118707 -0.40760330419654184
4741000000.0 0.8995123653481782 -0.3805183017223611
4744000000.0 0.9238156363320734 -0.4140692131209385
4747000000.0 0.9317301670149022 -0.4089933048970291
4750000000.0 0.8975074013302733 -0.3929367029424123
4753000000.0 0.9200193321722736 -0.4308486493724187
4756000000.0 0.8966508471182124 -0.4301440918853646
4759000000.0 0.926699146703053 -0.42953017663616666
4762000000.0 0.9193540577105408 -0.4042766073738101
4766000000.0 0.9003134214854267 -0.4317176556134827
4769000000.0 0.9399431939230345 -0.42402640207609155
4772000000.0 0.9061430559583278 -0.4286694693678165
4775000000.0 0.9333753560994826 -0.45262103004864174
4778000000.0 0.9426280931000113 -0.4159860561801067
4781000000.0 0.9341605978775707 -0.39763704623372986
4784000000.0 0.9234480401892963 -0.38533822765550696
4788000000.0 0.9388494265244797 -0.4184055710251583
4791000000.0 0.9161813170542585 -0.45471340776897473
4794000000.0 0.9126331799345224 -0.4214465242256158
4797000000.0 0.9047500179668762 -0.4519803505715729
4800000000.0 0.8856358937616985 -0.4280003589415984
4803000000.0 0.8909230419911178 -0.4345249170093558
4806000000.0 0.9025371786625715 -0.47040679403162566
4809000000.0 0.8934640752865068 -0.45585753870221624
4812000000.0 0.908547706755273 -0.46530717717177883
4816000000.0 0.9191787306610893 -0.43857479448405456
4819000000.0 0.9345092946459683 -0.4285293844795619
4822000000.0 0.9190985340408045 -0.46009053031721614
4825000000.0 0.9246133296317682 -0.4390235190130833
4828000000.0 0.9066170458408794 -0.4212827475870567
4831000000.0 0.9152036866883393 -0.4926974722308133
4834000000.0 0.8814445647305027 -0.4497891377053947
4838000000.0 0.931405740201919 -0.4743380151915048
4841000000.0 0.8980555436735881 -0.4779350093919886
4844000000.0 0.9359486149265224 -0.4516146751945648
4847000000.0 0.894957379597219 -0.43545260554894094
4850000000.0 0.9145991491977123 -0.44367118749591106
4853000000.0 0.9159893917996735 -0.4459021976465394
4856000000.0 0.9059087820104126 -0.46560596537236687
4859000000.0 0.9113244487925481 -0.4768787890548191
4862000000.0 0.9043349207617164 -0.44474570836033916
4866000000.0 0.9179031808895037 -0.48203009612061737
4869000000.0 0.8923766039590548 -0.5005772874706444
4872000000.0 0.9060034297790742 -0.5079745047347523
4875000000.0 0.936693858363506 -0.46255399105459905
4878000000.0 0.901242835758959 -0.5031665846278821
4881000000.0 0.9291775977580283 -0.4951457236997494
4884000000.0 0.9081606892433569 -0.4659356744210548
4888000000.0 0.9228341086098013 -0.4571062942849198
4891000000.0 0.9244311456257689 -0.4722594588893816
4894000000.0 0.8815376472230985 -0.4796361825943688
4897000000.0 0.8994058206590005 -0.4579104098220846
4900000000.0 0.9153558443440524 -0.4834270583093975
4903000000.0 0.9236026912902544 -0.4583476829906767
4906000000.0 0.9189022492387142 -0.473926170473326
4909000000.0 0.8983347709868676 -0.4917872136930377
4912000000.0 0.9248578713235658 -0.4977478555248524
4916000000.0 0.9139430614534294 -0.4791163744963288
4919000000.0 0.9241756090275304 -0.488959694227247
4922000000.0 0.9045164463163593 -0.4776157873949602
4925000000.0 0.8899608539863633 -0.4951493392185345
4928000000.0 0.912845263298299 -0.44014595302521753
4931000000.0 0.9113759656058028 -0.46109941075027633
4934000000.0 0.8615830693815679 -0.45620717258484766
4938000000.0 0.8714190022354964 -0.5150348428637836
4941000000.0 0.8789884920069517 -0.49520233704054595
4944000000.0 0.8752241124379656 -0.47012398540283623
4947000000.0 0.8563659104722705 -0.4781107243949408
4950000000.0 0.884763730675397 -0.47961349078930404
4953000000.0 0.9046871295641521 -0.5380509325887621
4956000000.0 0.8978569508323276 -0.523645982851621
4959000000.0 0.8454124893883359 -0.5159816178489918
4962000000.0 0.9158658945792404 -0.5102734283607566
4966000000.0 0.9313897042528289 -0.5195107093277929
4969000000.0 0.9227877846016799 -0.5053729963375109
4972000000.0 0.8903295487937963 -0.5126167660995468
4975000000.0 0.8868800402343362 -0.4744529702284627
4978000000.0 0.8944246013096424 -0.5236830449103702
4981000000.0 0.8690231741538295 -0.5197682422812842
4984000000.0 0.8471050979981309 -0.48453905730087155
4988000000.0 0.8699923559526007 -0.49178822643330045
4991000000.0 0.9490032881053814 -0.46985019784245813
4994000000.0 0.8807978102771787 -0.46615513152857013
4997000000.0 0.8778477616038732 -0.5055359059187412
5000000000.0 0.9416777136524928 -0.5053297648115336
5003000000.0 0.93624388170054 -0.5190331817384627
5006000000.0 0.8991918995284991 -0.5133306750644515
5009000000.0 0.8911433339347009 -0.517676583752848
5012000000.0 0.870765780968863 -0.5204945999298118
5016000000.0 0.927066275393877 -0.4944208168433316
5019000000.0 0.870542112377262 -0.4996779713833076
5022000000.0 0.8785311302208251 -0.4844217973738957
5025000000.0 0.9646587484387306 -0.5671461138702194
5028000000.0 0.9071767490065443 -0.563353955425766
5031000000.0 0.8981030388137117 -0.5291367128281558
5034000000.0 0.9052956598096582 -0.5676687594165231
5038000000.0 0.8450696600586447 -0.5193842999796077
5041000000.0 0.8963751848514765 -0.48323889095770434
5044000000.0 0.8704382975591449 -0.4812953270708889
5047000000.0 0.926261384440741 -0.4841501629264916
5050000000.0 0.9054763447312831 -0.4337161837090373
5053000000.0 0.9327320837167465 -0.52285779815723
5056000000.0 0.9045182077963956 -0.48297064380199917
5059000000.0 0.9054891113769469 -0.43670815882413994
5062000000.0 0.8985438329284322 -0.548833424593344
5066000000.0 0.8919905503885464 -0.469165032135728
5069000000.0 0.8818819542112961 -0.5047969347362725
5072000000.0 0.8582312996652148 -0.4998998018571348
5075000000.0 0.8888813011974757 -0.48769847810830746
5078000000.0 0.8747848291013628 -0.5586532750026166
5081000000.0 0.8277011717527112 -0.514491558383246
5084000000.0 0.932867622175764 -0.5560283199640401
5088000000.0 0.8933210076062966 -0.48860197760807694
5091000000.0 0.8678985959758322 -0.5572868080678854
5094000000.0 0.8798484740309076 -0.5487480261752428
5097000000.0 0.9530962679620271 -0.4985448415963676
5100000000.0 0.9184731467627303 -0.5202932334361383
5103000000.0 0.8850198249237322 -0.546546396920547
5106000000.0 0.9804438664860159 -0.5294456204398941
5109000000.0 0.9013741285509254 -0.5389858897861326
5112000000.0 0.8897125114556598 -0.5397697740074766
5116000000.0 0.8350710252265257 -0.4880309662818784
5119000000.0 0.9083325617664905 -0.5100927196595872
5122000000.0 0.9111434774690451 -0.48007309775335044
5125000000.0 0.89244320390092 -0.47756850334178297
5128000000.0 0.8585681339979452 -0.5184975324102339
5131000000.0 0.8570442291373059 -0.4802717102850326
5134000000.0 0.8590897069636926 -0.5450292700888733
5138000000.0 0.8693249023992888 -0.5050856099642927
5141000000.0 0.8931461495610972 -0.46173331589525723
5144000000.0 0.9523529199824775 -0.4697072654148328
5147000000.0 0.9588855665867384 -0.5103592501371838
5150000000.0 0.9104859714652077 -0.47279912268154545
5153000000.0 0.830357370752152 -0.5414460580600509
5156000000.0 0.9040468249611816 -0.5348106495846855
5159000000.0 0.9181002257223324 -0.5179716042334197
5162000000.0 0.8754768557890257 -0.498475419666527
5166000000.0 0.9003851278396073 -0.5810620732707551
5169000000.0 0.8833880077481013 -0.5584369179876107
5172000000.0 0.8563782466789907 -0.4934268180581559
