! Created with skrf 1.8.0 (http://scikit-rf.org).
# Hz S RI R 50.0 
!freq ReS11 ImS11
4000000000.0 0.5323469451757945 -0.8158265483529104
4003000000.0 0.5572065832251366 -0.8724018144245562
4006000000.0 0.5304792457003934 -0.9022287837727745
4009000000.0000005 0.5394986951503568 -0.8922446868991295
4011999999.9999995 0.6190202499999578 -0.8681267580534391
4016000000.0 0.5062687551761301 -0.9101201968952789
4019000000.0 0.5216293361361284 -0.822230537428996
4022000000.0000005 0.5756762260066202 -0.8329953510975101
4025000000.0000005 0.49803076257359624 -0.9239871527508784
4027999999.9999995 0.5288583746495126 -0.8671358435746503
4030999999.9999995 0.5322514572878344 -0.8437362385621316
4034000000.0 0.5165461415349217 -0.8326655463374122
4038000000.0000005 0.5341935371955537 -0.9005034502214602
4041000000.0000005 0.514308595289437 -0.8975330559343963
4043999999.9999995 0.5821915051626297 -0.8956310437913739
4046999999.9999995 0.597971221408986 -0.9082679812625296
4050000000.0 0.5252304817034481 -0.9201006130600518
4053000000.0 0.5104291892537767 -0.8811989537281382
4056000000.0 0.5342934104592773 -0.8714837343010566
4059000000.0 0.5421768998138431 -0.8291859198733391
4062000000.0000005 0.5234692784158218 -0.9059045504879544
4066000000.0 0.49145153147544324 -0.80933508630704
4069000000.0 0.5254658366046807 -0.9276237822133047
4072000000.0 0.5595260874498468 -0.8833450818726247
4075000000.0 0.6088225717463625 -0.8944189100478848
4078000000.0000005 0.5123453104353038 -0.8767572505933269
4081000000.0000005 0.5645852263346681 -0.8503042284549172
4083999999.9999995 0.551053690783317 -0.9060810292825672
4088000000.0 0.5716761515993801 -0.8898040021098101
4091000000.0 0.5934048653683313 -0.9426364237500429
4094000000.0000005 0.5448626570672858 -0.8673562946261081
4097000000.0000005 0.5220847046501339 -0.8594223644605911
4099999999.9999995 0.5761553993500574 -0.8816744214840129
4102999999.9999995 0.5843715675586542 -0.8600096404137395
4106000000.0 0.5319974609114979 -0.8716510290962056
4109000000.0 0.5362670560838417 -0.8732043988129748
4112000000.0 0.532878636983691 -0.8453266732122275
4115999999.9999995 0.5549507614373342 -0.841351848780413
4119000000.0 0.5137035532240037 -0.8839692650117118
4122000000.0 0.49980866105239696 -0.8600405926058624
4125000000.0 0.5457988960329941 -0.8920176638282976
4128000000.0 0.5160450976000195 -0.8078888512684564
4131000000.0 0.49156174509673434 -0.8703072446823571
4134000000.0000005 0.5687851097868183 -0.8716633637405359
4138000000.0 0.5420154366972982 -0.8302713325757134
4141000000.0 0.5235279179383869 -0.8677141975102122
4144000000.0 0.5591403292681744 -0.8947346692151457
4147000000.0000005 0.5321363895071891 -0.8419490527933868
4150000000.0000005 0.5791348980294454 -0.8823464016213233
4152999999.9999995 0.5422908001090329 -0.8752083462838285
4155999999.9999995 0.5624844686867961 -0.9064919661091996
4159000000.0 0.5304416089727424 -0.8139221953883123
4162000000.0 0.5111788242046147 -0.8397868084806726
4166000000.0000005 0.5430364261725775 -0.8542897996913379
4168999999.9999995 0.523480767088025 -0.8488908723116838
4171999999.9999995 0.5593663128704772 -0.8527400262773263
4175000000.0 0.5419839155898555 -0.865816744312181
4178000000.0 0.5515367102244622 -0.8716251311398957
4181000000.0 0.5331352774602179 -0.8537500211825036
4184000000.0 0.537859081509776 -0.8378833283902322
4187999999.9999995 0.5259191449285616 -0.8421506238020212
4191000000.0 0.5519095375742111 -0.8116132919390204
4194000000.0 0.5233945460520242 -0.8282712061179174
4197000000.0 0.5488914562231416 -0.8671827043507523
4200000000.0 0.5368566425914337 -0.86219574053011
4203000000.0000005 0.5580809673038157 -0.8547163791869532
4206000000.0000005 0.5437410160929158 -0.8677332908422802
4208999999.9999995 0.5457571791052008 -0.8476468616429226
4211999999.9999995 0.5075218218519203 -0.8704251702585846
4216000000.0 0.5589151939668986 -0.8572235376830549
4219000000.0000005 0.5678729568647458 -0.8615943226135344
4222000000.0000005 0.5359371114315469 -0.880205458983903
4224999999.9999995 0.5441554429157591 -0.8525706916564931
4227999999.9999995 0.5500561997840632 -0.8618456963237487
4231000000.0 0.5407546093895519 -0.8630269748399956
4234000000.0 0.5732219200814788 -0.8539833397158886
4238000000.0000005 0.54465742134916 -0.8603320264626346
4240999999.9999995 0.5246636902341864 -0.8677798248550852
4244000000.0 0.5447553428303388 -0.8581994206153434
4247000000.0 0.5497348972628043 -0.8663204848417112
4250000000.0 0.5334722796684024 -0.8390358215318748
4253000000.0 0.5125813471887899 -0.8438824992345278
4256000000.0 0.5446877500529497 -0.8739635844254723
4259000000.0000005 0.5249187926201031 -0.8416865310123726
4261999999.9999995 0.5046474540080741 -0.8549773307642269
4266000000.0 0.5276551814239254 -0.8788381707954088
4269000000.0 0.5581930744308314 -0.8522437260039966
4272000000.0000005 0.5335720974676519 -0.851446338832773
4275000000.0000005 0.5483613470132763 -0.8664425734588778
4277999999.9999995 0.5501768669666881 -0.870992998449942
4280999999.9999995 0.5575682403513949 -0.8623965126979969
4284000000.0 0.5229385251066008 -0.8673681503277167
4288000000.0000005 0.585422070031548 -0.8437262218409851
4291000000.0000005 0.5191902231602121 -0.8370906986510328
4293999999.9999995 0.5304934650435648 -0.8444963687723943
4297000000.0 0.5434140418830281 -0.8198804583452972
4300000000.0 0.5297967439350613 -0.8382237373035255
4303000000.0 0.5340121513876681 -0.8477347123385991
4306000000.0 0.5798067873222725 -0.8732080449620532
4309000000.0 0.5620867354197746 -0.8368054817245899
4312000000.0 0.5760174823583765 -0.8686657742841873
4316000000.0 0.5924158847097648 -0.8569746172267625
4319000000.0 0.5777498212910963 -0.8418741807657619
4322000000.0 0.5101141944332842 -0.8423316413927713
4325000000.0 0.5575279086272551 -0.8430180112553882
4328000000.0 0.5460716795234624 -0.847454025112196
4331000000.0 0.5364618504404183 -0.8666415506907259
4334000000.0 0.5273301982399938 -0.8858124534760052
4338000000.0 0.5761598331516815 -0.8169206082368441
4341000000.0 0.577007466352181 -0.856238326059818
4344000000.0 0.5725581183440109 -0.8371637350688658
4347000000.0 0.5587618471392026 -0.8731498102224863
4350000000.0 0.5306685206200095 -0.8541821131691116
4353000000.0 0.5449103121413064 -0.8270937694939389
4356000000.0 0.5107400877361112 -0.8584409945591727
4359000000.0 0.5097541380027375 -0.8168093834554118
4362000000.0 0.4960573898145603 -0.8899682938205811
4366000000.0 0.5338424168638223 -0.8692510064174507
4369000000.0 0.5158740517165475 -0.8465218285442033
4372000000.0 0.48709686000949703 -0.8551488424822716
4375000000.0 0.5521068389536687 -0.8360344045995709
4378000000.0 0.5165664704091055 -0.838017787501813
4381000000.0 0.5397752046516521 -0.8460294532558417
4384000000.0 0.5493404777323385 -0.9076986660959437
4388000000.0 0.5261331215358749 -0.8229674668802945
4391000000.0 0.5391856278418844 -0.8640000956879078
4394000000.0 0.5318915926989379 -0.8425585441224546
4397000000.0 0.5225524182198165 -0.8619320912595806
4400000000.0 0.5464700949565959 -0.8892245467872953
4403000000.0 0.5407376446788608 -0.8596682034901034
4406000000.0 0.5224395286261753 -0.8810129930151762
4409000000.0 0.5372701240061291 -0.8939598486694006
4412000000.0 0.4683870341276294 -0.8865950000838151
4416000000.0 0.5141957729445548 -0.859412470792449
4419000000.0 0.5156045710321844 -0.8715059385260465
4422000000.0 0.5375777926976435 -0.8353527941027584
4425000000.0 0.5584093790887401 -0.8652904039073047
4428000000.0 0.5120502495107417 -0.8586939574510947
4431000000.0 0.5381597771905272 -0.8778551248443085
4434000000.0 0.5122286891133838 -0.8513599388071106
4438000000.0 0.5408705377285489 -0.8706927292738529
4441000000.0 0.5345268095933287 -0.8742623463000725
4444000000.0 0.5213104449863428 -0.8413962236688023
4447000000.0 0.5107159604620877 -0.8640762596438898
4450000000.0 0.5352360538366218 -0.8591056165153191
4453000000.0 0.5456861578627872 -0.8777155354436273
4456000000.0 0.5063341854643255 -0.8520876611961471
4459000000.0 0.5016800127284362 -0.8213354391536823
4462000000.0 0.5546482219904305 -0.923080020405788
4466000000.0 0.5346084832710776 -0.9028647240652838
4469000000.0 0.5336353624971782 -0.8636504339798478
4472000000.0 0.5218667171027107 -0.8898380646482245
4475000000.0 0.5054043977313948 -0.8520726022879889
4478000000.0 0.5330623404583361 -0.9195970751258475
4481000000.0 0.48244540912463557 -0.8520983325059607
4484000000.0 0.4754366679901071 -0.9047210929086956
4488000000.0 0.49051247880531645 -0.8724955051769553
4491000000.0 0.4981717168759654 -0.8623129261105147
4494000000.0 0.519335410033066 -0.8762249368751407
4497000000.0 0.5310997315998277 -0.8399646270966382
4500000000.0 0.5283975451708766 -0.8672097259003562
4503000000.0 0.5277567680720036 -0.8859923244620365
4506000000.0 0.5015413738756269 -0.8494885024322576
4509000000.0 0.5094551866291374 -0.8506187342857323
4512000000.0 0.48033537155312467 -0.8528011421550032
4516000000.0 0.5533772346765509 -0.88540570714652
4519000000.0 0.5278746189284219 -0.8404253060800134
4522000000.0 0.5005149730338382 -0.8657863489535484
4525000000.0 0.5302696299581002 -0.8367798407652651
4528000000.0 0.5340430643354352 -0.8888140533841482
4531000000.0 0.5472372265930339 -0.8673698020443519
4534000000.0 0.49673424544712774 -0.8599742419616161
4538000000.0 0.520691223900554 -0.8590806240116133
4541000000.0 0.4750931023381343 -0.8548923975371445
4544000000.0 0.4859442008277234 -0.8458653659706452
4547000000.0 0.514998873837202 -0.8588569679657523
4550000000.0 0.48772108939104025 -0.8839685626227387
4553000000.0 0.516370444609404 -0.8795665631173633
4556000000.0 0.48127129101522814 -0.8672301600405855
4559000000.0 0.5039549487675168 -0.8739397066452168
4562000000.0 0.5112618725360053 -0.8631271752468331
4566000000.0 0.5066464163858366 -0.8787567045005276
4569000000.0 0.4992073341604998 -0.8253733798954478
4572000000.0 0.5196229170892024 -0.8813956297978345
4575000000.0 0.4925829299277298 -0.8881734837857925
4578000000.0 0.5220525015993163 -0.8886090463714681
4581000000.0 0.49689883620288156 -0.8676229442424093
4584000000.0 0.48956327675571787 -0.8514832424115428
4588000000.0 0.5125903115595697 -0.884034893932481
4591000000.0 0.5019325527833728 -0.8479197033856307
4594000000.0 0.4749571844067184 -0.8658816149469072
4597000000.0 0.5068590216394859 -0.8964532089512343
4600000000.0 0.4869144573417462 -0.8808544728841111
4603000000.0 0.4841163585517615 -0.8742384500630984
4606000000.0 0.5099873922054475 -0.8715205124561449
4609000000.0 0.4893533724928396 -0.8681171300333341
4612000000.0 0.5044565838617082 -0.8706157402054302
4616000000.0 0.4868410831664972 -0.8683231173116742
4619000000.0 0.4945398800925864 -0.8709603166972308
4622000000.0 0.49360849169124504 -0.8628373799064604
4625000000.0 0.4673523294981506 -0.8611690827662675
4628000000.0 0.49393166949669187 -0.8660051214234932
4631000000.0 0.47531869075948185 -0.8900944008358447
4634000000.0 0.49639045692603984 -0.8790861052985037
4638000000.0 0.4941624845667733 -0.8811766651484603
4641000000.0 0.4960680287808683 -0.8717218464963803
4644000000.0 0.4830556465710138 -0.8773401439182724
4647000000.0 0.50599466418738 -0.8939469399123104
4650000000.0 0.48721225398848156 -0.8952768683903972
4653000000.0 0.5060717910938928 -0.8761322429308127
4656000000.0 0.4818967693147739 -0.8945906023267703
4659000000.0 0.4840341041494419 -0.880776972500418
4662000000.0 0.49537058013812957 -0.8919360326057122
4666000000.0 0.4798162305632217 -0.898550826444565
4669000000.0 0.5014163716121988 -0.875992738544802
4672000000.0 0.4717459665023709 -0.9068626057169071
4675000000.0 0.4748466307010716 -0.9098457602897194
4678000000.0 0.4639239256159487 -0.8552455957040779
4681000000.0 0.47090392805269676 -0.9025342949324555
4684000000.0 0.4742633776260433 -0.9053229374507548
4688000000.0 0.46228435055855815 -0.878338977100818
4691000000.0 0.5133628528861078 -0.8695282994252234
4694000000.0 0.4796763999977113 -0.8748167593785996
4697000000.0 0.46182456373080694 -0.889377430978143
4700000000.0 0.4794692029843926 -0.8580604840137408
4703000000.0 0.4956532293620376 -0.8423940154725554
4706000000.0 0.4918550749156671 -0.87765002570474
4709000000.0 0.47735933830743044 -0.8736234796512156
4712000000.0 0.49087634375489636 -0.8998145712419773
4716000000.0 0.45155863625758597 -0.8670545872128828
4719000000.0 0.49933169013059076 -0.8875617637754853
4722000000.0 0.4979105496167577 -0.8835882917528404
4725000000.0 0.4947515815220038 -0.8656144173155796
4728000000.0 0.4508797444254477 -0.8986084499338242
4731000000.0 0.5052990225781367 -0.9148668942407645
4734000000.0 0.49664541239277854 -0.8546916685024873
4738000000.0 0.5211771965088964 -0.9094068293449952
4741000000.0 0.5028244714771402 -0.8941973882328422
4744000000.0 0.46712372992339035 -0.9203805927992118
4747000000.0 0.467351589255666 -0.8529749458970997
4750000000.0 0.4725156825625304 -0.8720312194094255
4753000000.0 0.49141517102706656 -0.905577976981416
4756000000.0 0.4650736340904284 -0.8764384638404892
4759000000.0 0.5077428585880073 -0.8965711903917924
4762000000.0 0.47425435248660436 -0.900015686958292
4766000000.0 0.4974133811331659 -0.8765832090715915
4769000000.0 0.4835833717285916 -0.8996451285678387
4772000000.0 0.4783229968015634 -0.8907189023672957
4775000000.0 0.4898196519503416 -0.9660258244304601
4778000000.0 0.49580910555315866 -0.8701747452232476
4781000000.0 0.5152426181952786 -0.8737890961975937
4784000000.0 0.48066062677226473 -0.8752187765410974
4788000000.0 0.47614063649053956 -0.9459702898643756
4791000000.0 0.47340154157720904 -0.8847928175492222
4794000000.0 0.517497184353406 -0.9125628556170847
4797000000.0 0.4646589891361412 -0.8816795993421249
4800000000.0 0.46921062543313663 -0.8789685831792349
4803000000.0 0.442237312616535 -0.9082118887233603
4806000000.0 0.4762715316637065 -0.9227800928209704
4809000000.0 0.468513194371469 -0.9296731017340132
4812000000.0 0.4744048111578677 -0.9129369917252039
4816000000.0 0.4765943290343016 -0.882806556274846
4819000000.0 0.5276910269005575 -0.9203467899972912
4822000000.0 0.5083204107728523 -0.921929218391936
4825000000.0 0.5206729518410012 -0.9053821976285521
4828000000.0 0.4663026599293537 -0.8831507904661793
4831000000.0 0.46714021009289486 -0.9268821305015724
4834000000.0 0.4992124547172204 -0.8851857180681196
4838000000.0 0.48036089312839625 -0.9254530768358217
4841000000.0 0.45409139209788335 -0.902072721899937
4844000000.0 0.5074819425790595 -0.8952816126840817
4847000000.0 0.4711266593589377 -0.8505095597508869
4850000000.0 0.46870084545102464 -0.9296968036233846
4853000000.0 0.4900113509897931 -0.8829153747130579
4856000000.0 0.47843216419567536 -0.8991725134158732
4859000000.0 0.495030315013696 -0.9185846697315602
4862000000.0 0.4933964297425837 -0.8575537337386618
4866000000.0 0.4907642570261926 -0.9353205350947459
4869000000.0 0.45307406463572536 -0.922555082362017
4872000000.0 0.47614607254480135 -0.9359278142439252
4875000000.0 0.5632499231872713 -0.9202853378758853
4878000000.0 0.48480842849481554 -0.9275513641574622
4881000000.0 0.49790493586323914 -0.9751454089390417
4884000000.0 0.4913260022343327 -0.8982211404637854
4888000000.0 0.5235975419069901 -0.895369688048591
4891000000.0 0.5302421324122387 -0.8962548758463773
4894000000.0 0.45303263113361253 -0.9054857762698598
4897000000.0 0.5057950811397818 -0.8740846557217712
4900000000.0 0.5083916242275808 -0.9084835572405441
4903000000.0 0.5073766499227752 -0.9029532977105778
4906000000.0 0.5043714768363254 -0.9091691848693222
4909000000.0 0.4458642474506333 -0.9026851908822784
4912000000.0 0.5079679068896574 -0.9156887603878267
4916000000.0 0.5180531840569376 -0.8868701840409072
4919000000.0 0.5569101283359591 -0.9054720560352408
4922000000.0 0.5452234872974162 -0.915033772407937
4925000000.0 0.487006849412832 -0.9152110320043088
4928000000.0 0.5508683717010328 -0.8457635400455729
4931000000.0 0.5083325765374567 -0.9123013576611834
4934000000.0 0.488274347537302 -0.8693056398591092
4938000000.0 0.44053770919875634 -0.8986258053888649
4941000000.0 0.46756792650505 -0.8883153081942957
4944000000.0 0.4879722996394158 -0.8363971220212514
4947000000.0 0.49910846471366077 -0.8686022540177798
4950000000.0 0.45679917256898456 -0.866278497089713
4953000000.0 0.4880648951407584 -0.9355920698329899
4956000000.0 0.4654281842067445 -0.9137615365567793
4959000000.0 0.46869230195131734 -0.9170622992454105
4962000000.0 0.47535132051512763 -0.9463913661745316
4966000000.0 0.5313121674844316 -0.930718936934638
4969000000.0 0.517054246802511 -0.906778504731999
4972000000.0 0.4839629567567415 -0.9200133668283701
4975000000.0 0.5231555771180126 -0.8765701086124474
4978000000.0 0.4968114028676535 -0.8904005024645815
4981000000.0 0.4802046913088747 -0.916568365333509
4984000000.0 0.5152997702128348 -0.9066057629108306
4988000000.0 0.5069944310518844 -0.8930776873820856
4991000000.0 0.5671183025103792 -0.8882659183339499
4994000000.0 0.5226352033684383 -0.8870000762064606
4997000000.0 0.49939541227575507 -0.8937578363218315
5000000000.0 0.5260549257948043 -0.9219233683979662
5003000000.0 0.5283671468557936 -0.9325389187944263
5006000000.0 0.523844260277396 -0.9301166806171153
5009000000.0 0.5066690143127189 -0.9263117130382099
5012000000.0 0.5098438249083925 -0.911195473703127
5016000000.0 0.5529010210226346 -0.921174847372877
5019000000.0 0.49706544206680947 -0.8956936336009172
5022000000.0 0.5236883180724892 -0.90792650085793
5025000000.0 0.5175289309341697 -0.9743921011482173
5028000000.0 0.46799388399906183 -0.8829272465190207
5031000000.0 0.5012910569941389 -0.9108668131393519
5034000000.0 0.49049822918029873 -0.9439495637822828
5038000000.0 0.4674334749427622 -0.8535096334336609
5041000000.0 0.564061180991031 -0.8859375392148375
5044000000.0 0.5066767945940731 -0.8433194321167481
5047000000.0 0.520221983244903 -0.9019325890771557
5050000000.0 0.5465756826430148 -0.8342963551959927
5053000000.0 0.5415628447031708 -0.9372177479006586
5056000000.0 0.5676193844386586 -0.8916146077662832
5059000000.0 0.544345830271168 -0.886149675484431
5062000000.0 0.5147773206286528 -0.929440631171548
5066000000.0 0.5462556764406389 -0.8665018096474406
5069000000.0 0.5264113410929234 -0.9106231113907484
5072000000.0 0.5139395408392802 -0.8708619793644081
5075000000.0 0.528239349097714 -0.9039400079577925
5078000000.0 0.5041365385332963 -0.8729910167031728
5081000000.0 0.5037598463705575 -0.832053998430978
5084000000.0 0.5375349343241906 -0.9304729737016
5088000000.0 0.47117829019620333 -0.8792693815995327
5091000000.0 0.4754267654961629 -0.9097345748707059
5094000000.0 0.5631430116147325 -0.9067877474724649
5097000000.0 0.5663816796813625 -0.8382867315982093
5100000000.0 0.4943417267870029 -0.8934394324465084
5103000000.0 0.47004436300689495 -0.8896692321964106
5106000000.0 0.5638040580409545 -0.9126723862497202
5109000000.0 0.5491379559107263 -0.8980843797584384
5112000000.0 0.4719694236111669 -0.9262889697544215
5116000000.0 0.49540469589518565 -0.8536062860828939
5119000000.0 0.4810174004458653 -0.8928688850051887
5122000000.0 0.5139502330186655 -0.8663831552703865
5125000000.0 0.5480870670165114 -0.8596379267983577
5128000000.0 0.4926812259997747 -0.9128171303104151
5131000000.0 0.5120925964615363 -0.8773339816136774
5134000000.0 0.5419886548723188 -0.8655516586067127
5138000000.0 0.5731800317682563 -0.8812947590679352
5141000000.0 0.5411272102678395 -0.8535462418659923
5144000000.0 0.5300537483183828 -0.8740656031838809
5147000000.0 0.5439936522387079 -0.9287959704038942
5150000000.0 0.5178902341383629 -0.9158175097893839
5153000000.0 0.5269695165185492 -0.9058349535245656
5156000000.0 0.5152865047791704 -0.9026375502890024
5159000000.0 0.5423191698788363 -0.9019479914718871
5162000000.0 0.5195066019607463 -0.8811694020956344
5166000000.0 0.5525452620360656 -0.8913327557843534
5169000000.0 0.5545851930441931 -0.9071412316863102
5172000000.0 0.49909752072077407 -0.8765450084605252
5175000000.0 0.5582999675943487 -0.8837832376196748
