! Created with skrf 1.8.0 (http://scikit-rf.org).
# Hz S RI R 50.0 
!freq ReS11 ImS11
4000000000.0 0.49647527147835335 -0.9232617638173048
4003000000.0 0.4306471859432161 -0.9879285241196583
4006000000.0 0.3732457263965461 -0.9079869686564649
4009000000.0000005 0.44296354854103204 -0.9439666614568073
4011999999.9999995 0.5093190561325018 -0.9500099176336397
4016000000.0 0.39369598128512906 -0.9561845116247936
4019000000.0 0.40971076475379653 -0.9014530114176079
4022000000.0000005 0.5104325831878042 -0.9147461430015469
4025000000.0000005 0.4098162499711343 -1.0095925461352844
4027999999.9999995 0.4305714971716569 -0.9386294895950993
4030999999.9999995 0.4329363139170175 -0.8773659846454559
4034000000.0 0.3932490048498093 -0.9438221122311915
4038000000.0000005 0.3786978611421167 -0.946343699777332
4041000000.0000005 0.4468367415825764 -0.9383311954495392
4043999999.9999995 0.47584948578395325 -0.9302580644902455
4046999999.9999995 0.4412675425208585 -0.945025890238073
4050000000.0 0.43123012780616954 -0.9299526304745827
4053000000.0 0.4189500357316195 -0.9023032298015525
4056000000.0 0.4321715596900496 -0.9290173049842013
4059000000.0 0.45219821503139557 -0.9015658517601798
4062000000.0000005 0.4135378794707042 -0.9318671991287908
4066000000.0 0.38438715452385963 -0.844853982418965
4069000000.0 0.4279850205458304 -0.9842727670899807
4072000000.0 0.4485364043217134 -0.913623339152841
4075000000.0 0.4763483375983233 -0.9332329747746442
4078000000.0000005 0.4255175780337659 -0.9553758818956554
4081000000.0000005 0.478476743738979 -0.8961521388773346
4083999999.9999995 0.4390286165288364 -0.9523460102567788
4088000000.0 0.4263279282186235 -0.8955700053489927
4091000000.0 0.42158837160939355 -0.9748895554401048
4094000000.0000005 0.4296542715056651 -0.9354684008595402
4097000000.0000005 0.44783288995034054 -0.9493381265461702
4099999999.9999995 0.4371322306098292 -0.9495662573330028
4102999999.9999995 0.46950919133252633 -0.9201837944036589
4106000000.0 0.4108152101227901 -0.9548153426054359
4109000000.0 0.39793349687407253 -0.9313463458158499
4112000000.0 0.42327977290236474 -0.9783771032799438
4115999999.9999995 0.4060374766275314 -0.9238186464351106
4119000000.0 0.42163558948489627 -0.9430005385608615
4122000000.0 0.3989987573059701 -0.9377910572448048
4125000000.0 0.4078921967596312 -0.9715211059126795
4128000000.0 0.46151814951941644 -0.9053687808205584
4131000000.0 0.40390676122631963 -0.8932709531499464
4134000000.0000005 0.45125018713708515 -0.9123987749755503
4138000000.0 0.3792263567582291 -0.916888614005918
4141000000.0 0.43115202991213186 -0.9343677128541051
4144000000.0 0.4393302496197601 -0.9243576455902353
4147000000.0000005 0.4019840431451641 -0.9240918114439995
4150000000.0000005 0.42453427893302387 -0.9908476061397583
4152999999.9999995 0.39910300701194223 -0.9238473780494522
4155999999.9999995 0.4598905561989905 -0.9517628135906222
4159000000.0 0.39452061751150963 -0.9143510565736358
4162000000.0 0.4323525633918177 -0.9075994907141287
4166000000.0000005 0.3954752481521694 -0.9671955479557224
4168999999.9999995 0.39027092753746967 -0.9290044617910482
4171999999.9999995 0.4233136891118476 -0.9348647899184512
4175000000.0 0.42459793348049696 -0.9182874798838554
4178000000.0 0.4131357937185314 -0.9318776949713383
4181000000.0 0.378221403981531 -0.9383463407333031
4184000000.0 0.4116400928425493 -0.9148296156931224
4187999999.9999995 0.3916034781371397 -0.9513138947241568
4191000000.0 0.46052644706983814 -0.9166733127153742
4194000000.0 0.4190837728165667 -0.9325791273808962
4197000000.0 0.4210871411312822 -0.9504068111967499
4200000000.0 0.4348819728031978 -0.930199529705814
4203000000.0000005 0.4208332861168468 -0.9303655618325934
4206000000.0000005 0.4066230995802047 -0.9642528063894974
4208999999.9999995 0.4045007446984208 -0.910341606116692
4211999999.9999995 0.38567158917949323 -0.9435273733092644
4216000000.0 0.43048830571321706 -0.9351538167562957
4219000000.0000005 0.4149048657713652 -0.9324338679658497
4222000000.0000005 0.4057677326357432 -0.942825972854119
4224999999.9999995 0.4023022397146895 -0.9160095120981478
4227999999.9999995 0.4050755345087641 -0.9422333055588386
4231000000.0 0.4040626907741923 -0.9396108092150438
4234000000.0 0.40644105161811156 -0.9491061790072284
4238000000.0000005 0.384003989898707 -0.9368864556499568
4240999999.9999995 0.3752155098447216 -0.9309469996903381
4244000000.0 0.4000320111654322 -0.9306371587813895
4247000000.0 0.3985666866761598 -0.93678190382481
4250000000.0 0.39475489599447244 -0.9092546656348129
4253000000.0 0.39231033676866783 -0.9278138197197664
4256000000.0 0.4141286548959456 -0.9698995137978799
4259000000.0000005 0.37334170409063383 -0.9044734183453521
4261999999.9999995 0.37016244205512916 -0.9298185394559102
4266000000.0 0.3890399471924075 -0.9553855779326363
4269000000.0 0.4058357667125337 -0.9234262690647154
4272000000.0000005 0.4162299685863024 -0.9366951715835018
4275000000.0000005 0.3922155829085684 -0.9341477067488125
4277999999.9999995 0.4301722161321116 -0.9721551713287024
4280999999.9999995 0.40689622219901533 -0.9236996069825334
4284000000.0 0.3579610804181871 -0.9535860477724472
4288000000.0000005 0.4335606806042783 -0.9203102716188081
4291000000.0000005 0.3891833007496582 -0.8922554161082275
4293999999.9999995 0.3776184765173512 -0.9284467673911017
4297000000.0 0.40657266421177846 -0.9091409531987218
4300000000.0 0.42814561146076013 -0.9124431275115739
4303000000.0 0.3696820321822072 -0.930180527511401
4306000000.0 0.41873717383527614 -0.9159207111469387
4309000000.0 0.40276547658641143 -0.9364790887526759
4312000000.0 0.4386435761798609 -0.9535213610372019
4316000000.0 0.3864947150197606 -0.9400656091300988
4319000000.0 0.3731889631121498 -0.8792662549566872
4322000000.0 0.3687866339440865 -0.9262925842166566
4325000000.0 0.38555719125086463 -0.9348705400623147
4328000000.0 0.387372335946909 -0.9367070653588526
4331000000.0 0.36572882164749143 -0.9572525015853498
4334000000.0 0.3906872254582768 -0.9236794970079981
4338000000.0 0.3981321843911173 -0.9256744663352137
4341000000.0 0.41232627674754335 -0.9330715120311733
4344000000.0 0.3955333278476692 -0.968473844967455
4347000000.0 0.3722898518856492 -0.9511894554904057
4350000000.0 0.3675088981346928 -0.9166045600105736
4353000000.0 0.38881085305094676 -0.8864469794889781
4356000000.0 0.35401538257298565 -0.9274932722579806
4359000000.0 0.3852138247776167 -0.8934088263487123
4362000000.0 0.30940812464915235 -0.977266228194953
4366000000.0 0.38446762587098166 -0.9616721260734329
4369000000.0 0.36855379265872457 -0.9083757034103632
4372000000.0 0.34676705950842424 -0.9435144906458748
4375000000.0 0.38902128693337934 -0.9263838449699718
4378000000.0 0.3568110361843797 -0.9146877601386324
4381000000.0 0.3665975558714648 -0.9023569458193763
4384000000.0 0.3875298403496834 -1.0031872148427645
4388000000.0 0.36696437441459373 -0.9132538372156269
4391000000.0 0.3752745657484944 -0.9509989578666036
4394000000.0 0.3379692185692947 -0.9251641402446447
4397000000.0 0.3474975625831054 -0.9377600695734805
4400000000.0 0.36390962349234784 -0.967878781669223
4403000000.0 0.36887294510287416 -0.9476614781590299
4406000000.0 0.3331853148799186 -0.9566134648255136
4409000000.0 0.36916610170834663 -0.9789348763887044
4412000000.0 0.29860531657881956 -0.9632817105910656
4416000000.0 0.3549825602306936 -0.9358464440684231
4419000000.0 0.33149061841683586 -0.9370483440335262
4422000000.0 0.3545800202134614 -0.930831709681862
4425000000.0 0.37067413877942973 -0.9699892901877679
4428000000.0 0.33751487180314543 -0.9600079657809928
4431000000.0 0.3520010307902908 -0.960470254795408
4434000000.0 0.33589991875584685 -0.9496547000159229
4438000000.0 0.3556694095342747 -0.9560439940588741
4441000000.0 0.3456348274172354 -0.9564721263499991
4444000000.0 0.34841262161953007 -0.9186845152800526
4447000000.0 0.3225964810757689 -0.9637430444627255
4450000000.0 0.34075051706508186 -0.9405864371400101
4453000000.0 0.34537602149248886 -0.9644439724120906
4456000000.0 0.31921576181669004 -0.9310918374542545
4459000000.0 0.3203273407640437 -0.91775469930311
4462000000.0 0.3531931483215147 -1.0068320177637067
4466000000.0 0.34815432242638267 -0.9901896229975171
4469000000.0 0.34281244315540105 -0.9589795565944049
4472000000.0 0.3257701286522436 -0.9766214762640926
4475000000.0 0.32546818281001366 -0.9401855954293707
4478000000.0 0.31610792291017137 -0.9924413201844225
4481000000.0 0.31797969878983845 -0.9270624010424744
4484000000.0 0.27899094682859216 -0.9687670474823233
4488000000.0 0.3092400092947844 -0.9474602188321761
4491000000.0 0.31662017917192886 -0.9508814082185442
4494000000.0 0.31237456381291545 -0.9454006316272612
4497000000.0 0.34466732990942905 -0.9505220319503593
4500000000.0 0.3228774754021088 -0.9420134823516235
4503000000.0 0.3313717035459337 -0.9796072529445048
4506000000.0 0.30241541771921004 -0.9622720560320369
4509000000.0 0.30895905297348325 -0.9422813058315154
4512000000.0 0.3089500209831499 -0.9324637720907971
4516000000.0 0.3109178851668551 -0.9856319113931026
4519000000.0 0.31353955872762695 -0.9430711269004518
4522000000.0 0.31139194651078256 -0.956949254624382
4525000000.0 0.33055977475715564 -0.9506867840210855
4528000000.0 0.3225202306432692 -0.9608430320274896
4531000000.0 0.31472234468128324 -0.9640405514241424
4534000000.0 0.30364175370053315 -0.9453892076086725
4538000000.0 0.3135495136463932 -0.9575805673851114
4541000000.0 0.27765905379606615 -0.9532620369281712
4544000000.0 0.30441952068183403 -0.9560092080999119
4547000000.0 0.33239866804861384 -0.9649250089745126
4550000000.0 0.2828303334528706 -0.9805097638297403
4553000000.0 0.29812146964386244 -0.9620869319948402
4556000000.0 0.2947751291314141 -0.9562508487501657
4559000000.0 0.28809872188472263 -0.9735653610497481
4562000000.0 0.32157890741190825 -0.9633461155435288
4566000000.0 0.2930841182262237 -0.971960378869537
4569000000.0 0.28836042814954405 -0.9472581475359056
4572000000.0 0.2874382705453011 -0.9578963123416552
4575000000.0 0.27324554231091724 -0.9866280521260749
4578000000.0 0.29768909150940737 -0.99050910981251
4581000000.0 0.28086454703744856 -0.9633504030275712
4584000000.0 0.277716803317076 -0.9600370169017277
4588000000.0 0.29149986126656185 -0.9817397125034538
4591000000.0 0.28158043693393836 -0.9826380945156308
4594000000.0 0.2519375828300993 -0.9764874491085198
4597000000.0 0.28095622827459016 -0.9783978843379624
4600000000.0 0.2549679691382129 -0.9641293073413336
4603000000.0 0.26155616127839443 -0.9865430131223971
4606000000.0 0.29022208224604323 -0.9885019655779052
4609000000.0 0.28750257228717746 -0.9651814074395585
4612000000.0 0.2814563066426603 -0.9850817194737527
4616000000.0 0.27679738168315227 -0.9623604990426187
4619000000.0 0.25563303504645973 -0.9781449307899955
4622000000.0 0.2565749428431988 -0.9723779274568732
4625000000.0 0.23560472975247268 -0.959433280813567
4628000000.0 0.28792728955829683 -0.9948954055813762
4631000000.0 0.26522419337164516 -0.9792702440596194
4634000000.0 0.2514407261668552 -0.9809937335618902
4638000000.0 0.2799202599059304 -0.9782590888620345
4641000000.0 0.26132698059894355 -0.9612633193367496
4644000000.0 0.25609931700814725 -0.9649516965283861
4647000000.0 0.26407414954352193 -0.9969870882772938
4650000000.0 0.24988704392537026 -0.9649369828955029
4653000000.0 0.2577081274496872 -0.9843413839825348
4656000000.0 0.2579187024723869 -0.9875597959299226
4659000000.0 0.22998326811259748 -1.0023094462051638
4662000000.0 0.24292736886097957 -0.995168588449522
4666000000.0 0.2381520079226389 -0.9866933984835738
4669000000.0 0.24301696860254457 -0.9936198120710318
4672000000.0 0.22223235161396276 -1.0155125454068534
4675000000.0 0.23246497799609586 -1.0023762555250024
4678000000.0 0.2457956216571539 -0.9581420436040342
4681000000.0 0.20323882531623136 -1.0131229183378623
4684000000.0 0.21932877626597067 -1.0023269562148176
4688000000.0 0.22251968574171072 -0.9775042415041828
4691000000.0 0.26470086515252644 -1.0014587331948808
4694000000.0 0.2608795663265109 -0.9765561373795509
4697000000.0 0.18914652230363527 -0.9435775059637785
4700000000.0 0.24830731407435444 -0.9741625669952715
4703000000.0 0.2948646273791552 -0.950960064351128
4706000000.0 0.2224090602855543 -0.9993467241482903
4709000000.0 0.18828829943240039 -0.9816626535055472
4712000000.0 0.22665456658210006 -0.9754741631685513
4716000000.0 0.19482311017763965 -1.0100285987374347
4719000000.0 0.23592861337513296 -0.9848985908249065
4722000000.0 0.26007115885433557 -0.9686838966158621
4725000000.0 0.25475563626409875 -0.986511090679875
4728000000.0 0.23818560579380982 -0.9733065669473807
4731000000.0 0.23121020937657843 -1.029706161335153
4734000000.0 0.23719551334085678 -0.9952384009941055
4738000000.0 0.2686905923047516 -1.0329560290704816
4741000000.0 0.2226712462311652 -1.020907459095797
4744000000.0 0.20260850135386105 -1.0235547724904224
4747000000.0 0.24158614167300854 -0.9310536221101021
4750000000.0 0.2386230317568207 -1.0287908201753375
4753000000.0 0.2520648505438043 -1.0078057640779345
4756000000.0 0.22332379399703856 -1.0197375583888066
4759000000.0 0.24611639796967982 -0.9929005720517603
4762000000.0 0.17453791589737394 -1.0296379413107706
4766000000.0 0.22372304311570615 -1.0000012448288194
4769000000.0 0.19387824750823535 -0.985928082796646
4772000000.0 0.2469626962809574 -0.9924417006578725
4775000000.0 0.19299403623240385 -1.0656926052539997
4778000000.0 0.19704181812255295 -1.0119380241526228
4781000000.0 0.22136276042983036 -0.991660166117731
4784000000.0 0.2195018333299102 -1.01092887419223
4788000000.0 0.1886524926317775 -1.0183062133419687
4791000000.0 0.21609540814919023 -0.9765731599068851
4794000000.0 0.23957736101255714 -1.0195893837537116
4797000000.0 0.19171033912411614 -0.9735276302190926
4800000000.0 0.2099159419651727 -0.9948406752584773
4803000000.0 0.1509437384925328 -0.9958382541405476
4806000000.0 0.211119877292675 -1.0248782518076103
4809000000.0 0.1630643262089252 -1.0324081789447146
4812000000.0 0.14773319329538354 -1.0053078846235715
4816000000.0 0.21643106118837202 -0.9693483368532562
4819000000.0 0.21718161596182017 -1.0246724572426245
4822000000.0 0.23043288536040757 -1.0332420535315143
4825000000.0 0.23972358359260554 -1.0320690485636983
4828000000.0 0.1827582414158339 -1.0037178227392662
4831000000.0 0.12545509771824348 -1.0259754144174713
4834000000.0 0.21534174219195226 -1.0158871926741537
4838000000.0 0.16127162173993143 -1.0444809112480187
4841000000.0 0.16630253507199197 -0.9994266938033025
4844000000.0 0.21149422590185232 -1.0242439836142934
4847000000.0 0.1941496989815927 -0.9743253808370237
4850000000.0 0.18640899048655854 -1.0345323628388188
4853000000.0 0.1792338006943647 -0.9858606680873934
4856000000.0 0.1849810645397329 -1.0090893221034978
4859000000.0 0.15853008257726434 -1.0711981929920096
4862000000.0 0.19769421162893033 -0.9971282547867126
4866000000.0 0.15917703017645904 -1.0285267141175645
4869000000.0 0.16484492493757083 -1.021338174708356
4872000000.0 0.16255201803762928 -1.0517563064971291
4875000000.0 0.24728293390440056 -1.054060174711891
4878000000.0 0.17747797533460455 -1.0329856351073763
4881000000.0 0.15405398844906892 -1.0758271892673938
4884000000.0 0.18783018475298857 -1.0249714312422693
4888000000.0 0.21975857524020218 -0.9892780886895732
4891000000.0 0.20170666950451877 -1.0357445739091922
4894000000.0 0.1660640985834545 -1.0328703484573039
4897000000.0 0.20065776153359433 -1.0230566517502484
4900000000.0 0.18919827879083706 -1.0701172398624608
4903000000.0 0.17522061643277614 -1.0230437605445053
4906000000.0 0.17842345822868882 -1.0316462013663001
4909000000.0 0.13978139446582621 -1.013096945301989
4912000000.0 0.14747614799249376 -1.0369256420216826
4916000000.0 0.18484488353488948 -1.0532103279561975
4919000000.0 0.1967914182176288 -1.0258506578269055
4922000000.0 0.16001055099866568 -1.0072882142983006
4925000000.0 0.11618459091638195 -1.0256289186116223
4928000000.0 0.21210848703156948 -1.0245687214480939
4931000000.0 0.18494765826182974 -1.0376594854997419
4934000000.0 0.16085380176900116 -0.9927260459600756
4938000000.0 0.10306841313885107 -0.9919842872577465
4941000000.0 0.1561780926502636 -1.0057134954632756
4944000000.0 0.1641340767760966 -0.9468568478739949
4947000000.0 0.14882335335321079 -0.9844288167334558
4950000000.0 0.18175116016840814 -1.0094128390668193
4953000000.0 0.0983977923780548 -1.0466707240282929
4956000000.0 0.16212761704161144 -1.0452987707181338
4959000000.0 0.08761284444335798 -1.0139945559213372
4962000000.0 0.09960787750370148 -1.0597034599522934
4966000000.0 0.17254646798408002 -1.0538392615914964
4969000000.0 0.1717347575226883 -1.0811575691700575
4972000000.0 0.14814414096376355 -1.0397506127950427
4975000000.0 0.17380818411057125 -0.9765320048368271
4978000000.0 0.13279114256020685 -1.0371305142160678
4981000000.0 0.11699023262449221 -1.0304841814222057
4984000000.0 0.1422632465504181 -1.007988091586375
4988000000.0 0.17096552824431488 -0.9945215875396596
4991000000.0 0.1759513401643844 -1.05259612975041
4994000000.0 0.13638785903048978 -1.0210109442197757
4997000000.0 0.10796685727991367 -1.0408568124981001
5000000000.0 0.15287339605902583 -1.0829967080684457
5003000000.0 0.1363328135587759 -1.0682762314378864
5006000000.0 0.12421205966130872 -1.072831080235751
5009000000.0 0.11964105513270207 -1.0357504895453797
5012000000.0 0.12070373746113838 -1.0584164723880392
5016000000.0 0.16371336480262377 -1.0366506825472817
5019000000.0 0.15138776142364396 -1.0276553662098484
5022000000.0 0.14380224947935072 -1.034315948043417
5025000000.0 0.14494543900866425 -1.0791971793782809
5028000000.0 0.11976336018060757 -1.0419457343193885
5031000000.0 0.09945715093260504 -1.0502695655415515
5034000000.0 0.1076556877963955 -1.0943518469426565
5038000000.0 0.10553915922864382 -1.009902640545052
5041000000.0 0.1318091786985992 -1.019605335641363
5044000000.0 0.13467276500831105 -1.0139913256321313
5047000000.0 0.10105462722049241 -1.0180888341904135
5050000000.0 0.1749477766020987 -1.0289177593029666
5053000000.0 0.09896579169494213 -1.0519941658857066
5056000000.0 0.13301334408213616 -1.03080893397598
5059000000.0 0.12920609089627366 -1.0366803809076461
5062000000.0 0.049439109691890304 -1.0579211920902054
5066000000.0 0.1050998240326445 -1.0296606970712798
5069000000.0 0.12040133415724619 -1.0737800504826027
5072000000.0 0.12393869006553038 -1.0190838247619616
5075000000.0 0.11108717092469184 -1.0106091342214252
5078000000.0 0.03979515163000347 -1.053928308273282
5081000000.0 0.013236160056281143 -1.0646870175752812
5084000000.0 0.11237671389968734 -1.0643424000344166
5088000000.0 0.09905454876894182 -1.0613543051184
5091000000.0 0.05187269046631504 -1.042074282469487
5094000000.0 0.06765636662688196 -1.0705810210149374
5097000000.0 0.0963878702511034 -0.998883206290708
5100000000.0 0.09106556328398485 -1.0291403002141049
5103000000.0 0.06016886389948345 -1.066788669458588
5106000000.0 0.062331199739355914 -1.023578244956688
5109000000.0 0.07607973116739941 -1.0010895289376232
5112000000.0 0.014184804027533082 -1.0592536817347038
5116000000.0 0.10020660346657534 -1.0276154349065076
5119000000.0 0.006539883836831961 -1.038253813204131
5122000000.0 0.06921457040198947 -1.0376250241867107
5125000000.0 0.11652811302503346 -0.9757085154690393
5128000000.0 0.056266672841450205 -1.031078101276694
5131000000.0 0.0783794034682474 -1.0836296282872708
5134000000.0 0.06166811579635323 -1.0365541259955213
5138000000.0 0.08631327462571425 -1.0314553320093756
5141000000.0 0.08922788905501677 -1.0777052377802359
5144000000.0 0.06810004682091281 -1.0093742757116586
5147000000.0 0.031155963526067976 -1.0483264817937048
5150000000.0 0.06816438036450162 -1.0458241214633237
5153000000.0 0.02628482394922116 -1.0654371363277106
5156000000.0 0.09657397702597714 -1.0505588155677454
5159000000.0 0.060843829655128634 -1.0916264484219418
5162000000.0 0.010948566749876043 -1.0345604243939925
5166000000.0 0.049307358345957286 -1.012239737007875
