! Created with skrf 1.8.0 (http://scikit-rf.org).
# Hz S RI R 50.0 
!freq ReS11 ImS11
4000000000.0 0.545497717159541 -0.7878041625836488
4003000000.0 0.5433812014395268 -0.9181771540037064
4006000000.0 0.5071821547961627 -0.8641122819305944
4009000000.0000005 0.5320922478409472 -0.8637780593180259
4011999999.9999995 0.6597846423364153 -0.8656858621828034
4016000000.0 0.5273947437849709 -0.9388847839104371
4019000000.0 0.5324541352427081 -0.8773942116218142
4022000000.0000005 0.6103049685432501 -0.8841589224470853
4025000000.0000005 0.48842480795540366 -0.906327430446064
4027999999.9999995 0.5106893045058162 -0.915143688815941
4030999999.9999995 0.5164538252816073 -0.8366423050454377
4034000000.0 0.4999588267997685 -0.8814231177592521
4038000000.0000005 0.4795222546490126 -0.8827094103761937
4041000000.0000005 0.5176313758285369 -0.8891362039402735
4043999999.9999995 0.5868790325541018 -0.921849413008643
4046999999.9999995 0.5947883115635343 -0.9133945562041139
4050000000.0 0.5131320865075433 -0.8810142134416216
4053000000.0 0.4982932113180418 -0.8969229722076457
4056000000.0 0.5335733090661281 -0.8514540723699053
4059000000.0 0.5196855401717728 -0.8323258842179696
4062000000.0000005 0.472056602979525 -0.8855998834462714
4066000000.0 0.48700453102779995 -0.8008947384972936
4069000000.0 0.5058394541460536 -0.9207400029786492
4072000000.0 0.5618807661419974 -0.8813317678800865
4075000000.0 0.5815146971140214 -0.8789767552755802
4078000000.0000005 0.5134249480229521 -0.908325410579192
4081000000.0000005 0.5813832139511788 -0.8805692155135156
4083999999.9999995 0.5291609529613774 -0.87386536079526
4088000000.0 0.5528712622037638 -0.8374645481841688
4091000000.0 0.5716229722730692 -0.9208321817609786
4094000000.0000005 0.5546328581690652 -0.8788022611174182
4097000000.0000005 0.5387370057389123 -0.8689353369444638
4099999999.9999995 0.5387143949264289 -0.9116820285476772
4102999999.9999995 0.5218962494217245 -0.8811184098336389
4106000000.0 0.5516977503397654 -0.8726847678337445
4109000000.0 0.5018106311839713 -0.8656185642545603
4112000000.0 0.520251831262067 -0.8853963211828937
4115999999.9999995 0.5497250159690523 -0.8716013507322088
4119000000.0 0.5578949113636832 -0.8556141905510032
4122000000.0 0.5198366290911213 -0.8833557284096024
4125000000.0 0.5542821061805274 -0.9306464508924484
4128000000.0 0.5375777896115977 -0.8336693356673018
4131000000.0 0.5289152220519205 -0.8565215011973635
4134000000.0000005 0.5479728000590441 -0.842565515898836
4138000000.0 0.4601341756723491 -0.8445551411988701
4141000000.0 0.5113921046396485 -0.8690344063020364
4144000000.0 0.5560071642657991 -0.8574108809325077
4147000000.0000005 0.5193380938664262 -0.8673336757124759
4150000000.0000005 0.5669207961712823 -0.8683900635685181
4152999999.9999995 0.5461093344105651 -0.8672801527195413
4155999999.9999995 0.5660931849488837 -0.9158583851217736
4159000000.0 0.5464585525280271 -0.8578806436080717
4162000000.0 0.5317468303287788 -0.8490103592424575
4166000000.0000005 0.541345991017655 -0.8792903642355687
4168999999.9999995 0.5167523090027045 -0.833682750505722
4171999999.9999995 0.5370547067305746 -0.8570884484475462
4175000000.0 0.5376290834995062 -0.8529799687368679
4178000000.0 0.5533757338248563 -0.8568464315785448
4181000000.0 0.5464661531372936 -0.8530536991844914
4184000000.0 0.528991261340445 -0.8584591664774073
4187999999.9999995 0.514029735781621 -0.8502200956955827
4191000000.0 0.5563519801586417 -0.8340662734396944
4194000000.0 0.5441006105078556 -0.8516405501607238
4197000000.0 0.5711086108035834 -0.8553383532806969
4200000000.0 0.545807402148917 -0.8516704002467145
4203000000.0000005 0.5572671803751974 -0.8742324114353162
4206000000.0000005 0.5490231937197878 -0.8852379976044733
4208999999.9999995 0.5345032623944934 -0.8377752865913907
4211999999.9999995 0.5102017322262218 -0.8789931262261078
4216000000.0 0.5427662342588397 -0.8547226121889282
4219000000.0000005 0.5648839723925589 -0.8660005394595397
4222000000.0000005 0.5254963140417938 -0.862101278722803
4224999999.9999995 0.5410458567199795 -0.847517719022624
4227999999.9999995 0.5426596972030395 -0.8803303372643521
4231000000.0 0.541499857714194 -0.8666805701597571
4234000000.0 0.5413374394859969 -0.8840945579045798
4238000000.0000005 0.5129784782261625 -0.8864419195240347
4240999999.9999995 0.5187151554699123 -0.851122897942197
4244000000.0 0.5559594972708461 -0.8550168920948393
4247000000.0 0.5628149466006156 -0.8511978606186946
4250000000.0 0.5271457646968587 -0.8729954860779444
4253000000.0 0.5237059728861948 -0.8533105675689139
4256000000.0 0.5377545628277478 -0.8851114360842613
4259000000.0000005 0.5009323246054367 -0.863988528879522
4261999999.9999995 0.5030822786033055 -0.8627671089921859
4266000000.0 0.5353800011989689 -0.8954714584273905
4269000000.0 0.5513913534396765 -0.8566207211662142
4272000000.0000005 0.5296610402798152 -0.8598654919088029
4275000000.0000005 0.5479269180098657 -0.8671345568076155
4277999999.9999995 0.550414795185096 -0.8807302578860075
4280999999.9999995 0.5545706039271887 -0.8701721918735961
4284000000.0 0.5076720000639254 -0.8885600750509559
4288000000.0000005 0.5802037066409321 -0.8341055110956875
4291000000.0000005 0.5268462689505573 -0.84776305509993
4293999999.9999995 0.5354643797152487 -0.8116106728729884
4297000000.0 0.5545500337400056 -0.8342971340805363
4300000000.0 0.5394720590274348 -0.8264547847878703
4303000000.0 0.5297133017476852 -0.8450169781733827
4306000000.0 0.5603245825262381 -0.8572069936003628
4309000000.0 0.5167113218190569 -0.8452584623462187
4312000000.0 0.5676831551133891 -0.8515169824678778
4316000000.0 0.5599800063419061 -0.8854216457290025
4319000000.0 0.5202216350486528 -0.8298644140753041
4322000000.0 0.4989516396638845 -0.8475939783233295
4325000000.0 0.5488560177946721 -0.8333317259233181
4328000000.0 0.5419140293420128 -0.8500399376165393
4331000000.0 0.5220701671875343 -0.8745195433263218
4334000000.0 0.5095132683135234 -0.8664223667858147
4338000000.0 0.5473537296821585 -0.8528979691258027
4341000000.0 0.584326510258669 -0.8661580863955335
4344000000.0 0.5366865565229518 -0.8803441137460862
4347000000.0 0.5060990470769697 -0.8872084314404807
4350000000.0 0.5001061924573069 -0.8242319005627706
4353000000.0 0.537008217798053 -0.8295644130034541
4356000000.0 0.5276462164123066 -0.8813223488504035
4359000000.0 0.4994054117898452 -0.8213006622153963
4362000000.0 0.4903722917798955 -0.8722194361915927
4366000000.0 0.5266303367325131 -0.8636272290074305
4369000000.0 0.5110215788040497 -0.8333261656549347
4372000000.0 0.49309049959515444 -0.8821106247027348
4375000000.0 0.5374959517905533 -0.855255444213329
4378000000.0 0.5160451371244139 -0.8255127944256639
4381000000.0 0.538337124641809 -0.8398981730531201
4384000000.0 0.5533927727622621 -0.9068876240236607
4388000000.0 0.5223500177357788 -0.8375201067285127
4391000000.0 0.5516234274246683 -0.8713040932111773
4394000000.0 0.5115550061439036 -0.841734716340453
4397000000.0 0.5050637127652639 -0.8499478485290813
4400000000.0 0.5233324438623829 -0.8836288171698752
4403000000.0 0.5266102826071377 -0.8776536115534588
4406000000.0 0.5319506869698066 -0.8693248181909067
4409000000.0 0.5314973448600349 -0.8810915234207818
4412000000.0 0.4764389810967661 -0.8839226804773221
4416000000.0 0.5072237588709819 -0.8557322905994903
4419000000.0 0.5085074518420729 -0.8652194919400635
4422000000.0 0.5432318781444223 -0.847046439723828
4425000000.0 0.5573425544414101 -0.8560957068877935
4428000000.0 0.5133878896805671 -0.8745543976160661
4431000000.0 0.5434431852120214 -0.8878417661140726
4434000000.0 0.5136465428891503 -0.8676135091127177
4438000000.0 0.5323857533043769 -0.8768223187443469
4441000000.0 0.5299108939455616 -0.8753056030071419
4444000000.0 0.5096716279854206 -0.8467406240471935
4447000000.0 0.5002777328073993 -0.8655756645335969
4450000000.0 0.5302617242354517 -0.8445196787787042
4453000000.0 0.5348015811815295 -0.8835447577482256
4456000000.0 0.49370452547089316 -0.8502945136745681
4459000000.0 0.47985209384959115 -0.8414860616036437
4462000000.0 0.5554816524433098 -0.9170403594441088
4466000000.0 0.5233695347332507 -0.8956351738861648
4469000000.0 0.5364151546990646 -0.8569818503956215
4472000000.0 0.5079492625790394 -0.891414807113041
4475000000.0 0.5195244982160956 -0.839621544470485
4478000000.0 0.5354474761011605 -0.9148978150781955
4481000000.0 0.4868185641479014 -0.8596362789383161
4484000000.0 0.4641456249230101 -0.8793919606161171
4488000000.0 0.4880139213227885 -0.8519218220747806
4491000000.0 0.5102239678565222 -0.8627097109843971
4494000000.0 0.5067071140077681 -0.8368298446795972
4497000000.0 0.5345957652703425 -0.8632650206679504
4500000000.0 0.5188997340995174 -0.8690898886128915
4503000000.0 0.5190612238061021 -0.8773678532608397
4506000000.0 0.5016820500997345 -0.8620349959533244
4509000000.0 0.49437890940528484 -0.8542869209901607
4512000000.0 0.47876804234708237 -0.8599666428513038
4516000000.0 0.5300181209644828 -0.8675125061067607
4519000000.0 0.5137376970591383 -0.8533058643530518
4522000000.0 0.49950826121148506 -0.8713253301668585
4525000000.0 0.5269462991994289 -0.8534007281246616
4528000000.0 0.5232127499279113 -0.895821676104424
4531000000.0 0.5292359672058012 -0.8739808539702756
4534000000.0 0.49457512314820057 -0.8612152900667869
4538000000.0 0.5000056293155785 -0.8666414744103592
4541000000.0 0.4663846315481437 -0.8638460864977886
4544000000.0 0.5034883624905495 -0.8636738650723554
4547000000.0 0.5274895164282667 -0.8515461515479337
4550000000.0 0.4733820670655081 -0.9048739028385475
4553000000.0 0.5062568498240155 -0.8776989097725905
4556000000.0 0.4796069754595145 -0.8515697110132361
4559000000.0 0.501637197783719 -0.8759575806302657
4562000000.0 0.5316690789226921 -0.8898003559233849
4566000000.0 0.4993296180278084 -0.8772479053568512
4569000000.0 0.484272108061217 -0.8558562346827062
4572000000.0 0.5022012207657488 -0.8659727784318026
4575000000.0 0.47238491222927576 -0.8891941856614193
4578000000.0 0.5180816873518904 -0.8795673602731539
4581000000.0 0.49923570402543394 -0.8636396708033218
4584000000.0 0.5010676459493801 -0.8727549867261739
4588000000.0 0.5229051623983707 -0.8857885752388241
4591000000.0 0.5128109622301085 -0.86555528014083
4594000000.0 0.45880196662816675 -0.878014735088439
4597000000.0 0.5043859626387192 -0.8860052326409905
4600000000.0 0.4513442330003964 -0.8840959721135006
4603000000.0 0.4857546648909715 -0.8947885864848423
4606000000.0 0.504193580463963 -0.8898081103872126
4609000000.0 0.4877605270414048 -0.8751625726996536
4612000000.0 0.493898384905779 -0.8838730953548648
4616000000.0 0.48464974245840897 -0.8663698449581988
4619000000.0 0.4910225923277518 -0.8840882773229868
4622000000.0 0.507887383217132 -0.8729138942136871
4625000000.0 0.4578881186370634 -0.860367673207405
4628000000.0 0.505984252266658 -0.8493554111958539
4631000000.0 0.4783626122608243 -0.8837134103882139
4634000000.0 0.47552336498331776 -0.8772534221007291
4638000000.0 0.4957913885822238 -0.8904361316171929
4641000000.0 0.5087260814576542 -0.8785960834431206
4644000000.0 0.4991122364642152 -0.8749926883901133
4647000000.0 0.5030628028174692 -0.8900254623565552
4650000000.0 0.46379978852352916 -0.8820643199322225
4653000000.0 0.49307408695806876 -0.8796654938698272
4656000000.0 0.4876323453675149 -0.8842190029575031
4659000000.0 0.48627322643399484 -0.8759295812301996
4662000000.0 0.48476805920716626 -0.8990374591258344
4666000000.0 0.4726743767106487 -0.9070408712473552
4669000000.0 0.5111554965514419 -0.8881091519378231
4672000000.0 0.4729113667469559 -0.9007244043130197
4675000000.0 0.479393707916289 -0.9003765843528301
4678000000.0 0.47137188910902045 -0.8744690221162001
4681000000.0 0.46952339165003354 -0.8951922773866394
4684000000.0 0.4509921865782962 -0.9003339354871928
4688000000.0 0.4623429188504344 -0.8972326681955791
4691000000.0 0.5020479442024678 -0.8655339705953042
4694000000.0 0.48126113011922395 -0.8840550929573651
4697000000.0 0.4349304170685123 -0.8805658819786667
4700000000.0 0.4673390025729912 -0.8972996227573539
4703000000.0 0.5080523415437139 -0.8492125524057497
4706000000.0 0.45365742876709736 -0.9020174206042333
4709000000.0 0.49253257518727983 -0.889413466749546
4712000000.0 0.49947809840464596 -0.8909185742414412
4716000000.0 0.4767445248128792 -0.8808125497289984
4719000000.0 0.5032255956825549 -0.8878396620881817
4722000000.0 0.47708719687328877 -0.8807762944862892
4725000000.0 0.4701478612151948 -0.8838424384423672
4728000000.0 0.44687581519677233 -0.8850277188508763
4731000000.0 0.5014404483654606 -0.8979351011301917
4734000000.0 0.4956068862750779 -0.8771282505735833
4738000000.0 0.4915914575849046 -0.9232914527578291
4741000000.0 0.48687154295527174 -0.9325769120397189
4744000000.0 0.48316231925162306 -0.9005025084071367
4747000000.0 0.4986601665276778 -0.8524570853571856
4750000000.0 0.4806459078182684 -0.8848634905665783
4753000000.0 0.5089547481562613 -0.9059828884361918
4756000000.0 0.4663612458142558 -0.9149165830165068
4759000000.0 0.49318305600772794 -0.9232455919570048
4762000000.0 0.4625742697146043 -0.917740916947779
4766000000.0 0.48830902834586476 -0.8893454021727591
4769000000.0 0.47217044596848523 -0.8994175310983514
4772000000.0 0.4872467507687832 -0.9051773494476733
4775000000.0 0.5038103802661561 -0.9358668036207644
4778000000.0 0.5023891624655497 -0.8947303531722018
4781000000.0 0.4763847377696152 -0.8780098784362409
4784000000.0 0.48981311696496205 -0.8936692560404735
4788000000.0 0.4871386184035675 -0.9073232409183729
4791000000.0 0.4847146764376015 -0.8988700692961686
4794000000.0 0.5050344696923167 -0.9241636403989361
4797000000.0 0.4657259202340663 -0.8647874652731857
4800000000.0 0.46381606169550166 -0.8815291225642036
4803000000.0 0.44743314723149774 -0.9149404152083779
4806000000.0 0.4701083683212406 -0.9259608296300393
4809000000.0 0.4412963708497619 -0.9148681263423931
4812000000.0 0.465660401191056 -0.9187362314143415
4816000000.0 0.4805038806317503 -0.8805765698286694
4819000000.0 0.5027813992003013 -0.9059960574042818
4822000000.0 0.5124080101041281 -0.9205115108984603
4825000000.0 0.5320485056010831 -0.9119152080564311
4828000000.0 0.4568085997606357 -0.9115348927782709
4831000000.0 0.45070206810569396 -0.9300288955675923
4834000000.0 0.4851865852890225 -0.9027422522969479
4838000000.0 0.47734026697422116 -0.9227908702229018
4841000000.0 0.4607824702503214 -0.8979182520344574
4844000000.0 0.5120469420434377 -0.8836302554141332
4847000000.0 0.4904782501718349 -0.8683742801178488
4850000000.0 0.4710821925052351 -0.9378532914371323
4853000000.0 0.48323989201816303 -0.8815790469988938
4856000000.0 0.48816738195000475 -0.8938277466489076
4859000000.0 0.49263754893681266 -0.9351608401431677
4862000000.0 0.4744813796946156 -0.8716517648428781
4866000000.0 0.46006067926102967 -0.9309501381590851
4869000000.0 0.4638100430141204 -0.9139797232456884
4872000000.0 0.46164442586983434 -0.9383136507337494
4875000000.0 0.5467234273750967 -0.9192347595211394
4878000000.0 0.4750541138775108 -0.905767589103505
4881000000.0 0.46175535198019957 -0.9719861266975675
4884000000.0 0.5023428307163643 -0.897784382498998
4888000000.0 0.4934424870981919 -0.9029780655209867
4891000000.0 0.5188623817883365 -0.9215249188295318
4894000000.0 0.46555725873668713 -0.905831835703458
4897000000.0 0.4976399429937539 -0.8871156333309531
4900000000.0 0.5046086654388753 -0.8976273852413595
4903000000.0 0.5397098690251487 -0.9338996665288031
4906000000.0 0.4719233260044266 -0.9252836339167922
4909000000.0 0.47068050616164353 -0.9032830293105684
4912000000.0 0.46729495277351135 -0.9480368887701613
4916000000.0 0.5100432597068192 -0.9223937567639262
4919000000.0 0.5702305651694963 -0.8952577959629724
4922000000.0 0.49754377926198967 -0.8901284122848108
4925000000.0 0.4541364063919501 -0.9226636523461853
4928000000.0 0.5664577848358887 -0.8745776943858764
4931000000.0 0.5412349839805937 -0.9021151505725424
4934000000.0 0.46704085136810153 -0.8644630133457798
4938000000.0 0.454889928976262 -0.8888817954382343
4941000000.0 0.4894592870917759 -0.8570175773018555
4944000000.0 0.49446451532167823 -0.8196786502441238
4947000000.0 0.4673068408226329 -0.8774250511081162
4950000000.0 0.4726590385915015 -0.8971569627273536
4953000000.0 0.46343615535696897 -0.9577348810816907
4956000000.0 0.4836947098220632 -0.8934121727496899
4959000000.0 0.43045721250244795 -0.9001863062500537
4962000000.0 0.4756305180734044 -0.9109858437443882
4966000000.0 0.5482680977739913 -0.9077824799547676
4969000000.0 0.5461395633757989 -0.9553412285603692
4972000000.0 0.48437134459716835 -0.9246734749203666
4975000000.0 0.5247841878501787 -0.8809356081638855
4978000000.0 0.48160980111059004 -0.8925463480177087
4981000000.0 0.470143705637755 -0.90098415934069
4984000000.0 0.4559188626678955 -0.8953775256443812
4988000000.0 0.5117258998561534 -0.8896742875075565
4991000000.0 0.5591876503030837 -0.8929149580590227
4994000000.0 0.5072950073453453 -0.8975153378964593
4997000000.0 0.48519188475297104 -0.9261849817833807
5000000000.0 0.5066524123315657 -0.9441824066119844
5003000000.0 0.5255922545369763 -0.9172326981126563
5006000000.0 0.5326914504517514 -0.9424442327469721
5009000000.0 0.4927489048491329 -0.8966633422166749
5012000000.0 0.48010272482744254 -0.9097602317298692
5016000000.0 0.5553270197918372 -0.9131484681205713
5019000000.0 0.5194359794084478 -0.9105820739959956
5022000000.0 0.5056552650978878 -0.8932013677143139
5025000000.0 0.5510065827331307 -0.9611587287186647
5028000000.0 0.48739353208319136 -0.9147686246995117
5031000000.0 0.46307240259484284 -0.9007773054603656
5034000000.0 0.4649757330574759 -0.9438959786934218
5038000000.0 0.46322477349219293 -0.8905388313503277
5041000000.0 0.5433623954616472 -0.8780861666305895
5044000000.0 0.5084226667735978 -0.8558743496341489
5047000000.0 0.5154871199030171 -0.8884422800843694
5050000000.0 0.5553689161290245 -0.8372206700563597
5053000000.0 0.5350639507219168 -0.9296895257142339
5056000000.0 0.5422134169615841 -0.8667476324628923
5059000000.0 0.5485268632357846 -0.8595555210275272
5062000000.0 0.4606559577950125 -0.9440385531145723
5066000000.0 0.5369537404712994 -0.8758054933226804
5069000000.0 0.5235661665836169 -0.920957574021314
5072000000.0 0.5030039871372165 -0.9111897973476115
5075000000.0 0.5503501868714458 -0.8856707024446863
5078000000.0 0.4940732423068546 -0.9296668419663197
5081000000.0 0.5109654240452561 -0.8949821458762408
5084000000.0 0.5246150751591587 -0.8853292374564092
5088000000.0 0.4845893285115798 -0.8774570393731272
5091000000.0 0.5042397476062251 -0.9272263058017913
5094000000.0 0.5015388838089656 -0.8996948422551803
5097000000.0 0.5286040105232069 -0.8660705092736338
5100000000.0 0.5311122325255313 -0.9054269471810064
5103000000.0 0.5251000039373845 -0.8982976252328405
5106000000.0 0.5396525309786497 -0.9449970530076164
5109000000.0 0.5209579434079075 -0.8741345344717957
5112000000.0 0.46868297359293004 -0.9226604783228389
5116000000.0 0.486081952513319 -0.8794846814536252
5119000000.0 0.5157761714177171 -0.9223575170887424
5122000000.0 0.489572240456901 -0.8932917755296897
5125000000.0 0.5072850644814423 -0.8654420631055556
5128000000.0 0.501517259101766 -0.8948618582823853
5131000000.0 0.4838750349338604 -0.8617597985476808
5134000000.0 0.5540544807722074 -0.8786390364914389
5138000000.0 0.5465038661108477 -0.8643047407874115
5141000000.0 0.5264095284471981 -0.8812989078959304
5144000000.0 0.529060738291522 -0.8777940213120878
5147000000.0 0.5406866073195707 -0.8944596265079741
5150000000.0 0.5188956298672078 -0.9027346478930351
5153000000.0 0.5274009661928807 -0.9250843103683928
5156000000.0 0.5362168026868848 -0.9149516257006691
5159000000.0 0.5509090836734852 -0.9411942744269534
5162000000.0 0.5025937043242834 -0.870691933323595
5166000000.0 0.4872712951134395 -0.8794147063184035
5169000000.0 0.5332309721005329 -0.9793071291728701
5172000000.0 0.5206609329237618 -0.8988806874715178
5175000000.0 0.5681006097218493 -0.9019152365808389
