! Created with skrf 1.8.0 (http://scikit-rf.org).
# Hz S RI R 50.0 
!freq ReS11 ImS11
4000000000.0 0.025188968677592294 -0.9988288447396736
4003000000.0 0.02764710248487845 -1.0787812808941952
4006000000.0 0.005692502053357751 -1.0823871324597052
4009000000.0000005 0.004460339348774767 -1.0176134751952401
4011999999.9999995 0.07256951364287562 -1.0661830152689602
4016000000.0 -0.0007253051585456305 -1.0178316679423207
4019000000.0 0.021070408083299852 -1.035701667343004
4022000000.0000005 0.02455697088893699 -1.0624504017985104
4025000000.0000005 0.013951519965147596 -1.014008885276841
4027999999.9999995 -0.016320712340590293 -1.0389815411129595
4030999999.9999995 0.020090318969236187 -1.0117214619913202
4034000000.0 -0.028639095700967787 -1.0132607815772874
4038000000.0000005 0.021076573817615324 -1.025931168788346
4041000000.0000005 -0.025955722876622678 -1.0133915844630839
4043999999.9999995 0.0028908116132298767 -1.055758422053152
4046999999.9999995 -0.01629086197648691 -1.0471005622085203
4050000000.0 -0.03431514302715069 -1.0297587961254473
4053000000.0 -0.03701305494428489 -1.014134020706178
4056000000.0 0.008835601273735727 -1.0249864745492516
4059000000.0 -0.013502706802505204 -1.0096193037509844
4062000000.0000005 -0.04261364012852342 -1.0512743773586208
4066000000.0 -0.046226259738211026 -0.989676760631165
4069000000.0 -0.0709414121034302 -1.0518307064169379
4072000000.0 -0.07213329925016912 -1.0141503156297005
4075000000.0 -0.024153367073662835 -1.0286297139114908
4078000000.0000005 -0.044674403075961266 -0.9916747965437552
4081000000.0000005 -0.046026361008683 -1.0149443080613274
4083999999.9999995 -0.08577688529849081 -1.0351497228318618
4088000000.0 -0.0639485210579386 -1.0236065581180274
4091000000.0 -0.04568298235399941 -1.0516806080945085
4094000000.0000005 -0.07000068099680304 -0.9770278741974051
4097000000.0000005 -0.0861986921288193 -1.0173050309679983
4099999999.9999995 -0.10820272625117842 -1.006522355425179
4102999999.9999995 -0.07467717696547913 -1.027654431147677
4106000000.0 -0.1175110767549773 -1.036886893775864
4109000000.0 -0.0818122712466278 -1.0093094032474175
4112000000.0 -0.11884323316417966 -0.987016899203043
4115999999.9999995 -0.13408716647620716 -1.029698259606083
4119000000.0 -0.10195861468559067 -1.0030690713576427
4122000000.0 -0.1400310202165657 -0.986973870144756
4125000000.0 -0.13644199309181773 -1.0192020921239466
4128000000.0 -0.1371201901985194 -0.9968546664814109
4131000000.0 -0.16735668786641628 -1.0113702191158649
4134000000.0000005 -0.1372180983261695 -1.016645584643619
4138000000.0 -0.1479045515973202 -0.971613546182903
4141000000.0 -0.14321803754454493 -1.016877486465424
4144000000.0 -0.16134327027430564 -1.0082919118882356
4147000000.0000005 -0.16141731256754369 -1.0120718586191189
4150000000.0000005 -0.21335407723804764 -1.0190248895431795
4152999999.9999995 -0.15473265238415612 -1.0080788655498183
4155999999.9999995 -0.17822177145556287 -1.0172152001739805
4159000000.0 -0.18003820226715833 -0.9722604809193729
4162000000.0 -0.18340344525277646 -0.9881354887840773
4166000000.0000005 -0.21401186613303963 -1.0322388987028481
4168999999.9999995 -0.209018939401247 -0.9764374444178655
4171999999.9999995 -0.21961415395028722 -0.98381790377848
4175000000.0 -0.20621459085593105 -1.02161954394788
4178000000.0 -0.1998162798789876 -1.0025027121846617
4181000000.0 -0.2551793627443264 -0.9512312634368731
4184000000.0 -0.22009174982914476 -0.9579617813418102
4187999999.9999995 -0.23550253930955192 -0.9515130687834178
4191000000.0 -0.22948178579384426 -0.9767203432606337
4194000000.0 -0.25561688522465603 -0.9945105159460857
4197000000.0 -0.24409074886507068 -1.0042058845903679
4200000000.0 -0.23907725092041854 -1.0063323717864574
4203000000.0000005 -0.2676662905934203 -1.0073646424347262
4206000000.0000005 -0.2689416539126753 -0.9948802161642305
4208999999.9999995 -0.28585461659349903 -0.9590934863479705
4211999999.9999995 -0.3184911100771789 -0.9585562877945177
4216000000.0 -0.27340980506691737 -0.9975418725679752
4219000000.0000005 -0.308317745434342 -0.9723644085326106
4222000000.0000005 -0.2951631602858119 -0.9545154997037787
4224999999.9999995 -0.3197299535840011 -0.9517094233281987
4227999999.9999995 -0.33721890211492195 -0.95312812927746
4231000000.0 -0.3531171546385464 -0.9653964145653982
4234000000.0 -0.37584691687358085 -0.9586867525425726
4238000000.0000005 -0.3674201080683424 -0.9327662029344996
4240999999.9999995 -0.3703512316048042 -0.9077876521657866
4244000000.0 -0.3628196026828767 -0.920902807243197
4247000000.0 -0.36108876169606974 -0.9246796847524119
4250000000.0 -0.3817372466862118 -0.9109492188404981
4253000000.0 -0.3908627048494524 -0.9066975591355682
4256000000.0 -0.43136971950785313 -0.9756964311848144
4259000000.0000005 -0.4052066006782475 -0.8893106431594977
4261999999.9999995 -0.4456842399461989 -0.9040363452912807
4266000000.0 -0.4604235182337696 -0.9137658536737143
4269000000.0 -0.411736663966835 -0.8977663887753196
4272000000.0000005 -0.44033728011868956 -0.8964533524884256
4275000000.0000005 -0.44005906247646415 -0.9212866032475973
4277999999.9999995 -0.4789894000457883 -0.944775660297541
4280999999.9999995 -0.4560683905075648 -0.8968574460329974
4284000000.0 -0.5082920255370905 -0.8757411693539869
4288000000.0000005 -0.44248033893265054 -0.8828083770309967
4291000000.0000005 -0.4787284233639706 -0.8612146661526436
4293999999.9999995 -0.5163427034363726 -0.8673008338864459
4297000000.0 -0.4793856428169193 -0.8807619955573531
4300000000.0 -0.4946624733210491 -0.8419449216757806
4303000000.0 -0.5137438339260538 -0.8513446153846044
4306000000.0 -0.5318023451606738 -0.8694207033415768
4309000000.0 -0.5310746698181279 -0.8690641338014145
4312000000.0 -0.5515414768208493 -0.8701531486945817
4316000000.0 -0.5545837379535193 -0.844742855213897
4319000000.0 -0.5598106449768511 -0.8392541921396321
4322000000.0 -0.5958913170265265 -0.7995365366560044
4325000000.0 -0.6102668087780396 -0.8133764165340859
4328000000.0 -0.5852998638588695 -0.8061054731784941
4331000000.0 -0.6150101632136795 -0.7980839069745043
4334000000.0 -0.6244389535191298 -0.7879683475637433
4338000000.0 -0.6071302199514481 -0.8025768455277354
4341000000.0 -0.6398859160722585 -0.8075653583710183
4344000000.0 -0.6422679588243745 -0.8158478683328549
4347000000.0 -0.6821777486064217 -0.7685756306207967
4350000000.0 -0.6620587072673462 -0.750811033438017
4353000000.0 -0.6721616142194476 -0.7516993471918345
4356000000.0 -0.6964930510738 -0.7236703197829009
4359000000.0 -0.6983754924046655 -0.7185621012150969
4362000000.0 -0.7150655386168687 -0.7230873790731275
4366000000.0 -0.729539179494586 -0.7140248747034226
4369000000.0 -0.7172982103214749 -0.7027214949043198
4372000000.0 -0.7269663729297129 -0.6946112321039637
4375000000.0 -0.7181268396761157 -0.6900790658649665
4378000000.0 -0.7621500473279 -0.6737763529518003
4381000000.0 -0.7638653670046329 -0.6687499497362596
4384000000.0 -0.7869679513636583 -0.6623163451085707
4388000000.0 -0.7847770181370396 -0.6388988831212848
4391000000.0 -0.7888457600757879 -0.6375499073072601
4394000000.0 -0.8265704525731088 -0.6146451960213306
4397000000.0 -0.8287321766882468 -0.6183975951403726
4400000000.0 -0.8280307128459 -0.6030658932345183
4403000000.0 -0.8286358997957095 -0.5816642748248988
4406000000.0 -0.8500219516476414 -0.5734031499415098
4409000000.0 -0.8560497289720522 -0.5376959579977748
4412000000.0 -0.8409470178798917 -0.5667873615259118
4416000000.0 -0.8524634525280931 -0.5521352644679005
4419000000.0 -0.8802240370136818 -0.55216799946797
4422000000.0 -0.8853118485906878 -0.5194474724858764
4425000000.0 -0.8817263353765301 -0.4944173103668061
4428000000.0 -0.9081058710793783 -0.4671357952551677
4431000000.0 -0.8611862738725897 -0.4298161707206544
4434000000.0 -0.9347341769023298 -0.45391255081180787
4438000000.0 -0.88455189901839 -0.3994953655135382
4441000000.0 -0.9356272727207895 -0.38273978956290844
4444000000.0 -0.9553479327244547 -0.43467182359348583
4447000000.0 -0.9434903986706642 -0.3872731273985705
4450000000.0 -0.9667586374557648 -0.3569563854990621
4453000000.0 -0.9129335757689002 -0.34929626629113736
4456000000.0 -1.0106495670198978 -0.38146575177461295
4459000000.0 -1.0165397594267764 -0.3400598680034016
4462000000.0 -0.934546175716404 -0.30096617663064246
4466000000.0 -0.9814425739453689 -0.27836853586053095
4469000000.0 -1.0163836027923507 -0.2491215746105
4472000000.0 -0.9844954182809253 -0.21737602619186258
4475000000.0 -1.087241389842677 -0.19241366693028178
4478000000.0 -0.9788997716053512 -0.17919184820141393
4481000000.0 -1.0524143412163156 -0.19069481729429139
4484000000.0 -1.03455827268798 -0.1865953348526846
4488000000.0 -1.0372376999478263 -0.12401759689962988
4491000000.0 -1.0164990299018068 -0.14012356846121843
4494000000.0 -1.0673605463189564 -0.12067258223478539
4497000000.0 -1.0402476145218957 -0.08061161088890495
4500000000.0 -1.0146833395627564 -0.027470758754444657
4503000000.0 -1.0324586207323876 -0.035358803825894514
4506000000.0 -1.0743565233646533 0.024202285688620484
4509000000.0 -1.014702141769507 0.06931321164544796
4512000000.0 -1.0008143135388285 -0.001408987694391406
4516000000.0 -0.999236937745227 0.13809840916063265
4519000000.0 -1.02122495197668 0.10748861783804087
4522000000.0 -1.040762381402356 0.07856521285901508
4525000000.0 -1.0697962607621805 0.18395847557291867
4528000000.0 -1.0349086757696169 0.14805576746196403
4531000000.0 -0.9970902284334814 0.22060048401327376
4534000000.0 -1.0473182100548188 0.25863985242322385
4538000000.0 -1.0362872225262119 0.2357201415739871
4541000000.0 -1.0084299868137505 0.23630756472895437
4544000000.0 -1.0087691389126467 0.304838684823199
4547000000.0 -0.9926909958413411 0.34878978525599735
4550000000.0 -1.0340183834044252 0.34145227903114844
4553000000.0 -0.9548045563839692 0.38954004964568556
4556000000.0 -1.0257313134595964 0.3771994060478026
4559000000.0 -0.9978688833345002 0.3888770091258031
4562000000.0 -0.9432493618137554 0.4402552293080595
4566000000.0 -0.947668219839524 0.44125709959969334
4569000000.0 -0.9836606588320962 0.508771597862538
4572000000.0 -0.908782761237069 0.5091506288005693
4575000000.0 -0.8843097484123226 0.45446181702786764
4578000000.0 -0.8612258812786671 0.532041763390234
4581000000.0 -0.8617802455819088 0.5370490622293932
4584000000.0 -0.8467353278428386 0.6080072376936984
4588000000.0 -0.8327387475908382 0.6167618306041992
4591000000.0 -0.8126152354624302 0.6706575521414
4594000000.0 -0.8528104896276586 0.6496095785990504
4597000000.0 -0.7961317476765001 0.6942204984240703
4600000000.0 -0.8129109918269576 0.6933728417325113
4603000000.0 -0.753180325340681 0.6952392800705498
4606000000.0 -0.8166463824717671 0.7471658733584593
4609000000.0 -0.7131236855886453 0.7457085438839914
4612000000.0 -0.70053767038109 0.7484356756636911
4616000000.0 -0.6530349613338009 0.7805192511378054
4619000000.0 -0.6836994307960332 0.8434112766681926
4622000000.0 -0.611223923590744 0.8433621814752135
4625000000.0 -0.6490546127195921 0.8475658162830663
4628000000.0 -0.5771039524335517 0.9323367942616008
4631000000.0 -0.5704529725932599 0.921634748590111
4634000000.0 -0.5649727888115874 0.9014908894688816
4638000000.0 -0.5331556994072859 0.8951475410564051
4641000000.0 -0.517490640201437 0.9056019681461053
4644000000.0 -0.4576268453101573 0.8831758126171443
4647000000.0 -0.5053970659623948 0.8982982160850258
4650000000.0 -0.41771542748829665 0.9402042971738555
4653000000.0 -0.3846140774671582 0.9553950029679255
4656000000.0 -0.37870649035072157 0.9846431904784757
4659000000.0 -0.3723621413530661 0.9372958054748539
4662000000.0 -0.3449886001617447 0.913626839768474
4666000000.0 -0.2916080640344292 1.0385776435983405
4669000000.0 -0.33543587577218004 0.9937207857047593
4672000000.0 -0.2369433216896696 1.0517944316055534
4675000000.0 -0.24448473263547882 0.9838889558353824
4678000000.0 -0.24375758934353847 0.9830219640486055
4681000000.0 -0.1618571105533439 0.9998350368127665
4684000000.0 -0.18444034942426557 0.9883405087386208
4688000000.0 -0.13048433111162622 1.0349163242868629
4691000000.0 -0.16058542249303126 0.9773715112071096
4694000000.0 -0.09151236295640221 1.0199031233246196
4697000000.0 -0.07056401072691033 1.0454031258595475
4700000000.0 -0.10199094063437794 1.0261508865554196
4703000000.0 -0.020656384444673347 1.052265119671715
4706000000.0 -0.08566344931081155 0.9629193923296685
4709000000.0 0.011514134165870478 1.020642930870167
4712000000.0 0.051499825844063596 1.0417713349381843
4716000000.0 0.02060279326313055 1.0246879417192136
4719000000.0 0.11499508328109509 1.0502410232247286
4722000000.0 0.13833504661861232 1.0639608889659922
4725000000.0 0.15187423256953517 1.0018915400287858
4728000000.0 0.18050708262707654 1.0156343836790231
4731000000.0 0.1759484714621361 0.9863286594394901
4734000000.0 0.20516631600837476 1.0019515576531504
4738000000.0 0.20506418310581512 0.9586625304748388
4741000000.0 0.21849729365552217 0.9681913561962627
4744000000.0 0.2822679436966606 0.9734972848156415
4747000000.0 0.30092101560387036 1.0194372897724189
4750000000.0 0.31042721849415617 0.9280178817242454
4753000000.0 0.37543118521394375 0.9820529553389779
4756000000.0 0.3827664561582782 0.9377542802811683
4759000000.0 0.370951632549427 0.9494101780121235
4762000000.0 0.3497639256101238 0.941136697722757
4766000000.0 0.40593195424666195 0.9005911216047295
4769000000.0 0.43244122960673054 0.9634753806690881
4772000000.0 0.4863113118295083 0.9189777153360772
4775000000.0 0.4571602988878961 0.9067447133268451
4778000000.0 0.4230516854178876 0.9260974303894859
4781000000.0 0.4845818978078996 0.9161908813617881
4784000000.0 0.49215898275548975 0.9020238695728513
4788000000.0 0.4886034522815904 0.8816539733967855
4791000000.0 0.5457525448530155 0.8617380928899205
4794000000.0 0.5513740436061401 0.8050782144717462
4797000000.0 0.6061574035355368 0.8754623351180313
4800000000.0 0.6367930402626866 0.82487619904241
4803000000.0 0.5710124868855351 0.8400940449986095
4806000000.0 0.6012646807271169 0.7989639541650737
4809000000.0 0.594730424916595 0.7930422940831643
4812000000.0 0.6174962314509095 0.8123807221002229
4816000000.0 0.6922383945858034 0.7603116685521238
4819000000.0 0.6983413134493095 0.7497978964237333
4822000000.0 0.6823785997944067 0.7507771310525058
4825000000.0 0.6954213625603941 0.7134610810795651
4828000000.0 0.6960335865895947 0.7280980565199051
4831000000.0 0.6834185735023321 0.7360588113966963
4834000000.0 0.7422267865079579 0.6600681968628397
4838000000.0 0.7246978832077183 0.6841003369818732
4841000000.0 0.7597725007735127 0.6871687955938168
4844000000.0 0.7611951761004054 0.6610118837124586
4847000000.0 0.8078062449935595 0.6722660822057349
4850000000.0 0.7596397193722245 0.6352230566270751
4853000000.0 0.8048266021097692 0.6348900291827744
4856000000.0 0.815876636886675 0.6142359634267616
4859000000.0 0.7883838916061605 0.5795269592575351
4862000000.0 0.7935822344114448 0.6062434541762947
4866000000.0 0.8194987383696037 0.6006875801512208
4869000000.0 0.8190716357075307 0.5949149413808754
4872000000.0 0.8215506078427136 0.5530615970497255
4875000000.0 0.8589716759061049 0.5495437097065825
4878000000.0 0.8463200157192419 0.558134596048133
4881000000.0 0.8308349987958799 0.5264329314203678
4884000000.0 0.8702405488112005 0.5392004188093107
4888000000.0 0.8920284909814771 0.5380008239843668
4891000000.0 0.8781051223305134 0.5190750286730981
4894000000.0 0.8859516981347082 0.4994535176435047
4897000000.0 0.8846163153601176 0.4782245724741656
4900000000.0 0.8964226415693289 0.43974814336343826
4903000000.0 0.8892553827934917 0.46834493651761916
4906000000.0 0.9109793908367195 0.46459988358029214
4909000000.0 0.9116959249796845 0.44548032132189536
4912000000.0 0.9190678694499042 0.4127753219735274
4916000000.0 0.9091485043314517 0.4246823567830149
4919000000.0 0.9066596167981181 0.4169798968978648
4922000000.0 0.923119183700916 0.4227500294608197
4925000000.0 0.9092064617930433 0.38414459938417345
4928000000.0 0.941345060010079 0.378472578154882
4931000000.0 0.9530041537485194 0.38269809955427403
4934000000.0 0.920529261979199 0.3727783525555077
4938000000.0 0.9322401679888894 0.3505708871370189
4941000000.0 0.9463865472084474 0.3390108656061599
4944000000.0 0.9470923370014284 0.3404038639993605
4947000000.0 0.9416165451778877 0.35126460642891427
4950000000.0 0.9568892477062827 0.32589480830871276
4953000000.0 0.9748341315718329 0.28017633708466355
4956000000.0 0.995283636128388 0.30819313805414333
4959000000.0 0.9552163316999127 0.27360013394409805
4962000000.0 0.9708320806037661 0.283883272791722
4966000000.0 0.9716225895713686 0.2837422451053044
4969000000.0 0.9665111159561199 0.2903837426254401
4972000000.0 1.002278181760202 0.2380313693394493
4975000000.0 0.9717186551960664 0.2397964533342355
4978000000.0 0.9769540251806115 0.24030325334977293
4981000000.0 0.9473974429793344 0.21366897073499952
4984000000.0 1.0000843514970599 0.21583938708171413
4988000000.0 0.9832379707479216 0.21446042866785725
4991000000.0 1.0086397142932706 0.252957472267721
4994000000.0 0.9832425005406626 0.2250238470024059
4997000000.0 1.000817960350243 0.18608378230442119
5000000000.0 1.001679308619046 0.20183216292474054
5003000000.0 1.0173216755745442 0.18101337308119198
5006000000.0 1.0483138589012557 0.18747409431249612
5009000000.0 1.005441710981533 0.16828418458958716
5012000000.0 0.9870910715560692 0.1358489372376182
5016000000.0 1.0083415779707274 0.17601800631639725
5019000000.0 0.9877521737843697 0.1475573261903022
5022000000.0 0.9972004163258212 0.1494392301718223
5025000000.0 1.071605588268582 0.12478244356572005
5028000000.0 1.0360084039935886 0.10250558504918938
5031000000.0 1.0044356277361275 0.10322881198101824
5034000000.0 1.0720965982976267 0.09519552630849792
5038000000.0 0.9935502658706737 0.08894023660554146
5041000000.0 1.0353935241159584 0.13746387522650394
5044000000.0 0.9949231520042638 0.12052709762664576
5047000000.0 1.024479457547386 0.10091421172611753
5050000000.0 1.01510991338862 0.18044684167701192
5053000000.0 1.0709822100536723 0.06875184860338546
5056000000.0 1.0263666007765293 0.1377347035405962
5059000000.0 1.0360880021197267 0.1487789675428962
5062000000.0 1.0059939882365572 0.0675358532780504
5066000000.0 0.9898057016647817 0.09673096187038771
5069000000.0 1.008329949573366 0.05369706239790589
5072000000.0 0.9833389896542717 0.04307290760400373
5075000000.0 1.06409341125317 0.04303366353993798
5078000000.0 1.0615682792124608 -0.019340296752398622
5081000000.0 0.9769439799220027 0.028095103095148677
5084000000.0 1.054713476130001 0.037699406940812585
5088000000.0 1.0153855550420985 0.020637841648603827
5091000000.0 1.0625896774269397 -0.00839236475414401
5094000000.0 1.0565817980835697 0.04011185543304402
5097000000.0 1.098983327567766 0.06253032593527669
5100000000.0 1.0146986329371246 -0.004210460759394685
5103000000.0 1.0459491047281524 0.01655445851528181
5106000000.0 1.0988099487700003 0.061751260380803696
5109000000.0 1.0195876232895964 0.013413977757675777
5112000000.0 1.0417633905496346 -0.0219491666829032
5116000000.0 0.9546701118401208 0.010673085807530569
5119000000.0 1.0407720777383402 0.031394340486552985
5122000000.0 1.0403972526428593 0.03821245092542813
5125000000.0 1.0304330048754222 -0.019704808346841407
5128000000.0 1.0487758754349186 -0.04975329894001679
5131000000.0 0.9906893201434721 -0.054618866915633224
5134000000.0 1.0109683532702671 -0.03593387061528114
5138000000.0 1.0561107097550158 -0.08255628568703655
5141000000.0 1.0334621594640903 0.04118887915036801
5144000000.0 1.0926131001181145 -0.025617202822993956
5147000000.0 1.0417571730560666 -0.05016848494760473
5150000000.0 1.0032443666287492 0.00252158251235185
5153000000.0 1.0215243982814688 -0.08728057897567726
5156000000.0 1.058535031258119 -0.05608302387140307
5159000000.0 1.0498994848118188 -0.06151158837157267
5162000000.0 0.9969663791159321 -0.08664502710408445
5166000000.0 1.078303074390009 -0.1358142457305067
