! Created with skrf 1.8.0 (http://scikit-rf.org).
# Hz S RI R 50.0 
!freq ReS11 ImS11
4000000000.0 0.5726972047050085 -0.8344354078892902
4003000000.0 0.6115765076230826 -0.9123636583782614
4006000000.0 0.5369502814607521 -0.8588667702111425
4009000000.0000005 0.5750353163840235 -0.8410619611937192
4011999999.9999995 0.6154882728070173 -0.8484148937474091
4016000000.0 0.5400617861880782 -0.8903277725483929
4019000000.0 0.5409582313620539 -0.8256275012398199
4022000000.0000005 0.6022875137165882 -0.8331569650244952
4025000000.0000005 0.4986656123004313 -0.9141366341670744
4027999999.9999995 0.4964396937796755 -0.8485416300122685
4030999999.9999995 0.519532401713788 -0.8055537925606633
4034000000.0 0.5193336432860478 -0.8387140754664264
4038000000.0000005 0.5551872800994548 -0.8888274908130402
4041000000.0000005 0.5857088972019621 -0.8863216939177915
4043999999.9999995 0.5827884526995554 -0.9329672197498389
4046999999.9999995 0.6043766375002768 -0.882508027026508
4050000000.0 0.5249814867274916 -0.8704831819087767
4053000000.0 0.5422129338418177 -0.8823778023527663
4056000000.0 0.5652003983584308 -0.8476771578498542
4059000000.0 0.5524799479918432 -0.8690414343998975
4062000000.0000005 0.5051139751170974 -0.8869625790175691
4066000000.0 0.5216014556222854 -0.824909958632815
4069000000.0 0.5486190376403269 -0.9100784815034183
4072000000.0 0.5878148424983501 -0.8350268410616651
4075000000.0 0.6007484042876878 -0.8430214858128964
4078000000.0000005 0.5733586948924346 -0.9345261492517551
4081000000.0000005 0.6178776101592665 -0.8536908081542615
4083999999.9999995 0.5298127710445493 -0.8628378657609136
4088000000.0 0.589640284344548 -0.8599064957284492
4091000000.0 0.5872141714356497 -0.9485971039338115
4094000000.0000005 0.5515983874435932 -0.8853834147564024
4097000000.0000005 0.5090576960658386 -0.8820120370323212
4099999999.9999995 0.5659637852558632 -0.8880467285359771
4102999999.9999995 0.5508646032806198 -0.83001825901004
4106000000.0 0.5561936429115265 -0.8380518335668596
4109000000.0 0.5458951916985201 -0.8451898907913036
4112000000.0 0.527136428917386 -0.8772970002082263
4115999999.9999995 0.562891713675115 -0.8783296745795125
4119000000.0 0.5465556945021999 -0.8842650662107744
4122000000.0 0.5195250656212805 -0.8887249676570291
4125000000.0 0.5391991269861289 -0.8910208473887397
4128000000.0 0.559838164201974 -0.8198277294255747
4131000000.0 0.5214595060569982 -0.850369110060235
4134000000.0000005 0.5269664375373645 -0.8123863287691967
4138000000.0 0.5189315699003069 -0.8640609717939778
4141000000.0 0.5224006874750513 -0.8697022767674667
4144000000.0 0.5700142944845046 -0.8587520497718362
4147000000.0000005 0.5209043444227826 -0.8658081942513576
4150000000.0000005 0.5759894023608613 -0.893592756415336
4152999999.9999995 0.5706389867304313 -0.8550970176458836
4155999999.9999995 0.5883676634903362 -0.8664873424960154
4159000000.0 0.5300782847757243 -0.8327095415938801
4162000000.0 0.5537826139676827 -0.8318926694731907
4166000000.0000005 0.5420637979567168 -0.8755282381419666
4168999999.9999995 0.5280855403957698 -0.8715803211045278
4171999999.9999995 0.5676503994708934 -0.8652366364034726
4175000000.0 0.5603943946489401 -0.870609109338485
4178000000.0 0.5521693936919394 -0.8823423588017492
4181000000.0 0.5617777686289327 -0.8707130695343793
4184000000.0 0.5578054171236717 -0.8393971924888635
4187999999.9999995 0.5502400452882151 -0.8802746033908349
4191000000.0 0.5650967982605257 -0.8185435959420182
4194000000.0 0.53070054417021 -0.8561967390405176
4197000000.0 0.5532070878194904 -0.8639772173623563
4200000000.0 0.5762944419612325 -0.8658672969140349
4203000000.0000005 0.5658403405800353 -0.8629522226662634
4206000000.0000005 0.5474341439585313 -0.8674734860978235
4208999999.9999995 0.5524692171349801 -0.8610027722425933
4211999999.9999995 0.5215058466811898 -0.8800716409797839
4216000000.0 0.553412683703436 -0.849609206122588
4219000000.0000005 0.5789445757904217 -0.8612919059885776
4222000000.0000005 0.5383329660827474 -0.869713225864886
4224999999.9999995 0.5555430847059619 -0.827253151243226
4227999999.9999995 0.5567172711412408 -0.866731350321558
4231000000.0 0.5354313061984762 -0.8531319969915416
4234000000.0 0.5624825134651699 -0.8609523929406251
4238000000.0000005 0.5462325856511903 -0.8627148566068513
4240999999.9999995 0.5410325248040784 -0.8583498301768764
4244000000.0 0.5413750370240483 -0.8544250534391018
4247000000.0 0.5422977853427949 -0.8680931539899301
4250000000.0 0.5278432245919118 -0.837829544104314
4253000000.0 0.5377451114921347 -0.8465881835763241
4256000000.0 0.5477007565398458 -0.8715246418341962
4259000000.0000005 0.512178173144965 -0.8353377329992221
4261999999.9999995 0.542600060760846 -0.8603464482830343
4266000000.0 0.5566561747951518 -0.8853096918901495
4269000000.0 0.5533509740385056 -0.8524515692968798
4272000000.0000005 0.546407645812692 -0.8602998461603416
4275000000.0000005 0.5430934957619354 -0.8780611116842686
4277999999.9999995 0.5625893052332773 -0.8622348357308371
4280999999.9999995 0.5709811245191293 -0.8659245074704152
4284000000.0 0.5322238391438556 -0.8830427761623107
4288000000.0000005 0.5937823368993838 -0.8341301202630569
4291000000.0000005 0.5288687582477571 -0.8464593258317401
4293999999.9999995 0.524585138456197 -0.839659023652791
4297000000.0 0.5575502594514428 -0.8041733409712215
4300000000.0 0.5585847695696705 -0.8291744790541945
4303000000.0 0.5239387417559412 -0.8257815431113256
4306000000.0 0.5579303485192939 -0.8337014264503745
4309000000.0 0.569740460267291 -0.8225752129789423
4312000000.0 0.5950887197209446 -0.8492464008573372
4316000000.0 0.5695176570482378 -0.8476092042948558
4319000000.0 0.5563176607902104 -0.8382609456133424
4322000000.0 0.5306851455146508 -0.8458897783475919
4325000000.0 0.5552646825774888 -0.8344330803897863
4328000000.0 0.5336491397343232 -0.8447611340330164
4331000000.0 0.5378713701063998 -0.8929204142079782
4334000000.0 0.5537308079122197 -0.8539066536339942
4338000000.0 0.5849452487492162 -0.839187788855119
4341000000.0 0.579590412194365 -0.8468297776264035
4344000000.0 0.5526777404756484 -0.8573787335708509
4347000000.0 0.523024777656098 -0.8654253979710026
4350000000.0 0.512342741845967 -0.822200205099307
4353000000.0 0.561834095800127 -0.8277153336459573
4356000000.0 0.5255184429025183 -0.8597263258137289
4359000000.0 0.5312002988091482 -0.831738101444009
4362000000.0 0.5159290706811052 -0.8822311850751903
4366000000.0 0.5540744524464385 -0.8509924893313836
4369000000.0 0.5266261879154911 -0.8097776451827524
4372000000.0 0.49930466317831623 -0.8809735372169909
4375000000.0 0.5570101149357187 -0.8599118524797195
4378000000.0 0.5251965987712643 -0.8187446734680336
4381000000.0 0.5484926360580917 -0.829995735989996
4384000000.0 0.5812724772148034 -0.9085418949733152
4388000000.0 0.542334787076189 -0.8317075454080983
4391000000.0 0.5510412049450772 -0.8531635817375388
4394000000.0 0.518486938791322 -0.8433601631727956
4397000000.0 0.5396867143889287 -0.8480165826358996
4400000000.0 0.5381300820141073 -0.8766524047265902
4403000000.0 0.5377217883420763 -0.8563241305362388
4406000000.0 0.5152518602791613 -0.8817572847191624
4409000000.0 0.5550307299551303 -0.8839858655075339
4412000000.0 0.48221367642840285 -0.8736428396246692
4416000000.0 0.5244091049353031 -0.8560420815313963
4419000000.0 0.5105059415986402 -0.8738867448711052
4422000000.0 0.5366606584594267 -0.8399045384623438
4425000000.0 0.5639211411834494 -0.8596894098484864
4428000000.0 0.542057344143065 -0.8506561796007085
4431000000.0 0.5463629331485476 -0.8701605338953003
4434000000.0 0.5179441692785628 -0.8501306599191281
4438000000.0 0.5482483030855334 -0.8764976336188208
4441000000.0 0.5474271470970447 -0.8676212539533885
4444000000.0 0.5248272725268994 -0.8385625477507106
4447000000.0 0.5084209233211752 -0.8688200608584508
4450000000.0 0.5457732414488359 -0.8354026926430164
4453000000.0 0.5424503718713661 -0.8664289750302745
4456000000.0 0.5008661631090356 -0.8416359145696687
4459000000.0 0.4904636003093582 -0.8389142237336968
4462000000.0 0.5581759860757022 -0.8993291624342974
4466000000.0 0.5496702814236571 -0.8901080187126923
4469000000.0 0.5533798776671273 -0.844454293579251
4472000000.0 0.5392904844721006 -0.8925302832945079
4475000000.0 0.5086272347287846 -0.8330305472454665
4478000000.0 0.5403516407168263 -0.9101180564976873
4481000000.0 0.49642258546159423 -0.843344087814629
4484000000.0 0.4937072287244618 -0.8800257033421248
4488000000.0 0.5136286274236774 -0.8585000305818746
4491000000.0 0.5256738543673745 -0.8619482326087938
4494000000.0 0.5272855209982225 -0.8457398701675461
4497000000.0 0.5316991319894493 -0.8394626753035941
4500000000.0 0.5302943432252529 -0.8453822996222813
4503000000.0 0.5245076181910384 -0.8728100321612051
4506000000.0 0.508472159997023 -0.8607589051301046
4509000000.0 0.510550283110277 -0.8201443099461456
4512000000.0 0.501043072330583 -0.8582216986173927
4516000000.0 0.5441952851707967 -0.8814116270224968
4519000000.0 0.5375709277507279 -0.8327287015894584
4522000000.0 0.5135906147102394 -0.8595314156705227
4525000000.0 0.5387852038402584 -0.8356988217047329
4528000000.0 0.5394681766384897 -0.8833276197816198
4531000000.0 0.5484268285892004 -0.8430838769605655
4534000000.0 0.5305823338433232 -0.8322735785045146
4538000000.0 0.508988237264187 -0.8762992032888137
4541000000.0 0.48026904326384245 -0.8788629971310042
4544000000.0 0.5207501670995109 -0.8482360602151368
4547000000.0 0.5239886605276343 -0.8439718371081602
4550000000.0 0.5073571709350917 -0.8779310873903883
4553000000.0 0.5075658339333782 -0.8831162386455269
4556000000.0 0.49633974697571975 -0.8268867545881038
4559000000.0 0.5055333975936043 -0.8897410417135527
4562000000.0 0.5396954103388221 -0.8637810509403676
4566000000.0 0.5186841050143707 -0.8671352932647631
4569000000.0 0.49188278705324795 -0.845343983614635
4572000000.0 0.5131196587897372 -0.8728820814359075
4575000000.0 0.5046377796608312 -0.8763127235970914
4578000000.0 0.5384754183656143 -0.8642770486776616
4581000000.0 0.49755387743751434 -0.8626120082593973
4584000000.0 0.5128300446521761 -0.8636832015052012
4588000000.0 0.5197880780162244 -0.8907501620587461
4591000000.0 0.5296135616904281 -0.8473883248698793
4594000000.0 0.49920167218155054 -0.8712347658592932
4597000000.0 0.5111602355639389 -0.8864243184382476
4600000000.0 0.4805040980506999 -0.8668628612070627
4603000000.0 0.5002029584207203 -0.8808871876809403
4606000000.0 0.5048826385251993 -0.8630767313730348
4609000000.0 0.5147438767427934 -0.869240772014086
4612000000.0 0.5023807757655163 -0.8764770859661908
4616000000.0 0.5086231842411977 -0.863968097425209
4619000000.0 0.5087319382024535 -0.8659189746577935
4622000000.0 0.5101307637413507 -0.871516063234113
4625000000.0 0.4611354361217631 -0.8512069775109424
4628000000.0 0.5009651948482639 -0.873426453936442
4631000000.0 0.4956872755740369 -0.8814241977737306
4634000000.0 0.49505224292885436 -0.8621623885391168
4638000000.0 0.5246599830003968 -0.8820370922584402
4641000000.0 0.5104055956388666 -0.8606014945054755
4644000000.0 0.49149541687096193 -0.8577289482982808
4647000000.0 0.5034701374369687 -0.8881618816599861
4650000000.0 0.48436697192071443 -0.8659625496030423
4653000000.0 0.5266442771014264 -0.8937521271401472
4656000000.0 0.4940064452468229 -0.8637166197598357
4659000000.0 0.49447441234572814 -0.8726711302049702
4662000000.0 0.4980208582048911 -0.8901745354539267
4666000000.0 0.47913279932920194 -0.866401784643517
4669000000.0 0.5168824691538878 -0.8835422340791673
4672000000.0 0.47476307619134345 -0.8867540583103634
4675000000.0 0.4844918469700188 -0.8852943761638589
4678000000.0 0.48562036457306 -0.8707056847358834
4681000000.0 0.4805425763007899 -0.8918163135037362
4684000000.0 0.4690608079546147 -0.8918252724068136
4688000000.0 0.4961952121621847 -0.8908394042472201
4691000000.0 0.5117671773324264 -0.8683792339116894
4694000000.0 0.49543419241874326 -0.8844969936552961
4697000000.0 0.4623562169532068 -0.8696366937728863
4700000000.0 0.5096709274092278 -0.880384985619731
4703000000.0 0.5148315395358716 -0.8490929361080017
4706000000.0 0.4889696826263112 -0.9032418389320195
4709000000.0 0.46252675583494507 -0.8733252908768387
4712000000.0 0.5037118717959834 -0.8640823742581438
4716000000.0 0.4859385504427696 -0.8909815596438599
4719000000.0 0.5176389021488117 -0.875764949887827
4722000000.0 0.5265388299398359 -0.8731441857973768
4725000000.0 0.4872564576216298 -0.8855126397206299
4728000000.0 0.501476551192297 -0.8845977481244561
4731000000.0 0.5415022942158495 -0.9016725249892845
4734000000.0 0.5063470472376299 -0.8560685762424075
4738000000.0 0.5398389652686595 -0.9049072719171724
4741000000.0 0.5145749649390567 -0.9225548043062044
4744000000.0 0.488860936152577 -0.898186597462747
4747000000.0 0.4971728243502978 -0.863471167761736
4750000000.0 0.5196233081240325 -0.8884967866683496
4753000000.0 0.5003428727938561 -0.8736551204249878
4756000000.0 0.5005664375986542 -0.8897307293165172
4759000000.0 0.4947951932764465 -0.8658879573979648
4762000000.0 0.4704005402440181 -0.9024479560700909
4766000000.0 0.5074265173517045 -0.8832569726141392
4769000000.0 0.5130627133975824 -0.9156395291239996
4772000000.0 0.49050105510690023 -0.8977054027453629
4775000000.0 0.4923478783608827 -0.9299281189969513
4778000000.0 0.5025048633885782 -0.8957072756672796
4781000000.0 0.5105048498402409 -0.8852624528538952
4784000000.0 0.5102771659127622 -0.8708809124998902
4788000000.0 0.4980765905721152 -0.9022917544436978
4791000000.0 0.5082726938580266 -0.8870000950923923
4794000000.0 0.5231265862505117 -0.9048833066955303
4797000000.0 0.4877138241543503 -0.8719622623799065
4800000000.0 0.5003795611896993 -0.8774554925650573
4803000000.0 0.464406399142002 -0.899643881000948
4806000000.0 0.5121014069799109 -0.9188937233866915
4809000000.0 0.4706348427298498 -0.9000065088387852
4812000000.0 0.449710695008308 -0.8884449635143041
4816000000.0 0.5065758218967907 -0.8561377290413694
4819000000.0 0.5064065409885813 -0.887067677645511
4822000000.0 0.509847712159597 -0.9120176407364579
4825000000.0 0.5416881127796139 -0.8928000792627613
4828000000.0 0.4982206630871576 -0.8736251505621433
4831000000.0 0.4693546819516303 -0.9321785685532855
4834000000.0 0.5245687377750528 -0.8819481171900101
4838000000.0 0.4872723535484572 -0.9095462462888887
4841000000.0 0.4896753253791951 -0.8654046432899424
4844000000.0 0.5312299463894399 -0.8653923716401312
4847000000.0 0.49401421828855197 -0.8551977341824355
4850000000.0 0.49486606447895753 -0.9181496548098833
4853000000.0 0.49958964730660943 -0.8725084589597848
4856000000.0 0.48563302997286556 -0.8862688040280472
4859000000.0 0.49778379987693644 -0.9257943606208263
4862000000.0 0.514837510646605 -0.8613522055622395
4866000000.0 0.5055540486447211 -0.9082500059630692
4869000000.0 0.47298550593104405 -0.9082889968003411
4872000000.0 0.46422602657596296 -0.9057367441201536
4875000000.0 0.5499519979193082 -0.9234798892895371
4878000000.0 0.48354737239702067 -0.8996060454424474
4881000000.0 0.4940024118142634 -0.9573930873807128
4884000000.0 0.5095874939301507 -0.8781554985541171
4888000000.0 0.5290174501053228 -0.8739753250796355
4891000000.0 0.5430866989040228 -0.8815961808573481
4894000000.0 0.4675334045453146 -0.9097384464896567
4897000000.0 0.5369281946784671 -0.8799616049727106
4900000000.0 0.5295046439278255 -0.9035966555657627
4903000000.0 0.5136429078245794 -0.908930752501315
4906000000.0 0.49373549147673923 -0.9039706383518653
4909000000.0 0.4959360183674491 -0.928019071818904
4912000000.0 0.4914073979452572 -0.9383633093330875
4916000000.0 0.5195222608076273 -0.9010799403940393
4919000000.0 0.5363935268673359 -0.896466427857302
4922000000.0 0.5414147387018272 -0.9096756563539928
4925000000.0 0.48538779547167193 -0.9295487502002553
4928000000.0 0.5687893950268811 -0.8703757672334612
4931000000.0 0.5501975318765193 -0.9192714691267373
4934000000.0 0.47466702531822 -0.8675708185918523
4938000000.0 0.5121820409376638 -0.9041916802788131
4941000000.0 0.5122178504061241 -0.8534380215623141
4944000000.0 0.5073165781548565 -0.8184353281425853
4947000000.0 0.5043281155330525 -0.866537438935953
4950000000.0 0.5071533564355796 -0.8658018802770223
4953000000.0 0.4754253176706842 -0.9144900002625417
4956000000.0 0.5055843345802944 -0.8994386403258466
4959000000.0 0.4670987179638746 -0.8850080216171181
4962000000.0 0.530201220954632 -0.9153380317931747
4966000000.0 0.524830937844752 -0.8918742529467123
4969000000.0 0.5802513737105909 -0.9048428964127124
4972000000.0 0.490840045032002 -0.9152996358650538
4975000000.0 0.5160472883590546 -0.8891440891816553
4978000000.0 0.5025033387476304 -0.9199615099247013
4981000000.0 0.5265460812858787 -0.9120538673596387
4984000000.0 0.5314108305613554 -0.8508783624074147
4988000000.0 0.5397332629026037 -0.8961667391801132
4991000000.0 0.5715358803597106 -0.8496041535551169
4994000000.0 0.5184581608822979 -0.8745940899617364
4997000000.0 0.5142463322446438 -0.9176023878119871
5000000000.0 0.5162025270904834 -0.920615532545856
5003000000.0 0.5454446966647395 -0.8768385970372168
5006000000.0 0.5516426875660292 -0.9113104123428171
5009000000.0 0.5434913856063279 -0.9000120349814125
5012000000.0 0.5151415222696164 -0.9141390006858785
5016000000.0 0.5744724781757029 -0.8858811731544944
5019000000.0 0.4782640341855775 -0.8958573487892009
5022000000.0 0.5101849636453581 -0.8941263934707868
5025000000.0 0.5522498126907404 -0.9580615966163326
5028000000.0 0.47003017052694485 -0.9161953567028049
5031000000.0 0.48907834745789386 -0.8995134811769688
5034000000.0 0.4936905240033074 -0.9328214801400255
5038000000.0 0.4796169280261566 -0.8816472380649567
5041000000.0 0.5309861907049428 -0.8803632124972911
5044000000.0 0.563521131500749 -0.8623775762317671
5047000000.0 0.5538727012523504 -0.9070906866408026
5050000000.0 0.5721867443146459 -0.7991444678432106
5053000000.0 0.5293616381003177 -0.8903507422961524
5056000000.0 0.5611971460401718 -0.8967592825838395
5059000000.0 0.5942658737249049 -0.8754204586917927
5062000000.0 0.509862041734099 -0.8877011125578272
5066000000.0 0.5769057827005554 -0.8885992356032142
5069000000.0 0.5562978515425542 -0.9085810509805119
5072000000.0 0.5406912595906674 -0.8621306012373431
5075000000.0 0.5580739308868699 -0.9221301217440994
5078000000.0 0.46694963077409224 -0.8956785748045502
5081000000.0 0.5060407765788258 -0.8623552541956471
5084000000.0 0.5307704361469181 -0.9304447028076412
5088000000.0 0.5308028265364624 -0.8417162860064598
5091000000.0 0.5032977912914636 -0.9195930184879302
5094000000.0 0.5231479390132325 -0.9255223461548163
5097000000.0 0.5535663705309287 -0.8341652169573937
5100000000.0 0.5135999123017496 -0.8801265982749344
5103000000.0 0.5123199176792512 -0.9098714475373865
5106000000.0 0.5701216097914432 -0.9303808205960763
5109000000.0 0.5359971509360008 -0.8575700907633236
5112000000.0 0.538210927434331 -0.8829229164349293
5116000000.0 0.4525283295553022 -0.8667096947872324
5119000000.0 0.5561153081427905 -0.8963280526868005
5122000000.0 0.49748234146444437 -0.8411248947671832
5125000000.0 0.5621597170850373 -0.8192511186914845
5128000000.0 0.5461592994333244 -0.8802034833483307
5131000000.0 0.5345920121370131 -0.880576458883243
5134000000.0 0.5863301943285886 -0.8690398919186024
5138000000.0 0.5607406515325379 -0.9071279466357325
5141000000.0 0.6125193306605324 -0.8167601801427383
5144000000.0 0.5609534741174936 -0.9088479414587087
5147000000.0 0.5438173672603621 -0.8885064692749678
5150000000.0 0.5820667509499808 -0.8649834244110833
5153000000.0 0.5106729231117433 -0.8944195979871754
5156000000.0 0.5531688239250494 -0.9023091378340797
5159000000.0 0.5766571381061166 -0.8731139416406076
5162000000.0 0.516792134231465 -0.8841144401658212
5166000000.0 0.5104766581380759 -0.8892737711004427
5169000000.0 0.5280529831746567 -0.9067317354482758
5172000000.0 0.5375590582988161 -0.8920900467762903
5175000000.0 0.5681982371370635 -0.9152081302169766
5178000000.0 0.57625350023182 -0.8818559830632358
