! Created with skrf 1.8.0 (http://scikit-rf.org).
# Hz S RI R 50.0 
!freq ReS11 ImS11
4000000000.0 0.5532275335951378 -0.8555479658923004
4003000000.0 0.5991244731784174 -0.9217629560489498
4006000000.0 0.5303742151466229 -0.8635674415286316
4009000000.0000005 0.5851805138862695 -0.8514262802578214
4011999999.9999995 0.58860933182722 -0.8313830333899126
4016000000.0 0.5411949620668779 -0.9003648801606706
4019000000.0 0.5104672625025813 -0.8501936819312772
4022000000.0000005 0.6575049468913385 -0.8213858244591471
4025000000.0000005 0.5396385204543752 -0.9214140086204234
4027999999.9999995 0.5246856825830606 -0.8709106814848848
4030999999.9999995 0.5291333279339479 -0.8513917029251193
4034000000.0 0.5208806563338817 -0.8916973944499558
4038000000.0000005 0.5311868534265298 -0.8589273199238927
4041000000.0000005 0.5442017863783528 -0.9050009647357645
4043999999.9999995 0.5633856716082595 -0.9413800140186109
4046999999.9999995 0.5862773862101507 -0.8626960579272093
4050000000.0 0.5588018014572725 -0.9051438480676774
4053000000.0 0.5291899931031001 -0.8720522522497107
4056000000.0 0.559524039869975 -0.916435057168941
4059000000.0 0.5369985247376856 -0.8389402272554509
4062000000.0000005 0.5344957294555913 -0.8973745242748407
4066000000.0 0.4857393915465644 -0.812713081375849
4069000000.0 0.512146734604324 -0.8917734570212604
4072000000.0 0.6017820408629441 -0.8136717407025128
4075000000.0 0.5967808889467744 -0.8794529569604731
4078000000.0000005 0.5356176698301325 -0.8700961059653495
4081000000.0000005 0.5548208619380744 -0.8785718158319801
4083999999.9999995 0.5274411352459948 -0.8654619145304181
4088000000.0 0.5880779490286037 -0.8627028144034122
4091000000.0 0.5723014461331764 -0.9130086124017632
4094000000.0000005 0.5955643899186523 -0.8621555581804309
4097000000.0000005 0.5551434078868329 -0.8975929549469315
4099999999.9999995 0.5965038797823498 -0.8433576360050741
4102999999.9999995 0.5744505308926846 -0.8201177853377758
4106000000.0 0.5348701266265503 -0.8842181354309431
4109000000.0 0.5471222931410791 -0.8655963758611553
4112000000.0 0.5608261504505299 -0.8643344843857349
4115999999.9999995 0.5895883763748568 -0.872910159602436
4119000000.0 0.5655434175773447 -0.8856361744947743
4122000000.0 0.5178480253285898 -0.8962288765779747
4125000000.0 0.5179888346357956 -0.9082775549314641
4128000000.0 0.5271615520796402 -0.8368072284284173
4131000000.0 0.5392397908754536 -0.8449320742599642
4134000000.0000005 0.5596372171395005 -0.8677321771128347
4138000000.0 0.5451050390707418 -0.8555550782791563
4141000000.0 0.5425019542524061 -0.8584457861293411
4144000000.0 0.5959879130708589 -0.8668892971836262
4147000000.0000005 0.5500072016378158 -0.8751814165784779
4150000000.0000005 0.5566033120206696 -0.8881572559270231
4152999999.9999995 0.548609503165789 -0.8816282651528272
4155999999.9999995 0.5867095501729673 -0.8964438932034219
4159000000.0 0.5585758465383402 -0.8364812221085739
4162000000.0 0.5314128894143861 -0.867156407754188
4166000000.0000005 0.5684753441492068 -0.8984542305994911
4168999999.9999995 0.540555423051258 -0.8616108885301168
4171999999.9999995 0.5709781898252723 -0.83182510906773
4175000000.0 0.5637475922801481 -0.8691161736501056
4178000000.0 0.5885375256979544 -0.8687960616840573
4181000000.0 0.5473147153729633 -0.8594553919648376
4184000000.0 0.5427869476873483 -0.846592663888504
4187999999.9999995 0.5492647167232922 -0.8587454572793847
4191000000.0 0.5962151230070196 -0.8164935606732129
4194000000.0 0.5371761212695962 -0.8296515422321789
4197000000.0 0.5841829346107387 -0.8585021108272151
4200000000.0 0.561881222987173 -0.8462529995982685
4203000000.0000005 0.5641862322004978 -0.853593159923142
4206000000.0000005 0.584162786524336 -0.8744302531068588
4208999999.9999995 0.5535630017547615 -0.8571889623502124
4211999999.9999995 0.5250662911188395 -0.8767091098092321
4216000000.0 0.5731299001887155 -0.8561858865170726
4219000000.0000005 0.5638552555870291 -0.8553443202088035
4222000000.0000005 0.5467903904566442 -0.8577910314352096
4224999999.9999995 0.542856383164221 -0.8315564936818666
4227999999.9999995 0.5597684786632706 -0.8510516016105968
4231000000.0 0.5545300076703616 -0.8525904370928833
4234000000.0 0.5530907668980689 -0.8601897338305928
4238000000.0000005 0.5367218282419457 -0.8667196151884725
4240999999.9999995 0.5457131780366213 -0.8539549480714157
4244000000.0 0.5547786442276915 -0.8491779587117942
4247000000.0 0.5681636324505819 -0.8479187187671285
4250000000.0 0.5393364264930323 -0.8386406819553912
4253000000.0 0.5388463868742402 -0.8235329747326114
4256000000.0 0.5605364941373225 -0.8828813293839564
4259000000.0000005 0.5371737023954612 -0.8359423824456569
4261999999.9999995 0.5303528504887204 -0.8614330033305128
4266000000.0 0.5378699981915 -0.8651283145023531
4269000000.0 0.5637369250924296 -0.8351217582873388
4272000000.0000005 0.5575432211411634 -0.8432837757560379
4275000000.0000005 0.5559415531824118 -0.8579229806214034
4277999999.9999995 0.5578321222308282 -0.8658077589029826
4280999999.9999995 0.5904796464659868 -0.8513244478379213
4284000000.0 0.5285811936266683 -0.8696412192164622
4288000000.0000005 0.5894098927692937 -0.8399200544178969
4291000000.0000005 0.5439665272653377 -0.8262665734132354
4293999999.9999995 0.5566169670449714 -0.8280850035746816
4297000000.0 0.5821449712057791 -0.810993516320112
4300000000.0 0.5708592074044992 -0.8338392411280517
4303000000.0 0.5487656783488098 -0.8230873348416909
4306000000.0 0.5689429635729442 -0.8533367657499963
4309000000.0 0.5560096546753708 -0.8524807984017451
4312000000.0 0.6020517924233615 -0.8664959261866664
4316000000.0 0.5924783789225904 -0.844051080953163
4319000000.0 0.5695015942002737 -0.8288528536057249
4322000000.0 0.5154558791064041 -0.8556869326729695
4325000000.0 0.5638127715834781 -0.8238954371492344
4328000000.0 0.5620128411265052 -0.8264132597433831
4331000000.0 0.5336097966613029 -0.8518379306071319
4334000000.0 0.5619800213014077 -0.8493734653350391
4338000000.0 0.5603237622958609 -0.828673891250924
4341000000.0 0.5884509007537653 -0.8542107500350904
4344000000.0 0.5606424153244836 -0.8864258186153041
4347000000.0 0.535024429203082 -0.8593451965246263
4350000000.0 0.5161011594347661 -0.8265089821871558
4353000000.0 0.5526336672350773 -0.8290736730987013
4356000000.0 0.5137126516421806 -0.8575200965657411
4359000000.0 0.5136160070436003 -0.82505674237198
4362000000.0 0.5054348487428448 -0.8917631255911287
4366000000.0 0.5636225840602603 -0.8646071381169427
4369000000.0 0.5316929315186685 -0.8267750308638291
4372000000.0 0.5367053809018164 -0.8571742814622436
4375000000.0 0.5379129458891939 -0.8270358552665884
4378000000.0 0.5325738867675047 -0.8314509569560352
4381000000.0 0.5512962300290163 -0.8219132119984431
4384000000.0 0.5702401721851849 -0.9130687452417956
4388000000.0 0.5518180051810025 -0.8216404119038898
4391000000.0 0.5456964633445657 -0.8351079987089636
4394000000.0 0.5195218348250833 -0.8260625434897533
4397000000.0 0.5330854867834067 -0.8468864696013894
4400000000.0 0.5538049076073798 -0.8710816884589844
4403000000.0 0.5490559710437781 -0.8658414992266651
4406000000.0 0.5316736567219745 -0.8615760163780865
4409000000.0 0.5527181414676176 -0.8769713413357876
4412000000.0 0.49950767631928794 -0.8733159132524395
4416000000.0 0.5130462967850935 -0.8467380321855504
4419000000.0 0.5282185489978881 -0.8646476498721196
4422000000.0 0.5548597217662583 -0.8296577234183253
4425000000.0 0.561786806652179 -0.8464865536423969
4428000000.0 0.5411282542662255 -0.8584123397896425
4431000000.0 0.5631046079988047 -0.8718853913898126
4434000000.0 0.5245759942902088 -0.8505812587338247
4438000000.0 0.5578457150120311 -0.8674272832724601
4441000000.0 0.5600669437179968 -0.8607656685891436
4444000000.0 0.5398610551175715 -0.8374180151378088
4447000000.0 0.5147867441511309 -0.8485074767647582
4450000000.0 0.5325415212915032 -0.8341568572199725
4453000000.0 0.5540871416650024 -0.8862467694781049
4456000000.0 0.5111880825756481 -0.8497988376656622
4459000000.0 0.5069939115420015 -0.8230011012844836
4462000000.0 0.5607524811614061 -0.9063683023738448
4466000000.0 0.5400628697820065 -0.8991498892811685
4469000000.0 0.5600635830688332 -0.8469306629591802
4472000000.0 0.5196766428551965 -0.8717223045643137
4475000000.0 0.5227144908473595 -0.8306767511266997
4478000000.0 0.5448128526887362 -0.9038336244880771
4481000000.0 0.5066390448739144 -0.8594768283350197
4484000000.0 0.49835649513550906 -0.8793309844063637
4488000000.0 0.5120858928163082 -0.8405649259841943
4491000000.0 0.5344162414983127 -0.8610502921000759
4494000000.0 0.5437232979833727 -0.8447272078793199
4497000000.0 0.5457176155787286 -0.8379176543147595
4500000000.0 0.5472788834479475 -0.844379988329846
4503000000.0 0.5449118049697391 -0.886907723959705
4506000000.0 0.5112009164821528 -0.8376791596333638
4509000000.0 0.514089278991235 -0.8491690069442089
4512000000.0 0.4950339971123937 -0.8257316419269387
4516000000.0 0.5501343246306349 -0.8756488844275105
4519000000.0 0.5295153987352528 -0.8333710226018918
4522000000.0 0.4967662697229579 -0.8587610783022306
4525000000.0 0.566047668029971 -0.8353422685776011
4528000000.0 0.5372545049253681 -0.8827269345838863
4531000000.0 0.5440830953653816 -0.8305784888282821
4534000000.0 0.5239344203659512 -0.8366529794567815
4538000000.0 0.5325433179327062 -0.8486053482042002
4541000000.0 0.48004489402669487 -0.8649382795466107
4544000000.0 0.5236741393017834 -0.8516381182948565
4547000000.0 0.555147034373901 -0.8251434948183803
4550000000.0 0.49524553140523436 -0.8732253041769281
4553000000.0 0.5110987817639101 -0.8826331284150142
4556000000.0 0.5062768206268842 -0.846434738361836
4559000000.0 0.5075242047655777 -0.8646288055985967
4562000000.0 0.5253149381825866 -0.8702084963202911
4566000000.0 0.5266220979376509 -0.8618889808788739
4569000000.0 0.5206560969991706 -0.8391170727261257
4572000000.0 0.5117439585630907 -0.8457287316785496
4575000000.0 0.4993629034147282 -0.8906683130164637
4578000000.0 0.545246481693042 -0.8917328488830003
4581000000.0 0.5100063715117202 -0.8839543027199385
4584000000.0 0.5001190326175271 -0.872248211556974
4588000000.0 0.5587228873737959 -0.8726851392420865
4591000000.0 0.5226773913019729 -0.8619793334322492
4594000000.0 0.4854327044957933 -0.8768728096310219
4597000000.0 0.5030953566077896 -0.8839348423220493
4600000000.0 0.4819498249196553 -0.859058707684279
4603000000.0 0.4946213481119531 -0.8731203928610893
4606000000.0 0.5342596278746243 -0.8817779572714272
4609000000.0 0.5138337732725392 -0.8695420133580631
4612000000.0 0.5166465962122695 -0.8743270621222641
4616000000.0 0.5082817977915604 -0.8522556017271687
4619000000.0 0.5134009326007034 -0.8588274218361989
4622000000.0 0.5154387726591361 -0.8653193014912637
4625000000.0 0.474667830093806 -0.8549941168795399
4628000000.0 0.535129399177171 -0.8474775590244916
4631000000.0 0.4898348134629861 -0.8431549002324428
4634000000.0 0.5035771113539357 -0.8648866759654479
4638000000.0 0.5252161569487226 -0.8921460480196097
4641000000.0 0.5023558449037815 -0.8777287613592545
4644000000.0 0.507494574857555 -0.8622644352993074
4647000000.0 0.5258395916955017 -0.8850872635321596
4650000000.0 0.5003275225573747 -0.8709390418972887
4653000000.0 0.5248652957584382 -0.8738532666180683
4656000000.0 0.5036367209871433 -0.8875022493609025
4659000000.0 0.4987552166353142 -0.8521185246374529
4662000000.0 0.5049694469895163 -0.8753793651045092
4666000000.0 0.4924370554059846 -0.8690442151760555
4669000000.0 0.5171580837107409 -0.8632671943855349
4672000000.0 0.48201803551462796 -0.8927910683272929
4675000000.0 0.4891705626744447 -0.9033176727207858
4678000000.0 0.48640719961681844 -0.8507388077240047
4681000000.0 0.48450220920550374 -0.8933427254766548
4684000000.0 0.49717031636013037 -0.8903206156263307
4688000000.0 0.47915358461565416 -0.886213222953677
4691000000.0 0.5173560460092924 -0.8967358569633758
4694000000.0 0.49615077611196073 -0.858653735493132
4697000000.0 0.46851141940525576 -0.8658584759669008
4700000000.0 0.5117432535433728 -0.8513583412904357
4703000000.0 0.5145661319030606 -0.8121148129531284
4706000000.0 0.4787701500416915 -0.87158131667599
4709000000.0 0.4949323844365259 -0.8784888721627511
4712000000.0 0.5161843301448905 -0.879472845513222
4716000000.0 0.5004279623085663 -0.8784618873364033
4719000000.0 0.5240146655092424 -0.86879190263808
4722000000.0 0.5263841660014525 -0.8519077440892183
4725000000.0 0.5135912328312313 -0.8773216378784319
4728000000.0 0.4905221245552572 -0.8889089721672223
4731000000.0 0.5355350864756296 -0.8888440236716192
4734000000.0 0.5291297661017295 -0.8491233758707627
4738000000.0 0.5241118918545316 -0.8708662837777915
4741000000.0 0.4952118297168946 -0.8963895258488325
4744000000.0 0.5032883092902014 -0.8729557683729418
4747000000.0 0.5155124534670495 -0.8258590988850825
4750000000.0 0.4902883811787744 -0.8935420269632082
4753000000.0 0.49642124880455074 -0.9052196863216975
4756000000.0 0.49488473352461215 -0.8843028482274006
4759000000.0 0.509832774041292 -0.9061007665573392
4762000000.0 0.49541333986074887 -0.8843382551900363
4766000000.0 0.5100161821494594 -0.8882062679073223
4769000000.0 0.5005761775990366 -0.8949863553980554
4772000000.0 0.5241059678406046 -0.8983589333982893
4775000000.0 0.48197268774316254 -0.9315864363014763
4778000000.0 0.4840553082198814 -0.8957394593113157
4781000000.0 0.5209935991950634 -0.8799051932820475
4784000000.0 0.5282414473549136 -0.8451927608369292
4788000000.0 0.5116907297509824 -0.8828236873151993
4791000000.0 0.463288263143971 -0.8689703292707492
4794000000.0 0.5385259896262283 -0.8826876168618562
4797000000.0 0.5031391494740859 -0.8799005050513388
4800000000.0 0.5197918225416305 -0.8663601769498488
4803000000.0 0.46582969238095273 -0.8881375630234617
4806000000.0 0.520064581857592 -0.889219423591696
4809000000.0 0.45221175824339077 -0.9058952924915673
4812000000.0 0.471006735498797 -0.8773818542984638
4816000000.0 0.5145104022536308 -0.8585655407310587
4819000000.0 0.532607750895961 -0.8882834332531511
4822000000.0 0.5372285796803113 -0.9120641989481437
4825000000.0 0.5451423385045728 -0.8949439039896252
4828000000.0 0.4916138440659793 -0.8736362405705649
4831000000.0 0.4877938563485389 -0.9245846046039364
4834000000.0 0.5264919087193628 -0.8796104486830703
4838000000.0 0.5013745355113703 -0.9065570833599278
4841000000.0 0.4785160442635113 -0.88610793529545
4844000000.0 0.5439267442297747 -0.8786272705190068
4847000000.0 0.513869252995855 -0.8577916225930645
4850000000.0 0.5042666807584723 -0.8937766073762741
4853000000.0 0.4870791378708479 -0.8836084448449999
4856000000.0 0.4958367901997661 -0.8777069864775398
4859000000.0 0.5176351296898059 -0.9380755228238999
4862000000.0 0.5131313967821488 -0.8751155256805256
4866000000.0 0.5053366771810573 -0.9203745821393595
4869000000.0 0.46927460902984947 -0.8803015728970303
4872000000.0 0.5004392089878067 -0.9311706883872071
4875000000.0 0.5450290317239788 -0.9211262213336487
4878000000.0 0.5085719934917974 -0.8889324802508669
4881000000.0 0.521665305751714 -0.9612058048631414
4884000000.0 0.5202357561141729 -0.884972629685448
4888000000.0 0.5101000712359092 -0.8543343909035219
4891000000.0 0.5411989008323381 -0.8812620100104533
4894000000.0 0.4994132271760155 -0.8729227149927294
4897000000.0 0.539158713171937 -0.85373523138191
4900000000.0 0.5415441268105994 -0.9172307379780027
4903000000.0 0.5517555123222125 -0.8803118158173792
4906000000.0 0.5103708784570563 -0.8784295008357741
4909000000.0 0.522530955485001 -0.8926230986644011
4912000000.0 0.49735584233183416 -0.9148112282727238
4916000000.0 0.5392594979706224 -0.9067521735372802
4919000000.0 0.5503677786865532 -0.9010592406230126
4922000000.0 0.5461582960676253 -0.8861108656600056
4925000000.0 0.4878543830801448 -0.9209275591823701
4928000000.0 0.5318606642936156 -0.8155462877885673
4931000000.0 0.5545177858462147 -0.8981560943039687
4934000000.0 0.4870747778430795 -0.8671121713995823
4938000000.0 0.4407827117311719 -0.9035464899806658
4941000000.0 0.503263680020541 -0.8834399529508288
4944000000.0 0.49668481502633494 -0.8239843426900614
4947000000.0 0.5300019805415512 -0.8956931099823654
4950000000.0 0.5154000061320426 -0.8503589371542448
4953000000.0 0.5105067859210376 -0.9534484063192459
4956000000.0 0.4896651430474291 -0.9247076222333643
4959000000.0 0.4708205677030617 -0.8719740540333967
4962000000.0 0.5351440840958324 -0.9378248836408405
4966000000.0 0.5564035976763693 -0.8983679641857661
4969000000.0 0.5560134366691172 -0.9419958763046884
4972000000.0 0.5253916975399068 -0.8836064632186369
4975000000.0 0.5334586577598318 -0.8742194187983977
4978000000.0 0.5052621992304756 -0.8803406912425783
4981000000.0 0.5135366925962084 -0.9250407796459259
4984000000.0 0.5226745434169978 -0.8611076493470424
4988000000.0 0.5461338110023858 -0.8606191194482794
4991000000.0 0.5866268675179762 -0.8979837099854368
4994000000.0 0.5339828683205561 -0.8781379527468942
4997000000.0 0.49090345783416933 -0.9109505484337428
5000000000.0 0.5590824627634794 -0.9424019536916082
5003000000.0 0.5614640149642016 -0.9471720065988158
5006000000.0 0.5493301978038942 -0.934548514239233
5009000000.0 0.5279988352148248 -0.8679042787783455
5012000000.0 0.5205667506539637 -0.9065728872358837
5016000000.0 0.5619972132287708 -0.8900716462530274
5019000000.0 0.5069088268234082 -0.9003855195867275
5022000000.0 0.5036169610920216 -0.8852141338199879
5025000000.0 0.5736337786844417 -0.963842961578103
5028000000.0 0.5215158188018603 -0.9060293963817505
5031000000.0 0.5093693137196591 -0.9080131316340146
5034000000.0 0.529545289854525 -0.9338331816991443
5038000000.0 0.5221371346564795 -0.8714250521928928
5041000000.0 0.5879297618766052 -0.8845542323057458
5044000000.0 0.5449203878711781 -0.8605754699670706
5047000000.0 0.5677633484852962 -0.9194339943900405
5050000000.0 0.6073758165459513 -0.857774829145236
5053000000.0 0.576419618169338 -0.9111832727696287
5056000000.0 0.5813664610978402 -0.8763943684580047
5059000000.0 0.5542841658033638 -0.874851606510693
5062000000.0 0.5153646599273967 -0.9132751667345851
5066000000.0 0.5639963336873334 -0.8409203569762884
5069000000.0 0.552960394018592 -0.8784099446503933
5072000000.0 0.5229546648418812 -0.8790253852046019
5075000000.0 0.5445820638713188 -0.8813939723713793
5078000000.0 0.5136113296761551 -0.8963351127582929
5081000000.0 0.47878470966123265 -0.8657605444744378
5084000000.0 0.5648950295753506 -0.9203119980399209
5088000000.0 0.5678824096344304 -0.8620185517463119
5091000000.0 0.5208431258943047 -0.8735379356255377
5094000000.0 0.5034790128150419 -0.898757270333262
5097000000.0 0.588727940240805 -0.8262059993849371
5100000000.0 0.5317457881333056 -0.8540092949738822
5103000000.0 0.47579121435475275 -0.9115197970332812
5106000000.0 0.5855027253014844 -0.8906339961082268
5109000000.0 0.6047569568668347 -0.8278788435851521
5112000000.0 0.5239102357424973 -0.8580767790837645
5116000000.0 0.5313746827224763 -0.8430321514734
5119000000.0 0.5690597230929806 -0.8819665486300879
5122000000.0 0.5682414674198014 -0.8714819162277655
5125000000.0 0.5290007500913874 -0.8644455389598131
5128000000.0 0.5301215050734583 -0.8693778391326041
5131000000.0 0.5371898690972383 -0.8742081802710049
5134000000.0 0.5801460760584478 -0.8657962097891525
5138000000.0 0.5323171495919062 -0.8678174745954484
5141000000.0 0.5874963927910608 -0.812827971224718
5144000000.0 0.5433549728806798 -0.8579933398545556
5147000000.0 0.5942297914147838 -0.8454353213613481
5150000000.0 0.5882798954058066 -0.8869705176951487
5153000000.0 0.5655552383749884 -0.88073867669023
5156000000.0 0.5468881444386376 -0.8404290775830365
5159000000.0 0.5906428320211652 -0.9098926628025097
5162000000.0 0.5457856878057125 -0.849339519246156
5166000000.0 0.5499494882525038 -0.9005795244659561
5169000000.0 0.5999906174388087 -0.8977267959118929
5172000000.0 0.5556435841474732 -0.8462115606918336
5175000000.0 0.5834795214600231 -0.9052231447280452
5178000000.0 0.5320853758407493 -0.8969186192817407
