! Created with skrf 1.8.0 (http://scikit-rf.org).
# Hz S RI R 50.0 
!freq ReS11 ImS11
4000000000.0 0.5399598522674239 -0.8189062909607919
4003000000.0 0.5679442136808821 -0.9028085010973098
4006000000.0 0.5165815278213439 -0.9133263983934807
4009000000.0000005 0.5688896905724901 -0.8469107132560825
4011999999.9999995 0.6041600809273208 -0.898139207897054
4016000000.0 0.5561998930689398 -0.9000426506320016
4019000000.0 0.5465935508699666 -0.8520132278782392
4022000000.0000005 0.5981371724409597 -0.8561949057415992
4025000000.0000005 0.5157940497029407 -0.8791044278091922
4027999999.9999995 0.5178338298473081 -0.8850659833085919
4030999999.9999995 0.5394072854755053 -0.824999901986096
4034000000.0 0.5097940041391107 -0.8748104623712686
4038000000.0000005 0.5618740324221004 -0.8904150280048401
4041000000.0000005 0.5367208179350591 -0.8833442109823665
4043999999.9999995 0.5681196600763722 -0.8964996970074729
4046999999.9999995 0.5867724548576936 -0.8934920737654004
4050000000.0 0.5355546220954512 -0.8960010977122002
4053000000.0 0.4958109483548386 -0.8844850369787242
4056000000.0 0.5050550694934137 -0.9027892091485453
4059000000.0 0.5320607069805576 -0.8585673991455736
4062000000.0000005 0.48650177080173374 -0.8525132122901267
4066000000.0 0.5192999681682561 -0.8058144198420015
4069000000.0 0.5561040700866071 -0.9289000020909438
4072000000.0 0.5694415073416574 -0.8748427728587003
4075000000.0 0.598715357826047 -0.8832162988313133
4078000000.0000005 0.5532741179450283 -0.8924839487222344
4081000000.0000005 0.6000854035888336 -0.8458072610061845
4083999999.9999995 0.5150238016814981 -0.8834069129127442
4088000000.0 0.5417853553741526 -0.8690529928258727
4091000000.0 0.6116589487506565 -0.9460086812027255
4094000000.0000005 0.5458001742606848 -0.8326947485053852
4097000000.0000005 0.5316898674608264 -0.8713197774260356
4099999999.9999995 0.5152482808289166 -0.8759783108747724
4102999999.9999995 0.5682811274244287 -0.8826116713724288
4106000000.0 0.5636777737463338 -0.8843868437878188
4109000000.0 0.5252682237759649 -0.8972583484762369
4112000000.0 0.5213667903068565 -0.856855449552574
4115999999.9999995 0.5730505184218688 -0.8691541063805106
4119000000.0 0.5358163805087092 -0.892837264600834
4122000000.0 0.49786952905046117 -0.9047566180197651
4125000000.0 0.5175366566317293 -0.8716459590733578
4128000000.0 0.5035896283594647 -0.8237684114644013
4131000000.0 0.5006490823778473 -0.8364079573873401
4134000000.0000005 0.5499275482213989 -0.8434993768597268
4138000000.0 0.5377482437028576 -0.9129376445959337
4141000000.0 0.5393395333868649 -0.8722150097444148
4144000000.0 0.5705613582493357 -0.8552106525416568
4147000000.0000005 0.5309807883435855 -0.8576630870531271
4150000000.0000005 0.5358806802908633 -0.8801292685241422
4152999999.9999995 0.5344511513988354 -0.8753072900965186
4155999999.9999995 0.5802117655258764 -0.8779749983158682
4159000000.0 0.5603247245740187 -0.8298396601388647
4162000000.0 0.5285098832474028 -0.8513442714058784
4166000000.0000005 0.5430401591314141 -0.88086749581218
4168999999.9999995 0.5398794463462094 -0.897489171593385
4171999999.9999995 0.5326459217550245 -0.8668352263672353
4175000000.0 0.5583631884968424 -0.8464536845822
4178000000.0 0.5510129403042999 -0.8654225800775626
4181000000.0 0.541632533980718 -0.8639955579601497
4184000000.0 0.556485564126715 -0.8587933229874197
4187999999.9999995 0.5218429406802655 -0.8794110912253211
4191000000.0 0.5657865140947259 -0.816635627329058
4194000000.0 0.5372913667326109 -0.8366061197862509
4197000000.0 0.5483023662678095 -0.8681303948883747
4200000000.0 0.5479152696759158 -0.8567234603343316
4203000000.0000005 0.5685044094078938 -0.8890392220559236
4206000000.0000005 0.5531501413458344 -0.8900599632280577
4208999999.9999995 0.528392267014376 -0.8466401885390658
4211999999.9999995 0.506954888976073 -0.8843138250081894
4216000000.0 0.5575703046480862 -0.8706073805494926
4219000000.0000005 0.5555978904498319 -0.8642912371519955
4222000000.0000005 0.5317487505908811 -0.8662113047954
4224999999.9999995 0.5387204287805971 -0.8306024822482581
4227999999.9999995 0.5432556258905867 -0.8715139661938236
4231000000.0 0.5360778130645347 -0.8669699178999329
4234000000.0 0.5427995615663248 -0.8777619128301948
4238000000.0000005 0.5138175003818176 -0.8752339372151996
4240999999.9999995 0.5278462343177521 -0.8759996592315594
4244000000.0 0.5486423617558557 -0.8588645682820945
4247000000.0 0.5269657517770512 -0.8464791262363344
4250000000.0 0.5245554068159761 -0.8483111109759122
4253000000.0 0.4871759394937003 -0.845813270858001
4256000000.0 0.5368487616651761 -0.8796126530728651
4259000000.0000005 0.518311614862126 -0.8468807799067816
4261999999.9999995 0.5208143503802557 -0.8591847777424555
4266000000.0 0.5263990892413623 -0.8847555200798002
4269000000.0 0.5586090028734315 -0.8512048713773877
4272000000.0000005 0.5318963110224726 -0.8708567216796241
4275000000.0000005 0.546000597160144 -0.8600539140343485
4277999999.9999995 0.5500069492681245 -0.8941096564964371
4280999999.9999995 0.5461977507447563 -0.8589279620030915
4284000000.0 0.5302307838261782 -0.8907689356194591
4288000000.0000005 0.5615093185070975 -0.8430932512723963
4291000000.0000005 0.5128823318787393 -0.8593164945670493
4293999999.9999995 0.521617896107679 -0.8567133745764789
4297000000.0 0.5632157854722051 -0.8292773701886081
4300000000.0 0.5344153386420925 -0.8320505555654961
4303000000.0 0.49540309636226715 -0.8508635006678873
4306000000.0 0.562853169705714 -0.8570034598682749
4309000000.0 0.5604361234303712 -0.8613668782180115
4312000000.0 0.5770669348691254 -0.8464724240592217
4316000000.0 0.5551885343653299 -0.8954296441213057
4319000000.0 0.5306391758361462 -0.8140107900733653
4322000000.0 0.5136043537584956 -0.8621034370194993
4325000000.0 0.5633396498563384 -0.8450006038494752
4328000000.0 0.5411331739122389 -0.8382198374576193
4331000000.0 0.5000578211397381 -0.8765160213576941
4334000000.0 0.5702071400450547 -0.8558678253415174
4338000000.0 0.542618411158451 -0.8507582483806199
4341000000.0 0.5653725648130402 -0.8841927437341286
4344000000.0 0.5434096203588346 -0.8621523338722111
4347000000.0 0.5244425827693887 -0.8722546225258017
4350000000.0 0.5076939373507724 -0.8517920051474978
4353000000.0 0.5368514112238142 -0.8383390577818673
4356000000.0 0.5151304284128797 -0.8867791497866059
4359000000.0 0.5078143891674496 -0.8399315750289402
4362000000.0 0.5019397882239954 -0.8752667556230889
4366000000.0 0.5441679141473372 -0.8745645956160187
4369000000.0 0.5111314071850607 -0.8240704085992151
4372000000.0 0.48842055532366224 -0.8548427166573256
4375000000.0 0.5473141829871786 -0.8513357730597981
4378000000.0 0.5158715897942888 -0.8485553234505655
4381000000.0 0.5369512061605171 -0.8396202182639719
4384000000.0 0.5591955997135641 -0.9015688621655636
4388000000.0 0.516273869423394 -0.8264681572346387
4391000000.0 0.5213068822274798 -0.8624066817938519
4394000000.0 0.5010942102220842 -0.8377009164726777
4397000000.0 0.5092290069252097 -0.8585294086243762
4400000000.0 0.5451133621549794 -0.8727130739920369
4403000000.0 0.5331694758773732 -0.8716779344207133
4406000000.0 0.5151437215080483 -0.8801152914180445
4409000000.0 0.5321819154736487 -0.9032642364605771
4412000000.0 0.46958632045003634 -0.8831566803557533
4416000000.0 0.5006617111402163 -0.855923573640131
4419000000.0 0.4995666331110878 -0.8735851348046615
4422000000.0 0.5227189709034903 -0.8420240040317288
4425000000.0 0.5481362200533051 -0.8588144142956542
4428000000.0 0.5085713003553358 -0.8715519313073917
4431000000.0 0.5270894076738345 -0.8788125406013336
4434000000.0 0.5068037237609047 -0.8680308604129009
4438000000.0 0.5435228131039753 -0.875737031075667
4441000000.0 0.5382785978230906 -0.8785142030428148
4444000000.0 0.5195464974402554 -0.837634114962647
4447000000.0 0.5155395614861511 -0.8554076484360321
4450000000.0 0.5141662008971871 -0.8590827605820064
4453000000.0 0.5389842924884166 -0.8928903754166964
4456000000.0 0.5068806160348114 -0.8586172132905331
4459000000.0 0.4796099258610977 -0.8301268503010983
4462000000.0 0.5423559459862315 -0.928602001350989
4466000000.0 0.5190208206420877 -0.9043179309512854
4469000000.0 0.5306723812365834 -0.8533831514269881
4472000000.0 0.49852922283411505 -0.8936034252506289
4475000000.0 0.511489052134336 -0.845442849508287
4478000000.0 0.5084352152018651 -0.9014695579576542
4481000000.0 0.4930522181211578 -0.852406521934818
4484000000.0 0.479177699389199 -0.8769507003839585
4488000000.0 0.49735392243732035 -0.8671235766714782
4491000000.0 0.5079700885416354 -0.8815384400012554
4494000000.0 0.5155833139715408 -0.8591226476843177
4497000000.0 0.5188669851479313 -0.8502733639290367
4500000000.0 0.49396184894191786 -0.8817441044499232
4503000000.0 0.504329005204986 -0.885236967350757
4506000000.0 0.48860952589669765 -0.8651474426002682
4509000000.0 0.5098652523916978 -0.861696581294073
4512000000.0 0.4821561555904603 -0.8468624782321834
4516000000.0 0.5046787437487478 -0.8739439108255989
4519000000.0 0.5031310976526058 -0.8458033437582684
4522000000.0 0.5129424736300077 -0.8707843974615618
4525000000.0 0.5223246558423484 -0.8410601029267827
4528000000.0 0.5282044465208091 -0.8936589704154112
4531000000.0 0.5056604107443448 -0.8679764443423792
4534000000.0 0.4946110278369135 -0.8667108550046076
4538000000.0 0.5013344424610007 -0.8731228023675918
4541000000.0 0.4860595887898008 -0.8710512956280054
4544000000.0 0.4921298259431721 -0.8761104785251439
4547000000.0 0.49987786004421386 -0.8596635080748147
4550000000.0 0.49765289237246396 -0.8958503862331266
4553000000.0 0.4967317352007748 -0.8752702766779359
4556000000.0 0.4663421003103476 -0.8740086552062356
4559000000.0 0.496216678984052 -0.8900711967876888
4562000000.0 0.512663442081131 -0.8797862250003665
4566000000.0 0.49352829034531165 -0.8822093617689282
4569000000.0 0.5018478649306789 -0.8639804889242748
4572000000.0 0.4970370062793147 -0.8584708666636949
4575000000.0 0.47622964675986623 -0.8881769380386708
4578000000.0 0.5268371361275563 -0.8795515705453796
4581000000.0 0.48726387588364806 -0.8899998438163961
4584000000.0 0.48970150472694973 -0.8755160065331447
4588000000.0 0.5080755695148731 -0.8815167267296062
4591000000.0 0.5199408768145245 -0.8683427327005787
4594000000.0 0.48332582705774907 -0.8978341728612804
4597000000.0 0.503154926393871 -0.8950429678407662
4600000000.0 0.4818882574802513 -0.8790201069198099
4603000000.0 0.4850321186521539 -0.9055630729713161
4606000000.0 0.49501128560854957 -0.8853861528064497
4609000000.0 0.49253240041997914 -0.8800055459772991
4612000000.0 0.49862070032610617 -0.877968578939013
4616000000.0 0.47915789337179104 -0.8636291492061223
4619000000.0 0.4960544940765197 -0.8800135489175356
4622000000.0 0.5035250250246877 -0.8839991776171418
4625000000.0 0.45699658402197463 -0.8551461061914093
4628000000.0 0.4934137576001974 -0.8586647095801725
4631000000.0 0.464475487278577 -0.8865498137878567
4634000000.0 0.47807037587483225 -0.8706652555788249
4638000000.0 0.4909453096886818 -0.8999956537163563
4641000000.0 0.5063171403271745 -0.8925814667816185
4644000000.0 0.4853138684816046 -0.8847489164802956
4647000000.0 0.5021275309086366 -0.8642096847850358
4650000000.0 0.4643693388173633 -0.8745736497272776
4653000000.0 0.5012180522521444 -0.8924541317658212
4656000000.0 0.48011576771399855 -0.8840688390032532
4659000000.0 0.4761449118501321 -0.8778718342150444
4662000000.0 0.4941801991960182 -0.9229828171547169
4666000000.0 0.4832296534491543 -0.8892721779588615
4669000000.0 0.5050445755247581 -0.8869586749642567
4672000000.0 0.4679163709307594 -0.9158345820569698
4675000000.0 0.46644252428277877 -0.906724678598565
4678000000.0 0.453841334825276 -0.874284159725439
4681000000.0 0.4563522800699689 -0.902424041860739
4684000000.0 0.4582738096853095 -0.9204582394823769
4688000000.0 0.4494640283381447 -0.8875247195319482
4691000000.0 0.4992715100660249 -0.891662573244623
4694000000.0 0.4777575550358465 -0.8872044639427977
4697000000.0 0.44456250699743405 -0.8767262652843156
4700000000.0 0.48928420534508665 -0.8781098373486413
4703000000.0 0.48063081593374735 -0.8606986674118781
4706000000.0 0.47795743460390355 -0.9069201095865301
4709000000.0 0.4597488523911779 -0.8930404258187187
4712000000.0 0.4802825429227325 -0.8813224290135859
4716000000.0 0.47754693675391896 -0.9025986158796625
4719000000.0 0.509335255143477 -0.8875487761187925
4722000000.0 0.5013666100603188 -0.8811108695470143
4725000000.0 0.4676083831573839 -0.906830931353969
4728000000.0 0.4690433321795143 -0.89729701614493
4731000000.0 0.5145730912012131 -0.9191739796132572
4734000000.0 0.494734358578593 -0.8798317746830089
4738000000.0 0.5256735762638223 -0.917831719686658
4741000000.0 0.49933822694770164 -0.8991713696871663
4744000000.0 0.45232451262802065 -0.9147362069609034
4747000000.0 0.48089200935865073 -0.8597082057514993
4750000000.0 0.4939773412037121 -0.894432335337728
4753000000.0 0.5226224105604521 -0.9010379862536977
4756000000.0 0.44814513042556525 -0.9027714858710427
4759000000.0 0.518928702226005 -0.8939334760482837
4762000000.0 0.46025381858288117 -0.9111408456844565
4766000000.0 0.49543325830359364 -0.8720701991058084
4769000000.0 0.4777708971426956 -0.8996276835154007
4772000000.0 0.4830080421665115 -0.9108513031493636
4775000000.0 0.46712268141583824 -0.9350524309223244
4778000000.0 0.45433960281774244 -0.934436727476837
4781000000.0 0.5065216935098522 -0.8747441312403147
4784000000.0 0.49684303380308614 -0.8654235389092371
4788000000.0 0.4731774015382362 -0.9363905653386898
4791000000.0 0.4687393333802397 -0.9020752506395274
4794000000.0 0.5173438907931114 -0.9410182304127227
4797000000.0 0.4656796859991602 -0.8980332584243973
4800000000.0 0.45411720143318135 -0.921412064682062
4803000000.0 0.43874640609392834 -0.8755869111384564
4806000000.0 0.48879723400226105 -0.9032915552827163
4809000000.0 0.4489936408793924 -0.9185663465359064
4812000000.0 0.41873663747385603 -0.9010635469485677
4816000000.0 0.473748020258795 -0.8614750540121329
4819000000.0 0.4812011162744236 -0.8933128058518015
4822000000.0 0.4930613103417485 -0.9385419672962034
4825000000.0 0.5187081561835224 -0.9280589306513409
4828000000.0 0.4531289565024076 -0.8743950952527973
4831000000.0 0.43399782582448954 -0.9263394296062764
4834000000.0 0.480650476692383 -0.91099996481013
4838000000.0 0.46647238297226756 -0.9350637962047089
4841000000.0 0.4434497886017013 -0.8911535936434899
4844000000.0 0.4982968637929932 -0.8851861442795504
4847000000.0 0.48819419412071796 -0.8677094814527702
4850000000.0 0.47440999825826413 -0.9388984176235816
4853000000.0 0.4621641925826977 -0.8715718046639671
4856000000.0 0.4474341260851244 -0.8822819733607734
4859000000.0 0.49282207885543905 -0.9458280625243871
4862000000.0 0.4831787955551365 -0.8741899483531161
4866000000.0 0.48188089653886823 -0.9110338025061429
4869000000.0 0.46716574408579825 -0.899161476878597
4872000000.0 0.45811968730231833 -0.9412552473677105
4875000000.0 0.5404154201417479 -0.9218954997216079
4878000000.0 0.4792134258977775 -0.9249715355454358
4881000000.0 0.46860347450537987 -0.9631894750538538
4884000000.0 0.49285810709185995 -0.9031164838747899
4888000000.0 0.4915193769080912 -0.8936449567500748
4891000000.0 0.521967381126585 -0.8916761465612063
4894000000.0 0.4687063141382539 -0.9129355639799133
4897000000.0 0.49882439991947325 -0.8866323225692003
4900000000.0 0.49448242337691994 -0.9041479564881664
4903000000.0 0.5083641202411586 -0.9101095747596099
4906000000.0 0.4875147514428469 -0.9083753505096713
4909000000.0 0.5000325699974886 -0.9070740013499186
4912000000.0 0.474506440475104 -0.9585223859894066
4916000000.0 0.5237372720418979 -0.92673807155738
4919000000.0 0.5537102543808703 -0.9083942819964806
4922000000.0 0.5084980285899862 -0.8825699335835474
4925000000.0 0.460223780526618 -0.904432880379729
4928000000.0 0.517704022293737 -0.8704916389714167
4931000000.0 0.5242262311526749 -0.8860185669387672
4934000000.0 0.4700396030321178 -0.8515948712479511
4938000000.0 0.4504246591203675 -0.9154242799565543
4941000000.0 0.5008477939491827 -0.8753184098308647
4944000000.0 0.4956562484895585 -0.857269618632517
4947000000.0 0.4791744784552858 -0.8538358763465832
4950000000.0 0.46241251639011705 -0.8804235544688638
4953000000.0 0.4494771703556302 -0.9546481231875529
4956000000.0 0.4722419074191191 -0.923265410483219
4959000000.0 0.4511325499786724 -0.9014206509284435
4962000000.0 0.4771902196622956 -0.9384575763468739
4966000000.0 0.5057369336509543 -0.9109112078016842
4969000000.0 0.515316857950963 -0.9332386755970208
4972000000.0 0.4633007806138766 -0.9123313425818362
4975000000.0 0.5345691137073149 -0.8904017509038735
4978000000.0 0.4860250108971519 -0.8709104311579674
4981000000.0 0.4718102572795252 -0.8814343848640125
4984000000.0 0.47856044125678787 -0.8875936273033057
4988000000.0 0.5285691101884442 -0.8894661760130004
4991000000.0 0.5492792859524227 -0.9005147894629132
4994000000.0 0.48872472445343423 -0.8828664894152003
4997000000.0 0.4738727037905994 -0.9107805821115353
5000000000.0 0.541864259254105 -0.9362159808310478
5003000000.0 0.5108453622542471 -0.9281428384961254
5006000000.0 0.5142930407831163 -0.9552834187858035
5009000000.0 0.5028975693789167 -0.8830744155852824
5012000000.0 0.5005458970416833 -0.9243209924887974
5016000000.0 0.5301013264489121 -0.9035250693318516
5019000000.0 0.46092005400983604 -0.9244093149126842
5022000000.0 0.4948175711926909 -0.8994013226738166
5025000000.0 0.5245418944340264 -0.9483290856717702
5028000000.0 0.49069736816672493 -0.9279977069765084
5031000000.0 0.46727547507787304 -0.9105544575609037
5034000000.0 0.47714496842992393 -0.9681067250877463
5038000000.0 0.4634748549332868 -0.8857256119410288
5041000000.0 0.5365008069419873 -0.8863136518109374
5044000000.0 0.5265897865771012 -0.8596944982665218
5047000000.0 0.5226403272619911 -0.9038763847642448
5050000000.0 0.5605368998238346 -0.8548321915788707
5053000000.0 0.5034783689745284 -0.9293503250159193
5056000000.0 0.5253460198877019 -0.8990682999912691
5059000000.0 0.5497986040909137 -0.8506554318775097
5062000000.0 0.45698704361922166 -0.9183359208164419
5066000000.0 0.5856709722300419 -0.8938147239188711
5069000000.0 0.5086442519876343 -0.9159722545430231
5072000000.0 0.4999488827452163 -0.8615945869298665
5075000000.0 0.5142518436731365 -0.8490207869667501
5078000000.0 0.4826209747623722 -0.9194235391443213
5081000000.0 0.4939592230500712 -0.881347345687906
5084000000.0 0.4907968605472809 -0.8999120692710405
5088000000.0 0.5320286646837202 -0.8783009757236437
5091000000.0 0.4531537502009573 -0.9356708347208635
5094000000.0 0.5010706430795164 -0.874990066945871
5097000000.0 0.5678745149627458 -0.9065299047988666
5100000000.0 0.49828374076141096 -0.8948225581786644
5103000000.0 0.4872372661995165 -0.9106651865698336
5106000000.0 0.5166505138909934 -0.9363056633283997
5109000000.0 0.5200548055736091 -0.89036327926178
5112000000.0 0.5300858738920321 -0.8940568020475848
5116000000.0 0.49002025315783726 -0.8169495760514824
5119000000.0 0.563229048324145 -0.9237151870265259
5122000000.0 0.5055661885234379 -0.9379161417113948
5125000000.0 0.5483191252340979 -0.8723039756375351
5128000000.0 0.5288275941412827 -0.9109459629315922
5131000000.0 0.5378063997407109 -0.8649439542222357
5134000000.0 0.5092378728920895 -0.8755792757315446
5138000000.0 0.5542770620748616 -0.8716850610914124
5141000000.0 0.5907943674792205 -0.9028880911232764
5144000000.0 0.5641374053920144 -0.8650290892025305
5147000000.0 0.5530358942535583 -0.9251699628936996
5150000000.0 0.5405599741562681 -0.8887403193266848
5153000000.0 0.5171105947820993 -0.9188649289414242
5156000000.0 0.5655749023985331 -0.849251338289108
5159000000.0 0.5854799750608922 -0.8964148046986063
5162000000.0 0.50239384864515 -0.8918127637842937
5166000000.0 0.49754153912860377 -0.9169813908619076
5169000000.0 0.5638132745508097 -0.9072776170276443
5172000000.0 0.5753316378730239 -0.8960122561431563
5175000000.0 0.5832700524367977 -0.885680025808208
