! Created with skrf 1.8.0 (http://scikit-rf.org).
# Hz S RI R 50.0 
!freq ReS11 ImS11
4000000000.0 0.5532667294728386 -0.857904526090564
4003000000.0 0.5502027495786628 -0.9535321786018238
4006000000.0 0.554285109802717 -0.8989192535727708
4009000000.0000005 0.5340185786717562 -0.8782835602704571
4011999999.9999995 0.5991969381577014 -0.8473772423071692
4016000000.0 0.5483414213535505 -0.9302490822414369
4019000000.0 0.5556033078512463 -0.8927461230189297
4022000000.0000005 0.6135850477643412 -0.8512612581698136
4025000000.0000005 0.49196364096543754 -0.9476942568711226
4027999999.9999995 0.5532264881068961 -0.8844350086813256
4030999999.9999995 0.5691552919395643 -0.8403152848701858
4034000000.0 0.5069111408856752 -0.8350342424151258
4038000000.0000005 0.5388571754702096 -0.8992443535693105
4041000000.0000005 0.5652542450423856 -0.8810717210032641
4043999999.9999995 0.5526062949990187 -0.964615248375317
4046999999.9999995 0.582945388055373 -0.85248008091444
4050000000.0 0.5234323995519569 -0.9270123784610265
4053000000.0 0.5079719354211021 -0.8489480461652585
4056000000.0 0.5606717222684874 -0.8606451790479828
4059000000.0 0.5394847237150701 -0.8600419400113886
4062000000.0000005 0.528097331135336 -0.8712888363553307
4066000000.0 0.5117833049100332 -0.8223200647503387
4069000000.0 0.5720527134462656 -0.9586426854053834
4072000000.0 0.5848766041633251 -0.8212455577754585
4075000000.0 0.6395370803132046 -0.8983533001861711
4078000000.0000005 0.5336023165793498 -0.8946118813194758
4081000000.0000005 0.6568032692772476 -0.8606305837093611
4083999999.9999995 0.523815614755522 -0.9392559427966359
4088000000.0 0.5483444438505043 -0.8284499302834136
4091000000.0 0.592052369655188 -0.931976722413574
4094000000.0000005 0.5693812230720959 -0.8983519970795234
4097000000.0000005 0.5887101954095268 -0.8517836974543541
4099999999.9999995 0.567248535076793 -0.8922513074249643
4102999999.9999995 0.5756394442255752 -0.8532501903690544
4106000000.0 0.5753461244463707 -0.9444571967712029
4109000000.0 0.5331289143661277 -0.9165286935124664
4112000000.0 0.566966060181036 -0.8441918812915937
4115999999.9999995 0.5830306924427919 -0.9016486374830892
4119000000.0 0.5521842774051368 -0.887409566893658
4122000000.0 0.5501368620380771 -0.873158773778074
4125000000.0 0.5579635936826723 -0.9026404204265115
4128000000.0 0.5623123830775483 -0.853763831625995
4131000000.0 0.5406524842452692 -0.8393325301189511
4134000000.0000005 0.5587839352966386 -0.8635754077241272
4138000000.0 0.4915702146720407 -0.8390069877580495
4141000000.0 0.5638844622840848 -0.894304185347378
4144000000.0 0.5785523852467542 -0.8944560368337765
4147000000.0000005 0.526798996919692 -0.869732490731068
4150000000.0000005 0.5800397704691016 -0.8974974582438312
4152999999.9999995 0.5560845044633838 -0.8873958184560765
4155999999.9999995 0.5816125464029414 -0.8681332624555724
4159000000.0 0.5248029527141851 -0.8231881413536496
4162000000.0 0.5828373450710448 -0.875861716690889
4166000000.0000005 0.5619999528069013 -0.8836350031304133
4168999999.9999995 0.5478362602797222 -0.8790646202200944
4171999999.9999995 0.5375101503791845 -0.886552866972096
4175000000.0 0.5698506920504955 -0.8653183790243721
4178000000.0 0.5779792648523057 -0.8951412201512478
4181000000.0 0.5736327189928002 -0.8877125008640591
4184000000.0 0.5361634878668756 -0.861927763034793
4187999999.9999995 0.5556538815831006 -0.8516821559407226
4191000000.0 0.5772729953457177 -0.8550562231807901
4194000000.0 0.5264812900605393 -0.842333316835931
4197000000.0 0.571444799438627 -0.8685604148339696
4200000000.0 0.5644516333112439 -0.8610028334246835
4203000000.0000005 0.5680429707023613 -0.8428230850550921
4206000000.0000005 0.5591326010979025 -0.8717834858456132
4208999999.9999995 0.5727087485583413 -0.8345730378971061
4211999999.9999995 0.5330905214269097 -0.8883739193950951
4216000000.0 0.564944752366247 -0.848464771673176
4219000000.0000005 0.5719536982295377 -0.8583389081704312
4222000000.0000005 0.5542299010108326 -0.8778144807848465
4224999999.9999995 0.5698193354081214 -0.8613947952391164
4227999999.9999995 0.5742562700572951 -0.8720637063469322
4231000000.0 0.5596805386234173 -0.8551553233781274
4234000000.0 0.5515732955555743 -0.8833905204231105
4238000000.0000005 0.5490563345653507 -0.8670975761896889
4240999999.9999995 0.5372966131089717 -0.8552739912534466
4244000000.0 0.5783265709613938 -0.8582909462221737
4247000000.0 0.5724971980951887 -0.8625802487205877
4250000000.0 0.5338104793122307 -0.8461088732218437
4253000000.0 0.5340589584654674 -0.8516028079303638
4256000000.0 0.5683289283631617 -0.8888204324940621
4259000000.0000005 0.5300375749427866 -0.8387613035678994
4261999999.9999995 0.549043984855621 -0.8629494389652211
4266000000.0 0.5386933574763373 -0.8788762503393215
4269000000.0 0.5703821896597269 -0.853285346864784
4272000000.0000005 0.5464902827762688 -0.858406163183704
4275000000.0000005 0.5374657175352413 -0.8600934434059353
4277999999.9999995 0.5734799537680271 -0.880397291813746
4280999999.9999995 0.5796910253752915 -0.8520308284490268
4284000000.0 0.5243492327035788 -0.87982194197151
4288000000.0000005 0.5765132888920966 -0.831947954819845
4291000000.0000005 0.5477989977100888 -0.8493846642262081
4293999999.9999995 0.5570516693762312 -0.8694866367707546
4297000000.0 0.5707221186912537 -0.8258861745528325
4300000000.0 0.5571839284295446 -0.861558028679219
4303000000.0 0.5460447763788877 -0.8792566197473484
4306000000.0 0.5635320980476746 -0.8526978675988723
4309000000.0 0.5664187175104727 -0.8541848150225761
4312000000.0 0.5955428229964939 -0.8616067364641598
4316000000.0 0.5741772455432965 -0.8661330578748395
4319000000.0 0.548369228273365 -0.8289371521682417
4322000000.0 0.5384764993698273 -0.8608546989518188
4325000000.0 0.5634464545004908 -0.856958005928049
4328000000.0 0.5403214781599315 -0.8460243518506717
4331000000.0 0.5362815205099406 -0.8904110726579834
4334000000.0 0.5494500787209514 -0.870931462663123
4338000000.0 0.5615670420525951 -0.8547053628158222
4341000000.0 0.5710389356884217 -0.8818274664504832
4344000000.0 0.5779407100870304 -0.8850920059049115
4347000000.0 0.5455550251529117 -0.8695203561163785
4350000000.0 0.545128108662472 -0.8292188334973686
4353000000.0 0.5461156329294182 -0.8338177261244281
4356000000.0 0.5246419004958921 -0.8380919924548328
4359000000.0 0.5297834615007714 -0.8131929650097188
4362000000.0 0.5054113490583428 -0.8812496542966861
4366000000.0 0.5638853291911013 -0.861675133173038
4369000000.0 0.5246918637114709 -0.8392318114187132
4372000000.0 0.5113586825479169 -0.8530961204325302
4375000000.0 0.558238629441954 -0.8408776943326353
4378000000.0 0.5307525318510048 -0.8432899010747174
4381000000.0 0.5380482479100849 -0.8479355832431595
4384000000.0 0.5669433428383244 -0.9007879603751637
4388000000.0 0.5522017441772361 -0.8236210729242526
4391000000.0 0.5425797536386603 -0.852931287134981
4394000000.0 0.5229066181128198 -0.8229639928474137
4397000000.0 0.5262326437011008 -0.8448782576406295
4400000000.0 0.5623736597542824 -0.8780016937822749
4403000000.0 0.5495585029049379 -0.8675124704159672
4406000000.0 0.5343722531458028 -0.8691130144397209
4409000000.0 0.5542902482054314 -0.901482220714036
4412000000.0 0.4800836984627301 -0.8773100679735552
4416000000.0 0.5297844547763823 -0.8533945611075684
4419000000.0 0.5272288170633772 -0.8622942866148393
4422000000.0 0.5411673671082246 -0.852696950163948
4425000000.0 0.575249518929973 -0.8628043217676131
4428000000.0 0.5302785806883408 -0.8637903438174727
4431000000.0 0.5695559221257355 -0.8728688070754452
4434000000.0 0.5301476928042769 -0.8501955344291797
4438000000.0 0.5517844588701198 -0.864411949633384
4441000000.0 0.5447844847973199 -0.8647876083042556
4444000000.0 0.528842417689064 -0.8430773847548874
4447000000.0 0.521049191056975 -0.8554936202016519
4450000000.0 0.5493279486536422 -0.8498343551677414
4453000000.0 0.562960633439554 -0.8733843545524868
4456000000.0 0.5240194003148986 -0.8386226893303634
4459000000.0 0.4957962096918771 -0.8454966795114932
4462000000.0 0.5712084792283905 -0.910708956696747
4466000000.0 0.5523850872795515 -0.8821702569405845
4469000000.0 0.5548409376591413 -0.8533288174615128
4472000000.0 0.5346468244616736 -0.8949600685977954
4475000000.0 0.5290066191497167 -0.8396400867958098
4478000000.0 0.5483478804213585 -0.920058422112816
4481000000.0 0.5190835039986359 -0.8377827656846402
4484000000.0 0.5115911625821461 -0.8769409580868638
4488000000.0 0.5122853000343023 -0.8709761239702671
4491000000.0 0.5229745236134862 -0.8730126574511012
4494000000.0 0.5365019814180708 -0.8461097393044766
4497000000.0 0.5559947047858768 -0.8387467154805686
4500000000.0 0.5559101406802143 -0.8752855783345387
4503000000.0 0.5442757150363662 -0.8818207397808837
4506000000.0 0.5393108338824709 -0.8581771732905693
4509000000.0 0.5186321553591251 -0.8537998340458403
4512000000.0 0.5161639705394083 -0.8598018458629089
4516000000.0 0.5531163829489114 -0.8733687727470298
4519000000.0 0.5175603477934874 -0.838770088449601
4522000000.0 0.5211765654607734 -0.8626737922163464
4525000000.0 0.5686159261818211 -0.8476722228600313
4528000000.0 0.5355261757530636 -0.8894338334949323
4531000000.0 0.5570261448693469 -0.8652525862467499
4534000000.0 0.5229364373376424 -0.8553777079859316
4538000000.0 0.5264834477035402 -0.8575317003054637
4541000000.0 0.4944361707953852 -0.8867173372455104
4544000000.0 0.5300339829705893 -0.8514351099063135
4547000000.0 0.5358597647266738 -0.8505784352098686
4550000000.0 0.50066641050065 -0.884662180547288
4553000000.0 0.532330040380996 -0.8797303188001129
4556000000.0 0.4921289577040102 -0.8556441936031265
4559000000.0 0.51803020468222 -0.8750812510753143
4562000000.0 0.5441648448706649 -0.8817283970310101
4566000000.0 0.5273267127485486 -0.8729857452664656
4569000000.0 0.518462098278859 -0.8416762841779867
4572000000.0 0.5095183386525304 -0.8781225022137487
4575000000.0 0.5141028515029186 -0.8886992123610677
4578000000.0 0.5354701146286446 -0.8741561753401406
4581000000.0 0.5061174063652318 -0.8989466767800931
4584000000.0 0.5048305216106493 -0.8628054801853982
4588000000.0 0.5408463233212486 -0.886316386942301
4591000000.0 0.5261556119199708 -0.8841770645864145
4594000000.0 0.5145892302019229 -0.8802994027100277
4597000000.0 0.5250736823577018 -0.8773893097744649
4600000000.0 0.48603566559662514 -0.8892304298205833
4603000000.0 0.5288581777578931 -0.8939548923655825
4606000000.0 0.5361921213838072 -0.867487146538785
4609000000.0 0.5088789005519556 -0.8621243887977694
4612000000.0 0.5028105182716922 -0.880545975891977
4616000000.0 0.4938586674788149 -0.8815725422032018
4619000000.0 0.5114578347361172 -0.8697026944638684
4622000000.0 0.5184920631071812 -0.8817611622051235
4625000000.0 0.4745787329934389 -0.8490746394728879
4628000000.0 0.5242334204032384 -0.8540728921869856
4631000000.0 0.504749922277048 -0.8702055458394711
4634000000.0 0.5196702727120311 -0.8665924067722727
4638000000.0 0.517044222239327 -0.8865669715110415
4641000000.0 0.513914920043155 -0.8757098035638673
4644000000.0 0.5055829836874073 -0.8750929692945062
4647000000.0 0.5189856884122948 -0.8701640437416422
4650000000.0 0.4954793690342095 -0.8785354633770789
4653000000.0 0.5280051435843697 -0.8907293120092146
4656000000.0 0.506522701133003 -0.8810202210011187
4659000000.0 0.5081223468347017 -0.889241347401081
4662000000.0 0.4848950383917323 -0.8954989637924227
4666000000.0 0.500282339321902 -0.8737413442600195
4669000000.0 0.5233604199386312 -0.8929655780692717
4672000000.0 0.5057553471021449 -0.8997807214161321
4675000000.0 0.4833281275218768 -0.8921308684980598
4678000000.0 0.48454211013166704 -0.8672680345044653
4681000000.0 0.48168816764852046 -0.8910708049522025
4684000000.0 0.4703021592204549 -0.8762995546555
4688000000.0 0.4779172173624951 -0.8585637545834571
4691000000.0 0.5061180202863169 -0.8897584677349498
4694000000.0 0.49277968794952465 -0.8738310183262108
4697000000.0 0.4829311168822905 -0.867581978317732
4700000000.0 0.5213892905997604 -0.8583832984032523
4703000000.0 0.5037614030939083 -0.8563774033329198
4706000000.0 0.4946187862386882 -0.8695729762948832
4709000000.0 0.4850823264338804 -0.8838071482133731
4712000000.0 0.5221189304890619 -0.8874088456631907
4716000000.0 0.5224189858114243 -0.9139109414089989
4719000000.0 0.5334743724311282 -0.8997416888585131
4722000000.0 0.5364953585243956 -0.8769147773472188
4725000000.0 0.5341333819210993 -0.8978755867656372
4728000000.0 0.494825877686284 -0.9012015041648288
4731000000.0 0.5317013693953254 -0.9276159143792644
4734000000.0 0.48555243784597496 -0.8656002008081753
4738000000.0 0.5602982871692845 -0.9374473807926194
4741000000.0 0.5063015580831822 -0.9051118054482432
4744000000.0 0.4906520184898164 -0.9002441084992594
4747000000.0 0.48630033484239893 -0.8975059277852849
4750000000.0 0.5069897585710066 -0.8863222461112052
4753000000.0 0.504842836251016 -0.878289207747014
4756000000.0 0.5200878854211717 -0.9208017140902116
4759000000.0 0.5353887878039009 -0.8954395291613906
4762000000.0 0.511090912362971 -0.9397873999745092
4766000000.0 0.4841452147328532 -0.8906464113826955
4769000000.0 0.5345678299428038 -0.9043036421271632
4772000000.0 0.5099691902268841 -0.8897139457087363
4775000000.0 0.5144691472298168 -0.9324728482761347
4778000000.0 0.4973878781076744 -0.9088893084266523
4781000000.0 0.5152476312605736 -0.8711925420854478
4784000000.0 0.49708720074332385 -0.862295158180528
4788000000.0 0.48525612582767885 -0.9083302126132862
4791000000.0 0.49294736691648344 -0.8815656599142704
4794000000.0 0.532909775338215 -0.901291334792975
4797000000.0 0.4852545983294707 -0.8682592537022161
4800000000.0 0.4894285675442801 -0.8860349386340536
4803000000.0 0.48496608506272876 -0.8900677015912447
4806000000.0 0.5048358006869608 -0.9251175276858573
4809000000.0 0.49596358523036516 -0.9009113812477859
4812000000.0 0.44834060719042335 -0.8925986418359148
4816000000.0 0.5231443995940146 -0.85092676421728
4819000000.0 0.5583488883892711 -0.9029872346110903
4822000000.0 0.5392155306894071 -0.9188332708386852
4825000000.0 0.5326033475482368 -0.9064946989738897
4828000000.0 0.48491560146174206 -0.9111072466260138
4831000000.0 0.47239843230297096 -0.9304754585660235
4834000000.0 0.5189869290241969 -0.9009696135509507
4838000000.0 0.5041456022219261 -0.9069059767937072
4841000000.0 0.48026964880368767 -0.8954632877341009
4844000000.0 0.5294692781795758 -0.9044223557819483
4847000000.0 0.4963547540669955 -0.8776610183091554
4850000000.0 0.5158766884957977 -0.926613737247318
4853000000.0 0.49786420590338265 -0.8781938809288297
4856000000.0 0.4989793430480354 -0.8873297302136212
4859000000.0 0.5214550680963072 -0.9472002941012492
4862000000.0 0.5139293608843074 -0.8807779997583006
4866000000.0 0.5014176036180092 -0.9117344103857318
4869000000.0 0.4926209447740947 -0.9043541004660411
4872000000.0 0.502028036163823 -0.9572868202305868
4875000000.0 0.560237490926575 -0.9118266849109429
4878000000.0 0.5289955954008403 -0.893396964865086
4881000000.0 0.516366459285615 -0.9583822858125133
4884000000.0 0.5150020375387291 -0.9030686841244707
4888000000.0 0.5511392968104117 -0.8595448641354869
4891000000.0 0.539758724409432 -0.9073854696394137
4894000000.0 0.49243199280973987 -0.9145351850100458
4897000000.0 0.5252463983572797 -0.8573086285134164
4900000000.0 0.5157606976013487 -0.9070364889898034
4903000000.0 0.5287725751918574 -0.9091265053284104
4906000000.0 0.5100072031959021 -0.9721698708461902
4909000000.0 0.4921306215793885 -0.8980856903282123
4912000000.0 0.5142053384838186 -0.9414939713134076
4916000000.0 0.5343614594877814 -0.9353841667744414
4919000000.0 0.5753788179662711 -0.9282976119221126
4922000000.0 0.5581354730292333 -0.9034178485039795
4925000000.0 0.5088306624883839 -0.9041973666884275
4928000000.0 0.5513123970786744 -0.8824674377433236
4931000000.0 0.5351400050073083 -0.9078538184386012
4934000000.0 0.46917035288613873 -0.8512969055923616
4938000000.0 0.4910429374307247 -0.9429059452402297
4941000000.0 0.5036906846147239 -0.8686596609590888
4944000000.0 0.5008867766845401 -0.8524786343717804
4947000000.0 0.531155795317927 -0.8729560410610692
4950000000.0 0.5130015242912863 -0.9166787533063387
4953000000.0 0.5170619509080037 -0.9498575011824469
4956000000.0 0.4986450466425852 -0.9008870782092926
4959000000.0 0.49969657644608517 -0.8806609181317822
4962000000.0 0.5109932489451808 -0.9230771764590069
4966000000.0 0.5341882487877401 -0.9254251652392174
4969000000.0 0.5382775213496891 -0.9284309385064515
4972000000.0 0.4845452478139477 -0.9203328043792318
4975000000.0 0.5305114350070889 -0.8726849162555004
4978000000.0 0.4867538158645358 -0.9179693460953158
4981000000.0 0.5142978973799011 -0.9433350477545861
4984000000.0 0.5198992877061762 -0.8759661360567697
4988000000.0 0.5489515651026418 -0.8919894013131232
4991000000.0 0.5721768876464134 -0.9150641187294879
4994000000.0 0.5272385953746063 -0.8933149009871107
4997000000.0 0.4409139364662288 -0.9108272778034521
5000000000.0 0.5498206393091473 -0.9274685930985709
5003000000.0 0.5532919114644506 -0.9303787068813839
5006000000.0 0.5344589664129169 -0.9487665635373843
5009000000.0 0.50183656469414 -0.8826215413291273
5012000000.0 0.4944897161259182 -0.9078552512394076
5016000000.0 0.6004092956411278 -0.8642209315117674
5019000000.0 0.4992208399372121 -0.8990556743901841
5022000000.0 0.5045708929905587 -0.9002444046378211
5025000000.0 0.5578877181448074 -0.971009190207431
5028000000.0 0.5062519341993565 -0.924916011115042
5031000000.0 0.5355417650566026 -0.8811971669754414
5034000000.0 0.5082619918887442 -0.937483083382427
5038000000.0 0.4910372506977749 -0.888045845840739
5041000000.0 0.5821209151423098 -0.8998607212921946
5044000000.0 0.527972110862619 -0.867414082260322
5047000000.0 0.5532347784907495 -0.9173960880248118
5050000000.0 0.5916245623752822 -0.8316185715845483
5053000000.0 0.5262237481919434 -0.9322271809089379
5056000000.0 0.5424297767350477 -0.8756790437029686
5059000000.0 0.5684638487813877 -0.9134578969552287
5062000000.0 0.47279376681008256 -0.9535184903146293
5066000000.0 0.5551734460941147 -0.8509839590237447
5069000000.0 0.6060424417546939 -0.8836829168631268
5072000000.0 0.5132001488014607 -0.8700153088027822
5075000000.0 0.59818807704599 -0.8855787929426853
5078000000.0 0.5116004936051928 -0.9337992675627236
5081000000.0 0.4897251445034777 -0.8841081545503761
5084000000.0 0.5184128183107977 -0.9384664098118219
5088000000.0 0.5636691423926873 -0.8769004346262993
5091000000.0 0.5054015710231887 -0.9207021175527037
5094000000.0 0.5083052270892322 -0.9093802145246819
5097000000.0 0.575700224379831 -0.8620860760627097
5100000000.0 0.5452579407085238 -0.8468992184538392
5103000000.0 0.542452139694896 -0.9447353617523917
5106000000.0 0.5820887430904751 -0.9636104950457538
5109000000.0 0.5833715917997219 -0.8871179767881989
5112000000.0 0.5070612462556634 -0.9049125471635796
5116000000.0 0.5310154604804105 -0.8274228229161029
5119000000.0 0.5640703666176397 -0.9301543551855287
5122000000.0 0.5510246279644149 -0.8628530487365531
5125000000.0 0.5576943910603162 -0.8446034310379593
5128000000.0 0.5383313842025643 -0.9284022598225963
5131000000.0 0.5332044873387229 -0.9076797487410424
5134000000.0 0.5636427168647606 -0.9182961983333104
5138000000.0 0.5588566856904273 -0.8509021797158124
5141000000.0 0.594490783946729 -0.8405562214238829
5144000000.0 0.5562866037518732 -0.8488897087525837
5147000000.0 0.6075926565242147 -0.9645043304485943
5150000000.0 0.6292339222196057 -0.9013886935117859
5153000000.0 0.5551407761794754 -0.8802907866226228
5156000000.0 0.566629793910808 -0.8911575345285621
5159000000.0 0.6059781001853684 -0.9406419043948582
5162000000.0 0.5265052466689876 -0.8453362416740995
5166000000.0 0.5564950911833002 -0.9081444453527013
5169000000.0 0.5733723331147041 -0.9156276868349573
5172000000.0 0.5496488230370834 -0.8819890745261181
5175000000.0 0.5880023354374277 -0.904412331989976
5178000000.0 0.5594611587587555 -0.8886115697534269
5181000000.0 0.5683855674941649 -0.9202934508509745
