! Created with skrf 1.8.0 (http://scikit-rf.org).
# Hz S RI R 50.0 
!freq ReS11 ImS11
4000000000.0 0.8573792659461419 -0.5540924638690146
4003000000.0 0.9223791349589104 -0.6055247854157795
4006000000.0 0.834899820527986 -0.573517420587147
4009000000.0000005 0.8581315845590884 -0.5801701404560635
4011999999.9999995 0.928667293401405 -0.5232339305615274
4016000000.0 0.8415225628040843 -0.6147902321189004
4019000000.0 0.9016922632666271 -0.594741362136507
4022000000.0000005 0.8691152760170663 -0.5041965659295236
4025000000.0000005 0.8852713021044174 -0.6465867084125729
4027999999.9999995 0.8063262585906614 -0.6022652798371858
4030999999.9999995 0.7517344309541081 -0.5762379694334332
4034000000.0 0.8769967346313114 -0.6157990290194228
4038000000.0000005 0.8151153274670835 -0.5780067174840704
4041000000.0000005 0.8416562501149627 -0.5564548958900138
4043999999.9999995 0.94525567975704 -0.6485949785987993
4046999999.9999995 0.8520130036396282 -0.5890544272189804
4050000000.0 0.8243123991306838 -0.634355484744692
4053000000.0 0.7596829587031368 -0.598274621105305
4056000000.0 0.8667793760552637 -0.5805907389018363
4059000000.0 0.8355083387789223 -0.5585994736362279
4062000000.0000005 0.8051145541628036 -0.588620745344498
4066000000.0 0.7728290561954424 -0.5522913452761455
4069000000.0 0.8570687458955027 -0.6211621966083597
4072000000.0 0.8782278164650826 -0.520989805015923
4075000000.0 0.9051044605903588 -0.5796513264591753
4078000000.0000005 0.8601060831097822 -0.6057603775314709
4081000000.0000005 0.9411137219860783 -0.5231700828562098
4083999999.9999995 0.8345432996813786 -0.5597504951160792
4088000000.0 0.8636506700084207 -0.5405165922301292
4091000000.0 0.8723342953138545 -0.7211181269454024
4094000000.0000005 0.8502724871071486 -0.5856752782734439
4097000000.0000005 0.8745556716800384 -0.5930674378509697
4099999999.9999995 0.8584433311277411 -0.6228226264180435
4102999999.9999995 0.8858793189874236 -0.5788442731823735
4106000000.0 0.8344190357882445 -0.6226425527863978
4109000000.0 0.8453442861061594 -0.623363939797393
4112000000.0 0.8296904124756395 -0.5942084501175127
4115999999.9999995 0.889343928683299 -0.5676574849098986
4119000000.0 0.8195090166546998 -0.5959720061152347
4122000000.0 0.8643186536265326 -0.6088584915019364
4125000000.0 0.8868430986264084 -0.6668291119078951
4128000000.0 0.7994651897094118 -0.550634064336403
4131000000.0 0.8779575625941315 -0.5537752016051896
4134000000.0000005 0.8232745489303762 -0.5841446616434729
4138000000.0 0.7454085932474779 -0.6520011723638364
4141000000.0 0.8434469136039034 -0.5783905154424454
4144000000.0 0.83283745394219 -0.6401271333537835
4147000000.0000005 0.8215204221899108 -0.6184786333166237
4150000000.0000005 0.8888083301424927 -0.5882731408689018
4152999999.9999995 0.8359783860787939 -0.6285944081142465
4155999999.9999995 0.8631380851533064 -0.5811534788193319
4159000000.0 0.835264964524262 -0.5814198119295144
4162000000.0 0.8425512883737998 -0.5696831453573865
4166000000.0000005 0.8487774812830785 -0.575782395948492
4168999999.9999995 0.8385055776669843 -0.6091134568214758
4171999999.9999995 0.852050636295573 -0.5751982899135151
4175000000.0 0.856645314479119 -0.5516984889016879
4178000000.0 0.8799639485491597 -0.5963336739175568
4181000000.0 0.8919824376547845 -0.574250953584595
4184000000.0 0.8312110397248883 -0.5728460144747105
4187999999.9999995 0.839771463887842 -0.559104269535931
4191000000.0 0.8694746646128426 -0.5690103222129494
4194000000.0 0.8297444198760897 -0.5407891777917314
4197000000.0 0.8528960669632897 -0.5715171384309551
4200000000.0 0.7983047941919508 -0.5807991427021755
4203000000.0000005 0.8357934687684789 -0.5606442290107093
4206000000.0000005 0.8481029316274938 -0.5792749793442622
4208999999.9999995 0.8366817267646136 -0.5602398017479067
4211999999.9999995 0.8227838054242854 -0.6122519729073973
4216000000.0 0.84126278958582 -0.5761783513313096
4219000000.0000005 0.8517782013978772 -0.5985686079784464
4222000000.0000005 0.8656591665608209 -0.6158007343173211
4224999999.9999995 0.8423773596498959 -0.6078894518652117
4227999999.9999995 0.8520879154044265 -0.5920533650481583
4231000000.0 0.8298677588912777 -0.5639719356672943
4234000000.0 0.8086984122142207 -0.633698750785457
4238000000.0000005 0.8725478149147081 -0.5938406328576747
4240999999.9999995 0.854315784089828 -0.5870117178801162
4244000000.0 0.8591470180032563 -0.5952648230716919
4247000000.0 0.8646393789995819 -0.5770161025653696
4250000000.0 0.8550580170218302 -0.5728679130535443
4253000000.0 0.8357708142210356 -0.5732069628392185
4256000000.0 0.8309758186635351 -0.5726002121626953
4259000000.0000005 0.8237383745253763 -0.5843536894526054
4261999999.9999995 0.8200776857913152 -0.591243443042761
4266000000.0 0.8635792444604302 -0.5902398938719993
4269000000.0 0.8503501218698992 -0.580612791181636
4272000000.0000005 0.8329585714655963 -0.5964614259434164
4275000000.0000005 0.803885487354402 -0.6138394530762452
4277999999.9999995 0.8355767965142273 -0.6509841947822229
4280999999.9999995 0.842978240062998 -0.563665870566287
4284000000.0 0.8018092301062456 -0.6318918203092614
4288000000.0000005 0.8469296528079373 -0.5875890496556778
4291000000.0000005 0.8099855594146124 -0.5621718156143962
4293999999.9999995 0.8141211610680752 -0.5643272473717438
4297000000.0 0.8021849011264031 -0.5997841987949643
4300000000.0 0.8444471550136552 -0.6096454195135784
4303000000.0 0.8315036486516355 -0.5635965198858802
4306000000.0 0.8640640250630849 -0.5504049390640802
4309000000.0 0.8231509744853733 -0.586639417688915
4312000000.0 0.8691187415799935 -0.5524623466791181
4316000000.0 0.8481309154926995 -0.5567359288004777
4319000000.0 0.7768361858695197 -0.6174408182288866
4322000000.0 0.7972276063177484 -0.5866401992516688
4325000000.0 0.8234693419571749 -0.5579847468293788
4328000000.0 0.8184983945946557 -0.5904528242476285
4331000000.0 0.853953922271319 -0.6111022375643257
4334000000.0 0.868830498195664 -0.5856844876397804
4338000000.0 0.8503664457853404 -0.5683590353242639
4341000000.0 0.8494205832630928 -0.5765433484470752
4344000000.0 0.8355656718993698 -0.5804023528634212
4347000000.0 0.8138652763047537 -0.5750783677172755
4350000000.0 0.7982042414042827 -0.5343373964007607
4353000000.0 0.8164486831995468 -0.5699117093772484
4356000000.0 0.8375579094538227 -0.5909572567489686
4359000000.0 0.803670533732818 -0.5504001576590538
4362000000.0 0.7870565426259064 -0.6045970412421763
4366000000.0 0.815445359303739 -0.5844608645310685
4369000000.0 0.7926192797909272 -0.6056244105860252
4372000000.0 0.7883093278053273 -0.6346713039532317
4375000000.0 0.8218164081074206 -0.5692522093510054
4378000000.0 0.8084707183226049 -0.5663168348370398
4381000000.0 0.8350079647393616 -0.5350352666934859
4384000000.0 0.8628140078690096 -0.6386546647229436
4388000000.0 0.8196515372713579 -0.55591503551947
4391000000.0 0.831771089856806 -0.5708517918996248
4394000000.0 0.8003824115068227 -0.5758111573876916
4397000000.0 0.8006551602957669 -0.5544334052647685
4400000000.0 0.8500269881426759 -0.5950637289425534
4403000000.0 0.8451587173047139 -0.5880289544409666
4406000000.0 0.8149971908630672 -0.6065452791669999
4409000000.0 0.8111711983263284 -0.6282757405454491
4412000000.0 0.7514923622475611 -0.6680524689417235
4416000000.0 0.7538843805580769 -0.6508518052426832
4419000000.0 0.8096347633481089 -0.6091101926018595
4422000000.0 0.7836274322377965 -0.6098131478592489
4425000000.0 0.8479803074575064 -0.5881105996808639
4428000000.0 0.8263741872826629 -0.5827682418659073
4431000000.0 0.8569887394831004 -0.5895717210684916
4434000000.0 0.7943814700042829 -0.5920428273377769
4438000000.0 0.8533792971990639 -0.5939236892011883
4441000000.0 0.8388422965990797 -0.5799152663526242
4444000000.0 0.8014379194405069 -0.5742537727449161
4447000000.0 0.8175158908847728 -0.5941695740115163
4450000000.0 0.8271738811081075 -0.561478417979311
4453000000.0 0.840965527915676 -0.6080837864526587
4456000000.0 0.7933738318242964 -0.5816069457880807
4459000000.0 0.7750088415657559 -0.5805418013424337
4462000000.0 0.8657969195685575 -0.6303561756958201
4466000000.0 0.8588032886220933 -0.6090790066035068
4469000000.0 0.8260828242155948 -0.5702310329655131
4472000000.0 0.8288682400389668 -0.6163129805901107
4475000000.0 0.8125724385909916 -0.5728306494474348
4478000000.0 0.8554610292774739 -0.643073736712399
4481000000.0 0.7892357421728141 -0.5778659011846409
4484000000.0 0.7902007926956351 -0.6158372458163165
4488000000.0 0.8120797158676395 -0.5914516021970837
4491000000.0 0.8144957436987041 -0.6146925950391516
4494000000.0 0.8101098077698817 -0.5773296347669503
4497000000.0 0.8082063735438872 -0.56518101646654
4500000000.0 0.8335062798907651 -0.5702059724766362
4503000000.0 0.8463102998363197 -0.6024804350565877
4506000000.0 0.7965958462772692 -0.5871002280423131
4509000000.0 0.8135913232977715 -0.5933351703979526
4512000000.0 0.7659311847158256 -0.6012500114353847
4516000000.0 0.8485548423840948 -0.5831104278056667
4519000000.0 0.7998817544904092 -0.5718325127466246
4522000000.0 0.7940486693127445 -0.6066484024770978
4525000000.0 0.7970561102309413 -0.6013157234861145
4528000000.0 0.7983990122662908 -0.6705250915679489
4531000000.0 0.8267808267378008 -0.5845419653991991
4534000000.0 0.8075685281348287 -0.5821398845006112
4538000000.0 0.7924150864528706 -0.6068915509870785
4541000000.0 0.7861321230132954 -0.6410175549013836
4544000000.0 0.7959758791417149 -0.5695717893581899
4547000000.0 0.7983367480423539 -0.5667926677373842
4550000000.0 0.8138617800376525 -0.6112616528915102
4553000000.0 0.8190881493521996 -0.611249343656288
4556000000.0 0.770003582285115 -0.5724191071152402
4559000000.0 0.7926730976832217 -0.6369761991154466
4562000000.0 0.8281742097746204 -0.6050008649073927
4566000000.0 0.793672907896178 -0.6174827498100987
4569000000.0 0.7793090280551623 -0.5788714287608572
4572000000.0 0.7992183166063802 -0.6046218577438331
4575000000.0 0.7888030255688833 -0.6270431771566011
4578000000.0 0.843995718294412 -0.5927404818765504
4581000000.0 0.7862647921622732 -0.6326925504714789
4584000000.0 0.7966303043359417 -0.5993257980347773
4588000000.0 0.8147058595411573 -0.6193921170513297
4591000000.0 0.8036607340382926 -0.587670731525469
4594000000.0 0.7799384321304297 -0.6168502005108203
4597000000.0 0.8060071582528819 -0.6218266186851158
4600000000.0 0.7526066056206772 -0.6207699054615572
4603000000.0 0.8161129026683432 -0.6166155177558776
4606000000.0 0.7651302189949777 -0.6287480099102543
4609000000.0 0.7941832932063252 -0.6362461725200492
4612000000.0 0.8154768393603401 -0.6197591441555246
4616000000.0 0.7910111269978951 -0.6164134560542592
4619000000.0 0.8179643180196039 -0.5915225340662186
4622000000.0 0.796152958872917 -0.6014178221316011
4625000000.0 0.7618981383283548 -0.5965614679007406
4628000000.0 0.792358225979853 -0.5669719775780533
4631000000.0 0.7591627131874131 -0.6235182760984613
4634000000.0 0.7608814925610863 -0.6510705328379472
4638000000.0 0.8026451787553475 -0.6231664049321866
4641000000.0 0.8024385959228426 -0.6168599776042402
4644000000.0 0.7985548860616575 -0.6057979624062705
4647000000.0 0.8026000939519928 -0.618109114330755
4650000000.0 0.7666157063408088 -0.6259392996845612
4653000000.0 0.8047119666588916 -0.6305501289490103
4656000000.0 0.7304474605912401 -0.6739274527374524
4659000000.0 0.7770803992646682 -0.6060458096144485
4662000000.0 0.7416468781094848 -0.6518966705324213
4666000000.0 0.7891983415643682 -0.6123776775214849
4669000000.0 0.7936922246460423 -0.6057188263209943
4672000000.0 0.7670878654342184 -0.6338595799961252
4675000000.0 0.7695382127892803 -0.6343876386629572
4678000000.0 0.7920282350863471 -0.6241039887689988
4681000000.0 0.7849327938673216 -0.6764747254437409
4684000000.0 0.7411663994786758 -0.6310731904430625
4688000000.0 0.762201483308366 -0.611123846557472
4691000000.0 0.7833692922241708 -0.6040024852855268
4694000000.0 0.7927937421130992 -0.636049823220967
4697000000.0 0.774866213770396 -0.6218810691796232
4700000000.0 0.7989352819123692 -0.6132702974411817
4703000000.0 0.785104919699771 -0.6309210165339469
4706000000.0 0.7865769139246878 -0.6265350426712223
4709000000.0 0.7767632154333158 -0.6411557898981773
4712000000.0 0.7896139347050245 -0.633759720116975
4716000000.0 0.792449189694969 -0.6320650728923696
4719000000.0 0.7949343646247444 -0.6381330136876451
4722000000.0 0.7684554731325327 -0.6284994658055404
4725000000.0 0.7783363001756379 -0.6233030664112786
4728000000.0 0.7903558177921215 -0.6500591452682783
4731000000.0 0.7764211434585769 -0.6579769196641194
4734000000.0 0.7675808830133853 -0.6212557753470029
4738000000.0 0.8058939773765942 -0.6397646587632341
4741000000.0 0.7981206716117707 -0.6650764803095238
4744000000.0 0.7942367043269039 -0.6676012205911975
4747000000.0 0.7830328482406277 -0.6405815274699324
4750000000.0 0.7470933464081676 -0.6419424177686898
4753000000.0 0.8025004600855131 -0.6471567433604875
4756000000.0 0.7935260645870139 -0.6285556826695765
4759000000.0 0.7757183826699796 -0.6340995048406991
4762000000.0 0.7690225294727265 -0.6642685738210533
4766000000.0 0.7561964006864935 -0.6282071587897297
4769000000.0 0.8056601867601696 -0.647415438837799
4772000000.0 0.771280802477136 -0.664485220700779
4775000000.0 0.7958051008331014 -0.6693805869064877
4778000000.0 0.7839047226631776 -0.6525811208429134
4781000000.0 0.7670301182883545 -0.672457631121235
4784000000.0 0.7954905806361081 -0.634432961989745
4788000000.0 0.7960712454926034 -0.6491606622929572
4791000000.0 0.7722804576534478 -0.6641292299754459
4794000000.0 0.7967741507302323 -0.6487092087727148
4797000000.0 0.7837925454992417 -0.6383588117858758
4800000000.0 0.7601068586465766 -0.6508567947108336
4803000000.0 0.7508666651293061 -0.6397838938385929
4806000000.0 0.7727228204255756 -0.6714269473265033
4809000000.0 0.7284181815914905 -0.6659893971550434
4812000000.0 0.7376335562504475 -0.6283033999330752
4816000000.0 0.773096009404582 -0.6327409792512658
4819000000.0 0.7874409397994382 -0.6959343429798247
4822000000.0 0.8104425906026838 -0.6742493836374813
4825000000.0 0.8026178727523664 -0.6521771443254619
4828000000.0 0.7650218437482144 -0.6573273838164299
4831000000.0 0.7808023731057561 -0.7021550789600358
4834000000.0 0.7811714506000063 -0.6480342184620831
4838000000.0 0.7778800517198117 -0.683514877229395
4841000000.0 0.7805668072503775 -0.6495115341571873
4844000000.0 0.7823531836317765 -0.6224122307102522
4847000000.0 0.7635745276809959 -0.6307055598471887
4850000000.0 0.7748969454117942 -0.6694303247112617
4853000000.0 0.7689444351560277 -0.6464900094948801
4856000000.0 0.7618876901075036 -0.6423281373072126
4859000000.0 0.7912776805287399 -0.6845243795222656
4862000000.0 0.7580834134953869 -0.6389944280473892
4866000000.0 0.7867897118235015 -0.6763412174354391
4869000000.0 0.7679384648270686 -0.6647606532240042
4872000000.0 0.7751314720632951 -0.6903985233340463
4875000000.0 0.8205199193494548 -0.664792027250295
4878000000.0 0.794652331871721 -0.6763659608223203
4881000000.0 0.7713369453391381 -0.7199320096425209
4884000000.0 0.7832204697863225 -0.6503882681237712
4888000000.0 0.802069664774484 -0.6482123854062356
4891000000.0 0.7896968027886218 -0.6457367997389596
4894000000.0 0.7491269111638277 -0.669021774131372
4897000000.0 0.7876940232007887 -0.6419067348903662
4900000000.0 0.7676381222011608 -0.6446495664942299
4903000000.0 0.7901059710250344 -0.6453229082905183
4906000000.0 0.7864674135456037 -0.6726105308863917
4909000000.0 0.7647939777079621 -0.6711105052389549
4912000000.0 0.7953049894999918 -0.7060164312208719
4916000000.0 0.7987980188474493 -0.6542197298922741
4919000000.0 0.8254991797890427 -0.6531967502818029
4922000000.0 0.8140963496120369 -0.6405608886377234
4925000000.0 0.7794249627945112 -0.653091340470697
4928000000.0 0.7789940972107062 -0.6123626203023943
4931000000.0 0.8153575343968273 -0.6681784039877362
4934000000.0 0.7480064413978194 -0.6294769813283982
4938000000.0 0.7578523910236711 -0.6507465872065901
4941000000.0 0.7747058346470327 -0.6576871754814371
4944000000.0 0.7629556397130756 -0.6247280346507422
4947000000.0 0.7548009778357287 -0.6371378628802122
4950000000.0 0.7509881703830162 -0.6910860793636356
4953000000.0 0.7859578616337543 -0.7081646124928492
4956000000.0 0.7556486199285528 -0.6648413009160262
4959000000.0 0.7356189795703081 -0.6738239746002692
4962000000.0 0.7968619987953008 -0.6564381331410827
4966000000.0 0.7955006002975579 -0.6662105011391362
4969000000.0 0.8280302418333663 -0.6864915701972507
4972000000.0 0.7817830272478858 -0.6761450525807651
4975000000.0 0.7679924044975603 -0.6592777291245959
4978000000.0 0.7776989106560851 -0.6786522971539588
4981000000.0 0.7523119146488888 -0.7040547684272092
4984000000.0 0.7651390329141714 -0.6533676560193574
4988000000.0 0.7827526326282578 -0.6386322528637293
4991000000.0 0.8499845372793757 -0.6234013380581223
4994000000.0 0.79957653171015 -0.6695166170784768
4997000000.0 0.7445973618329782 -0.6772988510495483
5000000000.0 0.8251547613436484 -0.6818560557297252
5003000000.0 0.8328186218441811 -0.6604736936080545
5006000000.0 0.8110364016739648 -0.6897858123272728
5009000000.0 0.7998731240593404 -0.645890699191518
5012000000.0 0.7935861384090538 -0.644195943548791
5016000000.0 0.8208022806364972 -0.6709297748271146
5019000000.0 0.7597597674699181 -0.6291676231140838
5022000000.0 0.8061810482946355 -0.6608249221065914
5025000000.0 0.8428961787202442 -0.714667423466885
5028000000.0 0.7689704060438183 -0.699430172262786
5031000000.0 0.770197010613736 -0.6823797341442458
5034000000.0 0.7786601905154351 -0.714310918474013
5038000000.0 0.7492917553550742 -0.6479628541464906
5041000000.0 0.824202719932019 -0.6383661611988605
5044000000.0 0.7921705776149846 -0.6170378465986023
5047000000.0 0.8318250259680879 -0.6618841944433497
5050000000.0 0.8123648556309989 -0.5955841939270757
5053000000.0 0.8265332303824964 -0.6903800805487318
5056000000.0 0.8259669118898518 -0.6198829146734185
5059000000.0 0.8541245369427894 -0.5946840823959418
5062000000.0 0.7923172163701299 -0.688042433466334
5066000000.0 0.8024028616170318 -0.5923219328519365
5069000000.0 0.7808977812486674 -0.6540006045832583
5072000000.0 0.740388822608928 -0.6283445891191511
5075000000.0 0.8110248709100086 -0.6355918102353748
5078000000.0 0.7679066513769872 -0.7161724947564668
5081000000.0 0.7553672831265463 -0.6920869750228992
5084000000.0 0.7941110754673226 -0.695391367989068
5088000000.0 0.7926885062952165 -0.6484316689025624
5091000000.0 0.7963688417400392 -0.6662817838968375
5094000000.0 0.8044644601155322 -0.6837344864832149
5097000000.0 0.8155535207562131 -0.6249016281425869
5100000000.0 0.7677812501131943 -0.6175682998758281
5103000000.0 0.7809109295826775 -0.659055925578719
5106000000.0 0.8711335545976016 -0.6704417828495498
5109000000.0 0.8015066631238158 -0.6419324170605971
5112000000.0 0.7631800576952479 -0.7028767092263335
5116000000.0 0.7659224785736068 -0.594084073719027
5119000000.0 0.8392137440557195 -0.6718436557604371
5122000000.0 0.8025283707070879 -0.5770553939616603
5125000000.0 0.8148532881698646 -0.6198545485596894
5128000000.0 0.7992671622336581 -0.6512603184158596
5131000000.0 0.7791693807785884 -0.632745996781299
5134000000.0 0.8088546503764495 -0.6871857466104749
5138000000.0 0.8268915550014421 -0.6620794722354222
5141000000.0 0.7913912552557946 -0.5819080895808697
5144000000.0 0.8506410084702374 -0.6153376617646569
5147000000.0 0.8460728022185692 -0.6562538039751539
5150000000.0 0.7829787668566381 -0.6497365974392151
5153000000.0 0.8119317968793285 -0.6540611465069569
5156000000.0 0.84404463429041 -0.6856189018847082
5159000000.0 0.8579605600952478 -0.6879508272687864
5162000000.0 0.7807937990655571 -0.6488080285878544
5166000000.0 0.79987871575228 -0.6563064097355409
5169000000.0 0.8564371748768062 -0.6662851044331554
5172000000.0 0.7908622964079809 -0.6175864042569719
5175000000.0 0.8731903660028443 -0.6536981464802749
5178000000.0 0.77763859656393 -0.6468968592302562
5181000000.0 0.8861826458965348 -0.6570817560442599
