! Created with skrf 1.8.0 (http://scikit-rf.org).
# Hz S RI R 50.0 
!freq ReS11 ImS11
4000000000.0 0.5134871887291309 -0.8316644720182544
4003000000.0 0.5694771138037644 -0.9057927225651221
4006000000.0 0.4699499317296961 -0.8932348397945448
4009000000.0000005 0.5481118422183435 -0.8796218651973037
4011999999.9999995 0.5550713855117776 -0.892950398686875
4016000000.0 0.5330073976597298 -0.8691108527954935
4019000000.0 0.5756561940564393 -0.8812498760206843
4022000000.0000005 0.6081165574754954 -0.8449741443332365
4025000000.0000005 0.47550223852977536 -0.9103985989678218
4027999999.9999995 0.5182361181882482 -0.9096906320228204
4030999999.9999995 0.5224047291441811 -0.8254281881232667
4034000000.0 0.510719276182083 -0.8693171118306995
4038000000.0000005 0.5410027349337665 -0.9292136026615503
4041000000.0000005 0.5186685560234227 -0.8842488967120302
4043999999.9999995 0.5865810159557263 -0.9605513846547912
4046999999.9999995 0.5806589650777194 -0.8784216501001878
4050000000.0 0.5271163564758137 -0.9109330323459336
4053000000.0 0.48409000704370025 -0.882867068192104
4056000000.0 0.5550514137285889 -0.8931675071885269
4059000000.0 0.5115476079774576 -0.8554962480655757
4062000000.0000005 0.5162341563220639 -0.9080215136550952
4066000000.0 0.4856227360548371 -0.8183064385398933
4069000000.0 0.501896232222945 -0.9252862904211094
4072000000.0 0.5396730569461778 -0.8891814740064913
4075000000.0 0.5296612550912749 -0.8757508802807602
4078000000.0000005 0.5104559314570004 -0.889932305573595
4081000000.0000005 0.5628850165715279 -0.8757420550926062
4083999999.9999995 0.4529466233141892 -0.9255354133262824
4088000000.0 0.5452510409425919 -0.868455735964815
4091000000.0 0.5483496093603054 -0.9098062012000974
4094000000.0000005 0.5443909213331264 -0.8789681386297504
4097000000.0000005 0.5189920448657478 -0.9355655961011193
4099999999.9999995 0.5085015087357039 -0.8558645037832642
4102999999.9999995 0.5465525395163762 -0.8816643222325969
4106000000.0 0.5053453963270368 -0.887464952988145
4109000000.0 0.4954757512987692 -0.8808392675960665
4112000000.0 0.5218863428057314 -0.8867842305594185
4115999999.9999995 0.5692439597998197 -0.8523437884680954
4119000000.0 0.49739155560716025 -0.8860850230252123
4122000000.0 0.5108545345284202 -0.905705068553223
4125000000.0 0.5363630267409099 -0.8981942323772178
4128000000.0 0.5207716057691448 -0.8654021254768952
4131000000.0 0.5255426192725055 -0.8632743110801833
4134000000.0000005 0.518995567079458 -0.8667572011678363
4138000000.0 0.4769822618908639 -0.8941025537340614
4141000000.0 0.5237138938465169 -0.8734222992194489
4144000000.0 0.5739986450010566 -0.870589836735097
4147000000.0000005 0.4857827349105547 -0.8576993257181613
4150000000.0000005 0.5063204953724203 -0.913830076578242
4152999999.9999995 0.5123984254808743 -0.8576678306128946
4155999999.9999995 0.563486621950074 -0.8923261939597721
4159000000.0 0.5739264667086147 -0.8138372478711028
4162000000.0 0.5584667352426558 -0.8642066027369536
4166000000.0000005 0.521578904044224 -0.8867305604621011
4168999999.9999995 0.4746060715137287 -0.8884794816156356
4171999999.9999995 0.544534439508667 -0.8872182332572627
4175000000.0 0.5394933943279169 -0.8912533208524818
4178000000.0 0.5475203589090752 -0.8662069447319328
4181000000.0 0.5310368832198082 -0.885357095537248
4184000000.0 0.5277470115175186 -0.8647019880104354
4187999999.9999995 0.5359700957296785 -0.8862253243521834
4191000000.0 0.5407828087375015 -0.840968487859354
4194000000.0 0.5085831214367433 -0.8354167387749958
4197000000.0 0.5375616731186538 -0.8816431634992377
4200000000.0 0.5511322322474854 -0.8568148852177184
4203000000.0000005 0.5501328534850876 -0.8726832326382624
4206000000.0000005 0.5336331841635896 -0.8706563564214391
4208999999.9999995 0.5193801776868786 -0.8567449734622598
4211999999.9999995 0.5190522795628632 -0.8735024148607633
4216000000.0 0.5412404366011707 -0.8821026063830804
4219000000.0000005 0.5300787866340467 -0.8817072748914246
4222000000.0000005 0.5263257473942093 -0.8884089687255668
4224999999.9999995 0.5273783805120171 -0.8529321330822
4227999999.9999995 0.5415678109850781 -0.8770480897932242
4231000000.0 0.5263694272178494 -0.8912496184149985
4234000000.0 0.5241062197979366 -0.8885669107731197
4238000000.0000005 0.514459894038524 -0.8750175789790684
4240999999.9999995 0.5157194479283013 -0.8721746114796712
4244000000.0 0.5204680427627353 -0.8606194973524061
4247000000.0 0.5375831295900059 -0.8618377175703777
4250000000.0 0.5086807388435493 -0.8437553180888249
4253000000.0 0.5097319925355023 -0.8516156095216636
4256000000.0 0.5374136337284748 -0.9002934084254764
4259000000.0000005 0.5077007481484617 -0.8468056769905119
4261999999.9999995 0.48620350785095656 -0.8828229593882488
4266000000.0 0.5252232366991101 -0.8816499741325986
4269000000.0 0.5461728783921914 -0.8639902856571279
4272000000.0000005 0.5409473303327407 -0.8647106243930521
4275000000.0000005 0.5366401701414634 -0.8592613003672134
4277999999.9999995 0.5408113512406623 -0.8795489281582047
4280999999.9999995 0.5585277250874836 -0.8624593394936324
4284000000.0 0.5110891722491007 -0.8879587003367
4288000000.0000005 0.5441422831844647 -0.8378405248706413
4291000000.0000005 0.51331574367871 -0.8355136823726309
4293999999.9999995 0.5205146980254031 -0.9022030188571322
4297000000.0 0.5524891869757729 -0.8452536193242244
4300000000.0 0.522938340906336 -0.835958404432652
4303000000.0 0.4793084826327787 -0.8655680125826578
4306000000.0 0.5465800579776381 -0.8438528022064147
4309000000.0 0.5391421173732602 -0.861655230512794
4312000000.0 0.5930043045763442 -0.8554050144208962
4316000000.0 0.5179974549425348 -0.8737148800742873
4319000000.0 0.5354963932412017 -0.8261531516550722
4322000000.0 0.5116544936848794 -0.8448984265908257
4325000000.0 0.5486388436881615 -0.8743464589709046
4328000000.0 0.5093060697713943 -0.8648122714972583
4331000000.0 0.5000859564574726 -0.9035378362079456
4334000000.0 0.5026298355141177 -0.8681611944897035
4338000000.0 0.5409635208826248 -0.8266143614288762
4341000000.0 0.5754633195364326 -0.8594701063836213
4344000000.0 0.5575035927069396 -0.8578857652567277
4347000000.0 0.5066576057628233 -0.8672059566134781
4350000000.0 0.4871817697816526 -0.8426697846088989
4353000000.0 0.5028504064286157 -0.8282372913932579
4356000000.0 0.49008291772672213 -0.8626598235725855
4359000000.0 0.48701304081094643 -0.8363922554694893
4362000000.0 0.4739866397180461 -0.8957844340173675
4366000000.0 0.5303881299828416 -0.8746278395926117
4369000000.0 0.49118756546015796 -0.8440616480901377
4372000000.0 0.4752447579023895 -0.8885567427746142
4375000000.0 0.5438227273165439 -0.8427127593938061
4378000000.0 0.5173580721472659 -0.8596184189767639
4381000000.0 0.515775851959589 -0.8431470279171039
4384000000.0 0.5441601106884694 -0.9212133034897633
4388000000.0 0.5267942991507071 -0.846598778121346
4391000000.0 0.5093554813554553 -0.8712326167345188
4394000000.0 0.49509093527617254 -0.840598812367067
4397000000.0 0.48472962349883497 -0.86153100019178
4400000000.0 0.5077609601541289 -0.884790172238262
4403000000.0 0.5197519299394711 -0.8700054617531829
4406000000.0 0.4998137749722697 -0.878076433326721
4409000000.0 0.5433312315029158 -0.8965739041127364
4412000000.0 0.4593519837108897 -0.8976575912859248
4416000000.0 0.5160179006873453 -0.8603900898544962
4419000000.0 0.5053141048799633 -0.8917471354459061
4422000000.0 0.5172502211011343 -0.8537965571897815
4425000000.0 0.5409795283155748 -0.8769895810957895
4428000000.0 0.5068065939104887 -0.8788568587253978
4431000000.0 0.5238281871991906 -0.8816577066074676
4434000000.0 0.4933168893328855 -0.8662368831135634
4438000000.0 0.5238553575853584 -0.8863140675199094
4441000000.0 0.5077659861002748 -0.8809690000320405
4444000000.0 0.5000187863443184 -0.8537247184929121
4447000000.0 0.49289066006688365 -0.8802310223113053
4450000000.0 0.5208318328186949 -0.8505776376389261
4453000000.0 0.5210667341710983 -0.8862813649108405
4456000000.0 0.48700171818765264 -0.8390250194691584
4459000000.0 0.46700882883976946 -0.8415089653213512
4462000000.0 0.5286227317677178 -0.9219433159043045
4466000000.0 0.5101957837950578 -0.9320060104103696
4469000000.0 0.5253742068918599 -0.8749148588199036
4472000000.0 0.49633680843656036 -0.8918095185056012
4475000000.0 0.4927820563634683 -0.8518735972116485
4478000000.0 0.4954474206470586 -0.9181336043291343
4481000000.0 0.4796982688930053 -0.8621458340394632
4484000000.0 0.45428172175326825 -0.8875090884647945
4488000000.0 0.4926217135828488 -0.8881136977410573
4491000000.0 0.4921094191714013 -0.8937265395248011
4494000000.0 0.5026247324674333 -0.8568141914933731
4497000000.0 0.5068877511035368 -0.8501342057298611
4500000000.0 0.5107271834595293 -0.870331291440427
4503000000.0 0.5140462382161521 -0.8944806373688642
4506000000.0 0.5017291016597583 -0.8632827645007637
4509000000.0 0.4964625973210427 -0.843006064500083
4512000000.0 0.47083975750715895 -0.8734988479764298
4516000000.0 0.5255078862723624 -0.8860915433880483
4519000000.0 0.49255651374703213 -0.8465823016174128
4522000000.0 0.46340049867959954 -0.8824411915308554
4525000000.0 0.5266747741168746 -0.8498882405415484
4528000000.0 0.5186052226483452 -0.9033102833592003
4531000000.0 0.5104162377090531 -0.8612813827037101
4534000000.0 0.4892967788365206 -0.8605037510294107
4538000000.0 0.4736672038300054 -0.8689159004168654
4541000000.0 0.4438544478421521 -0.8697397750933593
4544000000.0 0.4777937346344133 -0.8577965037925077
4547000000.0 0.5175710572816935 -0.8586854361532467
4550000000.0 0.4868549190228842 -0.8825201730427159
4553000000.0 0.47711208973578945 -0.864228983982275
4556000000.0 0.478420294629598 -0.8549858885938657
4559000000.0 0.48381473847720496 -0.8776835462283358
4562000000.0 0.5061946219012117 -0.8934745101823904
4566000000.0 0.5015487319933324 -0.878984054917658
4569000000.0 0.476901195961714 -0.8603429619040004
4572000000.0 0.49463156628957144 -0.8866633582361028
4575000000.0 0.46618639679443963 -0.8824147375928737
4578000000.0 0.5096884425932713 -0.890395002158008
4581000000.0 0.4690246376515318 -0.9032865540521289
4584000000.0 0.4665657958033596 -0.8818484369530346
4588000000.0 0.4859902600015339 -0.8889411191265697
4591000000.0 0.49767223258108867 -0.8623292840155976
4594000000.0 0.45909880426259314 -0.8863829365336453
4597000000.0 0.49042325679644616 -0.9091484596530256
4600000000.0 0.44419863571393703 -0.8889076690331764
4603000000.0 0.47894883634344776 -0.8849678073544324
4606000000.0 0.48992380365792615 -0.8953658502376628
4609000000.0 0.48762651591578 -0.8869017871012643
4612000000.0 0.4803407794534672 -0.8692198004856043
4616000000.0 0.4756057469453908 -0.873547794507941
4619000000.0 0.49664358895399896 -0.8770603813327982
4622000000.0 0.4735649078747005 -0.8987895294749965
4625000000.0 0.44352593429962045 -0.8665910786604668
4628000000.0 0.4857390395062968 -0.8850164312095081
4631000000.0 0.45082913445788675 -0.901546482233187
4634000000.0 0.47053649225117344 -0.897968748758859
4638000000.0 0.46994900729244793 -0.8847589309022167
4641000000.0 0.4844613823855006 -0.8673786361187574
4644000000.0 0.47710451124220465 -0.8764063078328734
4647000000.0 0.47679074532110677 -0.8750182630097856
4650000000.0 0.4500464960429767 -0.8739247446943654
4653000000.0 0.48628348463733223 -0.8961178557336867
4656000000.0 0.46589070656555 -0.887443187431452
4659000000.0 0.4690918343313011 -0.8973545115243462
4662000000.0 0.4718000452109787 -0.8946034949986822
4666000000.0 0.457200816113321 -0.8947667077099623
4669000000.0 0.47964965677675 -0.9020331194655842
4672000000.0 0.44453184718540173 -0.9288946975351626
4675000000.0 0.45061884098244925 -0.9021113703870894
4678000000.0 0.45228979257260243 -0.8703030178619594
4681000000.0 0.45296590438430956 -0.926403187909797
4684000000.0 0.4421433641582986 -0.9191812563398495
4688000000.0 0.43190724749721 -0.8881753327247052
4691000000.0 0.489283865477729 -0.9053738828936778
4694000000.0 0.46638803970706827 -0.8878095896243859
4697000000.0 0.4353232749237383 -0.8760696550213224
4700000000.0 0.483475778857344 -0.8770196806161787
4703000000.0 0.47405714617697126 -0.8588557105471162
4706000000.0 0.45347643739842336 -0.9249558838708791
4709000000.0 0.4436071666194661 -0.8986106252183923
4712000000.0 0.45016995983503294 -0.9178115751752631
4716000000.0 0.4886481174290741 -0.9282831264331654
4719000000.0 0.4711036992313253 -0.9297839760347274
4722000000.0 0.4820672684458743 -0.9078465723538857
4725000000.0 0.45573440814649013 -0.9102788617824502
4728000000.0 0.4546437255758204 -0.8895796093122137
4731000000.0 0.45577566687880716 -0.929362477224557
4734000000.0 0.47845121407745705 -0.8978077699893986
4738000000.0 0.49618310868699683 -0.9301502543220102
4741000000.0 0.4765105331868607 -0.9498353689285562
4744000000.0 0.45023117992453293 -0.9266065498726042
4747000000.0 0.45697607581984173 -0.8808636775909106
4750000000.0 0.49479020169097865 -0.9016882389671208
4753000000.0 0.46298693368274935 -0.908766021906158
4756000000.0 0.44527605056049196 -0.9020038197399108
4759000000.0 0.48545983305786483 -0.9105798962522322
4762000000.0 0.4292923519543006 -0.9328779811645296
4766000000.0 0.450761887982731 -0.9104029303740059
4769000000.0 0.45914949468542804 -0.919494931934431
4772000000.0 0.4671731339715662 -0.9067332931105062
4775000000.0 0.44400653845038385 -0.9446661835546971
4778000000.0 0.4615637981159579 -0.9126662352932361
4781000000.0 0.46925332465751696 -0.9151099757627574
4784000000.0 0.49548247926194444 -0.9126111126553105
4788000000.0 0.4766076779011321 -0.9125970439575891
4791000000.0 0.42152412417480134 -0.8923477953827833
4794000000.0 0.5064404151674634 -0.9022658564063234
4797000000.0 0.45710801250532196 -0.8935913707253729
4800000000.0 0.43855247309324974 -0.9048064684737398
4803000000.0 0.4023690685855852 -0.9102220599581389
4806000000.0 0.4603782961384638 -0.9242725978487838
4809000000.0 0.4033466843492221 -0.9526113404789064
4812000000.0 0.4204828237986835 -0.9216264638398088
4816000000.0 0.4669747121810509 -0.8875868261876612
4819000000.0 0.48760070456440874 -0.9094129967855048
4822000000.0 0.4779541927041978 -0.922597061036109
4825000000.0 0.49301623166773123 -0.9230577566348781
4828000000.0 0.4487477893001419 -0.9165827923317127
4831000000.0 0.4474013051022853 -0.9465766666915518
4834000000.0 0.4892077709626843 -0.9068509811243493
4838000000.0 0.459593267301318 -0.921808568730101
4841000000.0 0.45833177718765516 -0.9081821631794863
4844000000.0 0.50598200360617 -0.905599356459681
4847000000.0 0.48285164069690456 -0.8818843487717485
4850000000.0 0.46331826826186145 -0.9335992818721881
4853000000.0 0.44707003359530345 -0.8841718216426263
4856000000.0 0.4438399951524657 -0.8695016914716127
4859000000.0 0.4592522050725221 -0.950537269491393
4862000000.0 0.47321403699952774 -0.8899067969596303
4866000000.0 0.44127999946897917 -0.942052314936996
4869000000.0 0.4351840640364723 -0.9199580613017133
4872000000.0 0.4367028489635929 -0.9710008450668294
4875000000.0 0.5154582213347348 -0.9238594823027145
4878000000.0 0.4530713604367461 -0.9365286731516074
4881000000.0 0.4576770070428913 -0.9830011855920718
4884000000.0 0.4524189395553845 -0.9119893707344644
4888000000.0 0.4887315518788057 -0.8856992942807954
4891000000.0 0.49105773057135593 -0.9082562236049415
4894000000.0 0.45114374450159805 -0.9049618215041436
4897000000.0 0.49355949841024077 -0.905812598054453
4900000000.0 0.4627143362295758 -0.916535209149661
4903000000.0 0.4912347793168541 -0.9357083141058998
4906000000.0 0.4495129663634278 -0.9070199982563331
4909000000.0 0.4621340563279428 -0.934555684337222
4912000000.0 0.47720575734009085 -0.9797017123558658
4916000000.0 0.5041780557201743 -0.9423482919264053
4919000000.0 0.5190306420042767 -0.9353655824407598
4922000000.0 0.4950386625813677 -0.8968620634452251
4925000000.0 0.45310531115853214 -0.9499960258877529
4928000000.0 0.5274443858894141 -0.8812865316961757
4931000000.0 0.5096101877985658 -0.9102521774028054
4934000000.0 0.4569813946951569 -0.8824492909548899
4938000000.0 0.4363225032608926 -0.9391202466575633
4941000000.0 0.4718599582106757 -0.9031862130223418
4944000000.0 0.4607025781234527 -0.8635037095956234
4947000000.0 0.45670219206371926 -0.9067455935061656
4950000000.0 0.4433369242815135 -0.8873461758576292
4953000000.0 0.47207641015908386 -0.9619066997593193
4956000000.0 0.43826836979379047 -0.9131803150295771
4959000000.0 0.4368564352835086 -0.9195379367334884
4962000000.0 0.47229171191921027 -0.9377335472535997
4966000000.0 0.5220229864095625 -0.9351575734810227
4969000000.0 0.5209361536624981 -0.9272874537113815
4972000000.0 0.4859166298595786 -0.9058279738282392
4975000000.0 0.5158147461075352 -0.8814312517193116
4978000000.0 0.48474782468713007 -0.903257999604965
4981000000.0 0.4711090601154011 -0.9443177630739393
4984000000.0 0.4935694245246627 -0.8794958905401092
4988000000.0 0.47041225854794666 -0.9147687107409279
4991000000.0 0.5331510258253233 -0.9055326474189858
4994000000.0 0.4979295207019535 -0.9082173706175919
4997000000.0 0.4590558281217971 -0.9164577772697596
5000000000.0 0.5007816339921936 -0.9470007779815246
5003000000.0 0.5162278932740768 -0.9474630156132918
5006000000.0 0.49111526176766995 -0.9602454011610155
5009000000.0 0.480920530182923 -0.9269039988772365
5012000000.0 0.4656257710594638 -0.901267997495776
5016000000.0 0.5524048334054723 -0.9253140081896618
5019000000.0 0.47943325869499737 -0.9219719308483637
5022000000.0 0.5102701558698877 -0.9101883309720071
5025000000.0 0.5299564930420989 -0.9875211891443081
5028000000.0 0.45858666556042615 -0.9353013498843841
5031000000.0 0.4850035466408481 -0.9197008546942149
5034000000.0 0.4567638628458011 -0.9451905155113947
5038000000.0 0.45876571433001234 -0.905021823508521
5041000000.0 0.5284614258327036 -0.9112395560793418
5044000000.0 0.48752979782326034 -0.8549084263105857
5047000000.0 0.5002395487938448 -0.9045052876819811
5050000000.0 0.5643600931866745 -0.8781587428479134
5053000000.0 0.46354212198339484 -0.9485960697329842
5056000000.0 0.5114195877281345 -0.9245575712413743
5059000000.0 0.5092695775616367 -0.8997757360598708
5062000000.0 0.4852552243938092 -0.9261807176639096
5066000000.0 0.5138419509987453 -0.8923249901957682
5069000000.0 0.4854858535963869 -0.9092176457366405
5072000000.0 0.4908212010658852 -0.8799034629957727
5075000000.0 0.5070973347855804 -0.8546412504379879
5078000000.0 0.47004389501964233 -0.9242788318669021
5081000000.0 0.4420764498825184 -0.8797128780175765
5084000000.0 0.48651438000008057 -0.9108910373351174
5088000000.0 0.5284249291633545 -0.8977274440309537
5091000000.0 0.4749831455328127 -0.8989788662035242
5094000000.0 0.5102487894249194 -0.8695384812975266
5097000000.0 0.5041853287361528 -0.9138911562898943
5100000000.0 0.46456683356340056 -0.9093395794460153
5103000000.0 0.445535727175531 -0.9162561273403677
5106000000.0 0.5250125291493442 -0.9465793727385988
5109000000.0 0.5287626629141523 -0.8505977630405666
5112000000.0 0.5011093328993719 -0.9361933013422564
5116000000.0 0.4935844336979314 -0.911274572893358
5119000000.0 0.4976063415293176 -0.9198378916042493
5122000000.0 0.4670669142407654 -0.8912683138551647
5125000000.0 0.525056073257097 -0.8893466213610816
5128000000.0 0.48738490065935985 -0.9210293899111699
5131000000.0 0.5171420189581615 -0.8898738866330678
5134000000.0 0.5183609874208034 -0.8669282272256298
5138000000.0 0.5173310851354833 -0.9067298820832234
5141000000.0 0.5595134155230773 -0.8999552415899003
5144000000.0 0.520657013471724 -0.8681802044162118
5147000000.0 0.5389680478686183 -0.9505974646408316
5150000000.0 0.5388079112560462 -0.8843682317263852
5153000000.0 0.5107491967811437 -0.9627209625601791
5156000000.0 0.5234814075069112 -0.9051015239935674
5159000000.0 0.5095615644588751 -0.9150425074470604
5162000000.0 0.4526466188783095 -0.9064475448279431
5166000000.0 0.5159928456146332 -0.9145639340498595
5169000000.0 0.5350842894826637 -0.9056975347891938
5172000000.0 0.4730630106123449 -0.8822160375589068
5175000000.0 0.508824956639359 -0.9143510097292251
