! Created with skrf 1.8.0 (http://scikit-rf.org).
# Hz S RI R 50.0 
!freq ReS11 ImS11
4000000000.0 0.5644567193102935 -0.8893707890478998
4003000000.0 0.6171685715224114 -0.9085968557879793
4006000000.0 0.4929533393425935 -0.9320266235378607
4009000000.0000005 0.5751707744217716 -0.9553412896619016
4011999999.9999995 0.5905914649359381 -0.8877634620739019
4016000000.0 0.5090788632652921 -0.9446837346956711
4019000000.0 0.5169885411944481 -0.866065334644323
4022000000.0000005 0.6031081977784063 -0.8301767651593185
4025000000.0000005 0.5027658634812997 -0.9391243397340494
4027999999.9999995 0.48611755423869163 -0.9152099988546999
4030999999.9999995 0.516844845464791 -0.8414425603795036
4034000000.0 0.5382095567153599 -0.8819283958370656
4038000000.0000005 0.5147210242667003 -0.9116094632134457
4041000000.0000005 0.5306466954335605 -0.8738965536006432
4043999999.9999995 0.5481157269474604 -0.9202418250035229
4046999999.9999995 0.5344878077500799 -0.9068793290663396
4050000000.0 0.49863976152818795 -0.9226357044834801
4053000000.0 0.501815100170566 -0.9006564888984319
4056000000.0 0.5135690828553632 -0.9020915187518018
4059000000.0 0.506899671703064 -0.8568476705741683
4062000000.0000005 0.4755319829282384 -0.9074577371779442
4066000000.0 0.4842518802208504 -0.8191131948291897
4069000000.0 0.5366188028390714 -0.9351771934205245
4072000000.0 0.5965738795047482 -0.8234318407447428
4075000000.0 0.595514815446536 -0.8880928976187134
4078000000.0000005 0.5400203681027974 -0.9064658817907226
4081000000.0000005 0.5938523954885412 -0.8949373267680942
4083999999.9999995 0.5063279851495857 -0.9559416698097798
4088000000.0 0.5816755040305985 -0.8153319739183621
4091000000.0 0.571731059845319 -0.9087899583867253
4094000000.0000005 0.5675440708820195 -0.879111990083308
4097000000.0000005 0.5292590563310543 -0.9080122458781482
4099999999.9999995 0.5317360231608719 -0.894338279757564
4102999999.9999995 0.5571923370534977 -0.905281322227684
4106000000.0 0.5469923420134779 -0.8686808051157711
4109000000.0 0.5453272633691432 -0.8713670941388089
4112000000.0 0.5488072472196629 -0.8766246407219249
4115999999.9999995 0.5635618738817404 -0.8817259259245368
4119000000.0 0.5207434482199148 -0.9016687187628099
4122000000.0 0.5203925925655187 -0.9396385396498703
4125000000.0 0.5260454848786846 -0.9139122510562242
4128000000.0 0.5354459575228787 -0.8818513708514408
4131000000.0 0.5107526458979627 -0.8336019569652529
4134000000.0000005 0.5673133751792826 -0.9031563660597687
4138000000.0 0.5126580062546915 -0.873793666042159
4141000000.0 0.5326165376477049 -0.8938736613734515
4144000000.0 0.5513362946974867 -0.8909473770756625
4147000000.0000005 0.5174930937514027 -0.8666910916095256
4150000000.0000005 0.543698336088953 -0.8971912647489949
4152999999.9999995 0.5906073701597885 -0.9091775646628965
4155999999.9999995 0.5605182284941699 -0.8799499257261181
4159000000.0 0.547654100644389 -0.877854777851591
4162000000.0 0.5250659707448506 -0.8634422634513793
4166000000.0000005 0.5237856914923118 -0.9196699888233634
4168999999.9999995 0.5155915838875038 -0.877022929616719
4171999999.9999995 0.5369935772297223 -0.8811817630826975
4175000000.0 0.5436143461726642 -0.8807051445123466
4178000000.0 0.5472476819986347 -0.8764485706068512
4181000000.0 0.5299635131390752 -0.877216311909768
4184000000.0 0.5446877469878801 -0.8933783806014041
4187999999.9999995 0.5234916791634892 -0.875088793448296
4191000000.0 0.5828040185991419 -0.8490041720623361
4194000000.0 0.5237614665590294 -0.8626075938487651
4197000000.0 0.5409324543446078 -0.8811537767207877
4200000000.0 0.5669216849755728 -0.8437091748196279
4203000000.0000005 0.5656812950838734 -0.883929701949862
4206000000.0000005 0.550062931350629 -0.8678784809246525
4208999999.9999995 0.5326012923825538 -0.86674175528757
4211999999.9999995 0.4995829130757068 -0.8729229326270476
4216000000.0 0.5656674858841788 -0.8651234991579527
4219000000.0000005 0.5676143086915936 -0.8775178808902673
4222000000.0000005 0.5380330040003649 -0.882408033049843
4224999999.9999995 0.5093465611125367 -0.8681864841739982
4227999999.9999995 0.5450437082209879 -0.8831620186115616
4231000000.0 0.5372544856733598 -0.8632162158862395
4234000000.0 0.5365378367291347 -0.8852746650679069
4238000000.0000005 0.5132394870537553 -0.873520558675579
4240999999.9999995 0.5146288406465985 -0.8840707422331623
4244000000.0 0.5409817583655142 -0.8673937007415333
4247000000.0 0.547410541400207 -0.8798291379822469
4250000000.0 0.5131802854631722 -0.8604686051140729
4253000000.0 0.5154525290541201 -0.8550875534274116
4256000000.0 0.5365523967371764 -0.8999081109395801
4259000000.0000005 0.4948966066564455 -0.854575457100823
4261999999.9999995 0.49516663998924426 -0.8825879337871222
4266000000.0 0.5317856721390513 -0.8821251053545612
4269000000.0 0.5310583572213924 -0.8769236248615526
4272000000.0000005 0.5289658272200932 -0.853731979298606
4275000000.0000005 0.5583265030454062 -0.8730936049382332
4277999999.9999995 0.5290615447460479 -0.883016383024859
4280999999.9999995 0.5609126075711302 -0.8616395656535825
4284000000.0 0.5190536306896814 -0.8959946643978217
4288000000.0000005 0.5436929538209985 -0.8618980636462359
4291000000.0000005 0.5386194042596083 -0.8185064070622299
4293999999.9999995 0.5379872953489045 -0.860084100905985
4297000000.0 0.5495186555637694 -0.8376537943949611
4300000000.0 0.5305807582119525 -0.8523244824387828
4303000000.0 0.5225117493736318 -0.864246506861734
4306000000.0 0.5539897587178165 -0.8433121913039664
4309000000.0 0.5341894096646224 -0.8539873173118954
4312000000.0 0.5580185121002967 -0.8630649294089567
4316000000.0 0.5528887767202431 -0.8554851270392679
4319000000.0 0.53840127712566 -0.84976739641793
4322000000.0 0.5244749894427543 -0.8777014703262156
4325000000.0 0.5438483909778333 -0.8416913202074887
4328000000.0 0.533435647458746 -0.8900219424942837
4331000000.0 0.4986649099801237 -0.8725244116915053
4334000000.0 0.5301441828391444 -0.882942876993543
4338000000.0 0.5437023511790483 -0.8517348725803362
4341000000.0 0.5718528861468198 -0.8784783690212061
4344000000.0 0.5321622528637854 -0.888999816273589
4347000000.0 0.4942443713928553 -0.8831767872261771
4350000000.0 0.49241157403346497 -0.8398138094081818
4353000000.0 0.5383819930499721 -0.8287252808666459
4356000000.0 0.5045296303979978 -0.8629583346731834
4359000000.0 0.5102059369135646 -0.8429419034894102
4362000000.0 0.45295727604149294 -0.9075372458641721
4366000000.0 0.5239074109082139 -0.8775666225187573
4369000000.0 0.4991870095964054 -0.8480325485702072
4372000000.0 0.5003067328607026 -0.8704948523847569
4375000000.0 0.5615599483989406 -0.8463125313438865
4378000000.0 0.4988873841527243 -0.8517757746354441
4381000000.0 0.5395384066274167 -0.8503190969478761
4384000000.0 0.5226278445695973 -0.9237768347623619
4388000000.0 0.5298214201304366 -0.8531148827985091
4391000000.0 0.51353070561555 -0.8839026822326549
4394000000.0 0.5047590354605879 -0.8343305145566069
4397000000.0 0.5111938416037731 -0.8692648217216711
4400000000.0 0.5155538931327374 -0.8816866961265926
4403000000.0 0.5236648476071541 -0.8734928195907428
4406000000.0 0.508954605724648 -0.8826038657615211
4409000000.0 0.5302087022647015 -0.9090302772878547
4412000000.0 0.46253008298827203 -0.9016153998149394
4416000000.0 0.5019639937014795 -0.8674174880654894
4419000000.0 0.5024094552989529 -0.8693339280044349
4422000000.0 0.5216940221986828 -0.8468775293769237
4425000000.0 0.5629112346210667 -0.8691970013972956
4428000000.0 0.5028641540823218 -0.8770467364747963
4431000000.0 0.5314135524296517 -0.882641090987475
4434000000.0 0.5013593270199609 -0.8677665205796006
4438000000.0 0.5389482666243166 -0.9034556314985404
4441000000.0 0.5217706937791798 -0.8784668859374629
4444000000.0 0.501506431662774 -0.8493723327278653
4447000000.0 0.4898519369287497 -0.8845227598153275
4450000000.0 0.515542716690149 -0.8434615621157325
4453000000.0 0.5345471453009404 -0.8893891987591755
4456000000.0 0.47848505251894724 -0.8533150444784463
4459000000.0 0.4875555372473514 -0.8359418823507918
4462000000.0 0.54131836116907 -0.9323086483808897
4466000000.0 0.5244093857270951 -0.9217300825336467
4469000000.0 0.5162353374618227 -0.8751948028273723
4472000000.0 0.48886497305095405 -0.9119435911552687
4475000000.0 0.5023340271503358 -0.8504432460143166
4478000000.0 0.49529246543961264 -0.9409377289837609
4481000000.0 0.46244422423817994 -0.8654681001293899
4484000000.0 0.4580453787804213 -0.899956248274224
4488000000.0 0.4842192402498815 -0.8676146321816586
4491000000.0 0.5123147232708767 -0.8780175290436927
4494000000.0 0.5006548460060278 -0.8506461315003415
4497000000.0 0.5187178441308562 -0.8570140649071638
4500000000.0 0.5192974853774643 -0.8855315133428088
4503000000.0 0.528208818127023 -0.8903623065689679
4506000000.0 0.502057053251109 -0.873896909405796
4509000000.0 0.47800432249217967 -0.851778408392195
4512000000.0 0.4829822838031361 -0.8623327342181522
4516000000.0 0.5171734486107109 -0.8999415742499157
4519000000.0 0.5136313420394455 -0.8533748102364127
4522000000.0 0.5013803704400901 -0.8775367113482644
4525000000.0 0.5142799411550525 -0.8578246373247733
4528000000.0 0.5087304354568477 -0.8976544535287392
4531000000.0 0.5266836309082721 -0.8924313199338083
4534000000.0 0.4777740456791828 -0.8793541001644357
4538000000.0 0.4954186885356353 -0.8818030585394682
4541000000.0 0.4654683004080766 -0.8943782972982443
4544000000.0 0.4940329668863785 -0.8653484092855905
4547000000.0 0.5153390857674354 -0.8552406263785693
4550000000.0 0.4889272243913494 -0.9023842445901064
4553000000.0 0.4660509357169441 -0.8843366268336654
4556000000.0 0.4675431967564801 -0.881790015490779
4559000000.0 0.49833733519434154 -0.8736908147952405
4562000000.0 0.49251683453915424 -0.9083401035059907
4566000000.0 0.48744760580291013 -0.8907531632171507
4569000000.0 0.46783909484575825 -0.8731472241495217
4572000000.0 0.4895515483419205 -0.8812826773486602
4575000000.0 0.46928821635194096 -0.9045331544092816
4578000000.0 0.513493799082825 -0.9000687417246923
4581000000.0 0.4811850211423627 -0.9124694587142554
4584000000.0 0.4813854087362114 -0.8999420827174749
4588000000.0 0.5157546777505518 -0.925038876173875
4591000000.0 0.4852760305158217 -0.8939221219963184
4594000000.0 0.46417012511035755 -0.9058188389395887
4597000000.0 0.48416883391158144 -0.9078187878725293
4600000000.0 0.4511077673775781 -0.8914632658236878
4603000000.0 0.4801119871959523 -0.8925999774194191
4606000000.0 0.47971825887502495 -0.8928773399704738
4609000000.0 0.47827093321081615 -0.8866356504982598
4612000000.0 0.4788265114459876 -0.8815858131120591
4616000000.0 0.4790106163945309 -0.8898952067017052
4619000000.0 0.4796297720284819 -0.8764976758544822
4622000000.0 0.48737543470320266 -0.8778575691269936
4625000000.0 0.4433694226670463 -0.8836056683722813
4628000000.0 0.4931595298073252 -0.8837780254935085
4631000000.0 0.48661214247931567 -0.8975037041447026
4634000000.0 0.4766226695902692 -0.8844722707942773
4638000000.0 0.4933237950569811 -0.8714164521427019
4641000000.0 0.4688411970948643 -0.8981994213182962
4644000000.0 0.4738345473994897 -0.8943852763155838
4647000000.0 0.4873913250509484 -0.9108657479518576
4650000000.0 0.4511645058724521 -0.8872293740030925
4653000000.0 0.5025034548500731 -0.9025658926009223
4656000000.0 0.4783392423362699 -0.9081375806295837
4659000000.0 0.4891875908977392 -0.8846983149245891
4662000000.0 0.4732379912701422 -0.9026807365561548
4666000000.0 0.4621893341566765 -0.8973566413806398
4669000000.0 0.47605687588920503 -0.8916506820947155
4672000000.0 0.4558980843038038 -0.9280774851297074
4675000000.0 0.4534195864980426 -0.9044693453208666
4678000000.0 0.45794184342823396 -0.8850992584802336
4681000000.0 0.4527868471225027 -0.9248818394444915
4684000000.0 0.4520298577771964 -0.9288648954574228
4688000000.0 0.4568756839377268 -0.896552816891698
4691000000.0 0.49460578348196604 -0.8930389822443916
4694000000.0 0.4668043794767214 -0.8743701803409337
4697000000.0 0.4493960546079781 -0.8661021072169148
4700000000.0 0.46683546865017145 -0.8763409710648831
4703000000.0 0.5038642704561377 -0.8465766104711918
4706000000.0 0.4838914879983698 -0.9094315955871212
4709000000.0 0.43318620691701015 -0.8857041477003563
4712000000.0 0.4787444564615787 -0.9279272382714746
4716000000.0 0.4679956034029353 -0.9029283157605599
4719000000.0 0.4801013778572183 -0.8772442173510493
4722000000.0 0.4813478506053433 -0.9047879288508172
4725000000.0 0.4722314996621236 -0.910565405914693
4728000000.0 0.44358750890681353 -0.9139445044497153
4731000000.0 0.48492165643803453 -0.9001237458877697
4734000000.0 0.495353196320212 -0.8793886335537102
4738000000.0 0.5006136078667619 -0.9178183936376025
4741000000.0 0.4543141115224023 -0.9210168494038687
4744000000.0 0.45138934705641004 -0.9356314251664706
4747000000.0 0.45691537359298995 -0.8799353936360013
4750000000.0 0.46999039353209787 -0.9214925592189169
4753000000.0 0.47545337893285466 -0.9268138250175953
4756000000.0 0.4522866954696651 -0.9282299760097732
4759000000.0 0.4785330720676358 -0.9371818214446427
4762000000.0 0.4436824946702316 -0.931968929227714
4766000000.0 0.4364950591639592 -0.9009036769169497
4769000000.0 0.48706617861348167 -0.8953725404435291
4772000000.0 0.46373902079611423 -0.8828301458337984
4775000000.0 0.4804639959525781 -0.9533221419386435
4778000000.0 0.4879146597442564 -0.9019269023284948
4781000000.0 0.44659662906451436 -0.9106720018595941
4784000000.0 0.505081205499251 -0.8922931851768087
4788000000.0 0.4524419028388643 -0.9169213866722915
4791000000.0 0.47891113414573105 -0.9074991033446627
4794000000.0 0.5189583925187169 -0.9292272909979433
4797000000.0 0.4380538588635524 -0.8942763808108525
4800000000.0 0.45416106733522915 -0.8970834580441159
4803000000.0 0.4088824572865738 -0.9295718428022133
4806000000.0 0.4925945430373709 -0.9062265212604653
4809000000.0 0.44428400141410884 -0.9367646317667973
4812000000.0 0.4291676004788253 -0.9038706032226353
4816000000.0 0.4781559169201872 -0.8841286396701095
4819000000.0 0.4971993760813148 -0.924288969886673
4822000000.0 0.49761700128541836 -0.9363043005059198
4825000000.0 0.5019125875488115 -0.9384980249166028
4828000000.0 0.4712739231852424 -0.9072749642145573
4831000000.0 0.4402915165385609 -0.9559166874268525
4834000000.0 0.4858946991606795 -0.9211119282183305
4838000000.0 0.45392710835900457 -0.93557098034513
4841000000.0 0.43292016913934916 -0.9073908176965237
4844000000.0 0.5117113045471928 -0.8984415739471898
4847000000.0 0.48656485521690696 -0.8684255258547972
4850000000.0 0.46299419205483416 -0.9607769316522681
4853000000.0 0.4594781871316074 -0.9019206581005732
4856000000.0 0.4620354806423214 -0.9118803114864363
4859000000.0 0.48174134004832875 -0.9391708645141508
4862000000.0 0.4667244912699844 -0.8729289275840638
4866000000.0 0.4582503641227305 -0.9292878378076941
4869000000.0 0.4640128369616413 -0.9238133583282934
4872000000.0 0.44924775648630333 -0.9419370371525809
4875000000.0 0.5252380199387431 -0.9329373880519148
4878000000.0 0.47093524610651954 -0.926085595506381
4881000000.0 0.4641747731684189 -0.9702651669100063
4884000000.0 0.4598851325056304 -0.910318892974078
4888000000.0 0.4933194950726946 -0.8929861040499761
4891000000.0 0.4859355278502125 -0.8967985860644255
4894000000.0 0.4667807753346577 -0.9312284851314288
4897000000.0 0.5072333465496125 -0.903071078459016
4900000000.0 0.4887546720334886 -0.9174755824382869
4903000000.0 0.4973284179911935 -0.9627150802629763
4906000000.0 0.4832760329768911 -0.9336419789892196
4909000000.0 0.4468685907152592 -0.9367426884398001
4912000000.0 0.4874572036679179 -0.9527310802676274
4916000000.0 0.519860124105292 -0.9352839746355587
4919000000.0 0.533599141591685 -0.9400357349118722
4922000000.0 0.5162498523096172 -0.8933123478683644
4925000000.0 0.4542580884617277 -0.9167227093300594
4928000000.0 0.521608920472497 -0.8573290073922581
4931000000.0 0.4996293632554422 -0.9456302224402813
4934000000.0 0.49054242845986 -0.8627986195995613
4938000000.0 0.43953122032121605 -0.9117303627512929
4941000000.0 0.46662764075900415 -0.9046277604452307
4944000000.0 0.4902736037627686 -0.8599974923583366
4947000000.0 0.4655451157463888 -0.9030079741392969
4950000000.0 0.4657010295618604 -0.9082747505854922
4953000000.0 0.436481612232389 -0.9803060236508416
4956000000.0 0.45770874005242346 -0.939657129054345
4959000000.0 0.4342440555911318 -0.9297048591853388
4962000000.0 0.47994181774292793 -0.9302144898360195
4966000000.0 0.5181853466037344 -0.9302579020207377
4969000000.0 0.51632907880126 -0.9421080172617636
4972000000.0 0.4634749512780354 -0.9445369307339748
4975000000.0 0.4919048508473929 -0.8907925098499182
4978000000.0 0.4813316676253626 -0.950386575436265
4981000000.0 0.4718322059690424 -0.9296145190923241
4984000000.0 0.47287521742651506 -0.8852425013834446
4988000000.0 0.5032889637820087 -0.9191229917517272
4991000000.0 0.5558069033027606 -0.9365092081491206
4994000000.0 0.517593637308876 -0.9026746169787011
4997000000.0 0.4544859557060062 -0.9383044632603754
5000000000.0 0.5290400238579436 -0.9454422428122307
5003000000.0 0.5111727833051982 -0.9704545864410503
5006000000.0 0.5195914999802798 -0.9550096035656465
5009000000.0 0.5032036379304888 -0.9531177598710319
5012000000.0 0.46776839638296874 -0.924453500360553
5016000000.0 0.5172567201206363 -0.946749400541584
5019000000.0 0.5250513647925813 -0.9123447120719806
5022000000.0 0.534521727775183 -0.9217720684323703
5025000000.0 0.5217122454322133 -0.9857650950024748
5028000000.0 0.4781478544796819 -0.9136131643581893
5031000000.0 0.47295662830276297 -0.938457526265553
5034000000.0 0.47038473065642195 -0.9481290192477112
5038000000.0 0.465542492009845 -0.896005256599042
5041000000.0 0.5329453881927692 -0.9391571559170635
5044000000.0 0.5052204903078774 -0.8907443164540936
5047000000.0 0.5085431929910037 -0.9234419938374991
5050000000.0 0.5645603223641491 -0.886604701060566
5053000000.0 0.5020450333013786 -0.9623698411323263
5056000000.0 0.5385500992884682 -0.9091331823654181
5059000000.0 0.5447042387327607 -0.9012014966247442
5062000000.0 0.48706732174309164 -0.962861265864708
5066000000.0 0.49989804943567484 -0.9143498270008497
5069000000.0 0.5079404707270334 -0.9167063628614041
5072000000.0 0.5134160841632769 -0.8641038286522753
5075000000.0 0.4861689677312667 -0.9033071102679483
5078000000.0 0.4759539293693457 -0.9531877836125465
5081000000.0 0.437506248003526 -0.9107668484899664
5084000000.0 0.5235232193380097 -0.9306706570489818
5088000000.0 0.5359954654687604 -0.8779604397100746
5091000000.0 0.45450768001758857 -0.9165095404038299
5094000000.0 0.5070230343408778 -0.92724628185623
5097000000.0 0.5069166902986925 -0.8935258251217615
5100000000.0 0.5038995374047157 -0.9017578229484796
5103000000.0 0.4742315125840083 -0.9432900242702198
5106000000.0 0.5189912976821843 -0.956976194335164
5109000000.0 0.5659796922682844 -0.914991761011619
5112000000.0 0.4397708364349719 -0.9311094795075305
5116000000.0 0.5238766794292007 -0.9078285382832226
5119000000.0 0.5273001470420979 -0.9132152322460548
5122000000.0 0.4617097866301668 -0.8633644311944635
5125000000.0 0.5216150475188231 -0.8645386008958781
5128000000.0 0.5160796545065205 -0.9232000039917059
5131000000.0 0.5099188232221115 -0.9020527965763396
5134000000.0 0.5126585479563502 -0.9051663595378141
5138000000.0 0.5421577783361797 -0.8889360895080287
5141000000.0 0.5807815875564843 -0.8783456243081049
5144000000.0 0.5467675152182719 -0.8900760983091054
5147000000.0 0.530612950023322 -0.9271720865997373
5150000000.0 0.5615314525982883 -0.9164237278946621
5153000000.0 0.5390630916699656 -0.9363660021064206
5156000000.0 0.5332988659254896 -0.9180709181156486
5159000000.0 0.5395237791885855 -0.9275175858744906
5162000000.0 0.4664902835359517 -0.8768780850166651
5166000000.0 0.46991757261045924 -0.9381918327234959
5169000000.0 0.5501555910300249 -0.8968027572654224
5172000000.0 0.4889202053413001 -0.8918510328663369
5175000000.0 0.5395740205119721 -0.9001742499782635
5178000000.0 0.5334302456601616 -0.8895004010315994
