! Created with skrf 1.8.0 (http://scikit-rf.org).
# Hz S RI R 50.0 
!freq ReS11 ImS11
4000000000.0 0.6360639785384843 0.7568430480543318
4003000000.0 0.6937078210385766 0.7881967980843484
4006000000.0 0.685092704649124 0.7563304240116919
4009000000.0000005 0.6632003213624134 0.7664063850033235
4011999999.9999995 0.7300994998154948 0.765500688109902
4016000000.0 0.6974630720119266 0.6925826367750685
4019000000.0 0.7691572445023602 0.6836852921672899
4022000000.0000005 0.6744930096456804 0.6779723692700756
4025000000.0000005 0.8352004339325645 0.5941887866757388
4027999999.9999995 0.8358218135721935 0.7233629758622255
4030999999.9999995 0.7332882610615009 0.6754782503988461
4034000000.0 0.8046757736084179 0.6544606283552561
4038000000.0000005 0.8984085317584731 0.6401478626118264
4041000000.0000005 0.8029820466696361 0.6479333271585982
4043999999.9999995 0.9277025653985501 0.6691351785186472
4046999999.9999995 0.8224726441717867 0.6716942921385438
4050000000.0 0.868950151511441 0.5944112593601228
4053000000.0 0.8744857892923564 0.5269888396790426
4056000000.0 0.8793509080963477 0.5311264432318598
4059000000.0 0.8450004126676072 0.5524178299294696
4062000000.0000005 0.9204554541785259 0.4562083784713955
4066000000.0 0.8348838284258793 0.4773755432815308
4069000000.0 0.9136949965937292 0.5271452135681495
4072000000.0 0.8780693893625188 0.5995520879689805
4075000000.0 0.9150604338260198 0.559250807585254
4078000000.0000005 0.9197706704848002 0.5001667116547482
4081000000.0000005 0.9455316364269664 0.5788056849645441
4083999999.9999995 0.9468914912026106 0.4896959182085657
4088000000.0 0.9269119326935416 0.5004766892562564
4091000000.0 1.0807310092942468 0.5180014179648496
4094000000.0000005 0.9710644569856306 0.47186297292613716
4097000000.0000005 0.9237380655909121 0.440610012158989
4099999999.9999995 1.0060527365747092 0.42998225074821006
4102999999.9999995 0.9901323947991991 0.4321046885433066
4106000000.0 0.9436146717392289 0.4317536955552349
4109000000.0 0.9897939633902554 0.3885327658179116
4112000000.0 1.0200084373793632 0.34971829099802726
4115999999.9999995 0.9555253549580395 0.4187787595516158
4119000000.0 1.021393731176468 0.3049941278292561
4122000000.0 1.0725864759385935 0.36193366049816145
4125000000.0 1.0924699585049307 0.3230076272114757
4128000000.0 0.942126066170972 0.3301046242709616
4131000000.0 1.0177780926274633 0.38377799156898346
4134000000.0000005 1.0366507364835733 0.3042221038940902
4138000000.0 0.9830617447413481 0.28573035002371
4141000000.0 0.9848274705896215 0.22715298219713018
4144000000.0 1.029666295011985 0.27270260353928816
4147000000.0000005 0.9597493160726634 0.20729994518625003
4150000000.0000005 1.060521419167114 0.32971094842287246
4152999999.9999995 1.0757008892821252 0.24511537836108133
4155999999.9999995 1.030927323742025 0.23330836105944147
4159000000.0 1.0163417550090852 0.27782121034122687
4162000000.0 1.019857889617406 0.2513179759099074
4166000000.0000005 0.9823329001395464 0.22717146275630803
4168999999.9999995 1.0766426158448312 0.16032841199510817
4171999999.9999995 1.0301276479409531 0.2522648609743945
4175000000.0 1.0000146059716506 0.2302169095566884
4178000000.0 1.0777362971216848 0.20509606181831533
4181000000.0 1.108279865151426 0.22126948158563703
4184000000.0 1.0374338648436787 0.20500797434312715
4187999999.9999995 1.0171971147212044 0.19744171907223113
4191000000.0 0.9624017824255299 0.2455057480048221
4194000000.0 1.021841999502593 0.13737933153542262
4197000000.0 1.0444386503723335 0.11838973407873592
4200000000.0 0.995420396034587 0.12864794906995627
4203000000.0000005 0.9803685425819547 0.1263308748744248
4206000000.0000005 1.0801946718836422 0.15168554499193537
4208999999.9999995 1.0384361140027647 0.15374066468729225
4211999999.9999995 1.0482503851044205 0.13734373134926484
4216000000.0 1.0193021959333095 0.08544259686120984
4219000000.0000005 1.0353769923715883 0.14984897938245983
4222000000.0000005 1.068645732069369 0.10020287041417805
4224999999.9999995 1.0368073900393768 0.1042792227156095
4227999999.9999995 1.0547847643316097 0.12210900554337964
4231000000.0 1.034592446531016 0.09633219367075707
4234000000.0 1.0314910756831053 0.14081870611169006
4238000000.0000005 1.0179209403818603 0.11249850844958054
4240999999.9999995 1.0723169176607432 0.12848661991944071
4244000000.0 1.048892014038341 0.11084577587963074
4247000000.0 1.099399396071805 0.12023869741316132
4250000000.0 1.076410844892471 0.07414862611241296
4253000000.0 1.0277269246743244 0.08844091901496776
4256000000.0 0.9701553766572784 0.058945969037428214
4259000000.0000005 1.027001389669145 0.0744731195590767
4261999999.9999995 1.0453119567098648 0.06308294462557001
4266000000.0 0.9997239536556333 0.06856336333297114
4269000000.0 1.0794891766737407 0.04676453331987507
4272000000.0000005 1.0489886604535323 0.023173510177236345
4275000000.0000005 1.0362770244339388 0.036333401923681174
4277999999.9999995 1.0329610034188001 0.07174276102057575
4280999999.9999995 1.0301515600676767 0.0341672026492843
4284000000.0 1.054634173518447 0.04834537018758084
4288000000.0000005 1.049070926673597 0.002366353917848285
4291000000.0000005 1.0359899648458055 0.017992509991647365
4293999999.9999995 1.0365606789392683 0.0018094229830022401
4297000000.0 1.0371974974184688 -0.023840531626787675
4300000000.0 1.0439011461646532 -0.031190783263635447
4303000000.0 1.04059466368674 0.00032086473880793553
4306000000.0 1.0574540988673984 -0.004659850875527838
4309000000.0 1.0369985073444468 -0.03885476142703698
4312000000.0 1.0320070085059032 -0.0027462564868178663
4316000000.0 1.0335007020619673 -0.001998290506680933
4319000000.0 1.0187581587499306 0.0020661152542529315
4322000000.0 1.0151352801222737 -0.06971275445986863
4325000000.0 1.0029511557207769 -0.014391820360317664
4328000000.0 1.0705940770027385 -0.03700712461505906
4331000000.0 1.030466914094872 -0.07743529458463477
4334000000.0 1.0287304174331209 -0.06325775717253873
4338000000.0 1.0119446742197784 -0.06203301149499574
4341000000.0 1.0319283353576887 -0.01208925970048802
4344000000.0 1.0197900353487823 -0.02987572555257756
4347000000.0 1.0462903700599857 -0.05414618113016245
4350000000.0 0.9934877982973213 -0.04979371128778004
4353000000.0 1.0278359863665028 -0.08034027097474206
4356000000.0 1.0469783685614726 -0.05969202802503104
4359000000.0 0.9821387973823521 -0.05130485034350024
4362000000.0 0.9897961035205377 -0.06728410295019532
4366000000.0 1.0300042926632331 -0.08000974499446933
4369000000.0 1.0142038571822871 -0.10650557135094019
4372000000.0 1.03326143988611 -0.13432716023831748
4375000000.0 1.0122367188208137 -0.07402100920677451
4378000000.0 1.0359150951274863 -0.10713311950041093
4381000000.0 1.0321956005839157 -0.06481185324756883
4384000000.0 1.018753785586114 -0.12861756646258737
4388000000.0 1.028803243973022 -0.09168200503486362
4391000000.0 1.0173304422024971 -0.09902098970209522
4394000000.0 1.0159446884280514 -0.08716608018776806
4397000000.0 1.0219229603172921 -0.11494343718499467
4400000000.0 1.0294974569844983 -0.1214137719601604
4403000000.0 1.0098870078094264 -0.1079053288509017
4406000000.0 1.0021811726387888 -0.16988920445539013
4409000000.0 1.0171538689554138 -0.12100915764209319
4412000000.0 0.9948907300688572 -0.1515549468501306
4416000000.0 0.995495441825895 -0.15837684474181485
4419000000.0 1.0131160073855607 -0.15089597352245632
4422000000.0 1.0008609064764056 -0.15171188129210456
4425000000.0 1.0085707183400716 -0.14340421736834608
4428000000.0 0.9900070672112067 -0.17117794340645232
4431000000.0 1.0319128142276377 -0.13675873976092823
4434000000.0 1.0296776709568354 -0.13795122287200023
4438000000.0 1.0338950908191384 -0.1594079811400967
4441000000.0 1.0272761707633258 -0.1418663204130466
4444000000.0 0.9911133771827785 -0.15923835211400772
4447000000.0 1.0154917943750945 -0.16342426583899278
4450000000.0 0.9957664244157023 -0.16215892125425713
4453000000.0 1.0262748979592413 -0.16850338377087498
4456000000.0 0.9741480611231959 -0.18799549520479286
4459000000.0 0.9595998399862815 -0.20052418616999507
4462000000.0 1.06125150558757 -0.17452033352642632
4466000000.0 1.0385601718478383 -0.18841204613759976
4469000000.0 1.00943318754278 -0.17049204866191742
4472000000.0 1.0219057681701385 -0.2164441224245549
4475000000.0 0.9886545631304797 -0.1889461986738581
4478000000.0 1.0461283283917853 -0.2196632398159813
4481000000.0 0.9811208737439346 -0.2060439998386825
4484000000.0 0.9752890530509385 -0.22362366808554346
4488000000.0 0.9789367584988875 -0.19514520272109864
4491000000.0 0.9894253054458408 -0.2234196965872443
4494000000.0 0.9844086462848609 -0.21601288696137333
4497000000.0 0.9850445935152076 -0.19487984768681782
4500000000.0 0.981617025358917 -0.18434573235847496
4503000000.0 1.0007020545372471 -0.21747032482312267
4506000000.0 0.9946774512943758 -0.21888460282495648
4509000000.0 0.9826671553574484 -0.23694192931989794
4512000000.0 0.9609710248237634 -0.22093354138564997
4516000000.0 0.9976934756373155 -0.20904192713796738
4519000000.0 0.9664633116267946 -0.18998464894028633
4522000000.0 0.9813463265860697 -0.22296905947922435
4525000000.0 0.9835357715368278 -0.1875961192003569
4528000000.0 1.0243317533015694 -0.24386022887003656
4531000000.0 0.9882849939954002 -0.23244064340178877
4534000000.0 0.9605745284077923 -0.23824176012480056
4538000000.0 0.9854886405978224 -0.2501331347285147
4541000000.0 0.965721026231436 -0.2888365650552588
4544000000.0 0.9668142670773072 -0.2420679097209838
4547000000.0 0.976694038994169 -0.23436249111359728
4550000000.0 0.9666926555120254 -0.2774856406094537
4553000000.0 0.9732771108229886 -0.2678032148746027
4556000000.0 0.9401782470181604 -0.27304777521681123
4559000000.0 0.9842137738600184 -0.2989776597820532
4562000000.0 0.9987204740661397 -0.26201760318756867
4566000000.0 0.9769906219737594 -0.27202418961384545
4569000000.0 0.9474592052054371 -0.25462824902439285
4572000000.0 0.9615224975974365 -0.2586210157507968
4575000000.0 0.9728931005179744 -0.30684880941555037
4578000000.0 0.9837150084706169 -0.2618415097332878
4581000000.0 0.9823172135934388 -0.32257386427218576
4584000000.0 0.9342001263642596 -0.275251104884517
4588000000.0 0.9796726992481721 -0.2619133415111478
4591000000.0 0.9589034264696463 -0.25298327416446
4594000000.0 0.957248161581266 -0.29569665856928007
4597000000.0 0.993739648695085 -0.3170851344221011
4600000000.0 0.9221117135395067 -0.3397229002096046
4603000000.0 0.9949317012080657 -0.3126017004091359
4606000000.0 0.9537533978056407 -0.2958621202779974
4609000000.0 0.9528795261485544 -0.3149631563559093
4612000000.0 0.9954788222690972 -0.3089780646967766
4616000000.0 0.9505264102671639 -0.31769322446381737
4619000000.0 0.9796203675202195 -0.29413074711783965
4622000000.0 0.9345723309872899 -0.30469864467032626
4625000000.0 0.9077817944056199 -0.30278862365330683
4628000000.0 0.9149337026286957 -0.28208942628134787
4631000000.0 0.9298757001088259 -0.35947437578599206
4634000000.0 0.9594014557448485 -0.3155888555493663
4638000000.0 0.948749492166347 -0.32923796190487353
4641000000.0 0.9746445681068969 -0.31050522061493124
4644000000.0 0.9569669485270849 -0.3346251918903494
4647000000.0 0.9540509863150409 -0.32135363631339675
4650000000.0 0.9492060028652468 -0.3698759758036836
4653000000.0 0.9720787158374219 -0.32559109351193705
4656000000.0 0.9362108219146048 -0.3596448648474704
4659000000.0 0.9325335534037733 -0.33211089668792937
4662000000.0 0.9553532559554965 -0.33320406282917525
4666000000.0 0.947911760520265 -0.32864597333309475
4669000000.0 0.9395619720491963 -0.316807592927449
4672000000.0 0.927664387606803 -0.36918437943883603
4675000000.0 0.9181076274975349 -0.3712296788562672
4678000000.0 0.9480028067650608 -0.33862360788432333
4681000000.0 0.943135059567192 -0.3886815406697032
4684000000.0 0.8972555367608651 -0.3571239744502403
4688000000.0 0.9187678532259409 -0.33329924568469155
4691000000.0 0.9032289540482833 -0.34104572851562437
4694000000.0 0.9469060103365472 -0.385994700033072
4697000000.0 0.9547271338267151 -0.3493332693997447
4700000000.0 0.9699461220307032 -0.3419029992616883
4703000000.0 0.9448311908248833 -0.4072300712241511
4706000000.0 0.9346907110090157 -0.3452901301311281
4709000000.0 0.9246392037477202 -0.3966428196189096
4712000000.0 0.9118619103777803 -0.38910755166204836
4716000000.0 0.9335860989951948 -0.3719699163297329
4719000000.0 0.9489216797984696 -0.4087046781270939
4722000000.0 0.9385197809402419 -0.3907328342382349
4725000000.0 0.9121904879842905 -0.40998842144492564
4728000000.0 0.9128182571788547 -0.3821751957823035
4731000000.0 0.9473469132845971 -0.37686212138978376
4734000000.0 0.9460207747079994 -0.360982287096727
4738000000.0 0.9519835963693332 -0.4011404441300568
4741000000.0 0.9396844438524661 -0.3959156605405139
4744000000.0 0.9134268066363842 -0.4057017860631325
4747000000.0 0.916210406659217 -0.40183808856685643
4750000000.0 0.8984454241392835 -0.40824599941159656
4753000000.0 0.9374179868427921 -0.41947857662138843
4756000000.0 0.8928294063189426 -0.4038888396195919
4759000000.0 0.9002585801533144 -0.38903188982511444
4762000000.0 0.9124669754337045 -0.4307057840897328
4766000000.0 0.9104995088018407 -0.43027428934005896
4769000000.0 0.9636089980923317 -0.4256763815759149
4772000000.0 0.919445755765148 -0.4193242887492712
4775000000.0 0.9330825562347697 -0.43913416097038616
4778000000.0 0.9222636823288063 -0.4015770421916581
4781000000.0 0.9201386945702655 -0.40505245780961063
4784000000.0 0.939263752450531 -0.40378140134899865
4788000000.0 0.9669532614907884 -0.41886989971288013
4791000000.0 0.9076198877436686 -0.43135632103313526
4794000000.0 0.9371802098197604 -0.42925701892130086
4797000000.0 0.9405733827335737 -0.4460639130901475
4800000000.0 0.8934747168845784 -0.4394985065209762
4803000000.0 0.904063612270401 -0.4179119933201783
4806000000.0 0.9379962997114788 -0.4295145830043916
4809000000.0 0.9131022359124408 -0.4601928500095248
4812000000.0 0.9004088877278656 -0.46555326545804154
4816000000.0 0.9166242249248089 -0.43641369386741535
4819000000.0 0.9435329794032248 -0.429561731798498
4822000000.0 0.9235592643244411 -0.44470816914406275
4825000000.0 0.9176236539034425 -0.43716338908217944
4828000000.0 0.9160147349912903 -0.44316391951242806
4831000000.0 0.9119056092958784 -0.48538995048205974
4834000000.0 0.9297288182261426 -0.44640482690146843
4838000000.0 0.932019775786754 -0.46963022873748544
4841000000.0 0.9136043466800339 -0.45450468201042016
4844000000.0 0.9337662216130698 -0.42884019530280326
4847000000.0 0.8822011766927222 -0.4297599953585902
4850000000.0 0.9187871437952326 -0.4514504694046984
4853000000.0 0.9195320459017248 -0.4489555420544691
4856000000.0 0.8941819472583885 -0.4656420793782007
4859000000.0 0.9205226113849797 -0.45064419135168104
4862000000.0 0.8969026465854637 -0.44123196590994007
4866000000.0 0.9191209963895323 -0.47686790876547275
4869000000.0 0.9061404065251915 -0.46120508026326423
4872000000.0 0.9089287874465828 -0.4796303502601663
4875000000.0 0.95245375999611 -0.45737935506960253
4878000000.0 0.9151292401781548 -0.4855444630341282
4881000000.0 0.9365782861127103 -0.5180480551702632
4884000000.0 0.9071539997316858 -0.4576077343516756
4888000000.0 0.9224706866427065 -0.4502508543352961
4891000000.0 0.9317535573296066 -0.4770273296650879
4894000000.0 0.8967533691841016 -0.4856411703887302
4897000000.0 0.9106024501091954 -0.4610830159005592
4900000000.0 0.90617939480432 -0.4779187863035586
4903000000.0 0.9118335309212828 -0.4910092593290054
4906000000.0 0.8909085561805292 -0.4834774257786626
4909000000.0 0.8985608413546862 -0.4768790605242096
4912000000.0 0.9201969441531079 -0.5267316367485959
4916000000.0 0.9356783917683162 -0.46755111209572625
4919000000.0 0.944665890000979 -0.48103131514237835
4922000000.0 0.9089084822098341 -0.4679500256478809
4925000000.0 0.895332193925777 -0.48211917159770445
4928000000.0 0.9093084628801682 -0.45771830919351814
4931000000.0 0.9384971788482834 -0.4665382435793534
4934000000.0 0.8633823708165245 -0.4876236495117623
4938000000.0 0.8401949940764706 -0.4964077534857899
4941000000.0 0.9116321166929593 -0.4586954365735624
4944000000.0 0.8763515561689268 -0.42540802507863423
4947000000.0 0.9016723609544011 -0.49229569580132876
4950000000.0 0.886689250991177 -0.5111319147621084
4953000000.0 0.8999536730465824 -0.531737660664285
4956000000.0 0.8786453205219659 -0.49894743957817966
4959000000.0 0.8714697999589556 -0.5063975949265087
4962000000.0 0.9144042195576989 -0.5271129120076248
4966000000.0 0.9091846187135519 -0.5081640288437738
4969000000.0 0.8910984757714335 -0.4578819632513539
4972000000.0 0.8991628583616591 -0.518766483270283
4975000000.0 0.8936070607203663 -0.465031711374503
4978000000.0 0.8999005501823649 -0.4877597079947399
4981000000.0 0.8901116898810271 -0.5196027439262003
4984000000.0 0.9065088162150936 -0.5104116080824742
4988000000.0 0.8732178226189364 -0.4870365430056415
4991000000.0 0.9424909451909438 -0.5067920562459473
4994000000.0 0.9101405860835159 -0.48453202143808094
4997000000.0 0.8962751837496332 -0.5252030511305277
5000000000.0 0.9117200794409 -0.5233056249032151
5003000000.0 0.9172552076192506 -0.5147150526591888
5006000000.0 0.9429290591113274 -0.5420218661624736
5009000000.0 0.9069428375386676 -0.5261098712028229
5012000000.0 0.8711511763843091 -0.5269386826779867
5016000000.0 0.9284377153247312 -0.4874100700216124
5019000000.0 0.870838732017486 -0.4793961263775597
5022000000.0 0.9025778791509835 -0.5090759289404223
5025000000.0 0.964928605336073 -0.5363622918553763
5028000000.0 0.8954151533759335 -0.5404243459219662
5031000000.0 0.8878404131812618 -0.5140059514075306
5034000000.0 0.9121144534322476 -0.5562549374869339
5038000000.0 0.8582318237501991 -0.5222474091452913
5041000000.0 0.8988373444260493 -0.47252281331918344
5044000000.0 0.8997467265579391 -0.47135885805677274
5047000000.0 0.9016381925362513 -0.5277529622171916
5050000000.0 0.9192927616689068 -0.40672994917801963
5053000000.0 0.9325456882323023 -0.5231972004778758
5056000000.0 0.9146381085186899 -0.4957356927086136
5059000000.0 0.9359989539517373 -0.4380777434851955
5062000000.0 0.893604881779221 -0.5577843324988849
5066000000.0 0.9063932705460076 -0.4413967089855144
5069000000.0 0.8899795484164416 -0.5055597604314592
5072000000.0 0.8505656690275916 -0.5183167405246466
5075000000.0 0.9160008047153925 -0.5052506962139507
5078000000.0 0.8696648883801589 -0.5764709673168431
5081000000.0 0.8611983715610907 -0.5274431366063975
5084000000.0 0.9512285095144561 -0.5644591363892977
5088000000.0 0.889416143764883 -0.48949645302020905
5091000000.0 0.9071704431501832 -0.5463455602907015
5094000000.0 0.9242361148948025 -0.5183383661531545
5097000000.0 0.9355393223687434 -0.5100054449713227
5100000000.0 0.8806097914901594 -0.5005342259632097
5103000000.0 0.8925628795454187 -0.48810696259252
5106000000.0 0.9734337275719004 -0.5508636432271569
5109000000.0 0.8775084334550171 -0.45364589252019566
5112000000.0 0.9010675146513518 -0.46573585525209615
5116000000.0 0.8824063453655449 -0.5296835449095301
5119000000.0 0.9124525407025086 -0.5106325065107956
5122000000.0 0.9016393544829264 -0.49329674417313885
5125000000.0 0.8802634367104389 -0.5010953089102321
5128000000.0 0.8554815238955551 -0.5336564328750889
5131000000.0 0.8553285965506764 -0.5243312228269831
5134000000.0 0.9080196813994865 -0.5214088949052805
5138000000.0 0.9040456866719134 -0.5122364699749515
5141000000.0 0.8922238124804777 -0.4907857417633924
5144000000.0 1.0103238364376956 -0.5012326039374133
5147000000.0 0.8920445063429607 -0.5253432014707455
5150000000.0 0.9017485881435502 -0.4998502506804399
5153000000.0 0.9056606940930556 -0.49896674487173126
5156000000.0 0.945788901355605 -0.5253916270198957
5159000000.0 0.9469848728497483 -0.5224359193230227
5162000000.0 0.8936279315427211 -0.5180678098524183
5166000000.0 0.9496445592391398 -0.5697212599232877
5169000000.0 0.8970964315034068 -0.5190267037628951
5172000000.0 0.8552880879835252 -0.4930468573970418
5175000000.0 0.9471559211056866 -0.5037877076172439
