! Created with skrf 1.8.0 (http://scikit-rf.org).
# Hz S RI R 50.0 
!freq ReS11 ImS11
4000000000.0 0.520670501234339 -0.9031736159556295
4003000000.0 0.529164883934105 -0.9667040909572779
4006000000.0 0.4546815689832612 -0.9300268389776172
4009000000.0000005 0.4867931597779924 -0.9307446373642548
4011999999.9999995 0.5305214775108875 -0.9295868816076478
4016000000.0 0.4740279465419258 -0.9674975557703164
4019000000.0 0.4849375557333189 -0.9045296792211012
4022000000.0000005 0.5572800875593121 -0.8540443431691426
4025000000.0000005 0.45623306813713127 -0.9614903039116522
4027999999.9999995 0.5263878247560521 -0.8831356713730873
4030999999.9999995 0.4353421558672715 -0.9076476236496039
4034000000.0 0.4820333177232383 -0.9234549457661241
4038000000.0000005 0.5006331718123725 -0.9236695499096969
4041000000.0000005 0.46590445824804577 -0.917496335815962
4043999999.9999995 0.5201521591566423 -0.9785004028841089
4046999999.9999995 0.5496778102602815 -0.9309783926279044
4050000000.0 0.46643742476226163 -0.9728591027129142
4053000000.0 0.45817550155189957 -0.9116769234714002
4056000000.0 0.47758520797526716 -0.9093050375718044
4059000000.0 0.4986973075661128 -0.94601433258273
4062000000.0000005 0.45976987407747427 -0.9188597438443609
4066000000.0 0.453823023047538 -0.89572910098198
4069000000.0 0.4610273930453235 -0.9909133550435952
4072000000.0 0.5166759990743595 -0.8770267421960696
4075000000.0 0.5102216464515157 -0.9508264107028223
4078000000.0000005 0.5065395951922274 -0.9645229246843648
4081000000.0000005 0.5514606821518895 -0.9072995085035387
4083999999.9999995 0.45777185477823734 -0.9222478741001447
4088000000.0 0.499679388600374 -0.8843507534393057
4091000000.0 0.5038679485442017 -0.9457881384463431
4094000000.0000005 0.49835033705267834 -0.8743367141294677
4097000000.0000005 0.5003101019365048 -0.91509141391876
4099999999.9999995 0.4700949008594639 -0.9318796620159043
4102999999.9999995 0.49368194897153866 -0.913376294535885
4106000000.0 0.46576243746130636 -0.9334619138189362
4109000000.0 0.4400638790848038 -0.917463670035276
4112000000.0 0.4875637587854451 -0.9037054986250683
4115999999.9999995 0.5110274833377455 -0.9100450713965901
4119000000.0 0.45584485698425736 -0.9425963080746306
4122000000.0 0.4790279407252524 -0.917497835108537
4125000000.0 0.503777917719727 -0.9511124259835093
4128000000.0 0.4732190172545793 -0.8971068939434851
4131000000.0 0.42642175056625287 -0.8947938363485594
4134000000.0000005 0.5240156798215667 -0.9228991415490126
4138000000.0 0.45496442881874144 -0.8816078502331902
4141000000.0 0.45967631126902575 -0.9150469187654761
4144000000.0 0.47893205169882064 -0.9140877977056394
4147000000.0000005 0.4721129763238561 -0.9314213154787273
4150000000.0000005 0.4799283829212938 -0.9369611075115452
4152999999.9999995 0.4443686168972617 -0.8934884216657599
4155999999.9999995 0.5065519397467991 -0.9379146719301666
4159000000.0 0.46433957894644945 -0.8839477694653197
4162000000.0 0.4786567001169918 -0.8860850175905112
4166000000.0000005 0.49393657689319154 -0.8765944551462037
4168999999.9999995 0.44351779592252477 -0.9239026720243688
4171999999.9999995 0.5053633152502588 -0.9096321248434587
4175000000.0 0.49125435886124585 -0.8906586957342204
4178000000.0 0.4832154141130686 -0.9260595771437113
4181000000.0 0.47312930340150816 -0.9270375886179358
4184000000.0 0.471625021384729 -0.9296366305360184
4187999999.9999995 0.4586849024115779 -0.8935297544345103
4191000000.0 0.4998298189359932 -0.871708119612043
4194000000.0 0.47380235537546167 -0.8940303719935797
4197000000.0 0.5043180495864565 -0.9222294748254818
4200000000.0 0.4884137282316079 -0.909421551072606
4203000000.0000005 0.5118604043088245 -0.9086866068442856
4206000000.0000005 0.48179912117341106 -0.9181012218718058
4208999999.9999995 0.48850577448043153 -0.8864378627970008
4211999999.9999995 0.435529405549467 -0.9058675160607352
4216000000.0 0.489213498933859 -0.9032897276539233
4219000000.0000005 0.4930788032235711 -0.9049281892721237
4222000000.0000005 0.46060941935808325 -0.9156655221856363
4224999999.9999995 0.47299341132392037 -0.885382879030235
4227999999.9999995 0.47067236489580333 -0.9067116727456883
4231000000.0 0.4746546891357505 -0.9175900993155903
4234000000.0 0.46563747712811454 -0.9054423934897633
4238000000.0000005 0.4639988990298228 -0.9017530859342687
4240999999.9999995 0.46191835245932433 -0.9056270642326076
4244000000.0 0.4764848465016476 -0.9038308451745756
4247000000.0 0.48107718984854253 -0.8917245088895607
4250000000.0 0.4561060522242373 -0.8765786162608287
4253000000.0 0.44392647003139796 -0.8841876035966384
4256000000.0 0.46923834227797523 -0.929825695631302
4259000000.0000005 0.4529336363502267 -0.8808067930307076
4261999999.9999995 0.4294309736650463 -0.9123813040175618
4266000000.0 0.46330085226593903 -0.9332746749053654
4269000000.0 0.4799922884183903 -0.8992310467678561
4272000000.0000005 0.4729396211907987 -0.8979602300225646
4275000000.0000005 0.45543165952109743 -0.9062682463109106
4277999999.9999995 0.4790497965550725 -0.9443744904028473
4280999999.9999995 0.481800971644423 -0.9074958609924756
4284000000.0 0.46077049253793156 -0.936667231553535
4288000000.0000005 0.49165391079109755 -0.9003763051020426
4291000000.0000005 0.46586332946270753 -0.8754177845511066
4293999999.9999995 0.4528449703705507 -0.9013363692510459
4297000000.0 0.4760777496590093 -0.8882235004901824
4300000000.0 0.4707141140706449 -0.8931324969853435
4303000000.0 0.4566024704861583 -0.9113300031899505
4306000000.0 0.49641180050688366 -0.8838199185569324
4309000000.0 0.46739085287228127 -0.8963244864496314
4312000000.0 0.5184663951000249 -0.8942062975337494
4316000000.0 0.4848453934616919 -0.8895006595369306
4319000000.0 0.4649032541939725 -0.90400338280607
4322000000.0 0.422752691052522 -0.8904269279414312
4325000000.0 0.4709330656569734 -0.9264933630396345
4328000000.0 0.49653602676205105 -0.8872427206043675
4331000000.0 0.450624916619412 -0.9247189102898706
4334000000.0 0.4637462473419576 -0.9226508519102802
4338000000.0 0.47791505657882244 -0.8802288599248531
4341000000.0 0.4899821698737358 -0.9058472964346125
4344000000.0 0.48461300233359467 -0.9252957196965694
4347000000.0 0.440855148266803 -0.9485894795070736
4350000000.0 0.4358465784099333 -0.8575936722570497
4353000000.0 0.4480322078741461 -0.8614497635459651
4356000000.0 0.4212099727585248 -0.9157598610256424
4359000000.0 0.43178737073746093 -0.8667952428266342
4362000000.0 0.4377263171789991 -0.9345886610806358
4366000000.0 0.46262124675181693 -0.9203821379646573
4369000000.0 0.4389371281169348 -0.8781068102827774
4372000000.0 0.4166277665191508 -0.9153553388298445
4375000000.0 0.47491573475026905 -0.9076121722635033
4378000000.0 0.4335663610408035 -0.8867989326002979
4381000000.0 0.4610333257926649 -0.8724148633196397
4384000000.0 0.4643041524894402 -0.9676963303813213
4388000000.0 0.46134934685745643 -0.8683831110191013
4391000000.0 0.45614807432601584 -0.9159798591058126
4394000000.0 0.4333795608144221 -0.8692547594058257
4397000000.0 0.44076354723576294 -0.9095599165396516
4400000000.0 0.44972831426390963 -0.9329637494392637
4403000000.0 0.44481255091637006 -0.9021265867288861
4406000000.0 0.4341616243388094 -0.9245361469220726
4409000000.0 0.46723232437169204 -0.9367405424986124
4412000000.0 0.382939575238087 -0.9134169355639875
4416000000.0 0.42488188350598133 -0.9037117026725741
4419000000.0 0.4238490342915199 -0.9211196515432963
4422000000.0 0.46065057448267765 -0.8981628422258503
4425000000.0 0.47835533387908236 -0.9237648757295496
4428000000.0 0.4312398963765818 -0.9269365881379295
4431000000.0 0.4510078749594235 -0.9192899580562747
4434000000.0 0.4210943161816701 -0.9051382059482169
4438000000.0 0.45355800904993887 -0.9206171317010272
4441000000.0 0.4519414340346208 -0.9294207745427436
4444000000.0 0.4459180293483034 -0.8859015426010445
4447000000.0 0.41143883359981004 -0.9117201687546893
4450000000.0 0.4389882331314699 -0.9068714429613103
4453000000.0 0.4529877780314659 -0.9183447756612578
4456000000.0 0.4092527055510492 -0.897056779260448
4459000000.0 0.3977168265649373 -0.8790200487495365
4462000000.0 0.4519169193745385 -0.9641780347089173
4466000000.0 0.4357099433772709 -0.946628303799085
4469000000.0 0.4465684017302599 -0.9155770119097564
4472000000.0 0.42732427135936646 -0.9394136087005902
4475000000.0 0.4280900646114791 -0.8989507862291349
4478000000.0 0.428024624841043 -0.9596500728840641
4481000000.0 0.40376870918243934 -0.8964861049375754
4484000000.0 0.3864057780870326 -0.9318162874407095
4488000000.0 0.4218082467471578 -0.9141874564180898
4491000000.0 0.41113045252721636 -0.9292995977279055
4494000000.0 0.4116691954400738 -0.9138971642456807
4497000000.0 0.4515200510289104 -0.8977937443906385
4500000000.0 0.4112402675983153 -0.9039587644796567
4503000000.0 0.4295752156924389 -0.9325203851982357
4506000000.0 0.40326390859057293 -0.9281493779567516
4509000000.0 0.40883946651587927 -0.886620964944355
4512000000.0 0.4140073229708099 -0.9022591884178861
4516000000.0 0.4316552809281219 -0.9372946758008041
4519000000.0 0.4186569322602851 -0.8885545284704242
4522000000.0 0.40541560561294737 -0.9103863160517239
4525000000.0 0.4403346787099208 -0.9069930469773955
4528000000.0 0.4485678210270872 -0.9404457345040184
4531000000.0 0.4330756893033022 -0.9242877846539588
4534000000.0 0.41914542537262883 -0.8991926482566198
4538000000.0 0.4209252698623774 -0.9237251957731318
4541000000.0 0.381240097671172 -0.9365450531827813
4544000000.0 0.4235728580469981 -0.9316641843687863
4547000000.0 0.43505802569473273 -0.9159891250685441
4550000000.0 0.3886758212205212 -0.9535927979050005
4553000000.0 0.4007266358710031 -0.9292147969337958
4556000000.0 0.3934173254622198 -0.9113778414550547
4559000000.0 0.40215166740122854 -0.933758460992826
4562000000.0 0.4030925023151797 -0.9482591544577313
4566000000.0 0.4060835422716546 -0.95598531661512
4569000000.0 0.39652987291509495 -0.9121933334488506
4572000000.0 0.3965564629835305 -0.9280679259830615
4575000000.0 0.3911691268835784 -0.94902379023302
4578000000.0 0.4325381844132714 -0.9592476003388491
4581000000.0 0.40795750721322105 -0.9383722411746165
4584000000.0 0.3951284252816133 -0.9117425214115041
4588000000.0 0.4254544817449157 -0.93693856546668
4591000000.0 0.4243039530595377 -0.933787880571932
4594000000.0 0.3881040354806048 -0.9438414453877577
4597000000.0 0.4002380677322844 -0.9374960052739254
4600000000.0 0.38530642807023896 -0.9297402680668828
4603000000.0 0.37447591125825075 -0.9397328977939043
4606000000.0 0.41021262027048055 -0.9417555819781058
4609000000.0 0.40439912563374153 -0.9191315047943562
4612000000.0 0.40044103519260366 -0.9300617828856936
4616000000.0 0.39590413646892775 -0.9222249621581218
4619000000.0 0.3956740200424308 -0.9319131361787211
4622000000.0 0.39042145006086915 -0.9304344760992087
4625000000.0 0.3501504805850271 -0.9274868100889354
4628000000.0 0.4032019620116513 -0.930225398791819
4631000000.0 0.3682865663463867 -0.952423887239227
4634000000.0 0.38587714310146803 -0.9299560099593438
4638000000.0 0.401412595567492 -0.9400811574416638
4641000000.0 0.4000446225207228 -0.935535846177395
4644000000.0 0.3765938621673637 -0.9383852619201303
4647000000.0 0.40293432786497807 -0.9418752657408705
4650000000.0 0.3787317969908224 -0.9233567620269096
4653000000.0 0.40362930405793995 -0.9355557890041293
4656000000.0 0.37102408226784495 -0.9456963393357112
4659000000.0 0.37579052012098946 -0.9436199214901784
4662000000.0 0.37115309418156783 -0.9448229577655067
4666000000.0 0.3603204559792837 -0.9421136436113083
4669000000.0 0.3839339206595486 -0.9487030591421414
4672000000.0 0.3611427953522787 -0.9721193594537141
4675000000.0 0.3734088796045878 -0.9611389705970458
4678000000.0 0.38159652713576986 -0.9275014728066745
4681000000.0 0.3765690997176797 -0.9505306392536115
4684000000.0 0.3541167763640751 -0.9632614418142924
4688000000.0 0.3596518875140374 -0.9624990118326999
4691000000.0 0.400119803109949 -0.9607733533504841
4694000000.0 0.3944114046251788 -0.9361162938459597
4697000000.0 0.33336841080976215 -0.9178694673834397
4700000000.0 0.3635318880704036 -0.9549915044743746
4703000000.0 0.40550308283885167 -0.8747552960447725
4706000000.0 0.3590890697634306 -0.947204546667852
4709000000.0 0.36345123695224496 -0.9514228773686066
4712000000.0 0.38137172496245986 -0.9355370549103406
4716000000.0 0.3767523407450041 -0.9406784897188136
4719000000.0 0.4173327914335534 -0.9684485129790291
4722000000.0 0.38626424768638234 -0.9251717770836436
4725000000.0 0.3867148579122621 -0.9504498177417872
4728000000.0 0.35021437738528416 -0.9603096807100592
4731000000.0 0.39564117508429913 -0.9994140627712738
4734000000.0 0.36745265529983545 -0.9401393819237439
4738000000.0 0.416581283230595 -0.9597590504748049
4741000000.0 0.3436035292793153 -0.9876440887662266
4744000000.0 0.32922978791386326 -0.9562515902623233
4747000000.0 0.37353187111121305 -0.9459155915546081
4750000000.0 0.3427762032414528 -0.9600120169650845
4753000000.0 0.38427538352212465 -0.9363514899475857
4756000000.0 0.36939882656715173 -0.9665947354599727
4759000000.0 0.3655982035458135 -0.9667427530457554
4762000000.0 0.3395620416205787 -0.9647169078607353
4766000000.0 0.36422065916194946 -0.9378885783377329
4769000000.0 0.35524752109295044 -0.9673782006271645
4772000000.0 0.3587750872594795 -0.9809842702012476
4775000000.0 0.38358384049611216 -1.0234506355166968
4778000000.0 0.3464665930726245 -0.9555548160478923
4781000000.0 0.3692155296599202 -0.9247090106139105
4784000000.0 0.41048335290951377 -0.965798453953002
4788000000.0 0.3524265239627242 -0.9803605992664355
4791000000.0 0.34390787874738493 -0.9713277366117593
4794000000.0 0.37873964739706967 -0.9683875431070195
4797000000.0 0.3534908073631633 -0.9334724822291675
4800000000.0 0.3353837210416761 -0.9399686403425339
4803000000.0 0.30664327094519206 -0.9524704129139181
4806000000.0 0.3461084707503451 -0.9842346181323962
4809000000.0 0.3224032113759308 -0.9737021375281699
4812000000.0 0.31773486576363363 -0.9632814405916295
4816000000.0 0.3709239749927329 -0.9431366552145792
4819000000.0 0.39722835034987114 -0.9689609208730436
4822000000.0 0.3860851126443163 -0.9848387027742951
4825000000.0 0.40436135497239967 -0.999546910348448
4828000000.0 0.33795250277421834 -0.9631871681940176
4831000000.0 0.34615610536281516 -1.0085183608825874
4834000000.0 0.37853976530435574 -0.9643135062772205
4838000000.0 0.35014048684256727 -0.9837128919506395
4841000000.0 0.33419623835957074 -0.9735966519337577
4844000000.0 0.39288925523202667 -0.9659454291383305
4847000000.0 0.37901631031731753 -0.92599663920018
4850000000.0 0.3612062805850064 -0.9907839035732037
4853000000.0 0.3581058962921915 -0.9338638814352268
4856000000.0 0.34884092394221444 -0.9600547210895839
4859000000.0 0.34314158557330826 -1.0050675232609634
4862000000.0 0.37218833574172705 -0.9377900948240662
4866000000.0 0.3437348922785417 -1.0106803538201934
4869000000.0 0.3441738909489492 -0.9856716954334634
4872000000.0 0.3326841951650491 -1.0108475910238823
4875000000.0 0.41782264610823 -0.9861166073317056
4878000000.0 0.3559712885872659 -0.9643522700774846
4881000000.0 0.3352309976044417 -1.0520499854613587
4884000000.0 0.3412183088430004 -0.9650675528678543
4888000000.0 0.3789348682055873 -0.9523242313422384
4891000000.0 0.3764018441278462 -0.9717586308085541
4894000000.0 0.34039990249720864 -0.9632558202968362
4897000000.0 0.3918550094283674 -0.9336891617065999
4900000000.0 0.36062297396936 -1.0153337997922993
4903000000.0 0.37466598123164946 -0.973699537699812
4906000000.0 0.35102232910989606 -0.9901102620454564
4909000000.0 0.33818567333602223 -1.004795657788445
4912000000.0 0.3298569561318011 -1.0055243854904745
4916000000.0 0.3662442988696195 -1.008914570734223
4919000000.0 0.40501536939697313 -0.9854089660058243
4922000000.0 0.3760810835019035 -0.932109733482702
4925000000.0 0.3289812401904657 -0.9852810113711726
4928000000.0 0.4117359441148897 -0.9336112805800449
4931000000.0 0.4185105360620277 -0.9720162538349849
4934000000.0 0.32328133858572705 -0.9413300880116894
4938000000.0 0.29526393413733304 -0.9889386264370909
4941000000.0 0.35007176717573246 -0.9165882927935359
4944000000.0 0.35030527266875205 -0.8998740918920758
4947000000.0 0.3512892127335717 -0.9342522575585337
4950000000.0 0.31883287621595097 -0.9385472553057237
4953000000.0 0.3515979594960768 -1.0201218726735586
4956000000.0 0.3518587926714073 -0.9773862847839672
4959000000.0 0.28627265397457113 -0.9552876336392749
4962000000.0 0.3747587542882544 -1.0330679095214155
4966000000.0 0.38684752727400423 -1.0170460842472262
4969000000.0 0.3496028207749569 -1.0091058471694683
4972000000.0 0.35635872022103515 -0.9879015623469494
4975000000.0 0.3883354656305921 -0.9346654111501914
4978000000.0 0.3308199193679529 -0.9995418754178542
4981000000.0 0.33184347439831835 -0.9981386543869972
4984000000.0 0.3722781921469388 -0.9845262792067941
4988000000.0 0.35803537221741666 -0.9912047535491323
4991000000.0 0.413535480821887 -0.9854231452516831
4994000000.0 0.38030705947456966 -0.9669201925858673
4997000000.0 0.32830529618789656 -0.978558453811123
5000000000.0 0.3802128864640691 -1.020668745018615
5003000000.0 0.37968528066889645 -1.0120150237747738
5006000000.0 0.3754580824836798 -1.025362167268658
5009000000.0 0.3498192267008865 -0.999382932301373
5012000000.0 0.32557082445095376 -0.9837816015168175
5016000000.0 0.3957144970090763 -0.997018014586154
5019000000.0 0.34183619982167857 -0.9870630178236877
5022000000.0 0.3654750386995303 -0.9775277856518586
5025000000.0 0.38070874951647454 -1.0410461382812355
5028000000.0 0.3538809625157562 -1.0193173120038335
5031000000.0 0.3644982892392437 -0.994272658322161
5034000000.0 0.3313546688523289 -1.0282625562140648
5038000000.0 0.3613788032816228 -0.9508924192314745
5041000000.0 0.392200921150864 -0.9779058206347866
5044000000.0 0.3557412781799026 -0.9611866308184234
5047000000.0 0.35432765888638934 -0.9947398598014425
5050000000.0 0.4093843120799203 -0.9191306849203251
5053000000.0 0.3493493493195532 -1.0027897120276754
5056000000.0 0.38474051730123093 -0.981459212246184
5059000000.0 0.4028425250432393 -0.9877016761441567
5062000000.0 0.3346841262231455 -0.9910908128985987
5066000000.0 0.36059502736816595 -1.0067371353909222
5069000000.0 0.33775631959826125 -1.0012109174961261
5072000000.0 0.3633384208087204 -0.9583948979270492
5075000000.0 0.3632805575334842 -0.9696651443988493
5078000000.0 0.331370967172619 -0.9833917289277951
5081000000.0 0.35594160710287404 -0.9370356502870696
5084000000.0 0.39917978459029113 -0.9996168580846343
5088000000.0 0.38781269411559727 -0.96314701532096
5091000000.0 0.27145686721557 -0.9894700192765329
5094000000.0 0.33093189307507176 -0.9851751861642692
5097000000.0 0.39326930590930265 -0.995961270708071
5100000000.0 0.3828116395558933 -0.9386381226433125
5103000000.0 0.34104183953404577 -1.0205943801139479
5106000000.0 0.3818881352852817 -0.9729477300540059
5109000000.0 0.3692984838655719 -0.9447165646594347
5112000000.0 0.3110721549795473 -0.9818514639163082
5116000000.0 0.3672094819920234 -0.9635200645445213
5119000000.0 0.3174022224294497 -0.9916763009452867
5122000000.0 0.3451367240425472 -0.9322371364968789
5125000000.0 0.353736705629032 -0.9662025426002719
5128000000.0 0.327228043441936 -0.9899856678554886
5131000000.0 0.3717786352576982 -0.9701434625949512
5134000000.0 0.33331423795916837 -0.944180955987262
5138000000.0 0.3820850617676716 -0.9809455109898643
5141000000.0 0.4314226047105782 -0.9618463164479263
5144000000.0 0.3980316201013877 -0.9596161062779602
5147000000.0 0.34956875979455726 -1.0185307508615176
5150000000.0 0.36579597045097795 -1.0113092958069825
5153000000.0 0.395535150895995 -1.0358777477945742
5156000000.0 0.373829229327747 -0.9799072228323052
5159000000.0 0.3763887243591368 -0.9942778982474458
5162000000.0 0.35709849215591327 -0.9788466040161352
5166000000.0 0.3657065431058663 -0.9889579465596499
5169000000.0 0.3689009883257961 -1.033667874299899
5172000000.0 0.3884862846829939 -0.9972302191957771
