! Created with skrf 1.8.0 (http://scikit-rf.org).
# Hz S RI R 50.0 
!freq ReS11 ImS11
4000000000.0 0.5316772417159609 -0.8673234098850919
4003000000.0 0.5908461840428596 -0.9342240463385187
4006000000.0 0.4757259281047054 -0.9115722972247693
4009000000.0000005 0.5848188655915616 -0.8760900236807614
4011999999.9999995 0.6547179710135613 -0.865112465518155
4016000000.0 0.5476897013127424 -0.9181172110224729
4019000000.0 0.5658383908552571 -0.9087222992867205
4022000000.0000005 0.6123835999762529 -0.8381328889968889
4025000000.0000005 0.5290194287075456 -0.9420635028437688
4027999999.9999995 0.5477338166663184 -0.9031625453862979
4030999999.9999995 0.5792915065858651 -0.8837663984306523
4034000000.0 0.5694495858063164 -0.8785662911557753
4038000000.0000005 0.5407204637879492 -0.9080819583563546
4041000000.0000005 0.5423328603156207 -0.8757585901116349
4043999999.9999995 0.5368506608096519 -0.9253572569336898
4046999999.9999995 0.5907858067224179 -0.9047885991416352
4050000000.0 0.5333656679820825 -0.9141624701548517
4053000000.0 0.48689921132762193 -0.8889630133245412
4056000000.0 0.5679085855709818 -0.8982457997708982
4059000000.0 0.5771103394233752 -0.8895268170768011
4062000000.0000005 0.5436062855122944 -0.8951429669462909
4066000000.0 0.5090827001502435 -0.8155698208502593
4069000000.0 0.5545849006975457 -0.9200328673262667
4072000000.0 0.586499064578548 -0.9000268357108601
4075000000.0 0.6508905181659163 -0.9272537235742503
4078000000.0000005 0.5669625007010424 -0.9016204760328099
4081000000.0000005 0.6325732028401336 -0.8696046626442449
4083999999.9999995 0.5382875558062448 -0.8758782642641596
4088000000.0 0.5527474340650765 -0.851759280577881
4091000000.0 0.5992933035047943 -0.9662329511806602
4094000000.0000005 0.5820073853468968 -0.861173576198116
4097000000.0000005 0.5530884478214771 -0.9098559278438056
4099999999.9999995 0.587220691473999 -0.8771478299219917
4102999999.9999995 0.6113932398243013 -0.8845470099494527
4106000000.0 0.5447730587055456 -0.8951831808198432
4109000000.0 0.5596567095204792 -0.9012615867089895
4112000000.0 0.5187907260637082 -0.8988921808319109
4115999999.9999995 0.5782970033649184 -0.8562354019803421
4119000000.0 0.5285674272649564 -0.9122635299608364
4122000000.0 0.5232144817236568 -0.9276879053260896
4125000000.0 0.5526185137646874 -0.9402777543509706
4128000000.0 0.5505547150236083 -0.8430181413573025
4131000000.0 0.5367153569885108 -0.8814410680562222
4134000000.0000005 0.6205225038424408 -0.8613571376511452
4138000000.0 0.5600684575342083 -0.9209870893793694
4141000000.0 0.5722345134118615 -0.8900960323139062
4144000000.0 0.5874039789558139 -0.851019551994937
4147000000.0000005 0.5600234646792801 -0.9030828668889556
4150000000.0000005 0.5705034810428563 -0.9059522701346999
4152999999.9999995 0.5623761004064561 -0.9018693204687829
4155999999.9999995 0.5959378574194708 -0.8805468927060242
4159000000.0 0.5812223269727563 -0.8460232326712898
4162000000.0 0.540421436629386 -0.8841820957995606
4166000000.0000005 0.5599610581434907 -0.9124418308137514
4168999999.9999995 0.548568235393156 -0.8780503966331024
4171999999.9999995 0.560848386267331 -0.9167376500753598
4175000000.0 0.5604751624729583 -0.8986138383236957
4178000000.0 0.5749831552507108 -0.8640166096321015
4181000000.0 0.556884186284337 -0.8870186944736506
4184000000.0 0.5583901151353612 -0.8921110756399904
4187999999.9999995 0.5718880942829532 -0.8735497712382441
4191000000.0 0.5642984287029678 -0.8468020062366511
4194000000.0 0.5446333335541813 -0.8362512787534517
4197000000.0 0.5709699601579785 -0.8705435655612189
4200000000.0 0.5781961097065079 -0.8625821892630043
4203000000.0000005 0.5620653717468769 -0.8669155559635923
4206000000.0000005 0.5638810976579489 -0.8628189614251325
4208999999.9999995 0.55787583734546 -0.8463883666777345
4211999999.9999995 0.5167595476910067 -0.8816101563128955
4216000000.0 0.5779661357004764 -0.8665397622125631
4219000000.0000005 0.5716061449488351 -0.8651968594581646
4222000000.0000005 0.5546313945135959 -0.8841984870506726
4224999999.9999995 0.5637646864087682 -0.8472731055641594
4227999999.9999995 0.587493392684608 -0.8737705104516778
4231000000.0 0.5469355656572704 -0.8599320742972834
4234000000.0 0.5574444386672964 -0.8840676835380191
4238000000.0000005 0.5393815186803841 -0.8620228964439571
4240999999.9999995 0.5452830791866614 -0.8613439774336727
4244000000.0 0.5648594180020159 -0.8451750655201433
4247000000.0 0.5582745869398558 -0.8623642692931509
4250000000.0 0.5335766882349906 -0.855127425271599
4253000000.0 0.5455377490438746 -0.8369412153565667
4256000000.0 0.5663180289065453 -0.8774015088110618
4259000000.0000005 0.5332890462131578 -0.8294925462385492
4261999999.9999995 0.5586016672540719 -0.8582432816778495
4266000000.0 0.549162015550313 -0.8732643581827287
4269000000.0 0.588969351606585 -0.8587450273512303
4272000000.0000005 0.5701648446895642 -0.8454375100314736
4275000000.0000005 0.5471379629492286 -0.8508554659089897
4277999999.9999995 0.5773971776000062 -0.8878572139022881
4280999999.9999995 0.5737552653923857 -0.8491096911004694
4284000000.0 0.5493873473916934 -0.8850060601227212
4288000000.0000005 0.5889234931231256 -0.841194725822328
4291000000.0000005 0.5478163828691343 -0.8150601312066452
4293999999.9999995 0.5347299408348559 -0.8321713431166953
4297000000.0 0.5695963225916973 -0.8281498548690074
4300000000.0 0.5857001682279959 -0.844888951364879
4303000000.0 0.526901982063105 -0.8609964275096276
4306000000.0 0.5863674761502835 -0.8336484372614142
4309000000.0 0.5802810405738311 -0.8562310246229106
4312000000.0 0.6063877516100048 -0.8659432233726779
4316000000.0 0.587749858905915 -0.8807419037487575
4319000000.0 0.5358472560733185 -0.835465471401113
4322000000.0 0.5216437225586414 -0.8561930579928924
4325000000.0 0.5643692780623009 -0.8575491823819408
4328000000.0 0.5676178668567359 -0.8478319765864485
4331000000.0 0.5249744272184215 -0.9060756648708422
4334000000.0 0.5560403672406034 -0.8948720653534565
4338000000.0 0.5749898019268882 -0.8476081205131043
4341000000.0 0.6048110456026066 -0.8688640932025338
4344000000.0 0.5786825848215847 -0.8767794943484217
4347000000.0 0.560943369328278 -0.8643855427776318
4350000000.0 0.5222472810852206 -0.8319749305706149
4353000000.0 0.5401330966492972 -0.8190271693492166
4356000000.0 0.5322767350909123 -0.8579611731576898
4359000000.0 0.5305859034952763 -0.8275111164000889
4362000000.0 0.4909371797589219 -0.8983337723314111
4366000000.0 0.5650092727140078 -0.8638522759405125
4369000000.0 0.5171508920535168 -0.832330895651634
4372000000.0 0.5106405808570753 -0.8712402557093213
4375000000.0 0.5772706993248735 -0.8330621212320644
4378000000.0 0.548309410913406 -0.8255103883813467
4381000000.0 0.5542846504306024 -0.8424009163238246
4384000000.0 0.5763168739732721 -0.9233748634792422
4388000000.0 0.5537938348587531 -0.8468454719063079
4391000000.0 0.5583490853605072 -0.8631781113975223
4394000000.0 0.5333665204368435 -0.8487901745144159
4397000000.0 0.5388005072797311 -0.8511646236812371
4400000000.0 0.5473289366397963 -0.875047066806373
4403000000.0 0.5539995391173181 -0.8652043828976981
4406000000.0 0.5321522138897303 -0.8698426316482919
4409000000.0 0.5525398010432548 -0.8847537460918181
4412000000.0 0.5054682580820964 -0.871484325606336
4416000000.0 0.538154511180327 -0.8523455594920382
4419000000.0 0.533072327082698 -0.8595289422841091
4422000000.0 0.5512051298746924 -0.8407055199261906
4425000000.0 0.5765070774591012 -0.8593088303645481
4428000000.0 0.5356804269583739 -0.8649204120539096
4431000000.0 0.5701468833870835 -0.8594307337525051
4434000000.0 0.544254010750084 -0.8434278982048037
4438000000.0 0.5689708778533243 -0.8817290275079823
4441000000.0 0.5619399630191013 -0.8751217710733684
4444000000.0 0.5412307670946661 -0.8482072602643279
4447000000.0 0.5202177962074082 -0.8608462100094086
4450000000.0 0.5505387472322771 -0.8345971199299198
4453000000.0 0.5675166612371916 -0.8970317300304561
4456000000.0 0.5103437631241774 -0.8457312674937124
4459000000.0 0.49531426489904995 -0.8247066754535004
4462000000.0 0.5796141102385615 -0.9165419416815515
4466000000.0 0.5450285150677201 -0.9017557575066195
4469000000.0 0.5380548696164664 -0.8493923216759658
4472000000.0 0.5312967192551534 -0.8942550313044895
4475000000.0 0.5270710490392289 -0.8369408910989014
4478000000.0 0.5531225958365483 -0.9066575584114902
4481000000.0 0.5130558320201932 -0.851231048862058
4484000000.0 0.500489567087058 -0.878771178073597
4488000000.0 0.5237803743821208 -0.8628814548739734
4491000000.0 0.5243442751185118 -0.8831604761365646
4494000000.0 0.5341119933760861 -0.8601425129882884
4497000000.0 0.5453991555604565 -0.8577331314903873
4500000000.0 0.5341268654174111 -0.8818527719312113
4503000000.0 0.5614574634410754 -0.8874957667206524
4506000000.0 0.5342795084860528 -0.8659343411783574
4509000000.0 0.5048146704317762 -0.8347350078434539
4512000000.0 0.51429859317719 -0.8806517237969017
4516000000.0 0.5345590920904544 -0.8725831131237658
4519000000.0 0.5205360961281487 -0.8346033280107013
4522000000.0 0.5193429318216385 -0.8714762871824917
4525000000.0 0.5716672425305405 -0.8464477574478021
4528000000.0 0.5257630775979043 -0.8817381984881757
4531000000.0 0.5385397694554919 -0.8577352713918316
4534000000.0 0.5209437263202039 -0.8661421002058666
4538000000.0 0.5193828994396654 -0.8731672820915523
4541000000.0 0.4672966125518092 -0.8866617721344752
4544000000.0 0.5199522561905725 -0.8496926355575225
4547000000.0 0.5340500630238759 -0.848520294285904
4550000000.0 0.5051488729275742 -0.8952901113353109
4553000000.0 0.5223098893009148 -0.8929226318099956
4556000000.0 0.5029855093082862 -0.8710302675375903
4559000000.0 0.5169943232477446 -0.8876363816270101
4562000000.0 0.537701019341637 -0.8882804379386007
4566000000.0 0.5305334623652387 -0.8729851289568449
4569000000.0 0.5225237182330762 -0.8529019609838423
4572000000.0 0.5403814817591265 -0.8696904314801732
4575000000.0 0.5094304379007544 -0.8964130420661476
4578000000.0 0.5447974171997032 -0.8957206311302807
4581000000.0 0.514724222438378 -0.8942312271630029
4584000000.0 0.5203868484550509 -0.8621098751723661
4588000000.0 0.5405748561348316 -0.8771418933436601
4591000000.0 0.5386454798474986 -0.8709858141155087
4594000000.0 0.5166364246448375 -0.8847911602562071
4597000000.0 0.534784087570135 -0.8893960155837866
4600000000.0 0.49493706081095956 -0.8763155662368507
4603000000.0 0.5132439784561023 -0.8861951975638591
4606000000.0 0.5296105471542665 -0.8585637243727455
4609000000.0 0.5266123644254803 -0.8830919746315139
4612000000.0 0.5308087181233807 -0.8728758511878038
4616000000.0 0.49059119441416055 -0.8665960884899496
4619000000.0 0.5236585341702287 -0.8853431708215824
4622000000.0 0.5038552777089541 -0.8852311026739932
4625000000.0 0.504572518807447 -0.8597419910238068
4628000000.0 0.5425554749383241 -0.8610072578020828
4631000000.0 0.4962113369063951 -0.87426765795141
4634000000.0 0.5028828739693334 -0.8714196340329334
4638000000.0 0.5181630850850133 -0.8852180783909683
4641000000.0 0.5306434158085053 -0.8727796029174918
4644000000.0 0.5158992522387325 -0.8864364790144009
4647000000.0 0.5230574601861102 -0.8978818710920806
4650000000.0 0.49826114152253725 -0.8888412704840776
4653000000.0 0.5324469107871341 -0.8899672273434744
4656000000.0 0.5140742545441653 -0.8975669290940718
4659000000.0 0.5037440579896181 -0.8935816574161152
4662000000.0 0.5160208123540269 -0.8986366392446306
4666000000.0 0.478541724450368 -0.8792259123055427
4669000000.0 0.519295449438361 -0.8800243523578375
4672000000.0 0.5018844585003533 -0.9213955960151313
4675000000.0 0.4715231412352944 -0.8722918769675087
4678000000.0 0.4990213803241015 -0.8679177697725083
4681000000.0 0.4964797429663784 -0.922223840018476
4684000000.0 0.49227791361100276 -0.8967292156911517
4688000000.0 0.5094950753209984 -0.8849534088533271
4691000000.0 0.5176115189859485 -0.8904337190980708
4694000000.0 0.5147237495982149 -0.8606611263849941
4697000000.0 0.464732123879184 -0.8921652894664505
4700000000.0 0.4990556762344792 -0.88369085561486
4703000000.0 0.5174229844903011 -0.8533983341740359
4706000000.0 0.4984571019294397 -0.8896674071042905
4709000000.0 0.4910369021058174 -0.8859943143379997
4712000000.0 0.5051624145286158 -0.8818660783220794
4716000000.0 0.5103879050351742 -0.9032214463592143
4719000000.0 0.5409627648799055 -0.8863928649809373
4722000000.0 0.540283058640052 -0.8735829352490599
4725000000.0 0.49594195472439473 -0.8635191912451406
4728000000.0 0.4848820024091134 -0.899682301213512
4731000000.0 0.5399898089231547 -0.904143912194285
4734000000.0 0.5090302347703624 -0.8789127349899649
4738000000.0 0.5360726116374124 -0.9139943738781418
4741000000.0 0.5150218167829511 -0.9219588258307867
4744000000.0 0.4960055728522761 -0.916229240392041
4747000000.0 0.5186709941104723 -0.8728602799091937
4750000000.0 0.5154295063766023 -0.9082269343244505
4753000000.0 0.5095966521088204 -0.8990151250667248
4756000000.0 0.4781532312355648 -0.9126960559291225
4759000000.0 0.5087561937229634 -0.9002823245290176
4762000000.0 0.47623417156413805 -0.9344880447206807
4766000000.0 0.48477413914524775 -0.9149220690260118
4769000000.0 0.5146433444369838 -0.8978363120169567
4772000000.0 0.5197507419885932 -0.911358608684072
4775000000.0 0.5209916396277591 -0.9369145685958719
4778000000.0 0.4952501615460313 -0.926494820232549
4781000000.0 0.5112044706973985 -0.8983398791006132
4784000000.0 0.5202968266926792 -0.8767423087804209
4788000000.0 0.5383997455004883 -0.9010141381613511
4791000000.0 0.5027027358122003 -0.8996289326833335
4794000000.0 0.5132395057014307 -0.9057137264505013
4797000000.0 0.49840180155102115 -0.8929448044177397
4800000000.0 0.4899161809800363 -0.9094129020105693
4803000000.0 0.46983477698721793 -0.8919860561290154
4806000000.0 0.5206612881959417 -0.9021401567813312
4809000000.0 0.47240534362816733 -0.8933063014421708
4812000000.0 0.46379688581771666 -0.9294898830886362
4816000000.0 0.5378584493847947 -0.8877327706306937
4819000000.0 0.5470500846989444 -0.9016961492874215
4822000000.0 0.5399940673108046 -0.9064236071262146
4825000000.0 0.5297237053428538 -0.8929114907997668
4828000000.0 0.48431620140518017 -0.8880826404392197
4831000000.0 0.47411778221218004 -0.9278919605458879
4834000000.0 0.5298744446196473 -0.8991929397370749
4838000000.0 0.49716307644428237 -0.9128911904301138
4841000000.0 0.4739980619013172 -0.8914967562175906
4844000000.0 0.5401903696865952 -0.8688477967643258
4847000000.0 0.5194268198945067 -0.8601053359002463
4850000000.0 0.5212324563538336 -0.9250739881410636
4853000000.0 0.49524268445101083 -0.8825876377530542
4856000000.0 0.5095427044875656 -0.8925245751409475
4859000000.0 0.5027144589802789 -0.9395152682597911
4862000000.0 0.5203618285187164 -0.8652652047990497
4866000000.0 0.5037035287263918 -0.9407403293058457
4869000000.0 0.4891429108570168 -0.9314247396574614
4872000000.0 0.496025241207671 -0.9489871187220204
4875000000.0 0.5784639289128638 -0.8976327745259594
4878000000.0 0.5158489685418923 -0.9039900675497435
4881000000.0 0.5204949160952475 -0.9687711438856738
4884000000.0 0.5096673385577859 -0.8941289882340866
4888000000.0 0.544796092592265 -0.8882178013945381
4891000000.0 0.5338301328456457 -0.9203984033334958
4894000000.0 0.5007363581814095 -0.9146812305819955
4897000000.0 0.5470531788204913 -0.8882424657610734
4900000000.0 0.5125785997075283 -0.9367283390865386
4903000000.0 0.537435868445879 -0.8800090307689675
4906000000.0 0.5086941006428513 -0.9235262240538398
4909000000.0 0.49579877197914746 -0.9170235279642519
4912000000.0 0.5277213426485456 -0.9675072716691232
4916000000.0 0.5571306180578396 -0.9338028916464544
4919000000.0 0.5440150151050624 -0.9053544220327271
4922000000.0 0.555068362550118 -0.8851827242033955
4925000000.0 0.49910052156864554 -0.9091058760688244
4928000000.0 0.5762005079592714 -0.8614835665161419
4931000000.0 0.5986907577395468 -0.9235473384243292
4934000000.0 0.5234202225310634 -0.8596951564841538
4938000000.0 0.49299433291816747 -0.892053472581765
4941000000.0 0.5037639960654884 -0.9004053423644096
4944000000.0 0.522142719950113 -0.8373546421842537
4947000000.0 0.496953938566925 -0.8990467432230639
4950000000.0 0.45048260896083825 -0.8892047611931817
4953000000.0 0.5172887426158013 -0.9466552655495872
4956000000.0 0.4698752577696286 -0.9018712850087578
4959000000.0 0.49732391540222165 -0.8675069962477243
4962000000.0 0.51589137758093 -0.9048217351525256
4966000000.0 0.5510747044766219 -0.928564062904855
4969000000.0 0.5693202584840443 -0.9247258042476177
4972000000.0 0.5196553481534941 -0.9614271617097341
4975000000.0 0.5281030558612146 -0.8503808340767609
4978000000.0 0.5288016862995142 -0.915591200685281
4981000000.0 0.5113070327074195 -0.8959461726705465
4984000000.0 0.5150897565573171 -0.9029759016754723
4988000000.0 0.5308330751035116 -0.8638312469057068
4991000000.0 0.5976142594224133 -0.9084868735478698
4994000000.0 0.5484144790098247 -0.9067083930170705
4997000000.0 0.48401211438452496 -0.921273371988127
5000000000.0 0.5745273207035103 -0.9158147562222432
5003000000.0 0.548685345525742 -0.93380854646883
5006000000.0 0.5518954775826685 -0.922535768236402
5009000000.0 0.5271411999826663 -0.8904012756464958
5012000000.0 0.5200556712201647 -0.9335563614833998
5016000000.0 0.5915371786217225 -0.9044978622722275
5019000000.0 0.5285919197019988 -0.9080825595136626
5022000000.0 0.5124537092636566 -0.9141687363547223
5025000000.0 0.5706041830543396 -0.9510660044408104
5028000000.0 0.51014383032569 -0.9549108527739592
5031000000.0 0.5183647749170524 -0.9093276263148391
5034000000.0 0.4998345518801192 -0.9475868437501509
5038000000.0 0.49039502276899904 -0.8886618276615612
5041000000.0 0.5783298978292211 -0.8951251779373912
5044000000.0 0.5179248905553488 -0.8684193040994136
5047000000.0 0.5221590074956084 -0.9378600101128374
5050000000.0 0.5891195157164791 -0.8428175280963477
5053000000.0 0.5651988817737111 -0.9487653468405772
5056000000.0 0.5610533137420952 -0.8979579387175411
5059000000.0 0.6051551909923142 -0.8765376814265073
5062000000.0 0.5171505397093819 -0.9267190248591637
5066000000.0 0.56639240048247 -0.8625183644685823
5069000000.0 0.5494485286460232 -0.9172849281336191
5072000000.0 0.5407855877129095 -0.8621135060843464
5075000000.0 0.5615362762096858 -0.8830732145970055
5078000000.0 0.5035590984745423 -0.9457863088531535
5081000000.0 0.5068029040395341 -0.8509409268674402
5084000000.0 0.556702107510991 -0.916129172497735
5088000000.0 0.5594384863786159 -0.8919474244821144
5091000000.0 0.5196325522766648 -0.9120674647371599
5094000000.0 0.5901141150199504 -0.8998739265154885
5097000000.0 0.5974504515175967 -0.8698469957192184
5100000000.0 0.5211278926285968 -0.8829371089170329
5103000000.0 0.5257968322612463 -0.9155716040782276
5106000000.0 0.5966737519325348 -0.9184262559672929
5109000000.0 0.5993136753214551 -0.8486792289742755
5112000000.0 0.527464596483662 -0.9116306773954845
5116000000.0 0.5321780677493029 -0.8551490214309693
5119000000.0 0.5568401128754981 -0.908219470693384
5122000000.0 0.5844440428463373 -0.8957469620021634
5125000000.0 0.5674364028985414 -0.8925888235616292
5128000000.0 0.4983958188857188 -0.9023100004185214
5131000000.0 0.54383661945655 -0.8761450512670145
5134000000.0 0.5765358908305945 -0.8586477148558114
5138000000.0 0.5758199791980769 -0.8763239994267048
5141000000.0 0.6624379399128854 -0.848526469451192
5144000000.0 0.5951602088284639 -0.9093175166158893
5147000000.0 0.5814877735170378 -0.9192955738718019
5150000000.0 0.5947585726584621 -0.8920061330930714
5153000000.0 0.572204554947725 -0.8860973214545662
5156000000.0 0.5583124917822646 -0.8987128431615119
5159000000.0 0.6108833649642158 -0.900761676427809
5162000000.0 0.5210888283706854 -0.8690575090043979
5166000000.0 0.5942045930702857 -0.9250375130742868
5169000000.0 0.5804197684151315 -0.9048937456493031
5172000000.0 0.5851817365493304 -0.8563970811967603
5175000000.0 0.6093464803084245 -0.9236821728358666
5178000000.0 0.5782274128657363 -0.8515244858376168
