! Created with skrf 1.8.0 (http://scikit-rf.org).
# Hz S RI R 50.0 
!freq ReS11 ImS11
4000000000.0 0.4881175715619336 -0.9216711911282975
4003000000.0 0.5044927751912247 -0.9313499458074379
4006000000.0 0.4252119495648198 -0.9642293200722405
4009000000.0000005 0.44173430659162655 -0.9693407498741298
4011999999.9999995 0.5363620663718334 -0.9248515707589424
4016000000.0 0.43373209080348474 -0.9622273200546074
4019000000.0 0.43664564260452154 -0.8992664893679199
4022000000.0000005 0.4959782356087014 -0.9107250988778421
4025000000.0000005 0.4222716611580596 -0.9289939905636363
4027999999.9999995 0.4326178147252867 -0.9119871494757571
4030999999.9999995 0.43820987847302983 -0.8713633354545476
4034000000.0 0.4608102455653901 -0.878811133642532
4038000000.0000005 0.4465525327431501 -0.9293280599027871
4041000000.0000005 0.49186949373914873 -0.939622841662326
4043999999.9999995 0.48356470160130993 -0.9574441794897168
4046999999.9999995 0.4636419333052799 -0.9698513586076649
4050000000.0 0.45639314652550195 -0.9553092345913703
4053000000.0 0.4338823329433517 -0.9083686646205726
4056000000.0 0.44017045034544977 -0.9345275164422243
4059000000.0 0.4717129178842451 -0.9077650039845518
4062000000.0000005 0.44420344320598154 -0.91442637103337
4066000000.0 0.43067001843310293 -0.8683377653787867
4069000000.0 0.41811519779947054 -0.9317370888686356
4072000000.0 0.5143396900369781 -0.9200911166521649
4075000000.0 0.48894007723261956 -0.9908563877998704
4078000000.0000005 0.47209751430048813 -0.931087961847452
4081000000.0000005 0.5356297873341436 -0.9524983076577024
4083999999.9999995 0.4479019796323279 -0.9617074115739297
4088000000.0 0.46018499611492897 -0.9069141864501401
4091000000.0 0.47735669913439277 -0.9509156614410996
4094000000.0000005 0.4599129023442414 -0.9193646022010661
4097000000.0000005 0.4634370817488286 -0.923987968904207
4099999999.9999995 0.4437073035860548 -0.9406842424033705
4102999999.9999995 0.4803349861811068 -0.9228066149599132
4106000000.0 0.4426227681970005 -0.9360058432640713
4109000000.0 0.44203427052329486 -0.942681787931966
4112000000.0 0.4601876839019944 -0.9199414632170001
4115999999.9999995 0.44778400794049555 -0.9234277616301616
4119000000.0 0.4391689595657058 -0.9357269598136995
4122000000.0 0.4017605219866036 -0.9373915979022034
4125000000.0 0.409294009546976 -0.9625143851712771
4128000000.0 0.44865826966052647 -0.8840412779258652
4131000000.0 0.4072330578438176 -0.9376311118460172
4134000000.0000005 0.4729401782472104 -0.9099530682469295
4138000000.0 0.43491337639695665 -0.9167638326558807
4141000000.0 0.44130019211655697 -0.9048275042209297
4144000000.0 0.46642896126361916 -0.9297065445732439
4147000000.0000005 0.45577003686841494 -0.9238016699406152
4150000000.0000005 0.43766565360851795 -0.9839542573527537
4152999999.9999995 0.42641828248694214 -0.9082745233567713
4155999999.9999995 0.4527636966701584 -0.9290000882955308
4159000000.0 0.4586590850067685 -0.8782463528230412
4162000000.0 0.4485736594852748 -0.9062666299944758
4166000000.0000005 0.45322027151794986 -0.9114100521073552
4168999999.9999995 0.4321895132871899 -0.9184603205768764
4171999999.9999995 0.4556134768663479 -0.8996669257272719
4175000000.0 0.46797633272227557 -0.9445349296069729
4178000000.0 0.45868450402784394 -0.914398038821544
4181000000.0 0.41624716240166737 -0.9296110483519776
4184000000.0 0.42375446977257736 -0.9362956454299893
4187999999.9999995 0.4233215917899919 -0.9352910188548534
4191000000.0 0.4810137099804889 -0.8797039045956777
4194000000.0 0.4359632437700393 -0.8878798530023261
4197000000.0 0.455390063792557 -0.9343372791040564
4200000000.0 0.46501741189339674 -0.9369169589511093
4203000000.0000005 0.4698722295716474 -0.9166959747779905
4206000000.0000005 0.4478491320251951 -0.9376967597485208
4208999999.9999995 0.4380794522333288 -0.9067619549963478
4211999999.9999995 0.41220438543550053 -0.9316825184988402
4216000000.0 0.4647824626076612 -0.9276846168726258
4219000000.0000005 0.4505613176584158 -0.9072397071251953
4222000000.0000005 0.44543354410081537 -0.9207839615925755
4224999999.9999995 0.4412046623640968 -0.9105649725282943
4227999999.9999995 0.4418988414923135 -0.9203190737895971
4231000000.0 0.43195455914805364 -0.9233998856496518
4234000000.0 0.4412424521450427 -0.9318624055961654
4238000000.0000005 0.42790275190644 -0.9261100984488614
4240999999.9999995 0.42166704019588797 -0.9244316128410457
4244000000.0 0.42430396813977117 -0.9008092054153861
4247000000.0 0.43984221359122433 -0.9015524236744242
4250000000.0 0.42773446260809683 -0.9017500562147318
4253000000.0 0.42869745829384426 -0.8988780132078984
4256000000.0 0.4268420084685399 -0.9359611713078073
4259000000.0000005 0.3878571834371736 -0.9083433597539005
4261999999.9999995 0.4129081680576133 -0.9479845363357798
4266000000.0 0.4294978888561339 -0.9531211013362981
4269000000.0 0.45525684576982095 -0.8954790423953078
4272000000.0000005 0.453555923909406 -0.9205153058534796
4275000000.0000005 0.4186760663538659 -0.9222047035337174
4277999999.9999995 0.43943166166028386 -0.9501613468061081
4280999999.9999995 0.41997518205428913 -0.9051168036902711
4284000000.0 0.41247647109467267 -0.9309659255841145
4288000000.0000005 0.4506355195300723 -0.8877315134876176
4291000000.0000005 0.4213348919907457 -0.8958119108609434
4293999999.9999995 0.406214923382011 -0.9214432460828549
4297000000.0 0.4458839520802674 -0.8982432991450575
4300000000.0 0.406540718435408 -0.8962058353487755
4303000000.0 0.3990597909194619 -0.9173787709698001
4306000000.0 0.43084380475678197 -0.9140184485713971
4309000000.0 0.44326476565114936 -0.9094669163209889
4312000000.0 0.4538478316731863 -0.9172734524432485
4316000000.0 0.4526789561007133 -0.9253366188661445
4319000000.0 0.4211627336038783 -0.9026558344882054
4322000000.0 0.3903239610664802 -0.9088528959311728
4325000000.0 0.42773796124003627 -0.9285230194340248
4328000000.0 0.4089370395774831 -0.9151444986463289
4331000000.0 0.40902250568907106 -0.967948941745847
4334000000.0 0.4204042169516461 -0.9052518998550857
4338000000.0 0.42685391324086136 -0.9137936826932571
4341000000.0 0.45240265549245884 -0.9327694239821827
4344000000.0 0.4335968713142776 -0.9303136652175316
4347000000.0 0.4198389700085191 -0.9446303252465436
4350000000.0 0.40742208456441587 -0.8920810904206342
4353000000.0 0.409364193323138 -0.8831996043100062
4356000000.0 0.3904739528269342 -0.925179360654176
4359000000.0 0.3820067900401311 -0.8828869503962887
4362000000.0 0.34950091275800427 -0.9382609236845555
4366000000.0 0.3930375928377473 -0.9386465384648586
4369000000.0 0.38916671986064144 -0.8846865404124241
4372000000.0 0.3870392603242564 -0.9256120251295523
4375000000.0 0.42728161630179234 -0.8993164949696957
4378000000.0 0.4068744481477927 -0.904568383062495
4381000000.0 0.4279965316303008 -0.9130673301160733
4384000000.0 0.44392665199047243 -0.9975838916009456
4388000000.0 0.40754155286473503 -0.9056349428812266
4391000000.0 0.41440080677382046 -0.9415531276850087
4394000000.0 0.38573445230562636 -0.8976654733002984
4397000000.0 0.3925619428092327 -0.9315014830582223
4400000000.0 0.39857133482229223 -0.9551176055908004
4403000000.0 0.41258298282252925 -0.9445453172513718
4406000000.0 0.38008670235899056 -0.9326889556390621
4409000000.0 0.4131913012565279 -0.9494776971913081
4412000000.0 0.3402728550662777 -0.923402366276284
4416000000.0 0.3662389414468747 -0.9198728411346733
4419000000.0 0.3687874542380148 -0.9363546605965655
4422000000.0 0.40605417373015873 -0.9204721871156731
4425000000.0 0.4314653326725664 -0.9437992070889494
4428000000.0 0.3918668989839216 -0.9406809449283422
4431000000.0 0.4071916445641337 -0.9525064253660722
4434000000.0 0.3877803448515529 -0.9144991189116047
4438000000.0 0.39252527169100715 -0.9484648447293232
4441000000.0 0.3994060168330636 -0.9491653455726874
4444000000.0 0.39125888462848607 -0.9119379539048167
4447000000.0 0.37567313623548393 -0.9240459795182361
4450000000.0 0.4055191942338537 -0.8942386244735933
4453000000.0 0.4055621521103153 -0.9506308003857515
4456000000.0 0.36300688965245126 -0.9106021192544498
4459000000.0 0.3497880203871415 -0.9089380755831191
4462000000.0 0.3913508755533572 -0.9910908375823027
4466000000.0 0.3912344524062163 -0.9817312816116195
4469000000.0 0.39668656430356153 -0.9420525464344771
4472000000.0 0.3677700798076351 -0.9541418275504742
4475000000.0 0.37428286801875804 -0.9154530710763508
4478000000.0 0.37865237875444024 -0.9832926067077372
4481000000.0 0.35124486780232594 -0.9263682462474851
4484000000.0 0.34172627636829933 -0.9548645629018195
4488000000.0 0.3499333036525216 -0.9450627990233971
4491000000.0 0.35625433029794085 -0.9523567386414532
4494000000.0 0.3764080926306069 -0.9353846835664008
4497000000.0 0.3836758633939665 -0.9407835362310966
4500000000.0 0.36709567505708546 -0.9392311320882245
4503000000.0 0.3925680722223093 -0.9621701222963336
4506000000.0 0.3545228161689099 -0.9326508489633096
4509000000.0 0.36414309070306994 -0.914322385872191
4512000000.0 0.34997242482644064 -0.9358479544159432
4516000000.0 0.37395173143720783 -0.9654362540261252
4519000000.0 0.3760678046789531 -0.9081435787305776
4522000000.0 0.36198587284688616 -0.9439135385451576
4525000000.0 0.39282348074920015 -0.9140168774041467
4528000000.0 0.36913271249605817 -0.9489270214416814
4531000000.0 0.38255587644709377 -0.9392198936515626
4534000000.0 0.36142068480629047 -0.9187399321498281
4538000000.0 0.35430332333102577 -0.940629239333542
4541000000.0 0.32487477766160533 -0.9480341743431212
4544000000.0 0.36540228723614304 -0.9594822644629566
4547000000.0 0.3775525786061215 -0.937042475541276
4550000000.0 0.33108917049363595 -0.9554972370452217
4553000000.0 0.34389342046919635 -0.938472477773485
4556000000.0 0.3362668032315506 -0.9174362527632112
4559000000.0 0.3341498451549479 -0.9580084064801592
4562000000.0 0.3683557599598928 -0.9603318096782063
4566000000.0 0.37315903136634787 -0.9391431223261972
4569000000.0 0.34411042759690186 -0.9462761643419711
4572000000.0 0.3395259548545872 -0.9291281659319766
4575000000.0 0.34246265884959204 -0.9689028492398847
4578000000.0 0.3635851334563107 -0.9869291701404714
4581000000.0 0.3495696033373099 -0.9573995352294007
4584000000.0 0.3578886681518956 -0.9593414855028659
4588000000.0 0.35820312263606074 -0.9691298237423427
4591000000.0 0.35648915414539106 -0.9466028546461523
4594000000.0 0.33080139478620074 -0.9714051949346361
4597000000.0 0.35380108093195767 -0.9627888314653051
4600000000.0 0.3174320003880168 -0.9625480294962581
4603000000.0 0.3395832078892653 -0.9622872653540613
4606000000.0 0.35048905923183804 -0.9747369498588334
4609000000.0 0.33471155749874404 -0.9426750288979807
4612000000.0 0.32953669233180827 -0.9593929417613093
4616000000.0 0.31889942504554525 -0.9492003808391212
4619000000.0 0.3266846879645743 -0.9601838506424294
4622000000.0 0.3148178019135941 -0.9873446623057169
4625000000.0 0.29120940885477764 -0.9400818888934186
4628000000.0 0.35380956958795673 -0.9705369075800307
4631000000.0 0.3230471548278506 -0.9686419470773313
4634000000.0 0.3243282576233352 -0.9585354325449504
4638000000.0 0.31466933560568144 -0.9672043222749341
4641000000.0 0.3242637907638263 -0.97406140272028
4644000000.0 0.3033036755484002 -0.9515546267603324
4647000000.0 0.32517164868669624 -0.957607819896409
4650000000.0 0.29929488652678693 -0.9497751475923737
4653000000.0 0.3168743842331395 -0.9578069600759187
4656000000.0 0.30562758964778236 -0.9776819555249591
4659000000.0 0.3030912528107097 -0.9642165283512555
4662000000.0 0.3120122930236159 -0.9744806926586584
4666000000.0 0.2905912105005145 -0.9604365514859071
4669000000.0 0.3153189177104082 -0.9630559021725564
4672000000.0 0.3082041922396806 -1.0004862905306748
4675000000.0 0.2993457822102587 -0.9767573871702059
4678000000.0 0.2842738065306225 -0.9560106854562848
4681000000.0 0.28675741248077646 -0.9884354728938146
4684000000.0 0.2897541987499356 -0.9891565486309379
4688000000.0 0.2962555257290689 -0.9754626319258709
4691000000.0 0.33948456890586637 -0.9637583041369118
4694000000.0 0.3085371206432769 -0.9427057603425261
4697000000.0 0.27486556294985687 -0.9446655945514089
4700000000.0 0.30818518373831544 -0.9726555558367903
4703000000.0 0.3430631046947464 -0.9233265820218802
4706000000.0 0.2757885355154083 -0.9874440050806806
4709000000.0 0.2860091209002536 -0.9626171926227173
4712000000.0 0.31611372817857647 -0.9821301177707007
4716000000.0 0.3013522621467049 -0.9843031400480424
4719000000.0 0.3382784935785526 -0.9690098047442678
4722000000.0 0.34078722228140945 -0.9557975202654715
4725000000.0 0.2895502644046472 -0.95399365566577
4728000000.0 0.30412351973537666 -1.010018774832337
4731000000.0 0.32123364161770795 -0.9974385916581535
4734000000.0 0.3107803737613529 -0.9505177727039533
4738000000.0 0.32717203616213675 -1.0443729562302617
4741000000.0 0.2494481570294519 -1.007849925226819
4744000000.0 0.25736799494605406 -0.9888739387160785
4747000000.0 0.316495049930853 -0.9274926748886274
4750000000.0 0.3201410542018529 -0.9964495884764764
4753000000.0 0.3035435259537313 -0.9862333895028847
4756000000.0 0.26127731180393504 -1.0008264520910313
4759000000.0 0.3139371506961227 -0.987722781272292
4762000000.0 0.2650786271969743 -0.9807750502927024
4766000000.0 0.2846836314033987 -0.9998340201343857
4769000000.0 0.27572057970327835 -1.001595836281666
4772000000.0 0.2870869197185183 -0.9813741659642814
4775000000.0 0.28234197969650787 -1.052342848011348
4778000000.0 0.28026371393847455 -1.0043123354848293
4781000000.0 0.3052128830172246 -0.947530450477579
4784000000.0 0.3024775342963905 -0.9530491972996209
4788000000.0 0.2683136132695495 -1.0104607414242015
4791000000.0 0.2854239867502688 -0.9673576041641748
4794000000.0 0.3079557172162551 -0.9971681462540973
4797000000.0 0.27417952641541904 -0.968099937577611
4800000000.0 0.2508005611196947 -0.9897667903627114
4803000000.0 0.23914880415485512 -1.0028734527389591
4806000000.0 0.26624466727837276 -1.0057454479679173
4809000000.0 0.2279577092564422 -1.0029921087218405
4812000000.0 0.21870642741873225 -0.995697271949211
4816000000.0 0.29841349812149154 -0.9516459800815389
4819000000.0 0.30603693468600424 -1.0173059215069167
4822000000.0 0.3173731399017866 -1.0368552323693
4825000000.0 0.3151858386564878 -1.0075509622428438
4828000000.0 0.2642136291720698 -0.9821487121352178
4831000000.0 0.2372449513877101 -1.032145653895071
4834000000.0 0.31991552610911755 -0.9904701264835117
4838000000.0 0.27359090784584716 -1.0119199617701342
4841000000.0 0.2489895380415108 -0.9829882397346186
4844000000.0 0.30422226975282196 -0.9902511666900689
4847000000.0 0.2956007392827277 -0.943328084154622
4850000000.0 0.2590180637698482 -1.0217666329405117
4853000000.0 0.25326632980456165 -0.9859274205406436
4856000000.0 0.25301227875379684 -0.9834743899348608
4859000000.0 0.2646072401729378 -1.052120770837594
4862000000.0 0.2983573975837856 -0.9602565420065242
4866000000.0 0.2526601594907366 -1.0004613203289103
4869000000.0 0.2526051421593488 -1.012306270272604
4872000000.0 0.24220779423485617 -1.017632892026474
4875000000.0 0.3215168826538118 -1.0019372622967038
4878000000.0 0.2716523091364623 -1.0122320693796947
4881000000.0 0.23533781435196885 -1.079295646739928
4884000000.0 0.28076722459633763 -0.9875018991928085
4888000000.0 0.30437104282764016 -0.9723664008890879
4891000000.0 0.286345878096977 -1.02015640829814
4894000000.0 0.24794213402990545 -1.0272159502561886
4897000000.0 0.277000930788857 -0.9946010068852217
4900000000.0 0.24551665542248663 -1.0283088366320792
4903000000.0 0.2811733047687902 -1.0273377596454698
4906000000.0 0.27448669792485286 -1.027121332095521
4909000000.0 0.23956659262128588 -1.0210216725700563
4912000000.0 0.258067901093437 -1.0541530992289863
4916000000.0 0.2605198267851906 -1.0450928647523963
4919000000.0 0.2998577089258709 -1.039202997494666
4922000000.0 0.29135017866345647 -1.011880690677155
4925000000.0 0.2284952303040056 -0.9956937424771408
4928000000.0 0.3099780510689779 -0.976554709419167
4931000000.0 0.301897152444985 -0.9996996564959683
4934000000.0 0.2543107197288984 -0.9412145046658514
4938000000.0 0.2552510728807303 -1.013300820550696
4941000000.0 0.26143378635848674 -0.9754727018715162
4944000000.0 0.22448160150607321 -0.9333090338203616
4947000000.0 0.21889402982317796 -0.9929459561886796
4950000000.0 0.23738591471767523 -0.9937643688796178
4953000000.0 0.21684850952653356 -1.0171243153603486
4956000000.0 0.22400875641170448 -1.0173826837671156
4959000000.0 0.17468309508873953 -0.9832737391480968
4962000000.0 0.24622167205207357 -1.0255691759184367
4966000000.0 0.267200548446987 -1.0469067203700644
4969000000.0 0.29188200876802056 -1.0745763934757107
4972000000.0 0.2281786656830081 -1.0186310144127475
4975000000.0 0.2791231984307534 -0.9771065393394281
4978000000.0 0.2282993758202907 -1.0213472751354602
4981000000.0 0.2211513123693289 -1.0333689168015725
4984000000.0 0.22356035871152252 -0.962811920160265
4988000000.0 0.2609243749771276 -0.994574269116492
4991000000.0 0.31172592211041406 -1.0387029354957134
4994000000.0 0.21965481745181203 -0.9937451423259773
4997000000.0 0.2330167360555322 -1.0166453496386714
5000000000.0 0.24289474672691064 -1.0316070102615675
5003000000.0 0.2752939701275716 -1.0164660846835731
5006000000.0 0.24281593069063495 -1.0565240339983268
5009000000.0 0.26096009485911625 -1.0270635719697663
5012000000.0 0.22184562776495126 -1.035304556555372
5016000000.0 0.3109639948204419 -1.0180150613417056
5019000000.0 0.23959180739514263 -1.0006886383627358
5022000000.0 0.220874176541431 -1.0086981780104054
5025000000.0 0.26579418597260623 -1.0685436288296386
5028000000.0 0.22855771141284753 -1.0336268392489996
5031000000.0 0.21618809101293046 -1.018053123426622
5034000000.0 0.23650159430700185 -1.0806200183989492
5038000000.0 0.19525208750072154 -0.989356981479932
5041000000.0 0.2492895311475143 -1.021370454366648
5044000000.0 0.263135618920433 -0.9681750852554745
5047000000.0 0.2600626354719597 -0.9978136492266656
5050000000.0 0.2712410959315833 -0.9662134461399362
5053000000.0 0.2479785394604367 -1.0567834412389536
5056000000.0 0.2726438650167797 -1.0008969809738693
5059000000.0 0.24653216793792476 -1.0253964811519887
5062000000.0 0.21780450499871468 -1.072598674521263
5066000000.0 0.2310459148391733 -1.0092538441715901
5069000000.0 0.23473176562670028 -1.017647697747519
5072000000.0 0.21581705153920017 -1.0052269044251811
5075000000.0 0.2595356611315707 -0.9405446961114772
5078000000.0 0.2552603050524106 -0.9878909495067978
5081000000.0 0.182314578982625 -1.0107001277348688
5084000000.0 0.21893618328181058 -1.023153776575097
5088000000.0 0.23762621653455368 -0.9718628728887859
5091000000.0 0.17113538472602852 -1.0069770352787637
5094000000.0 0.21815065794613736 -1.0343959906576627
5097000000.0 0.23846809983670625 -0.9781550505573191
5100000000.0 0.19866704605026808 -1.0021452818695789
5103000000.0 0.1729890632980981 -1.0281620382755667
5106000000.0 0.21468386150940422 -1.0451826424918136
5109000000.0 0.28084878704315763 -1.0157144881054916
5112000000.0 0.19457320063370825 -1.0468666533285456
5116000000.0 0.18981727770083467 -1.013106796980269
5119000000.0 0.23188029442083458 -1.0751581532066845
5122000000.0 0.17824484093230408 -1.03834251372611
5125000000.0 0.264330030550172 -0.9673737014595494
5128000000.0 0.2023500427578483 -1.0420392685602398
5131000000.0 0.22220869813230776 -1.0350123261914337
5134000000.0 0.22669943657440922 -0.9579362302386684
5138000000.0 0.285165956996684 -1.0261797500899426
5141000000.0 0.25460801670355143 -1.0305011759981402
5144000000.0 0.25481045810269515 -0.9651401108755435
5147000000.0 0.22241474980099474 -1.0474022726014047
5150000000.0 0.22098122942993365 -1.0331085893892495
5153000000.0 0.22804712642511205 -1.0545543889703501
5156000000.0 0.23832071275792743 -1.0035279266579942
5159000000.0 0.2531771860383818 -1.0599886001352385
5162000000.0 0.15249296806766877 -1.018192796396694
5166000000.0 0.1983990986920771 -1.0141278270475222
5169000000.0 0.22743038649457692 -1.0511935189436887
