! Created with skrf 1.8.0 (http://scikit-rf.org).
# Hz S RI R 50.0 
!freq ReS11 ImS11
4000000000.0 0.5502040552528239 -0.834158491330658
4003000000.0 0.5399949892117681 -0.9238007831064239
4006000000.0 0.4714178358785234 -0.9006999263052224
4009000000.0000005 0.543102442233252 -0.8869924374137288
4011999999.9999995 0.5983168229821653 -0.8409509547643089
4016000000.0 0.5443254466614567 -0.9249161572077715
4019000000.0 0.5329622932838683 -0.9038905375197454
4022000000.0000005 0.6334698336879424 -0.8392645426611719
4025000000.0000005 0.5170895563316132 -0.9597677342291271
4027999999.9999995 0.5383425133909191 -0.895400969613821
4030999999.9999995 0.5063336192908158 -0.8723938054576987
4034000000.0 0.5060879166392828 -0.8868940388074411
4038000000.0000005 0.5239541901274358 -0.8846837491470501
4041000000.0000005 0.5516270610094047 -0.8677808884614537
4043999999.9999995 0.5533379612263604 -0.9506131351038944
4046999999.9999995 0.5626420329734274 -0.8748892481060913
4050000000.0 0.5061532379699886 -0.9554851392432542
4053000000.0 0.5152844725055105 -0.8602949669580731
4056000000.0 0.5393974336589056 -0.8623297913828322
4059000000.0 0.5233807120356646 -0.9143745058087039
4062000000.0000005 0.5015966837971275 -0.9067785935213598
4066000000.0 0.49296308045646586 -0.8562764293222774
4069000000.0 0.49216048192533846 -0.920017339815817
4072000000.0 0.5732025961868841 -0.865377216520471
4075000000.0 0.5611036183994279 -0.8918675895161352
4078000000.0000005 0.5183528822327325 -0.9026559904222393
4081000000.0000005 0.6223552988952308 -0.8423758629258626
4083999999.9999995 0.5210838918468861 -0.8892460472664387
4088000000.0 0.573862855895759 -0.827364167461552
4091000000.0 0.5642624111691423 -0.9012367931305668
4094000000.0000005 0.5180014260682385 -0.8721676979466272
4097000000.0000005 0.5258652403294967 -0.8605931119581484
4099999999.9999995 0.5442069848884309 -0.8678356052636502
4102999999.9999995 0.5571406769023888 -0.892222650545174
4106000000.0 0.5056572452463444 -0.8644482271221655
4109000000.0 0.5309027584378823 -0.8924424723904005
4112000000.0 0.4971344341014749 -0.8694487192860544
4115999999.9999995 0.5303600662637347 -0.8633444118986223
4119000000.0 0.5202735977277573 -0.899422940523927
4122000000.0 0.5183329430589697 -0.9242170618669042
4125000000.0 0.49547673577176615 -0.9121099645836065
4128000000.0 0.5226465460653195 -0.8354437021673015
4131000000.0 0.5076604625945981 -0.8413860785007958
4134000000.0000005 0.5413572243418447 -0.8929094128739625
4138000000.0 0.5029271817307702 -0.8418767236684332
4141000000.0 0.514955043201647 -0.8727661553334831
4144000000.0 0.5226899198974018 -0.8634077608847908
4147000000.0000005 0.5140660787983525 -0.8616838968380821
4150000000.0000005 0.5147141745483803 -0.8714840110123154
4152999999.9999995 0.5253223358281656 -0.8644431731176023
4155999999.9999995 0.5485221734433253 -0.8538338221684004
4159000000.0 0.5439659606327591 -0.8350349891251211
4162000000.0 0.49808182588484884 -0.8696630489191847
4166000000.0000005 0.5166750427942285 -0.8964176355433053
4168999999.9999995 0.5262213433271975 -0.884764668836848
4171999999.9999995 0.5363585789246476 -0.8739931240988262
4175000000.0 0.5764545320499743 -0.8651407196026597
4178000000.0 0.5468984116350515 -0.8957511514061616
4181000000.0 0.5391716975255225 -0.8755492526507473
4184000000.0 0.5355360115488252 -0.8514030966104466
4187999999.9999995 0.5323745600467071 -0.865442241580739
4191000000.0 0.557054509040654 -0.854854185978871
4194000000.0 0.5330192840151151 -0.8586334117822161
4197000000.0 0.5446991458257779 -0.8714425585535757
4200000000.0 0.5380740928965217 -0.859798929059591
4203000000.0000005 0.5379307998545242 -0.8692167290110514
4206000000.0000005 0.5284686550366627 -0.8858386756300708
4208999999.9999995 0.5313824454884087 -0.8498048512402941
4211999999.9999995 0.5076872213867727 -0.8762209460675646
4216000000.0 0.5546875186350111 -0.8437441397506544
4219000000.0000005 0.5543192678751331 -0.8687420196501107
4222000000.0000005 0.5285749011239815 -0.8835505187659392
4224999999.9999995 0.5457999138794771 -0.8615689661957308
4227999999.9999995 0.5420714150831789 -0.8670786391106867
4231000000.0 0.5337612367839706 -0.8758204631271155
4234000000.0 0.5197343671999587 -0.8942572986419615
4238000000.0000005 0.5050358841599979 -0.8720157807682289
4240999999.9999995 0.5253481845180059 -0.8723713256157611
4244000000.0 0.5503857211531794 -0.876876269924209
4247000000.0 0.5394996348127765 -0.8619611355600066
4250000000.0 0.5174395444124352 -0.8610612375157249
4253000000.0 0.52920798935222 -0.8422094812455843
4256000000.0 0.528304385657135 -0.8792944407849144
4259000000.0000005 0.508900913602792 -0.8389847595387661
4261999999.9999995 0.49965996018715053 -0.8899080749931374
4266000000.0 0.49790858575656133 -0.8898077276824714
4269000000.0 0.533785991365834 -0.8717088913531336
4272000000.0000005 0.511994200599621 -0.8491178131689477
4275000000.0000005 0.5328939990302386 -0.8709719537590559
4277999999.9999995 0.5539852027490773 -0.8858203437791219
4280999999.9999995 0.533990574555637 -0.8526874120999467
4284000000.0 0.5050222440221561 -0.8971149913850325
4288000000.0000005 0.5613905861681698 -0.8618903384058482
4291000000.0000005 0.5062057650023842 -0.8541258041130045
4293999999.9999995 0.5079352548061212 -0.8658692882660299
4297000000.0 0.5315046222774651 -0.8342923807415162
4300000000.0 0.5514718087836166 -0.838696169084287
4303000000.0 0.49730115369519934 -0.8685379826310929
4306000000.0 0.5604434615964077 -0.8684180760965786
4309000000.0 0.5209632317803811 -0.8625325866961397
4312000000.0 0.5799451741430648 -0.8683553427733709
4316000000.0 0.5489486411070296 -0.8794951707890212
4319000000.0 0.537928064831268 -0.8361705409280387
4322000000.0 0.5069617186915075 -0.8307467670633334
4325000000.0 0.519430972449342 -0.8593443832504472
4328000000.0 0.5173135419207 -0.8612938271293887
4331000000.0 0.5138634273133449 -0.8739527215466767
4334000000.0 0.5051497171365322 -0.8818943675858765
4338000000.0 0.5495372128863273 -0.8657275383313099
4341000000.0 0.5813043499739995 -0.8407747625140544
4344000000.0 0.5506068099997832 -0.8975736966266885
4347000000.0 0.5224969625365704 -0.8889422890729417
4350000000.0 0.5184985052887783 -0.8432197536598526
4353000000.0 0.5237508555802972 -0.847782741667467
4356000000.0 0.49387688179379 -0.8638569615372966
4359000000.0 0.5131812523225604 -0.8339564352490315
4362000000.0 0.5102006317400806 -0.906568054098748
4366000000.0 0.5208235447439475 -0.8820323313317328
4369000000.0 0.5103383340437146 -0.8475953388868542
4372000000.0 0.47502283831760916 -0.8873501793558907
4375000000.0 0.5204793024965179 -0.8351830211769529
4378000000.0 0.5096045556030967 -0.839770874735291
4381000000.0 0.525531439262087 -0.8565728021164128
4384000000.0 0.5394080716983964 -0.9372336537335922
4388000000.0 0.540315831021845 -0.8421519149016949
4391000000.0 0.5255709626959764 -0.872810414228664
4394000000.0 0.49811903620698483 -0.8462434485292093
4397000000.0 0.524596006766492 -0.8673536851943802
4400000000.0 0.5280491010175768 -0.90239087436716
4403000000.0 0.5296084927607629 -0.8680712495694474
4406000000.0 0.49456362824370015 -0.8709202324167239
4409000000.0 0.5285402796865076 -0.8980228460767214
4412000000.0 0.4643904081729471 -0.8823921231549734
4416000000.0 0.49599175130172146 -0.8629161831595193
4419000000.0 0.49826565871585815 -0.8728983491177824
4422000000.0 0.5288606391867754 -0.8591076715140589
4425000000.0 0.536401434697856 -0.8595483897984659
4428000000.0 0.48728504027888275 -0.8730392617524257
4431000000.0 0.5352011634432647 -0.8828982623732639
4434000000.0 0.5000554879173799 -0.8586315227189105
4438000000.0 0.5216672230638083 -0.885761406646598
4441000000.0 0.5284046968032221 -0.8959913188693985
4444000000.0 0.5059604909381146 -0.8520942176914115
4447000000.0 0.47928507663597125 -0.8826839144383753
4450000000.0 0.5095356597611084 -0.8460586703859495
4453000000.0 0.5169976566775137 -0.8983806290735468
4456000000.0 0.4952808881694166 -0.8481365171933488
4459000000.0 0.4626165174711864 -0.8369182110605781
4462000000.0 0.5411363847493693 -0.9226403907009503
4466000000.0 0.5006949955652573 -0.9089258938825887
4469000000.0 0.5179400314687636 -0.8668810910127904
4472000000.0 0.48856789803022854 -0.9025642352603815
4475000000.0 0.49060311682323743 -0.8426140941366338
4478000000.0 0.5119332824367124 -0.930783900723388
4481000000.0 0.4853349814830371 -0.8617815952469889
4484000000.0 0.47430650938696345 -0.8863014793399313
4488000000.0 0.4887114812170619 -0.8721786120822894
4491000000.0 0.5117121894939921 -0.8807660899703416
4494000000.0 0.48180628323917085 -0.8793363790494709
4497000000.0 0.5051644180490823 -0.8567831126123813
4500000000.0 0.4999673333729845 -0.8614929473372079
4503000000.0 0.516023770055274 -0.8880280879053757
4506000000.0 0.48623729007472166 -0.8744394882844473
4509000000.0 0.4750583424984892 -0.859422384642381
4512000000.0 0.4726709559336582 -0.860938145794919
4516000000.0 0.519888561944335 -0.8878929302277312
4519000000.0 0.4934784318650245 -0.8399063332026786
4522000000.0 0.4998745898278607 -0.8675019916888205
4525000000.0 0.5230784200005452 -0.8592599569111281
4528000000.0 0.5210387312248126 -0.8905597259417647
4531000000.0 0.5112018539946497 -0.8607702089241109
4534000000.0 0.49013452074066 -0.8540874533389331
4538000000.0 0.49686993753346065 -0.8634457108720999
4541000000.0 0.4474956313453374 -0.885233206930663
4544000000.0 0.47629600333214794 -0.8703040368615517
4547000000.0 0.5050364949753305 -0.8559293042706203
4550000000.0 0.4789696802577532 -0.8891682786579927
4553000000.0 0.5014344983728812 -0.8803483403924263
4556000000.0 0.46913743344761827 -0.8492854610936684
4559000000.0 0.4727171726846424 -0.8906473875641028
4562000000.0 0.497705282025087 -0.8956691413720593
4566000000.0 0.48243601657628865 -0.8847309731374289
4569000000.0 0.4719914372235128 -0.8598759970747849
4572000000.0 0.4926405593562925 -0.8676625238994021
4575000000.0 0.46780426354297544 -0.9016371752807227
4578000000.0 0.5104041802985555 -0.8944779636740445
4581000000.0 0.4629511546053239 -0.8721705536263389
4584000000.0 0.47931184700418566 -0.8724947900420041
4588000000.0 0.5240007839382523 -0.8973420987694032
4591000000.0 0.4886010330205328 -0.8724413650332656
4594000000.0 0.47920136685305026 -0.8795827270692828
4597000000.0 0.48355974812515545 -0.8843904076705176
4600000000.0 0.4591506329302005 -0.888498057536956
4603000000.0 0.4797972724167017 -0.8928714380186478
4606000000.0 0.4971773349640927 -0.8875396116192112
4609000000.0 0.493416403938787 -0.8902635244149315
4612000000.0 0.4937068361787344 -0.8999663384183136
4616000000.0 0.47263697290579043 -0.8763456859673494
4619000000.0 0.48689524713192744 -0.868526710991799
4622000000.0 0.48180375416734766 -0.9070847159021349
4625000000.0 0.45888210152361364 -0.8685172343226543
4628000000.0 0.4918181189805849 -0.8748935138777199
4631000000.0 0.464215365451468 -0.8841042953116185
4634000000.0 0.4878488950973381 -0.8931823415854792
4638000000.0 0.47567904403045935 -0.8729094645885861
4641000000.0 0.5043800066317587 -0.8917827842989423
4644000000.0 0.4605373373352304 -0.8782497975882574
4647000000.0 0.4858843380574347 -0.880771624845492
4650000000.0 0.48503257527975585 -0.8891249213213616
4653000000.0 0.4831651645383317 -0.8876611713862067
4656000000.0 0.47397660610537395 -0.896322491215024
4659000000.0 0.45409520619606986 -0.8989015143123538
4662000000.0 0.4591599054234062 -0.8961665754221078
4666000000.0 0.4624350629500557 -0.889689978945809
4669000000.0 0.48989965998396007 -0.8789342027758285
4672000000.0 0.45974411557681055 -0.905817427192134
4675000000.0 0.4568742444711586 -0.9269437662797725
4678000000.0 0.461122809143334 -0.8826519750451249
4681000000.0 0.4491445884492381 -0.9223029515303145
4684000000.0 0.4439858313504801 -0.9154949880517697
4688000000.0 0.43019183140227135 -0.898490237212353
4691000000.0 0.500646729045532 -0.907293395693662
4694000000.0 0.4718166402969658 -0.8792348429389006
4697000000.0 0.43670944317727234 -0.8710468176878036
4700000000.0 0.4849805991603596 -0.8751160733990608
4703000000.0 0.48292209763845606 -0.8586481370409967
4706000000.0 0.45382027318140006 -0.9298609005402987
4709000000.0 0.46150878231290526 -0.902832128335839
4712000000.0 0.45636054553373506 -0.8932603691638086
4716000000.0 0.46280818851768174 -0.9056313323056298
4719000000.0 0.4807038046839644 -0.8716854066854013
4722000000.0 0.5052577355262522 -0.8953276127710446
4725000000.0 0.46312941918941525 -0.8924598831636141
4728000000.0 0.4610058619592284 -0.86681907838852
4731000000.0 0.48504065788775313 -0.9200129973411187
4734000000.0 0.46793455819478846 -0.9032740078597301
4738000000.0 0.494991545187256 -0.9429156987505138
4741000000.0 0.47073498112383444 -0.9150106408599377
4744000000.0 0.442610826283138 -0.9074467801561179
4747000000.0 0.46722754135769184 -0.8693612813745984
4750000000.0 0.4543176462841139 -0.9057597305832253
4753000000.0 0.47862451909870973 -0.901432996342412
4756000000.0 0.4773639006245679 -0.9020120050800038
4759000000.0 0.49316390302532387 -0.887926714991616
4762000000.0 0.4399324948846488 -0.9066077441137557
4766000000.0 0.4639821750446205 -0.8972333623795571
4769000000.0 0.4810445280557408 -0.8955416705867708
4772000000.0 0.46340850994519733 -0.9012966971546732
4775000000.0 0.49157412473760315 -0.9486333195224105
4778000000.0 0.4692099280762856 -0.9200992833541021
4781000000.0 0.486175279998124 -0.8980392629810835
4784000000.0 0.4885933729870158 -0.8982428962286153
4788000000.0 0.45848806827513766 -0.9071293443455554
4791000000.0 0.47678965536897766 -0.882799197404162
4794000000.0 0.4837274809384992 -0.9182994639032556
4797000000.0 0.4536775120474218 -0.9136211869430805
4800000000.0 0.43134744452246754 -0.9021482693180952
4803000000.0 0.4317484234391399 -0.9132068641885759
4806000000.0 0.4853527252990706 -0.916174466616896
4809000000.0 0.41510755528193055 -0.9283555468455721
4812000000.0 0.44643655971543833 -0.919923790071905
4816000000.0 0.49065952095998666 -0.8555329159369637
4819000000.0 0.4896845517338927 -0.9285378227383605
4822000000.0 0.4859097478174475 -0.9322733343291305
4825000000.0 0.5135913978517647 -0.9120853357020857
4828000000.0 0.4496266836539545 -0.9220679426692715
4831000000.0 0.4300906422508516 -0.9511152754658673
4834000000.0 0.47033629894057594 -0.8825009937457127
4838000000.0 0.43249488836947736 -0.9120899336770083
4841000000.0 0.43790370958873304 -0.8840526506953991
4844000000.0 0.511310997682352 -0.8880446350818173
4847000000.0 0.477898502277051 -0.8788834175952168
4850000000.0 0.44690947429719574 -0.925172588515622
4853000000.0 0.4639928519563763 -0.8884723662797909
4856000000.0 0.4665191036433886 -0.8952436314209665
4859000000.0 0.4639908064825099 -0.9586558811307847
4862000000.0 0.47006623805873843 -0.885911197594668
4866000000.0 0.4466851006170804 -0.9292691818065597
4869000000.0 0.44370069010826374 -0.9060089821240922
4872000000.0 0.4610543845799456 -0.9470601600970658
4875000000.0 0.5287539192708778 -0.9269234896728893
4878000000.0 0.47536101046543083 -0.9232963452973956
4881000000.0 0.4459804642036566 -0.9927087779067945
4884000000.0 0.47365222788733 -0.9283787287148686
4888000000.0 0.5021453887713119 -0.9067590918735395
4891000000.0 0.5048777773714478 -0.903401674218248
4894000000.0 0.44733957366015853 -0.9202211436029641
4897000000.0 0.4986833424473107 -0.8829421187715524
4900000000.0 0.49669287275061086 -0.9177435176592548
4903000000.0 0.5068512667079288 -0.9395766053171346
4906000000.0 0.4313125904921896 -0.9137606433521347
4909000000.0 0.4326793130500796 -0.9414631665839334
4912000000.0 0.4864768661328657 -0.9567041129468078
4916000000.0 0.49675254560565324 -0.921854861258778
4919000000.0 0.5238457718064432 -0.8987941708021622
4922000000.0 0.5218133587351627 -0.9243875925210574
4925000000.0 0.44069262032273343 -0.9344828538454577
4928000000.0 0.49936765662962457 -0.8779688045202764
4931000000.0 0.4825227815293776 -0.9163792003256637
4934000000.0 0.46217072239123824 -0.8978513948085841
4938000000.0 0.442960182721135 -0.9538761505784411
4941000000.0 0.46875238498876515 -0.8887107633089689
4944000000.0 0.4599585507345053 -0.8351898708400276
4947000000.0 0.4406777955135128 -0.8707187296545864
4950000000.0 0.472414418608157 -0.8966399719275373
4953000000.0 0.46919653249149496 -0.9288101389440393
4956000000.0 0.4361311119787743 -0.9186424620782769
4959000000.0 0.46004482040296263 -0.9208990336750781
4962000000.0 0.48037060233150797 -0.9513307578203236
4966000000.0 0.5017419915516218 -0.8729622046383975
4969000000.0 0.49548301607667256 -0.9315313961180414
4972000000.0 0.47345247158773524 -0.9414347739278122
4975000000.0 0.5117919718996821 -0.8691473247546325
4978000000.0 0.468832970703012 -0.9235971835538227
4981000000.0 0.47191870444969297 -0.8968882335816947
4984000000.0 0.4883247759599967 -0.868345580293391
4988000000.0 0.49924714448571994 -0.9131735985623652
4991000000.0 0.5393403953371976 -0.8964587433201467
4994000000.0 0.516137586350636 -0.9103975137831146
4997000000.0 0.42835188643483746 -0.9373543620008329
5000000000.0 0.5403884036108364 -0.912587534970013
5003000000.0 0.5057580556035566 -0.9512954216944801
5006000000.0 0.5303059364498344 -0.9487482639982225
5009000000.0 0.5037176817693719 -0.8950647781138451
5012000000.0 0.4783302560791732 -0.9118648921152148
5016000000.0 0.5336348844136297 -0.9263091777893339
5019000000.0 0.4448072793465682 -0.9170835386888848
5022000000.0 0.4883074006502352 -0.913575996837622
5025000000.0 0.5017494662677044 -0.9668412340346405
5028000000.0 0.47714526570784976 -0.9276926878097165
5031000000.0 0.46172569874100394 -0.9209285411845738
5034000000.0 0.4686603140616482 -0.9521200982588579
5038000000.0 0.4768706678613728 -0.8622573745176983
5041000000.0 0.5214547394456227 -0.8842147657355693
5044000000.0 0.49935754325094184 -0.9053397076724532
5047000000.0 0.5058725320149053 -0.9201841199290283
5050000000.0 0.5532132836938219 -0.8578721921967073
5053000000.0 0.4919642564830952 -0.9260814217271818
5056000000.0 0.527964814614583 -0.8911089789191515
5059000000.0 0.5405721726552315 -0.8778495216015278
5062000000.0 0.4548375435066246 -0.9672448899882014
5066000000.0 0.5177781962409287 -0.9177315332288877
5069000000.0 0.49593012415897597 -0.9057232103298356
5072000000.0 0.47775447589860665 -0.8950538984708836
5075000000.0 0.5087889815074372 -0.9099161597771139
5078000000.0 0.4527870177332948 -0.9432410049488199
5081000000.0 0.47219656114837094 -0.8720243491691484
5084000000.0 0.5129392286723149 -0.9502234177042619
5088000000.0 0.5263197445558655 -0.8785593270463261
5091000000.0 0.4855167176673926 -0.9212209928828311
5094000000.0 0.5056561853211032 -0.9383547906932983
5097000000.0 0.5227866664741383 -0.8922504592261016
5100000000.0 0.47431575203899445 -0.9261387981865998
5103000000.0 0.45479378330619774 -0.945904215634294
5106000000.0 0.521923451613381 -0.9048269208373458
5109000000.0 0.5209873858411324 -0.8984382648106515
5112000000.0 0.4722474530406416 -0.9031705443490884
5116000000.0 0.4754297139503094 -0.8655587559505807
5119000000.0 0.5215722110587562 -0.8812628316684246
5122000000.0 0.45656936649753327 -0.8786943173183981
5125000000.0 0.5293440928271892 -0.8749748695358217
5128000000.0 0.5014398304247332 -0.9121007214104067
5131000000.0 0.46652408708029525 -0.8857144259415779
5134000000.0 0.5008731114213656 -0.9024075887175171
5138000000.0 0.5213167028282021 -0.9023728869899263
5141000000.0 0.5644883515673086 -0.8876981098478754
5144000000.0 0.5581417594323639 -0.8618741669116807
5147000000.0 0.5277791677155192 -0.9563622054132488
5150000000.0 0.530417145625864 -0.8779705150803334
5153000000.0 0.5362605457953908 -0.9226206531514176
5156000000.0 0.5282670029362668 -0.9063400465787919
5159000000.0 0.563221619963678 -0.9348931355609038
5162000000.0 0.4929811536515632 -0.9125649239830242
5166000000.0 0.4893794745554614 -0.9166828291712126
5169000000.0 0.5326181671592876 -0.9112008720634267
5172000000.0 0.5513160100843122 -0.8936569090022669
5175000000.0 0.515076796449625 -0.9616006879771758
