! Created with skrf 1.8.0 (http://scikit-rf.org).
# Hz S RI R 50.0 
!freq ReS11 ImS11
4000000000.0 0.5332826479970503 -0.8138433050966954
4003000000.0 0.6050788521737751 -0.9032262733680838
4006000000.0 0.5324497722898442 -0.9305718237299085
4009000000.0000005 0.5282035795654314 -0.8718542880584268
4011999999.9999995 0.5980462167621189 -0.8777571396867929
4016000000.0 0.5564035490409188 -0.9171358121377593
4019000000.0 0.5357009213478826 -0.8877095431190403
4022000000.0000005 0.6337237111500801 -0.8674142926258157
4025000000.0000005 0.5507230911300401 -0.9219210019457252
4027999999.9999995 0.556184573003551 -0.9106732263401487
4030999999.9999995 0.5346581123888036 -0.8141869111273095
4034000000.0 0.5345184192045669 -0.8912301245695031
4038000000.0000005 0.5130462041033487 -0.8775900013442043
4041000000.0000005 0.5308824898788074 -0.850163882373121
4043999999.9999995 0.593123726567999 -0.9679741497427262
4046999999.9999995 0.5877483768137903 -0.8999363357534531
4050000000.0 0.5258770645161815 -0.8979607718329524
4053000000.0 0.5451631264432499 -0.8525870319360792
4056000000.0 0.5063576079699348 -0.8474418555835266
4059000000.0 0.5348748724189955 -0.8613806502067833
4062000000.0000005 0.539706867963439 -0.90783257611118
4066000000.0 0.5530402472468048 -0.8317006125755877
4069000000.0 0.5844104407607472 -0.9180576395634791
4072000000.0 0.617756255171458 -0.8592181596145403
4075000000.0 0.6071306988557283 -0.8992671615399561
4078000000.0000005 0.5642474161633273 -0.8880305446936001
4081000000.0000005 0.6197195561080188 -0.8828942519101163
4083999999.9999995 0.5337002260917644 -0.926829176897494
4088000000.0 0.5762047586367527 -0.846757317480675
4091000000.0 0.6244946002643064 -0.9268556824689427
4094000000.0000005 0.553723566347427 -0.8692201105195902
4097000000.0000005 0.560137685316597 -0.8426721371766841
4099999999.9999995 0.5971033708594226 -0.8653822019502047
4102999999.9999995 0.5752349416978413 -0.9089459793709924
4106000000.0 0.5255008825091902 -0.8895506284789318
4109000000.0 0.5349658464852082 -0.8922247785998173
4112000000.0 0.5266028571394493 -0.8862660453247293
4115999999.9999995 0.5663987325871237 -0.8501245490038102
4119000000.0 0.5372719073433443 -0.8616078265285982
4122000000.0 0.5387291006718532 -0.8935342604965276
4125000000.0 0.578539411521289 -0.8958564935308289
4128000000.0 0.5686874095592037 -0.8320913214798582
4131000000.0 0.5338516404450648 -0.8584513744137401
4134000000.0000005 0.5849943772008057 -0.8449781478682015
4138000000.0 0.5133087783885882 -0.8619928278805189
4141000000.0 0.4970911951067157 -0.8919009679165525
4144000000.0 0.5687957684736688 -0.8802562306167752
4147000000.0000005 0.5579122363799514 -0.8524075804151608
4150000000.0000005 0.5835768553743802 -0.9112735757278498
4152999999.9999995 0.5354189619424703 -0.8794377326645095
4155999999.9999995 0.5981621887574262 -0.9024889227617533
4159000000.0 0.544461342973297 -0.8691451894172619
4162000000.0 0.5524210985012027 -0.8640930990604058
4166000000.0000005 0.5756368632104779 -0.8658257267382142
4168999999.9999995 0.5461948916740343 -0.896417542199168
4171999999.9999995 0.5738512742736105 -0.8784510292473564
4175000000.0 0.569105217714684 -0.8886941423351994
4178000000.0 0.5806487248200353 -0.8846550685431993
4181000000.0 0.56514727847047 -0.8743858754574474
4184000000.0 0.5371219736823253 -0.831887917796896
4187999999.9999995 0.5565993822241297 -0.8748755831170008
4191000000.0 0.5915723642507642 -0.8161498121279451
4194000000.0 0.5412834865648359 -0.849244513058106
4197000000.0 0.5635761535932711 -0.8660957127945283
4200000000.0 0.5878093385115176 -0.8439815861303637
4203000000.0000005 0.5629182578842374 -0.8662184533736859
4206000000.0000005 0.5591137717743597 -0.8738128753494459
4208999999.9999995 0.5560989633361092 -0.8552668677177508
4211999999.9999995 0.5357208658729387 -0.884472641796931
4216000000.0 0.5767085977333926 -0.8442796152685356
4219000000.0000005 0.5723442702921417 -0.8492363803603039
4222000000.0000005 0.5396911493636284 -0.8732300360272908
4224999999.9999995 0.5477487581797292 -0.8495984959690392
4227999999.9999995 0.5625328868620498 -0.8524850504273831
4231000000.0 0.5453381198478298 -0.8576941850999207
4234000000.0 0.5514731925574285 -0.8659336052281348
4238000000.0000005 0.5448272941272199 -0.8679552973481072
4240999999.9999995 0.5576731036486486 -0.8525836414722971
4244000000.0 0.5691768882327445 -0.8461729283650791
4247000000.0 0.5588531639526879 -0.8485834780207311
4250000000.0 0.5462848323464444 -0.8464959924455587
4253000000.0 0.5410123157187415 -0.8567660979486504
4256000000.0 0.5602500613798437 -0.892483120820683
4259000000.0000005 0.5366752954901238 -0.8268791135014296
4261999999.9999995 0.5360228827830025 -0.8676852717948779
4266000000.0 0.536382765213883 -0.8746892874204754
4269000000.0 0.5671784534485967 -0.8600351817218137
4272000000.0000005 0.5515242199689422 -0.8590667049486161
4275000000.0000005 0.5549686840594644 -0.8593396488348369
4277999999.9999995 0.577861678125587 -0.8727685374284746
4280999999.9999995 0.5574752724310247 -0.8755922460285194
4284000000.0 0.5242773968232596 -0.866638076538236
4288000000.0000005 0.5916376725876635 -0.8369848771233285
4291000000.0000005 0.5452440642197685 -0.8561986187100888
4293999999.9999995 0.5487620943080189 -0.835609181137442
4297000000.0 0.550058955334707 -0.8504686633234101
4300000000.0 0.5646105686091221 -0.8402178087203259
4303000000.0 0.5204524910692548 -0.8458116357570247
4306000000.0 0.5729378995580158 -0.8321477364193955
4309000000.0 0.5459039576618425 -0.8514467087177962
4312000000.0 0.6262475211946862 -0.8347143235948534
4316000000.0 0.5978947785594458 -0.8600581041243214
4319000000.0 0.5764192062944523 -0.8505454179405109
4322000000.0 0.5241778110084016 -0.8587073649817866
4325000000.0 0.575051267842679 -0.8564932086639435
4328000000.0 0.5541876400836843 -0.8452230202162764
4331000000.0 0.5457357850653598 -0.8758750273049632
4334000000.0 0.5629237454350109 -0.8634921814527063
4338000000.0 0.5650285855182478 -0.8395376019643351
4341000000.0 0.5987908082744822 -0.8548181465041423
4344000000.0 0.5866254477538121 -0.8715104314411162
4347000000.0 0.5563284400019544 -0.8920859101062117
4350000000.0 0.5077715571040546 -0.8270823552567518
4353000000.0 0.5606042392880445 -0.8056763794591082
4356000000.0 0.5235120319267594 -0.853534217500033
4359000000.0 0.5175407290651599 -0.8320217823564973
4362000000.0 0.5143506200215988 -0.873541923976345
4366000000.0 0.5555613127456942 -0.877993843222681
4369000000.0 0.5372513900964748 -0.8315566302863221
4372000000.0 0.5297102099333764 -0.8601198973426346
4375000000.0 0.5712175870486277 -0.8380451897386259
4378000000.0 0.5330658746565424 -0.8160719149613808
4381000000.0 0.5466255430737801 -0.8453387485140654
4384000000.0 0.5760507960581708 -0.91594050121186
4388000000.0 0.5416579632261423 -0.8293396963037429
4391000000.0 0.5387480227869936 -0.8713074713445456
4394000000.0 0.5339031826221985 -0.8194535765213018
4397000000.0 0.5522602410764653 -0.8480781242419071
4400000000.0 0.5501207329638198 -0.8774068356847083
4403000000.0 0.5519182652497495 -0.8567075859879797
4406000000.0 0.5279362459174337 -0.8616118389605838
4409000000.0 0.5741475321782765 -0.8813111762858024
4412000000.0 0.4981440225769436 -0.8867811718017999
4416000000.0 0.5155929416681513 -0.8470943881592148
4419000000.0 0.5339811097420152 -0.8635061334817551
4422000000.0 0.5455507849929582 -0.8454681418611087
4425000000.0 0.5772293678814282 -0.8633663700962213
4428000000.0 0.5433965567931963 -0.8503971197100786
4431000000.0 0.5694523790774517 -0.8791834402290125
4434000000.0 0.5314149834230835 -0.8569981478875932
4438000000.0 0.5511904055258824 -0.8731278039388126
4441000000.0 0.5514055596457406 -0.8565891565146476
4444000000.0 0.5351616234700106 -0.8408185994204497
4447000000.0 0.5392496762859149 -0.847032675151405
4450000000.0 0.5387062287966481 -0.8418412505744943
4453000000.0 0.5584458354072694 -0.8693613128932097
4456000000.0 0.49386496765628146 -0.8378284983314069
4459000000.0 0.4986613750790806 -0.836311484940377
4462000000.0 0.5646135827606427 -0.9115722019538858
4466000000.0 0.55185683650126 -0.8921399016556211
4469000000.0 0.5645858784031266 -0.8533727865840052
4472000000.0 0.5223084007990804 -0.8868544932018887
4475000000.0 0.5297325812367522 -0.824021025416077
4478000000.0 0.5379576231068235 -0.892118393564515
4481000000.0 0.4992809085698263 -0.842715419097052
4484000000.0 0.4874421020305348 -0.8816900597736286
4488000000.0 0.5017969588547391 -0.8614360706818284
4491000000.0 0.5222586346066789 -0.8733876204723877
4494000000.0 0.5410173679147696 -0.8408793035394616
4497000000.0 0.5298888414184517 -0.834421048584762
4500000000.0 0.5184818674670694 -0.856383980668799
4503000000.0 0.5487867845393649 -0.8871321138047625
4506000000.0 0.5230354264454773 -0.8730214476178872
4509000000.0 0.49691981287210285 -0.8412098795253455
4512000000.0 0.5057703722070545 -0.8558198528319301
4516000000.0 0.5318942861637174 -0.872190372916523
4519000000.0 0.5258198332726833 -0.8312263754403919
4522000000.0 0.5177862263255776 -0.8642251382235095
4525000000.0 0.5596918940836733 -0.8380173010186623
4528000000.0 0.5337951104944836 -0.8828292009490553
4531000000.0 0.542690183172196 -0.8588554051942319
4534000000.0 0.5260210969504712 -0.8532338016932066
4538000000.0 0.5158430266947334 -0.8613902711985413
4541000000.0 0.4779443166142825 -0.8685448909734659
4544000000.0 0.5307771502605428 -0.8559923298114456
4547000000.0 0.546759238113344 -0.8327568051309138
4550000000.0 0.5032929879555411 -0.8747754980996465
4553000000.0 0.5337190160628611 -0.8925923306324577
4556000000.0 0.49874695936917374 -0.850415208836703
4559000000.0 0.5083185473056115 -0.865799371703353
4562000000.0 0.5438018692212746 -0.8782940034639206
4566000000.0 0.5275603328141691 -0.8839714981970385
4569000000.0 0.505917379200855 -0.8464442828067527
4572000000.0 0.5189113158525943 -0.8555056696800136
4575000000.0 0.5113686679981368 -0.884300934738464
4578000000.0 0.5427754450953061 -0.8881819371414124
4581000000.0 0.5116481206128882 -0.8675903168582901
4584000000.0 0.5158728163058754 -0.8582554668773499
4588000000.0 0.5205453996785987 -0.8750042757639476
4591000000.0 0.5380006269525487 -0.8678734023920553
4594000000.0 0.5024173356378557 -0.8707212097462482
4597000000.0 0.5196651842204639 -0.9004389337892788
4600000000.0 0.495660708310384 -0.8713048974754938
4603000000.0 0.5212904371011053 -0.8794438932089756
4606000000.0 0.5007890101415943 -0.8765278389087992
4609000000.0 0.5095793705046051 -0.870648551213724
4612000000.0 0.5261518279365041 -0.8792675887645767
4616000000.0 0.5223459979571786 -0.8711665131826819
4619000000.0 0.5162328194212513 -0.8546971950738176
4622000000.0 0.5118617494653963 -0.85818686622278
4625000000.0 0.48793215936779955 -0.851531894832617
4628000000.0 0.5134349493016868 -0.8579079099124096
4631000000.0 0.5055379652601846 -0.881752170749379
4634000000.0 0.5174729360183138 -0.8780700218516571
4638000000.0 0.5156314046061244 -0.8901144745940394
4641000000.0 0.5212858545020529 -0.8735253102350442
4644000000.0 0.5110800478630746 -0.8773623306394643
4647000000.0 0.5068426482322445 -0.8828011506579141
4650000000.0 0.495310804568282 -0.8811659294082358
4653000000.0 0.5269820983114069 -0.8873541434693473
4656000000.0 0.5010156649109772 -0.864148887936408
4659000000.0 0.49995431905471077 -0.8823698806144806
4662000000.0 0.5101132763247812 -0.88288400107621
4666000000.0 0.5024493468786688 -0.8719550144178856
4669000000.0 0.5132199213119818 -0.8902105633057774
4672000000.0 0.4874879241625587 -0.8878377711835026
4675000000.0 0.48551291349954945 -0.8894511489748033
4678000000.0 0.48484921683432336 -0.8538101941418463
4681000000.0 0.4844146832602967 -0.9094620273990756
4684000000.0 0.4904837939206751 -0.9025749883021741
4688000000.0 0.4817761917325834 -0.8770717562075245
4691000000.0 0.4993011506957238 -0.8876000914740552
4694000000.0 0.5024787546987035 -0.871175870192325
4697000000.0 0.45104978902425447 -0.8553491022919096
4700000000.0 0.5099847086348612 -0.8518772124985458
4703000000.0 0.5190532357970696 -0.8450343901822915
4706000000.0 0.4870550199442162 -0.8794511815665513
4709000000.0 0.4772769567663947 -0.8689059383522179
4712000000.0 0.507132830235723 -0.8752897586555218
4716000000.0 0.49699844374236657 -0.9009553484061555
4719000000.0 0.5096495668179134 -0.8950167720320057
4722000000.0 0.5253208188837432 -0.8568865402473165
4725000000.0 0.5243821924061856 -0.8951543303274071
4728000000.0 0.48127906571883217 -0.8932977473479902
4731000000.0 0.5323565201739636 -0.889696995324774
4734000000.0 0.5271218737492419 -0.8536101563636722
4738000000.0 0.5150176971132343 -0.8863881059466049
4741000000.0 0.507551536757037 -0.9210359180336849
4744000000.0 0.5094373348802265 -0.8840883630360765
4747000000.0 0.5101988666295914 -0.8409737262940388
4750000000.0 0.5155719854443483 -0.8923722293163856
4753000000.0 0.516973285821143 -0.9154176357405833
4756000000.0 0.48788569009384986 -0.9053492270099677
4759000000.0 0.5247783913356918 -0.8880643358939103
4762000000.0 0.5240840900647296 -0.9162922406923504
4766000000.0 0.4831035158700235 -0.9091125187005326
4769000000.0 0.5251839954737388 -0.8798388080683714
4772000000.0 0.4981895764801715 -0.8672102592137275
4775000000.0 0.5168042033255897 -0.935442191239462
4778000000.0 0.5036438797265468 -0.8854412995714853
4781000000.0 0.5005438198167115 -0.8897625918101612
4784000000.0 0.5216823441532668 -0.8731264441663504
4788000000.0 0.4846701168449882 -0.9085428869520259
4791000000.0 0.5068604759612823 -0.8805920784425622
4794000000.0 0.5354546456367226 -0.8841994323957515
4797000000.0 0.48105249557661056 -0.8694107920341749
4800000000.0 0.49781317289806026 -0.8618826636777772
4803000000.0 0.4472521720006247 -0.9207975569799648
4806000000.0 0.5039570590773619 -0.9047538955205007
4809000000.0 0.46143949051634925 -0.8897007850087753
4812000000.0 0.45497009273721933 -0.8930526306639047
4816000000.0 0.52493803379317 -0.8744873199893548
4819000000.0 0.5260434627912308 -0.9061434330520667
4822000000.0 0.5322891366896672 -0.8892997982807821
4825000000.0 0.5296335162413033 -0.883432005880852
4828000000.0 0.5066610156373414 -0.9051669932909818
4831000000.0 0.4670134691580774 -0.931387234117776
4834000000.0 0.5236134706618831 -0.880704234854431
4838000000.0 0.49327202922166813 -0.9128858121641957
4841000000.0 0.4884432066550659 -0.8947755778035865
4844000000.0 0.5487606376756669 -0.8803565229099396
4847000000.0 0.4973140688510516 -0.8662118634209319
4850000000.0 0.5009463918509169 -0.9203461932957686
4853000000.0 0.4844216977297422 -0.889507970617236
4856000000.0 0.5100986940952195 -0.8861503830616366
4859000000.0 0.5137964074776915 -0.9346368925413862
4862000000.0 0.5146910143446353 -0.8587894741509152
4866000000.0 0.5171833271480174 -0.9219868186752153
4869000000.0 0.47974683066646684 -0.9019591026318678
4872000000.0 0.4993479282733233 -0.9344518125333656
4875000000.0 0.5759224059431692 -0.8976610488988999
4878000000.0 0.5153222899115899 -0.9000867945604435
4881000000.0 0.5257406355069729 -0.9718166679943323
4884000000.0 0.525450240716184 -0.8889375591537763
4888000000.0 0.5402672396877006 -0.8799069074816849
4891000000.0 0.5386773441461504 -0.9114866653589487
4894000000.0 0.48559555465975623 -0.9081737282803315
4897000000.0 0.5080534863153546 -0.885229784974864
4900000000.0 0.5493927976892545 -0.8991713757903681
4903000000.0 0.5228795366771594 -0.9114009526936653
4906000000.0 0.5182486572250299 -0.9317817806360834
4909000000.0 0.4707646213511818 -0.9023229649117859
4912000000.0 0.4695661695232481 -0.9457477828946913
4916000000.0 0.5129785029067289 -0.943874813506548
4919000000.0 0.5442699824145145 -0.9195000296627077
4922000000.0 0.5499764198544245 -0.8916405083378752
4925000000.0 0.49456808708289096 -0.9196926435679098
4928000000.0 0.5618219271903385 -0.856541315051176
4931000000.0 0.5260504611378441 -0.9054081875427105
4934000000.0 0.4863579399409023 -0.8739536256637377
4938000000.0 0.4696507660858642 -0.9043716836514114
4941000000.0 0.5188078564086521 -0.875451459633911
4944000000.0 0.5114184978069215 -0.8492310979898083
4947000000.0 0.5110619534655951 -0.8779379486062145
4950000000.0 0.5237751950954351 -0.8752297219536125
4953000000.0 0.4929652025903981 -0.9642998964247864
4956000000.0 0.48209343794392495 -0.9022523559997857
4959000000.0 0.46078567385533176 -0.8712980235289112
4962000000.0 0.5215138851080571 -0.9184558138270751
4966000000.0 0.5546661889122071 -0.9144316997698371
4969000000.0 0.5606869147816105 -0.9474051285020911
4972000000.0 0.5255645554145462 -0.9083001610793118
4975000000.0 0.5403669545575188 -0.8809448248658862
4978000000.0 0.5365847558970525 -0.9207197854855349
4981000000.0 0.49717421540782575 -0.8980995161674058
4984000000.0 0.5083020716787393 -0.890006180537897
4988000000.0 0.4935183614047144 -0.8979643175417757
4991000000.0 0.5973924879533776 -0.8793477126205278
4994000000.0 0.5358801425974932 -0.8727245392394376
4997000000.0 0.4953370958712522 -0.9009147886069138
5000000000.0 0.5382578818167582 -0.8981385956864159
5003000000.0 0.5769605093104822 -0.9095566242201502
5006000000.0 0.5364836653070941 -0.9154307569694545
5009000000.0 0.526729904083016 -0.9249478641154363
5012000000.0 0.49777000803047894 -0.9107307449669076
5016000000.0 0.5667050685096252 -0.8877189489576153
5019000000.0 0.5131118168134936 -0.8900480539477416
5022000000.0 0.5445972559414993 -0.8954598514847492
5025000000.0 0.5743248687563322 -0.9613857425113226
5028000000.0 0.5121984595003326 -0.8979849152983252
5031000000.0 0.5287656160568445 -0.8994029652184703
5034000000.0 0.5273285563390869 -0.9478107476145277
5038000000.0 0.5023778419246359 -0.8712808075833358
5041000000.0 0.5411136068033582 -0.8668764185313276
5044000000.0 0.5458909733042376 -0.8422769502979792
5047000000.0 0.5375675234811659 -0.9055189877482963
5050000000.0 0.5814596463518665 -0.8417553721061999
5053000000.0 0.523146388410344 -0.9312425610389118
5056000000.0 0.5713937256705673 -0.863948327456401
5059000000.0 0.5809592937237817 -0.875963222665272
5062000000.0 0.5046294062164755 -0.9079256616227216
5066000000.0 0.5661878460778055 -0.8791776699533687
5069000000.0 0.5583885950399627 -0.8610774391606992
5072000000.0 0.5383155901549085 -0.8489293352396391
5075000000.0 0.5853533267439499 -0.8636394099072653
5078000000.0 0.5238082412202201 -0.9131842487203398
5081000000.0 0.5268944346734761 -0.8739270057012256
5084000000.0 0.5705789173518425 -0.9121491900925423
5088000000.0 0.5360835409910653 -0.8639101988803355
5091000000.0 0.5028183586735977 -0.8962921055442139
5094000000.0 0.5174748230429457 -0.8822258810307684
5097000000.0 0.5477319099206837 -0.8792750083010041
5100000000.0 0.5737913017310646 -0.8653003052532446
5103000000.0 0.552153940556415 -0.922817536321187
5106000000.0 0.6115388332286363 -0.9151020255952008
5109000000.0 0.5571513633939755 -0.872123577732932
5112000000.0 0.5223843935082739 -0.9135463901041168
5116000000.0 0.514641481180466 -0.827471801215941
5119000000.0 0.5865401957804051 -0.900952749298026
5122000000.0 0.537026024976286 -0.8609084988716101
5125000000.0 0.614776631066946 -0.8537079416832754
5128000000.0 0.5298734254048654 -0.8799067480730917
5131000000.0 0.5401153452171301 -0.8990981647005206
5134000000.0 0.5399246266533174 -0.8484912818472061
5138000000.0 0.5404916323244466 -0.8799132069751645
5141000000.0 0.5699758214897166 -0.8451553983401213
5144000000.0 0.5838785903592845 -0.8665947534965706
5147000000.0 0.5849466760723023 -0.9094730085558148
5150000000.0 0.6087334354798586 -0.8928801475518802
5153000000.0 0.5293207611653137 -0.904282043831081
5156000000.0 0.5576483802249254 -0.9127021865994354
5159000000.0 0.559773131597997 -0.88967364415437
5162000000.0 0.518221773296955 -0.9460217256087433
5166000000.0 0.5484175438918243 -0.9128762346961081
5169000000.0 0.5920857849261358 -0.8914363628727844
5172000000.0 0.5319451223758659 -0.8711557971738578
5175000000.0 0.600007448893427 -0.8964766195671224
5178000000.0 0.5426489636613209 -0.887030310274298
