! Created with skrf 1.8.0 (http://scikit-rf.org).
# Hz S RI R 50.0 
!freq ReS11 ImS11
4000000000.0 0.5480656398712329 -0.8072122235370114
4003000000.0 0.6006530617850441 -0.9158982883869392
4006000000.0 0.5218639207189683 -0.9089383878764115
4009000000.0000005 0.5923546475146363 -0.8899558653737574
4011999999.9999995 0.5853013451728912 -0.8619632350069237
4016000000.0 0.5109093342287243 -0.8973680579913057
4019000000.0 0.5224744477901245 -0.8681577817920252
4022000000.0000005 0.6007410301665366 -0.90761337077973
4025000000.0000005 0.527558169667437 -0.9038884070422939
4027999999.9999995 0.5201481022004657 -0.8508861297831064
4030999999.9999995 0.5247318440826357 -0.8219067624239547
4034000000.0 0.5751708825186741 -0.8763697571720072
4038000000.0000005 0.5439030254196716 -0.8782963245437502
4041000000.0000005 0.5368890232369096 -0.8851856114603797
4043999999.9999995 0.583285647406754 -0.9455346745788471
4046999999.9999995 0.5721811004265771 -0.8965268964229566
4050000000.0 0.560562950090457 -0.872813316164203
4053000000.0 0.5063165821063326 -0.8522327887295054
4056000000.0 0.5482393896040609 -0.8986944152231239
4059000000.0 0.5614026236228855 -0.8692137306037178
4062000000.0000005 0.5092417788530235 -0.881662915257738
4066000000.0 0.5012330916436091 -0.8238845774393689
4069000000.0 0.5271608300630556 -0.935535355271269
4072000000.0 0.5849935586797366 -0.8788824239839723
4075000000.0 0.5788052338751473 -0.894269651009472
4078000000.0000005 0.5137443648461364 -0.8585498417296147
4081000000.0000005 0.6190230639485428 -0.8922655232133397
4083999999.9999995 0.534583402178949 -0.8751683027871004
4088000000.0 0.5678533101972547 -0.8507275147536971
4091000000.0 0.574895029738188 -0.9574133788228156
4094000000.0000005 0.5507482723459677 -0.8848274020304001
4097000000.0000005 0.5475364064473568 -0.883728653970874
4099999999.9999995 0.5342179121095354 -0.8328385882552531
4102999999.9999995 0.5679992705335726 -0.880634513599036
4106000000.0 0.5437222603502548 -0.9081873225365652
4109000000.0 0.5073366526151409 -0.9067716992638305
4112000000.0 0.5722719655210694 -0.8881082774772848
4115999999.9999995 0.5524572433973495 -0.8539513014964708
4119000000.0 0.5501188686899681 -0.8870980264941357
4122000000.0 0.544397752153306 -0.8504970746904597
4125000000.0 0.5542927146892459 -0.8943962562747814
4128000000.0 0.5370986954438254 -0.8521004659306238
4131000000.0 0.5404028933111568 -0.8702389554269759
4134000000.0000005 0.5461240583320405 -0.8678238390549818
4138000000.0 0.5342514471473668 -0.8663620116194871
4141000000.0 0.5253870040027818 -0.8644242443283624
4144000000.0 0.5808884064870065 -0.9058222056900953
4147000000.0000005 0.5272300844713611 -0.8655170608002809
4150000000.0000005 0.5626231045478804 -0.887396923518644
4152999999.9999995 0.5519832037482191 -0.8716010193403524
4155999999.9999995 0.5712071016751837 -0.8961244926632982
4159000000.0 0.5402347101464592 -0.8613628748270894
4162000000.0 0.5485525966003553 -0.8546719805165767
4166000000.0000005 0.5444113482371729 -0.8669265349308388
4168999999.9999995 0.5158308845484122 -0.8476003113195639
4171999999.9999995 0.5668594456075586 -0.8569731001542431
4175000000.0 0.5527479167429 -0.8591265899603705
4178000000.0 0.5548577223456419 -0.8847338643208923
4181000000.0 0.5378878639488304 -0.8944072640873922
4184000000.0 0.5551710991595444 -0.875159151398347
4187999999.9999995 0.5264698108732679 -0.8731422900695431
4191000000.0 0.5770685605642888 -0.8574195645463623
4194000000.0 0.5494698637845964 -0.8627284253951765
4197000000.0 0.5452044221790819 -0.8816921861352615
4200000000.0 0.554510103250752 -0.86399270544587
4203000000.0000005 0.5550768937553587 -0.8792650134721924
4206000000.0000005 0.5549047879499981 -0.8642313426154533
4208999999.9999995 0.5321131711522609 -0.8437054173989578
4211999999.9999995 0.5247021987320644 -0.8924941999009147
4216000000.0 0.5622363704529131 -0.8748002368991812
4219000000.0000005 0.561219715046636 -0.8685388374940827
4222000000.0000005 0.5343907623814342 -0.8787952714359316
4224999999.9999995 0.5448738925684224 -0.8575262672469941
4227999999.9999995 0.5472375795410283 -0.8861396853912488
4231000000.0 0.5294268431137821 -0.8673490187747823
4234000000.0 0.5549923844069846 -0.8817840199965374
4238000000.0000005 0.5463295929827185 -0.8578736663238047
4240999999.9999995 0.5420155159392046 -0.8596202634175376
4244000000.0 0.5594335943588914 -0.8598416204370753
4247000000.0 0.5460558534001544 -0.8532071510240814
4250000000.0 0.5063891032278838 -0.8600546995086844
4253000000.0 0.5390733273879229 -0.8576334147450783
4256000000.0 0.5644482001458527 -0.8579618615401324
4259000000.0000005 0.5219027244953941 -0.8482632932796723
4261999999.9999995 0.5219065442011832 -0.8659607870426993
4266000000.0 0.538244416700178 -0.894354600179083
4269000000.0 0.5560750055596118 -0.8456883712188725
4272000000.0000005 0.5462625933620556 -0.8587373839887757
4275000000.0000005 0.549447086396035 -0.8484470044643414
4277999999.9999995 0.5452047109986191 -0.8787347666948966
4280999999.9999995 0.5537815451493603 -0.8496014739588571
4284000000.0 0.5337415351352186 -0.8980322994084822
4288000000.0000005 0.5568107285014247 -0.845987998228046
4291000000.0000005 0.5446177323372264 -0.8397202142023675
4293999999.9999995 0.5360997591776038 -0.8712639751232081
4297000000.0 0.5721882480495631 -0.8391223808804853
4300000000.0 0.5500777884795744 -0.8653883457776951
4303000000.0 0.5286999428269026 -0.8469148935093677
4306000000.0 0.592730733956081 -0.8567065951022886
4309000000.0 0.5328138028501199 -0.8456736426084503
4312000000.0 0.5978983974560449 -0.8782142868059521
4316000000.0 0.5631419577799686 -0.8855840979101209
4319000000.0 0.549637101066125 -0.8411495721980212
4322000000.0 0.5136214122240413 -0.8631593074285524
4325000000.0 0.5636495498548224 -0.8733495951363484
4328000000.0 0.5523821587733616 -0.8493342991918229
4331000000.0 0.51980852381459 -0.8685265126778253
4334000000.0 0.5344754933765206 -0.8836866990200888
4338000000.0 0.56458398569027 -0.8350517477635141
4341000000.0 0.5987221925311226 -0.8548045863257028
4344000000.0 0.5607813668538874 -0.8674188394545381
4347000000.0 0.5173102760516279 -0.8952830300284164
4350000000.0 0.5203692280712789 -0.847629038055719
4353000000.0 0.5385379660104631 -0.8236811173608212
4356000000.0 0.523967785531438 -0.8653358573074513
4359000000.0 0.5105650450119412 -0.8171877068209661
4362000000.0 0.49366854186068854 -0.8877474547194223
4366000000.0 0.5464791906005133 -0.8836129935965945
4369000000.0 0.50941031986283 -0.8289298255091905
4372000000.0 0.5013572414534979 -0.8641045693847607
4375000000.0 0.5350268484144368 -0.8472161430281774
4378000000.0 0.5274118504713545 -0.8390904338017863
4381000000.0 0.5160306445619224 -0.8430965526762221
4384000000.0 0.5692353802108493 -0.9330583481765437
4388000000.0 0.5214912315823844 -0.8373832852334352
4391000000.0 0.5477619733759764 -0.8727315046799139
4394000000.0 0.5255115872935214 -0.8427002428229106
4397000000.0 0.5284592896858901 -0.8499275238937909
4400000000.0 0.5366128745310688 -0.8868132029995113
4403000000.0 0.5353383706148335 -0.8492162932832388
4406000000.0 0.5122724071726901 -0.8841598329469029
4409000000.0 0.5376881833956576 -0.8970844188543264
4412000000.0 0.4866774562687917 -0.877651046890098
4416000000.0 0.5171782857778999 -0.8583025176009397
4419000000.0 0.5128690483134714 -0.8681010196692518
4422000000.0 0.5490366306419039 -0.8479179700845084
4425000000.0 0.552543067568662 -0.8767004238973956
4428000000.0 0.5179650954589958 -0.8662890113039593
4431000000.0 0.546042191244281 -0.8738158494714412
4434000000.0 0.5266681402379528 -0.8652909910016396
4438000000.0 0.5360933068781525 -0.874993410878798
4441000000.0 0.5425703689230427 -0.8805189823233153
4444000000.0 0.5134921167610856 -0.8565948168293487
4447000000.0 0.508995221022154 -0.8612883949885277
4450000000.0 0.5333406390041086 -0.8460689110286685
4453000000.0 0.5427458066559003 -0.8880109176952362
4456000000.0 0.5054328599722766 -0.8521336653932241
4459000000.0 0.48827574937996 -0.8385073141935089
4462000000.0 0.56028068345179 -0.9176105147128004
4466000000.0 0.5450910975390777 -0.9003338669434662
4469000000.0 0.5398139728989938 -0.8488645918403543
4472000000.0 0.510336610272915 -0.8922709283096869
4475000000.0 0.5139242903198398 -0.8457077057760698
4478000000.0 0.5179467742946166 -0.9227868811003529
4481000000.0 0.49788496325138965 -0.853214622087945
4484000000.0 0.47991763280520394 -0.8954650553053041
4488000000.0 0.49327295979837776 -0.8740987710333914
4491000000.0 0.5078562600541103 -0.8815990067105778
4494000000.0 0.5172189316053417 -0.8610351688542197
4497000000.0 0.5305256195632706 -0.855039442332596
4500000000.0 0.5153519833274154 -0.8537413268435856
4503000000.0 0.5304879310554146 -0.8856508743756426
4506000000.0 0.5020109580325227 -0.8720222726783322
4509000000.0 0.5017434671838348 -0.8731522358995483
4512000000.0 0.5087121632604302 -0.860601879129262
4516000000.0 0.5363284129883031 -0.8818198457359809
4519000000.0 0.5095152675274274 -0.8409259497026922
4522000000.0 0.5005822413607982 -0.8750333275559878
4525000000.0 0.5434866918636846 -0.840344368623267
4528000000.0 0.5107559995978912 -0.8761877128431407
4531000000.0 0.5197729868641644 -0.8727714293834588
4534000000.0 0.4970782913297286 -0.8502539131710589
4538000000.0 0.5250420983671097 -0.8714005221342951
4541000000.0 0.469294987636476 -0.8760720424902737
4544000000.0 0.51757668752832 -0.8558708617776896
4547000000.0 0.5359665292268498 -0.8597246731906122
4550000000.0 0.5014134754504112 -0.9070511674833974
4553000000.0 0.5315063594762447 -0.8795570067632807
4556000000.0 0.4822517789466781 -0.8651582822737955
4559000000.0 0.5140975758142142 -0.8658506404015691
4562000000.0 0.5258013650151998 -0.8799876917602132
4566000000.0 0.509260192849248 -0.8790490542871294
4569000000.0 0.4971998648152906 -0.8574649899321531
4572000000.0 0.5012923925771362 -0.867113857482975
4575000000.0 0.4858828424907543 -0.8840679675823262
4578000000.0 0.5390319805765678 -0.8845288755304193
4581000000.0 0.4813107226676384 -0.8913635289318789
4584000000.0 0.5057249344462698 -0.8658471144815147
4588000000.0 0.5236124611223691 -0.8786149599563495
4591000000.0 0.520623414625034 -0.8707803791715842
4594000000.0 0.510878624168423 -0.8845610578138998
4597000000.0 0.49982555922587457 -0.8864536435739838
4600000000.0 0.47769241353815584 -0.8681840405660741
4603000000.0 0.5011713756014703 -0.8948589979230744
4606000000.0 0.4925510506365453 -0.892141935413893
4609000000.0 0.5012263479863532 -0.8841088128509372
4612000000.0 0.4996368977933232 -0.8985261201536061
4616000000.0 0.4981687261617814 -0.8686254568521938
4619000000.0 0.5019502075836177 -0.8958035110765192
4622000000.0 0.49653664447738116 -0.8893575787370813
4625000000.0 0.48005975097468523 -0.8671235383618455
4628000000.0 0.5046500003425153 -0.8632013519279458
4631000000.0 0.49464008280594407 -0.8939492330479595
4634000000.0 0.49024910820145573 -0.8803419837312352
4638000000.0 0.5099143710612744 -0.8840745430155701
4641000000.0 0.5015672036800625 -0.9003406294107527
4644000000.0 0.5066001006680916 -0.8918823666176942
4647000000.0 0.5107075677001544 -0.8829094663960655
4650000000.0 0.49432686491251243 -0.8911654042311146
4653000000.0 0.5123882320391383 -0.8984730729753461
4656000000.0 0.4956041847937492 -0.9040884428615132
4659000000.0 0.48149710833649595 -0.8674175474164114
4662000000.0 0.4852152402823953 -0.9056457088468924
4666000000.0 0.4954230358340916 -0.8760431038242004
4669000000.0 0.5147684643905877 -0.8920016921827169
4672000000.0 0.47224356956773234 -0.9157077261554716
4675000000.0 0.47567279275977536 -0.8997934414099085
4678000000.0 0.4609074677727094 -0.8556450371498953
4681000000.0 0.4835495646038709 -0.9032343922092336
4684000000.0 0.47678331739605806 -0.9152376476488753
4688000000.0 0.4774455404761531 -0.8740866922152253
4691000000.0 0.5270316847041164 -0.8864679186266018
4694000000.0 0.49977909849837265 -0.8676519919088956
4697000000.0 0.46601545666837846 -0.8592367816845378
4700000000.0 0.4957564099973825 -0.8962189097245034
4703000000.0 0.48376711545167006 -0.8485894415680815
4706000000.0 0.4926521838289545 -0.9194975665942556
4709000000.0 0.47154626221983315 -0.9072704600808332
4712000000.0 0.4969647816393218 -0.8980808766320426
4716000000.0 0.4849090520593708 -0.9035383735959968
4719000000.0 0.5043945248505141 -0.8882328213681422
4722000000.0 0.5278932596235395 -0.8870417975759303
4725000000.0 0.4737500424738193 -0.8960288785948018
4728000000.0 0.47831868808782463 -0.9046346307586924
4731000000.0 0.5115807240833183 -0.9262559535842901
4734000000.0 0.49984949496235004 -0.846393326962842
4738000000.0 0.527164417040829 -0.921224306100537
4741000000.0 0.49611891168786176 -0.9410173325423873
4744000000.0 0.4761365838550388 -0.8974159766087848
4747000000.0 0.4766712502541716 -0.8940762398770057
4750000000.0 0.5129370138187368 -0.888443517544377
4753000000.0 0.5154492896258427 -0.9055768821826115
4756000000.0 0.47789349147530696 -0.9027792471120962
4759000000.0 0.5013237466988514 -0.9238531440457336
4762000000.0 0.48411326873848526 -0.937548246322367
4766000000.0 0.5006521986685164 -0.9122926595337975
4769000000.0 0.5083385421911335 -0.8995619275154323
4772000000.0 0.5090310801493956 -0.9145301138556159
4775000000.0 0.47978306302840057 -0.9400106443728099
4778000000.0 0.47991182711008534 -0.9127297615472816
4781000000.0 0.48905400904222984 -0.8762152042652642
4784000000.0 0.5038110600115587 -0.8816915001868463
4788000000.0 0.4730422785913641 -0.920967091009656
4791000000.0 0.49191163433651963 -0.8873558703555341
4794000000.0 0.5403527156673894 -0.9157417596989539
4797000000.0 0.4898342835590642 -0.8931106810146762
4800000000.0 0.47996486154188817 -0.890306338855537
4803000000.0 0.4262453628917161 -0.9124697487584257
4806000000.0 0.4758061706707305 -0.8957455759958806
4809000000.0 0.4477043999204374 -0.9039255225747715
4812000000.0 0.4349664713946886 -0.9165686714129888
4816000000.0 0.5049627523496925 -0.8675575067710216
4819000000.0 0.5095979621653013 -0.9145697439074371
4822000000.0 0.5378288568385964 -0.901300188072597
4825000000.0 0.5352719814555842 -0.9023231034490695
4828000000.0 0.4828854460368802 -0.8938403536008421
4831000000.0 0.4481234406220006 -0.949820916125962
4834000000.0 0.4974857960253951 -0.8834225289578735
4838000000.0 0.47612818061084083 -0.9157993061235383
4841000000.0 0.4705193480232779 -0.8979993290887585
4844000000.0 0.5052942985434958 -0.8944382844736671
4847000000.0 0.5015559497210373 -0.8616535117001191
4850000000.0 0.47142315452071215 -0.9323869806857933
4853000000.0 0.495590020367648 -0.8862319272227327
4856000000.0 0.48346910286947975 -0.8871033687371074
4859000000.0 0.5016336754908978 -0.9181756801155808
4862000000.0 0.5126402670977833 -0.8736951653209687
4866000000.0 0.4857785354901641 -0.9059790008882953
4869000000.0 0.4896949702465933 -0.8976714614926982
4872000000.0 0.4861345533745088 -0.9576879798679949
4875000000.0 0.5706827813039852 -0.9244957106554692
4878000000.0 0.49209079056165594 -0.9101235928184793
4881000000.0 0.48770388072230625 -1.000371422457996
4884000000.0 0.5175907777528099 -0.9091102704895775
4888000000.0 0.4872545784560646 -0.8870086716073489
4891000000.0 0.5366667380791443 -0.9113029446251536
4894000000.0 0.47887452523755325 -0.9136388386313341
4897000000.0 0.5012686646568616 -0.8736120707418467
4900000000.0 0.5046579077618547 -0.918947254527261
4903000000.0 0.5111267467791428 -0.9242359142993528
4906000000.0 0.5158479739111221 -0.9160276485252525
4909000000.0 0.5156802495532156 -0.9180198176276643
4912000000.0 0.5002646913697496 -0.9573854243934761
4916000000.0 0.5172832906855442 -0.8953770472079644
4919000000.0 0.5420054513055966 -0.8996402446393039
4922000000.0 0.5473735604569504 -0.903661629125679
4925000000.0 0.428924132790656 -0.9221819604533606
4928000000.0 0.5391539437662958 -0.9083070497543978
4931000000.0 0.5576346423196988 -0.8840351885083836
4934000000.0 0.4881104309155662 -0.8845053819975103
4938000000.0 0.499692327848215 -0.9301528751603072
4941000000.0 0.5441602744418941 -0.8631767213346289
4944000000.0 0.5146432636269341 -0.8372958268420687
4947000000.0 0.4880532966649403 -0.8712233391449066
4950000000.0 0.516753344316336 -0.8830261952994671
4953000000.0 0.48312682898140147 -0.9606252945711488
4956000000.0 0.4420042806641599 -0.895320710589251
4959000000.0 0.46460329543441214 -0.901537000241173
4962000000.0 0.5098631635976201 -0.9470191285449506
4966000000.0 0.5206528684252096 -0.9404664846066855
4969000000.0 0.5218013440111576 -0.9525405917089833
4972000000.0 0.48395380865323157 -0.9168234270249624
4975000000.0 0.5440507800048863 -0.8859508349165167
4978000000.0 0.4897193931793179 -0.9089022788087162
4981000000.0 0.4800836395734976 -0.9225283122893662
4984000000.0 0.49136628046755465 -0.8669533766544311
4988000000.0 0.518144190111712 -0.8993769662214679
4991000000.0 0.5818630132252698 -0.8841464588399153
4994000000.0 0.5017663816704925 -0.8656682575168131
4997000000.0 0.4658856029699876 -0.9253290495743922
5000000000.0 0.5354607408544195 -0.9345883727018658
5003000000.0 0.5447849787163812 -0.9549152322110983
5006000000.0 0.4972734040484128 -0.9541090168049725
5009000000.0 0.5048314653868868 -0.893255545456207
5012000000.0 0.45825464724996934 -0.8832333225107041
5016000000.0 0.5577413675906797 -0.9367932460165628
5019000000.0 0.507760772972732 -0.9151741164835909
5022000000.0 0.5195490258153326 -0.9120247515704939
5025000000.0 0.5293878570394476 -0.9784115157227462
5028000000.0 0.5164579985823685 -0.9189210688871791
5031000000.0 0.5023081534113697 -0.9288090808519812
5034000000.0 0.4959652483874636 -0.9503195843110135
5038000000.0 0.46671730541496836 -0.8783625222849055
5041000000.0 0.5430965387244036 -0.9202598031862965
5044000000.0 0.5175958214756845 -0.8539274235217271
5047000000.0 0.5379675139022126 -0.8955334061553866
5050000000.0 0.5664609415716708 -0.8416151657276068
5053000000.0 0.5352975555247934 -0.97042196810458
5056000000.0 0.5856870692293377 -0.9050161217499206
5059000000.0 0.5448705786497445 -0.8762277488393964
5062000000.0 0.4671776175344664 -0.9460543964782693
5066000000.0 0.5599982970853171 -0.8687144847835093
5069000000.0 0.5101840402870458 -0.9335079412303713
5072000000.0 0.5004595165035209 -0.8821120082593052
5075000000.0 0.5715034031483477 -0.9040091382588572
5078000000.0 0.5240676827223338 -0.9225778833443699
5081000000.0 0.5113344027914231 -0.9002191406026563
5084000000.0 0.5259293002953281 -0.9268556761727429
5088000000.0 0.5655242766625118 -0.8855748233908624
5091000000.0 0.505097481624424 -0.9237414359245391
5094000000.0 0.5340364372443851 -0.9346847870315195
5097000000.0 0.512092480895788 -0.8645488609858518
5100000000.0 0.5193609860423791 -0.8798210984365162
5103000000.0 0.5174251184547032 -0.9694912004025733
5106000000.0 0.5619935040915116 -0.9633898885577188
5109000000.0 0.5456652888637287 -0.8844203558304479
5112000000.0 0.5340880073120979 -0.9029161345192784
5116000000.0 0.5291392223770626 -0.8539397125809778
5119000000.0 0.5416581508389805 -0.9264422923960998
5122000000.0 0.4990999009664829 -0.8944146630144083
5125000000.0 0.5372844952541832 -0.885557194709061
5128000000.0 0.5557009968618529 -0.8896996611705983
5131000000.0 0.4939457607182827 -0.8892425716907129
5134000000.0 0.513125014004473 -0.8599792493034355
5138000000.0 0.5406219099161687 -0.8937185908128495
5141000000.0 0.5869774669793001 -0.9027929470929921
5144000000.0 0.5526725150337537 -0.8905301507924974
5147000000.0 0.5274970502861487 -0.9257200930805662
5150000000.0 0.5538699108638765 -0.8374415152482393
5153000000.0 0.5729538606045607 -0.9004692544519289
5156000000.0 0.5700915644812544 -0.8729578022906652
5159000000.0 0.5572352005466605 -0.9339808868813795
5162000000.0 0.5090860723642658 -0.8883046842772127
5166000000.0 0.4907756917931639 -0.8710907531342726
5169000000.0 0.5669267011058928 -0.9137235277211668
5172000000.0 0.5513402473635056 -0.882296707672384
5175000000.0 0.5868287313084586 -0.9237516711378897
5178000000.0 0.5207080202098255 -0.9323224534961637
