! Created with skrf 1.8.0 (http://scikit-rf.org).
# Hz S RI R 50.0 
!freq ReS11 ImS11
4000000000.0 0.5281723436932908 -0.9241649460507315
4003000000.0 0.5322495238930198 -0.9601282162788689
4006000000.0 0.47789551468853064 -0.9208668156183921
4009000000.0000005 0.4966989672117579 -0.9238241781864059
4011999999.9999995 0.5815732981663977 -0.9315446934800717
4016000000.0 0.5326888597028852 -0.9324765990915922
4019000000.0 0.4810463101853439 -0.9163612906957839
4022000000.0000005 0.5639460709918966 -0.8855932693155733
4025000000.0000005 0.4769891737479731 -0.94121788426833
4027999999.9999995 0.48335624760832113 -0.9087014750881621
4030999999.9999995 0.46507955192300127 -0.8623031282722778
4034000000.0 0.47721823424440935 -0.9014456717118184
4038000000.0000005 0.4636682713370572 -0.9274041402610581
4041000000.0000005 0.48791583953651674 -0.89319619746277
4043999999.9999995 0.5306016524603883 -0.9461340677952919
4046999999.9999995 0.5051050135593642 -0.9177896985875065
4050000000.0 0.48846686632097924 -0.9005414916664432
4053000000.0 0.46635776536164764 -0.9135697025790228
4056000000.0 0.5031008217623911 -0.9012502413659531
4059000000.0 0.4705407715428749 -0.9142796174214808
4062000000.0000005 0.4607663312340273 -0.9166684430538248
4066000000.0 0.44809091156445296 -0.8293534176931003
4069000000.0 0.4716628423593213 -0.9432067317292492
4072000000.0 0.5347391372402472 -0.8799233475835081
4075000000.0 0.5446995036891243 -0.9110877811755647
4078000000.0000005 0.47171702654415926 -0.9526722642444182
4081000000.0000005 0.546750311513631 -0.9133027219058801
4083999999.9999995 0.46813329083868627 -0.9455730107090461
4088000000.0 0.515673726577675 -0.9140427563167697
4091000000.0 0.4866668794997867 -0.9415355020906027
4094000000.0000005 0.511925678702927 -0.8896155081576288
4097000000.0000005 0.5129004411320778 -0.9208568022471728
4099999999.9999995 0.504882705576488 -0.9186663952222791
4102999999.9999995 0.5165613985018049 -0.9551144428999705
4106000000.0 0.48807449692373833 -0.9232916047488531
4109000000.0 0.46231437452405694 -0.9340160676663379
4112000000.0 0.5016703889483418 -0.9509891049611074
4115999999.9999995 0.5188983144376419 -0.8963087302640687
4119000000.0 0.4902938483236547 -0.9504581701514074
4122000000.0 0.49813679839935704 -0.9287204973751603
4125000000.0 0.4923370007458214 -0.9372166646059049
4128000000.0 0.4906319598800885 -0.8674458436597333
4131000000.0 0.48331795809660655 -0.8846065742865841
4134000000.0000005 0.4986432743002722 -0.8877513619700917
4138000000.0 0.4747144250227234 -0.9225098100023819
4141000000.0 0.5043539180937696 -0.9047248961726923
4144000000.0 0.49991600477012554 -0.8708048459896726
4147000000.0000005 0.4812941421409926 -0.9235144860609629
4150000000.0000005 0.5053401216440528 -0.9596727718815161
4152999999.9999995 0.4962194587928844 -0.8978245657015288
4155999999.9999995 0.5177759607859194 -0.931906218450649
4159000000.0 0.5014949739695951 -0.8981727850215308
4162000000.0 0.4990602757901114 -0.8804990675767436
4166000000.0000005 0.4879663286866696 -0.8969393288058729
4168999999.9999995 0.46111068596150645 -0.8870433781880088
4171999999.9999995 0.5249133791368251 -0.9039783788718678
4175000000.0 0.5004180874278104 -0.9012920371365694
4178000000.0 0.47838043244367856 -0.9023964491595824
4181000000.0 0.49228312587363865 -0.9247705434033987
4184000000.0 0.4917817385394001 -0.8941115766475475
4187999999.9999995 0.4921040716514858 -0.8845034113345775
4191000000.0 0.5098730570472929 -0.8902705175277835
4194000000.0 0.4812588258088467 -0.8890910482732646
4197000000.0 0.5225492754372058 -0.9159588633339252
4200000000.0 0.50171815063942 -0.9038021367729953
4203000000.0000005 0.4952612747562127 -0.8885963488351126
4206000000.0000005 0.5006864451444573 -0.9133804083980679
4208999999.9999995 0.4847925691476419 -0.9068140566036653
4211999999.9999995 0.45821332426827033 -0.893889116712696
4216000000.0 0.5131713069100026 -0.8895427834696288
4219000000.0000005 0.5147032550122468 -0.9035629166712584
4222000000.0000005 0.486150837605162 -0.9180384062547267
4224999999.9999995 0.4840852450568933 -0.8780552419222546
4227999999.9999995 0.4904650412971532 -0.899152761795389
4231000000.0 0.48332116366005556 -0.9035896921091148
4234000000.0 0.5097444013840731 -0.9134116470640252
4238000000.0000005 0.476459460261289 -0.9052128113823357
4240999999.9999995 0.4774028689685359 -0.8974565598377429
4244000000.0 0.5022508619575416 -0.8977479955436085
4247000000.0 0.4930335751474123 -0.8876706896207172
4250000000.0 0.4726093326768682 -0.8850947199612887
4253000000.0 0.4526529750835365 -0.8829237162480725
4256000000.0 0.49024651008441833 -0.9241212414843064
4259000000.0000005 0.4680832431618156 -0.8735936471321933
4261999999.9999995 0.48316277647607897 -0.8960703787723577
4266000000.0 0.48942185952840345 -0.9359327497236478
4269000000.0 0.514524353710686 -0.8955297461570874
4272000000.0000005 0.48654455835434335 -0.8836311448956201
4275000000.0000005 0.48052648716752927 -0.9030061795703028
4277999999.9999995 0.5069756147936578 -0.9177652400898911
4280999999.9999995 0.4650349268864306 -0.8931255939067361
4284000000.0 0.43988317343537536 -0.8985663055207205
4288000000.0000005 0.5138378882169827 -0.8916951722489198
4291000000.0000005 0.4687294120463765 -0.8758834267235116
4293999999.9999995 0.46999756044750884 -0.9043408989773027
4297000000.0 0.4902764248726953 -0.871266252671453
4300000000.0 0.4664191346985965 -0.8832117223585905
4303000000.0 0.4623996735790811 -0.9024464443884518
4306000000.0 0.4928190199847497 -0.8769119378594081
4309000000.0 0.48279096171562036 -0.893791784178281
4312000000.0 0.5253134632918905 -0.9063230555815162
4316000000.0 0.5026411614044727 -0.8988178612760818
4319000000.0 0.5122155985971438 -0.8796039941888447
4322000000.0 0.4647061775323994 -0.8983666713263713
4325000000.0 0.4878045116575982 -0.8918922888631524
4328000000.0 0.4900189699230691 -0.8719693624043613
4331000000.0 0.4509861949023444 -0.9060438577014136
4334000000.0 0.4653595805399387 -0.9190039253462919
4338000000.0 0.5013682191989838 -0.891923300163722
4341000000.0 0.5114756657214179 -0.8881769859977916
4344000000.0 0.49103145762648254 -0.9036803598165954
4347000000.0 0.44892643700347884 -0.9184049292882142
4350000000.0 0.4295490634359892 -0.8812759153245237
4353000000.0 0.4596928628454181 -0.8521792786051299
4356000000.0 0.4616249939250237 -0.899823537273203
4359000000.0 0.4545111923491656 -0.8510012258618703
4362000000.0 0.432229915649861 -0.9295705095831853
4366000000.0 0.46826927123265494 -0.9105210556676787
4369000000.0 0.45895806055918964 -0.869995792711476
4372000000.0 0.44503404022316617 -0.9087562730635174
4375000000.0 0.4645710361079614 -0.8829194569350639
4378000000.0 0.4563057855036242 -0.8748998848233989
4381000000.0 0.4791581379518528 -0.8689569265930067
4384000000.0 0.4736122283261247 -0.9482717456129022
4388000000.0 0.46572132245981046 -0.8744666220597935
4391000000.0 0.4799956905924663 -0.9016793561344927
4394000000.0 0.46005563559340745 -0.8620113682119193
4397000000.0 0.4559901841588966 -0.9028091566817352
4400000000.0 0.4889020831951826 -0.9262176094247146
4403000000.0 0.4660189970988028 -0.9153025347525798
4406000000.0 0.45776500793792374 -0.9047799298208019
4409000000.0 0.47580082485300007 -0.9374307926890684
4412000000.0 0.40632255005827567 -0.9140439761502988
4416000000.0 0.4455978560650334 -0.895634350507093
4419000000.0 0.440000486115083 -0.910489581568173
4422000000.0 0.47014230525527173 -0.8893814293889095
4425000000.0 0.4966217906801849 -0.904776596444925
4428000000.0 0.4550656712420863 -0.9021340074501694
4431000000.0 0.4866772179152271 -0.9211105886927067
4434000000.0 0.4479551819230526 -0.8995594209724529
4438000000.0 0.4663806268474524 -0.930461601319271
4441000000.0 0.4613481222821961 -0.9201397722799313
4444000000.0 0.451071876531353 -0.875832704822947
4447000000.0 0.4356231269195469 -0.9080171304295688
4450000000.0 0.4576989618664235 -0.8833555213540355
4453000000.0 0.47430416225476435 -0.928544815012957
4456000000.0 0.4256195267345065 -0.895879298951887
4459000000.0 0.41564785616494676 -0.8700742909871511
4462000000.0 0.4726604275838628 -0.9640662304981826
4466000000.0 0.4633652973052087 -0.9503507284649487
4469000000.0 0.469119288135378 -0.9057789237309257
4472000000.0 0.43965644149238237 -0.939327566715503
4475000000.0 0.43774727623480625 -0.8921004980758522
4478000000.0 0.46414603651229863 -0.9569181839643144
4481000000.0 0.4395793037013061 -0.8808615240228729
4484000000.0 0.4058364621223475 -0.9329079626112085
4488000000.0 0.42988957230678476 -0.897498259597437
4491000000.0 0.44627085731155347 -0.9260957630217916
4494000000.0 0.4508776939953464 -0.883866965612516
4497000000.0 0.46315174156603306 -0.9018842270466833
4500000000.0 0.449327197191089 -0.8998935263705814
4503000000.0 0.4503461679252647 -0.9402513452064976
4506000000.0 0.4395743849387799 -0.8958941777354825
4509000000.0 0.430913709130274 -0.8957425150581766
4512000000.0 0.4276011233998218 -0.9109001887255275
4516000000.0 0.445262343021728 -0.9346798804637473
4519000000.0 0.4449604592233276 -0.8879693165401492
4522000000.0 0.4324743198188042 -0.899481888080943
4525000000.0 0.48003722635182916 -0.9167422917465131
4528000000.0 0.43893203955778703 -0.9267789428059521
4531000000.0 0.43096008057280877 -0.9126859628692994
4534000000.0 0.41034109355209025 -0.8889939204847281
4538000000.0 0.43103716681340537 -0.9147224614817971
4541000000.0 0.37289760872737 -0.9122740127844938
4544000000.0 0.4304187184225933 -0.8964026742216382
4547000000.0 0.4475326122691286 -0.9058025525962302
4550000000.0 0.43945673615186914 -0.9496849349386185
4553000000.0 0.43948446401327945 -0.9195058935647419
4556000000.0 0.41233421022489875 -0.9037834246264035
4559000000.0 0.42097888740186507 -0.9183924566355885
4562000000.0 0.4432856579306062 -0.9179212550289029
4566000000.0 0.4363116890392734 -0.9292250733025043
4569000000.0 0.4280480805511886 -0.90509022994761
4572000000.0 0.4258571517009212 -0.909583643473074
4575000000.0 0.4250499391497008 -0.9284863363115087
4578000000.0 0.45645038460891896 -0.9184830050758278
4581000000.0 0.4172868006212751 -0.9307199768773913
4584000000.0 0.40778080557271545 -0.9267800724428925
4588000000.0 0.44468051820952814 -0.9134292613022951
4591000000.0 0.4423896130252254 -0.9042635551216651
4594000000.0 0.40107257229544324 -0.9211377622858223
4597000000.0 0.4235714752675548 -0.9312071995249602
4600000000.0 0.4017141508964034 -0.9318487414150013
4603000000.0 0.4251969663054562 -0.9284140032623572
4606000000.0 0.4196085468886312 -0.9392749407197798
4609000000.0 0.43581724512221043 -0.9190362929340655
4612000000.0 0.4036049646468519 -0.9369479923210462
4616000000.0 0.40326964486523253 -0.9130907083738236
4619000000.0 0.414049692467867 -0.9201735940456036
4622000000.0 0.4143485667346718 -0.9409479846893974
4625000000.0 0.3950157878848638 -0.9225005417588739
4628000000.0 0.4395282742758826 -0.9140847513789307
4631000000.0 0.4036117430271078 -0.9190013302743376
4634000000.0 0.41715243372382205 -0.9201865711148741
4638000000.0 0.4034662534907303 -0.9209761898423575
4641000000.0 0.41349685158942107 -0.9031604638524773
4644000000.0 0.4206451871906491 -0.9210813183433331
4647000000.0 0.418552027171752 -0.9115745839928522
4650000000.0 0.3907926548100485 -0.9214321578356746
4653000000.0 0.43924927855445195 -0.9333160432510493
4656000000.0 0.3951268159753248 -0.9290502403364241
4659000000.0 0.40166452674041364 -0.9367292169486686
4662000000.0 0.4023386304533708 -0.9543889796940745
4666000000.0 0.39949892414096416 -0.9333018547361677
4669000000.0 0.40841598637943716 -0.9087972460033467
4672000000.0 0.38645278358160784 -0.9522793704866588
4675000000.0 0.40063424277006826 -0.9148955653607697
4678000000.0 0.37979279453893044 -0.9004375297555562
4681000000.0 0.38631670978403065 -0.9455148825693176
4684000000.0 0.36939869327355146 -0.9663135326734004
4688000000.0 0.37688961624285267 -0.9624370579678887
4691000000.0 0.4420179488177584 -0.9464341221631317
4694000000.0 0.4072347249344766 -0.9144400195871955
4697000000.0 0.36939326124504934 -0.9125022858959421
4700000000.0 0.39967084587479057 -0.9047589042323665
4703000000.0 0.41640067617226145 -0.8938041341417217
4706000000.0 0.3880491063545475 -0.9431291034379381
4709000000.0 0.39508012019898087 -0.9472815764437468
4712000000.0 0.4073848859396887 -0.9405781758832967
4716000000.0 0.3981772188946871 -0.9474127545645121
4719000000.0 0.4187066143188905 -0.9271658554123915
4722000000.0 0.42140165785288114 -0.9278735365088452
4725000000.0 0.4028736241278464 -0.9245099142719396
4728000000.0 0.40782144598916764 -0.9450342582698401
4731000000.0 0.4282744942121769 -0.9479286141344512
4734000000.0 0.4043174517852509 -0.9054698524340307
4738000000.0 0.4606141212843554 -0.9714868774692403
4741000000.0 0.402402745526929 -0.9604250737092489
4744000000.0 0.36349221066670684 -0.9243439199211964
4747000000.0 0.4082907606364249 -0.9022729502832539
4750000000.0 0.39631577869263296 -0.9416903238413896
4753000000.0 0.3960218068924954 -0.9414489931784213
4756000000.0 0.39498982456447695 -0.9596078484558452
4759000000.0 0.3959806135843294 -0.9582368512768475
4762000000.0 0.37989242173423954 -0.9835815778629262
4766000000.0 0.3769532865424106 -0.9426498126876683
4769000000.0 0.3729190428719317 -0.9514063107877759
4772000000.0 0.37680388457825453 -0.9900174123250973
4775000000.0 0.38416636415156014 -0.9992463900294246
4778000000.0 0.4009958173119924 -0.963002657051253
4781000000.0 0.41400999750869455 -0.932126509654595
4784000000.0 0.3889385662229372 -0.9366239184561346
4788000000.0 0.3638779503764096 -0.9528894965427884
4791000000.0 0.3715070865011496 -0.915242018948208
4794000000.0 0.434989726081159 -0.9716262295339384
4797000000.0 0.3776621894771604 -0.909129012076711
4800000000.0 0.3679721229530793 -0.9366734140672281
4803000000.0 0.3421794944280834 -0.9516625804336216
4806000000.0 0.37887126048800757 -0.9527349614488826
4809000000.0 0.3209178142417051 -0.9738992953948035
4812000000.0 0.3587062884847947 -0.9746659237812981
4816000000.0 0.4025266990686664 -0.9120427227779825
4819000000.0 0.4098356653007167 -0.9652321753899091
4822000000.0 0.41652790893046343 -0.9804756913635585
4825000000.0 0.4340461533509632 -0.9654170345886757
4828000000.0 0.3864917335858787 -0.9643836542084828
4831000000.0 0.341917536078094 -0.9928526101385489
4834000000.0 0.40496023067196185 -0.9493595269542897
4838000000.0 0.34817065909839723 -0.992252158470504
4841000000.0 0.3705942933855587 -0.9453040472777628
4844000000.0 0.4092251867471508 -0.9450326171260174
4847000000.0 0.40139295356499827 -0.9190950541999379
4850000000.0 0.39622319376250886 -0.9675339882998716
4853000000.0 0.3681563689951791 -0.9220603001361268
4856000000.0 0.3782074112488259 -0.941193905596484
4859000000.0 0.3986952813101804 -1.008922403745319
4862000000.0 0.41163534086115794 -0.9321719434927341
4866000000.0 0.3603167595507377 -0.9733455191452706
4869000000.0 0.3742299909160067 -0.9566868926896718
4872000000.0 0.3775087360025011 -1.0001031115092722
4875000000.0 0.45344748901342524 -0.9695575177625798
4878000000.0 0.3873809219113955 -0.9590080019110732
4881000000.0 0.3753516368344346 -1.0116159235074276
4884000000.0 0.3900470581823 -0.9502662279133224
4888000000.0 0.43869375674262795 -0.9683420434507898
4891000000.0 0.4089901639203102 -0.9758568744791307
4894000000.0 0.3717286342583214 -0.9620055669223325
4897000000.0 0.3985431109186903 -0.9291874546630803
4900000000.0 0.3974673000599404 -0.9825664103723712
4903000000.0 0.40198602497622454 -0.9554824935868401
4906000000.0 0.37698617414060825 -1.0112808912618396
4909000000.0 0.36991778713822965 -0.965205612346362
4912000000.0 0.3963529439463753 -1.0163188749867982
4916000000.0 0.44185986171450303 -1.004546154194565
4919000000.0 0.4209583257765009 -0.9790124812757538
4922000000.0 0.404718887552292 -0.9736394284545511
4925000000.0 0.37963697253189177 -0.9671758931980031
4928000000.0 0.44690389808073455 -0.9459249778593903
4931000000.0 0.4294088453592189 -0.9520874487033927
4934000000.0 0.38691507519536245 -0.916261732742698
4938000000.0 0.3342146180558667 -0.975356306116543
4941000000.0 0.38540351338216683 -0.9358269073138512
4944000000.0 0.40232117359704134 -0.8815108675233769
4947000000.0 0.35991230998675217 -0.9497221248888524
4950000000.0 0.3870020770820045 -0.9178279048738075
4953000000.0 0.3527039405315816 -0.9969422608092418
4956000000.0 0.36417178450876386 -0.9696194946363886
4959000000.0 0.3473096308412901 -0.9564275200382965
4962000000.0 0.39786002230230433 -0.9785091295199709
4966000000.0 0.4266185132237301 -0.9881643673430884
4969000000.0 0.4306835776737289 -1.0052843405843988
4972000000.0 0.3820088207642888 -0.9968743354758356
4975000000.0 0.4032131178420038 -0.9531958236014448
4978000000.0 0.37305267322091173 -0.9855226696609999
4981000000.0 0.36372878419791344 -0.9949809026379517
4984000000.0 0.3789440521441566 -0.9071150181454608
4988000000.0 0.40563512902060894 -0.9618278737057475
4991000000.0 0.44138320553566635 -0.9357011447623577
4994000000.0 0.40480802632254087 -0.9221465346244615
4997000000.0 0.3440612730943581 -0.9672824071716979
5000000000.0 0.3982485617432498 -0.9679413549006284
5003000000.0 0.4155099471377214 -0.9757423024637495
5006000000.0 0.39623217024154656 -1.0158329607229124
5009000000.0 0.385459535153922 -0.9263668097585773
5012000000.0 0.4108912774578283 -0.9825238675714261
5016000000.0 0.44223470774025364 -0.9779346236346613
5019000000.0 0.33063989398535004 -0.9587045356888977
5022000000.0 0.38249997536800706 -0.982531525506374
5025000000.0 0.38965475582114245 -1.0309584140934953
5028000000.0 0.36711043540531135 -0.9738335222823868
5031000000.0 0.36744712006617625 -0.9617516038041704
5034000000.0 0.37134258035065176 -0.9864715782986146
5038000000.0 0.3614293861364476 -0.9588021211335825
5041000000.0 0.4173349613466262 -0.9512206059014703
5044000000.0 0.411985019541003 -0.9387052526236392
5047000000.0 0.4050648960600558 -0.9915538320645949
5050000000.0 0.47010299927251936 -0.9088380291056661
5053000000.0 0.40202839428637005 -1.0166131117626234
5056000000.0 0.39559010044104753 -0.9446084507384631
5059000000.0 0.43810062110259573 -0.9119477253394965
5062000000.0 0.35892191662757567 -1.0009288203725166
5066000000.0 0.45000534992063934 -0.9520678146744073
5069000000.0 0.407327018315765 -0.9601676431010723
5072000000.0 0.3823083574117041 -0.9489813551403532
5075000000.0 0.43746504048687046 -0.9240818365903548
5078000000.0 0.3518139087436489 -1.017207421819585
5081000000.0 0.3487391654749617 -0.9503538777416374
5084000000.0 0.4023749788615305 -0.9891403635543695
5088000000.0 0.40524955483067815 -0.9910786820725657
5091000000.0 0.34093734923432606 -0.9624611385713562
5094000000.0 0.41783607858856836 -0.9970622455057365
5097000000.0 0.4211153783670388 -0.9214199919086101
5100000000.0 0.40973272313164855 -0.9760119246924781
5103000000.0 0.35576796663214816 -0.9703939819414052
5106000000.0 0.4180600591017407 -0.9630473153650102
5109000000.0 0.49473925930802654 -0.9545615339165763
5112000000.0 0.3854129172114663 -0.9666572358356924
5116000000.0 0.37353553286912566 -0.9577717423547966
5119000000.0 0.35930085585380084 -0.9336145741851866
5122000000.0 0.38627665500528274 -0.998578236278254
5125000000.0 0.4461671407557328 -0.9605222088057117
5128000000.0 0.3627716008910003 -0.9432514126004269
5131000000.0 0.381184319995359 -0.963980132381351
5134000000.0 0.41792273647067407 -0.9614231888085386
5138000000.0 0.4186806442348271 -0.9570362523865774
5141000000.0 0.48528941801922154 -0.9322027892541991
5144000000.0 0.4493666084719297 -0.9608202752878796
5147000000.0 0.39209790143308415 -0.955094165497757
5150000000.0 0.44999571015277473 -1.0130230741721862
5153000000.0 0.4151098555489531 -0.9703693240419871
5156000000.0 0.42626281529151544 -0.9497374568501517
5159000000.0 0.4439274151947164 -1.0225040546757136
5162000000.0 0.3938830233280348 -0.982973745395702
5166000000.0 0.406011781003875 -0.9628433635930058
5169000000.0 0.4219139794555438 -0.9554890646361174
5172000000.0 0.4125995324399626 -0.952443641588409
