! Created with skrf 1.8.0 (http://scikit-rf.org).
# Hz S RI R 50.0 
!freq ReS11 ImS11
4000000000.0 0.5712999834052401 -0.9304865984223625
4003000000.0 0.5842896410745722 -0.9250422410857084
4006000000.0 0.5203831049783217 -0.8853725336306784
4009000000.0000005 0.5691452059236157 -0.8976604645341646
4011999999.9999995 0.6202072147351343 -0.8840813100517448
4016000000.0 0.5015645228107312 -0.9191143348325684
4019000000.0 0.5531931420239315 -0.8753791645588205
4022000000.0000005 0.612782854609509 -0.8892781951062825
4025000000.0000005 0.5555040793633915 -0.9007743012114288
4027999999.9999995 0.5348490025761136 -0.9383001991254392
4030999999.9999995 0.5056496106940296 -0.8290446150464482
4034000000.0 0.5079416767650258 -0.895456044115942
4038000000.0000005 0.5552592945299427 -0.9144356076261648
4041000000.0000005 0.5573258384089073 -0.9012719487281061
4043999999.9999995 0.5831269640277412 -0.9594099446916468
4046999999.9999995 0.6087792903781927 -0.951546156113534
4050000000.0 0.5890343882152719 -0.945868400629792
4053000000.0 0.5337891084807392 -0.8829038306290203
4056000000.0 0.5339352036134197 -0.8810025839748401
4059000000.0 0.5823528948592537 -0.8465121269116782
4062000000.0000005 0.517195162191106 -0.9353991804887579
4066000000.0 0.5293211989664508 -0.8306148923084143
4069000000.0 0.5441203716651373 -0.8902470719780857
4072000000.0 0.5536128066701481 -0.8649597433268207
4075000000.0 0.6254001257845739 -0.9016630671234702
4078000000.0000005 0.5560008946812783 -0.9225527005162726
4081000000.0000005 0.6219065701757116 -0.9049252066128479
4083999999.9999995 0.5043445166912947 -0.8767796948527965
4088000000.0 0.5879586995982033 -0.8771572533642353
4091000000.0 0.5728407261168882 -0.9404488525171808
4094000000.0000005 0.5708444808622368 -0.8402361459605222
4097000000.0000005 0.5592186049934501 -0.8768799283094002
4099999999.9999995 0.5469743140123514 -0.9305033271801153
4102999999.9999995 0.57955054814152 -0.909386656692661
4106000000.0 0.5679649429458133 -0.9121779852853773
4109000000.0 0.5147049439055627 -0.9321981731657213
4112000000.0 0.5665416519368838 -0.8855158145976622
4115999999.9999995 0.5576449110851976 -0.8661311478034924
4119000000.0 0.5569609122012665 -0.914495042519089
4122000000.0 0.5499514051590991 -0.9218226484567611
4125000000.0 0.5621489815733399 -0.9110044584594754
4128000000.0 0.5705102936565334 -0.8393875192130393
4131000000.0 0.5561097310150244 -0.8839454938989868
4134000000.0000005 0.5933617032839809 -0.8428378493556207
4138000000.0 0.525079172254484 -0.8681760155325237
4141000000.0 0.5434983407841149 -0.8851338176017963
4144000000.0 0.5871850429181805 -0.8712815562308371
4147000000.0000005 0.5319560572236574 -0.8698727622203413
4150000000.0000005 0.5944853342178195 -0.9057533130628512
4152999999.9999995 0.5729062131534637 -0.879563456431226
4155999999.9999995 0.5993939522510751 -0.908976503116786
4159000000.0 0.5624441244789968 -0.8758892018625793
4162000000.0 0.5367857754143618 -0.8334634332287496
4166000000.0000005 0.542424682527696 -0.9173563926017071
4168999999.9999995 0.5475304236146702 -0.8900993893077295
4171999999.9999995 0.583014522704401 -0.8642824234652314
4175000000.0 0.5800944329173481 -0.8678545650097655
4178000000.0 0.5994633141869543 -0.8890608307507517
4181000000.0 0.5439219041994469 -0.8918771143796574
4184000000.0 0.5618258590495011 -0.8773400204183552
4187999999.9999995 0.5364104408849253 -0.880988781842044
4191000000.0 0.5979418281506863 -0.8356340938362284
4194000000.0 0.550774963466783 -0.8839265063346561
4197000000.0 0.5847199898143197 -0.8823673849872148
4200000000.0 0.5631499296237218 -0.8549569880111104
4203000000.0000005 0.5920506013071152 -0.8719999717080752
4206000000.0000005 0.5690642487201147 -0.8739019080793539
4208999999.9999995 0.5685511659930458 -0.8438267124469572
4211999999.9999995 0.5409555008318948 -0.885525296250926
4216000000.0 0.5816781271123415 -0.8714917748494901
4219000000.0000005 0.5922983099775614 -0.8784499699180583
4222000000.0000005 0.5613068285497149 -0.856351099579272
4224999999.9999995 0.5592101673093073 -0.8500029083067763
4227999999.9999995 0.5682959350281903 -0.8760913899558731
4231000000.0 0.5643149998507249 -0.8614800063961272
4234000000.0 0.5523210769831828 -0.8714405260778026
4238000000.0000005 0.5589972899388332 -0.8615988734911656
4240999999.9999995 0.5517317502571093 -0.8562778198975338
4244000000.0 0.5594645118949011 -0.8471281057724253
4247000000.0 0.5720792199246345 -0.8565593909146577
4250000000.0 0.5448451826938286 -0.8514211637603505
4253000000.0 0.5511056104278446 -0.8377217872017875
4256000000.0 0.5451216930524178 -0.8806200816062235
4259000000.0000005 0.5298914284638313 -0.8295305930646302
4261999999.9999995 0.5413598932347253 -0.8707258431210011
4266000000.0 0.5535954548115745 -0.882469927708879
4269000000.0 0.5675510880408944 -0.8656158056451456
4272000000.0000005 0.5436305050169294 -0.8474634277034617
4275000000.0000005 0.5634855618947403 -0.8510810477034437
4277999999.9999995 0.5645041613131524 -0.873915810144218
4280999999.9999995 0.5551559904391141 -0.8645503179445905
4284000000.0 0.5360749996935831 -0.8984551397879915
4288000000.0000005 0.5880452535379066 -0.8574165287920561
4291000000.0000005 0.5627768864198285 -0.8457818777964481
4293999999.9999995 0.5400644946424522 -0.8690619025402105
4297000000.0 0.57890670258594 -0.8333659950325024
4300000000.0 0.5397550575363124 -0.8486617703971426
4303000000.0 0.5579341876055163 -0.8544814393427504
4306000000.0 0.5826143978339572 -0.8364963296979344
4309000000.0 0.5609575575435899 -0.8518168563250255
4312000000.0 0.6083661990155922 -0.8471342984968295
4316000000.0 0.5780101706778342 -0.861776141040637
4319000000.0 0.5432673955676908 -0.8519102453098746
4322000000.0 0.517788233388261 -0.860576917360089
4325000000.0 0.5850661203972228 -0.879589063910677
4328000000.0 0.5402401475546624 -0.8617001132490981
4331000000.0 0.5328045898143972 -0.89065037628027
4334000000.0 0.5598442822466317 -0.8793703389106273
4338000000.0 0.5613658407360839 -0.8610521141731748
4341000000.0 0.5970863414282331 -0.8623149264225644
4344000000.0 0.5655640498899647 -0.8860450108713107
4347000000.0 0.5591430039457496 -0.865637133154617
4350000000.0 0.5328364709839684 -0.8245222895584121
4353000000.0 0.5658722043483033 -0.8441611151835368
4356000000.0 0.5428816453307476 -0.8598396159874019
4359000000.0 0.5267158129966454 -0.8217219141647197
4362000000.0 0.5145387557294582 -0.8638492134429993
4366000000.0 0.5428878561389014 -0.8752693042474299
4369000000.0 0.5323534267716752 -0.8403928773876461
4372000000.0 0.518248205172147 -0.8782367533673512
4375000000.0 0.5477467901874097 -0.8399254998379596
4378000000.0 0.5388450867012698 -0.8274321277057008
4381000000.0 0.5448767593644258 -0.8376361114584792
4384000000.0 0.5787043700240944 -0.9246126260283749
4388000000.0 0.5519062349414652 -0.8365596176615442
4391000000.0 0.5477146917410244 -0.846748126959664
4394000000.0 0.5232000757334053 -0.8427042322006472
4397000000.0 0.5336563787768379 -0.8676462710238688
4400000000.0 0.5489691621701694 -0.8835891512555838
4403000000.0 0.5565630813144108 -0.8650967468776194
4406000000.0 0.5389681586522084 -0.871916335620631
4409000000.0 0.5593503745537226 -0.8770327361731141
4412000000.0 0.49403556968177176 -0.8882259049295481
4416000000.0 0.5258686429420997 -0.8609891246094503
4419000000.0 0.5329956248755805 -0.8659720226600687
4422000000.0 0.556557081636353 -0.8460326984459858
4425000000.0 0.5749575530403639 -0.8520614397720309
4428000000.0 0.5219039112559061 -0.8615835514124355
4431000000.0 0.5610094570439355 -0.8776542545893126
4434000000.0 0.5358550022375526 -0.8490564945953867
4438000000.0 0.5504685677045855 -0.8696231740281672
4441000000.0 0.5574089866262861 -0.866800713754621
4444000000.0 0.5406446174383827 -0.8267287120563707
4447000000.0 0.5373574838616388 -0.8617186153705312
4450000000.0 0.5272309070773321 -0.8426432639114615
4453000000.0 0.550385125520956 -0.8865776654871049
4456000000.0 0.5208011407758493 -0.8436536894597375
4459000000.0 0.49642715264654197 -0.8338278430981052
4462000000.0 0.5625277838311025 -0.9068427816217268
4466000000.0 0.5513167175264286 -0.9047376217158434
4469000000.0 0.5455703782539758 -0.8579040056022107
4472000000.0 0.530990301645071 -0.9067866341502624
4475000000.0 0.5219386855499946 -0.8425293110187768
4478000000.0 0.5493765690571437 -0.9042118416146208
4481000000.0 0.506312652712698 -0.8472234628133035
4484000000.0 0.4885900678416247 -0.8861773335353456
4488000000.0 0.5359748865364224 -0.8587593007806293
4491000000.0 0.5213104002746389 -0.8738847075822194
4494000000.0 0.530717023677724 -0.8460234530323114
4497000000.0 0.5377067094449542 -0.8642619368765101
4500000000.0 0.550126341536455 -0.8680470136604443
4503000000.0 0.5411605309742309 -0.8649025575656056
4506000000.0 0.5288134610172857 -0.8582342681027333
4509000000.0 0.5107566885013577 -0.8514298857273698
4512000000.0 0.5124790367704996 -0.8663699654404629
4516000000.0 0.5499601089113869 -0.8673766958774868
4519000000.0 0.5402167292861682 -0.8422594002121959
4522000000.0 0.5184424249921806 -0.873208447889529
4525000000.0 0.5509625473198245 -0.8421624679273797
4528000000.0 0.5503707283011559 -0.9055640570191587
4531000000.0 0.543584259578772 -0.8678533950040694
4534000000.0 0.5115763731923604 -0.8712748601923966
4538000000.0 0.5261110787783484 -0.8751914189140257
4541000000.0 0.49480251367437583 -0.8816955024779471
4544000000.0 0.5166339159218111 -0.8448652712859483
4547000000.0 0.5357510527907985 -0.8397567610752421
4550000000.0 0.5279086940888735 -0.8896607700150079
4553000000.0 0.5103677671679275 -0.8776251618868236
4556000000.0 0.48930203092957325 -0.8611801434980156
4559000000.0 0.5135775819626232 -0.868787380395261
4562000000.0 0.5452480244636894 -0.8659367725258534
4566000000.0 0.5230005290828323 -0.8973493168102711
4569000000.0 0.5188091715184213 -0.8562193601392947
4572000000.0 0.5135330666097703 -0.8736731868750964
4575000000.0 0.5274526283407531 -0.8761043903363617
4578000000.0 0.5573758038785146 -0.8739021570858161
4581000000.0 0.5101465633863531 -0.8994447890469152
4584000000.0 0.5262263320641424 -0.8645395181328654
4588000000.0 0.5448960327913194 -0.8715606312816349
4591000000.0 0.5275402487647396 -0.8622427228239478
4594000000.0 0.5008271189949558 -0.8621495270251027
4597000000.0 0.5310196182909809 -0.9045388808273676
4600000000.0 0.48417303573124315 -0.8708018362193308
4603000000.0 0.5060488461364789 -0.8806124101752298
4606000000.0 0.5168886564221006 -0.8738588022510532
4609000000.0 0.524646726366689 -0.873605246735329
4612000000.0 0.520474371211819 -0.8770097436684763
4616000000.0 0.5096164379369567 -0.8644602468775511
4619000000.0 0.5185401161173038 -0.8861400512735867
4622000000.0 0.5246097878816713 -0.8921684840490018
4625000000.0 0.48917745542275803 -0.8793372570201736
4628000000.0 0.5326213782154594 -0.8596201428233006
4631000000.0 0.4873610143604905 -0.8687104491821582
4634000000.0 0.5029230432031828 -0.8731332453296482
4638000000.0 0.5094090406265921 -0.8736757379681632
4641000000.0 0.5338409175977676 -0.8785160473279685
4644000000.0 0.5192745844363681 -0.8788039911395541
4647000000.0 0.5315710986853455 -0.8921928529689724
4650000000.0 0.4874444058436306 -0.8795151292868
4653000000.0 0.52723350916195 -0.9007405856369461
4656000000.0 0.5053016399825093 -0.8803372920939709
4659000000.0 0.4943839768507534 -0.8763507620363429
4662000000.0 0.5072385616685386 -0.8868086597277773
4666000000.0 0.5091900104834686 -0.8569780834053433
4669000000.0 0.5144324536228011 -0.8827431680115714
4672000000.0 0.5074497430896494 -0.9100058345746183
4675000000.0 0.49280461940860937 -0.8884608263491638
4678000000.0 0.49731532815036716 -0.8640923457220482
4681000000.0 0.49781250201737254 -0.9010059110345148
4684000000.0 0.48318490533496095 -0.8976035377593327
4688000000.0 0.47817797556826647 -0.8905984523777799
4691000000.0 0.5211546457203942 -0.8724919965939506
4694000000.0 0.5193448704951488 -0.8713626397574529
4697000000.0 0.4802307911877987 -0.8756077721475916
4700000000.0 0.5242991290830085 -0.8603305055171327
4703000000.0 0.5290141130787831 -0.8462513835108886
4706000000.0 0.4956213308401908 -0.898685268476854
4709000000.0 0.4983202957965967 -0.8989258243885089
4712000000.0 0.5096453837754447 -0.8701600320956856
4716000000.0 0.5116626839019938 -0.9075400178201104
4719000000.0 0.5391451393609646 -0.8873124094404049
4722000000.0 0.5356920058761272 -0.8929164909241804
4725000000.0 0.4966389766083933 -0.8693734500722166
4728000000.0 0.4790001142474471 -0.8916790597469875
4731000000.0 0.5435992489899255 -0.9068688594692792
4734000000.0 0.5073812366228656 -0.8842555837768477
4738000000.0 0.5656719970423459 -0.9133120107369298
4741000000.0 0.47806712613895014 -0.9162283069522194
4744000000.0 0.5004667130939998 -0.9177775297569732
4747000000.0 0.5212080396852439 -0.8820681060852896
4750000000.0 0.4926432194607323 -0.9069445306454822
4753000000.0 0.5190186488596512 -0.8697670387033195
4756000000.0 0.5329213716614992 -0.9178863250364795
4759000000.0 0.5096895487400452 -0.9155653224130966
4762000000.0 0.508904917402702 -0.91578140762407
4766000000.0 0.4973615085165201 -0.8923916529553619
4769000000.0 0.5132334841883236 -0.8978085173030262
4772000000.0 0.5027302149074384 -0.908324984564852
4775000000.0 0.5418757777077257 -0.9634570087469249
4778000000.0 0.5215008514839852 -0.9296595459708304
4781000000.0 0.500436196058961 -0.8911680979057943
4784000000.0 0.5229955132117989 -0.8786277354392031
4788000000.0 0.4936862611205187 -0.9189894259226146
4791000000.0 0.5150919993901456 -0.898491176427226
4794000000.0 0.5351721216173924 -0.9015172164124041
4797000000.0 0.4760696710876874 -0.8929506003646086
4800000000.0 0.48897787412597843 -0.8756489364959839
4803000000.0 0.45943426470374493 -0.9138357037491659
4806000000.0 0.5045280388389339 -0.9354686770577169
4809000000.0 0.4671465449546096 -0.9216878371484628
4812000000.0 0.4609989404018715 -0.8973906919035295
4816000000.0 0.5359635039804932 -0.905765894712317
4819000000.0 0.5272770691525436 -0.9175643607623203
4822000000.0 0.5281097566381362 -0.9156513342821324
4825000000.0 0.5342185645240514 -0.9263132103499515
4828000000.0 0.5139446723372385 -0.9018724957346292
4831000000.0 0.4900130348905647 -0.9541970065785476
4834000000.0 0.49753142404883166 -0.9165530095274774
4838000000.0 0.5212645520434472 -0.9420744062385763
4841000000.0 0.5092315313155107 -0.8924202138606124
4844000000.0 0.5434735931960644 -0.8830176125639202
4847000000.0 0.5196509269342576 -0.8711947294078403
4850000000.0 0.5273118803150034 -0.9264849548827421
4853000000.0 0.48930356647569506 -0.8784597310352796
4856000000.0 0.507758999071849 -0.8862760482326604
4859000000.0 0.533919738119813 -0.9626361667899941
4862000000.0 0.5100643815642396 -0.8693613573572534
4866000000.0 0.507227296285982 -0.9333960733978655
4869000000.0 0.4807975546869095 -0.9229560860139342
4872000000.0 0.47567537718563646 -0.9320953951553711
4875000000.0 0.5972458529784646 -0.9212537512961151
4878000000.0 0.5011495497331866 -0.9012147697900328
4881000000.0 0.5088985212521948 -0.982963454901467
4884000000.0 0.5258877123482926 -0.8986007064439796
4888000000.0 0.5504053803340216 -0.8892953306956816
4891000000.0 0.5373247394714955 -0.9173172552000208
4894000000.0 0.480218058567386 -0.9116953947335251
4897000000.0 0.53922712854019 -0.8672167789368236
4900000000.0 0.5412102441438245 -0.9087299464316155
4903000000.0 0.5262071567286203 -0.9365671193089301
4906000000.0 0.5319861422649332 -0.9275667719494849
4909000000.0 0.48843447143910834 -0.9150994932972312
4912000000.0 0.5356404800405494 -0.9487208678528285
4916000000.0 0.5455596899002263 -0.9308284530134392
4919000000.0 0.5853424060247575 -0.9311869877972543
4922000000.0 0.5802223938607561 -0.9018204344639023
4925000000.0 0.47135487672241094 -0.9363179694535795
4928000000.0 0.5664971628155483 -0.8786256861685645
4931000000.0 0.5515901889708409 -0.9098572086088206
4934000000.0 0.5149310239172974 -0.8472929247422145
4938000000.0 0.47424933364817234 -0.9394067916622938
4941000000.0 0.5517964244440873 -0.8953915028494761
4944000000.0 0.5420457594927395 -0.8528340274877437
4947000000.0 0.5256396000512699 -0.8708104744658698
4950000000.0 0.5155764682742222 -0.8811515684180196
4953000000.0 0.51549347157217 -0.9470364226792145
4956000000.0 0.5122084085878114 -0.9279992688424907
4959000000.0 0.4516847432751676 -0.8748735468369563
4962000000.0 0.5320407017599198 -0.9122188195383577
4966000000.0 0.5174692067463537 -0.9119047948785736
4969000000.0 0.5409970361834475 -0.9284154123228744
4972000000.0 0.5373836183507202 -0.895002953432825
4975000000.0 0.5524323193352845 -0.8846002531304711
4978000000.0 0.514214601312679 -0.891780171097603
4981000000.0 0.5302669657311609 -0.9463986714658637
4984000000.0 0.5257509168146891 -0.914173190689719
4988000000.0 0.5373342084511858 -0.8890825238040038
4991000000.0 0.5756166172128678 -0.9036056665589552
4994000000.0 0.5216720871851448 -0.879997956509812
4997000000.0 0.5141268566387813 -0.9297499679670571
5000000000.0 0.5331068600602646 -0.9291537940933008
5003000000.0 0.5718044865775231 -0.9431721284727538
5006000000.0 0.5523374596352293 -0.9348622683576087
5009000000.0 0.5243524223594807 -0.9107893855098251
5012000000.0 0.511566062768742 -0.9137467466335568
5016000000.0 0.5972607673435535 -0.9381188142252602
5019000000.0 0.5083384490067999 -0.9095217386267531
5022000000.0 0.5353472222545574 -0.9227598668373991
5025000000.0 0.551050050384939 -0.9562139691385644
5028000000.0 0.5334336126428985 -0.9422968137689189
5031000000.0 0.5255430944825832 -0.9206926528382249
5034000000.0 0.5014435816276505 -0.944729198476008
5038000000.0 0.5001597356515959 -0.9047417654647654
5041000000.0 0.603208383143994 -0.8928453772418996
5044000000.0 0.5394665756465548 -0.8683219362149982
5047000000.0 0.544011298490996 -0.9138808340081831
5050000000.0 0.5867228980536244 -0.8413693924171171
5053000000.0 0.5649847452701042 -0.9511964655187355
5056000000.0 0.6041637651935011 -0.877378310421837
5059000000.0 0.5917669747493691 -0.8753314948303035
5062000000.0 0.5392967473984684 -0.9662848125624668
5066000000.0 0.5550016197590131 -0.8572186657171781
5069000000.0 0.5478806954206367 -0.8895809979542051
5072000000.0 0.5382884088540827 -0.8820874199864345
5075000000.0 0.5811092160436134 -0.8882108713269532
5078000000.0 0.5214555005392123 -0.9339265789913052
5081000000.0 0.5562356016680606 -0.882743421287936
5084000000.0 0.5509895947096836 -0.9055888928438249
5088000000.0 0.5834271421184265 -0.9069235576485453
5091000000.0 0.5440507931477245 -0.969668401516838
5094000000.0 0.5634528796072248 -0.8957816679902377
5097000000.0 0.5675634109834103 -0.8764372924369752
5100000000.0 0.5926626088683964 -0.870801317331626
5103000000.0 0.5668564903426407 -0.917940033438013
5106000000.0 0.6105256984239525 -0.9399152827173115
5109000000.0 0.5977227276755009 -0.870189338021961
5112000000.0 0.49134205155969274 -0.939677722254886
5116000000.0 0.5149964071103702 -0.8708757758960217
5119000000.0 0.5661686121067275 -0.959104544673275
5122000000.0 0.5076958621350371 -0.8920786531016714
5125000000.0 0.5479317857833766 -0.8708986673285588
5128000000.0 0.5277310698889993 -0.8670389442246176
5131000000.0 0.5455290831151959 -0.8812487500810224
5134000000.0 0.5266473633378763 -0.8730773221534258
5138000000.0 0.569596017431541 -0.8943565565798048
5141000000.0 0.5973775764061984 -0.8530902516900316
5144000000.0 0.6089614676898485 -0.8449604480704653
5147000000.0 0.5616345804484992 -0.9382811693774415
5150000000.0 0.6079724705741272 -0.88529072022862
5153000000.0 0.565371620503646 -0.9120341374632376
5156000000.0 0.5826138670392677 -0.8927357385102321
5159000000.0 0.5772320453206033 -0.9463817678887056
5162000000.0 0.5214823543633418 -0.8552605371329147
5166000000.0 0.5639697190207238 -0.8771038383099714
5169000000.0 0.5668424054121124 -0.8835469225463015
5172000000.0 0.5664884512632287 -0.8454559463703606
5175000000.0 0.5791733473228045 -0.9003413695337934
5178000000.0 0.5775455787376054 -0.8971881128410677
