! Created with skrf 1.8.0 (http://scikit-rf.org).
# Hz S RI R 50.0 
!freq ReS11 ImS11
4000000000.0 0.5356024209644482 -0.8261602396994422
4003000000.0 0.5718873014475669 -0.9479891021069775
4006000000.0 0.47759193663166155 -0.9095748466118854
4009000000.0000005 0.5261334852621175 -0.888860799651279
4011999999.9999995 0.5923829958808959 -0.8463695108449403
4016000000.0 0.48665114770079243 -0.9442719276644613
4019000000.0 0.5480318002137072 -0.8408020076096107
4022000000.0000005 0.6213156754486173 -0.8405406807324651
4025000000.0000005 0.45902134360655905 -0.8973608873108585
4027999999.9999995 0.523369510794423 -0.9334683387223813
4030999999.9999995 0.5088655836919533 -0.8673059224978381
4034000000.0 0.4833448211050855 -0.8876434540467535
4038000000.0000005 0.5280678355403841 -0.9114448147971937
4041000000.0000005 0.5264622386765239 -0.8846505852069471
4043999999.9999995 0.5751729683667156 -0.8786760014580867
4046999999.9999995 0.5948798326219437 -0.8734366451402271
4050000000.0 0.5013303011400424 -0.9053698974451405
4053000000.0 0.5154742146912882 -0.8911716885058873
4056000000.0 0.5360559546877077 -0.8897992846528322
4059000000.0 0.5450784858977296 -0.9039323980202385
4062000000.0000005 0.5149140905656007 -0.9325479280460064
4066000000.0 0.5070352691298967 -0.8674842071402523
4069000000.0 0.5281454190005327 -0.9460880802864192
4072000000.0 0.542197854040736 -0.8563308397933136
4075000000.0 0.5413054310523622 -0.9054982725767009
4078000000.0000005 0.5194472107558341 -0.9286084537002689
4081000000.0000005 0.603487617091474 -0.8846148130476414
4083999999.9999995 0.5239114274454288 -0.914542962972289
4088000000.0 0.5804796705451187 -0.8673019224799674
4091000000.0 0.6014620818359305 -0.9516260484541301
4094000000.0000005 0.5391283729595813 -0.882527669542286
4097000000.0000005 0.5462249790716897 -0.8561404356515778
4099999999.9999995 0.5328647431020721 -0.8508252611534293
4102999999.9999995 0.5826264613947241 -0.8998380184178023
4106000000.0 0.5666696817069167 -0.8834762281228357
4109000000.0 0.48905957435526987 -0.9213114656546403
4112000000.0 0.5078942789651985 -0.8804446810359207
4115999999.9999995 0.5599908832915618 -0.8473520177055488
4119000000.0 0.4990528834656427 -0.8713306320904463
4122000000.0 0.5179843869512456 -0.9000101156003598
4125000000.0 0.511126591875271 -0.9286995734694126
4128000000.0 0.5543524952090886 -0.8557332754508942
4131000000.0 0.5346246514400095 -0.8815289026045635
4134000000.0000005 0.5476643692272195 -0.8848982279604197
4138000000.0 0.4720689793534008 -0.8721791104827493
4141000000.0 0.5145179370571522 -0.8834654152236756
4144000000.0 0.5434628493841047 -0.8872272136702612
4147000000.0000005 0.5493598576516201 -0.8887738183408783
4150000000.0000005 0.5448051563464694 -0.9071771198090527
4152999999.9999995 0.5306379057774432 -0.8666330515947649
4155999999.9999995 0.5643469083654142 -0.9038511896447561
4159000000.0 0.5259368496578913 -0.8513096499156512
4162000000.0 0.5115972019151388 -0.8877921266306692
4166000000.0000005 0.5300336051371624 -0.9080873501455254
4168999999.9999995 0.48597342610399197 -0.8988976718876677
4171999999.9999995 0.5151497527576464 -0.8567796494921615
4175000000.0 0.5311588593929568 -0.8703865226395132
4178000000.0 0.5466479212986559 -0.8813103512260821
4181000000.0 0.5173049488318394 -0.8761377622186269
4184000000.0 0.5297742960453367 -0.8687904023811045
4187999999.9999995 0.5296935809269541 -0.9035067028515564
4191000000.0 0.5764348197134157 -0.8419561653383771
4194000000.0 0.4978426086019271 -0.8581261283319719
4197000000.0 0.5437105309820834 -0.8840566616774523
4200000000.0 0.5433843179416542 -0.8473836504157339
4203000000.0000005 0.5614328003224478 -0.8832832548501816
4206000000.0000005 0.533460180941741 -0.8847523033758959
4208999999.9999995 0.5344626592663114 -0.8653124941218636
4211999999.9999995 0.5102172159443 -0.8745281007602821
4216000000.0 0.539010244640918 -0.8690575981927798
4219000000.0000005 0.5526442695091411 -0.8676667321490739
4222000000.0000005 0.54350881015411 -0.8626333462484314
4224999999.9999995 0.52427678147337 -0.8498522124590198
4227999999.9999995 0.5379681530443654 -0.8739925110741497
4231000000.0 0.5335809544402977 -0.8717051396204868
4234000000.0 0.5281945596355269 -0.8628718725955673
4238000000.0000005 0.506614805496102 -0.8923666780453832
4240999999.9999995 0.5192342311434964 -0.8744172587408056
4244000000.0 0.5435727421458338 -0.862318396607103
4247000000.0 0.5575202068906453 -0.8782997379857652
4250000000.0 0.5175286497622033 -0.8609605845399695
4253000000.0 0.5105526005514051 -0.8424284998896119
4256000000.0 0.5422272662342504 -0.8827924131169766
4259000000.0000005 0.4975393122582341 -0.8558640624488105
4261999999.9999995 0.5033667945211545 -0.8713015892792673
4266000000.0 0.5045904973445794 -0.9046023774359391
4269000000.0 0.5554613391980908 -0.8681493659660783
4272000000.0000005 0.5203895858813896 -0.8699603943138966
4275000000.0000005 0.53003586570221 -0.8796226743091953
4277999999.9999995 0.5431786561408128 -0.895212313062116
4280999999.9999995 0.535729501326033 -0.8766565104913968
4284000000.0 0.49451507547914714 -0.8808435796046228
4288000000.0000005 0.5500909082525456 -0.8206606105080236
4291000000.0000005 0.5365007100861054 -0.8510389368256042
4293999999.9999995 0.5325531573155671 -0.8653794169134256
4297000000.0 0.5379003563034187 -0.8590519449441429
4300000000.0 0.5360534747409348 -0.850184076209543
4303000000.0 0.508185717126681 -0.8913688534850772
4306000000.0 0.5400134210877949 -0.8642431143639137
4309000000.0 0.5316370114119972 -0.8522933151501998
4312000000.0 0.5790658579302126 -0.8615517680753592
4316000000.0 0.549335313130944 -0.869401083433397
4319000000.0 0.5320168012761741 -0.8419226886461953
4322000000.0 0.49954040316001125 -0.8652211762913115
4325000000.0 0.5396146548151947 -0.8691853106954672
4328000000.0 0.5136544397630964 -0.863153156230895
4331000000.0 0.5198805491139142 -0.887679675050898
4334000000.0 0.5282974896657773 -0.871200776124951
4338000000.0 0.5340470143604941 -0.8499197361407879
4341000000.0 0.5772914360508034 -0.8894266333652944
4344000000.0 0.534456765642611 -0.8632518287275968
4347000000.0 0.4952115872659163 -0.8978007249271135
4350000000.0 0.4915935299164808 -0.858762402943424
4353000000.0 0.5349269972807268 -0.8367600574360696
4356000000.0 0.5164470829249433 -0.8682438257123396
4359000000.0 0.49180145627785155 -0.8503298679928347
4362000000.0 0.4902322145430464 -0.902862279877218
4366000000.0 0.5386459149589797 -0.8912930917219528
4369000000.0 0.4861112804944083 -0.843582443385885
4372000000.0 0.47553546588983003 -0.8828310209180894
4375000000.0 0.5295267474417263 -0.8430233147726434
4378000000.0 0.49854658853535433 -0.8440726722673038
4381000000.0 0.5240117647770683 -0.8521199871999213
4384000000.0 0.5485442364063035 -0.9197079410053393
4388000000.0 0.5166513501791161 -0.8485846177795939
4391000000.0 0.5142486358112797 -0.8631323615233326
4394000000.0 0.49782158349238803 -0.8436299725741466
4397000000.0 0.5079612441712628 -0.8767324433951916
4400000000.0 0.5139469847446356 -0.8836353363858074
4403000000.0 0.5149687156234898 -0.8782778281164805
4406000000.0 0.5073481653704892 -0.8980816508305676
4409000000.0 0.5368179664974899 -0.9032368126402683
4412000000.0 0.47139265144603004 -0.8913986239536044
4416000000.0 0.4938994000353373 -0.862213056165722
4419000000.0 0.505919992246694 -0.886174860356901
4422000000.0 0.5235864865468686 -0.8521020196354971
4425000000.0 0.5457393097563206 -0.8798458932893494
4428000000.0 0.49934663162705917 -0.8835770951157922
4431000000.0 0.5178427035778592 -0.8979160298886023
4434000000.0 0.5074130796938024 -0.8660993341744564
4438000000.0 0.519518811638518 -0.9042445560494129
4441000000.0 0.5208648324090359 -0.8863522695040269
4444000000.0 0.5047851847051175 -0.8566959683009631
4447000000.0 0.48371063361422567 -0.8762487163944765
4450000000.0 0.5246807698090563 -0.862652901623374
4453000000.0 0.5262133562245385 -0.8897817839648821
4456000000.0 0.45301260940343346 -0.8623813937026916
4459000000.0 0.4650080568797397 -0.8558092778408928
4462000000.0 0.5292039965938384 -0.929601798125934
4466000000.0 0.5069389106715835 -0.9124051404674669
4469000000.0 0.5337409938501769 -0.8839194687086409
4472000000.0 0.4897134960836699 -0.908468950694878
4475000000.0 0.49992430012337585 -0.8494871990253798
4478000000.0 0.5051472324702471 -0.9290537907216214
4481000000.0 0.4736020902766713 -0.8535584397786091
4484000000.0 0.4716529288646293 -0.8961433048912462
4488000000.0 0.48172241746398936 -0.8667368499735657
4491000000.0 0.49313719665589856 -0.8894908566432204
4494000000.0 0.5010016819264128 -0.8751952913938408
4497000000.0 0.5014515048524625 -0.8740885571482759
4500000000.0 0.527741799689137 -0.8807466788794043
4503000000.0 0.5135046177916189 -0.90128811372604
4506000000.0 0.47708849042828866 -0.8673637103033631
4509000000.0 0.48989847834623346 -0.8768817326253917
4512000000.0 0.4696840590485983 -0.8482004271454708
4516000000.0 0.5170249758263679 -0.8842305746138928
4519000000.0 0.5126089410486332 -0.8684014025985614
4522000000.0 0.48223261904760467 -0.8951543487857363
4525000000.0 0.5358281995650959 -0.8708283239763317
4528000000.0 0.512436274056596 -0.8868360512303506
4531000000.0 0.5095819077759896 -0.8886794386290101
4534000000.0 0.5001664897616495 -0.8666569657550145
4538000000.0 0.49567614276202365 -0.8940777688876091
4541000000.0 0.4449004721010384 -0.8953962716348832
4544000000.0 0.48712195608681935 -0.8899610891732788
4547000000.0 0.5192784697690579 -0.8481936783718189
4550000000.0 0.4768233871396178 -0.8875903333013281
4553000000.0 0.4698196911965155 -0.882658508685586
4556000000.0 0.469385082575371 -0.8862034201269109
4559000000.0 0.47829963284595045 -0.8818395806118026
4562000000.0 0.49292926542296667 -0.909646118098294
4566000000.0 0.49856647795332376 -0.8890789626347761
4569000000.0 0.46140491057989097 -0.8690224077347428
4572000000.0 0.47736888902083013 -0.8823511589179036
4575000000.0 0.465335168787924 -0.8853360680486096
4578000000.0 0.5028136212660668 -0.918738025444221
4581000000.0 0.4784010782186577 -0.9090573092448423
4584000000.0 0.47904918273403085 -0.8857925809973988
4588000000.0 0.5105078611555184 -0.8934474423485945
4591000000.0 0.4975381921944536 -0.8839549581211179
4594000000.0 0.4737124384886814 -0.895177195402787
4597000000.0 0.48751897111655484 -0.8870629579195203
4600000000.0 0.46786204372474527 -0.8771159916917822
4603000000.0 0.4761133478071162 -0.8984078186679156
4606000000.0 0.49782035763145766 -0.9016393366942973
4609000000.0 0.4807413099919851 -0.8879656360081916
4612000000.0 0.48355110062155127 -0.9125425718866234
4616000000.0 0.478126357392784 -0.881927999556674
4619000000.0 0.47901687650963276 -0.8821362640573174
4622000000.0 0.4897080839379142 -0.8900490450863242
4625000000.0 0.4496384346683972 -0.8858625695949058
4628000000.0 0.4915928652301249 -0.8829003197967917
4631000000.0 0.46322137398203733 -0.9064523750723203
4634000000.0 0.4657582187431146 -0.9047051113909836
4638000000.0 0.4839276944026655 -0.9001619089685694
4641000000.0 0.4861757071343836 -0.8900835016876236
4644000000.0 0.4609629058013668 -0.8925143927084894
4647000000.0 0.4945830383570474 -0.8995031260727839
4650000000.0 0.4597523156062743 -0.9093947872923034
4653000000.0 0.5045340213295845 -0.9247126043032752
4656000000.0 0.467096760453642 -0.9055677707311119
4659000000.0 0.47295315408211414 -0.8874007511593588
4662000000.0 0.4639295730341675 -0.9020357687342464
4666000000.0 0.45697244005204085 -0.8954060462142841
4669000000.0 0.4842889235628535 -0.8896177188543382
4672000000.0 0.4728285920117375 -0.9013326038762367
4675000000.0 0.44196842209594517 -0.896652705055009
4678000000.0 0.47276907682642644 -0.8746128197923246
4681000000.0 0.46829343294615494 -0.9052527246244948
4684000000.0 0.43261919941695115 -0.9131241014774563
4688000000.0 0.4596356144966958 -0.902404890963608
4691000000.0 0.4887603417018021 -0.9070163213066711
4694000000.0 0.46941076969218914 -0.883390508069653
4697000000.0 0.4134824750101699 -0.8872595121114586
4700000000.0 0.45751656089512655 -0.8967643210977532
4703000000.0 0.4760335335782767 -0.8693302973968282
4706000000.0 0.4439116693943229 -0.9142149672173355
4709000000.0 0.4474181740602995 -0.8869217757195755
4712000000.0 0.47414106955701024 -0.8839701392019075
4716000000.0 0.4891610054018706 -0.9300175077130836
4719000000.0 0.4824398093794156 -0.8762014594464217
4722000000.0 0.4778148408501421 -0.8878692234825849
4725000000.0 0.44865041308235465 -0.8867258684413495
4728000000.0 0.46621625532851335 -0.8968252143606813
4731000000.0 0.49299339120421815 -0.9116066835595849
4734000000.0 0.5065216184161441 -0.8984437549188709
4738000000.0 0.48271598235722263 -0.9082867131514492
4741000000.0 0.44713295759973065 -0.930492159147674
4744000000.0 0.4461892685507892 -0.9295184879823499
4747000000.0 0.46227381870168044 -0.8618049889994862
4750000000.0 0.44781706018443956 -0.9235713374667699
4753000000.0 0.46311458453620324 -0.8948129837295035
4756000000.0 0.4617288131377202 -0.903880627894572
4759000000.0 0.4993811499594524 -0.9219620575278217
4762000000.0 0.4550290401087654 -0.9282868256849307
4766000000.0 0.46595083391186254 -0.9180721268366554
4769000000.0 0.46627601620661874 -0.8994509497214127
4772000000.0 0.45553680578493166 -0.9042935861347072
4775000000.0 0.464535609667449 -0.9374603301221002
4778000000.0 0.46616531485582713 -0.9106699082460407
4781000000.0 0.4582027403859082 -0.886762722002731
4784000000.0 0.4780802306230727 -0.9036843087721939
4788000000.0 0.45831513868846974 -0.9281313526580094
4791000000.0 0.4266157777705933 -0.8987411565259771
4794000000.0 0.4924805008945384 -0.9173642653299788
4797000000.0 0.45384378948434095 -0.9157825975415391
4800000000.0 0.42820436439953313 -0.891680432615159
4803000000.0 0.4187601577552623 -0.9154152258215371
4806000000.0 0.4780635854793053 -0.9298917619641169
4809000000.0 0.4217167052758612 -0.9390729899113865
4812000000.0 0.41980005920861696 -0.9540785627204658
4816000000.0 0.4583663576963672 -0.8798816658224079
4819000000.0 0.5035520715934766 -0.930110995699906
4822000000.0 0.48567922374427497 -0.9347676614872386
4825000000.0 0.4816516683078902 -0.9152006667566029
4828000000.0 0.44825837104630284 -0.9134456523196129
4831000000.0 0.4379969437144937 -0.956505328630815
4834000000.0 0.4830664703109905 -0.9173564988988901
4838000000.0 0.4491868403919256 -0.9480020702272184
4841000000.0 0.4443439678122646 -0.9134170176999232
4844000000.0 0.49700869768614186 -0.8985211603950467
4847000000.0 0.4503086305294228 -0.8784090901163626
4850000000.0 0.4286350341186218 -0.9349467329964658
4853000000.0 0.4573153213124564 -0.8883400793439099
4856000000.0 0.4489617521341623 -0.9218159514353903
4859000000.0 0.4726105227025825 -0.9512179748522388
4862000000.0 0.48101771778195324 -0.890343825946538
4866000000.0 0.448078725596645 -0.9432590906906425
4869000000.0 0.4389423964851873 -0.920288373891494
4872000000.0 0.44288989608159146 -0.9469470229178579
4875000000.0 0.5275087443017614 -0.9219847804016049
4878000000.0 0.4673258073328113 -0.9234473932585018
4881000000.0 0.47265265897504993 -0.997372154917875
4884000000.0 0.4702883041061 -0.9362081965184907
4888000000.0 0.5079174113884019 -0.9042606447671516
4891000000.0 0.5196090522919089 -0.9302627840664268
4894000000.0 0.4537076892301891 -0.9259364623312406
4897000000.0 0.500790644752067 -0.8945237559449665
4900000000.0 0.48275064455100125 -0.9508034022172231
4903000000.0 0.4820671214879589 -0.9600039582366152
4906000000.0 0.46435672205038536 -0.9224190192385915
4909000000.0 0.4648871388552335 -0.9222965863483906
4912000000.0 0.4700455897510514 -0.9630635217624172
4916000000.0 0.5367512188238975 -0.916384293267027
4919000000.0 0.5048467089006443 -0.9293453866403041
4922000000.0 0.5188464694871652 -0.9404827434259736
4925000000.0 0.4298862553849938 -0.9611625880121063
4928000000.0 0.4972155509267263 -0.8796723127102082
4931000000.0 0.5213600703719062 -0.9361115667895571
4934000000.0 0.4504401643927757 -0.8796818038616342
4938000000.0 0.4410648585680699 -0.925964396746334
4941000000.0 0.4988518114569358 -0.8806562203456313
4944000000.0 0.4651145865391041 -0.855511213301295
4947000000.0 0.46067863689991506 -0.9020759755497672
4950000000.0 0.4748240082703513 -0.9214448604334448
4953000000.0 0.44526715924879967 -0.9603011317246104
4956000000.0 0.44744601254577665 -0.9260002227614847
4959000000.0 0.42315775511091125 -0.8969405801126863
4962000000.0 0.47533515530470405 -0.9633076324989733
4966000000.0 0.47889650373896087 -0.9489107590939684
4969000000.0 0.5065381261860142 -0.9348326473097868
4972000000.0 0.45840369274289233 -0.933254582219875
4975000000.0 0.4884255068470103 -0.9048117138704947
4978000000.0 0.5008975558907331 -0.9263327274429335
4981000000.0 0.43962554570221923 -0.9102918427803811
4984000000.0 0.4623378347723019 -0.8961886265109557
4988000000.0 0.48370020719974927 -0.9073202595905276
4991000000.0 0.5580531264235553 -0.9333101511814923
4994000000.0 0.4983660017158878 -0.9157795285886253
4997000000.0 0.44467183395816123 -0.9702515059089717
5000000000.0 0.5079361740250593 -0.9736730053178027
5003000000.0 0.5284758970424401 -0.928856868337742
5006000000.0 0.5016009755339051 -0.9801857832202098
5009000000.0 0.4680630342634461 -0.9050506962856509
5012000000.0 0.46731397291857774 -0.9316603699850621
5016000000.0 0.5286376225662982 -0.9551017124768383
5019000000.0 0.48471416876440604 -0.9098368665368602
5022000000.0 0.489978718738804 -0.9478214431275298
5025000000.0 0.5214111911760083 -0.9828623369739437
5028000000.0 0.4755879197554227 -0.9369316208884327
5031000000.0 0.5020547415436891 -0.9569294529051957
5034000000.0 0.4533638935544247 -0.9596748325227631
5038000000.0 0.472406208601634 -0.8870233244425629
5041000000.0 0.5213991351180611 -0.8868737887755243
5044000000.0 0.5164127422429119 -0.8780999000255958
5047000000.0 0.4779377005564838 -0.8985914693445911
5050000000.0 0.5140147605146105 -0.8587930556993186
5053000000.0 0.4984380541837203 -0.9377186812509146
5056000000.0 0.5139281577617193 -0.8893364190134416
5059000000.0 0.5488732021296638 -0.9107268439991854
5062000000.0 0.4657188302747455 -0.9384315717056335
5066000000.0 0.5081782445012859 -0.9346350537069993
5069000000.0 0.5236874505465965 -0.9592953447770669
5072000000.0 0.4940919801224599 -0.9029601006410692
5075000000.0 0.5449322022895775 -0.8633733425804218
5078000000.0 0.4444622040023697 -0.9108065730314742
5081000000.0 0.4617128588114522 -0.8799740655392354
5084000000.0 0.48186047980443236 -0.939535799591649
5088000000.0 0.49859262677726396 -0.9149710143006593
5091000000.0 0.44630876123915636 -0.9550294563582784
5094000000.0 0.5168598432511 -0.9754803971801033
5097000000.0 0.5145892883123315 -0.8782176680478158
5100000000.0 0.5380188057389059 -0.9083891018482699
5103000000.0 0.44522488802215066 -0.9119396773099364
5106000000.0 0.5178374085591955 -0.9695922648027195
5109000000.0 0.5504395191925244 -0.8987968107543294
5112000000.0 0.5000523400161441 -0.8751481082859094
5116000000.0 0.46854986876780047 -0.884572396059377
5119000000.0 0.4892630221395809 -0.941880678717909
5122000000.0 0.49011540790478497 -0.8723894848844178
5125000000.0 0.4872327378642076 -0.8824529679155411
5128000000.0 0.49318491765825717 -0.9139217721093297
5131000000.0 0.47312097223878175 -0.9028410842691046
5134000000.0 0.4773820157930605 -0.9310211983072737
5138000000.0 0.48192706939303787 -0.8878002266597043
5141000000.0 0.5421906189188745 -0.8674801367843206
5144000000.0 0.5356568614381765 -0.9007493484245244
5147000000.0 0.508434709172241 -0.9061702485057869
5150000000.0 0.548454955675951 -0.9343295088312327
5153000000.0 0.4626074028859607 -0.9191312556356404
5156000000.0 0.49578877880181316 -0.8787609788569317
5159000000.0 0.5094437397723571 -0.9049941261340091
5162000000.0 0.491979802978639 -0.9169475214421965
5166000000.0 0.5026360800119949 -0.9385219875840531
5169000000.0 0.5073690433512958 -0.9482431696980258
5172000000.0 0.5259367101640738 -0.8901329931832173
5175000000.0 0.5297559387174481 -0.9026351622498584
