! Created with skrf 1.8.0 (http://scikit-rf.org).
# Hz S RI R 50.0 
!freq ReS11 ImS11
4000000000.0 0.5110219302952868 -0.8828421620862872
4003000000.0 0.5404072054755165 -0.9616603390392646
4006000000.0 0.5002874337617119 -0.9566405070635227
4009000000.0000005 0.5236199274051856 -0.87263216434126
4011999999.9999995 0.6044455339881293 -0.8956253556376144
4016000000.0 0.5254055488469986 -0.9432794171111061
4019000000.0 0.4855479546937559 -0.9074557895526089
4022000000.0000005 0.5581806824148476 -0.8487810159175581
4025000000.0000005 0.4618903032675838 -0.9405184055112292
4027999999.9999995 0.5358723128526279 -0.9010216745920006
4030999999.9999995 0.5148979846012041 -0.8521545404545858
4034000000.0 0.47890392003795423 -0.9222155255369859
4038000000.0000005 0.47261506094631534 -0.9399445282652107
4041000000.0000005 0.4997075770739179 -0.931383792255059
4043999999.9999995 0.5519029546774907 -0.9484494506936767
4046999999.9999995 0.5809392122969619 -0.9146305197489148
4050000000.0 0.509025986891944 -0.9179690725548799
4053000000.0 0.4902957051397639 -0.8651939536756159
4056000000.0 0.5234855162897065 -0.8978950925627991
4059000000.0 0.49688767184906246 -0.9170115016873467
4062000000.0000005 0.5017603557040102 -0.9435112734868081
4066000000.0 0.4616595454690485 -0.8560157042090311
4069000000.0 0.5216051379132376 -0.9424973923202249
4072000000.0 0.5230784215351525 -0.8910307476961545
4075000000.0 0.5644397590293226 -0.921169997039927
4078000000.0000005 0.5207788829155662 -0.9675087626767672
4081000000.0000005 0.5663994302054767 -0.9100903031407102
4083999999.9999995 0.47957344756893366 -0.9597271424073215
4088000000.0 0.5169462741375543 -0.8714757516242305
4091000000.0 0.5462032946930282 -0.9884549405261108
4094000000.0000005 0.5182437987418013 -0.9530071952107289
4097000000.0000005 0.5442697563601079 -0.897758886245421
4099999999.9999995 0.534935215907093 -0.926270395147976
4102999999.9999995 0.5402767125352747 -0.9084956486891446
4106000000.0 0.5296209721272972 -0.9019114660085062
4109000000.0 0.4860214401571513 -0.9171393141682086
4112000000.0 0.5239732682521706 -0.93733681210159
4115999999.9999995 0.5607270545330058 -0.8882114149483257
4119000000.0 0.4994725750659947 -0.91396092475981
4122000000.0 0.4936493572180017 -0.9035378531356576
4125000000.0 0.5292075267520631 -0.9448981320770099
4128000000.0 0.49290919238547115 -0.8781794428146309
4131000000.0 0.5242909543402928 -0.892918895373138
4134000000.0000005 0.5141692827583562 -0.9016985714811682
4138000000.0 0.5029509316995462 -0.9114961289615994
4141000000.0 0.48401883945344026 -0.8910507648313375
4144000000.0 0.5615214485490113 -0.9452560276064239
4147000000.0000005 0.5054470965396427 -0.9058823105678433
4150000000.0000005 0.549483256275307 -0.9422098388374638
4152999999.9999995 0.480264221248075 -0.9193627977944709
4155999999.9999995 0.5353673536828231 -0.9293629176214192
4159000000.0 0.5283922201619928 -0.8916895565447691
4162000000.0 0.4963371729322755 -0.9159684894862135
4166000000.0000005 0.4984492120779459 -0.9281239563906549
4168999999.9999995 0.4923931795793146 -0.9274286031003357
4171999999.9999995 0.5330543023140109 -0.9189184965887476
4175000000.0 0.5345466345371709 -0.9014143917427971
4178000000.0 0.531097302197966 -0.9420463064441646
4181000000.0 0.5145525643848549 -0.9217168928176828
4184000000.0 0.49874749662857853 -0.88178744377977
4187999999.9999995 0.5123677146702865 -0.8858556284105886
4191000000.0 0.5386083971614712 -0.860513223618662
4194000000.0 0.4967016629293478 -0.8890332930581343
4197000000.0 0.499963183543662 -0.9068978959276758
4200000000.0 0.5286689550681314 -0.8685145343437068
4203000000.0000005 0.5258708724375432 -0.8846169295703459
4206000000.0000005 0.5278819222209047 -0.9136096933456904
4208999999.9999995 0.5189672319171366 -0.8820910495559379
4211999999.9999995 0.4696944701109399 -0.9114841262929897
4216000000.0 0.5284893387009362 -0.8953634043619839
4219000000.0000005 0.5329376116576398 -0.9000171126681642
4222000000.0000005 0.5038598447036343 -0.9056005286260225
4224999999.9999995 0.49931526698544904 -0.8904965728412182
4227999999.9999995 0.5040741480523646 -0.8959507685854011
4231000000.0 0.5049305537689665 -0.9131679426544659
4234000000.0 0.5066052646940115 -0.9064544582494289
4238000000.0000005 0.4940184473637189 -0.8948013098624263
4240999999.9999995 0.4909865253923912 -0.8990215396374142
4244000000.0 0.5072599834688764 -0.893091852833319
4247000000.0 0.5185249013407138 -0.8965131692809957
4250000000.0 0.49222247843603034 -0.8743466296720975
4253000000.0 0.4957274338542659 -0.8735804163368198
4256000000.0 0.5269636302596347 -0.909072029799237
4259000000.0000005 0.49097096186048905 -0.878602321390844
4261999999.9999995 0.47201137305760155 -0.8924810123948348
4266000000.0 0.4763986305630305 -0.9166232540364946
4269000000.0 0.5260235191416092 -0.8908519053921539
4272000000.0000005 0.5022589895447503 -0.8960921495664868
4275000000.0000005 0.49949808107950033 -0.9025350176611372
4277999999.9999995 0.5108259350934178 -0.9202617542624171
4280999999.9999995 0.5036618579887759 -0.8823483361006016
4284000000.0 0.49506368252146943 -0.9199488006257415
4288000000.0000005 0.5302497783100321 -0.8952147972890497
4291000000.0000005 0.5038946050940871 -0.8597039126252946
4293999999.9999995 0.5186370035652795 -0.8930223783581758
4297000000.0 0.5264036520259547 -0.865517395095499
4300000000.0 0.5032770589534604 -0.88290846313393
4303000000.0 0.5060418156367547 -0.9141948157632849
4306000000.0 0.5477769883651695 -0.8931237469215935
4309000000.0 0.5046456848280266 -0.8797080162931483
4312000000.0 0.5413774226235702 -0.9101910086767899
4316000000.0 0.5323178187280116 -0.9123739477400264
4319000000.0 0.48887702906150016 -0.8697359484992045
4322000000.0 0.48139958783541537 -0.89850900960924
4325000000.0 0.5189617401163564 -0.8815244593303447
4328000000.0 0.5042397059695134 -0.8905119595354888
4331000000.0 0.4595467626307377 -0.9221970677576893
4334000000.0 0.4884022021570762 -0.907932609566076
4338000000.0 0.513198712407156 -0.8680829163095025
4341000000.0 0.5374685129313268 -0.9008351229648697
4344000000.0 0.5127990161546084 -0.9266261320284297
4347000000.0 0.48520993754180886 -0.903750959795765
4350000000.0 0.49921295438469665 -0.8695799627362477
4353000000.0 0.47511982518951423 -0.8549716363184003
4356000000.0 0.4627447049592829 -0.8960206510246744
4359000000.0 0.4922317287232455 -0.8685354779994441
4362000000.0 0.45897762208778037 -0.898275637955117
4366000000.0 0.49486874853931506 -0.9094007489928229
4369000000.0 0.4874475401592508 -0.8630931854972341
4372000000.0 0.4690107564154105 -0.886400342463646
4375000000.0 0.5072503459218641 -0.8682080159686666
4378000000.0 0.4947493627292807 -0.8639521036814427
4381000000.0 0.4793542663800169 -0.8837640810807618
4384000000.0 0.5113055556231026 -0.9462265498950002
4388000000.0 0.5038698718067256 -0.8803756921537377
4391000000.0 0.498049238914268 -0.9040404128641792
4394000000.0 0.4794076714594698 -0.8785953031610749
4397000000.0 0.46885312103378374 -0.8696480471800501
4400000000.0 0.505937434313205 -0.9101732957839407
4403000000.0 0.49527288111827417 -0.9111786272060092
4406000000.0 0.4732764553288832 -0.90504665950641
4409000000.0 0.4927417509489159 -0.9164607357162929
4412000000.0 0.43275204385053 -0.9228952282323308
4416000000.0 0.46727775699736407 -0.8867208043354369
4419000000.0 0.4597547710624647 -0.9097965150700904
4422000000.0 0.5029086320811019 -0.8800977386755366
4425000000.0 0.527461038379019 -0.8973438251929852
4428000000.0 0.47188250853845204 -0.8972020434812339
4431000000.0 0.4928158631678369 -0.922314594213289
4434000000.0 0.4629474812658146 -0.8925519780089234
4438000000.0 0.49569432192930185 -0.9113910011252878
4441000000.0 0.4954296599216388 -0.9042306716143297
4444000000.0 0.48056273631121416 -0.8781929067908162
4447000000.0 0.4684047587781037 -0.9004362688291201
4450000000.0 0.4807946663944431 -0.8951917692751936
4453000000.0 0.49633155401911033 -0.9134090737851286
4456000000.0 0.45241941463257873 -0.8704117756763872
4459000000.0 0.4478156011386067 -0.8815279963295801
4462000000.0 0.4946702459007696 -0.9562096934464845
4466000000.0 0.48301332090128896 -0.9219524117398052
4469000000.0 0.4972420171733722 -0.8914555833452953
4472000000.0 0.46560434140091367 -0.9158413474429864
4475000000.0 0.4650926970678776 -0.8710522517192889
4478000000.0 0.4714495480226043 -0.9397575240764244
4481000000.0 0.4425306059417756 -0.8782020708093241
4484000000.0 0.41736650848882556 -0.9139890845211539
4488000000.0 0.4598026285441232 -0.8934996954808855
4491000000.0 0.47108955917187884 -0.9108348562969246
4494000000.0 0.46629487879987946 -0.8904564588128019
4497000000.0 0.49157580400137907 -0.8827075566088752
4500000000.0 0.4640480874709535 -0.9072962392103132
4503000000.0 0.47360244247418753 -0.9101032512206418
4506000000.0 0.4531123899659898 -0.909667721131439
4509000000.0 0.4520020961071746 -0.8721666962652398
4512000000.0 0.4471794076953292 -0.8872192935051093
4516000000.0 0.4764306938999655 -0.9073919093090118
4519000000.0 0.4586694483435478 -0.8973176609990843
4522000000.0 0.46013249603760203 -0.9128511752193518
4525000000.0 0.47926348481804526 -0.8922602933843478
4528000000.0 0.4591918019724929 -0.9251418306816841
4531000000.0 0.4853152313555255 -0.9050235273230103
4534000000.0 0.47178587991614784 -0.8899082951339441
4538000000.0 0.44129854327835 -0.9101969656223896
4541000000.0 0.41887334484397526 -0.9106515760423157
4544000000.0 0.4550851772532635 -0.8926505716690096
4547000000.0 0.4825867211526559 -0.8994383593388433
4550000000.0 0.4458460201523836 -0.9340504496886399
4553000000.0 0.4517637633280309 -0.9114897521864196
4556000000.0 0.423921240529434 -0.8911717808539357
4559000000.0 0.45035066537005813 -0.9014786931416949
4562000000.0 0.4637836899202914 -0.9194889930760205
4566000000.0 0.4476225070541813 -0.9209619554478073
4569000000.0 0.4381268980659805 -0.9124347828367246
4572000000.0 0.45261416885824207 -0.9050181390979555
4575000000.0 0.4365851422413748 -0.9299111349533898
4578000000.0 0.49276768364764373 -0.9240791594131903
4581000000.0 0.43245573551539657 -0.9261412006818365
4584000000.0 0.4534908518828633 -0.9177748201710718
4588000000.0 0.4527651603978451 -0.9249587784557507
4591000000.0 0.47922015182649763 -0.8995756166464824
4594000000.0 0.42264158541582864 -0.9137282836711443
4597000000.0 0.44764224693245414 -0.9324159267009193
4600000000.0 0.4278383730682015 -0.9068778154176331
4603000000.0 0.4427390357727501 -0.9103309725508666
4606000000.0 0.44680160779619926 -0.9250838436415835
4609000000.0 0.4443791296699271 -0.9241740808371629
4612000000.0 0.45091147539375764 -0.9256939805921123
4616000000.0 0.4325465497976002 -0.8908947206814106
4619000000.0 0.4493390174437607 -0.9062142922222183
4622000000.0 0.4386512788030387 -0.9316176114836103
4625000000.0 0.4081601375898633 -0.8939541791533963
4628000000.0 0.4525686950929749 -0.9017789015234692
4631000000.0 0.4232965606463408 -0.9282874238103328
4634000000.0 0.4277884177270421 -0.9424514427577535
4638000000.0 0.442235495198555 -0.9172501561329713
4641000000.0 0.44294907788985627 -0.9162064122909661
4644000000.0 0.44008633059915864 -0.9158158158245704
4647000000.0 0.45353764438845523 -0.9280442005083543
4650000000.0 0.4071184102120162 -0.9142536744810897
4653000000.0 0.4460022516470768 -0.9319165836594162
4656000000.0 0.4292509547719724 -0.935514273808473
4659000000.0 0.4231770167173692 -0.9274375930717533
4662000000.0 0.4444327069031895 -0.9361302698331985
4666000000.0 0.4119828587558363 -0.9260184654062825
4669000000.0 0.45338147412884017 -0.9389738891551183
4672000000.0 0.43095315047782845 -0.9636569921670874
4675000000.0 0.4038619391065058 -0.9422724063361518
4678000000.0 0.44382271224165365 -0.9105085362036153
4681000000.0 0.41621385470173416 -0.9566065888675684
4684000000.0 0.4118177165680578 -0.9548483054239023
4688000000.0 0.40007350624098903 -0.9305647060162949
4691000000.0 0.46913867887538796 -0.9485287757607666
4694000000.0 0.4582697511808832 -0.9206614784203769
4697000000.0 0.3938320376787961 -0.906008177032469
4700000000.0 0.4110197099461775 -0.9056486194751928
4703000000.0 0.47035096403002613 -0.8765507572794148
4706000000.0 0.40473629035063746 -0.9493358581904342
4709000000.0 0.4215564920333805 -0.9223104173299456
4712000000.0 0.4172799012028367 -0.9374385860261891
4716000000.0 0.41045153514917926 -0.942592162882402
4719000000.0 0.4618414260784292 -0.9343312166884399
4722000000.0 0.45194033122149957 -0.9289353518608185
4725000000.0 0.42433973202019654 -0.9302095162307065
4728000000.0 0.43307673109293354 -0.9235681677860601
4731000000.0 0.46049470833355166 -0.9461489528870705
4734000000.0 0.41815836944831 -0.9316203271709869
4738000000.0 0.4780293482977825 -0.9845652086525177
4741000000.0 0.419865718187102 -0.9517899443354101
4744000000.0 0.4226896853791564 -0.9636126864671101
4747000000.0 0.4542427059484633 -0.9094213871665385
4750000000.0 0.4037058798678239 -0.9349766187141688
4753000000.0 0.43186570143190756 -0.9456489310905088
4756000000.0 0.42557343419717275 -0.984319959019716
4759000000.0 0.43805852771226134 -0.9257252855835892
4762000000.0 0.41668133118292583 -0.9758594237490769
4766000000.0 0.40294787524302256 -0.9578292003845644
4769000000.0 0.42286944540989574 -0.9456454346885335
4772000000.0 0.4318063769326772 -0.9365919052691832
4775000000.0 0.400379026014023 -1.0030725298010543
4778000000.0 0.45073229098763246 -0.9504444586653411
4781000000.0 0.4245967760004893 -0.9086302840399061
4784000000.0 0.4475493140257718 -0.9266867829380236
4788000000.0 0.3887543221799106 -0.9595842898276319
4791000000.0 0.4229758811405382 -0.9573532383562176
4794000000.0 0.4463895620184788 -0.955126226237963
4797000000.0 0.39934064902485944 -0.9421037019466819
4800000000.0 0.40835124544284707 -0.9464998875149279
4803000000.0 0.37970492162384356 -0.9545494271647733
4806000000.0 0.39882044412036743 -0.9608055870922139
4809000000.0 0.38875235292109356 -0.9632106809600083
4812000000.0 0.36508731481954576 -0.9438119379026859
4816000000.0 0.4517026648955689 -0.9179869144417574
4819000000.0 0.4604281767722843 -0.9730031099157883
4822000000.0 0.4539675488597471 -0.97653809475157
4825000000.0 0.44491809818940664 -0.9567092921934375
4828000000.0 0.4208807695858296 -0.9331030950610283
4831000000.0 0.3725539307098972 -0.9719781464359327
4834000000.0 0.424177416305345 -0.949806173641909
4838000000.0 0.41242054589525307 -0.9733503699461677
4841000000.0 0.39431103286730973 -0.9380616806053463
4844000000.0 0.4602820488928129 -0.9246953060765948
4847000000.0 0.45204555006962144 -0.9084734282813047
4850000000.0 0.4148925521257615 -0.9715798852575454
4853000000.0 0.4140665565952666 -0.9325443178177372
4856000000.0 0.4026328257176534 -0.9431093338988306
4859000000.0 0.4227830370720122 -0.9854316350090537
4862000000.0 0.4404058471899809 -0.916117859390326
4866000000.0 0.4079487012521287 -0.984433664247519
4869000000.0 0.4068377883021733 -0.9531076921518771
4872000000.0 0.41389577971591385 -0.9710061180289122
4875000000.0 0.4813674774406895 -0.955876056421718
4878000000.0 0.4138739907862468 -0.9819178048344307
4881000000.0 0.4258193352503693 -1.023007962675176
4884000000.0 0.44286665573357165 -0.9517782236311699
4888000000.0 0.4580691656257534 -0.9242609757308238
4891000000.0 0.45478374556270595 -0.9666159521680994
4894000000.0 0.3986637962873996 -0.9411795123953267
4897000000.0 0.46856921468853885 -0.9388527053630652
4900000000.0 0.4783665160266944 -0.9638315631174016
4903000000.0 0.42527398064573196 -0.9278829303018988
4906000000.0 0.43964564266082073 -0.9843456647908103
4909000000.0 0.39163751672239966 -0.9769386237199564
4912000000.0 0.4089308307349594 -0.9945940453279768
4916000000.0 0.4204724951166343 -0.9752781949087845
4919000000.0 0.48956765613960446 -0.9814443405031246
4922000000.0 0.4501876563942281 -0.9571605081664443
4925000000.0 0.37462811455682865 -0.9441414388174352
4928000000.0 0.4789439481978452 -0.9351657943537124
4931000000.0 0.459872243729474 -0.9391916315326119
4934000000.0 0.41860897463426033 -0.9057904720885328
4938000000.0 0.40573189443059443 -0.9719754488806619
4941000000.0 0.4411529580938751 -0.9315629284749001
4944000000.0 0.40904118278264234 -0.8980442457054607
4947000000.0 0.40732933456992143 -0.9441082199000522
4950000000.0 0.43461975727119173 -0.9273341422938417
4953000000.0 0.3947471592870224 -1.0192693844608176
4956000000.0 0.4188670715726828 -0.9723534313599437
4959000000.0 0.3836785761880447 -0.9531297494722546
4962000000.0 0.432378232440181 -0.9862215354437036
4966000000.0 0.4315710600885009 -0.997240962904136
4969000000.0 0.496405323066754 -0.9860545569660883
4972000000.0 0.4202903327177947 -0.9611870882191145
4975000000.0 0.4495512198008808 -0.943882030638753
4978000000.0 0.43366461720400107 -0.9787966575969844
4981000000.0 0.4052597070538514 -0.9508009028464239
4984000000.0 0.40903227772817047 -0.9211806110689289
4988000000.0 0.4343754850993541 -0.9488931065080514
4991000000.0 0.46807205223934306 -0.9339394158061882
4994000000.0 0.4629048570001192 -0.9439865104570377
4997000000.0 0.386661071574723 -0.9722169497705535
5000000000.0 0.44720819203393924 -0.9721524310886132
5003000000.0 0.43597361257947065 -0.966419171530425
5006000000.0 0.4410169594142206 -1.016163093506199
5009000000.0 0.43113812633091597 -0.9327165648724454
5012000000.0 0.4162866677399257 -0.9540409699533526
5016000000.0 0.464891216369836 -1.0013370225912142
5019000000.0 0.4611764437252034 -0.9164549676503847
5022000000.0 0.44786634013824655 -0.9818881555428559
5025000000.0 0.4533941075344416 -1.0081958705134084
5028000000.0 0.41040733280854885 -0.9725176121970828
5031000000.0 0.4395457141768546 -0.9549712278737574
5034000000.0 0.41852655546110307 -1.0070837630947713
5038000000.0 0.38315198788705307 -0.9525058712082388
5041000000.0 0.49803982949001374 -0.9625083962283264
5044000000.0 0.4690062011962899 -0.9631310580437086
5047000000.0 0.44721021321143944 -0.952892875892597
5050000000.0 0.4846347425115908 -0.9286852707457924
5053000000.0 0.43580764062041144 -0.9920747256856597
5056000000.0 0.4698649231604094 -0.9450279499034309
5059000000.0 0.5091100965953084 -0.925325553935644
5062000000.0 0.39708355140145285 -1.0131564604660048
5066000000.0 0.5018876695257981 -0.9473784610171733
5069000000.0 0.4261099772566314 -0.9660676701764608
5072000000.0 0.44313651852127506 -0.9420622362897433
5075000000.0 0.46434838876735407 -0.9556200148924077
5078000000.0 0.44232519296305844 -0.977241122061042
5081000000.0 0.4416341566685488 -0.9395476783151462
5084000000.0 0.45829675441585116 -0.9696885993336938
5088000000.0 0.45429839034625663 -0.9400124566987156
5091000000.0 0.4077586601341448 -0.9293655518867581
5094000000.0 0.4357660838135916 -0.9596991916582052
5097000000.0 0.469712750130216 -0.9306757680856153
5100000000.0 0.4311880414442236 -0.9744595677895955
5103000000.0 0.43403992331524316 -1.0004075328408764
5106000000.0 0.4868563603743097 -0.9717642431773752
5109000000.0 0.4683853660712038 -0.9292346871815103
5112000000.0 0.42000152218874603 -0.9565403871407209
5116000000.0 0.40324269433157733 -0.9396554269554391
5119000000.0 0.42971665192569664 -0.9662541632371406
5122000000.0 0.5008615893300317 -0.946612582468062
5125000000.0 0.46951912033459786 -0.9277004512374734
5128000000.0 0.4802159393898214 -0.9968516922501824
5131000000.0 0.465727831839896 -0.9576796470535051
5134000000.0 0.45002312950235585 -0.9566790322352614
5138000000.0 0.48645940119076164 -0.9311741332799357
5141000000.0 0.4710460737260631 -0.912279159417271
5144000000.0 0.43098624724698675 -0.9668210183136179
5147000000.0 0.45078513326341063 -0.9642782215789103
5150000000.0 0.4672507417386563 -0.9488011141847179
5153000000.0 0.43755045550959637 -0.9577335303811201
5156000000.0 0.4301716317979847 -0.9669334796638355
5159000000.0 0.456766589028025 -0.9531156934189124
5162000000.0 0.40213989686148394 -0.9379109975892685
5166000000.0 0.43733422429081614 -0.9818128774185928
5169000000.0 0.47536910509410074 -0.9632751169216398
5172000000.0 0.49027765471329593 -0.9221802379680092
