! Created with skrf 1.8.0 (http://scikit-rf.org).
# Hz S RI R 50.0 
!freq ReS11 ImS11
4000000000.0 0.06521949513001302 -1.0231808313052797
4003000000.0 0.11932193593848894 -1.0349876720917905
4006000000.0 0.034039873915446495 -1.0295849628925673
4009000000.0000005 0.06866065495906654 -1.0370623749773002
4011999999.9999995 0.08375770478597644 -1.065477953622111
4016000000.0 0.03722518013219106 -1.0140183349084602
4019000000.0 0.08316632656888434 -1.0202343291839155
4022000000.0000005 0.04758670827788136 -1.0270251876883232
4025000000.0000005 -0.0004903174573568925 -1.049972303401185
4027999999.9999995 0.0033216008026855093 -1.0273210011988123
4030999999.9999995 0.0600610070385004 -0.9990180176513755
4034000000.0 -0.002607323633797759 -0.9807923241142912
4038000000.0000005 0.04266072019301048 -1.014758219351765
4041000000.0000005 0.02367406192443494 -1.0012297139689628
4043999999.9999995 0.035125387627772425 -1.0442886567722216
4046999999.9999995 0.014151958139809018 -1.0849952683447919
4050000000.0 0.020262328762103765 -1.0634917411456624
4053000000.0 0.013288606184609253 -1.0062911483963042
4056000000.0 0.023531974710339798 -1.005300353494247
4059000000.0 0.003342938367123821 -0.9957577108827296
4062000000.0000005 0.009272566196250942 -1.0420690093978298
4066000000.0 0.004935157545746138 -0.9600989619190058
4069000000.0 -0.04072204379297914 -1.0506209166754323
4072000000.0 -0.004091513808178793 -0.9957043132446605
4075000000.0 -0.036028750581933944 -1.0593138436954548
4078000000.0000005 -0.031672356820365816 -1.010959889703169
4081000000.0000005 0.0023054696712466183 -1.012203937359787
4083999999.9999995 -0.04476846812755944 -1.0309654118010438
4088000000.0 -0.015443774510469285 -1.021062416405703
4091000000.0 -0.02334419741213435 -1.053727989077303
4094000000.0000005 -0.04154931495497897 -0.9932295471522494
4097000000.0000005 -0.04277225331522657 -1.023431081629777
4099999999.9999995 -0.05391038313862065 -1.007432847983693
4102999999.9999995 -0.02063662777896299 -1.0117503371864462
4106000000.0 -0.08875340515131053 -1.040558418071563
4109000000.0 -0.06425151379803132 -1.024106151984513
4112000000.0 -0.07879363286513699 -0.9969037661807305
4115999999.9999995 -0.046780975539021476 -1.0038209797266393
4119000000.0 -0.07283696401113003 -1.0266698355647181
4122000000.0 -0.10120263046475257 -0.9804871783834703
4125000000.0 -0.08574786103031994 -1.0155090956171375
4128000000.0 -0.07036993475632651 -0.9929804947390143
4131000000.0 -0.11254462016369539 -0.9978994408538113
4134000000.0000005 -0.056616662939421906 -1.0037638386793615
4138000000.0 -0.09783415804395464 -1.000798894770969
4141000000.0 -0.087498032336696 -1.0063061386554462
4144000000.0 -0.08402546397158714 -1.0174178707014965
4147000000.0000005 -0.12894517491457577 -1.0230288129389344
4150000000.0000005 -0.15232980307055938 -1.0258906600296724
4152999999.9999995 -0.1205935763981934 -0.9874650900322249
4155999999.9999995 -0.12541218105481106 -1.0230322129382505
4159000000.0 -0.1278902388018643 -0.9725040349443225
4162000000.0 -0.13627205035051737 -1.0036628273369232
4166000000.0000005 -0.1463367272152368 -1.0185134183113977
4168999999.9999995 -0.15120956579723907 -0.9832584491234158
4171999999.9999995 -0.1648161229536706 -1.0113154190990679
4175000000.0 -0.1629236731245881 -1.0370707355685953
4178000000.0 -0.16109859814945338 -1.0009140635685019
4181000000.0 -0.19794100534543024 -0.9677054118128624
4184000000.0 -0.15416627251369056 -0.9633108313261411
4187999999.9999995 -0.19366206279357703 -0.9811210601950695
4191000000.0 -0.16262923069823487 -0.9892532865264361
4194000000.0 -0.2054494430640991 -0.9833191030732436
4197000000.0 -0.1893241874047204 -0.9913521520821583
4200000000.0 -0.1690103649021181 -1.0073668377040839
4203000000.0000005 -0.20417249135774312 -1.0194944198586626
4206000000.0000005 -0.2056808947312562 -0.984505810046041
4208999999.9999995 -0.23408611416228292 -0.9645505873559657
4211999999.9999995 -0.25635912743412786 -0.9619021814740856
4216000000.0 -0.22344072932362996 -1.0234737438614971
4219000000.0000005 -0.22822945034036002 -1.001942480379181
4222000000.0000005 -0.23732833709108786 -0.9627227373087711
4224999999.9999995 -0.2516237161552161 -0.9703501295727166
4227999999.9999995 -0.26983466490481467 -0.960490828343523
4231000000.0 -0.29788397179916193 -0.9797840789713246
4234000000.0 -0.31505562070070203 -0.9734368766756203
4238000000.0000005 -0.29369575572635725 -0.9593373971235952
4240999999.9999995 -0.2995638173313512 -0.9162106388859027
4244000000.0 -0.3092040606870625 -0.9414207020286974
4247000000.0 -0.2990059771158663 -0.9565602290118733
4250000000.0 -0.3092798183670717 -0.93672913726229
4253000000.0 -0.32180151368819654 -0.9368772568128109
4256000000.0 -0.34203714099144755 -1.0131307436150045
4259000000.0000005 -0.3533575231012389 -0.9115986444581583
4261999999.9999995 -0.3614735031950082 -0.9289906927008182
4266000000.0 -0.4036516007271348 -0.948805789295799
4269000000.0 -0.34817186945466094 -0.9233128418062688
4272000000.0000005 -0.3319586882327451 -0.9215777927937343
4275000000.0000005 -0.34410511377949804 -0.965363142664355
4277999999.9999995 -0.3988852497913103 -0.9831446053814328
4280999999.9999995 -0.37829655473294943 -0.94068555737022
4284000000.0 -0.422563347071633 -0.9134530221261273
4288000000.0000005 -0.37623505531928364 -0.9196900406841222
4291000000.0000005 -0.41369404091872997 -0.9035487810477607
4293999999.9999995 -0.4131196242266213 -0.9116025373493528
4297000000.0 -0.3692787627923869 -0.9147908308921238
4300000000.0 -0.4207250986181708 -0.8903868609218282
4303000000.0 -0.45553297166268897 -0.9043818843831286
4306000000.0 -0.43727233037895796 -0.9225942052918517
4309000000.0 -0.43253790883335724 -0.9026676818499765
4312000000.0 -0.4292672626103709 -0.9142215314256115
4316000000.0 -0.43687038063009437 -0.8803871725323471
4319000000.0 -0.4654339144909632 -0.8723551348749554
4322000000.0 -0.5102054829465053 -0.8677305100111712
4325000000.0 -0.5141720201627256 -0.8920492006155005
4328000000.0 -0.4981505513902774 -0.8481593287875812
4331000000.0 -0.533827498317107 -0.8510930582737894
4334000000.0 -0.5402312581324523 -0.8581573840593618
4338000000.0 -0.5178187962111498 -0.8546296262111223
4341000000.0 -0.5215983753973159 -0.8623594262091374
4344000000.0 -0.549085353891908 -0.8676112497850637
4347000000.0 -0.5689607482808837 -0.8297000627637459
4350000000.0 -0.5810098446298981 -0.8143718612586343
4353000000.0 -0.5642925574917421 -0.8175152582962675
4356000000.0 -0.6140246639817816 -0.8003716742976169
4359000000.0 -0.5947129189244625 -0.7886333130704863
4362000000.0 -0.6298668265541563 -0.804234571330847
4366000000.0 -0.6272448495703926 -0.813672191565205
4369000000.0 -0.6166907593427131 -0.7881479464129051
4372000000.0 -0.6350661557923225 -0.7799213864551356
4375000000.0 -0.6359593487510031 -0.78498476266805
4378000000.0 -0.6511852651318384 -0.7766966793401673
4381000000.0 -0.6586634260909854 -0.7457013835191408
4384000000.0 -0.6937977407138672 -0.7683890062609533
4388000000.0 -0.6874658439270871 -0.7413288329720757
4391000000.0 -0.6997600184979089 -0.735751181755871
4394000000.0 -0.7248023806117851 -0.7291988115859839
4397000000.0 -0.7242328288843645 -0.7360421239547442
4400000000.0 -0.7263053274206399 -0.7076278891585625
4403000000.0 -0.745295533328455 -0.717453723501566
4406000000.0 -0.7574881039049615 -0.6889797862589978
4409000000.0 -0.7552958221509921 -0.6759768008069879
4412000000.0 -0.738236527659966 -0.6745810018716996
4416000000.0 -0.7442258340869323 -0.6618196070856792
4419000000.0 -0.783966312851458 -0.6507296592598621
4422000000.0 -0.7861457151745722 -0.6555764003440122
4425000000.0 -0.826774966325098 -0.6208813437965959
4428000000.0 -0.8152698811729134 -0.6254077887717643
4431000000.0 -0.7816957473171036 -0.6190570394922738
4434000000.0 -0.8239220580581171 -0.5818917137875457
4438000000.0 -0.8388923703216018 -0.5897538253852824
4441000000.0 -0.8606075788413055 -0.5335256784674112
4444000000.0 -0.8696018127434746 -0.5754233463536393
4447000000.0 -0.8726448960632748 -0.5556095346907977
4450000000.0 -0.9011420525041478 -0.5209998569147684
4453000000.0 -0.8314404162663085 -0.5065888583918294
4456000000.0 -0.8919362412706296 -0.49436806422816937
4459000000.0 -0.9186249030471627 -0.5417906523052209
4462000000.0 -0.9067804005303743 -0.4473057715259287
4466000000.0 -0.9347231727085509 -0.47624792888784273
4469000000.0 -0.9114752015941479 -0.406582918511991
4472000000.0 -0.9011422458799404 -0.40292955438728
4475000000.0 -0.9726853677887288 -0.3799794346686159
4478000000.0 -0.904443878949389 -0.38007875218012593
4481000000.0 -0.9603106600987188 -0.3902983582717155
4484000000.0 -0.9815391026974234 -0.3724327064157655
4488000000.0 -1.0151542604837367 -0.34368670006097024
4491000000.0 -0.980205428151595 -0.34172888931299705
4494000000.0 -1.0014129726983239 -0.34541192232506257
4497000000.0 -0.9947269833125896 -0.27477580715498984
4500000000.0 -0.9860511988692955 -0.2563231988979363
4503000000.0 -1.0162140370950237 -0.22737167247840162
4506000000.0 -1.0150801782544001 -0.2466033320194243
4509000000.0 -1.0035564570299584 -0.17701898054964582
4512000000.0 -0.9936163968668776 -0.20715353164409922
4516000000.0 -1.0188089009785193 -0.14801931742056817
4519000000.0 -1.0205062376800909 -0.11360142367059883
4522000000.0 -1.001490724307986 -0.16459532247960923
4525000000.0 -1.0696218517079978 -0.06658746252636982
4528000000.0 -1.0004252109817249 -0.10422844365644346
4531000000.0 -1.0143319348356605 -0.023722242658521575
4534000000.0 -1.0524082007462687 -0.025230632666518926
4538000000.0 -1.0347502855634363 -0.03951674601488486
4541000000.0 -1.0141548680403971 0.007284907302091748
4544000000.0 -1.050908761396938 0.04782492460664267
4547000000.0 -1.0421181683732688 0.08819396758281689
4550000000.0 -1.0618662642158052 0.029570475414577635
4553000000.0 -1.0224270697861435 0.12091880211568051
4556000000.0 -1.0827368880220285 0.09297606899840949
4559000000.0 -1.03708680085068 0.12831339243680656
4562000000.0 -0.9997673753240905 0.15913803806105084
4566000000.0 -1.008893370192197 0.1619221279644336
4569000000.0 -1.0657666858546058 0.23794671209408413
4572000000.0 -1.0012181947368477 0.2416961315833721
4575000000.0 -0.9552151329219364 0.22406732314867628
4578000000.0 -0.990987285582879 0.2696346827309026
4581000000.0 -0.9651494129207483 0.28281111456983227
4584000000.0 -0.9834215487671074 0.33920572622886513
4588000000.0 -0.944439256110049 0.3677895840748713
4591000000.0 -0.9677253462665695 0.4148849671915097
4594000000.0 -0.9804229606093516 0.38146328334082763
4597000000.0 -0.941904329078321 0.431643767933948
4600000000.0 -1.0055632597039927 0.4460477482526722
4603000000.0 -0.8566055165868993 0.47586468068040166
4606000000.0 -0.9465678902450488 0.4924540613512627
4609000000.0 -0.8923636137921205 0.5133033263525266
4612000000.0 -0.8522440176807182 0.5094145783367201
4616000000.0 -0.8878676704103622 0.5814209622055699
4619000000.0 -0.8478666985947253 0.6443081517310881
4622000000.0 -0.8271505962050223 0.654445059602974
4625000000.0 -0.8858303682006424 0.6321637930504127
4628000000.0 -0.8467313964336198 0.7000226340703197
4631000000.0 -0.8465373281996693 0.685349674111544
4634000000.0 -0.7821607004740702 0.7015616930379391
4638000000.0 -0.7840161361426575 0.7144078378840297
4641000000.0 -0.6938835453035971 0.7499702625890532
4644000000.0 -0.687780775811229 0.7350864703865896
4647000000.0 -0.719287801528856 0.736159572161939
4650000000.0 -0.6499334469772395 0.7435679083676279
4653000000.0 -0.5691343020207098 0.7677193562375364
4656000000.0 -0.6692434643296896 0.8456427808369884
4659000000.0 -0.602394186047066 0.8250558902309011
4662000000.0 -0.5812149309472874 0.8372042924822295
4666000000.0 -0.5816420865741563 0.8948546649255564
4669000000.0 -0.5191647882922787 0.910388356592082
4672000000.0 -0.5358360116883918 0.9478113024154835
4675000000.0 -0.45202798671691086 0.909838584341665
4678000000.0 -0.5119009252073122 0.8813196773276722
4681000000.0 -0.35108437918588153 0.924875307436122
4684000000.0 -0.47086082460379375 0.8788749715457251
4688000000.0 -0.40954416733494686 0.9431241132519405
4691000000.0 -0.4067699735727109 0.8985814641606938
4694000000.0 -0.3881518922566948 1.0026773997103116
4697000000.0 -0.3217419569825317 0.9494609716652938
4700000000.0 -0.32673560578991256 1.010822716654454
4703000000.0 -0.29645051355602253 0.9688804614778319
4706000000.0 -0.3148563463704518 0.9583135947585583
4709000000.0 -0.2865881051119383 0.9924369545896403
4712000000.0 -0.21304458767082424 0.9837513233417945
4716000000.0 -0.18524877317469066 1.012754906433813
4719000000.0 -0.1476087386416207 1.0155043665530674
4722000000.0 -0.1565886178852512 1.0795515079975708
4725000000.0 -0.11034726650336327 1.006109009947525
4728000000.0 -0.09482646513304546 1.0454086893778158
4731000000.0 -0.09456335898039825 1.0081555104071032
4734000000.0 -0.05169848281124828 1.0226878166831375
4738000000.0 -0.03366458966904118 0.9946357438567345
4741000000.0 0.007609617630566286 0.9713290930170174
4744000000.0 0.04291929202333164 1.0330560136470395
4747000000.0 0.05054796379237311 1.0716269754114358
4750000000.0 0.07958953195636027 0.9773124716414302
4753000000.0 0.13964577425796737 1.0377163281960682
4756000000.0 0.14675668001020292 0.9965631988640339
4759000000.0 0.13889598614802828 1.018422237460855
4762000000.0 0.13590363501690417 0.9943219574989414
4766000000.0 0.1892357380365719 0.9476831525985188
4769000000.0 0.21125661488990083 1.046168955507211
4772000000.0 0.23815298743743202 0.983173280710372
4775000000.0 0.25228235746731764 0.9711898636659583
4778000000.0 0.21662721489825074 0.9753522232329261
4781000000.0 0.29415858757466273 0.9971283048574048
4784000000.0 0.30164700657628113 0.9851508957297741
4788000000.0 0.27515909283071144 0.9766898128217943
4791000000.0 0.37202739408487195 0.9528576176902696
4794000000.0 0.36677580715518177 0.9000135103649223
4797000000.0 0.42010153767934344 0.9739006146944793
4800000000.0 0.4589749463904885 0.9124996571786355
4803000000.0 0.39334539236484267 0.9437174688400155
4806000000.0 0.4231855029587783 0.9202653917758704
4809000000.0 0.40682375480814226 0.9269522133626319
4812000000.0 0.47069427473096137 0.9250105443790655
4816000000.0 0.5242785084112658 0.86465336560747
4819000000.0 0.5224586074891814 0.8364610119215278
4822000000.0 0.5254789588690029 0.8318192002248166
4825000000.0 0.5515082145628097 0.842511630967255
4828000000.0 0.5572690196229968 0.8238330303848026
4831000000.0 0.5191320773421162 0.8220637567594191
4834000000.0 0.5984199965605737 0.7844964305668134
4838000000.0 0.6093397533187692 0.8210685632897535
4841000000.0 0.63076454541904 0.7832318440564094
4844000000.0 0.6229326674084267 0.7869310615488825
4847000000.0 0.6734394413449389 0.8127012404236319
4850000000.0 0.65755549868098 0.7712040491049478
4853000000.0 0.6812509805815548 0.7399188580914964
4856000000.0 0.6862537498459536 0.7479790402744884
4859000000.0 0.6851618034804801 0.7197647544632952
4862000000.0 0.7203089199197534 0.7224672282855111
4866000000.0 0.7138411278438689 0.7242277764361285
4869000000.0 0.7070507316069056 0.710792858610125
4872000000.0 0.7147512989822917 0.6770743903342613
4875000000.0 0.762176375850138 0.6606991819825476
4878000000.0 0.7842320294056088 0.6688321897723197
4881000000.0 0.7053435649403144 0.6346536270988007
4884000000.0 0.7954874542336293 0.6508304118362952
4888000000.0 0.8125071982682499 0.6422117829379775
4891000000.0 0.7922485342328891 0.5943808488797802
4894000000.0 0.7781476622525676 0.6052001496467225
4897000000.0 0.7995302790214744 0.5797977751897118
4900000000.0 0.8528027767716352 0.5456535096974553
4903000000.0 0.8395117869640473 0.5783530365030205
4906000000.0 0.8485298505115444 0.569760383810909
4909000000.0 0.8420247762248649 0.5438659680066039
4912000000.0 0.8346486543185919 0.5055645494876752
4916000000.0 0.8580180625135098 0.5157325048734691
4919000000.0 0.8614193883925284 0.4913958647054343
4922000000.0 0.8895341235066995 0.5112366126340134
4925000000.0 0.8453520053878083 0.5044627292407855
4928000000.0 0.8930954509303489 0.4834638431967631
4931000000.0 0.9055371864372582 0.4833822759904317
4934000000.0 0.883645038131439 0.4804593715222817
4938000000.0 0.9129028711436856 0.4651456962301572
4941000000.0 0.8995732701112588 0.4244046896856052
4944000000.0 0.9081981300170151 0.4586207156771842
4947000000.0 0.9064438274547817 0.4299731777388476
4950000000.0 0.9343168881270553 0.4173946799213926
4953000000.0 0.9117545753313545 0.3915647240924307
4956000000.0 0.9211548771749856 0.4043657472431953
4959000000.0 0.9336932939846776 0.36925619171488744
4962000000.0 0.9205409009830074 0.354948762424561
4966000000.0 0.9379549279458161 0.3820686932872092
4969000000.0 0.9389261371744623 0.3467914048421895
4972000000.0 0.969845543367108 0.3400922996465489
4975000000.0 0.943863668187527 0.3364241361218554
4978000000.0 0.9561110721960162 0.3267507607826059
4981000000.0 0.9429698232692887 0.31487985302222204
4984000000.0 0.9729983469248951 0.3131535998915071
4988000000.0 0.9418020448633098 0.3060154009771953
4991000000.0 0.9907712460553997 0.3256469554126501
4994000000.0 0.9551168678970385 0.3100410256683532
4997000000.0 0.9798079301018022 0.2998462106195804
5000000000.0 0.9908400776357544 0.28923891827364473
5003000000.0 0.9783024238176574 0.28399464876608105
5006000000.0 0.9973006972382429 0.24618681040598983
5009000000.0 0.9693156849260387 0.24258238834292123
5012000000.0 0.9711837553097078 0.22522609558734852
5016000000.0 0.9986762382238876 0.24433192631530742
5019000000.0 0.9454332116737576 0.1990555308134231
5022000000.0 0.9744415456865683 0.22049076704870646
5025000000.0 1.0341411575352881 0.22931215349533274
5028000000.0 1.0222535989071555 0.20546377052631015
5031000000.0 0.9876353815254337 0.1880090066220006
5034000000.0 1.0416606784016977 0.18538384111621004
5038000000.0 0.9812013521095229 0.15645613806287073
5041000000.0 0.9854706188510758 0.21626291099887512
5044000000.0 0.9599113157109056 0.1775265804649418
5047000000.0 1.0382870201557877 0.17976519489310921
5050000000.0 0.990971803360259 0.22681126181147987
5053000000.0 1.0351739814570693 0.1417872042103015
5056000000.0 0.9757911687913325 0.1816595693293711
5059000000.0 1.0063834124526374 0.21376587478255366
5062000000.0 1.016527444611005 0.11547158792106504
5066000000.0 0.9731405131970763 0.1625342311430043
5069000000.0 1.0288019931442118 0.14906950170930888
5072000000.0 0.9781552265417821 0.09595519492647797
5075000000.0 1.0180468279099573 0.11853502488705453
5078000000.0 1.0454992428787686 0.04384827923110024
5081000000.0 0.970376642657041 0.05432871718949972
5084000000.0 1.0314893753117345 0.061705743075407715
5088000000.0 0.984207238961586 0.09323109967728022
5091000000.0 1.0809398689383642 0.02027338831516079
5094000000.0 1.0129331486996396 0.07320370545486599
5097000000.0 1.0518002575646066 0.11505248687184305
5100000000.0 1.0265802200423813 0.031230691736505167
5103000000.0 1.0174158207747923 0.047937578103157796
5106000000.0 1.0829359449794862 0.0671833592046302
5109000000.0 1.004091322226932 0.0943388712231864
5112000000.0 1.0116931053665825 0.034171370342532204
5116000000.0 0.974553449781207 0.0603072443922798
5119000000.0 1.0233583917529778 0.09250380078492176
5122000000.0 1.0310552438289364 0.02445029611735411
5125000000.0 1.0146093471207558 0.02117486853916184
5128000000.0 1.0185563611933584 0.023540561479569455
5131000000.0 0.9844950950880776 0.028105928593502083
5134000000.0 1.0347112185727028 0.011653070170572655
5138000000.0 1.0074181412495435 0.014132396602757169
5141000000.0 1.0226223857698813 0.03481455627913044
5144000000.0 1.077279776080806 0.04038483228122064
5147000000.0 1.0468792780651588 0.0038309795802479174
5150000000.0 1.0012889000095822 0.009251869256689305
5153000000.0 0.9981786479499108 -0.018737280574576798
5156000000.0 1.0808188702742496 -0.004770597156731449
5159000000.0 1.0562734884826788 0.009594245278525704
5162000000.0 0.9694446358001253 -0.003080646499857842
5166000000.0 1.0952559814495286 -0.11865689297362647
