! Created with skrf 1.8.0 (http://scikit-rf.org).
# Hz S RI R 50.0 
!freq ReS11 ImS11
4000000000.0 0.2873089271546419 -0.9756082947462188
4003000000.0 0.31699522834433513 -1.0101270851276443
4006000000.0 0.2802917530876169 -1.006587344830894
4009000000.0000005 0.24810376545026774 -0.9682207376849606
4011999999.9999995 0.346792976717556 -1.0140036859991426
4016000000.0 0.25985887882557235 -1.010250478141644
4019000000.0 0.29862069886122344 -0.9695247401502674
4022000000.0000005 0.3386605741627356 -1.0327374577054973
4025000000.0000005 0.25059024813668945 -1.0324362043813504
4027999999.9999995 0.2933825092645878 -0.9867049444917295
4030999999.9999995 0.24851600530417015 -0.9816498637833211
4034000000.0 0.2691975001502561 -0.963342236586596
4038000000.0000005 0.2766298164652098 -1.0253211074747408
4041000000.0000005 0.2519389045071141 -0.9818489712700659
4043999999.9999995 0.27377030114044065 -1.0647282104405935
4046999999.9999995 0.29867847973096007 -1.0596078099281736
4050000000.0 0.24411562470579873 -1.0085662569097147
4053000000.0 0.25450516611933494 -0.9681395741852528
4056000000.0 0.2608653939067861 -0.9807136067923042
4059000000.0 0.24976559218107197 -0.9819724335288191
4062000000.0000005 0.23449674589201924 -0.991048765632309
4066000000.0 0.22484902820056213 -0.9414094312262803
4069000000.0 0.22959181480102692 -1.0086209781119455
4072000000.0 0.2854978123448641 -0.9907370558153404
4075000000.0 0.3254273428727248 -1.0120908290799258
4078000000.0000005 0.26296373774883486 -0.9969662734666745
4081000000.0000005 0.29579484692764635 -1.013224295943304
4083999999.9999995 0.23534971920470193 -1.0322384797879391
4088000000.0 0.28048050177885653 -0.9668260379090671
4091000000.0 0.23604323848993733 -1.036659704610444
4094000000.0000005 0.24288156738773853 -0.9845312707131569
4097000000.0000005 0.2500030080933997 -0.9595189044172945
4099999999.9999995 0.21894256373009252 -0.9956931599437776
4102999999.9999995 0.26971546377286315 -1.0036449571817119
4106000000.0 0.2200043656268118 -0.9976166519287812
4109000000.0 0.255491283780735 -1.003404258292886
4112000000.0 0.2478446490085138 -1.0025138299902308
4115999999.9999995 0.24152461062903594 -0.9906063124220491
4119000000.0 0.2378879636521159 -0.9848970363454919
4122000000.0 0.19348303313099222 -0.9973674107112604
4125000000.0 0.20319316332314688 -1.028990180750335
4128000000.0 0.23747060145844345 -0.9827991683061829
4131000000.0 0.21461094544682732 -1.0005162855146628
4134000000.0000005 0.2377058327335971 -0.9922506539748056
4138000000.0 0.1855917185151268 -0.9884590299523783
4141000000.0 0.22156343887252097 -0.9779422633524831
4144000000.0 0.2221439419983766 -1.0431829465162437
4147000000.0000005 0.18587569754983665 -1.0016523399516983
4150000000.0000005 0.19999389364081932 -0.9918708788355641
4152999999.9999995 0.2147763842898523 -0.9974610749549208
4155999999.9999995 0.22261707166362663 -1.0239793815822908
4159000000.0 0.2025189619362632 -0.9776706433103638
4162000000.0 0.2151531269360919 -0.976374489967182
4166000000.0000005 0.1961700297959355 -1.0296743557072427
4168999999.9999995 0.18828605961289938 -0.99126350937027
4171999999.9999995 0.21831731966269563 -1.0265000002257492
4175000000.0 0.23625304667082386 -1.0254561576763581
4178000000.0 0.18918836887640778 -1.001231487055482
4181000000.0 0.15272093496933611 -0.994039485406901
4184000000.0 0.19656017041856316 -0.9773769143341402
4187999999.9999995 0.18431235008001534 -0.9937630766783075
4191000000.0 0.229966050307298 -0.9742605464379391
4194000000.0 0.17494069838151705 -0.984505304594084
4197000000.0 0.18753100173920154 -1.0241320389090838
4200000000.0 0.20402706687042244 -1.0006083428342911
4203000000.0000005 0.20123356183052293 -1.0329039638321922
4206000000.0000005 0.1920830183661225 -1.0277194965693728
4208999999.9999995 0.17226338276445252 -0.9940857968106555
4211999999.9999995 0.13530157639116774 -1.0135525449821072
4216000000.0 0.1835548757171221 -1.0217424940357287
4219000000.0000005 0.18276340808527589 -0.9993455996121305
4222000000.0000005 0.16903754435643517 -0.995375933091691
4224999999.9999995 0.16798335009440174 -1.0141762689878526
4227999999.9999995 0.1444607293185701 -1.0189501966672025
4231000000.0 0.14531555109332403 -1.0123385134068275
4234000000.0 0.14281126142799283 -1.0325858462610507
4238000000.0000005 0.1260082507630242 -1.0139285184700868
4240999999.9999995 0.12809583675187192 -0.974432209433527
4244000000.0 0.15721920178054918 -1.0046274506298758
4247000000.0 0.13116793369846608 -0.9955294168312963
4250000000.0 0.13370091707208706 -0.9772598560281962
4253000000.0 0.12812669781689015 -0.9855756955063377
4256000000.0 0.12285141128647922 -1.0697633991207227
4259000000.0000005 0.11302631729100426 -0.9624560834503152
4261999999.9999995 0.1130223088216179 -0.9995773877562316
4266000000.0 0.10393136714483672 -1.0098009172759446
4269000000.0 0.15235091449452584 -0.9839801328104404
4272000000.0000005 0.14350683108115855 -1.0059575097685
4275000000.0000005 0.12645862516846385 -0.9971966753211273
4277999999.9999995 0.13421439844126493 -1.0315909603624407
4280999999.9999995 0.12472889375186225 -1.0138311793226
4284000000.0 0.09505952714382887 -1.0118405497547636
4288000000.0000005 0.1464033330474069 -0.9819992278767625
4291000000.0000005 0.09161556828920525 -0.9652890135655072
4293999999.9999995 0.10845986778238326 -1.0042293702446825
4297000000.0 0.13222411934165373 -1.0044488112531353
4300000000.0 0.11381481823492767 -0.9815746634201965
4303000000.0 0.089968707044629 -0.9811031437646927
4306000000.0 0.09834793844890843 -1.0033262754898935
4309000000.0 0.1156369504751873 -0.998106223315337
4312000000.0 0.13446837008054097 -1.0315374344032788
4316000000.0 0.08753589259910838 -1.0155484359549027
4319000000.0 0.10317774912645422 -0.9994161381261935
4322000000.0 0.053812362023009264 -1.013679827461504
4325000000.0 0.0840627396102473 -1.0148808677594459
4328000000.0 0.08447928970838159 -0.9787959230646911
4331000000.0 0.04214147405591484 -1.0468784769617863
4334000000.0 0.05023525262772721 -1.0183144274165763
4338000000.0 0.08975224749220839 -1.0081856301123857
4341000000.0 0.10345319184187424 -1.0103668407180837
4344000000.0 0.057696541547112457 -1.031230660163105
4347000000.0 0.03070481213180143 -1.024787522823388
4350000000.0 0.037479043757387254 -0.9721762464019543
4353000000.0 0.06326165293383945 -0.9896118617388943
4356000000.0 0.012540742077730094 -0.9928467193856603
4359000000.0 0.04050584912508398 -0.9713463048517527
4362000000.0 -0.006718428036340374 -1.0242094503273478
4366000000.0 0.02475394979279011 -1.0386243778247963
4369000000.0 0.013829452802506192 -0.9778391044649201
4372000000.0 -0.011390568829206082 -1.013836465980679
4375000000.0 0.049523491428275446 -0.9922996129402144
4378000000.0 0.024820517828594013 -0.9791991454711513
4381000000.0 0.01894514750737003 -0.9946046237971979
4384000000.0 0.00422142154084304 -1.0564008479443054
4388000000.0 0.014249309576807256 -0.9990308558620402
4391000000.0 0.013262966654152941 -1.0182858113922082
4394000000.0 0.0028234490157676984 -0.9875602570272002
4397000000.0 -0.01070045743940684 -1.0127455407214307
4400000000.0 -0.013787338374120495 -1.0207362223622036
4403000000.0 -0.014381825168165108 -1.0296348708797936
4406000000.0 -0.02181771236427721 -1.0192481951831818
4409000000.0 -0.03340045591985091 -1.0309448242724926
4412000000.0 -0.0715965590554885 -1.0051600647327705
4416000000.0 -0.018731317841895467 -1.004929268420728
4419000000.0 -0.03659820479443543 -1.0000968987021024
4422000000.0 -0.024893300629290127 -1.010169863517067
4425000000.0 -0.024993384699516785 -1.024467265013215
4428000000.0 -0.05917638366572647 -1.0143190183764637
4431000000.0 -0.034338837114752774 -1.012847859910832
4434000000.0 -0.06281487143460623 -0.9863843851513155
4438000000.0 -0.04787059198060217 -1.0209805837349601
4441000000.0 -0.07976357854435356 -1.0285911092696196
4444000000.0 -0.06041650473477078 -0.998840888691849
4447000000.0 -0.08240948296342165 -0.995126369828135
4450000000.0 -0.06555666545056704 -1.0054986338686445
4453000000.0 -0.0902287228914545 -1.019833080352921
4456000000.0 -0.07929208828814865 -0.9772939785980577
4459000000.0 -0.116267699875438 -0.9927348824703341
4462000000.0 -0.11891469072904592 -1.0426599086486295
4466000000.0 -0.10470356685865634 -1.0555068307447386
4469000000.0 -0.08846474933345172 -1.0171422837585822
4472000000.0 -0.12310928225412276 -0.9888301814288003
4475000000.0 -0.09590362770297312 -0.9997279888400059
4478000000.0 -0.1280200213200372 -1.0111862528299933
4481000000.0 -0.12968743637911395 -0.9867218126739135
4484000000.0 -0.16959227275126781 -1.033919719568087
4488000000.0 -0.14072323119687108 -1.0131938039855566
4491000000.0 -0.1196256789948209 -1.049678811430398
4494000000.0 -0.14018531793753813 -1.0083472097391109
4497000000.0 -0.12327425445950896 -0.9910257474137418
4500000000.0 -0.14753389136235073 -0.9878540722823335
4503000000.0 -0.1661423201271352 -1.0177679522423715
4506000000.0 -0.18597664001185943 -1.0027620189406088
4509000000.0 -0.17964294093351013 -0.9905606875209158
4512000000.0 -0.17127053864678715 -0.9977250112246727
4516000000.0 -0.1807595932817157 -1.0265324949061623
4519000000.0 -0.16739640232925884 -0.9856300705161294
4522000000.0 -0.1632425371466109 -0.992079340324705
4525000000.0 -0.18530896594980517 -1.0152073766100709
4528000000.0 -0.2005687546620742 -1.0155273798045397
4531000000.0 -0.21070120916770835 -1.0176991923490042
4534000000.0 -0.20878169612323422 -0.9844324278836616
4538000000.0 -0.20709419833615694 -1.0095677087496024
4541000000.0 -0.22080896994000668 -0.9720790152892019
4544000000.0 -0.2311842819281443 -0.9700178034973664
4547000000.0 -0.24470065163721763 -0.9861319406355394
4550000000.0 -0.2358337256718713 -1.0097573676524632
4553000000.0 -0.2662652718831865 -0.9809139785553121
4556000000.0 -0.2541303622246085 -0.9816736860996383
4559000000.0 -0.23817849277701253 -0.9901595062555804
4562000000.0 -0.25437874982853054 -1.0034588930202144
4566000000.0 -0.2744506975901164 -0.9962366286438432
4569000000.0 -0.28631468777829155 -0.9730974212529299
4572000000.0 -0.2881519751526641 -0.9737808641716669
4575000000.0 -0.25710065304654267 -0.972443841881532
4578000000.0 -0.29373747618830465 -0.9977390300281551
4581000000.0 -0.297331468767321 -0.9603009557915366
4584000000.0 -0.31080687574870564 -0.9793641393867231
4588000000.0 -0.3033318573796762 -0.9729133450020544
4591000000.0 -0.3093317975391341 -0.9910733290372047
4594000000.0 -0.32162804882729146 -0.9590835720503053
4597000000.0 -0.3366497124840773 -0.9805959053616425
4600000000.0 -0.33193409736324403 -0.9980653894973385
4603000000.0 -0.35602365036138356 -0.9549618207839261
4606000000.0 -0.35663022170546865 -0.993350614530817
4609000000.0 -0.31843388992129373 -0.9545888956039512
4612000000.0 -0.35581315008769815 -0.9353727219622554
4616000000.0 -0.35641058746920656 -0.9384300618245636
4619000000.0 -0.38626190009118044 -0.9219746523157465
4622000000.0 -0.41074581475180366 -0.9391952660476928
4625000000.0 -0.4275919411785647 -0.972619018150662
4628000000.0 -0.4264759460006774 -1.033874702721205
4631000000.0 -0.38551806389482757 -0.9792202364968399
4634000000.0 -0.4301027377760257 -0.938678081544097
4638000000.0 -0.3977221281430997 -0.9604739965783738
4641000000.0 -0.43453604191479855 -0.8924279829685958
4644000000.0 -0.4166418904273048 -0.9325015638510333
4647000000.0 -0.3972296700914558 -0.9380302768029407
4650000000.0 -0.4344195722163791 -0.9224284810121568
4653000000.0 -0.4206133392892659 -0.9209601423588215
4656000000.0 -0.43268269204611853 -0.9517129953209915
4659000000.0 -0.4901647116181569 -0.9138755768514246
4662000000.0 -0.4866821293601631 -0.9178068925496122
4666000000.0 -0.5317595668315979 -0.9289084314469054
4669000000.0 -0.48811846725506414 -0.9427353362406484
4672000000.0 -0.5255732436828287 -0.958116769848193
4675000000.0 -0.5519051495359123 -0.9248048498486626
4678000000.0 -0.49722591447758613 -0.8642541099842421
4681000000.0 -0.5399453991567986 -0.8906893723982175
4684000000.0 -0.5724696819468215 -0.9015572637150171
4688000000.0 -0.5965569636432033 -0.8518038590306845
4691000000.0 -0.5470702241599936 -0.92293190890591
4694000000.0 -0.48351519910722984 -0.9110605442146478
4697000000.0 -0.5376339314813191 -0.785606930841129
4700000000.0 -0.5057649622824232 -0.8657326247173174
4703000000.0 -0.44540179148988807 -0.8260128081303932
4706000000.0 -0.5786653691756338 -0.8336837980259985
4709000000.0 -0.5659140056348886 -0.8161709541803615
4712000000.0 -0.5532533393753294 -0.9013934986035486
4716000000.0 -0.6260289378267216 -0.8739361862459673
4719000000.0 -0.5394919534927543 -0.8738932506170966
4722000000.0 -0.5914526669608328 -0.8363036181821436
4725000000.0 -0.5998110051985859 -0.8050648246691028
4728000000.0 -0.6243652034777923 -0.8519769251453638
4731000000.0 -0.6436293816487461 -0.8635504446442839
4734000000.0 -0.6247237421276652 -0.8156292280316195
4738000000.0 -0.657313502601538 -0.8847007111968939
4741000000.0 -0.6629091609170314 -0.8389387393389934
4744000000.0 -0.6777930081196786 -0.7710541599640905
4747000000.0 -0.6465674143726915 -0.7886372931393774
4750000000.0 -0.6675668019386127 -0.8360171928218768
4753000000.0 -0.7013833699498805 -0.8163178486387243
4756000000.0 -0.7061364965354626 -0.7830471066487895
4759000000.0 -0.7191998381192278 -0.8107174971472947
4762000000.0 -0.7916807330913194 -0.7802503538771919
4766000000.0 -0.7117525728473526 -0.73993790231109
4769000000.0 -0.7218701697749381 -0.7368712561839204
4772000000.0 -0.7228457897755145 -0.7448063463875679
4775000000.0 -0.7539816670279391 -0.7343173611591853
4778000000.0 -0.7876705671825641 -0.6866863363181005
4781000000.0 -0.7689150606620004 -0.6990245842282757
4784000000.0 -0.7610773236142669 -0.6959421627153182
4788000000.0 -0.8370785499764585 -0.6941501333460562
4791000000.0 -0.7721341660299244 -0.7214509897870751
4794000000.0 -0.7824973668542525 -0.752127510164392
4797000000.0 -0.756378024779909 -0.6686098872738353
4800000000.0 -0.7891387436301401 -0.6417113837030579
4803000000.0 -0.8182959710681594 -0.611047968905189
4806000000.0 -0.839223129047177 -0.6485191269099247
4809000000.0 -0.8690446070712989 -0.5978511029111708
4812000000.0 -0.846175588065636 -0.5688540474752152
4816000000.0 -0.8452341291263772 -0.6317562009432234
4819000000.0 -0.8736912545158173 -0.6062493536766833
4822000000.0 -0.8905551728436151 -0.6122621422840849
4825000000.0 -0.8905722152689663 -0.6133776697160098
4828000000.0 -0.9073224927772221 -0.5615619806182577
4831000000.0 -0.9035874144906733 -0.5500170865892808
4834000000.0 -0.8895842913064538 -0.5390869891613155
4838000000.0 -0.8919218446730532 -0.491450810403059
4841000000.0 -0.9010207607828856 -0.4981270196397748
4844000000.0 -0.9405037216821132 -0.4993910778371507
4847000000.0 -0.9021204957526808 -0.4794670896693446
4850000000.0 -0.9322659393590889 -0.48067509774331907
4853000000.0 -0.9246903722865488 -0.43190333850235674
4856000000.0 -0.9915163791619146 -0.4476346671454313
4859000000.0 -0.9921117621938851 -0.39615984687194067
4862000000.0 -0.9488845622628092 -0.4358875937501592
4866000000.0 -0.9540917977002715 -0.38785294994217073
4869000000.0 -0.9859221048213203 -0.41090470818498714
4872000000.0 -0.9596297931862634 -0.3628596264534784
4875000000.0 -0.9854526453957113 -0.36943310089863535
4878000000.0 -0.9959174038312146 -0.34255629974624113
4881000000.0 -0.9569461826130734 -0.2804186944940531
4884000000.0 -1.0018499543336221 -0.29465988062166093
4888000000.0 -0.9837962972840877 -0.2619037272986871
4891000000.0 -0.9801388177410194 -0.24518424543408632
4894000000.0 -0.9820162496573804 -0.2841733804673433
4897000000.0 -1.0033686755579267 -0.22604164593289824
4900000000.0 -1.0410334093176319 -0.19715485998676463
4903000000.0 -1.0443706259526138 -0.19707424520784073
4906000000.0 -1.0716863367420169 -0.1739454095861206
4909000000.0 -1.021894633312826 -0.15331886292934216
4912000000.0 -0.9974893394899946 -0.026389503100758605
4916000000.0 -1.0124526539374108 -0.0772042658116725
4919000000.0 -1.0254945785775686 -0.06448351906795335
4922000000.0 -1.0058841121077826 -0.005617967474903007
4925000000.0 -1.0062415047737723 0.009391930566147844
4928000000.0 -1.0508223180709166 0.007070243864338077
4931000000.0 -1.0573238563259533 0.031757385154473294
4934000000.0 -1.0367358537796716 0.023742099925981475
4938000000.0 -1.0463175006542953 0.04234327174923003
4941000000.0 -1.0243870655282594 0.13533583280623007
4944000000.0 -1.1062264847205836 0.12783809832365994
4947000000.0 -1.0766970959200002 0.1151847543687683
4950000000.0 -1.043229227495092 0.1314560337843066
4953000000.0 -0.9370386407060003 0.17371934868976013
4956000000.0 -1.053344362819496 0.18865565503722848
4959000000.0 -1.0433560371781816 0.2233612135656099
4962000000.0 -1.0130436323157153 0.2614909356548108
4966000000.0 -0.9469726366819713 0.2946218304686922
4969000000.0 -0.9380343624927137 0.3048814739812157
4972000000.0 -0.9363863572895528 0.28676822306296434
4975000000.0 -0.9761277887010659 0.4201401959909294
4978000000.0 -0.9674208489973879 0.3793302822286167
4981000000.0 -0.934410660110218 0.394162497601145
4984000000.0 -0.9467794773052411 0.48092616079612066
4988000000.0 -0.9703385410504011 0.4867577199125685
4991000000.0 -0.8891848983410021 0.5163076687657837
4994000000.0 -0.8884452193536369 0.49811713210797604
4997000000.0 -0.8748373684634257 0.49468586073100895
5000000000.0 -0.8115774527998965 0.5428485887507916
5003000000.0 -0.8224584777419872 0.5640423471679813
5006000000.0 -0.7777429479974287 0.5332820394730539
5009000000.0 -0.7641100162354353 0.6552641685482284
5012000000.0 -0.8285448981372823 0.6647932257709956
5016000000.0 -0.7744708700233349 0.6331240392506714
5019000000.0 -0.7772923023718717 0.6882952212247893
5022000000.0 -0.7297829320600165 0.7103396342071373
5025000000.0 -0.6955239297206217 0.6666193978300942
5028000000.0 -0.6954486022565195 0.7279471944548066
5031000000.0 -0.6621430931333081 0.7498547277989949
5034000000.0 -0.6768208176343312 0.7508049947217219
5038000000.0 -0.6606986130057012 0.7447233850513879
5041000000.0 -0.6023635969453537 0.7991365153951271
5044000000.0 -0.5863504475996081 0.7766529145990403
5047000000.0 -0.5540745653405357 0.8250421768420668
5050000000.0 -0.5384527789967772 0.8933530920070694
5053000000.0 -0.5057180325868688 0.8190626278642755
5056000000.0 -0.45160478299773765 0.8397427290198697
5059000000.0 -0.39519571926277447 0.9058180579746007
5062000000.0 -0.4358372170422202 0.8920228902931346
5066000000.0 -0.356411959476396 0.9497816778587089
5069000000.0 -0.4065443811847752 0.9250192462125186
5072000000.0 -0.4419126820225451 0.9708165800590638
5075000000.0 -0.3060035364697146 0.9262276165185046
5078000000.0 -0.35006030147918127 0.9564226948467567
5081000000.0 -0.29869991293049586 0.9666852738822729
5084000000.0 -0.23548248368895863 0.9525730608468506
5088000000.0 -0.22037889841463915 1.0079748924027392
5091000000.0 -0.19755391782946846 0.9417367572368073
5094000000.0 -0.1986755040839972 0.9721867718650763
5097000000.0 -0.1349816758645802 0.9796850557988671
5100000000.0 -0.12289381794664966 1.0239112730907176
5103000000.0 -0.09697105869650746 1.0015900515368341
5106000000.0 -0.039739631002211506 0.9851087511045877
5109000000.0 -0.05555343065187396 1.0073225847284226
5112000000.0 -0.02991685303725844 0.9956797639315752
5116000000.0 -0.04451051935937439 0.9819032453788913
5119000000.0 0.04057928998402027 0.989455113120594
5122000000.0 0.057923977345255895 0.9900869681013656
5125000000.0 0.08229340435564819 0.9948817721291532
5128000000.0 0.09418913116483996 0.9947819237789507
5131000000.0 0.1345174840614652 0.9877853194753555
5134000000.0 0.16040673605386363 0.983808168287198
5138000000.0 0.169225299729914 0.9604689048647502
5141000000.0 0.16379964522914864 1.0169346140418192
5144000000.0 0.27784442171072843 1.0103776972580703
5147000000.0 0.19996158475914122 0.9816688104028745
5150000000.0 0.26295719729823164 0.9640451032972018
5153000000.0 0.2752262749608001 0.9826250019215749
5156000000.0 0.30707706349782404 0.9735836941968472
