! Created with skrf 1.8.0 (http://scikit-rf.org).
# Hz S RI R 50.0 
!freq ReS11 ImS11
4000000000.0 0.853220911920397 -0.5052692163739361
4003000000.0 0.8936309898474176 -0.544018457089606
4006000000.0 0.8465686776101669 -0.5893692706647449
4009000000.0000005 0.9377399547092982 -0.5804925565457633
4011999999.9999995 0.9530006099199633 -0.4981733731408834
4016000000.0 0.8413259171506753 -0.5994830478732129
4019000000.0 0.8330512989688986 -0.6331791140033326
4022000000.0000005 0.8759765087033453 -0.5455169782157361
4025000000.0000005 0.7799842294089294 -0.6172247612640158
4027999999.9999995 0.861853863805094 -0.5800819578180347
4030999999.9999995 0.842050041054553 -0.5358458797475395
4034000000.0 0.8654849084177727 -0.5413587261845243
4038000000.0000005 0.827201717262683 -0.6084554699904833
4041000000.0000005 0.8574318530464995 -0.5344994870656207
4043999999.9999995 0.9473538239680517 -0.5807099236634005
4046999999.9999995 0.9296483584107142 -0.5681307571782965
4050000000.0 0.8815999500435439 -0.5756255677888378
4053000000.0 0.814258727739005 -0.6307435204589432
4056000000.0 0.8801135329731308 -0.5793423544331937
4059000000.0 0.8590296063009458 -0.5550484988013236
4062000000.0000005 0.8485879452778141 -0.6173963424820447
4066000000.0 0.8013372692916019 -0.5241738212834299
4069000000.0 0.9021875021149757 -0.6407006230339551
4072000000.0 0.8789464907414547 -0.5232357843896235
4075000000.0 0.9343335309156577 -0.5405592343118065
4078000000.0000005 0.8976892329420904 -0.6144098932761709
4081000000.0000005 0.9531693061173505 -0.5205856239393515
4083999999.9999995 0.8393444662006884 -0.6043540974042104
4088000000.0 0.8700258651192279 -0.5032488764910839
4091000000.0 0.9043542994796728 -0.633044952350158
4094000000.0000005 0.8767220631413738 -0.5827235950253717
4097000000.0000005 0.8743698766863088 -0.5613233762041923
4099999999.9999995 0.8518514843876713 -0.5773594169421628
4102999999.9999995 0.916232073902911 -0.5804026925540613
4106000000.0 0.9143702401810374 -0.5794222002502758
4109000000.0 0.8466724784460272 -0.6431973281564629
4112000000.0 0.8773604057896716 -0.6033185376742219
4115999999.9999995 0.8781596735689385 -0.5483491084772539
4119000000.0 0.8319338553326405 -0.619344542730079
4122000000.0 0.840920827806928 -0.5943905084184232
4125000000.0 0.8735691312748944 -0.5996624709800171
4128000000.0 0.8046190536031391 -0.5414708595014072
4131000000.0 0.8454929234704247 -0.5714976265815763
4134000000.0000005 0.8671937792970416 -0.5281578292639068
4138000000.0 0.8233303613762337 -0.5394833489705944
4141000000.0 0.830810204549762 -0.613547789947457
4144000000.0 0.8563647800127064 -0.5430690150527984
4147000000.0000005 0.7946891094446246 -0.5595553969584481
4150000000.0000005 0.902230170933102 -0.579727205381785
4152999999.9999995 0.8786639075265399 -0.5899494881694898
4155999999.9999995 0.8855927230448489 -0.5883327281553021
4159000000.0 0.8474330302647538 -0.5225170316543961
4162000000.0 0.8336989452861299 -0.578801748818787
4166000000.0000005 0.8149766701236617 -0.5671005342357
4168999999.9999995 0.8396506432648063 -0.6093547061089795
4171999999.9999995 0.8961773518718792 -0.5599676966882574
4175000000.0 0.85155419669084 -0.54492508898901
4178000000.0 0.857646620013074 -0.5476996054924782
4181000000.0 0.8513826910746826 -0.5598548911514697
4184000000.0 0.8416126404720716 -0.5928899073186453
4187999999.9999995 0.8629064975958207 -0.60706021515869
4191000000.0 0.851835366840977 -0.5457048529757345
4194000000.0 0.8123401592658702 -0.5369415064974515
4197000000.0 0.8638648505090939 -0.5892989538072388
4200000000.0 0.8453572227219588 -0.5882865887384536
4203000000.0000005 0.851977538161022 -0.5593127901472179
4206000000.0000005 0.841677606121547 -0.5894733220349055
4208999999.9999995 0.8615292543902623 -0.5284698651335709
4211999999.9999995 0.8522621885266697 -0.5641413183549906
4216000000.0 0.8384515160791903 -0.5534247573774105
4219000000.0000005 0.838673205700373 -0.5512841223619789
4222000000.0000005 0.8477603297888588 -0.581486263641386
4224999999.9999995 0.8357203515401758 -0.5373225767736591
4227999999.9999995 0.8662625389417042 -0.5546010703601916
4231000000.0 0.8393863846308705 -0.5608999650850386
4234000000.0 0.865811163052258 -0.533644529178175
4238000000.0000005 0.8542397342222503 -0.5751873269524266
4240999999.9999995 0.8664886581446983 -0.5537836148032577
4244000000.0 0.8715602410206774 -0.542234427694867
4247000000.0 0.8843561020740085 -0.5743980965285487
4250000000.0 0.8484677161032202 -0.5692481789860987
4253000000.0 0.8502904432092464 -0.5583161733756409
4256000000.0 0.8554390260469151 -0.5538957042668653
4259000000.0000005 0.83820174261189 -0.5639402105575877
4261999999.9999995 0.8347356662654873 -0.569675675558441
4266000000.0 0.8449460096698309 -0.583592602039932
4269000000.0 0.8773809021105612 -0.5568249766401352
4272000000.0000005 0.8453482086462327 -0.5625826352853063
4275000000.0000005 0.8525573355932083 -0.5662143291277734
4277999999.9999995 0.8568893730348482 -0.55556720103427
4280999999.9999995 0.8472389558369806 -0.5613509496688146
4284000000.0 0.8336964669518369 -0.5872061519651846
4288000000.0000005 0.8398291872005239 -0.5563318353349453
4291000000.0000005 0.8293118320424435 -0.5441746994862572
4293999999.9999995 0.8407687113466582 -0.5669696917917422
4297000000.0 0.8501410060024084 -0.5539087711481661
4300000000.0 0.8202234060525748 -0.5811652657565689
4303000000.0 0.8354547338078226 -0.5742011834755023
4306000000.0 0.8664671375087938 -0.5502163282043646
4309000000.0 0.8529638219099506 -0.5732391145981397
4312000000.0 0.8884826096281133 -0.543823650934214
4316000000.0 0.8853193249372284 -0.5397864222143639
4319000000.0 0.8471425516697972 -0.5275733046339008
4322000000.0 0.8126896967363604 -0.5652462447838664
4325000000.0 0.8365350908626746 -0.5226225366605501
4328000000.0 0.8254797981119422 -0.5756835210323031
4331000000.0 0.8367171137370317 -0.6054725953004951
4334000000.0 0.8551195782594809 -0.5718121006968708
4338000000.0 0.8492966671834679 -0.5407176240376463
4341000000.0 0.8851590604535162 -0.5477101542249788
4344000000.0 0.8073316316750414 -0.6456344370261472
4347000000.0 0.8742173379977322 -0.5854248730433554
4350000000.0 0.8156830011966499 -0.5301634043167089
4353000000.0 0.8455439738909645 -0.5320571662326211
4356000000.0 0.8543325420247805 -0.5911757129112905
4359000000.0 0.8213313556637278 -0.5452102410946698
4362000000.0 0.8455269589847049 -0.594980368993652
4366000000.0 0.8310932269247344 -0.5741204163221609
4369000000.0 0.8149865733788813 -0.5602804258103772
4372000000.0 0.8126581764656721 -0.6147051908821142
4375000000.0 0.8327607384730549 -0.5308976663221605
4378000000.0 0.840617995046292 -0.5558377312751404
4381000000.0 0.8339541075564685 -0.5443267510564977
4384000000.0 0.8597250236932907 -0.6129215492577594
4388000000.0 0.825223553152235 -0.5628161806005001
4391000000.0 0.8370844522458487 -0.5604827940352
4394000000.0 0.8151571723384856 -0.5386943941410236
4397000000.0 0.8358024342896936 -0.5723833062121875
4400000000.0 0.8677580690719668 -0.577418695042127
4403000000.0 0.8314243776583603 -0.5556188121519305
4406000000.0 0.8187522639614577 -0.585892545000448
4409000000.0 0.8555695168363158 -0.557416365396783
4412000000.0 0.7895761551478229 -0.613769313581868
4416000000.0 0.8241692298165784 -0.5838608852828236
4419000000.0 0.8217853110798288 -0.5781290627849622
4422000000.0 0.8239763442935542 -0.5486081239174931
4425000000.0 0.8767785097896825 -0.5525275009758573
4428000000.0 0.8337948852249332 -0.5843810908715515
4431000000.0 0.8460662969356775 -0.5847534339272707
4434000000.0 0.8242082682950518 -0.5601351347070096
4438000000.0 0.8490669769528177 -0.5906572193019678
4441000000.0 0.8590848741313706 -0.5789375072157167
4444000000.0 0.8288912878361276 -0.5399930899601659
4447000000.0 0.8197391972723863 -0.588219339759721
4450000000.0 0.8263956553942177 -0.5592730770577234
4453000000.0 0.8430327647807292 -0.5963733981177739
4456000000.0 0.8042303680533041 -0.5749504157213459
4459000000.0 0.7734695354895988 -0.5666738299114994
4462000000.0 0.8223890041004732 -0.703374661237967
4466000000.0 0.8572182060241517 -0.6112580333687467
4469000000.0 0.7948131524929025 -0.646892461647084
4472000000.0 0.8467626579299525 -0.6122071629781408
4475000000.0 0.810750977063728 -0.5562695334536027
4478000000.0 0.8580974012794298 -0.610519951984081
4481000000.0 0.795581357464756 -0.5707819735507521
4484000000.0 0.7936132524034056 -0.6081156098082212
4488000000.0 0.8104018900228697 -0.5859339055926227
4491000000.0 0.7719510806399825 -0.6555844118613058
4494000000.0 0.802961241237571 -0.5698648205070014
4497000000.0 0.8348619532202897 -0.5672236991438853
4500000000.0 0.8363485907449414 -0.5654892051221418
4503000000.0 0.839238810363175 -0.5864571306621256
4506000000.0 0.8007097430213116 -0.5804080294384938
4509000000.0 0.836095094498903 -0.5766538807502735
4512000000.0 0.7921652894839001 -0.6095815254658786
4516000000.0 0.8358266722454388 -0.5576240255129699
4519000000.0 0.8045414750349141 -0.5469608660038441
4522000000.0 0.8141964551977979 -0.5771713441853685
4525000000.0 0.7842223870441909 -0.6148657026824393
4528000000.0 0.8473683946635429 -0.6222173374237017
4531000000.0 0.8380021973002529 -0.555745395644023
4534000000.0 0.8163212564265604 -0.5617708343740921
4538000000.0 0.768395678975599 -0.6552509053469935
4541000000.0 0.7961231370123049 -0.6215207069539019
4544000000.0 0.8013705083003017 -0.5702175299318958
4547000000.0 0.8362447790835505 -0.558880739200075
4550000000.0 0.8120231834404135 -0.6198013670055753
4553000000.0 0.8214809702316732 -0.5805293720340159
4556000000.0 0.7858959340539233 -0.580448762907325
4559000000.0 0.7937526010915877 -0.5944924803044294
4562000000.0 0.8188872030751521 -0.5931748493366722
4566000000.0 0.8100888643743629 -0.5992047849978841
4569000000.0 0.7820344522008187 -0.5633952531212942
4572000000.0 0.8162612854032489 -0.586801819826559
4575000000.0 0.8151787336632565 -0.6189124783069285
4578000000.0 0.8567823197946675 -0.5972441522812977
4581000000.0 0.8067450524681369 -0.6251348547671569
4584000000.0 0.8039456059035868 -0.5938634366515857
4588000000.0 0.8343134537125543 -0.5664647651743999
4591000000.0 0.8158665965247349 -0.5678719465280919
4594000000.0 0.807183045710085 -0.6075764623497529
4597000000.0 0.8159357705402812 -0.6026385516588706
4600000000.0 0.7344878710811429 -0.6323907792480861
4603000000.0 0.7836638476227629 -0.6408791518564372
4606000000.0 0.8038735876420425 -0.6027705556238849
4609000000.0 0.8002145143211761 -0.6105308845927244
4612000000.0 0.821731347501138 -0.6155441263775021
4616000000.0 0.7823296019842574 -0.594691253269793
4619000000.0 0.8290642790053888 -0.5757623935019275
4622000000.0 0.8116930586536505 -0.59418279792799
4625000000.0 0.760476860735227 -0.5819134675188703
4628000000.0 0.793491058285804 -0.549080148296333
4631000000.0 0.7727135296792258 -0.6044698324966091
4634000000.0 0.8105621455501447 -0.5846670650456309
4638000000.0 0.7999860284597574 -0.6097100891299819
4641000000.0 0.8111331717304605 -0.6083719490423534
4644000000.0 0.8133460480224864 -0.6056855619288909
4647000000.0 0.816963022862243 -0.6169209016110369
4650000000.0 0.7939821246990761 -0.623305018645316
4653000000.0 0.8219660928519743 -0.6042644622812045
4656000000.0 0.7780040574748639 -0.6191461096992843
4659000000.0 0.7831861637774102 -0.5989708697511296
4662000000.0 0.8011469450707595 -0.6158347236849395
4666000000.0 0.8016568541226642 -0.5934741071022253
4669000000.0 0.8036788545860223 -0.5926206858564367
4672000000.0 0.7877384518721091 -0.6415304182633637
4675000000.0 0.7820030967240238 -0.6239683947199934
4678000000.0 0.7982193707764593 -0.6080018089040237
4681000000.0 0.7939055504122604 -0.6368901771876698
4684000000.0 0.7564153366075501 -0.6079454237179888
4688000000.0 0.7931658389289058 -0.6175531811780469
4691000000.0 0.8088560674199649 -0.5982901061595982
4694000000.0 0.7942339692419375 -0.6312401864314877
4697000000.0 0.7854371440612373 -0.5967270550066294
4700000000.0 0.8263292483633449 -0.6099621301776827
4703000000.0 0.7855614988098785 -0.6230757514216814
4706000000.0 0.7736231914619829 -0.6042821870532724
4709000000.0 0.7674271535727989 -0.6188450824907449
4712000000.0 0.8059374792406245 -0.6042004696343963
4716000000.0 0.8070837427765004 -0.6327829329574014
4719000000.0 0.8041249146980325 -0.6174190210814764
4722000000.0 0.8200990916111908 -0.6118572194827561
4725000000.0 0.7709894697779863 -0.6391684271144206
4728000000.0 0.7703196287681386 -0.6125529136700405
4731000000.0 0.8064936085360371 -0.6207277006164719
4734000000.0 0.8123984143085752 -0.6215614919391013
4738000000.0 0.7886587111937061 -0.626610401779321
4741000000.0 0.7957799663386368 -0.6186923456768811
4744000000.0 0.7837097716175044 -0.6381677031560297
4747000000.0 0.7910884872386404 -0.632894548422667
4750000000.0 0.7934575848831759 -0.6376493551678394
4753000000.0 0.7850482323919847 -0.6319051001089198
4756000000.0 0.7973579925520623 -0.6379206140663645
4759000000.0 0.7886457220110394 -0.6365552930676259
4762000000.0 0.7300086116554176 -0.7158591648611171
4766000000.0 0.7753518660189951 -0.63273105735802
4769000000.0 0.8005729283132934 -0.663695787962523
4772000000.0 0.7903598048434057 -0.636437323116557
4775000000.0 0.793003971007037 -0.6791999852017635
4778000000.0 0.7431778153906199 -0.6869400945417973
4781000000.0 0.7985639830538477 -0.6106834307072841
4784000000.0 0.7775722778024826 -0.6298647794503707
4788000000.0 0.7852852222300395 -0.6490199620760679
4791000000.0 0.7716440524237902 -0.6714359244965417
4794000000.0 0.818797298650692 -0.6490855803327735
4797000000.0 0.7991438958255084 -0.6325312252584799
4800000000.0 0.7635344799677841 -0.6561046285266184
4803000000.0 0.7602493476819119 -0.639979436021662
4806000000.0 0.7766751725739307 -0.6651997827265791
4809000000.0 0.7581932243615515 -0.649836796171595
4812000000.0 0.759697215337578 -0.6555394910682476
4816000000.0 0.8106551634947035 -0.6216500753861861
4819000000.0 0.8140433241493763 -0.6408082993591518
4822000000.0 0.8159935414934639 -0.6507486073765492
4825000000.0 0.8064873312823695 -0.6548736824369327
4828000000.0 0.767611901377281 -0.6362471239804609
4831000000.0 0.7673498840717692 -0.6766027961831373
4834000000.0 0.7920378718480308 -0.6507968527067294
4838000000.0 0.7894497704464754 -0.6567739492972152
4841000000.0 0.7500051068436951 -0.6448101332806156
4844000000.0 0.7876480083759183 -0.6299902247744545
4847000000.0 0.7816493546428864 -0.6097516704717711
4850000000.0 0.80450552971063 -0.6511606878568905
4853000000.0 0.7778774270316251 -0.6378481641230874
4856000000.0 0.7842282495096411 -0.6524555015220782
4859000000.0 0.798517192439148 -0.6537840562669431
4862000000.0 0.7820052794372898 -0.6242272904279971
4866000000.0 0.7684130040159056 -0.6505919078227397
4869000000.0 0.7703226776585657 -0.656262148051182
4872000000.0 0.7817280107137587 -0.7025417024408307
4875000000.0 0.8103980502349196 -0.6292804987421586
4878000000.0 0.7913891002342598 -0.6619026343181538
4881000000.0 0.8050523561545957 -0.7044043624088338
4884000000.0 0.8015694272976214 -0.6407209215121283
4888000000.0 0.7838011874038155 -0.6288925661092799
4891000000.0 0.8186175679616619 -0.6271059870265071
4894000000.0 0.7798968996100956 -0.6571896679862126
4897000000.0 0.7898872728330871 -0.6285004371467607
4900000000.0 0.7978827525848695 -0.6562115782505851
4903000000.0 0.7884537977092612 -0.6338062662504769
4906000000.0 0.7819737290554982 -0.6668528570638563
4909000000.0 0.7834164649301685 -0.665692024025046
4912000000.0 0.7812456967294618 -0.6851291824254837
4916000000.0 0.8283871909238608 -0.6417372562594253
4919000000.0 0.8349395962191397 -0.668723873765475
4922000000.0 0.8234512364740376 -0.6486907509576944
4925000000.0 0.7671334905861991 -0.6559678247757994
4928000000.0 0.8405090214981665 -0.6142939559336578
4931000000.0 0.7957313603674117 -0.6303598889465705
4934000000.0 0.7418356109935398 -0.6042574570989145
4938000000.0 0.7683751199687483 -0.6508313488983948
4941000000.0 0.7859257533172671 -0.6378085216833018
4944000000.0 0.7633454646922676 -0.6042087289325139
4947000000.0 0.7461925817106628 -0.6159396233786649
4950000000.0 0.7572117369037689 -0.6404799436270355
4953000000.0 0.7962965630624422 -0.720489790677348
4956000000.0 0.7930840614480301 -0.6625350447736325
4959000000.0 0.7485707739465434 -0.6856257439112082
4962000000.0 0.7765288370367126 -0.6470486270114822
4966000000.0 0.8081766764486857 -0.6561662897603535
4969000000.0 0.8361755629893634 -0.6670051333372672
4972000000.0 0.7824201241414408 -0.6927969184955483
4975000000.0 0.7817910568679699 -0.6170549470709461
4978000000.0 0.7860822427519187 -0.6698710533283105
4981000000.0 0.754312594106702 -0.6637944187860187
4984000000.0 0.7727357255564046 -0.6383686693384397
4988000000.0 0.7779139229854805 -0.6377834981265378
4991000000.0 0.847301435084402 -0.6100041425263321
4994000000.0 0.8196460088471881 -0.6312424529461903
4997000000.0 0.7945628294791715 -0.7158133750998397
5000000000.0 0.8004790866286977 -0.6449450234582103
5003000000.0 0.8444456574576669 -0.6658310681295421
5006000000.0 0.8209063294378958 -0.7055160086732837
5009000000.0 0.8088033723738761 -0.6521556915494621
5012000000.0 0.7733707075202898 -0.6602104222876685
5016000000.0 0.8511323844956586 -0.6430606619771255
5019000000.0 0.7987600420975515 -0.6446809731331522
5022000000.0 0.7937592704779712 -0.6341361556432645
5025000000.0 0.8609378259660189 -0.6981663649795116
5028000000.0 0.7767323887850466 -0.6677435042794029
5031000000.0 0.8071647313096987 -0.6460410675164531
5034000000.0 0.7839611518648864 -0.7130524856802225
5038000000.0 0.7632185744324076 -0.6339510811044596
5041000000.0 0.8268317501171623 -0.6310689215025715
5044000000.0 0.8009260677149613 -0.6200561112528755
5047000000.0 0.8304839793336262 -0.6205091048909329
5050000000.0 0.8563000953059398 -0.5357729371363513
5053000000.0 0.8227972844489588 -0.6929797056671174
5056000000.0 0.8617052336087402 -0.6071199390197896
5059000000.0 0.8367823400945321 -0.591583021694109
5062000000.0 0.8240293237260925 -0.6949508589222897
5066000000.0 0.7910453001788078 -0.6030524430705942
5069000000.0 0.8211791781307959 -0.6650583914893315
5072000000.0 0.7508018558968433 -0.613495344370242
5075000000.0 0.8193717282448506 -0.6307548856396721
5078000000.0 0.7740162235771004 -0.6740136173760525
5081000000.0 0.7848027784337416 -0.6315327766779822
5084000000.0 0.7987279213982524 -0.6613813931734641
5088000000.0 0.811038679095995 -0.630654981503858
5091000000.0 0.7743421755958282 -0.7224821521748909
5094000000.0 0.8118727361370747 -0.6577367101244699
5097000000.0 0.8419130759323812 -0.6776771252474423
5100000000.0 0.8278598203346649 -0.6326500565162843
5103000000.0 0.8016890339557283 -0.6768766474678577
5106000000.0 0.8922734797606757 -0.6383670119884375
5109000000.0 0.7998601959292968 -0.5943191958478845
5112000000.0 0.7898855662908537 -0.6689739778204792
5116000000.0 0.7669138429484599 -0.6143384485596552
5119000000.0 0.8307677021203563 -0.6427387066434553
5122000000.0 0.809842871638475 -0.6111514799233712
5125000000.0 0.7688601107411003 -0.6042341378846169
5128000000.0 0.8421506788076035 -0.6613154584217
5131000000.0 0.7882737654509734 -0.6405743345301792
5134000000.0 0.8283533125228402 -0.6144448823735382
5138000000.0 0.8480148621577552 -0.648144611712201
5141000000.0 0.8519704759309313 -0.6068385896928672
5144000000.0 0.8423781896313988 -0.6558359064305093
5147000000.0 0.7907457312674365 -0.6734094951014227
5150000000.0 0.8222595333316945 -0.584680209819781
5153000000.0 0.8180221112298376 -0.6108773111328694
5156000000.0 0.8380186619595712 -0.6829119080398303
5159000000.0 0.8751263175925947 -0.6716063081644317
5162000000.0 0.7828771105114327 -0.6334342824589573
5166000000.0 0.8524457688047924 -0.6857104058190595
5169000000.0 0.8373531944691097 -0.6483734386313261
5172000000.0 0.7801853164682195 -0.6258479023120909
5175000000.0 0.8484645111444241 -0.6347937672043427
5178000000.0 0.7820772754684602 -0.6129187826568585
5181000000.0 0.8680259346670612 -0.6451089159541965
