! Created with skrf 1.8.0 (http://scikit-rf.org).
# Hz S RI R 50.0 
!freq ReS11 ImS11
4000000000.0 0.5488604402873892 -0.9007446328671285
4003000000.0 0.5477321496859139 -0.9038891839096288
4006000000.0 0.5241724311568228 -0.8918429278142681
4009000000.0000005 0.530201524317876 -0.8798518724979387
4011999999.9999995 0.5923762759404642 -0.8524423566319121
4016000000.0 0.5052702991653225 -0.9300317518587806
4019000000.0 0.553638552480983 -0.8501078713440731
4022000000.0000005 0.5770434431707876 -0.8492542271584713
4025000000.0000005 0.4953758111567811 -0.9301019064531602
4027999999.9999995 0.5123452000939113 -0.9103193009148856
4030999999.9999995 0.5049928149529056 -0.832338960858227
4034000000.0 0.4987723418600517 -0.9119795916534958
4038000000.0000005 0.5170020126980639 -0.9059603066628087
4041000000.0000005 0.5105653873558044 -0.8801994803779043
4043999999.9999995 0.5523068806922088 -0.9287252718722545
4046999999.9999995 0.566623522436207 -0.8707821550008552
4050000000.0 0.530098608717571 -0.9555705771510239
4053000000.0 0.475377662958838 -0.8763858730312383
4056000000.0 0.5461746668250609 -0.8596950426421783
4059000000.0 0.5550927112862384 -0.8344310350833961
4062000000.0000005 0.5035194668894399 -0.8764709094717708
4066000000.0 0.5117345102137338 -0.8288290719262632
4069000000.0 0.5294627046698945 -0.9043859740715122
4072000000.0 0.5382147496478639 -0.8794073161153624
4075000000.0 0.5646891292946259 -0.8775859137316855
4078000000.0000005 0.520040776351153 -0.9170749155098613
4081000000.0000005 0.5759666141264552 -0.8667036249224165
4083999999.9999995 0.48294865772058165 -0.9279669935675335
4088000000.0 0.5367270448612401 -0.842109662105724
4091000000.0 0.5395984828818743 -0.9377140886604061
4094000000.0000005 0.5576283423066364 -0.8506114177837714
4097000000.0000005 0.526025431656432 -0.8700114957530789
4099999999.9999995 0.5159983706310104 -0.8968063541563956
4102999999.9999995 0.5454739427398657 -0.8818156871998399
4106000000.0 0.5028901492513269 -0.9263359009449128
4109000000.0 0.47505678313719346 -0.9022153964460916
4112000000.0 0.5379166726962333 -0.8861375371549711
4115999999.9999995 0.5437192875080707 -0.8970526548275244
4119000000.0 0.5077913999934638 -0.9183367786574396
4122000000.0 0.4725088699760875 -0.8698814826864883
4125000000.0 0.5098717442631291 -0.9058930361456486
4128000000.0 0.5382428681293957 -0.8224479146021653
4131000000.0 0.5390185994144738 -0.8504555694805684
4134000000.0000005 0.5474837192063753 -0.8660555900307211
4138000000.0 0.48259343623048995 -0.8367200210406831
4141000000.0 0.5386579750094002 -0.8954400105565559
4144000000.0 0.5644126971597188 -0.8719204728876166
4147000000.0000005 0.48870308326230216 -0.8727343435995896
4150000000.0000005 0.5444229205543583 -0.8885894784633648
4152999999.9999995 0.5148175865954943 -0.8639757264357572
4155999999.9999995 0.5384581844259108 -0.8815317016196939
4159000000.0 0.5414268009964749 -0.8519717694769451
4162000000.0 0.5194148469769385 -0.8657517209163492
4166000000.0000005 0.5120152561337039 -0.8926016004405628
4168999999.9999995 0.5040021731228624 -0.8677634086734902
4171999999.9999995 0.5659905487831038 -0.8770495713049633
4175000000.0 0.5212274757528952 -0.870358318744594
4178000000.0 0.5240746457845041 -0.8667618769916541
4181000000.0 0.5077675864190536 -0.9024515047506101
4184000000.0 0.521174007896436 -0.8761358386374171
4187999999.9999995 0.5103334974075104 -0.8722818623356927
4191000000.0 0.5674565456504265 -0.8291012655411972
4194000000.0 0.512619932352253 -0.8607333777466183
4197000000.0 0.5455568393926339 -0.8799121951697344
4200000000.0 0.5519108822400712 -0.8597705853869785
4203000000.0000005 0.541881221038957 -0.8686255402576474
4206000000.0000005 0.5388627554469048 -0.8787786396789873
4208999999.9999995 0.5367836250554265 -0.8515948246372074
4211999999.9999995 0.49365334676721745 -0.8963163946687728
4216000000.0 0.5522072867852819 -0.8579699267764926
4219000000.0000005 0.5485519741848757 -0.8773121256727631
4222000000.0000005 0.5170260050994718 -0.8811043369610047
4224999999.9999995 0.520179105814423 -0.861700627448167
4227999999.9999995 0.5385276635639977 -0.8657469070287885
4231000000.0 0.5532099437163951 -0.8684259133505265
4234000000.0 0.5113438221704106 -0.8789167650575392
4238000000.0000005 0.5156377647525312 -0.8779566251517559
4240999999.9999995 0.5259342925116488 -0.884757263556409
4244000000.0 0.5279009281507 -0.8587495765605958
4247000000.0 0.5413850723089481 -0.8611678096965271
4250000000.0 0.5291826362682577 -0.8633684384555611
4253000000.0 0.5116255185144354 -0.8535626570539654
4256000000.0 0.5279998380141218 -0.8866594956828926
4259000000.0000005 0.5296279802195729 -0.8384379400519877
4261999999.9999995 0.4982931379494579 -0.8717837887192227
4266000000.0 0.5082509202998651 -0.9027461938857347
4269000000.0 0.5288789275017068 -0.8633133423291783
4272000000.0000005 0.5317670229391114 -0.845146200738661
4275000000.0000005 0.5377594586856627 -0.8461817394298581
4277999999.9999995 0.5217094094571971 -0.88743757930363
4280999999.9999995 0.5443408891447763 -0.8739085451831721
4284000000.0 0.510223356746182 -0.8986350359851324
4288000000.0000005 0.5505021029031176 -0.8626371180068911
4291000000.0000005 0.4980575025813979 -0.842306880640316
4293999999.9999995 0.506369453685693 -0.8691065432267734
4297000000.0 0.5411717682833019 -0.8393495835444003
4300000000.0 0.5260930174298136 -0.8652921329221901
4303000000.0 0.49942731030578413 -0.8536509437670183
4306000000.0 0.5353022252328613 -0.8555746129553057
4309000000.0 0.5321851082421691 -0.8544466235899688
4312000000.0 0.5710644896494597 -0.8378579219675302
4316000000.0 0.5445642584649172 -0.8609080232237738
4319000000.0 0.5257837354545998 -0.8576296544812007
4322000000.0 0.5000198791192519 -0.8442003919247438
4325000000.0 0.529864379727944 -0.861965504071163
4328000000.0 0.5089653347532918 -0.8446454264808794
4331000000.0 0.49293380051121355 -0.8742147459609508
4334000000.0 0.49048722765238906 -0.8751206137404576
4338000000.0 0.551448433284589 -0.8732404781678424
4341000000.0 0.5650299044213165 -0.887624529153331
4344000000.0 0.5300191119458277 -0.8434543166835986
4347000000.0 0.5219166919310626 -0.869407400211314
4350000000.0 0.48542897342947644 -0.8262622996758237
4353000000.0 0.5142342264788289 -0.8356543709904396
4356000000.0 0.47503358561524184 -0.8791792701198494
4359000000.0 0.4951865440343391 -0.806289752716513
4362000000.0 0.4911977499411666 -0.8780617951737392
4366000000.0 0.5151888198930134 -0.8810988841782479
4369000000.0 0.48088121523558836 -0.8425203330077597
4372000000.0 0.4684458352254356 -0.8813166982266348
4375000000.0 0.5283787617260026 -0.8425131076295697
4378000000.0 0.4921928267433919 -0.8614161390272723
4381000000.0 0.5137890291345089 -0.8445998488772882
4384000000.0 0.5405736211267522 -0.933859725127539
4388000000.0 0.5210248892581476 -0.8397180302728184
4391000000.0 0.521175446075292 -0.8569487616107875
4394000000.0 0.5075753936988272 -0.8458609809074213
4397000000.0 0.5074657505264565 -0.8598473636578035
4400000000.0 0.5184563397618104 -0.8880691357522728
4403000000.0 0.5231577752228667 -0.8713969050498938
4406000000.0 0.49257601473658613 -0.8810458529825794
4409000000.0 0.5155310681707559 -0.8929436396045276
4412000000.0 0.4590061231617347 -0.878721925045192
4416000000.0 0.48936878548354246 -0.8696632694809711
4419000000.0 0.47626878679554807 -0.8790537408668615
4422000000.0 0.5300860316465944 -0.8585365025860254
4425000000.0 0.5292924903149707 -0.8831105620759755
4428000000.0 0.49622808240380084 -0.88600136362125
4431000000.0 0.5093292744507645 -0.8892915722569503
4434000000.0 0.4926238639807989 -0.8658146420092414
4438000000.0 0.5231579605477056 -0.8814301057475071
4441000000.0 0.5218505244347489 -0.8771666920200463
4444000000.0 0.48347454612360297 -0.8547425298871055
4447000000.0 0.48891247962174095 -0.8694529592178271
4450000000.0 0.49735855348604585 -0.8467020107619201
4453000000.0 0.5179338894001244 -0.8890022587829101
4456000000.0 0.48588141343436253 -0.8399230574548058
4459000000.0 0.4630047209735202 -0.8415848295114665
4462000000.0 0.5273288916909868 -0.9331031748654539
4466000000.0 0.5064641213942647 -0.9190892240641484
4469000000.0 0.5201987308316869 -0.8576847109881351
4472000000.0 0.5002292915242008 -0.9091059147360656
4475000000.0 0.5063808788782167 -0.8564245110727728
4478000000.0 0.4941808580227973 -0.9358286630543703
4481000000.0 0.46372657688319996 -0.8389521029510046
4484000000.0 0.4676428125249778 -0.9074537198881462
4488000000.0 0.48359555745852006 -0.8785504587601536
4491000000.0 0.4823236285044779 -0.8842696337972038
4494000000.0 0.5028660951168606 -0.863648094503636
4497000000.0 0.5007671416733199 -0.8568424506925661
4500000000.0 0.5026502131846553 -0.8816258796782429
4503000000.0 0.518714960824858 -0.8876400268286657
4506000000.0 0.4849484800645377 -0.8772155986683734
4509000000.0 0.47287113982858003 -0.8685467125658851
4512000000.0 0.47469039046830297 -0.8694024825914981
4516000000.0 0.5060555653374414 -0.8955876845365075
4519000000.0 0.49564184721705096 -0.8407868380924911
4522000000.0 0.472999987219885 -0.866904098213448
4525000000.0 0.5263597012277537 -0.8511572100286025
4528000000.0 0.5207269203044822 -0.8952383421174702
4531000000.0 0.5116975583227116 -0.877547409626863
4534000000.0 0.49258346924879676 -0.8679216461763049
4538000000.0 0.4706001230464534 -0.8885952661037826
4541000000.0 0.4546189057164208 -0.8915900647945076
4544000000.0 0.47704872960949724 -0.8703546796242119
4547000000.0 0.501056092156617 -0.8596554394604365
4550000000.0 0.47407890891452914 -0.8825522447033418
4553000000.0 0.4856739970649156 -0.8857468152064552
4556000000.0 0.4647453731565909 -0.8596458351136125
4559000000.0 0.47663587362613613 -0.8773201003242536
4562000000.0 0.5093801099737015 -0.8877039185326651
4566000000.0 0.497283141790017 -0.8751479943520748
4569000000.0 0.45872729758723396 -0.8726358614635303
4572000000.0 0.4941187228535071 -0.8604789562660684
4575000000.0 0.4697097477431531 -0.8987945389399032
4578000000.0 0.5254706224693133 -0.9076401465649933
4581000000.0 0.48361941747370324 -0.8943885982926139
4584000000.0 0.46508714024693637 -0.8883768585782643
4588000000.0 0.49073075912505276 -0.892320361989505
4591000000.0 0.506204059508111 -0.880750941501927
4594000000.0 0.4688395729737632 -0.8880049830800034
4597000000.0 0.4921665387112225 -0.8837514308243097
4600000000.0 0.44376727246321346 -0.8757244565193021
4603000000.0 0.469262780848846 -0.9074967420573016
4606000000.0 0.4943179909824913 -0.8783390219153311
4609000000.0 0.4879367961136542 -0.8826162157110299
4612000000.0 0.4908233554418687 -0.9089618630930667
4616000000.0 0.4746435511361261 -0.8729661756088039
4619000000.0 0.4815966033614308 -0.8833525112838196
4622000000.0 0.47636924172735007 -0.8826530974868506
4625000000.0 0.46006293437137524 -0.8757161534178765
4628000000.0 0.47236370616599677 -0.8666104976168789
4631000000.0 0.45264885784642783 -0.8824783697226392
4634000000.0 0.48469390518746724 -0.8953032537551688
4638000000.0 0.48490321726471053 -0.8945516337084012
4641000000.0 0.46179359281865895 -0.8900421941159815
4644000000.0 0.4845919225274119 -0.886261530120355
4647000000.0 0.47579015176124495 -0.8918325019194467
4650000000.0 0.44781555056531164 -0.883199637094131
4653000000.0 0.4856483800951266 -0.8991411836343923
4656000000.0 0.4668607679675597 -0.8741333908998427
4659000000.0 0.4500208782763761 -0.9044268035058226
4662000000.0 0.4672785331355667 -0.9039494379739224
4666000000.0 0.4498174342725431 -0.913645934003269
4669000000.0 0.470302835756245 -0.9044991958884778
4672000000.0 0.46030585292956794 -0.9189136201609726
4675000000.0 0.46758439350195635 -0.9046465371105445
4678000000.0 0.4410317264969736 -0.8782496650450217
4681000000.0 0.4408209026007834 -0.9107925322619523
4684000000.0 0.41101424671277575 -0.9251696482532052
4688000000.0 0.44679355623673206 -0.9009984062189069
4691000000.0 0.4799838977906286 -0.8998934213609964
4694000000.0 0.4507214860933203 -0.9149710586065688
4697000000.0 0.4146373169278864 -0.861607252943147
4700000000.0 0.44911512322406677 -0.890607332506384
4703000000.0 0.46730704631427866 -0.8556019081477434
4706000000.0 0.4476316873695727 -0.9146752713174037
4709000000.0 0.4385153961500413 -0.8973611766219227
4712000000.0 0.4643927929580349 -0.8908644016026052
4716000000.0 0.4655610409587687 -0.9164056285511799
4719000000.0 0.5024476631454797 -0.8795372217381168
4722000000.0 0.5015570492765523 -0.8818626236413808
4725000000.0 0.4570573147099359 -0.8840989981490603
4728000000.0 0.45830038112896176 -0.9005684778074067
4731000000.0 0.5149699812366617 -0.922196502766788
4734000000.0 0.45944076653465415 -0.8767075490553321
4738000000.0 0.49338875913643815 -0.9180898182913312
4741000000.0 0.4461448427363984 -0.9124302884081131
4744000000.0 0.4208633062901159 -0.9187483232570486
4747000000.0 0.4960480702562959 -0.858269389319881
4750000000.0 0.4539141897429856 -0.9238681822134842
4753000000.0 0.47682129189197386 -0.921335229051033
4756000000.0 0.4761737494785946 -0.9115674431370663
4759000000.0 0.4737093576948286 -0.9133737102657536
4762000000.0 0.46067517130104185 -0.9224040591495403
4766000000.0 0.43800705822696984 -0.9001781096622363
4769000000.0 0.47657872094661424 -0.8956180044199724
4772000000.0 0.48225358310729116 -0.8988881330069722
4775000000.0 0.46906672085766543 -0.9409445142339058
4778000000.0 0.44594219339869606 -0.9291411907178095
4781000000.0 0.47069957720670735 -0.8746863657608193
4784000000.0 0.49480123454625546 -0.9047637940724796
4788000000.0 0.47732296929066353 -0.9293286910510802
4791000000.0 0.46709053280360036 -0.9072087122270005
4794000000.0 0.478562074690716 -0.9334469038963085
4797000000.0 0.42996713233886563 -0.8836786429833084
4800000000.0 0.4326686079616535 -0.9134739269687059
4803000000.0 0.41477819670599525 -0.9129276458964861
4806000000.0 0.46190311261235606 -0.9155157692633876
4809000000.0 0.44241023029305687 -0.9049504582579195
4812000000.0 0.41750431372464414 -0.9383164659011276
4816000000.0 0.47698683218444776 -0.8812204938050004
4819000000.0 0.49829616076290995 -0.9152947387553811
4822000000.0 0.5014568499360847 -0.9348616271080096
4825000000.0 0.5058398230367251 -0.9098975941943492
4828000000.0 0.462199093158989 -0.8924589425633169
4831000000.0 0.4217065165638215 -0.9711749031669127
4834000000.0 0.4902828356098131 -0.9129112609819706
4838000000.0 0.4302590418511359 -0.91880639473429
4841000000.0 0.45329923079190065 -0.9043166540554451
4844000000.0 0.46559785623333694 -0.9226346420187461
4847000000.0 0.4601164914977569 -0.8825055149383054
4850000000.0 0.45780548377758723 -0.9468474091296903
4853000000.0 0.45908835306526286 -0.8867643751099351
4856000000.0 0.43249863004364136 -0.9039263658990382
4859000000.0 0.4738727332969529 -0.9467699806124656
4862000000.0 0.46845688696497445 -0.8770938255289672
4866000000.0 0.45572117481532 -0.9291148161634741
4869000000.0 0.47142931409697436 -0.9066755805590253
4872000000.0 0.4351279903722409 -0.957770909321206
4875000000.0 0.5302363246576912 -0.9216524731890399
4878000000.0 0.47545723765287184 -0.9173598219701342
4881000000.0 0.47683028494276497 -0.9916064562945368
4884000000.0 0.47466691533337474 -0.8816373189842028
4888000000.0 0.513115070269492 -0.889266302324294
4891000000.0 0.49352697506952103 -0.9286562826760488
4894000000.0 0.46364387483479175 -0.9198316239289626
4897000000.0 0.47760127414920145 -0.8710894084519467
4900000000.0 0.4623105075618452 -0.9108138723327708
4903000000.0 0.49752717573765626 -0.9337531152812707
4906000000.0 0.4606076153296076 -0.9086463892014295
4909000000.0 0.464464865246971 -0.8991484545178723
4912000000.0 0.4525527877260318 -0.9421542131921748
4916000000.0 0.4963068594534279 -0.9249052832263902
4919000000.0 0.5181263042054266 -0.94384854100601
4922000000.0 0.5003993661702868 -0.9272828440315762
4925000000.0 0.450342377741018 -0.9407634078130337
4928000000.0 0.47543267100111675 -0.891954836685033
4931000000.0 0.48661656652373614 -0.9195653827482942
4934000000.0 0.45046886651851015 -0.8811437041910285
4938000000.0 0.42955640135074535 -0.9252774504855987
4941000000.0 0.45797787379038585 -0.8972467831626948
4944000000.0 0.44867124783176177 -0.8449353957746196
4947000000.0 0.4427032932044061 -0.8698236284647606
4950000000.0 0.4497069709711318 -0.8840836921746135
4953000000.0 0.4312188510405983 -0.9750565539779303
4956000000.0 0.44730834746209536 -0.9349207392941246
4959000000.0 0.410556874855656 -0.8936687623418705
4962000000.0 0.44156627475795496 -0.9433343304107552
4966000000.0 0.4939047555747321 -0.9346629994359564
4969000000.0 0.4958619370927786 -0.9153090717953626
4972000000.0 0.4588819188075367 -0.944346692441907
4975000000.0 0.46193813039610376 -0.8866746583069995
4978000000.0 0.4573759889251232 -0.9514802754084811
4981000000.0 0.48011597771955916 -0.919085119239698
4984000000.0 0.4765306580582901 -0.8922238016609603
4988000000.0 0.507903394581484 -0.8728604853590732
4991000000.0 0.5265437895906026 -0.9192926633633429
4994000000.0 0.5004942039765481 -0.8885192732346665
4997000000.0 0.43541603762557324 -0.9314814871023367
5000000000.0 0.5092120562473532 -0.9292005514598758
5003000000.0 0.5304352694216234 -0.9316747993336172
5006000000.0 0.5140787400433252 -0.9689500348878217
5009000000.0 0.501375411996684 -0.8772952049834386
5012000000.0 0.4675624997607874 -0.9164460454605804
5016000000.0 0.5207071231403892 -0.9198265440777715
5019000000.0 0.47745199726724363 -0.9068386249959075
5022000000.0 0.4929815999412144 -0.9225591113307595
5025000000.0 0.5033208697343924 -0.9747326240193622
5028000000.0 0.462914381345522 -0.9076740152736527
5031000000.0 0.46705335399079484 -0.924210878400197
5034000000.0 0.45831418849306416 -0.9543202850759424
5038000000.0 0.4597573141853034 -0.8773646454635788
5041000000.0 0.4657573813926248 -0.9175756647411253
5044000000.0 0.49772716272523776 -0.8839765114783007
5047000000.0 0.4662467273139084 -0.9104256640909487
5050000000.0 0.5442213488829258 -0.8571179372864727
5053000000.0 0.4708353801069846 -0.9285034365170453
5056000000.0 0.5033222874228658 -0.9053239031549258
5059000000.0 0.4970248210146161 -0.8980143414330786
5062000000.0 0.4601170728397062 -0.9334067512488817
5066000000.0 0.5337916426805167 -0.9115152408023488
5069000000.0 0.4832452453285819 -0.9130021708318294
5072000000.0 0.5018225140516522 -0.8710673395460906
5075000000.0 0.5172182429218676 -0.9158782556429732
5078000000.0 0.4447249163547179 -0.89174481607677
5081000000.0 0.44545603409084705 -0.8764343135637813
5084000000.0 0.48884551958326206 -0.9420203506346987
5088000000.0 0.5027007379845874 -0.9269237588652344
5091000000.0 0.4887837087844889 -0.9200155899633684
5094000000.0 0.46555282175020096 -0.8561470215090674
5097000000.0 0.5192493296215528 -0.8967379694290732
5100000000.0 0.5070145768636849 -0.9105472179712816
5103000000.0 0.4830371730491932 -0.8977613679253194
5106000000.0 0.4774907323512976 -0.9482974687965545
5109000000.0 0.5162811296209515 -0.9025193138480976
5112000000.0 0.4642858794535953 -0.9140169099128047
5116000000.0 0.4403465656627941 -0.8591896096617684
5119000000.0 0.4862683324010378 -0.9250899614378916
5122000000.0 0.4707270285456834 -0.8843858667810283
5125000000.0 0.530289920023526 -0.8951511271610415
5128000000.0 0.4534869868778882 -0.8978434981850549
5131000000.0 0.4639900613648832 -0.9028321127430025
5134000000.0 0.4948877725121654 -0.9109924417963451
5138000000.0 0.5165999817630682 -0.8535569072790812
5141000000.0 0.554045132057563 -0.8965626749876927
5144000000.0 0.5047571546639045 -0.8974142957025693
5147000000.0 0.4984828340147857 -0.9452758326105253
5150000000.0 0.5284862006381268 -0.8507891361951432
5153000000.0 0.4996483235046999 -0.9401238620020371
5156000000.0 0.5322395870143007 -0.9015850639532996
5159000000.0 0.5377327472881765 -0.9589466104992097
5162000000.0 0.4700811319145795 -0.9303524089962969
5166000000.0 0.4950779690290092 -0.925653319839616
5169000000.0 0.5216599049843744 -0.9404938328254107
5172000000.0 0.4834977493066666 -0.8793029013144176
5175000000.0 0.5553270273120823 -0.9412214285285985
