! Created with skrf 1.8.0 (http://scikit-rf.org).
# Hz S RI R 50.0 
!freq ReS11 ImS11
4000000000.0 0.8657513794281377 -0.4769485153441604
4003000000.0 0.9571143747133595 -0.5515990225136604
4006000000.0 0.8852222343301803 -0.5109841767298604
4009000000.0000005 0.860819579311907 -0.49308339829676495
4011999999.9999995 0.8863486373282111 -0.476339460756245
4016000000.0 0.8795618960721838 -0.5428061265069438
4019000000.0 0.9310372188157722 -0.49473193411481725
4022000000.0000005 0.9220517549739189 -0.3946442501220819
4025000000.0000005 0.8672122375500961 -0.5775314448677448
4027999999.9999995 0.8850668666265997 -0.5435310982003471
4030999999.9999995 0.8582907433436375 -0.4770792235961591
4034000000.0 0.8933476701832969 -0.5307966276370002
4038000000.0000005 0.9166253416989929 -0.5457268006855535
4041000000.0000005 0.851269963323471 -0.5248158478742591
4043999999.9999995 0.9403458135353496 -0.5577832452361549
4046999999.9999995 0.9309022887973323 -0.49995818251677826
4050000000.0 0.8678079715052129 -0.5661087015395566
4053000000.0 0.8417230989389608 -0.5813369408769254
4056000000.0 0.8902034292209067 -0.5384799365904829
4059000000.0 0.8551252007889281 -0.4856637178440949
4062000000.0000005 0.8546873651779174 -0.566483129103807
4066000000.0 0.7969786399468588 -0.4879590771574905
4069000000.0 0.8770129177733613 -0.5568935510298056
4072000000.0 0.9332156620080061 -0.48383212084106364
4075000000.0 0.9360182645643653 -0.5318918891283355
4078000000.0000005 0.9168875778930295 -0.5769796667160381
4081000000.0000005 0.9690522713534998 -0.42934801112286725
4083999999.9999995 0.890371254100091 -0.5570740419226029
4088000000.0 0.9315911010374655 -0.47565732848031017
4091000000.0 0.954121546963397 -0.5965969387010122
4094000000.0000005 0.9217553623144276 -0.5176365709340736
4097000000.0000005 0.8609880836743679 -0.5250994252745047
4099999999.9999995 0.8826132977134503 -0.5472604410144616
4102999999.9999995 0.9069964209383923 -0.5010884860481115
4106000000.0 0.8906574434929553 -0.5310769236171553
4109000000.0 0.8498251237051384 -0.5511103597217405
4112000000.0 0.8584517693702767 -0.5664005609960313
4115999999.9999995 0.8929245754599691 -0.5179298549952263
4119000000.0 0.8635320912593037 -0.551960089869413
4122000000.0 0.9623014537185609 -0.5940116263576936
4125000000.0 0.9056823630731075 -0.5676437316325933
4128000000.0 0.8137057644612816 -0.5122926353468217
4131000000.0 0.8542686112952619 -0.5202041616942094
4134000000.0000005 0.8773419619824439 -0.48338144818744216
4138000000.0 0.8295899921863586 -0.48708184084829875
4141000000.0 0.8450002763211909 -0.5841746972466899
4144000000.0 0.9203791979264697 -0.5504027075618831
4147000000.0000005 0.8231245744743688 -0.5515529000401366
4150000000.0000005 0.9070362049677926 -0.5253112177934477
4152999999.9999995 0.8507932666686701 -0.5330469541150832
4155999999.9999995 0.9339755102120719 -0.49979749150549774
4159000000.0 0.8998763469994494 -0.5110192263890764
4162000000.0 0.8815760172634867 -0.5141292029399971
4166000000.0000005 0.8652273166720378 -0.5280473436463861
4168999999.9999995 0.8991749321303002 -0.5785715946475243
4171999999.9999995 0.9365470652254799 -0.5439481950550302
4175000000.0 0.8712312269490696 -0.5095627659565655
4178000000.0 0.8930642952673691 -0.541905817453253
4181000000.0 0.8860502363873954 -0.5617476902014912
4184000000.0 0.85778994265717 -0.5461583033513356
4187999999.9999995 0.873323215986196 -0.550653002931821
4191000000.0 0.8401809809203775 -0.5126645606100606
4194000000.0 0.8731978348545044 -0.49415083127841436
4197000000.0 0.8652187807083629 -0.5497236031414409
4200000000.0 0.8905793932175238 -0.5577373818231555
4203000000.0000005 0.875250000124523 -0.5156395568086491
4206000000.0000005 0.8643168092433735 -0.5575093402459205
4208999999.9999995 0.8632399945371464 -0.5390944251732079
4211999999.9999995 0.8727264543622759 -0.5384353292096208
4216000000.0 0.8553740480479259 -0.5284610304965875
4219000000.0000005 0.8797175937049724 -0.5158280587865771
4222000000.0000005 0.8970573166285241 -0.5589265654761758
4224999999.9999995 0.8846469478918962 -0.5337073484997572
4227999999.9999995 0.8931348962574502 -0.5223841078617903
4231000000.0 0.9006706191250914 -0.5253976124025828
4234000000.0 0.9062524804673461 -0.5100146556226959
4238000000.0000005 0.8740496009803701 -0.5328398961688432
4240999999.9999995 0.9012146576780755 -0.5331599758082703
4244000000.0 0.8752202546168761 -0.5043615541648625
4247000000.0 0.9182390472712796 -0.5188302783393131
4250000000.0 0.8700790070416958 -0.5252921415897759
4253000000.0 0.8592863176926959 -0.5117140613532649
4256000000.0 0.861584267158139 -0.5391320843046987
4259000000.0000005 0.8695920128195823 -0.5228980312385899
4261999999.9999995 0.8920001403490208 -0.5398119259503179
4266000000.0 0.8816682831473058 -0.5627016933104213
4269000000.0 0.9132253459703481 -0.5261283518124127
4272000000.0000005 0.8511899734568373 -0.5465105755974591
4275000000.0000005 0.8631190522702846 -0.5282040871906928
4277999999.9999995 0.87666086405305 -0.5222124923433615
4280999999.9999995 0.8681167675216868 -0.5321048040352776
4284000000.0 0.8425131897547782 -0.560609817907963
4288000000.0000005 0.8881779526399114 -0.5250877930227056
4291000000.0000005 0.8791125315742148 -0.5289964237338152
4293999999.9999995 0.8579788238976407 -0.5339795537904842
4297000000.0 0.8606533720576497 -0.5046544005901967
4300000000.0 0.8722029851442116 -0.5388998798551841
4303000000.0 0.878287479956291 -0.5191661127739329
4306000000.0 0.8801613953534062 -0.5236471843711782
4309000000.0 0.8524085286561733 -0.5440632256101944
4312000000.0 0.860544873431325 -0.5319149172814004
4316000000.0 0.8541913352476431 -0.5372073149609526
4319000000.0 0.8597070604970782 -0.5160436584728122
4322000000.0 0.8383714065876969 -0.5528786942653049
4325000000.0 0.8548641000301351 -0.5265907588776251
4328000000.0 0.8795181565944096 -0.5357302032209486
4331000000.0 0.8575878892066064 -0.5817743144854706
4334000000.0 0.8952212341195168 -0.5306657795188734
4338000000.0 0.8709944079079537 -0.5336451225578722
4341000000.0 0.8894235597255469 -0.5065270813078336
4344000000.0 0.8559215610271295 -0.5283626028640271
4347000000.0 0.8802963934966733 -0.5796598104841131
4350000000.0 0.8208843739967278 -0.5161529972179457
4353000000.0 0.8542807581805283 -0.5086228394258402
4356000000.0 0.859451971544759 -0.5289960377386157
4359000000.0 0.8385575127763383 -0.5158349675663658
4362000000.0 0.873802651358867 -0.5490712425481862
4366000000.0 0.8451967959158517 -0.5620085232671503
4369000000.0 0.8261776011153719 -0.5313225932368402
4372000000.0 0.8216925050889812 -0.55778678812375
4375000000.0 0.8532288981147188 -0.5157721600114058
4378000000.0 0.8664786955889676 -0.524361490711622
4381000000.0 0.869073754967924 -0.5270927862057466
4384000000.0 0.9089052225575129 -0.5718248326904859
4388000000.0 0.8309149586325293 -0.5147668923909252
4391000000.0 0.8562395385627616 -0.5465645225967869
4394000000.0 0.8491485406521326 -0.5224516702695979
4397000000.0 0.8504555910430399 -0.5434852502002814
4400000000.0 0.8817084487764384 -0.5278229038444568
4403000000.0 0.8741322931109057 -0.5505849936967162
4406000000.0 0.8298908119785297 -0.5688743775925696
4409000000.0 0.8791023240516771 -0.5724236357513341
4412000000.0 0.8317700979231237 -0.5775231472907727
4416000000.0 0.8427778418043634 -0.5386438710185711
4419000000.0 0.8361895697063667 -0.5515142370104236
4422000000.0 0.8412094631398689 -0.5262305508701259
4425000000.0 0.8912171258618827 -0.5407188401775087
4428000000.0 0.8388896764422304 -0.5423732945020482
4431000000.0 0.8522292598605476 -0.556598549070021
4434000000.0 0.8532510148892269 -0.538704699857516
4438000000.0 0.8758870979170059 -0.5805027854231397
4441000000.0 0.8639275134665318 -0.5607786658795169
4444000000.0 0.81755316219401 -0.539124434904012
4447000000.0 0.8302904398384472 -0.5541193151221154
4450000000.0 0.8556806292100845 -0.5245109946494148
4453000000.0 0.8740555791657103 -0.564195394004346
4456000000.0 0.8261432668737165 -0.5358351514079236
4459000000.0 0.7811586900329368 -0.5405264021153942
4462000000.0 0.9061434065746642 -0.5713782884060202
4466000000.0 0.8788607548825705 -0.5904555660965839
4469000000.0 0.8509488408794806 -0.5393450588957001
4472000000.0 0.8457004240549557 -0.5856662646852433
4475000000.0 0.8264537781600911 -0.5499278176260765
4478000000.0 0.8653590990729576 -0.5856965174913369
4481000000.0 0.8177902141494391 -0.5603450279109106
4484000000.0 0.8109494340829864 -0.5938712124305238
4488000000.0 0.8263367055269664 -0.5539796673576252
4491000000.0 0.8354567290451341 -0.583629194529951
4494000000.0 0.8309017053838842 -0.5474051513933171
4497000000.0 0.8466906105323981 -0.5445754067077386
4500000000.0 0.8401987809554284 -0.5377832748909003
4503000000.0 0.861981804017723 -0.5791553681863856
4506000000.0 0.8371842179531012 -0.56070261796359
4509000000.0 0.8165534763073499 -0.5401293472291362
4512000000.0 0.8210985571505385 -0.5714412733763374
4516000000.0 0.8554086182397453 -0.57225246534965
4519000000.0 0.812767041666411 -0.5406621392705877
4522000000.0 0.8354594724389691 -0.5905237743005328
4525000000.0 0.8282193929876593 -0.5171238551629559
4528000000.0 0.8611230283640643 -0.5944422937663658
4531000000.0 0.8679405781700498 -0.5333151258639063
4534000000.0 0.8152748385658294 -0.5517973577678243
4538000000.0 0.821233042289274 -0.5593919466520546
4541000000.0 0.8065494953525087 -0.599047982679938
4544000000.0 0.8188849025085597 -0.5449026079342267
4547000000.0 0.8387858774243103 -0.5370203984923275
4550000000.0 0.8340093123733564 -0.5930829848641093
4553000000.0 0.8350874859128514 -0.5766953912493001
4556000000.0 0.7949205959351531 -0.5679129953099951
4559000000.0 0.8232287609326859 -0.5933283525725986
4562000000.0 0.8321234513763827 -0.5722567021535467
4566000000.0 0.848421632092133 -0.5810317458981263
4569000000.0 0.8024787270994327 -0.5310569151660007
4572000000.0 0.8303198287600604 -0.5372254888170542
4575000000.0 0.818547959889171 -0.6008518338326299
4578000000.0 0.864824169883445 -0.5576531784629893
4581000000.0 0.8311369373071305 -0.5918659597332399
4584000000.0 0.8134651432802237 -0.5519655496013892
4588000000.0 0.8628798841048871 -0.5597659705188096
4591000000.0 0.851416422412112 -0.5413528865857361
4594000000.0 0.8067555260904419 -0.5939457814902156
4597000000.0 0.8466212725519153 -0.5879179795436453
4600000000.0 0.784712900527013 -0.5885924712565317
4603000000.0 0.819705425639015 -0.6014985391206789
4606000000.0 0.8225573274510445 -0.5628452743626529
4609000000.0 0.8182451869456275 -0.6003464422184791
4612000000.0 0.8560176994560267 -0.5913364276644197
4616000000.0 0.8141526725322097 -0.5822435666878789
4619000000.0 0.84351885791928 -0.5855045137075577
4622000000.0 0.8220265705139037 -0.5500846324781814
4625000000.0 0.7668194410314009 -0.5773208112747035
4628000000.0 0.8055735172773005 -0.5577132182415421
4631000000.0 0.7885262524440018 -0.5858997111721921
4634000000.0 0.8214067072266208 -0.581944988449749
4638000000.0 0.8272297787497646 -0.5804583829808013
4641000000.0 0.8355541515048021 -0.5821079167435319
4644000000.0 0.8161454966577485 -0.5811412425301369
4647000000.0 0.8229809698096262 -0.5871812646310887
4650000000.0 0.8073424608052937 -0.6066163031519869
4653000000.0 0.8310383813229544 -0.6013805420327856
4656000000.0 0.7879770581473449 -0.6139244663068099
4659000000.0 0.7997965919158101 -0.5878054065468148
4662000000.0 0.8152375212351285 -0.5942286914815762
4666000000.0 0.8059828667339739 -0.5799323046050434
4669000000.0 0.8106906375224612 -0.5734266917909256
4672000000.0 0.7977378331487539 -0.6169077703253999
4675000000.0 0.7662318743329671 -0.5911083422967635
4678000000.0 0.8074559484588243 -0.5747135112752149
4681000000.0 0.812063888127381 -0.6450126569559662
4684000000.0 0.7886542564161453 -0.5932817493518878
4688000000.0 0.7942426528846124 -0.5879022218920935
4691000000.0 0.810067442170015 -0.5643033193951282
4694000000.0 0.785146770551008 -0.5870610987532867
4697000000.0 0.7978309430748787 -0.6027727243812004
4700000000.0 0.8205871965462938 -0.5901094312829057
4703000000.0 0.8228722663923986 -0.5983411145095098
4706000000.0 0.8140240505871357 -0.6037035968732302
4709000000.0 0.7968462173493266 -0.5939991368692984
4712000000.0 0.7969416691846515 -0.59775089397157
4716000000.0 0.8005911222924159 -0.6120563667510228
4719000000.0 0.8239936045123545 -0.6390305801620999
4722000000.0 0.8154105369728009 -0.5899544560746375
4725000000.0 0.7979119009010425 -0.605815752152351
4728000000.0 0.7915106919631273 -0.6152151890183412
4731000000.0 0.8186425550661233 -0.6176672825393577
4734000000.0 0.8168589203072083 -0.5769353807110355
4738000000.0 0.8225580830017726 -0.5980468025713872
4741000000.0 0.8006018403087599 -0.5901709802374524
4744000000.0 0.770348306967352 -0.6368546904208624
4747000000.0 0.8024962614693327 -0.5894835866703954
4750000000.0 0.7918951875076884 -0.630152271455659
4753000000.0 0.7855815566323323 -0.6226620890684401
4756000000.0 0.7968846635005381 -0.6156953209348925
4759000000.0 0.7915465293354309 -0.6300944320474041
4762000000.0 0.7842277560107722 -0.6239004879006016
4766000000.0 0.8002861828275987 -0.6213070129261704
4769000000.0 0.8051299731815715 -0.6176657568468449
4772000000.0 0.8036907270943575 -0.6201873270468976
4775000000.0 0.806236433929953 -0.6182269699182814
4778000000.0 0.8174157838950064 -0.6347272337186605
4781000000.0 0.822664117757041 -0.5879883641396274
4784000000.0 0.8152257876120844 -0.6048727343648721
4788000000.0 0.8057669358303787 -0.6152622253828749
4791000000.0 0.7710797149079865 -0.6283089936315841
4794000000.0 0.8038349205127229 -0.6440638034453745
4797000000.0 0.8148871116033427 -0.5943404141887427
4800000000.0 0.7817744418390865 -0.6405260780233507
4803000000.0 0.7788124224985936 -0.6378078330244359
4806000000.0 0.8233674707404035 -0.6376058736844351
4809000000.0 0.7430568903651554 -0.6266690769746247
4812000000.0 0.7751681462783964 -0.6413636372360108
4816000000.0 0.805257945313101 -0.6059458162804272
4819000000.0 0.807564365429529 -0.6401859503295309
4822000000.0 0.8312347135511713 -0.6462056145404891
4825000000.0 0.8032444647368324 -0.6405416025633347
4828000000.0 0.7798672098792043 -0.6314856777737222
4831000000.0 0.7956010374909346 -0.6688859252613479
4834000000.0 0.824249953796453 -0.6516089769167651
4838000000.0 0.8052617090652701 -0.6658866026321972
4841000000.0 0.802510433163873 -0.6312429091385441
4844000000.0 0.7952715840809912 -0.611818851981921
4847000000.0 0.7841191338630544 -0.6023031212908996
4850000000.0 0.7819995774514966 -0.6390266364546932
4853000000.0 0.7899621230992859 -0.6250664568223218
4856000000.0 0.7954862309777819 -0.635476679674739
4859000000.0 0.8120634009171731 -0.6501292596331387
4862000000.0 0.8014940793919785 -0.6025078691068082
4866000000.0 0.8019417726125941 -0.6405914117708061
4869000000.0 0.7761889273483945 -0.660085710334095
4872000000.0 0.7993709706085086 -0.6644803980507186
4875000000.0 0.8397441956779266 -0.6244101398019877
4878000000.0 0.8075469805959172 -0.6495855452715942
4881000000.0 0.8147610396647689 -0.6862958805245006
4884000000.0 0.8172440688845157 -0.6246975423064819
4888000000.0 0.8018288383653931 -0.6117645380811257
4891000000.0 0.8337910566025339 -0.643325103585753
4894000000.0 0.7680481405614756 -0.6547077020823907
4897000000.0 0.7946690367372471 -0.6302608232747171
4900000000.0 0.8023267591542886 -0.6442899533054142
4903000000.0 0.8288378348164323 -0.62742575585787
4906000000.0 0.8146330140814579 -0.6617491270527551
4909000000.0 0.7715921602945854 -0.6690526211066646
4912000000.0 0.8167580838358528 -0.6789117200353416
4916000000.0 0.8224177225464782 -0.6093304858520965
4919000000.0 0.835509188685694 -0.6064024370577489
4922000000.0 0.8322367244599369 -0.6314227311219068
4925000000.0 0.7699454796349141 -0.6376720978346354
4928000000.0 0.8046190661458256 -0.5949457856049571
4931000000.0 0.8265053392126014 -0.6256422412401089
4934000000.0 0.7733581451949443 -0.6256257405347851
4938000000.0 0.7768443784773249 -0.624044191203884
4941000000.0 0.7862056927580277 -0.5971866567021578
4944000000.0 0.7766505275701185 -0.5996967041576017
4947000000.0 0.7769416005268457 -0.6171485249075788
4950000000.0 0.7930150152842729 -0.6432279328406687
4953000000.0 0.7960349272682562 -0.7036888766240658
4956000000.0 0.8018875244122567 -0.6847358208456413
4959000000.0 0.7567175057953384 -0.634779067646765
4962000000.0 0.784961619326149 -0.6853375615756996
4966000000.0 0.8233175572580934 -0.6478181199073633
4969000000.0 0.8425268547651117 -0.6567451013445968
4972000000.0 0.7749468344762644 -0.6776408014678607
4975000000.0 0.8055676966582617 -0.6098558965562648
4978000000.0 0.8024826108011426 -0.6832089178253538
4981000000.0 0.7854247139961795 -0.6328787120912561
4984000000.0 0.7936931720245127 -0.6151397922488115
4988000000.0 0.7970558947840727 -0.6318533065663816
4991000000.0 0.8492792976050145 -0.6055770499118934
4994000000.0 0.7896768157157238 -0.6144259330387465
4997000000.0 0.8008329889535929 -0.675289162952901
5000000000.0 0.8567858544076217 -0.671946218427031
5003000000.0 0.8237611387695323 -0.6426814867761578
5006000000.0 0.8301584882362361 -0.6946280400026776
5009000000.0 0.8077481076254108 -0.645525344233411
5012000000.0 0.7659682876928906 -0.604808311510909
5016000000.0 0.8500393260168757 -0.5959427900039798
5019000000.0 0.785989781903065 -0.6393194724506002
5022000000.0 0.8178704737192563 -0.6237755350110283
5025000000.0 0.8621798803897791 -0.68313180742211
5028000000.0 0.8047769004881667 -0.6444098526010277
5031000000.0 0.7890978634382624 -0.6578470861493301
5034000000.0 0.78492521296205 -0.6839376824580654
5038000000.0 0.7647608228490254 -0.6426103007837357
5041000000.0 0.8335716644057466 -0.5963657569428292
5044000000.0 0.807504102453955 -0.6029295781374983
5047000000.0 0.8253561077509604 -0.6374590898884468
5050000000.0 0.8555809054944818 -0.5383996401801874
5053000000.0 0.8201945952656463 -0.6874110646435394
5056000000.0 0.8426599279872258 -0.5907398814102012
5059000000.0 0.8416776388360769 -0.5921182690502496
5062000000.0 0.8349496181269882 -0.6748747043575856
5066000000.0 0.823997811832258 -0.5659985002091528
5069000000.0 0.8199490807943239 -0.6677964749328356
5072000000.0 0.7877672922197176 -0.6136069091500411
5075000000.0 0.8234923147090624 -0.6445177735039795
5078000000.0 0.8146307176326496 -0.6620931990999701
5081000000.0 0.7775339275692434 -0.6140836015862507
5084000000.0 0.8296652799829561 -0.6846487612489025
5088000000.0 0.8046573972051057 -0.5949580423469423
5091000000.0 0.8084867042844508 -0.6995024704395226
5094000000.0 0.8135058687719648 -0.6331727565234057
5097000000.0 0.8800015814816556 -0.574572593559475
5100000000.0 0.8102336553627818 -0.6186488009801505
5103000000.0 0.7864557374632822 -0.5963079229754673
5106000000.0 0.8666194139192633 -0.6650059922761667
5109000000.0 0.8523944261733926 -0.6330262260277152
5112000000.0 0.8148467811487261 -0.6418468345873876
5116000000.0 0.7744261432813454 -0.5847671973938635
5119000000.0 0.8491055578898434 -0.5615833468727472
5122000000.0 0.8322768163647324 -0.6074569005418361
5125000000.0 0.7987165704972312 -0.5925051932241252
5128000000.0 0.8159600180505466 -0.6131452733190617
5131000000.0 0.7900318262976623 -0.6228717520618094
5134000000.0 0.8140862138494235 -0.5917754891941347
5138000000.0 0.8372235265649318 -0.6292499647209355
5141000000.0 0.8846814295771968 -0.6304840825633264
5144000000.0 0.8633794247816261 -0.5838572471762977
5147000000.0 0.8422374291637871 -0.621748793483843
5150000000.0 0.8209715565421566 -0.5848610912723036
5153000000.0 0.8162541613943772 -0.6251024508487288
5156000000.0 0.8415429262152955 -0.6065411618706882
5159000000.0 0.8376030306160559 -0.65394708352198
5162000000.0 0.7984632336133762 -0.6084818064770464
5166000000.0 0.8299300552816445 -0.6555533477505561
5169000000.0 0.8906034435475834 -0.6399091455343127
5172000000.0 0.8066843676794154 -0.6420117275562135
5175000000.0 0.8392525210705312 -0.631426359877825
5178000000.0 0.7898674506530026 -0.6606820916229026
5181000000.0 0.8815106367547412 -0.6247428194092788
