! Created with skrf 1.8.0 (http://scikit-rf.org).
# Hz S RI R 50.0 
!freq ReS11 ImS11
4000000000.0 0.5163111421635611 -0.83166548098525
4003000000.0 0.5007064899868436 -0.9044848929497922
4006000000.0 0.473006459333478 -0.8599547698351104
4009000000.0000005 0.47150387596302246 -0.82516001821532
4011999999.9999995 0.5706178320693136 -0.8659559256671694
4016000000.0 0.5265854047771192 -0.8996155995409447
4019000000.0 0.5328778546406066 -0.8739417833922011
4022000000.0000005 0.5746607597175449 -0.8430148484286283
4025000000.0000005 0.5069738879987693 -0.933310295085291
4027999999.9999995 0.5320154323729606 -0.904420243988008
4030999999.9999995 0.5115743005420655 -0.8549374737175368
4034000000.0 0.5223146065241332 -0.8558998229546297
4038000000.0000005 0.5466066377960332 -0.9005517083768506
4041000000.0000005 0.5322057350547376 -0.9082282655739028
4043999999.9999995 0.5714046405778237 -0.9429953191533498
4046999999.9999995 0.5701799235051122 -0.8702193802622302
4050000000.0 0.5136994654112237 -0.9192949048857026
4053000000.0 0.5090592173504919 -0.8883965074748829
4056000000.0 0.49901147656508354 -0.8719306322159456
4059000000.0 0.5186106274105278 -0.8985459717394376
4062000000.0000005 0.4819650638593579 -0.897073430369011
4066000000.0 0.4979355156756024 -0.8350319032316349
4069000000.0 0.5273139005882379 -0.9421240076117128
4072000000.0 0.5320622200565873 -0.8515937149183821
4075000000.0 0.518981618502355 -0.8993462262783172
4078000000.0000005 0.5059022372806771 -0.9047349802353881
4081000000.0000005 0.5949314341244751 -0.8359264211751314
4083999999.9999995 0.5080481976145613 -0.9041763079304402
4088000000.0 0.5485772326668745 -0.8577832629753122
4091000000.0 0.5694364108745793 -0.9271295028609973
4094000000.0000005 0.5614090737979679 -0.842268379595005
4097000000.0000005 0.557899793854001 -0.8853777966618467
4099999999.9999995 0.5232450842012278 -0.84859621968394
4102999999.9999995 0.5428772569209793 -0.8941660382419134
4106000000.0 0.5353182640129138 -0.9024296586291194
4109000000.0 0.5278313746033594 -0.9016262545641399
4112000000.0 0.5113021566395783 -0.870016458184103
4115999999.9999995 0.5208818889273874 -0.8842890116223886
4119000000.0 0.5151730440702722 -0.8740116460971807
4122000000.0 0.5252789209144971 -0.8773054442643007
4125000000.0 0.5031206910734941 -0.9058771844737684
4128000000.0 0.5223413744317207 -0.8223286435829386
4131000000.0 0.5078693946652663 -0.8587237992169278
4134000000.0000005 0.515422884480251 -0.8611084264370196
4138000000.0 0.48646343534478004 -0.8777592348076646
4141000000.0 0.5216894372028701 -0.8608613263908124
4144000000.0 0.5999681878183507 -0.8473202697022792
4147000000.0000005 0.5212828363910761 -0.8736102581443691
4150000000.0000005 0.5108019201351521 -0.8573024221126602
4152999999.9999995 0.49531439022644136 -0.8937906460930793
4155999999.9999995 0.5717896562125904 -0.8759580307767328
4159000000.0 0.5136912006171208 -0.8498742300854694
4162000000.0 0.515271933439307 -0.85826755662335
4166000000.0000005 0.5499156264477235 -0.8853621091765045
4168999999.9999995 0.48236767402846015 -0.8731092676127048
4171999999.9999995 0.528662573114661 -0.8837123194396066
4175000000.0 0.5356063854928602 -0.8895436130341132
4178000000.0 0.5396315607174184 -0.878284960043283
4181000000.0 0.535964186643699 -0.903420438234994
4184000000.0 0.5153106301007552 -0.8476137454197129
4187999999.9999995 0.5395742067623215 -0.8577949473407032
4191000000.0 0.547210642248562 -0.841206557911035
4194000000.0 0.5011379070903669 -0.8454495340529734
4197000000.0 0.5628983612797293 -0.8745890127365944
4200000000.0 0.5503889457518761 -0.8596891360036234
4203000000.0000005 0.5541461884577592 -0.8678142664946931
4206000000.0000005 0.5294952109066684 -0.8719043056977847
4208999999.9999995 0.518923277145719 -0.8605754628517477
4211999999.9999995 0.48879378385605476 -0.8812405485610472
4216000000.0 0.5286113837432805 -0.8701017048763401
4219000000.0000005 0.5486765818076662 -0.8944612804178113
4222000000.0000005 0.5057106466502863 -0.8791778969246352
4224999999.9999995 0.5197890368376409 -0.8592556401356883
4227999999.9999995 0.5282010567731346 -0.868782602938481
4231000000.0 0.5312060020709353 -0.8800738049961037
4234000000.0 0.5165935993949882 -0.8795016076188129
4238000000.0000005 0.5077526984486055 -0.8943377634717775
4240999999.9999995 0.5105723595741996 -0.8717061265066182
4244000000.0 0.5326241425808587 -0.8532430721704553
4247000000.0 0.5315882260518093 -0.8541219704547736
4250000000.0 0.5058898690835156 -0.8441997455268535
4253000000.0 0.4994575414941895 -0.8501205588716397
4256000000.0 0.5417115895398379 -0.87891908770515
4259000000.0000005 0.5152742656980547 -0.8307436571718038
4261999999.9999995 0.5299058100867158 -0.8682844448415956
4266000000.0 0.507561210084549 -0.8660058714985165
4269000000.0 0.5377513755622635 -0.8372950746463019
4272000000.0000005 0.5192183601306047 -0.8752779660308667
4275000000.0000005 0.5323146448129508 -0.8645496614241637
4277999999.9999995 0.5275120758891523 -0.8806166255088045
4280999999.9999995 0.52898320992043 -0.8571430376226572
4284000000.0 0.5120995002920894 -0.8863304613451229
4288000000.0000005 0.5546929750117848 -0.8529079046657707
4291000000.0000005 0.5240199082118768 -0.8356615202642242
4293999999.9999995 0.5131481023062937 -0.8619130459027214
4297000000.0 0.5450838974520081 -0.8447344071894944
4300000000.0 0.5093451288466195 -0.8483672149354406
4303000000.0 0.5107580223239842 -0.8697260958905719
4306000000.0 0.568749873867703 -0.8475331724820517
4309000000.0 0.5115776724390045 -0.867765291142639
4312000000.0 0.566179390159619 -0.8606592404088249
4316000000.0 0.5524680360540632 -0.8420885355613689
4319000000.0 0.539640500257954 -0.834728423156825
4322000000.0 0.4713223643319554 -0.852518012846012
4325000000.0 0.5263696946532507 -0.867002947222014
4328000000.0 0.4844453306068534 -0.8276538538339139
4331000000.0 0.5029217981896387 -0.8712703360630353
4334000000.0 0.5183448278184472 -0.8655869302882576
4338000000.0 0.5379695117973742 -0.8610093541640342
4341000000.0 0.5621866924416269 -0.8604288971226122
4344000000.0 0.5209872854573849 -0.845594847942824
4347000000.0 0.5050418622382552 -0.8838125282127579
4350000000.0 0.5016195944855867 -0.8391297517128209
4353000000.0 0.5325650962229347 -0.8458305928460013
4356000000.0 0.4965076957635667 -0.8790574632686504
4359000000.0 0.5112822301366238 -0.8201149001883703
4362000000.0 0.4839137271729832 -0.8945083490446517
4366000000.0 0.5207607142688057 -0.8731578805984757
4369000000.0 0.49428589828992386 -0.8549501973984116
4372000000.0 0.4765458157614673 -0.8484000132614768
4375000000.0 0.5346502498438226 -0.8526155598303258
4378000000.0 0.5130860592964981 -0.8331637861432211
4381000000.0 0.5025383657175005 -0.834184119756561
4384000000.0 0.5346582594079855 -0.9280626277634382
4388000000.0 0.5345800279790056 -0.837817855828775
4391000000.0 0.5237379120410212 -0.8684224322396888
4394000000.0 0.501014404117824 -0.8502619112384125
4397000000.0 0.5076011559637567 -0.8660934683409722
4400000000.0 0.5278879018651462 -0.8908136465918002
4403000000.0 0.5227620909591405 -0.8679347621127212
4406000000.0 0.49533765851503353 -0.891452204664708
4409000000.0 0.5279401371661863 -0.902151537102119
4412000000.0 0.45955385045695085 -0.8874909544913183
4416000000.0 0.5034851670730092 -0.8565085889464363
4419000000.0 0.4895192377300589 -0.886451913912415
4422000000.0 0.5248534690639183 -0.8414651452546167
4425000000.0 0.5473848269506695 -0.8713642983334411
4428000000.0 0.4950324031167278 -0.8659734316781533
4431000000.0 0.533625961736173 -0.8776114560413548
4434000000.0 0.5061198652983199 -0.8660329827240186
4438000000.0 0.5207539868148943 -0.8849484733371855
4441000000.0 0.5202661402075073 -0.8724001501624609
4444000000.0 0.4947460751811408 -0.8518483488544676
4447000000.0 0.4871177554973771 -0.8634636268750923
4450000000.0 0.5013677754722115 -0.8533362967524661
4453000000.0 0.523066715661428 -0.8822774772923878
4456000000.0 0.4874246732008566 -0.848586798676428
4459000000.0 0.4769985235577229 -0.8509186704353782
4462000000.0 0.5207807682461398 -0.9203599738258478
4466000000.0 0.5097753440857739 -0.9345291474815043
4469000000.0 0.5227508669870017 -0.8682767835406541
4472000000.0 0.4976649940868967 -0.9144219404740878
4475000000.0 0.5008756001349497 -0.8532175643081052
4478000000.0 0.4968912450910389 -0.9242907735155681
4481000000.0 0.4901982747219811 -0.8530528483145134
4484000000.0 0.46543124740883246 -0.8817361240000374
4488000000.0 0.4840403171751828 -0.874530271505285
4491000000.0 0.5016035940648673 -0.8953142848286284
4494000000.0 0.48743392317695544 -0.8574214493099476
4497000000.0 0.5023002802505168 -0.8629486084057221
4500000000.0 0.4938648727129844 -0.8686528075361573
4503000000.0 0.5127248120499582 -0.8983677780321606
4506000000.0 0.49603772317317707 -0.8788317003910588
4509000000.0 0.5025403173077366 -0.866712637920561
4512000000.0 0.49154209238672353 -0.8669981313709396
4516000000.0 0.5106150249523448 -0.889076526052278
4519000000.0 0.5027563361838059 -0.8612064268565786
4522000000.0 0.48691476099631736 -0.89212571551803
4525000000.0 0.5320057361471943 -0.8614871175319541
4528000000.0 0.5152404043957535 -0.89475699848766
4531000000.0 0.5161255549805479 -0.8599362510513752
4534000000.0 0.4827826584274559 -0.8601098646397362
4538000000.0 0.4874295483849086 -0.8631377955940558
4541000000.0 0.4613460810620519 -0.8770340386556399
4544000000.0 0.4863872837367101 -0.8555313634435202
4547000000.0 0.5011072398526567 -0.872303578960317
4550000000.0 0.47110003433219005 -0.9019369055652953
4553000000.0 0.4984802288575357 -0.8917084446314788
4556000000.0 0.4729298243702699 -0.8739931196266197
4559000000.0 0.48671094605657256 -0.8929248136594423
4562000000.0 0.49705196815801916 -0.885211823117251
4566000000.0 0.4838228322539987 -0.8894759795735256
4569000000.0 0.5005522993976503 -0.860206975457729
4572000000.0 0.5008719511926188 -0.8752360360455544
4575000000.0 0.47520081344886284 -0.8865248286092376
4578000000.0 0.4981742688680524 -0.8828511534426193
4581000000.0 0.4739710697369529 -0.9054860575189473
4584000000.0 0.4786931259673991 -0.8795315956091597
4588000000.0 0.5038445511879273 -0.8895234625017628
4591000000.0 0.49622444454872083 -0.8770347968231703
4594000000.0 0.4675814689963553 -0.8994165360073598
4597000000.0 0.47872872093335567 -0.9116137488588605
4600000000.0 0.45583962545202794 -0.88637132673716
4603000000.0 0.47165711944361965 -0.8865466229701274
4606000000.0 0.4635577392532132 -0.8982005172089846
4609000000.0 0.48345540003498333 -0.8802578722536519
4612000000.0 0.4713614739920505 -0.8900279860185982
4616000000.0 0.4651189853415163 -0.8785345010045159
4619000000.0 0.4826507712811719 -0.886732891659567
4622000000.0 0.47950779484857187 -0.8807680941942672
4625000000.0 0.44390428049191333 -0.8731197609382881
4628000000.0 0.48186433619555236 -0.8799569459176334
4631000000.0 0.4576598963735944 -0.8873155448914982
4634000000.0 0.46505929206049146 -0.8973691758793397
4638000000.0 0.4732785078562914 -0.8867886019070446
4641000000.0 0.49188162356011744 -0.8772621518386428
4644000000.0 0.459655015141303 -0.8797620032223324
4647000000.0 0.4808638799867971 -0.8930373086983294
4650000000.0 0.4689939010520808 -0.8949512127882191
4653000000.0 0.4736773163960345 -0.891008668181168
4656000000.0 0.45922663818182263 -0.9045451985119706
4659000000.0 0.4643956937225744 -0.9138646777892219
4662000000.0 0.4848043378312394 -0.8983222383639389
4666000000.0 0.46621388930792995 -0.9039004049333503
4669000000.0 0.4692297926606662 -0.8821555956733872
4672000000.0 0.4522693513524304 -0.9196899410946491
4675000000.0 0.4459166403329097 -0.9119748926148386
4678000000.0 0.4486014651558897 -0.8748668221068769
4681000000.0 0.45258492290962493 -0.9084059554021098
4684000000.0 0.43355455544660443 -0.9052934106882661
4688000000.0 0.4482493465702692 -0.8945744565601335
4691000000.0 0.4811613724048819 -0.8802263729528257
4694000000.0 0.4646422153547216 -0.8946503517804315
4697000000.0 0.4194921989920037 -0.8770540743703533
4700000000.0 0.4639140434371008 -0.891086011789427
4703000000.0 0.46792570342449646 -0.8639243061851608
4706000000.0 0.4386817695521029 -0.8959389088560746
4709000000.0 0.44779392946039426 -0.9148388963823336
4712000000.0 0.4902864538316967 -0.903289671226215
4716000000.0 0.46765507145376484 -0.9175907294005502
4719000000.0 0.48570116276710457 -0.8809046318690933
4722000000.0 0.4710782955673185 -0.8701408333924552
4725000000.0 0.47366093067931725 -0.9058312813196808
4728000000.0 0.45656403355294634 -0.8814522847571487
4731000000.0 0.4997341906935374 -0.9289040870846018
4734000000.0 0.48783487053784336 -0.8837301944672308
4738000000.0 0.4705705470578607 -0.9262608576943445
4741000000.0 0.44953186454907834 -0.913569932641397
4744000000.0 0.4524834845122322 -0.9183483206886025
4747000000.0 0.4894480718033112 -0.8604973012375757
4750000000.0 0.4689017486424569 -0.9227302171022074
4753000000.0 0.49357656748711987 -0.9056766013760754
4756000000.0 0.4521439035038153 -0.9252519649898032
4759000000.0 0.49408447261528804 -0.9197745650538967
4762000000.0 0.4120366187394663 -0.9111984216092428
4766000000.0 0.47245691938106427 -0.8722507862403247
4769000000.0 0.4835831383723397 -0.9110071555056768
4772000000.0 0.47086712067905223 -0.9066213171704015
4775000000.0 0.4586004041466329 -0.9391273849558894
4778000000.0 0.45800116421122783 -0.9093955967675501
4781000000.0 0.45911300498698754 -0.8578132397677561
4784000000.0 0.48054066570165743 -0.9097703228078408
4788000000.0 0.4552936850105177 -0.915834969467359
4791000000.0 0.4571485100054037 -0.9109971385625482
4794000000.0 0.4879230822167213 -0.9178138979659318
4797000000.0 0.45845187695533474 -0.907405237047198
4800000000.0 0.4532592205262941 -0.8779759534956101
4803000000.0 0.4368313724045127 -0.9031375780244025
4806000000.0 0.4608111727768737 -0.9307447881958132
4809000000.0 0.4422532500632704 -0.9255607010580778
4812000000.0 0.43354733032512255 -0.9308620347064404
4816000000.0 0.47932419447243046 -0.8904411168198458
4819000000.0 0.4703164839582973 -0.915327658850353
4822000000.0 0.4805327450496896 -0.9369750134923227
4825000000.0 0.5050118542184838 -0.9144450295535843
4828000000.0 0.45253404994877316 -0.9000886174091896
4831000000.0 0.4277248214363273 -0.9547153576867234
4834000000.0 0.4764764355362632 -0.9045094720443153
4838000000.0 0.45509277020578587 -0.9318331141717717
4841000000.0 0.4467857095380154 -0.9075025081994771
4844000000.0 0.5016122386806853 -0.8905517825559003
4847000000.0 0.4787813787246089 -0.8674248918502098
4850000000.0 0.4458040798269094 -0.933904117392863
4853000000.0 0.464029757530671 -0.8884097387584058
4856000000.0 0.45954363403876525 -0.9081656653208579
4859000000.0 0.485455620193495 -0.9604407301712173
4862000000.0 0.4740364952316936 -0.8747118384188635
4866000000.0 0.43656675395758365 -0.9324541352939338
4869000000.0 0.4331756227415086 -0.9415207988674321
4872000000.0 0.44767712841058244 -0.9611659817566912
4875000000.0 0.5394638855720518 -0.9240391070455959
4878000000.0 0.445583595443186 -0.9185290312535102
4881000000.0 0.4660193280443819 -0.9901257660800546
4884000000.0 0.4730743217511008 -0.9031799752589562
4888000000.0 0.48817594811671755 -0.8793912871245115
4891000000.0 0.4976765557775581 -0.8851218015084062
4894000000.0 0.4263913242882676 -0.9049599741179021
4897000000.0 0.49981590285488897 -0.8531931382684068
4900000000.0 0.4887007506249089 -0.9539447505735248
4903000000.0 0.47800237057963313 -0.9460190171902867
4906000000.0 0.4429208598615852 -0.9198265245420474
4909000000.0 0.4804236136921737 -0.9310179734804651
4912000000.0 0.44647896367991025 -0.9481999026462918
4916000000.0 0.49687821945814153 -0.943160707643195
4919000000.0 0.5143068730822147 -0.9236006140231535
4922000000.0 0.45681566141272 -0.8882303935044399
4925000000.0 0.4443126379428784 -0.9620781795792316
4928000000.0 0.5108868519248865 -0.8739712613065974
4931000000.0 0.5086179764373511 -0.9006998780561405
4934000000.0 0.4774791833387882 -0.8544113034295334
4938000000.0 0.4642166941063859 -0.9086851806929277
4941000000.0 0.49062522953160576 -0.8820421678006106
4944000000.0 0.4641640141904209 -0.8677606274884196
4947000000.0 0.4442831958224349 -0.8534415396487164
4950000000.0 0.4546661295791763 -0.9063617589189508
4953000000.0 0.45487388891978975 -0.9654664842608769
4956000000.0 0.47081114568140925 -0.9133996919690202
4959000000.0 0.43564140280340197 -0.9037814381935189
4962000000.0 0.4803042575172672 -0.9318211746992818
4966000000.0 0.4967131296365529 -0.9538301112749443
4969000000.0 0.5130331976479408 -0.9263434834299894
4972000000.0 0.4584750310290929 -0.9038511808645108
4975000000.0 0.5245445653963462 -0.8931242668594462
4978000000.0 0.44697645967608635 -0.920572810595395
4981000000.0 0.46717493205871885 -0.9413332343842777
4984000000.0 0.5095832493890315 -0.8844638728586549
4988000000.0 0.45978209262889835 -0.8938560011965432
4991000000.0 0.5376386671231248 -0.8846888758343561
4994000000.0 0.4510533381755917 -0.9135064439407268
4997000000.0 0.44915391434910606 -0.9234543508329737
5000000000.0 0.5038019427513184 -0.9331060730640578
5003000000.0 0.5077129203777927 -0.9449566890462984
5006000000.0 0.5065146446776094 -0.9494159994601287
5009000000.0 0.4714125486100075 -0.8991604491481255
5012000000.0 0.47032791452315803 -0.9277312901351795
5016000000.0 0.5329919616796975 -0.9251404966698955
5019000000.0 0.47086580098667996 -0.929084861619467
5022000000.0 0.510187895693682 -0.9111947809547682
5025000000.0 0.5163141339225091 -0.9741865363525855
5028000000.0 0.47916860751224993 -0.9560968935211023
5031000000.0 0.4769575797173813 -0.9186159501745695
5034000000.0 0.47394902444271175 -0.9825355195045409
5038000000.0 0.4636709050686503 -0.9072405070411556
5041000000.0 0.5253082521685832 -0.890224827067849
5044000000.0 0.49514607970336544 -0.897579528279312
5047000000.0 0.4882315839010919 -0.9326783549520403
5050000000.0 0.5547334371708118 -0.8595784477483532
5053000000.0 0.4576452125798266 -0.9359925939440045
5056000000.0 0.5013496493749264 -0.9164326575620945
5059000000.0 0.5354920162966853 -0.8844664078169643
5062000000.0 0.4362850644936362 -0.9458117413323915
5066000000.0 0.500682941909763 -0.9037598483646484
5069000000.0 0.5075690291949252 -0.9126869794938013
5072000000.0 0.5076283925643702 -0.8651338713154325
5075000000.0 0.5165129179187646 -0.8994489282703974
5078000000.0 0.44957753140342693 -0.92619583592206
5081000000.0 0.4504909383462799 -0.9021867107055701
5084000000.0 0.5164776577877697 -0.9145711683277071
5088000000.0 0.4793965633793519 -0.902075692916083
5091000000.0 0.4656614322239377 -0.9063396582970977
5094000000.0 0.4840713648230925 -0.9456331509582633
5097000000.0 0.5279287947748734 -0.8763112576640897
5100000000.0 0.5243771114153368 -0.8880541986227819
5103000000.0 0.4763044923416297 -0.9079397032472689
5106000000.0 0.4923950077866871 -0.9053343417003351
5109000000.0 0.557530804646929 -0.8901188805431348
5112000000.0 0.4655071240904201 -0.9103690996235743
5116000000.0 0.48153241110133055 -0.8523397126978844
5119000000.0 0.5009750599529184 -0.9184596036446676
5122000000.0 0.48431997897883455 -0.9155333534869562
5125000000.0 0.51750832622232 -0.9029366172982587
5128000000.0 0.5088354873458831 -0.9216141540814143
5131000000.0 0.5007956458587199 -0.9041937895482928
5134000000.0 0.5190651288028465 -0.9220636992724613
5138000000.0 0.5493617369954771 -0.8832696116175934
5141000000.0 0.5222445968320399 -0.8759481719317743
5144000000.0 0.5317362640182384 -0.8831318155784644
5147000000.0 0.48411360387973923 -0.8822649495173664
5150000000.0 0.5348407475178574 -0.8840306923199068
5153000000.0 0.5197235085367495 -0.9100949620839799
5156000000.0 0.5369374498780622 -0.923468055466363
5159000000.0 0.502648516910613 -0.9394201286657009
5162000000.0 0.4902657567661883 -0.8804275489110074
5166000000.0 0.5033040045721748 -0.9533929402308099
5169000000.0 0.5045062615357995 -0.9001227125456779
5172000000.0 0.517973682972584 -0.8678776520329271
5175000000.0 0.5488443821651714 -0.9282963990372051
