! Created with skrf 1.8.0 (http://scikit-rf.org).
# Hz S RI R 50.0 
!freq ReS11 ImS11
4000000000.0 0.5309461962939934 -0.8655596617054617
4003000000.0 0.5332819286629549 -0.9099596607770736
4006000000.0 0.46530220456706456 -0.9034071868208322
4009000000.0000005 0.5182980903462331 -0.8901343488195105
4011999999.9999995 0.5706361590128968 -0.9050362421777932
4016000000.0 0.4940751945512887 -0.9103999437684505
4019000000.0 0.48645871375976013 -0.8917538846126388
4022000000.0000005 0.6162759813995236 -0.906473860016418
4025000000.0000005 0.4782829887581144 -0.9134181253573421
4027999999.9999995 0.5289439229506188 -0.9059808602651355
4030999999.9999995 0.522910590363603 -0.8650270173953596
4034000000.0 0.4944507689149468 -0.8917416843496176
4038000000.0000005 0.4838522223362828 -0.8939825439909133
4041000000.0000005 0.49907854106145844 -0.8871063983783034
4043999999.9999995 0.5302920944479009 -0.9530553515491657
4046999999.9999995 0.5938325924491643 -0.8787768978330508
4050000000.0 0.5007926352050049 -0.9409652480490243
4053000000.0 0.4851437265473447 -0.8679030710494724
4056000000.0 0.5145261272550561 -0.9486881066908887
4059000000.0 0.5403363362816623 -0.8415870446334528
4062000000.0000005 0.49097633977065996 -0.9046638637751836
4066000000.0 0.47272711386223065 -0.8341164391999417
4069000000.0 0.5285629684499696 -0.9228139981098556
4072000000.0 0.5464635581171655 -0.8711183548403678
4075000000.0 0.5622379504955409 -0.8918396239892765
4078000000.0000005 0.5342601187266246 -0.8800251491076652
4081000000.0000005 0.5830941129630629 -0.8610036523424287
4083999999.9999995 0.527421148899577 -0.9003593789930907
4088000000.0 0.49220143958082163 -0.8420744916381513
4091000000.0 0.5294110409493421 -0.9410722229021091
4094000000.0000005 0.5441512509155587 -0.8508721912696658
4097000000.0000005 0.5277073333760748 -0.8842625923266524
4099999999.9999995 0.5108830402068038 -0.8912343368799711
4102999999.9999995 0.5844994594491251 -0.9239789331129277
4106000000.0 0.552409774718612 -0.924891540135865
4109000000.0 0.49937513230629854 -0.9345640812159864
4112000000.0 0.5499533158578864 -0.8739531781700455
4115999999.9999995 0.5297048671686015 -0.8538366910234219
4119000000.0 0.5375445588475438 -0.9146734687418562
4122000000.0 0.486869731012115 -0.9165359344509231
4125000000.0 0.512593201725409 -0.9289527171071994
4128000000.0 0.5339674562546662 -0.8478007501134208
4131000000.0 0.49138274474476273 -0.8595547004262288
4134000000.0000005 0.5419765236378258 -0.8610334754647785
4138000000.0 0.5180947664673792 -0.8706124762850564
4141000000.0 0.4977081078198436 -0.8512070815990724
4144000000.0 0.5369128947358441 -0.8993187021301876
4147000000.0000005 0.5014121140138643 -0.9000512561867001
4150000000.0000005 0.4938651386563467 -0.913240087221584
4152999999.9999995 0.5311339135370009 -0.8686910915983305
4155999999.9999995 0.5687294676934852 -0.8894649561277127
4159000000.0 0.5180846410733175 -0.8537760981413121
4162000000.0 0.5183055367731408 -0.8910254734110387
4166000000.0000005 0.5217198778985955 -0.8840064621764152
4168999999.9999995 0.481973437784444 -0.8854875638444584
4171999999.9999995 0.537109640802506 -0.872836284788478
4175000000.0 0.5212977922546238 -0.8653409941856307
4178000000.0 0.5100677830400698 -0.8682917021123224
4181000000.0 0.5559482514035754 -0.8929378413142792
4184000000.0 0.5394067452180101 -0.8841752642331313
4187999999.9999995 0.519193648515949 -0.8709100568681584
4191000000.0 0.5359553960812351 -0.8225774789781404
4194000000.0 0.5146371466038338 -0.8543283021373957
4197000000.0 0.5304953816422432 -0.8795245778517653
4200000000.0 0.5282629788179093 -0.8826588586732
4203000000.0000005 0.5324856474407222 -0.8791224814551329
4206000000.0000005 0.5389129083143074 -0.8998753551319538
4208999999.9999995 0.527134302853397 -0.8615834432386665
4211999999.9999995 0.488672585313667 -0.8820975514711975
4216000000.0 0.5282146730507742 -0.878643345371709
4219000000.0000005 0.515824820222351 -0.8774460740205501
4222000000.0000005 0.5075267126926981 -0.8699084023487638
4224999999.9999995 0.5154370679596927 -0.8784152060264914
4227999999.9999995 0.5242149715362733 -0.8840099316105563
4231000000.0 0.5056355816460238 -0.883492926874568
4234000000.0 0.5209189229649631 -0.8975208921230529
4238000000.0000005 0.501095364903446 -0.8923609050678282
4240999999.9999995 0.4948990800154296 -0.8790425282087438
4244000000.0 0.5331724482591753 -0.868362098128913
4247000000.0 0.5240129523050706 -0.8637689294517198
4250000000.0 0.4872771695285294 -0.8561047361425338
4253000000.0 0.5058511378583302 -0.8713044299294637
4256000000.0 0.5277989689102414 -0.8845480057988163
4259000000.0000005 0.4828015651591355 -0.8620892123616272
4261999999.9999995 0.49812262160119436 -0.8826753880968788
4266000000.0 0.513417146443379 -0.9105595660852959
4269000000.0 0.5126089140064458 -0.8824960258186313
4272000000.0000005 0.5223604714321237 -0.8706268986095776
4275000000.0000005 0.5131402762583587 -0.8891192556259196
4277999999.9999995 0.5204673558216277 -0.9017500414777628
4280999999.9999995 0.5311907387615614 -0.8570815521237451
4284000000.0 0.5042826059857766 -0.9053929264845773
4288000000.0000005 0.5366461439882801 -0.8630224999870283
4291000000.0000005 0.5018688157950562 -0.8403021355673799
4293999999.9999995 0.4916993953268125 -0.879680167479765
4297000000.0 0.535038156943076 -0.8520918039871843
4300000000.0 0.49883586715239814 -0.856207923057293
4303000000.0 0.47359871207299464 -0.8627621883720739
4306000000.0 0.5381296021851927 -0.8864416542543898
4309000000.0 0.4994379261842431 -0.8714654830326717
4312000000.0 0.5613475524765738 -0.8464160205127019
4316000000.0 0.501351547314046 -0.8719932342627801
4319000000.0 0.5096495447532711 -0.8342405387449522
4322000000.0 0.5027354972521122 -0.8551229753082203
4325000000.0 0.5208402082428797 -0.8782659277309722
4328000000.0 0.5009782944636736 -0.8482199299356533
4331000000.0 0.48436796161153367 -0.8825775338750027
4334000000.0 0.5070092809855178 -0.8668878689512687
4338000000.0 0.5179235208116076 -0.8493387055816652
4341000000.0 0.5297661338570567 -0.8944705105840735
4344000000.0 0.5434271368605564 -0.8827363486420186
4347000000.0 0.48475871149318117 -0.8786834992564465
4350000000.0 0.48121786746475564 -0.8562483432565854
4353000000.0 0.5155696539039918 -0.8428684805090807
4356000000.0 0.4822398197472522 -0.8640805189951893
4359000000.0 0.46246615818789516 -0.8331391060050282
4362000000.0 0.4684685009910136 -0.9022481639805047
4366000000.0 0.4974990193219413 -0.8958429612606457
4369000000.0 0.4739272199807585 -0.8462134222394702
4372000000.0 0.4536466571107235 -0.8878666337056369
4375000000.0 0.5216133481277733 -0.8689087298975516
4378000000.0 0.47895703531311573 -0.851661945761194
4381000000.0 0.5243215636152553 -0.8599474514133205
4384000000.0 0.5154639577302498 -0.9540302508554392
4388000000.0 0.4930335019273593 -0.8565016146496165
4391000000.0 0.5016787714226987 -0.8810162030963644
4394000000.0 0.4815491923760353 -0.8652396044365447
4397000000.0 0.49519531550796625 -0.86818839188044
4400000000.0 0.5055266451222009 -0.8967146616839884
4403000000.0 0.49716938470526106 -0.8815066703690662
4406000000.0 0.4765406601780141 -0.8878811644360041
4409000000.0 0.49243557396950643 -0.8945288645684648
4412000000.0 0.4379675359325569 -0.8976017991401756
4416000000.0 0.48384563178514645 -0.8653057225235423
4419000000.0 0.47870911570480734 -0.8839750669659084
4422000000.0 0.5064581077146889 -0.868973749747533
4425000000.0 0.5204531190675207 -0.8859705822022189
4428000000.0 0.4855468603946612 -0.8763512805973812
4431000000.0 0.5035170711287187 -0.8936352597933439
4434000000.0 0.4852494345653863 -0.8777401085544847
4438000000.0 0.5130875423861733 -0.9051261988828594
4441000000.0 0.5078786876037802 -0.895061902005861
4444000000.0 0.48985866858451665 -0.8662095119520965
4447000000.0 0.4664029928225535 -0.8746498609338764
4450000000.0 0.4880024760642663 -0.8617375312871118
4453000000.0 0.4983841447749607 -0.8999574940958726
4456000000.0 0.4640593013125238 -0.8677322610906504
4459000000.0 0.4735454042196704 -0.8479982211185215
4462000000.0 0.5063535135221058 -0.9336639882975992
4466000000.0 0.503516890150096 -0.9244001740077987
4469000000.0 0.4975251526941596 -0.8704092152074455
4472000000.0 0.46545911903802684 -0.9122312996499551
4475000000.0 0.47544536923598746 -0.8666161404646123
4478000000.0 0.4899061160590903 -0.9267253090698855
4481000000.0 0.4532221275449646 -0.8783030516260961
4484000000.0 0.44098269980396076 -0.9004936193610876
4488000000.0 0.4615876925989226 -0.8809185287115503
4491000000.0 0.49004811159941075 -0.8856361121232432
4494000000.0 0.4788858208057014 -0.8666369528584225
4497000000.0 0.4906952243595945 -0.871498818627318
4500000000.0 0.48873556823429626 -0.9037371272715125
4503000000.0 0.49221165112256327 -0.8956818291641073
4506000000.0 0.46973739825911903 -0.8732340119902364
4509000000.0 0.4773367190950235 -0.8806253838680183
4512000000.0 0.47446780424037327 -0.8734387318089292
4516000000.0 0.4963940883216919 -0.9199533210865817
4519000000.0 0.47422162261292156 -0.8432383116779052
4522000000.0 0.4671854739989101 -0.8926292004966818
4525000000.0 0.5137524698951872 -0.8669496911220442
4528000000.0 0.5057280047071424 -0.9051109418970904
4531000000.0 0.4902955628108037 -0.8538754663764981
4534000000.0 0.46877798565584033 -0.8623464584698988
4538000000.0 0.4772064300858717 -0.8912830800094871
4541000000.0 0.4353046940882434 -0.9012911212395498
4544000000.0 0.4783772778465059 -0.8794491583272229
4547000000.0 0.4725643299028318 -0.854894254090631
4550000000.0 0.4504519425605846 -0.8971957198243984
4553000000.0 0.47076660914066626 -0.8990002023770646
4556000000.0 0.4441894915158999 -0.8836176159969382
4559000000.0 0.461152618874149 -0.9009528085915047
4562000000.0 0.4583777141303054 -0.9003449185248438
4566000000.0 0.4744538725163639 -0.8998750118359813
4569000000.0 0.47517928918962316 -0.8908642542840504
4572000000.0 0.4843650553792159 -0.8847767845276818
4575000000.0 0.45507073531585124 -0.9102530982756517
4578000000.0 0.4902019664408608 -0.9071787926969157
4581000000.0 0.45485200925433766 -0.896899185480007
4584000000.0 0.4577490458077303 -0.879933696561243
4588000000.0 0.4827657729459016 -0.8880175799190072
4591000000.0 0.4777196292921305 -0.8900278685937193
4594000000.0 0.44633688606047617 -0.8982587720864912
4597000000.0 0.4560199590132349 -0.9170022931672781
4600000000.0 0.4315537618639177 -0.9055965418813595
4603000000.0 0.4476946550925376 -0.9075228164115581
4606000000.0 0.4634345012854557 -0.9183578725656908
4609000000.0 0.4541546511555462 -0.8949456323578419
4612000000.0 0.44677974945121796 -0.8831127641757277
4616000000.0 0.46472591404705055 -0.8809568006601076
4619000000.0 0.45975195263718793 -0.8882763419099319
4622000000.0 0.44678101325062536 -0.8990461729660979
4625000000.0 0.42096434200857313 -0.8958644232369697
4628000000.0 0.46433997031998353 -0.8812155213520491
4631000000.0 0.435292947275273 -0.9111488215226027
4634000000.0 0.4515737507796585 -0.8999180587727369
4638000000.0 0.45408689046778217 -0.9197973193802732
4641000000.0 0.4589945567615469 -0.884542296535468
4644000000.0 0.44525088853002354 -0.9045098872350913
4647000000.0 0.47520744945408777 -0.9120763952725903
4650000000.0 0.4262481883611522 -0.8962295341239174
4653000000.0 0.44468573241301224 -0.9126562703794346
4656000000.0 0.45090530692500064 -0.8980069855643326
4659000000.0 0.44671443635881214 -0.9168955906846151
4662000000.0 0.4631001595884211 -0.925068458675873
4666000000.0 0.4387686664211341 -0.8949336456521922
4669000000.0 0.4496137645383636 -0.9126411616749786
4672000000.0 0.4282632680282356 -0.9037238808719963
4675000000.0 0.42917376300985277 -0.9189172897968155
4678000000.0 0.43346422840081633 -0.8810023762454092
4681000000.0 0.42241673347171593 -0.9351123180742236
4684000000.0 0.4187117883011278 -0.9124503533877207
4688000000.0 0.4298221812783949 -0.8951253795505287
4691000000.0 0.479765599084627 -0.9354794881019459
4694000000.0 0.4679240914881566 -0.8826843447378645
4697000000.0 0.40652412328996046 -0.8868101605374527
4700000000.0 0.44400015792584274 -0.9069756680057053
4703000000.0 0.46793561413563717 -0.86246011291802
4706000000.0 0.4287456995655075 -0.9227283824343301
4709000000.0 0.4257340039578549 -0.9123622446149967
4712000000.0 0.44863139237530714 -0.9202467696028345
4716000000.0 0.45742635896438955 -0.9322948792080727
4719000000.0 0.46810124272634895 -0.9128374703073321
4722000000.0 0.4516083676557967 -0.9117074679263978
4725000000.0 0.43379980086635217 -0.9013644582370999
4728000000.0 0.4168760432506634 -0.8970492459258514
4731000000.0 0.45028315178146283 -0.9573104192806114
4734000000.0 0.4551875209268171 -0.9039584486506991
4738000000.0 0.47938670110198006 -0.9600652573143988
4741000000.0 0.42064199919917233 -0.9203726751458382
4744000000.0 0.4362147879213946 -0.9363568131675161
4747000000.0 0.4593608869690419 -0.8911632642050711
4750000000.0 0.428370676860493 -0.9209931358707691
4753000000.0 0.4599468186251857 -0.9279553493814582
4756000000.0 0.41739821525592063 -0.9160653828715678
4759000000.0 0.4466356561279595 -0.9511125380999115
4762000000.0 0.42795633209125883 -0.9186638596217331
4766000000.0 0.43226014286907116 -0.8852737100553055
4769000000.0 0.4646093255868027 -0.9211174884773037
4772000000.0 0.45478155511309104 -0.8969107922626351
4775000000.0 0.4314144872488484 -0.9794989224434134
4778000000.0 0.4514321847274201 -0.9219003100155317
4781000000.0 0.4491682810250808 -0.9134039851428183
4784000000.0 0.4666979252204352 -0.8942241752499271
4788000000.0 0.4415372222258941 -0.9221635820659302
4791000000.0 0.4390378841562137 -0.9133343738657773
4794000000.0 0.45937520848096236 -0.947194737469499
4797000000.0 0.4224131899926147 -0.9047748103601269
4800000000.0 0.4299087205914327 -0.9091035842895787
4803000000.0 0.38902113986727366 -0.929741098854146
4806000000.0 0.4476611473089509 -0.9457406659665811
4809000000.0 0.40189444276686304 -0.9207349875771994
4812000000.0 0.4025167886066722 -0.9325171259222063
4816000000.0 0.43664088938928414 -0.8810570979708456
4819000000.0 0.4532235229685777 -0.931456884300295
4822000000.0 0.4657896100089651 -0.9654382012786624
4825000000.0 0.4656937893716935 -0.9673978427502702
4828000000.0 0.44100090762807664 -0.9216024427845018
4831000000.0 0.3994997967608864 -0.9643007590484913
4834000000.0 0.4564075501326934 -0.9409339167793651
4838000000.0 0.44292438575768667 -0.9648722812607753
4841000000.0 0.4212923803024047 -0.9147007601083145
4844000000.0 0.46620172121940734 -0.9204104916989393
4847000000.0 0.4466896956362166 -0.9048263782521234
4850000000.0 0.42290722605926256 -0.9389539297010849
4853000000.0 0.4339169315075886 -0.8950410319005204
4856000000.0 0.4297590891117501 -0.9113530809151503
4859000000.0 0.4478581539654391 -0.9502584414150097
4862000000.0 0.44078416356792444 -0.9093112187742151
4866000000.0 0.42649797168855713 -0.9356666141877129
4869000000.0 0.4218484288883509 -0.9314844360735627
4872000000.0 0.4311682180250995 -0.9592425371142784
4875000000.0 0.4987291174854476 -0.9243767576432731
4878000000.0 0.44380440907413315 -0.9286840134161599
4881000000.0 0.4505387417213216 -1.0187607959031482
4884000000.0 0.4458101047630248 -0.9254163665030918
4888000000.0 0.47346920142209015 -0.908116563846882
4891000000.0 0.4797372033388548 -0.9447304696136946
4894000000.0 0.4482085825883377 -0.9140520259744271
4897000000.0 0.4564232228126799 -0.8767449443935676
4900000000.0 0.4692894479366287 -0.9372461709898253
4903000000.0 0.4662010811102246 -0.958649525761808
4906000000.0 0.4684692169288413 -0.9383621350468738
4909000000.0 0.44728769544700775 -0.9294162203525265
4912000000.0 0.4418817427933503 -0.9886826238381646
4916000000.0 0.4586019979105315 -0.9343079467623123
4919000000.0 0.48633321369373206 -0.9487543700032243
4922000000.0 0.4948369404596026 -0.9555261263422544
4925000000.0 0.40716576979169605 -0.9620739233728686
4928000000.0 0.4769804619290566 -0.9088303985063981
4931000000.0 0.44239355102940214 -0.926881164984696
4934000000.0 0.4429363112402304 -0.8757130674142234
4938000000.0 0.45164302774240356 -0.9443971754792188
4941000000.0 0.46749324102994805 -0.9004217610460266
4944000000.0 0.43740324371115796 -0.8673475824544638
4947000000.0 0.4426286143104014 -0.9095724943635756
4950000000.0 0.44556023126782357 -0.8884291088467423
4953000000.0 0.42557205523204633 -0.9658979939661256
4956000000.0 0.44728979421656445 -0.9261886935097466
4959000000.0 0.37916304894219466 -0.949430694282191
4962000000.0 0.44708568612687904 -0.9548147533792943
4966000000.0 0.4908713937495207 -0.93297709919688
4969000000.0 0.49473006732480473 -0.964731986854258
4972000000.0 0.44459561947047704 -0.9498420567886507
4975000000.0 0.45635210047764585 -0.9158458982492161
4978000000.0 0.4424288632807236 -0.9742989327387239
4981000000.0 0.45383926892486404 -0.960802213788647
4984000000.0 0.4155377403368331 -0.9084240619091648
4988000000.0 0.45362988251763114 -0.9225802630352744
4991000000.0 0.5014663256255923 -0.9367456177740068
4994000000.0 0.48068070025500265 -0.8936266663832815
4997000000.0 0.41389118729835045 -0.9711574882725464
5000000000.0 0.4845177741580543 -0.9416687761332821
5003000000.0 0.4709537197840581 -0.9542512938984663
5006000000.0 0.4619203896929347 -0.9564836904992541
5009000000.0 0.457621810800532 -0.910858881046697
5012000000.0 0.45219330254418294 -0.9246131445212672
5016000000.0 0.48150310760867043 -0.9637748886129667
5019000000.0 0.4539952115291855 -0.9236833521397165
5022000000.0 0.44088847753419236 -0.9141916922453729
5025000000.0 0.4684047702277683 -1.0006139964789196
5028000000.0 0.43955954281084175 -0.9360283291093363
5031000000.0 0.4678250649787759 -0.9206244870106934
5034000000.0 0.42123206083246145 -0.9688567408013005
5038000000.0 0.423455261734678 -0.8832903488100536
5041000000.0 0.47791956549144854 -0.9116887381805434
5044000000.0 0.4820178086974532 -0.8976157076591814
5047000000.0 0.4474558766672804 -0.9478346437938225
5050000000.0 0.5598647090291928 -0.8900275003582205
5053000000.0 0.4604188337498024 -0.9720440387348314
5056000000.0 0.48405421690992845 -0.9537612796577215
5059000000.0 0.5052083077893664 -0.929437241891196
5062000000.0 0.4502060516067867 -0.9298462513047272
5066000000.0 0.4913409069069496 -0.9184805232840709
5069000000.0 0.4744493058918158 -0.9382963015418587
5072000000.0 0.43965191830529793 -0.912759169250416
5075000000.0 0.49641406947652433 -0.8870062013893303
5078000000.0 0.4124884337535929 -0.9329768204845061
5081000000.0 0.46611901613831086 -0.8860310229152246
5084000000.0 0.4556353544674607 -0.9498112311270535
5088000000.0 0.48326694224468386 -0.9233276270512252
5091000000.0 0.43457152920942455 -0.921017486030823
5094000000.0 0.4905467960955293 -0.916922539363774
5097000000.0 0.4780525609084256 -0.8960098557452528
5100000000.0 0.5011147446775706 -0.9132758355367931
5103000000.0 0.4490135554405696 -0.8843501449615156
5106000000.0 0.47449914165031803 -0.8907526183266437
5109000000.0 0.48860209178473724 -0.9347400173348331
5112000000.0 0.45994472578755735 -0.9010758167881121
5116000000.0 0.4383548128990515 -0.9116906514766364
5119000000.0 0.4615627992553422 -0.917871081650621
5122000000.0 0.45514028040457166 -0.9091218403200508
5125000000.0 0.479255943294107 -0.8979788990020365
5128000000.0 0.4297492288387407 -0.92011716992134
5131000000.0 0.4605453217018945 -0.907045397143978
5134000000.0 0.48637320359968056 -0.9518875359760675
5138000000.0 0.5084814720581939 -0.8944776693772591
5141000000.0 0.4751193183355458 -0.9111604833925551
5144000000.0 0.45723147364055416 -0.8878201087846478
5147000000.0 0.48405826774314265 -0.9218401585759494
5150000000.0 0.5206661758891338 -0.9589079273668416
5153000000.0 0.45445511866360566 -0.9200883777145659
5156000000.0 0.5194084401468104 -0.9166954391044821
5159000000.0 0.4889118119317239 -0.959954005070056
5162000000.0 0.43837588034951963 -0.9387212299997206
5166000000.0 0.5047947015733587 -0.9266730396237333
5169000000.0 0.5171632027597508 -0.9217847867402278
5172000000.0 0.4897337017605808 -0.9141677036505822
