! Created with skrf 1.8.0 (http://scikit-rf.org).
# Hz S RI R 50.0 
!freq ReS11 ImS11
4000000000.0 0.4562842960928136 -0.9255869031129059
4003000000.0 0.5207958847823513 -0.9045525346969372
4006000000.0 0.4041920269844991 -0.9262867053352465
4009000000.0000005 0.464365060745462 -0.9266236719366359
4011999999.9999995 0.5413741814706718 -0.891144599614414
4016000000.0 0.4585674477331778 -0.9355717650754112
4019000000.0 0.4541565306044567 -0.9125184742840174
4022000000.0000005 0.5356236656868967 -0.8997689450641932
4025000000.0000005 0.45539139653461314 -0.9227846556844095
4027999999.9999995 0.4199811797903358 -0.9528754845384096
4030999999.9999995 0.44410614391639225 -0.8676279908118347
4034000000.0 0.46403618679441905 -0.9150929335138973
4038000000.0000005 0.4729570896236338 -0.950568626535387
4041000000.0000005 0.4487003400938919 -0.950436587421107
4043999999.9999995 0.43674661018636357 -0.9880028991864518
4046999999.9999995 0.5004954492651952 -0.9101951856178112
4050000000.0 0.45035003297145915 -0.95415581689888
4053000000.0 0.44653316988797237 -0.9184873447421359
4056000000.0 0.4522169583364766 -0.9215479509261866
4059000000.0 0.45008974371107874 -0.9153247965259295
4062000000.0000005 0.4531312519520775 -0.9237596046150749
4066000000.0 0.4227991474247726 -0.8386748729137804
4069000000.0 0.4371488322129356 -0.9585932793424662
4072000000.0 0.5018296685998807 -0.911219891372943
4075000000.0 0.476035243405862 -0.960982469471334
4078000000.0000005 0.4567844547860791 -0.9521188920688919
4081000000.0000005 0.49764225468569556 -0.9136729492752997
4083999999.9999995 0.4306218173370414 -0.9458075923540258
4088000000.0 0.5187344845258661 -0.909686663428708
4091000000.0 0.46908512668488084 -0.9547391157298833
4094000000.0000005 0.46964079009780363 -0.9844164072623842
4097000000.0000005 0.5041195170323345 -0.9597072124823761
4099999999.9999995 0.461312120413226 -0.9533577790352165
4102999999.9999995 0.5243979495976168 -0.9443100481415502
4106000000.0 0.4594681591733094 -0.9481228021074778
4109000000.0 0.4564276555378825 -0.9436588682040823
4112000000.0 0.43183873829708486 -0.9217411702016339
4115999999.9999995 0.4661895421401882 -0.9144098301465075
4119000000.0 0.444444843760517 -0.920716957769132
4122000000.0 0.4247256790279839 -0.9203126194931887
4125000000.0 0.45294889839458274 -0.9775572092964586
4128000000.0 0.481721051982002 -0.8775797821993794
4131000000.0 0.4404667768908645 -0.9101893320008729
4134000000.0000005 0.45350572415250934 -0.9015734060144939
4138000000.0 0.4522373954774302 -0.9261641458635897
4141000000.0 0.4517845043926828 -0.9170012158545167
4144000000.0 0.4553139157022719 -0.9425918845151895
4147000000.0000005 0.4393652227798962 -0.9426861286700268
4150000000.0000005 0.46468393567807115 -0.9420644369903078
4152999999.9999995 0.46450238630817764 -0.9461630745458298
4155999999.9999995 0.4639921480557595 -0.9532440533443579
4159000000.0 0.43897469574557174 -0.9080826303969249
4162000000.0 0.44330520584157684 -0.8879872218705662
4166000000.0000005 0.4444297824215915 -0.9644528185330202
4168999999.9999995 0.4165265588568375 -0.9259171805864488
4171999999.9999995 0.4521869921328497 -0.8998411385490284
4175000000.0 0.45872296450906175 -0.9204034579518479
4178000000.0 0.46021177197614105 -0.9264439129142404
4181000000.0 0.4491271599957302 -0.9268933827939771
4184000000.0 0.45705674231424426 -0.9153385449738312
4187999999.9999995 0.4677250498277782 -0.9129887863534215
4191000000.0 0.473245425020106 -0.8965847313162121
4194000000.0 0.4436289812317825 -0.8905612900610784
4197000000.0 0.4673123947017704 -0.913807040217863
4200000000.0 0.4799154269997884 -0.9223463784826231
4203000000.0000005 0.4536604432703593 -0.9115560866770122
4206000000.0000005 0.4670330014897263 -0.9166540509937495
4208999999.9999995 0.4414039293402665 -0.9045116563789959
4211999999.9999995 0.4146672260067095 -0.9298855680103729
4216000000.0 0.4520848255820308 -0.9121117591316621
4219000000.0000005 0.46959453821436037 -0.9294618454940847
4222000000.0000005 0.42799068678246766 -0.9165897168585423
4224999999.9999995 0.45311174822623373 -0.9039620899276635
4227999999.9999995 0.44014097314743744 -0.9201309733356425
4231000000.0 0.4481964943752149 -0.9295904205841546
4234000000.0 0.45251723296028334 -0.9221805303435642
4238000000.0000005 0.42630200560381637 -0.9160408668404996
4240999999.9999995 0.4251357547881403 -0.9049947245404912
4244000000.0 0.44856446294353824 -0.9164596750028693
4247000000.0 0.45258950904323914 -0.8999442819221528
4250000000.0 0.4445906721821633 -0.8892307607835283
4253000000.0 0.4192724754574663 -0.900443964491238
4256000000.0 0.45516000737307116 -0.9359165131047134
4259000000.0000005 0.40959357818472936 -0.8870787224118619
4261999999.9999995 0.43263796278182287 -0.9187849740986032
4266000000.0 0.4198186107874185 -0.9342510313771848
4269000000.0 0.4505346768246979 -0.9074659790453234
4272000000.0000005 0.44506840610596893 -0.9033361133205965
4275000000.0000005 0.4362338228032854 -0.9180689053397282
4277999999.9999995 0.4427234771004031 -0.9379559717242048
4280999999.9999995 0.4418160120364286 -0.912125596107327
4284000000.0 0.39230440419663043 -0.9436846038204165
4288000000.0000005 0.4816196996083768 -0.9061646140109516
4291000000.0000005 0.4306147858719592 -0.8917019382138877
4293999999.9999995 0.4194026729779774 -0.8942898186250066
4297000000.0 0.4711237588302884 -0.8864332710553028
4300000000.0 0.435446058443151 -0.892212556171283
4303000000.0 0.39547438606914054 -0.8957798577068017
4306000000.0 0.4846290610472303 -0.9161872002953382
4309000000.0 0.4450965194488678 -0.913185813546349
4312000000.0 0.5025549243759884 -0.913150032401683
4316000000.0 0.45455717735947954 -0.9236988318128916
4319000000.0 0.43273210653966643 -0.9108806250013235
4322000000.0 0.39860493272782294 -0.9252729133951236
4325000000.0 0.41973387456328237 -0.9163742685228619
4328000000.0 0.42490533648312695 -0.9086456791800178
4331000000.0 0.3921629568454722 -0.9413836478465346
4334000000.0 0.41074104640996345 -0.9044641836851265
4338000000.0 0.43983233420612267 -0.8956428017305825
4341000000.0 0.4684237416314465 -0.9325790550249017
4344000000.0 0.44042268147291874 -0.921603994003826
4347000000.0 0.4230055827728473 -0.949252805792311
4350000000.0 0.38337262863740473 -0.9087000743473694
4353000000.0 0.42212009858244703 -0.8943872635608174
4356000000.0 0.38492759014580713 -0.8969788446328717
4359000000.0 0.4130263607931134 -0.8841733488780594
4362000000.0 0.3944173186347244 -0.943490926361833
4366000000.0 0.42603366279430027 -0.9311926847478273
4369000000.0 0.4024392861278411 -0.9028178703620813
4372000000.0 0.37109056314939465 -0.9417708990428123
4375000000.0 0.44236672721134795 -0.925533339533767
4378000000.0 0.4100338559211788 -0.8908434164548571
4381000000.0 0.4270743881094583 -0.8934608326250714
4384000000.0 0.41838672275219424 -0.9743675341979052
4388000000.0 0.4006834209224339 -0.9002817406322418
4391000000.0 0.4207565526779181 -0.9121281993174195
4394000000.0 0.391524319438316 -0.8896403933470308
4397000000.0 0.40354118144823214 -0.9250302927012469
4400000000.0 0.4109318181314658 -0.9627557352252404
4403000000.0 0.4162748097551755 -0.9374083331562566
4406000000.0 0.39714124529424444 -0.9297882932957503
4409000000.0 0.4165639671443239 -0.9634762697544188
4412000000.0 0.37025570944092806 -0.9421152549047953
4416000000.0 0.3888806402273743 -0.9117148147819758
4419000000.0 0.3856505153727218 -0.9247340345461497
4422000000.0 0.4185962318860446 -0.9179324595285006
4425000000.0 0.425366822944457 -0.9394677286612371
4428000000.0 0.3927089160317862 -0.9326488148717222
4431000000.0 0.41410802682636555 -0.9505285886969141
4434000000.0 0.38442590786836267 -0.9079921588495713
4438000000.0 0.40720189157099324 -0.942597431224556
4441000000.0 0.40471036896971263 -0.9398276590751364
4444000000.0 0.39800298274622686 -0.9068963527636646
4447000000.0 0.38954961430784196 -0.9304298717843562
4450000000.0 0.4041575824089115 -0.9125342207863205
4453000000.0 0.4058403709427546 -0.9409117432704126
4456000000.0 0.367396184998417 -0.9142242455087093
4459000000.0 0.35526484085498206 -0.9049446706732736
4462000000.0 0.42202680873224024 -0.9979314255089493
4466000000.0 0.40093588692929033 -0.9752767662606292
4469000000.0 0.41513466818670336 -0.9422841362790828
4472000000.0 0.3801080599519493 -0.9614144363982629
4475000000.0 0.38548675319743597 -0.9132339790213111
4478000000.0 0.40269990733298106 -0.973490673802176
4481000000.0 0.3626290372854974 -0.9175438619153857
4484000000.0 0.33498559555594654 -0.9446423221840291
4488000000.0 0.35619890569416934 -0.9298846447523459
4491000000.0 0.40548327727459804 -0.9531210252127034
4494000000.0 0.3819817669077172 -0.9338339688361215
4497000000.0 0.3985510174870942 -0.9323515016458641
4500000000.0 0.3841713424736828 -0.9347929688487359
4503000000.0 0.3787447536828159 -0.9503769524273787
4506000000.0 0.38808188053418075 -0.9763542018032315
4509000000.0 0.37798601068762594 -0.902301129583456
4512000000.0 0.3671001928679717 -0.926000907544636
4516000000.0 0.39045685490774495 -0.952195538597111
4519000000.0 0.3927234338375832 -0.9054113757687756
4522000000.0 0.3612959422875167 -0.9418656766746779
4525000000.0 0.4065692027292673 -0.9202767765554153
4528000000.0 0.3713545152360514 -0.9712613077983682
4531000000.0 0.38450657140678024 -0.9385605660092583
4534000000.0 0.3638577859213789 -0.9102728754668827
4538000000.0 0.3789101104775331 -0.9233111214333949
4541000000.0 0.3326627209971926 -0.946160013602796
4544000000.0 0.38234125656618995 -0.9206941038007495
4547000000.0 0.38491922286135755 -0.9227049089567068
4550000000.0 0.33943032774625514 -0.9622095009110405
4553000000.0 0.37118202856373 -0.9280592353113957
4556000000.0 0.32753851008383567 -0.9434312060122235
4559000000.0 0.35215947635081785 -0.9441366048108304
4562000000.0 0.3507270356845835 -0.9704816432381347
4566000000.0 0.3548961372948442 -0.9523764211566885
4569000000.0 0.3460078918905532 -0.9383791810290354
4572000000.0 0.3638875308727105 -0.9432755115372865
4575000000.0 0.3329069784150249 -0.9607801233725792
4578000000.0 0.372750751929569 -0.9559481045788862
4581000000.0 0.3384934046711404 -0.9572977123494775
4584000000.0 0.35200927069375587 -0.9502731827548312
4588000000.0 0.3804143140502746 -0.9693072671723706
4591000000.0 0.3645484864135127 -0.943220223010695
4594000000.0 0.32853397419914304 -0.9668847297474068
4597000000.0 0.36348859730169614 -0.9595341349589056
4600000000.0 0.3340478287741846 -0.9414961370320043
4603000000.0 0.32999000003088597 -0.9600788659927012
4606000000.0 0.35431147434907706 -0.9711147804605269
4609000000.0 0.36478236620862114 -0.9418653905368927
4612000000.0 0.3485130462213161 -0.9564209477644778
4616000000.0 0.3472722092915451 -0.935101730200072
4619000000.0 0.33886515268538747 -0.9446899718764015
4622000000.0 0.3311871953439512 -0.9619018931892421
4625000000.0 0.3183268988342872 -0.9392274511209315
4628000000.0 0.345812499658951 -0.9580935158546402
4631000000.0 0.3339231729833692 -0.9456324802338804
4634000000.0 0.3355916050477953 -0.9675961947439622
4638000000.0 0.35651016576712924 -0.9625085547870884
4641000000.0 0.34789268456746625 -0.9586964865250609
4644000000.0 0.3417971748293195 -0.9352824370535028
4647000000.0 0.3392239799054075 -0.9573727402358317
4650000000.0 0.30994796786988266 -0.9588098160535148
4653000000.0 0.33203851159159403 -0.9667431135581488
4656000000.0 0.32394557056925755 -0.9635710473687447
4659000000.0 0.3154506916808646 -0.9557204523061943
4662000000.0 0.3246955282866878 -0.9484334476872848
4666000000.0 0.3319882220262037 -0.9493123016830859
4669000000.0 0.331269582812639 -0.9626258157750387
4672000000.0 0.3208676458671018 -0.993519921338608
4675000000.0 0.30703943825888064 -0.9766181521153942
4678000000.0 0.3192507676245099 -0.9489517082583746
4681000000.0 0.30818901636785845 -0.9846730097021884
4684000000.0 0.3135418418275908 -0.9702460105035358
4688000000.0 0.293196040263969 -0.9601743280801612
4691000000.0 0.344410739083915 -0.9717352171715224
4694000000.0 0.3389090364643751 -0.9555980257189702
4697000000.0 0.282082269060775 -0.9267239853486916
4700000000.0 0.33246634746913356 -0.9562987692643514
4703000000.0 0.34463186259867584 -0.8992183673202753
4706000000.0 0.2955991733147777 -0.9623884274938881
4709000000.0 0.3056210422023647 -0.9819855513529392
4712000000.0 0.3410756439079691 -0.9700362566395344
4716000000.0 0.3236053071114373 -0.9777855361045462
4719000000.0 0.3367742188269668 -0.9427335378674959
4722000000.0 0.3463841834967661 -0.9344442089355747
4725000000.0 0.3369688973967626 -0.9481481130900706
4728000000.0 0.3004900747546364 -0.9721938291828294
4731000000.0 0.33799491138647136 -0.997586904180664
4734000000.0 0.3228647084464965 -0.97055463431042
4738000000.0 0.36817224567350293 -1.037911941470269
4741000000.0 0.31182127097543405 -0.9959430853500374
4744000000.0 0.28914251120054774 -0.9544649788610742
4747000000.0 0.3440617359318175 -0.9517575234793432
4750000000.0 0.30604475786256435 -0.9659874343296463
4753000000.0 0.31564397379683123 -1.0279512995059876
4756000000.0 0.31020354822783236 -1.0089776934427546
4759000000.0 0.30172280906906934 -1.0309198295154056
4762000000.0 0.2585863360544088 -0.9893336900646965
4766000000.0 0.313873044187831 -0.9728899055714467
4769000000.0 0.3017741199955527 -0.9912913974598712
4772000000.0 0.3104819225189188 -0.9590049648340874
4775000000.0 0.29218810059036715 -1.0236994000347535
4778000000.0 0.2721008395927993 -0.9830186132143074
4781000000.0 0.32342688300946854 -0.9802920537029994
4784000000.0 0.32492549081851824 -0.9430356271071259
4788000000.0 0.2707623439599421 -1.0145661339219998
4791000000.0 0.29418387562532833 -0.959102766897222
4794000000.0 0.3261372214626096 -0.9916796587064721
4797000000.0 0.2890659389479202 -0.9745280015197284
4800000000.0 0.2646963743665015 -0.935834263665394
4803000000.0 0.24917640785740502 -0.9810179367787911
4806000000.0 0.2938820954985908 -0.9999655658679983
4809000000.0 0.257401590533238 -0.9871687169910907
4812000000.0 0.24925237206424278 -0.9848031967183317
4816000000.0 0.33730797824981607 -0.9773092898217902
4819000000.0 0.3093037863788316 -0.9704450391572402
4822000000.0 0.31310338854890557 -1.0289996198200135
4825000000.0 0.3369534276876681 -0.9873202597013919
4828000000.0 0.2834334990232659 -0.9809181954734052
4831000000.0 0.2420025775499999 -1.0122250528463665
4834000000.0 0.31215904670104705 -1.0081049509797764
4838000000.0 0.25548270186810906 -1.0076636935297598
4841000000.0 0.2671891999682833 -0.968889980295144
4844000000.0 0.31258856511127675 -0.9941805232312122
4847000000.0 0.2980228805779673 -0.9577399347722413
4850000000.0 0.27808748736094613 -1.0101558994637594
4853000000.0 0.26799644347699203 -0.9615347765602985
4856000000.0 0.2779123709663424 -0.9724991866101541
4859000000.0 0.29821270646481685 -1.0477315257189033
4862000000.0 0.2946904271678673 -0.9562624642564717
4866000000.0 0.2605510869689429 -1.0073247157585516
4869000000.0 0.26046770423598364 -0.9891949202239546
4872000000.0 0.26303880185613554 -1.0230514009254112
4875000000.0 0.3402455769495675 -1.027503855507009
4878000000.0 0.28228700881152835 -0.9916173136366835
4881000000.0 0.25714525241673636 -1.0684656868615618
4884000000.0 0.3153360528277287 -0.9878264339591849
4888000000.0 0.3310240554371816 -0.9915194976144756
4891000000.0 0.294840290705886 -1.0231889314124123
4894000000.0 0.2613086878046884 -0.9883891819731585
4897000000.0 0.32268091076813665 -0.9495780299827413
4900000000.0 0.28972804706410216 -1.0182077463356483
4903000000.0 0.3186614188806305 -1.0193681801897942
4906000000.0 0.2765035634004419 -1.0384456068763759
4909000000.0 0.2586956469804183 -1.0104813866889617
4912000000.0 0.26506959302792676 -1.0126871244411975
4916000000.0 0.30946985820392986 -1.0063271003715253
4919000000.0 0.32263545039251673 -1.0240828476619805
4922000000.0 0.27406189432613515 -0.9929358433184801
4925000000.0 0.23256122664343526 -0.9934815164683397
4928000000.0 0.3042414595306199 -0.9721069948167942
4931000000.0 0.27732436682476214 -1.0036846570928142
4934000000.0 0.2524506423310143 -0.9653232130239007
4938000000.0 0.2545065046770965 -0.9709076907592411
4941000000.0 0.28800290564175224 -0.9857553495153673
4944000000.0 0.2888770049540671 -0.9447158614065476
4947000000.0 0.26715225687960487 -0.9960021483004112
4950000000.0 0.25258541545546287 -0.9482868919681984
4953000000.0 0.2707919296771121 -1.0623501399833988
4956000000.0 0.256847472537906 -0.994995920188725
4959000000.0 0.23740662287993702 -0.9836788837313487
4962000000.0 0.26847842228369734 -1.0134136971028522
4966000000.0 0.2982605509622521 -1.0201816204548173
4969000000.0 0.31978985336982696 -1.0384314827301542
4972000000.0 0.25536460439501685 -1.0155945791177974
4975000000.0 0.2978756891388358 -0.9722467796983559
4978000000.0 0.27233386139009624 -1.0200445381935586
4981000000.0 0.25087021303687707 -1.0260913790562318
4984000000.0 0.28401442883604183 -0.9855530337715619
4988000000.0 0.2799887817553514 -0.9828251089180879
4991000000.0 0.3135320357405449 -0.9810911506117879
4994000000.0 0.3059170439479502 -0.9851449659272749
4997000000.0 0.2114058852322147 -1.0163786690844852
5000000000.0 0.2804598130995861 -1.0333773940379842
5003000000.0 0.2666129131940481 -1.0149483733982123
5006000000.0 0.293567806777787 -1.0624014099016579
5009000000.0 0.277950791284916 -1.0112524503968103
5012000000.0 0.2370771652852262 -1.0276497250841472
5016000000.0 0.32694326841615695 -1.0223106027350723
5019000000.0 0.2720310596399571 -1.0045005196084402
5022000000.0 0.25449446433555767 -1.0018352571281788
5025000000.0 0.25929207970196194 -1.062737395838493
5028000000.0 0.2658241814687167 -1.0057538518714375
5031000000.0 0.25472649744553394 -1.0014577167090501
5034000000.0 0.25196714780615076 -1.0248673426596504
5038000000.0 0.22850910418992076 -0.9920648983499675
5041000000.0 0.32168963031660414 -1.0219070090507785
5044000000.0 0.27301028820702633 -0.9843092426396745
5047000000.0 0.2308215458618358 -1.0139967609315166
5050000000.0 0.35652563645405416 -0.9662961793620399
5053000000.0 0.22139227127829758 -1.02417844980816
5056000000.0 0.32755571378044196 -0.9925230073415356
5059000000.0 0.28445683625407114 -1.021685418877368
5062000000.0 0.25582994951660054 -1.0511003509077774
5066000000.0 0.274742641709073 -1.004683776029539
5069000000.0 0.24048155762724005 -1.0104948056148875
5072000000.0 0.27595669547005286 -0.9919648676629664
5075000000.0 0.28558300950235566 -0.9777979462158195
5078000000.0 0.23005310667443835 -1.0198647037026374
5081000000.0 0.23407693931993362 -0.962524353265581
5084000000.0 0.28874294420446117 -1.0029282574212823
5088000000.0 0.277136981182325 -1.0058707487837126
5091000000.0 0.2396738357412303 -1.0059211012129596
5094000000.0 0.22617325061630728 -0.9660585499190163
5097000000.0 0.277282658310219 -0.9567755917613336
5100000000.0 0.26354863383125077 -0.9952899405102603
5103000000.0 0.22042840243179046 -1.053411342934453
5106000000.0 0.2904343189210793 -1.0555885557590865
5109000000.0 0.230783401432973 -1.0450835062102382
5112000000.0 0.21034121944377976 -0.9866049893426806
5116000000.0 0.27045618690464635 -0.9831236165888323
5119000000.0 0.1660226618062035 -1.0267600302012914
5122000000.0 0.22331993069464146 -0.9661000453270207
5125000000.0 0.23945178740347417 -1.0006954509019605
5128000000.0 0.24793684375998248 -1.0135316474049088
5131000000.0 0.2439434197040154 -1.0013764057831158
5134000000.0 0.24629972947049356 -1.0444590289367948
5138000000.0 0.2710818445725888 -0.9957510927921815
5141000000.0 0.30420066829947795 -1.0271095838937951
5144000000.0 0.25113881383417197 -0.9944960431817278
5147000000.0 0.24797305721729956 -1.001895812830008
5150000000.0 0.27816740443086424 -1.0537161752757542
5153000000.0 0.280114183694562 -1.050994946291211
5156000000.0 0.311348893406773 -1.0075970092189483
5159000000.0 0.3193387237720702 -1.041698513650956
5162000000.0 0.21533662348320948 -1.0311422525320721
5166000000.0 0.21249101141611543 -1.0439055080893238
5169000000.0 0.2565228427178866 -1.0285382991199925
