! Created with skrf 1.8.0 (http://scikit-rf.org).
# Hz S RI R 50.0 
!freq ReS11 ImS11
4000000000.0 0.5757165034091212 -0.8221715917630577
4003000000.0 0.595159894620014 -0.9265277295468217
4006000000.0 0.5238088673281279 -0.8695707333854249
4009000000.0000005 0.5557234876485733 -0.9064319520634136
4011999999.9999995 0.6092668925342634 -0.8886117041056238
4016000000.0 0.5395624210389585 -0.9113287700063639
4019000000.0 0.5221748469259606 -0.8689422472321254
4022000000.0000005 0.6411908704020144 -0.8296121071959726
4025000000.0000005 0.5332183664940384 -0.9184526150066338
4027999999.9999995 0.5494314744261717 -0.9062618384099148
4030999999.9999995 0.5202812862646845 -0.8232571163450804
4034000000.0 0.5614858831078218 -0.8652316177596595
4038000000.0000005 0.5256151224842253 -0.8715349120501088
4041000000.0000005 0.5420338541954541 -0.8765310065669412
4043999999.9999995 0.5862412380100646 -0.926159151763573
4046999999.9999995 0.5945595935935271 -0.88065990666838
4050000000.0 0.5270926166092114 -0.9260236974090764
4053000000.0 0.5060579934111501 -0.878318263001689
4056000000.0 0.5193274107123411 -0.8668884636219868
4059000000.0 0.5973335776435069 -0.8865785476560732
4062000000.0000005 0.5326610029116197 -0.8974525733385693
4066000000.0 0.5332954234843572 -0.7937503976990703
4069000000.0 0.5794808167651376 -0.9263228225125186
4072000000.0 0.5962479771240438 -0.8427013567332421
4075000000.0 0.5958942589968337 -0.9062593765382404
4078000000.0000005 0.5550086791010106 -0.9250617387715363
4081000000.0000005 0.5612388733755629 -0.7961577170815524
4083999999.9999995 0.5620714969623135 -0.8969798295643463
4088000000.0 0.6122254830500062 -0.8449966651624611
4091000000.0 0.6084265359512118 -0.9376948144386441
4094000000.0000005 0.5646554623277193 -0.882213375528385
4097000000.0000005 0.5502643868123522 -0.872505033425096
4099999999.9999995 0.5394275877228544 -0.8714296666249846
4102999999.9999995 0.575063853178648 -0.8927721662304215
4106000000.0 0.5627865795557118 -0.9069075911587943
4109000000.0 0.5504030920098371 -0.9020060217450553
4112000000.0 0.5517151487302948 -0.8960243192013567
4115999999.9999995 0.5459029912642106 -0.8176374555464984
4119000000.0 0.5357751334236512 -0.8677156153010518
4122000000.0 0.5261349599244538 -0.8897453355293938
4125000000.0 0.5710829001912751 -0.9068948474193986
4128000000.0 0.5526247674470304 -0.8272903783053974
4131000000.0 0.5347858319849125 -0.8727101979367011
4134000000.0000005 0.5902341213233068 -0.8524379316990711
4138000000.0 0.5159669282902772 -0.8284608211396811
4141000000.0 0.530949580227871 -0.8707796494739628
4144000000.0 0.5981719259818729 -0.8559224952724818
4147000000.0000005 0.5619268234428102 -0.8653112664601438
4150000000.0000005 0.5697749771076455 -0.8908311101266722
4152999999.9999995 0.5752117618094776 -0.8741183921007528
4155999999.9999995 0.5977559621229672 -0.8602070164392079
4159000000.0 0.5659152884020792 -0.8636248777029237
4162000000.0 0.5607914421268466 -0.8560581695166739
4166000000.0000005 0.5248576929074882 -0.9132569553519397
4168999999.9999995 0.5238191731133043 -0.8850875186450486
4171999999.9999995 0.5793987114748297 -0.8729956003940966
4175000000.0 0.5595430106098518 -0.8482731586049972
4178000000.0 0.5718177462613292 -0.857114865707775
4181000000.0 0.5742440310811855 -0.8491597660408224
4184000000.0 0.5674421148468073 -0.8618897658938209
4187999999.9999995 0.5612771117414077 -0.8646110542343663
4191000000.0 0.5643874291730657 -0.8456242553598734
4194000000.0 0.5504355474621835 -0.8312205776277866
4197000000.0 0.5705960358434683 -0.8833766258476626
4200000000.0 0.560827179195509 -0.8499285798855699
4203000000.0000005 0.5532441800605694 -0.8537944156380263
4206000000.0000005 0.5636034312857201 -0.8629877534435945
4208999999.9999995 0.5595255127160383 -0.8426024789953044
4211999999.9999995 0.5293825093669586 -0.8576262417504923
4216000000.0 0.5652302062060386 -0.855049527497247
4219000000.0000005 0.5744023868765534 -0.8528418762250433
4222000000.0000005 0.5576703927456661 -0.8664049359843947
4224999999.9999995 0.5536570305178135 -0.8529628896260157
4227999999.9999995 0.5581827300442506 -0.8922081647574608
4231000000.0 0.5327370726828203 -0.8439811554971054
4234000000.0 0.5406013418000933 -0.8708673428142006
4238000000.0000005 0.533459960146625 -0.8672976447508757
4240999999.9999995 0.5560800356080504 -0.8590507145827584
4244000000.0 0.5517951444998412 -0.8726506012022762
4247000000.0 0.5614365155119122 -0.8570886179249874
4250000000.0 0.5443551006574749 -0.8539640270042849
4253000000.0 0.5276351253189698 -0.8609544195845885
4256000000.0 0.5806435035569153 -0.8898117051793719
4259000000.0000005 0.5194871778111757 -0.8442599673387998
4261999999.9999995 0.5422104414931399 -0.8714079592459252
4266000000.0 0.5528634392906026 -0.8919811906974782
4269000000.0 0.5552505875134215 -0.8395766490943175
4272000000.0000005 0.5420613093987154 -0.8497480891916501
4275000000.0000005 0.5483668209864383 -0.8708405252522586
4277999999.9999995 0.5535925971676481 -0.8626563891903013
4280999999.9999995 0.5546534177828497 -0.8266083282175342
4284000000.0 0.5285238378044658 -0.8868438470462926
4288000000.0000005 0.5848899296974377 -0.84342371180038
4291000000.0000005 0.555371614785824 -0.8374753165657415
4293999999.9999995 0.5615546145682722 -0.8719320910278312
4297000000.0 0.5725102548893888 -0.8520027509945222
4300000000.0 0.5540020353009291 -0.849372631559874
4303000000.0 0.5338293800674268 -0.8500385114207616
4306000000.0 0.5664543819969159 -0.8406793177860544
4309000000.0 0.5589840492590429 -0.8287044599200513
4312000000.0 0.5883176849189173 -0.8431961558231763
4316000000.0 0.578060073565739 -0.8568081471020678
4319000000.0 0.5307427746550694 -0.8447853088419933
4322000000.0 0.5221334614213426 -0.8437271121456813
4325000000.0 0.5567852230490835 -0.8648021968465541
4328000000.0 0.5402560839451921 -0.8409072920399988
4331000000.0 0.528199052119147 -0.8534427887435007
4334000000.0 0.5546235608701358 -0.8769742151660078
4338000000.0 0.5666604134041978 -0.8418116055282504
4341000000.0 0.584315400246151 -0.8349486487467852
4344000000.0 0.5765331969309645 -0.8576554446291464
4347000000.0 0.5171056331614939 -0.8778603804491641
4350000000.0 0.5332857508707846 -0.8129029931335087
4353000000.0 0.5755320442786173 -0.839686104841507
4356000000.0 0.5448189361726993 -0.8604889633982961
4359000000.0 0.5292641425531306 -0.8152553959798488
4362000000.0 0.503149338479132 -0.8892960985647502
4366000000.0 0.5539599087324164 -0.9048063773379115
4369000000.0 0.5190550224680954 -0.8402928598182332
4372000000.0 0.4800010203839279 -0.8683203829287278
4375000000.0 0.5567382690495145 -0.8387065583542735
4378000000.0 0.5302241025293044 -0.834188649830125
4381000000.0 0.5408596358192831 -0.8254706623153605
4384000000.0 0.5951136878423481 -0.9104460008887056
4388000000.0 0.549500865361046 -0.8194305444563266
4391000000.0 0.5654063828791404 -0.8449399173539537
4394000000.0 0.5201009147611516 -0.8410332350719345
4397000000.0 0.5295644972819655 -0.8476913924169968
4400000000.0 0.5438839416750854 -0.8706298607127173
4403000000.0 0.5443330711726999 -0.8646654848901643
4406000000.0 0.5332497324553437 -0.8722452134542085
4409000000.0 0.5621364841268018 -0.8823769307709116
4412000000.0 0.4910123807470839 -0.8853889110641264
4416000000.0 0.5160546548449831 -0.852486640068973
4419000000.0 0.520670849329427 -0.8695485579053441
4422000000.0 0.55108434686281 -0.8482709813897614
4425000000.0 0.5618176278577798 -0.8469150234464582
4428000000.0 0.5169134699796221 -0.8670329926691572
4431000000.0 0.546255128922437 -0.8648264905183478
4434000000.0 0.52502641805032 -0.8577222023450266
4438000000.0 0.555995362948534 -0.8824044727311204
4441000000.0 0.5465586704997769 -0.8724660834370503
4444000000.0 0.5331564737705048 -0.8413530803259854
4447000000.0 0.5223178477436063 -0.8611938912952484
4450000000.0 0.541173472733425 -0.8420836626592673
4453000000.0 0.5588601769402168 -0.8877848100600196
4456000000.0 0.5273095899150282 -0.8527773157210691
4459000000.0 0.4902233052924906 -0.8284465632062162
4462000000.0 0.5529933832640783 -0.9027091871754218
4466000000.0 0.5614193389240859 -0.9018138027419398
4469000000.0 0.5617912892965078 -0.8631461580666058
4472000000.0 0.5406495463314462 -0.9129452639962807
4475000000.0 0.5240842421974974 -0.8365441069273934
4478000000.0 0.5365306843295776 -0.9046032410077023
4481000000.0 0.5147070602289409 -0.8539558513233837
4484000000.0 0.49758621433033356 -0.8832471310941672
4488000000.0 0.505016882269262 -0.8546371422914079
4491000000.0 0.5281616373785338 -0.8763288401516717
4494000000.0 0.5205418708092544 -0.8508069205587077
4497000000.0 0.540701542073453 -0.8486330438219986
4500000000.0 0.5385167305988874 -0.8662247743024678
4503000000.0 0.5556133968247842 -0.8983970156784373
4506000000.0 0.5264253377604832 -0.8705123369232943
4509000000.0 0.5100109415483776 -0.856713313269884
4512000000.0 0.5130499609542714 -0.8596496125363853
4516000000.0 0.5469493728412969 -0.8800227254805053
4519000000.0 0.5289258532753125 -0.8547726680318526
4522000000.0 0.5208696446714265 -0.8651392013749327
4525000000.0 0.5350533992831968 -0.8621494350828895
4528000000.0 0.5224586583081012 -0.8971797563357427
4531000000.0 0.5322979711561072 -0.8509451091508966
4534000000.0 0.509613230288619 -0.8484583203094456
4538000000.0 0.5297239891774589 -0.8628338817281886
4541000000.0 0.49904735147477425 -0.8724081335255516
4544000000.0 0.5271979715282321 -0.8580325696668804
4547000000.0 0.5428197079731899 -0.8640152107576256
4550000000.0 0.4971471604232891 -0.8795396199351441
4553000000.0 0.5408776778578928 -0.8764565118438882
4556000000.0 0.50088535617152 -0.8521906006470811
4559000000.0 0.5103106450442916 -0.8855026523104366
4562000000.0 0.5247680276827174 -0.8590111198415107
4566000000.0 0.5077535212818085 -0.8806300534605027
4569000000.0 0.4983497883070169 -0.8443184391993219
4572000000.0 0.5043017267652945 -0.8596405554706675
4575000000.0 0.5074693172043554 -0.8814376618455858
4578000000.0 0.5582459487435577 -0.8780106614077466
4581000000.0 0.5003889822202423 -0.8948579461060526
4584000000.0 0.5106781813040022 -0.867107321988491
4588000000.0 0.5190502324390214 -0.8713133437755654
4591000000.0 0.5259024475516951 -0.868870310586423
4594000000.0 0.5016140102668074 -0.8833655811468525
4597000000.0 0.5255134557095196 -0.882003548103111
4600000000.0 0.474154524523304 -0.8904526525372227
4603000000.0 0.5066490583839164 -0.8956422488211644
4606000000.0 0.5344031308498307 -0.8800027242231246
4609000000.0 0.5043338389115664 -0.8816910860907572
4612000000.0 0.5084271941030906 -0.8786231521469783
4616000000.0 0.4990037394529281 -0.8624652674999831
4619000000.0 0.5124656045607401 -0.8789760535797726
4622000000.0 0.4962120984348794 -0.8839990385628594
4625000000.0 0.4781960258010542 -0.8636524371590384
4628000000.0 0.5235819738856411 -0.8569857562496914
4631000000.0 0.5030207010398182 -0.8862936923045764
4634000000.0 0.4968759839348932 -0.866832868628682
4638000000.0 0.5186466908422862 -0.8753609568567271
4641000000.0 0.5173778448795442 -0.8681312308197284
4644000000.0 0.5074463895719117 -0.8791248535755366
4647000000.0 0.5056742358998144 -0.8772292407245909
4650000000.0 0.47660220703632794 -0.8944152613268206
4653000000.0 0.5333068743238463 -0.8770039219234438
4656000000.0 0.48963665424250524 -0.8840751620689508
4659000000.0 0.49182770554587874 -0.8960751153570885
4662000000.0 0.4743291053209998 -0.8852617820209767
4666000000.0 0.49924246516190296 -0.9103755239332683
4669000000.0 0.5162197609503566 -0.8781671462135684
4672000000.0 0.48966253413446414 -0.9093144264511125
4675000000.0 0.4814240884937302 -0.8979376882176379
4678000000.0 0.49096432223460695 -0.8720010140676777
4681000000.0 0.4865361396405779 -0.8918241024563062
4684000000.0 0.4787633696269738 -0.892925642148573
4688000000.0 0.4880185429527064 -0.8805395820517774
4691000000.0 0.5190503343760502 -0.8660451033421875
4694000000.0 0.5252498391447123 -0.8810815534469173
4697000000.0 0.45356002184909344 -0.8657961745747647
4700000000.0 0.508653684860286 -0.8828397868518727
4703000000.0 0.5121643146473526 -0.843432768676655
4706000000.0 0.4878390566320166 -0.8806722735350765
4709000000.0 0.47718728215893125 -0.8901658782256153
4712000000.0 0.512416879704446 -0.9128640136310999
4716000000.0 0.49137769215211363 -0.8990071139576465
4719000000.0 0.535326567360233 -0.8787569120487514
4722000000.0 0.5176830708688437 -0.8984697770981593
4725000000.0 0.4672340121423026 -0.8998377112399912
4728000000.0 0.5007979185929136 -0.8822487997789364
4731000000.0 0.5362588452589423 -0.898045427365217
4734000000.0 0.5130481991136927 -0.8926379061967116
4738000000.0 0.5250080386620116 -0.9107644289742433
4741000000.0 0.4878872028412624 -0.9087989856955725
4744000000.0 0.48932548946737253 -0.9219549221996192
4747000000.0 0.4862683003353173 -0.8653603971467687
4750000000.0 0.4863819019863673 -0.8964421885310776
4753000000.0 0.5121137273471444 -0.8976007149643345
4756000000.0 0.48422623001807413 -0.9170172928283732
4759000000.0 0.5281186877889442 -0.9074321187253339
4762000000.0 0.4498134850144436 -0.9315815377379967
4766000000.0 0.4792772245010805 -0.8909227091456629
4769000000.0 0.49783330199969594 -0.9112520582216568
4772000000.0 0.4832054395263111 -0.8878153217518867
4775000000.0 0.4723570873609398 -0.9449334464319892
4778000000.0 0.5189900958178784 -0.8990493538125521
4781000000.0 0.537739471519441 -0.9173220028149123
4784000000.0 0.5092402631546395 -0.8814220622191752
4788000000.0 0.4755809307510492 -0.9317315050878461
4791000000.0 0.4979549899946484 -0.900370386090714
4794000000.0 0.5303304545686337 -0.8754670657361029
4797000000.0 0.46983340489341974 -0.8740124570191661
4800000000.0 0.47440876035091617 -0.8920053559729038
4803000000.0 0.47641461058986456 -0.8886405011678056
4806000000.0 0.49144221387657505 -0.907404791256873
4809000000.0 0.44822698796896 -0.8910606426954303
4812000000.0 0.4687905021682234 -0.9121354952850568
4816000000.0 0.503108603975528 -0.8635896636793465
4819000000.0 0.5250086062226467 -0.9150567113224398
4822000000.0 0.519937913628574 -0.9026521750832924
4825000000.0 0.5398239401666396 -0.9068410495243728
4828000000.0 0.507439875132449 -0.8987178572081626
4831000000.0 0.46108969897869656 -0.9287903770670778
4834000000.0 0.508169214125909 -0.8809520235724173
4838000000.0 0.4751374769573724 -0.9456049643780545
4841000000.0 0.4818887476923989 -0.8866460717316419
4844000000.0 0.5297749795463575 -0.9176929534558559
4847000000.0 0.48678539131960713 -0.8525306162681221
4850000000.0 0.5034773106999987 -0.9391606379912687
4853000000.0 0.483137682508693 -0.8648185073194774
4856000000.0 0.5000765510210357 -0.8660523629438277
4859000000.0 0.5186720800524001 -0.9541987033883179
4862000000.0 0.5177064835381887 -0.8788331250652786
4866000000.0 0.4841306035224282 -0.9035601297820337
4869000000.0 0.4967601947192563 -0.915199997438072
4872000000.0 0.49483487843691876 -0.9282023995236073
4875000000.0 0.5695620599720597 -0.8912162992175019
4878000000.0 0.49253620424798716 -0.9107652188555819
4881000000.0 0.4993222797355963 -0.979630717715058
4884000000.0 0.5179217980352075 -0.9139009338843674
4888000000.0 0.5285138760686992 -0.8937191506905015
4891000000.0 0.5426016836418465 -0.8902583489171499
4894000000.0 0.47959193746245543 -0.9203066630615592
4897000000.0 0.5132417283978702 -0.8842844398791646
4900000000.0 0.5109894052468347 -0.8995602955156108
4903000000.0 0.5161691300059639 -0.9204728777300653
4906000000.0 0.5090539123422858 -0.9081413747607219
4909000000.0 0.508682028291987 -0.9029674534629413
4912000000.0 0.48657095946560525 -0.9447586033756774
4916000000.0 0.5406229979453547 -0.9125531459347364
4919000000.0 0.5557027631988678 -0.9305461772186212
4922000000.0 0.5743597714984686 -0.9016019878589407
4925000000.0 0.4892418768258154 -0.8680447047846752
4928000000.0 0.5646202452099399 -0.8706074170830891
4931000000.0 0.5226947127323123 -0.8774822576584709
4934000000.0 0.4974037711330036 -0.8747180861420194
4938000000.0 0.48295137814189937 -0.9152158474316294
4941000000.0 0.4999410656933619 -0.8888844490451014
4944000000.0 0.48516072136290117 -0.8433807053955591
4947000000.0 0.49298892715729536 -0.8884050058355656
4950000000.0 0.4935757529443117 -0.8845091359196802
4953000000.0 0.5059961763188288 -0.9358907169029655
4956000000.0 0.4582347441924755 -0.9077794261453141
4959000000.0 0.4386748156706371 -0.8841913145490032
4962000000.0 0.5165159482934373 -0.9176025354969397
4966000000.0 0.5477974584662629 -0.9252781052751816
4969000000.0 0.5450649437002564 -0.9150733723794121
4972000000.0 0.5200106332255761 -0.9037947596739208
4975000000.0 0.5413659513601614 -0.8706948153041504
4978000000.0 0.4905585956012071 -0.9098803833931844
4981000000.0 0.5239499888602851 -0.9230367501483192
4984000000.0 0.49496061597051405 -0.9073222138821443
4988000000.0 0.5353674283826532 -0.8774401993823302
4991000000.0 0.5667792425576115 -0.8870706113965827
4994000000.0 0.5318069757215315 -0.9001900134835581
4997000000.0 0.47687931995238597 -0.9457191060836116
5000000000.0 0.5530257044973423 -0.912427998544825
5003000000.0 0.5551581500930038 -0.899894907726873
5006000000.0 0.541729115002904 -0.9253002374427242
5009000000.0 0.5376049705650542 -0.8871815908946706
5012000000.0 0.47890567532967426 -0.9196719163661566
5016000000.0 0.6099379791573829 -0.898068499544752
5019000000.0 0.5089299672651842 -0.9154902328558566
5022000000.0 0.5075777374664897 -0.8941716435208613
5025000000.0 0.5681326668523937 -0.9572641654087528
5028000000.0 0.49283573618353665 -0.9117142269266858
5031000000.0 0.5185146281696682 -0.8758402671013821
5034000000.0 0.5277778086296565 -0.9226559172359893
5038000000.0 0.48290811342578654 -0.8713885585492326
5041000000.0 0.5561939734351395 -0.8937234408660271
5044000000.0 0.5275865776190322 -0.8336672648493637
5047000000.0 0.5487305181607008 -0.9306744708091588
5050000000.0 0.5985485224063256 -0.8181955747064076
5053000000.0 0.5351785728530983 -0.9376913651335654
5056000000.0 0.559911462105352 -0.8713178252356273
5059000000.0 0.5786984807228464 -0.8681334740360369
5062000000.0 0.5090670158267221 -0.934277721051809
5066000000.0 0.5580446592909636 -0.8655737707733335
5069000000.0 0.5369947055564046 -0.8849069803982383
5072000000.0 0.5070800401118434 -0.8642519481283151
5075000000.0 0.5563874318979883 -0.9012630976794656
5078000000.0 0.4962615156068253 -0.9216118151520749
5081000000.0 0.4768174845527746 -0.8499420911928235
5084000000.0 0.5817003225706188 -0.9184105977053162
5088000000.0 0.5773192617297288 -0.862961918948591
5091000000.0 0.5114917397754004 -0.9060508199057333
5094000000.0 0.5363201710416667 -0.9209189597243097
5097000000.0 0.5631613028586671 -0.882133914209178
5100000000.0 0.5528420577627753 -0.8828802812465086
5103000000.0 0.5420059982747715 -0.9159140905445473
5106000000.0 0.5601231998335832 -0.9262291749129721
5109000000.0 0.520930328690004 -0.8445591403879056
5112000000.0 0.5142725132720853 -0.8544564540920121
5116000000.0 0.5178459282367969 -0.8637682744229658
5119000000.0 0.5341460287562196 -0.8657355998679459
5122000000.0 0.5523392766341787 -0.8454510778893767
5125000000.0 0.5554293601287782 -0.8547180615014653
5128000000.0 0.5731396523709511 -0.8709515548278963
5131000000.0 0.5275987969265583 -0.8393802109880366
5134000000.0 0.5218444057751032 -0.8820894562601693
5138000000.0 0.5548676662051342 -0.835698265486147
5141000000.0 0.591136045312076 -0.8545360530505133
5144000000.0 0.5682670532343568 -0.8644264605449385
5147000000.0 0.5949547976850799 -0.8947068960987645
5150000000.0 0.568652055308944 -0.8896987859635612
5153000000.0 0.559588325078443 -0.8481681826101151
5156000000.0 0.5627020516282444 -0.8820124801190588
5159000000.0 0.5834314266095695 -0.9080950504378553
5162000000.0 0.5158228854217336 -0.8950946218358491
5166000000.0 0.5637593047889183 -0.9141610249348062
5169000000.0 0.5528282246010506 -0.8865482494069998
5172000000.0 0.5448298524150489 -0.8490820535509426
5175000000.0 0.6018310015615891 -0.924448781511237
5178000000.0 0.5649843339224282 -0.9209516540691792
