! Created with skrf 1.8.0 (http://scikit-rf.org).
# Hz S RI R 50.0 
!freq ReS11 ImS11
4000000000.0 0.5228944373680471 -0.8768044429784159
4003000000.0 0.5187447001862668 -0.9092296849236017
4006000000.0 0.4797436597822522 -0.9382078320969593
4009000000.0000005 0.5302291501927929 -0.9039629170216431
4011999999.9999995 0.5803568242458906 -0.9047243314996231
4016000000.0 0.5447634607354706 -0.9683756587980354
4019000000.0 0.4931511175045915 -0.8792309122768438
4022000000.0000005 0.5742822645178809 -0.8916105010908976
4025000000.0000005 0.47100102699620755 -0.9210208137455462
4027999999.9999995 0.47895968313508186 -0.9202891553593583
4030999999.9999995 0.48933076987598756 -0.8645344152633703
4034000000.0 0.501505066236324 -0.9028122441077818
4038000000.0000005 0.49659475571292844 -0.9280464060254383
4041000000.0000005 0.4802296810243867 -0.9058549530340677
4043999999.9999995 0.5215954958448829 -0.9161575017799376
4046999999.9999995 0.5641736628716428 -0.8885086962954863
4050000000.0 0.503937055239073 -0.9382988841557327
4053000000.0 0.46755505646846496 -0.9041641096969283
4056000000.0 0.5101931359200211 -0.8996814165056044
4059000000.0 0.49613682783922625 -0.8501076089350692
4062000000.0000005 0.47741394254983804 -0.9189367991312873
4066000000.0 0.45267943570739755 -0.8357664148163455
4069000000.0 0.5121915027771713 -0.9428220745274936
4072000000.0 0.5232350730863645 -0.8592294459530362
4075000000.0 0.5764869215697943 -0.8857765803700735
4078000000.0000005 0.4856255437703422 -0.9036848915909386
4081000000.0000005 0.5518030524589832 -0.8802504321062273
4083999999.9999995 0.488836986810675 -0.9021830689380852
4088000000.0 0.5412133840756709 -0.8935557956573084
4091000000.0 0.5786666588667898 -0.9638677932409372
4094000000.0000005 0.5137446867139771 -0.8895115745231037
4097000000.0000005 0.5211960158739528 -0.8960552555023161
4099999999.9999995 0.5087465719937349 -0.8732079925122171
4102999999.9999995 0.5581482417354313 -0.90113225862741
4106000000.0 0.49035276732106226 -0.8812353177400403
4109000000.0 0.4976004042613197 -0.9259301512048856
4112000000.0 0.5042321591500015 -0.8913184791603109
4115999999.9999995 0.5164591110920864 -0.8951196659442202
4119000000.0 0.5134881650558939 -0.9050475364042736
4122000000.0 0.4664269676731956 -0.9250577510279616
4125000000.0 0.4901705948822851 -0.9325562643241928
4128000000.0 0.5029179893770784 -0.8915147642181385
4131000000.0 0.49389154438745914 -0.9285320712170535
4134000000.0000005 0.5160301629978871 -0.9043981491332038
4138000000.0 0.46689726857243063 -0.887645827636472
4141000000.0 0.49136080906805746 -0.8861874775367469
4144000000.0 0.5125219700924517 -0.9237733833841965
4147000000.0000005 0.5124812442574262 -0.9202593163347892
4150000000.0000005 0.5361559644646318 -0.8975518724827476
4152999999.9999995 0.4797439967875398 -0.8758609421395803
4155999999.9999995 0.5511471046638751 -0.8946188399566142
4159000000.0 0.5105754489844652 -0.8534557407322081
4162000000.0 0.5079852847445238 -0.877204845652008
4166000000.0000005 0.5245192639362719 -0.9025192147065841
4168999999.9999995 0.46864986493091204 -0.9053535243255493
4171999999.9999995 0.5283150534712832 -0.8709617105700175
4175000000.0 0.500020795295079 -0.9222901240024043
4178000000.0 0.5047430765939835 -0.8976826646606333
4181000000.0 0.4850342002040088 -0.9157474284508073
4184000000.0 0.4942689926310512 -0.9071882479319286
4187999999.9999995 0.4925578737275147 -0.9042513617097334
4191000000.0 0.5304346310377587 -0.8333962235183766
4194000000.0 0.4891592749141682 -0.8787625150079492
4197000000.0 0.519014729984755 -0.8979023323863033
4200000000.0 0.5034933607927664 -0.8819714909631409
4203000000.0000005 0.5191197888269511 -0.9109137020146316
4206000000.0000005 0.528525681243735 -0.9002489981676687
4208999999.9999995 0.5011309417881937 -0.8705785745090947
4211999999.9999995 0.4819683029096167 -0.8959613509122168
4216000000.0 0.5240553123362677 -0.8844130529643887
4219000000.0000005 0.5185291970033103 -0.8973427299128185
4222000000.0000005 0.491470361401004 -0.8959164007336717
4224999999.9999995 0.49600489208362303 -0.878271304489487
4227999999.9999995 0.5107578386259854 -0.9115100060912547
4231000000.0 0.4950120648977321 -0.8968809267912675
4234000000.0 0.49332588462220717 -0.8937351669273184
4238000000.0000005 0.48699636072982533 -0.9071002800021586
4240999999.9999995 0.4698303980504477 -0.8976189631407052
4244000000.0 0.4994488938741668 -0.884952023791153
4247000000.0 0.5189720083555031 -0.8875461404742825
4250000000.0 0.4954885767319314 -0.8746405303195693
4253000000.0 0.47287051497698374 -0.872346384598478
4256000000.0 0.4960333374202295 -0.9178889461861983
4259000000.0000005 0.49036374469506944 -0.8629901898285371
4261999999.9999995 0.47584935878507234 -0.895666483613854
4266000000.0 0.4776579444913323 -0.9182559666937865
4269000000.0 0.5080888272121099 -0.8959074398793415
4272000000.0000005 0.49512106209666773 -0.8815646482903219
4275000000.0000005 0.5019177895115977 -0.8978651759745613
4277999999.9999995 0.5221656672887194 -0.9283336361737681
4280999999.9999995 0.5017313513481622 -0.886873926689706
4284000000.0 0.48248392491506575 -0.9183462268031313
4288000000.0000005 0.5253150478018136 -0.8691319022924938
4291000000.0000005 0.4720066778540335 -0.88116992437835
4293999999.9999995 0.48675757219340354 -0.8789856605117967
4297000000.0 0.49608882093674356 -0.8430981346824111
4300000000.0 0.4989063482388886 -0.8801644003365688
4303000000.0 0.4788317667344161 -0.8789808973552787
4306000000.0 0.5215531786304788 -0.85694736897723
4309000000.0 0.47535742243719087 -0.8829303906703359
4312000000.0 0.5475873205342187 -0.8786484954697807
4316000000.0 0.519134763561124 -0.8843379916356698
4319000000.0 0.4845459527605179 -0.8830850554346446
4322000000.0 0.453404168095924 -0.9006385240211996
4325000000.0 0.4879301809814898 -0.899139503166844
4328000000.0 0.48626230136115073 -0.8482807391396817
4331000000.0 0.4736983939905463 -0.9138923504266655
4334000000.0 0.4937726238037829 -0.9061189856286171
4338000000.0 0.5154181496133018 -0.8638168859587386
4341000000.0 0.5363715043184205 -0.8840223133315875
4344000000.0 0.5113035731400192 -0.8994391198488096
4347000000.0 0.4622639064227829 -0.9257061180904389
4350000000.0 0.47019813884911854 -0.8625754782883712
4353000000.0 0.4926248189685502 -0.8477941455103635
4356000000.0 0.47206269443932136 -0.8813155884811182
4359000000.0 0.46932686024654147 -0.8541995880049035
4362000000.0 0.43724289595201116 -0.9137031087522446
4366000000.0 0.4951158394723514 -0.8877353670947661
4369000000.0 0.4732526502820278 -0.8601134035873316
4372000000.0 0.449146786048779 -0.8961235087111392
4375000000.0 0.49874334292229244 -0.8632053129962263
4378000000.0 0.46979877799910336 -0.8589184810772884
4381000000.0 0.49224429924232105 -0.8836998784397775
4384000000.0 0.5038116293453554 -0.9368480008184663
4388000000.0 0.47781787039168183 -0.8617727629830841
4391000000.0 0.49929285251539146 -0.9067117545537977
4394000000.0 0.46991916203547457 -0.8586281919161414
4397000000.0 0.4655995134227089 -0.8949379751321196
4400000000.0 0.47191986729425617 -0.9105149081851696
4403000000.0 0.47990332336329355 -0.8914445603892625
4406000000.0 0.4665863019353925 -0.8964632354811453
4409000000.0 0.4871280099018749 -0.9138930077322752
4412000000.0 0.4322806788957603 -0.9144924758039832
4416000000.0 0.4664691874295648 -0.8869842495355655
4419000000.0 0.46339823497242805 -0.8979816551927274
4422000000.0 0.4866294011350686 -0.8734010326952448
4425000000.0 0.511332422023879 -0.9120964234812554
4428000000.0 0.4620881667639721 -0.8979510970380677
4431000000.0 0.49147313768584766 -0.9133599571863886
4434000000.0 0.45864034318079094 -0.8999174348830804
4438000000.0 0.48524990103382615 -0.9228373199058288
4441000000.0 0.49315765888144436 -0.8988369212264242
4444000000.0 0.463073029024116 -0.8737647708038546
4447000000.0 0.46374336507999914 -0.8988182194513953
4450000000.0 0.47842632176799915 -0.8796743705791886
4453000000.0 0.4953717607413959 -0.9299367122418932
4456000000.0 0.4499474602569353 -0.8836046428128856
4459000000.0 0.4282005080485487 -0.8710377473504244
4462000000.0 0.48804161485168646 -0.9439680740847546
4466000000.0 0.4678968857602889 -0.9545064368845826
4469000000.0 0.4788694255239415 -0.896879088940917
4472000000.0 0.4664493566808054 -0.929777186953088
4475000000.0 0.4557577509750914 -0.868921017260837
4478000000.0 0.4545567938360772 -0.9366510085585045
4481000000.0 0.43778857390458015 -0.8663386291142499
4484000000.0 0.4256178230830922 -0.9109797442562821
4488000000.0 0.4527143864752029 -0.8993564505723335
4491000000.0 0.4790059237007921 -0.9021196151942654
4494000000.0 0.4704057389730053 -0.8718220865925612
4497000000.0 0.46605850128291015 -0.8802719065601314
4500000000.0 0.47821054176642713 -0.8938749550401408
4503000000.0 0.48502550006595646 -0.92476584618495
4506000000.0 0.43707234111851884 -0.898335682298727
4509000000.0 0.4548402737097424 -0.8962301010753788
4512000000.0 0.4569621072907532 -0.888731923253285
4516000000.0 0.4785758735116813 -0.9195344545072404
4519000000.0 0.4639703015907068 -0.8775880829907989
4522000000.0 0.4414415633001745 -0.9110593271419212
4525000000.0 0.4710039718044211 -0.8795549481927568
4528000000.0 0.4590657086940236 -0.9103467196907531
4531000000.0 0.4818055141226923 -0.897493033013215
4534000000.0 0.4401568385531288 -0.8893276470683051
4538000000.0 0.4469177901859537 -0.8984280375970763
4541000000.0 0.4138787582505545 -0.9013498622922772
4544000000.0 0.43204471191473504 -0.8940047838856431
4547000000.0 0.45499013379213465 -0.8839988580147162
4550000000.0 0.4448660722763959 -0.9211036159613221
4553000000.0 0.44656060422339583 -0.9039956607354721
4556000000.0 0.4405566344554401 -0.8866594897715517
4559000000.0 0.44288405543295145 -0.9253390770242482
4562000000.0 0.45338500882192223 -0.9123472133531082
4566000000.0 0.4450344289990794 -0.9214612067867972
4569000000.0 0.444262673149497 -0.8987777386303661
4572000000.0 0.45011588004052566 -0.8873166906759604
4575000000.0 0.4169219977462999 -0.9294196974974007
4578000000.0 0.4741074340032658 -0.9275697649686709
4581000000.0 0.42527560509171375 -0.913812739496833
4584000000.0 0.42529458000552206 -0.8986957071071071
4588000000.0 0.4721123005965966 -0.9016992789258227
4591000000.0 0.4662085562299373 -0.9004813193419917
4594000000.0 0.4041541516917826 -0.912014057762262
4597000000.0 0.42688075823229743 -0.9094205617064965
4600000000.0 0.40778524571040053 -0.906979051261234
4603000000.0 0.4350000003839819 -0.9180204455790996
4606000000.0 0.44558655858893903 -0.9068318558898721
4609000000.0 0.4405489295995264 -0.9129794175896769
4612000000.0 0.43428694893524855 -0.9194332907882592
4616000000.0 0.42077833842269735 -0.8948131460893165
4619000000.0 0.4404642367911516 -0.9126827153423552
4622000000.0 0.42038864011021804 -0.9198230971918349
4625000000.0 0.38228871761176497 -0.9055004344595963
4628000000.0 0.43201633217797786 -0.9079969055903288
4631000000.0 0.42109916754675 -0.9139003083024262
4634000000.0 0.4261358926656783 -0.9295062272525141
4638000000.0 0.4464292065315203 -0.9250557933623551
4641000000.0 0.4291973734971195 -0.9114428032893677
4644000000.0 0.4295844064295593 -0.9139617679787203
4647000000.0 0.42756141481409 -0.9182641248302266
4650000000.0 0.40590200057875214 -0.9181667993752002
4653000000.0 0.4461846927913561 -0.9007013805944315
4656000000.0 0.4236354422779827 -0.9152820903693042
4659000000.0 0.41911156861933324 -0.9129590338458196
4662000000.0 0.421740056914897 -0.9329701448232776
4666000000.0 0.4111886901441509 -0.9194712072985279
4669000000.0 0.4389394713386132 -0.9213358255995839
4672000000.0 0.40015096890837754 -0.9426992316583858
4675000000.0 0.3976593274066947 -0.9239277172295375
4678000000.0 0.42027650401672934 -0.920916986096869
4681000000.0 0.40434744490213437 -0.9544094483052799
4684000000.0 0.38334808156581834 -0.9517713407926905
4688000000.0 0.400077554488511 -0.937987827021509
4691000000.0 0.4481861738781442 -0.9250156036294096
4694000000.0 0.4376867825603996 -0.9084970174336295
4697000000.0 0.39037891703234184 -0.8891922579404092
4700000000.0 0.41337533017537903 -0.9071449205333888
4703000000.0 0.4352571405906162 -0.8558309427385282
4706000000.0 0.4326746960640728 -0.9222288036739461
4709000000.0 0.3960836965231566 -0.9323401472230608
4712000000.0 0.41454576577858854 -0.9246682923609292
4716000000.0 0.4035653376535236 -0.9486604832814087
4719000000.0 0.4762631395015705 -0.9112086196601759
4722000000.0 0.41147737417741376 -0.9212420456620073
4725000000.0 0.41592573052497334 -0.9342463048654461
4728000000.0 0.43080058100750196 -0.9283633814375819
4731000000.0 0.4366744014979342 -0.9686413342633609
4734000000.0 0.44348227129724016 -0.9006417572544939
4738000000.0 0.41659120990094456 -0.9392520143446927
4741000000.0 0.42615660290727836 -0.9517092345280787
4744000000.0 0.4042679583201827 -0.9506530368113845
4747000000.0 0.4156655130116207 -0.8863042954698918
4750000000.0 0.4396966945627916 -0.9390779518489457
4753000000.0 0.4211186892717623 -0.9193794789797366
4756000000.0 0.39364153318273776 -0.940605351887536
4759000000.0 0.4588289483343507 -0.9459027264021893
4762000000.0 0.404334267400404 -0.9495976656020427
4766000000.0 0.41676597812908583 -0.9330733112064564
4769000000.0 0.41635997195890495 -0.9435665762822437
4772000000.0 0.41547685603606166 -0.9642736129284012
4775000000.0 0.42519174476998256 -0.9373026331846535
4778000000.0 0.4131167488408258 -0.9563956241890171
4781000000.0 0.4143760115050324 -0.9242289963670497
4784000000.0 0.4194456427282246 -0.9240552121739851
4788000000.0 0.41169163338221026 -0.9498426597551441
4791000000.0 0.4123688158815486 -0.9258842845071902
4794000000.0 0.4593221195624578 -0.9685378224724813
4797000000.0 0.4036710338816217 -0.9258710252349465
4800000000.0 0.39499320177574215 -0.9132282311157097
4803000000.0 0.3676342149590315 -0.9613048041423683
4806000000.0 0.4219273158050635 -0.9446120832185281
4809000000.0 0.3732274390860009 -0.9498586227537076
4812000000.0 0.36556593920730435 -0.9325712153365328
4816000000.0 0.41465504260706626 -0.913896557651255
4819000000.0 0.446926040408849 -0.954557609819117
4822000000.0 0.44111899445627045 -0.9767032713440637
4825000000.0 0.4579343561859743 -0.9713499703624241
4828000000.0 0.37194022105303337 -0.9381582630839559
4831000000.0 0.3870788025054484 -0.9760585666318133
4834000000.0 0.4356866244834164 -0.9213779696028844
4838000000.0 0.38320208823880286 -0.9515429498291426
4841000000.0 0.3978236930069379 -0.950033349733529
4844000000.0 0.44206937200420293 -0.9255820796393863
4847000000.0 0.4113790177506452 -0.9045083787509771
4850000000.0 0.4098365049063895 -0.974759511633861
4853000000.0 0.3848274699311385 -0.9227763237416537
4856000000.0 0.38234704599669656 -0.9080522220960084
4859000000.0 0.41380726768902937 -0.987454384425624
4862000000.0 0.4249479483376764 -0.9207331116503921
4866000000.0 0.406421199555794 -0.9374761298050248
4869000000.0 0.3845518953734542 -0.9553761380266649
4872000000.0 0.41148962646587217 -0.9986971229092163
4875000000.0 0.4723546154970102 -0.976914393229346
4878000000.0 0.41779989433046155 -0.9583570677969038
4881000000.0 0.4138232887099518 -1.0220869924546223
4884000000.0 0.41858367398653157 -0.937348566021147
4888000000.0 0.4541452136757178 -0.9377564990764622
4891000000.0 0.43147778015644717 -0.9719122195754569
4894000000.0 0.401987681726261 -0.9239522946698492
4897000000.0 0.44099953361372124 -0.9227408528169089
4900000000.0 0.44755955540821146 -0.9512661323186441
4903000000.0 0.4427338112656074 -0.9181077391178187
4906000000.0 0.4198726460137376 -0.9490557015757245
4909000000.0 0.4284772940987338 -0.9562656251064678
4912000000.0 0.3861824705957465 -1.00657227418216
4916000000.0 0.436140777780205 -0.9550580091923216
4919000000.0 0.4520459886482969 -0.9704027398334506
4922000000.0 0.44830348216049487 -0.9242054884101392
4925000000.0 0.3833631775351828 -0.9455346518966443
4928000000.0 0.4738660253594132 -0.9326989852915939
4931000000.0 0.4305278700292928 -0.9445150340771816
4934000000.0 0.43758743704590225 -0.9121618182024972
4938000000.0 0.38810772679302763 -0.9304662809008358
4941000000.0 0.4217715493964538 -0.9398866989497934
4944000000.0 0.4207485066039255 -0.8959213320597809
4947000000.0 0.39626699163278095 -0.9303191231508219
4950000000.0 0.3805395826589557 -0.9363143741797776
4953000000.0 0.3666050293670011 -1.0025439466186024
4956000000.0 0.4004353526043315 -0.9686326067500837
4959000000.0 0.39850131531308647 -0.9608844242971621
4962000000.0 0.41317888943376047 -0.9714151148206321
4966000000.0 0.4415249927156373 -0.9823798830015898
4969000000.0 0.43830006095162777 -0.9813958272022527
4972000000.0 0.4205007042386573 -0.941076947280085
4975000000.0 0.4295596956716192 -0.9114271925887149
4978000000.0 0.3685687832412251 -0.9410377047917202
4981000000.0 0.3897542492451543 -0.9759613389888033
4984000000.0 0.40632083579597267 -0.9409826693032382
4988000000.0 0.4199941310004108 -0.951749313818189
4991000000.0 0.49250669522727764 -0.9595496147937497
4994000000.0 0.4524975608335395 -0.930535268044443
4997000000.0 0.37939519637321095 -0.979775773179023
5000000000.0 0.42822826921828555 -0.9919391001850075
5003000000.0 0.45008471804187605 -0.9896812017406926
5006000000.0 0.4289330971345667 -1.0021378008388135
5009000000.0 0.3978819521605956 -0.9602405782707095
5012000000.0 0.42823933071616294 -0.9280004787642734
5016000000.0 0.4733474503705713 -0.9729568688482577
5019000000.0 0.4054354427072867 -0.9326796982108269
5022000000.0 0.41400942149245623 -0.9457565927712934
5025000000.0 0.45208520745777614 -0.9935807635690166
5028000000.0 0.3915743960136553 -0.9631860676467408
5031000000.0 0.3929149672667722 -0.9542952501315369
5034000000.0 0.3984919952308437 -0.9718574129665843
5038000000.0 0.4151400143138441 -0.9419427335447608
5041000000.0 0.4612671295164632 -0.9317046298163285
5044000000.0 0.4632564835926038 -0.9249650645565825
5047000000.0 0.4313244086085734 -0.9472166510060313
5050000000.0 0.47960484795100633 -0.9365118418928338
5053000000.0 0.42472969795887117 -0.9816851683542864
5056000000.0 0.4750885175432188 -0.934737382492656
5059000000.0 0.4664423501437415 -0.9420115739296837
5062000000.0 0.41803700560917134 -0.9767324021175079
5066000000.0 0.4347373402419199 -0.9399018332433466
5069000000.0 0.43872498867918996 -0.9294976448362757
5072000000.0 0.38166414300662455 -0.9390089972921165
5075000000.0 0.44947574603000195 -0.93233224927493
5078000000.0 0.43051792379801607 -0.9893595088293727
5081000000.0 0.39334186403338883 -0.9230619721891915
5084000000.0 0.4388762198865167 -0.9787583105980918
5088000000.0 0.425078654286831 -0.9565637638970083
5091000000.0 0.4162189417328216 -0.98139918680886
5094000000.0 0.41457217429117105 -0.9747712391262202
5097000000.0 0.44882465857115383 -0.8968486572488799
5100000000.0 0.4226778301531259 -0.9364696873300613
5103000000.0 0.4161138708401427 -0.964505580941384
5106000000.0 0.45836772775935486 -0.9835847830846337
5109000000.0 0.44207401661225443 -0.9454713502689602
5112000000.0 0.3809517194852543 -0.9109227012106366
5116000000.0 0.4268644312393926 -0.9378531181556076
5119000000.0 0.4169727472774281 -0.9865509690818919
5122000000.0 0.4230188450133988 -0.9700762982327826
5125000000.0 0.4832311403935339 -0.8933955668954536
5128000000.0 0.38897675666950743 -0.9475893956699541
5131000000.0 0.42855294216867806 -0.9259781886069494
5134000000.0 0.3961301957597123 -0.9521467833401626
5138000000.0 0.48081518369929543 -0.9407921708618701
5141000000.0 0.46724850871002943 -0.9528166532610844
5144000000.0 0.4604253209461116 -0.9435271713594111
5147000000.0 0.46541595194553326 -0.9707263789677534
5150000000.0 0.4349882460845706 -0.9294223815854216
5153000000.0 0.43314369595318436 -0.9907411735986815
5156000000.0 0.4314719736582693 -0.9569868963128458
5159000000.0 0.48892446466383477 -0.999092057035768
5162000000.0 0.42077823381910573 -0.9611125297128011
5166000000.0 0.43653862823039036 -0.9498252561962421
5169000000.0 0.44242788191761634 -0.9547605226426414
5172000000.0 0.4513965986595098 -0.9516517950023795
