! Created with skrf 1.8.0 (http://scikit-rf.org).
# Hz S RI R 50.0 
!freq ReS11 ImS11
4000000000.0 0.5643220033893379 -0.8643290502016596
4003000000.0 0.5832390389888351 -0.9200809867645514
4006000000.0 0.5101528790440099 -0.8714366440288338
4009000000.0000005 0.5644170618753589 -0.9191507195941546
4011999999.9999995 0.6279864768133065 -0.8875608449450729
4016000000.0 0.5535169729794429 -0.8952360897062099
4019000000.0 0.5439772574318134 -0.8420166330375005
4022000000.0000005 0.6405090413029146 -0.8538753568858254
4025000000.0000005 0.5277178590158851 -0.878763549445325
4027999999.9999995 0.5421453658472372 -0.866631973037485
4030999999.9999995 0.5345031373442646 -0.8052579071071936
4034000000.0 0.5218938332828237 -0.8678316281033833
4038000000.0000005 0.5634538428952036 -0.9156896382828621
4041000000.0000005 0.5879478512073522 -0.837680175998752
4043999999.9999995 0.5477818567227659 -0.9194459533712761
4046999999.9999995 0.5932153867465136 -0.8814377586929953
4050000000.0 0.5482771532765179 -0.9012119044062339
4053000000.0 0.5330366099282007 -0.8550590428708487
4056000000.0 0.562214949670546 -0.8720015303995894
4059000000.0 0.5733627342339703 -0.8951761419080413
4062000000.0000005 0.539429022873262 -0.8720399045135239
4066000000.0 0.49387618119948196 -0.8318747980587322
4069000000.0 0.5506428487354793 -0.9463579252973607
4072000000.0 0.6049082492637061 -0.8704374933905041
4075000000.0 0.5815162857085763 -0.8542793859981654
4078000000.0000005 0.5379344790871783 -0.9307699644385857
4081000000.0000005 0.5719268717253722 -0.8837280752621252
4083999999.9999995 0.50380036699978 -0.8854847177553217
4088000000.0 0.5988674505889522 -0.8317368138417223
4091000000.0 0.5645888562370696 -0.9294672202825621
4094000000.0000005 0.5551366753981026 -0.8557542216918559
4097000000.0000005 0.5699713042222232 -0.8775612475453889
4099999999.9999995 0.5259143503368133 -0.8785665060990933
4102999999.9999995 0.5918329624096234 -0.8690416993879744
4106000000.0 0.5799673739876774 -0.910664348337233
4109000000.0 0.529757499360466 -0.8907321676021646
4112000000.0 0.5302330134426156 -0.9237120239064531
4115999999.9999995 0.5750066549847904 -0.8932544659273475
4119000000.0 0.5465580963364924 -0.9170973569747392
4122000000.0 0.542946029660498 -0.8961112620165379
4125000000.0 0.5162577409999727 -0.8940053565208587
4128000000.0 0.5087352612009495 -0.8582811686333057
4131000000.0 0.5228838467554172 -0.8448241699917741
4134000000.0000005 0.5423548917359743 -0.88478499827322
4138000000.0 0.503826389291731 -0.8543737691040257
4141000000.0 0.5420211461879413 -0.8551875634385738
4144000000.0 0.5467496173643908 -0.8323297319152394
4147000000.0000005 0.5402473047471045 -0.8789728155210473
4150000000.0000005 0.5658531953530118 -0.9047503167679021
4152999999.9999995 0.5335411955496487 -0.8449367746977269
4155999999.9999995 0.5717193809353553 -0.8858966198295554
4159000000.0 0.56711437088068 -0.8627275625684421
4162000000.0 0.5608342001723227 -0.8335792663693944
4166000000.0000005 0.5505412644594238 -0.90814512769919
4168999999.9999995 0.5229216739404194 -0.8893136594131323
4171999999.9999995 0.5630638325687319 -0.8769954770145401
4175000000.0 0.5283559431451941 -0.8753965946857012
4178000000.0 0.5669905598188371 -0.899240091217423
4181000000.0 0.5406393953088333 -0.8794841370042541
4184000000.0 0.5224377170310223 -0.855541176941242
4187999999.9999995 0.5576709813214566 -0.8301808937998746
4191000000.0 0.5684795923686343 -0.8410527672164596
4194000000.0 0.536400315431967 -0.856119918338326
4197000000.0 0.5613962564707515 -0.8818363251488953
4200000000.0 0.5560698910975197 -0.8647144548054072
4203000000.0000005 0.5521723061561781 -0.8509280036597561
4206000000.0000005 0.5615947042250871 -0.8883668612168801
4208999999.9999995 0.5273150808947216 -0.8313098314046443
4211999999.9999995 0.5201662179473725 -0.8776401979532744
4216000000.0 0.5502046014550167 -0.8669298642437113
4219000000.0000005 0.5591334520903808 -0.8598516719088912
4222000000.0000005 0.5275676128419358 -0.873415996456269
4224999999.9999995 0.5406406628788843 -0.8512535779792845
4227999999.9999995 0.5730886751785806 -0.862239473261931
4231000000.0 0.56549904065253 -0.8670024091567768
4234000000.0 0.5375354647457755 -0.8626394883998881
4238000000.0000005 0.537543602376787 -0.8621354378935603
4240999999.9999995 0.5363341652885554 -0.8754397285195831
4244000000.0 0.5518321734712066 -0.8411708723694533
4247000000.0 0.5650392901783488 -0.8522959908477433
4250000000.0 0.5427812060925411 -0.8523463088595795
4253000000.0 0.5194086854405601 -0.8627080435136507
4256000000.0 0.5599537045704464 -0.886875084208738
4259000000.0000005 0.5363760155156665 -0.8465969270387539
4261999999.9999995 0.5401611214597876 -0.8577155420771215
4266000000.0 0.5429184406358186 -0.8875681518330644
4269000000.0 0.5463105304752587 -0.868052532156753
4272000000.0000005 0.544489762775914 -0.8479929366922907
4275000000.0000005 0.5520672845513409 -0.8663355077770782
4277999999.9999995 0.5619419291700555 -0.8831693220928951
4280999999.9999995 0.5518273697460171 -0.869247613344626
4284000000.0 0.5154924910142331 -0.884520658758943
4288000000.0000005 0.5595275512186981 -0.8555658916757951
4291000000.0000005 0.5261944513335668 -0.8306746174033554
4293999999.9999995 0.5318853931598176 -0.8501406631788546
4297000000.0 0.5654473360217318 -0.8097807634028981
4300000000.0 0.5564353605150449 -0.8629963339661697
4303000000.0 0.5325847892147838 -0.8624137572399296
4306000000.0 0.560907384032503 -0.8527300470054058
4309000000.0 0.5501881180043889 -0.8528742906579655
4312000000.0 0.5990592533436466 -0.8577741489378463
4316000000.0 0.5763241241490809 -0.860309747837304
4319000000.0 0.5409778980355555 -0.8526259725006855
4322000000.0 0.5445041150509312 -0.870229185474984
4325000000.0 0.5499972000443337 -0.8629706746623979
4328000000.0 0.5315358579475989 -0.8674596222507855
4331000000.0 0.5269679701897018 -0.8538082107256408
4334000000.0 0.5444894108259827 -0.8517269942941263
4338000000.0 0.5744766308128044 -0.8525896245247276
4341000000.0 0.5819381637523677 -0.8501125354177202
4344000000.0 0.551402757023444 -0.8583919148712057
4347000000.0 0.5198201114721834 -0.8827276124009225
4350000000.0 0.5224449425266677 -0.8345195696831861
4353000000.0 0.5566272433538779 -0.8391794634005182
4356000000.0 0.5110997309296821 -0.8725553228658666
4359000000.0 0.519943181334778 -0.811122435205945
4362000000.0 0.49915443081705346 -0.884574610763171
4366000000.0 0.5599722306859596 -0.8652059309981519
4369000000.0 0.49072222061215864 -0.839975921538859
4372000000.0 0.504953677655735 -0.8705411942665678
4375000000.0 0.5553900809553096 -0.8321489141376955
4378000000.0 0.5312602396756653 -0.8305342743150411
4381000000.0 0.5661011999783169 -0.8591009503941026
4384000000.0 0.5473559919301819 -0.9068582393337367
4388000000.0 0.5649158423758347 -0.8416063678102705
4391000000.0 0.5395576505045835 -0.8491434848095816
4394000000.0 0.5312712152793551 -0.8276906342520206
4397000000.0 0.5383931458371336 -0.8700623608422662
4400000000.0 0.5452872863900641 -0.8829804648951814
4403000000.0 0.5271245531904281 -0.8642041787992695
4406000000.0 0.51678294279422 -0.8645354846220471
4409000000.0 0.5573123544509336 -0.8914456991316587
4412000000.0 0.4860278307583374 -0.8854001733525076
4416000000.0 0.5227115944829257 -0.8580668575711716
4419000000.0 0.5234812280078208 -0.8769446758860553
4422000000.0 0.5415053982533868 -0.8521364118930833
4425000000.0 0.568141635848403 -0.8528563950002996
4428000000.0 0.5191136279569862 -0.866562536211579
4431000000.0 0.5438472391251878 -0.8895044337233698
4434000000.0 0.5255520229764201 -0.8644330221322598
4438000000.0 0.5387125446353271 -0.88007900448947
4441000000.0 0.5538554523446917 -0.8688044301161896
4444000000.0 0.5258162972006964 -0.8336579359613635
4447000000.0 0.5105680003441264 -0.8682191285420137
4450000000.0 0.5344185049513911 -0.8494360402216965
4453000000.0 0.5309334753334598 -0.8840269272093658
4456000000.0 0.4919521406445049 -0.8603114074773177
4459000000.0 0.49058108192747396 -0.8430767510305393
4462000000.0 0.5694246965261893 -0.9131238388841436
4466000000.0 0.5420440855373421 -0.8979307399371799
4469000000.0 0.5423770962960218 -0.84894135841455
4472000000.0 0.511302314851187 -0.8862427085585727
4475000000.0 0.5225026297624843 -0.8446011517379723
4478000000.0 0.5363261670880881 -0.9107668099180308
4481000000.0 0.5130851185760126 -0.8621585500664248
4484000000.0 0.4853179575973895 -0.8817242538258387
4488000000.0 0.5129018824002678 -0.8624942175498095
4491000000.0 0.5347609164830371 -0.88129032379195
4494000000.0 0.5153128981694058 -0.8505830286063202
4497000000.0 0.5228504079414943 -0.8564329936777164
4500000000.0 0.527029955528818 -0.8731383549932206
4503000000.0 0.5429638274977117 -0.8678166947531731
4506000000.0 0.507724188709758 -0.8533714478643994
4509000000.0 0.5016956861325916 -0.8333682471480055
4512000000.0 0.4990483438229434 -0.8517681165879254
4516000000.0 0.5337568849223079 -0.8830677819412378
4519000000.0 0.5111285654170733 -0.8436635284161967
4522000000.0 0.5058737776780873 -0.8627672316137561
4525000000.0 0.5446932870808479 -0.8513503083844793
4528000000.0 0.5317458251995606 -0.8855553070818756
4531000000.0 0.5221645706944771 -0.8558511235941988
4534000000.0 0.5114903131960096 -0.8610159125254153
4538000000.0 0.5156275494124187 -0.8576336648044787
4541000000.0 0.4771596157699605 -0.8807563439823812
4544000000.0 0.50654250943276 -0.8733991779322628
4547000000.0 0.5371385869190635 -0.8446336505578511
4550000000.0 0.503489804621341 -0.8680075532557063
4553000000.0 0.5305306460872672 -0.8634539474493018
4556000000.0 0.47931744008278643 -0.8647893304217678
4559000000.0 0.49324084396766604 -0.8806209440692239
4562000000.0 0.5217045721603534 -0.8774885826451813
4566000000.0 0.5076249273436659 -0.8779624968465107
4569000000.0 0.5019591599248509 -0.8476857556370732
4572000000.0 0.5217948657222221 -0.870322476247757
4575000000.0 0.49458707524546786 -0.9015896779267276
4578000000.0 0.5501925556408171 -0.8894437773059374
4581000000.0 0.5078829034652771 -0.8885807758336832
4584000000.0 0.4974724363810451 -0.8732250483205024
4588000000.0 0.5406571100313684 -0.8842148063631827
4591000000.0 0.5122167907023504 -0.8657716685944228
4594000000.0 0.49476509248287265 -0.8692948499802841
4597000000.0 0.5162385970956879 -0.8974902309420094
4600000000.0 0.47968700988796065 -0.8633183272841203
4603000000.0 0.49823492921344426 -0.8911343038511599
4606000000.0 0.5194363010385972 -0.8765867074755742
4609000000.0 0.5106688233537648 -0.8852383905262444
4612000000.0 0.5198148793476592 -0.8777553051817955
4616000000.0 0.5029851674817376 -0.861644440053517
4619000000.0 0.5223769230837018 -0.8730139381878189
4622000000.0 0.4924067075133575 -0.8596625638127808
4625000000.0 0.4714320061034677 -0.8821054765661711
4628000000.0 0.5150123638470269 -0.8582402649730267
4631000000.0 0.4759290777396739 -0.8835811689421927
4634000000.0 0.49899892844424576 -0.8748596703034359
4638000000.0 0.5106345789731546 -0.8749858235548693
4641000000.0 0.4863500786905065 -0.8823146279347605
4644000000.0 0.5086023672474664 -0.8825454524125118
4647000000.0 0.5089685758515725 -0.8874740873861026
4650000000.0 0.4956972203958068 -0.8622227234347728
4653000000.0 0.5103260693152102 -0.8866530213710195
4656000000.0 0.4907710243994029 -0.8881151350036981
4659000000.0 0.4762975999402699 -0.8756699767536158
4662000000.0 0.5003411149351409 -0.8920523849808254
4666000000.0 0.4867092358492868 -0.8885655475632347
4669000000.0 0.5107378013123309 -0.8667219351713187
4672000000.0 0.49464990760428573 -0.8932550531706003
4675000000.0 0.4619585600996633 -0.912459558269066
4678000000.0 0.4937839392192379 -0.8684797871971883
4681000000.0 0.49269315371546674 -0.8873120841987708
4684000000.0 0.4793705715737002 -0.926677115820018
4688000000.0 0.482966360856085 -0.8914818208976798
4691000000.0 0.5318384916613504 -0.8711170282550683
4694000000.0 0.5070730993440153 -0.869278814339397
4697000000.0 0.48609911196418565 -0.8898503791633887
4700000000.0 0.5142066814453569 -0.878266269052616
4703000000.0 0.5074508231734975 -0.8606155507890607
4706000000.0 0.4952482031515292 -0.8856711400302856
4709000000.0 0.4927310379220179 -0.8832706898286158
4712000000.0 0.4912070350640549 -0.8839838254798803
4716000000.0 0.4924064491817166 -0.8746150035309369
4719000000.0 0.5288326936622713 -0.8997438914480138
4722000000.0 0.5132848206773356 -0.8780908086425842
4725000000.0 0.5188237161323433 -0.8985314136731807
4728000000.0 0.4909878080614142 -0.8761866030729089
4731000000.0 0.5145426529624999 -0.8958296122695213
4734000000.0 0.477159627677556 -0.8684058299948016
4738000000.0 0.531458900801175 -0.9041197461058342
4741000000.0 0.47368957197565453 -0.8883609928932655
4744000000.0 0.48108875719087246 -0.9223858604358545
4747000000.0 0.4784992215514133 -0.8626784722762562
4750000000.0 0.48620093661024477 -0.8992971473238552
4753000000.0 0.49529288874402055 -0.9062508895713945
4756000000.0 0.4854539575445286 -0.8884593518211329
4759000000.0 0.5012462606431773 -0.8847030661266538
4762000000.0 0.4749953276754104 -0.916784893716005
4766000000.0 0.48340567159161396 -0.8830305722758723
4769000000.0 0.4902305884266954 -0.9001891710706466
4772000000.0 0.4730475060244214 -0.9084019963723342
4775000000.0 0.4915545477340146 -0.9595544674043988
4778000000.0 0.47916092822376766 -0.8837667931840286
4781000000.0 0.49573665264089184 -0.8877708278874632
4784000000.0 0.4904162929158744 -0.893415263083448
4788000000.0 0.486792719789248 -0.8965269198249313
4791000000.0 0.4617573160855196 -0.8688308655880943
4794000000.0 0.5367113765878164 -0.9034980581003702
4797000000.0 0.4759906653879017 -0.880417530652442
4800000000.0 0.4870509728572625 -0.8929458572784451
4803000000.0 0.46972014468036 -0.9034012668799314
4806000000.0 0.4921713422277698 -0.9306291856168494
4809000000.0 0.4469798952366431 -0.9120776801203371
4812000000.0 0.4533831827220867 -0.9037149421266721
4816000000.0 0.5026026498729279 -0.8736438131731876
4819000000.0 0.5101209557088915 -0.888581553855396
4822000000.0 0.5286383082590822 -0.916515845775602
4825000000.0 0.5187806162788535 -0.9050872140098578
4828000000.0 0.510079867889301 -0.8944194401807541
4831000000.0 0.46010287497175445 -0.953342632791217
4834000000.0 0.47790756961476666 -0.9055759910697976
4838000000.0 0.49283935420130376 -0.9124801263758114
4841000000.0 0.4622383690827008 -0.8926489777453541
4844000000.0 0.517089583513248 -0.8942482203281119
4847000000.0 0.5010125825648917 -0.8674270442438233
4850000000.0 0.4993921212252382 -0.9343953495863615
4853000000.0 0.5119383906588073 -0.8826700878576023
4856000000.0 0.4977314212612931 -0.8854897803168192
4859000000.0 0.5039682681099606 -0.9267866037807024
4862000000.0 0.4952660298856758 -0.8795555822997208
4866000000.0 0.48316856275756753 -0.9248828621646401
4869000000.0 0.4968480001956246 -0.9239305910537396
4872000000.0 0.47933159582137436 -0.9635557930191775
4875000000.0 0.5675551479941126 -0.9220202115072427
4878000000.0 0.49615551730576035 -0.9175373691264745
4881000000.0 0.4825512426359435 -0.9608023152930045
4884000000.0 0.491486552823969 -0.9072297660800267
4888000000.0 0.507745926271358 -0.8848095132566305
4891000000.0 0.5429527362907345 -0.9033460950056176
4894000000.0 0.47433084741184883 -0.9025703890862952
4897000000.0 0.507596242014478 -0.8742874443720925
4900000000.0 0.5179532741219597 -0.9002413537742897
4903000000.0 0.545467264359625 -0.908713303715744
4906000000.0 0.5037274951953504 -0.9142786919487578
4909000000.0 0.5070476957477852 -0.9195018196433999
4912000000.0 0.5092350501309957 -0.9525571369683531
4916000000.0 0.5177820823559864 -0.926738049602706
4919000000.0 0.5713180851117035 -0.9171479536147452
4922000000.0 0.5543022946014312 -0.8774596281921475
4925000000.0 0.4760148841356962 -0.8950115105009631
4928000000.0 0.527688077303767 -0.8535382995833126
4931000000.0 0.5386943794107222 -0.9031842421037148
4934000000.0 0.5023494211297996 -0.8624332833281074
4938000000.0 0.4819167251060099 -0.9271463296964052
4941000000.0 0.5012436004033501 -0.9127533543243906
4944000000.0 0.49549817597626 -0.839242487493333
4947000000.0 0.5110631673213964 -0.8801012939648996
4950000000.0 0.4951275215687401 -0.8973667965078743
4953000000.0 0.49430768342198916 -0.9410832422098802
4956000000.0 0.46957863439090874 -0.9223765723496864
4959000000.0 0.42527381700268807 -0.8842160251395323
4962000000.0 0.5334210643698548 -0.9309806295881006
4966000000.0 0.5145052855435911 -0.9165742681328485
4969000000.0 0.5308707398169195 -0.9504657954502022
4972000000.0 0.5079426471954177 -0.9287153595256474
4975000000.0 0.5461634885887818 -0.8669034496979129
4978000000.0 0.49770858708594773 -0.9307218510118961
4981000000.0 0.49442736448466723 -0.9225277261612727
4984000000.0 0.4953326140915508 -0.8626749445701662
4988000000.0 0.5297572172662809 -0.9142407725536796
4991000000.0 0.5612652747470573 -0.892774436114242
4994000000.0 0.5157952706873553 -0.8796025376859358
4997000000.0 0.5047301346502671 -0.9203296104054557
5000000000.0 0.534802546994509 -0.890606806777054
5003000000.0 0.5485608570905666 -0.9035370281976745
5006000000.0 0.5471348585987182 -0.9272243447173735
5009000000.0 0.5240878653087868 -0.8860360446137832
5012000000.0 0.4988563945910894 -0.9008820926556802
5016000000.0 0.554223367934138 -0.9425432723916726
5019000000.0 0.5044702245561867 -0.8908135532320112
5022000000.0 0.5276630126015911 -0.9058399980653886
5025000000.0 0.5164955271057624 -0.9707265655649437
5028000000.0 0.503207166123417 -0.9205635525821302
5031000000.0 0.5315547073863859 -0.8815471267638364
5034000000.0 0.5150943303334216 -0.9334876084586281
5038000000.0 0.4743944507536868 -0.9138505016361996
5041000000.0 0.5629093912728533 -0.8881954210445152
5044000000.0 0.5263143715243422 -0.863557503292127
5047000000.0 0.5289935934822992 -0.8822520322460605
5050000000.0 0.6018517350110274 -0.8382625355039159
5053000000.0 0.548405029403367 -0.9606867701259759
5056000000.0 0.5333503564833775 -0.8853383597779501
5059000000.0 0.5566605104102074 -0.8708479997103955
5062000000.0 0.5181647473060489 -0.9078672624135575
5066000000.0 0.5296204408265087 -0.8420822479193752
5069000000.0 0.5330890756257 -0.9109673324624655
5072000000.0 0.5304110857516064 -0.8913715923772199
5075000000.0 0.549857467143001 -0.8534958794057487
5078000000.0 0.47022688657261225 -0.9052300576391916
5081000000.0 0.4541136420798396 -0.8676194610857986
5084000000.0 0.5362443316834555 -0.9374389218247055
5088000000.0 0.5421923251103131 -0.8495783292178807
5091000000.0 0.5079079380915636 -0.91589962955658
5094000000.0 0.48938770216204425 -0.9160104755789553
5097000000.0 0.5476723205722598 -0.8774619331788618
5100000000.0 0.5218447279818993 -0.8970875015717725
5103000000.0 0.5357585168482105 -0.9147855931239504
5106000000.0 0.5392579275297565 -0.9182310422954616
5109000000.0 0.5708671626619966 -0.8571176300539254
5112000000.0 0.4991899069219241 -0.8985809091528971
5116000000.0 0.5160497842435332 -0.9203326876557961
5119000000.0 0.5369119385635365 -0.8915329107629584
5122000000.0 0.5307958069074481 -0.8764254927150157
5125000000.0 0.48445298737273335 -0.8779822491130467
5128000000.0 0.5058850408743131 -0.8906567322387413
5131000000.0 0.48869235157099516 -0.8435025216160978
5134000000.0 0.4978698267216764 -0.8610086119673493
5138000000.0 0.5673496273015052 -0.8491928967445597
5141000000.0 0.5461569841495572 -0.8792926688771179
5144000000.0 0.5611028365847419 -0.9239420378905151
5147000000.0 0.5869898415920801 -0.8969641443315975
5150000000.0 0.5925310987160912 -0.8566809434736062
5153000000.0 0.5447493302803493 -0.8809650679703684
5156000000.0 0.5539635712503087 -0.9006076266786756
5159000000.0 0.5777709538611073 -0.9486475257905294
5162000000.0 0.5389534422909196 -0.9077459897948696
5166000000.0 0.5617295822859587 -0.9146030420857023
5169000000.0 0.5734423872516686 -0.8907880284808292
5172000000.0 0.5494338464515605 -0.8825548420909348
5175000000.0 0.5861217331966088 -0.9181944021679798
5178000000.0 0.5359509582299107 -0.9073866881277792
