! Created with skrf 1.8.0 (http://scikit-rf.org).
# Hz S RI R 50.0 
!freq ReS11 ImS11
4000000000.0 0.4787475185738255 -0.8796550733374926
4003000000.0 0.5550777918854246 -0.9372453231621738
4006000000.0 0.4821785368703638 -0.8655033733620745
4009000000.0000005 0.4928230050148329 -0.9143137814518312
4011999999.9999995 0.5520120502627616 -0.9252682016776377
4016000000.0 0.48088780560198063 -0.9248469179150963
4019000000.0 0.5226012741452384 -0.8772040688240489
4022000000.0000005 0.5288778041849097 -0.8912137462730179
4025000000.0000005 0.4437241845346238 -0.9538440933010401
4027999999.9999995 0.47790369737654737 -0.9200922861145763
4030999999.9999995 0.48386599209922343 -0.8379928759998752
4034000000.0 0.45803958540612805 -0.8853393546801894
4038000000.0000005 0.45469761612606263 -0.9059340364418909
4041000000.0000005 0.46969573655067415 -0.9103244316950632
4043999999.9999995 0.5403202714576352 -0.931266983607131
4046999999.9999995 0.5393699371177971 -0.9414306810026418
4050000000.0 0.46084837669412837 -0.8981042283777423
4053000000.0 0.4497496353765713 -0.8517114031941695
4056000000.0 0.4931296186670532 -0.9070267568216464
4059000000.0 0.49940358058007495 -0.8751572909245227
4062000000.0000005 0.4551865880648299 -0.9114979425952335
4066000000.0 0.45475893877919027 -0.851817359357076
4069000000.0 0.4669400166748453 -0.9594025877569248
4072000000.0 0.522298260954955 -0.8916889785358688
4075000000.0 0.5385125530748747 -0.952649871271769
4078000000.0000005 0.4573436148200436 -0.9357349717397214
4081000000.0000005 0.572022747417117 -0.9118922083966968
4083999999.9999995 0.4232111472297856 -0.924963664222466
4088000000.0 0.5162035235359578 -0.8858264614560096
4091000000.0 0.5088993656846916 -0.9317682871597093
4094000000.0000005 0.4982890302015962 -0.8776966500738865
4097000000.0000005 0.45666266830712227 -0.8726839144461457
4099999999.9999995 0.48105153805735573 -0.8934068888772654
4102999999.9999995 0.5172595129254927 -0.9332218420055034
4106000000.0 0.44963674062941555 -0.9308726790499482
4109000000.0 0.4709988880510192 -0.8983972718057731
4112000000.0 0.46112551012620245 -0.9155090588020908
4115999999.9999995 0.48423320256784963 -0.8886388400355367
4119000000.0 0.4486968416266612 -0.9239699930905098
4122000000.0 0.45151203776242843 -0.9178388842610105
4125000000.0 0.49078447125913277 -0.924123649264168
4128000000.0 0.5064688365438694 -0.8561485232426208
4131000000.0 0.4764309538961483 -0.8934053328030975
4134000000.0000005 0.4813413995353962 -0.8912980211195957
4138000000.0 0.4510995048558081 -0.8884736071504723
4141000000.0 0.48402412682926227 -0.8929696567082719
4144000000.0 0.516375179902331 -0.9032851426958254
4147000000.0000005 0.46530397528628975 -0.9279724251190027
4150000000.0000005 0.4838197011499825 -0.9574024944424581
4152999999.9999995 0.49146058786666974 -0.9128019192429582
4155999999.9999995 0.518048214619775 -0.9152880672788896
4159000000.0 0.4441390311001041 -0.9075776119681674
4162000000.0 0.4733945575115084 -0.8880137412027245
4166000000.0000005 0.47046781829619616 -0.9263676423414887
4168999999.9999995 0.4414991605860374 -0.9320803612545687
4171999999.9999995 0.5277357405346007 -0.9058886046033451
4175000000.0 0.4984237138646308 -0.9326585468623246
4178000000.0 0.481388725718108 -0.9286142271265833
4181000000.0 0.47663812405221156 -0.9131489017736326
4184000000.0 0.4724141226245728 -0.8789999749807336
4187999999.9999995 0.4644537252324275 -0.9083546634250669
4191000000.0 0.5043468696190313 -0.887201026798185
4194000000.0 0.48484175203994584 -0.8787012765492371
4197000000.0 0.4882996440397244 -0.9102895868394902
4200000000.0 0.4954977858139138 -0.9177628758810331
4203000000.0000005 0.5121246499099535 -0.9118144806585624
4206000000.0000005 0.5068370544769951 -0.9108816472986436
4208999999.9999995 0.4651249726486295 -0.8870475170129204
4211999999.9999995 0.45913803730738556 -0.9217292772512103
4216000000.0 0.502027109290822 -0.8957403720791204
4219000000.0000005 0.4863837065384249 -0.9282019984873973
4222000000.0000005 0.46963201714882197 -0.9185836923675337
4224999999.9999995 0.48956760663017085 -0.8847103768930715
4227999999.9999995 0.49065361921872075 -0.9177516558081359
4231000000.0 0.48248522647330644 -0.9098822537899371
4234000000.0 0.4614871287394117 -0.9146562781158645
4238000000.0000005 0.4637215173609478 -0.908415575350511
4240999999.9999995 0.4559451740783154 -0.9040494539258523
4244000000.0 0.4856790384089476 -0.8982013107437492
4247000000.0 0.490563281748226 -0.9014581193994503
4250000000.0 0.4523686133420778 -0.8776329903563195
4253000000.0 0.4656537056235822 -0.8843992092686058
4256000000.0 0.4866776783181794 -0.924319970129026
4259000000.0000005 0.44945581040508714 -0.8877565772974378
4261999999.9999995 0.45110683818546105 -0.8935849688288753
4266000000.0 0.4468939998878162 -0.9121091232993382
4269000000.0 0.4825848192361446 -0.8838746602727369
4272000000.0000005 0.4723683674893514 -0.8897047034181704
4275000000.0000005 0.46535184728411927 -0.9082922123030253
4277999999.9999995 0.4771501811201223 -0.9412588071430592
4280999999.9999995 0.48840744451933293 -0.9098660246049426
4284000000.0 0.4340439628093 -0.9244208882266165
4288000000.0000005 0.49948488724724394 -0.8788398486055731
4291000000.0000005 0.47193196942145277 -0.9028999446576863
4293999999.9999995 0.4730575494214188 -0.869970751762133
4297000000.0 0.4916743729817602 -0.8734455008388314
4300000000.0 0.43941861125577425 -0.9013281194780863
4303000000.0 0.4326911763651164 -0.9180916990384921
4306000000.0 0.47707190430859925 -0.9020093404521142
4309000000.0 0.49075400936505525 -0.897731229458874
4312000000.0 0.5026240422171956 -0.8961275382443135
4316000000.0 0.5036171913528681 -0.9056401036663584
4319000000.0 0.4759293530606252 -0.8956698545067318
4322000000.0 0.4426470910640249 -0.902342035714673
4325000000.0 0.4757692842856108 -0.8852297899017961
4328000000.0 0.45905965182551633 -0.8620642048623819
4331000000.0 0.4324706954549225 -0.914983942007385
4334000000.0 0.4710957816751069 -0.8943124186330409
4338000000.0 0.4957845198479569 -0.8857894246252411
4341000000.0 0.4944993030848091 -0.8992563577292799
4344000000.0 0.488313326277236 -0.9322895356024973
4347000000.0 0.4532707003230226 -0.9347587477385271
4350000000.0 0.4359165645655843 -0.8682163750277968
4353000000.0 0.475449833969666 -0.8945839161571906
4356000000.0 0.4420047252146081 -0.9142523250450063
4359000000.0 0.45503180471122 -0.8617287197049257
4362000000.0 0.4361299569229415 -0.9177458080019922
4366000000.0 0.47296408476369484 -0.9322526012154716
4369000000.0 0.43347442016152415 -0.8759754488323411
4372000000.0 0.42338188231106033 -0.9140772241048101
4375000000.0 0.4764865835525196 -0.8849652512536215
4378000000.0 0.43956204199467563 -0.8903318557634807
4381000000.0 0.4499732449390278 -0.8764660889636904
4384000000.0 0.4764617957701089 -0.9657359931224472
4388000000.0 0.447130425203814 -0.8858652333819389
4391000000.0 0.4762763702056919 -0.9116124837591016
4394000000.0 0.4312433203831266 -0.8801103446360601
4397000000.0 0.43501793788696996 -0.9122805686911359
4400000000.0 0.45434957298150974 -0.926897207942498
4403000000.0 0.4550210347032336 -0.9055615349604998
4406000000.0 0.43135402205394474 -0.9179187914671768
4409000000.0 0.46563767770535575 -0.9414478375192077
4412000000.0 0.400812133749626 -0.9268187243927477
4416000000.0 0.4369390695396933 -0.911096538824519
4419000000.0 0.44190790964162896 -0.9184060357198096
4422000000.0 0.4585000815928786 -0.9025054197656436
4425000000.0 0.46748601766355463 -0.9087250654408664
4428000000.0 0.4373948859896356 -0.9026148765017107
4431000000.0 0.4520306747156423 -0.92774615175544
4434000000.0 0.4417750554117833 -0.906620644674859
4438000000.0 0.4566670902150177 -0.9225559006441799
4441000000.0 0.4518652775066845 -0.9303074462705236
4444000000.0 0.45254624957075296 -0.8842072166258925
4447000000.0 0.4164698958644968 -0.9077749687060306
4450000000.0 0.4468213180847766 -0.9008957857637504
4453000000.0 0.4596043974919875 -0.9246463197593171
4456000000.0 0.4163488164739647 -0.8889642059044708
4459000000.0 0.4024387279096255 -0.8775881849656997
4462000000.0 0.45433660747647214 -0.9552392758484114
4466000000.0 0.4414427011051122 -0.9565294935483298
4469000000.0 0.45761086781943283 -0.9055793568194714
4472000000.0 0.41464853866756474 -0.9488320488378815
4475000000.0 0.43730359691368487 -0.8911563181424434
4478000000.0 0.44633749985277027 -0.9618857481172963
4481000000.0 0.4072380150995725 -0.9005340472995395
4484000000.0 0.384542070400057 -0.9257274026709273
4488000000.0 0.4098429597450668 -0.9007391561337028
4491000000.0 0.41510557419090105 -0.9225194063541025
4494000000.0 0.4267222146902755 -0.903738832339545
4497000000.0 0.4400024665824928 -0.9004728189908481
4500000000.0 0.41210771200946267 -0.9045396071781344
4503000000.0 0.4312842537287407 -0.9456383376764261
4506000000.0 0.4137605719086021 -0.9135734049292674
4509000000.0 0.4145389758414047 -0.9035057137494857
4512000000.0 0.40543126731823154 -0.9103903143557317
4516000000.0 0.4464668217496752 -0.9404159500533871
4519000000.0 0.4244828401827462 -0.8955529846105368
4522000000.0 0.414831380834846 -0.9239603970335819
4525000000.0 0.4442331530890184 -0.9048196702622269
4528000000.0 0.43053465001678126 -0.9521609836884029
4531000000.0 0.4250765057236057 -0.9298370707973174
4534000000.0 0.4264415836691794 -0.9174315176851218
4538000000.0 0.41577808634178726 -0.9242937275419327
4541000000.0 0.38372529217144186 -0.9291443102746969
4544000000.0 0.41449353283131546 -0.9149208930760071
4547000000.0 0.4429596899646581 -0.909214921216497
4550000000.0 0.40534016201985945 -0.9379759765468765
4553000000.0 0.3964044909011332 -0.941247845921755
4556000000.0 0.3842751759629721 -0.9025286179138732
4559000000.0 0.41419113748655306 -0.932913756803988
4562000000.0 0.40376851613392345 -0.941658294577262
4566000000.0 0.41511984066244395 -0.9294192428769008
4569000000.0 0.40160582763874175 -0.8883849715150164
4572000000.0 0.4182243953032044 -0.9221301209087263
4575000000.0 0.3844163991713188 -0.9348954983205917
4578000000.0 0.42626085414122944 -0.9369224161427705
4581000000.0 0.3794036661486532 -0.9326663239066859
4584000000.0 0.39842596924047335 -0.9283128456516171
4588000000.0 0.41291033296029267 -0.9303736117237069
4591000000.0 0.4178836596283071 -0.9241332828930814
4594000000.0 0.38080185295249563 -0.925968474502832
4597000000.0 0.3896468235029319 -0.9404171976424008
4600000000.0 0.37600827842614387 -0.9357021817463355
4603000000.0 0.38970173096551164 -0.9561386943484996
4606000000.0 0.42804204216270725 -0.9517351638895295
4609000000.0 0.3923077140550434 -0.9254889221902236
4612000000.0 0.3967150559764815 -0.9485011052243222
4616000000.0 0.39508617165849413 -0.9225162098602434
4619000000.0 0.4092717887597692 -0.9237041686942733
4622000000.0 0.37145087155906786 -0.9360529763993791
4625000000.0 0.35254224452768324 -0.9142645834470505
4628000000.0 0.4037347207995662 -0.9212935199102132
4631000000.0 0.37726087005932507 -0.942272519089879
4634000000.0 0.37563347946008674 -0.9414821086994326
4638000000.0 0.3994815950824839 -0.9417138627797563
4641000000.0 0.39656720774091014 -0.9377467568807043
4644000000.0 0.38821001603997546 -0.9307019970234651
4647000000.0 0.4088601103880348 -0.9461065885314367
4650000000.0 0.36666146037340486 -0.9379806522091041
4653000000.0 0.392145035355753 -0.9438292638709588
4656000000.0 0.3860465888839699 -0.9351702789183308
4659000000.0 0.3895258751069547 -0.9331910255843927
4662000000.0 0.3936230276258337 -0.9586444364409435
4666000000.0 0.379242923146913 -0.9193960725513367
4669000000.0 0.3824589937905908 -0.9386697167234707
4672000000.0 0.354294853215071 -0.9589260442242658
4675000000.0 0.35633713994427624 -0.9621358809002001
4678000000.0 0.36751545349585957 -0.9277039556462351
4681000000.0 0.3638218014148502 -0.9654516810421385
4684000000.0 0.36265352594431816 -0.9679635656619031
4688000000.0 0.350157077914421 -0.9470407488848593
4691000000.0 0.4131743039529565 -0.9425174523078824
4694000000.0 0.3761767205445017 -0.9335860227673514
4697000000.0 0.3565855554372515 -0.8964573934018726
4700000000.0 0.38657963983045024 -0.9279817554480089
4703000000.0 0.3672235744232949 -0.8978214070422095
4706000000.0 0.35212823315469755 -0.9582693680101859
4709000000.0 0.37242006177550324 -0.9373910339245402
4712000000.0 0.3966311916073902 -0.9372515384962925
4716000000.0 0.3573060399086466 -0.9508126567258773
4719000000.0 0.3968565114343165 -0.9496799388202524
4722000000.0 0.404723482986294 -0.9525127021330179
4725000000.0 0.3895426995415286 -0.9594795937681602
4728000000.0 0.3490389040921749 -0.9464550538993837
4731000000.0 0.41162187564887737 -0.9810699690277629
4734000000.0 0.40737383293727913 -0.9060046485757914
4738000000.0 0.4126406132783998 -0.9824625381649935
4741000000.0 0.37072450767515946 -0.9728890263764444
4744000000.0 0.36822405441816225 -0.964259078961513
4747000000.0 0.3867988363574127 -0.9139528964509734
4750000000.0 0.36413437501883866 -0.9419943841453903
4753000000.0 0.38804823014194617 -0.9299702338109261
4756000000.0 0.3581243713792385 -0.9558442213007394
4759000000.0 0.3876801958614036 -0.9740855196046145
4762000000.0 0.3554835097764929 -0.9904062905652089
4766000000.0 0.3671881255379904 -0.957565868046671
4769000000.0 0.3660540245022339 -0.96723040979442
4772000000.0 0.3925021038761929 -0.9470234773366893
4775000000.0 0.38280089710693627 -0.9782077042428531
4778000000.0 0.3434633130033607 -0.9962628230327741
4781000000.0 0.3919176913346677 -0.9435413955509355
4784000000.0 0.3804820890968166 -0.9390620137611335
4788000000.0 0.35898229041951646 -0.9448523097460971
4791000000.0 0.3610308717689152 -0.9602275400985882
4794000000.0 0.41787496630848053 -0.9614245397313
4797000000.0 0.3566089180804046 -0.9505658370682729
4800000000.0 0.36985741429261876 -0.9296752095013783
4803000000.0 0.31000139372703445 -0.9441294688695234
4806000000.0 0.3633969894341783 -0.9644917131215784
4809000000.0 0.3236567640458359 -0.9746369769175635
4812000000.0 0.3197454865637695 -0.9616460306055018
4816000000.0 0.3751123864509737 -0.9357687612384996
4819000000.0 0.38304370296549134 -0.9790529404710745
4822000000.0 0.3822596985466465 -1.0007217695321502
4825000000.0 0.39646904822994294 -0.9688151025464141
4828000000.0 0.3372027342947377 -0.9567996133793604
4831000000.0 0.3260128498699237 -1.0042991697691812
4834000000.0 0.38999039808260527 -0.9678944944676614
4838000000.0 0.3439676820395424 -0.9841327124488136
4841000000.0 0.3520953961247919 -0.9411324030314618
4844000000.0 0.3831506433173126 -0.9466858863419021
4847000000.0 0.39110531733634846 -0.923160098742592
4850000000.0 0.3638912318442865 -1.0022501422678325
4853000000.0 0.3427006612025414 -0.9353800663626066
4856000000.0 0.34235767208443285 -0.9693681593404057
4859000000.0 0.3849417934362144 -1.000275438934073
4862000000.0 0.38051855814212177 -0.9388263726418665
4866000000.0 0.34938475161194676 -0.9823106363154278
4869000000.0 0.34802960492242435 -0.983543454688353
4872000000.0 0.33046921184852396 -1.0162131926436042
4875000000.0 0.4314636228746184 -1.0026797471174365
4878000000.0 0.382819211350564 -0.9716314258870207
4881000000.0 0.34366213526295897 -1.0375458045107504
4884000000.0 0.367814045089593 -0.939896954471367
4888000000.0 0.39572443106695043 -0.9452649596012851
4891000000.0 0.3864474885604202 -0.9766524765577566
4894000000.0 0.341651741362752 -0.9711210192816326
4897000000.0 0.3585187930632256 -0.9600527820194249
4900000000.0 0.3869265579332344 -0.9658352647748267
4903000000.0 0.36843957871114474 -0.9955179200737625
4906000000.0 0.33414261266400425 -1.0131527982102906
4909000000.0 0.34887332672637866 -0.9981130064331977
4912000000.0 0.3484311605682038 -0.9989172041795511
4916000000.0 0.37823498124838245 -0.9895793394649186
4919000000.0 0.4080371288228708 -0.9870607338127704
4922000000.0 0.34949768505848355 -0.9469149232258007
4925000000.0 0.3420979088279157 -0.9707297451463678
4928000000.0 0.3856210448479739 -0.9418060638014394
4931000000.0 0.39868023703091704 -0.958458435439607
4934000000.0 0.32651333500024404 -0.9262506440243115
4938000000.0 0.33189051725935265 -1.0083117819085332
4941000000.0 0.40052102459812333 -0.9679942933961603
4944000000.0 0.3577711177858391 -0.904455359875331
4947000000.0 0.33776418808422826 -0.9266081722707773
4950000000.0 0.3586864268883747 -0.9280495234876684
4953000000.0 0.34515670323170977 -1.0021615356286944
4956000000.0 0.3658140219122063 -0.9910913618789925
4959000000.0 0.32945746515493163 -0.9384018661443598
4962000000.0 0.34576917356000597 -0.9940519065617179
4966000000.0 0.37515328354942346 -0.9837658240529681
4969000000.0 0.3992979787892449 -0.9891975608851615
4972000000.0 0.3601182246985453 -1.0263141774463815
4975000000.0 0.4037817308674202 -0.9405653436908324
4978000000.0 0.3483293925399142 -0.9945724759295202
4981000000.0 0.3430740150239583 -0.9793943036990006
4984000000.0 0.3308362233471823 -0.9214548592561504
4988000000.0 0.3620444866414047 -1.011005594101734
4991000000.0 0.43378295785405036 -0.9751113756593013
4994000000.0 0.37213515603018554 -0.9716605147172754
4997000000.0 0.34431304131609564 -0.9802761935521727
5000000000.0 0.35808430922143253 -1.0106480147715926
5003000000.0 0.39292701522217366 -0.988607239450199
5006000000.0 0.3819031260821705 -1.0431328483856674
5009000000.0 0.3677035158687626 -0.9789554897670768
5012000000.0 0.32275218746256557 -0.9887286020492702
5016000000.0 0.4156750644980549 -0.9986606018233057
5019000000.0 0.35182172134026024 -0.9686329646025233
5022000000.0 0.3896827805962669 -1.0171533689736807
5025000000.0 0.37066517580114505 -1.017223116857798
5028000000.0 0.34518820928092325 -0.984971916647229
5031000000.0 0.346671476355228 -0.9605970746541801
5034000000.0 0.32088024372920815 -0.9932342990256533
5038000000.0 0.305405605803298 -0.942381342626812
5041000000.0 0.38366580585328314 -0.9464565405130919
5044000000.0 0.38878760469644524 -0.9573730844066464
5047000000.0 0.3601585973515996 -0.9993433947235406
5050000000.0 0.3884862220695017 -0.9472726642739945
5053000000.0 0.3515135972812476 -1.0037658672293888
5056000000.0 0.41124213736302007 -0.9922171773933706
5059000000.0 0.39969673180060483 -0.9801388379690452
5062000000.0 0.3220726884284341 -1.0395726526914
5066000000.0 0.3997558434745075 -0.9835790532914515
5069000000.0 0.37199791195096427 -1.002200095086347
5072000000.0 0.34223549093987643 -0.971247739151053
5075000000.0 0.4186454333917686 -0.9555311025933737
5078000000.0 0.29444711497521325 -1.017776811226503
5081000000.0 0.35987239690721695 -0.9452424354153857
5084000000.0 0.33934946801314775 -1.0102408741976494
5088000000.0 0.36437588234304263 -0.954602400670901
5091000000.0 0.3462342094745657 -0.982104359047405
5094000000.0 0.3403561281330277 -1.0160563618774896
5097000000.0 0.3461312327483508 -0.9907062412915154
5100000000.0 0.35935483580406447 -0.979285529448026
5103000000.0 0.3362783150090105 -1.0620438028853902
5106000000.0 0.38809184342303743 -0.9976563840150433
5109000000.0 0.39627436567764723 -0.922674371668029
5112000000.0 0.33909125429854886 -1.0080344476046434
5116000000.0 0.35648270408303206 -0.9544790037192541
5119000000.0 0.3457417025346977 -1.0313960063443628
5122000000.0 0.36106352466327424 -1.0048609388655037
5125000000.0 0.4099177852912219 -0.9314190667355192
5128000000.0 0.35856703121101935 -0.9941299750264128
5131000000.0 0.3418727521537953 -0.9773734566192154
5134000000.0 0.3557106680064338 -0.9423532336889708
5138000000.0 0.35559176223660754 -0.9399136897421898
5141000000.0 0.44079206833830714 -0.9661916867022564
5144000000.0 0.39106618898395623 -0.9679451380570416
5147000000.0 0.3583968305825408 -1.0123038421976265
5150000000.0 0.3481460643848909 -0.9792272359202038
5153000000.0 0.39371032620204804 -1.0119818843334574
5156000000.0 0.3879787789461478 -1.0132471034264978
5159000000.0 0.36632895099841517 -0.9641273779191368
5162000000.0 0.33477036783651803 -0.9582719649707756
5166000000.0 0.35895913717331335 -0.9999534680109223
5169000000.0 0.3678793244706418 -0.9982915472210958
5172000000.0 0.37012094610131024 -0.9782070233938759
