! Created with skrf 1.8.0 (http://scikit-rf.org).
# Hz S RI R 50.0 
!freq ReS11 ImS11
4000000000.0 0.5208080182211895 -0.8632339904697316
4003000000.0 0.5942438554714946 -0.9432956780591284
4006000000.0 0.4797723155107704 -0.8747103971068738
4009000000.0000005 0.5451761228745836 -0.9474089182750336
4011999999.9999995 0.5804007874296401 -0.8712460677467417
4016000000.0 0.5111505529236586 -0.9402942568947698
4019000000.0 0.49155325723206666 -0.8946626117403892
4022000000.0000005 0.5635876579954192 -0.8549593327471195
4025000000.0000005 0.5131845174169576 -0.9161708193257323
4027999999.9999995 0.4968364937512056 -0.9326935328226554
4030999999.9999995 0.5259380457968927 -0.8525554581104786
4034000000.0 0.4939254726954704 -0.9048197923935021
4038000000.0000005 0.5308262924377612 -0.9132494123871542
4041000000.0000005 0.508483182392102 -0.8697348537651923
4043999999.9999995 0.5803446840710744 -0.9401983997195558
4046999999.9999995 0.5622880858000174 -0.8964063147700255
4050000000.0 0.5302180447439291 -0.9071621159313675
4053000000.0 0.4789079567825031 -0.8753717901054373
4056000000.0 0.56385509003679 -0.9116368870564366
4059000000.0 0.5504661452774601 -0.8440491005712558
4062000000.0000005 0.49456876128206634 -0.866520100376068
4066000000.0 0.49257720813336786 -0.839067387579079
4069000000.0 0.4751009072002301 -0.934007579131269
4072000000.0 0.5599774722388897 -0.8345852384518455
4075000000.0 0.5488458464663112 -0.9166795997017939
4078000000.0000005 0.5278657201343577 -0.8971392371999392
4081000000.0000005 0.5945996014630422 -0.8643536686476117
4083999999.9999995 0.5032110707925582 -0.9356301294465772
4088000000.0 0.5542567220623211 -0.8540968304672039
4091000000.0 0.5571610564679567 -0.941953342717134
4094000000.0000005 0.513062337135509 -0.8821864385646739
4097000000.0000005 0.5308487381465213 -0.8740955504941026
4099999999.9999995 0.5440357148448354 -0.8693891262856378
4102999999.9999995 0.5457400423215458 -0.9248101554176839
4106000000.0 0.5453439442300146 -0.8980840499070812
4109000000.0 0.48645129239822615 -0.8988049050253105
4112000000.0 0.5153476921221386 -0.8939981027711579
4115999999.9999995 0.5164935926367008 -0.8633530203899764
4119000000.0 0.4967093935960347 -0.916371035249167
4122000000.0 0.5322419829633646 -0.8858922290951399
4125000000.0 0.5199036905641876 -0.9150673965774011
4128000000.0 0.5510107086351559 -0.8440621593503561
4131000000.0 0.500106476497279 -0.9002366072252437
4134000000.0000005 0.5102505469553478 -0.8729362769342418
4138000000.0 0.502156395603581 -0.885302604923766
4141000000.0 0.48817671308490573 -0.8642418565613386
4144000000.0 0.544489991117261 -0.8792309161427257
4147000000.0000005 0.514526522542306 -0.886749553769528
4150000000.0000005 0.5413716056583646 -0.9159137126582191
4152999999.9999995 0.4917438866964277 -0.8729889791896221
4155999999.9999995 0.5455026776149884 -0.8977893925178625
4159000000.0 0.5363367889725714 -0.8894116525891724
4162000000.0 0.49942077068886687 -0.8814188247698127
4166000000.0000005 0.503052131498752 -0.8947768932431204
4168999999.9999995 0.4759033319895352 -0.8968344352033533
4171999999.9999995 0.5065963856101758 -0.8903985957262397
4175000000.0 0.5320162386141872 -0.9210423658682015
4178000000.0 0.5385602129832373 -0.8851647373466166
4181000000.0 0.5235301557460614 -0.8986925375122643
4184000000.0 0.5285941263688111 -0.8722488451008872
4187999999.9999995 0.5141497959284754 -0.8971737913246874
4191000000.0 0.5539060588452307 -0.8615247429546189
4194000000.0 0.5130858335773906 -0.8606682045012582
4197000000.0 0.5174816481115269 -0.8773337271581039
4200000000.0 0.5474490614020008 -0.8896111662355122
4203000000.0000005 0.5442628119253247 -0.8795395749274701
4206000000.0000005 0.5439763480638333 -0.8909231054907462
4208999999.9999995 0.5188720309547205 -0.865552798013548
4211999999.9999995 0.49757328595937167 -0.8954738650242382
4216000000.0 0.5329596451388149 -0.8762237343806388
4219000000.0000005 0.5494687036705825 -0.8869263564547536
4222000000.0000005 0.5057515908949568 -0.9068034798402766
4224999999.9999995 0.5181432923643643 -0.8887932531647508
4227999999.9999995 0.5287889655974537 -0.8903407555444647
4231000000.0 0.5178418235652229 -0.8930999181736965
4234000000.0 0.5185103075704114 -0.9002800085636887
4238000000.0000005 0.504002202855957 -0.8993681948836684
4240999999.9999995 0.5015458652507973 -0.8686761043840523
4244000000.0 0.5137610700743586 -0.8686782725574266
4247000000.0 0.5030021501242415 -0.8740912248911816
4250000000.0 0.5123106615376773 -0.8816683605472205
4253000000.0 0.49431311229595665 -0.8593268067599177
4256000000.0 0.49508862681917165 -0.9095614513401334
4259000000.0000005 0.5014878724673716 -0.8549724116388054
4261999999.9999995 0.48660499695605663 -0.8858705545891863
4266000000.0 0.49975613464255975 -0.9205679949403073
4269000000.0 0.5236276712726464 -0.8584917525348783
4272000000.0000005 0.5027331988626137 -0.8764622233728342
4275000000.0000005 0.5273407988866984 -0.8882103677787363
4277999999.9999995 0.5375382705625478 -0.8840354278239227
4280999999.9999995 0.5273289730207676 -0.8753363260178807
4284000000.0 0.4963617102475353 -0.8871809938685231
4288000000.0000005 0.5472245025691729 -0.8609250915914888
4291000000.0000005 0.5007230718875832 -0.8513250816191354
4293999999.9999995 0.516680606859394 -0.8978387802881717
4297000000.0 0.5221419609715997 -0.856378821618922
4300000000.0 0.501259609310947 -0.8471575659616525
4303000000.0 0.49579300539581406 -0.8977875079808657
4306000000.0 0.5263389267128995 -0.8685672322130907
4309000000.0 0.514857027880618 -0.8656458093004586
4312000000.0 0.5545313646372328 -0.8815236476351608
4316000000.0 0.5580059451349705 -0.8861717123089139
4319000000.0 0.5009172710417458 -0.8506284037572125
4322000000.0 0.4744901157297913 -0.8670900262142339
4325000000.0 0.5383355064458539 -0.8612472350916895
4328000000.0 0.505077028328075 -0.8662951490454878
4331000000.0 0.4882566135072124 -0.8967254835909518
4334000000.0 0.511546133253935 -0.9057463057109358
4338000000.0 0.5504403601713105 -0.8613703262012578
4341000000.0 0.5440281341597335 -0.8702320719624285
4344000000.0 0.5136145141079382 -0.8875017834673118
4347000000.0 0.48370768299706296 -0.9174189270158289
4350000000.0 0.4980145092904573 -0.8329136217486742
4353000000.0 0.5129960872688986 -0.858045104401164
4356000000.0 0.47031391927511185 -0.868267869855344
4359000000.0 0.5014191413908611 -0.8275547354406506
4362000000.0 0.45992419760375647 -0.9329326469980666
4366000000.0 0.5222739363857377 -0.9015936195272749
4369000000.0 0.4897381662220915 -0.847740658466765
4372000000.0 0.48205242906240947 -0.8903182128616155
4375000000.0 0.503433366714261 -0.8566822614842478
4378000000.0 0.4723765616220017 -0.8638173510079459
4381000000.0 0.508819338475159 -0.866541050250464
4384000000.0 0.5313798447260075 -0.9344349686413226
4388000000.0 0.5081012754241473 -0.8567217510245667
4391000000.0 0.5202609491750728 -0.8821975260663144
4394000000.0 0.47743595556628426 -0.8583331907981191
4397000000.0 0.5037223042542294 -0.8669309231707362
4400000000.0 0.49819046505381104 -0.9154661758266137
4403000000.0 0.5063237888819233 -0.8923056847322495
4406000000.0 0.4818275805132377 -0.8879531457733194
4409000000.0 0.5027431774121276 -0.9104398247756829
4412000000.0 0.4430245457662299 -0.8962024916909184
4416000000.0 0.4810452988183266 -0.8786516566524405
4419000000.0 0.47073745057562255 -0.8884254226285269
4422000000.0 0.49669267509338394 -0.8580365210756533
4425000000.0 0.5360955807223304 -0.8798550815338171
4428000000.0 0.48659916337644105 -0.8740326730833876
4431000000.0 0.5149354275122537 -0.8836516440746748
4434000000.0 0.47785325315618576 -0.8822395119573572
4438000000.0 0.5069261625707491 -0.9069855651609069
4441000000.0 0.5112681596991613 -0.8937911823529704
4444000000.0 0.48867444967040885 -0.8537901828250966
4447000000.0 0.48294091134668016 -0.8812383407444351
4450000000.0 0.5057159827693876 -0.8619950632427573
4453000000.0 0.5127932930111104 -0.9015174017909449
4456000000.0 0.4732285889723226 -0.8752811530026772
4459000000.0 0.44464100184807187 -0.8439471121000696
4462000000.0 0.5128426975252844 -0.9321405883456231
4466000000.0 0.4999792689723106 -0.9286506332380454
4469000000.0 0.5084099278843534 -0.877430872145774
4472000000.0 0.4806459798352309 -0.9082951119560514
4475000000.0 0.49109866919600165 -0.8697206733270254
4478000000.0 0.4865367864563511 -0.9269044913811042
4481000000.0 0.4619215749110451 -0.8653538086212411
4484000000.0 0.44301077638896347 -0.9075103869513906
4488000000.0 0.4571723236273367 -0.8725224168111714
4491000000.0 0.4715266968825974 -0.9056334798012641
4494000000.0 0.4689916417456658 -0.8930816906011458
4497000000.0 0.49343922533382356 -0.8638916545713442
4500000000.0 0.4937003658082559 -0.8947644025190835
4503000000.0 0.5164048427482724 -0.8938951189127436
4506000000.0 0.4772073608914164 -0.8863277113882746
4509000000.0 0.4755484198004084 -0.8797791029532507
4512000000.0 0.4491662693143534 -0.865203819548614
4516000000.0 0.4834920332031087 -0.9009117063850491
4519000000.0 0.47891564021976346 -0.8638755725620586
4522000000.0 0.47436018113945927 -0.9031173171347773
4525000000.0 0.5094702934148209 -0.853227949774592
4528000000.0 0.48992736581853036 -0.9164236631759706
4531000000.0 0.4911231544705049 -0.8753709513147251
4534000000.0 0.46106658264914924 -0.8768273825175216
4538000000.0 0.4664750876639916 -0.8720075592181754
4541000000.0 0.4353329039609062 -0.882952953002833
4544000000.0 0.4661074297690962 -0.8692732158277967
4547000000.0 0.484495002212073 -0.8827433203471196
4550000000.0 0.4639090454376065 -0.896474177267015
4553000000.0 0.4611173936636391 -0.8967336127334488
4556000000.0 0.43821140833778893 -0.8736769970169763
4559000000.0 0.46286161426372063 -0.8997212119662665
4562000000.0 0.4798065233602752 -0.8818831191332763
4566000000.0 0.4627359582081352 -0.9059183918563682
4569000000.0 0.46677130217237583 -0.8826055067303635
4572000000.0 0.4638661411235705 -0.8790152091810075
4575000000.0 0.43808572432152737 -0.9155944925284863
4578000000.0 0.49407205656309156 -0.91145723040441
4581000000.0 0.4571956248787754 -0.90342139689363
4584000000.0 0.43990666378923904 -0.8977410751074131
4588000000.0 0.4836097359877448 -0.9161876170209161
4591000000.0 0.4834669699110749 -0.8939295610450484
4594000000.0 0.4533798289082326 -0.9029117760715446
4597000000.0 0.451693869461927 -0.9019333969153854
4600000000.0 0.4334271489996654 -0.9001382061207382
4603000000.0 0.4440363017103949 -0.8964834329812456
4606000000.0 0.4646187481167497 -0.922940344437041
4609000000.0 0.45492300362617444 -0.886922365623834
4612000000.0 0.47286318974139885 -0.9205690914669276
4616000000.0 0.4566667185583167 -0.8860127167483905
4619000000.0 0.46922303145767824 -0.8769639912105491
4622000000.0 0.4478952829245291 -0.9033533128774527
4625000000.0 0.43775919640382244 -0.8914519627231564
4628000000.0 0.47455754924396143 -0.901792351823006
4631000000.0 0.43776422459394526 -0.9014228497707015
4634000000.0 0.4497703791184734 -0.9004992725408955
4638000000.0 0.4534322861804233 -0.9023534371706294
4641000000.0 0.47532428236039237 -0.8976336269266743
4644000000.0 0.4471968568555116 -0.9025894743720881
4647000000.0 0.4578057168052476 -0.9115149929807009
4650000000.0 0.442578347007772 -0.9001947814019117
4653000000.0 0.46195541593851497 -0.9262055059992189
4656000000.0 0.45196467085117353 -0.9055613147688353
4659000000.0 0.44721318444618996 -0.9143292956332795
4662000000.0 0.44943416854456364 -0.9148382675320264
4666000000.0 0.43413585624466117 -0.9085906941010544
4669000000.0 0.4724532175495142 -0.9002368546035759
4672000000.0 0.45350100290984574 -0.9381235387236457
4675000000.0 0.44771919912049574 -0.9187366744480782
4678000000.0 0.4433382188412156 -0.8774147182321118
4681000000.0 0.42166241622823797 -0.9176295804205823
4684000000.0 0.42900738751310763 -0.9309385779311302
4688000000.0 0.42950588862621847 -0.9072980961008534
4691000000.0 0.45994238855047376 -0.924671156616914
4694000000.0 0.44331839698251174 -0.8920179494134478
4697000000.0 0.4074728999620852 -0.8827518795895042
4700000000.0 0.458100466976646 -0.9127245224123208
4703000000.0 0.44777810664755285 -0.8546655920138739
4706000000.0 0.41836075591528654 -0.9346164245185021
4709000000.0 0.42112681580912836 -0.9010123897930766
4712000000.0 0.4435866071428243 -0.9189241240392249
4716000000.0 0.45880147417091083 -0.9127070444778498
4719000000.0 0.467083244513139 -0.9096155658665731
4722000000.0 0.4733211345987894 -0.897931668373514
4725000000.0 0.4375293694094498 -0.9091838565926773
4728000000.0 0.4270698717934256 -0.9024370846000381
4731000000.0 0.4613657779550661 -0.9218377479908686
4734000000.0 0.46556926672655974 -0.8996897037004783
4738000000.0 0.4806767165562244 -0.9302462194650382
4741000000.0 0.417546531775086 -0.9210194855997682
4744000000.0 0.42566466024214483 -0.939582535638222
4747000000.0 0.4566983649956655 -0.9049957223242167
4750000000.0 0.4386487071870776 -0.924062062615451
4753000000.0 0.447266171894531 -0.9074428631494926
4756000000.0 0.44134652419672515 -0.9483755258809954
4759000000.0 0.43969368330691116 -0.9306854446039656
4762000000.0 0.41808543156465006 -0.9620560461634335
4766000000.0 0.43028429485587216 -0.907551582848784
4769000000.0 0.4311807086385957 -0.9346795473464432
4772000000.0 0.45884813830514926 -0.9162434759465695
4775000000.0 0.42455678149702825 -0.980033306925634
4778000000.0 0.4571398350247961 -0.9115956723482493
4781000000.0 0.4754695884436364 -0.9080627303912653
4784000000.0 0.454167998235422 -0.9075906535442542
4788000000.0 0.43914063273672166 -0.9354287195887758
4791000000.0 0.4489941331773205 -0.9335547254822997
4794000000.0 0.4823039357675475 -0.9356776674754608
4797000000.0 0.4333906773435606 -0.8992391886033743
4800000000.0 0.4337669495547132 -0.9195752130394278
4803000000.0 0.38583283172620964 -0.9390435207472816
4806000000.0 0.4499246960000143 -0.9311739677920688
4809000000.0 0.41675767467028324 -0.9657639863664393
4812000000.0 0.3939945447643224 -0.948404849914508
4816000000.0 0.4419223551076197 -0.8980246420366831
4819000000.0 0.45040922244104775 -0.9417247967491128
4822000000.0 0.49375755472821364 -0.9511052288186856
4825000000.0 0.4596882864337327 -0.9265077203453429
4828000000.0 0.432623266314488 -0.9267184113871996
4831000000.0 0.4120220508017178 -0.9670376593000085
4834000000.0 0.4572881437413323 -0.9324216369432126
4838000000.0 0.45145139107171756 -0.9587487590510922
4841000000.0 0.4273735160241209 -0.9337971491672755
4844000000.0 0.4801845011282694 -0.9283786779012162
4847000000.0 0.4377954606081519 -0.8911581901844468
4850000000.0 0.4372912617695567 -0.9570428579486157
4853000000.0 0.44920441372281633 -0.9167362128833286
4856000000.0 0.4155394107212723 -0.9306098183122664
4859000000.0 0.4496329447606509 -0.9608490755719683
4862000000.0 0.4719002367690661 -0.8872561173023035
4866000000.0 0.4210609531057994 -0.9477631426102234
4869000000.0 0.4298456815441524 -0.9464404254507747
4872000000.0 0.4365178103983781 -0.9630904578238418
4875000000.0 0.5095765603113998 -0.9510303673802807
4878000000.0 0.45373128456547146 -0.9328293374734322
4881000000.0 0.4294881319767923 -1.0031729006879246
4884000000.0 0.4580291713328286 -0.9355456798010439
4888000000.0 0.4667264317858274 -0.9309855274906632
4891000000.0 0.4669321036967451 -0.9272213443536014
4894000000.0 0.4172879181216206 -0.9247385716035963
4897000000.0 0.47849900254763755 -0.9113036454727109
4900000000.0 0.4381311350542508 -0.9365651624757554
4903000000.0 0.4572413183079919 -0.9325106137051875
4906000000.0 0.43916538647735365 -0.9822678975724257
4909000000.0 0.4283046038834013 -0.9621120697633808
4912000000.0 0.44211841449270184 -0.9778933422637851
4916000000.0 0.45589708417172425 -0.9403881809004307
4919000000.0 0.4740753980844442 -0.951050394112204
4922000000.0 0.4466256880225352 -0.9299917650088921
4925000000.0 0.419282276470594 -0.9459629911814236
4928000000.0 0.4705039442444957 -0.8958222071519832
4931000000.0 0.4824863950451822 -0.9694393367667267
4934000000.0 0.44171957935623396 -0.8647833171846983
4938000000.0 0.43376039081576434 -0.9491074449105406
4941000000.0 0.44718302507035534 -0.9199383004078602
4944000000.0 0.4180165654271848 -0.8659871090144979
4947000000.0 0.4678231683720079 -0.919510897441027
4950000000.0 0.4298184469206877 -0.9529293845836757
4953000000.0 0.4624310103104603 -0.9930796434359885
4956000000.0 0.44443600667584604 -0.940849281091744
4959000000.0 0.389779709249882 -0.9330103078851086
4962000000.0 0.4154180989297313 -0.9507535574273106
4966000000.0 0.4569764442873429 -0.9764889001897011
4969000000.0 0.5081614738407824 -0.9592995550669237
4972000000.0 0.44218205665845123 -0.937872807034778
4975000000.0 0.4878821705747375 -0.9279893852010721
4978000000.0 0.4241412617364305 -0.9450618322605437
4981000000.0 0.46506113818046324 -0.942990395843218
4984000000.0 0.45510701158635836 -0.9229933111017098
4988000000.0 0.46449840227067885 -0.8947265080187037
4991000000.0 0.5194297963178616 -0.9436946117223959
4994000000.0 0.45079172938815376 -0.8971017735372528
4997000000.0 0.4148022019775449 -0.9372800270667317
5000000000.0 0.4914065674542261 -0.9626481072042439
5003000000.0 0.4884872043244697 -0.9765555873634575
5006000000.0 0.5083911102354455 -0.9613771166091958
5009000000.0 0.4585600524745299 -0.9525342376892107
5012000000.0 0.4228756159576409 -0.9563869837668126
5016000000.0 0.4988256929307924 -0.923360491857468
5019000000.0 0.44901614309602034 -0.938129166845519
5022000000.0 0.46991656068145643 -0.9299682843604686
5025000000.0 0.4638253182611559 -1.0123535318906747
5028000000.0 0.41695799854897414 -0.9682621874668449
5031000000.0 0.4317760726990704 -0.9375155809190017
5034000000.0 0.46925049656882345 -0.9801714478460776
5038000000.0 0.4386127019867409 -0.9449261107333544
5041000000.0 0.48946891866809517 -0.9246456629066547
5044000000.0 0.4763624123634532 -0.8869231073688428
5047000000.0 0.46944465744051744 -0.9559959646389848
5050000000.0 0.5176753620347088 -0.864200289193287
5053000000.0 0.4819202292420088 -0.9630658363422145
5056000000.0 0.5266268322540125 -0.9053191059298069
5059000000.0 0.4940040351671402 -0.9161017113776646
5062000000.0 0.4580869379145967 -0.9578624959970696
5066000000.0 0.47804106337249275 -0.9460561978851143
5069000000.0 0.45281716437295405 -0.9209081363697988
5072000000.0 0.4381216796643288 -0.9080521797130703
5075000000.0 0.5017169559080223 -0.9291073240541465
5078000000.0 0.4177420890810258 -0.9356694593037067
5081000000.0 0.43418414469162797 -0.9386795750664716
5084000000.0 0.4860592775005264 -0.9260547462135963
5088000000.0 0.47705730736581275 -0.8788733137539144
5091000000.0 0.4465287342826578 -0.9492609337672201
5094000000.0 0.4836076256283658 -0.9456366648985507
5097000000.0 0.5388457606706516 -0.9401244196684709
5100000000.0 0.4808044887117838 -0.9450265793339663
5103000000.0 0.42547357094262656 -0.9254084327325777
5106000000.0 0.5111811366873267 -0.9545406178011842
5109000000.0 0.4802429349799348 -0.8913806297226508
5112000000.0 0.4734008913353317 -0.9600001640478106
5116000000.0 0.45760852601076685 -0.9026822512586551
5119000000.0 0.49584442173999077 -0.935738531552017
5122000000.0 0.4666158131644438 -0.9059951388940586
5125000000.0 0.4716683471089815 -0.9238646937388496
5128000000.0 0.4698709946786998 -0.9283921985386594
5131000000.0 0.48841579093206877 -0.9033308841132275
5134000000.0 0.465538227708754 -0.9286986645282909
5138000000.0 0.5248258801873906 -0.9382128885441225
5141000000.0 0.5141962588202473 -0.9035629361075536
5144000000.0 0.4998175102929804 -0.9293056723844869
5147000000.0 0.4806299684667772 -0.9470124680164831
5150000000.0 0.5144857424458531 -0.951618384736034
5153000000.0 0.4820125279422863 -0.9165299853749362
5156000000.0 0.510558393282041 -0.9339830430663526
5159000000.0 0.5212342325809199 -0.8910584168558673
5162000000.0 0.4507714688413978 -0.9137168089482159
5166000000.0 0.48625740129204087 -0.9624667152362797
5169000000.0 0.47323222466821524 -0.9407217822346432
5172000000.0 0.5080400240244031 -0.9323551136025612
