! Created with skrf 1.8.0 (http://scikit-rf.org).
# Hz S RI R 50.0 
!freq ReS11 ImS11
4000000000.0 0.5569858542905468 -0.8332439821309454
4003000000.0 0.5957480456224147 -0.9127415322284552
4006000000.0 0.5190403546011676 -0.8974586302719104
4009000000.0000005 0.5668507250426176 -0.8895697788996505
4011999999.9999995 0.6318081110399111 -0.8557585296124384
4016000000.0 0.6098157019826379 -0.8765995657594674
4019000000.0 0.5242842177742343 -0.8562709622979383
4022000000.0000005 0.6236004132079344 -0.8092463838997529
4025000000.0000005 0.508441649306778 -0.9152338834364742
4027999999.9999995 0.529056783314647 -0.8944793560427335
4030999999.9999995 0.5384047040859261 -0.8039416780612696
4034000000.0 0.5530100351595921 -0.8410667336205246
4038000000.0000005 0.5264030229291623 -0.875545966809745
4041000000.0000005 0.5573613156431585 -0.8690878387843763
4043999999.9999995 0.5800080186372947 -0.9364335525934482
4046999999.9999995 0.6019417667969498 -0.9077718334573742
4050000000.0 0.5223300798620842 -0.9407886609474096
4053000000.0 0.4950313832697529 -0.8554206493792171
4056000000.0 0.5464476001447831 -0.8849034128681398
4059000000.0 0.5870090835152255 -0.8303072404069995
4062000000.0000005 0.5393501081706336 -0.89053853079453
4066000000.0 0.46787995120636927 -0.7791386515114814
4069000000.0 0.5241121738608719 -0.9328765632732003
4072000000.0 0.5791585452858723 -0.8401682703548334
4075000000.0 0.5884034617312744 -0.8530608276765974
4078000000.0000005 0.5397683451726868 -0.8763269309219646
4081000000.0000005 0.6116489476341018 -0.8399230720152999
4083999999.9999995 0.5019575722421963 -0.8984792034636396
4088000000.0 0.5889844799748614 -0.8303274528341394
4091000000.0 0.587535962284306 -0.9476926732377213
4094000000.0000005 0.578310668849645 -0.8234391088174035
4097000000.0000005 0.5546506930852222 -0.8404944296475835
4099999999.9999995 0.5507109684521616 -0.87621771672514
4102999999.9999995 0.5875059969398005 -0.8646089915640706
4106000000.0 0.5636580432706495 -0.8611091593930515
4109000000.0 0.535175058010642 -0.8838908334004238
4112000000.0 0.5938030529386591 -0.8616791774353983
4115999999.9999995 0.564500296173016 -0.8611952685140271
4119000000.0 0.5440504393160093 -0.8814934252199956
4122000000.0 0.5419194983485004 -0.8744953088135621
4125000000.0 0.5318812557880757 -0.8877504274603673
4128000000.0 0.5522357771603983 -0.8382913761865682
4131000000.0 0.5150686701503464 -0.8550846110242708
4134000000.0000005 0.5851116315603034 -0.8321256294552708
4138000000.0 0.5274514085002728 -0.8826757885068209
4141000000.0 0.5265789861473911 -0.8334713178989542
4144000000.0 0.5475843737926162 -0.86716469630295
4147000000.0000005 0.5385593768153947 -0.8382611339923054
4150000000.0000005 0.5646106595978895 -0.8780039484755786
4152999999.9999995 0.5438597658282955 -0.8422898481250555
4155999999.9999995 0.5716416486064447 -0.8347398307126264
4159000000.0 0.564721700133944 -0.8568485515689692
4162000000.0 0.5546761412005081 -0.8615632129501218
4166000000.0000005 0.5491938057059432 -0.8634215904201212
4168999999.9999995 0.5140817875846716 -0.8624749199063487
4171999999.9999995 0.5761436408459144 -0.8425737413160357
4175000000.0 0.5624952446382634 -0.8651138942632514
4178000000.0 0.5411506495467233 -0.8748131631453253
4181000000.0 0.5482059690843907 -0.8746893768726184
4184000000.0 0.5543930802000689 -0.8628937521214877
4187999999.9999995 0.5416335225297979 -0.8488284203501398
4191000000.0 0.5719411814931954 -0.807263649800684
4194000000.0 0.5386821655257604 -0.8530552175494095
4197000000.0 0.5553422474400902 -0.8667836514313538
4200000000.0 0.5493910986299282 -0.8613568857901758
4203000000.0000005 0.5835946577106939 -0.838634773579979
4206000000.0000005 0.5763848522365292 -0.8572941229815207
4208999999.9999995 0.5438052656735379 -0.8405906415471331
4211999999.9999995 0.5405136752529325 -0.8763367433679621
4216000000.0 0.5756922659748511 -0.8542044435039449
4219000000.0000005 0.5647082222308396 -0.861117526611395
4222000000.0000005 0.5538872815270688 -0.8550606954280051
4224999999.9999995 0.5713046402935396 -0.8462737781351763
4227999999.9999995 0.5536828139347498 -0.8547098032055601
4231000000.0 0.5458035850024692 -0.8613785701210523
4234000000.0 0.5613933229522219 -0.8650458727392667
4238000000.0000005 0.545798192043575 -0.8657314180684023
4240999999.9999995 0.5553482052302042 -0.8484191374399328
4244000000.0 0.5637200623242327 -0.8437196768866345
4247000000.0 0.5610477189374146 -0.8501372712384045
4250000000.0 0.5512150487498777 -0.8464733349541548
4253000000.0 0.5439026498175079 -0.8396454192682976
4256000000.0 0.5639210616470902 -0.8605291893893431
4259000000.0000005 0.5343933219246073 -0.8367226563217075
4261999999.9999995 0.542641227913724 -0.8485578215346562
4266000000.0 0.5408942769372155 -0.8714675489484598
4269000000.0 0.5766641844237957 -0.8464134601596245
4272000000.0000005 0.5436121076607594 -0.8448195936133602
4275000000.0000005 0.5650330109039756 -0.8290398754925555
4277999999.9999995 0.5540305525758423 -0.8665807570309705
4280999999.9999995 0.5675266068547897 -0.8463687264429973
4284000000.0 0.5201582758844424 -0.8694145172888819
4288000000.0000005 0.5681503396088187 -0.8326439815378386
4291000000.0000005 0.5478279620702615 -0.8420449699051666
4293999999.9999995 0.5402282666108567 -0.846236680984204
4297000000.0 0.5612428184007013 -0.8194236035037776
4300000000.0 0.558819223483512 -0.8244513285394688
4303000000.0 0.5493261335371099 -0.8712886188614908
4306000000.0 0.5812188484514199 -0.8412700402073923
4309000000.0 0.5635520227663061 -0.8291173751964522
4312000000.0 0.584213966661661 -0.8232336913409634
4316000000.0 0.601120652255405 -0.8473142644368192
4319000000.0 0.5548533533060842 -0.802917547954348
4322000000.0 0.5159875313864969 -0.8507596274098644
4325000000.0 0.5595160856911465 -0.8284247443171274
4328000000.0 0.5351419144378962 -0.8319317755508949
4331000000.0 0.5401792124736878 -0.8767166752777712
4334000000.0 0.5645568894178716 -0.8864374664259218
4338000000.0 0.5702210026748205 -0.843846719446414
4341000000.0 0.5999458312243606 -0.8507656613021918
4344000000.0 0.5549672036038817 -0.8407358259789487
4347000000.0 0.5283311598504112 -0.8704667084362347
4350000000.0 0.5225322975418147 -0.824304348288038
4353000000.0 0.5638630522403771 -0.8102751257413172
4356000000.0 0.5288136369224847 -0.8527064127649453
4359000000.0 0.5189508577219203 -0.7999765598219757
4362000000.0 0.5085192627010214 -0.8894828783803901
4366000000.0 0.5501978131830191 -0.8767749987314563
4369000000.0 0.5265493446733667 -0.8256353538613485
4372000000.0 0.4984522959720318 -0.8613573656928754
4375000000.0 0.5488811670334979 -0.8273236905043325
4378000000.0 0.5316940644263213 -0.8259333399902661
4381000000.0 0.5483495910724231 -0.8262427208288192
4384000000.0 0.579451321484689 -0.9232426041746465
4388000000.0 0.5609510110206563 -0.8138840543069022
4391000000.0 0.5623837264218793 -0.8522165203184036
4394000000.0 0.5253307727628624 -0.8188550853015165
4397000000.0 0.5439788445445575 -0.8417881840751471
4400000000.0 0.5574676547025601 -0.8591514566380064
4403000000.0 0.55375421336213 -0.8607895830616213
4406000000.0 0.5266309288302408 -0.8688775666563107
4409000000.0 0.5568885390236352 -0.8593402068976888
4412000000.0 0.49337573434635096 -0.8709205078029534
4416000000.0 0.5330964289808382 -0.8484221604772919
4419000000.0 0.5345335467316923 -0.8618657595486734
4422000000.0 0.5488795358444738 -0.8407770526598048
4425000000.0 0.5641125441318076 -0.8691690915293253
4428000000.0 0.531732534763289 -0.8554474724629806
4431000000.0 0.5639685808432724 -0.8679131904046309
4434000000.0 0.5418808960064441 -0.842425097844629
4438000000.0 0.5627337241160005 -0.876602505403782
4441000000.0 0.5554547766908802 -0.8574611814347068
4444000000.0 0.5301880979306082 -0.8300382685714266
4447000000.0 0.5257363395201263 -0.8447152389829524
4450000000.0 0.5362683641419799 -0.8299896782038036
4453000000.0 0.5399874647400601 -0.8628623613112888
4456000000.0 0.5193970212804034 -0.8367303676122299
4459000000.0 0.4860133561907659 -0.8302244580056817
4462000000.0 0.5546917771473381 -0.9007782438245082
4466000000.0 0.5480992729797679 -0.8840502356479311
4469000000.0 0.5545693174384643 -0.830728006503548
4472000000.0 0.5254884302328227 -0.8814495912605915
4475000000.0 0.5166825849739601 -0.8226901563617058
4478000000.0 0.5528390226959169 -0.9000285366488527
4481000000.0 0.5150950097836209 -0.8341179393319369
4484000000.0 0.4864795926532665 -0.8808804749644891
4488000000.0 0.5028190999998428 -0.8618497956166837
4491000000.0 0.5328891840633532 -0.8600328632242955
4494000000.0 0.5187220174968437 -0.8358936178629501
4497000000.0 0.5313137968926618 -0.8397853299996609
4500000000.0 0.5481466798090381 -0.8464266478358677
4503000000.0 0.5546151910983063 -0.8617844095068181
4506000000.0 0.5021302842831866 -0.8550379545173539
4509000000.0 0.5224935200456046 -0.8700118683498239
4512000000.0 0.5113721586142157 -0.8342042420187845
4516000000.0 0.5312337483396998 -0.861547939515189
4519000000.0 0.5051858440544454 -0.821787245641888
4522000000.0 0.5259024442868345 -0.868469137766557
4525000000.0 0.5353479631156761 -0.8316447199551467
4528000000.0 0.5447254701833125 -0.8738653038969598
4531000000.0 0.5554748425151834 -0.824515595089086
4534000000.0 0.5254705883542561 -0.8458500796438908
4538000000.0 0.5069452582217688 -0.8413794901685164
4541000000.0 0.49999967379983723 -0.863669382232285
4544000000.0 0.5210980634609532 -0.8384643740718982
4547000000.0 0.5525855776400019 -0.8436542493865709
4550000000.0 0.5143398304079317 -0.8834347958496307
4553000000.0 0.5288732853614233 -0.8735151501462843
4556000000.0 0.5091228782694429 -0.8560297501833949
4559000000.0 0.5300856568164973 -0.870040272126483
4562000000.0 0.5334353660133286 -0.8653410064515347
4566000000.0 0.5245796765087637 -0.8740329085376024
4569000000.0 0.5084851267823461 -0.855486966833293
4572000000.0 0.5131029961543359 -0.855100022560753
4575000000.0 0.5142492878292759 -0.8785346111959411
4578000000.0 0.5492804398921385 -0.8766030279576049
4581000000.0 0.5145855725171403 -0.8682988617907998
4584000000.0 0.5203760724774004 -0.8589595080649477
4588000000.0 0.5329057586074436 -0.8639260655258465
4591000000.0 0.5259493618116621 -0.857441525018964
4594000000.0 0.49870013231453536 -0.8707032296029346
4597000000.0 0.5186595112438611 -0.8795117649007761
4600000000.0 0.4926710236743864 -0.8640323502399085
4603000000.0 0.5132049888097445 -0.8590033313044989
4606000000.0 0.5222039415527479 -0.862145208124557
4609000000.0 0.5014839027945737 -0.8685018104669514
4612000000.0 0.5289527650382981 -0.8780378738473795
4616000000.0 0.5100149655020192 -0.8690942172339998
4619000000.0 0.5239515489903711 -0.8597793188986297
4622000000.0 0.5105222712617097 -0.8532025635372101
4625000000.0 0.49078926137882184 -0.8555558804869126
4628000000.0 0.5329565997422081 -0.8472141533307143
4631000000.0 0.49341170594259653 -0.8664143913852549
4634000000.0 0.513001304646609 -0.8644810196817461
4638000000.0 0.5179364681683571 -0.872799554213749
4641000000.0 0.5283051636456101 -0.8796821949861381
4644000000.0 0.5216020314013323 -0.856360846178718
4647000000.0 0.519803958971112 -0.8723464896701281
4650000000.0 0.5008023896541307 -0.8677669956826459
4653000000.0 0.5242737935974253 -0.8757044260223739
4656000000.0 0.4989026166461965 -0.8747997275705629
4659000000.0 0.4821046114070539 -0.8725506930369544
4662000000.0 0.5127321898762977 -0.8669708502236515
4666000000.0 0.4804895466253086 -0.8715171878375958
4669000000.0 0.5068491548318166 -0.8657027350153776
4672000000.0 0.47066121413038986 -0.8992909149837262
4675000000.0 0.5022130402021454 -0.8848913608814293
4678000000.0 0.47906245082196525 -0.8487797889489472
4681000000.0 0.5036027668745376 -0.8964509318122471
4684000000.0 0.49091048619568783 -0.8603393332306261
4688000000.0 0.476836176222271 -0.879578918836571
4691000000.0 0.5226589893523945 -0.8649086766667408
4694000000.0 0.517200085819454 -0.8584606293611051
4697000000.0 0.4634611719637275 -0.8593067480478156
4700000000.0 0.5311431551184569 -0.8638955125119878
4703000000.0 0.5089452553353593 -0.8361186543121845
4706000000.0 0.490190033284753 -0.8810333729070001
4709000000.0 0.5081881757899466 -0.8815908169720525
4712000000.0 0.49604232589360336 -0.8853708220822184
4716000000.0 0.5011491822460883 -0.9026773189043776
4719000000.0 0.5431832291248043 -0.8618890435866116
4722000000.0 0.539972611765879 -0.8705198551916467
4725000000.0 0.5167328739935533 -0.8703705673308398
4728000000.0 0.48525786308155755 -0.8923065747077993
4731000000.0 0.534506589525142 -0.8902759581252255
4734000000.0 0.503607205792627 -0.8683099069237218
4738000000.0 0.5550806698587176 -0.8990788657617262
4741000000.0 0.5197018293758916 -0.913401711679845
4744000000.0 0.49727703495090386 -0.9044708678492748
4747000000.0 0.5183228664944419 -0.8424733893197008
4750000000.0 0.5071630678969168 -0.8862761192316961
4753000000.0 0.5324589518118757 -0.8984597268242918
4756000000.0 0.5065521842884494 -0.8910367550919659
4759000000.0 0.5179898959129156 -0.8948924856517825
4762000000.0 0.47355514574007207 -0.8947314446295239
4766000000.0 0.49915208252764104 -0.8698028207245956
4769000000.0 0.5187545175614598 -0.8867016579358851
4772000000.0 0.527465619811718 -0.9000602356282347
4775000000.0 0.5284922010133841 -0.9307839082182833
4778000000.0 0.5114092442084439 -0.8947329480401607
4781000000.0 0.5109824419353073 -0.8863446750260332
4784000000.0 0.5224025113210554 -0.8637465760803167
4788000000.0 0.4936845361858532 -0.9196058273701743
4791000000.0 0.47495492973795783 -0.866276756839901
4794000000.0 0.5461337418585412 -0.9108200316715038
4797000000.0 0.5010740995583056 -0.8747343958496895
4800000000.0 0.4913442878857919 -0.8713412878004274
4803000000.0 0.4627055547281569 -0.8846855003567567
4806000000.0 0.4955198641273585 -0.9112132710594889
4809000000.0 0.47885555936692775 -0.9083834103497347
4812000000.0 0.45920163386968427 -0.90720435383265
4816000000.0 0.5122248637118025 -0.8638185672449377
4819000000.0 0.5080602711148495 -0.8869424487528454
4822000000.0 0.5087477209458486 -0.9136170618069559
4825000000.0 0.5568098902367724 -0.8951314374037711
4828000000.0 0.5060699905510582 -0.8694898788645102
4831000000.0 0.48818829438052713 -0.928287902033347
4834000000.0 0.5281799662974869 -0.874955357447465
4838000000.0 0.5088141183670427 -0.914977584730858
4841000000.0 0.48366464841664636 -0.8864256053157568
4844000000.0 0.534535415789386 -0.8670555371574864
4847000000.0 0.5200130782902438 -0.8687453253093402
4850000000.0 0.4874901442060557 -0.9107388665442107
4853000000.0 0.5001001838154537 -0.8563106777062713
4856000000.0 0.5189245995444646 -0.8889221517072484
4859000000.0 0.5027293335010817 -0.9172028557533062
4862000000.0 0.5022684711614341 -0.8492202451326948
4866000000.0 0.5023920998818947 -0.9201616730892698
4869000000.0 0.4863984531562495 -0.8990787145054979
4872000000.0 0.4696895231267254 -0.9041162595358035
4875000000.0 0.5652551319914543 -0.9025540395443825
4878000000.0 0.5024673025887111 -0.8840787093714086
4881000000.0 0.5131963138286137 -0.9477981015277983
4884000000.0 0.49815920875890485 -0.8909295282660454
4888000000.0 0.5323980523658272 -0.8549575439303398
4891000000.0 0.5448774515202862 -0.8982054189508951
4894000000.0 0.48737774487088353 -0.8615445804996824
4897000000.0 0.5147950578501487 -0.8652580583941105
4900000000.0 0.5156381324417306 -0.8887923343127271
4903000000.0 0.5203195491505261 -0.8952220234649908
4906000000.0 0.5124891603910519 -0.9219481872789705
4909000000.0 0.4761320115369308 -0.8834209186608329
4912000000.0 0.5299136625272372 -0.917958718508453
4916000000.0 0.5428458251959322 -0.9338911910655984
4919000000.0 0.5523065877018201 -0.9006538189551008
4922000000.0 0.5596463143533208 -0.8708520020446573
4925000000.0 0.48886057668001276 -0.9119093972773076
4928000000.0 0.5624284480956879 -0.8548461732457061
4931000000.0 0.5609449196656633 -0.8770947532893513
4934000000.0 0.4681577263245654 -0.866993024346416
4938000000.0 0.4843840121773628 -0.8805266876051401
4941000000.0 0.49416029381636617 -0.8825709366121361
4944000000.0 0.49246083752773423 -0.8103718327621259
4947000000.0 0.5200136528651204 -0.8837943012246156
4950000000.0 0.47301299685242815 -0.8962594249972001
4953000000.0 0.45425423288718697 -0.9437997776710854
4956000000.0 0.5147713388648012 -0.913295231233003
4959000000.0 0.5058958132550756 -0.8645217700348766
4962000000.0 0.5077832476059811 -0.9022640353415288
4966000000.0 0.545443328666846 -0.8758913960723559
4969000000.0 0.5525331060415477 -0.8893026998355912
4972000000.0 0.4851806156724131 -0.9102890771953418
4975000000.0 0.534230375527806 -0.8423598827694923
4978000000.0 0.5129531668868087 -0.8951852224805094
4981000000.0 0.5218139060819279 -0.9012679459064796
4984000000.0 0.5086697947335015 -0.8774732916984005
4988000000.0 0.5100811995072618 -0.8586066067335888
4991000000.0 0.5660876824901107 -0.8658119104498054
4994000000.0 0.5586777654389736 -0.8346233842231058
4997000000.0 0.48682933076653395 -0.8854117980929171
5000000000.0 0.5479519283762626 -0.8949028815519702
5003000000.0 0.5335917258332002 -0.9192311976845852
5006000000.0 0.5585625355436267 -0.9229741551135914
5009000000.0 0.5170268815715988 -0.8603054815165675
5012000000.0 0.48438726830756973 -0.8889659329839052
5016000000.0 0.574846157464082 -0.9080251288234001
5019000000.0 0.5073418383433352 -0.9026053596779943
5022000000.0 0.5144780784388039 -0.904084770883797
5025000000.0 0.5420244200498492 -0.9180555214351569
5028000000.0 0.5133659375825799 -0.8839101416924581
5031000000.0 0.5077504695650873 -0.9090862442629812
5034000000.0 0.4915647635827434 -0.9521904958573673
5038000000.0 0.506171421574187 -0.8701058118315876
5041000000.0 0.5693430808681579 -0.8802776228211048
5044000000.0 0.5230743843459785 -0.8433059170640321
5047000000.0 0.5534383956070684 -0.8774716530711987
5050000000.0 0.6073383484768968 -0.8356967270411252
5053000000.0 0.5642552003017492 -0.935919468373632
5056000000.0 0.5462387888583202 -0.8694820649457006
5059000000.0 0.5862251803330144 -0.8568224578261913
5062000000.0 0.5216629045091408 -0.914140698675093
5066000000.0 0.5531181695617864 -0.8582391581240617
5069000000.0 0.5397038365294049 -0.8879164696091832
5072000000.0 0.5589778705550194 -0.8694934614587941
5075000000.0 0.5775343456660843 -0.8921263304057844
5078000000.0 0.5048751709630823 -0.9031946261901556
5081000000.0 0.5076623307961643 -0.8856910785225964
5084000000.0 0.5592041561874275 -0.9085082382278654
5088000000.0 0.5450472830094029 -0.8322490040437283
5091000000.0 0.5127691718547762 -0.8952808451758809
5094000000.0 0.5324592498422729 -0.8554826476157498
5097000000.0 0.5593913778405919 -0.8173273455301766
5100000000.0 0.5265359471659439 -0.8322130508559797
5103000000.0 0.5526099997110003 -0.860218702138641
5106000000.0 0.5657681534545353 -0.9145858597268437
5109000000.0 0.568074825583951 -0.8494144472118159
5112000000.0 0.5285265138881649 -0.875013410157383
5116000000.0 0.545216356984516 -0.8459859222253656
5119000000.0 0.5342525795494057 -0.9227282025597908
5122000000.0 0.5559340386743751 -0.8114003900585844
5125000000.0 0.534519303558108 -0.8721270255267903
5128000000.0 0.5377059486663766 -0.8955783567937863
5131000000.0 0.5374781597007867 -0.9049683636401353
5134000000.0 0.5711347937003711 -0.8940014461374655
5138000000.0 0.5540005990686949 -0.8947865289731252
5141000000.0 0.5992704891778371 -0.8717285819838634
5144000000.0 0.5756199224559578 -0.8865130826388539
5147000000.0 0.5519263590252833 -0.8778803327729678
5150000000.0 0.5547729795153085 -0.8361590751787156
5153000000.0 0.5732529092767631 -0.8536402368173208
5156000000.0 0.5745978780731773 -0.8777118489883955
5159000000.0 0.5943527922651238 -0.8958004716188882
5162000000.0 0.5332686020377959 -0.8692071423021202
5166000000.0 0.5383334966058311 -0.8987857376214181
5169000000.0 0.5573599823381693 -0.8545436398412265
5172000000.0 0.5692162070570002 -0.8476434667558812
5175000000.0 0.5698136791196032 -0.8983334662956579
5178000000.0 0.5744454031303738 -0.8709136339546051
