! Created with skrf 1.8.0 (http://scikit-rf.org).
# Hz S RI R 50.0 
!freq ReS11 ImS11
4000000000.0 0.1038758563935625 -1.031461225170353
4003000000.0 0.09745184066424772 -1.0884767167997516
4006000000.0 0.07690659897129337 -1.0089319987911505
4009000000.0000005 0.08224297252748669 -1.0294720808201823
4011999999.9999995 0.1080550593253608 -1.0842709874852219
4016000000.0 0.04151847439552747 -1.0252165851018415
4019000000.0 0.08246225493054654 -0.99636936421155
4022000000.0000005 0.1241434571795394 -1.0319778380643037
4025000000.0000005 0.036222833360775586 -1.017205664097104
4027999999.9999995 0.05322767563789221 -1.0113562099222022
4030999999.9999995 0.04672981451510519 -0.9921092766367545
4034000000.0 0.043994006052526125 -0.996972020753443
4038000000.0000005 0.03139142584652821 -1.0191033781233285
4041000000.0000005 0.06060436437875069 -1.0035435670586605
4043999999.9999995 0.03336477092137902 -1.0775744356096348
4046999999.9999995 0.03978415189819828 -1.089117322277966
4050000000.0 0.025515233763462458 -1.0184620165816054
4053000000.0 0.02503645998435025 -1.0305717592710046
4056000000.0 0.07119866830038607 -1.056194647813193
4059000000.0 0.00981855125579384 -1.0122822675434606
4062000000.0000005 0.03432926321206012 -1.0242770835438164
4066000000.0 0.01281024214139917 -0.9848215534605821
4069000000.0 -0.05232741412532073 -1.0357019410892492
4072000000.0 0.044065247549595454 -1.0443969570372593
4075000000.0 0.024151370399296962 -1.0551802473540517
4078000000.0000005 0.014666731564739882 -1.0249048202418505
4081000000.0000005 0.020952805197476193 -1.005404959759099
4083999999.9999995 -0.01273222120394836 -1.0041849267280976
4088000000.0 -0.021235868608400515 -1.0052253594287026
4091000000.0 0.03141223075396399 -1.014985483358301
4094000000.0000005 -0.025753452399727136 -0.9968087267603417
4097000000.0000005 -0.01737037492035136 -1.0521434890050576
4099999999.9999995 -0.03211892752695164 -1.0105060817085638
4102999999.9999995 -0.007205693854371226 -1.0380394076307593
4106000000.0 -0.04678978098255289 -1.0497493646872786
4109000000.0 -0.02072740984907541 -1.0319716818145799
4112000000.0 -0.03890357325445147 -0.9894909196475955
4115999999.9999995 -0.050181546509946426 -0.994239808995291
4119000000.0 -0.02267610784698339 -1.0195395133592107
4122000000.0 -0.08952581513459257 -1.0130407528015606
4125000000.0 -0.06694183598918123 -1.0070077411216565
4128000000.0 -0.02973184555638718 -1.0043623275789286
4131000000.0 -0.05548513012937966 -1.013857876421486
4134000000.0000005 -0.057674104847734116 -1.0352774327126966
4138000000.0 -0.07572361025698883 -0.9886129559218889
4141000000.0 -0.048384687342517003 -1.0298393126276426
4144000000.0 -0.05911295220783977 -1.0300688496117882
4147000000.0000005 -0.07773878403619432 -1.0301097510731332
4150000000.0000005 -0.11520248726237181 -1.0157291408637878
4152999999.9999995 -0.077706058980322 -0.9895405707637931
4155999999.9999995 -0.07338863617198209 -1.0376293567349675
4159000000.0 -0.08286250595212434 -0.9811881339217832
4162000000.0 -0.09676056981016928 -1.0010927811473083
4166000000.0000005 -0.09737291674957745 -1.0507251626566283
4168999999.9999995 -0.12654179986037184 -0.9880335695458233
4171999999.9999995 -0.11968712930804452 -1.0021471323593671
4175000000.0 -0.11321023481747902 -1.044014158793249
4178000000.0 -0.1274142569410442 -1.009395654265181
4181000000.0 -0.1588330388498324 -0.9781068561849894
4184000000.0 -0.12322990026647795 -0.9869379532286793
4187999999.9999995 -0.12752342435008873 -0.9948483521666088
4191000000.0 -0.14091220116299755 -1.011200422153455
4194000000.0 -0.16627874883275076 -0.9917739676456759
4197000000.0 -0.1576251290924615 -1.0044365959651689
4200000000.0 -0.1452081423370867 -1.0252651577616039
4203000000.0000005 -0.16160458770258476 -1.030158152903394
4206000000.0000005 -0.17290430959947387 -1.0137073569064072
4208999999.9999995 -0.19743222172908703 -0.9788830746687281
4211999999.9999995 -0.2173721416172276 -0.9800480923874496
4216000000.0 -0.17124110843225182 -1.02316548067642
4219000000.0000005 -0.19602173813717402 -1.0113844155643625
4222000000.0000005 -0.20140487950409625 -0.9871295812359807
4224999999.9999995 -0.21277771124517977 -0.9811305934494935
4227999999.9999995 -0.23011936477512154 -0.9793823341296488
4231000000.0 -0.2303930009955436 -0.9872715928443062
4234000000.0 -0.2630519815537908 -0.9932905583397585
4238000000.0000005 -0.28278614364381305 -0.9744548077070917
4240999999.9999995 -0.2792235023300375 -0.9452777021549231
4244000000.0 -0.2589788437988351 -0.9631297413702695
4247000000.0 -0.25366591508198444 -0.9530092663532677
4250000000.0 -0.26726106339195865 -0.9473079444590387
4253000000.0 -0.2788484375686154 -0.9412696965231215
4256000000.0 -0.2936957092974941 -1.0195891869593525
4259000000.0000005 -0.29378137487632355 -0.9260582669365139
4261999999.9999995 -0.3187802560783029 -0.9485608804713114
4266000000.0 -0.34218815928241975 -0.9712900238861912
4269000000.0 -0.3044991107738696 -0.9331193132649319
4272000000.0000005 -0.30400658586629775 -0.9505650188952992
4275000000.0000005 -0.2984955791748991 -0.9798836763970928
4277999999.9999995 -0.32062555980716323 -0.9884777920327894
4280999999.9999995 -0.336092838868432 -0.9771156787508222
4284000000.0 -0.3850789960277855 -0.9424314266322467
4288000000.0000005 -0.3090301652371437 -0.9412848159878981
4291000000.0000005 -0.3566289410349344 -0.9166139149683403
4293999999.9999995 -0.36636232643835304 -0.9452902900958491
4297000000.0 -0.3191118378322238 -0.9517236796508157
4300000000.0 -0.3547749386112597 -0.9209767515951399
4303000000.0 -0.38685322193079374 -0.9104068305419823
4306000000.0 -0.3904259402849868 -0.9273275389036626
4309000000.0 -0.3952582118141196 -0.9393604018649422
4312000000.0 -0.3815787578734438 -0.9665820422480353
4316000000.0 -0.40870026450124014 -0.9150682724692076
4319000000.0 -0.3919570219775026 -0.9193424074019712
4322000000.0 -0.45211968142852166 -0.8989831050956099
4325000000.0 -0.438114687225252 -0.9261128317912817
4328000000.0 -0.44156969310244265 -0.8963825486337426
4331000000.0 -0.47259907259089984 -0.8986897693760212
4334000000.0 -0.48611766680254975 -0.8827872719416444
4338000000.0 -0.4603048590807173 -0.9072761514663472
4341000000.0 -0.47781669878199634 -0.8969484558102631
4344000000.0 -0.486411401661333 -0.9163511392172445
4347000000.0 -0.5238553609020254 -0.8805364607623628
4350000000.0 -0.529687959576698 -0.8332881019232954
4353000000.0 -0.4902228598471163 -0.8451278145240738
4356000000.0 -0.5490101334431166 -0.8452643786152905
4359000000.0 -0.5349894269255973 -0.822692057914721
4362000000.0 -0.5696499568421818 -0.8347174180119974
4366000000.0 -0.5663890548196941 -0.8529619129288134
4369000000.0 -0.5654095956310613 -0.8281603597384071
4372000000.0 -0.5905089148635254 -0.8187419988400282
4375000000.0 -0.5649944099868542 -0.8256883262768354
4378000000.0 -0.6022042163581892 -0.8038195846960531
4381000000.0 -0.6036993811868357 -0.8016576356622527
4384000000.0 -0.6356968165278035 -0.8200431032753552
4388000000.0 -0.6128397371838183 -0.7877708226626087
4391000000.0 -0.6306297375652328 -0.7934212978441673
4394000000.0 -0.6520554570106875 -0.7913522428177127
4397000000.0 -0.6689073299248578 -0.785532584755331
4400000000.0 -0.6657309861789605 -0.753497111132713
4403000000.0 -0.6743514447802396 -0.7539416920355528
4406000000.0 -0.6798814204424024 -0.7472268853392378
4409000000.0 -0.6817586700450201 -0.73374893064061
4412000000.0 -0.7043310524889996 -0.7316802639274215
4416000000.0 -0.7067034008577124 -0.7329649385290464
4419000000.0 -0.7250343278133076 -0.7169708465948371
4422000000.0 -0.7332227038072755 -0.7446029342048224
4425000000.0 -0.736477157808761 -0.687230334825748
4428000000.0 -0.7660197003629421 -0.6933670050415227
4431000000.0 -0.7380406437411613 -0.6707890562821619
4434000000.0 -0.763959049340876 -0.6639174299693709
4438000000.0 -0.7683880940864803 -0.65644087169827
4441000000.0 -0.7837622138823196 -0.6374892340027646
4444000000.0 -0.7808735365820577 -0.6527520453536589
4447000000.0 -0.7903175818083067 -0.6308600156563029
4450000000.0 -0.8169074998699568 -0.5876327475473268
4453000000.0 -0.7962680096080367 -0.5997972408835449
4456000000.0 -0.8287048852510425 -0.6148966701239961
4459000000.0 -0.8870409717494481 -0.5993557523215954
4462000000.0 -0.8530935417033929 -0.5486724717881386
4466000000.0 -0.864918548350906 -0.5689355507029255
4469000000.0 -0.855856583652904 -0.5403175639121736
4472000000.0 -0.8405049940969841 -0.515057215193584
4475000000.0 -0.8990095796296331 -0.5097420061641246
4478000000.0 -0.8480498568178303 -0.5250541970076013
4481000000.0 -0.9014569880703269 -0.5041342656332216
4484000000.0 -0.9060588289090823 -0.4638245623460949
4488000000.0 -0.9388139384280633 -0.46635265627907857
4491000000.0 -0.890525238808038 -0.48991740654274524
4494000000.0 -0.9371046250591815 -0.4356234128220743
4497000000.0 -0.9360934442341953 -0.39348317491030116
4500000000.0 -0.9488406222011505 -0.3469694877626471
4503000000.0 -0.9787449070004635 -0.36286741552658985
4506000000.0 -0.9736878120631303 -0.30879483846230843
4509000000.0 -0.9658566202034262 -0.32257786528348775
4512000000.0 -0.9577845589946548 -0.3057784473394182
4516000000.0 -0.9895015655497431 -0.260529084998762
4519000000.0 -0.9968734812079133 -0.263180159346633
4522000000.0 -0.9909851019738911 -0.29409502105720936
4525000000.0 -1.0544565963035457 -0.19416387856583367
4528000000.0 -0.9988693969618738 -0.24893240592747218
4531000000.0 -1.0050302993349332 -0.18156120943518106
4534000000.0 -1.039910405801451 -0.13865461094425524
4538000000.0 -1.0245396625211252 -0.1584051248179213
4541000000.0 -1.0173161429117306 -0.16581764148390582
4544000000.0 -1.0891640332646133 -0.11101294623292718
4547000000.0 -1.0486662350919613 -0.06083232137939004
4550000000.0 -1.066170277425686 -0.11827750358186756
4553000000.0 -1.0061212623767948 -0.03990158885784617
4556000000.0 -1.1010529611665925 -0.05246806982626162
4559000000.0 -1.039147311706376 -0.01064158160236206
4562000000.0 -1.0154220522348543 0.003987655455636063
4566000000.0 -1.0569397971611587 -0.004623381293106021
4569000000.0 -1.076425541434865 0.05955832562053931
4572000000.0 -1.0361464999427956 0.0838052491021185
4575000000.0 -1.025024938790454 0.0668419136729192
4578000000.0 -1.0209586931198629 0.1124569481729103
4581000000.0 -1.0093503306083151 0.10680039051693468
4584000000.0 -1.0231739574429937 0.1451866418180115
4588000000.0 -1.004196735584942 0.1997327729310775
4591000000.0 -1.01706633398491 0.25454528202598936
4594000000.0 -1.034357836286334 0.19583423174959383
4597000000.0 -1.0229861098027357 0.2989361197699239
4600000000.0 -1.0646403739838033 0.2558242078754534
4603000000.0 -0.9736191896821805 0.29744680088736053
4606000000.0 -1.0401916455815756 0.3458380348319739
4609000000.0 -0.9853830058265831 0.30641025626970386
4612000000.0 -0.9293480410831003 0.3629988079307739
4616000000.0 -0.9294100076831183 0.3818970545585044
4619000000.0 -0.9474301884568299 0.4674359499706958
4622000000.0 -0.9472699211610994 0.49119350309378107
4625000000.0 -0.9892547974870622 0.5048326058915357
4628000000.0 -1.0248210538633968 0.5553545291891321
4631000000.0 -0.9060203038150962 0.5011935354146619
4634000000.0 -0.9213479376279664 0.5884786581814155
4638000000.0 -0.9102680816897863 0.5436264799157406
4641000000.0 -0.8432562013106312 0.5922214275171067
4644000000.0 -0.8417689920538903 0.5774888502754999
4647000000.0 -0.7836416730113744 0.6252708038778936
4650000000.0 -0.794972275638563 0.6488838424558022
4653000000.0 -0.7730499207897468 0.6758100599636344
4656000000.0 -0.7848176109805618 0.6410003967672665
4659000000.0 -0.7754416253016043 0.6956846408200124
4662000000.0 -0.756057104543024 0.6895227587515521
4666000000.0 -0.7463223575873482 0.8068525786813954
4669000000.0 -0.7652236126886593 0.774928456057878
4672000000.0 -0.70453609650406 0.8180606904913266
4675000000.0 -0.6557395491386233 0.8212088722877586
4678000000.0 -0.6705585738979386 0.7800912767058241
4681000000.0 -0.5988237290333593 0.8219796151191303
4684000000.0 -0.5447070743811695 0.8372083207796625
4688000000.0 -0.6024936443979231 0.8494763725646075
4691000000.0 -0.5592788094879323 0.8515055346407857
4694000000.0 -0.5577697586132568 0.9048656105145059
4697000000.0 -0.5254348326214313 0.9034263723381047
4700000000.0 -0.5221738364208794 0.9345612049658598
4703000000.0 -0.4682999854809199 0.8968510403625884
4706000000.0 -0.4920866055973436 0.8771475590193601
4709000000.0 -0.4464348770831103 0.9118817725734846
4712000000.0 -0.4109625148623263 0.9549831892821742
4716000000.0 -0.3771962578580976 0.97581837189316
4719000000.0 -0.3659222712295373 0.9726973173472496
4722000000.0 -0.3349243554830637 1.0371818950081018
4725000000.0 -0.27562545280660666 0.9859472917492107
4728000000.0 -0.2535300739705492 1.0289687561472658
4731000000.0 -0.28476075593911954 0.9299763782247811
4734000000.0 -0.22196123224633524 1.0058686681737696
4738000000.0 -0.22065662366508465 0.9553614426079361
4741000000.0 -0.1688371018516328 0.9780954422883325
4744000000.0 -0.15218929055323366 0.9929519650551752
4747000000.0 -0.14018553958611793 1.0390425347609162
4750000000.0 -0.098511850164348 0.9837375501787095
4753000000.0 -0.051415621870794 1.0365434929036261
4756000000.0 -0.03749335756433398 0.982959262808412
4759000000.0 0.0005553138633764276 1.0092457967041615
4762000000.0 -0.03703750562425273 1.0251133020455188
4766000000.0 0.033723570489557 0.9766323677493767
4769000000.0 0.04740424355424139 1.0678768208557765
4772000000.0 0.08458915673290043 1.0086323719226817
4775000000.0 0.08516653416755937 1.0098797083892548
4778000000.0 0.06158496365566013 0.991602121082996
4781000000.0 0.14129410868955505 1.0348447042126727
4784000000.0 0.15125085193384438 1.0234372001386927
4788000000.0 0.1517650594397043 1.0124239760766145
4791000000.0 0.23710397081431314 1.034819370407754
4794000000.0 0.23201456786793104 0.9361227046341764
4797000000.0 0.23976377455174458 1.0257003842756276
4800000000.0 0.28974718750839806 0.9871370306491416
4803000000.0 0.24338546653513637 0.984099515445044
4806000000.0 0.287936747963763 0.9583059020560424
4809000000.0 0.27235816176188177 0.9525881081612693
4812000000.0 0.33374820318958964 1.0000426718284396
4816000000.0 0.41029206080833164 0.9636842160454692
4819000000.0 0.4193688541205488 0.9064791716872757
4822000000.0 0.40599339532213197 0.9163160304728823
4825000000.0 0.44291003236022053 0.8883498326183745
4828000000.0 0.438436396407284 0.9183602320262327
4831000000.0 0.4172517300380973 0.9186838886161224
4834000000.0 0.48959687587171324 0.8464984439494105
4838000000.0 0.5143588956459236 0.8638878710805777
4841000000.0 0.5212244279914251 0.8699237925287648
4844000000.0 0.554129873843132 0.8488959460651514
4847000000.0 0.5715899828592594 0.8738787397707071
4850000000.0 0.5524428192929514 0.8245319522331983
4853000000.0 0.5830672161428185 0.8560822509510243
4856000000.0 0.6048889534073107 0.8435465099455861
4859000000.0 0.6164502056545719 0.7776651187583941
4862000000.0 0.6323787949484905 0.8172603207698297
4866000000.0 0.6106010202734944 0.7912878004859674
4869000000.0 0.6354901017527023 0.794435353827215
4872000000.0 0.6316369481009979 0.7309403813806092
4875000000.0 0.7112140931086193 0.7207510410204915
4878000000.0 0.7136161208658698 0.7290554597787895
4881000000.0 0.6535181357411118 0.7048338796149098
4884000000.0 0.6856930527237843 0.7256547750333213
4888000000.0 0.7479930599263138 0.7116666755727765
4891000000.0 0.7203154817077089 0.6935521293118432
4894000000.0 0.7321590144966438 0.686843945742533
4897000000.0 0.7517876407874171 0.6674044853700352
4900000000.0 0.7825790759346318 0.6350401969040688
4903000000.0 0.7747313380958636 0.6590658755487855
4906000000.0 0.7733301730921801 0.6471494823957701
4909000000.0 0.7833883319459395 0.6244907396537265
4912000000.0 0.7909172692661408 0.5942825586446399
4916000000.0 0.7986842884835788 0.6174788510055512
4919000000.0 0.8161207660298554 0.5693666645910967
4922000000.0 0.8266042742857397 0.592853873698143
4925000000.0 0.8007542352162476 0.5747640923907735
4928000000.0 0.858334990608685 0.5668508526540718
4931000000.0 0.8497815889716458 0.5681449024813452
4934000000.0 0.8409925495588391 0.5473922711254968
4938000000.0 0.8763024337348568 0.5374758550849517
4941000000.0 0.8707212173806539 0.5058249751462545
4944000000.0 0.875687326881117 0.5141903965297246
4947000000.0 0.8572587303266038 0.5042233286190617
4950000000.0 0.8917739360612615 0.46818907002595983
4953000000.0 0.9064341479355308 0.4686390565478221
4956000000.0 0.9095280260028699 0.488633911568415
4959000000.0 0.8927447320585504 0.45257764573149906
4962000000.0 0.893494924927752 0.43110820676572204
4966000000.0 0.8990518041535326 0.4404043685442137
4969000000.0 0.9001174761892037 0.4466958917540902
4972000000.0 0.9495078432062365 0.3796161826625303
4975000000.0 0.9235770385348842 0.412402524974014
4978000000.0 0.9264006994342452 0.38839470932360853
4981000000.0 0.9251218134318314 0.38137451905573255
4984000000.0 0.9372673111665317 0.38571389930696076
4988000000.0 0.9406958419093121 0.3732722200820815
4991000000.0 0.9670635169586563 0.3867508884645448
4994000000.0 0.9277558531598952 0.38107323103127605
4997000000.0 0.9581332831336589 0.3499688147701658
5000000000.0 0.9752376771855926 0.3547621092060524
5003000000.0 0.9832604644577037 0.33353308526286546
5006000000.0 0.9561811545944252 0.30737636594764417
5009000000.0 0.9698797852845031 0.32524341140113416
5012000000.0 0.9794575257946416 0.265148355403176
5016000000.0 0.9591147288856681 0.3329411289374953
5019000000.0 0.9521282089517147 0.2900948821558316
5022000000.0 0.9783655693405696 0.28137670747446936
5025000000.0 1.022293076374503 0.30800096106476577
5028000000.0 1.0250035140959382 0.23200882881485896
5031000000.0 0.9640209474102874 0.22065478687824386
5034000000.0 1.0363907219741568 0.22838878049235145
5038000000.0 0.9863790992919892 0.21302148779631247
5041000000.0 0.9928845352682276 0.2674770703730842
5044000000.0 0.9562458218148914 0.23905508569156458
5047000000.0 0.9916164789492281 0.25481582098088557
5050000000.0 0.9938708815796867 0.2583688930629493
5053000000.0 1.0450083373469883 0.21683738737245262
5056000000.0 0.9874214584013898 0.2156048679682222
5059000000.0 0.9989214168983238 0.256815196304817
5062000000.0 1.0223929219236298 0.14992943381396878
5066000000.0 0.9634888907792294 0.23172937631667984
5069000000.0 1.0073074092559016 0.14858224027879274
5072000000.0 0.9987088353778422 0.12169184436509195
5075000000.0 1.0190305546339062 0.16201940734579207
5078000000.0 1.031991026776659 0.1289205101876706
5081000000.0 1.0000863290238278 0.11269568985507705
5084000000.0 1.0639625440432616 0.11275588215804477
5088000000.0 1.0099599831612818 0.1484322586119825
5091000000.0 1.039196879798311 0.10327936790684117
5094000000.0 1.039632887003462 0.12501804107595232
5097000000.0 1.059965488779857 0.1639197863602852
5100000000.0 0.9879803719485074 0.1546629483696111
5103000000.0 0.9930080445214724 0.13425365131565348
5106000000.0 1.103222683294287 0.13196187291748546
5109000000.0 1.035693764369469 0.13442591471058646
5112000000.0 1.0132853460192852 0.062551947613177
5116000000.0 0.9687860798060763 0.11340104728731565
5119000000.0 1.0294114554910792 0.10793118657509082
5122000000.0 1.0362247280898242 0.08959889673019167
5125000000.0 1.0330079011213518 0.020290738881513615
5128000000.0 1.0408380645699649 0.03045262801181642
5131000000.0 0.9791377763136146 0.08033565312913138
5134000000.0 1.0297358844002444 0.054611489775213684
5138000000.0 1.0193099139682351 0.054028883115098736
5141000000.0 1.0321690118064355 0.059599879045098225
5144000000.0 1.0474451419831927 0.06840281914513485
5147000000.0 1.0424570972733924 0.02773970000388104
5150000000.0 0.9980374981116661 0.07243349410753086
5153000000.0 1.0152684326499088 0.02987606491977196
5156000000.0 1.0898288728196643 -0.005936034149594205
5159000000.0 1.0317739160752655 0.02947896765156044
5162000000.0 0.9908816019474498 0.033894495654544166
5166000000.0 1.0952642531790437 -0.07619105894032269
