! Created with skrf 1.8.0 (http://scikit-rf.org).
# Hz S RI R 50.0 
!freq ReS11 ImS11
4000000000.0 0.2155882530305418 -0.9994794114079596
4003000000.0 0.24094023300590545 -1.053844983295574
4006000000.0 0.21353933038978418 -1.0153388745303031
4009000000.0000005 0.2243801120801618 -1.0376119683516285
4011999999.9999995 0.2445707926373759 -0.9926190273771858
4016000000.0 0.1584255076913068 -1.0436868429798623
4019000000.0 0.229329139427767 -0.9649631775326908
4022000000.0000005 0.23412910333764742 -1.0496586612031429
4025000000.0000005 0.17987016434943148 -1.0266490386456752
4027999999.9999995 0.17714795513115494 -0.9983096774056863
4030999999.9999995 0.19653734824925623 -0.9756717333904302
4034000000.0 0.1943624684795817 -0.9711131701119315
4038000000.0000005 0.17633004537284913 -1.0188483866900988
4041000000.0000005 0.17542446266548797 -1.017086270938304
4043999999.9999995 0.18290417011711996 -1.0295501647406824
4046999999.9999995 0.19229955839573262 -1.0627045591160216
4050000000.0 0.1592174284042332 -1.0179257815054865
4053000000.0 0.16023089014886838 -1.00239046354175
4056000000.0 0.205014809852955 -1.0240612205992354
4059000000.0 0.17099753236910495 -1.0028459609312448
4062000000.0000005 0.1521577823505947 -0.9995059681102334
4066000000.0 0.20420722160219687 -0.9749954976884343
4069000000.0 0.11976882634766037 -1.0228591003509286
4072000000.0 0.17577733180169564 -1.0018974472399154
4075000000.0 0.1958830698573266 -1.0029822547283993
4078000000.0000005 0.12263521480524117 -0.9889283297895604
4081000000.0000005 0.1673947815064371 -1.0174388611741632
4083999999.9999995 0.1481871977910571 -1.0647878383541416
4088000000.0 0.19485866525545337 -0.9855921199093975
4091000000.0 0.17549289777440735 -1.0459827707404732
4094000000.0000005 0.16123144154488966 -1.005204258619013
4097000000.0000005 0.17556275975267915 -1.032471181113484
4099999999.9999995 0.1407377289391231 -1.0057076551139235
4102999999.9999995 0.1850349407702377 -1.0293586760686946
4106000000.0 0.13788751249136905 -1.0080118395708766
4109000000.0 0.1465686276772828 -1.0230157508110231
4112000000.0 0.15490492586988916 -0.9903406686491317
4115999999.9999995 0.12137755187376775 -1.0305951508598752
4119000000.0 0.14653543051389395 -1.0202597905201238
4122000000.0 0.12450297694785935 -1.0129073314035903
4125000000.0 0.118247197422684 -1.0316353999854662
4128000000.0 0.13808300292141332 -1.006255499590534
4131000000.0 0.10205581969252439 -0.9840342771993871
4134000000.0000005 0.14595152791844884 -1.0089508621269703
4138000000.0 0.10537983984311872 -0.9773873141102664
4141000000.0 0.15121675345932423 -1.0115355096104255
4144000000.0 0.142290268088895 -1.0014899477982204
4147000000.0000005 0.10512581799264364 -1.0318617294919412
4150000000.0000005 0.11024829444114496 -1.0084401396449219
4152999999.9999995 0.11079038967361376 -1.0269941216630472
4155999999.9999995 0.11580157537350663 -1.0221966891973602
4159000000.0 0.08886038081797226 -0.9841572482927652
4162000000.0 0.10263809852459996 -1.0120968194424258
4166000000.0000005 0.07813586188978315 -1.0459192966775397
4168999999.9999995 0.07824187229956195 -1.003431598231967
4171999999.9999995 0.10050285179405473 -1.0098886183237417
4175000000.0 0.13233457157690007 -1.0242968487985882
4178000000.0 0.10526675945584589 -1.0154199559144197
4181000000.0 0.055294456991852384 -1.007461652713457
4184000000.0 0.11028052749068099 -0.9958430818336071
4187999999.9999995 0.06378146396648074 -1.0029882444642397
4191000000.0 0.1125638526683272 -1.0002272093640845
4194000000.0 0.08350360984655036 -1.006966136627348
4197000000.0 0.08772196187354898 -1.0223259356678822
4200000000.0 0.09912973285505768 -1.0298812104636426
4203000000.0000005 0.09019715631007305 -1.04926951514757
4206000000.0000005 0.07227135799895404 -1.0191302472818453
4208999999.9999995 0.05707488119514653 -0.9976539343280815
4211999999.9999995 0.024814190486334625 -1.0098534065988276
4216000000.0 0.0775294051832831 -1.034682520129602
4219000000.0000005 0.07153092189008933 -1.0261713679853388
4222000000.0000005 0.055611471988482375 -1.0020628172946695
4224999999.9999995 0.046079661710331316 -0.9944489832813497
4227999999.9999995 0.0509647656393977 -1.0095931127587296
4231000000.0 0.03206581068845801 -1.0114922232465415
4234000000.0 0.012057360002953932 -1.0353598589056432
4238000000.0000005 0.007464511372209215 -1.019981838186943
4240999999.9999995 0.0031436954717087295 -0.9945710697883876
4244000000.0 0.021823466094776034 -1.0126049481896486
4247000000.0 0.02005291771947154 -0.975461114158489
4250000000.0 0.016856679481904724 -0.9797189336649917
4253000000.0 -0.0017458772184898996 -0.9869028424410424
4256000000.0 0.0017812847051332792 -1.0548183843138825
4259000000.0000005 -0.016333421833737594 -0.9669812774195301
4261999999.9999995 -0.030723148415415236 -1.0016962377796197
4266000000.0 -0.02044098585040255 -1.0240476110140022
4269000000.0 -0.000785175198370347 -0.9908478619049443
4272000000.0000005 -0.006190966839315637 -0.9977913718913274
4275000000.0000005 0.009991723634200533 -1.00162649193425
4277999999.9999995 -0.023291414596091575 -1.0487409695982217
4280999999.9999995 -0.012829613779172244 -1.0340333247850755
4284000000.0 -0.09232652227194205 -1.01750932846442
4288000000.0000005 -0.009438463776249628 -1.024058567442442
4291000000.0000005 -0.057838685454962124 -0.9788306196591484
4293999999.9999995 -0.048378027833472725 -1.0184290820493644
4297000000.0 -0.02277906250356687 -0.9963556940305387
4300000000.0 -0.02577268025066154 -1.0075789199129614
4303000000.0 -0.06081477424253451 -0.9914971301439607
4306000000.0 -0.014009296901381696 -1.0204986432479366
4309000000.0 -0.07063524238478647 -0.9980877694657827
4312000000.0 -0.021159349631286406 -1.0198011755993517
4316000000.0 -0.032165181785485 -1.0157766323423458
4319000000.0 -0.06399441222963531 -0.987135614945104
4322000000.0 -0.11344039415075341 -0.987460724126073
4325000000.0 -0.07649547738577017 -1.0103510817067995
4328000000.0 -0.08086183672977942 -0.9715202490737251
4331000000.0 -0.10567657283216547 -1.003543266812018
4334000000.0 -0.09610890211229861 -1.0002760652780318
4338000000.0 -0.07120591331713189 -1.0056414621163987
4341000000.0 -0.07099852725813377 -1.020025304428172
4344000000.0 -0.10361605954609548 -1.0371648926982056
4347000000.0 -0.1391089965589729 -1.0184685391617851
4350000000.0 -0.11353496752504005 -0.957542532078407
4353000000.0 -0.10724665462694494 -0.9885401234597305
4356000000.0 -0.16528751083395793 -0.9729344271477609
4359000000.0 -0.134200179512026 -0.964977006173829
4362000000.0 -0.18660828054866002 -0.9956684647817651
4366000000.0 -0.1342744830025414 -1.0072872092019292
4369000000.0 -0.153593067758856 -0.9667815916438798
4372000000.0 -0.17705670654695044 -0.9836554001435569
4375000000.0 -0.13679700966593517 -1.0009368070023366
4378000000.0 -0.1606409045581531 -0.9735583836783632
4381000000.0 -0.17887181444276534 -0.9689373703131756
4384000000.0 -0.20219047521558275 -1.030927317004578
4388000000.0 -0.1803483932828404 -0.9821373397661546
4391000000.0 -0.20042749078101513 -0.9943015773985899
4394000000.0 -0.21090000908415196 -0.9768370337359098
4397000000.0 -0.21578508595643942 -0.9900508688612712
4400000000.0 -0.2165174929061645 -0.9964534045618355
4403000000.0 -0.24068042925905492 -0.9868323266894954
4406000000.0 -0.22534533996855177 -0.9875945858639897
4409000000.0 -0.23904255402220648 -0.9958658839133685
4412000000.0 -0.2759353395179976 -0.9631899594752338
4416000000.0 -0.2553035990692301 -0.9561523719123484
4419000000.0 -0.25568449282262184 -0.9659240934793915
4422000000.0 -0.24235357652581418 -0.9804575870523421
4425000000.0 -0.24902879311329107 -0.9928173590488639
4428000000.0 -0.25934719368877546 -1.0004592388004394
4431000000.0 -0.2715604784950659 -0.9782883560918914
4434000000.0 -0.26269458103390764 -0.9761436669538002
4438000000.0 -0.28294793356787645 -0.9852666672580379
4441000000.0 -0.2934317530635848 -0.9735078559799338
4444000000.0 -0.28862044231192135 -0.9797360596112862
4447000000.0 -0.3171905188684223 -0.9605126057694433
4450000000.0 -0.31266516982970727 -0.955757448657935
4453000000.0 -0.3019225751801173 -0.9577427443783426
4456000000.0 -0.32091976608952744 -0.9372912604663993
4459000000.0 -0.2940205750301914 -0.9660755033838014
4462000000.0 -0.3462169772823773 -0.9470179590877065
4466000000.0 -0.3355429931518486 -0.976053093520673
4469000000.0 -0.33770736086753866 -0.968718347812614
4472000000.0 -0.3504713512634132 -0.9316614932162994
4475000000.0 -0.3619302128395423 -0.9639897861216778
4478000000.0 -0.39637063343229634 -0.9525968422271086
4481000000.0 -0.36270155145637106 -0.9074139085852476
4484000000.0 -0.4339103246831115 -0.9512819973666642
4488000000.0 -0.40639440309039776 -0.9444948151631273
4491000000.0 -0.3893744149346335 -0.9339335283922267
4494000000.0 -0.3665939490160005 -0.9478968520109807
4497000000.0 -0.3968287899967239 -0.9459461527137644
4500000000.0 -0.4188557502768291 -0.9010440938347017
4503000000.0 -0.44742409689965157 -0.9203935208506262
4506000000.0 -0.43253684071101295 -0.9091513114845882
4509000000.0 -0.43694921429252725 -0.8784571225098806
4512000000.0 -0.4297835106933968 -0.8931689074835729
4516000000.0 -0.478449274067703 -0.9340416148061486
4519000000.0 -0.4458904019190655 -0.88269719321136
4522000000.0 -0.48060867345416663 -0.8983649697870579
4525000000.0 -0.48141319686577155 -0.9166194101990703
4528000000.0 -0.5001360966102129 -0.8845035417060512
4531000000.0 -0.5215708064123149 -0.8763922933362703
4534000000.0 -0.5376198145600978 -0.8920788512086423
4538000000.0 -0.5176248651896351 -0.900462975937395
4541000000.0 -0.5299661068722038 -0.8524270218644177
4544000000.0 -0.5361766617525756 -0.8635371695005747
4547000000.0 -0.5793170886750925 -0.8755810754963608
4550000000.0 -0.5782750255719827 -0.8889769750012794
4553000000.0 -0.5712791322490811 -0.8266690136189068
4556000000.0 -0.5701168622142048 -0.876180478500457
4559000000.0 -0.5757777310645222 -0.8422293072830032
4562000000.0 -0.5702488099723423 -0.8251087318145829
4566000000.0 -0.5829953861045976 -0.8286641060277397
4569000000.0 -0.6284548025545178 -0.8360676570160533
4572000000.0 -0.6211877591423911 -0.8123913553833111
4575000000.0 -0.5803011494609925 -0.8135690869745329
4578000000.0 -0.6173095855278157 -0.8069102001647059
4581000000.0 -0.6024565096784016 -0.7801618322360068
4584000000.0 -0.6335592159350647 -0.788321207227013
4588000000.0 -0.6588859604996927 -0.782953366446515
4591000000.0 -0.6638674819173913 -0.7743229990975696
4594000000.0 -0.6677836819037575 -0.7695524768967792
4597000000.0 -0.6960767696044516 -0.7521190855622597
4600000000.0 -0.6900531722981018 -0.7839733515322673
4603000000.0 -0.6970613119532054 -0.721066816506971
4606000000.0 -0.7255527010122446 -0.7821197283362926
4609000000.0 -0.671755335325004 -0.758420176237815
4612000000.0 -0.7026195436273035 -0.6889095314729525
4616000000.0 -0.7131547190306927 -0.6897906980103772
4619000000.0 -0.7787918336717905 -0.7062436730351904
4622000000.0 -0.7899063257155844 -0.6501898951608447
4625000000.0 -0.8088702353649662 -0.7031358004742936
4628000000.0 -0.858584291541454 -0.7463944053725979
4631000000.0 -0.7562904285840358 -0.7348350081333133
4634000000.0 -0.8005211073902593 -0.6522151120159763
4638000000.0 -0.7812848698725899 -0.6592872683693801
4641000000.0 -0.7947716120692548 -0.6564268675579533
4644000000.0 -0.7902338883181064 -0.621591302000442
4647000000.0 -0.8050769648385054 -0.6010156050727747
4650000000.0 -0.8227941510807639 -0.5999742957381019
4653000000.0 -0.8064717459971162 -0.5503838036325989
4656000000.0 -0.8151702733826193 -0.6126689118741623
4659000000.0 -0.8673717975622925 -0.567042991339255
4662000000.0 -0.8440792472292872 -0.5396322943180394
4666000000.0 -0.9246404497578236 -0.5513062597296959
4669000000.0 -0.9052812732028895 -0.5745434930753014
4672000000.0 -0.9247443739015989 -0.5989453143997503
4675000000.0 -0.9417912799428183 -0.5696186062855243
4678000000.0 -0.8527619771843076 -0.49324113070857895
4681000000.0 -0.9011138373732392 -0.4740786906539017
4684000000.0 -0.9614184424490029 -0.4672505877693075
4688000000.0 -0.9448740653139555 -0.45967366243052366
4691000000.0 -0.993785135380706 -0.5237657427620427
4694000000.0 -0.8622186574898107 -0.46487949507850485
4697000000.0 -0.9159865372819377 -0.37865741174801915
4700000000.0 -0.9613922868493262 -0.4243322969622306
4703000000.0 -0.8558165429680743 -0.418382485402237
4706000000.0 -0.9249797049074684 -0.36232949392487757
4709000000.0 -0.9795898947849212 -0.36002805090196655
4712000000.0 -0.9483042364651166 -0.3584626507712282
4716000000.0 -1.0017046373353415 -0.3704421470442852
4719000000.0 -0.9596182436707464 -0.38773534519020547
4722000000.0 -0.9722442786998238 -0.3132857561723372
4725000000.0 -0.9425305809364459 -0.33237445457086817
4728000000.0 -1.0248361955834435 -0.30261546922836113
4731000000.0 -1.0424545638726836 -0.30498814770536875
4734000000.0 -0.9929985167019966 -0.25234205224855516
4738000000.0 -1.0733491393616175 -0.2618475446701086
4741000000.0 -1.0305921126850943 -0.20112098706393872
4744000000.0 -1.025879532570024 -0.1887918837585143
4747000000.0 -1.0103545128580396 -0.18871799073877343
4750000000.0 -1.0511257724615777 -0.1604561790188609
4753000000.0 -1.026403305166752 -0.14777657322610055
4756000000.0 -1.0509769958813664 -0.08758665322941371
4759000000.0 -1.047746547259112 -0.12859960760075448
4762000000.0 -1.071921080416097 -0.05836764377489681
4766000000.0 -1.020487021250989 -0.014849674463726523
4769000000.0 -1.0799741539271783 -0.006874880600072408
4772000000.0 -1.0226443758096342 0.013888925064479696
4775000000.0 -1.0682219805769604 0.026836925948334145
4778000000.0 -1.0398299691714465 0.08843706561132794
4781000000.0 -1.0189140023757342 0.06956822415696376
4784000000.0 -1.0213499249506404 0.08647087526938754
4788000000.0 -1.0576535263600146 0.14847982339952195
4791000000.0 -1.036274715067166 0.12355992684754794
4794000000.0 -1.037172319631022 0.13785746206248942
4797000000.0 -1.0310500723943765 0.1440333919745295
4800000000.0 -1.0063310399657348 0.22783029157964835
4803000000.0 -1.015184498266722 0.22393237329737536
4806000000.0 -1.0348108433544714 0.2461992880056217
4809000000.0 -1.0132486935030351 0.2857652311044736
4812000000.0 -1.0234261078422626 0.2803644693526952
4816000000.0 -0.9841770793612168 0.3063400869635059
4819000000.0 -0.9573556979262658 0.3749329386469568
4822000000.0 -0.9856492859923599 0.37923891805667787
4825000000.0 -0.9676149710134009 0.38731749919040864
4828000000.0 -0.9527843586520318 0.4068199080574002
4831000000.0 -0.9544933969159347 0.4163075371427382
4834000000.0 -0.9088658223720247 0.4950565252809028
4838000000.0 -0.8846800952981572 0.48731003423731456
4841000000.0 -0.8918623872483394 0.49830271894685285
4844000000.0 -0.8977914365172439 0.5480456369754545
4847000000.0 -0.8909957641353681 0.5611441750550155
4850000000.0 -0.8497532003385634 0.5471040782228553
4853000000.0 -0.8289997343432972 0.6088184608591762
4856000000.0 -0.8392534559395723 0.627286405431175
4859000000.0 -0.7470469428148372 0.6907099810090183
4862000000.0 -0.776749420860203 0.6605702802166562
4866000000.0 -0.8066753715002034 0.666972604054029
4869000000.0 -0.7662394593908772 0.7144172118684723
4872000000.0 -0.7259754673553952 0.6729713418726069
4875000000.0 -0.64842995261307 0.7673494376721856
4878000000.0 -0.6729428730851452 0.7256193927613839
4881000000.0 -0.6626259954037701 0.728349839480444
4884000000.0 -0.6618014800740404 0.8155010594657082
4888000000.0 -0.6277284922751694 0.8385658871993796
4891000000.0 -0.544845045852639 0.806746296723113
4894000000.0 -0.6011339840082968 0.8059334681702897
4897000000.0 -0.5254427343816379 0.8431120177581185
4900000000.0 -0.490340134168865 0.8669145596852359
4903000000.0 -0.4707543351437899 0.923443485550447
4906000000.0 -0.4927867124316739 0.8767540931460756
4909000000.0 -0.4503290008681706 0.9084637509616548
4912000000.0 -0.3851639620585113 0.8447741421004354
4916000000.0 -0.36289001182822955 0.8952460400601425
4919000000.0 -0.33456010728291363 0.8966845837344255
4922000000.0 -0.31785953311597365 0.9499537622219749
4925000000.0 -0.34473319092353594 0.9259054673871612
4928000000.0 -0.28311988990693776 1.0171894644691664
4931000000.0 -0.2588029926356787 0.9799814018926907
4934000000.0 -0.2801499876004347 0.9998675073691484
4938000000.0 -0.230261612136403 1.0152992208827538
4941000000.0 -0.1753588134190484 0.9932695762246595
4944000000.0 -0.16371549131823304 1.0703017174533003
4947000000.0 -0.16951643134251504 1.0414139515719572
4950000000.0 -0.11556826508256524 1.032538168623932
4953000000.0 -0.12698092758737523 0.9627806782041162
4956000000.0 -0.10709955610766975 1.032976591209346
4959000000.0 -0.0702021135623076 1.0150972212502953
4962000000.0 -0.004839691190626216 0.9793060582998572
4966000000.0 0.038617088013079504 0.9729541912527786
4969000000.0 0.025801784924223137 0.9782895129705995
4972000000.0 0.05429037634971079 0.9963991063564415
4975000000.0 0.12453225493691567 1.0087728131134424
4978000000.0 0.08423578426739675 0.9803787699900206
4981000000.0 0.11603365629811174 0.9626824502773286
4984000000.0 0.17443441952121397 1.0050603540612866
4988000000.0 0.1786597497815019 0.9982938219986788
4991000000.0 0.23113694099521265 1.015049208796589
4994000000.0 0.2307312222047137 0.9579664435434643
4997000000.0 0.2140216824874573 0.9840531249123481
5000000000.0 0.29494639863055394 0.9656549190848895
5003000000.0 0.2838071137508184 0.9468267929968235
5006000000.0 0.30627330474187264 0.9318357017583128
5009000000.0 0.34672929682763437 0.9257847452081299
5012000000.0 0.3612424108507894 0.952453706655914
5016000000.0 0.3586352189419267 0.9353233055402812
5019000000.0 0.3865834293698265 0.9380381426596565
5022000000.0 0.43975126082407623 0.8940841001993622
5025000000.0 0.4298544018761955 0.8982524305420004
5028000000.0 0.4654894787348177 0.9124755345055969
5031000000.0 0.4718843241752051 0.8740351548267373
5034000000.0 0.4880717179352127 0.8911884782559572
5038000000.0 0.4819345200580676 0.8776712924891716
5041000000.0 0.49460104394008714 0.8760506952289389
5044000000.0 0.5012888435471905 0.8303509222108476
5047000000.0 0.520186491031096 0.874791780584383
5050000000.0 0.5208588111797894 0.8399961964445616
5053000000.0 0.5766204238276004 0.8510894496614302
5056000000.0 0.5581636516998018 0.8312949482583467
5059000000.0 0.5890175798841282 0.825874372339744
5062000000.0 0.6259833646746253 0.8075097741307661
5066000000.0 0.6293153996784687 0.756312514219802
5069000000.0 0.6422435086780576 0.8062704045287828
5072000000.0 0.6486200907823408 0.7759775553056731
5075000000.0 0.6965580592992724 0.7713067037982945
5078000000.0 0.7182303749620556 0.7526143782542734
5081000000.0 0.6702394703161141 0.700421399199778
5084000000.0 0.7430129749742997 0.7483575654061779
5088000000.0 0.7047565193860933 0.701903984503232
5091000000.0 0.7624513536034043 0.7032435829065171
5094000000.0 0.7435497438359394 0.6873489354053093
5097000000.0 0.7643074427134899 0.7188466868563652
5100000000.0 0.7420083067227963 0.673598443655111
5103000000.0 0.73659089838904 0.6556870490385545
5106000000.0 0.8087336789320376 0.6883493495538081
5109000000.0 0.7520797090618165 0.6653900407049184
5112000000.0 0.7657093018501067 0.6300566549391275
5116000000.0 0.747137516680968 0.6196533554387299
5119000000.0 0.7550563124125081 0.6276752702415038
5122000000.0 0.797002321249578 0.6226439307308876
5125000000.0 0.8064581714440889 0.5858442249418525
5128000000.0 0.8618996229582498 0.5719698810202645
5131000000.0 0.8371762443857218 0.5407936815395354
5134000000.0 0.8280152002502245 0.567468415771559
5138000000.0 0.8291713842294507 0.5309514741039588
5141000000.0 0.8516648395496974 0.5862196303409524
5144000000.0 0.9110884108317361 0.5585848121458052
5147000000.0 0.8854275134517025 0.5170722539093817
5150000000.0 0.8549556529782146 0.5085465383576097
5153000000.0 0.8502628205494611 0.5096926818053018
5156000000.0 0.906247706350328 0.525002974551786
5159000000.0 0.883525226536815 0.5060379664913719
5162000000.0 0.88808670694017 0.47158669209695975
