! Created with skrf 1.8.0 (http://scikit-rf.org).
# Hz S RI R 50.0 
!freq ReS11 ImS11
4000000000.0 0.575058834602718 -0.8312223195778404
4003000000.0 0.5847805246824743 -0.9427964410077454
4006000000.0 0.5015178016542529 -0.912491444825615
4009000000.0000005 0.5552529705517925 -0.8915117959365244
4011999999.9999995 0.6468117348377783 -0.8946344054220454
4016000000.0 0.5133300900605358 -0.8909373339531172
4019000000.0 0.5397261366954 -0.9074956357304342
4022000000.0000005 0.6591910117255555 -0.8690388586995583
4025000000.0000005 0.5084324908041551 -0.9302651422072643
4027999999.9999995 0.5510330733270263 -0.9117447872319059
4030999999.9999995 0.5529346503448707 -0.8634677746294674
4034000000.0 0.552403395839094 -0.8433860014931518
4038000000.0000005 0.5433047275615229 -0.8545835441429476
4041000000.0000005 0.5300101857369448 -0.8524763485235474
4043999999.9999995 0.5815832969789814 -0.9562855275298572
4046999999.9999995 0.6033184167467902 -0.8905982482496564
4050000000.0 0.5305195116313031 -0.8906351126273013
4053000000.0 0.5240271337324419 -0.8604746509048831
4056000000.0 0.543012531737672 -0.883999136719499
4059000000.0 0.5374416861655426 -0.8878836154153965
4062000000.0000005 0.4946201571016681 -0.9143181068480078
4066000000.0 0.5155172090760474 -0.8349501770855023
4069000000.0 0.5431025923441082 -0.9096427107120224
4072000000.0 0.5980840788241178 -0.8688136580805101
4075000000.0 0.6142480376911853 -0.9067779499301057
4078000000.0000005 0.5532357704887485 -0.9284550252001039
4081000000.0000005 0.6258925672323017 -0.858904533076112
4083999999.9999995 0.5455083167567873 -0.9125956034778806
4088000000.0 0.5843264959091188 -0.8150628663159076
4091000000.0 0.584049985415656 -0.954599630743096
4094000000.0000005 0.5834356949895994 -0.8255701121695369
4097000000.0000005 0.5562961683951153 -0.8624183831630532
4099999999.9999995 0.5383242783765392 -0.8602222656214984
4102999999.9999995 0.5499110572742003 -0.9102507586388352
4106000000.0 0.5576412055178308 -0.8882168050004905
4109000000.0 0.5347981347704647 -0.884008271728143
4112000000.0 0.5412786308084909 -0.8492711334617168
4115999999.9999995 0.5874804533486994 -0.8245076372550529
4119000000.0 0.509686838656532 -0.8913700386012027
4122000000.0 0.5177829846784787 -0.906571387996499
4125000000.0 0.5245949582525282 -0.9006930167962556
4128000000.0 0.5345531801684021 -0.8051014078801497
4131000000.0 0.5189978022730513 -0.8614194740883546
4134000000.0000005 0.5543459720395493 -0.8763306172947217
4138000000.0 0.526650323676301 -0.8368307242354036
4141000000.0 0.5354269244513163 -0.8870635074821205
4144000000.0 0.5877619376925292 -0.8677094425322837
4147000000.0000005 0.5299577750151456 -0.860639401124765
4150000000.0000005 0.5621068056331138 -0.9125642430302789
4152999999.9999995 0.5454595123665891 -0.8700722370558749
4155999999.9999995 0.5624869429820821 -0.8623220620680567
4159000000.0 0.5133010918793601 -0.8480019087949077
4162000000.0 0.5568096491774255 -0.8591634173224028
4166000000.0000005 0.5443375237796968 -0.8706058230791135
4168999999.9999995 0.5386241021464596 -0.8597120814400957
4171999999.9999995 0.585769983323551 -0.8596085779320919
4175000000.0 0.5683872278880424 -0.869133394800791
4178000000.0 0.5511700520784112 -0.8873857833973621
4181000000.0 0.5366164900769863 -0.878295995646425
4184000000.0 0.5497081245907882 -0.8776958664819388
4187999999.9999995 0.5476842200516758 -0.8731172189172868
4191000000.0 0.5779624698093899 -0.8358953374608159
4194000000.0 0.5414195652461865 -0.8554562985151513
4197000000.0 0.571684397777798 -0.869422489930637
4200000000.0 0.5641516088543876 -0.8650121675494986
4203000000.0000005 0.545515339151909 -0.8627572022517062
4206000000.0000005 0.5638429636258242 -0.8662327964229012
4208999999.9999995 0.5576880575491965 -0.8435041374004328
4211999999.9999995 0.530375144968696 -0.8981639134392009
4216000000.0 0.5692317604195942 -0.8589119006922417
4219000000.0000005 0.5620804437687577 -0.8607109986624822
4222000000.0000005 0.5410902918233431 -0.8762207748209796
4224999999.9999995 0.5566052161579976 -0.8565789424770481
4227999999.9999995 0.5607410271606087 -0.876659714724137
4231000000.0 0.5520967489289899 -0.8652414729881268
4234000000.0 0.5464307972387974 -0.8665351203697611
4238000000.0000005 0.5369448636420437 -0.8628095695551016
4240999999.9999995 0.5245083752510823 -0.8591765125573495
4244000000.0 0.5741017547756115 -0.8577796080564156
4247000000.0 0.5659713520533726 -0.8463537190201824
4250000000.0 0.5285896148418413 -0.8559663489742697
4253000000.0 0.519582728318677 -0.8437850562769478
4256000000.0 0.5493663077664892 -0.8737727048740486
4259000000.0000005 0.5200244480147423 -0.8341867304330481
4261999999.9999995 0.5209373160336523 -0.8634117289373433
4266000000.0 0.5483090130891751 -0.8856521567174547
4269000000.0 0.5575990442491525 -0.8634818100517547
4272000000.0000005 0.5424196119537904 -0.8501162621127949
4275000000.0000005 0.5501832893770955 -0.8735445983598957
4277999999.9999995 0.5465661513475961 -0.8973505390751514
4280999999.9999995 0.5602514257074145 -0.8554718509226364
4284000000.0 0.5170866645960652 -0.8744883678563672
4288000000.0000005 0.5911593390805261 -0.8431142383344024
4291000000.0000005 0.5328496839007572 -0.8346813200472474
4293999999.9999995 0.5231912300923012 -0.8534685076567435
4297000000.0 0.5486122447063791 -0.8314162845231853
4300000000.0 0.5751994300268205 -0.8325636920215862
4303000000.0 0.5626861635548702 -0.8563087979704658
4306000000.0 0.5568302122612684 -0.83926935338619
4309000000.0 0.5743717422940824 -0.8524494505257044
4312000000.0 0.6007884733236797 -0.8287839183400822
4316000000.0 0.5720479295164265 -0.8601465486931801
4319000000.0 0.5383314176265859 -0.8511973702164685
4322000000.0 0.535102397360764 -0.8603517127067124
4325000000.0 0.5457894714631019 -0.8940696954862921
4328000000.0 0.5581040905402306 -0.8663601339667018
4331000000.0 0.5123910880063881 -0.8714346717101875
4334000000.0 0.5599131332201365 -0.8541476286915941
4338000000.0 0.5686787458039775 -0.8493763828106883
4341000000.0 0.5820190731367327 -0.8437473481426905
4344000000.0 0.5761456525694962 -0.8640445893082551
4347000000.0 0.5234747165565763 -0.8573425557671311
4350000000.0 0.5493530872551393 -0.8358847083477959
4353000000.0 0.542485982912579 -0.8211766432279431
4356000000.0 0.5210197940928206 -0.8434142845790233
4359000000.0 0.51868662642829 -0.8260305345434297
4362000000.0 0.5178113699208311 -0.8688916343645663
4366000000.0 0.549284976879663 -0.8752051925494145
4369000000.0 0.5185317915274649 -0.8297233255756119
4372000000.0 0.5079051791842759 -0.8725533086887649
4375000000.0 0.5646826028942814 -0.8490255243999445
4378000000.0 0.5206768280918557 -0.8493630901820071
4381000000.0 0.5519194311894249 -0.8304577304719332
4384000000.0 0.5653603977918081 -0.9153549296620235
4388000000.0 0.5483155649352042 -0.8247897217432323
4391000000.0 0.5495172696411528 -0.8662551447692837
4394000000.0 0.5202165281639337 -0.8329895383806795
4397000000.0 0.5133358554867764 -0.8568012119728736
4400000000.0 0.5590692517569583 -0.8858619085527009
4403000000.0 0.5551023318694703 -0.8703063420634889
4406000000.0 0.5212188245408963 -0.8630135879726938
4409000000.0 0.5525855914100478 -0.8914215755891761
4412000000.0 0.4810316388076542 -0.883772910854261
4416000000.0 0.5195872435039511 -0.85037748274843
4419000000.0 0.5187622757970434 -0.8668725605016101
4422000000.0 0.5410274911078923 -0.8477009681686506
4425000000.0 0.57380139307172 -0.854231698826333
4428000000.0 0.5286252910381297 -0.8728257760743865
4431000000.0 0.572206185844304 -0.8691810398503212
4434000000.0 0.5271810536847195 -0.8578722178324913
4438000000.0 0.5486027920585272 -0.866792383783075
4441000000.0 0.5548553991248256 -0.8719702666034811
4444000000.0 0.5323529591755952 -0.8458214893447182
4447000000.0 0.5106255137289331 -0.862308731214814
4450000000.0 0.5442969836514583 -0.8455392822349814
4453000000.0 0.5363342259512343 -0.8749269785058695
4456000000.0 0.5126538771943985 -0.8468600328480433
4459000000.0 0.5024949083662232 -0.8293814413316616
4462000000.0 0.5431892699329669 -0.9030293781771557
4466000000.0 0.5393476205576639 -0.9073534605014631
4469000000.0 0.5462670701541041 -0.8558413177203967
4472000000.0 0.5225169263889033 -0.8976195652776487
4475000000.0 0.5189034836760802 -0.8389097081447083
4478000000.0 0.54289001373364 -0.911057543797265
4481000000.0 0.4926836288172331 -0.8555080673717724
4484000000.0 0.47658713216480253 -0.886216563083454
4488000000.0 0.5154845934575889 -0.8854261650223801
4491000000.0 0.5226660016655409 -0.8798193988601771
4494000000.0 0.5178084358470041 -0.8576019586635864
4497000000.0 0.5500802055124173 -0.8436706463103807
4500000000.0 0.5484809331373084 -0.8619377661882177
4503000000.0 0.5473496452272053 -0.8859333706591801
4506000000.0 0.5376990819543156 -0.8578504465971267
4509000000.0 0.5218883201184878 -0.8425645766499875
4512000000.0 0.4998835348010917 -0.8632271313099962
4516000000.0 0.557706204020679 -0.8741982146121796
4519000000.0 0.5264414883817365 -0.8533719334833582
4522000000.0 0.5125607607179203 -0.8733692758740209
4525000000.0 0.5449384450292418 -0.8323035159236061
4528000000.0 0.5592913917180702 -0.8940358189899128
4531000000.0 0.5457256957025444 -0.8445033291105914
4534000000.0 0.5190678543545119 -0.8522461444720667
4538000000.0 0.5016196992154832 -0.8663250437731477
4541000000.0 0.49516320597622443 -0.8550034076209685
4544000000.0 0.5217181991151953 -0.8348039852529279
4547000000.0 0.5319025584766813 -0.8408277576737031
4550000000.0 0.5109363674084266 -0.8992833592634931
4553000000.0 0.5155062318206577 -0.8680474327148859
4556000000.0 0.484013524426511 -0.8643268798517798
4559000000.0 0.506224129206527 -0.8798388930469996
4562000000.0 0.513474608890425 -0.8824107422818539
4566000000.0 0.5216089886391526 -0.8764632536453407
4569000000.0 0.5055275302380212 -0.849591908801912
4572000000.0 0.5193960556891081 -0.8607844999045515
4575000000.0 0.4916503565028843 -0.8872377293621367
4578000000.0 0.529008576625896 -0.8723065301307134
4581000000.0 0.4983910742591071 -0.8539089969850023
4584000000.0 0.4962409894252937 -0.8613856219537701
4588000000.0 0.5394326872274142 -0.8837420805005844
4591000000.0 0.5261173412022602 -0.8479640096889793
4594000000.0 0.5003490491780943 -0.8695473752104945
4597000000.0 0.5251935393411398 -0.8766298856578334
4600000000.0 0.4599808851600038 -0.8697891333780178
4603000000.0 0.513202900421085 -0.88079973980246
4606000000.0 0.5102805739285173 -0.9009917286304848
4609000000.0 0.5097023803727364 -0.8714271242768273
4612000000.0 0.521771323081017 -0.8767116911537698
4616000000.0 0.488582900577248 -0.8514401238577481
4619000000.0 0.5096091386449015 -0.862165459794542
4622000000.0 0.502705414616961 -0.8702773077426533
4625000000.0 0.4783975143234911 -0.8619654286183867
4628000000.0 0.5132708393713753 -0.8567995724637165
4631000000.0 0.4858302194593378 -0.868161817191518
4634000000.0 0.4887684389471042 -0.8836739945564018
4638000000.0 0.5072770011998656 -0.8804657093857695
4641000000.0 0.5095112608796842 -0.8832079523728631
4644000000.0 0.5004085926886263 -0.8779636462397996
4647000000.0 0.5127694761830478 -0.8773239975516957
4650000000.0 0.4888542071761365 -0.8846880741873075
4653000000.0 0.5235616303749173 -0.8777374411398974
4656000000.0 0.4928683175111521 -0.8901482539070336
4659000000.0 0.5034745563667362 -0.8823453733218354
4662000000.0 0.4888060525249658 -0.8908146124679077
4666000000.0 0.4836353251598839 -0.870212252121555
4669000000.0 0.5190106060633326 -0.901314443357799
4672000000.0 0.4975218399514011 -0.8852022730600617
4675000000.0 0.487407374830238 -0.9004637233944738
4678000000.0 0.4908556545544957 -0.8644334469196157
4681000000.0 0.4818255206935581 -0.9199493162058643
4684000000.0 0.4706320941196188 -0.8822465716549265
4688000000.0 0.48256292685079855 -0.9126108128182032
4691000000.0 0.5100046811748864 -0.8763104876312943
4694000000.0 0.49820988553118056 -0.8890790312537566
4697000000.0 0.47395545761130664 -0.8829688890303884
4700000000.0 0.5167396210955062 -0.8682672194771384
4703000000.0 0.511557647386211 -0.8498203639106617
4706000000.0 0.483607363808396 -0.9146082908509581
4709000000.0 0.4988327538119311 -0.8844725666718134
4712000000.0 0.5072009123125313 -0.8790522107251276
4716000000.0 0.488120819710903 -0.8995856835933014
4719000000.0 0.5021083834032147 -0.8897575752318149
4722000000.0 0.5251530538574077 -0.9004765690073072
4725000000.0 0.5139255704212601 -0.8916510504274504
4728000000.0 0.48277916892717343 -0.8666497746690556
4731000000.0 0.500185954110397 -0.9037048780121673
4734000000.0 0.5124829237648547 -0.8743577804171682
4738000000.0 0.5217775610437513 -0.9424199354051693
4741000000.0 0.5110564795957342 -0.9102720159753344
4744000000.0 0.4957336497978513 -0.8907469739819863
4747000000.0 0.4957575812710324 -0.8532676352106061
4750000000.0 0.4966845430200415 -0.9180472876438398
4753000000.0 0.5186035274763834 -0.8956186931266762
4756000000.0 0.49339359303771824 -0.917917123086698
4759000000.0 0.5238787878901239 -0.8961134541157323
4762000000.0 0.4953969754998632 -0.9349078561262404
4766000000.0 0.4865798562924775 -0.8946846188929762
4769000000.0 0.4838981726220574 -0.9132635214622443
4772000000.0 0.5100150198535939 -0.9209340460033576
4775000000.0 0.5246305606400844 -0.9624022534529644
4778000000.0 0.49100259056818496 -0.9173489107696031
4781000000.0 0.514193688817771 -0.87022566010944
4784000000.0 0.5144804760394561 -0.8670908786304592
4788000000.0 0.4802427519172038 -0.9332044791396058
4791000000.0 0.48905438952636726 -0.8911168764781846
4794000000.0 0.5343710379722925 -0.9151565073846101
4797000000.0 0.4624336157704537 -0.8869375927691178
4800000000.0 0.478785190683499 -0.8729773957834305
4803000000.0 0.458063493609141 -0.9055327840283007
4806000000.0 0.4903213729763762 -0.9113807862546041
4809000000.0 0.46954499755306367 -0.9180559405300062
4812000000.0 0.4507040613410504 -0.8991316913348851
4816000000.0 0.5019074262842327 -0.8717318477733867
4819000000.0 0.5212334471247182 -0.904385103080589
4822000000.0 0.5179501790175641 -0.9225160445197164
4825000000.0 0.5313192870909712 -0.9079263635405649
4828000000.0 0.4854569626501226 -0.883159026183021
4831000000.0 0.469037964863804 -0.9484809747299975
4834000000.0 0.524397082639438 -0.9085302000216356
4838000000.0 0.5088809033045328 -0.9353086856949985
4841000000.0 0.4675681145186318 -0.8911032638996793
4844000000.0 0.50901229797343 -0.8790241058346641
4847000000.0 0.49312643923892807 -0.8707289351391697
4850000000.0 0.4971504087848296 -0.9201263955049316
4853000000.0 0.4888430047208258 -0.8539645526073452
4856000000.0 0.4868102567556347 -0.8951307062371172
4859000000.0 0.4999188822036297 -0.955034754407702
4862000000.0 0.5187545938081045 -0.8673494354756918
4866000000.0 0.47268826489869353 -0.8980733410416948
4869000000.0 0.4856445285627983 -0.9109319138835924
4872000000.0 0.4811926965431086 -0.9280758165655886
4875000000.0 0.5639726532838967 -0.89976992292198
4878000000.0 0.5107453856946121 -0.9194704180529996
4881000000.0 0.4789912467711437 -0.9868135999493274
4884000000.0 0.5147677560201309 -0.8921927618866551
4888000000.0 0.5478517465517198 -0.8721331975214018
4891000000.0 0.5326801142281533 -0.9013403239778593
4894000000.0 0.507433854408659 -0.9184810672670042
4897000000.0 0.5214611606307427 -0.8710168005533943
4900000000.0 0.5491115814770583 -0.9098251213765869
4903000000.0 0.5377300258965163 -0.9338200890637588
4906000000.0 0.5190994427980542 -0.9125202273002422
4909000000.0 0.48384659892492116 -0.883070280537473
4912000000.0 0.4998371203480756 -0.9195694363426322
4916000000.0 0.5217691202795144 -0.9166198656557383
4919000000.0 0.5584691759113902 -0.8972345822574301
4922000000.0 0.5490625243701628 -0.8956185127210874
4925000000.0 0.480951083891212 -0.9147086327223657
4928000000.0 0.5732685004868725 -0.8564785924472289
4931000000.0 0.5555840006323065 -0.8898923832762532
4934000000.0 0.5040337953903186 -0.8790266745670144
4938000000.0 0.48856618273621566 -0.8824099938956913
4941000000.0 0.5273306415521213 -0.8723748471181607
4944000000.0 0.5212511908583664 -0.8029217354869101
4947000000.0 0.4983043481021867 -0.8862285082594942
4950000000.0 0.5019643050390716 -0.8768587774438665
4953000000.0 0.5120002651408279 -0.9390802878900838
4956000000.0 0.5295527638049263 -0.9217722305584493
4959000000.0 0.4472580346097673 -0.8816161419103435
4962000000.0 0.5082583973258854 -0.9240830423625306
4966000000.0 0.5369549912961408 -0.8913330207167264
4969000000.0 0.5187208355063554 -0.9385255723344094
4972000000.0 0.4913544534265849 -0.9280496945202009
4975000000.0 0.5420618152115046 -0.8708791391658189
4978000000.0 0.5084871918069642 -0.9172476383744458
4981000000.0 0.5341157391380185 -0.9220406864559624
4984000000.0 0.5012316476086642 -0.8661139287706888
4988000000.0 0.5271578178789909 -0.8872960405510372
4991000000.0 0.5740774195447259 -0.8814344888598137
4994000000.0 0.4971402789643037 -0.8996265610906644
4997000000.0 0.4804698404547946 -0.9050790192045829
5000000000.0 0.5432895922267225 -0.9077778930532749
5003000000.0 0.5513072593405567 -0.9112660584984987
5006000000.0 0.5388885778096757 -0.944173516097335
5009000000.0 0.5314117365601945 -0.8786606486099404
5012000000.0 0.4751225918566083 -0.8904383364843926
5016000000.0 0.5728848013275435 -0.897172096315852
5019000000.0 0.5271918174352394 -0.8976249177501945
5022000000.0 0.5217368202351166 -0.9160021603904632
5025000000.0 0.5579048674515394 -0.9432315567935432
5028000000.0 0.5078838660806272 -0.9166626451740307
5031000000.0 0.5065366435217342 -0.9019207675632284
5034000000.0 0.4879310071283002 -0.9428665863111496
5038000000.0 0.5020508806585677 -0.8925753128900996
5041000000.0 0.5615176289830905 -0.9011414651258818
5044000000.0 0.5087214008685383 -0.8616741750606608
5047000000.0 0.5419035265218552 -0.8925247725853012
5050000000.0 0.5751777262669985 -0.8857921325838408
5053000000.0 0.5251380137658378 -0.9279131298297112
5056000000.0 0.5376231285661786 -0.8698966101445029
5059000000.0 0.5755736222479017 -0.8887689022520462
5062000000.0 0.5349708084208334 -0.9287635047501323
5066000000.0 0.5798317290719878 -0.8833893836071569
5069000000.0 0.5312000783360382 -0.9158905690205842
5072000000.0 0.5148738528196426 -0.8814731607963833
5075000000.0 0.5496667874109415 -0.888731826915816
5078000000.0 0.48388598651838394 -0.9222065236233195
5081000000.0 0.5029989625116766 -0.8710426736459458
5084000000.0 0.5340192419521957 -0.8925735867613314
5088000000.0 0.5582823678484864 -0.8904129789014761
5091000000.0 0.49720135531092796 -0.878584574914777
5094000000.0 0.49964025829272274 -0.8808252816812002
5097000000.0 0.6061607999727598 -0.8737022668763973
5100000000.0 0.5553879747417381 -0.9109191874580989
5103000000.0 0.45906182201165563 -0.9509582165108784
5106000000.0 0.5317037701079642 -0.9184645485705849
5109000000.0 0.5679188101013346 -0.8623702177549164
5112000000.0 0.4982900396510518 -0.9322564256991963
5116000000.0 0.5120683951978307 -0.8137009154572798
5119000000.0 0.4894890797084843 -0.9381028350104142
5122000000.0 0.5555122791197518 -0.8577225090668146
5125000000.0 0.533669692528521 -0.8522552502335873
5128000000.0 0.5196286992998125 -0.9154859858172957
5131000000.0 0.5098903470231335 -0.8601144698107989
5134000000.0 0.527671022136226 -0.9288470294528333
5138000000.0 0.5794097612040124 -0.9089463340082227
5141000000.0 0.6017210791306496 -0.858907412047023
5144000000.0 0.5821346087271791 -0.9113603628534725
5147000000.0 0.563356925642601 -0.8786609912739265
5150000000.0 0.5307891820507884 -0.8974656857624084
5153000000.0 0.5061264882111163 -0.8988775872605329
5156000000.0 0.5586092955482274 -0.9012463464181175
5159000000.0 0.5672852972444424 -0.9102246228335489
5162000000.0 0.5310742070637551 -0.8751893032517856
5166000000.0 0.5236093481184065 -0.8856523657323156
5169000000.0 0.5547795508146726 -0.9225548993654871
5172000000.0 0.5425974539832873 -0.8495663438465733
5175000000.0 0.5653204468697367 -0.9259086501253894
5178000000.0 0.5488427626709114 -0.888023519073903
