! Created with skrf 1.8.0 (http://scikit-rf.org).
# Hz S RI R 50.0 
!freq ReS11 ImS11
4000000000.0 0.5677738094621251 -0.8590684925349581
4003000000.0 0.6233826901622765 -0.9008544033663239
4006000000.0 0.5095762454516422 -0.8906140754653445
4009000000.0000005 0.5664255108994627 -0.8539353659420126
4011999999.9999995 0.6342017286914801 -0.8737190900965899
4016000000.0 0.5212149033362972 -0.8948396920106133
4019000000.0 0.5209364679060149 -0.8603905724446668
4022000000.0000005 0.6114150216979026 -0.8833167376976265
4025000000.0000005 0.5346372497014575 -0.9086170402233705
4027999999.9999995 0.5200220149472573 -0.8979162429652169
4030999999.9999995 0.5346903396156464 -0.8263831772700216
4034000000.0 0.5191833224067113 -0.918925751630062
4038000000.0000005 0.5153286969833504 -0.890426964466857
4041000000.0000005 0.5176004251021573 -0.8364215102305277
4043999999.9999995 0.5707678809277634 -0.9639175282413661
4046999999.9999995 0.6132488424832843 -0.8888332995964843
4050000000.0 0.5426810513326612 -0.8908368858813545
4053000000.0 0.48512001181744135 -0.8906390937595722
4056000000.0 0.5554421491702517 -0.8910944061811497
4059000000.0 0.5334679204085682 -0.8472611017186275
4062000000.0000005 0.5511493757364738 -0.8761089093218771
4066000000.0 0.4907565656244372 -0.8346129566160363
4069000000.0 0.5367766200021622 -0.9417873499196954
4072000000.0 0.5834861281836066 -0.8664423725979067
4075000000.0 0.5862975080964467 -0.8797815061057008
4078000000.0000005 0.5261672631288173 -0.9155224203547864
4081000000.0000005 0.6058149976486674 -0.8749167791148081
4083999999.9999995 0.5313287214562338 -0.900702759017182
4088000000.0 0.5992973594920483 -0.8646293206784448
4091000000.0 0.5721227899832123 -0.9594607871487796
4094000000.0000005 0.5665158630639295 -0.8706969141217884
4097000000.0000005 0.5601937994753323 -0.8750346123646351
4099999999.9999995 0.5422811342814625 -0.908086762395981
4102999999.9999995 0.5811376458124624 -0.8848266675092475
4106000000.0 0.5547065441094768 -0.9175798338982107
4109000000.0 0.5280176533461509 -0.9406827302091644
4112000000.0 0.5313800136167259 -0.9060791343962822
4115999999.9999995 0.5803052905618666 -0.8513466407333204
4119000000.0 0.5270180216975694 -0.898004608900927
4122000000.0 0.5739423535506866 -0.9268718843225752
4125000000.0 0.5641138699087356 -0.8969869196991813
4128000000.0 0.5425075503593968 -0.8089177444868947
4131000000.0 0.5218787760728222 -0.8481606652015297
4134000000.0000005 0.5175260033671698 -0.8805959988292517
4138000000.0 0.5200098888564824 -0.848921929565066
4141000000.0 0.5236646389476763 -0.8735086482073824
4144000000.0 0.5628171967650776 -0.901114575889089
4147000000.0000005 0.5340944249149996 -0.857689712033903
4150000000.0000005 0.5314019845058598 -0.9069641584473785
4152999999.9999995 0.5414843086969511 -0.8906923085830387
4155999999.9999995 0.568657892841071 -0.8993169998133804
4159000000.0 0.5610227250152886 -0.8451849528088533
4162000000.0 0.5678433507790641 -0.8853777584456068
4166000000.0000005 0.5405367016273008 -0.8894391322158524
4168999999.9999995 0.5540025016990798 -0.8948675912060268
4171999999.9999995 0.5618800460485079 -0.8660846476427287
4175000000.0 0.5569230083929342 -0.8700177838315689
4178000000.0 0.5567637385695408 -0.8856682910496086
4181000000.0 0.5460845528351322 -0.8934209096608183
4184000000.0 0.5584594655494992 -0.8575181493049522
4187999999.9999995 0.5264648059346061 -0.8641096638167449
4191000000.0 0.5622663861463353 -0.84691240096214
4194000000.0 0.5201799731960577 -0.8425701828337402
4197000000.0 0.555846502542937 -0.8746416703597109
4200000000.0 0.5386716026247699 -0.8608626745922755
4203000000.0000005 0.5780910785949626 -0.8587407176172683
4206000000.0000005 0.5573182431605632 -0.8789166611836016
4208999999.9999995 0.5462541240606051 -0.843736908525911
4211999999.9999995 0.5126251287476826 -0.8943090748327548
4216000000.0 0.5665383796099654 -0.8790687774652846
4219000000.0000005 0.571807217129778 -0.8533749815112707
4222000000.0000005 0.533389956137188 -0.8696157753700188
4224999999.9999995 0.563416723703422 -0.8505751205536473
4227999999.9999995 0.542591577938826 -0.8624472909795913
4231000000.0 0.5401660178666343 -0.854720487461324
4234000000.0 0.5589885811497088 -0.8768690657438
4238000000.0000005 0.5417052411939232 -0.8718164276090137
4240999999.9999995 0.5469844616058845 -0.8607806293331768
4244000000.0 0.5650287247594703 -0.851143782642552
4247000000.0 0.5500797603886574 -0.8484086467587322
4250000000.0 0.5313249994398059 -0.8529188912507962
4253000000.0 0.5118830772237433 -0.84545898832928
4256000000.0 0.5370167733663345 -0.8830924994299885
4259000000.0000005 0.509515976357751 -0.839725041809341
4261999999.9999995 0.505286445386704 -0.8667037757461169
4266000000.0 0.5257532421074167 -0.8866957769563619
4269000000.0 0.5528898833913654 -0.8570644098994799
4272000000.0000005 0.534624553903092 -0.8650698180358154
4275000000.0000005 0.5410616660309451 -0.8671800786043726
4277999999.9999995 0.5475865558473154 -0.8699397822570492
4280999999.9999995 0.568467422265616 -0.8602549224709334
4284000000.0 0.5192873712650031 -0.8743343694425139
4288000000.0000005 0.5670326625268669 -0.8385989777962777
4291000000.0000005 0.543147056282283 -0.8507822902096249
4293999999.9999995 0.5531549188632157 -0.8403918175807636
4297000000.0 0.5680926962167171 -0.8253174928382969
4300000000.0 0.5352013098556258 -0.8319416950488702
4303000000.0 0.5253767952745922 -0.863092048649031
4306000000.0 0.5794847781847448 -0.8447010192880364
4309000000.0 0.5323168540244722 -0.8577031737729589
4312000000.0 0.5913565108765443 -0.843938591864608
4316000000.0 0.5631380373407963 -0.8513034307601115
4319000000.0 0.5513082451766038 -0.8683933269224139
4322000000.0 0.5032364080543602 -0.8588571130020334
4325000000.0 0.5478139279140243 -0.8447210172747542
4328000000.0 0.5656250744936274 -0.8430954891488142
4331000000.0 0.49491675329246293 -0.8802174765600286
4334000000.0 0.5442068298484214 -0.8432439764271087
4338000000.0 0.550564443887309 -0.8480615852065173
4341000000.0 0.5965382838853879 -0.86433969481293
4344000000.0 0.5675066131040601 -0.8577953285274719
4347000000.0 0.5364442995356827 -0.8905901068306648
4350000000.0 0.5349070233507135 -0.8507352926187405
4353000000.0 0.543356628233418 -0.8329787613951269
4356000000.0 0.5135619952053003 -0.8734950822837723
4359000000.0 0.5323947745628779 -0.8244514592600476
4362000000.0 0.4956459125808655 -0.8817885973633004
4366000000.0 0.5257340604740031 -0.874482459754799
4369000000.0 0.5344454176150655 -0.8432124740982858
4372000000.0 0.5082852028082161 -0.875062137883173
4375000000.0 0.5591881208986724 -0.8430545624357783
4378000000.0 0.5183533541659154 -0.841596939129156
4381000000.0 0.5282429824827928 -0.84709463957315
4384000000.0 0.5318639451982392 -0.9288826955622562
4388000000.0 0.5393984459101634 -0.8467739674633947
4391000000.0 0.552044358716717 -0.8624515995905816
4394000000.0 0.507592058408823 -0.8452823968570674
4397000000.0 0.521399037192934 -0.8650342638441383
4400000000.0 0.5446618617507342 -0.8788338057599294
4403000000.0 0.5405314255211402 -0.8775095062919774
4406000000.0 0.5209357041714767 -0.8598198632689591
4409000000.0 0.5434891508478671 -0.9026637062934314
4412000000.0 0.4813581880267047 -0.8875771819158845
4416000000.0 0.5062401699780846 -0.8598011190091149
4419000000.0 0.5123314505451043 -0.8836896243894568
4422000000.0 0.5331613985990649 -0.8472736969769824
4425000000.0 0.5631551858886343 -0.8556170671208145
4428000000.0 0.5366975764260004 -0.8630683427595993
4431000000.0 0.5546817221260139 -0.8780965911577742
4434000000.0 0.5236451162935921 -0.8548671723599864
4438000000.0 0.5332100417802388 -0.8670218702107395
4441000000.0 0.5396918095077958 -0.8722654556480034
4444000000.0 0.5322792328646173 -0.8441288423555037
4447000000.0 0.5081247262378485 -0.8489626768358012
4450000000.0 0.531829703410901 -0.8475185284439303
4453000000.0 0.5469755164895626 -0.8994572389405024
4456000000.0 0.5097915804145843 -0.845344985978847
4459000000.0 0.48897236643599573 -0.8389325132307888
4462000000.0 0.5596124286642257 -0.9206938554214547
4466000000.0 0.5355840039944639 -0.9016450154215364
4469000000.0 0.5362016570118258 -0.866442257322198
4472000000.0 0.5233782361109743 -0.8823272456932929
4475000000.0 0.5073722941012956 -0.8527889942999187
4478000000.0 0.5372786547716439 -0.8989286397208052
4481000000.0 0.5007780763217475 -0.8550654796841584
4484000000.0 0.47697617084761973 -0.8968101487483358
4488000000.0 0.5215321552116902 -0.8377070719640826
4491000000.0 0.5032836435206225 -0.8852578348360713
4494000000.0 0.5239922409830065 -0.8441545802459529
4497000000.0 0.5299736790030358 -0.8613571770207705
4500000000.0 0.5320516332061528 -0.8474982665985404
4503000000.0 0.5461508357144804 -0.8863963239501051
4506000000.0 0.5083049153271846 -0.8783366130393149
4509000000.0 0.49559814065146446 -0.8607669986082744
4512000000.0 0.5046395851769956 -0.837952708522221
4516000000.0 0.5259846972516706 -0.88505984972238
4519000000.0 0.5285748412855553 -0.8587581539962934
4522000000.0 0.4961763950196522 -0.8729075868461447
4525000000.0 0.5443108755495969 -0.8376308087905091
4528000000.0 0.5395130427645152 -0.8999436375316039
4531000000.0 0.5332162740848112 -0.8661975542790095
4534000000.0 0.5063487707685738 -0.8698747774546283
4538000000.0 0.5027732688685517 -0.8689269530259773
4541000000.0 0.46392538611246253 -0.892174938556864
4544000000.0 0.5072776838972526 -0.8672826455198546
4547000000.0 0.5357824836441928 -0.843087946029947
4550000000.0 0.4984263485990834 -0.8789984417975114
4553000000.0 0.49819163794515825 -0.8738911996172158
4556000000.0 0.4946193742207543 -0.8672409800013272
4559000000.0 0.49537432865728126 -0.883344385640505
4562000000.0 0.5301407322208656 -0.8887760046862517
4566000000.0 0.5154794477724609 -0.8974235890683017
4569000000.0 0.481831888025389 -0.8645067753663302
4572000000.0 0.5255177590911755 -0.8712871529414361
4575000000.0 0.4939768820828737 -0.8833598905130444
4578000000.0 0.5439714768292986 -0.871461084659835
4581000000.0 0.5003491906268499 -0.8966359543057256
4584000000.0 0.5063111008171657 -0.8645100778374032
4588000000.0 0.5253449333659482 -0.8734482856260611
4591000000.0 0.5288927408918619 -0.8671222196427504
4594000000.0 0.4798862204614906 -0.9126450112311069
4597000000.0 0.5091472843459083 -0.8903195202912538
4600000000.0 0.468889129392265 -0.8925909105543754
4603000000.0 0.49731305155504923 -0.8942556726677665
4606000000.0 0.4907441034015512 -0.8958726148383608
4609000000.0 0.512763180262122 -0.876680457195991
4612000000.0 0.5019525991486682 -0.8926352705586491
4616000000.0 0.4762672920718398 -0.8618683350443317
4619000000.0 0.5025324790355183 -0.8705733255137348
4622000000.0 0.49339046881232723 -0.8805934195098122
4625000000.0 0.46947156737034085 -0.882490417602879
4628000000.0 0.5152950176588839 -0.8559350739041488
4631000000.0 0.47661633602433784 -0.8806995049293103
4634000000.0 0.4934978315025423 -0.8730228815099113
4638000000.0 0.5001560996576824 -0.8881867319890511
4641000000.0 0.4955533443960316 -0.8624527209214221
4644000000.0 0.4874534126152904 -0.8753217291560509
4647000000.0 0.5065137801758144 -0.8823670880074008
4650000000.0 0.4755442070372038 -0.87652939861777
4653000000.0 0.5044143635678235 -0.8986280981328963
4656000000.0 0.4772825757423303 -0.8850681022778313
4659000000.0 0.47087417518619873 -0.8865333381041549
4662000000.0 0.4967427602198079 -0.8841791060145916
4666000000.0 0.4758464598864773 -0.8697173414876908
4669000000.0 0.4965896840450128 -0.8830677644952103
4672000000.0 0.4953570505618676 -0.9107546799963386
4675000000.0 0.46359074165071174 -0.9069884368503005
4678000000.0 0.46353996691635 -0.8811330426288302
4681000000.0 0.47333940083269643 -0.9157693982241997
4684000000.0 0.47011206012466406 -0.9222990598728377
4688000000.0 0.46180812450733705 -0.8978398665453767
4691000000.0 0.5195320663448905 -0.8901976366909398
4694000000.0 0.5048501389913949 -0.8901730548799986
4697000000.0 0.4442541336488656 -0.8861861828918457
4700000000.0 0.4903872166465498 -0.8835222233046528
4703000000.0 0.49713659382382536 -0.8475630777655462
4706000000.0 0.47091697277771594 -0.9008196345387244
4709000000.0 0.4872616759781478 -0.889949237213275
4712000000.0 0.5100310094956277 -0.8850951799917158
4716000000.0 0.46234189446502827 -0.8930278592942184
4719000000.0 0.5275839777277801 -0.885869960205001
4722000000.0 0.4925953836585101 -0.8696986559009307
4725000000.0 0.493349353125632 -0.8881478731929076
4728000000.0 0.4759360904506204 -0.8787521023058331
4731000000.0 0.5145280920137603 -0.9229883774319808
4734000000.0 0.5217891028970714 -0.866642953100735
4738000000.0 0.5727351257954012 -0.9268050091204553
4741000000.0 0.49216037447385486 -0.9413518773247392
4744000000.0 0.4674333544184103 -0.8950051162836119
4747000000.0 0.4965561285379081 -0.8756943561365292
4750000000.0 0.5134440275271239 -0.9013153071559387
4753000000.0 0.524270097664709 -0.9068395162472889
4756000000.0 0.5097758377502335 -0.9105055524749622
4759000000.0 0.5017239751148959 -0.9108070619015545
4762000000.0 0.4746899297016596 -0.9008867718143521
4766000000.0 0.4843590696926786 -0.8953193521919507
4769000000.0 0.49405767930008093 -0.8780334801881011
4772000000.0 0.5006533432801622 -0.9194509345304838
4775000000.0 0.5116236117512964 -0.9495085108990234
4778000000.0 0.49783859902034217 -0.897740213765946
4781000000.0 0.4958186587300731 -0.8878137609308492
4784000000.0 0.5212932674137783 -0.8652229643410104
4788000000.0 0.4625858428766817 -0.9002931565110598
4791000000.0 0.47189770077007354 -0.8815304626482469
4794000000.0 0.5269324220919753 -0.906181094252938
4797000000.0 0.46665337131667595 -0.8983814737450925
4800000000.0 0.464865121435214 -0.8928124302022492
4803000000.0 0.4677185655679465 -0.9057066902839014
4806000000.0 0.47311969890554895 -0.8963093364546515
4809000000.0 0.4380883473765703 -0.9197136109171256
4812000000.0 0.45199529157375967 -0.8968441420349381
4816000000.0 0.5016296064610789 -0.8920449802163094
4819000000.0 0.5003816197347084 -0.9302829628004485
4822000000.0 0.5368921238560513 -0.9228428477703008
4825000000.0 0.5192366319313724 -0.9214353559623427
4828000000.0 0.4875383306741556 -0.9004232680962639
4831000000.0 0.4725453245086066 -0.9403142024810838
4834000000.0 0.5065112153196238 -0.8888465600224119
4838000000.0 0.4962320358553437 -0.9099849288430263
4841000000.0 0.48534852724158095 -0.895810976144772
4844000000.0 0.5273319138199055 -0.8703528029655612
4847000000.0 0.527392355664971 -0.8680481412556105
4850000000.0 0.47745584886747605 -0.9229916723280327
4853000000.0 0.49037704684717415 -0.876661288134849
4856000000.0 0.46508832554394913 -0.8965850535805446
4859000000.0 0.4853359882537205 -0.9579746694044892
4862000000.0 0.5110810301001726 -0.8775476803795184
4866000000.0 0.47885595961023786 -0.9253442556753947
4869000000.0 0.47936807548687144 -0.9368210379117567
4872000000.0 0.4679233631444525 -0.9537582522390234
4875000000.0 0.5613151463248998 -0.9189194750118307
4878000000.0 0.4647087811932306 -0.9203668334307848
4881000000.0 0.4857351984264055 -0.9813291991024191
4884000000.0 0.5163333467183641 -0.8980071239893294
4888000000.0 0.5287673137833363 -0.895250602414618
4891000000.0 0.5275386582185144 -0.9174000608976063
4894000000.0 0.4774780804988495 -0.9189963371152888
4897000000.0 0.5133075510325982 -0.8489285450015455
4900000000.0 0.5113693718246793 -0.9139020742967988
4903000000.0 0.5039568020641192 -0.9343450435859231
4906000000.0 0.49216188825375135 -0.9532134383313317
4909000000.0 0.4877747100068342 -0.9136968862826625
4912000000.0 0.4868301827745047 -0.9489278207734962
4916000000.0 0.5135018569459646 -0.9273426907683259
4919000000.0 0.5392728428786361 -0.9079642802558978
4922000000.0 0.49723696828032926 -0.9031540072255437
4925000000.0 0.47651754062594226 -0.9179128234860282
4928000000.0 0.5166173444596355 -0.8690059522987807
4931000000.0 0.5170767981391413 -0.9186839558017508
4934000000.0 0.4808833029164267 -0.8659340556222831
4938000000.0 0.4633375695447461 -0.9329690138799844
4941000000.0 0.49522070780369765 -0.8764501853529212
4944000000.0 0.4701168244436871 -0.850005768729315
4947000000.0 0.4904147976679017 -0.8933046345877265
4950000000.0 0.47086479996446684 -0.8955235012671846
4953000000.0 0.48946454171125053 -0.9645713825680229
4956000000.0 0.4795837749602323 -0.9481119947177395
4959000000.0 0.45459310485453425 -0.9228076782226955
4962000000.0 0.47755208133052685 -0.938786104584692
4966000000.0 0.5428289124786826 -0.8858722408716696
4969000000.0 0.5642616443410529 -0.9141212297104959
4972000000.0 0.49968164117857694 -0.9224548891003015
4975000000.0 0.5193878447754018 -0.8762618744624474
4978000000.0 0.477527135397495 -0.9345745325660116
4981000000.0 0.4661355260346968 -0.9382387408405904
4984000000.0 0.4699189406859897 -0.8791871893802157
4988000000.0 0.4917143389380765 -0.8637913197422651
4991000000.0 0.5611891171159263 -0.9015860747972759
4994000000.0 0.5094619161132152 -0.9122810341016522
4997000000.0 0.4747347845669375 -0.899268205873833
5000000000.0 0.5393908832355532 -0.9319272523387412
5003000000.0 0.521714558644005 -0.9361653403923529
5006000000.0 0.5477405277862747 -0.9191484315281253
5009000000.0 0.5169429862304884 -0.9077698064900521
5012000000.0 0.4871585795672342 -0.939646065486901
5016000000.0 0.5555625841186154 -0.8889738153521449
5019000000.0 0.49174774150528466 -0.9207743959579018
5022000000.0 0.5047749357868011 -0.906266619414153
5025000000.0 0.5209298504275474 -0.9834249398833301
5028000000.0 0.508428351007784 -0.9443269287642857
5031000000.0 0.5041173474195781 -0.9068750085535852
5034000000.0 0.4762129845425672 -0.9608840292170492
5038000000.0 0.463991879888374 -0.8936604139008058
5041000000.0 0.5503330269190956 -0.8802152687932346
5044000000.0 0.5245561291173927 -0.8809659766886797
5047000000.0 0.5478709870069352 -0.9061768335844242
5050000000.0 0.5809291708251973 -0.8556075864173859
5053000000.0 0.537396693399683 -0.9524510313035364
5056000000.0 0.5363895514234057 -0.8896586274834737
5059000000.0 0.5518571546792082 -0.88492122821074
5062000000.0 0.4708092007081896 -0.9449962702603562
5066000000.0 0.5679822472545415 -0.8460345385962795
5069000000.0 0.5412512690588467 -0.9244617149040002
5072000000.0 0.49243387751427853 -0.8894587288465803
5075000000.0 0.5544026614306512 -0.9202533558976843
5078000000.0 0.4770259926185235 -0.9274528377725696
5081000000.0 0.4807239309530736 -0.88181136449478
5084000000.0 0.5593719342323449 -0.8872906794895752
5088000000.0 0.5469575198205427 -0.8763881393355394
5091000000.0 0.5103125929445016 -0.9574517055317846
5094000000.0 0.5440029015759721 -0.8902523671323125
5097000000.0 0.529014966130475 -0.9164715214303316
5100000000.0 0.4925677370991859 -0.8522440730784467
5103000000.0 0.508281881102677 -0.9070995810482936
5106000000.0 0.5706702851652251 -0.9072733127089492
5109000000.0 0.5452459835269581 -0.9048828213998041
5112000000.0 0.5192042376439259 -0.9286451430419774
5116000000.0 0.49212593178727404 -0.8421042258122429
5119000000.0 0.5795738036618736 -0.9223185308199711
5122000000.0 0.5252340644402675 -0.8644820365478822
5125000000.0 0.6125977470564667 -0.8686116790063463
5128000000.0 0.5159697521568904 -0.9032672489272506
5131000000.0 0.5271389968603091 -0.8970356661178336
5134000000.0 0.4910211592392535 -0.8586457659118321
5138000000.0 0.511962092505825 -0.8779219076822691
5141000000.0 0.5998947031610407 -0.8454822205937302
5144000000.0 0.5224206561022744 -0.8470752589928245
5147000000.0 0.5623767339998988 -0.9154205757023897
5150000000.0 0.47847511247167207 -0.9157009741581754
5153000000.0 0.5828476084372033 -0.9263644364006203
5156000000.0 0.5680168197229956 -0.8758733760424415
5159000000.0 0.5252469150622683 -0.9150397495361017
5162000000.0 0.5030306348839167 -0.8379052144789396
5166000000.0 0.5401361731144383 -0.9040639819634855
5169000000.0 0.5640115091007009 -0.9026834242737274
5172000000.0 0.5693494366345138 -0.8951194836296504
5175000000.0 0.582183585686084 -0.9490558131940643
5178000000.0 0.5233859442847935 -0.9384217283150037
