! Created with skrf 1.8.0 (http://scikit-rf.org).
# Hz S RI R 50.0 
!freq ReS11 ImS11
4000000000.0 0.5677394721877599 -0.8350028773322549
4003000000.0 0.5927107950028722 -0.930364306860313
4006000000.0 0.5232107413163116 -0.8862487953337348
4009000000.0000005 0.5639284316068174 -0.9060481257779351
4011999999.9999995 0.5929914197099464 -0.8793047913100482
4016000000.0 0.566996182407161 -0.9011561792429589
4019000000.0 0.5563726013537762 -0.8765974586929668
4022000000.0000005 0.625465950420413 -0.8561337407960707
4025000000.0000005 0.5094760943570076 -0.9304778778508555
4027999999.9999995 0.5357782410320363 -0.8666272274359347
4030999999.9999995 0.5456729372300032 -0.8168898550718504
4034000000.0 0.5210260422164767 -0.9081741549043415
4038000000.0000005 0.5451982037328187 -0.938315425277146
4041000000.0000005 0.533671654931289 -0.8706420162838571
4043999999.9999995 0.6015419898386716 -0.9058623445697206
4046999999.9999995 0.548202222506147 -0.8868939194667337
4050000000.0 0.5430873828739579 -0.9013824523559065
4053000000.0 0.48339471633992603 -0.880560817431173
4056000000.0 0.536647054703306 -0.914110978041244
4059000000.0 0.5615621398317492 -0.8306446663652016
4062000000.0000005 0.5626313395483287 -0.8643356374191281
4066000000.0 0.5085397756625976 -0.8131095876335123
4069000000.0 0.5547135016328811 -0.93797873394951
4072000000.0 0.5846986704546402 -0.8653896440104675
4075000000.0 0.6038539280647589 -0.9195167911666018
4078000000.0000005 0.5663631597283543 -0.9148263451976323
4081000000.0000005 0.6208826678345772 -0.879552310377524
4083999999.9999995 0.553974844480725 -0.8869519610759202
4088000000.0 0.5869770322005321 -0.8560199434430414
4091000000.0 0.5831976737638846 -0.9076538293097342
4094000000.0000005 0.5559028417830413 -0.874537412242604
4097000000.0000005 0.5916580666320742 -0.8683013617443489
4099999999.9999995 0.5324627006006226 -0.8690720987967133
4102999999.9999995 0.5788885671721966 -0.8436422856022217
4106000000.0 0.5380870575634333 -0.913165931371341
4109000000.0 0.5480394187789704 -0.9193413584419851
4112000000.0 0.5442335443117146 -0.8715052021041203
4115999999.9999995 0.5951614365045902 -0.9282305224034701
4119000000.0 0.5390771082414677 -0.8585437746570916
4122000000.0 0.5376511550334363 -0.9007266647276758
4125000000.0 0.5275269764308042 -0.9239232993240756
4128000000.0 0.5657622657838738 -0.8396616157239771
4131000000.0 0.5366066813643098 -0.8450926891062978
4134000000.0000005 0.5745228399553444 -0.8499382577547913
4138000000.0 0.5113560323269909 -0.8825219559876464
4141000000.0 0.5039372562231367 -0.8601897066589612
4144000000.0 0.5729382231680503 -0.8665409470056424
4147000000.0000005 0.5511615892610988 -0.8658928184831042
4150000000.0000005 0.5815436748329086 -0.895523038787169
4152999999.9999995 0.5485265523173188 -0.8737392488040381
4155999999.9999995 0.5790976906213097 -0.8688947554063814
4159000000.0 0.5492020564581342 -0.8741519670976089
4162000000.0 0.532951661241811 -0.8586132918646993
4166000000.0000005 0.5582987621410763 -0.8887692195237342
4168999999.9999995 0.533247133170946 -0.903460903672562
4171999999.9999995 0.5686408380823033 -0.8705948300311462
4175000000.0 0.5817285566178071 -0.8611609995440205
4178000000.0 0.5514467770127571 -0.8881682179872683
4181000000.0 0.5724582131920517 -0.8738841322836318
4184000000.0 0.5455601287062615 -0.8512042583438575
4187999999.9999995 0.5366914312093648 -0.882531606380075
4191000000.0 0.5739323668470553 -0.81169567257729
4194000000.0 0.5604345063742803 -0.8347545312322922
4197000000.0 0.5521656759032826 -0.8668975435123084
4200000000.0 0.5659519494773947 -0.8701979482429123
4203000000.0000005 0.5811310155610824 -0.8403074809917862
4206000000.0000005 0.5669160718145059 -0.874510211346102
4208999999.9999995 0.551377643491341 -0.8392572345193428
4211999999.9999995 0.5259701941602906 -0.8832487843807502
4216000000.0 0.568963002126386 -0.8599762352871415
4219000000.0000005 0.5774244446478585 -0.865048010518459
4222000000.0000005 0.5585417324884977 -0.8650603893742635
4224999999.9999995 0.5631676469751848 -0.857271415261475
4227999999.9999995 0.5679150976603203 -0.8686646422482297
4231000000.0 0.549263201517953 -0.8639859254659422
4234000000.0 0.5494974336583245 -0.8730243686564748
4238000000.0000005 0.5396721568530976 -0.8527701490262103
4240999999.9999995 0.5394388303967521 -0.868734773934574
4244000000.0 0.5651429368292441 -0.8560262931365108
4247000000.0 0.5409205108678772 -0.8542462088370597
4250000000.0 0.5350892950566688 -0.8385978103849365
4253000000.0 0.5359152907840053 -0.8379609051399849
4256000000.0 0.5555106766273656 -0.8954630688568446
4259000000.0000005 0.5256538967420559 -0.8423703418866848
4261999999.9999995 0.5303005105390065 -0.8521987602658059
4266000000.0 0.5464977712047963 -0.8789927216105834
4269000000.0 0.5576719895929362 -0.8471554234923626
4272000000.0000005 0.5432696063647926 -0.8533260139980287
4275000000.0000005 0.5506082065668113 -0.8530381545906246
4277999999.9999995 0.5660605189851584 -0.8658978535366295
4280999999.9999995 0.5491252642988231 -0.8709281698060787
4284000000.0 0.5299885116815503 -0.9087888255670602
4288000000.0000005 0.5640921747327026 -0.8487397316728464
4291000000.0000005 0.5296879429505722 -0.8366471864244427
4293999999.9999995 0.5488393779303965 -0.8656635415495018
4297000000.0 0.5516239446520197 -0.8338181344195761
4300000000.0 0.5603588710281346 -0.8441727520233654
4303000000.0 0.5728978019803532 -0.8611924132943524
4306000000.0 0.5767254636996441 -0.8491400821298073
4309000000.0 0.5527780774571833 -0.8428174921558069
4312000000.0 0.5856462304502691 -0.8586936240252951
4316000000.0 0.5486329417883328 -0.8455134284143034
4319000000.0 0.5451160201832154 -0.8260810936552699
4322000000.0 0.5397298695368088 -0.8691377974499286
4325000000.0 0.5404779407706016 -0.8534507109281974
4328000000.0 0.537467037444028 -0.849189600785473
4331000000.0 0.5344379168609199 -0.870942081525903
4334000000.0 0.56516241961819 -0.8780376987536168
4338000000.0 0.548937902287156 -0.8403306916894382
4341000000.0 0.6279371835974715 -0.828918608282524
4344000000.0 0.5357757872871701 -0.8827653254421562
4347000000.0 0.5148625601145878 -0.883752303034351
4350000000.0 0.5361544770290628 -0.8339473107360015
4353000000.0 0.554424869794298 -0.8129979553166328
4356000000.0 0.5282747494566146 -0.8693035551995069
4359000000.0 0.5195362162199939 -0.8383050056617342
4362000000.0 0.5122870619318055 -0.8946939936343816
4366000000.0 0.5619676322809487 -0.863419679665774
4369000000.0 0.533342383048893 -0.8306676825764374
4372000000.0 0.508431958838977 -0.8798180594235839
4375000000.0 0.5543617050976177 -0.8458273207212383
4378000000.0 0.5369496528338862 -0.8393662828070506
4381000000.0 0.5437757317856736 -0.8324705019399851
4384000000.0 0.578639401484462 -0.9088502708527046
4388000000.0 0.5491087543046629 -0.838303333033908
4391000000.0 0.5458836903686289 -0.8517940673906671
4394000000.0 0.5378116208985518 -0.8377158494258525
4397000000.0 0.5307235394822147 -0.8644117702466797
4400000000.0 0.5394277171080503 -0.8863076444863451
4403000000.0 0.5461399536865669 -0.8507912114684192
4406000000.0 0.5278854072240166 -0.8663611397590719
4409000000.0 0.5533436071843947 -0.8838712640120955
4412000000.0 0.48271903665825733 -0.8870790512070835
4416000000.0 0.5250285589278063 -0.8518405724316848
4419000000.0 0.5237635173339784 -0.8560498911332922
4422000000.0 0.5455432596684152 -0.8290514167605716
4425000000.0 0.5671272916287237 -0.8641214259331
4428000000.0 0.5294522075603549 -0.8547919917851405
4431000000.0 0.5659451381355978 -0.8728749509153987
4434000000.0 0.5312980860443557 -0.850678178437897
4438000000.0 0.5482925491130447 -0.8832475920675547
4441000000.0 0.556467496539345 -0.8653049298258391
4444000000.0 0.5250216360536695 -0.8512740096299023
4447000000.0 0.5176321013024161 -0.8634371112122324
4450000000.0 0.5366339307100397 -0.8394083351342144
4453000000.0 0.5505088130849651 -0.8792537361165134
4456000000.0 0.5073117354198189 -0.836788585978707
4459000000.0 0.49282015017198944 -0.8318800807770992
4462000000.0 0.5631384127575398 -0.9168041249289307
4466000000.0 0.5579470686358331 -0.8993267404659242
4469000000.0 0.5650234985906923 -0.8547228104431748
4472000000.0 0.5280622735573703 -0.8801742587870673
4475000000.0 0.519795229679444 -0.8269275469140641
4478000000.0 0.5323051346379746 -0.9026846659245094
4481000000.0 0.49967159639511993 -0.8336800262513464
4484000000.0 0.47272812424912003 -0.8840494779548154
4488000000.0 0.49620713583961806 -0.8596857264883417
4491000000.0 0.5199507358794259 -0.8830670446260354
4494000000.0 0.507891862858395 -0.8477765209989788
4497000000.0 0.5370818220270479 -0.8364198130781215
4500000000.0 0.5270598505172885 -0.851899054026316
4503000000.0 0.5453600573962264 -0.8795506465517078
4506000000.0 0.5218554357578943 -0.8657590887788547
4509000000.0 0.5151823155190962 -0.8542992813280834
4512000000.0 0.48843308526232954 -0.8517637287244038
4516000000.0 0.5201139199057694 -0.8797111122589883
4519000000.0 0.5412925360697423 -0.8475533097672252
4522000000.0 0.5121063436268228 -0.8685981442603796
4525000000.0 0.5430885839601143 -0.843569246720899
4528000000.0 0.5247158791123794 -0.875762881431739
4531000000.0 0.5439953692431108 -0.8650138083509371
4534000000.0 0.516546409810813 -0.8391749996787554
4538000000.0 0.5147333303273494 -0.8385231643844618
4541000000.0 0.49862153898082817 -0.8788484365223188
4544000000.0 0.5124184115034394 -0.8631997688818067
4547000000.0 0.5365842477284587 -0.8391621946475301
4550000000.0 0.5080784163478969 -0.8725851946078989
4553000000.0 0.5241775165261927 -0.8798093933925428
4556000000.0 0.48019799653527795 -0.850852301020425
4559000000.0 0.5062539198492989 -0.8708295498076157
4562000000.0 0.5297068470791118 -0.8676894325987918
4566000000.0 0.5167441237255064 -0.887422966785699
4569000000.0 0.49713686652036465 -0.874471545006932
4572000000.0 0.5143061508012615 -0.8642735054107599
4575000000.0 0.4809724405873681 -0.8850045103869166
4578000000.0 0.5492196430690313 -0.8873521086746247
4581000000.0 0.5055849001207694 -0.8698500811842906
4584000000.0 0.4896289412332686 -0.8597188947541362
4588000000.0 0.5325614478289915 -0.8861692498837455
4591000000.0 0.530847670427046 -0.8536710788444734
4594000000.0 0.5052705159951703 -0.8934915933909817
4597000000.0 0.5119044741098016 -0.902660406409599
4600000000.0 0.48346908025631663 -0.8701326885395119
4603000000.0 0.5039795109105969 -0.8745679202438901
4606000000.0 0.5177834266955705 -0.87791534562817
4609000000.0 0.5191373947378982 -0.8783042225874632
4612000000.0 0.5119795900703461 -0.8760059773304806
4616000000.0 0.49836202130985974 -0.8625517830601406
4619000000.0 0.5126238666698105 -0.872351012554017
4622000000.0 0.5084490679193256 -0.8670920574061687
4625000000.0 0.48384980916576875 -0.856089590863826
4628000000.0 0.520115344804539 -0.8625677697935809
4631000000.0 0.4896725636170837 -0.8745615148807798
4634000000.0 0.5107729446252871 -0.8920103972251504
4638000000.0 0.4979261042433095 -0.879035110467808
4641000000.0 0.5101799474812481 -0.8733658291293155
4644000000.0 0.5087589943838569 -0.8578148116337687
4647000000.0 0.5232612813514868 -0.8867286054469324
4650000000.0 0.49270989346583727 -0.8739592579939625
4653000000.0 0.5309044472331773 -0.8981534822927685
4656000000.0 0.49847672713475777 -0.8903943930347458
4659000000.0 0.4951857031885852 -0.8706180799640295
4662000000.0 0.5033787400538063 -0.8784573878183539
4666000000.0 0.4755847234536793 -0.8990452706596604
4669000000.0 0.5206536146835351 -0.8517814656062117
4672000000.0 0.48711777767606235 -0.9132590024101135
4675000000.0 0.4737518291817991 -0.8983882069222696
4678000000.0 0.48023008180439825 -0.8770718732287528
4681000000.0 0.4865468605733165 -0.917774113201465
4684000000.0 0.46834823508993295 -0.9039805794947349
4688000000.0 0.4953791033553279 -0.8689561867162305
4691000000.0 0.533031676635044 -0.8864401364920159
4694000000.0 0.5126052183307926 -0.8642270963037043
4697000000.0 0.465827719344468 -0.868329521507555
4700000000.0 0.4994434394399519 -0.8885866828860621
4703000000.0 0.4970475079423554 -0.8638118121392396
4706000000.0 0.5059535785916802 -0.880591313849305
4709000000.0 0.48099664493341954 -0.8632314543307232
4712000000.0 0.5065450095800408 -0.8681954801885596
4716000000.0 0.5029705398594545 -0.886139726066506
4719000000.0 0.5520908343790061 -0.8777232693825285
4722000000.0 0.519354030873572 -0.8868761836225365
4725000000.0 0.5140450195125429 -0.8792446087989592
4728000000.0 0.4870596265869212 -0.8896562219614609
4731000000.0 0.5187188941133859 -0.8907822186080144
4734000000.0 0.5116784123200849 -0.852300413861888
4738000000.0 0.5053264690770011 -0.8906318909790195
4741000000.0 0.5401573097014257 -0.9046106922085796
4744000000.0 0.48256554034307947 -0.8951678818574446
4747000000.0 0.48198771995087936 -0.8731053878820911
4750000000.0 0.5000708293218957 -0.9077492139300276
4753000000.0 0.5102777610378882 -0.8816927726468978
4756000000.0 0.4818351452178723 -0.9241325913025974
4759000000.0 0.5327143715953054 -0.8965624296023595
4762000000.0 0.4413355318343445 -0.8885431709978676
4766000000.0 0.48487595989046794 -0.8879594984415866
4769000000.0 0.5148930028284883 -0.905183889644625
4772000000.0 0.5052113581453188 -0.8926254940747279
4775000000.0 0.4956185789693076 -0.9281827664544046
4778000000.0 0.5115485539769498 -0.8967061905463092
4781000000.0 0.5307464175154541 -0.8895330642428755
4784000000.0 0.5297780447151186 -0.8737276427857015
4788000000.0 0.4888016383584236 -0.9145667567773188
4791000000.0 0.4859168583923603 -0.9179087073820251
4794000000.0 0.5188603188779005 -0.9099497884896628
4797000000.0 0.48768224282125305 -0.8811383615533299
4800000000.0 0.47810986848297454 -0.8963605670006644
4803000000.0 0.4594584630672237 -0.8982853943801635
4806000000.0 0.5028291695121274 -0.9292862373389403
4809000000.0 0.4471771974009972 -0.9211793888288878
4812000000.0 0.453686536336917 -0.9036093896255356
4816000000.0 0.505872228986268 -0.8746361045426384
4819000000.0 0.5225397129422666 -0.9044967145810886
4822000000.0 0.5291967252968266 -0.9115604530218155
4825000000.0 0.5282152483503106 -0.8933878439656732
4828000000.0 0.48410068085131286 -0.8920940599124336
4831000000.0 0.45544501959061495 -0.9344157750748531
4834000000.0 0.5231813328297187 -0.9114115299941487
4838000000.0 0.4854858119738892 -0.9418540346931678
4841000000.0 0.4999677891415446 -0.8790664989068555
4844000000.0 0.5116402185218538 -0.8843519197636902
4847000000.0 0.5137740988587125 -0.8609874006892139
4850000000.0 0.4925796245334203 -0.910783581557831
4853000000.0 0.5009448691373551 -0.88849235742677
4856000000.0 0.4809815650186031 -0.8686242903159531
4859000000.0 0.4949052414000839 -0.9245495457040481
4862000000.0 0.5011063260529873 -0.8832611879505411
4866000000.0 0.5069697638380211 -0.9167012770885465
4869000000.0 0.49328062465535116 -0.9157424408667559
4872000000.0 0.4712391764179261 -0.9469210342209651
4875000000.0 0.5563255945823332 -0.9167859263231956
4878000000.0 0.5104657274684744 -0.912951135164597
4881000000.0 0.48932876795021973 -0.95531411948093
4884000000.0 0.5032904404423402 -0.9010885160049974
4888000000.0 0.5468388808603617 -0.8931670425428825
4891000000.0 0.5557980081506055 -0.9197390056922022
4894000000.0 0.47784221115138265 -0.8858662489145681
4897000000.0 0.5106344421067339 -0.8877832824102331
4900000000.0 0.5218008564076131 -0.9023318720205125
4903000000.0 0.5311785135922803 -0.9008778724762927
4906000000.0 0.5208833466039717 -0.9066030838472908
4909000000.0 0.501359055221721 -0.9072743459294005
4912000000.0 0.5376447925966757 -0.9421756744062072
4916000000.0 0.5056764179178744 -0.9216091638526638
4919000000.0 0.5534549807363344 -0.9199951283305218
4922000000.0 0.5561365049237793 -0.8843866716416182
4925000000.0 0.465807544225701 -0.9052430212728002
4928000000.0 0.5560707292726882 -0.8563204408301894
4931000000.0 0.5327882759432337 -0.8593474155470258
4934000000.0 0.5031695681856808 -0.8830507188111244
4938000000.0 0.4808507161610635 -0.9066345946848471
4941000000.0 0.5073623485855979 -0.8694898772677555
4944000000.0 0.4854418663494191 -0.817528314781067
4947000000.0 0.5071272062987292 -0.8419298330231058
4950000000.0 0.4806709550555906 -0.8752303193321086
4953000000.0 0.4941267898605112 -0.9364568534942707
4956000000.0 0.47773027806380575 -0.9249705141122927
4959000000.0 0.4725533745757705 -0.8702028202468686
4962000000.0 0.5176015790418288 -0.9212758778122754
4966000000.0 0.5431111770653417 -0.8806837321069289
4969000000.0 0.5854194786199515 -0.9149662668277753
4972000000.0 0.5330235515592301 -0.9052054566320404
4975000000.0 0.5554272811465404 -0.8695578063015925
4978000000.0 0.5116685483594985 -0.8841452750619545
4981000000.0 0.5004972537402637 -0.9030276919885951
4984000000.0 0.49741382077593854 -0.8975111651635209
4988000000.0 0.5125752474482068 -0.8747031837422268
4991000000.0 0.5902898142151453 -0.9009919361815881
4994000000.0 0.5084800656421987 -0.8866624276574246
4997000000.0 0.4506252947929444 -0.9297156029183715
5000000000.0 0.5470234012162675 -0.9311552599734636
5003000000.0 0.5485244362448569 -0.9312884701112927
5006000000.0 0.5483075654041751 -0.9416239429811181
5009000000.0 0.5215436237314276 -0.8710803390907325
5012000000.0 0.47469300573205064 -0.9091719616756945
5016000000.0 0.5920961771098866 -0.9182766422909137
5019000000.0 0.48884799403927753 -0.8780691446808557
5022000000.0 0.5285144768795071 -0.8827673756608398
5025000000.0 0.5611296988803225 -0.9541074397867451
5028000000.0 0.5086507241971576 -0.9135382881311842
5031000000.0 0.5386845766311528 -0.8913384675301054
5034000000.0 0.5168587501727661 -0.9533718935028126
5038000000.0 0.47204081317196034 -0.8811812350333996
5041000000.0 0.5818739556912004 -0.8804010417943005
5044000000.0 0.5674902932394243 -0.8652327481603777
5047000000.0 0.5398083170274719 -0.9060772448895646
5050000000.0 0.5625654865638476 -0.8279220822231895
5053000000.0 0.520160994630253 -0.9321453543652507
5056000000.0 0.5548432382900617 -0.8476800348879923
5059000000.0 0.5832136309070105 -0.8574659403877188
5062000000.0 0.5227346068857789 -0.90982343243622
5066000000.0 0.5312616675094186 -0.8705004370555216
5069000000.0 0.5163153340017118 -0.9050350960379536
5072000000.0 0.49050827589764195 -0.8858650562566054
5075000000.0 0.5595233631856433 -0.8746558073679305
5078000000.0 0.4785307647900833 -0.9428638936944558
5081000000.0 0.5003407273409995 -0.8755386634451539
5084000000.0 0.5204623390974792 -0.9111555742190288
5088000000.0 0.5412539169348198 -0.8633769963855017
5091000000.0 0.5164039125660613 -0.8895858980778364
5094000000.0 0.5431224906894734 -0.8553026913102272
5097000000.0 0.5389487704972469 -0.8622652404884736
5100000000.0 0.5225465055880103 -0.8897286332953713
5103000000.0 0.52009468493631 -0.9347122819019498
5106000000.0 0.5338939176655486 -0.9472189664126847
5109000000.0 0.5261862026769669 -0.8547010418330225
5112000000.0 0.5153901089896021 -0.8894020031242033
5116000000.0 0.47911207894548846 -0.857369926927783
5119000000.0 0.5704142933598424 -0.9167314263311416
5122000000.0 0.5541111583573727 -0.8850143510321267
5125000000.0 0.544812678462617 -0.9062954423919563
5128000000.0 0.49466663783884757 -0.8802838939739246
5131000000.0 0.5617728130991357 -0.8916159432643984
5134000000.0 0.5601599335205459 -0.8424955015935724
5138000000.0 0.5639876793258062 -0.8378765154382508
5141000000.0 0.5582427717348755 -0.8120780521361805
5144000000.0 0.5640744786747798 -0.874907159541182
5147000000.0 0.5659153980626566 -0.9233005328328825
5150000000.0 0.6096851736177916 -0.8609746134641298
5153000000.0 0.5835201766333881 -0.9237965350781936
5156000000.0 0.5358291197943652 -0.8722790188483545
5159000000.0 0.5773768870300311 -0.9202812849342519
5162000000.0 0.5080185020905829 -0.8784149775224094
5166000000.0 0.5643002200069799 -0.9143271004928506
5169000000.0 0.5654578216878202 -0.9128823612231574
5172000000.0 0.5248096837298057 -0.8669954015844786
5175000000.0 0.5920019836804664 -0.9325886416959075
5178000000.0 0.556383511545254 -0.9196244939196291
