! Created with skrf 1.8.0 (http://scikit-rf.org).
# Hz S RI R 50.0 
!freq ReS11 ImS11
4000000000.0 0.5514128918860621 -0.8761186468060128
4003000000.0 0.5954483177947948 -0.9176582182459685
4006000000.0 0.5109516685191191 -0.8917502899763388
4009000000.0000005 0.5898568676640922 -0.8496082977856529
4011999999.9999995 0.5884977467640693 -0.8417491908874422
4016000000.0 0.5655089304532285 -0.9227167579870127
4019000000.0 0.5600943660849766 -0.8716326201516258
4022000000.0000005 0.6102615828220175 -0.8830260960454196
4025000000.0000005 0.5121396858231679 -0.9268358384057968
4027999999.9999995 0.5429390550746166 -0.9028016148654957
4030999999.9999995 0.5312581299525109 -0.7910450729392055
4034000000.0 0.5428442444356827 -0.8811862271724796
4038000000.0000005 0.5628762933257336 -0.8807015745906124
4041000000.0000005 0.5330930831223694 -0.9192848183748299
4043999999.9999995 0.6008267115788043 -0.9351723665007217
4046999999.9999995 0.5920830049133081 -0.9140151052266973
4050000000.0 0.5296920724415444 -0.9665496525318374
4053000000.0 0.5149314945354256 -0.8848719409708524
4056000000.0 0.5566148604926762 -0.883355479797452
4059000000.0 0.5590444619501966 -0.8598215243608294
4062000000.0000005 0.51603252981315 -0.8620951922702629
4066000000.0 0.4717311324308004 -0.8173013868334428
4069000000.0 0.5552187309101843 -0.9286739115500529
4072000000.0 0.561982769046449 -0.8676301825338631
4075000000.0 0.6602721756469194 -0.876247041357861
4078000000.0000005 0.5701363817885795 -0.8642010781920799
4081000000.0000005 0.6019335261850688 -0.8484016368217018
4083999999.9999995 0.5512016318745819 -0.9096653843829638
4088000000.0 0.6205998567504841 -0.8607627781187235
4091000000.0 0.5864685434521784 -0.9158430313959497
4094000000.0000005 0.5496577914510539 -0.867469148314495
4097000000.0000005 0.5382919858961988 -0.8963726278457539
4099999999.9999995 0.5280497524145246 -0.8736422944751364
4102999999.9999995 0.5880589423746383 -0.8950228996699766
4106000000.0 0.5366942092219056 -0.8851295672552069
4109000000.0 0.539561043821105 -0.8721608617766133
4112000000.0 0.5935900396932734 -0.8758098760171638
4115999999.9999995 0.5792583266870606 -0.8708639823569306
4119000000.0 0.5427386293838296 -0.9031940414314821
4122000000.0 0.5241418041222509 -0.8935876575376129
4125000000.0 0.5673490529970162 -0.8908645412149471
4128000000.0 0.5551077739054356 -0.8338434924182093
4131000000.0 0.5559340860680995 -0.8639123889802266
4134000000.0000005 0.583703834470853 -0.8646262346981124
4138000000.0 0.5586920836735866 -0.8473096852755927
4141000000.0 0.5369804109226819 -0.8743300620081262
4144000000.0 0.5808290630874181 -0.8880936347400715
4147000000.0000005 0.5529787538981447 -0.8545186439300237
4150000000.0000005 0.6221093267814435 -0.8940269122750623
4152999999.9999995 0.5405605271228996 -0.8904641649107894
4155999999.9999995 0.5665025483890124 -0.8727340375276725
4159000000.0 0.5690339211625938 -0.8570573381494009
4162000000.0 0.5602784854435611 -0.8440808612847197
4166000000.0000005 0.5211911232179484 -0.901174648206974
4168999999.9999995 0.5421773636896436 -0.8436140478957961
4171999999.9999995 0.5724742489343542 -0.8627920215666216
4175000000.0 0.5657562164046943 -0.8540051685104079
4178000000.0 0.5669691248542024 -0.8715995419271214
4181000000.0 0.5626291742764856 -0.89145594119475
4184000000.0 0.5478801721513018 -0.8725213586084202
4187999999.9999995 0.572478876330042 -0.8883556317859618
4191000000.0 0.5572724411588666 -0.8406325184276451
4194000000.0 0.5441988025074886 -0.8743904685069293
4197000000.0 0.5676430844275429 -0.8683502940906758
4200000000.0 0.5702634019719844 -0.8686596648734896
4203000000.0000005 0.5573799521684994 -0.850604995838856
4206000000.0000005 0.574783323749306 -0.8596261181133044
4208999999.9999995 0.5587905771611177 -0.8350449844830654
4211999999.9999995 0.5494300051131638 -0.8814371957541474
4216000000.0 0.5649319839114298 -0.8652541119850394
4219000000.0000005 0.5607682207421747 -0.8837274041321583
4222000000.0000005 0.5598491188876346 -0.84193210504287
4224999999.9999995 0.5508639334091273 -0.8642469606287999
4227999999.9999995 0.5528765727199214 -0.8661945854709223
4231000000.0 0.551883124925152 -0.8443061689670451
4234000000.0 0.5647163020663201 -0.8585799154139521
4238000000.0000005 0.5799415779989914 -0.8801375914452148
4240999999.9999995 0.5407725801162417 -0.8728298260996805
4244000000.0 0.5683483803075393 -0.8445105573794103
4247000000.0 0.57131809947241 -0.8656964404424281
4250000000.0 0.5296787735584645 -0.8513800399465496
4253000000.0 0.5341410783875339 -0.84449483077894
4256000000.0 0.5827004384581553 -0.8711432931798437
4259000000.0000005 0.5201078148255134 -0.8403529092189624
4261999999.9999995 0.5500587685234597 -0.8720157450615327
4266000000.0 0.5408759779799369 -0.8852235419167139
4269000000.0 0.586579879258853 -0.8588230903221956
4272000000.0000005 0.5538506601285917 -0.8548114554645837
4275000000.0000005 0.560916762169329 -0.8678637979779011
4277999999.9999995 0.5652898076012254 -0.8750673726770597
4280999999.9999995 0.5637474329079913 -0.8513352125356315
4284000000.0 0.524765534354838 -0.8909933940111159
4288000000.0000005 0.5872573929669569 -0.8379192200770624
4291000000.0000005 0.549620993126108 -0.8523722797737354
4293999999.9999995 0.5462652335627171 -0.8411941449167437
4297000000.0 0.563796486365344 -0.8271654355422847
4300000000.0 0.5394965773928677 -0.843492335389903
4303000000.0 0.5314088226749215 -0.8525027234126201
4306000000.0 0.5861708502031794 -0.8343216552227314
4309000000.0 0.5223622465759469 -0.8566249342051723
4312000000.0 0.5858345944118181 -0.8679629368744086
4316000000.0 0.5719518388031366 -0.8523540548773937
4319000000.0 0.5426948520642414 -0.8526258906071003
4322000000.0 0.5292993075497825 -0.8300496663473589
4325000000.0 0.5746592682371321 -0.855058848028002
4328000000.0 0.5431007591477938 -0.8637161434670945
4331000000.0 0.5305046668233561 -0.8750419669785219
4334000000.0 0.5391140243413759 -0.8749101523037637
4338000000.0 0.5527272452201238 -0.8429913172886769
4341000000.0 0.5786052253109736 -0.8629075936846872
4344000000.0 0.5748596151028753 -0.8528683886717432
4347000000.0 0.5448903514759503 -0.8537844861116972
4350000000.0 0.5234067999076273 -0.8508196397524567
4353000000.0 0.5746582646741695 -0.8207779635963223
4356000000.0 0.5320766816112424 -0.8650246628516138
4359000000.0 0.5210440554418782 -0.8107827504263119
4362000000.0 0.4858779955307985 -0.9035754327396919
4366000000.0 0.5446702050745251 -0.8763558335645831
4369000000.0 0.529128171474109 -0.8379045788950049
4372000000.0 0.5228526563615774 -0.8587629080207493
4375000000.0 0.5524127612424312 -0.8382165373987771
4378000000.0 0.5262895541531207 -0.842015995361156
4381000000.0 0.5500798486639811 -0.8226779304141901
4384000000.0 0.5800285855485081 -0.9062668537378684
4388000000.0 0.553742634485674 -0.834171378334811
4391000000.0 0.5616600097038252 -0.8620909709235883
4394000000.0 0.5277195075067385 -0.8308669518021998
4397000000.0 0.5376905841723463 -0.8452148565860057
4400000000.0 0.5585684354523548 -0.8712194833185123
4403000000.0 0.5615478593106834 -0.8631424947633264
4406000000.0 0.5256711426321583 -0.862434355544958
4409000000.0 0.5496422806110034 -0.8886047910722088
4412000000.0 0.4825174144872195 -0.8862025871676412
4416000000.0 0.5366371174375147 -0.8510673175467525
4419000000.0 0.5169099996717309 -0.8829545006288846
4422000000.0 0.5419695137427284 -0.8401536560428098
4425000000.0 0.5822137846295811 -0.8589440745038932
4428000000.0 0.5447841068954963 -0.8635596302980376
4431000000.0 0.5663112399291813 -0.8726293329601994
4434000000.0 0.5269696292301209 -0.8444015042363606
4438000000.0 0.5625993928962042 -0.87675369090216
4441000000.0 0.5538271471431067 -0.8586435116488845
4444000000.0 0.5430262962431459 -0.8345143843881466
4447000000.0 0.5175101214324895 -0.85356118994715
4450000000.0 0.5459091209461789 -0.8435853108666338
4453000000.0 0.5490977311200312 -0.8759803741352864
4456000000.0 0.50651170338325 -0.8335074563978315
4459000000.0 0.4899746344177877 -0.8403540435937382
4462000000.0 0.5565349421320711 -0.9026945753272979
4466000000.0 0.5656691741329005 -0.8925482320733722
4469000000.0 0.5458997982016388 -0.8386193661946204
4472000000.0 0.5244571291941941 -0.8889453681355991
4475000000.0 0.5276052069623933 -0.8325278415327857
4478000000.0 0.5434855337161051 -0.9135936011745835
4481000000.0 0.5167060557591514 -0.8486241991808059
4484000000.0 0.4888413710421198 -0.876520781604732
4488000000.0 0.49032488464408797 -0.8641373930154568
4491000000.0 0.5335363484311597 -0.8771266511548821
4494000000.0 0.5151185394674835 -0.8357961745777914
4497000000.0 0.5458202715295553 -0.8523038841156193
4500000000.0 0.5302311924451077 -0.8538339061865243
4503000000.0 0.5449941913012877 -0.8829096264575644
4506000000.0 0.5145450240064122 -0.8627535423298489
4509000000.0 0.5145789098129586 -0.8302222954086267
4512000000.0 0.5025660438151495 -0.8543914273011219
4516000000.0 0.5492509582883628 -0.8644921841380704
4519000000.0 0.5257423626523416 -0.8342800853529675
4522000000.0 0.5083570433627325 -0.8717191164610263
4525000000.0 0.5562214471167244 -0.8312360367455465
4528000000.0 0.540094904116537 -0.8773200930146907
4531000000.0 0.5436717837974472 -0.8665957956382638
4534000000.0 0.5272502332227758 -0.8378836595353982
4538000000.0 0.5116278486516516 -0.8651089391402182
4541000000.0 0.49025129963420977 -0.8792414481878703
4544000000.0 0.521197878035055 -0.8257559056133701
4547000000.0 0.5228497037925122 -0.8422652462803957
4550000000.0 0.4967615783152768 -0.8686320397820286
4553000000.0 0.5048701955038035 -0.8799576666566229
4556000000.0 0.5039253210819883 -0.8650414122522345
4559000000.0 0.5110969917194216 -0.8687732943343145
4562000000.0 0.5362640547239774 -0.8766491501884235
4566000000.0 0.5398957208093673 -0.8753323044927945
4569000000.0 0.5009493247905438 -0.8695940679244658
4572000000.0 0.5217561006086355 -0.8839940891939058
4575000000.0 0.51920856076595 -0.8830316008943272
4578000000.0 0.5477261492855631 -0.8825301453429192
4581000000.0 0.509278456777954 -0.895068787662752
4584000000.0 0.5082201071177225 -0.8541587228805949
4588000000.0 0.547834549511713 -0.8717537185675437
4591000000.0 0.5217390926013888 -0.8468376468936657
4594000000.0 0.4949895060413227 -0.864086514101691
4597000000.0 0.5078098674406173 -0.8806216790962323
4600000000.0 0.48389841416780544 -0.8610540669411219
4603000000.0 0.5084711303430467 -0.880901044851168
4606000000.0 0.5203162826193495 -0.881817880872503
4609000000.0 0.5131734230394805 -0.8817822671977504
4612000000.0 0.5102021980949674 -0.884149140620061
4616000000.0 0.5074794700087554 -0.8679954016716991
4619000000.0 0.5272679953865809 -0.8775698817572053
4622000000.0 0.5019759036394864 -0.8707486675696863
4625000000.0 0.4820488299343796 -0.8659892029559974
4628000000.0 0.5161346440119068 -0.8535481163866047
4631000000.0 0.4848789612645766 -0.8713864298324274
4634000000.0 0.513738566055129 -0.8854316850116853
4638000000.0 0.5210364837558801 -0.8896084221134205
4641000000.0 0.5238952311556512 -0.8683300840079313
4644000000.0 0.511190324517535 -0.8548197023531621
4647000000.0 0.5114010412244213 -0.8888996572879715
4650000000.0 0.49839039396843865 -0.8699856491504641
4653000000.0 0.5373619889102976 -0.8691294254254118
4656000000.0 0.5059142820620213 -0.8735342611398559
4659000000.0 0.5147148128926413 -0.883584935616111
4662000000.0 0.5036982152120191 -0.8905080931198437
4666000000.0 0.48835555359694466 -0.8934715306367452
4669000000.0 0.4991053647915311 -0.8838237229328744
4672000000.0 0.5017271948447753 -0.9062366387047833
4675000000.0 0.4764037334461314 -0.8876184521187837
4678000000.0 0.5037640296245014 -0.8694166207777114
4681000000.0 0.4803454867515845 -0.8966207289739637
4684000000.0 0.4795504781828321 -0.913292776190228
4688000000.0 0.48835525734046736 -0.8815683590419594
4691000000.0 0.4976437468087246 -0.8784762671702312
4694000000.0 0.5335849817374176 -0.8814124343812562
4697000000.0 0.45733154267980086 -0.8586825959369181
4700000000.0 0.5048894528107334 -0.8668959596270558
4703000000.0 0.5145647400168775 -0.847397017395433
4706000000.0 0.4854763851530074 -0.8910719433209887
4709000000.0 0.4714588387576607 -0.8939657293573154
4712000000.0 0.5068964691937051 -0.892786841131256
4716000000.0 0.488315871995394 -0.8910782291851139
4719000000.0 0.5467528455819206 -0.8956762728132386
4722000000.0 0.5222592240444337 -0.8861240817994565
4725000000.0 0.5302352313708848 -0.8728872694281923
4728000000.0 0.49399494226356677 -0.8747780447249319
4731000000.0 0.49416154106111926 -0.8955094195460325
4734000000.0 0.5324957467817415 -0.8743526638137356
4738000000.0 0.5500285963570444 -0.8762094430663812
4741000000.0 0.4817389077041871 -0.8921078316688505
4744000000.0 0.4497115262951825 -0.8994874372355638
4747000000.0 0.4914451573969337 -0.8648548468920847
4750000000.0 0.5090978044747565 -0.8848336092345216
4753000000.0 0.4890973324840825 -0.8644677040378503
4756000000.0 0.4727217609915887 -0.9060689278030277
4759000000.0 0.5240139331909359 -0.900593730620826
4762000000.0 0.4765987614878098 -0.9042673570808997
4766000000.0 0.4614056050604577 -0.8996836627269518
4769000000.0 0.4962215004038528 -0.9101286891339079
4772000000.0 0.5008866311292577 -0.9056316750037773
4775000000.0 0.5377927906489761 -0.9544256462785679
4778000000.0 0.5258512158014816 -0.8894947664025238
4781000000.0 0.4866516380897756 -0.8493547120676367
4784000000.0 0.522374296604206 -0.885967677393155
4788000000.0 0.49060165283818 -0.9034622150243319
4791000000.0 0.4990947917199783 -0.8882903277991759
4794000000.0 0.5629068519346474 -0.9343427005208278
4797000000.0 0.4811026254833603 -0.8739438767187935
4800000000.0 0.4790778918446702 -0.8937665078001703
4803000000.0 0.4634345641194702 -0.8979415425680798
4806000000.0 0.49348490735560735 -0.9209939648626467
4809000000.0 0.45811268261442395 -0.9194218242170504
4812000000.0 0.47477759772263195 -0.887096178370343
4816000000.0 0.5022597211660235 -0.8616286406133336
4819000000.0 0.5237070108676231 -0.9057286194585102
4822000000.0 0.5357178681488072 -0.9136313671102074
4825000000.0 0.5263415422459503 -0.9194985217548033
4828000000.0 0.46859441205696084 -0.8956435814740595
4831000000.0 0.4648831637856058 -0.9230843583341352
4834000000.0 0.5070035332306447 -0.8886577231476906
4838000000.0 0.4926525745416065 -0.9255764669875642
4841000000.0 0.4667826703684341 -0.9116538806269118
4844000000.0 0.5354623294771287 -0.8899703627920681
4847000000.0 0.49455290722882506 -0.8660637273346167
4850000000.0 0.507698165290847 -0.9155408830062713
4853000000.0 0.48519064429116243 -0.889627053181644
4856000000.0 0.4970580204644056 -0.8811080198469934
4859000000.0 0.5054800675902792 -0.9271457817479706
4862000000.0 0.5357786971787989 -0.8582900016607837
4866000000.0 0.4734590766847959 -0.9303282648735617
4869000000.0 0.4998794352854263 -0.9073612727263689
4872000000.0 0.4946304676579403 -0.9383363337525964
4875000000.0 0.5859812989698552 -0.9260012712935337
4878000000.0 0.4902190228778007 -0.9209747375598085
4881000000.0 0.512942743089575 -0.9742985501784598
4884000000.0 0.5231122750343848 -0.9088098435809336
4888000000.0 0.546494426354627 -0.8722939222637682
4891000000.0 0.5233696669579506 -0.9075922334248011
4894000000.0 0.4701245440533936 -0.9118270786724245
4897000000.0 0.5422022173335956 -0.8806659611940167
4900000000.0 0.5038170669186725 -0.9018541692239306
4903000000.0 0.5375658776743147 -0.9011213410307382
4906000000.0 0.5118766562886552 -0.8922741383727679
4909000000.0 0.5113543172416505 -0.8851713351345023
4912000000.0 0.5486694906140193 -0.9572370969462266
4916000000.0 0.5312713012600982 -0.9208783542053632
4919000000.0 0.5444558170808006 -0.9074437343184881
4922000000.0 0.5276092273125366 -0.8834347284661695
4925000000.0 0.44399180757419765 -0.8826745793545603
4928000000.0 0.5663264328428647 -0.8975841800287003
4931000000.0 0.565089420313556 -0.8795729143991362
4934000000.0 0.5014781979402468 -0.8234358400763543
4938000000.0 0.47534033182812263 -0.944769429612402
4941000000.0 0.5231690313982987 -0.9035604375393929
4944000000.0 0.5134285789865886 -0.861004283419465
4947000000.0 0.47796816172597967 -0.8597912869336195
4950000000.0 0.4751639351591619 -0.9011572140689583
4953000000.0 0.4761266102142819 -0.9285881718014737
4956000000.0 0.4989508391914911 -0.9380430655702571
4959000000.0 0.43315214978766026 -0.9106368803446986
4962000000.0 0.5130612996357442 -0.9390977983473983
4966000000.0 0.5225373076429058 -0.9099833545934115
4969000000.0 0.5480169050561836 -0.913782040320646
4972000000.0 0.5227755840148661 -0.9189038041314008
4975000000.0 0.5012999257256032 -0.8671953133657797
4978000000.0 0.48686953196682425 -0.9036779911248589
4981000000.0 0.5204737980344357 -0.9006233202320872
4984000000.0 0.5129989113822553 -0.8816441725149601
4988000000.0 0.530806442498677 -0.8774702527106067
4991000000.0 0.5618675177904273 -0.9039855509331327
4994000000.0 0.5241736175725543 -0.8846748990545763
4997000000.0 0.49952973894795816 -0.9085989494242642
5000000000.0 0.541956278458636 -0.9146890288777894
5003000000.0 0.5489350563847722 -0.8884970038137157
5006000000.0 0.5435810653822397 -0.9338453439234393
5009000000.0 0.5270594162198816 -0.9103319769319911
5012000000.0 0.5140413159789284 -0.9344813616125072
5016000000.0 0.5748832658753669 -0.905925667438596
5019000000.0 0.5290100101937447 -0.8857771829323755
5022000000.0 0.5327127398249106 -0.9218104575650179
5025000000.0 0.5386075877093897 -0.9708551544125412
5028000000.0 0.5211241999570364 -0.9279019033503277
5031000000.0 0.533456619932475 -0.8704811729508
5034000000.0 0.5157878899028101 -0.942963211871215
5038000000.0 0.5023947456487953 -0.8731305388648151
5041000000.0 0.5759494325650192 -0.8461498728225434
5044000000.0 0.5603371416741941 -0.8470109812366522
5047000000.0 0.5580114137570498 -0.8800302552917606
5050000000.0 0.5907943152467794 -0.8592221228887131
5053000000.0 0.5458200855824231 -0.936209804830848
5056000000.0 0.56582550979755 -0.8731966326796605
5059000000.0 0.5694518523039341 -0.8699059449409162
5062000000.0 0.5153261107017706 -0.9498160949029627
5066000000.0 0.5902671568392099 -0.8584903679254685
5069000000.0 0.5427387554398988 -0.8832798366868695
5072000000.0 0.5468571735382067 -0.8396338685010205
5075000000.0 0.5526936870745112 -0.8799158063338326
5078000000.0 0.5190047726605779 -0.8978411602095542
5081000000.0 0.5061899322172143 -0.8743264894051104
5084000000.0 0.552407904940007 -0.8998313512749476
5088000000.0 0.5907622714410922 -0.8404377010970655
5091000000.0 0.5155411590941328 -0.9014080371781821
5094000000.0 0.5279891765400314 -0.9185319791035437
5097000000.0 0.5893547366022661 -0.8537785900295602
5100000000.0 0.5379915162072031 -0.8642257144167442
5103000000.0 0.4941484397130701 -0.9263779082316811
5106000000.0 0.595717809129342 -0.9595192393108751
5109000000.0 0.6273886251877568 -0.8611022736119214
5112000000.0 0.5066940764252652 -0.9008452904537086
5116000000.0 0.4885135347004549 -0.847966725378698
5119000000.0 0.5409795173332674 -0.9037286285728292
5122000000.0 0.5624944667100137 -0.8837006970373724
5125000000.0 0.5364378748135877 -0.8615694010388404
5128000000.0 0.5425818207352666 -0.9201186645047573
5131000000.0 0.5257134062580255 -0.8544793555689476
5134000000.0 0.5640891827047665 -0.8844007187615053
5138000000.0 0.5710706214610003 -0.8824256117028246
5141000000.0 0.6125368694440361 -0.8819266082082169
5144000000.0 0.582536897624466 -0.8609158958366789
5147000000.0 0.5997217445392504 -0.8918293252291547
5150000000.0 0.588246312718964 -0.902308792050003
5153000000.0 0.5598479258304553 -0.8912609502630433
5156000000.0 0.5594222254254549 -0.8925755412694717
5159000000.0 0.553664893821444 -0.9143267669678308
5162000000.0 0.5303107094179862 -0.9175880458339638
5166000000.0 0.579763965233231 -0.9067496380190732
5169000000.0 0.5453511610310754 -0.917801634476636
5172000000.0 0.5791963340537523 -0.8540552460162857
5175000000.0 0.5996637689029011 -0.9050640837370942
5178000000.0 0.5787944885008143 -0.9052653752060171
