! Created with skrf 1.8.0 (http://scikit-rf.org).
# Hz S RI R 50.0 
!freq ReS11 ImS11
4000000000.0 0.15234721290972913 -1.0205089456313097
4003000000.0 0.16148965620321865 -1.0630783788213163
4006000000.0 0.14835822968083107 -0.9877756559853236
4009000000.0000005 0.16954713625961004 -1.028451154401532
4011999999.9999995 0.1785244299892194 -1.028300578430565
4016000000.0 0.13078567562492366 -1.0387759608123648
4019000000.0 0.1692356771120091 -1.0241907130222925
4022000000.0000005 0.1999860552369206 -1.0155351592581046
4025000000.0000005 0.10009187771584005 -1.0481036134176054
4027999999.9999995 0.11656335838563525 -1.0366616919144294
4030999999.9999995 0.1422006259593144 -0.9937378165867715
4034000000.0 0.11459809050085598 -1.0021942520592586
4038000000.0000005 0.12073416826680297 -1.0196093851296517
4041000000.0000005 0.11708285221529324 -1.0543381712768827
4043999999.9999995 0.13509551514456145 -1.076783182573212
4046999999.9999995 0.13089505269882593 -1.0610474240766654
4050000000.0 0.1307875096869245 -1.0223587275137065
4053000000.0 0.11498884119205965 -1.028996096324075
4056000000.0 0.12064163036375192 -1.0167522433605543
4059000000.0 0.09079186470321912 -1.0267828515867397
4062000000.0000005 0.09708197240882724 -0.9984327631845284
4066000000.0 0.11189563311897222 -0.9887828176488381
4069000000.0 0.07494696877401416 -1.027194143418974
4072000000.0 0.1376154169750256 -0.9957156528364142
4075000000.0 0.11837858279163507 -1.0362557797236733
4078000000.0000005 0.07767582395739889 -1.0245855553735264
4081000000.0000005 0.12181681792395185 -1.0157931034034018
4083999999.9999995 0.07938729160457027 -1.04119157567928
4088000000.0 0.10755528085966533 -0.9920197717717145
4091000000.0 0.10375245397795019 -1.0181834483727996
4094000000.0000005 0.06763331080410796 -1.0098809759049654
4097000000.0000005 0.0697084448506391 -1.0136364674516396
4099999999.9999995 0.070929346343619 -1.0039601456261824
4102999999.9999995 0.10806361721819398 -0.9966683085342304
4106000000.0 0.06138709009072128 -1.057565553642443
4109000000.0 0.06633819243357447 -1.0157503075353207
4112000000.0 0.0832721095460261 -1.016324906524453
4115999999.9999995 0.059169180441088556 -1.0443256196665236
4119000000.0 0.0631784536737633 -1.047771584860353
4122000000.0 -0.008605917801941107 -1.0340559966698828
4125000000.0 0.024911850967291357 -1.0145025930217557
4128000000.0 0.038029438834319376 -0.9662772544731085
4131000000.0 0.0271785033421687 -0.9928358921054514
4134000000.0000005 0.04938541631798115 -1.02674728726549
4138000000.0 0.05066502124910177 -1.0089807286253294
4141000000.0 0.04488933954602544 -1.0061025302930946
4144000000.0 0.05818977845127922 -1.0283983905281904
4147000000.0000005 0.02424847795427125 -1.0390435387874781
4150000000.0000005 -0.0037825329757651266 -1.0177223449471482
4152999999.9999995 0.04049381174290005 -1.0112202264619448
4155999999.9999995 0.0369546069474243 -1.0519055641754984
4159000000.0 0.025404051048048736 -1.0098123456031123
4162000000.0 0.023295884950813375 -1.017150893463582
4166000000.0000005 0.014429224416203312 -1.0470315060195197
4168999999.9999995 -0.009872298370714391 -1.0061628600261119
4171999999.9999995 0.006662344029719436 -1.0264454202592206
4175000000.0 0.0027009795035072837 -1.0292480692755663
4178000000.0 0.0064995487867144375 -1.030158610526723
4181000000.0 -0.03241484561956404 -0.994758451120207
4184000000.0 -0.0037431980942760623 -0.9944037438358695
4187999999.9999995 -0.013268205085398999 -0.9929075005487603
4191000000.0 -0.000554933156309334 -1.0217528444172512
4194000000.0 -0.03396742747530526 -0.9980230986500507
4197000000.0 -0.012896712724286746 -1.02380587014022
4200000000.0 0.0009525934460300478 -1.0190785462002185
4203000000.0000005 -0.02588955419145597 -1.0460245564897412
4206000000.0000005 -0.0314777840068074 -1.0185162274196433
4208999999.9999995 -0.058406737764284455 -1.007204840795386
4211999999.9999995 -0.07513952663896811 -1.0070795234705279
4216000000.0 -0.023218265461793175 -1.0480847654850467
4219000000.0000005 -0.045422585952641426 -1.0346052586997043
4222000000.0000005 -0.0455000621981059 -1.00141288014018
4224999999.9999995 -0.0789394490778651 -0.9983926849457362
4227999999.9999995 -0.06862619819073956 -1.015104212697012
4231000000.0 -0.09020451042047661 -1.0069314345462737
4234000000.0 -0.09958825823550793 -1.0271842453092255
4238000000.0000005 -0.10627431125009301 -1.0140461775555343
4240999999.9999995 -0.11333361191121055 -0.9804477853513668
4244000000.0 -0.09430032834565072 -0.9837792474838379
4247000000.0 -0.11283784524591889 -0.9990893919179866
4250000000.0 -0.10037982291731573 -0.9747438334799051
4253000000.0 -0.11844747113005905 -0.9806788937946764
4256000000.0 -0.11691642055746543 -1.0465115157182125
4259000000.0000005 -0.1396210353856009 -0.9446769583778275
4261999999.9999995 -0.1405741056466155 -0.9840308105560276
4266000000.0 -0.16616668330723489 -1.0180851598897414
4269000000.0 -0.13204416204663239 -0.9986868271896562
4272000000.0000005 -0.1440660801778461 -1.0033760401649507
4275000000.0000005 -0.15101737284377137 -1.012917419757788
4277999999.9999995 -0.14549394836187052 -1.037539394041107
4280999999.9999995 -0.13974741103241156 -1.0202296906633763
4284000000.0 -0.19080955934824684 -1.010057353659392
4288000000.0000005 -0.13660649092427346 -0.9862757476015568
4291000000.0000005 -0.17538086167177058 -0.9580908589909809
4293999999.9999995 -0.18125512745779077 -0.9853106855556123
4297000000.0 -0.14331667857084923 -1.003547886427947
4300000000.0 -0.18742583049537248 -0.9697966848120779
4303000000.0 -0.22144488031076176 -0.972357057185462
4306000000.0 -0.18457243191872058 -1.0045844369728198
4309000000.0 -0.1804271929424745 -1.005362764635604
4312000000.0 -0.1757419091958068 -1.0256352368444155
4316000000.0 -0.2062126283798968 -0.9946689283513949
4319000000.0 -0.20448969340853612 -0.9843267615048888
4322000000.0 -0.2498767838268745 -0.9584285270708641
4325000000.0 -0.24495555483786946 -0.9906301754421822
4328000000.0 -0.24078407893499898 -0.9566280459746623
4331000000.0 -0.25417788906040995 -0.9719355618905008
4334000000.0 -0.2611448075256859 -0.983623373154788
4338000000.0 -0.24918581870380596 -0.9575188606387004
4341000000.0 -0.24808093283937072 -0.9895158124387042
4344000000.0 -0.26467645639137405 -0.9923107771511599
4347000000.0 -0.29826561297892795 -0.9750467295659273
4350000000.0 -0.2868522498972533 -0.9453185343790276
4353000000.0 -0.2742777018489913 -0.9551566051099457
4356000000.0 -0.33795902283378965 -0.9541324590614529
4359000000.0 -0.32186796368681453 -0.925393786542122
4362000000.0 -0.349767353416234 -0.9421739656099357
4366000000.0 -0.3297483684749205 -0.981876316908115
4369000000.0 -0.3303378360539762 -0.9280412177961385
4372000000.0 -0.3647250655168217 -0.9418188029296548
4375000000.0 -0.33555740449311305 -0.944009016832905
4378000000.0 -0.3545799078669116 -0.9248616677262866
4381000000.0 -0.37097717171361255 -0.92555391667404
4384000000.0 -0.39882382771688973 -0.9725266499126207
4388000000.0 -0.3785825123662673 -0.922039553792571
4391000000.0 -0.3854631220296018 -0.9520108781993037
4394000000.0 -0.4083914403961727 -0.9308084984501511
4397000000.0 -0.4186358605252175 -0.9344033964027023
4400000000.0 -0.41108400275817186 -0.9252796967338575
4403000000.0 -0.4263184583467403 -0.9216823916187904
4406000000.0 -0.43843359555007744 -0.9068743149868065
4409000000.0 -0.4646676547713984 -0.9179720384345693
4412000000.0 -0.451584483502635 -0.8876412940909812
4416000000.0 -0.4466674578673594 -0.8966698093154322
4419000000.0 -0.4759006964659126 -0.9027915323894902
4422000000.0 -0.4701611665508868 -0.901908770384844
4425000000.0 -0.465097402231857 -0.8951604983647058
4428000000.0 -0.47948559471751834 -0.9219093099541213
4431000000.0 -0.4846102403797913 -0.874771214227522
4434000000.0 -0.49284362445699914 -0.8665048711154225
4438000000.0 -0.5000849477982805 -0.8960539713172118
4441000000.0 -0.5419745398317146 -0.8698339211914337
4444000000.0 -0.5258678604563437 -0.8701858900529146
4447000000.0 -0.5414109778976166 -0.87246059458331
4450000000.0 -0.5592480000672015 -0.8534808268555883
4453000000.0 -0.5518441070634148 -0.8660360269335421
4456000000.0 -0.5453887072477915 -0.8478030659949836
4459000000.0 -0.5800643172382726 -0.8555862179781558
4462000000.0 -0.5808364406531266 -0.8579124197573345
4466000000.0 -0.601127213457065 -0.8679599110637484
4469000000.0 -0.5899865725289508 -0.8416318639324061
4472000000.0 -0.5965474871418384 -0.8087529478313566
4475000000.0 -0.588951881401409 -0.8243168474241338
4478000000.0 -0.6084189857867032 -0.7945017080964653
4481000000.0 -0.6239754828474825 -0.8053692304356617
4484000000.0 -0.6842803407427276 -0.7839812022899918
4488000000.0 -0.6650243804256691 -0.761409792468666
4491000000.0 -0.6489921886657511 -0.8208401708848976
4494000000.0 -0.6462383318716457 -0.7721919604469316
4497000000.0 -0.6613922276481103 -0.7738943155513431
4500000000.0 -0.6960385387419981 -0.7717184692298892
4503000000.0 -0.6864979842528396 -0.7317934505033814
4506000000.0 -0.7363527033702486 -0.7508511212401872
4509000000.0 -0.7056997179585257 -0.6938734005146857
4512000000.0 -0.6909244578407644 -0.7135347598638085
4516000000.0 -0.7751025756171 -0.6840794857136504
4519000000.0 -0.7495384750282268 -0.6972080007464702
4522000000.0 -0.7506591173216357 -0.7294426714435991
4525000000.0 -0.7863551383856542 -0.7061307467512881
4528000000.0 -0.7491793328382578 -0.6954784716420452
4531000000.0 -0.79861246405372 -0.6430612210721346
4534000000.0 -0.8277598062605137 -0.6719988788188738
4538000000.0 -0.8116942120051518 -0.6435524275533633
4541000000.0 -0.7779267903066203 -0.6181061473572995
4544000000.0 -0.8451908262879175 -0.6395947302552966
4547000000.0 -0.8183729648628869 -0.5838008208736114
4550000000.0 -0.8423022936875998 -0.6187408154772219
4553000000.0 -0.8291090585195531 -0.567984059467618
4556000000.0 -0.8718959782651323 -0.612024439671526
4559000000.0 -0.8402248646241745 -0.6044363525842519
4562000000.0 -0.8642186111541514 -0.5639461518427723
4566000000.0 -0.8875866537414083 -0.5498713567842104
4569000000.0 -0.9338968312149564 -0.5266829580704839
4572000000.0 -0.9108545531639389 -0.4880950848636086
4575000000.0 -0.8691185561924128 -0.5056015811745198
4578000000.0 -0.8892377892994354 -0.4708564651219861
4581000000.0 -0.8975889729527005 -0.46380363731037083
4584000000.0 -0.9535810995272054 -0.4490434701420198
4588000000.0 -0.9512695608271837 -0.43411963679301646
4591000000.0 -0.9741690393672213 -0.3795649898915118
4594000000.0 -0.9373164629044277 -0.42415548712714096
4597000000.0 -0.9530117121779067 -0.3793736227621659
4600000000.0 -0.9963958899289476 -0.4162410635868861
4603000000.0 -0.9444980672945057 -0.33281889076269655
4606000000.0 -1.0272097264582614 -0.37870630998092786
4609000000.0 -0.9622722824066858 -0.35495380317725045
4612000000.0 -0.9430426016595947 -0.2747488225362088
4616000000.0 -0.9958913290404932 -0.28126974040393105
4619000000.0 -1.013223534482353 -0.2525907370634646
4622000000.0 -0.997997879628707 -0.18648055971534813
4625000000.0 -1.0985993896335173 -0.19533527536071182
4628000000.0 -1.1434268104486256 -0.20926477839307756
4631000000.0 -1.057457707771395 -0.2304733629150401
4634000000.0 -1.0382942777784776 -0.14656816313430898
4638000000.0 -1.0330460104609698 -0.1300967059555922
4641000000.0 -1.057725777261011 -0.09164192122986503
4644000000.0 -0.9920248678815493 -0.1290135852525803
4647000000.0 -1.026631807501859 -0.12732904879082216
4650000000.0 -1.025395177559026 -0.10568861089423842
4653000000.0 -1.0135458564667792 -0.04957654853740287
4656000000.0 -1.0475252405865434 -0.09815133209960494
4659000000.0 -1.0259563738763617 -0.016064625414258543
4662000000.0 -1.0570342322987518 0.018075836994368794
4666000000.0 -1.0533279556508783 0.10632051549484692
4669000000.0 -1.0885652049953927 0.04855064136389879
4672000000.0 -1.1350948820627886 0.08434982936322648
4675000000.0 -1.0453950377838757 0.14661927727269933
4678000000.0 -1.0158562225895928 0.07254443106231337
4681000000.0 -0.9885366053277883 0.20157148166319094
4684000000.0 -1.0483214224440454 0.2466377458925639
4688000000.0 -1.0189566186667005 0.2525423722148098
4691000000.0 -1.0578717718261625 0.21418148197674713
4694000000.0 -0.9774116246763103 0.22354925129745123
4697000000.0 -0.9698416632440744 0.2803052058218035
4700000000.0 -0.9849381318612689 0.25750901159646167
4703000000.0 -0.9025192876797692 0.21459946172011696
4706000000.0 -0.9683444665189875 0.29009318857672506
4709000000.0 -1.0046311075928391 0.3153870697543222
4712000000.0 -1.0003619596293163 0.3660166594455388
4716000000.0 -0.9972541156796948 0.41351144751291374
4719000000.0 -0.9653336122142814 0.3439478431387248
4722000000.0 -0.9553600463422167 0.432858535816111
4725000000.0 -0.9312684560336661 0.4446490515050592
4728000000.0 -0.924405509573629 0.5636953407239301
4731000000.0 -0.9428515453215006 0.48450576083209324
4734000000.0 -0.8921372840606225 0.4900765310675843
4738000000.0 -0.932086403480138 0.5443906906500857
4741000000.0 -0.8795034146973795 0.5614539551131218
4744000000.0 -0.8552139715963955 0.5928694863536094
4747000000.0 -0.8606662802340375 0.570661981944444
4750000000.0 -0.8301506539587736 0.6511730506481114
4753000000.0 -0.8475489545025916 0.617050646868895
4756000000.0 -0.8017987773980398 0.6834328526947767
4759000000.0 -0.8136646071477479 0.6831795920922733
4762000000.0 -0.773158139520544 0.7139588338649592
4766000000.0 -0.7295496662928616 0.7248665417365304
4769000000.0 -0.7265324050739543 0.7894617595263613
4772000000.0 -0.7002453388546016 0.7765265013612801
4775000000.0 -0.6886959897778393 0.7650545706515912
4778000000.0 -0.6723298317737086 0.7829832574136861
4781000000.0 -0.6347355509290242 0.8333552006905114
4784000000.0 -0.6284280158117189 0.8390922784221293
4788000000.0 -0.608729390567317 0.8400428131682787
4791000000.0 -0.5820750359612932 0.8549052338615484
4794000000.0 -0.5437336406573511 0.834044279192628
4797000000.0 -0.5364080948618285 0.8946888790584897
4800000000.0 -0.4691342123465157 0.9338852542605244
4803000000.0 -0.5107130555656711 0.8963337831667653
4806000000.0 -0.45739957248863844 0.9308896028207289
4809000000.0 -0.4530967725478383 0.912195576854721
4812000000.0 -0.44074912445586634 0.9249871266403644
4816000000.0 -0.37592305961505174 0.991254681401724
4819000000.0 -0.30149498400412117 0.9678479086189008
4822000000.0 -0.3236215312287013 0.9764506764431341
4825000000.0 -0.2807685177370588 0.9540220779599954
4828000000.0 -0.23806301762572635 0.9700014658148208
4831000000.0 -0.3066786601055629 0.9803764716304905
4834000000.0 -0.20419169686375704 0.9750202807007629
4838000000.0 -0.1747619348888798 0.9957953457842965
4841000000.0 -0.15348953663806272 1.0150763688631876
4844000000.0 -0.11437313325265072 1.0159605340122142
4847000000.0 -0.116993591545385 1.0616628125799243
4850000000.0 -0.11247746642183662 1.0035320579484994
4853000000.0 -0.06557782029792408 1.0236217336209046
4856000000.0 -0.024434880374239354 1.036687577724067
4859000000.0 0.022568450511042892 0.9681929823474269
4862000000.0 0.010421668471154 1.026342754890905
4866000000.0 0.017756892744210606 1.0071336375939535
4869000000.0 0.0452072851024834 1.016703197286296
4872000000.0 0.04544190422168548 0.9647167673682986
4875000000.0 0.1420293523267434 1.0017101619967255
4878000000.0 0.16611632939688592 1.0112653470467758
4881000000.0 0.10182475993770518 0.9263389473453301
4884000000.0 0.1758686427426815 1.025809910829161
4888000000.0 0.21433570961028148 1.006557395908949
4891000000.0 0.2648482563732835 0.9397266805775317
4894000000.0 0.23529816984794888 0.9751547537543735
4897000000.0 0.2804257070797459 0.9673827726561783
4900000000.0 0.30732571764840005 0.9467436746032227
4903000000.0 0.30246266567870794 0.9545805754592593
4906000000.0 0.32119971656176227 0.9472024047483321
4909000000.0 0.3621057297457084 0.9452426224404115
4912000000.0 0.38355589836897647 0.883611464959528
4916000000.0 0.40050807443352887 0.8975094232368719
4919000000.0 0.42307263399645195 0.8750924261205418
4922000000.0 0.43495727364139464 0.8908977340296312
4925000000.0 0.40424922329240726 0.9049717277462657
4928000000.0 0.5200670512436598 0.9050008394771114
4931000000.0 0.49835828135465704 0.8866809343865907
4934000000.0 0.4875874793587545 0.8918561837251316
4938000000.0 0.5079074446178509 0.8695705522370427
4941000000.0 0.5503805073710271 0.8585808726578632
4944000000.0 0.5727287997664701 0.8731975249842044
4947000000.0 0.5544150174408468 0.8408189826515068
4950000000.0 0.5726709328340608 0.84067296602809
4953000000.0 0.5804732611592734 0.7986842041492184
4956000000.0 0.6099234004330445 0.8362985687781637
4959000000.0 0.622478555411881 0.7873384301193513
4962000000.0 0.6174731550006902 0.7686598143743616
4966000000.0 0.6401758331772225 0.7503130967136745
4969000000.0 0.6539800350206303 0.7363085329020941
4972000000.0 0.6818374990502988 0.7380740540688286
4975000000.0 0.7050764682423185 0.7196184007795416
4978000000.0 0.674249731596942 0.7344940301750778
4981000000.0 0.6852713228692937 0.7044847564564337
4984000000.0 0.7467797995805198 0.6962049893314551
4988000000.0 0.7229455154680633 0.6982437776972688
4991000000.0 0.7627303527189858 0.7198445808767635
4994000000.0 0.7508939301520121 0.679389147462718
4997000000.0 0.7705263329283079 0.6668675687206325
5000000000.0 0.7724112521614452 0.6467681999576576
5003000000.0 0.786019481059352 0.6292117898948686
5006000000.0 0.8083441493119214 0.6180895253131393
5009000000.0 0.8048972639220907 0.6012420116040716
5012000000.0 0.8065319746804775 0.5743717963563811
5016000000.0 0.8346414308109495 0.5951234924093064
5019000000.0 0.8181408604139958 0.5658640505527626
5022000000.0 0.8437266829751962 0.5737007573904915
5025000000.0 0.8736570491935662 0.6181021431909342
5028000000.0 0.8839887169963802 0.5481549063350329
5031000000.0 0.8509536444986621 0.5170261010796051
5034000000.0 0.9017997396832196 0.535598593533408
5038000000.0 0.8712600738155658 0.5281358364361453
5041000000.0 0.8550769498191032 0.5430008649281677
5044000000.0 0.825769542144729 0.5110428403760833
5047000000.0 0.8853643104760441 0.521331323451542
5050000000.0 0.8532031118538029 0.5441659005550868
5053000000.0 0.942679727104361 0.4816326139319805
5056000000.0 0.8989043953941127 0.4902070949212147
5059000000.0 0.8931255802253404 0.503623801232538
5062000000.0 0.905298727267301 0.43314524951600425
5066000000.0 0.9048790541120117 0.46129663974509816
5069000000.0 0.9381409319962817 0.39754677272117245
5072000000.0 0.9042461344029269 0.3971201352287302
5075000000.0 0.9350615679611978 0.43275195163290175
5078000000.0 0.9849544108226773 0.3785695702344087
5081000000.0 0.9220562526359646 0.3721915733318076
5084000000.0 0.9900745766107548 0.36415267228802434
5088000000.0 0.9137742049786524 0.3742763849716546
5091000000.0 0.992137823474387 0.3345526270371232
5094000000.0 0.9775887745635977 0.37253995464065087
5097000000.0 0.9887366381446279 0.3825019738220556
5100000000.0 0.9297907912745016 0.36452158327534173
5103000000.0 0.9640947953453447 0.35165856752478053
5106000000.0 1.013977235246548 0.34419894499355175
5109000000.0 1.0043066185837957 0.3643085991748888
5112000000.0 0.9523125723093127 0.297413935472133
5116000000.0 0.9095480564261922 0.31316256208854376
5119000000.0 0.9963470575802469 0.33401945146648887
5122000000.0 0.9505840472600122 0.3475969574271166
5125000000.0 0.9877670687126002 0.2413624222217821
5128000000.0 0.9919382512997172 0.27094756584434543
5131000000.0 0.9667322196230123 0.23985924596149127
5134000000.0 1.0223456740796049 0.26475071033709424
5138000000.0 1.0013987822153592 0.23162557009157658
5141000000.0 0.9898135396402751 0.3110964441156942
5144000000.0 1.0426972006418123 0.2746903165296787
5147000000.0 1.005473987607291 0.24673964310133528
5150000000.0 0.9709507067582539 0.2521264317318551
5153000000.0 0.9511530963011464 0.1901176500876926
5156000000.0 1.0493854396250375 0.21105227051824976
5159000000.0 1.0333656214006108 0.21543886536154055
5162000000.0 0.9623844057776652 0.24746718310800558
5166000000.0 1.0830343255128976 0.08679225231134585
