! Created with skrf 1.8.0 (http://scikit-rf.org).
# Hz S RI R 50.0 
!freq ReS11 ImS11
4000000000.0 0.48725064879046 -0.8947688312355285
4003000000.0 0.5311929915304663 -0.9571458571469607
4006000000.0 0.49232575910373666 -0.9636057946148621
4009000000.0000005 0.5015636697675052 -0.9194360163021952
4011999999.9999995 0.5224197048981483 -0.8990159989184155
4016000000.0 0.48898668761912367 -0.9129891900327897
4019000000.0 0.4869245750839061 -0.8928294396223619
4022000000.0000005 0.5331951223682134 -0.8575277478247871
4025000000.0000005 0.47131828440920887 -0.9202621268208547
4027999999.9999995 0.5189214753805999 -0.8669460108389347
4030999999.9999995 0.4729957311677224 -0.8503538691702675
4034000000.0 0.4568925317087218 -0.90314315653182
4038000000.0000005 0.4701424476521233 -0.9067708588437219
4041000000.0000005 0.5068309917416182 -0.9139652997203473
4043999999.9999995 0.5277339380308999 -0.9476494145809216
4046999999.9999995 0.5089343132705623 -0.8722980519656813
4050000000.0 0.5030944872952824 -0.9443115139857784
4053000000.0 0.46106083459344155 -0.8967598069022813
4056000000.0 0.508026967508064 -0.9072389321290202
4059000000.0 0.4631991738994433 -0.8800074779595533
4062000000.0000005 0.49190296637588915 -0.9416160830027597
4066000000.0 0.47364661113223516 -0.8691506917421062
4069000000.0 0.47213239635008275 -0.9295603055892043
4072000000.0 0.5053099354791739 -0.8685279347122526
4075000000.0 0.5590952121023256 -0.8871923705602979
4078000000.0000005 0.4875235799915784 -0.9456959113748333
4081000000.0000005 0.557538613275419 -0.8979738955593226
4083999999.9999995 0.442678308101771 -0.9149878662613788
4088000000.0 0.516163777473707 -0.8778410942572205
4091000000.0 0.5357980196920722 -0.9593879793939513
4094000000.0000005 0.5140351108802286 -0.922577101635999
4097000000.0000005 0.4966276992329066 -0.9016755316952714
4099999999.9999995 0.48828007731776746 -0.9099876168054839
4102999999.9999995 0.5307360462915419 -0.9087273957925106
4106000000.0 0.4527785235512656 -0.902945000062292
4109000000.0 0.46776007574178585 -0.9043840481295188
4112000000.0 0.46917074964770744 -0.8929039453055011
4115999999.9999995 0.5213695275083494 -0.8913738142051478
4119000000.0 0.4765543570660565 -0.9056727046084488
4122000000.0 0.47976105700874105 -0.9032119082519974
4125000000.0 0.45469556171715103 -0.9326026992649511
4128000000.0 0.4792643888627547 -0.8771084743284114
4131000000.0 0.4539020356871579 -0.91840620611908
4134000000.0000005 0.49744383233797523 -0.8959343975105085
4138000000.0 0.4702868222053696 -0.8984106166899595
4141000000.0 0.47886419517569356 -0.914992002719718
4144000000.0 0.5132782236716861 -0.9150139413899403
4147000000.0000005 0.48276658632866837 -0.8922040796075019
4150000000.0000005 0.4878375642017294 -0.8992873872994772
4152999999.9999995 0.497565399589093 -0.9000678992712743
4155999999.9999995 0.4991958247541352 -0.8838679950002164
4159000000.0 0.4838923014946804 -0.8423431771595479
4162000000.0 0.5099042412341657 -0.8935942904736167
4166000000.0000005 0.4678886934889743 -0.9033050556190488
4168999999.9999995 0.4707047866841737 -0.9011100558864712
4171999999.9999995 0.49343781047145585 -0.8961605962815451
4175000000.0 0.4960752642168051 -0.9144797807902904
4178000000.0 0.49656161488080675 -0.9059611451461197
4181000000.0 0.4908954736584313 -0.8965065195426042
4184000000.0 0.5043712044835634 -0.9008694088596115
4187999999.9999995 0.4672471484370563 -0.9115093378385623
4191000000.0 0.5109321228227612 -0.8590734643092005
4194000000.0 0.472056116963963 -0.8778931175328761
4197000000.0 0.48074978235103466 -0.8867422054480663
4200000000.0 0.4950612175027377 -0.8908512912144299
4203000000.0000005 0.49590047490363476 -0.8948441571832831
4206000000.0000005 0.49138919350359334 -0.9216672347874592
4208999999.9999995 0.48188281224540747 -0.85926468506566
4211999999.9999995 0.4659830280660014 -0.8970866646812345
4216000000.0 0.5165508965011338 -0.9001137501385112
4219000000.0000005 0.4946331248604718 -0.9018880142604414
4222000000.0000005 0.4931329042172376 -0.8858509132184329
4224999999.9999995 0.4929453839248253 -0.8881846759604998
4227999999.9999995 0.49048173617455504 -0.8973637210176586
4231000000.0 0.4900670866433612 -0.87786893826697
4234000000.0 0.4830737459500374 -0.8985491402249557
4238000000.0000005 0.4717520720283437 -0.9003385899316318
4240999999.9999995 0.4710851213166974 -0.8980563764378371
4244000000.0 0.4892470101990382 -0.8840429475394995
4247000000.0 0.49947089936117217 -0.8802741569867176
4250000000.0 0.4520470486328134 -0.8842905662688468
4253000000.0 0.46672912761729 -0.8724161279941122
4256000000.0 0.5003261294051818 -0.9157657669360539
4259000000.0000005 0.456102883688034 -0.8652024637451441
4261999999.9999995 0.46953048324156194 -0.9057917749641892
4266000000.0 0.47111897754957033 -0.908216177533541
4269000000.0 0.4829575565564268 -0.886384334184078
4272000000.0000005 0.47283723962272506 -0.882589122952336
4275000000.0000005 0.4930170162046966 -0.8920985129375615
4277999999.9999995 0.5064128986769393 -0.9123772783016696
4280999999.9999995 0.4873385194609099 -0.8834710428736804
4284000000.0 0.46892747340450114 -0.9231700869176074
4288000000.0000005 0.49938424744055077 -0.8805704911232585
4291000000.0000005 0.4508495354935317 -0.8785862552606727
4293999999.9999995 0.46383942227717134 -0.8828026239295845
4297000000.0 0.48928527578727243 -0.8792853610760725
4300000000.0 0.48142377868016595 -0.891834285268648
4303000000.0 0.44717981799324635 -0.9056980294833631
4306000000.0 0.4934296565753425 -0.8732919450567468
4309000000.0 0.4923431128488771 -0.8752303633388099
4312000000.0 0.5287777801838348 -0.8917136890196192
4316000000.0 0.48054603263393 -0.9095442458188662
4319000000.0 0.4697918884410804 -0.8949633360483048
4322000000.0 0.4306913009954321 -0.8834083062597503
4325000000.0 0.4923057229017076 -0.8823858713569921
4328000000.0 0.46895025993859357 -0.8693979903945483
4331000000.0 0.4590372087802125 -0.9058635429821926
4334000000.0 0.4764618721418786 -0.8936095153382355
4338000000.0 0.4857478530785707 -0.8530862288500269
4341000000.0 0.5211885001488231 -0.9065168749330986
4344000000.0 0.49433484978173803 -0.9168898767162644
4347000000.0 0.46360071457575824 -0.9043937004667946
4350000000.0 0.4402466502204198 -0.868855131002798
4353000000.0 0.47746590198801797 -0.8654752154041797
4356000000.0 0.44324222388653123 -0.8984095734727822
4359000000.0 0.45215400849908693 -0.8547909451648299
4362000000.0 0.43126068417036834 -0.92592911903358
4366000000.0 0.4716916779615785 -0.9211414650084204
4369000000.0 0.44428953684430605 -0.858319361461396
4372000000.0 0.43252930999543104 -0.8906580805156821
4375000000.0 0.4747619977655662 -0.8845200560707259
4378000000.0 0.46910903384322766 -0.860584461821652
4381000000.0 0.4590721048914239 -0.8901156030852738
4384000000.0 0.4883443801191193 -0.9599755620283211
4388000000.0 0.4659031887522901 -0.8748914756930317
4391000000.0 0.47326749271969193 -0.8987538446400836
4394000000.0 0.4465056895499727 -0.8781179816076461
4397000000.0 0.4507247736312508 -0.8883305718397918
4400000000.0 0.4692344526700162 -0.9018230638251408
4403000000.0 0.45539058885183703 -0.9011062143253923
4406000000.0 0.4507034291556057 -0.9082022781092018
4409000000.0 0.4635008723251909 -0.9332468210952666
4412000000.0 0.40625646705606266 -0.9144269297880285
4416000000.0 0.4320226319255271 -0.888420174583797
4419000000.0 0.44839928751853164 -0.9057960242147688
4422000000.0 0.4553883731609483 -0.8969063659834111
4425000000.0 0.47789201385578245 -0.905087269952662
4428000000.0 0.43965105012027716 -0.9067142020505339
4431000000.0 0.47146268653161916 -0.9042273758769014
4434000000.0 0.44257100792452697 -0.8910002328378148
4438000000.0 0.44828180847074983 -0.9078003866890532
4441000000.0 0.47881058278089217 -0.9232700029285978
4444000000.0 0.4483187193717705 -0.8829681304625443
4447000000.0 0.4397832765742558 -0.8929208120645971
4450000000.0 0.4562069649314136 -0.886858733521415
4453000000.0 0.4738952746565241 -0.9182903880746411
4456000000.0 0.4260484927465588 -0.8987683676194631
4459000000.0 0.4198776216760136 -0.8751847959078047
4462000000.0 0.4665096883103469 -0.9551200317540842
4466000000.0 0.45128774568767055 -0.9416997506941767
4469000000.0 0.46475653994180566 -0.8920299308191213
4472000000.0 0.44527420278059393 -0.925065545201311
4475000000.0 0.43704770429783096 -0.8843369470452989
4478000000.0 0.43881121383788974 -0.9419425969163839
4481000000.0 0.4197287831917474 -0.8848484879873451
4484000000.0 0.38776562059817443 -0.9230487955802208
4488000000.0 0.4138506735481774 -0.8965476257477007
4491000000.0 0.44630064573227796 -0.9072467646681723
4494000000.0 0.4483900680749366 -0.8974758224890123
4497000000.0 0.42678966364712234 -0.8891615160912552
4500000000.0 0.45362250387839625 -0.9147500834315356
4503000000.0 0.44717829999147835 -0.9186146771165669
4506000000.0 0.42318010206419715 -0.9070416012524951
4509000000.0 0.42826577647938446 -0.8936760632687988
4512000000.0 0.40799182575158677 -0.9006257179416802
4516000000.0 0.45082147411419915 -0.9199357939674404
4519000000.0 0.42434493531895673 -0.8909625881620067
4522000000.0 0.417866506537275 -0.9262880047254498
4525000000.0 0.4374420824382999 -0.8982325008322349
4528000000.0 0.44443964278587234 -0.9372889169905968
4531000000.0 0.4680511596619841 -0.8855617068228796
4534000000.0 0.4268877056822889 -0.8782437529391575
4538000000.0 0.4150601732603322 -0.8924032874355596
4541000000.0 0.39291585280811053 -0.9090853866958946
4544000000.0 0.4170553861640891 -0.8819846423871756
4547000000.0 0.44548321794696105 -0.9124772174991571
4550000000.0 0.41083891458433724 -0.9228146471033212
4553000000.0 0.4200055649826339 -0.9249133367203023
4556000000.0 0.405710602891914 -0.9131901190265033
4559000000.0 0.4041898199528972 -0.9166286847119047
4562000000.0 0.428259141972893 -0.9305663503395384
4566000000.0 0.4117829241547539 -0.9221661631289978
4569000000.0 0.401291961734655 -0.9028602480174288
4572000000.0 0.41587982565565645 -0.9093019705561189
4575000000.0 0.40330459275572167 -0.934206522057837
4578000000.0 0.4491363248098734 -0.9401358162929956
4581000000.0 0.39897146101217545 -0.9216138014085358
4584000000.0 0.4037459710119316 -0.9147801469533602
4588000000.0 0.4273296563847758 -0.9186147136562643
4591000000.0 0.43160486669434817 -0.9173201856675015
4594000000.0 0.392974832697758 -0.9341533272356861
4597000000.0 0.4274956720278207 -0.9232153783829612
4600000000.0 0.39326579074483425 -0.91801911983178
4603000000.0 0.40362388741980715 -0.9368738948069717
4606000000.0 0.4198122345189622 -0.9481336992878822
4609000000.0 0.4241308785376168 -0.931641952806422
4612000000.0 0.4165436293293212 -0.9189158860120203
4616000000.0 0.40269398031308967 -0.9104959845723805
4619000000.0 0.41032082958402344 -0.9196971712266531
4622000000.0 0.40490108115808854 -0.9149051203977292
4625000000.0 0.3903714148958308 -0.8915544752795732
4628000000.0 0.423875949949494 -0.9230060557922087
4631000000.0 0.39522955243313407 -0.9245868886966598
4634000000.0 0.3878923316907268 -0.9322322982546206
4638000000.0 0.41026070056290015 -0.9259666667388231
4641000000.0 0.41583575810261275 -0.92428823722887
4644000000.0 0.40003940282674366 -0.911559588580303
4647000000.0 0.40068431373000624 -0.9225646623707545
4650000000.0 0.3840749604232343 -0.9325512018430254
4653000000.0 0.422544001584762 -0.9491827879171293
4656000000.0 0.4046600206789914 -0.9310059515841008
4659000000.0 0.395823380801113 -0.9309677885350273
4662000000.0 0.4029736147564503 -0.9363144362492422
4666000000.0 0.3814339209329449 -0.9429255256543551
4669000000.0 0.4057814418801634 -0.9436458614491271
4672000000.0 0.4079066515151058 -0.9430550352422307
4675000000.0 0.4013907252376009 -0.953893336519945
4678000000.0 0.40037040070147056 -0.9059918705984248
4681000000.0 0.3882420373251055 -0.9416804438934299
4684000000.0 0.3777086367552739 -0.9677047005919994
4688000000.0 0.37114407214521095 -0.9379435578712448
4691000000.0 0.40677555222448203 -0.9251801729838747
4694000000.0 0.42175669918635494 -0.9141819413198443
4697000000.0 0.3609240729967517 -0.9075439453666111
4700000000.0 0.41027335634772794 -0.9375318863920142
4703000000.0 0.38957459201491945 -0.8695381348832127
4706000000.0 0.3834949803874251 -0.9325794209616635
4709000000.0 0.3575055459350674 -0.929340436953252
4712000000.0 0.41511986876603474 -0.9292319408169922
4716000000.0 0.4126935195705602 -0.9352602295169059
4719000000.0 0.43440632802108564 -0.9366119587349861
4722000000.0 0.41773977948840085 -0.9305077833600017
4725000000.0 0.4093576603533976 -0.9133587363236055
4728000000.0 0.3818221639530873 -0.9197692464817713
4731000000.0 0.41766631875129684 -0.9619906884026266
4734000000.0 0.43015222585635177 -0.914407321194124
4738000000.0 0.43016801386405346 -0.9777593453464801
4741000000.0 0.3853390802523882 -0.9706015412647936
4744000000.0 0.3656556865982913 -0.9456789248538091
4747000000.0 0.4025738522132706 -0.8894229731335284
4750000000.0 0.39281012544191074 -0.9590967921730981
4753000000.0 0.4046744757050139 -0.9374190834600837
4756000000.0 0.37516851543840746 -0.9269250980466437
4759000000.0 0.41014462644610966 -0.965704306033618
4762000000.0 0.373930715696178 -0.9531677889392852
4766000000.0 0.40129368867118453 -0.9223242912717583
4769000000.0 0.38837260351860925 -0.9470019012650036
4772000000.0 0.38838433393229305 -0.9631627490851296
4775000000.0 0.3892776073982353 -0.9857912328113497
4778000000.0 0.3900827849423075 -0.9693482868997086
4781000000.0 0.41702340885565103 -0.9380913776948903
4784000000.0 0.4065966707546571 -0.922189614038511
4788000000.0 0.3843577270917946 -0.9916133485769779
4791000000.0 0.3748637564329384 -0.9394958162728005
4794000000.0 0.4250926023517593 -0.9752598103363178
4797000000.0 0.36812004013366695 -0.9307520966719132
4800000000.0 0.36990272574209404 -0.9524637774322438
4803000000.0 0.33577041611138614 -0.9465427896454247
4806000000.0 0.3865840198355943 -0.9709496890160481
4809000000.0 0.3507538347964954 -0.9408757892680145
4812000000.0 0.3353443787823242 -0.9505932280371047
4816000000.0 0.40519414957061095 -0.9102565635509218
4819000000.0 0.4038102718830773 -0.9611539796456597
4822000000.0 0.4128973247296511 -0.9566797425313083
4825000000.0 0.41220520336747396 -0.9594880459168126
4828000000.0 0.38455568944001767 -0.9453002436061201
4831000000.0 0.3388858374586934 -0.9975789691762073
4834000000.0 0.42004323712257363 -0.952304266720812
4838000000.0 0.38145363153654893 -0.9643170824450087
4841000000.0 0.34962595948868425 -0.9463367224162814
4844000000.0 0.40035047601647183 -0.950892494390107
4847000000.0 0.3836679084006425 -0.8876478120982205
4850000000.0 0.36286375594601405 -0.9698259234282385
4853000000.0 0.36031340683427976 -0.9253457671190537
4856000000.0 0.36806178778889914 -0.9243704666401873
4859000000.0 0.3907482222834895 -0.9889210587647423
4862000000.0 0.40543709154267277 -0.9219259995099841
4866000000.0 0.3621677593335068 -0.9869012447902169
4869000000.0 0.37963360599597923 -0.9704305921474399
4872000000.0 0.3556764644312936 -0.9665485318237724
4875000000.0 0.44698325876741185 -0.9868426885360435
4878000000.0 0.38767448993929227 -0.9606307061399889
4881000000.0 0.35906222717387787 -1.029355002845443
4884000000.0 0.3803226037187822 -0.9450963533336276
4888000000.0 0.41833043397931347 -0.9373607686735073
4891000000.0 0.41232772451570227 -0.958675251087338
4894000000.0 0.3636119308221767 -0.9501414444531553
4897000000.0 0.4198124387724907 -0.9552195653252482
4900000000.0 0.3849698239730284 -0.966721758853889
4903000000.0 0.3914444147461691 -0.9448163410247792
4906000000.0 0.37882537342994493 -0.9828500068830128
4909000000.0 0.37724210319728985 -0.9465987317858815
4912000000.0 0.3734837819469422 -0.9950564327471751
4916000000.0 0.3742043833782245 -0.9786998404139748
4919000000.0 0.42173975025117366 -0.976120804068599
4922000000.0 0.406562157892487 -0.9458488151758064
4925000000.0 0.33612579732513537 -0.9520160925526737
4928000000.0 0.4170669556449427 -0.9355874229363939
4931000000.0 0.43245656877853067 -0.9390854962861145
4934000000.0 0.37944946080051 -0.9140417051629541
4938000000.0 0.32047053865535513 -0.9525374864117653
4941000000.0 0.38855362822719675 -0.9370986407369426
4944000000.0 0.34703886363555875 -0.897649218625846
4947000000.0 0.3857553530189022 -0.935779036438607
4950000000.0 0.36542846395561024 -0.9356107268144483
4953000000.0 0.3647432740009334 -0.9751855591194293
4956000000.0 0.34676017194995334 -0.9573175005428504
4959000000.0 0.34092977645110467 -0.9597708930156261
4962000000.0 0.3723513176241242 -1.0205444369863614
4966000000.0 0.4116669625784124 -0.9948700199504006
4969000000.0 0.3941244581584382 -0.9832817662287462
4972000000.0 0.3395902705119557 -0.9508277042365212
4975000000.0 0.39409606484067033 -0.9134561247294645
4978000000.0 0.3776576564369248 -0.9593024831662675
4981000000.0 0.3689321192464899 -0.9861079874545015
4984000000.0 0.3650299679874986 -0.9353412782471754
4988000000.0 0.39071569096581427 -0.9383058988044886
4991000000.0 0.4208013648769771 -0.9570345853340172
4994000000.0 0.3744791797707865 -0.9379028011333321
4997000000.0 0.35324582468787535 -0.9481579052740774
5000000000.0 0.3899961584160983 -0.9719435500514934
5003000000.0 0.41489883577604114 -0.9773598867040139
5006000000.0 0.3843037485762134 -1.0062544376705178
5009000000.0 0.38959936590462635 -0.9720495183481614
5012000000.0 0.37764667547569597 -0.9579908691310415
5016000000.0 0.4336855736814665 -0.993460024211984
5019000000.0 0.35893816993156963 -0.968018560648598
5022000000.0 0.36792001105818256 -0.9510928595657462
5025000000.0 0.3968233967952497 -1.0228558073144889
5028000000.0 0.3746604350499085 -0.9903581604291296
5031000000.0 0.35250300173752824 -0.9525704515470363
5034000000.0 0.3851294927770592 -1.0069150955635526
5038000000.0 0.3623361616837423 -0.9383114762965404
5041000000.0 0.41622163134725326 -0.9692647780241548
5044000000.0 0.37687890836074606 -0.9474552703313042
5047000000.0 0.4084692630167199 -0.9367442669958278
5050000000.0 0.4259590504051119 -0.9246406252203357
5053000000.0 0.3748424055606144 -1.0016905851874458
5056000000.0 0.406272464774281 -0.9562054833538218
5059000000.0 0.4506687451110331 -0.9491016106015975
5062000000.0 0.37184434857357607 -0.9696530480630556
5066000000.0 0.4316905018221249 -0.9365979846535397
5069000000.0 0.3713937674916866 -0.9849531400814999
5072000000.0 0.39030783301403277 -0.9163903365075252
5075000000.0 0.4398780424054318 -0.9572404927183296
5078000000.0 0.3489468878681176 -0.9825709198025047
5081000000.0 0.3887815571206189 -0.9294263406406407
5084000000.0 0.36070274236290073 -0.9730186775671816
5088000000.0 0.43380802244695205 -0.9448306161217568
5091000000.0 0.38792819266328743 -0.976719401710223
5094000000.0 0.3897747734505809 -0.9558490713238037
5097000000.0 0.4446341474149777 -0.9112510813457446
5100000000.0 0.3866576246582421 -0.9208513335488513
5103000000.0 0.3761326941651413 -1.0055571328468327
5106000000.0 0.3976197132412042 -0.9635104852432009
5109000000.0 0.37840757724132756 -0.9718818551540161
5112000000.0 0.32331100808156615 -0.9360953194949296
5116000000.0 0.37889555241726786 -0.9179130172740511
5119000000.0 0.37729733067080673 -0.9671684250857802
5122000000.0 0.3660059588842217 -0.9179632403363531
5125000000.0 0.4564192142559248 -0.9532330002516414
5128000000.0 0.3781254977836645 -0.9500274232526215
5131000000.0 0.3698018350423362 -0.9407153489151925
5134000000.0 0.38505265767153934 -0.951799262139261
5138000000.0 0.4012741141043993 -0.9550549579702141
5141000000.0 0.43583826452995533 -0.8958127891722663
5144000000.0 0.4248738469755076 -0.9407192142678542
5147000000.0 0.4080538049586935 -0.9898920082052862
5150000000.0 0.4068286074954424 -0.9827444443306066
5153000000.0 0.3777796651664221 -0.9866315835686512
5156000000.0 0.40033096987815786 -0.9633455546602149
5159000000.0 0.39922213905151593 -0.9954352423481887
5162000000.0 0.3731756157394409 -0.9569632340479761
5166000000.0 0.37865646156474897 -0.9417591444138096
5169000000.0 0.3866680547666956 -1.003946426385695
