! Created with skrf 1.8.0 (http://scikit-rf.org).
# Hz S RI R 50.0 
!freq ReS11 ImS11
4000000000.0 0.5593832440265545 -0.8672027959976438
4003000000.0 0.5935055119502654 -0.9018319616237818
4006000000.0 0.5388965991979261 -0.8836280578950331
4009000000.0000005 0.5472093267934722 -0.9105973654518797
4011999999.9999995 0.5652110732705526 -0.8721894384447261
4016000000.0 0.5508916633732441 -0.9094496112456149
4019000000.0 0.5458155184045539 -0.878006428608525
4022000000.0000005 0.6051493012192893 -0.834424169199298
4025000000.0000005 0.485353209153586 -0.9222621562812241
4027999999.9999995 0.5486802617344919 -0.8734615262549887
4030999999.9999995 0.5279695944941707 -0.8669248450319557
4034000000.0 0.5432003346461919 -0.8778573458774119
4038000000.0000005 0.4962067266220547 -0.8613509726398294
4041000000.0000005 0.5581107995015053 -0.8435670304513543
4043999999.9999995 0.5805159268941448 -0.9054947595214193
4046999999.9999995 0.5971341258967557 -0.9318849736921013
4050000000.0 0.5182249155521352 -0.9271856181332806
4053000000.0 0.5011593844296812 -0.8794220139580374
4056000000.0 0.5460109782408084 -0.8795518489030395
4059000000.0 0.5278234890762841 -0.872477043691128
4062000000.0000005 0.5164582698730523 -0.8875363729060137
4066000000.0 0.5173917124266662 -0.8153113740940401
4069000000.0 0.5594885111512811 -0.9486784555581353
4072000000.0 0.592021703570908 -0.8072254805448269
4075000000.0 0.6010483910758048 -0.8783591606960324
4078000000.0000005 0.5565115198294823 -0.8970559429067412
4081000000.0000005 0.6095124582143063 -0.88424281114797
4083999999.9999995 0.5578729053775199 -0.887354333020092
4088000000.0 0.6062688072144784 -0.8260602033334201
4091000000.0 0.5804207746024743 -0.9157917570148948
4094000000.0000005 0.563264534603729 -0.8797469495775987
4097000000.0000005 0.5451599418561527 -0.8721819999722971
4099999999.9999995 0.5388918791836435 -0.8842975365500929
4102999999.9999995 0.5875899884132997 -0.876788646580002
4106000000.0 0.511251355786743 -0.887536703788882
4109000000.0 0.5168019244538582 -0.8834238205631884
4112000000.0 0.5197491301356324 -0.9017931496929174
4115999999.9999995 0.5857791374259439 -0.8724207412778229
4119000000.0 0.5333009073749351 -0.894318138567395
4122000000.0 0.5321656574999594 -0.9170942997023963
4125000000.0 0.5408967821196521 -0.8934533294726733
4128000000.0 0.5577307153596525 -0.8235400257445498
4131000000.0 0.5525539987800739 -0.8840961051732406
4134000000.0000005 0.5717856182081976 -0.8517818754056316
4138000000.0 0.5509817143000632 -0.8391600991581816
4141000000.0 0.5232639698437249 -0.8641404891520494
4144000000.0 0.6088487182120093 -0.8847114616308693
4147000000.0000005 0.5309187999984489 -0.8874615406936058
4150000000.0000005 0.6005942805412002 -0.9147430984985659
4152999999.9999995 0.574663830414483 -0.8320693892676719
4155999999.9999995 0.575820352186748 -0.8640294517378727
4159000000.0 0.5629957832832723 -0.8778375324283485
4162000000.0 0.5664905522326433 -0.8509977478567209
4166000000.0000005 0.5354220062389317 -0.861023127391791
4168999999.9999995 0.5472689279248606 -0.8783247876463212
4171999999.9999995 0.5597894326138194 -0.8573222296019256
4175000000.0 0.5828238686598445 -0.9010873901163227
4178000000.0 0.5653983993912425 -0.8825257534926557
4181000000.0 0.5627401314057782 -0.8674324689483788
4184000000.0 0.5545239685489906 -0.8591418476627039
4187999999.9999995 0.5238504503693435 -0.8781248186629761
4191000000.0 0.5733425620608108 -0.8301258491539564
4194000000.0 0.5398813219081312 -0.8445804403957491
4197000000.0 0.5715486623800661 -0.8634224091970395
4200000000.0 0.5735821529138325 -0.8681300920297704
4203000000.0000005 0.5933554292653178 -0.8739869547995032
4206000000.0000005 0.593383047936502 -0.8785323743994047
4208999999.9999995 0.5545780924844764 -0.8539215192064964
4211999999.9999995 0.5477944988923262 -0.8917340396600877
4216000000.0 0.5644906738216786 -0.8551839482526249
4219000000.0000005 0.5822758697494337 -0.869727830455317
4222000000.0000005 0.5520666897373288 -0.8725651586064284
4224999999.9999995 0.5547079448111953 -0.8246107062027598
4227999999.9999995 0.5584374779825996 -0.8563475038483236
4231000000.0 0.5523986979577095 -0.8587398140859608
4234000000.0 0.5690814002125417 -0.8640901047833949
4238000000.0000005 0.5653188592202498 -0.8586947007841955
4240999999.9999995 0.5320344101572816 -0.8484198697541766
4244000000.0 0.5693803138414365 -0.8576072273264735
4247000000.0 0.5573363074214945 -0.8503194938444065
4250000000.0 0.5378600477691604 -0.8476950420858858
4253000000.0 0.5271527690166522 -0.8293194621655147
4256000000.0 0.5361672410972761 -0.8709160215618137
4259000000.0000005 0.5242481715229609 -0.8212869594802011
4261999999.9999995 0.5416022336993596 -0.8440523679040579
4266000000.0 0.5510973115072475 -0.8811966504776675
4269000000.0 0.5644732881318497 -0.8407337735757496
4272000000.0000005 0.5600972835932602 -0.8413728982026482
4275000000.0000005 0.542537218738264 -0.8600839466667012
4277999999.9999995 0.5752122915315556 -0.8839327870954592
4280999999.9999995 0.5653901295124615 -0.8595274086573006
4284000000.0 0.5414394990130094 -0.868800851249123
4288000000.0000005 0.582301603411516 -0.8588566948894751
4291000000.0000005 0.5455907583514362 -0.8427421764102885
4293999999.9999995 0.5490715568648478 -0.8416662493103804
4297000000.0 0.5639345544083167 -0.8530815873963362
4300000000.0 0.5477921709592137 -0.8273555644992199
4303000000.0 0.5103834671443302 -0.846952115789527
4306000000.0 0.582705507766565 -0.8486365635120162
4309000000.0 0.5718388401609757 -0.8389372283624968
4312000000.0 0.6001069856143592 -0.8560717128558162
4316000000.0 0.5920474256548912 -0.8553230178347747
4319000000.0 0.5345052564418334 -0.8074984589879063
4322000000.0 0.5338881845657846 -0.8530823125546348
4325000000.0 0.563512048227339 -0.8494647845187798
4328000000.0 0.5450485700657818 -0.8490498780407233
4331000000.0 0.5409785011880293 -0.8668212928948773
4334000000.0 0.5542766506442097 -0.8812921131644448
4338000000.0 0.5573220416021959 -0.8200303966918955
4341000000.0 0.5875628698166496 -0.8440929364720487
4344000000.0 0.5741585587561391 -0.8931225793557672
4347000000.0 0.5440869464662105 -0.8701053741310395
4350000000.0 0.5253873721644651 -0.8360157371486964
4353000000.0 0.5424493475982928 -0.7996715299653349
4356000000.0 0.5231873296968097 -0.845995187197513
4359000000.0 0.528610561260768 -0.8110058065275606
4362000000.0 0.5281524206270407 -0.9019551974817074
4366000000.0 0.5349258874623591 -0.8575445463234296
4369000000.0 0.5285218820070465 -0.8476615389661458
4372000000.0 0.5050529802476293 -0.8641587654305213
4375000000.0 0.5529626531542408 -0.8604707025063908
4378000000.0 0.5256726202532116 -0.8427345268340091
4381000000.0 0.5458093322159119 -0.8347859929278614
4384000000.0 0.5631110470887101 -0.9127019188621581
4388000000.0 0.5408394257095476 -0.8281005077523246
4391000000.0 0.5626361960929627 -0.8728762792737652
4394000000.0 0.5324075732435855 -0.8444353976366858
4397000000.0 0.5315412521308536 -0.8585996069228703
4400000000.0 0.5409173731399709 -0.8873499547507215
4403000000.0 0.5412113307489542 -0.8644803231894524
4406000000.0 0.5068625091307603 -0.8765746260749445
4409000000.0 0.544327106414108 -0.8874693949525891
4412000000.0 0.4912077186260069 -0.8862685306886294
4416000000.0 0.5252957247002783 -0.8635658689981895
4419000000.0 0.5273209024712701 -0.8598692010420406
4422000000.0 0.5629287691355782 -0.832985627596879
4425000000.0 0.5706077559776367 -0.8615070407942692
4428000000.0 0.5323707985725511 -0.8573147419598899
4431000000.0 0.5527080959444047 -0.8648165855218419
4434000000.0 0.5301294877134486 -0.854145330779963
4438000000.0 0.5449790314277473 -0.8759207581511073
4441000000.0 0.5483398681529928 -0.8691219440702832
4444000000.0 0.526122119428782 -0.8376771260400695
4447000000.0 0.514219874239096 -0.8455921925180205
4450000000.0 0.5449397398563054 -0.8375927433472686
4453000000.0 0.5454438918792672 -0.8840565622523645
4456000000.0 0.5269321013596159 -0.8470994251104456
4459000000.0 0.5061305400674886 -0.8439790409637997
4462000000.0 0.5553853985149988 -0.9209355678331992
4466000000.0 0.5636890773096517 -0.9035682604870674
4469000000.0 0.5534383781337663 -0.8655670424314403
4472000000.0 0.5259549853363251 -0.8831421518726569
4475000000.0 0.5337801487117574 -0.827967273603406
4478000000.0 0.5406664319608646 -0.8988285010941641
4481000000.0 0.5040338263565396 -0.8470489087128341
4484000000.0 0.4806825940093885 -0.8717310009080486
4488000000.0 0.5105457593287637 -0.843849424919852
4491000000.0 0.5368014994588317 -0.8724239154863269
4494000000.0 0.5386867627855976 -0.8451061514335488
4497000000.0 0.5486784967942335 -0.8506243601943289
4500000000.0 0.5446860390183127 -0.8568682170409343
4503000000.0 0.5366810270055432 -0.8938817610896586
4506000000.0 0.507065847091604 -0.8528656872555149
4509000000.0 0.5081015178725776 -0.8538690309633477
4512000000.0 0.5008115179501909 -0.8498103783265933
4516000000.0 0.5451722345343922 -0.8679415140289879
4519000000.0 0.5080749408095174 -0.8312739905401956
4522000000.0 0.517445868099702 -0.8764704196429203
4525000000.0 0.5277651034466516 -0.8336530671828861
4528000000.0 0.5467973792256791 -0.8791294497549564
4531000000.0 0.5463429812634569 -0.8549824996001619
4534000000.0 0.5091982448438571 -0.850621936126264
4538000000.0 0.5016168678540054 -0.8568161439337607
4541000000.0 0.47827603008353514 -0.8691191498109745
4544000000.0 0.5182370092228492 -0.8658803730215989
4547000000.0 0.5252397393059426 -0.8287861642548853
4550000000.0 0.512534518290166 -0.8832372680300181
4553000000.0 0.5009618833961731 -0.8712769407288309
4556000000.0 0.5026399801320758 -0.8625382700578852
4559000000.0 0.5045724273851127 -0.8977701968514384
4562000000.0 0.5393568935770807 -0.8864551540347674
4566000000.0 0.5090477518449393 -0.8788721120419639
4569000000.0 0.5044283913178665 -0.8553077775096993
4572000000.0 0.5189075624195918 -0.8613444719131932
4575000000.0 0.5068888523801964 -0.864717087975376
4578000000.0 0.5283661842424248 -0.9091926915379132
4581000000.0 0.5098073969761092 -0.8710792970853213
4584000000.0 0.506577434498486 -0.8435959984116415
4588000000.0 0.5481089675620188 -0.8785059406984597
4591000000.0 0.5206698154326427 -0.8640484128396135
4594000000.0 0.5032479598029002 -0.8720417095734001
4597000000.0 0.5223649011228633 -0.8892696479608405
4600000000.0 0.4853658164902911 -0.8789349846619477
4603000000.0 0.5337664318918217 -0.8798672932654457
4606000000.0 0.5140440588806704 -0.877071248088361
4609000000.0 0.4963955002335346 -0.8746095954796099
4612000000.0 0.5266623631632305 -0.8750009419921252
4616000000.0 0.4816384065113843 -0.860620624932106
4619000000.0 0.5124524140081412 -0.8619581889297229
4622000000.0 0.5112024916884225 -0.8817235351150481
4625000000.0 0.5020021862744799 -0.8503428677479088
4628000000.0 0.5307468557594645 -0.8430124546182539
4631000000.0 0.495629118393765 -0.8778500860145271
4634000000.0 0.5043954925288532 -0.8836079184845068
4638000000.0 0.5171042706762471 -0.8748530700042423
4641000000.0 0.5043202604004214 -0.8759959130300385
4644000000.0 0.5140663608219096 -0.8718350998301208
4647000000.0 0.5148499897808321 -0.8658643116600369
4650000000.0 0.49373057711841234 -0.8733788254210639
4653000000.0 0.5293994406932081 -0.8886456165433515
4656000000.0 0.49030242737243956 -0.8855071854367087
4659000000.0 0.4968638083835502 -0.8828392110893855
4662000000.0 0.5028426110753665 -0.8822133510431495
4666000000.0 0.4945739660667942 -0.8763167181284126
4669000000.0 0.516764470903905 -0.885417924050595
4672000000.0 0.4974144767672632 -0.8840440669773075
4675000000.0 0.4855263283008104 -0.8918176520564182
4678000000.0 0.5107081555633307 -0.8682600415416187
4681000000.0 0.5034970800688934 -0.898754134338317
4684000000.0 0.46898568851756595 -0.898867106363607
4688000000.0 0.47914223902486996 -0.8829696844281821
4691000000.0 0.5292225660460084 -0.8643315785711522
4694000000.0 0.4965391951863378 -0.8620601236348023
4697000000.0 0.4525976771067312 -0.8647385151671381
4700000000.0 0.5137478810097809 -0.8670508446931736
4703000000.0 0.5003762022733158 -0.8460444802936609
4706000000.0 0.49564766613203987 -0.8665577918633729
4709000000.0 0.4919552605562626 -0.882776328507262
4712000000.0 0.5073759435763389 -0.8560813250655569
4716000000.0 0.5025829716631538 -0.9071579202832651
4719000000.0 0.5346422706445348 -0.8970971049475054
4722000000.0 0.539004800565467 -0.8880913252235171
4725000000.0 0.4923304365777469 -0.8718654404071063
4728000000.0 0.47841993840085884 -0.8784895948495302
4731000000.0 0.5285771742281581 -0.9115623378901558
4734000000.0 0.5131505715649487 -0.8780160222553883
4738000000.0 0.5172056922624488 -0.9365408827223389
4741000000.0 0.5045839167831556 -0.9280972602396379
4744000000.0 0.48699326150625993 -0.8882859328976815
4747000000.0 0.5025607481626833 -0.8601044410367295
4750000000.0 0.508757645815261 -0.8932798507135485
4753000000.0 0.5043824348838846 -0.9102685242916706
4756000000.0 0.49577752754014737 -0.9158374345631008
4759000000.0 0.5190156871963751 -0.9021916218260314
4762000000.0 0.5208379907566365 -0.8966018910948452
4766000000.0 0.4643235213002339 -0.8673924730479471
4769000000.0 0.5000247026915206 -0.8791418303645465
4772000000.0 0.5100584397449915 -0.8814738685171256
4775000000.0 0.5009428851792298 -0.9420403548849505
4778000000.0 0.4838777009627121 -0.9078366332302878
4781000000.0 0.5093306579650201 -0.8723622964436535
4784000000.0 0.5313719664861657 -0.8811259770658186
4788000000.0 0.5161407205652754 -0.9249562979354721
4791000000.0 0.49163001540114437 -0.8740634646089394
4794000000.0 0.5296773553160681 -0.9266069935424514
4797000000.0 0.4663526337195718 -0.8906031065397275
4800000000.0 0.4781198055307884 -0.8695090508546777
4803000000.0 0.44591780304995854 -0.8969315635858985
4806000000.0 0.4935453261785764 -0.8854843962657403
4809000000.0 0.44581492016470253 -0.9490385826734119
4812000000.0 0.43763553663815424 -0.9119584444032347
4816000000.0 0.4904572154912301 -0.8665511201439948
4819000000.0 0.536579021044649 -0.8916456900400039
4822000000.0 0.5295778871179326 -0.9016027177367424
4825000000.0 0.5449624655868291 -0.8903647390385475
4828000000.0 0.4818266752392669 -0.8828124085795667
4831000000.0 0.47841373615353966 -0.9429704978534278
4834000000.0 0.5002822892611042 -0.8888155163220075
4838000000.0 0.49303238491563106 -0.9126330830826838
4841000000.0 0.4772663358982362 -0.8938350588648829
4844000000.0 0.5255304293424814 -0.8806103852031436
4847000000.0 0.4865093755922597 -0.8758075592566722
4850000000.0 0.5031422070192695 -0.9369092251881654
4853000000.0 0.5239101775199583 -0.8794084590888946
4856000000.0 0.4763481235771884 -0.8851835444162512
4859000000.0 0.5143004073073756 -0.9218111232159604
4862000000.0 0.5088284153746212 -0.8765511390348073
4866000000.0 0.4637145433451409 -0.9204394705076457
4869000000.0 0.4837057931905204 -0.8976229914366137
4872000000.0 0.4949975582058126 -0.9258465204822696
4875000000.0 0.5662847384654367 -0.8891221593498186
4878000000.0 0.49480237089907314 -0.8906393198057077
4881000000.0 0.5129734979184779 -0.9644908790931656
4884000000.0 0.48974734440968254 -0.8822650485799256
4888000000.0 0.5452401201228244 -0.8818905557190292
4891000000.0 0.5438385953740279 -0.8927536715733346
4894000000.0 0.4682936615857855 -0.9130102372726437
4897000000.0 0.5301531326585598 -0.8804199070738263
4900000000.0 0.5106695595985722 -0.8997058173224848
4903000000.0 0.511795085533675 -0.9098127974941721
4906000000.0 0.5180718636331461 -0.9401221904651414
4909000000.0 0.5078563391542658 -0.9282981318682808
4912000000.0 0.5056580545127642 -0.9429328626768663
4916000000.0 0.5215880466505238 -0.906177253425354
4919000000.0 0.5694414606176784 -0.9180896498680996
4922000000.0 0.5532034221255512 -0.8849097663994191
4925000000.0 0.49306476970793855 -0.925407764801202
4928000000.0 0.5481172887258409 -0.8633549838679114
4931000000.0 0.5524544415786934 -0.8938129923673361
4934000000.0 0.5140070194512742 -0.8450621897065413
4938000000.0 0.4833467838829542 -0.9385530268301807
4941000000.0 0.5266737045965701 -0.8752637118448678
4944000000.0 0.5035015172037853 -0.8559927957063193
4947000000.0 0.5035996711350146 -0.8497018137958332
4950000000.0 0.4908438888389681 -0.8982309873724085
4953000000.0 0.4658807702144823 -0.9574538966920381
4956000000.0 0.5027967689871078 -0.9155366034185151
4959000000.0 0.46616804929416017 -0.8868127914063639
4962000000.0 0.516696306075837 -0.9010160206520316
4966000000.0 0.5369910300386038 -0.8998218081372935
4969000000.0 0.5650086568260071 -0.9322613379663695
4972000000.0 0.4882032068555117 -0.8917903629960104
4975000000.0 0.5289444834570879 -0.8956151717593633
4978000000.0 0.5099645820468641 -0.8936967760196178
4981000000.0 0.5125174517148988 -0.9063160997961144
4984000000.0 0.49401695128540074 -0.8805244355735771
4988000000.0 0.5374344238401427 -0.8703212487881128
4991000000.0 0.5980462764417803 -0.8934671305802037
4994000000.0 0.5293872219377589 -0.8665079440512456
4997000000.0 0.49889644163223507 -0.9211697686349217
5000000000.0 0.5749054561515381 -0.9214346303797838
5003000000.0 0.5660514542607996 -0.9069960821830487
5006000000.0 0.5368836804387946 -0.9401835090820758
5009000000.0 0.5237361672947242 -0.9092720701922937
5012000000.0 0.5011759840555963 -0.9146985142334598
5016000000.0 0.5492530892721911 -0.9110545461767774
5019000000.0 0.5291463640345412 -0.8985700105198111
5022000000.0 0.49581686993463303 -0.8733169133677495
5025000000.0 0.5370508177156083 -0.9955235256367166
5028000000.0 0.5181898146178341 -0.9007532675917385
5031000000.0 0.5106658716156851 -0.9055785364128146
5034000000.0 0.5004576632503189 -0.9386318689084351
5038000000.0 0.5127265224692961 -0.8903054437577383
5041000000.0 0.5891403201055952 -0.8770062633414404
5044000000.0 0.5707876013571032 -0.8680912287622381
5047000000.0 0.5711379876510498 -0.9106639135780723
5050000000.0 0.5330038779322659 -0.836837734271831
5053000000.0 0.5646097297685538 -0.9580423935057641
5056000000.0 0.560207423408007 -0.8960682281168987
5059000000.0 0.5821828142021448 -0.8639899733761243
5062000000.0 0.4983314942551972 -0.9179562670238125
5066000000.0 0.571044473489583 -0.9116211041118745
5069000000.0 0.5456248853494166 -0.9080764325722376
5072000000.0 0.5481720283601064 -0.85882654838866
5075000000.0 0.5927279265104322 -0.876923322815631
5078000000.0 0.5098000615338594 -0.9059019392160416
5081000000.0 0.5220735275918702 -0.8659959054621258
5084000000.0 0.5283489146135791 -0.9130663170030687
5088000000.0 0.5584694428092614 -0.8756134076720126
5091000000.0 0.4891945275307322 -0.8849483104790044
5094000000.0 0.5429306647525745 -0.911706431239655
5097000000.0 0.5692541321294675 -0.8818483999475244
5100000000.0 0.5493075935960139 -0.8336662917415263
5103000000.0 0.5050888162068662 -0.8608044682801297
5106000000.0 0.5972179509463772 -0.9480215238674071
5109000000.0 0.583032257276666 -0.8845661146086301
5112000000.0 0.5312103496991718 -0.8846974519632576
5116000000.0 0.5134470965023122 -0.8469111785163542
5119000000.0 0.548512755951488 -0.900075012899108
5122000000.0 0.568662455940034 -0.90789163852361
5125000000.0 0.5424383880547333 -0.8486754753291966
5128000000.0 0.4972087818304361 -0.8725150147900058
5131000000.0 0.5289568529314917 -0.863077810481367
5134000000.0 0.5640496932629903 -0.8658137986245134
5138000000.0 0.6026027603591834 -0.8371760663129761
5141000000.0 0.5762750400563386 -0.8623318879167147
5144000000.0 0.5798523271740392 -0.8903786097138455
5147000000.0 0.5521918576538435 -0.8896444008212704
5150000000.0 0.5571648149797571 -0.8650929235482544
5153000000.0 0.5482145323847036 -0.8902234519567553
5156000000.0 0.5374181651300858 -0.8882039851653216
5159000000.0 0.5884019669350095 -0.8855249858503158
5162000000.0 0.5160036873522664 -0.8576063499620517
5166000000.0 0.5470428308110287 -0.8927192592554457
5169000000.0 0.5610837820562513 -0.8753999543225326
5172000000.0 0.5607665422220911 -0.8875223450108648
5175000000.0 0.6026942773507201 -0.9196305171660217
5178000000.0 0.5576870592418677 -0.8611802881882478
