! Created with skrf 1.8.0 (http://scikit-rf.org).
# Hz S RI R 50.0 
!freq ReS11 ImS11
4000000000.0 0.4592193345869786 0.8564942587718738
4003000000.0 0.5151071161648215 0.9034945836391739
4006000000.0 0.5776645602312424 0.8758149897711623
4009000000.0000005 0.5410742563457636 0.8765645426168872
4011999999.9999995 0.5853352062339364 0.8757158858127277
4016000000.0 0.6076181548765826 0.8179168893257611
4019000000.0 0.6167827829627779 0.8410917428194793
4022000000.0000005 0.5753925194363043 0.8184739423049977
4025000000.0000005 0.7120725303588354 0.7626014103397656
4027999999.9999995 0.6657053210388473 0.8034557933024675
4030999999.9999995 0.6362966153154176 0.8006599595825864
4034000000.0 0.6995576724264267 0.8064480988737333
4038000000.0000005 0.7497135623715929 0.7038989713053573
4041000000.0000005 0.7264542423535586 0.763361701676031
4043999999.9999995 0.8106472746217546 0.7366787720996354
4046999999.9999995 0.7164768357972715 0.7813630999246697
4050000000.0 0.8343772988266756 0.6651625861659329
4053000000.0 0.7582912428244317 0.6397948105195636
4056000000.0 0.7651384526827887 0.6306293920150181
4059000000.0 0.7652874455784155 0.7370142945331648
4062000000.0000005 0.8872863938293818 0.6034133454524829
4066000000.0 0.8044954975597864 0.6038967214806984
4069000000.0 0.8554737101707154 0.6625414858532741
4072000000.0 0.7619243382295311 0.7313112269881926
4075000000.0 0.7775109620389435 0.6552009096872629
4078000000.0000005 0.8950228122383058 0.6515726147647287
4081000000.0000005 0.8076217597674638 0.7119606047503255
4083999999.9999995 0.8573357340180456 0.5497092126651809
4088000000.0 0.8461753726836063 0.5886208195756237
4091000000.0 1.0035493322215643 0.613106448260435
4094000000.0000005 0.9177848962432367 0.5684643604371934
4097000000.0000005 0.892018070385363 0.5189722353176208
4099999999.9999995 0.9379432964249858 0.46586607498624877
4102999999.9999995 0.9398330377521228 0.5255802922697542
4106000000.0 0.921130050719499 0.5000893467606558
4109000000.0 0.9516960374939123 0.4404226110449639
4112000000.0 0.931278953484126 0.5046888822015307
4115999999.9999995 0.913094318707931 0.5523615875459562
4119000000.0 0.9815262526763142 0.4087976419656658
4122000000.0 0.9710948852003665 0.47019365030525423
4125000000.0 1.049447507506119 0.40354779048984046
4128000000.0 0.946446897341473 0.4123630630465705
4131000000.0 0.9141393333757004 0.46432975417855776
4134000000.0000005 0.9770381432162817 0.45158897235596296
4138000000.0 0.9449350111724834 0.4280825567759836
4141000000.0 0.951885689978422 0.33120065198018467
4144000000.0 0.9507121796485731 0.35992236449641124
4147000000.0000005 0.9465000725590336 0.34635709670285386
4150000000.0000005 1.0342080341749662 0.42143201327524515
4152999999.9999995 1.0260265691655346 0.32882142459906694
4155999999.9999995 1.033546457705374 0.36579629306609696
4159000000.0 0.9797909648755629 0.3822775432553176
4162000000.0 0.9687140268709424 0.33387281521411644
4166000000.0000005 0.9797486498024861 0.30936050606562326
4168999999.9999995 1.0197606851701284 0.31468628712012925
4171999999.9999995 1.0376698967500935 0.3661438092202593
4175000000.0 0.9835863863252408 0.2857160508165183
4178000000.0 1.0355552012298388 0.25865514078007784
4181000000.0 1.053561312117474 0.33203037323584644
4184000000.0 1.1098462020374507 0.2656878159932749
4187999999.9999995 1.0504740554997587 0.2719122583228276
4191000000.0 1.0189900323710244 0.28091757170852993
4194000000.0 0.9881879885516694 0.2594030949576983
4197000000.0 1.0144245621417836 0.1791756275449811
4200000000.0 1.0002901464731622 0.18889889797215298
4203000000.0000005 0.9694365379968035 0.24229116131679845
4206000000.0000005 1.0459655081067016 0.23678720189919428
4208999999.9999995 1.0242640371480052 0.24335476044279628
4211999999.9999995 1.0495193437853623 0.20545883173585058
4216000000.0 0.9818884284921876 0.19679568738250175
4219000000.0000005 1.0161121331676046 0.2128165959307547
4222000000.0000005 1.0599630758058702 0.16142643121415345
4224999999.9999995 1.0568638942284616 0.19231422355019318
4227999999.9999995 1.0494544324131523 0.2042901580068491
4231000000.0 1.0193004073695737 0.17185995452620656
4234000000.0 1.02031787525746 0.22317835596472513
4238000000.0000005 1.055046138551122 0.157050434903635
4240999999.9999995 1.0536135862500253 0.20749632554919
4244000000.0 1.047341980581589 0.17657535867846125
4247000000.0 1.1017093249486691 0.18078069685649267
4250000000.0 1.0700143330094272 0.13397537772700302
4253000000.0 1.0312583200208914 0.16272316795059616
4256000000.0 0.9720502301612483 0.11302858381230677
4259000000.0000005 1.0569224995325182 0.11291781041381524
4261999999.9999995 1.0484286639727032 0.09121997015137384
4266000000.0 1.0117004566870513 0.13511827675408736
4269000000.0 1.086845615941833 0.10895169669746751
4272000000.0000005 1.0413569921326626 0.08888072472918201
4275000000.0000005 1.002383193686075 0.08895328068417041
4277999999.9999995 0.9872728662541949 0.0956998808943299
4280999999.9999995 1.0656568603109413 0.07028764968086787
4284000000.0 1.0486930225217952 0.0546019381751876
4288000000.0000005 1.0341998783397908 0.07871801341420337
4291000000.0000005 1.0252655921616873 0.10499993802763713
4293999999.9999995 1.0351147032168773 0.06538870502836769
4297000000.0 1.0282738381510548 0.05667552634808365
4300000000.0 1.0794022278115674 0.03463268773551609
4303000000.0 1.060899230661484 0.07194680353296806
4306000000.0 1.0614577652098809 0.04479480652089923
4309000000.0 1.0252672341164084 0.03938647093499298
4312000000.0 1.0353674913640079 0.0025162416969629064
4316000000.0 1.049652850620777 0.0379684582307212
4319000000.0 1.0593122840295046 0.036814621655782476
4322000000.0 0.9925301460418666 -0.00881683243872966
4325000000.0 1.028024444976664 0.029258717352161567
4328000000.0 1.0165054778849396 0.0033868849850493543
4331000000.0 1.0246652162052596 -0.018591532001927036
4334000000.0 1.0597176727569693 0.01540551673076973
4338000000.0 1.0463913345871712 0.022593984146960233
4341000000.0 1.0341068828004238 0.009011841466894599
4344000000.0 1.0062283087558694 0.011245398597316325
4347000000.0 1.0320406561218531 0.02337028098894145
4350000000.0 1.0211974534327708 -0.04646742483846006
4353000000.0 1.0047825743965042 -0.04135893378656352
4356000000.0 1.030435029001381 -0.02751911335846219
4359000000.0 1.0433270993816663 -0.017987031588397318
4362000000.0 1.0232025354404166 -0.035890230023579606
4366000000.0 1.0199465381924464 -0.05300027899491522
4369000000.0 1.0355858335094956 -0.027762433458107694
4372000000.0 1.0103838771965858 -0.06067402258949128
4375000000.0 1.0045718520833404 -0.045218102843093466
4378000000.0 1.0414398176386768 -0.0713734953116939
4381000000.0 1.024400309766467 -0.05866378025845931
4384000000.0 1.0465001576362825 -0.08854375768948763
4388000000.0 1.00931492767458 -0.022416584021448027
4391000000.0 1.0192451449460258 -0.06746915787649888
4394000000.0 1.0162216811554348 -0.04277319459992124
4397000000.0 0.9991671214128155 -0.06742917855438096
4400000000.0 1.034630658283707 -0.05465156466926874
4403000000.0 1.0202798381503642 -0.05297228886934757
4406000000.0 1.0195214233610503 -0.1212588071967815
4409000000.0 1.0392529409852003 -0.10184439331956818
4412000000.0 1.037821966290671 -0.10237882500223439
4416000000.0 0.990271408056364 -0.11942073760949135
4419000000.0 1.00522124679609 -0.09876005199982901
4422000000.0 1.001867010261634 -0.11053957651823249
4425000000.0 1.0403421057774571 -0.06859633611232235
4428000000.0 1.00852669443023 -0.10339046123748408
4431000000.0 1.0471947713905514 -0.10934068867664254
4434000000.0 1.020930548870975 -0.1354911821952136
4438000000.0 1.044102700224332 -0.10848531313006754
4441000000.0 1.0271246078846148 -0.10268656447808061
4444000000.0 0.9898537177648263 -0.12622265395677246
4447000000.0 1.0117704256223794 -0.14886463907805336
4450000000.0 0.9944150921971655 -0.11419586848882607
4453000000.0 1.0209045033455864 -0.12190843928298678
4456000000.0 0.9899382901262188 -0.15565515870721047
4459000000.0 0.9696169806442339 -0.15105444648972616
4462000000.0 1.0636146854628032 -0.16324079050277668
4466000000.0 1.0274757160666654 -0.16578442719816672
4469000000.0 1.0252141655256968 -0.13495119949350864
4472000000.0 1.0338713183809265 -0.18606923704579625
4475000000.0 0.9962720624031641 -0.1548845277273786
4478000000.0 1.0655838734120675 -0.17500283883764012
4481000000.0 0.9862888358429025 -0.17423478650936042
4484000000.0 0.9778500071974511 -0.20501032098877697
4488000000.0 0.9824552794309981 -0.18289211833261582
4491000000.0 1.0081212764338536 -0.19988583193048215
4494000000.0 0.9848236696223234 -0.16064771594336735
4497000000.0 0.9991072094939624 -0.17632455657182222
4500000000.0 1.0115852037654438 -0.16651143316548206
4503000000.0 1.0315997967166457 -0.1873423935512496
4506000000.0 0.9798382926576901 -0.19268418372526303
4509000000.0 0.9828685653410048 -0.1857980196476532
4512000000.0 0.977022004983324 -0.20264325275900752
4516000000.0 1.021821527605416 -0.1896834983292882
4519000000.0 0.9660112534221447 -0.18279788242851885
4522000000.0 0.9976735358805132 -0.22251475654975217
4525000000.0 0.9821254393356537 -0.17067787369147658
4528000000.0 1.0319331297994967 -0.22866467642821342
4531000000.0 0.9776980741280831 -0.19094160612335276
4534000000.0 0.9688623594564878 -0.17979288626069045
4538000000.0 0.9860353472047858 -0.24054717067502743
4541000000.0 0.9941733120262808 -0.24869429789597397
4544000000.0 0.9693716586165247 -0.22313971004815464
4547000000.0 0.9787578234122652 -0.19135068894863344
4550000000.0 0.9756603409788244 -0.2661042808822911
4553000000.0 0.9935150302934787 -0.22507419761442574
4556000000.0 0.9450540349143433 -0.24066392550214052
4559000000.0 1.0067668445847888 -0.27188318432006015
4562000000.0 1.0031304328744837 -0.25408504021502504
4566000000.0 0.9660797753136929 -0.25950614720702087
4569000000.0 0.9470123237127438 -0.2555715073401606
4572000000.0 0.9755568554421267 -0.23092709306057
4575000000.0 0.9737958645780627 -0.285099007247655
4578000000.0 0.9951404043146796 -0.24752705636662986
4581000000.0 1.0071031617874848 -0.26669112768190373
4584000000.0 0.9649048933548602 -0.2519264503999378
4588000000.0 0.9953289742467878 -0.24408856344129803
4591000000.0 0.9803984200337442 -0.24191211020097741
4594000000.0 0.9708284055810754 -0.291803432154976
4597000000.0 0.988260515700994 -0.2716105067839662
4600000000.0 0.9243180263565071 -0.28801627913907424
4603000000.0 0.9875252802847974 -0.27628331876552875
4606000000.0 0.9702157688882614 -0.26988962568698793
4609000000.0 0.9592885328040673 -0.3065821107511803
4612000000.0 1.0081169093327054 -0.2845094103296274
4616000000.0 0.9430245463699034 -0.29197440978017486
4619000000.0 0.9784352647887375 -0.24588920554193253
4622000000.0 0.9762259540514994 -0.252490829154802
4625000000.0 0.9223679513064331 -0.28024997587110045
4628000000.0 0.9275067125244019 -0.25455351049738917
4631000000.0 0.9299897498163351 -0.3350572595700584
4634000000.0 0.9625913254772702 -0.3028354015704504
4638000000.0 0.9706199297060616 -0.29566243589351193
4641000000.0 0.975511390896929 -0.2885070204317459
4644000000.0 0.9714387898509135 -0.29829334750591424
4647000000.0 0.9786947115659602 -0.31549237855356094
4650000000.0 0.954079765961076 -0.32970417325186563
4653000000.0 0.9890032567092326 -0.3239560710238495
4656000000.0 0.9485291266903066 -0.3333849375872724
4659000000.0 0.9514796720534311 -0.30086981607177576
4662000000.0 0.9520863216042627 -0.31035048558555745
4666000000.0 0.9350519531025063 -0.3145220984981204
4669000000.0 0.9482381107819793 -0.28269011807587885
4672000000.0 0.9235905310172712 -0.34614603712090003
4675000000.0 0.9064905281082266 -0.357182466351619
4678000000.0 0.9455499902461325 -0.3348772332918893
4681000000.0 0.9397624228674223 -0.379236525034523
4684000000.0 0.8935291422405793 -0.34629709126082736
4688000000.0 0.9281329787765118 -0.33098268567865924
4691000000.0 0.9138743918992532 -0.3257890222143275
4694000000.0 0.9494668511938634 -0.3679111943515957
4697000000.0 0.9507400201423545 -0.34748766691918587
4700000000.0 0.9544704020575699 -0.3396927250017179
4703000000.0 0.9675064762619067 -0.38598082783368626
4706000000.0 0.9574582720398961 -0.35948911013992507
4709000000.0 0.9209498815551587 -0.3800368874637117
4712000000.0 0.9198194629414932 -0.3726669901889718
4716000000.0 0.9296227181171205 -0.3435751876183111
4719000000.0 0.9492545532826253 -0.3790794940596743
4722000000.0 0.9609759360974939 -0.36729834413054374
4725000000.0 0.942483481400749 -0.3903312030939989
4728000000.0 0.9215921097488173 -0.3755682675162858
4731000000.0 0.923910433407952 -0.37439660370997435
4734000000.0 0.9400764229978023 -0.3421433772799031
4738000000.0 0.9326414019907329 -0.3795454084566716
4741000000.0 0.9373711436512602 -0.3884783792505104
4744000000.0 0.9436187491525087 -0.4098183989087328
4747000000.0 0.9250519460996819 -0.3905153955863167
4750000000.0 0.9270877953243467 -0.3822874773878611
4753000000.0 0.9403987396149475 -0.40482977318620517
4756000000.0 0.9120048821618835 -0.41001456083539467
4759000000.0 0.9271501507459332 -0.38956442883761516
4762000000.0 0.9166310460369012 -0.4082529102198423
4766000000.0 0.9174987434328425 -0.41583285325186425
4769000000.0 0.9585252862041923 -0.40455095532248253
4772000000.0 0.9263309451301738 -0.42886019647734264
4775000000.0 0.9294827539026923 -0.4370881007441827
4778000000.0 0.9355663116138441 -0.3671155892705057
4781000000.0 0.940307478283814 -0.38410724974501853
4784000000.0 0.947014263292295 -0.365857016104553
4788000000.0 0.9372346174818964 -0.3933275808573812
4791000000.0 0.9079347487852838 -0.4231000239147099
4794000000.0 0.9360615873836242 -0.39135555969134583
4797000000.0 0.9276265506246018 -0.4401814083451919
4800000000.0 0.9142172779088095 -0.42392816670867806
4803000000.0 0.8943115467314465 -0.42922735843322746
4806000000.0 0.9213509917606958 -0.4334382621364462
4809000000.0 0.884316024273404 -0.4096213741820534
4812000000.0 0.9189958688884147 -0.4379736911898442
4816000000.0 0.9206719852239729 -0.4170685618916193
4819000000.0 0.9346314814890478 -0.4518067992491906
4822000000.0 0.9596775855526449 -0.4266298507675189
4825000000.0 0.9256861189903561 -0.41915805330178596
4828000000.0 0.9198353942211558 -0.4285501257459778
4831000000.0 0.9107202817225346 -0.4600477655154802
4834000000.0 0.8953288787004715 -0.4515111822310792
4838000000.0 0.9250717635639994 -0.46157676849000073
4841000000.0 0.91567233587395 -0.45830517019790473
4844000000.0 0.9291608049037101 -0.42735576727036517
4847000000.0 0.9023383593269755 -0.41656136294694746
4850000000.0 0.9202010649909615 -0.4504006808478421
4853000000.0 0.9127768072792186 -0.43631309962572706
4856000000.0 0.9149605699881036 -0.44772622579083876
4859000000.0 0.9378724551995137 -0.45847412207207716
4862000000.0 0.9115551102417002 -0.43013978910430234
4866000000.0 0.9117099974699893 -0.45023824038901233
4869000000.0 0.9077076075769017 -0.4673717953055717
4872000000.0 0.9029602062908209 -0.47591134904652294
4875000000.0 0.9631067368166053 -0.45072555757444116
4878000000.0 0.9266159348883352 -0.4660710611700177
4881000000.0 0.9339892893498136 -0.4845957030724434
4884000000.0 0.9138329411446732 -0.4398654997314929
4888000000.0 0.9346172923469075 -0.4608694515375294
4891000000.0 0.9424715147768727 -0.45370048856597184
4894000000.0 0.9002994895771336 -0.4793552232831808
4897000000.0 0.9081375872818453 -0.42719408910080714
4900000000.0 0.9321734627446578 -0.4684458654799437
4903000000.0 0.9055806067071952 -0.44513918048315304
4906000000.0 0.9106174268380745 -0.4657107429055807
4909000000.0 0.9058043395129556 -0.48577544957883684
4912000000.0 0.9294268144953342 -0.46716619568892753
4916000000.0 0.9460411124861536 -0.4512578406280277
4919000000.0 0.9506173785367116 -0.48349078292203607
4922000000.0 0.922967199527694 -0.472641002032171
4925000000.0 0.8853448478261083 -0.4905641986632999
4928000000.0 0.926945468360419 -0.4533622660524736
4931000000.0 0.9215641920045085 -0.4505626154541061
4934000000.0 0.8726770978606575 -0.47842039139299547
4938000000.0 0.8878512462679248 -0.5018840411577954
4941000000.0 0.8730584841672567 -0.4775049905489135
4944000000.0 0.8635573488215333 -0.4510371965696481
4947000000.0 0.8867470113404851 -0.4576606640814484
4950000000.0 0.8860328297897828 -0.48633967803265293
4953000000.0 0.8863944301298612 -0.5388420323792196
4956000000.0 0.9009941725171842 -0.5235783009207255
4959000000.0 0.8804157580719918 -0.5011745842504713
4962000000.0 0.9202476444997165 -0.5148087874811762
4966000000.0 0.9242348421492286 -0.497907483243594
4969000000.0 0.9311986591608199 -0.49549250471968737
4972000000.0 0.9018143809734098 -0.5303559281570422
4975000000.0 0.9065924070825404 -0.46253411759842494
4978000000.0 0.8617022941178307 -0.4813864202815329
4981000000.0 0.8875243502279037 -0.49924530598819306
4984000000.0 0.8849553595848692 -0.47854209744267534
4988000000.0 0.8919938286022561 -0.4737210464960914
4991000000.0 0.9729007769085485 -0.46639508875865593
4994000000.0 0.8985820533066199 -0.494209172814808
4997000000.0 0.9287166012926478 -0.4962563376427742
5000000000.0 0.9484073411055037 -0.4735236617890047
5003000000.0 0.9290870795078168 -0.4961514974089031
5006000000.0 0.9582758140648517 -0.5371369475346901
5009000000.0 0.8959790252341009 -0.48132928213839554
5012000000.0 0.876489190071611 -0.5038799917500846
5016000000.0 0.9558999916233983 -0.48873614653678654
5019000000.0 0.9096483850018103 -0.5241374421019055
5022000000.0 0.9079195514845952 -0.5099446945824558
5025000000.0 0.9821658834531624 -0.5708679480468366
5028000000.0 0.9214322286195081 -0.5518226339924632
5031000000.0 0.8624049224141239 -0.5202146651728278
5034000000.0 0.8977328758967034 -0.547914641636134
5038000000.0 0.8492353222528409 -0.514070740973746
5041000000.0 0.9273589829134656 -0.49131939786734186
5044000000.0 0.8893091926677317 -0.5011437761141722
5047000000.0 0.9225758645749536 -0.4991380966949086
5050000000.0 0.9385561498595898 -0.4118481208371898
5053000000.0 0.9123281370104066 -0.5277667262766705
5056000000.0 0.9445477104638462 -0.44740317129986396
5059000000.0 0.9030525785800426 -0.4595578877424523
5062000000.0 0.8874667864528453 -0.5584541108086184
5066000000.0 0.9370874342993577 -0.4596407564172482
5069000000.0 0.9043538255018957 -0.4968593457042991
5072000000.0 0.8660303589104489 -0.4935721796845732
5075000000.0 0.9368246907564094 -0.5134152663576028
5078000000.0 0.8633480314860545 -0.5708190892379428
5081000000.0 0.8355542499497904 -0.49938167133709177
5084000000.0 0.939914242118107 -0.5221766282153089
5088000000.0 0.8827715479177357 -0.48818138842982933
5091000000.0 0.9144953860244073 -0.5249676839751931
5094000000.0 0.8996561515184744 -0.5237897300711981
5097000000.0 0.9384338333037842 -0.4881383789034734
5100000000.0 0.8896612873440558 -0.5064784842993373
5103000000.0 0.8757024457919419 -0.5003674705119014
5106000000.0 0.9813394386151582 -0.5201435773172342
5109000000.0 0.9325744718766996 -0.5062680537687005
5112000000.0 0.8839616011113791 -0.5036807705595474
5116000000.0 0.8685438244521037 -0.4973286511655236
5119000000.0 0.8942647010970337 -0.4707165084371775
5122000000.0 0.9143388617815733 -0.48612712112943274
5125000000.0 0.9119431192571593 -0.5093019810314049
5128000000.0 0.9133993426803182 -0.5442284135874209
5131000000.0 0.8919356899578714 -0.5061886651950457
5134000000.0 0.8826903919928286 -0.5067840884581591
5138000000.0 0.9190339464940632 -0.5168807600397645
5141000000.0 0.9502526171416057 -0.4717136753552624
5144000000.0 0.9243158357544619 -0.49725487304556926
5147000000.0 0.947319502128736 -0.5288088600268656
5150000000.0 0.8776387496465267 -0.4908598949632078
5153000000.0 0.874685647868586 -0.5031676207456288
5156000000.0 0.9434411263349933 -0.47708602382336857
5159000000.0 0.9788192352580255 -0.5179409931434766
5162000000.0 0.889472791179247 -0.5042824070474803
5166000000.0 0.9305571896369138 -0.5808257172329108
5169000000.0 0.9314604427707045 -0.5099338137694601
5172000000.0 0.877983049153511 -0.4987548229678581
5175000000.0 0.9568654884166433 -0.48185486645573483
