! Created with skrf 1.8.0 (http://scikit-rf.org).
# Hz S RI R 50.0 
!freq ReS11 ImS11
4000000000.0 0.4976040671931483 -0.8668713942851919
4003000000.0 0.5595098559564458 -0.9698099222100339
4006000000.0 0.5157893006640835 -0.8983587172443184
4009000000.0000005 0.5338113057845348 -0.884815556004436
4011999999.9999995 0.5961315465144484 -0.8773764098598549
4016000000.0 0.5049726844631546 -0.9375841288022279
4019000000.0 0.5265389986290377 -0.9085987714502332
4022000000.0000005 0.5231392125008056 -0.8931900251388722
4025000000.0000005 0.4959425771131509 -0.9552107255108045
4027999999.9999995 0.5103455010744216 -0.8792349416494447
4030999999.9999995 0.4770666428871677 -0.8578604135761538
4034000000.0 0.46744790774943795 -0.8792585104023347
4038000000.0000005 0.5090820714564102 -0.9030396705240884
4041000000.0000005 0.49967601559365205 -0.8855883873338243
4043999999.9999995 0.532060714495014 -0.9665934683040891
4046999999.9999995 0.538980868865705 -0.916307880424464
4050000000.0 0.5047949217263076 -0.8991333378222218
4053000000.0 0.49057457166560553 -0.9020815517563804
4056000000.0 0.5176121142749557 -0.899121988682063
4059000000.0 0.5463563053322852 -0.844356432167309
4062000000.0000005 0.48022021423655425 -0.9166666653053105
4066000000.0 0.4787898131484954 -0.8643956122898399
4069000000.0 0.5270387375565742 -0.9467330984144602
4072000000.0 0.5552512399505343 -0.8697240148061562
4075000000.0 0.5342223196660755 -0.9422963136239878
4078000000.0000005 0.5233885347915017 -0.8899709661625708
4081000000.0000005 0.6005222876312369 -0.8863131517352649
4083999999.9999995 0.4760260909745834 -0.8997415251044497
4088000000.0 0.5571161603281589 -0.8649574037140129
4091000000.0 0.5679713749361327 -0.9427692106186707
4094000000.0000005 0.5127688525924252 -0.8957142879041907
4097000000.0000005 0.5356255073490485 -0.9066105760349455
4099999999.9999995 0.5114128845731329 -0.9014411379462065
4102999999.9999995 0.5364449276201235 -0.9289465814829414
4106000000.0 0.48009669314629866 -0.9226887262677599
4109000000.0 0.5007491652196489 -0.9290854861745133
4112000000.0 0.5139338378645636 -0.9122437666535592
4115999999.9999995 0.5194551982287572 -0.8862518943556718
4119000000.0 0.49840207981117135 -0.8821544450668142
4122000000.0 0.5390793857660859 -0.9219461620004598
4125000000.0 0.5120304904721793 -0.9202305907117428
4128000000.0 0.4989358753917251 -0.8563467300851563
4131000000.0 0.5085710417590119 -0.8576024543432009
4134000000.0000005 0.512073719354096 -0.8841593416299882
4138000000.0 0.4916965312335876 -0.8788601842914883
4141000000.0 0.5119071453727199 -0.9035871750445083
4144000000.0 0.5130042880580474 -0.8756034488670357
4147000000.0000005 0.49280385481296224 -0.881327655220695
4150000000.0000005 0.5370518178288752 -0.9261924571076573
4152999999.9999995 0.5180334843727636 -0.9139585101622214
4155999999.9999995 0.5486035411996438 -0.9074493940612481
4159000000.0 0.48735226889606853 -0.8397190055349274
4162000000.0 0.5148601634490646 -0.862792831886953
4166000000.0000005 0.5218668401123774 -0.9172238394414091
4168999999.9999995 0.49326978030373225 -0.8858869942064561
4171999999.9999995 0.5367104075843248 -0.8757320300428645
4175000000.0 0.5325372792893335 -0.9241709003244517
4178000000.0 0.5353273207723823 -0.8984318497526432
4181000000.0 0.5245916080182172 -0.889499947917609
4184000000.0 0.5178129435080991 -0.8774109474327312
4187999999.9999995 0.5146092586524367 -0.8779143788680227
4191000000.0 0.5315765852827636 -0.848249136313519
4194000000.0 0.5031660353789029 -0.8768560290257662
4197000000.0 0.5168874918428932 -0.8832056027038377
4200000000.0 0.5173638279220827 -0.8702952176384995
4203000000.0000005 0.5296236930476091 -0.8907081445844703
4206000000.0000005 0.5437932169216965 -0.8870665969018351
4208999999.9999995 0.528495499292244 -0.8767483976594369
4211999999.9999995 0.49229202573555153 -0.9055718298349426
4216000000.0 0.5317020023142124 -0.8858892914038897
4219000000.0000005 0.5321139442991404 -0.8841114811933233
4222000000.0000005 0.4974628774239349 -0.8810738070883227
4224999999.9999995 0.5237865669577624 -0.8766139198026119
4227999999.9999995 0.5057094416339556 -0.8850856256519695
4231000000.0 0.5092364495165832 -0.899488639238692
4234000000.0 0.5227529801000519 -0.888902149142872
4238000000.0000005 0.5107631570446634 -0.8857668506694211
4240999999.9999995 0.5011265919864336 -0.8803522073293191
4244000000.0 0.5170999634722939 -0.8685354993234939
4247000000.0 0.525614100085054 -0.8661438364138987
4250000000.0 0.4993153393850049 -0.8837582943395874
4253000000.0 0.49236738461391283 -0.872003783805601
4256000000.0 0.5225595907896304 -0.8942064740707436
4259000000.0000005 0.5021666862763225 -0.8572185419398423
4261999999.9999995 0.4881279798097551 -0.8856704068040769
4266000000.0 0.4938759196689396 -0.9209838866603325
4269000000.0 0.5296095358564954 -0.8597075451216151
4272000000.0000005 0.5131057383100839 -0.8618967069201375
4275000000.0000005 0.5269620053487378 -0.9003982480469558
4277999999.9999995 0.5287118563469179 -0.9068969636677835
4280999999.9999995 0.5058750121687984 -0.8637538454476087
4284000000.0 0.48367248631568066 -0.9173570314738202
4288000000.0000005 0.5274573644865537 -0.8694932189605309
4291000000.0000005 0.4938912019073014 -0.8510277482264232
4293999999.9999995 0.4881806083504278 -0.8651555524739686
4297000000.0 0.5190573554574425 -0.8514299312294735
4300000000.0 0.48967288150505117 -0.8699720627372584
4303000000.0 0.4792713169904187 -0.8611688211440142
4306000000.0 0.5167825431352687 -0.890968781299898
4309000000.0 0.5219610569401797 -0.8643873443893573
4312000000.0 0.5345885129458616 -0.8880340681871522
4316000000.0 0.5037776089980385 -0.8843425574084666
4319000000.0 0.5173769454744126 -0.8391553492518253
4322000000.0 0.48324409252530737 -0.8624052318130441
4325000000.0 0.5079921555752183 -0.8753080391565337
4328000000.0 0.50963306942055 -0.8745493150035877
4331000000.0 0.4909241741366677 -0.9068525249239077
4334000000.0 0.4990159755110236 -0.8907105171423979
4338000000.0 0.5207734727381036 -0.860165677167124
4341000000.0 0.5340613277040172 -0.8773464640012657
4344000000.0 0.532843341809756 -0.8756887218968383
4347000000.0 0.47921462573269236 -0.8909048675099185
4350000000.0 0.4476580033906289 -0.8706318356064097
4353000000.0 0.5059157494962307 -0.8370057240817409
4356000000.0 0.48584774679348264 -0.8688924671599482
4359000000.0 0.4788814254534181 -0.8444839475110394
4362000000.0 0.4576278224669587 -0.8998606817527142
4366000000.0 0.5192378560166597 -0.8842852803953467
4369000000.0 0.47644874249767344 -0.8342714892279224
4372000000.0 0.4753160585059424 -0.8829970397522581
4375000000.0 0.5011603673715198 -0.8541102796048042
4378000000.0 0.4985323186985423 -0.8682044204449966
4381000000.0 0.5013705110815904 -0.870071329335549
4384000000.0 0.5311899776223734 -0.9325040845909731
4388000000.0 0.4990504481668597 -0.8733697043386301
4391000000.0 0.5073841681135315 -0.8833563212258337
4394000000.0 0.4810418257470437 -0.8515331076454369
4397000000.0 0.49523742241007074 -0.8756952893833835
4400000000.0 0.4908213167212345 -0.9120329009477692
4403000000.0 0.5007626828209276 -0.8924195272592981
4406000000.0 0.48921205988949445 -0.8941194429608632
4409000000.0 0.5070527010193118 -0.9199456128789008
4412000000.0 0.43357688428216 -0.9123633653724506
4416000000.0 0.4706554585339824 -0.8775141139847111
4419000000.0 0.47912527181416786 -0.8942248320250619
4422000000.0 0.4952860244119835 -0.8782272231368465
4425000000.0 0.5158894961570687 -0.8966617648790774
4428000000.0 0.48267865440175084 -0.8882938498847953
4431000000.0 0.5012838380817373 -0.9108166408699054
4434000000.0 0.47845288700151506 -0.8692856167460845
4438000000.0 0.5066578371253163 -0.9034559255186936
4441000000.0 0.506299169250491 -0.9031197088742222
4444000000.0 0.4758219278077379 -0.8720057512448356
4447000000.0 0.47435979641520765 -0.8875771792562737
4450000000.0 0.5024605297609765 -0.8621725158004384
4453000000.0 0.49911797733878727 -0.9033548554438396
4456000000.0 0.4709149752458276 -0.8762983715623527
4459000000.0 0.45092145851763754 -0.8549129740660317
4462000000.0 0.522155602502133 -0.9381119066487433
4466000000.0 0.4938600613981879 -0.9213886935833577
4469000000.0 0.49929351499825275 -0.8844730202537643
4472000000.0 0.486918620742542 -0.9165590233969387
4475000000.0 0.4789061793190384 -0.8583327122013629
4478000000.0 0.49222043307963254 -0.930236003166885
4481000000.0 0.45007688618792596 -0.8722570739132733
4484000000.0 0.43524162599713295 -0.9108666603902467
4488000000.0 0.46657645950026244 -0.8647418621566192
4491000000.0 0.482245096616928 -0.892942309708423
4494000000.0 0.4901510328402373 -0.8724332949780329
4497000000.0 0.478240189471893 -0.8718464663870651
4500000000.0 0.48434763904276845 -0.8723778484692271
4503000000.0 0.4980533596643467 -0.9115485720543581
4506000000.0 0.45942709683537464 -0.8956305070061155
4509000000.0 0.44972689642985636 -0.8761709264110146
4512000000.0 0.4532001562148234 -0.8809103684793578
4516000000.0 0.4992833418701076 -0.9084077007601492
4519000000.0 0.4837940261660154 -0.8583845697141244
4522000000.0 0.46821298253388405 -0.8912798979164414
4525000000.0 0.5090405295891656 -0.8632124983059926
4528000000.0 0.49869595681610557 -0.8993546812232045
4531000000.0 0.4960905881837292 -0.8817524334282284
4534000000.0 0.46292063708105213 -0.8867261352101363
4538000000.0 0.4663358966029101 -0.9086661369465461
4541000000.0 0.44040922982114794 -0.8929400419956368
4544000000.0 0.4683349131069153 -0.8715046619854523
4547000000.0 0.4727651229280147 -0.8879611445423752
4550000000.0 0.44627067574470014 -0.8961124478532972
4553000000.0 0.4481443619774455 -0.9140196477818567
4556000000.0 0.4546783192932585 -0.8791869754901886
4559000000.0 0.4722341737148605 -0.9117338972107691
4562000000.0 0.47350990883813876 -0.9090990010035087
4566000000.0 0.47858537093566283 -0.8956751023306152
4569000000.0 0.47095368551372213 -0.8960058900542034
4572000000.0 0.4623367028503613 -0.8902887424328266
4575000000.0 0.44466534353211173 -0.9181248618643805
4578000000.0 0.48379845189886883 -0.8953404155359685
4581000000.0 0.451138765498933 -0.9102593090140655
4584000000.0 0.46665608449747953 -0.8932023826770294
4588000000.0 0.46928204986828387 -0.9162506483965005
4591000000.0 0.46961275770278577 -0.8971550834967289
4594000000.0 0.4572375367258517 -0.914054328348223
4597000000.0 0.45873798348570993 -0.9196289488021726
4600000000.0 0.44022447616763405 -0.8935493533958416
4603000000.0 0.4340238775543247 -0.9212740425299601
4606000000.0 0.47580885477522195 -0.9145868620860247
4609000000.0 0.4522489853963282 -0.898713312438921
4612000000.0 0.4720086374781659 -0.9107141541916962
4616000000.0 0.45923008189471903 -0.9122356379220938
4619000000.0 0.4758187811585507 -0.9096832367752261
4622000000.0 0.44337811358059787 -0.9068722486592555
4625000000.0 0.4440390409623963 -0.8821815119558639
4628000000.0 0.4660313009509146 -0.8998908103872457
4631000000.0 0.43487845242938755 -0.9020139646541578
4634000000.0 0.4546391575598233 -0.9135247929514152
4638000000.0 0.44898237597783375 -0.8953373817722209
4641000000.0 0.4524683795242932 -0.8974716511163507
4644000000.0 0.4378630278620158 -0.8854297328329809
4647000000.0 0.47039252515870833 -0.9274223400350369
4650000000.0 0.4182345579396559 -0.9120590329736626
4653000000.0 0.4714129878115605 -0.9017593325375044
4656000000.0 0.4395715527951687 -0.8965263043591403
4659000000.0 0.43147527958905885 -0.8983892406384815
4662000000.0 0.4472178120836724 -0.9022076216981643
4666000000.0 0.4325799547526506 -0.9271476336333825
4669000000.0 0.4401845146520896 -0.904949667216954
4672000000.0 0.4525025228911531 -0.93890835452137
4675000000.0 0.4224579681559954 -0.92249102799674
4678000000.0 0.439987738106321 -0.902811697075697
4681000000.0 0.4231440111611404 -0.9359041070778218
4684000000.0 0.4170798589948565 -0.933024062340191
4688000000.0 0.41877465827480065 -0.9218279127167551
4691000000.0 0.4805671068120378 -0.9208951679972694
4694000000.0 0.45481871184920064 -0.9099575958365725
4697000000.0 0.4199936731136146 -0.8830063455017849
4700000000.0 0.44417540139418926 -0.8980573808654406
4703000000.0 0.4421888952814664 -0.8922122669988772
4706000000.0 0.4490822022971355 -0.9121676158869104
4709000000.0 0.4310187524055009 -0.9056863826887372
4712000000.0 0.4452699717984888 -0.8994125866154622
4716000000.0 0.4548965226347586 -0.9363848580220179
4719000000.0 0.4829822460909345 -0.9123309601877969
4722000000.0 0.46767299247193317 -0.9050871871220835
4725000000.0 0.44169631452854646 -0.9269139461875594
4728000000.0 0.4364444354139556 -0.8880258941254472
4731000000.0 0.48940326984647253 -0.9480330200351834
4734000000.0 0.45749644838515197 -0.8833194622953638
4738000000.0 0.48681787820144057 -0.9429466885448393
4741000000.0 0.4759808885211406 -0.961646775919311
4744000000.0 0.41947392290414864 -0.9206286136158673
4747000000.0 0.4379617008148416 -0.9004075615390326
4750000000.0 0.463430795353635 -0.9633149995649868
4753000000.0 0.4407773392945996 -0.9146080107319564
4756000000.0 0.4491454599572881 -0.9204989223050759
4759000000.0 0.4387317944042115 -0.9189296039818817
4762000000.0 0.45221693909389227 -0.9568229456516089
4766000000.0 0.455015335617859 -0.9297691962123783
4769000000.0 0.4727849237289213 -0.9039319184544878
4772000000.0 0.44186765767969555 -0.9418909941079249
4775000000.0 0.4146139283740474 -0.9672320465152399
4778000000.0 0.484897153221735 -0.9358704333245081
4781000000.0 0.4323870980497712 -0.9119261225219162
4784000000.0 0.461166794398928 -0.934266817148323
4788000000.0 0.43982291582808597 -0.9418886301767198
4791000000.0 0.4367921485599825 -0.8979848645439029
4794000000.0 0.4616814059251193 -0.9437268036115753
4797000000.0 0.4294169606713599 -0.8910103789835173
4800000000.0 0.4315215209909887 -0.9021494634505915
4803000000.0 0.40189062152449817 -0.9011848289344123
4806000000.0 0.42381869107241993 -0.9498598343445914
4809000000.0 0.3923586532926078 -0.9216264617027762
4812000000.0 0.40703445950796596 -0.9438277604985004
4816000000.0 0.4426709064324307 -0.9119068824516817
4819000000.0 0.4704802178722033 -0.9337918573855354
4822000000.0 0.45985253298287254 -0.9575723843708608
4825000000.0 0.4644450564209113 -0.9443355794381946
4828000000.0 0.43913094859656154 -0.9322618548421768
4831000000.0 0.40241375356959996 -0.9759256805232517
4834000000.0 0.4520815790283429 -0.9336788131636972
4838000000.0 0.43904708137883774 -0.9593687513151112
4841000000.0 0.4122802996537326 -0.9159707285999285
4844000000.0 0.4605776319286068 -0.9104568488038108
4847000000.0 0.4494592742266057 -0.8921291689432012
4850000000.0 0.43771842404060624 -0.9452726720995143
4853000000.0 0.437852529729323 -0.9203870495251207
4856000000.0 0.418203781583819 -0.9151986684912845
4859000000.0 0.44705947339890106 -0.9820164600203147
4862000000.0 0.4345301429533126 -0.8825726919593047
4866000000.0 0.4238611516258892 -0.9541550857644963
4869000000.0 0.43735945722009806 -0.9550415397663812
4872000000.0 0.4168857541419352 -0.9688845283359039
4875000000.0 0.49918091387587565 -0.9631081903004756
4878000000.0 0.40397713801223223 -0.9445850268884366
4881000000.0 0.4344826923477913 -1.014984843320087
4884000000.0 0.45818021293012645 -0.9085560377625432
4888000000.0 0.4656272911371613 -0.9127194876347433
4891000000.0 0.4884430345500918 -0.9434985621938562
4894000000.0 0.41920475910598903 -0.9339618067922092
4897000000.0 0.44963823482174814 -0.8945812207977019
4900000000.0 0.4326910335416182 -0.9380271945369679
4903000000.0 0.45493440388376516 -0.931135139709243
4906000000.0 0.4387404587328341 -0.9560474766987653
4909000000.0 0.43411586668062946 -0.9798669962034515
4912000000.0 0.4126681988098226 -0.9587964712255284
4916000000.0 0.4328696633532714 -0.9294829964306653
4919000000.0 0.4596408163603508 -0.9620662511973851
4922000000.0 0.4664673486602266 -0.9362499628139854
4925000000.0 0.37857747416489057 -0.9667920759127556
4928000000.0 0.4802866939190398 -0.9073477492191976
4931000000.0 0.4877202083907992 -0.9517637024475313
4934000000.0 0.4289165738246021 -0.9306162651413122
4938000000.0 0.40544410772722733 -0.952714783653765
4941000000.0 0.4231935122602938 -0.9208649560162874
4944000000.0 0.4532395178651901 -0.8496343420991155
4947000000.0 0.4494598648178778 -0.897197803157296
4950000000.0 0.41521049273361454 -0.9130530570079066
4953000000.0 0.4327472080423471 -0.974272475324512
4956000000.0 0.41966199009766453 -0.9179224848019656
4959000000.0 0.3820953439239254 -0.8968925289089245
4962000000.0 0.4410818205726734 -0.9456400075824474
4966000000.0 0.45774349647320794 -0.9504487652948292
4969000000.0 0.5025324439502878 -0.9905017243805143
4972000000.0 0.4498813193215738 -0.9462391948512834
4975000000.0 0.45262451346853716 -0.8769260637759682
4978000000.0 0.43405000055020393 -0.952289606960201
4981000000.0 0.43992386751431234 -0.9387827899660597
4984000000.0 0.4311558051297467 -0.8965774684155243
4988000000.0 0.47291572864498654 -0.9121804547487444
4991000000.0 0.48596351545714755 -0.9206733992973758
4994000000.0 0.4583137421499339 -0.9424032908821124
4997000000.0 0.43061338322916826 -0.9486987155814867
5000000000.0 0.4779848355236486 -0.9615676435548066
5003000000.0 0.4634645015403537 -0.9680091278113914
5006000000.0 0.4669402064079963 -0.9653656855145284
5009000000.0 0.4582070121794606 -0.9469491748436581
5012000000.0 0.44331380998760883 -0.9049932444979825
5016000000.0 0.5089406030487755 -0.9505922695908613
5019000000.0 0.4364503901293152 -0.9355809486940211
5022000000.0 0.427279478321362 -0.9567745345315539
5025000000.0 0.4716847877361608 -0.9887537460829963
5028000000.0 0.40709304744109703 -0.9403070861893521
5031000000.0 0.42414702666909615 -0.9390536883619709
5034000000.0 0.4404302833154318 -0.9825628640067727
5038000000.0 0.4070546116172307 -0.8986639275531814
5041000000.0 0.49843052671206484 -0.9463267890203326
5044000000.0 0.4674130276038423 -0.897634208515852
5047000000.0 0.4823077561488103 -0.9586858612143179
5050000000.0 0.5016009723992264 -0.8588655281729143
5053000000.0 0.45322625985489806 -0.961478318878125
5056000000.0 0.5110331102478867 -0.9545010816997478
5059000000.0 0.5242610740252234 -0.8878981570111578
5062000000.0 0.4569307929952847 -0.961034136882598
5066000000.0 0.4678223615815146 -0.8967811416664488
5069000000.0 0.4707741835106612 -0.9509769117901989
5072000000.0 0.4664202613843653 -0.9030196601337439
5075000000.0 0.5020119227911184 -0.8993761008784061
5078000000.0 0.45648345599895934 -0.9761340088878467
5081000000.0 0.44018106016875713 -0.9342715675288465
5084000000.0 0.4618887030634863 -0.9477309056437206
5088000000.0 0.5132907891144273 -0.9015929256625252
5091000000.0 0.452053595283097 -0.982799200924275
5094000000.0 0.443690515130783 -0.9538944819415378
5097000000.0 0.48860219449065206 -0.9656520325224722
5100000000.0 0.4430064485860157 -0.9375638466288918
5103000000.0 0.4253877759109703 -0.9263357236633964
5106000000.0 0.47657918273505906 -0.9125464204290903
5109000000.0 0.45979882262285027 -0.9191444422969401
5112000000.0 0.42671308790487966 -0.9279230907322058
5116000000.0 0.42793484287006667 -0.9238102751501363
5119000000.0 0.47434329340979403 -0.9219754752893458
5122000000.0 0.46405079786756204 -0.9128573502495747
5125000000.0 0.45176617567302857 -0.898525332645792
5128000000.0 0.43636637299421466 -0.9328084548924733
5131000000.0 0.4756907516549223 -0.9233192623339509
5134000000.0 0.45321631881677593 -0.9152148635126216
5138000000.0 0.47921639843158853 -0.9077404127896151
5141000000.0 0.5293382721972693 -0.8919004474283327
5144000000.0 0.4792053120108947 -0.9221575686670476
5147000000.0 0.4507412287321954 -0.9018505368909828
5150000000.0 0.5026882746132375 -0.9339170323062698
5153000000.0 0.4635775472551481 -0.9284339767269392
5156000000.0 0.4592006774282322 -0.9000009184038336
5159000000.0 0.49164685977493544 -0.936931718754709
5162000000.0 0.4590374350937019 -0.9130502471376107
5166000000.0 0.46570042558362534 -0.9350983954453405
5169000000.0 0.5050739176495503 -0.9292739202465388
5172000000.0 0.4563730234785278 -0.9078265299661732
