! Created with skrf 1.8.0 (http://scikit-rf.org).
# Hz S RI R 50.0 
!freq ReS11 ImS11
4000000000.0 0.4935312315082746 -0.8782512497981687
4003000000.0 0.5451654124423008 -0.9153657594193463
4006000000.0 0.46592014481369354 -0.9322371709290708
4009000000.0000005 0.4857155919036172 -0.8652536448356858
4011999999.9999995 0.5676074789583083 -0.9144046767784113
4016000000.0 0.506293021416839 -0.9707301545272298
4019000000.0 0.5102985332282918 -0.9129415257256139
4022000000.0000005 0.5286844129319686 -0.8733353611461993
4025000000.0000005 0.4471011302771749 -0.9480338138971607
4027999999.9999995 0.5078018949321921 -0.9007578229130626
4030999999.9999995 0.48540552113731483 -0.8473922673343774
4034000000.0 0.48829616017736555 -0.9164688223956382
4038000000.0000005 0.466276195703762 -0.8723094419105402
4041000000.0000005 0.4737201861835967 -0.9154504162180087
4043999999.9999995 0.5611140357447427 -0.9611473398714969
4046999999.9999995 0.5723596095953258 -0.8965452548886379
4050000000.0 0.4818409216742447 -0.9359281457127461
4053000000.0 0.47663333359221116 -0.9075572810992611
4056000000.0 0.5175446962540493 -0.9168252432623601
4059000000.0 0.5270842358255702 -0.8998203793017692
4062000000.0000005 0.502392555037525 -0.9402199312214076
4066000000.0 0.4805992345720673 -0.8578870750291014
4069000000.0 0.4939158614380851 -0.9556185169505875
4072000000.0 0.5397728681294064 -0.8927650438138419
4075000000.0 0.5438332792545763 -0.9158136563218778
4078000000.0000005 0.45611725682013327 -0.8973654726769165
4081000000.0000005 0.5542956143528913 -0.9287198649552934
4083999999.9999995 0.482937999447847 -0.9037599986477158
4088000000.0 0.5354765534188592 -0.8689485662803659
4091000000.0 0.5522780030303284 -0.958343270663215
4094000000.0000005 0.49996200917656664 -0.8677097757381417
4097000000.0000005 0.5240995070936166 -0.9180132800715469
4099999999.9999995 0.5018956074359849 -0.910995530705067
4102999999.9999995 0.5780772203937258 -0.9461154295782056
4106000000.0 0.4780688919662502 -0.931153918614659
4109000000.0 0.48951397652959944 -0.8968699289898563
4112000000.0 0.5023492372081703 -0.8980720404179365
4115999999.9999995 0.5156234323627924 -0.8992028907465786
4119000000.0 0.47868403705967466 -0.9093767480875139
4122000000.0 0.47098978765994076 -0.9160798554283834
4125000000.0 0.5109830220633526 -0.9200544761184414
4128000000.0 0.5245716488400485 -0.8513038506270769
4131000000.0 0.48687767150641803 -0.861922826918934
4134000000.0000005 0.5119226640307575 -0.9391956302211872
4138000000.0 0.4635828879633807 -0.889284074787612
4141000000.0 0.48575329153037805 -0.8938693850167085
4144000000.0 0.5475709051835288 -0.932458433260261
4147000000.0000005 0.49716654718157904 -0.8689625977011557
4150000000.0000005 0.5178453623233759 -0.9264147939304167
4152999999.9999995 0.5135820604438769 -0.8973665919250855
4155999999.9999995 0.5284313423125419 -0.9037855414385385
4159000000.0 0.48596904339282343 -0.8652065943153047
4162000000.0 0.5035935357790027 -0.889981631825229
4166000000.0000005 0.4852870254300139 -0.9104903631412283
4168999999.9999995 0.4922435832349315 -0.8739727635533946
4171999999.9999995 0.5008973240108163 -0.9010893445328256
4175000000.0 0.48868458004809107 -0.8973415800578489
4178000000.0 0.5237746140001422 -0.9206601420792668
4181000000.0 0.49933220775506715 -0.9049752782339562
4184000000.0 0.49489162615912596 -0.8781561525927483
4187999999.9999995 0.4939733034276167 -0.8780937914826151
4191000000.0 0.5183142926521638 -0.8653952470309969
4194000000.0 0.49109693857740366 -0.8698374276641209
4197000000.0 0.5113766303035484 -0.9005238399717627
4200000000.0 0.5269648102176275 -0.9038477114267734
4203000000.0000005 0.5167598735419312 -0.9223903264015056
4206000000.0000005 0.5043042282288782 -0.9014677205101987
4208999999.9999995 0.4907632372636337 -0.8818559892896319
4211999999.9999995 0.47072564004518525 -0.9054559960742004
4216000000.0 0.5137407420366655 -0.8992066662278697
4219000000.0000005 0.5009642088935945 -0.8841887788271667
4222000000.0000005 0.4945282959955104 -0.9064123805268718
4224999999.9999995 0.5078149280754487 -0.8687817404317347
4227999999.9999995 0.514014534622065 -0.8971286227012296
4231000000.0 0.49187087983813593 -0.8863218831609724
4234000000.0 0.49623857635409135 -0.9230154357568123
4238000000.0000005 0.4814016164958653 -0.8973494525728337
4240999999.9999995 0.4914126587707618 -0.8820838882947305
4244000000.0 0.4950367637252012 -0.9034593507484489
4247000000.0 0.49673699190896076 -0.8905188816879844
4250000000.0 0.487208632487633 -0.8835886377116824
4253000000.0 0.4779024100658268 -0.8777170620156637
4256000000.0 0.4950005692653152 -0.8948030517886746
4259000000.0000005 0.4741192025170706 -0.864874449363923
4261999999.9999995 0.4675301671001596 -0.9113022221307475
4266000000.0 0.4895064231082636 -0.9166196400598989
4269000000.0 0.501725595625884 -0.8851718872942389
4272000000.0000005 0.4871693844693487 -0.8990094939758526
4275000000.0000005 0.5039807073384026 -0.8900146005466989
4277999999.9999995 0.49512852686193665 -0.9004134612944419
4280999999.9999995 0.4951051109326337 -0.8924043671889033
4284000000.0 0.4398839078350473 -0.9325306802786052
4288000000.0000005 0.5249396282724548 -0.875194883038335
4291000000.0000005 0.5033674344669674 -0.8615512614092635
4293999999.9999995 0.48139616280500513 -0.8821073892930194
4297000000.0 0.510514498554159 -0.8609702947965255
4300000000.0 0.4847105185294047 -0.8626945950526659
4303000000.0 0.46134041504080414 -0.9043301216663405
4306000000.0 0.5056979224141095 -0.8687866338309039
4309000000.0 0.5142198043698175 -0.8917699806674708
4312000000.0 0.5400859605336186 -0.8728622298579002
4316000000.0 0.5292027538188855 -0.8783813769687181
4319000000.0 0.49211755486423825 -0.8880040265369447
4322000000.0 0.46488134687630606 -0.8823291529247543
4325000000.0 0.5078136207683546 -0.9031467723430929
4328000000.0 0.4770218689786055 -0.9010727305632852
4331000000.0 0.47938240828552897 -0.9259659927393648
4334000000.0 0.4821395236582639 -0.9083582390018462
4338000000.0 0.5183423886377103 -0.8714715663063429
4341000000.0 0.5125527313248602 -0.9020688658603627
4344000000.0 0.49863377777324497 -0.8791202278354808
4347000000.0 0.4685130161376826 -0.893587395594398
4350000000.0 0.45728169848022815 -0.8700945993962322
4353000000.0 0.5034304666369344 -0.8759545742212641
4356000000.0 0.4535806328776669 -0.8808940749133698
4359000000.0 0.4791331907825231 -0.8529816325334592
4362000000.0 0.440277593250623 -0.9389606560267796
4366000000.0 0.48525124286189203 -0.9247279121917338
4369000000.0 0.463798423422914 -0.869316553222346
4372000000.0 0.44677289710716306 -0.8945492090277258
4375000000.0 0.49075108162771397 -0.876099790034635
4378000000.0 0.49114384438512604 -0.889473486976948
4381000000.0 0.49150904082895386 -0.8807782042619652
4384000000.0 0.5044712967870499 -0.9401900926341725
4388000000.0 0.4789864824125626 -0.8746612750752685
4391000000.0 0.49773613336901085 -0.8935027132704202
4394000000.0 0.4701103628926162 -0.8819888182534222
4397000000.0 0.466862997049594 -0.8828016214605583
4400000000.0 0.4743645697715345 -0.9264015670486038
4403000000.0 0.4830434814725736 -0.8953879500200937
4406000000.0 0.45810993632273267 -0.9039758204271373
4409000000.0 0.47142101908705325 -0.9195536254832264
4412000000.0 0.41346644537950544 -0.9033956105847805
4416000000.0 0.4602001033721236 -0.8985470645741461
4419000000.0 0.4511335689011742 -0.90778124648493
4422000000.0 0.4853618826489102 -0.8790343278753878
4425000000.0 0.49433631124529387 -0.9018707468492775
4428000000.0 0.4667602160963839 -0.9063371616146726
4431000000.0 0.4856033313546658 -0.9063375938103589
4434000000.0 0.46518141391037005 -0.8910123794208467
4438000000.0 0.4667151291180722 -0.9165399827510982
4441000000.0 0.49224605773778 -0.9084888061190355
4444000000.0 0.4586283746254982 -0.8894109162145665
4447000000.0 0.44816019352924374 -0.8873154008888167
4450000000.0 0.46823001862487934 -0.883365792787981
4453000000.0 0.4748827390517064 -0.9079072421482803
4456000000.0 0.43695895036633303 -0.8983294266765413
4459000000.0 0.4230313834681792 -0.8683368932254573
4462000000.0 0.4731314912918518 -0.9418428384174258
4466000000.0 0.4760182881270293 -0.954113104072899
4469000000.0 0.4870632612517718 -0.8931075803501733
4472000000.0 0.4523590768493204 -0.9178811603690896
4475000000.0 0.45950422932558294 -0.8810093996384658
4478000000.0 0.46565328952094664 -0.943779713624044
4481000000.0 0.4324156010043593 -0.8890733935015527
4484000000.0 0.41620867363091124 -0.9148859092404669
4488000000.0 0.4424443466233612 -0.8937499930753867
4491000000.0 0.4597233089317644 -0.9259337949371468
4494000000.0 0.4566180724307349 -0.8941374218906546
4497000000.0 0.47265998511098195 -0.8880817401772221
4500000000.0 0.4609655636397012 -0.8984169430896707
4503000000.0 0.4522741513028603 -0.9282439850851409
4506000000.0 0.44213917552174864 -0.8934438196582725
4509000000.0 0.4408206313742986 -0.8905341565473216
4512000000.0 0.42448847913530396 -0.90278354893838
4516000000.0 0.47649291760971557 -0.9440737814602789
4519000000.0 0.45275914323519295 -0.8827461997181048
4522000000.0 0.44729429671109433 -0.9124676483410935
4525000000.0 0.46304931426523643 -0.8830131715147067
4528000000.0 0.4645154712292655 -0.9369777333107632
4531000000.0 0.4427702073681878 -0.8997686125935094
4534000000.0 0.4442676188730975 -0.9055982132375444
4538000000.0 0.4515429527920628 -0.9052570514015961
4541000000.0 0.4072893096732084 -0.9230789046678456
4544000000.0 0.4420343828188762 -0.8936397369776379
4547000000.0 0.4662384924104397 -0.8987481742123045
4550000000.0 0.4269764997104798 -0.9201553562859297
4553000000.0 0.4234306182000454 -0.9331858650819065
4556000000.0 0.42859564919827275 -0.887991848177426
4559000000.0 0.43313629421232425 -0.9153992788188133
4562000000.0 0.445519084612159 -0.9116262605670062
4566000000.0 0.4436980785875881 -0.9150935742798987
4569000000.0 0.4260000231799995 -0.9009426102157296
4572000000.0 0.4358285289123688 -0.8845620846911216
4575000000.0 0.41737273496930927 -0.9220446151386759
4578000000.0 0.4633135476983536 -0.9135262321249676
4581000000.0 0.4315244619235769 -0.9429603974437373
4584000000.0 0.42485593928675214 -0.897494934420979
4588000000.0 0.45579890457786865 -0.9211617199102051
4591000000.0 0.45132729574954145 -0.9028257016442623
4594000000.0 0.419200818866017 -0.9098753904838124
4597000000.0 0.4219689664742623 -0.9250956048129574
4600000000.0 0.40701560020242555 -0.9029140456523014
4603000000.0 0.4297130930472619 -0.9314877531438964
4606000000.0 0.4448038217761071 -0.9294730465099966
4609000000.0 0.4425293516171921 -0.9179926864803813
4612000000.0 0.43189344287619813 -0.9266488140846828
4616000000.0 0.42696780528398764 -0.9067529305891155
4619000000.0 0.4535889046297902 -0.9203919868325019
4622000000.0 0.43760049965573566 -0.9338333675259903
4625000000.0 0.3921894682994838 -0.9119453084457122
4628000000.0 0.43277216251489614 -0.914246156627034
4631000000.0 0.41231538859433425 -0.9190131118973665
4634000000.0 0.4158569131022048 -0.9129202635766798
4638000000.0 0.42577305014246203 -0.9345515196560437
4641000000.0 0.4364740451825323 -0.9103103166041253
4644000000.0 0.4401115955545941 -0.9190782292129577
4647000000.0 0.4361198289232401 -0.9190716508950296
4650000000.0 0.4048470459874318 -0.9274635297084958
4653000000.0 0.43064593914323 -0.9193013823924555
4656000000.0 0.41856097357981303 -0.9294391733333187
4659000000.0 0.40377507788395345 -0.9133742552872735
4662000000.0 0.4287206368804132 -0.9164849621951954
4666000000.0 0.4185246714224183 -0.9330245724968724
4669000000.0 0.4379037664915432 -0.9272512575733679
4672000000.0 0.42509418863288434 -0.9367105752114386
4675000000.0 0.3998130778255928 -0.9238080143784071
4678000000.0 0.4004111752408378 -0.9073149302948154
4681000000.0 0.4013732874211796 -0.9572448743002321
4684000000.0 0.38890687125139844 -0.9402289424740937
4688000000.0 0.38881346726928223 -0.9330299241938622
4691000000.0 0.4170106566073353 -0.9587078733695752
4694000000.0 0.4068074858670682 -0.9111355429333946
4697000000.0 0.371270140787265 -0.9373571949771867
4700000000.0 0.41810763833104336 -0.9341412074835358
4703000000.0 0.4265302727982604 -0.8988438305352163
4706000000.0 0.3849116495054847 -0.940528658543108
4709000000.0 0.40562762099860805 -0.9227596341875915
4712000000.0 0.41475803870622574 -0.9480518769185504
4716000000.0 0.4069731411575261 -0.9250743117244896
4719000000.0 0.4316526536336922 -0.9226473126192883
4722000000.0 0.4274022285346479 -0.9313075530946185
4725000000.0 0.4142034547293543 -0.923391692467321
4728000000.0 0.40006221783909374 -0.9318485613895501
4731000000.0 0.42590438242561135 -0.9473732381112919
4734000000.0 0.4569995646553636 -0.8941997555614526
4738000000.0 0.4408358131605769 -0.97624597376955
4741000000.0 0.41884949649819375 -0.9513170252344987
4744000000.0 0.4136466661588589 -0.9779474756649107
4747000000.0 0.432398868758404 -0.8979418900966032
4750000000.0 0.4160710662438867 -0.9472217756652253
4753000000.0 0.3943496878541329 -0.9400563657567442
4756000000.0 0.40945521720664446 -0.9399101803370329
4759000000.0 0.41700831474725947 -0.9718540484508061
4762000000.0 0.36952954085747935 -0.9876494026153816
4766000000.0 0.37548355504659603 -0.9501128377565011
4769000000.0 0.4189368164542696 -0.9298933223987039
4772000000.0 0.4292187198020913 -0.9376014334368615
4775000000.0 0.40850557592118836 -0.9977401533528407
4778000000.0 0.4086593785039827 -0.99319533249303
4781000000.0 0.41843359014472337 -0.9426715334809218
4784000000.0 0.4202725129596654 -0.9196209658455875
4788000000.0 0.40704758373470934 -0.9523973050136558
4791000000.0 0.3854396937951191 -0.923870623172483
4794000000.0 0.4358984036108471 -0.9549543133726526
4797000000.0 0.38261561579024583 -0.9361993561484349
4800000000.0 0.3904305911668825 -0.9158168505587119
4803000000.0 0.3590005246453508 -0.937816610675574
4806000000.0 0.3753250661081786 -0.9515894833093312
4809000000.0 0.34630337864916627 -0.9611507430678505
4812000000.0 0.3602663386098832 -0.9335099140976159
4816000000.0 0.4375907758955597 -0.9155265328806808
4819000000.0 0.44077575114126977 -0.959952274640048
4822000000.0 0.4334747217917221 -0.9897534994680375
4825000000.0 0.4479980941131191 -0.9482956955669203
4828000000.0 0.3923004611578757 -0.9418142461105555
4831000000.0 0.3817871253936036 -0.9886338429520591
4834000000.0 0.41647803357954927 -0.9636370331682773
4838000000.0 0.37895304947879827 -0.991829930722534
4841000000.0 0.3888939523164205 -0.9477769245022394
4844000000.0 0.4266142789597566 -0.9349077617857328
4847000000.0 0.4194245390426482 -0.904135991759711
4850000000.0 0.4067178911225098 -0.9642616943585806
4853000000.0 0.3898180870597823 -0.9199840795789135
4856000000.0 0.3877560160285414 -0.9227525055924615
4859000000.0 0.4084734479490133 -0.9802868213990427
4862000000.0 0.41564297296833713 -0.9214559964733534
4866000000.0 0.3884103363739306 -0.9716797671315438
4869000000.0 0.39849368486897424 -0.959191575375633
4872000000.0 0.3838540805809135 -0.9948871296372109
4875000000.0 0.4625703712122165 -0.983420777608717
4878000000.0 0.40848263761018355 -0.9573532989800276
4881000000.0 0.40295959892973593 -1.0100513147601036
4884000000.0 0.40324637008233694 -0.9483695353103831
4888000000.0 0.4499095877586239 -0.9162290270847372
4891000000.0 0.4339468330434564 -0.944491805109997
4894000000.0 0.40997987988469375 -0.972452627852508
4897000000.0 0.4138173559549303 -0.9425721869182407
4900000000.0 0.4047950180188802 -0.9668976969187242
4903000000.0 0.4193735774569155 -0.9575432071876815
4906000000.0 0.37658846119540806 -0.9868831658375556
4909000000.0 0.40312388728841475 -0.9336510957942982
4912000000.0 0.37769239527588266 -0.9825010939742698
4916000000.0 0.43121132531730316 -0.9523742672808143
4919000000.0 0.4342096288824296 -0.952922183725438
4922000000.0 0.4149246480114052 -0.9400017482509514
4925000000.0 0.3581696291269197 -0.9482742790973431
4928000000.0 0.45334720044904564 -0.9416469487536956
4931000000.0 0.443634319431507 -0.9617698848567087
4934000000.0 0.41295328759823396 -0.9183632583375795
4938000000.0 0.3683836484102254 -0.9329906856744221
4941000000.0 0.403325858434335 -0.9645770016721954
4944000000.0 0.4121342826761686 -0.8876046284357046
4947000000.0 0.3945064498680992 -0.9087663565990693
4950000000.0 0.3961629954469871 -0.9453055030190507
4953000000.0 0.3994732970537302 -1.0107008013292584
4956000000.0 0.3826452075826299 -0.960672055442388
4959000000.0 0.37014720832173176 -0.9596052385160327
4962000000.0 0.4145235898099743 -0.9946439100473099
4966000000.0 0.413784217682855 -0.9604969847958322
4969000000.0 0.4566997906823721 -0.9933049555184289
4972000000.0 0.3874873016712248 -0.9698021433272526
4975000000.0 0.4465564123338375 -0.933204583416948
4978000000.0 0.3958054405683654 -0.9504230424387836
4981000000.0 0.3710404202554118 -0.9695909308420221
4984000000.0 0.3999572128159664 -0.923921369933167
4988000000.0 0.41466255922774 -0.937173606974343
4991000000.0 0.4750032545242461 -0.9564873606871984
4994000000.0 0.3897377505740985 -0.9419128648644823
4997000000.0 0.39428421212787906 -0.9536794420750299
5000000000.0 0.43138954922099315 -0.9768407763941614
5003000000.0 0.4574391353816555 -0.9881761781576652
5006000000.0 0.43884438332972964 -1.0076123576666056
5009000000.0 0.41343013868385275 -0.9529491608119037
5012000000.0 0.3898543846552753 -0.9749037216865164
5016000000.0 0.4388408335687469 -0.97089851964544
5019000000.0 0.40219075909195584 -0.9624421564560673
5022000000.0 0.4404279979075095 -0.971834459433441
5025000000.0 0.41843789387804164 -1.040074584479681
5028000000.0 0.40950971050529666 -0.9776750184774774
5031000000.0 0.37380927620724075 -0.9368313485499905
5034000000.0 0.3852451866448232 -1.0024962633271168
5038000000.0 0.37906449416578947 -0.9288113906533282
5041000000.0 0.4511866784884181 -0.9503746772662736
5044000000.0 0.4537632450075666 -0.8995818819759188
5047000000.0 0.4210290933450746 -0.9701241045108853
5050000000.0 0.4611133070065887 -0.9479495490453036
5053000000.0 0.40522371541483354 -0.9668086402779222
5056000000.0 0.4453543576766418 -0.9521817741638157
5059000000.0 0.45791531652184614 -0.9327631231894618
5062000000.0 0.39063897007781856 -1.0431922666232043
5066000000.0 0.43484503442532235 -0.9399043031855243
5069000000.0 0.4371755672545604 -0.9858468691721411
5072000000.0 0.4052967375685117 -0.9428845698338826
5075000000.0 0.4185825758747916 -0.9692931537228142
5078000000.0 0.3792355226044504 -0.9704751287237047
5081000000.0 0.3819106679494482 -0.9283588422139022
5084000000.0 0.43759262853680564 -0.9756689711919695
5088000000.0 0.41271402148899083 -0.9447964218381129
5091000000.0 0.36814796852876647 -0.9709697839227136
5094000000.0 0.440294560056192 -0.9690345426430546
5097000000.0 0.45696399111622976 -0.9072345761408143
5100000000.0 0.4133057691942258 -0.9230284333996381
5103000000.0 0.4160979749410954 -0.9761768047369284
5106000000.0 0.41944323805291395 -0.9465208418346474
5109000000.0 0.48350062302749575 -0.9481870340329606
5112000000.0 0.4338811815908067 -0.9564054384636131
5116000000.0 0.41288038974705515 -0.9004599498290162
5119000000.0 0.4031482512848926 -0.9847306339088242
5122000000.0 0.43951922929818865 -0.9511631706786805
5125000000.0 0.447285123979754 -0.9275127409313255
5128000000.0 0.4045484436925743 -0.940436459248991
5131000000.0 0.45529750560067533 -0.9488149390583976
5134000000.0 0.4219922597616604 -0.941728592366186
5138000000.0 0.4965651504247211 -0.9537863692479974
5141000000.0 0.48048628967468976 -0.9531565898101861
5144000000.0 0.4755099435509423 -0.996348767155558
5147000000.0 0.4289050125581401 -0.9715876276470379
5150000000.0 0.4538525744826696 -0.9637219642686101
5153000000.0 0.4193653874954415 -0.9460983070823381
5156000000.0 0.4146097285112664 -0.9504546054224866
5159000000.0 0.42011834520327235 -0.9887544654598925
5162000000.0 0.4227092513122847 -0.9700670105308494
5166000000.0 0.43231576185938364 -0.9453069077670503
5169000000.0 0.4027730831776531 -0.9586992892861006
5172000000.0 0.4288942349320724 -0.9645176521606555
