! Created with skrf 1.8.0 (http://scikit-rf.org).
# Hz S RI R 50.0 
!freq ReS11 ImS11
4000000000.0 0.5354602580856743 -0.8155677414077936
4003000000.0 0.5461581715329593 -0.928004519947339
4006000000.0 0.46236393211034266 -0.8807799373125882
4009000000.0000005 0.49256774153180033 -0.8504335817649536
4011999999.9999995 0.6020409994833162 -0.8822107659460083
4016000000.0 0.5071000201243065 -0.9005104174180109
4019000000.0 0.5163358705732267 -0.8909812939596427
4022000000.0000005 0.5935824563992584 -0.8573736935745351
4025000000.0000005 0.45185267417979424 -0.9245161703241752
4027999999.9999995 0.4992318115390302 -0.8744377855482748
4030999999.9999995 0.5024417695685051 -0.8487020193012991
4034000000.0 0.5070146887263196 -0.8646463316037133
4038000000.0000005 0.5057407237963597 -0.9005841595123711
4041000000.0000005 0.5261558779064898 -0.8695140386530924
4043999999.9999995 0.5767006101380663 -0.9322911742300339
4046999999.9999995 0.5529208572345766 -0.903503559634773
4050000000.0 0.4716723184679375 -0.9161705748483322
4053000000.0 0.5166185629510929 -0.8728833592468923
4056000000.0 0.5490274277171721 -0.8990288265964514
4059000000.0 0.5444900818283904 -0.8768013107666972
4062000000.0000005 0.5217518622732482 -0.8997476677599903
4066000000.0 0.486559037599537 -0.8306295030559319
4069000000.0 0.4960942266781371 -0.9117957195903905
4072000000.0 0.5094040700216369 -0.8577413798551237
4075000000.0 0.57898155596069 -0.8600670037715678
4078000000.0000005 0.5483253985506681 -0.874602369554648
4081000000.0000005 0.5891977271150116 -0.8949714948142355
4083999999.9999995 0.47832062862652136 -0.9271533659969855
4088000000.0 0.5471381567030341 -0.8594718637255312
4091000000.0 0.5255928478767534 -0.951671731356594
4094000000.0000005 0.5653535031191875 -0.8646523141709461
4097000000.0000005 0.5388414281317201 -0.8859815030064387
4099999999.9999995 0.5407068939149828 -0.8892621355309771
4102999999.9999995 0.5414788743849243 -0.916335908623259
4106000000.0 0.5385267512992707 -0.893625106989508
4109000000.0 0.5061188502333713 -0.907135681971255
4112000000.0 0.5352239282907987 -0.8999807517540935
4115999999.9999995 0.5630488021914395 -0.8907410367895433
4119000000.0 0.5137818902006751 -0.8669288352183129
4122000000.0 0.5140467927116186 -0.9216863010003213
4125000000.0 0.4975130273802926 -0.8815380909302022
4128000000.0 0.5105673966881922 -0.8329061795427796
4131000000.0 0.5161009392631746 -0.8790127123683039
4134000000.0000005 0.5188547676941462 -0.8720749163589178
4138000000.0 0.48423418472636753 -0.8551997751179164
4141000000.0 0.5257556825749828 -0.8576704314491423
4144000000.0 0.5238750296747485 -0.8899198766310137
4147000000.0000005 0.5278874477055484 -0.8842812307093763
4150000000.0000005 0.5594296060030366 -0.9044632208330826
4152999999.9999995 0.5470987330076083 -0.8586764309425645
4155999999.9999995 0.5505296730075706 -0.8902449203075379
4159000000.0 0.525366415655126 -0.8419288020496138
4162000000.0 0.5447030068751824 -0.8521370420596063
4166000000.0000005 0.5423026013148988 -0.8663384071328751
4168999999.9999995 0.5283073976235281 -0.8863845025209904
4171999999.9999995 0.5673177186688084 -0.844487103956327
4175000000.0 0.5292594551158537 -0.8559970494623889
4178000000.0 0.5227472480068376 -0.8846027236977828
4181000000.0 0.5091724013536819 -0.8592674592443246
4184000000.0 0.5486284187947964 -0.879277828510859
4187999999.9999995 0.5293043958234758 -0.8643847461107583
4191000000.0 0.5429074388795456 -0.8482350842552845
4194000000.0 0.4868215112693228 -0.8537425346281904
4197000000.0 0.5230157642322644 -0.8891106901033525
4200000000.0 0.5367554833663957 -0.861589916857011
4203000000.0000005 0.548956917290468 -0.8723897642843852
4206000000.0000005 0.5374366549221871 -0.8796548535140539
4208999999.9999995 0.5392594364810417 -0.8670696454168345
4211999999.9999995 0.5026563601276652 -0.8743987055112615
4216000000.0 0.5515597631842559 -0.867180647888387
4219000000.0000005 0.5346356823244937 -0.8793698216465069
4222000000.0000005 0.5389849002928684 -0.8875406707563167
4224999999.9999995 0.5250348662970684 -0.8590310687089956
4227999999.9999995 0.553751028229333 -0.8678926177373045
4231000000.0 0.5214665767907161 -0.8879071739748474
4234000000.0 0.5353274089840433 -0.8710294478629217
4238000000.0000005 0.5119340648942073 -0.8886841929361821
4240999999.9999995 0.5113782278261189 -0.8682307842800827
4244000000.0 0.5331091152769435 -0.8567959243608634
4247000000.0 0.5295642555699624 -0.8672875924566436
4250000000.0 0.5116960099759416 -0.8655410536536974
4253000000.0 0.5113667263743823 -0.8469947412912584
4256000000.0 0.5245619894652187 -0.8850283561748143
4259000000.0000005 0.4888926998836469 -0.8383324446346165
4261999999.9999995 0.48977085711739043 -0.8899442679819025
4266000000.0 0.5158179199978908 -0.8774606990112898
4269000000.0 0.5290135761179198 -0.8785510519257742
4272000000.0000005 0.5155561266217076 -0.8627596438768291
4275000000.0000005 0.5261595862436816 -0.8754077659233209
4277999999.9999995 0.5389954452706391 -0.893688733484411
4280999999.9999995 0.5337762763665042 -0.8745877816257888
4284000000.0 0.4919530205777295 -0.8966282883528224
4288000000.0000005 0.546321445141653 -0.8389980554555229
4291000000.0000005 0.49583004135322367 -0.8588468950847312
4293999999.9999995 0.4952174271815767 -0.8672746789784008
4297000000.0 0.5213850992712612 -0.835217046054632
4300000000.0 0.5308630680056271 -0.8503574780842573
4303000000.0 0.49476005162517267 -0.8673603651263455
4306000000.0 0.555762277881797 -0.8643586460772859
4309000000.0 0.4844078699102588 -0.8646355083227699
4312000000.0 0.5498484806835714 -0.8607286854437571
4316000000.0 0.5541168835001459 -0.8798337738124369
4319000000.0 0.5256413867173915 -0.8654541547658664
4322000000.0 0.504593059596071 -0.8861901329150456
4325000000.0 0.508333968920378 -0.848770212409623
4328000000.0 0.5351595963048696 -0.8695550299670066
4331000000.0 0.5018768693586603 -0.8767169838255802
4334000000.0 0.5134778977803811 -0.85348714666036
4338000000.0 0.550830983675719 -0.8463559449921888
4341000000.0 0.5539634871384385 -0.8616622280147854
4344000000.0 0.5186430402547314 -0.8877598706292062
4347000000.0 0.5105995644022524 -0.8834855796834424
4350000000.0 0.48616011816336613 -0.8410348781563717
4353000000.0 0.5275442996912829 -0.8266732419059717
4356000000.0 0.5088506597915767 -0.8611904483484957
4359000000.0 0.4922839414195299 -0.8446431648242801
4362000000.0 0.47725057951606 -0.9137605574625387
4366000000.0 0.5366191505810397 -0.8937571859773676
4369000000.0 0.491923497999326 -0.8567110288680405
4372000000.0 0.46161903440161567 -0.8824084095224844
4375000000.0 0.5189070600348392 -0.8620613508558498
4378000000.0 0.5130695983427012 -0.8437813982477871
4381000000.0 0.5215507897377224 -0.8488952522238664
4384000000.0 0.5247025112221017 -0.9324927206869088
4388000000.0 0.5169480934012712 -0.8641121038202577
4391000000.0 0.5283917937329902 -0.8597368321895059
4394000000.0 0.4983114896742427 -0.8421154571743522
4397000000.0 0.5046614098171021 -0.8872152652449943
4400000000.0 0.5139202351505769 -0.8751264585465364
4403000000.0 0.5143169224806479 -0.8832882401766965
4406000000.0 0.49544614243963775 -0.8787375158660948
4409000000.0 0.5239219757563649 -0.8913513185793585
4412000000.0 0.4592391682024384 -0.8833114379986232
4416000000.0 0.4839297873936125 -0.8652254505456449
4419000000.0 0.48476560110515016 -0.8785680985008347
4422000000.0 0.5253260898869871 -0.8644056546200636
4425000000.0 0.5265874104576922 -0.8626941133679248
4428000000.0 0.5153766318652853 -0.8934772997690466
4431000000.0 0.5359691295168327 -0.8872611232113654
4434000000.0 0.48757893238630456 -0.8580921199040037
4438000000.0 0.5202588243298346 -0.8944559435917345
4441000000.0 0.5251833221271922 -0.8844810449551648
4444000000.0 0.4978196003394386 -0.8577538743456896
4447000000.0 0.4782305674699324 -0.8661519664748668
4450000000.0 0.5084438583201305 -0.850989813783362
4453000000.0 0.5010088150068128 -0.9016573832964453
4456000000.0 0.4740673223921278 -0.8764516593561416
4459000000.0 0.4696086915084244 -0.8383380026894645
4462000000.0 0.5303692456878885 -0.9287623439378183
4466000000.0 0.5124802741975999 -0.9043417239529855
4469000000.0 0.5152256727961416 -0.8658187826538255
4472000000.0 0.49226252683969235 -0.904194546011056
4475000000.0 0.48167014066093405 -0.8541940019304954
4478000000.0 0.5226095332909235 -0.9236130007840893
4481000000.0 0.4766653076508407 -0.868318418060082
4484000000.0 0.445517287955863 -0.8910509221281987
4488000000.0 0.4911293554521623 -0.8727966257698272
4491000000.0 0.49565105046874963 -0.8844607506154583
4494000000.0 0.5007754595886462 -0.8662690123877561
4497000000.0 0.5081124153223209 -0.8646196607526502
4500000000.0 0.5058208161791735 -0.8804054124689418
4503000000.0 0.4987767648528256 -0.8942667236135124
4506000000.0 0.5011454026072688 -0.8859991950500977
4509000000.0 0.46929853052755494 -0.849933334568688
4512000000.0 0.45619091683554924 -0.8718104991191458
4516000000.0 0.5069787051534002 -0.8877554184478504
4519000000.0 0.4926372064865525 -0.8647871768416565
4522000000.0 0.48291521165766554 -0.8764970867354445
4525000000.0 0.5175109038626651 -0.8488092133907452
4528000000.0 0.47437404892116297 -0.9016336258717683
4531000000.0 0.49407847083134304 -0.8759968690353785
4534000000.0 0.47843808906064156 -0.8501753994705318
4538000000.0 0.4842649702162812 -0.877053957130453
4541000000.0 0.4746744932871058 -0.8747049644663387
4544000000.0 0.48876968675508586 -0.8704692444398973
4547000000.0 0.5038457343710449 -0.855100339570291
4550000000.0 0.4704952443783646 -0.8957731377898528
4553000000.0 0.4777646558960554 -0.8846657297204122
4556000000.0 0.46076171928180853 -0.8646790698656321
4559000000.0 0.46884131436075877 -0.8791693101786349
4562000000.0 0.49150891274555286 -0.887357097190246
4566000000.0 0.48685790626090153 -0.8835629698009733
4569000000.0 0.4774254640760047 -0.8682355827158954
4572000000.0 0.47272568966329176 -0.8585278155983905
4575000000.0 0.4697452336083846 -0.9026674537543302
4578000000.0 0.514673225012352 -0.8920985354500319
4581000000.0 0.47144492770702895 -0.901807117656664
4584000000.0 0.4737754094351496 -0.8909374838831357
4588000000.0 0.49200744486141634 -0.8877990561374272
4591000000.0 0.4784539392439074 -0.8708153669617212
4594000000.0 0.4419278179824161 -0.8871821625751116
4597000000.0 0.4848522523178369 -0.9032464735038596
4600000000.0 0.43649118811165616 -0.8828409922467044
4603000000.0 0.46564406355506627 -0.888613144119533
4606000000.0 0.4800637111068846 -0.8916547356882651
4609000000.0 0.47358068582435575 -0.8758188304113801
4612000000.0 0.4936083346888096 -0.8976185828133694
4616000000.0 0.4689736473085634 -0.8735639487030868
4619000000.0 0.4696019230069056 -0.8820730289358406
4622000000.0 0.4544040487587262 -0.8840944478636692
4625000000.0 0.4378111390671199 -0.8883227840657375
4628000000.0 0.4749820060479809 -0.8822634253880304
4631000000.0 0.4659604032342524 -0.885271010457884
4634000000.0 0.4639981741411502 -0.9099136411783006
4638000000.0 0.472899429494908 -0.8939507554169498
4641000000.0 0.4715555060345519 -0.8863093166878352
4644000000.0 0.467365202711861 -0.8885455633335392
4647000000.0 0.47170930497380453 -0.8980133302037168
4650000000.0 0.45607912623470465 -0.8985686905453789
4653000000.0 0.4941340603735423 -0.9104523676202418
4656000000.0 0.4674378696853081 -0.8829471006899582
4659000000.0 0.4506757083047215 -0.8954855956653659
4662000000.0 0.483161381560211 -0.9077337327380604
4666000000.0 0.4596077006990134 -0.9081759920527201
4669000000.0 0.4676885678071039 -0.9029242246201811
4672000000.0 0.46188839121492 -0.9246295191227504
4675000000.0 0.44213820891130307 -0.9305071306822882
4678000000.0 0.4746514373555163 -0.8752237725771841
4681000000.0 0.4456947161526218 -0.9189875536179626
4684000000.0 0.4453755293807335 -0.9168995380227255
4688000000.0 0.4272680995710857 -0.8826041572317108
4691000000.0 0.4840829552411158 -0.8991969647226545
4694000000.0 0.46598804885404377 -0.8862922955729533
4697000000.0 0.4298163621572728 -0.8684229589772946
4700000000.0 0.4759341797397661 -0.8945701884096503
4703000000.0 0.4816512405980676 -0.8605905733767576
4706000000.0 0.45353177411604445 -0.8987199091939788
4709000000.0 0.4427039885071897 -0.8944773308943648
4712000000.0 0.4858053980025301 -0.8879362609273026
4716000000.0 0.4889881438563719 -0.9338848819769963
4719000000.0 0.47672782074595293 -0.9065777094780212
4722000000.0 0.5031481213109463 -0.8846583531392124
4725000000.0 0.46404998314995316 -0.9090090819727924
4728000000.0 0.44664591659318753 -0.8697625568214449
4731000000.0 0.47367186071083867 -0.9282364672396402
4734000000.0 0.5005938743676276 -0.9133019722581743
4738000000.0 0.5015217050546673 -0.9367460923777354
4741000000.0 0.4569672717776116 -0.917161285889737
4744000000.0 0.46687360129123956 -0.9009519493405371
4747000000.0 0.4840401141260988 -0.8482637650486721
4750000000.0 0.43993053211482 -0.9123103569867759
4753000000.0 0.4564562592376444 -0.9048753779850557
4756000000.0 0.4567803156874418 -0.9050426723214045
4759000000.0 0.4645818135272534 -0.9003839401780392
4762000000.0 0.45292951573816576 -0.9354096790863382
4766000000.0 0.46423744430907976 -0.9056768700433312
4769000000.0 0.4851680606243003 -0.922295319400512
4772000000.0 0.4829465647370207 -0.911776413974735
4775000000.0 0.4736113066827141 -0.9538290789499541
4778000000.0 0.4610078107776794 -0.9158117815045724
4781000000.0 0.45434082105580453 -0.9042084677674491
4784000000.0 0.47460794357331904 -0.8635877786894492
4788000000.0 0.45348326842916553 -0.9250301975236244
4791000000.0 0.46448431270422513 -0.9181208885716078
4794000000.0 0.4989015502479316 -0.9024027621717051
4797000000.0 0.4238424046521015 -0.8955657639316321
4800000000.0 0.43933423684976425 -0.9204740680594371
4803000000.0 0.418255558430085 -0.9061197819128213
4806000000.0 0.4546869623016011 -0.9132870425208737
4809000000.0 0.4258508971631878 -0.9171634819594867
4812000000.0 0.42057240947510677 -0.9105494856298989
4816000000.0 0.4713597169825293 -0.8795250989597371
4819000000.0 0.49995131354031175 -0.9161907860145828
4822000000.0 0.4869350911770699 -0.9390202684565573
4825000000.0 0.4772583432328207 -0.9262092828282754
4828000000.0 0.4352944947162042 -0.8974963776309174
4831000000.0 0.4252963274802113 -0.9555068673867447
4834000000.0 0.47255708271134456 -0.9214880049559955
4838000000.0 0.43849326558273705 -0.958344835611597
4841000000.0 0.4470169973684604 -0.8985879244815453
4844000000.0 0.4974758414159152 -0.9156353737856443
4847000000.0 0.4722504026803598 -0.903019968384553
4850000000.0 0.4490021959090681 -0.9349778251688814
4853000000.0 0.4477393446493734 -0.8902422687862981
4856000000.0 0.46682194736534344 -0.884963707073314
4859000000.0 0.4723652216967114 -0.9463409614737287
4862000000.0 0.4588476568335604 -0.8834490757587169
4866000000.0 0.430939964350058 -0.9250901961884055
4869000000.0 0.435505874899682 -0.9445833147700232
4872000000.0 0.4460548812821037 -0.9369360771959332
4875000000.0 0.5132115875875013 -0.9426676262936674
4878000000.0 0.4754376770330591 -0.9409918246020059
4881000000.0 0.44919308711750877 -0.9903749951083373
4884000000.0 0.46228844775701006 -0.9218366188411367
4888000000.0 0.4808209305215434 -0.9087315690480635
4891000000.0 0.5005342887075435 -0.8992420474683183
4894000000.0 0.4266726121578942 -0.9170079097611903
4897000000.0 0.49252159856101296 -0.8938457398366462
4900000000.0 0.4732737326205673 -0.960255222185686
4903000000.0 0.5046349455141865 -0.9307457465425367
4906000000.0 0.44465278319649415 -0.9245104163811919
4909000000.0 0.44153738969887846 -0.9393483633524936
4912000000.0 0.4730323287192201 -0.9585352918532639
4916000000.0 0.4775000313618966 -0.9343737474936558
4919000000.0 0.5179078178467774 -0.926410714766101
4922000000.0 0.4637772047812705 -0.9105898161649809
4925000000.0 0.4266912383073735 -0.9551660876642594
4928000000.0 0.5244263387256206 -0.8755773122987215
4931000000.0 0.48244981411976995 -0.9561796546096921
4934000000.0 0.4452528199323486 -0.8678586251336329
4938000000.0 0.4071430122425522 -0.9399161632894805
4941000000.0 0.47366537018097565 -0.8657493574462952
4944000000.0 0.4538219251126916 -0.8693558433212818
4947000000.0 0.44916669247307384 -0.9111402418864115
4950000000.0 0.4692036550041876 -0.8967458236686273
4953000000.0 0.45396862911901426 -0.9548305544497547
4956000000.0 0.4635168318824857 -0.9441476372782351
4959000000.0 0.42772468898552585 -0.9231767914444657
4962000000.0 0.4720796877809389 -0.924378506528678
4966000000.0 0.4839290087935056 -0.9225708595594081
4969000000.0 0.4804851128380836 -0.9465831667014443
4972000000.0 0.4363075079060439 -0.9072342948768858
4975000000.0 0.45747826125512747 -0.8630375622514878
4978000000.0 0.4768575381035587 -0.9097269655615299
4981000000.0 0.4486605659474892 -0.9301486455972968
4984000000.0 0.4491398209852931 -0.8959542291837709
4988000000.0 0.507276771097588 -0.9113748403839838
4991000000.0 0.5437891451788646 -0.9237052966490891
4994000000.0 0.5051290472466635 -0.8941893848043039
4997000000.0 0.40721232695749077 -0.9121353256011833
5000000000.0 0.4989543574630262 -0.9358222321754155
5003000000.0 0.4994687320164196 -0.948289266885119
5006000000.0 0.4979125460997982 -0.9743376031905987
5009000000.0 0.43826928710120644 -0.9322599236211919
5012000000.0 0.43431709159710874 -0.924795190276315
5016000000.0 0.5178334689485036 -0.9235508287715408
5019000000.0 0.45308318940361436 -0.8999565796518814
5022000000.0 0.49348809734335497 -0.9104760378388167
5025000000.0 0.4961753914434003 -0.9943904794026299
5028000000.0 0.44186793652020834 -0.9335935713127061
5031000000.0 0.4655656088750039 -0.9389144460698148
5034000000.0 0.49736023089435577 -0.9747493191200116
5038000000.0 0.425395726941856 -0.8886833293615222
5041000000.0 0.5264202338769164 -0.8906255944019208
5044000000.0 0.4955653352340653 -0.8665300685249164
5047000000.0 0.4615820805422721 -0.8779647893870133
5050000000.0 0.5175498281436693 -0.8334997526009327
5053000000.0 0.4795120612517312 -0.9629682154062228
5056000000.0 0.5116317971853721 -0.8960107782770017
5059000000.0 0.5059988561635902 -0.9069285765686825
5062000000.0 0.4702577120733028 -0.9453424060288854
5066000000.0 0.5332297254706817 -0.8642516966031599
5069000000.0 0.5119119781578609 -0.8891378222403761
5072000000.0 0.47272168037929163 -0.8850873020032146
5075000000.0 0.49613619422033967 -0.8893807294027745
5078000000.0 0.4668421303379223 -0.9199608217427415
5081000000.0 0.4705021248962878 -0.8645499878989811
5084000000.0 0.5234045498248785 -0.9195073482935459
5088000000.0 0.4754791326501633 -0.9225499236118517
5091000000.0 0.49983152413718707 -0.9237640173736426
5094000000.0 0.49579230640351446 -0.8984874706109305
5097000000.0 0.5302765795246778 -0.8752029647253907
5100000000.0 0.4999701023123731 -0.9256049042207795
5103000000.0 0.452687476034598 -0.9655589775726188
5106000000.0 0.48381328958460035 -0.9526748698964557
5109000000.0 0.49364617708010106 -0.9365055554684801
5112000000.0 0.4885433430200405 -0.8969200122370424
5116000000.0 0.43920500013819525 -0.8650132862154553
5119000000.0 0.4885757440451385 -0.9300499401576554
5122000000.0 0.48407431937771106 -0.8484752139165463
5125000000.0 0.5437348312467668 -0.8747459052933978
5128000000.0 0.4772366850197183 -0.9390740718941658
5131000000.0 0.4408476721903558 -0.9208842020677601
5134000000.0 0.5311389244354869 -0.9431639541887958
5138000000.0 0.5199624817972246 -0.9033334241832838
5141000000.0 0.5507338443789802 -0.8817934323503928
5144000000.0 0.5026911494461979 -0.8912517882655506
5147000000.0 0.48837300732506167 -0.9534178598757512
5150000000.0 0.49345170140865957 -0.8946262009541079
5153000000.0 0.5007522832286975 -0.9373749460552693
5156000000.0 0.5208751746915254 -0.9031740866117597
5159000000.0 0.5181909814873992 -0.9339406719397394
5162000000.0 0.4832214856425163 -0.9183241121934445
5166000000.0 0.48121238102117353 -0.9251012016829265
5169000000.0 0.519725761486908 -0.9441214701403373
5172000000.0 0.47795322960171127 -0.9103435257899909
5175000000.0 0.5589638372573489 -0.9450753614226926
