! Created with skrf 1.8.0 (http://scikit-rf.org).
# Hz S RI R 50.0 
!freq ReS11 ImS11
4000000000.0 0.5591855523169625 -0.8410000279334159
4003000000.0 0.609501693099017 -0.880676233823673
4006000000.0 0.5169856914153358 -0.8638212817916591
4009000000.0000005 0.5422197298387498 -0.891798093629472
4011999999.9999995 0.6258316231872395 -0.8713690850779976
4016000000.0 0.5713211231085582 -0.9131181327547631
4019000000.0 0.5418346092430887 -0.8502410645578766
4022000000.0000005 0.6005504514073382 -0.8005992582816701
4025000000.0000005 0.5007816633254863 -0.9045789776173581
4027999999.9999995 0.5072066503321871 -0.8740876157557897
4030999999.9999995 0.49337092517286907 -0.8344985407227516
4034000000.0 0.5223104882336222 -0.8401949674708766
4038000000.0000005 0.5530415241067528 -0.8894173456115574
4041000000.0000005 0.5657237572817362 -0.8517541429172588
4043999999.9999995 0.5681878495640986 -0.8944842379050234
4046999999.9999995 0.6136390525280803 -0.8660625017411419
4050000000.0 0.5548150858245882 -0.8702073554786782
4053000000.0 0.4816334430179348 -0.8548218194887125
4056000000.0 0.5321085594117814 -0.9352866113485658
4059000000.0 0.5262410882671267 -0.8566361641229859
4062000000.0000005 0.48400565355737835 -0.864395539460195
4066000000.0 0.4981019373661295 -0.84597439269613
4069000000.0 0.5126227577076636 -0.9122634733206565
4072000000.0 0.5902039012627073 -0.868124088634251
4075000000.0 0.5802482356061713 -0.853379577855111
4078000000.0000005 0.5353988357897721 -0.8939032921089743
4081000000.0000005 0.6174521308357128 -0.8762666688535691
4083999999.9999995 0.5319381741296354 -0.8957085410639942
4088000000.0 0.5909170094019706 -0.8407441432260627
4091000000.0 0.5681745218703071 -0.8985507112911394
4094000000.0000005 0.592232661322289 -0.865617076591181
4097000000.0000005 0.5222451897302187 -0.8801144706827582
4099999999.9999995 0.5101500146467507 -0.839161955925335
4102999999.9999995 0.569066535044371 -0.8754374425444463
4106000000.0 0.5227697510493319 -0.8806489445282342
4109000000.0 0.5385639637997905 -0.8590061221327007
4112000000.0 0.527048666562845 -0.8749062645728434
4115999999.9999995 0.5613787271783813 -0.8503535851371661
4119000000.0 0.5275758764181573 -0.8917716443721723
4122000000.0 0.5156259243825446 -0.8808507617252093
4125000000.0 0.5280400269833645 -0.9109852947022475
4128000000.0 0.5658315634046559 -0.8487027833926616
4131000000.0 0.5336915146418657 -0.844170801739154
4134000000.0000005 0.5721900534962201 -0.8530305430937554
4138000000.0 0.5085102332935809 -0.8565958292719266
4141000000.0 0.5672973567897054 -0.8575984265796434
4144000000.0 0.5741346148211399 -0.8649827738567044
4147000000.0000005 0.5309845215925068 -0.8422915102362798
4150000000.0000005 0.5609252116314487 -0.8823318112783187
4152999999.9999995 0.5518801990824451 -0.8843917435277568
4155999999.9999995 0.5671100401406918 -0.8697720514518389
4159000000.0 0.5552406524287982 -0.8439982901511193
4162000000.0 0.557431804323518 -0.8473397984371747
4166000000.0000005 0.5680385965667697 -0.8818465006399437
4168999999.9999995 0.5181590217965859 -0.862757455460602
4171999999.9999995 0.5593950483560189 -0.8423256711363867
4175000000.0 0.5533738817054868 -0.8599133694933435
4178000000.0 0.5557988355639918 -0.878781856414042
4181000000.0 0.5219753401432288 -0.8688518724649403
4184000000.0 0.5619508977787313 -0.8635540750293715
4187999999.9999995 0.5483890981118172 -0.8701383793050242
4191000000.0 0.5599466582826544 -0.8288718508717587
4194000000.0 0.544185958686378 -0.8460734683184638
4197000000.0 0.5335044248743923 -0.8771284803118606
4200000000.0 0.5585261659163523 -0.8455430428359103
4203000000.0000005 0.5566350542557145 -0.837752684779521
4206000000.0000005 0.5571435855827997 -0.8648915435451588
4208999999.9999995 0.5563136547246512 -0.8364505308587801
4211999999.9999995 0.517497592129547 -0.8592541566735665
4216000000.0 0.5402860088749647 -0.8501410570530318
4219000000.0000005 0.5504161768508065 -0.8388229563158941
4222000000.0000005 0.5627803027863126 -0.8583629498401638
4224999999.9999995 0.5588446601219854 -0.8397420888716353
4227999999.9999995 0.5616241607134562 -0.8519967537205335
4231000000.0 0.5431658923270645 -0.8466376346035047
4234000000.0 0.5493551400820771 -0.8698647713811746
4238000000.0000005 0.536031048939017 -0.8712482959889534
4240999999.9999995 0.5306432802691274 -0.853360504042218
4244000000.0 0.5484985810379817 -0.835620464596985
4247000000.0 0.5718872620658684 -0.8533119612836964
4250000000.0 0.5381593627049387 -0.8453431155597516
4253000000.0 0.5367469342573339 -0.8325568584528259
4256000000.0 0.5577889834646574 -0.8693552236247405
4259000000.0000005 0.5264991299650577 -0.8311251049532489
4261999999.9999995 0.5259940528241593 -0.8774251189324802
4266000000.0 0.5355084484000837 -0.8782011356084602
4269000000.0 0.5592591756080358 -0.8435068171151456
4272000000.0000005 0.5508286428093574 -0.843237206821246
4275000000.0000005 0.5527394246007284 -0.8584105128521389
4277999999.9999995 0.5781676716731691 -0.8924706979470127
4280999999.9999995 0.5540690425178922 -0.8560119985002492
4284000000.0 0.5205773183252641 -0.8636243162245855
4288000000.0000005 0.5624002647371183 -0.8251324667797897
4291000000.0000005 0.5492172480308639 -0.8303531943547389
4293999999.9999995 0.510994542949891 -0.859491755754553
4297000000.0 0.5466403961704052 -0.8170182069909022
4300000000.0 0.5429100365706305 -0.8396970279419281
4303000000.0 0.5202844909034031 -0.8399371849426633
4306000000.0 0.5562465057987591 -0.8357588656554694
4309000000.0 0.5539158225795623 -0.8277788049197871
4312000000.0 0.5863161620951354 -0.845092728290972
4316000000.0 0.5723267006103456 -0.8697223464002098
4319000000.0 0.5581940464706943 -0.8209529645981035
4322000000.0 0.5033707759549495 -0.8758516340669495
4325000000.0 0.5504929612188794 -0.8442506028498297
4328000000.0 0.5426621673176785 -0.8423569859094261
4331000000.0 0.5150310955265337 -0.8447453466602021
4334000000.0 0.5451757127908062 -0.8391210031745707
4338000000.0 0.5685317508791213 -0.8494542111095037
4341000000.0 0.5978098513196073 -0.8489204628115714
4344000000.0 0.5702356048908331 -0.8721141821515639
4347000000.0 0.5540939416783511 -0.8694058573264816
4350000000.0 0.5264833769508399 -0.841268125905534
4353000000.0 0.553147884688404 -0.8490666711626841
4356000000.0 0.5330825333980966 -0.8635939572247456
4359000000.0 0.5158480885706078 -0.8136554900953785
4362000000.0 0.49811578126428835 -0.8868928735064042
4366000000.0 0.5485200611850124 -0.8652445361210479
4369000000.0 0.5219659377155753 -0.8281395828606385
4372000000.0 0.48181878869853184 -0.8648298051447091
4375000000.0 0.5381485883850701 -0.8341269675571045
4378000000.0 0.5286118111515423 -0.8196695362620164
4381000000.0 0.556808747072655 -0.8160131053958032
4384000000.0 0.5606508703461369 -0.8999453425927599
4388000000.0 0.5472900342736459 -0.832188812907104
4391000000.0 0.5484456549115366 -0.8609812449233708
4394000000.0 0.5219699648701024 -0.8339693089769329
4397000000.0 0.5334727351899032 -0.851889079085343
4400000000.0 0.5445197614601878 -0.8557038781063042
4403000000.0 0.537239792595005 -0.8658382232812203
4406000000.0 0.52009347743073 -0.866245523415902
4409000000.0 0.5472505193139813 -0.8912466257430482
4412000000.0 0.47521340041986626 -0.8803188215399216
4416000000.0 0.5128246610980254 -0.8538150033062718
4419000000.0 0.5242972205712586 -0.8636874656627851
4422000000.0 0.5517498434014853 -0.8427753306452458
4425000000.0 0.5635142666169807 -0.8502254606861366
4428000000.0 0.5276270375152734 -0.8695207999966669
4431000000.0 0.5429047968557169 -0.8720711457591159
4434000000.0 0.5101237998311688 -0.8520293265692612
4438000000.0 0.5509365819043363 -0.8783557618797302
4441000000.0 0.5516784504202662 -0.8539760910234715
4444000000.0 0.5154849598585991 -0.844532712071886
4447000000.0 0.5033742644951895 -0.8558351832289204
4450000000.0 0.534259884480644 -0.843258481625223
4453000000.0 0.5498949314111337 -0.8780979997462461
4456000000.0 0.499427943599264 -0.8321480570872009
4459000000.0 0.48634163154900184 -0.8311953252689543
4462000000.0 0.5577960952962949 -0.9091283152430096
4466000000.0 0.5354939307727905 -0.8929368780376665
4469000000.0 0.5357695051006818 -0.84475358383494
4472000000.0 0.5203617174217219 -0.8801637819746512
4475000000.0 0.5225757377124218 -0.8353791117684521
4478000000.0 0.5540561097232897 -0.9107079442240383
4481000000.0 0.4930101711311895 -0.8473256983276963
4484000000.0 0.48637328752119563 -0.8611447195826698
4488000000.0 0.489362601572753 -0.8515556633078825
4491000000.0 0.5407237362663722 -0.8697923121896423
4494000000.0 0.5161366581643342 -0.8448498348780012
4497000000.0 0.5318273133718099 -0.8233559238753551
4500000000.0 0.5367409688948643 -0.8478576387784487
4503000000.0 0.5494547274746907 -0.8746696286474038
4506000000.0 0.5119048237471981 -0.8569852979176107
4509000000.0 0.5175067251399874 -0.8513292807875944
4512000000.0 0.5153844389807318 -0.8613902051290401
4516000000.0 0.5386165034109921 -0.8907887622853088
4519000000.0 0.5279475845167341 -0.8373751227184938
4522000000.0 0.5082796620224304 -0.8784101925347116
4525000000.0 0.5309105275340603 -0.8342446818483813
4528000000.0 0.5273978914757499 -0.885022494200937
4531000000.0 0.5298282229192697 -0.8663059251772162
4534000000.0 0.49999648719980916 -0.8522649153895382
4538000000.0 0.5181337813483392 -0.8408558963248947
4541000000.0 0.4773891789769083 -0.8694583053437808
4544000000.0 0.522162228708858 -0.8381198295687662
4547000000.0 0.5351998145043966 -0.8342807094012616
4550000000.0 0.5194945400618749 -0.871140907483396
4553000000.0 0.5247428645402894 -0.8773859345958038
4556000000.0 0.4919946476786408 -0.8451136437540878
4559000000.0 0.4923292021515261 -0.8762284675420817
4562000000.0 0.50921431655885 -0.8820836705436574
4566000000.0 0.5338855388769009 -0.8760398548088524
4569000000.0 0.4955774803417488 -0.8420070804004547
4572000000.0 0.509021669191818 -0.8386758683624118
4575000000.0 0.5101723873326162 -0.8982433746495695
4578000000.0 0.5221211508102603 -0.8913017162557619
4581000000.0 0.5040229231564907 -0.8879072303257355
4584000000.0 0.5062705492680254 -0.8607268543814826
4588000000.0 0.518956910244943 -0.8799548725571251
4591000000.0 0.5304117279369802 -0.8672461303178377
4594000000.0 0.49765545224813346 -0.8644544701128822
4597000000.0 0.5174010935297277 -0.8940787316905388
4600000000.0 0.4828146446090892 -0.8797164289752748
4603000000.0 0.5115541153267757 -0.8976866905601845
4606000000.0 0.5190825137098677 -0.882518273881975
4609000000.0 0.5150357583469864 -0.8754478521174295
4612000000.0 0.5226999509379426 -0.8853881044805618
4616000000.0 0.5028530079932464 -0.8619500019097399
4619000000.0 0.5175068013955096 -0.8671217281723711
4622000000.0 0.4985579614314025 -0.8778800016151674
4625000000.0 0.484230312752839 -0.8527514617633511
4628000000.0 0.5189180884653669 -0.8751391437421271
4631000000.0 0.4912242694799683 -0.894377362278591
4634000000.0 0.4975795325553962 -0.8729729375143297
4638000000.0 0.514020395180844 -0.8723803473208446
4641000000.0 0.5156894270856435 -0.8728383391178007
4644000000.0 0.5057497829858992 -0.8629399975228489
4647000000.0 0.5129647664253605 -0.872730664636356
4650000000.0 0.48613249069346853 -0.8848530195531904
4653000000.0 0.5224116334544815 -0.8951959293554914
4656000000.0 0.4956699654906823 -0.8620522485485697
4659000000.0 0.49967713563131744 -0.8645182408995287
4662000000.0 0.5102155707389302 -0.8875652301121141
4666000000.0 0.4828719779330282 -0.8745826484256893
4669000000.0 0.4974677691890498 -0.8829818700256857
4672000000.0 0.4721661714367099 -0.8978642260220258
4675000000.0 0.4962319086229964 -0.8859741813204551
4678000000.0 0.48188403302772276 -0.8618289944396932
4681000000.0 0.4819469818908775 -0.8897192494214243
4684000000.0 0.4722306869620726 -0.8888885821881073
4688000000.0 0.4745449098632703 -0.8804282488214984
4691000000.0 0.5227979322812063 -0.8569614751848916
4694000000.0 0.5239009111243117 -0.8792577713744381
4697000000.0 0.46460300333393634 -0.8600028791665575
4700000000.0 0.5085013298444727 -0.8807485314617037
4703000000.0 0.519908444454372 -0.8515021826501852
4706000000.0 0.48910638675535023 -0.8668152450830593
4709000000.0 0.48314884400422614 -0.8967493439271841
4712000000.0 0.5076724489600447 -0.8786235487899349
4716000000.0 0.494876181282722 -0.8868961229521902
4719000000.0 0.5291532884213016 -0.9047042581494135
4722000000.0 0.503875676301181 -0.8701028238139624
4725000000.0 0.48761069495645315 -0.8730453476121098
4728000000.0 0.5066912760545302 -0.8928013591178228
4731000000.0 0.5155297528810147 -0.8885371892390863
4734000000.0 0.505781514743921 -0.8646980744068705
4738000000.0 0.5180650761978903 -0.9101842201563004
4741000000.0 0.4772964387756144 -0.9058921831192861
4744000000.0 0.47599768696344097 -0.8920539697647027
4747000000.0 0.4862359749018675 -0.8557419099565458
4750000000.0 0.5087733570469655 -0.9053844492741443
4753000000.0 0.5041324700110577 -0.9052357920230134
4756000000.0 0.49417176271161745 -0.8707505477582631
4759000000.0 0.4970733932579518 -0.9008845101842494
4762000000.0 0.454529020791757 -0.8803699332157232
4766000000.0 0.4986639548156668 -0.8916355258414896
4769000000.0 0.5111084977215892 -0.8984044698132665
4772000000.0 0.5131668079851892 -0.8868580390743588
4775000000.0 0.4817399589145187 -0.9298271920566844
4778000000.0 0.510356806022161 -0.9160585165199132
4781000000.0 0.519495000687903 -0.891395070029424
4784000000.0 0.498980814037131 -0.8574714332178615
4788000000.0 0.5289603245896237 -0.9020757540516287
4791000000.0 0.4886427951442316 -0.8955090217629716
4794000000.0 0.5412407517909759 -0.9076006736228892
4797000000.0 0.49036634735320883 -0.8743634822861501
4800000000.0 0.47229307232495665 -0.8841910843150361
4803000000.0 0.47476412240640087 -0.9088809803636261
4806000000.0 0.4707277550250132 -0.8996169876194413
4809000000.0 0.47510824995297374 -0.9003896760201965
4812000000.0 0.4493760769568021 -0.9087867313147169
4816000000.0 0.5103582388030206 -0.8861875400081204
4819000000.0 0.5062229335504104 -0.9128269722008305
4822000000.0 0.5286687385100123 -0.9106955685844618
4825000000.0 0.5483865425594845 -0.8985118120333933
4828000000.0 0.47204978680726867 -0.9039842445958819
4831000000.0 0.4787986099095848 -0.9337785310395562
4834000000.0 0.5182562580586642 -0.8883765081333125
4838000000.0 0.46982193526219757 -0.9033761435828237
4841000000.0 0.4815423151178263 -0.910322139355411
4844000000.0 0.5087561105809691 -0.8871788063431516
4847000000.0 0.4930545229729023 -0.8635117177181103
4850000000.0 0.5056286533142733 -0.9112345800115486
4853000000.0 0.4916400390502549 -0.8591254507510276
4856000000.0 0.492956149972794 -0.869514778328422
4859000000.0 0.5033145005048504 -0.9374257479651328
4862000000.0 0.5176859566243439 -0.8708181493491418
4866000000.0 0.4968262418593323 -0.9151946455712862
4869000000.0 0.46627293849878415 -0.894599772848044
4872000000.0 0.46905098610194995 -0.9308249294097617
4875000000.0 0.5551692626119886 -0.9117651434920245
4878000000.0 0.5141650861073286 -0.8791514353319482
4881000000.0 0.5139204120871582 -0.9514682144408694
4884000000.0 0.5034954142126634 -0.9090246243022444
4888000000.0 0.5224115932099864 -0.8733207447856719
4891000000.0 0.5311985838327695 -0.8829290852976899
4894000000.0 0.4777316986554557 -0.8968811835751808
4897000000.0 0.5505986166716033 -0.8786424400482907
4900000000.0 0.514146703260459 -0.9242763170762364
4903000000.0 0.5481839080065708 -0.9127634713275253
4906000000.0 0.5108486969159812 -0.886109036058437
4909000000.0 0.4969692924988913 -0.9180755401422411
4912000000.0 0.49174478996914356 -0.9233789158812667
4916000000.0 0.5090154477565512 -0.9014279673400557
4919000000.0 0.535909837625249 -0.9016560765797419
4922000000.0 0.533167342937614 -0.8751044232280516
4925000000.0 0.46475711638633166 -0.8838308476767901
4928000000.0 0.5449469857476624 -0.8734321831801606
4931000000.0 0.530326714205872 -0.9335792627214329
4934000000.0 0.5045795314524234 -0.8657172135615856
4938000000.0 0.4599794537485877 -0.9166575242151698
4941000000.0 0.5146604683292733 -0.8808113930775161
4944000000.0 0.49270216076590734 -0.8291072972909171
4947000000.0 0.5019479159349777 -0.8833103339482792
4950000000.0 0.49193410747012845 -0.8934507877681166
4953000000.0 0.4911516059021149 -0.9447245150124468
4956000000.0 0.46256944435899955 -0.9159356067819924
4959000000.0 0.46073749921855184 -0.8858815068814175
4962000000.0 0.5213597007605106 -0.9660983620548729
4966000000.0 0.5434032951315395 -0.8814003692355805
4969000000.0 0.5719628081914561 -0.9144364182816636
4972000000.0 0.5147830071134296 -0.9012001692238722
4975000000.0 0.507145566419472 -0.8556307174337608
4978000000.0 0.5103459192305315 -0.8975123349876554
4981000000.0 0.48965982366239647 -0.8916273827766655
4984000000.0 0.5153593786176165 -0.85712406951356
4988000000.0 0.5215747948569328 -0.8774913535442
4991000000.0 0.5678909386004933 -0.8702224661678273
4994000000.0 0.5373761823982722 -0.8870103898351528
4997000000.0 0.47896806098222217 -0.9170440750508089
5000000000.0 0.5416114855957678 -0.9056910519866264
5003000000.0 0.5563903623431591 -0.9025921345748021
5006000000.0 0.5621658501666256 -0.9208543273726484
5009000000.0 0.5447876545989134 -0.8673702276183137
5012000000.0 0.5040924200631931 -0.9235743795483478
5016000000.0 0.5828315834351789 -0.9283380467256669
5019000000.0 0.5014550083451413 -0.9062256890730136
5022000000.0 0.5204724378947553 -0.9130117504395991
5025000000.0 0.5526573374522727 -0.9250041736336114
5028000000.0 0.517259642985221 -0.886103911095584
5031000000.0 0.494164020873827 -0.8907141631298793
5034000000.0 0.526436938710577 -0.9568871364186342
5038000000.0 0.47756607285704566 -0.8793731010919738
5041000000.0 0.5663069815830513 -0.8657954825362423
5044000000.0 0.5611759947797672 -0.857583451219792
5047000000.0 0.5227766119635362 -0.8831522554863083
5050000000.0 0.5743464168021897 -0.8310613707200765
5053000000.0 0.5230040586683751 -0.9519587407095385
5056000000.0 0.5749788103304918 -0.8770044213537934
5059000000.0 0.5823634944958517 -0.8781919137415182
5062000000.0 0.4850889060789867 -0.9092891986283126
5066000000.0 0.5405942015183384 -0.8685261493009234
5069000000.0 0.5617295810846655 -0.9160822074432774
5072000000.0 0.5146611412772164 -0.8775900169270803
5075000000.0 0.5709670059379425 -0.8852557488778472
5078000000.0 0.4982468981303955 -0.9104694610360162
5081000000.0 0.48518290106357825 -0.8722738238608461
5084000000.0 0.5394906421602851 -0.9007384728536696
5088000000.0 0.5565920402539952 -0.830258291774322
5091000000.0 0.5283892702979742 -0.9189896860219047
5094000000.0 0.5514458875389405 -0.9386053032770251
5097000000.0 0.5239035238202968 -0.8514735299004488
5100000000.0 0.542152789413039 -0.8857419448125461
5103000000.0 0.4906324587464343 -0.9622926108088956
5106000000.0 0.5445605311503581 -0.8987680956073745
5109000000.0 0.599021990882111 -0.864996306171526
5112000000.0 0.5012127503300287 -0.9029961758878269
5116000000.0 0.46111150288488806 -0.8253411299502733
5119000000.0 0.49483732927408075 -0.8887892248455647
5122000000.0 0.5510041056557855 -0.8420858766663888
5125000000.0 0.5477470918862105 -0.8301578936358132
5128000000.0 0.5179580502715206 -0.9034026294942512
5131000000.0 0.4989902907075273 -0.8714983917426429
5134000000.0 0.49882014988676526 -0.8488117778927295
5138000000.0 0.5393977121165515 -0.8705767225168972
5141000000.0 0.5835642514457895 -0.8977402807174272
5144000000.0 0.5513862717481937 -0.8460907980936164
5147000000.0 0.5481153565421686 -0.900556017130604
5150000000.0 0.5570018846288132 -0.8533109003418204
5153000000.0 0.5654356412796668 -0.8529102106154769
5156000000.0 0.5603150123351072 -0.9044040156120281
5159000000.0 0.6013857081694448 -0.902221980549377
5162000000.0 0.5110531126402126 -0.8912639521256633
5166000000.0 0.546715719686429 -0.885300073537874
5169000000.0 0.5625273675834015 -0.8947463581823633
5172000000.0 0.5398330212102056 -0.886652466494662
5175000000.0 0.5404799480155618 -0.8849205912431796
5178000000.0 0.5462887082374299 -0.9028429381717171
