! Created with skrf 1.8.0 (http://scikit-rf.org).
# Hz S RI R 50.0 
!freq ReS11 ImS11
4000000000.0 0.47582594322199534 -0.8877000403275099
4003000000.0 0.6026723165779275 -0.9288460499330439
4006000000.0 0.4769426865629139 -0.8986232232246503
4009000000.0000005 0.49823232245130417 -0.8814383839254144
4011999999.9999995 0.6276882802938321 -0.8820534114325358
4016000000.0 0.4961995648879506 -0.8641455046661248
4019000000.0 0.5305605017512989 -0.8442577841174099
4022000000.0000005 0.5861576968441462 -0.8433810253558034
4025000000.0000005 0.5020325387966488 -0.9406415664448791
4027999999.9999995 0.5384708797298797 -0.8952871185796575
4030999999.9999995 0.5169457065817574 -0.8826070024258796
4034000000.0 0.5090830292617401 -0.9022009902314502
4038000000.0000005 0.552007936533777 -0.8862846445210497
4041000000.0000005 0.48597550069243933 -0.8602061737905167
4043999999.9999995 0.5268117553056841 -0.9065277939100438
4046999999.9999995 0.5657692424654737 -0.8931669605487299
4050000000.0 0.5530409779915796 -0.8871883137365839
4053000000.0 0.5007949826581877 -0.8786573149299253
4056000000.0 0.48630111108567886 -0.9053314649932654
4059000000.0 0.5097776099468463 -0.9063638257515132
4062000000.0000005 0.48724016702120715 -0.9109738670284551
4066000000.0 0.48036143938242415 -0.845231577813022
4069000000.0 0.5125069998566378 -0.9830803158644652
4072000000.0 0.5727879928413974 -0.8843813402896643
4075000000.0 0.5601338445276323 -0.8871654163954933
4078000000.0000005 0.5280884242460151 -0.8941318067633789
4081000000.0000005 0.5690075503671521 -0.8482509882755713
4083999999.9999995 0.47992068886707806 -0.9074841136757248
4088000000.0 0.5540391437093766 -0.8409770662788463
4091000000.0 0.5974547295034832 -0.936920804149812
4094000000.0000005 0.541991260769592 -0.8929718541169132
4097000000.0000005 0.5368324389594092 -0.8981626105067686
4099999999.9999995 0.48155021243554486 -0.8796272535105442
4102999999.9999995 0.5855204834681867 -0.8649086573214009
4106000000.0 0.5352958540567809 -0.915604084960554
4109000000.0 0.5070566925609825 -0.9048141259713045
4112000000.0 0.5245019318046444 -0.8730251829743947
4115999999.9999995 0.5579980232836121 -0.8646930709441235
4119000000.0 0.5197387030411241 -0.9173408007748031
4122000000.0 0.48027790328832226 -0.8814173479530686
4125000000.0 0.5136728027787874 -0.9345404903524182
4128000000.0 0.5248548948247705 -0.8935695870569077
4131000000.0 0.46766199184604074 -0.8830236617871079
4134000000.0000005 0.5189450165363505 -0.8787808823034446
4138000000.0 0.508946358139209 -0.8787433335047052
4141000000.0 0.4904369341474163 -0.8661907353143795
4144000000.0 0.5513796484203651 -0.8843745531633893
4147000000.0000005 0.50109664260885 -0.8896394979540901
4150000000.0000005 0.5260477650581311 -0.8969188630157654
4152999999.9999995 0.5267557224677967 -0.9065135775192648
4155999999.9999995 0.550844686920025 -0.8887829236630568
4159000000.0 0.5238970575233639 -0.8437460693266572
4162000000.0 0.5211521110620778 -0.850185390479609
4166000000.0000005 0.5067552760200034 -0.9067084086666677
4168999999.9999995 0.4982768185905801 -0.8848157606887762
4171999999.9999995 0.5257797451079416 -0.8699164782717227
4175000000.0 0.5522298306399696 -0.8984327215696735
4178000000.0 0.5297092851633598 -0.892976261139371
4181000000.0 0.5005835827484829 -0.9036602562156933
4184000000.0 0.5236401188200508 -0.8592702990687302
4187999999.9999995 0.49700283100823894 -0.8732358965774158
4191000000.0 0.5527509730271337 -0.8774865364523015
4194000000.0 0.5347130404887488 -0.8734826218222107
4197000000.0 0.5190582656084041 -0.8722752595079748
4200000000.0 0.5387683450759148 -0.8672627272779169
4203000000.0000005 0.5368995883765998 -0.8810710286894555
4206000000.0000005 0.5449129492646727 -0.8943163779679211
4208999999.9999995 0.5163248229363242 -0.8619254262434078
4211999999.9999995 0.49260449123668015 -0.9002216255614944
4216000000.0 0.5350129833820768 -0.8832773945699604
4219000000.0000005 0.5318369997883077 -0.8783839716869726
4222000000.0000005 0.5248418002981129 -0.886001064037494
4224999999.9999995 0.5275229391654334 -0.8605494676826043
4227999999.9999995 0.5241666299895398 -0.8703063156204711
4231000000.0 0.5212260097046757 -0.8706047209793903
4234000000.0 0.5190622529290162 -0.8910547978366332
4238000000.0000005 0.5163758702770518 -0.8753275698083919
4240999999.9999995 0.49655193312389967 -0.8863300948108435
4244000000.0 0.5243650455571551 -0.8717241486319163
4247000000.0 0.5342375345881931 -0.8721319163943468
4250000000.0 0.5055976986153026 -0.8657204571449479
4253000000.0 0.5012845557144867 -0.8449653736795241
4256000000.0 0.5185609264039824 -0.9020341493244113
4259000000.0000005 0.5111149015053298 -0.84413005721139
4261999999.9999995 0.512267811763528 -0.8716062331247221
4266000000.0 0.5178761210094995 -0.9059560455886647
4269000000.0 0.52831120751584 -0.8806149129420285
4272000000.0000005 0.5184024656698998 -0.8495482304970617
4275000000.0000005 0.5193110985042756 -0.8837472754858877
4277999999.9999995 0.5560425809904141 -0.8970897624649595
4280999999.9999995 0.543074560428236 -0.8529602219581728
4284000000.0 0.4953716122461749 -0.8894137209225603
4288000000.0000005 0.5692619757700761 -0.8591948891796091
4291000000.0000005 0.5296028060278436 -0.852533045388982
4293999999.9999995 0.5050781971353306 -0.864424138496871
4297000000.0 0.5455512379984022 -0.8420100317307964
4300000000.0 0.5178331128796951 -0.8273880023534619
4303000000.0 0.49264726014487414 -0.8637997669042248
4306000000.0 0.5638887496316134 -0.8680547702744712
4309000000.0 0.5285441606972259 -0.8509511547188333
4312000000.0 0.5729883798653658 -0.8755548343141735
4316000000.0 0.5477748697033508 -0.8776035884742505
4319000000.0 0.5184684053021998 -0.8654502790756451
4322000000.0 0.49690090510989365 -0.8639407511668127
4325000000.0 0.5067536837748154 -0.8564189530643437
4328000000.0 0.5276980732917873 -0.8746706009537485
4331000000.0 0.5030418655884155 -0.9034322692481894
4334000000.0 0.5380645906636862 -0.8737494608348374
4338000000.0 0.5458066550984368 -0.8754215380280601
4341000000.0 0.5582901293158656 -0.8960344407255294
4344000000.0 0.5355561338790448 -0.8658178657241894
4347000000.0 0.49575449399752425 -0.8845904933917332
4350000000.0 0.4813277045068276 -0.8632996498632317
4353000000.0 0.5261413803293855 -0.8300187816335078
4356000000.0 0.5019750160820818 -0.8745147925146014
4359000000.0 0.49890354321441766 -0.8549518890836117
4362000000.0 0.467495158095509 -0.9133321072863999
4366000000.0 0.5348237283955228 -0.8879285217308892
4369000000.0 0.5022714705770084 -0.8504122517273053
4372000000.0 0.475783182899324 -0.8708456862754981
4375000000.0 0.5271950267306345 -0.8581340992575968
4378000000.0 0.510788660081257 -0.8601248263364877
4381000000.0 0.5129675848751105 -0.8368118854266567
4384000000.0 0.5336168784685644 -0.9137757610162333
4388000000.0 0.5097451016707514 -0.8401794859311332
4391000000.0 0.511543422583711 -0.8722500167024594
4394000000.0 0.49974088101679637 -0.8506661990442915
4397000000.0 0.499127182846409 -0.8695446074432801
4400000000.0 0.5112123414051664 -0.8883727135934635
4403000000.0 0.508877358955747 -0.8850894279727928
4406000000.0 0.47804407783570146 -0.8943847098902227
4409000000.0 0.5175100224980218 -0.9052943596288052
4412000000.0 0.4442296406293109 -0.9021078349357121
4416000000.0 0.4889645876428988 -0.8636552065503952
4419000000.0 0.4854773532001164 -0.8880380736295462
4422000000.0 0.5113625963756832 -0.8571068932453312
4425000000.0 0.5290279746313986 -0.887577245047072
4428000000.0 0.49841752788990445 -0.8769357450533423
4431000000.0 0.5125338570802794 -0.8844180009734582
4434000000.0 0.48314467797841154 -0.8815901344843624
4438000000.0 0.5089941458436984 -0.8947685701239736
4441000000.0 0.5070550255332003 -0.8905724161519285
4444000000.0 0.5057276173552214 -0.857502882707037
4447000000.0 0.4856854635883727 -0.8953406652430903
4450000000.0 0.5123290380135632 -0.8587915267538968
4453000000.0 0.5333247824241538 -0.896626914586465
4456000000.0 0.4683899276203173 -0.8586246015537266
4459000000.0 0.4643582595289365 -0.8507909304379432
4462000000.0 0.5309264872479988 -0.9378689928430608
4466000000.0 0.5091641384265715 -0.9104769439934515
4469000000.0 0.5004157110914418 -0.8747379074193119
4472000000.0 0.48326108397270956 -0.9060165014145432
4475000000.0 0.4921819201084326 -0.8652540656473487
4478000000.0 0.4877651583622035 -0.9294375169892597
4481000000.0 0.48921466220289295 -0.8570466301352957
4484000000.0 0.47343587328940384 -0.906352248615246
4488000000.0 0.4715908905938071 -0.8771565484617445
4491000000.0 0.4765758585885801 -0.8700749146198974
4494000000.0 0.49271840461602034 -0.8557614740736176
4497000000.0 0.5176525828422698 -0.8645489319183577
4500000000.0 0.5076727615094144 -0.8774352790444209
4503000000.0 0.5009275266680213 -0.9167231206387707
4506000000.0 0.47507773495744987 -0.8867530992183672
4509000000.0 0.47536439141926917 -0.8742437600180046
4512000000.0 0.46827363025203456 -0.8922867210102671
4516000000.0 0.49930593095038706 -0.9017577662826589
4519000000.0 0.5010186291627908 -0.8570296656126803
4522000000.0 0.47341922714386764 -0.8864283649697151
4525000000.0 0.5218451839164349 -0.850078803550911
4528000000.0 0.5084014660946503 -0.8996701588954641
4531000000.0 0.4900541033613328 -0.8867181342111935
4534000000.0 0.4860069721816227 -0.8516937556888962
4538000000.0 0.48564791589254064 -0.8863966008987441
4541000000.0 0.4500304749530213 -0.887056883452843
4544000000.0 0.47718202804969734 -0.8692748413919114
4547000000.0 0.48756861341716545 -0.8592784309892219
4550000000.0 0.48255801000492476 -0.9132282691740234
4553000000.0 0.46136681253545136 -0.9108893727759964
4556000000.0 0.4587564246451693 -0.8714944119873053
4559000000.0 0.46276360367132463 -0.8929088312645213
4562000000.0 0.4946146324417201 -0.8957637482166507
4566000000.0 0.47898633125149637 -0.9042331671824386
4569000000.0 0.46412579387009273 -0.8787734606624698
4572000000.0 0.4841093222022117 -0.887449637764621
4575000000.0 0.4644317055790159 -0.9101468120933385
4578000000.0 0.4886947940397117 -0.9137801620019432
4581000000.0 0.4628912358079871 -0.9031241210711307
4584000000.0 0.46700097818121045 -0.8925227611009757
4588000000.0 0.4926880014385403 -0.8940598263225796
4591000000.0 0.49815086363684385 -0.8749740274523752
4594000000.0 0.4441028366679017 -0.8902864772994347
4597000000.0 0.4735463088317186 -0.9082906835721996
4600000000.0 0.4485554962989423 -0.887734926166323
4603000000.0 0.4791116321140163 -0.9005148991424086
4606000000.0 0.4700744500344313 -0.9175923167280051
4609000000.0 0.46982464680429026 -0.893848454804789
4612000000.0 0.4711166969554323 -0.9109413069629816
4616000000.0 0.462642007049711 -0.8993011130926838
4619000000.0 0.4574430463708542 -0.890250219834251
4622000000.0 0.4711076072909667 -0.8907378691170509
4625000000.0 0.44110577961699815 -0.8866025461117718
4628000000.0 0.4791622775560449 -0.883271503453802
4631000000.0 0.46635391181080055 -0.9045244568013561
4634000000.0 0.4741331089551707 -0.9055269083231499
4638000000.0 0.4707253241594777 -0.9012895280991311
4641000000.0 0.4664333075005226 -0.8983194460839691
4644000000.0 0.45316201210698703 -0.8995867174814234
4647000000.0 0.46457943869479984 -0.9003246558904514
4650000000.0 0.4519963377912228 -0.8946331283400585
4653000000.0 0.46872719266205987 -0.9090996235231094
4656000000.0 0.46555978371066664 -0.8943215018439171
4659000000.0 0.4551803691877394 -0.8984783708521957
4662000000.0 0.4436456880041142 -0.911768437175845
4666000000.0 0.46059884843466053 -0.9144845483051354
4669000000.0 0.48071460767351976 -0.8900285777898793
4672000000.0 0.45909014615884036 -0.9436924842373522
4675000000.0 0.4458430317699857 -0.9070842960792993
4678000000.0 0.46576465759706437 -0.8771135278178182
4681000000.0 0.4386817524748689 -0.9323757614158511
4684000000.0 0.4180422544886111 -0.9129198197944196
4688000000.0 0.4508634272203276 -0.8905078959096465
4691000000.0 0.496430092912836 -0.9020733252496921
4694000000.0 0.48067370440119406 -0.8915599174265181
4697000000.0 0.4474363175806188 -0.8505791119928313
4700000000.0 0.46506027354324053 -0.9207210742937619
4703000000.0 0.45576894498420506 -0.8638158532576317
4706000000.0 0.45107581098258104 -0.9203719310665239
4709000000.0 0.44210778150315516 -0.9000466950437135
4712000000.0 0.4351363678001663 -0.8859197591957069
4716000000.0 0.45171867575966124 -0.9507486746799414
4719000000.0 0.4977191396776309 -0.9055997351082383
4722000000.0 0.47384495497611734 -0.9018616979631611
4725000000.0 0.4676955436132524 -0.8948123465302882
4728000000.0 0.4466420899971305 -0.8969531074073913
4731000000.0 0.4816586731119624 -0.9344850390132922
4734000000.0 0.47608599427935955 -0.8774921888092477
4738000000.0 0.5002394690906227 -0.9261763728988017
4741000000.0 0.46025036012626785 -0.9617109013189539
4744000000.0 0.43767823879180895 -0.9344644768326583
4747000000.0 0.4557966964939956 -0.8694804176331231
4750000000.0 0.46434498027579013 -0.9144807608270723
4753000000.0 0.4789529903420724 -0.9290933213925405
4756000000.0 0.4444747812755388 -0.9174896570763575
4759000000.0 0.5142138562400848 -0.9417903441402211
4762000000.0 0.42866943555989406 -0.910149472572598
4766000000.0 0.46455725892933863 -0.8991792433552211
4769000000.0 0.46763294659712873 -0.9159676276302927
4772000000.0 0.4611508514939935 -0.9217377646879366
4775000000.0 0.454239330504014 -0.9668170836368252
4778000000.0 0.44148175507514487 -0.9230012858850469
4781000000.0 0.4758278430527041 -0.9045741549673597
4784000000.0 0.4658105989805251 -0.9098531713648643
4788000000.0 0.4202341377664115 -0.9288826970327031
4791000000.0 0.4576979087409283 -0.890912793442044
4794000000.0 0.4771763496706044 -0.9148490704633352
4797000000.0 0.4650497887233819 -0.891670655209271
4800000000.0 0.4216172461426604 -0.8881442951017505
4803000000.0 0.4120923320990384 -0.9188298199367813
4806000000.0 0.44506202736180334 -0.9312633012184982
4809000000.0 0.3950436380564046 -0.9462596027274741
4812000000.0 0.386424606488002 -0.9215666907365364
4816000000.0 0.4709640314310565 -0.8930441529902959
4819000000.0 0.4784289647670459 -0.9312966235387939
4822000000.0 0.48702637734413423 -0.9490527339469026
4825000000.0 0.48830561424952895 -0.9332115420166286
4828000000.0 0.4503393943835242 -0.9195746772810056
4831000000.0 0.4282659633596818 -0.9495334740748662
4834000000.0 0.47118009830033514 -0.9244709700149185
4838000000.0 0.4600023597123103 -0.9584464129481469
4841000000.0 0.43657042871257157 -0.9007079726714241
4844000000.0 0.49021404468061014 -0.8989654166942314
4847000000.0 0.4580584556847922 -0.8773423159596491
4850000000.0 0.48082908718718975 -0.937932993231961
4853000000.0 0.4309555349910147 -0.8870247609497195
4856000000.0 0.46061791071817887 -0.9108756661152067
4859000000.0 0.4569260501148875 -0.9541343556280357
4862000000.0 0.44988209734954027 -0.8911962216177078
4866000000.0 0.4407154837396829 -0.9249920603996853
4869000000.0 0.4497091582470211 -0.9353445223805682
4872000000.0 0.4348879412247861 -0.9554298363331579
4875000000.0 0.5088856800212951 -0.9406893475256384
4878000000.0 0.453610503471818 -0.9133446366282476
4881000000.0 0.46519355898194203 -0.9580033762000532
4884000000.0 0.4716133939523729 -0.9032882930543472
4888000000.0 0.47782874741109854 -0.9047078814786611
4891000000.0 0.4803488709406845 -0.9341299266005723
4894000000.0 0.4350886095304851 -0.958838716964848
4897000000.0 0.4824168213940694 -0.9152606500235286
4900000000.0 0.4392614682277646 -0.9641698823301081
4903000000.0 0.5061828609567013 -0.91773573854652
4906000000.0 0.4788837954829347 -0.941526882806797
4909000000.0 0.44016280066462943 -0.9653155304509317
4912000000.0 0.46588153977568514 -0.9762918126874779
4916000000.0 0.4348042517742794 -0.9245933135717346
4919000000.0 0.5270967575687119 -0.9315960053947085
4922000000.0 0.49862419643450523 -0.930246160523444
4925000000.0 0.39561324861839087 -0.9549996237867067
4928000000.0 0.4990644148697071 -0.8714409279209858
4931000000.0 0.49670993537550134 -0.9454590308375855
4934000000.0 0.43661029632008097 -0.9311415511880321
4938000000.0 0.4242274532047887 -0.9359589760017427
4941000000.0 0.4600398889103373 -0.8974089412910153
4944000000.0 0.4422982793693864 -0.8297504051089009
4947000000.0 0.47071992921436834 -0.9070404084976645
4950000000.0 0.45087416486499354 -0.8998675648063736
4953000000.0 0.44108965482645224 -0.9649006592669827
4956000000.0 0.46129383021328063 -0.9344222867026476
4959000000.0 0.3983503642903714 -0.9108772566016669
4962000000.0 0.4318510089035436 -0.9469585384187069
4966000000.0 0.4894721613827565 -0.9380433152283754
4969000000.0 0.5032707751199532 -0.9406178915707694
4972000000.0 0.4449846863339636 -0.9280702157918165
4975000000.0 0.49679438559895805 -0.9059922519696452
4978000000.0 0.44263345468726145 -0.953836802919472
4981000000.0 0.4344331321470042 -0.9330339542193471
4984000000.0 0.46999612212254693 -0.898903001067179
4988000000.0 0.517670683727235 -0.8957133473642143
4991000000.0 0.512465549825391 -0.903738724265134
4994000000.0 0.46303448875954556 -0.9024600411001926
4997000000.0 0.4287416498471468 -0.9429427239895983
5000000000.0 0.5033603090654843 -0.9320143671551974
5003000000.0 0.5022833267099265 -0.9647094291273881
5006000000.0 0.4840090787208111 -0.9813599659906714
5009000000.0 0.49666953885969656 -0.9118467663197228
5012000000.0 0.4599301747020503 -0.9297862619707177
5016000000.0 0.4936873088429891 -0.9319735210621678
5019000000.0 0.46761788763831735 -0.9343646264994346
5022000000.0 0.4836178143213127 -0.9227092355399578
5025000000.0 0.5103524489301956 -0.9843909336570376
5028000000.0 0.47794956379356124 -0.9463984892851791
5031000000.0 0.4778712211988785 -0.9167542481717196
5034000000.0 0.47688221639567524 -0.9595122203844206
5038000000.0 0.4507326508461429 -0.9039596009637507
5041000000.0 0.4919234246829225 -0.9226517247549639
5044000000.0 0.5081218199410495 -0.9082106679838451
5047000000.0 0.4803175024413623 -0.8990145674107854
5050000000.0 0.4965153579132696 -0.8687121245790841
5053000000.0 0.4719846141103528 -0.9611293869724722
5056000000.0 0.5166766560904451 -0.8938011999262341
5059000000.0 0.48540051493703845 -0.9761268050105925
5062000000.0 0.46028983796406636 -0.9613748667312594
5066000000.0 0.503924135911047 -0.8858473149281695
5069000000.0 0.4722390937923682 -0.9553755177335308
5072000000.0 0.5219516990510706 -0.9155418869387428
5075000000.0 0.5248861483820089 -0.870493889085032
5078000000.0 0.4565956529685906 -0.9792964209986368
5081000000.0 0.45454233781168396 -0.8634005291425435
5084000000.0 0.4645543233377311 -0.9213875398752236
5088000000.0 0.5175235755492207 -0.9000734175029572
5091000000.0 0.4546175497260604 -0.9345184251412636
5094000000.0 0.48706632711220654 -0.9288306191538196
5097000000.0 0.5226557765224198 -0.9037339222484453
5100000000.0 0.49282269556120534 -0.9142077714599441
5103000000.0 0.4760601298428519 -0.9371896524489947
5106000000.0 0.5020096513675296 -0.9728652366267927
5109000000.0 0.5187329388615942 -0.8911240985032263
5112000000.0 0.428364896520942 -0.9455125331766921
5116000000.0 0.4611032744352256 -0.8846315787094321
5119000000.0 0.5069775712573852 -1.017419089116671
5122000000.0 0.4758274567492974 -0.9159439588100651
5125000000.0 0.49070606859064253 -0.8915522875012886
5128000000.0 0.47487524963627814 -0.8961004271162138
5131000000.0 0.4412753123209818 -0.9155638079956078
5134000000.0 0.4381401043616348 -0.8974747376925352
5138000000.0 0.49616749668344773 -0.8969875006301626
5141000000.0 0.573414000480631 -0.9101005284899333
5144000000.0 0.5275161520246943 -0.903891120648526
5147000000.0 0.5088590842252758 -0.9250146895108533
5150000000.0 0.4994118558432985 -0.8901364374975245
5153000000.0 0.5084191884754136 -0.9324954554332094
5156000000.0 0.5224141687375041 -0.9341810184249799
5159000000.0 0.5352192540053287 -0.967954328184985
5162000000.0 0.4938202930728304 -0.9437782056472273
5166000000.0 0.5147198787312148 -0.9604038796913881
5169000000.0 0.4767571835912907 -0.928935738591663
5172000000.0 0.5084908757430693 -0.9156276789954698
