! Created with skrf 1.8.0 (http://scikit-rf.org).
# Hz S RI R 50.0 
!freq ReS11 ImS11
4000000000.0 0.5331973228037589 -0.9084906924286962
4003000000.0 0.5792460158510988 -0.9150005845250393
4006000000.0 0.47527937162510503 -0.8770366219071961
4009000000.0000005 0.5202775881762822 -0.8898137657878524
4011999999.9999995 0.635887591183321 -0.8015527244382965
4016000000.0 0.5343703675337355 -0.904550058192044
4019000000.0 0.5678868268705183 -0.8727719718473583
4022000000.0000005 0.6126722943610785 -0.8625009895811351
4025000000.0000005 0.5150926711744203 -0.9098566279186864
4027999999.9999995 0.5414298743137076 -0.8915099219613964
4030999999.9999995 0.5264264576226664 -0.8225110166486804
4034000000.0 0.5395631441334555 -0.9067691583110744
4038000000.0000005 0.5060544682295771 -0.9389782588644635
4041000000.0000005 0.5385781426226132 -0.8601371910631095
4043999999.9999995 0.6023200917561853 -0.9264015237214095
4046999999.9999995 0.6201429223154558 -0.8931641680188921
4050000000.0 0.5236233722467747 -0.8988488505264638
4053000000.0 0.5190589361083667 -0.8774801707029264
4056000000.0 0.5362899775932741 -0.9161002844209604
4059000000.0 0.5358389114316995 -0.8837969462108224
4062000000.0000005 0.5297182911695336 -0.8818600112592588
4066000000.0 0.5167535726788207 -0.8194007944931258
4069000000.0 0.5731276172621061 -0.8906672994534568
4072000000.0 0.5876006667856843 -0.8753853591660418
4075000000.0 0.6125825485124003 -0.9280158707898302
4078000000.0000005 0.5728618612395133 -0.9045434008760674
4081000000.0000005 0.5717788661097521 -0.8938218434161425
4083999999.9999995 0.5127659167790644 -0.8857654333762637
4088000000.0 0.5599904787697626 -0.8554652094765418
4091000000.0 0.572062985784938 -0.8778264054670766
4094000000.0000005 0.5673251503839205 -0.8541520194403597
4097000000.0000005 0.5322905722164316 -0.8751342011307786
4099999999.9999995 0.544355398570902 -0.8896236844220773
4102999999.9999995 0.5686428560491982 -0.886596207839627
4106000000.0 0.512153430683467 -0.8879917605488672
4109000000.0 0.540027398070714 -0.8989476065447133
4112000000.0 0.5532928451384584 -0.8793460389957186
4115999999.9999995 0.5575130881418918 -0.8649531546209176
4119000000.0 0.5313138664365062 -0.8728700535505295
4122000000.0 0.5198967944432507 -0.9245543777310482
4125000000.0 0.5468537625190439 -0.9063775277107988
4128000000.0 0.541564300380261 -0.8520918902284388
4131000000.0 0.5294787000137957 -0.8674652186171162
4134000000.0000005 0.5735143516010044 -0.8476983208968745
4138000000.0 0.5337084309467135 -0.8739812676000428
4141000000.0 0.5243601227992032 -0.8662431926312112
4144000000.0 0.5583421951686991 -0.8851473655340012
4147000000.0000005 0.5577051235966609 -0.9121260589143785
4150000000.0000005 0.5878127111096416 -0.8862442342128353
4152999999.9999995 0.5311022426433649 -0.8852186166289505
4155999999.9999995 0.5636803495959697 -0.8946190397999507
4159000000.0 0.5566118400755283 -0.8583692894179085
4162000000.0 0.5538367137546605 -0.8748387864080922
4166000000.0000005 0.5322270462821492 -0.9348085238899477
4168999999.9999995 0.5444281892351883 -0.8746336825160936
4171999999.9999995 0.5799977503924276 -0.8832346574176521
4175000000.0 0.5546536492338393 -0.8853813255079999
4178000000.0 0.5460850261028807 -0.8751755861939116
4181000000.0 0.5444782781719165 -0.8929264329722968
4184000000.0 0.5676404984064954 -0.892765864129373
4187999999.9999995 0.5505298075073193 -0.8810715076515122
4191000000.0 0.5624655950773535 -0.8477670976236513
4194000000.0 0.5390334576250123 -0.8599077576196795
4197000000.0 0.5454863396307765 -0.8676941469110013
4200000000.0 0.5560749799041829 -0.8536641541970804
4203000000.0000005 0.5593419442978795 -0.8653812320832259
4206000000.0000005 0.5428867896370595 -0.8843009130815094
4208999999.9999995 0.5500039052800796 -0.8499003185087456
4211999999.9999995 0.53345779894304 -0.8725215960822426
4216000000.0 0.5670172725842896 -0.8341903254482268
4219000000.0000005 0.5641938493851784 -0.8765261559967945
4222000000.0000005 0.5351109478351153 -0.8890113261160668
4224999999.9999995 0.5465687938210095 -0.8584155654200478
4227999999.9999995 0.5652948884178716 -0.8736865595351988
4231000000.0 0.5543229146254216 -0.863289672640503
4234000000.0 0.5399925181608463 -0.8743012314107304
4238000000.0000005 0.519919985864001 -0.87795482585956
4240999999.9999995 0.5355177698035599 -0.8712674255474993
4244000000.0 0.5371460306125302 -0.8423021669985171
4247000000.0 0.5600630500148123 -0.8569831736376065
4250000000.0 0.5263242246530042 -0.8456504196533974
4253000000.0 0.528988380944297 -0.8474663005899512
4256000000.0 0.5547855518565705 -0.8781296922790033
4259000000.0000005 0.5174036149513481 -0.833360289704611
4261999999.9999995 0.5338373059815233 -0.8544554500043327
4266000000.0 0.5346599330561571 -0.8810014308552192
4269000000.0 0.5523799286075186 -0.8616727759600691
4272000000.0000005 0.5431034313122445 -0.861564012712158
4275000000.0000005 0.5404510698753301 -0.8668298562303424
4277999999.9999995 0.5631966099454104 -0.8742950443113382
4280999999.9999995 0.5541426886046397 -0.8796301492090881
4284000000.0 0.5062800759155611 -0.8937295684878741
4288000000.0000005 0.5566096876382165 -0.8632456570657587
4291000000.0000005 0.5449077309756595 -0.8488824807331479
4293999999.9999995 0.5509673576855155 -0.8476992904012646
4297000000.0 0.5528229998925143 -0.849696556739179
4300000000.0 0.5406292861168928 -0.8639171140066985
4303000000.0 0.5325821530508652 -0.8609324086554477
4306000000.0 0.5456853502229303 -0.8556921643327213
4309000000.0 0.5395535288088436 -0.8547052483467672
4312000000.0 0.5942741702199252 -0.8550298473605366
4316000000.0 0.5569708549480501 -0.8636406213469872
4319000000.0 0.5695117271048955 -0.8404162169170224
4322000000.0 0.5482140309148649 -0.8703722374746714
4325000000.0 0.5413943376302756 -0.8622070328140534
4328000000.0 0.5221994204580157 -0.8510483536673545
4331000000.0 0.5317065078490366 -0.8709897115391271
4334000000.0 0.5440498535090333 -0.890195209774869
4338000000.0 0.5594619616954346 -0.8511323657026993
4341000000.0 0.5784815096251924 -0.83386291320578
4344000000.0 0.563276337952382 -0.8611298595832484
4347000000.0 0.535527124644126 -0.8668449313385364
4350000000.0 0.520872826208245 -0.839825664269085
4353000000.0 0.5579739817622894 -0.8175279359165843
4356000000.0 0.5159403686285189 -0.877897297053624
4359000000.0 0.5204162968247713 -0.8311613470583358
4362000000.0 0.5144769043676033 -0.8869270527441234
4366000000.0 0.5510295235413977 -0.8968646560274184
4369000000.0 0.5323865190723015 -0.8392323461302629
4372000000.0 0.5207749696765873 -0.8715279676637578
4375000000.0 0.5511046012835528 -0.8464079967913211
4378000000.0 0.5128869288994855 -0.8317600566590779
4381000000.0 0.5364720216963431 -0.8327534652274804
4384000000.0 0.5597748376750051 -0.9097898764155475
4388000000.0 0.5328138286396291 -0.838609119149923
4391000000.0 0.5324790798517063 -0.8573036362271741
4394000000.0 0.5211977538109975 -0.8345416204878654
4397000000.0 0.5308133962406486 -0.8657582255760593
4400000000.0 0.5399602514559779 -0.8836014914778194
4403000000.0 0.5251919957926942 -0.8606432580933853
4406000000.0 0.515904194026292 -0.883209526182431
4409000000.0 0.5456298626740418 -0.8824834559093058
4412000000.0 0.48906381970526835 -0.889877732833314
4416000000.0 0.5157819714597154 -0.8704927159503003
4419000000.0 0.5156736625579105 -0.8806655440929235
4422000000.0 0.5374278325472737 -0.831050796142286
4425000000.0 0.5697013319214793 -0.8561969170275794
4428000000.0 0.5163421696642148 -0.8648829477172052
4431000000.0 0.5438901073844502 -0.878252340636809
4434000000.0 0.5178137883869598 -0.864722027019285
4438000000.0 0.5670189053461613 -0.8784724761104198
4441000000.0 0.5611053873915809 -0.8694140578630323
4444000000.0 0.518141632165502 -0.8378173351114051
4447000000.0 0.5188021509651207 -0.8547552275389685
4450000000.0 0.5426486694255782 -0.8408914151755524
4453000000.0 0.5522291266433941 -0.8911264617615313
4456000000.0 0.4987865922418926 -0.8479473728251278
4459000000.0 0.493774145259237 -0.841273229094269
4462000000.0 0.5570311220554526 -0.9209476439374742
4466000000.0 0.5381403845404189 -0.8900641001115586
4469000000.0 0.5467876815026622 -0.8511641184647514
4472000000.0 0.5122701000579833 -0.9061640684011096
4475000000.0 0.509222781130992 -0.8556063992036541
4478000000.0 0.5428566852678339 -0.9146368055326826
4481000000.0 0.4949529702683858 -0.8411561456103209
4484000000.0 0.49359387415463796 -0.8991672951167686
4488000000.0 0.49557931338228856 -0.8556215226597983
4491000000.0 0.5112883582422371 -0.8834211167710857
4494000000.0 0.5417173866565284 -0.8515426451970888
4497000000.0 0.5300201229216842 -0.842327735165907
4500000000.0 0.5369449180391951 -0.8675756989383854
4503000000.0 0.5246431220751635 -0.8851211230119715
4506000000.0 0.5213579775481519 -0.8671003261599949
4509000000.0 0.5089129100252261 -0.8362397855064798
4512000000.0 0.47998035560609464 -0.8430612803469038
4516000000.0 0.529034994773843 -0.8700550274400964
4519000000.0 0.5476263205999097 -0.8569315204448147
4522000000.0 0.5108921434671598 -0.8715769346953102
4525000000.0 0.5494054021898122 -0.8390485467362954
4528000000.0 0.5273519329433876 -0.8856905791726906
4531000000.0 0.533941176828556 -0.8583628054186834
4534000000.0 0.4868123610884779 -0.8618316186071546
4538000000.0 0.5223256230104838 -0.864108036517129
4541000000.0 0.46039542834907 -0.8788072874409711
4544000000.0 0.517097378525086 -0.8415118670175163
4547000000.0 0.5243634839899805 -0.8605191471617666
4550000000.0 0.509651458818854 -0.9018454651316845
4553000000.0 0.5025455421322754 -0.8707356572215728
4556000000.0 0.47912170976979845 -0.8648087057690198
4559000000.0 0.4911645743822752 -0.9071074529051031
4562000000.0 0.5310714208727036 -0.8666398608755611
4566000000.0 0.5137366150511322 -0.8819547374479428
4569000000.0 0.4974647311616516 -0.8551148867086267
4572000000.0 0.5232170506893157 -0.8658930834359884
4575000000.0 0.47886491594882674 -0.8942075744981366
4578000000.0 0.5260792365491679 -0.8976367779582523
4581000000.0 0.4857340147042831 -0.883590183137636
4584000000.0 0.4932506536003214 -0.8636740196369788
4588000000.0 0.5191912990267031 -0.8820070753919202
4591000000.0 0.5212640601657779 -0.8638335555290816
4594000000.0 0.48580133862265396 -0.8730437741502454
4597000000.0 0.510605969599036 -0.8964526629853938
4600000000.0 0.4711140044566955 -0.861552623318745
4603000000.0 0.49485615612335565 -0.8955739153126661
4606000000.0 0.5159396112308682 -0.8644653072916861
4609000000.0 0.5120117052686896 -0.8777142398158363
4612000000.0 0.49662633109612786 -0.886787498019977
4616000000.0 0.49649413939431186 -0.86549508559654
4619000000.0 0.49777838148634834 -0.8599652122022542
4622000000.0 0.4949406396009938 -0.8713704921856782
4625000000.0 0.46617070381763454 -0.8743661299375324
4628000000.0 0.5021387939387699 -0.8487821746297892
4631000000.0 0.4908571598882032 -0.8746814763896255
4634000000.0 0.48707150981726643 -0.8824530616324362
4638000000.0 0.4976034943953912 -0.8857910897530619
4641000000.0 0.5149019800316177 -0.8764222955321321
4644000000.0 0.48542923479331795 -0.8760853584903856
4647000000.0 0.5188287913739399 -0.8900912441901836
4650000000.0 0.47523652597708477 -0.8834284420536223
4653000000.0 0.5160766634081801 -0.9008301327863449
4656000000.0 0.5021789950609049 -0.8918554335937663
4659000000.0 0.4903549306434577 -0.8777966520173676
4662000000.0 0.5077714140212157 -0.8762724328357382
4666000000.0 0.47501481260660183 -0.8906561389864165
4669000000.0 0.4930365648338325 -0.8843414658853306
4672000000.0 0.47973689511706474 -0.896100435953673
4675000000.0 0.4776791348811944 -0.8974003116232844
4678000000.0 0.4603809560786024 -0.8596951373235517
4681000000.0 0.48331659515002967 -0.9041965218766741
4684000000.0 0.47278157900495843 -0.8993573651103106
4688000000.0 0.47253147043621857 -0.8833721247592928
4691000000.0 0.5287243153537777 -0.884510169736519
4694000000.0 0.49878683015769293 -0.879998454125493
4697000000.0 0.4672100912867284 -0.8687006791888611
4700000000.0 0.47625491935164077 -0.8749040009278987
4703000000.0 0.5105178301407591 -0.8443391174873176
4706000000.0 0.4792762813680595 -0.9128728651747934
4709000000.0 0.4610256937319723 -0.8845045457933024
4712000000.0 0.4977792344111771 -0.8953870408560916
4716000000.0 0.5084486990604231 -0.9105715461011966
4719000000.0 0.5141841334528792 -0.8906005409283312
4722000000.0 0.5246716122636222 -0.8688753052329417
4725000000.0 0.4920594352762302 -0.8865004911496509
4728000000.0 0.4908109239771965 -0.8709303628049094
4731000000.0 0.5452113110513577 -0.9221347404667455
4734000000.0 0.515313671371779 -0.8538219208160209
4738000000.0 0.5428591140054035 -0.9003709894496332
4741000000.0 0.4840034749856427 -0.917109062253399
4744000000.0 0.4954091468266265 -0.9009085964063624
4747000000.0 0.5025969047629033 -0.8511423706995389
4750000000.0 0.4620342346470125 -0.9103638050414138
4753000000.0 0.5077557136864278 -0.8908820616214366
4756000000.0 0.48381905819120447 -0.8881828539398055
4759000000.0 0.5080805975441398 -0.88339357281136
4762000000.0 0.47004168376495864 -0.8935107227216568
4766000000.0 0.4789105914925851 -0.8772250848621437
4769000000.0 0.5079212937303537 -0.9138190655898424
4772000000.0 0.5208399846089027 -0.9039787587986319
4775000000.0 0.48558920178261783 -0.965502121634444
4778000000.0 0.506297275125674 -0.9069098477465867
4781000000.0 0.4848206942488069 -0.8994254949529737
4784000000.0 0.5061684327986903 -0.8705925199247131
4788000000.0 0.4519974785304151 -0.9251411882610387
4791000000.0 0.49176221955227684 -0.898851394272586
4794000000.0 0.5275716049120789 -0.9163176610672342
4797000000.0 0.469172427616556 -0.8768418070256105
4800000000.0 0.46073449647846476 -0.8763014742153353
4803000000.0 0.4428764526243152 -0.928659350812964
4806000000.0 0.4835637352495138 -0.9315298696597349
4809000000.0 0.46021934830548406 -0.9399507542687939
4812000000.0 0.44264232566473594 -0.9129718613954009
4816000000.0 0.5197272871865348 -0.858462489460328
4819000000.0 0.48877863982007497 -0.9229951104301131
4822000000.0 0.543433539419016 -0.9190944795253042
4825000000.0 0.5416674285237435 -0.9227728408304259
4828000000.0 0.4724652192579597 -0.8959517710300164
4831000000.0 0.4704287966960987 -0.9406273103965617
4834000000.0 0.49941218839473067 -0.8859172794201005
4838000000.0 0.4961158991316178 -0.9180578556670941
4841000000.0 0.4432842161480446 -0.8886229627686055
4844000000.0 0.531143178472442 -0.9000776848679211
4847000000.0 0.5002025379079513 -0.8496250335652059
4850000000.0 0.48526104139653714 -0.9172257603965648
4853000000.0 0.50020965192741 -0.8770787798736812
4856000000.0 0.4814322708941702 -0.8738944920228127
4859000000.0 0.521449480890846 -0.9585895946303472
4862000000.0 0.49664685187634133 -0.881220090946191
4866000000.0 0.4878239793919038 -0.9259730883246158
4869000000.0 0.46651565965726066 -0.9109857840421337
4872000000.0 0.4766533037984308 -0.9241227873503253
4875000000.0 0.5701664630356416 -0.9180263536204879
4878000000.0 0.49964575494722674 -0.9085148823284485
4881000000.0 0.5036385890821731 -0.9700592507070457
4884000000.0 0.4972526281803608 -0.9027445036255788
4888000000.0 0.5130219100981497 -0.8828577821071023
4891000000.0 0.5057523684144254 -0.9256949139364505
4894000000.0 0.47731218755011573 -0.9139242927418838
4897000000.0 0.5009441621277237 -0.8802156010881534
4900000000.0 0.48880128358352426 -0.9184323841543358
4903000000.0 0.5029603582782508 -0.9144341678871574
4906000000.0 0.5279250688710978 -0.932883355601688
4909000000.0 0.4841215787122834 -0.9334313784770112
4912000000.0 0.48807137385112104 -0.9550703014175124
4916000000.0 0.511053169678586 -0.9379402077115543
4919000000.0 0.5301973408944953 -0.923389979587358
4922000000.0 0.5264635450246118 -0.8999992191863663
4925000000.0 0.5111980560095131 -0.9388961325286774
4928000000.0 0.5502756075293422 -0.8619887275260705
4931000000.0 0.5523115584708278 -0.8806042178201435
4934000000.0 0.46854391430516307 -0.8757051711953951
4938000000.0 0.4607212856558773 -0.9171897244877434
4941000000.0 0.4995409902790492 -0.8961227986038538
4944000000.0 0.47991405823015443 -0.8757796536530438
4947000000.0 0.48385181437122204 -0.8778247071368653
4950000000.0 0.4505677751820725 -0.8598668340774113
4953000000.0 0.47998398299610945 -0.9433756522479824
4956000000.0 0.4955680492845497 -0.9146125007773056
4959000000.0 0.43502475485168346 -0.889918472242445
4962000000.0 0.5450921307605389 -0.9113089326906717
4966000000.0 0.5321712145299023 -0.9063192077491454
4969000000.0 0.5453555594171724 -0.9428634373267699
4972000000.0 0.48885143633463835 -0.9225580709802147
4975000000.0 0.5448453207810992 -0.8861972367342419
4978000000.0 0.5031406615841192 -0.9257639484315865
4981000000.0 0.5292848607134257 -0.9342792156247716
4984000000.0 0.4837919454552827 -0.8679558682095632
4988000000.0 0.5079307595111846 -0.8897637130931337
4991000000.0 0.5532907842116366 -0.8858000554806982
4994000000.0 0.5316657312061784 -0.9045472428521912
4997000000.0 0.46728121369329645 -0.9192937676567129
5000000000.0 0.5447914848634892 -0.9404617577149595
5003000000.0 0.5427079036840423 -0.9144919995866743
5006000000.0 0.5371351406328548 -0.9446463172970339
5009000000.0 0.5184959767278566 -0.8927859362593449
5012000000.0 0.4969547771859712 -0.9204463117504637
5016000000.0 0.5561768911843217 -0.9143480387611813
5019000000.0 0.5031058976382581 -0.9074310790105713
5022000000.0 0.5085974994517435 -0.9394116259268592
5025000000.0 0.5328111720972071 -0.9630042486704484
5028000000.0 0.4998887993832583 -0.9113118298960303
5031000000.0 0.5044169880416788 -0.8858847804416013
5034000000.0 0.4975209772764096 -0.9594433617944937
5038000000.0 0.5043588085351633 -0.8814956706671614
5041000000.0 0.5555807260927872 -0.9007846647824791
5044000000.0 0.5565737461467796 -0.8230285655114467
5047000000.0 0.5306648844336144 -0.9119899984177489
5050000000.0 0.5780812583261803 -0.8563892090697809
5053000000.0 0.5121827992360964 -0.9577546510227517
5056000000.0 0.5671383744797486 -0.9099904227950033
5059000000.0 0.6053476676041396 -0.8844722377532355
5062000000.0 0.4863846841536278 -0.929119618608916
5066000000.0 0.5588454985163522 -0.8854063900372522
5069000000.0 0.5207659955415694 -0.9018566090039781
5072000000.0 0.5131841088807945 -0.8974930793394029
5075000000.0 0.5284648376704395 -0.9055293676751244
5078000000.0 0.5061907556498326 -0.9344064401151408
5081000000.0 0.49076613563793786 -0.8904660988823696
5084000000.0 0.5311039539768356 -0.9440272657246009
5088000000.0 0.5246595358730335 -0.8817687963312019
5091000000.0 0.49325244352914693 -0.9444274967678727
5094000000.0 0.5265116698402785 -0.9125742087493869
5097000000.0 0.5740056339019309 -0.86618415518422
5100000000.0 0.5571824542618036 -0.8472710028001513
5103000000.0 0.47937059988772845 -0.889122177470127
5106000000.0 0.5320286172111918 -0.9022832085460368
5109000000.0 0.568086182635522 -0.8479485707984418
5112000000.0 0.49978726895479264 -0.8953256651350483
5116000000.0 0.5369669740059835 -0.847713566212511
5119000000.0 0.5176909474592535 -0.952867490524085
5122000000.0 0.5122776992278817 -0.8915733339423197
5125000000.0 0.5444817508058171 -0.8615146729602425
5128000000.0 0.5233851813764935 -0.8863493740960273
5131000000.0 0.5189228138061106 -0.8597802188191586
5134000000.0 0.5191092724638001 -0.8791068733359393
5138000000.0 0.5769213952466451 -0.9059845548545661
5141000000.0 0.5797617912892155 -0.8359663395607567
5144000000.0 0.5444877632121581 -0.883040781464248
5147000000.0 0.5241519743928005 -0.8692575698564576
5150000000.0 0.5860584229097228 -0.913498410658466
5153000000.0 0.5467111354355552 -0.9078073896730314
5156000000.0 0.5903448563890599 -0.8922773341032977
5159000000.0 0.5775355153140286 -0.8835481935094844
5162000000.0 0.5495853860465553 -0.9081901551426546
5166000000.0 0.5384972785769762 -0.9331208467523702
5169000000.0 0.5697208968771312 -0.9012654939740092
5172000000.0 0.5807842941851332 -0.8930867371970463
5175000000.0 0.5514509100471641 -0.9116129627482727
5178000000.0 0.528571068849262 -0.9261754498244519
