! Created with skrf 1.8.0 (http://scikit-rf.org).
# Hz S RI R 50.0 
!freq ReS11 ImS11
4000000000.0 0.28447382462431303 -0.9868558207120883
4003000000.0 0.30555802432445595 -0.99068854786288
4006000000.0 0.29489158390854375 -0.9648203269524106
4009000000.0000005 0.34302315760220636 -1.0020395014280976
4011999999.9999995 0.35062036811313285 -0.9999026122568762
4016000000.0 0.31360579526021604 -1.0193586920445283
4019000000.0 0.3324996209006966 -0.9770712541700314
4022000000.0000005 0.3677108584065522 -0.9641689194577363
4025000000.0000005 0.26607533826668134 -1.0096280886461726
4027999999.9999995 0.2892799528967408 -0.9909533387156666
4030999999.9999995 0.3045942279811112 -0.9466845766608889
4034000000.0 0.29768549617582984 -0.9514545081524
4038000000.0000005 0.30612223168390273 -1.0137364929961312
4041000000.0000005 0.2969823044802792 -0.9806064747291687
4043999999.9999995 0.3240630589404545 -1.009651753562398
4046999999.9999995 0.36679089616184946 -0.9879191883828058
4050000000.0 0.30095178700837877 -0.9787757923961179
4053000000.0 0.29914820783134116 -0.9686719188304171
4056000000.0 0.31939788180705014 -0.9737440777062846
4059000000.0 0.3029126078567789 -0.9537103502959803
4062000000.0000005 0.30665373303064714 -0.962705582520686
4066000000.0 0.29748676258428014 -0.9168071860883853
4069000000.0 0.2833055579944459 -1.0199491380052506
4072000000.0 0.31132466563672934 -1.0138490765571764
4075000000.0 0.34866565000188504 -0.9834849729493308
4078000000.0000005 0.3041779285712809 -1.0199266842813064
4081000000.0000005 0.3340992442134813 -1.0048598374083253
4083999999.9999995 0.30723952033839097 -1.0254293220928323
4088000000.0 0.3329146281740052 -0.9512946583411341
4091000000.0 0.3144241377687013 -1.0221031746923306
4094000000.0000005 0.30456700938231107 -0.9549109375577731
4097000000.0000005 0.3013037942820185 -1.0199727027531986
4099999999.9999995 0.3072379202499683 -0.9914007323338535
4102999999.9999995 0.3269161893148425 -0.9943108054430722
4106000000.0 0.2634068072002069 -1.0115198348958099
4109000000.0 0.29055201157708743 -1.0025836372401944
4112000000.0 0.2662173674692831 -0.9776395826416906
4115999999.9999995 0.27254344345216763 -0.9700879399305388
4119000000.0 0.2974086934618109 -0.9800906925310254
4122000000.0 0.26864738978220665 -1.0042406147720289
4125000000.0 0.2773402988310156 -0.9836707251503197
4128000000.0 0.294357262021654 -0.9786101164473374
4131000000.0 0.26593914002628904 -0.9607264258346833
4134000000.0000005 0.2923874557571041 -0.96444087235306
4138000000.0 0.24943245794647434 -0.9849577030420241
4141000000.0 0.28298511137689336 -0.9587149269854827
4144000000.0 0.2774080840845102 -1.0109128211286518
4147000000.0000005 0.2665940433745219 -1.0044024115744392
4150000000.0000005 0.26281334755840047 -1.0138790464196006
4152999999.9999995 0.30435248525413844 -0.9657451924721014
4155999999.9999995 0.30366035745015163 -1.0197796624759534
4159000000.0 0.2527192012483856 -0.9405773144955605
4162000000.0 0.2835676886235149 -1.004056666475751
4166000000.0000005 0.27071127157959174 -0.9969401224402825
4168999999.9999995 0.2565681448597811 -0.9561584077585693
4171999999.9999995 0.2869181564611044 -0.9996555485225882
4175000000.0 0.2759684910003153 -1.0162773896169146
4178000000.0 0.28240585665036577 -0.9880742001323549
4181000000.0 0.23824254757688298 -0.9697617695746408
4184000000.0 0.25702876800716346 -0.9748115399100251
4187999999.9999995 0.24888566498429351 -0.9981350584175415
4191000000.0 0.29024452786763494 -0.9684305423037564
4194000000.0 0.24515960685531812 -0.9813789582043713
4197000000.0 0.26751548284335697 -0.988973907265856
4200000000.0 0.2763469944118461 -0.9863090670111094
4203000000.0000005 0.2737927073550383 -0.9928314371436847
4206000000.0000005 0.2580905149207247 -0.998936256611647
4208999999.9999995 0.24234308211053973 -0.9801021861745278
4211999999.9999995 0.22446281717356006 -1.0006122720337673
4216000000.0 0.2646806007753447 -0.9991783409859195
4219000000.0000005 0.2542168668198512 -0.9937049527893985
4222000000.0000005 0.24656102285651257 -0.9890443516995453
4224999999.9999995 0.25441063871597797 -0.9843640046355723
4227999999.9999995 0.2336762657366271 -0.9812386051319734
4231000000.0 0.20655691743858076 -1.0008503558625654
4234000000.0 0.21669464664782545 -1.0029441282950582
4238000000.0000005 0.22668735430260967 -0.9901894616963869
4240999999.9999995 0.21327948464425894 -0.9796822664358942
4244000000.0 0.23456899176391752 -0.983836858338383
4247000000.0 0.2210558213460737 -0.9736320671702263
4250000000.0 0.22721174956436527 -0.9643275815484511
4253000000.0 0.20749591564906958 -0.9690228971568352
4256000000.0 0.23909162934935285 -1.032354582528295
4259000000.0000005 0.20066273661253098 -0.9598380771787556
4261999999.9999995 0.18919159575421782 -0.9906658650739808
4266000000.0 0.1861159718167416 -1.0126437453789838
4269000000.0 0.21918575265520943 -0.9856687930161934
4272000000.0000005 0.21492193603734142 -0.985033583852124
4275000000.0000005 0.22823296162654938 -0.9985436394229925
4277999999.9999995 0.23282584757124963 -1.0263083531230062
4280999999.9999995 0.21900841522706724 -1.0027768421294354
4284000000.0 0.1635668078550122 -1.0052338033686146
4288000000.0000005 0.21720281773952324 -0.9800796043883839
4291000000.0000005 0.18824903904340237 -0.9891840353551157
4293999999.9999995 0.19022069935962765 -0.9826508088161183
4297000000.0 0.2075212970959781 -0.9724023131292779
4300000000.0 0.2191211848472562 -0.9620591632436838
4303000000.0 0.18391809180526786 -0.9838239459348033
4306000000.0 0.20540232535885095 -1.0004653487108188
4309000000.0 0.17617142441954797 -1.0123363419750868
4312000000.0 0.23972970743585384 -1.007738583191845
4316000000.0 0.2258736022804317 -0.998856759802657
4319000000.0 0.1991581152167956 -0.9721085744868189
4322000000.0 0.1675235126952458 -0.973365422163759
4325000000.0 0.17642270962525336 -0.983783645047895
4328000000.0 0.18675673297411205 -0.9735991987780255
4331000000.0 0.14946043848471902 -1.001826943346913
4334000000.0 0.16935148232008002 -0.9982528909007483
4338000000.0 0.18956755133540587 -0.9891467152015044
4341000000.0 0.19265457852671958 -0.9924037330502558
4344000000.0 0.17243191979996086 -1.0111745401325791
4347000000.0 0.13765681546417474 -1.0144639691126818
4350000000.0 0.14999198862642743 -0.9734318605962288
4353000000.0 0.16678698895198646 -0.9713088828801841
4356000000.0 0.12129462839550897 -0.9845669714046059
4359000000.0 0.14518725855037623 -0.9479680231701655
4362000000.0 0.08454896942076923 -1.0254466227614576
4366000000.0 0.1648212974194998 -1.0065628113722234
4369000000.0 0.13604402063320775 -0.9673558080786783
4372000000.0 0.09559459311610796 -1.005330656486842
4375000000.0 0.1694465187822089 -1.0036645558868624
4378000000.0 0.13553367624490564 -0.9816994476709554
4381000000.0 0.13701116860360374 -0.9734968715068208
4384000000.0 0.1410465784754421 -1.0671754839693388
4388000000.0 0.13866931656407316 -0.9929700045700631
4391000000.0 0.12504480256759037 -1.0084206734187267
4394000000.0 0.10623733681940123 -0.9798448572660354
4397000000.0 0.10753700549499545 -1.001854438377554
4400000000.0 0.11298007841247443 -1.0308323265755144
4403000000.0 0.10936337055881834 -1.0127773339292632
4406000000.0 0.08788451129126523 -1.0163587985108677
4409000000.0 0.10158860368523687 -1.0268821701035098
4412000000.0 0.048580205716987734 -1.0029314381620236
4416000000.0 0.08622673660366192 -0.9952166014255686
4419000000.0 0.08197891526371248 -1.0162924432423464
4422000000.0 0.11182645416177517 -1.0062279382341957
4425000000.0 0.10882172096568021 -1.023322318535914
4428000000.0 0.07602549372720202 -1.0160754087995902
4431000000.0 0.08947625733146958 -1.020798096866704
4434000000.0 0.07707215063478678 -0.9944366050839524
4438000000.0 0.0875749996774931 -1.0308005658653547
4441000000.0 0.08989566704331409 -1.0321194864621615
4444000000.0 0.07457635526690382 -1.0064941475266083
4447000000.0 0.05015617123219923 -1.0016519554447716
4450000000.0 0.0630965570986533 -0.999799116150978
4453000000.0 0.07956661322147535 -1.0126359875596709
4456000000.0 0.038099813473829736 -0.9868738822586605
4459000000.0 0.05105886312598401 -0.9865331061614651
4462000000.0 0.059583013560276565 -1.0463199269275645
4466000000.0 0.06549233734993709 -1.0436870469639556
4469000000.0 0.0643077048287079 -1.0103249522549638
4472000000.0 0.044375731154640496 -1.0250851544266175
4475000000.0 0.04779601910241049 -0.9840791996120442
4478000000.0 0.02394884225713001 -1.0363008925952522
4481000000.0 0.015257751203394232 -0.9918028268967433
4484000000.0 -0.03084251999785398 -1.0155412036601636
4488000000.0 0.009087505086104564 -1.0126999955015736
4491000000.0 0.04557767507644711 -1.020072275543598
4494000000.0 0.02706108127555812 -0.9912993364709087
4497000000.0 0.039661096833796594 -1.0056807904297063
4500000000.0 0.009122064888471004 -1.0367917482853886
4503000000.0 -0.0023606108173692686 -1.0109157438171383
4506000000.0 0.00204608547378754 -1.0150910210443356
4509000000.0 0.0023718969661579714 -0.9889870112003404
4512000000.0 -0.017934960042862824 -0.999831781056473
4516000000.0 -0.009656897716139534 -1.0245494113351437
4519000000.0 -0.0034236767042658545 -0.9981205878800629
4522000000.0 -0.018781620298145896 -1.027614860904224
4525000000.0 -0.017319623232398773 -1.0206665809475461
4528000000.0 -0.017970249599344124 -1.0338068292722267
4531000000.0 -0.006567915018517001 -1.0134452679428874
4534000000.0 -0.032852399449110725 -0.9933586882498063
4538000000.0 -0.015170820833316001 -1.016511634052986
4541000000.0 -0.05362924127292268 -0.9934826026576664
4544000000.0 -0.04405784755997888 -1.030433424334201
4547000000.0 -0.035152431799736594 -1.0042613541035095
4550000000.0 -0.026242046421391496 -1.0288567323161835
4553000000.0 -0.047268427240820254 -1.0140618882667953
4556000000.0 -0.06104417038942733 -1.0091579141756482
4559000000.0 -0.055195471456106704 -1.0181740143366864
4562000000.0 -0.04260312900549412 -1.006258150288566
4566000000.0 -0.07049806187653496 -1.020020954253383
4569000000.0 -0.06751195387715836 -1.0241741106360136
4572000000.0 -0.06808259720827714 -1.006898541637202
4575000000.0 -0.08003851560710379 -0.9990814546562441
4578000000.0 -0.07345276114798271 -1.0115387504163493
4581000000.0 -0.08432294667713497 -0.9978086227891225
4584000000.0 -0.0871474771632888 -1.0005283652319066
4588000000.0 -0.10199332506309744 -1.017746899607987
4591000000.0 -0.10107723043768999 -1.0154577675617245
4594000000.0 -0.10862844185988654 -0.9975145121549314
4597000000.0 -0.11275065594477102 -1.0195243433388406
4600000000.0 -0.10315786571375116 -1.0231400292166974
4603000000.0 -0.11144099970803709 -1.0145672595863504
4606000000.0 -0.11542174136614669 -1.0287380065002238
4609000000.0 -0.10885301183338361 -1.0169491470640004
4612000000.0 -0.1130964784976162 -0.9860521841526587
4616000000.0 -0.12422020754307933 -0.988597556540982
4619000000.0 -0.1330161281940222 -1.0118062979109086
4622000000.0 -0.18323329317971582 -1.0077389195305406
4625000000.0 -0.17022932664583315 -1.0159372096339394
4628000000.0 -0.15010809378094897 -1.0452628034636609
4631000000.0 -0.1502372380123811 -1.0284014202833411
4634000000.0 -0.1654857852934281 -1.020348412589628
4638000000.0 -0.16064239273780512 -1.019161923546408
4641000000.0 -0.1767788415820291 -1.0012645667970503
4644000000.0 -0.17658869463425855 -1.0285508781690595
4647000000.0 -0.17140553340340003 -0.985665795853077
4650000000.0 -0.19376297594599376 -0.9792338600085126
4653000000.0 -0.18575238305018907 -0.9805849811205397
4656000000.0 -0.190945249722089 -1.018092826375927
4659000000.0 -0.21702720593658026 -1.0233895817638572
4662000000.0 -0.22767588479598588 -1.0110593113918056
4666000000.0 -0.24936981321888013 -0.9936343623889502
4669000000.0 -0.21359181326629423 -0.9944456126359478
4672000000.0 -0.22993410618447613 -1.0162469269415912
4675000000.0 -0.2241223773274701 -1.0378419352001496
4678000000.0 -0.22138000073065944 -0.9657443679572077
4681000000.0 -0.253729698106449 -1.0216062629288531
4684000000.0 -0.2897724980896301 -1.0315905158933003
4688000000.0 -0.29390803918735675 -0.9921128831808224
4691000000.0 -0.22509943450772762 -1.0276622759640266
4694000000.0 -0.19004193194395502 -0.9720273197228314
4697000000.0 -0.271642280671962 -0.8975276839244922
4700000000.0 -0.2465500305963824 -1.0073005377115747
4703000000.0 -0.1728307846538134 -0.9383321400465411
4706000000.0 -0.2911247576121398 -0.9478825581123389
4709000000.0 -0.2626230046254011 -0.9829220832273311
4712000000.0 -0.24603441049353872 -1.0044334046606611
4716000000.0 -0.2858327948400373 -0.9852651847212847
4719000000.0 -0.21451353025177283 -1.0386447972534558
4722000000.0 -0.2754784411602507 -0.9850094093303742
4725000000.0 -0.32594147193882617 -0.9781182130832461
4728000000.0 -0.3437525551453319 -0.9755759247728282
4731000000.0 -0.2992611186772889 -1.0394124015169792
4734000000.0 -0.30483051623356305 -0.974546931366047
4738000000.0 -0.3084420695216088 -1.0646620965091806
4741000000.0 -0.3312824229797074 -1.0056272156098598
4744000000.0 -0.3240033959993308 -0.9045486968407067
4747000000.0 -0.28281795112145797 -0.9361104929602525
4750000000.0 -0.3465670206607864 -1.0192551086123447
4753000000.0 -0.29837815612481455 -0.9864134397385301
4756000000.0 -0.3190747837811551 -0.9759746624554303
4759000000.0 -0.3615726805958216 -0.9972721862179703
4762000000.0 -0.40559740068195366 -0.9660927034588661
4766000000.0 -0.3631574445883542 -0.9469081465502155
4769000000.0 -0.39713805484693465 -0.950921791299572
4772000000.0 -0.3677494489943671 -0.9662351610273939
4775000000.0 -0.44643770599734156 -1.0006067705672874
4778000000.0 -0.44967339947629026 -0.9257784332261362
4781000000.0 -0.3885672154480858 -0.9354403790843262
4784000000.0 -0.4048790017772361 -0.9309947364105509
4788000000.0 -0.4638960136706044 -0.9693612405228061
4791000000.0 -0.40697909362742324 -0.9161730864110759
4794000000.0 -0.4062014968223517 -1.0168686899978887
4797000000.0 -0.42141812611240304 -0.9348898805238373
4800000000.0 -0.4341949821285195 -0.9101100901684618
4803000000.0 -0.48528925153828373 -0.9053221310147215
4806000000.0 -0.4564842319482464 -0.9512073944373662
4809000000.0 -0.5196090799016027 -0.8948576164054761
4812000000.0 -0.4947318616032266 -0.8816679918734256
4816000000.0 -0.41611872170063624 -0.932738104065377
4819000000.0 -0.46077776157218914 -0.9471708532173602
4822000000.0 -0.47896719106804586 -0.9808878730517745
4825000000.0 -0.43105048022746806 -0.9538239667790122
4828000000.0 -0.5021840092786835 -0.8907121278279374
4831000000.0 -0.5286371793179305 -0.9372404137226197
4834000000.0 -0.4843994983735195 -0.906936821321852
4838000000.0 -0.5346034365251948 -0.9202739816125844
4841000000.0 -0.5152999074104456 -0.8691747201762434
4844000000.0 -0.527685668816493 -0.9096184968851875
4847000000.0 -0.49334469884600296 -0.8858762717848867
4850000000.0 -0.5793093324733061 -0.8687974665181594
4853000000.0 -0.5398104763929692 -0.8560527726606924
4856000000.0 -0.570362373514381 -0.8759114243275825
4859000000.0 -0.5940765958953351 -0.8916959460500662
4862000000.0 -0.49956178004920015 -0.8655582421290293
4866000000.0 -0.6054666653968648 -0.8449393506347047
4869000000.0 -0.5975102282736324 -0.8564676458238918
4872000000.0 -0.6072072686092049 -0.8777244599234708
4875000000.0 -0.5799004599821564 -0.94699137185982
4878000000.0 -0.618294298674636 -0.8813246679600337
4881000000.0 -0.6762561195170045 -0.862636283086579
4884000000.0 -0.5932710065984397 -0.8430237552608155
4888000000.0 -0.6225057830880955 -0.8244979678914648
4891000000.0 -0.6495218981567238 -0.8027534512366302
4894000000.0 -0.6554218590129388 -0.8413116896809278
4897000000.0 -0.6636899383802981 -0.8262954586728154
4900000000.0 -0.668506356176741 -0.8121729728592335
4903000000.0 -0.6974806815240511 -0.7964391521854317
4906000000.0 -0.6446512506666828 -0.8200109594543239
4909000000.0 -0.6633876778649697 -0.781927561765116
4912000000.0 -0.7347699247926356 -0.7229595931576506
4916000000.0 -0.7157346883831792 -0.7865535233189236
4919000000.0 -0.737050439201524 -0.7940327941547449
4922000000.0 -0.732009169814655 -0.7557884296415263
4925000000.0 -0.7365789245259815 -0.7098097373986347
4928000000.0 -0.7164015943206512 -0.76757537263013
4931000000.0 -0.7109499381772528 -0.7193082039430143
4934000000.0 -0.7292006542784732 -0.7266873459597186
4938000000.0 -0.7765410061279613 -0.718256667462623
4941000000.0 -0.7825678822728277 -0.6966662839774735
4944000000.0 -0.8016752888374192 -0.7096644660703809
4947000000.0 -0.7767896321808755 -0.7126972132558494
4950000000.0 -0.7727070323388446 -0.6894349399053347
4953000000.0 -0.7920015454236857 -0.6477995430204572
4956000000.0 -0.8156094922539767 -0.6801432956874807
4959000000.0 -0.8442090460021282 -0.6195889290434532
4962000000.0 -0.8533777567803011 -0.6291465604464697
4966000000.0 -0.8325244969061787 -0.6098034652809404
4969000000.0 -0.8382657504474181 -0.6085907702297885
4972000000.0 -0.8198346987046372 -0.5830905343054353
4975000000.0 -0.8707201106463094 -0.5545916745488305
4978000000.0 -0.879180400670951 -0.5503500718232682
4981000000.0 -0.8616994421029324 -0.5600323353598249
4984000000.0 -0.8801031885337166 -0.5277217547124007
4988000000.0 -0.92365568064861 -0.5424436709751755
4991000000.0 -0.9260482895242619 -0.5409621161974051
4994000000.0 -0.8988107964061477 -0.47967156357574114
4997000000.0 -0.927207995801762 -0.47792593686425433
5000000000.0 -0.9270730108576298 -0.4442843427172287
5003000000.0 -0.9122459559941469 -0.44008545755965034
5006000000.0 -0.922036841630552 -0.40906715933218196
5009000000.0 -0.9726698447999849 -0.39920530120803593
5012000000.0 -0.9820767293341035 -0.4044856691083177
5016000000.0 -0.9441298054030908 -0.4078846104094551
5019000000.0 -0.963527191182245 -0.38345932902786894
5022000000.0 -0.9956797578923005 -0.3596759712145109
5025000000.0 -0.939725202840114 -0.32136145214015205
5028000000.0 -0.978709976876381 -0.33104407613516273
5031000000.0 -0.9808378941822072 -0.2602465438648334
5034000000.0 -0.9875594227691815 -0.29170454688088737
5038000000.0 -1.0095854190686768 -0.29391861663124597
5041000000.0 -0.9862063985499989 -0.2286853271429845
5044000000.0 -0.9561240636376964 -0.23840927046221327
5047000000.0 -1.015041176128159 -0.16514503090139443
5050000000.0 -1.0315806882730123 -0.1995160449495244
5053000000.0 -0.9709012543493903 -0.16545135508778203
5056000000.0 -0.9810265663670235 -0.10354829529689602
5059000000.0 -1.0137961115893128 -0.03825833113417121
5062000000.0 -1.000924277809864 -0.08485627175881622
5066000000.0 -1.1042853005347806 -0.01387963708758444
5069000000.0 -1.0229557375827867 -0.06964606710228816
5072000000.0 -1.110115429268065 -0.09563613118577086
5075000000.0 -0.9850758771162376 -0.030648734777869002
5078000000.0 -1.003419903995649 -0.046209912734188285
5081000000.0 -1.0320884543834048 0.01998325822336916
5084000000.0 -0.9467539766584979 0.115042463662616
5088000000.0 -1.030847670431446 0.10740082757408631
5091000000.0 -0.9647131229123028 0.06623168502840537
5094000000.0 -0.934302781926741 0.14029850545008704
5097000000.0 -0.9341726073084938 0.14799425954582252
5100000000.0 -1.0243735274620238 0.19003981453758428
5103000000.0 -1.0031645764883295 0.27025232811159966
5106000000.0 -0.8942397777393969 0.25096335635900335
5109000000.0 -0.9799200587534219 0.26256500612688605
5112000000.0 -0.999676806360565 0.33654256796975446
5116000000.0 -1.012168814133051 0.30748529730963015
5119000000.0 -0.9078408862952396 0.40012134900994
5122000000.0 -0.905199620293302 0.42672819838246107
5125000000.0 -0.9257761612900677 0.3367957383422933
5128000000.0 -0.9357458532657525 0.3997652050105037
5131000000.0 -0.9677071178142135 0.47933614115789874
5134000000.0 -0.8419259363427696 0.49282794331745294
5138000000.0 -0.8860915992391385 0.4520071305223958
5141000000.0 -0.9486578767312095 0.5356002729021354
5144000000.0 -0.809626345027719 0.5705114135283059
5147000000.0 -0.8519908013600919 0.5342274285890505
5150000000.0 -0.8349914392092346 0.6106974365393288
5153000000.0 -0.8829570232271637 0.6266465580742686
