! Created with skrf 1.8.0 (http://scikit-rf.org).
# Hz S RI R 50.0 
!freq ReS11 ImS11
4000000000.0 0.3559161945625119 -0.9171335600185991
4003000000.0 0.39483047359696505 -0.9815566754487282
4006000000.0 0.37621759482280276 -1.0032428845827197
4009000000.0000005 0.3594469740735926 -0.9298175571662814
4011999999.9999995 0.4521453343562517 -1.0083628276016778
4016000000.0 0.3901567976581507 -0.9483608523046384
4019000000.0 0.4357472522925552 -0.9544060413692523
4022000000.0000005 0.4448104935615339 -0.9630594168661162
4025000000.0000005 0.39832984460044507 -0.9689250267450622
4027999999.9999995 0.37097405403795625 -0.9366683098419593
4030999999.9999995 0.3955329674870114 -0.9318503206372933
4034000000.0 0.3807956927351339 -0.9279553758612245
4038000000.0000005 0.3609880307796525 -0.9656259948584953
4041000000.0000005 0.36872632105984704 -0.9464834642689387
4043999999.9999995 0.41768075885702366 -1.0176948867566527
4046999999.9999995 0.383268306199264 -0.9467918698543497
4050000000.0 0.3730382291022328 -0.9796671776138011
4053000000.0 0.35596029765154485 -0.9111806465576866
4056000000.0 0.38607455327422924 -0.9484332854266261
4059000000.0 0.3820486605079766 -0.9356551638751381
4062000000.0000005 0.36634513920075507 -0.980781430790336
4066000000.0 0.3713704214043233 -0.8868436172503664
4069000000.0 0.3467462561881987 -1.0012185907034097
4072000000.0 0.4095234232023499 -0.9680285299743214
4075000000.0 0.36329668119691383 -0.9766952876113453
4078000000.0000005 0.37221566554245905 -0.9588104030983851
4081000000.0000005 0.42071861775357056 -0.9776583724501152
4083999999.9999995 0.33330378802293664 -0.9767990679362442
4088000000.0 0.42910307778386275 -0.9291371165499187
4091000000.0 0.4013604432362846 -0.992200893883892
4094000000.0000005 0.35821687328515484 -0.9496581406721222
4097000000.0000005 0.3501300405384435 -0.9434572293619775
4099999999.9999995 0.364097834062715 -0.94498302215134
4102999999.9999995 0.3957325048874927 -0.9624580692749111
4106000000.0 0.3393440855633941 -0.9745720270201785
4109000000.0 0.35302514706179977 -0.9569520865576521
4112000000.0 0.3366819993200293 -0.976751485292299
4115999999.9999995 0.35815900364664927 -0.9384173386410498
4119000000.0 0.3614637114323095 -0.9776090137205964
4122000000.0 0.3505082567164567 -0.9686491942718346
4125000000.0 0.3558191032749178 -0.9709759340959316
4128000000.0 0.3516679262555029 -0.9062772271576094
4131000000.0 0.3285696224846731 -0.9711940087953499
4134000000.0000005 0.37921399477549794 -0.96092152312059
4138000000.0 0.34413636357668426 -0.9263324931596625
4141000000.0 0.38168675079015935 -0.9345835960530098
4144000000.0 0.3547665396777585 -0.9372662793123945
4147000000.0000005 0.357960771562413 -0.9571268259366528
4150000000.0000005 0.389359579725968 -0.9843103983685413
4152999999.9999995 0.3722914654631331 -0.9565927211976951
4155999999.9999995 0.3983032854770813 -0.9583710418758424
4159000000.0 0.37575279374549725 -0.9002815878556634
4162000000.0 0.3594662126111946 -0.9352512713533667
4166000000.0000005 0.34967880621446656 -0.9841339195081942
4168999999.9999995 0.32556741295101305 -0.9634859042996184
4171999999.9999995 0.35613935023866317 -0.9610431372319903
4175000000.0 0.3600145992767081 -0.9727280448116811
4178000000.0 0.3902508536480862 -0.9539946189408568
4181000000.0 0.33390314475231375 -0.9788276699944599
4184000000.0 0.3458869258839784 -0.9374327969200125
4187999999.9999995 0.3432571118334182 -0.9475871773383406
4191000000.0 0.36630216918549297 -0.9313422487153278
4194000000.0 0.326704658523652 -0.9504839677842919
4197000000.0 0.3418655105896528 -0.9724903638714629
4200000000.0 0.3677803711147731 -0.9515134582786225
4203000000.0000005 0.3563908597450652 -0.967221001121882
4206000000.0000005 0.3473878466143191 -0.9654220107286723
4208999999.9999995 0.34373877375454076 -0.9498749807940498
4211999999.9999995 0.3050956033281847 -0.9803451197873372
4216000000.0 0.3569844354176212 -0.9690204307278839
4219000000.0000005 0.35471753969118597 -0.9753062430467915
4222000000.0000005 0.3269309293459162 -0.9478466053932412
4224999999.9999995 0.3414646420165435 -0.9453249700401262
4227999999.9999995 0.33695239595028165 -0.9685032829238062
4231000000.0 0.3289590848498979 -0.9632387003572702
4234000000.0 0.3065958554842132 -0.9484104704357325
4238000000.0000005 0.32686033044658935 -0.9687910190862093
4240999999.9999995 0.30831896221573835 -0.9579291436228157
4244000000.0 0.34361108624133413 -0.9579715089658434
4247000000.0 0.3146087914818032 -0.9545876315515469
4250000000.0 0.32165065960464373 -0.942664547716551
4253000000.0 0.3259342390382527 -0.9287153212852272
4256000000.0 0.32947240849088777 -0.9850684081506427
4259000000.0000005 0.29718410140026297 -0.912204861982868
4261999999.9999995 0.3063181762305888 -0.9618433366384325
4266000000.0 0.2742024966610493 -0.9888761437547813
4269000000.0 0.3329803417637038 -0.9527990382044367
4272000000.0000005 0.32202257268450407 -0.9648903483290922
4275000000.0000005 0.3102463855585543 -0.9567047185602748
4277999999.9999995 0.3095266251666723 -0.979935998325236
4280999999.9999995 0.33210153357662386 -0.9738090641314883
4284000000.0 0.2949938385400084 -0.973374353363531
4288000000.0000005 0.34844047245412124 -0.9297765236335446
4291000000.0000005 0.28704026751482925 -0.9449175274240321
4293999999.9999995 0.2993214040864885 -0.9486689429440769
4297000000.0 0.3289206592158321 -0.9547671288849612
4300000000.0 0.32423297325805694 -0.9498005616706444
4303000000.0 0.30815116117695884 -0.9479043799730107
4306000000.0 0.3211490912232826 -0.9506029880327521
4309000000.0 0.30883906819858775 -0.9448141741102285
4312000000.0 0.37510794603182396 -0.96145331057637
4316000000.0 0.3076496653607643 -0.9504300572993436
4319000000.0 0.2912002864659187 -0.9434278810105718
4322000000.0 0.263140383428239 -0.9496711931341787
4325000000.0 0.2927101316161321 -0.9434338130785189
4328000000.0 0.29473415680912796 -0.9573654878732857
4331000000.0 0.2584537548002531 -0.9837075502198211
4334000000.0 0.29919052251870704 -0.9712153491626108
4338000000.0 0.3360125745444197 -0.9615571465770265
4341000000.0 0.3207833093999538 -0.99128101600436
4344000000.0 0.31990772843146653 -0.9890658985499612
4347000000.0 0.28081898208190903 -0.9863608825277586
4350000000.0 0.27471724514579265 -0.9406753880898184
4353000000.0 0.3094603737664444 -0.9453006096913644
4356000000.0 0.2631860014446009 -0.9630904045180712
4359000000.0 0.26372555474085885 -0.9272756128148701
4362000000.0 0.24899703652869853 -0.9736737323201462
4366000000.0 0.29700843183089254 -0.9842448354166424
4369000000.0 0.2714006755324492 -0.9349995157169406
4372000000.0 0.23779291121253948 -0.9711912748702501
4375000000.0 0.2838617574823938 -0.9616888550950828
4378000000.0 0.25237177190427773 -0.9490871690636549
4381000000.0 0.2711239385241463 -0.939402005399987
4384000000.0 0.2753180732369128 -1.0326945866146617
4388000000.0 0.2736501205066342 -0.95291929800448
4391000000.0 0.267746576848228 -0.9874787928414823
4394000000.0 0.23891664013361064 -0.9625621525623047
4397000000.0 0.24544771735224047 -0.9752893629953023
4400000000.0 0.25653515931372545 -0.9809453119118612
4403000000.0 0.2635155254836188 -0.982985099221455
4406000000.0 0.24197435840400588 -0.9865846973151438
4409000000.0 0.2581007348477189 -1.0153954839889046
4412000000.0 0.18372948438974973 -0.9858330857845541
4416000000.0 0.23438216687132052 -0.9647857427789515
4419000000.0 0.23746842470052065 -0.9884057008407581
4422000000.0 0.25284900827465895 -0.9768374923005689
4425000000.0 0.27508689699109806 -0.9879816005661397
4428000000.0 0.2349523873052306 -0.9740062705946999
4431000000.0 0.2472708820859016 -0.9857193175346524
4434000000.0 0.23634068400917269 -0.9819101418321099
4438000000.0 0.25126944437027404 -1.0034716144021447
4441000000.0 0.23588217492724062 -0.9927748496571883
4444000000.0 0.23720747557143657 -0.9637269154138524
4447000000.0 0.21204947728920492 -0.972852511873375
4450000000.0 0.2334946241269638 -0.9722409099212903
4453000000.0 0.2519086001368712 -0.9945426710905834
4456000000.0 0.21725395765583722 -0.9670140121737438
4459000000.0 0.19344966585881584 -0.9505747510937325
4462000000.0 0.23353086605717116 -1.0349974946715765
4466000000.0 0.22828230611361305 -1.0177205462125667
4469000000.0 0.24202327800818846 -0.9772291793324028
4472000000.0 0.19462066687991153 -0.9968903463602539
4475000000.0 0.22660106193347518 -0.9638870904744452
4478000000.0 0.19979004800759959 -1.0068288365685456
4481000000.0 0.19863231810091025 -0.9590493731692566
4484000000.0 0.17214242260542745 -1.0135253028921678
4488000000.0 0.21048228522201007 -0.9692120722530075
4491000000.0 0.21214523266493068 -0.9965358897228143
4494000000.0 0.20732393653512804 -0.9745292711062352
4497000000.0 0.20352574806037882 -0.9770835419513272
4500000000.0 0.2084655031282901 -1.004173556480835
4503000000.0 0.222694133038001 -1.0156823117766067
4506000000.0 0.19223772922923865 -0.9864240674363851
4509000000.0 0.1850351946662554 -0.9774749977390877
4512000000.0 0.17730310269924965 -0.9719937960618141
4516000000.0 0.18581685821448585 -1.0279486789894425
4519000000.0 0.19855422190022498 -0.9716161807922499
4522000000.0 0.17536649011642502 -0.9752528650567006
4525000000.0 0.23441151911692665 -0.9734485554581993
4528000000.0 0.17657551437917307 -1.0074023688904041
4531000000.0 0.18137352091301445 -1.0066923117253312
4534000000.0 0.1775420106723083 -0.9853714430069938
4538000000.0 0.18498917665140396 -0.9856101931013691
4541000000.0 0.1484327952963569 -0.9756871391390669
4544000000.0 0.16919935956150223 -0.9881552452366018
4547000000.0 0.17004912757194712 -0.976136696170862
4550000000.0 0.15650661821393624 -1.0176365361653308
4553000000.0 0.13694938745873836 -0.9860805928245393
4556000000.0 0.1374134014373412 -1.0039140349508646
4559000000.0 0.15337161888203948 -0.9721011692737214
4562000000.0 0.14582668401458126 -1.0104170465694253
4566000000.0 0.17007499330743664 -1.0190423052112194
4569000000.0 0.1445620533541584 -1.00191828934064
4572000000.0 0.13797277096639216 -1.0095697050053904
4575000000.0 0.12964365303149905 -1.0018711240600942
4578000000.0 0.15702177729788253 -1.0207647669207405
4581000000.0 0.1458001159167286 -0.9957406365849317
4584000000.0 0.13981091372945348 -0.9973430109546826
4588000000.0 0.14363093955284117 -1.0120130912274639
4591000000.0 0.12588843958663987 -0.9981109740021188
4594000000.0 0.1061164190835579 -1.0014304904085745
4597000000.0 0.13501861195763376 -1.0157912544262475
4600000000.0 0.12145851241358108 -1.0115851865532228
4603000000.0 0.1131651108176302 -1.0103490516263596
4606000000.0 0.12764944263640388 -1.021994737250152
4609000000.0 0.1300477591062582 -0.9984126720591323
4612000000.0 0.11638677028286154 -1.0055582338731017
4616000000.0 0.11922022664397391 -0.99356989297183
4619000000.0 0.09079029409138434 -0.991952223130193
4622000000.0 0.09384907874672047 -1.0144013455416467
4625000000.0 0.07532476184310355 -1.0191245228326875
4628000000.0 0.12060273874898292 -1.051874892418435
4631000000.0 0.1291116339499154 -1.0216877904060488
4634000000.0 0.08721400449470085 -1.0091500346978672
4638000000.0 0.10882622179128126 -1.003028015998549
4641000000.0 0.10110501135054431 -0.9997932482311823
4644000000.0 0.09294022547397579 -1.0100497491345388
4647000000.0 0.09335513315277816 -1.0001500739138791
4650000000.0 0.07716245413030584 -1.0123165785529262
4653000000.0 0.08591278853594769 -1.0048526312555985
4656000000.0 0.08713558821557377 -1.0185529363732477
4659000000.0 0.07414748205859542 -1.0162120971783428
4662000000.0 0.07272568999922188 -1.0263492714104054
4666000000.0 0.027817087990108347 -1.0021956598997583
4669000000.0 0.06322500732332892 -1.0446129133786988
4672000000.0 0.0675259766258654 -1.0392693687850292
4675000000.0 0.055951792309840515 -1.037134414604807
4678000000.0 0.06557863794237513 -0.9859999340817366
4681000000.0 0.05022466192445582 -0.9973698742814144
4684000000.0 0.028567370523256877 -1.0393877825143394
4688000000.0 -0.0016600260289645202 -1.0027575249962322
4691000000.0 0.07902974130393264 -1.0611322538692411
4694000000.0 0.05322230797744029 -1.0034065986295702
4697000000.0 0.03785410124466569 -0.9647419280162324
4700000000.0 0.07191736842328325 -1.0224386496113813
4703000000.0 0.1268523008642497 -0.9586218365361467
4706000000.0 0.02113550254834492 -1.033618713414518
4709000000.0 0.04580185332186597 -1.0278747916210114
4712000000.0 0.052910080953019946 -1.0361424109756516
4716000000.0 0.045412686010958256 -1.0420071283751495
4719000000.0 0.07649306475248785 -1.0509456562969517
4722000000.0 0.06358410067585023 -1.0042535956822887
4725000000.0 0.06617533092504742 -1.0082208576764315
4728000000.0 0.0519903993793518 -1.0408099847285497
4731000000.0 0.028418945748038826 -1.0530440577669329
4734000000.0 0.030714990104743968 -1.0018814716796063
4738000000.0 0.09036941155688469 -1.0830130737694246
4741000000.0 -0.006578142681169422 -1.1051842847970632
4744000000.0 0.01718004275706749 -1.0041756197317862
4747000000.0 0.0513554596905121 -0.9935881521922648
4750000000.0 0.029642800300689616 -1.0333907296665108
4753000000.0 0.06289510009502275 -1.006022615058733
4756000000.0 0.041843067931048375 -1.0401568410410482
4759000000.0 0.015981143207870127 -1.0542773277908684
4762000000.0 -0.043571251369615885 -1.0536319696516738
4766000000.0 -0.03138148263405484 -0.9846447782736727
4769000000.0 -0.011452220060674756 -1.0420464085749723
4772000000.0 0.012104497782266604 -1.0123747843177895
4775000000.0 0.005443474215903077 -1.0812673142863505
4778000000.0 -0.01537046004248488 -1.0647251121637507
4781000000.0 0.021855199249040946 -1.0390946720627037
4784000000.0 0.006023346327701018 -1.010151537167507
4788000000.0 -0.026459406769289623 -1.0292128284232507
4791000000.0 -0.0003786532412357324 -1.030525911457158
4794000000.0 0.04592920040019663 -1.0772877086361319
4797000000.0 -0.030596529394637945 -1.0083355298780947
4800000000.0 -0.02564874956216287 -0.9994439587514169
4803000000.0 -0.07372550904849864 -1.0065671222791757
4806000000.0 -0.05033736854263768 -1.0438130681490332
4809000000.0 -0.10034584979032163 -1.0187329744075868
4812000000.0 -0.06720722950619987 -1.0118947450821834
4816000000.0 -0.010586023796389343 -1.0107959673467695
4819000000.0 -0.028726939646734173 -1.0529176656656705
4822000000.0 -0.047085429644409704 -1.0661103338164937
4825000000.0 -0.02068230214616351 -1.066219439034539
4828000000.0 -0.05410000150144095 -1.0267586819242263
4831000000.0 -0.09082081697536826 -1.0538796678609303
4834000000.0 -0.04189976530318579 -1.0377633784494515
4838000000.0 -0.08630976433238802 -1.0424146653423196
4841000000.0 -0.07365075458988096 -1.009671781777559
4844000000.0 -0.03779829711881527 -1.0406523102424394
4847000000.0 -0.05408696602178781 -1.0005986407609067
4850000000.0 -0.09107691101343701 -1.060047077060839
4853000000.0 -0.08348658486400173 -1.0111284320685379
4856000000.0 -0.06937221835773483 -1.0156010702439247
4859000000.0 -0.09774588216619157 -1.0971651376810807
4862000000.0 -0.06804523394240108 -1.0126785431909087
4866000000.0 -0.12138093403111566 -1.040782172243422
4869000000.0 -0.09744263276232573 -1.0291417892123707
4872000000.0 -0.12361376839457311 -1.0468781625773989
4875000000.0 -0.07020911185412637 -1.0618617867442488
4878000000.0 -0.0874861816709736 -1.016734970662809
4881000000.0 -0.16171791182776568 -1.0703023730783419
4884000000.0 -0.08731614773491297 -1.0483231029441773
4888000000.0 -0.08747537579333797 -1.0336918165372553
4891000000.0 -0.11507249773517131 -1.0322351910420562
4894000000.0 -0.11330049126842334 -1.0169231053296102
4897000000.0 -0.09162567407339461 -1.0275800210373376
4900000000.0 -0.1161977959301631 -1.066459845443696
4903000000.0 -0.1311474745132729 -1.0299011667393327
4906000000.0 -0.08420510408776244 -1.0632472815386373
4909000000.0 -0.1350940889575578 -1.0308003868274285
4912000000.0 -0.17329870445399553 -1.0726819729837704
4916000000.0 -0.14458675002214144 -1.0271262756576636
4919000000.0 -0.12545789466643953 -1.0659614433982318
4922000000.0 -0.1469864224935547 -1.034325216446967
4925000000.0 -0.1930067782975569 -1.0044139625038249
4928000000.0 -0.12563410731950442 -1.0223537162654206
4931000000.0 -0.1875822077179759 -1.0461284598561817
4934000000.0 -0.14331413583498553 -0.9902973045284663
4938000000.0 -0.1963985602086213 -1.0122413713507015
4941000000.0 -0.18345424144881928 -0.9971219158398782
4944000000.0 -0.16863618490731208 -0.9669864563584365
4947000000.0 -0.17408291649516328 -1.0313130531943817
4950000000.0 -0.18978491196608394 -0.9787990973322722
4953000000.0 -0.2122662756220175 -1.0204341785368678
4956000000.0 -0.1680904991001766 -1.0202147260371595
4959000000.0 -0.20426895447231186 -0.9555298620214124
4962000000.0 -0.19259147355929218 -0.9912609526832897
4966000000.0 -0.15943475247545524 -1.0325918607774174
4969000000.0 -0.21156584222648517 -1.0620724325262696
4972000000.0 -0.21425250107290328 -1.0171311018406584
4975000000.0 -0.18277436700258087 -1.0017611460995208
4978000000.0 -0.2332033810729211 -1.0321213249685406
4981000000.0 -0.22513903094258086 -1.0070437711492395
4984000000.0 -0.2243112001039031 -0.9785673259563218
4988000000.0 -0.21063995062762786 -1.0205815773364433
4991000000.0 -0.19376007815345792 -1.0425057677979779
4994000000.0 -0.2458275626676668 -1.0149589870672373
4997000000.0 -0.2893428849148669 -1.0124345206655223
5000000000.0 -0.24826785221174902 -1.0257609761380295
5003000000.0 -0.26657797305672803 -1.0281325239605805
5006000000.0 -0.26940861212120026 -1.0306081026722336
5009000000.0 -0.29154519916321814 -0.9830525542091249
5012000000.0 -0.29495865497500706 -1.033945603381887
5016000000.0 -0.25531287726313306 -1.0393870526022684
5019000000.0 -0.25961160618672047 -1.0142755608917082
5022000000.0 -0.27141322789926353 -0.9914160986077946
5025000000.0 -0.2962151800576511 -1.0041854757522446
5028000000.0 -0.2963831100329243 -0.9900034671216403
5031000000.0 -0.3184718597560015 -0.997018700061546
5034000000.0 -0.36033170848172164 -1.0593741353187656
5038000000.0 -0.2880203131666932 -0.9661781645326802
5041000000.0 -0.2770595724467942 -0.9683565650045708
5044000000.0 -0.2849319212991003 -0.9480449205667888
5047000000.0 -0.36022458678998787 -0.9628176603052583
5050000000.0 -0.3046214007601206 -0.9860380333466529
5053000000.0 -0.35700310151031067 -0.982748010121766
5056000000.0 -0.342702058603316 -0.9994409224052725
5059000000.0 -0.36059572903907666 -0.9601112022514912
5062000000.0 -0.4007102127249321 -1.00080359013194
5066000000.0 -0.35142470024151695 -0.9946262500620102
5069000000.0 -0.3783497099252726 -0.9811275831404137
5072000000.0 -0.320858500451373 -1.0297471179871247
5075000000.0 -0.3167445127590707 -0.9226161744957878
5078000000.0 -0.3871947150705741 -0.9540634585019812
5081000000.0 -0.40502134752783825 -0.9500946816160645
5084000000.0 -0.40089472135616755 -0.9058693818209927
5088000000.0 -0.34272899626497727 -0.9750660429426572
5091000000.0 -0.45051709126616357 -0.9514944207493512
5094000000.0 -0.42211352797294965 -0.8913577813799125
5097000000.0 -0.3939313612018714 -0.904938349699836
5100000000.0 -0.4347854031043902 -0.9498998914974919
5103000000.0 -0.47819995842807184 -0.9418427838652477
5106000000.0 -0.45370365808795304 -0.8752753886578728
5109000000.0 -0.4351145435935694 -0.8951217211538834
5112000000.0 -0.5226990151232368 -0.8897665141645487
5116000000.0 -0.42762778238423466 -0.9305821785764878
5119000000.0 -0.5016487306097789 -0.8948590655595309
5122000000.0 -0.4883085092818868 -0.8665268615576762
5125000000.0 -0.40077281709657764 -0.9363508449265381
5128000000.0 -0.5372512691660711 -0.8937488087694774
5131000000.0 -0.503154885181117 -0.9028774914001918
5134000000.0 -0.5171185108719782 -0.877792077322741
5138000000.0 -0.47830280303400136 -0.9032440129634997
5141000000.0 -0.5028355641446063 -0.9090186582173165
5144000000.0 -0.534623095788524 -0.8656690561544347
5147000000.0 -0.5363862373359192 -0.9018152148165943
5150000000.0 -0.5714377594214672 -0.8742144877315967
5153000000.0 -0.5813279804568778 -0.9474042583665631
5156000000.0 -0.5605494048550392 -0.8461924380774294
