! Created with skrf 1.8.0 (http://scikit-rf.org).
# Hz S RI R 50.0 
!freq ReS11 ImS11
4000000000.0 0.5350380239633786 -0.861029786442796
4003000000.0 0.5769381821015641 -0.9070755599705451
4006000000.0 0.5337033435895424 -0.8960407871566647
4009000000.0000005 0.540923320021906 -0.8901482434233706
4011999999.9999995 0.6113450733362856 -0.8927084960422462
4016000000.0 0.5184462887513693 -0.9239150841820988
4019000000.0 0.5231781715644956 -0.8424226359972283
4022000000.0000005 0.6102039514144285 -0.8328057378557971
4025000000.0000005 0.5248018392958738 -0.9251941465061908
4027999999.9999995 0.5190653297016176 -0.904433619016023
4030999999.9999995 0.5392124833846073 -0.8233941333415509
4034000000.0 0.47719301137146397 -0.9055589425823849
4038000000.0000005 0.523107665639988 -0.907700259467092
4041000000.0000005 0.5201331533879008 -0.8645578472894011
4043999999.9999995 0.5484971169393927 -0.9677232972878691
4046999999.9999995 0.5683694419772779 -0.8655588468253717
4050000000.0 0.5123490736022835 -0.927938213967754
4053000000.0 0.5040423722981301 -0.8776591680531287
4056000000.0 0.5526341796761357 -0.8922371808427172
4059000000.0 0.5215767398543674 -0.8724518780564285
4062000000.0000005 0.5298525824836975 -0.9096873068819396
4066000000.0 0.5131896469785723 -0.8372287178331559
4069000000.0 0.5359671728704773 -0.9340708521681187
4072000000.0 0.5889268317053645 -0.8792429681017856
4075000000.0 0.6010058543820194 -0.9118944661793217
4078000000.0000005 0.5025429534206491 -0.9328685555883117
4081000000.0000005 0.5623951420903003 -0.8828683180650576
4083999999.9999995 0.529309783670841 -0.9405223547204227
4088000000.0 0.5694731395776121 -0.8663146773345548
4091000000.0 0.5487985812259183 -0.9229478636183218
4094000000.0000005 0.5483720799797362 -0.8762661936655984
4097000000.0000005 0.5644604801661326 -0.888685462585578
4099999999.9999995 0.5132296276057552 -0.9049752829510637
4102999999.9999995 0.5690782772210712 -0.9279533229569656
4106000000.0 0.539095948290085 -0.8965184880367957
4109000000.0 0.5508937412672257 -0.890413188235257
4112000000.0 0.5353191159471228 -0.8869219713965341
4115999999.9999995 0.56130836840896 -0.9078527130658333
4119000000.0 0.5303075134705597 -0.8935420801320229
4122000000.0 0.5574156902869222 -0.8896156473337237
4125000000.0 0.5475712734597149 -0.9032101908048873
4128000000.0 0.5628263359329371 -0.8502242483147683
4131000000.0 0.5264331489608183 -0.9049259984551276
4134000000.0000005 0.5765744869641672 -0.910564876550564
4138000000.0 0.5067010909285129 -0.8791704249208862
4141000000.0 0.5299360386048635 -0.8785889203925267
4144000000.0 0.5932681744778948 -0.8892016201551656
4147000000.0000005 0.5090206491353966 -0.9046235537618776
4150000000.0000005 0.5525045165147712 -0.9185446417424159
4152999999.9999995 0.530979831269142 -0.8735155977426958
4155999999.9999995 0.5599373389946102 -0.9023797425876742
4159000000.0 0.549223512928747 -0.8845931230077955
4162000000.0 0.5428286996059395 -0.8625144065413832
4166000000.0000005 0.5204013582076296 -0.8805969420495755
4168999999.9999995 0.5145295825412038 -0.9080729741132618
4171999999.9999995 0.5533416797086547 -0.894800834385197
4175000000.0 0.5649588367644633 -0.8803549096850698
4178000000.0 0.5219772547180677 -0.9037601240012335
4181000000.0 0.5527269997505568 -0.9087443640131385
4184000000.0 0.5288713429887816 -0.8819043001898739
4187999999.9999995 0.5398733971543045 -0.8692370937184806
4191000000.0 0.5610063892086291 -0.8600740416836624
4194000000.0 0.5385153312309064 -0.8818951141361668
4197000000.0 0.5606171232765211 -0.8903100641703003
4200000000.0 0.563778341014516 -0.8767807947720943
4203000000.0000005 0.5850429197459799 -0.8675358036053235
4206000000.0000005 0.5465051817061302 -0.8907249009031761
4208999999.9999995 0.5374166310653166 -0.8724046097945377
4211999999.9999995 0.5116508926194239 -0.8709126773262691
4216000000.0 0.5548223801926614 -0.8695979031852794
4219000000.0000005 0.567263556954531 -0.8668535010174726
4222000000.0000005 0.525440968343611 -0.8907381789843717
4224999999.9999995 0.5351994176312207 -0.8661361851194845
4227999999.9999995 0.5476210000824473 -0.8958174739512557
4231000000.0 0.5382632658711151 -0.8778711320653219
4234000000.0 0.5486575739109341 -0.8801119819453406
4238000000.0000005 0.5365353835404055 -0.8990109854376029
4240999999.9999995 0.5318165313784892 -0.8833050106091199
4244000000.0 0.5336593283221075 -0.8652690537473103
4247000000.0 0.5566421600634939 -0.8718536778642326
4250000000.0 0.5197459002368182 -0.8779494523587663
4253000000.0 0.5264070306541261 -0.8480115070951595
4256000000.0 0.5192873426566643 -0.8961452608921692
4259000000.0000005 0.5007471965335701 -0.8288887221784849
4261999999.9999995 0.5129284389935446 -0.9024320376536683
4266000000.0 0.5099832006142622 -0.8728971246201561
4269000000.0 0.5457359505892337 -0.8655369663251088
4272000000.0000005 0.5324092570923213 -0.8638636718355357
4275000000.0000005 0.5512534365461133 -0.8764897913890665
4277999999.9999995 0.5570339727411102 -0.8820314005282816
4280999999.9999995 0.5409661978226419 -0.8858719465317114
4284000000.0 0.527789856012244 -0.890933010985617
4288000000.0000005 0.5648012303250918 -0.8464333046704868
4291000000.0000005 0.5251664152545172 -0.8411147076265312
4293999999.9999995 0.5169126160412661 -0.85024526676124
4297000000.0 0.5575794073053958 -0.8418869538775181
4300000000.0 0.5489891253737762 -0.850580313561388
4303000000.0 0.5237376068296308 -0.8741017465699497
4306000000.0 0.5813502219164267 -0.8631078195754951
4309000000.0 0.55884970070837 -0.8498161325317639
4312000000.0 0.5706754148238623 -0.8359422840551654
4316000000.0 0.5351169083856915 -0.8663461008813206
4319000000.0 0.5509119120390717 -0.8612321340392859
4322000000.0 0.5171797372284989 -0.8644949842043577
4325000000.0 0.5408069430523211 -0.8600803827483174
4328000000.0 0.5175169793907509 -0.8814529616249162
4331000000.0 0.5167763080258662 -0.8812105731015862
4334000000.0 0.536957493457525 -0.8727203636016634
4338000000.0 0.5582951516795549 -0.8618896942325721
4341000000.0 0.5646018130250042 -0.8454184002500017
4344000000.0 0.559667590811032 -0.8674299927132156
4347000000.0 0.5338522844804102 -0.8802800823383495
4350000000.0 0.5063297896371013 -0.8350447928428366
4353000000.0 0.5233202895456495 -0.8453736045493864
4356000000.0 0.520601290041175 -0.8656564689753862
4359000000.0 0.4851151033696455 -0.8511419702775784
4362000000.0 0.4880957314181772 -0.8896492605122202
4366000000.0 0.5321436203353049 -0.8798317665747124
4369000000.0 0.5269785754075152 -0.8473053554657324
4372000000.0 0.4915335348524327 -0.8867125445851503
4375000000.0 0.5389385053900364 -0.8713064551991426
4378000000.0 0.5169031876984105 -0.8489542124442728
4381000000.0 0.5300727196500369 -0.8515139974277506
4384000000.0 0.5594913176881894 -0.9286679285490681
4388000000.0 0.5341502505424403 -0.8626672477154569
4391000000.0 0.5444712542907454 -0.8812167889187501
4394000000.0 0.5112430149425758 -0.8493175416231462
4397000000.0 0.5212764380896188 -0.864584285063215
4400000000.0 0.5286350700642866 -0.8758912597011195
4403000000.0 0.5316310472758354 -0.8751403103127281
4406000000.0 0.500267996596799 -0.8979969523673417
4409000000.0 0.5304345953309402 -0.9046490097888948
4412000000.0 0.4720171170042653 -0.8940042522666234
4416000000.0 0.501647094123004 -0.8650767082746367
4419000000.0 0.5153773197198525 -0.8755162019034952
4422000000.0 0.5342575539651115 -0.8620203058076152
4425000000.0 0.5484839954003977 -0.8674375913559222
4428000000.0 0.5151771818212135 -0.8847610207623934
4431000000.0 0.524607393281735 -0.8830794801229583
4434000000.0 0.5031580849728552 -0.8654926213192544
4438000000.0 0.5394890734847526 -0.8822947238291967
4441000000.0 0.5387526318396436 -0.8927418201886377
4444000000.0 0.5215299036810984 -0.8569913366740362
4447000000.0 0.5018863321789201 -0.8583918749184231
4450000000.0 0.518524216301363 -0.854386903015604
4453000000.0 0.5356253228614719 -0.8884670909357539
4456000000.0 0.4932476040213939 -0.8676282594523671
4459000000.0 0.4801588383766866 -0.8388312410922141
4462000000.0 0.5388319213543549 -0.9189298190825431
4466000000.0 0.5286496855285553 -0.9170721217431823
4469000000.0 0.5274871852590928 -0.8647418836086032
4472000000.0 0.5283409779567899 -0.8958979781663388
4475000000.0 0.5003308579096523 -0.8550924457479394
4478000000.0 0.5084653349076605 -0.9304377486705655
4481000000.0 0.48217770096550744 -0.8576824557570057
4484000000.0 0.468435627134197 -0.8986482360621204
4488000000.0 0.500288697031312 -0.8718029779196803
4491000000.0 0.5034275562291473 -0.889450065339324
4494000000.0 0.5094576843762767 -0.8716174117870436
4497000000.0 0.5221767003787207 -0.8614120772784819
4500000000.0 0.5226279685906983 -0.8636603703287365
4503000000.0 0.5160269034456438 -0.8992066776301473
4506000000.0 0.5078349719712106 -0.8765480306416296
4509000000.0 0.485135928122158 -0.865699229510315
4512000000.0 0.4766442580773377 -0.8548360576866294
4516000000.0 0.528258099401505 -0.8924317767305634
4519000000.0 0.5064419389785809 -0.843663813630239
4522000000.0 0.5003558593442119 -0.8752586113986669
4525000000.0 0.5432839898670234 -0.8593881958277871
4528000000.0 0.5344021156278136 -0.9021037328078236
4531000000.0 0.5053046497836806 -0.8705418317348779
4534000000.0 0.47025153787895235 -0.8508900691006536
4538000000.0 0.5069506695224767 -0.8734226286483728
4541000000.0 0.45933497148464414 -0.8848379052150195
4544000000.0 0.5103088139727769 -0.8668141618063148
4547000000.0 0.5258802722719405 -0.8611072527476757
4550000000.0 0.4951682979813276 -0.8976194441724228
4553000000.0 0.49963360397382595 -0.8906156536150756
4556000000.0 0.46370512314756507 -0.8643781581462459
4559000000.0 0.4867702274638056 -0.8838128685382707
4562000000.0 0.4986710083584271 -0.8741519276399632
4566000000.0 0.5058773891571631 -0.8754066509461432
4569000000.0 0.47329613185031316 -0.8636669287171408
4572000000.0 0.4906893655893083 -0.8740315573273216
4575000000.0 0.47922417575651954 -0.8822710157104241
4578000000.0 0.5226748143570119 -0.8946999557552071
4581000000.0 0.49407364523210795 -0.8904473065300702
4584000000.0 0.4687533884166194 -0.8897515462042986
4588000000.0 0.5019696812009733 -0.8913180612558121
4591000000.0 0.5093593361462881 -0.874887173810891
4594000000.0 0.4740971815992444 -0.8933882700793808
4597000000.0 0.49394496471095006 -0.8820555594808404
4600000000.0 0.46316611356877335 -0.8816231274877455
4603000000.0 0.4829731796978739 -0.9010918133210565
4606000000.0 0.4887169308095841 -0.9120015641096745
4609000000.0 0.4978973834639303 -0.8897108907567051
4612000000.0 0.5048397250633856 -0.9031862651188066
4616000000.0 0.4985545408304555 -0.8705377165518845
4619000000.0 0.5043229472711394 -0.884038079324233
4622000000.0 0.5001346310163535 -0.908702371071056
4625000000.0 0.4430047865299276 -0.8916303207529954
4628000000.0 0.5096855050868929 -0.8889852701089594
4631000000.0 0.4601945603340814 -0.8863481465115595
4634000000.0 0.47436682578612954 -0.8886494193896898
4638000000.0 0.49415409612892364 -0.8916602589769232
4641000000.0 0.5029776391358998 -0.8976378701536253
4644000000.0 0.4856139976390632 -0.8793738217983571
4647000000.0 0.4899902061024699 -0.8829108466179547
4650000000.0 0.47962912536781016 -0.8810381433094504
4653000000.0 0.4886228543444013 -0.8874411690904445
4656000000.0 0.46020312848942824 -0.8940170893765342
4659000000.0 0.47390287777359363 -0.89167271664691
4662000000.0 0.4764917343851125 -0.8852077433957557
4666000000.0 0.4911381708508767 -0.8918242255494709
4669000000.0 0.49315335954067047 -0.8957793372058492
4672000000.0 0.47837318179704824 -0.9081714241862496
4675000000.0 0.46777244670307216 -0.8884588968636541
4678000000.0 0.46587637406933025 -0.8802906157726682
4681000000.0 0.4686106605030525 -0.9111177945450373
4684000000.0 0.47523467764108296 -0.9319904782079174
4688000000.0 0.45790789876867194 -0.9091642515742804
4691000000.0 0.4959074917554479 -0.9088146114018243
4694000000.0 0.4758562514296019 -0.890279437085622
4697000000.0 0.45501093967591405 -0.8761414517386614
4700000000.0 0.48157271415089886 -0.8855509591271296
4703000000.0 0.486679737188352 -0.8665329429356275
4706000000.0 0.46019381462837194 -0.865859879691922
4709000000.0 0.4559849554805914 -0.9199833804011761
4712000000.0 0.4823419106999996 -0.9106773390448489
4716000000.0 0.4886402666670771 -0.9172790063152776
4719000000.0 0.5141725152817762 -0.8937510556438142
4722000000.0 0.5079978234543573 -0.9090548202556373
4725000000.0 0.46790127518208036 -0.908628323137021
4728000000.0 0.47361052963642725 -0.8870228558686372
4731000000.0 0.4937124449370085 -0.9427540403648332
4734000000.0 0.5079950543345894 -0.8662140045236962
4738000000.0 0.4860895921943616 -0.9045968549617628
4741000000.0 0.475812946740895 -0.9317136923581815
4744000000.0 0.4492011450558499 -0.9239324244719188
4747000000.0 0.4935560386190948 -0.8528796322710924
4750000000.0 0.47105259186761067 -0.912707118266968
4753000000.0 0.49482315470699867 -0.9004871134549847
4756000000.0 0.4948749310554145 -0.920261596857622
4759000000.0 0.5032669815358362 -0.9512689288474859
4762000000.0 0.4906840615249866 -0.9414357095386053
4766000000.0 0.44996364478282974 -0.9225091210188567
4769000000.0 0.480262645680842 -0.9100944891847551
4772000000.0 0.4978228961032168 -0.9048191676467456
4775000000.0 0.46803035170554586 -0.9731800684362709
4778000000.0 0.4704953412807251 -0.9157843802823271
4781000000.0 0.489954843172997 -0.8956199865408562
4784000000.0 0.4897451391563473 -0.8947124896975096
4788000000.0 0.481900949177975 -0.9279890054666184
4791000000.0 0.47636365777553213 -0.9100473031301693
4794000000.0 0.5287689677025196 -0.9265183606775662
4797000000.0 0.46257027423623265 -0.9097647988218948
4800000000.0 0.4701396436304403 -0.8954473292740279
4803000000.0 0.43366146223137947 -0.9406789521259232
4806000000.0 0.4985488507420278 -0.9311373113686681
4809000000.0 0.44556832670264357 -0.9356203059098275
4812000000.0 0.44654216301598293 -0.9208062950335788
4816000000.0 0.49353808618267325 -0.9125418909300224
4819000000.0 0.5189604609525168 -0.920319335720721
4822000000.0 0.5148446349369248 -0.9339874528445195
4825000000.0 0.50763654306361 -0.9332585195178112
4828000000.0 0.46751672042057474 -0.9109499663770864
4831000000.0 0.4267389040138117 -0.9460451550198039
4834000000.0 0.49287199135898796 -0.9054258880091092
4838000000.0 0.4754740951262446 -0.952338221635813
4841000000.0 0.4507516581778078 -0.9216759915385204
4844000000.0 0.4975523262784153 -0.9193509550531812
4847000000.0 0.4781516564812879 -0.8922870383742226
4850000000.0 0.46622985243000187 -0.9502027043068749
4853000000.0 0.4728594684682903 -0.8934408973317054
4856000000.0 0.4701389191607886 -0.9117959214932524
4859000000.0 0.4595437393883661 -0.9503744703634297
4862000000.0 0.46938285245457095 -0.907488599653169
4866000000.0 0.4629941578985405 -0.9388329578951553
4869000000.0 0.4519456581814947 -0.9047557275367827
4872000000.0 0.4698705368970076 -0.9495040241870607
4875000000.0 0.5376538694022176 -0.939832303173387
4878000000.0 0.4639495984493256 -0.9257760778129139
4881000000.0 0.47968213297534557 -0.9941256118308277
4884000000.0 0.4999571307252 -0.9026677347003049
4888000000.0 0.5023883317364792 -0.9065118297803111
4891000000.0 0.4848969222897408 -0.9242285511528284
4894000000.0 0.44298029777033116 -0.9322147804586077
4897000000.0 0.4979656408685889 -0.9025340740628195
4900000000.0 0.49703135936338305 -0.9195401503074595
4903000000.0 0.5097907704903627 -0.9277574669103554
4906000000.0 0.4897589444799068 -0.9278072857308456
4909000000.0 0.4771994486690262 -0.9226183520195442
4912000000.0 0.4751506155984448 -0.9563804275317018
4916000000.0 0.5108142172088123 -0.9407581344943915
4919000000.0 0.5347907587564565 -0.9141630022823731
4922000000.0 0.5199527030975193 -0.931466439987918
4925000000.0 0.46853533305033607 -0.915322834677729
4928000000.0 0.5305678352877715 -0.8744182173023394
4931000000.0 0.5059856598467981 -0.9076837721200726
4934000000.0 0.47107603898673167 -0.8695429076889996
4938000000.0 0.45415563535768144 -0.9321524723769394
4941000000.0 0.4799673800152877 -0.8921642422664194
4944000000.0 0.4713899026850046 -0.8898835874381412
4947000000.0 0.4563541099504698 -0.8995827622275551
4950000000.0 0.453176338924684 -0.8893600038723065
4953000000.0 0.44771094269729894 -0.9488089688066839
4956000000.0 0.44722633631937747 -0.95074232473011
4959000000.0 0.4501770381570295 -0.9058168627466717
4962000000.0 0.4736058782593409 -0.9397075699563829
4966000000.0 0.5174876011989442 -0.9533241907525744
4969000000.0 0.5335742761080864 -0.9424217542157657
4972000000.0 0.4920876400592382 -0.9264214648509264
4975000000.0 0.516412516411672 -0.919193394826183
4978000000.0 0.4950821713482093 -0.9673758055223237
4981000000.0 0.461590860993617 -0.9344299128916966
4984000000.0 0.47531328989762356 -0.9051531124827312
4988000000.0 0.5051253457578588 -0.9168176660981366
4991000000.0 0.5343723723105475 -0.9148064224166934
4994000000.0 0.48797993639829695 -0.9005780211001355
4997000000.0 0.4720803329504742 -0.9410837461152189
5000000000.0 0.5018916610838899 -0.9491704962864822
5003000000.0 0.5211097477363039 -0.9333310015643068
5006000000.0 0.5117048892949713 -0.9820776616834781
5009000000.0 0.4808080178507139 -0.9060771636735186
5012000000.0 0.48623889995099234 -0.9459580140164312
5016000000.0 0.5720877836049612 -0.9244281433915571
5019000000.0 0.47244189192129504 -0.9084150346227031
5022000000.0 0.4925627873603924 -0.9336496976359101
5025000000.0 0.4943641434465936 -0.9932492934669401
5028000000.0 0.4781167457598473 -0.9225419806538104
5031000000.0 0.4848086794521385 -0.9227937178746477
5034000000.0 0.47760036596477007 -0.9450738140594684
5038000000.0 0.4775018451115375 -0.8980603299849603
5041000000.0 0.5433760324329411 -0.9055723259438376
5044000000.0 0.514481309909638 -0.8994332837869877
5047000000.0 0.5120544521277874 -0.9114196952294207
5050000000.0 0.5682589187565703 -0.8707228948732006
5053000000.0 0.5069631848401912 -0.9378192380132647
5056000000.0 0.5373234433629812 -0.8779321579753121
5059000000.0 0.5568953998058234 -0.9248040378998033
5062000000.0 0.4916227234976489 -0.9612011706337651
5066000000.0 0.5418722758038887 -0.8758590920449901
5069000000.0 0.5095808925912382 -0.9385706294187084
5072000000.0 0.4785900647973195 -0.874193480621859
5075000000.0 0.512742938135812 -0.8744850349914001
5078000000.0 0.46481142633016775 -0.925855230033654
5081000000.0 0.4975417031186594 -0.902312795995702
5084000000.0 0.5158058954163802 -0.9149369806987933
5088000000.0 0.5241880429261814 -0.8851099790681667
5091000000.0 0.5060289245919132 -0.9580815518148502
5094000000.0 0.5454058035869587 -0.9260405310366524
5097000000.0 0.5678575215120826 -0.9238075096950784
5100000000.0 0.48355881821095154 -0.9141685473220929
5103000000.0 0.45885362738465296 -0.9179837961341031
5106000000.0 0.5070066985968807 -0.964220554338358
5109000000.0 0.5273878159810084 -0.8653685957940214
5112000000.0 0.4625742168458896 -0.9308983114233766
5116000000.0 0.5413648610509703 -0.8682196136242255
5119000000.0 0.548705718521605 -0.9323139228925592
5122000000.0 0.5376270860984732 -0.900300373488633
5125000000.0 0.5667097765163689 -0.9072982406720997
5128000000.0 0.5123143483113869 -0.8838864232423354
5131000000.0 0.5005913540995801 -0.8716808061904329
5134000000.0 0.49388659006045216 -0.9306787142644264
5138000000.0 0.5668487739540551 -0.9142192213223876
5141000000.0 0.5532079184024922 -0.8401017377137132
5144000000.0 0.5580267006951056 -0.8941499869268013
5147000000.0 0.5268327669969444 -0.9014889747828752
5150000000.0 0.5720963818507133 -0.9078445201398408
5153000000.0 0.5330958476645482 -0.9081124118223249
5156000000.0 0.5731070119783216 -0.9249636865890878
5159000000.0 0.5507377581370088 -0.9374563419784108
5162000000.0 0.48098417463141035 -0.9345235196827524
5166000000.0 0.532670018972394 -0.9400724749672756
5169000000.0 0.5300350197040194 -0.90306394034449
5172000000.0 0.5091302499489978 -0.9211517296034412
5175000000.0 0.5759692636624996 -0.9121607623538324
5178000000.0 0.4848591039676059 -0.9310009903512895
