! Created with skrf 1.8.0 (http://scikit-rf.org).
# Hz S RI R 50.0 
!freq ReS11 ImS11
4000000000.0 0.5518203409640483 -0.8817366677314138
4003000000.0 0.6120884742193248 -0.9611807709992963
4006000000.0 0.5020419944217731 -0.9184588560439434
4009000000.0000005 0.6025716779650583 -0.8738833690620383
4011999999.9999995 0.6092774098491816 -0.8865931953309087
4016000000.0 0.5291022163528499 -0.8817967374889608
4019000000.0 0.5637804607092867 -0.8858523067438605
4022000000.0000005 0.5887122419049742 -0.8402419291485113
4025000000.0000005 0.5167181545015045 -0.9135208121964483
4027999999.9999995 0.5364754633055541 -0.9096290230649683
4030999999.9999995 0.525609580825631 -0.8517815518759604
4034000000.0 0.5079232203100321 -0.8774001102303861
4038000000.0000005 0.5481515830149488 -0.9043935790688769
4041000000.0000005 0.5507146250221696 -0.8816803167327275
4043999999.9999995 0.5974282458015252 -0.9290462703814295
4046999999.9999995 0.5833659673117253 -0.8877209247972055
4050000000.0 0.541143986901396 -0.9204245465466031
4053000000.0 0.499045850278071 -0.8771946780022685
4056000000.0 0.5519287215534222 -0.8782732278200279
4059000000.0 0.551451266446911 -0.8501551059589008
4062000000.0000005 0.5068839819046387 -0.8565294098735408
4066000000.0 0.4834997195601629 -0.8048237931152802
4069000000.0 0.5187330661726158 -0.9026567859007881
4072000000.0 0.600150541000919 -0.8468362698558249
4075000000.0 0.6415006929574529 -0.8566202027981497
4078000000.0000005 0.558204147626047 -0.8881188970174309
4081000000.0000005 0.6450945836290897 -0.8542113819413955
4083999999.9999995 0.5611367953062825 -0.9200634743191052
4088000000.0 0.5930806680922179 -0.8407361078022081
4091000000.0 0.5871273520170739 -0.907977479771664
4094000000.0000005 0.5835716407516023 -0.8612405282375244
4097000000.0000005 0.5796141306480548 -0.8916247176590538
4099999999.9999995 0.5488773510127859 -0.8890948452707204
4102999999.9999995 0.610443129970644 -0.903156358414158
4106000000.0 0.5872405747709578 -0.899210233457195
4109000000.0 0.5235354670527718 -0.8803013159100719
4112000000.0 0.5296662497105356 -0.8921088206417679
4115999999.9999995 0.5956777730553453 -0.8874259532684714
4119000000.0 0.5357327031715541 -0.9013538313997193
4122000000.0 0.516047671465791 -0.9217547232589265
4125000000.0 0.548817474066928 -0.9132594633500544
4128000000.0 0.5842729228433401 -0.8590110122236856
4131000000.0 0.5843854240900571 -0.8364155373316248
4134000000.0000005 0.5640458698675599 -0.8352719678692724
4138000000.0 0.5390405778676914 -0.8804738030491139
4141000000.0 0.544453830290611 -0.8256079179680762
4144000000.0 0.5627006931676943 -0.8360133088142276
4147000000.0000005 0.5234073340473424 -0.8705179682856088
4150000000.0000005 0.5563961360930381 -0.8775768679773582
4152999999.9999995 0.5122094471781478 -0.89124904436477
4155999999.9999995 0.606243588930518 -0.9062487243926161
4159000000.0 0.5721006217374437 -0.8282781620272242
4162000000.0 0.5378481418766172 -0.846146868555392
4166000000.0000005 0.5562379807336033 -0.8807748123559357
4168999999.9999995 0.5366707522279874 -0.87018995505689
4171999999.9999995 0.579788598313622 -0.8643249076038069
4175000000.0 0.5917507136123529 -0.8445961790042676
4178000000.0 0.5595879415640115 -0.8537700329332976
4181000000.0 0.5571320664076872 -0.8862072717750018
4184000000.0 0.5567380864406006 -0.854024028656484
4187999999.9999995 0.5362248279293551 -0.8839897625029699
4191000000.0 0.5762942195182861 -0.8134532178844887
4194000000.0 0.5680331378599242 -0.8590895566497418
4197000000.0 0.5563731524104243 -0.8738078673675838
4200000000.0 0.5696959207751333 -0.8453152985425754
4203000000.0000005 0.5677124536908129 -0.8417558309640434
4206000000.0000005 0.5810164912110722 -0.8667977145443904
4208999999.9999995 0.5533508134359943 -0.8372198305490963
4211999999.9999995 0.5423022483663267 -0.8694616225404617
4216000000.0 0.5788151168633846 -0.8387445836922637
4219000000.0000005 0.5784960720322114 -0.8754054714637106
4222000000.0000005 0.5482137964854179 -0.8805625181675968
4224999999.9999995 0.5516599202543127 -0.841384431131835
4227999999.9999995 0.5569631557895898 -0.8563157999832487
4231000000.0 0.5610057292144146 -0.8657858660617486
4234000000.0 0.5648692753290026 -0.8858573275019285
4238000000.0000005 0.5564036451342045 -0.8662397710662761
4240999999.9999995 0.5446883646145539 -0.8616031843872106
4244000000.0 0.5687323762003059 -0.8624213143505152
4247000000.0 0.5660509527728181 -0.8569900972479422
4250000000.0 0.5342654768929299 -0.838833520591144
4253000000.0 0.5230182319751026 -0.8249412012210053
4256000000.0 0.5709761929548468 -0.8722307050473843
4259000000.0000005 0.529416717126709 -0.838537140426833
4261999999.9999995 0.546426094732699 -0.8634793060554538
4266000000.0 0.5440123076119096 -0.8701474016581722
4269000000.0 0.5701220088739278 -0.8451215230209388
4272000000.0000005 0.5392996824817481 -0.849320386636496
4275000000.0000005 0.551780298186326 -0.8559664321748293
4277999999.9999995 0.5550149301423283 -0.8706291812496056
4280999999.9999995 0.5730814264764892 -0.8613488688933707
4284000000.0 0.5329559555267606 -0.8823291310597305
4288000000.0000005 0.5988210314098846 -0.8584640565554585
4291000000.0000005 0.5243157461441368 -0.8368719376007524
4293999999.9999995 0.5525915844806101 -0.8411629402367446
4297000000.0 0.5717420458785323 -0.8288534221403482
4300000000.0 0.5678841123498953 -0.8395682045602502
4303000000.0 0.5230686901714037 -0.8454890017060931
4306000000.0 0.5892066645349281 -0.8439053221783388
4309000000.0 0.5696016557344774 -0.8529847120626235
4312000000.0 0.5973786349153689 -0.8374437691990251
4316000000.0 0.5692026940710228 -0.8597083413611653
4319000000.0 0.5382479734877674 -0.8297178050820435
4322000000.0 0.5276220607514667 -0.8493839447233671
4325000000.0 0.5740039554821144 -0.8333727433750849
4328000000.0 0.5498619803973853 -0.8191456741671631
4331000000.0 0.555090023870274 -0.8642434218837733
4334000000.0 0.5729892244559657 -0.8746546586555894
4338000000.0 0.5620577792676787 -0.8395555997918487
4341000000.0 0.5916840383068726 -0.8612384182317769
4344000000.0 0.568121158545022 -0.8711724623996978
4347000000.0 0.5536791862896518 -0.8556806618227946
4350000000.0 0.5038441829239592 -0.8229840310089374
4353000000.0 0.551805829106185 -0.8064219582068731
4356000000.0 0.544995639929057 -0.8488627609089708
4359000000.0 0.529486410776938 -0.8113755147721563
4362000000.0 0.5045360111902377 -0.8740298470606988
4366000000.0 0.5640204510497688 -0.86786964103407
4369000000.0 0.5460708246761978 -0.8389069953520576
4372000000.0 0.5151648100144717 -0.8573545122011279
4375000000.0 0.541397344998179 -0.8307754576010953
4378000000.0 0.5489486391694878 -0.8182213895605244
4381000000.0 0.544639670139169 -0.8269248282527413
4384000000.0 0.5817741862508241 -0.9133163996092869
4388000000.0 0.5490658589477295 -0.8430823228343829
4391000000.0 0.5480710520403086 -0.8623776161511164
4394000000.0 0.5457055264486588 -0.8252360991503062
4397000000.0 0.5368247900999816 -0.842449351302195
4400000000.0 0.5583885048000382 -0.8790579446435991
4403000000.0 0.5636370542013313 -0.8573289176192556
4406000000.0 0.5304286968980282 -0.860346262631034
4409000000.0 0.5634054340642288 -0.8822312937682514
4412000000.0 0.49013481466018827 -0.8905583336763228
4416000000.0 0.5219519663705839 -0.8545656788639369
4419000000.0 0.5199338030106861 -0.8663900621963128
4422000000.0 0.558808391417493 -0.8285283229568623
4425000000.0 0.5748478298881675 -0.8577553643876699
4428000000.0 0.5428215503051197 -0.8434192155411573
4431000000.0 0.5532153333200202 -0.8639803283483242
4434000000.0 0.5274432401343931 -0.8360511283090478
4438000000.0 0.5548825197843836 -0.8824493755931826
4441000000.0 0.5469163570765913 -0.8622079402355641
4444000000.0 0.542816036096347 -0.8430887975088719
4447000000.0 0.5061917851005036 -0.8649295985910153
4450000000.0 0.5307190218604048 -0.8539246506995151
4453000000.0 0.5573929674286537 -0.8713324475217152
4456000000.0 0.5086918198614111 -0.8371441588022387
4459000000.0 0.5033584906334598 -0.8281502267808017
4462000000.0 0.5553266803833572 -0.9098216318119619
4466000000.0 0.5418886295504995 -0.8920075140693515
4469000000.0 0.551872734044434 -0.8475341160793106
4472000000.0 0.5251525987595456 -0.9005039103410535
4475000000.0 0.5247500060763164 -0.8365581859324618
4478000000.0 0.5378076008050503 -0.8994267214817075
4481000000.0 0.5191784872844457 -0.8359833828357223
4484000000.0 0.4975682430156285 -0.8779461358461478
4488000000.0 0.5313328307988903 -0.8581823946167171
4491000000.0 0.5449038541328903 -0.8443260533118022
4494000000.0 0.5265319826398323 -0.8501882022558815
4497000000.0 0.5461422887145402 -0.847688671816422
4500000000.0 0.5356388757838486 -0.843342456803764
4503000000.0 0.5422119670946641 -0.8745456221244141
4506000000.0 0.522709847942531 -0.8524933337707057
4509000000.0 0.5217248406342566 -0.8547875363885449
4512000000.0 0.5079669037494605 -0.8608778352924821
4516000000.0 0.5655620542341172 -0.8658468774182453
4519000000.0 0.5239552897992016 -0.8519697340206012
4522000000.0 0.5231163957921734 -0.8668928773189772
4525000000.0 0.5699891861661746 -0.8341691427417524
4528000000.0 0.5293347376600684 -0.8829632462327597
4531000000.0 0.5446962712341437 -0.8527030627796623
4534000000.0 0.5117690247335424 -0.8376226220004053
4538000000.0 0.525870356928174 -0.8505861767505121
4541000000.0 0.48997827449718934 -0.8646628549346582
4544000000.0 0.5045664609202888 -0.849014991899844
4547000000.0 0.5378619205081197 -0.8382509159055782
4550000000.0 0.5130892830200914 -0.8744939892248778
4553000000.0 0.5150637036074707 -0.8665648645069557
4556000000.0 0.511974607610782 -0.8754126679617545
4559000000.0 0.5390922603909629 -0.8801805048938023
4562000000.0 0.5355364558526559 -0.8810668874656497
4566000000.0 0.5214811033770097 -0.8675254844675941
4569000000.0 0.5099712513198015 -0.8503214296199485
4572000000.0 0.5198468631276429 -0.8725589307067626
4575000000.0 0.5188985168821298 -0.8878748588658001
4578000000.0 0.5226363653918692 -0.8772131729038531
4581000000.0 0.5070913193048394 -0.8954149768142788
4584000000.0 0.5117560694158744 -0.8606639987183425
4588000000.0 0.5340582300548653 -0.8657310712554069
4591000000.0 0.5227007398540388 -0.8612989346135016
4594000000.0 0.5105685355499372 -0.8963717307560112
4597000000.0 0.5257393789357043 -0.8936435614095368
4600000000.0 0.4881661610814118 -0.8747815526253317
4603000000.0 0.5195548329611425 -0.8847659209117462
4606000000.0 0.527875813763627 -0.8569273540371256
4609000000.0 0.5246075414098895 -0.8764684800528674
4612000000.0 0.5376102138192396 -0.8802283378990466
4616000000.0 0.5091088455009928 -0.864239546882975
4619000000.0 0.5276535895532389 -0.8663049277185331
4622000000.0 0.5119932867904846 -0.8588029820317834
4625000000.0 0.47645892653241606 -0.865297252843771
4628000000.0 0.517086359771857 -0.8584994259531731
4631000000.0 0.49732846376127793 -0.8763079165995105
4634000000.0 0.5073716016658585 -0.8718379068927146
4638000000.0 0.5067971406510229 -0.8816726439780205
4641000000.0 0.511445154417838 -0.8726643525866026
4644000000.0 0.5079969293996853 -0.876791429264065
4647000000.0 0.5241872823543543 -0.8734674443759852
4650000000.0 0.5026553405170466 -0.8765831966834418
4653000000.0 0.5127332427047212 -0.8830352818688165
4656000000.0 0.4913634933634685 -0.886799561263933
4659000000.0 0.49073330822741346 -0.8818699159933813
4662000000.0 0.4842367037536709 -0.8731833135471703
4666000000.0 0.5010804785312217 -0.8814971665205019
4669000000.0 0.5183428494340179 -0.8723780712289355
4672000000.0 0.47896208235463605 -0.9062986538002318
4675000000.0 0.5019142721193413 -0.8984073371929397
4678000000.0 0.5048636514534334 -0.8784674298646312
4681000000.0 0.48408851693608934 -0.9159487689332597
4684000000.0 0.47957763007211396 -0.8792957222499189
4688000000.0 0.48473413223471096 -0.8651514944894928
4691000000.0 0.5368444429926159 -0.8790894690515222
4694000000.0 0.5007708242131533 -0.8487847002240825
4697000000.0 0.46552321374089123 -0.8521872005903423
4700000000.0 0.5018038293597517 -0.8835491019933791
4703000000.0 0.48356449808854407 -0.8273296073186813
4706000000.0 0.48426125357269245 -0.885115358683366
4709000000.0 0.4878789500497932 -0.9163498601226123
4712000000.0 0.5010948062516865 -0.8884696927576683
4716000000.0 0.5134138411849604 -0.9053730023180872
4719000000.0 0.5367921037476621 -0.8709691801542443
4722000000.0 0.5302367159569905 -0.8611798270069132
4725000000.0 0.4866718319672064 -0.8822037750051754
4728000000.0 0.48565440104893315 -0.8795780086014614
4731000000.0 0.534625887320507 -0.9010174349721137
4734000000.0 0.530878776966704 -0.8550135988056774
4738000000.0 0.5390766451783737 -0.9164439104726229
4741000000.0 0.4912200489922809 -0.9152057142138058
4744000000.0 0.5147514127352066 -0.8916161782740776
4747000000.0 0.5179496405778 -0.8672628606918994
4750000000.0 0.47908175880645293 -0.8993018451605219
4753000000.0 0.5261185513475377 -0.8861245377389082
4756000000.0 0.5005034699302195 -0.8857870263706392
4759000000.0 0.5145620612075997 -0.8926711141976925
4762000000.0 0.47960490827818164 -0.9081024603431218
4766000000.0 0.5059672413113186 -0.9241068490648006
4769000000.0 0.4739596562037124 -0.8890694068135158
4772000000.0 0.5098332373095338 -0.9089836638901438
4775000000.0 0.5120856105493052 -0.9424915929746365
4778000000.0 0.4956617480378294 -0.9405597355791282
4781000000.0 0.515863914762856 -0.8759850629490049
4784000000.0 0.5363102919367199 -0.868933187647005
4788000000.0 0.5000543104015766 -0.8900488307121658
4791000000.0 0.5076472923975763 -0.8770245714368513
4794000000.0 0.5423267273518589 -0.9077073026015735
4797000000.0 0.5072462002791676 -0.8982697186616677
4800000000.0 0.5009370361514088 -0.8852383285074984
4803000000.0 0.4470833098600122 -0.8815058285076102
4806000000.0 0.4977335128801885 -0.9088751074983218
4809000000.0 0.4880636884808405 -0.896893818058754
4812000000.0 0.46607934945250507 -0.900218866371388
4816000000.0 0.5167316215982674 -0.8889618052487559
4819000000.0 0.5230152368741782 -0.915428190520599
4822000000.0 0.5356685246358084 -0.9078109955468605
4825000000.0 0.5430965831977452 -0.8948237340332736
4828000000.0 0.5029240287764517 -0.873052139922905
4831000000.0 0.4737673792818081 -0.9312905894376907
4834000000.0 0.520536950923855 -0.8810706355639053
4838000000.0 0.49797590303737715 -0.9222888359734628
4841000000.0 0.47565576567777634 -0.872199659712473
4844000000.0 0.5344649002679738 -0.8736959756534098
4847000000.0 0.5135905190422213 -0.8715107244777509
4850000000.0 0.5085692310506422 -0.9200145827684394
4853000000.0 0.4931618749963055 -0.8762230264774511
4856000000.0 0.48925772079923346 -0.8732426327962567
4859000000.0 0.5148508431744916 -0.939367922339713
4862000000.0 0.5232938412671924 -0.8639784206564414
4866000000.0 0.4961383565984343 -0.9257954396051917
4869000000.0 0.4892122974351098 -0.8795870064315576
4872000000.0 0.49564613915285 -0.9226372722129301
4875000000.0 0.5659666866800032 -0.88244275891424
4878000000.0 0.5148730631892586 -0.9068927442543627
4881000000.0 0.5114205422088149 -0.9638098172172181
4884000000.0 0.5421070435236307 -0.8909700509786957
4888000000.0 0.5393776390908042 -0.8763019108132045
4891000000.0 0.5236353980205125 -0.9182262245821944
4894000000.0 0.4890650483788278 -0.9058520315055002
4897000000.0 0.5564277665623587 -0.8682095566845334
4900000000.0 0.5249023833609534 -0.9057211543398241
4903000000.0 0.5254067881356591 -0.9222288358658948
4906000000.0 0.4948907752014971 -0.9136109935004546
4909000000.0 0.48446331393413183 -0.9226102859836575
4912000000.0 0.5198622346560782 -0.965308325657994
4916000000.0 0.5573955516705581 -0.9052563124522484
4919000000.0 0.5450826077534494 -0.9287592363628279
4922000000.0 0.5240437697922482 -0.8686889586591408
4925000000.0 0.5067782019615685 -0.9145529540517237
4928000000.0 0.5586856472305626 -0.8701379028413476
4931000000.0 0.5548741518321648 -0.9173534014873084
4934000000.0 0.4924775783264196 -0.8703373255399524
4938000000.0 0.509325735794261 -0.9047194104426379
4941000000.0 0.530429664309595 -0.8854905281221228
4944000000.0 0.5123058425825708 -0.8395359682620727
4947000000.0 0.5049865082007458 -0.881065660441505
4950000000.0 0.5179591702889775 -0.8823672736154179
4953000000.0 0.5048152755630664 -0.9115688892443641
4956000000.0 0.48553329165580505 -0.8958616961209379
4959000000.0 0.4717093158891265 -0.8881218322670731
4962000000.0 0.5362930183963756 -0.9175518498298435
4966000000.0 0.5322021843813725 -0.9088888985916033
4969000000.0 0.535236712842446 -0.9127585351355701
4972000000.0 0.5005676636958978 -0.8897022975901101
4975000000.0 0.5586348485241622 -0.8715081656926884
4978000000.0 0.5134714476615703 -0.9171649442845511
4981000000.0 0.5081422452539144 -0.9045793073421519
4984000000.0 0.5029433387921544 -0.8591751884711839
4988000000.0 0.5128759670846882 -0.9044962103049321
4991000000.0 0.5932279990255429 -0.9045686031162157
4994000000.0 0.5395797233158035 -0.8900962444552766
4997000000.0 0.5056622501479882 -0.9059723723147395
5000000000.0 0.558099616873405 -0.8961054814366247
5003000000.0 0.5805497038149072 -0.9067849390566954
5006000000.0 0.5731839238901374 -0.9427570056085641
5009000000.0 0.5591486770950844 -0.8690686089743664
5012000000.0 0.5255801837219434 -0.9317283813109719
5016000000.0 0.5947777098315596 -0.9039829360912337
5019000000.0 0.5174511302837029 -0.9083650618249998
5022000000.0 0.531313296273019 -0.8977408914931955
5025000000.0 0.5781514403225426 -0.927400081281283
5028000000.0 0.5113203737750749 -0.9120177408062496
5031000000.0 0.5248085143731511 -0.9070989771583549
5034000000.0 0.5035796689679526 -0.9536006012005908
5038000000.0 0.5050203767937858 -0.8942945235106446
5041000000.0 0.5609949823868381 -0.8923920854487336
5044000000.0 0.5387167609852104 -0.8721876383883529
5047000000.0 0.5242397233926901 -0.898846685630962
5050000000.0 0.599875237442841 -0.8398586410451977
5053000000.0 0.5486161720821852 -0.9048967419779606
5056000000.0 0.5777513326502339 -0.8972575822283826
5059000000.0 0.5815296737063448 -0.8977889631642687
5062000000.0 0.5066295293739778 -0.9492386421076029
5066000000.0 0.5740533481712464 -0.8383337482369102
5069000000.0 0.5457991150714209 -0.8829957458477398
5072000000.0 0.5423714106485831 -0.8628000470174317
5075000000.0 0.5781609241235407 -0.8598383391314912
5078000000.0 0.4659770626559438 -0.9001804215047717
5081000000.0 0.5240176568413946 -0.8572815140208704
5084000000.0 0.5405146584298328 -0.8741703225328512
5088000000.0 0.571465644290053 -0.8597801534090166
5091000000.0 0.5131583645203996 -0.9019274524733882
5094000000.0 0.5392207129504523 -0.9099397696554608
5097000000.0 0.5884289979339403 -0.8492940243638181
5100000000.0 0.5353878993207897 -0.8696659927664727
5103000000.0 0.5471092856429052 -0.8951083117330811
5106000000.0 0.5463711493767107 -0.9154706613934807
5109000000.0 0.5512411332788362 -0.8810639392222823
5112000000.0 0.46931874778552285 -0.8979123565764725
5116000000.0 0.5075246383324475 -0.8386130763274133
5119000000.0 0.5932837935792585 -0.8546047506542376
5122000000.0 0.5360862757352911 -0.8636921184091257
5125000000.0 0.5813709571925334 -0.8477894069308065
5128000000.0 0.537547114097829 -0.8979399390431342
5131000000.0 0.5663807234446966 -0.8944602617655899
5134000000.0 0.5871884037625745 -0.8785036515580431
5138000000.0 0.5793776078642984 -0.8380920258779652
5141000000.0 0.5958794939277082 -0.8655883129462227
5144000000.0 0.5780287330832974 -0.8684126874270499
5147000000.0 0.5861738346495645 -0.9058161535302958
5150000000.0 0.5721549024211179 -0.9211795141859518
5153000000.0 0.5488465429177032 -0.8790580006496052
5156000000.0 0.582939245419017 -0.8846759601235772
5159000000.0 0.6107352836181849 -0.8795883438780545
5162000000.0 0.5549745065933513 -0.8830167539088603
5166000000.0 0.5459002272214184 -0.8701895148389912
5169000000.0 0.5627605779062141 -0.9169558625179213
5172000000.0 0.606461564114255 -0.846525777658468
5175000000.0 0.5669146933067754 -0.8786599910393647
5178000000.0 0.5342251123434645 -0.9218417248910371
