! Created with skrf 1.8.0 (http://scikit-rf.org).
# Hz S RI R 50.0 
!freq ReS11 ImS11
4000000000.0 0.5396291650348612 -0.8998460392259995
4003000000.0 0.5697055735167337 -0.9204376188140615
4006000000.0 0.4994213453502113 -0.9173510546428917
4009000000.0000005 0.5052269610786602 -0.9280982953084724
4011999999.9999995 0.5990180618534902 -0.8679100318530317
4016000000.0 0.47641169026582036 -0.9345624065703676
4019000000.0 0.49387076334335456 -0.8955813814928479
4022000000.0000005 0.5883413062724784 -0.8729615706276896
4025000000.0000005 0.4278965751368592 -0.9528527896454311
4027999999.9999995 0.4813596349274825 -0.8769073678976032
4030999999.9999995 0.4472820567708064 -0.8633718403842916
4034000000.0 0.456746585545007 -0.9167664042062841
4038000000.0000005 0.48829764152846933 -0.9210436971393948
4041000000.0000005 0.48701528456233467 -0.9042112530923129
4043999999.9999995 0.496572280236084 -0.9791473080284837
4046999999.9999995 0.5067787431042775 -0.9029504572723076
4050000000.0 0.4861722584475949 -0.920606013493816
4053000000.0 0.4477847663624302 -0.9431513075017675
4056000000.0 0.4691447327151952 -0.9114438899752286
4059000000.0 0.5162369551044491 -0.8928961911350235
4062000000.0000005 0.4474365954245747 -0.9246743727521083
4066000000.0 0.4613479555704454 -0.8779516729682666
4069000000.0 0.4929639474865066 -0.8944446832705153
4072000000.0 0.5030487938596225 -0.8933791695815644
4075000000.0 0.547406404571215 -0.9289756369374209
4078000000.0000005 0.4800196138005835 -0.9328146845801106
4081000000.0000005 0.5523896279296093 -0.9311195372102334
4083999999.9999995 0.48680413657206245 -0.9468028059242264
4088000000.0 0.4876821044022304 -0.8808609696763608
4091000000.0 0.509434482806252 -0.9577353361074097
4094000000.0000005 0.48638552923492884 -0.9240123866431817
4097000000.0000005 0.49443024508484756 -0.9080459061622032
4099999999.9999995 0.49583350510310104 -0.9157102089035367
4102999999.9999995 0.4838261984303044 -0.8765149024780498
4106000000.0 0.4693412007526947 -0.9245140943362018
4109000000.0 0.4802202314894174 -0.9087455005606861
4112000000.0 0.48884630280332764 -0.8884026530951779
4115999999.9999995 0.5165713765166665 -0.9133330127415012
4119000000.0 0.46079934200231465 -0.9398561257755423
4122000000.0 0.4795314859734628 -0.9335046354325667
4125000000.0 0.47271676144208236 -0.9379536656763071
4128000000.0 0.4809190512375182 -0.8726403705980895
4131000000.0 0.4594170807697748 -0.9023937152715799
4134000000.0000005 0.49746556547354387 -0.8858970058123572
4138000000.0 0.4487826986996394 -0.8909410384642097
4141000000.0 0.44189548845228055 -0.9000973429867365
4144000000.0 0.48178459626935516 -0.9005576570877618
4147000000.0000005 0.4762953764672477 -0.9364237403959706
4150000000.0000005 0.5020261084378831 -0.9307399922247996
4152999999.9999995 0.48119970300614096 -0.8856212889733586
4155999999.9999995 0.48023690012677767 -0.927628301277978
4159000000.0 0.4856213182195601 -0.8834067377820688
4162000000.0 0.500058366182246 -0.8780678734989862
4166000000.0000005 0.46530384665826896 -0.9218435144632431
4168999999.9999995 0.44688652010026897 -0.8767191016979384
4171999999.9999995 0.49531286550199194 -0.90184801510481
4175000000.0 0.4975336925851322 -0.9240301004854602
4178000000.0 0.4873333040664036 -0.9033397506199903
4181000000.0 0.5332933052382026 -0.935703216119627
4184000000.0 0.49019440088442057 -0.9002993563232446
4187999999.9999995 0.4630119920399143 -0.9124679751924976
4191000000.0 0.5045381351015067 -0.8900439638781437
4194000000.0 0.47490578734328703 -0.8807693824895872
4197000000.0 0.5033336088197717 -0.9179715909265362
4200000000.0 0.5084280406942239 -0.8925973853013293
4203000000.0000005 0.5264966929250358 -0.9089079422522844
4206000000.0000005 0.4929844374198671 -0.9364696496339706
4208999999.9999995 0.46366643160382925 -0.8837181975827343
4211999999.9999995 0.46218802409316306 -0.9173462218966747
4216000000.0 0.5013197890180656 -0.9017182822031131
4219000000.0000005 0.5087271091896745 -0.9077461574750944
4222000000.0000005 0.4827346473636665 -0.9218282868762443
4224999999.9999995 0.49399784278375136 -0.8980080951145482
4227999999.9999995 0.4760739097632988 -0.898470601056895
4231000000.0 0.4879246900701923 -0.9072396441844884
4234000000.0 0.48510743494152997 -0.9047842126030263
4238000000.0000005 0.480694881292479 -0.9149072868766648
4240999999.9999995 0.45039680314763375 -0.8914625570790703
4244000000.0 0.4875151207326508 -0.9001542802879682
4247000000.0 0.4880724953676586 -0.9071511325757262
4250000000.0 0.4786863572904367 -0.8778991330137216
4253000000.0 0.4425443630849746 -0.8765550125111777
4256000000.0 0.4795454341266535 -0.9219379571619272
4259000000.0000005 0.4464209214325693 -0.8790034327928803
4261999999.9999995 0.4613728053117955 -0.9101727162038917
4266000000.0 0.44348692289515085 -0.9166199942339195
4269000000.0 0.4873618410513234 -0.8901403439311555
4272000000.0000005 0.46466980551336867 -0.8914308133319883
4275000000.0000005 0.479290986458956 -0.9056355374444736
4277999999.9999995 0.5031470003458893 -0.9080840586192
4280999999.9999995 0.4915154530264125 -0.9151265759569602
4284000000.0 0.45405925740520486 -0.9176519205749543
4288000000.0000005 0.517156360096426 -0.8803267584759285
4291000000.0000005 0.4583471273607715 -0.8884725483192776
4293999999.9999995 0.4666362869591895 -0.8756722783110216
4297000000.0 0.5042701131610218 -0.88145578811537
4300000000.0 0.47643795270198486 -0.879022288307249
4303000000.0 0.4469669182730318 -0.8810313384653661
4306000000.0 0.5013370475830731 -0.8922685575247541
4309000000.0 0.4818435127872467 -0.8754165648824032
4312000000.0 0.5120671320420851 -0.8899874908774488
4316000000.0 0.48576759558160393 -0.8982774824588121
4319000000.0 0.459403392093437 -0.8719872672556973
4322000000.0 0.4362152993575618 -0.8823359203749066
4325000000.0 0.49847849976947833 -0.9075799716732007
4328000000.0 0.4624571178022571 -0.8758567520693095
4331000000.0 0.43594955950789616 -0.9047173035245384
4334000000.0 0.47665642509048206 -0.9156286304816291
4338000000.0 0.4996441802834388 -0.9161909397660052
4341000000.0 0.5134061625742674 -0.9015524657009828
4344000000.0 0.5113063263439405 -0.8927042119207262
4347000000.0 0.4534365142051992 -0.9450341484074086
4350000000.0 0.42231670455065307 -0.8670613794565054
4353000000.0 0.4743965910323697 -0.8857940129242556
4356000000.0 0.43063516380605027 -0.9179658079828595
4359000000.0 0.43350993399525667 -0.8608462555120775
4362000000.0 0.44970651963192465 -0.9237393344899706
4366000000.0 0.4573387928304472 -0.9102130233175454
4369000000.0 0.4470206385797444 -0.8851461227559674
4372000000.0 0.4223272078704755 -0.9027988191590007
4375000000.0 0.4784827122287321 -0.8967433822336638
4378000000.0 0.46859832052289396 -0.8828027844438502
4381000000.0 0.46093516408769464 -0.8836385752572617
4384000000.0 0.4788247321121354 -0.9701020021225127
4388000000.0 0.4576364537261056 -0.8988581292175266
4391000000.0 0.4555744833123697 -0.9222991547267264
4394000000.0 0.4376406440609333 -0.8815100991463459
4397000000.0 0.44907064041796313 -0.9008259897845455
4400000000.0 0.459985033897182 -0.9447650638837857
4403000000.0 0.45092204855179285 -0.9072207328883893
4406000000.0 0.4234399720115848 -0.9079891049816693
4409000000.0 0.47265893256464636 -0.9350008309485722
4412000000.0 0.3881805058764805 -0.9130393885753298
4416000000.0 0.444000275702213 -0.8923934628062994
4419000000.0 0.43901105024362586 -0.9125867357381825
4422000000.0 0.4718129456086019 -0.8977215784224156
4425000000.0 0.4899022751490011 -0.916592698806745
4428000000.0 0.4326712757471509 -0.9130875369174878
4431000000.0 0.46827014253125315 -0.9312692739442094
4434000000.0 0.4473293753971434 -0.8991746066427668
4438000000.0 0.4558771638415406 -0.9188426933255415
4441000000.0 0.4645754833807414 -0.9183362436563574
4444000000.0 0.4584464277797127 -0.884402943252595
4447000000.0 0.43434927726094485 -0.8993047487964938
4450000000.0 0.45357525532568976 -0.8940247213049038
4453000000.0 0.45501767308296065 -0.9284397164629163
4456000000.0 0.4157345293355171 -0.8970831211129424
4459000000.0 0.42724446461592036 -0.8702136664263875
4462000000.0 0.4560722689162608 -0.9607108340355127
4466000000.0 0.44549271122442635 -0.9490241001654129
4469000000.0 0.4716300894053376 -0.909811576829927
4472000000.0 0.421372990715587 -0.9206735570203399
4475000000.0 0.43207167697831567 -0.8846660888981488
4478000000.0 0.4358195685954279 -0.9569234912983433
4481000000.0 0.4116695510748925 -0.8948732109280633
4484000000.0 0.4040734734969534 -0.9213256610170187
4488000000.0 0.41421990819339166 -0.9106031374146762
4491000000.0 0.42523527056726806 -0.9369888922491105
4494000000.0 0.44679992583825345 -0.8874253229647056
4497000000.0 0.4525739294310804 -0.9145100467805609
4500000000.0 0.42769690734175014 -0.8968326764356791
4503000000.0 0.45420492652977223 -0.9347527451299327
4506000000.0 0.42875500987490706 -0.9321648451168776
4509000000.0 0.41316045262112727 -0.9004943217094308
4512000000.0 0.4126224640128788 -0.9236081299376016
4516000000.0 0.4275393658030454 -0.9283003736669166
4519000000.0 0.4231152524438442 -0.8949171771730232
4522000000.0 0.41500206465809564 -0.9194185722044476
4525000000.0 0.44966612608261003 -0.9029879217055174
4528000000.0 0.4356752480301048 -0.9411041841101566
4531000000.0 0.44244783363110474 -0.9130022884549457
4534000000.0 0.40636732246512647 -0.9068928278377087
4538000000.0 0.4170440917733708 -0.9109898776953966
4541000000.0 0.39263593458232504 -0.9240820491110431
4544000000.0 0.4108727534471967 -0.9196464185581594
4547000000.0 0.4310720545967531 -0.9215647363171457
4550000000.0 0.39859213966651597 -0.9333394940559829
4553000000.0 0.4267683458013 -0.9144604210739593
4556000000.0 0.3960285795855511 -0.91371122139229
4559000000.0 0.40603642475695345 -0.9405206388334949
4562000000.0 0.4273829712570092 -0.9485668794215305
4566000000.0 0.42750493912526194 -0.9306386130282189
4569000000.0 0.42027816386415917 -0.9039793110143559
4572000000.0 0.42989737598716055 -0.92144285731863
4575000000.0 0.394588857558146 -0.9285135827530433
4578000000.0 0.4400682712669808 -0.9449826035045594
4581000000.0 0.395023542474599 -0.9310084726498407
4584000000.0 0.3965410237055136 -0.9083342330025251
4588000000.0 0.4206706933984687 -0.9488524525752889
4591000000.0 0.42274582732667465 -0.9044935004711068
4594000000.0 0.39750482728464454 -0.9332422495483949
4597000000.0 0.4157811461307227 -0.9387084686553542
4600000000.0 0.3809152856824841 -0.9383896634284847
4603000000.0 0.38795841888681515 -0.9368656735945682
4606000000.0 0.3980274646159624 -0.9381162989105836
4609000000.0 0.41000962884459724 -0.922787115733365
4612000000.0 0.3768939967347421 -0.9447532521806173
4616000000.0 0.3909007348956074 -0.9292649200237737
4619000000.0 0.41522618453199434 -0.9262140123652064
4622000000.0 0.40632857366549435 -0.919248725245515
4625000000.0 0.37980057586570226 -0.906494466875502
4628000000.0 0.40943163223194845 -0.928324240490102
4631000000.0 0.38818801014985904 -0.9394176102915591
4634000000.0 0.38182959072210065 -0.9362172039089245
4638000000.0 0.41218088731825886 -0.9385991432746286
4641000000.0 0.4069441147284512 -0.9305111434853185
4644000000.0 0.41516204599850026 -0.9226336145617691
4647000000.0 0.3995011076584244 -0.9430475257485382
4650000000.0 0.37625628164335556 -0.9454960530975489
4653000000.0 0.39795703811571215 -0.938431133653313
4656000000.0 0.3830948621004831 -0.9452893113065093
4659000000.0 0.3860928348275859 -0.9185323141557984
4662000000.0 0.39009197370289195 -0.9560897419928536
4666000000.0 0.36477148827812966 -0.9248872560759928
4669000000.0 0.377312419123246 -0.9370234037548978
4672000000.0 0.3873952003754636 -0.960853888410658
4675000000.0 0.382507832446075 -0.9427849308369542
4678000000.0 0.36456749904114055 -0.9261530607396534
4681000000.0 0.37468676829133674 -0.9625267066026416
4684000000.0 0.3580476411363126 -0.9654467923784855
4688000000.0 0.35741858127511894 -0.9535548989959446
4691000000.0 0.40476968382161155 -0.9572412259864477
4694000000.0 0.4113992992778056 -0.9320417513966347
4697000000.0 0.3373576238014961 -0.8885223782136793
4700000000.0 0.39735455099036443 -0.9548583099888328
4703000000.0 0.41001089942442814 -0.9022199482651685
4706000000.0 0.3600934030088411 -0.9831863636989733
4709000000.0 0.34698016958793765 -0.9332834686648506
4712000000.0 0.3933322750492597 -0.9507285642550776
4716000000.0 0.3853739295320842 -0.9587771178996565
4719000000.0 0.4192975260012879 -0.9397761172436939
4722000000.0 0.4067870778422097 -0.9350652989587915
4725000000.0 0.39081481680445784 -0.9588836501049759
4728000000.0 0.3670366034059204 -0.9342065021398948
4731000000.0 0.4333224576429712 -0.994450475757928
4734000000.0 0.37907667224264047 -0.9313635285858449
4738000000.0 0.4028734178456789 -0.9675406301704267
4741000000.0 0.3383666829837207 -0.9801877813490255
4744000000.0 0.36733349869093496 -0.9316615757496223
4747000000.0 0.3916171417792475 -0.9359420641106269
4750000000.0 0.3443713012824424 -0.9684911003333979
4753000000.0 0.4064968918600227 -0.9639208517047526
4756000000.0 0.3701901640873484 -0.94551515992952
4759000000.0 0.3920406113402591 -0.9757774075016689
4762000000.0 0.3619934026761441 -0.9475940589433605
4766000000.0 0.3466244263370439 -0.937148542054507
4769000000.0 0.39343983870189525 -0.9606165500494087
4772000000.0 0.4034474305018004 -0.9684060078086582
4775000000.0 0.3753339758369433 -0.998633848727099
4778000000.0 0.3530953485446492 -0.9634757212040438
4781000000.0 0.37451583218461626 -0.9470029859859459
4784000000.0 0.4118288468159932 -0.9549319111350493
4788000000.0 0.3705404983245451 -0.9542067910871134
4791000000.0 0.371401399002888 -0.9509843403385202
4794000000.0 0.43009976989158105 -0.97111657847572
4797000000.0 0.36872917266258576 -0.9417978154715707
4800000000.0 0.3383600984077681 -0.9417474326597599
4803000000.0 0.34840732918710515 -0.977656355345565
4806000000.0 0.3883804810958177 -0.9611227918211221
4809000000.0 0.3539776307683188 -0.965367386242959
4812000000.0 0.335088000550707 -0.9626943907734226
4816000000.0 0.3924434278738803 -0.9339394113563261
4819000000.0 0.375441105665266 -0.9823729856472604
4822000000.0 0.3843058130977926 -1.0092758076010557
4825000000.0 0.3969012350614163 -0.9907187436950148
4828000000.0 0.3613907996783457 -0.9638956168859205
4831000000.0 0.3505032705937264 -1.0032188941093318
4834000000.0 0.39441588241154735 -0.9594497067003345
4838000000.0 0.3704071646569509 -0.981411290585436
4841000000.0 0.35130652917789734 -0.938944593861495
4844000000.0 0.39583620421231597 -0.9591573322475
4847000000.0 0.3705076149923189 -0.9302613995209592
4850000000.0 0.36487246355817826 -1.0155884221016511
4853000000.0 0.35464484006920444 -0.9554901624342679
4856000000.0 0.37656724043537376 -0.9596562533961841
4859000000.0 0.3923726784946804 -0.9847813695707536
4862000000.0 0.3939160471189286 -0.9215090612662107
4866000000.0 0.35541403924377707 -0.9889546332070895
4869000000.0 0.36686418350655275 -0.9569249971547724
4872000000.0 0.34512966999983746 -0.9880206137680696
4875000000.0 0.42527630836001856 -0.983360499573073
4878000000.0 0.3618401223075879 -0.9848064319965837
4881000000.0 0.3470583198892828 -1.0166754877639996
4884000000.0 0.3969415938911397 -0.945899878709964
4888000000.0 0.41048140487059814 -0.955333468070585
4891000000.0 0.4015526956444571 -0.9736428477628528
4894000000.0 0.344400270938189 -0.9625330951616203
4897000000.0 0.39607961905766687 -0.9635219028252802
4900000000.0 0.39381470562513193 -0.9791123960504133
4903000000.0 0.4100199267261596 -0.9967530016277006
4906000000.0 0.3753205124453125 -0.9840990681748769
4909000000.0 0.3601949270368018 -0.9714124441640398
4912000000.0 0.3598913411187333 -1.0215006263355368
4916000000.0 0.39260204901662543 -0.9905891671189652
4919000000.0 0.41378748458818093 -0.9611716726417489
4922000000.0 0.40398084169697196 -0.978569847808705
4925000000.0 0.31230556863703385 -0.9681920059601474
4928000000.0 0.39685254956736693 -0.915989475578618
4931000000.0 0.4020151452622179 -0.968581474590565
4934000000.0 0.3485972332392908 -0.9387283428165054
4938000000.0 0.33060663739980767 -0.9857007291452895
4941000000.0 0.37128993334624494 -0.9371044913985381
4944000000.0 0.36640838631840283 -0.8841701532840464
4947000000.0 0.3623334048412332 -0.9546758256772686
4950000000.0 0.3561965739733577 -0.9571822920243865
4953000000.0 0.3425199948590846 -1.0200021648409883
4956000000.0 0.34180103175523957 -0.9819882306568593
4959000000.0 0.31636403146253844 -0.9354152928583802
4962000000.0 0.35142401594772377 -1.0128938682505537
4966000000.0 0.4012155019027529 -0.974184464490839
4969000000.0 0.393936857545746 -1.0150972329864967
4972000000.0 0.35818138572142866 -0.9721401273291779
4975000000.0 0.39707523548093265 -0.9328364017497082
4978000000.0 0.36426517856857604 -0.9862689386202808
4981000000.0 0.34519230326106887 -1.0019653685708156
4984000000.0 0.35808803796834454 -0.9457551707138246
4988000000.0 0.3792587486765644 -0.965364823675065
4991000000.0 0.42902254854112665 -0.9683700021872673
4994000000.0 0.3879122725750212 -0.9530301005369486
4997000000.0 0.35179605325291935 -0.9768716943207616
5000000000.0 0.4187101682296813 -1.0006846178550246
5003000000.0 0.3937314041081093 -1.009054912552557
5006000000.0 0.41991789285899417 -1.0202634007598874
5009000000.0 0.38277635577365077 -0.959912164104127
5012000000.0 0.36203243589058776 -0.9870846611789802
5016000000.0 0.4453458588219037 -0.9582412890125551
5019000000.0 0.3412521364555742 -0.9681669543792001
5022000000.0 0.3522900524375736 -0.9959221186363868
5025000000.0 0.374588433038557 -1.0239712967484675
5028000000.0 0.3337720852960987 -1.0091181955965765
5031000000.0 0.348991621657513 -0.9883122957838308
5034000000.0 0.35158649764968963 -1.0253125739423141
5038000000.0 0.31958735324877363 -0.9331898679854946
5041000000.0 0.4373950301435707 -0.9733928185009291
5044000000.0 0.3847953652653516 -0.909091271821623
5047000000.0 0.38555930278116346 -0.9595001600357864
5050000000.0 0.4305353136328283 -0.9364658484149668
5053000000.0 0.3318740951639266 -1.0306714243653543
5056000000.0 0.4104049557396036 -0.9613645818823828
5059000000.0 0.4283889230150071 -0.9792653291348744
5062000000.0 0.35689805960299853 -0.9861618602075688
5066000000.0 0.4098556625628801 -0.9914510470177128
5069000000.0 0.4103570844045266 -0.9629847037598801
5072000000.0 0.3781215316566948 -0.9487105913077647
5075000000.0 0.395035098795268 -0.9632160617531336
5078000000.0 0.31847598218393064 -0.9785261251307746
5081000000.0 0.3688218615274618 -0.9594512269256701
5084000000.0 0.33416346744926356 -1.0078338188179825
5088000000.0 0.3730773124729577 -0.9666532631938001
5091000000.0 0.3203719966624792 -0.947487229704456
5094000000.0 0.40031798752582504 -0.9851934806971441
5097000000.0 0.366349353967447 -1.0038817432810845
5100000000.0 0.3594534485282146 -0.9524774487437244
5103000000.0 0.3257252024480446 -0.9758688633891273
5106000000.0 0.35469956914781375 -0.9608236418250029
5109000000.0 0.3815449044370042 -0.9865510148525842
5112000000.0 0.3915380048858057 -0.9844467593474515
5116000000.0 0.34530527170961517 -0.9494131951074465
5119000000.0 0.3702714872450901 -0.9418493025199768
5122000000.0 0.35717302083370955 -0.9731902130415511
5125000000.0 0.4299648326506375 -0.9498530341596005
5128000000.0 0.3630901842893819 -0.944771100309283
5131000000.0 0.3267384205941769 -0.9922363158316949
5134000000.0 0.36353028358410583 -0.9330354279206137
5138000000.0 0.3728003084705576 -0.9460072105133913
5141000000.0 0.4171114939859465 -0.9288880282622906
5144000000.0 0.3711926656343997 -0.9744032812365853
5147000000.0 0.37046855057654604 -0.9784825414288154
5150000000.0 0.3951586667333007 -0.9879640061175816
5153000000.0 0.34375522054583607 -0.9678164520689604
5156000000.0 0.3965324105591528 -0.9785336135931688
5159000000.0 0.4048204581828738 -1.0629869322702583
5162000000.0 0.3841830362239903 -0.9837909600896996
5166000000.0 0.3678182251656675 -0.9958826239270456
5169000000.0 0.4144931030177353 -0.974460756239111
5172000000.0 0.3838891064558431 -0.9667099457420726
