! Created with skrf 1.8.0 (http://scikit-rf.org).
# Hz S RI R 50.0 
!freq ReS11 ImS11
4000000000.0 0.5308440327811106 -0.7932915959473641
4003000000.0 0.6095013045641614 -0.891522675914163
4006000000.0 0.5210003963634198 -0.8526115289234442
4009000000.0000005 0.5918223038316295 -0.8454493643540207
4011999999.9999995 0.610829572733337 -0.8307990795725037
4016000000.0 0.5602185649706916 -0.8365105837987697
4019000000.0 0.5451112821699695 -0.855980717237558
4022000000.0000005 0.6315703821013796 -0.8443014415080068
4025000000.0000005 0.5418370565273485 -0.9243902646361778
4027999999.9999995 0.5519463294402187 -0.8389701097169442
4030999999.9999995 0.5344510563974394 -0.8402341256175282
4034000000.0 0.5094103876007368 -0.8753419788981452
4038000000.0000005 0.5249863737875524 -0.8996041698404614
4041000000.0000005 0.5146561359601108 -0.865093049328556
4043999999.9999995 0.5677828815785969 -0.9351086835612553
4046999999.9999995 0.5905316873090963 -0.9002222626367187
4050000000.0 0.5262060551040931 -0.885737912366921
4053000000.0 0.5281579408510431 -0.8745069398656683
4056000000.0 0.5470974537554903 -0.8567862296855259
4059000000.0 0.5476898193985533 -0.8466994292965188
4062000000.0000005 0.5119622763924729 -0.8775147029144231
4066000000.0 0.5252363996681426 -0.7976238264031399
4069000000.0 0.5609432850279163 -0.8943196631010968
4072000000.0 0.611273060055967 -0.8089228300813719
4075000000.0 0.6026736043204911 -0.8783060100596227
4078000000.0000005 0.5581911264318458 -0.8713423685681289
4081000000.0000005 0.6198718367178391 -0.8501405136295735
4083999999.9999995 0.5298586326977924 -0.9168278047079566
4088000000.0 0.5737298755064542 -0.85817821077284
4091000000.0 0.5509327087966381 -0.9196886220717043
4094000000.0000005 0.5658508859369267 -0.867732113037646
4097000000.0000005 0.5790953501193069 -0.8522405884366865
4099999999.9999995 0.511125943359144 -0.8408608147930864
4102999999.9999995 0.5940157993897115 -0.8626038679296582
4106000000.0 0.5918417978454873 -0.8484246218512709
4109000000.0 0.5583634364524953 -0.861976201534262
4112000000.0 0.5396275177198385 -0.826191608751259
4115999999.9999995 0.5825906520995247 -0.8690744236224461
4119000000.0 0.5456095070621702 -0.892157207522753
4122000000.0 0.5189385057578855 -0.877453234803211
4125000000.0 0.5019167154729446 -0.8502960882922784
4128000000.0 0.5524966628524035 -0.8425549961752836
4131000000.0 0.5259710158095927 -0.8282303171240645
4134000000.0000005 0.5265634965343217 -0.8218316985055807
4138000000.0 0.5011931945721625 -0.8559649805920342
4141000000.0 0.5610510915667344 -0.8309853124497741
4144000000.0 0.5600403736558112 -0.8569868756176046
4147000000.0000005 0.5263164607638675 -0.8469474799897284
4150000000.0000005 0.5692741012986553 -0.8958630321032756
4152999999.9999995 0.5620602757565333 -0.8749724592677102
4155999999.9999995 0.5648435943944686 -0.8703457211173785
4159000000.0 0.5541590029269198 -0.8248816160145102
4162000000.0 0.5682852817246904 -0.8405150409222764
4166000000.0000005 0.5684138003198009 -0.8993868081760102
4168999999.9999995 0.5343526684838326 -0.8565125662822772
4171999999.9999995 0.553253841936753 -0.8706311489205523
4175000000.0 0.5502790465897411 -0.838271286413501
4178000000.0 0.5611800849869413 -0.8734451366539067
4181000000.0 0.5633276241273917 -0.8497728566833176
4184000000.0 0.5668276367379582 -0.8595135984469241
4187999999.9999995 0.5524552109398109 -0.8544522881793731
4191000000.0 0.5731149535071414 -0.8193325758990322
4194000000.0 0.5396187054927382 -0.8348757380787628
4197000000.0 0.5526877266223833 -0.8660595036488726
4200000000.0 0.5621887434054995 -0.8395482863332164
4203000000.0000005 0.560055752580266 -0.8348109318796232
4206000000.0000005 0.5805599521942337 -0.874516444768719
4208999999.9999995 0.5702428857289965 -0.8313431596010558
4211999999.9999995 0.5427794017793787 -0.8539536496581527
4216000000.0 0.5632346958311983 -0.8538851805968433
4219000000.0000005 0.5755712192573162 -0.8663111652288753
4222000000.0000005 0.5575879329242641 -0.8699923794338263
4224999999.9999995 0.5580078149516977 -0.8332135508164852
4227999999.9999995 0.5600824307900951 -0.8562453896407968
4231000000.0 0.5650985376186386 -0.8577272603557561
4234000000.0 0.5628866624778321 -0.8502077215393979
4238000000.0000005 0.5435403719781193 -0.8330237944752052
4240999999.9999995 0.5399813447143837 -0.8572507788835073
4244000000.0 0.570981921087585 -0.8493934121711619
4247000000.0 0.5582765608249268 -0.843908222247038
4250000000.0 0.54199514821278 -0.8404404130508328
4253000000.0 0.5365910395755358 -0.8297296150393003
4256000000.0 0.548690248692215 -0.8600114525867387
4259000000.0000005 0.536837995133567 -0.8122676982827891
4261999999.9999995 0.5296200757864223 -0.8554171882822487
4266000000.0 0.5147830474494077 -0.8652063881253533
4269000000.0 0.5687978658008496 -0.8426133735180936
4272000000.0000005 0.5415569939240552 -0.8317523409380374
4275000000.0000005 0.5573785309505931 -0.8475335558222489
4277999999.9999995 0.5552205585693678 -0.8717597723846786
4280999999.9999995 0.5714214333783111 -0.8340868031843839
4284000000.0 0.5375751419257903 -0.8868453212732266
4288000000.0000005 0.6031899182849381 -0.83814256838516
4291000000.0000005 0.5480362686831407 -0.8346893365602006
4293999999.9999995 0.5431451882129766 -0.8605521920109526
4297000000.0 0.5608807269376297 -0.8162704385825145
4300000000.0 0.5421789562174617 -0.8140055812890559
4303000000.0 0.5414104149590647 -0.8402713440839634
4306000000.0 0.5987677037516876 -0.8412358963622893
4309000000.0 0.5462645678806648 -0.8142025891970497
4312000000.0 0.557781577041556 -0.8597331872060294
4316000000.0 0.5803709314654446 -0.8665842212545225
4319000000.0 0.5840545374206025 -0.8404418003335391
4322000000.0 0.5109723242100112 -0.8489288442286392
4325000000.0 0.5425878357861362 -0.8329629237358154
4328000000.0 0.5692279724761877 -0.847947038511504
4331000000.0 0.5482808443831222 -0.8639641198688233
4334000000.0 0.5544245531862888 -0.8613492360086649
4338000000.0 0.564834941717118 -0.8529768870595635
4341000000.0 0.6003694987839646 -0.8651108650411931
4344000000.0 0.5594745164432046 -0.8327129376807211
4347000000.0 0.5449889146616762 -0.8578899553449076
4350000000.0 0.5150852990027568 -0.8476923253500909
4353000000.0 0.5486807206086084 -0.8221083568394044
4356000000.0 0.5214098216063238 -0.8439944289137862
4359000000.0 0.5291812500252476 -0.8310734993337149
4362000000.0 0.5155508972069731 -0.8662281920532393
4366000000.0 0.5545093221729713 -0.8626345524448144
4369000000.0 0.5248530874439671 -0.8158777150824956
4372000000.0 0.5001268289693472 -0.8706287094984383
4375000000.0 0.5529207249892482 -0.8288943700325396
4378000000.0 0.5230139990086493 -0.8171899410505383
4381000000.0 0.5489013947681093 -0.8449389229145721
4384000000.0 0.570462730461665 -0.8964319758650935
4388000000.0 0.5424237506574245 -0.8380476655165301
4391000000.0 0.5559119416030179 -0.829121177055154
4394000000.0 0.517201891259845 -0.8375118938020701
4397000000.0 0.5452833944118088 -0.8514160684444557
4400000000.0 0.5571466062438907 -0.86795391574906
4403000000.0 0.5453154096626498 -0.8423696492398514
4406000000.0 0.5115863216181995 -0.8542631806480112
4409000000.0 0.5623986147739601 -0.889409289614673
4412000000.0 0.49435768269839986 -0.8770483333202422
4416000000.0 0.5284254180959984 -0.8504174309542082
4419000000.0 0.5215182671616225 -0.8618560013144867
4422000000.0 0.5526991908120527 -0.8294179435178163
4425000000.0 0.5753621341020314 -0.8497317767745469
4428000000.0 0.538345345474538 -0.8542921844513163
4431000000.0 0.5452498509271642 -0.8635493325860184
4434000000.0 0.529844595153267 -0.853729708896674
4438000000.0 0.5545185274737062 -0.8650248198044056
4441000000.0 0.5597850447683081 -0.862091334815362
4444000000.0 0.5366791726814698 -0.8303313922301319
4447000000.0 0.5315123167134889 -0.8496900167903729
4450000000.0 0.5287541508469864 -0.838786882320752
4453000000.0 0.5578531508069903 -0.872060116231117
4456000000.0 0.508374246889409 -0.8334317692030728
4459000000.0 0.4977438162346165 -0.8191072241054832
4462000000.0 0.5465525126613311 -0.9011036662445915
4466000000.0 0.555949823813735 -0.889440662028316
4469000000.0 0.5515290009262963 -0.8510003037545263
4472000000.0 0.5330965903364454 -0.8687946791197498
4475000000.0 0.5189157220326029 -0.8382424312049204
4478000000.0 0.5346470247294405 -0.8969499160372365
4481000000.0 0.516118641606401 -0.8410642108371866
4484000000.0 0.4881115778792277 -0.8761804299440882
4488000000.0 0.5127122729095878 -0.8543918870109075
4491000000.0 0.5259968273432769 -0.8551444181769357
4494000000.0 0.5297746810359036 -0.8511472484622293
4497000000.0 0.5408984864245815 -0.8593650391091177
4500000000.0 0.542882569181184 -0.8490400191579633
4503000000.0 0.541216528031152 -0.8728108278928537
4506000000.0 0.5198394671618822 -0.8511437998611913
4509000000.0 0.5250771476296915 -0.8480554447878995
4512000000.0 0.5154324877377143 -0.85551823880415
4516000000.0 0.5322639923386298 -0.8670692759558813
4519000000.0 0.5246818483083151 -0.8424748576718579
4522000000.0 0.5176346917433006 -0.8494919792314464
4525000000.0 0.546653249054291 -0.8287010610554166
4528000000.0 0.5385765704965244 -0.8846844596176704
4531000000.0 0.5381081077506096 -0.8503752759880757
4534000000.0 0.526219151900778 -0.8381393232972372
4538000000.0 0.5271810917683039 -0.8568515634304843
4541000000.0 0.4792573974854935 -0.8617316820917277
4544000000.0 0.5172042226867172 -0.8274108828194184
4547000000.0 0.5226686939673377 -0.8297789221464471
4550000000.0 0.5169068148492851 -0.8810106129262641
4553000000.0 0.5286794451896268 -0.8661295056440681
4556000000.0 0.5014533961351444 -0.854767832810314
4559000000.0 0.51215619746984 -0.8460695821115964
4562000000.0 0.5246227091270907 -0.885937933036317
4566000000.0 0.5228916140825566 -0.8837850862209649
4569000000.0 0.5085285267838406 -0.8377578459139619
4572000000.0 0.5236423389622946 -0.8687454842309065
4575000000.0 0.5153665036135258 -0.871596428785944
4578000000.0 0.5578478968702207 -0.8820104417490275
4581000000.0 0.4893136479508906 -0.8678603886866322
4584000000.0 0.5098294118055738 -0.8747718437824082
4588000000.0 0.5275351148830344 -0.8736095638299838
4591000000.0 0.551647124210159 -0.8630269551846246
4594000000.0 0.5035935641771743 -0.8697657203969527
4597000000.0 0.5055151615993602 -0.8728196993570837
4600000000.0 0.48466113127127725 -0.8657360003551696
4603000000.0 0.5159602681027058 -0.8566992876922441
4606000000.0 0.5213383406073318 -0.8610327578773456
4609000000.0 0.5253344426308693 -0.8604873281186743
4612000000.0 0.5316056857596417 -0.8821708814524418
4616000000.0 0.5141084942767189 -0.8528096251541548
4619000000.0 0.5299003553684863 -0.8709744589043832
4622000000.0 0.4992396491171739 -0.8643644678187178
4625000000.0 0.4774420798088142 -0.8673605320614851
4628000000.0 0.5289048314178402 -0.8758588371783571
4631000000.0 0.48844178669812566 -0.8579629980155451
4634000000.0 0.5034374518690379 -0.8683814555825489
4638000000.0 0.5208556184935194 -0.8685011066971091
4641000000.0 0.5270208556281011 -0.8703813974058353
4644000000.0 0.5041593644840142 -0.8668449976194724
4647000000.0 0.5320103827954954 -0.8772678787648586
4650000000.0 0.4921261451640593 -0.8850177796233141
4653000000.0 0.5300506556418256 -0.8788866873109902
4656000000.0 0.51322164624902 -0.8595890336323886
4659000000.0 0.49374894254850565 -0.876485782703891
4662000000.0 0.5042781685068236 -0.8839944515690137
4666000000.0 0.5099340467444028 -0.8888384276369421
4669000000.0 0.5257188199207317 -0.8644139230793495
4672000000.0 0.50672820615563 -0.9019644816986438
4675000000.0 0.4828445959882042 -0.8917914162399707
4678000000.0 0.48308205480442734 -0.8601409302159568
4681000000.0 0.48488517609575643 -0.9033467746052694
4684000000.0 0.4817098352050521 -0.8909118381514001
4688000000.0 0.48848870492732505 -0.8804648227359865
4691000000.0 0.531075369693647 -0.8632153776379936
4694000000.0 0.5031183399532286 -0.8765118222015055
4697000000.0 0.47036950193016724 -0.865594373168254
4700000000.0 0.488411205715641 -0.8834180096765523
4703000000.0 0.5032962805338334 -0.8464593296302038
4706000000.0 0.5004356426287022 -0.8959936879555098
4709000000.0 0.4905923111942767 -0.8639236748063184
4712000000.0 0.5163406042004449 -0.8793303509212581
4716000000.0 0.5161169249762866 -0.876415908203638
4719000000.0 0.5259508477244934 -0.870573776314827
4722000000.0 0.5249326613954405 -0.8695995789577883
4725000000.0 0.5191027438080721 -0.8833381914291617
4728000000.0 0.4855161488126596 -0.8671642598987205
4731000000.0 0.5157075444798768 -0.8728609411927026
4734000000.0 0.514194609008404 -0.8484794126435802
4738000000.0 0.5294307543827645 -0.8967775562700525
4741000000.0 0.5103829926320812 -0.9085856527617219
4744000000.0 0.5005282097061923 -0.8613228084915324
4747000000.0 0.512781666821708 -0.842529327444261
4750000000.0 0.5246794020666002 -0.9103284690579818
4753000000.0 0.512529920650082 -0.8790624688477325
4756000000.0 0.5077566086590358 -0.8974561319250616
4759000000.0 0.5318534707004755 -0.8831331407987116
4762000000.0 0.5117285914173544 -0.9059146369866451
4766000000.0 0.504999841794171 -0.8464145684280429
4769000000.0 0.503293082867498 -0.8850875961290756
4772000000.0 0.5083283761168669 -0.8952691787602283
4775000000.0 0.49183733033220967 -0.9266285390788391
4778000000.0 0.501021445801406 -0.9030596588843406
4781000000.0 0.5270128350671617 -0.8719290259597945
4784000000.0 0.533226494911426 -0.8631921893652532
4788000000.0 0.5129453307271997 -0.8718160971516801
4791000000.0 0.49172622154918577 -0.8812506710843571
4794000000.0 0.5470178304102106 -0.9017762259808357
4797000000.0 0.4882871987205092 -0.8737795274401109
4800000000.0 0.49241413839686066 -0.879132558284933
4803000000.0 0.4809340224131379 -0.8904838687224647
4806000000.0 0.5092208562637631 -0.8952414344690585
4809000000.0 0.45764189535610866 -0.9107966277105405
4812000000.0 0.4607703351500789 -0.9094149338848513
4816000000.0 0.5126759384795089 -0.8673561519624544
4819000000.0 0.5313744159262268 -0.8717967497397199
4822000000.0 0.5084669717255095 -0.9127657023891952
4825000000.0 0.5497186602169333 -0.8958383772748312
4828000000.0 0.497161669043829 -0.8825078930061436
4831000000.0 0.4603795404093423 -0.9269794226243266
4834000000.0 0.5336793308997394 -0.8752818903247603
4838000000.0 0.4927395244828494 -0.9070559761546043
4841000000.0 0.4859292645337471 -0.8841699735147048
4844000000.0 0.5198084731214937 -0.8840181071320078
4847000000.0 0.5116870466564856 -0.830253244476598
4850000000.0 0.5088275569329673 -0.9023505095015207
4853000000.0 0.48372689472730823 -0.8610291707251005
4856000000.0 0.4839394577513434 -0.8931382645183102
4859000000.0 0.5139311191436728 -0.9230734938338953
4862000000.0 0.5307478090488824 -0.8682010598510277
4866000000.0 0.4883954926619799 -0.9138097392900135
4869000000.0 0.4762951993654672 -0.9101830998767435
4872000000.0 0.48446869983440405 -0.931443176268884
4875000000.0 0.5748083944087832 -0.9076140394117667
4878000000.0 0.4990388505635227 -0.8929876360279316
4881000000.0 0.502702607072666 -0.9480216429892723
4884000000.0 0.5252298499823749 -0.8911057020980319
4888000000.0 0.5300630438080242 -0.8742979702378951
4891000000.0 0.533530032092213 -0.8760331944513939
4894000000.0 0.491283182458936 -0.8927993979519327
4897000000.0 0.5550110570346889 -0.8555876605702195
4900000000.0 0.5268817557725741 -0.8932811194461852
4903000000.0 0.5109023182592645 -0.8928344378307285
4906000000.0 0.5190333560362674 -0.9207029436421845
4909000000.0 0.5146481027478541 -0.8890534823416144
4912000000.0 0.5061548099777697 -0.9233532371538204
4916000000.0 0.5577326302112524 -0.8997708670573235
4919000000.0 0.5460096963405483 -0.8962426593029733
4922000000.0 0.5262180703546289 -0.8748751934896891
4925000000.0 0.47794982252398516 -0.8969721591012572
4928000000.0 0.5414323761420278 -0.8731167887224521
4931000000.0 0.5509522236705173 -0.8489876784798756
4934000000.0 0.49687369211644794 -0.8997349500957137
4938000000.0 0.4733083373937831 -0.8941233380022534
4941000000.0 0.5054604474869461 -0.8652956710114423
4944000000.0 0.5104999531033468 -0.8515272883189285
4947000000.0 0.504254795909821 -0.8506967973951208
4950000000.0 0.5052879231145667 -0.8687936322406071
4953000000.0 0.4975936980508946 -0.9252948553897591
4956000000.0 0.5004318366150103 -0.9519872554496771
4959000000.0 0.49897059400048765 -0.8904342251538888
4962000000.0 0.5060753297854734 -0.9248538257487758
4966000000.0 0.5411833924353968 -0.8786843754084578
4969000000.0 0.568714075044152 -0.8938256602270436
4972000000.0 0.5312351769421598 -0.8989399806875437
4975000000.0 0.520482761929456 -0.8845312182722129
4978000000.0 0.4933666991982666 -0.8964777841088301
4981000000.0 0.5154614017150086 -0.8933869705035853
4984000000.0 0.5126898289098566 -0.8632832457557886
4988000000.0 0.5466419713337329 -0.8840302007483923
4991000000.0 0.5800397454878828 -0.8797298226393575
4994000000.0 0.5295810708027697 -0.8655233603971987
4997000000.0 0.5002525290356536 -0.879228153367351
5000000000.0 0.5587937357963711 -0.9016686778068412
5003000000.0 0.5574023169301117 -0.902080125593339
5006000000.0 0.5414326283155193 -0.8994427398295671
5009000000.0 0.5370020075591168 -0.8815830715399124
5012000000.0 0.5099700176944999 -0.8879754393356416
5016000000.0 0.5780709054221551 -0.8938395263177473
5019000000.0 0.49889117616240547 -0.8980407588406865
5022000000.0 0.4919015237260346 -0.8793847545923082
5025000000.0 0.5502493518130895 -0.9473781685383524
5028000000.0 0.4942495605600866 -0.8847147148619272
5031000000.0 0.5149386243728611 -0.9141208274595278
5034000000.0 0.5103657336228025 -0.9268209038237942
5038000000.0 0.49060016497536885 -0.8587639762671533
5041000000.0 0.5713709431733438 -0.873377923918843
5044000000.0 0.5327579050672491 -0.8577413552760014
5047000000.0 0.5449796518325386 -0.8620969046496424
5050000000.0 0.5883591499470495 -0.8503998443837762
5053000000.0 0.5525968855577568 -0.9453463424045627
5056000000.0 0.6135309780893186 -0.8674793545012744
5059000000.0 0.6059498648032322 -0.847590111260112
5062000000.0 0.4910565414931826 -0.9103972613295951
5066000000.0 0.5615521253869534 -0.8465917555971789
5069000000.0 0.5399784414480223 -0.8905526435081532
5072000000.0 0.5323492831921788 -0.8383196033720203
5075000000.0 0.5600965541159048 -0.8717782840122652
5078000000.0 0.5424821365101969 -0.9137318271733554
5081000000.0 0.48813204021721185 -0.8762529808138104
5084000000.0 0.5449693311640097 -0.88656442013419
5088000000.0 0.5578287981230925 -0.8787043894185893
5091000000.0 0.4949643714792117 -0.9388522832821682
5094000000.0 0.522422249327424 -0.8847854719948871
5097000000.0 0.5862302596032498 -0.8730872107693517
5100000000.0 0.5155422254361717 -0.8843927339427815
5103000000.0 0.5078068566010887 -0.876456780704816
5106000000.0 0.5662739908098915 -0.9305505924257627
5109000000.0 0.5841504251477228 -0.888425357059001
5112000000.0 0.5216633341870461 -0.8967493234523704
5116000000.0 0.5413854144817375 -0.8322477023672703
5119000000.0 0.5040015210904805 -0.8907858371475241
5122000000.0 0.5404140665856914 -0.8713553140602162
5125000000.0 0.568512959808056 -0.8111802719016938
5128000000.0 0.5325396995004863 -0.8888942901230651
5131000000.0 0.5102569125136132 -0.8521617124545785
5134000000.0 0.5539412085065905 -0.89613154352131
5138000000.0 0.5716943996798113 -0.9078694608271015
5141000000.0 0.5730826022746259 -0.8443766738402976
5144000000.0 0.558945089541437 -0.875534131629957
5147000000.0 0.5547208377207413 -0.8810637457335205
5150000000.0 0.6024534885777476 -0.9197057423056909
5153000000.0 0.579646775766727 -0.8539364271229533
5156000000.0 0.5899389316327686 -0.8595195995617363
5159000000.0 0.5893133822800074 -0.8946466837109693
5162000000.0 0.5192771287207069 -0.8932756272141313
5166000000.0 0.5841690831653068 -0.8996869784300909
5169000000.0 0.5855105248908872 -0.9128527169764384
5172000000.0 0.5308226250822667 -0.8637640912459184
5175000000.0 0.5776019681725295 -0.92028167092602
5178000000.0 0.5643288639577853 -0.8722061098019347
5181000000.0 0.568984466732251 -0.8689777388960681
