! Created with skrf 1.8.0 (http://scikit-rf.org).
# Hz S RI R 50.0 
!freq ReS11 ImS11
4000000000.0 0.5376142465333019 -0.8612838602958671
4003000000.0 0.5761931004482013 -0.9551316943299419
4006000000.0 0.5066909008347279 -0.9160898397479593
4009000000.0000005 0.49894567629840647 -0.8813225253004716
4011999999.9999995 0.5882059781997889 -0.8803504021267096
4016000000.0 0.48787500916654825 -0.8994628873915191
4019000000.0 0.5342158925942171 -0.8465100897283403
4022000000.0000005 0.5707978960813717 -0.8793099730915878
4025000000.0000005 0.483092664919251 -0.9052909331643952
4027999999.9999995 0.5450531507223169 -0.9249664073453467
4030999999.9999995 0.5250809722842753 -0.855079692071143
4034000000.0 0.5360484782193675 -0.8679176732414878
4038000000.0000005 0.5101101961274419 -0.921207883628899
4041000000.0000005 0.5108630722855587 -0.8794366401430186
4043999999.9999995 0.5638664447791516 -0.8929323786384816
4046999999.9999995 0.5855828651265611 -0.9033392972234727
4050000000.0 0.5010967173285029 -0.9012884271048942
4053000000.0 0.4823857397357634 -0.8782757994926588
4056000000.0 0.5124763121636924 -0.9080842253531446
4059000000.0 0.5289966223149655 -0.8558326494977386
4062000000.0000005 0.5070162825375548 -0.8886981308522498
4066000000.0 0.5168597395558269 -0.8765985566137241
4069000000.0 0.4856238700294995 -0.9091540070447381
4072000000.0 0.5384695402436555 -0.8595582440288804
4075000000.0 0.5668168839744615 -0.8614471876934919
4078000000.0000005 0.5220635204612509 -0.9188474036880896
4081000000.0000005 0.6226615646579641 -0.9037292211030536
4083999999.9999995 0.5280744713232067 -0.9220263058706306
4088000000.0 0.5800047505408015 -0.8377514413722175
4091000000.0 0.5655122206963463 -0.969245024191929
4094000000.0000005 0.5293721442258579 -0.8823737886915759
4097000000.0000005 0.5144894821168551 -0.8739491656888789
4099999999.9999995 0.5362344877578459 -0.8774713444672525
4102999999.9999995 0.5273387391100983 -0.9101560100777523
4106000000.0 0.5236368407708448 -0.9111949017242679
4109000000.0 0.48208282460005947 -0.9061750342151634
4112000000.0 0.49126243730564484 -0.8651505601883998
4115999999.9999995 0.5001283064123703 -0.8792448908901599
4119000000.0 0.5529946361894393 -0.9091240160621469
4122000000.0 0.524118509842991 -0.8715476317030538
4125000000.0 0.5281783579980209 -0.8893566889893856
4128000000.0 0.5243876256848465 -0.8662367169479303
4131000000.0 0.5182345380029899 -0.8778316369837508
4134000000.0000005 0.5321907908910856 -0.8668443564440936
4138000000.0 0.46447618320710793 -0.8994391090606693
4141000000.0 0.526003796974101 -0.8794330270719364
4144000000.0 0.5350838629404197 -0.9042808376625072
4147000000.0000005 0.4988374595591166 -0.8816372099575924
4150000000.0000005 0.5522251195743956 -0.9151648685130531
4152999999.9999995 0.5210804609420816 -0.8944056930242228
4155999999.9999995 0.5475684834627614 -0.8877041175130094
4159000000.0 0.5305691324228989 -0.8871506240966428
4162000000.0 0.5341391927395639 -0.9069334931993946
4166000000.0000005 0.5413027630444474 -0.8783835223371054
4168999999.9999995 0.49659579828419337 -0.8915704253768023
4171999999.9999995 0.5245711899731696 -0.8675388626640055
4175000000.0 0.5367706310000302 -0.9049502435478917
4178000000.0 0.5567843834116241 -0.8681620834489118
4181000000.0 0.5105339069950037 -0.8904611297912167
4184000000.0 0.5188265597427322 -0.8615450427466271
4187999999.9999995 0.5149000942412464 -0.8794332032052948
4191000000.0 0.5350645302037513 -0.8528262821965923
4194000000.0 0.49971041114057285 -0.8612210193214679
4197000000.0 0.5078250211266353 -0.8906384818386744
4200000000.0 0.5404546107265331 -0.8851497898431574
4203000000.0000005 0.5523618870544764 -0.8736787076806469
4206000000.0000005 0.5461743778773769 -0.8862913155314358
4208999999.9999995 0.5299469032657992 -0.8613805606457924
4211999999.9999995 0.49439612047231735 -0.8926905168912328
4216000000.0 0.5451153567242885 -0.8883301468896123
4219000000.0000005 0.5415625620487938 -0.8871331394035443
4222000000.0000005 0.5013516895961242 -0.8928648438387908
4224999999.9999995 0.5294252532185204 -0.8765387274126338
4227999999.9999995 0.5162960658978439 -0.8928893347114908
4231000000.0 0.524107291942455 -0.8750030948712737
4234000000.0 0.5233291766122978 -0.9022833789771538
4238000000.0000005 0.5106669292417652 -0.8985296926554343
4240999999.9999995 0.5025955476696515 -0.8880687685059977
4244000000.0 0.5294265582790599 -0.8704051902141611
4247000000.0 0.5333420636756045 -0.8942474800564387
4250000000.0 0.5203729654612654 -0.8645004347942872
4253000000.0 0.5085355489715723 -0.855187676549641
4256000000.0 0.5306473589596084 -0.8994919181570522
4259000000.0000005 0.5052654060981359 -0.8546869082532494
4261999999.9999995 0.5030793769487445 -0.8727371885337943
4266000000.0 0.5040255101338216 -0.9078546605434956
4269000000.0 0.5282348771492369 -0.8704706289534792
4272000000.0000005 0.5219776857763563 -0.8577499401216885
4275000000.0000005 0.5218787825066556 -0.8630437112350545
4277999999.9999995 0.5371314639017146 -0.9027409889913186
4280999999.9999995 0.5448201154267813 -0.8795251546558389
4284000000.0 0.5002722124228681 -0.9124822455127906
4288000000.0000005 0.5450547953008483 -0.8475586314116577
4291000000.0000005 0.5240832645157935 -0.8503175643653482
4293999999.9999995 0.5202609645525753 -0.8650447864967226
4297000000.0 0.5391807154446541 -0.8541636289426415
4300000000.0 0.5017566517251211 -0.8461779628860253
4303000000.0 0.5184649465477587 -0.8555185468167257
4306000000.0 0.5280956169613702 -0.8560200419259301
4309000000.0 0.5225523860755062 -0.8756523570691817
4312000000.0 0.5606304489004745 -0.883601301598657
4316000000.0 0.5177130490769325 -0.8904190885487391
4319000000.0 0.5193748532800316 -0.8540859791059977
4322000000.0 0.47908527417936053 -0.8725071635136855
4325000000.0 0.5286759942956267 -0.868824364455038
4328000000.0 0.4965038487216151 -0.8579010905534076
4331000000.0 0.5112689458795326 -0.8835323884764513
4334000000.0 0.49133888720567903 -0.8855435334774452
4338000000.0 0.515445466845177 -0.8607226995391091
4341000000.0 0.5560940876935816 -0.8907087291091828
4344000000.0 0.5269710250672334 -0.8922168909488251
4347000000.0 0.5028846939743818 -0.889669294288866
4350000000.0 0.48175086534874473 -0.8565815462611124
4353000000.0 0.5238469381774478 -0.8508585208299297
4356000000.0 0.48438550022980187 -0.8799583048061713
4359000000.0 0.48834282680615215 -0.8458522540342223
4362000000.0 0.4564224223163782 -0.8812133985749881
4366000000.0 0.5220466396668483 -0.8813477285735303
4369000000.0 0.4735947399019117 -0.8551412108744441
4372000000.0 0.47653928342977164 -0.8882696130926424
4375000000.0 0.5105947661431833 -0.8707551242096412
4378000000.0 0.4986129475095328 -0.8439925968148838
4381000000.0 0.5042831608436673 -0.8601451949043113
4384000000.0 0.5277476086557 -0.93345695431232
4388000000.0 0.5143673774061213 -0.8569648394657463
4391000000.0 0.524059346440484 -0.8768289439784457
4394000000.0 0.5001279118455965 -0.8520644640600757
4397000000.0 0.49939078033389606 -0.8744086973493254
4400000000.0 0.509333296724169 -0.8835769768613091
4403000000.0 0.4967044309189531 -0.8807468790231389
4406000000.0 0.5010373051177508 -0.8869338007123331
4409000000.0 0.5209519770705522 -0.9120064739922061
4412000000.0 0.449034972466053 -0.8946144603313884
4416000000.0 0.491133923205469 -0.8573305220007355
4419000000.0 0.4793837922907235 -0.891830136611633
4422000000.0 0.5128604067835963 -0.8684922194280834
4425000000.0 0.5376616077148668 -0.8792127890125679
4428000000.0 0.4923048512310785 -0.8942341168645
4431000000.0 0.5278717300470018 -0.901403070832654
4434000000.0 0.5035491119960782 -0.8842508218844424
4438000000.0 0.5077849870774966 -0.9059175840067994
4441000000.0 0.5000014645157268 -0.9004781462380417
4444000000.0 0.49841919425630776 -0.8603527766168424
4447000000.0 0.48510066703495314 -0.8764509265056599
4450000000.0 0.5210556249620124 -0.8593560500169566
4453000000.0 0.5127144820453748 -0.9084521343456484
4456000000.0 0.47320477932913285 -0.8582681410494788
4459000000.0 0.4651308948328859 -0.8451054600949235
4462000000.0 0.5235457267019639 -0.929353724801087
4466000000.0 0.5096041437080425 -0.9106417299759388
4469000000.0 0.5204606674922135 -0.8841494047844758
4472000000.0 0.48122602142112675 -0.9161613663263988
4475000000.0 0.48461500134270563 -0.855982059741803
4478000000.0 0.5055250438312574 -0.9207675936066397
4481000000.0 0.46775979621811026 -0.8717610279429635
4484000000.0 0.45018279480267515 -0.8902797446707065
4488000000.0 0.4853512102496478 -0.87192666790299
4491000000.0 0.4919347985658033 -0.8827794248633072
4494000000.0 0.49126482767102586 -0.8874181795693037
4497000000.0 0.5051710831970122 -0.8738342144641067
4500000000.0 0.4891200628367993 -0.8741021574832806
4503000000.0 0.507581243914905 -0.9165191883584265
4506000000.0 0.47205881443683656 -0.8727788510652339
4509000000.0 0.47406151747150316 -0.8672979453763017
4512000000.0 0.46689772677647684 -0.8829205155952866
4516000000.0 0.5109430102342152 -0.9104457223463849
4519000000.0 0.49696754845266444 -0.8581523923589216
4522000000.0 0.47960988109879554 -0.8954376912047557
4525000000.0 0.5182015821653112 -0.8595113082241583
4528000000.0 0.49510952502981975 -0.9188856732616528
4531000000.0 0.48824231861708434 -0.8842637335558567
4534000000.0 0.47943789471570125 -0.8637337918522747
4538000000.0 0.49684811206894064 -0.8794266112608273
4541000000.0 0.43883227828574906 -0.8829897577620993
4544000000.0 0.4695364871358393 -0.8603733052610509
4547000000.0 0.49140121935831965 -0.8776881387046114
4550000000.0 0.4671417294623354 -0.9035780821060929
4553000000.0 0.4735359753636919 -0.8934814281045358
4556000000.0 0.44691910707434135 -0.8892638810275438
4559000000.0 0.4602370806139725 -0.8837493965714336
4562000000.0 0.5004091567033004 -0.8970911729940605
4566000000.0 0.4673805009100728 -0.8912800321521441
4569000000.0 0.4793179721484102 -0.8820789182080605
4572000000.0 0.46618977436235126 -0.8782150853137487
4575000000.0 0.44971857273648996 -0.9068627831492491
4578000000.0 0.5041147913126236 -0.9114695822356755
4581000000.0 0.46524111697876375 -0.8999482953130225
4584000000.0 0.46722278377852083 -0.8811236703108907
4588000000.0 0.48668253157072106 -0.9050331890414944
4591000000.0 0.4854498254045077 -0.8844205319826313
4594000000.0 0.46117399395631026 -0.8925084084984772
4597000000.0 0.4716735875945417 -0.9135585103415783
4600000000.0 0.4523896732520556 -0.9040877308528281
4603000000.0 0.46859789574088184 -0.913565524641651
4606000000.0 0.48298199747385623 -0.9084940923521834
4609000000.0 0.47326387847514256 -0.8947531824032775
4612000000.0 0.47654224197231104 -0.904221624124561
4616000000.0 0.44809732637824845 -0.9044294739504415
4619000000.0 0.4698811223350802 -0.8938636874306322
4622000000.0 0.4562928271997956 -0.9063122592607404
4625000000.0 0.43261839350015147 -0.8811289556438534
4628000000.0 0.48883819600557077 -0.9094799306166156
4631000000.0 0.4417610748667014 -0.9010532647151807
4634000000.0 0.4615662733243723 -0.8984754224884786
4638000000.0 0.4701802939470563 -0.8918729028899005
4641000000.0 0.46327144590426844 -0.914389365027389
4644000000.0 0.47009327462552697 -0.8992553425065373
4647000000.0 0.4735102346305736 -0.9182798219838857
4650000000.0 0.437722941126389 -0.8893446064203057
4653000000.0 0.4813546683948905 -0.9037637836142559
4656000000.0 0.448507509722718 -0.910842149233594
4659000000.0 0.4590446485158856 -0.9010219987738807
4662000000.0 0.4700284698543241 -0.8923150546655407
4666000000.0 0.4363514355365864 -0.8991590385844035
4669000000.0 0.4723748526849739 -0.8976059873319973
4672000000.0 0.4498444230120141 -0.9285498579296753
4675000000.0 0.43508440580431657 -0.9194028364619293
4678000000.0 0.4528192440491762 -0.8791878269773957
4681000000.0 0.4317499676661026 -0.9405220865220423
4684000000.0 0.44867883658949 -0.8995703408684397
4688000000.0 0.44130746398900556 -0.9133330070645871
4691000000.0 0.475271016997537 -0.887995675269057
4694000000.0 0.4549477837910926 -0.8891430629978739
4697000000.0 0.4218340725041521 -0.9001747080827777
4700000000.0 0.45302663428788753 -0.8864485300732687
4703000000.0 0.47529754816763486 -0.8549350837737513
4706000000.0 0.4473788201010169 -0.9055033715415216
4709000000.0 0.4561663343352754 -0.9252857429484259
4712000000.0 0.45009763015132365 -0.9228911222822979
4716000000.0 0.4741787717051641 -0.9055758838816181
4719000000.0 0.463471555082279 -0.9006248372579562
4722000000.0 0.4661745567272629 -0.9046585268337923
4725000000.0 0.45803625381570207 -0.9098674699017322
4728000000.0 0.44050429786153755 -0.9071490759317701
4731000000.0 0.4644257213297337 -0.9254627712954862
4734000000.0 0.4654751190801631 -0.8902708476462193
4738000000.0 0.5066297060210165 -0.9543154321297019
4741000000.0 0.456147687785451 -0.9611647774646088
4744000000.0 0.45752383401124097 -0.9217380425836511
4747000000.0 0.45763459686094077 -0.8692427050587468
4750000000.0 0.4706242063307386 -0.9364951147684067
4753000000.0 0.4587279728809351 -0.9016784595026942
4756000000.0 0.44337206007888097 -0.9331936555219087
4759000000.0 0.47069759734457695 -0.9266361121534049
4762000000.0 0.43718659188900577 -0.9395396090785281
4766000000.0 0.41821899642126426 -0.924742584533566
4769000000.0 0.45791410122875414 -0.9205611148390752
4772000000.0 0.47530216270027603 -0.9342509309215752
4775000000.0 0.46699554783361635 -0.9613692174023464
4778000000.0 0.43433975514473006 -0.9234935981158713
4781000000.0 0.48691667162814534 -0.9148829743262273
4784000000.0 0.4575260613804525 -0.9102643919952805
4788000000.0 0.44147857772634264 -0.9476481479894839
4791000000.0 0.4406747214042175 -0.9207163434996739
4794000000.0 0.4816489771186912 -0.9439249535441353
4797000000.0 0.4333005903144714 -0.9096511042874982
4800000000.0 0.4258155424975553 -0.9090774892419194
4803000000.0 0.40505818671789695 -0.9466836581911416
4806000000.0 0.4759824847832169 -0.9359568184412396
4809000000.0 0.41582740844589816 -0.9285607612465908
4812000000.0 0.41265658310709197 -0.9262042464848651
4816000000.0 0.4587590972710641 -0.8782917866224808
4819000000.0 0.4636224826034188 -0.9324170498546444
4822000000.0 0.4782646233785962 -0.9443724124462541
4825000000.0 0.4736946095420462 -0.9326590134396268
4828000000.0 0.4445587369015912 -0.9059196559957806
4831000000.0 0.41429755269441365 -0.947523749375714
4834000000.0 0.46039449639159313 -0.9205861660045066
4838000000.0 0.42388492633063046 -0.945732607653654
4841000000.0 0.4339840898171603 -0.9216862080242246
4844000000.0 0.4800433838014465 -0.9030051064955081
4847000000.0 0.46100442900547667 -0.8995705271640706
4850000000.0 0.43264466616356845 -0.9577756399804119
4853000000.0 0.44471502274651453 -0.9099358093220135
4856000000.0 0.43476405975252885 -0.8998644501290907
4859000000.0 0.4363147053088415 -0.9497812789155103
4862000000.0 0.4568271990696071 -0.8923326451691508
4866000000.0 0.43953444098708366 -0.9659180970052883
4869000000.0 0.4321782951468463 -0.9392281160481474
4872000000.0 0.4358028171181695 -0.9640081441258322
4875000000.0 0.53566645946907 -0.9563203050002921
4878000000.0 0.4645510526219143 -0.9365289730002815
4881000000.0 0.4566715165130741 -0.9814860364142599
4884000000.0 0.48218107417780925 -0.922686033533851
4888000000.0 0.5060562146830603 -0.9135797207684138
4891000000.0 0.503653162573436 -0.9186626423395806
4894000000.0 0.44047069208913076 -0.9551936953210789
4897000000.0 0.5008538915792935 -0.9188518352704731
4900000000.0 0.4684236403961837 -0.9445940263448889
4903000000.0 0.46819443650596987 -0.9218648520697788
4906000000.0 0.46861009867259046 -0.9572762756344637
4909000000.0 0.43903809965855545 -0.950584849968666
4912000000.0 0.460241452541329 -0.9685486861357402
4916000000.0 0.4576462765894158 -0.9309665675023499
4919000000.0 0.5126856335216656 -0.9626841124097535
4922000000.0 0.47558645404104316 -0.9501442054265312
4925000000.0 0.42177141668358326 -0.9544585778452223
4928000000.0 0.4655414302250409 -0.8730536954038133
4931000000.0 0.5126470642099908 -0.935164782600549
4934000000.0 0.44180525886551497 -0.880169046658397
4938000000.0 0.3931292758823024 -0.9397765755605172
4941000000.0 0.43142464972555916 -0.8712013858998979
4944000000.0 0.44464998470077965 -0.8550633110195114
4947000000.0 0.4533250375802916 -0.8979963839917136
4950000000.0 0.4688414852783914 -0.907839257953279
4953000000.0 0.4562134773421428 -0.9637673403164585
4956000000.0 0.44449521696796546 -0.9274532868331467
4959000000.0 0.43043239412996875 -0.9232370160624662
4962000000.0 0.4619367347012389 -0.9892560141829474
4966000000.0 0.4797406095692458 -0.9083278848272616
4969000000.0 0.5228572087690628 -0.9721221691050261
4972000000.0 0.45365575106881745 -0.96394053157649
4975000000.0 0.49136179788515866 -0.9058152440686715
4978000000.0 0.4544571242380906 -0.9354467953400363
4981000000.0 0.45295552078078405 -0.9628247298048053
4984000000.0 0.442679435544395 -0.8914440944595279
4988000000.0 0.480873788187004 -0.8948901226663657
4991000000.0 0.5238158409453437 -0.912613176801142
4994000000.0 0.47697362784438035 -0.9126687275115004
4997000000.0 0.4580784105726328 -0.9325319700578455
5000000000.0 0.49486540545512897 -0.954365101852731
5003000000.0 0.45996327682274135 -0.9382661537211368
5006000000.0 0.47211437961222225 -0.9730904360682961
5009000000.0 0.47103315841989923 -0.9370345663752766
5012000000.0 0.44567721847511743 -0.9083711615773757
5016000000.0 0.4902041507443182 -0.9419541922412045
5019000000.0 0.4404680273000141 -0.9542435643437331
5022000000.0 0.46296083635177876 -0.9149442025592928
5025000000.0 0.4837190509295556 -0.958693379764462
5028000000.0 0.4372428291715614 -0.9573568434964261
5031000000.0 0.47415763106861475 -0.9492983477796559
5034000000.0 0.43320193927700923 -0.9910674422780115
5038000000.0 0.4511485036351179 -0.8755506192433087
5041000000.0 0.48784440871500523 -0.9312261911454793
5044000000.0 0.5008465853485384 -0.8888193286552786
5047000000.0 0.4879523680721927 -0.9409648024090984
5050000000.0 0.5394638626791424 -0.8796342039081062
5053000000.0 0.4837893021709234 -0.978386488381003
5056000000.0 0.5033047340909893 -0.9372769242793346
5059000000.0 0.49103094893602933 -0.9337104852456608
5062000000.0 0.43703058901971464 -0.9845384131410964
5066000000.0 0.48989441389315236 -0.9025279032997913
5069000000.0 0.4841244205924142 -0.9297262254182681
5072000000.0 0.4557162014499414 -0.92679961373936
5075000000.0 0.5064843693353356 -0.8883494452015516
5078000000.0 0.4359578794837807 -0.970639226473117
5081000000.0 0.4349119386638616 -0.9304053569431605
5084000000.0 0.4762198078410045 -0.9538217735672934
5088000000.0 0.5058597704913612 -0.9304762209170525
5091000000.0 0.46211141535953437 -0.9720239889662605
5094000000.0 0.47780377343157987 -0.9250822619190208
5097000000.0 0.48904210506245566 -0.9291407291395151
5100000000.0 0.48497482032302114 -0.9150103665624529
5103000000.0 0.44505994854766645 -0.911989365339821
5106000000.0 0.546832725849429 -0.9638758266492176
5109000000.0 0.507411313364516 -0.891657903323567
5112000000.0 0.4675683889217468 -0.9320009706202361
5116000000.0 0.46755007846503704 -0.9058284062875124
5119000000.0 0.43791661929702835 -0.9359221816523908
5122000000.0 0.48226406897978497 -0.9221490469290312
5125000000.0 0.4732205322035041 -0.8957623618515502
5128000000.0 0.43934508234835074 -0.9139482607190905
5131000000.0 0.4598425237328628 -0.9068626701056457
5134000000.0 0.4744302874212601 -0.8911681819110518
5138000000.0 0.5260152993713444 -0.9064486686394022
5141000000.0 0.5149565186315885 -0.9296839629021056
5144000000.0 0.5078931099694918 -0.9110216474152786
5147000000.0 0.529999185307118 -0.9502938390159135
5150000000.0 0.5503312396760818 -0.9200090699983835
5153000000.0 0.5007171281244873 -0.9554781198490145
5156000000.0 0.4750134428923008 -0.9138956618260183
5159000000.0 0.4990159576353142 -0.9424574635264684
5162000000.0 0.44863947918169306 -0.9340453137022066
5166000000.0 0.501169184616661 -0.970359902711502
5169000000.0 0.5220582511151308 -0.9483332203993162
5172000000.0 0.49025026597281224 -0.9295277853218313
