! Created with skrf 1.8.0 (http://scikit-rf.org).
# Hz S RI R 50.0 
!freq ReS11 ImS11
4000000000.0 0.5492467027002992 -0.8850122355445172
4003000000.0 0.5623328846975137 -0.8841583920665282
4006000000.0 0.5207538085587377 -0.9521354253950015
4009000000.0000005 0.5208281285553789 -0.8869529872645915
4011999999.9999995 0.6374773327876776 -0.8878646184752679
4016000000.0 0.5167108418647101 -0.9122945855097
4019000000.0 0.5208293859531469 -0.8630412469641826
4022000000.0000005 0.608705070322308 -0.8222595931344577
4025000000.0000005 0.5199079441666321 -0.9477418110382432
4027999999.9999995 0.5566229016790295 -0.8860270544896579
4030999999.9999995 0.5386331328802911 -0.8226500672274795
4034000000.0 0.49832924896596575 -0.8961063885976808
4038000000.0000005 0.5218549709855831 -0.9391699957751145
4041000000.0000005 0.5513297111687526 -0.8685566700146224
4043999999.9999995 0.5829907177357541 -0.9090943743508648
4046999999.9999995 0.6423200402360192 -0.9221225951670782
4050000000.0 0.5299438353172267 -0.8976546726082221
4053000000.0 0.5218723565115104 -0.8558599391411124
4056000000.0 0.5292866893443869 -0.8744567112623268
4059000000.0 0.542569328869129 -0.84912447652675
4062000000.0000005 0.5096486658063709 -0.898795571334595
4066000000.0 0.48768480010699633 -0.7847648723784969
4069000000.0 0.49671275821684246 -0.920258590250521
4072000000.0 0.5597841407181932 -0.8942241093850689
4075000000.0 0.612744825993775 -0.8971925887669798
4078000000.0000005 0.5353176886292839 -0.8953767425947179
4081000000.0000005 0.6031440685392973 -0.8796084344713482
4083999999.9999995 0.5362674881611117 -0.9163783481695283
4088000000.0 0.5869618114636759 -0.8436728456147214
4091000000.0 0.5802472795477205 -0.9309018607198157
4094000000.0000005 0.5718705684585296 -0.8750205274295152
4097000000.0000005 0.5575721320950028 -0.8996782065912946
4099999999.9999995 0.5305473931038471 -0.8969032197231595
4102999999.9999995 0.5915535514662374 -0.8945351962163373
4106000000.0 0.5455743222897306 -0.8496728227233608
4109000000.0 0.545938447205193 -0.9210026226820254
4112000000.0 0.5607376818292251 -0.9219923645238707
4115999999.9999995 0.5820529195266023 -0.8529215244171168
4119000000.0 0.53589319401126 -0.8842251860375684
4122000000.0 0.5303017627457564 -0.9014036442753492
4125000000.0 0.5480039987062829 -0.9142232820380445
4128000000.0 0.5359865814618326 -0.8561898121442854
4131000000.0 0.5121396109352349 -0.8552418360353633
4134000000.0000005 0.5670182200376976 -0.8704372857656262
4138000000.0 0.545836155030112 -0.8564862901688775
4141000000.0 0.5293900533742559 -0.8531963297605888
4144000000.0 0.5734508270422539 -0.8730126881136288
4147000000.0000005 0.5059213902023332 -0.9183845905651546
4150000000.0000005 0.5646015145629132 -0.90182783240698
4152999999.9999995 0.5097112470691639 -0.8896753496175142
4155999999.9999995 0.588625751038363 -0.9073007678674481
4159000000.0 0.5596232140917539 -0.8766753303035573
4162000000.0 0.5557177098341053 -0.8451098913710887
4166000000.0000005 0.5402352406641379 -0.8931227259895521
4168999999.9999995 0.513907548302561 -0.873360198326177
4171999999.9999995 0.5640860945519349 -0.8738687041118902
4175000000.0 0.5723428314958902 -0.8733662721360604
4178000000.0 0.5681272639359993 -0.9151300935734493
4181000000.0 0.5444298761462106 -0.8814890710820658
4184000000.0 0.5572764958005872 -0.8819908605058914
4187999999.9999995 0.553217517264085 -0.8545271454051894
4191000000.0 0.5747439515520867 -0.825233058974197
4194000000.0 0.5346369307883394 -0.8604807694211861
4197000000.0 0.539177084581133 -0.881508024996063
4200000000.0 0.589891062470256 -0.8748155279958123
4203000000.0000005 0.5397880005831668 -0.8735382604212367
4206000000.0000005 0.5581591026337551 -0.8430787214286741
4208999999.9999995 0.5461892329230448 -0.8573212379179924
4211999999.9999995 0.5283598676003356 -0.8750867943651806
4216000000.0 0.554923428492579 -0.8594861734567356
4219000000.0000005 0.566069387171466 -0.8575776423610688
4222000000.0000005 0.5512107483202078 -0.8668047128593471
4224999999.9999995 0.5464035916226067 -0.8511943095049657
4227999999.9999995 0.5561625280569926 -0.8808514008665432
4231000000.0 0.5592177890119825 -0.8778503404689867
4234000000.0 0.553105901477781 -0.8719814588687614
4238000000.0000005 0.5434616497688033 -0.8573434439415214
4240999999.9999995 0.5149296572067293 -0.8678073570280049
4244000000.0 0.5633019609501513 -0.8621957121549277
4247000000.0 0.54516159779515 -0.8595856048209942
4250000000.0 0.5195732336997274 -0.8457559943768433
4253000000.0 0.5000245118675279 -0.8342965933855171
4256000000.0 0.5646684535391726 -0.8713605067169942
4259000000.0000005 0.51343620272739 -0.8279839538461858
4261999999.9999995 0.5381884218459372 -0.8668997771336916
4266000000.0 0.5395155587350918 -0.8829715593083973
4269000000.0 0.5697280049407085 -0.8374538631307136
4272000000.0000005 0.5376793972517433 -0.8632657585034533
4275000000.0000005 0.5583684659333024 -0.8840414516238997
4277999999.9999995 0.5695464313207529 -0.8764024951237244
4280999999.9999995 0.5660174282573425 -0.8486166683293574
4284000000.0 0.5310781335472478 -0.8793346064580889
4288000000.0000005 0.5609358832421684 -0.8363198791533097
4291000000.0000005 0.5324053756580945 -0.8493694162368581
4293999999.9999995 0.5392500323295344 -0.8819631049010961
4297000000.0 0.5684369013034727 -0.8291224405547853
4300000000.0 0.5382870885067788 -0.8344724605794119
4303000000.0 0.5095739751821895 -0.841350116988621
4306000000.0 0.55747817655405 -0.8530361180922243
4309000000.0 0.5493200130386471 -0.8676457273622639
4312000000.0 0.6126201403676019 -0.8481577122937503
4316000000.0 0.549557479155972 -0.8740866308197843
4319000000.0 0.5424571963212855 -0.8174739613223888
4322000000.0 0.5228389197231772 -0.8688309376446801
4325000000.0 0.5454729828457814 -0.8652251929577828
4328000000.0 0.5399521736128399 -0.8556893466073983
4331000000.0 0.5410585829849789 -0.8972030151261244
4334000000.0 0.5534381917042281 -0.8743322237274064
4338000000.0 0.5570985491089637 -0.846914808275086
4341000000.0 0.5910044061686774 -0.8646531325871439
4344000000.0 0.5815742577856696 -0.8510743122013595
4347000000.0 0.5383536226403653 -0.8846449919105306
4350000000.0 0.5341909853620623 -0.8541826922989961
4353000000.0 0.5539596846496881 -0.8433235189066307
4356000000.0 0.5098776726481993 -0.8698362853333972
4359000000.0 0.5011505662832053 -0.8295107721468875
4362000000.0 0.4897483259738452 -0.9068787825821798
4366000000.0 0.5430758896587512 -0.9011231080026876
4369000000.0 0.5111870870490289 -0.8540986178937867
4372000000.0 0.49155725016021606 -0.8735397780735006
4375000000.0 0.5576621254735856 -0.8381485618496787
4378000000.0 0.5146158837518079 -0.8378846360560617
4381000000.0 0.5242967081672933 -0.8430734824024897
4384000000.0 0.5529414398215459 -0.9112572468231468
4388000000.0 0.5354017078323385 -0.8358578904490807
4391000000.0 0.55418840163765 -0.8710148501024266
4394000000.0 0.5021246578446785 -0.8494185416638332
4397000000.0 0.5249074592046901 -0.8489286344107768
4400000000.0 0.5370720861820135 -0.8952752814923628
4403000000.0 0.5314152249403837 -0.8712014154626673
4406000000.0 0.5108216295790338 -0.8806065689005105
4409000000.0 0.5513835113455035 -0.88197561051347
4412000000.0 0.4818957225479441 -0.881905533735807
4416000000.0 0.5145709150482423 -0.8569759501444362
4419000000.0 0.5113333686647594 -0.8690195595036768
4422000000.0 0.5309854329000623 -0.8456213775910276
4425000000.0 0.552876727956054 -0.8639583568604567
4428000000.0 0.512726945065092 -0.8632385179108729
4431000000.0 0.5467879849318279 -0.8723187299899633
4434000000.0 0.5296117605830458 -0.8623636173228107
4438000000.0 0.5408087952424065 -0.8907125949728694
4441000000.0 0.5316295232653127 -0.8723592995718593
4444000000.0 0.5180930915382986 -0.8426673538485321
4447000000.0 0.5081818737022986 -0.8666736966571866
4450000000.0 0.5307180697339573 -0.8515048173071
4453000000.0 0.5437974415024319 -0.8854454752608103
4456000000.0 0.4907060708979209 -0.847148923530004
4459000000.0 0.5004874885332846 -0.8400832893971844
4462000000.0 0.5588987285704192 -0.9208971444612095
4466000000.0 0.5481820837677515 -0.8925661863078701
4469000000.0 0.5421639062201266 -0.8627343476316602
4472000000.0 0.5149284343078082 -0.8913731979741131
4475000000.0 0.5253519831924797 -0.8470715350167728
4478000000.0 0.5242463479737358 -0.9050209276319326
4481000000.0 0.5065655226358319 -0.8460214887766389
4484000000.0 0.4787376292011399 -0.8872376180059214
4488000000.0 0.5035098130877022 -0.8723558802910475
4491000000.0 0.5182808260816603 -0.8688157097006419
4494000000.0 0.5114645570271819 -0.8589063150555587
4497000000.0 0.5340532672243499 -0.8433138740703698
4500000000.0 0.5229459516449492 -0.8524905812280299
4503000000.0 0.5400383370686996 -0.8781135716292641
4506000000.0 0.5201223869529524 -0.8560910316732986
4509000000.0 0.5328058953180852 -0.8784637825758904
4512000000.0 0.5069188264760496 -0.8553960195723302
4516000000.0 0.5464983360990918 -0.894331764439034
4519000000.0 0.5186338081404384 -0.8418472374560477
4522000000.0 0.5087673661001311 -0.8817006205443385
4525000000.0 0.5333152500069396 -0.8487930213044248
4528000000.0 0.5011839778486454 -0.8845361053002758
4531000000.0 0.5318879025301235 -0.8668887689419857
4534000000.0 0.5061664703464237 -0.8603139337899832
4538000000.0 0.5118830203256955 -0.8690987994184785
4541000000.0 0.47053239195662744 -0.8924137529875728
4544000000.0 0.4969076212372632 -0.864971826864554
4547000000.0 0.528603678692446 -0.855785912520032
4550000000.0 0.5040340684918007 -0.8917910722702246
4553000000.0 0.5019684210659099 -0.8874541963219594
4556000000.0 0.495750669303447 -0.8612199343331313
4559000000.0 0.49083522173690564 -0.8872828742707708
4562000000.0 0.5036887394844933 -0.8820838083672508
4566000000.0 0.49282307818979143 -0.8762142480488365
4569000000.0 0.4879115934330204 -0.842152062305535
4572000000.0 0.495157793957539 -0.8593677891946256
4575000000.0 0.4826337959986719 -0.894022626838467
4578000000.0 0.528752627676469 -0.8870964494378728
4581000000.0 0.4925830430596725 -0.8892577784199122
4584000000.0 0.49945424047154785 -0.8666560433521024
4588000000.0 0.5224250367776839 -0.8865519537387874
4591000000.0 0.5059263007839865 -0.859979507947335
4594000000.0 0.4815920464858027 -0.8783264137048665
4597000000.0 0.5163373890417785 -0.9050422984548308
4600000000.0 0.48283610523288 -0.8791512839188278
4603000000.0 0.5022656450008871 -0.869768858745301
4606000000.0 0.5119892714609763 -0.8955391698704271
4609000000.0 0.4941865665610381 -0.8767331204761908
4612000000.0 0.49960774792857376 -0.8920119257026655
4616000000.0 0.4891846417006846 -0.8770183201843872
4619000000.0 0.5192608432061239 -0.8530942036790619
4622000000.0 0.501787525600669 -0.8801777162217767
4625000000.0 0.4701365290819172 -0.8705649198053029
4628000000.0 0.515583344737004 -0.8857836592389556
4631000000.0 0.4708976304694783 -0.8863717195835852
4634000000.0 0.4805898058459829 -0.8907883961611938
4638000000.0 0.49019566913782164 -0.8778666209691637
4641000000.0 0.5099893770863019 -0.8898773049360074
4644000000.0 0.47608326696003056 -0.8735188243955794
4647000000.0 0.510549041927295 -0.8801076393188174
4650000000.0 0.4845729318470256 -0.8996418929988026
4653000000.0 0.5192301576944957 -0.8950538996550359
4656000000.0 0.4806113765573027 -0.8827779763201083
4659000000.0 0.48602554654852226 -0.8941507847760048
4662000000.0 0.4810121382797732 -0.89188261148389
4666000000.0 0.4920888820126888 -0.8882633682712365
4669000000.0 0.495793336987204 -0.8839485590307424
4672000000.0 0.47704961334720036 -0.8982946940467046
4675000000.0 0.4703781620394265 -0.9057103946552513
4678000000.0 0.49088554983595584 -0.88090637791784
4681000000.0 0.48085606860743996 -0.8978699657970985
4684000000.0 0.4665318636658874 -0.8912246842082426
4688000000.0 0.4753968892976471 -0.8888847954931504
4691000000.0 0.5164632880629412 -0.8947717098027993
4694000000.0 0.4995776411828596 -0.8759264855529938
4697000000.0 0.4708575524350289 -0.8771318314379278
4700000000.0 0.4736001863427256 -0.8742692167876867
4703000000.0 0.4994711967188073 -0.8586100177876266
4706000000.0 0.4906958452717811 -0.9064312049742177
4709000000.0 0.4949366885879402 -0.8955649389938405
4712000000.0 0.49218823014814317 -0.8879231439417976
4716000000.0 0.49487309203638163 -0.8922321984822617
4719000000.0 0.5355379955910343 -0.8745280648850879
4722000000.0 0.5150538040948045 -0.8911781844319601
4725000000.0 0.4621809935870113 -0.89077912983024
4728000000.0 0.48480203181700465 -0.8952197965240021
4731000000.0 0.5391851032571033 -0.9158278842091477
4734000000.0 0.4693227340179021 -0.8358782135580552
4738000000.0 0.5289922469969626 -0.9099222648910605
4741000000.0 0.48937413836273197 -0.91443406911454
4744000000.0 0.45932785949582905 -0.9096455079820209
4747000000.0 0.482089858758577 -0.888345239036956
4750000000.0 0.47880907995294175 -0.8946883762059662
4753000000.0 0.48773732329590136 -0.9141708793380887
4756000000.0 0.4724621528637916 -0.9172434967496287
4759000000.0 0.48471500224083724 -0.9184089074577395
4762000000.0 0.4625450470657595 -0.9200667201446162
4766000000.0 0.4719451081727813 -0.8880683822361866
4769000000.0 0.4993500201237485 -0.9048760028978396
4772000000.0 0.5007923944136354 -0.915759711218408
4775000000.0 0.48084830414394286 -0.9464266447858475
4778000000.0 0.5072708143100833 -0.9117191681260381
4781000000.0 0.5092876856395512 -0.8702582297759811
4784000000.0 0.5309895430640401 -0.8934255814430073
4788000000.0 0.4856000898511682 -0.9553549392140652
4791000000.0 0.4785384836487258 -0.8942144474323979
4794000000.0 0.5292669721871079 -0.9403328366478625
4797000000.0 0.4799642528253624 -0.9000698793216427
4800000000.0 0.45916055704164566 -0.9031926993041053
4803000000.0 0.43889552205563265 -0.9064084796536932
4806000000.0 0.47740486331042714 -0.9347164468571681
4809000000.0 0.46766460292625783 -0.9029925643149963
4812000000.0 0.45198018323511496 -0.9097182742211775
4816000000.0 0.4987530603418544 -0.8869306876575972
4819000000.0 0.5002334533073997 -0.9036699731571226
4822000000.0 0.5231061921388889 -0.898690743080852
4825000000.0 0.5223974258410999 -0.9299467572945721
4828000000.0 0.4841592553621903 -0.8881022249648949
4831000000.0 0.478013292460827 -0.9407013752363602
4834000000.0 0.504536196117163 -0.8952548884867267
4838000000.0 0.47119616825123506 -0.9466854786396243
4841000000.0 0.46772709405896923 -0.8936216994209648
4844000000.0 0.5239520743866196 -0.8768300920403997
4847000000.0 0.4746538368097122 -0.8687497187040757
4850000000.0 0.48321253044858825 -0.930634736330489
4853000000.0 0.4797313035522917 -0.8676767011032265
4856000000.0 0.47823638824403175 -0.8852335782696589
4859000000.0 0.5112621921165954 -0.9184194095107188
4862000000.0 0.5032738988830708 -0.8816259572538214
4866000000.0 0.48264193483469064 -0.9393559704852793
4869000000.0 0.47569550219849993 -0.9108452584651633
4872000000.0 0.48400436917535333 -0.9276212850509742
4875000000.0 0.5514770248715901 -0.9124082839004981
4878000000.0 0.4994395884013836 -0.9411820328672941
4881000000.0 0.4823497042276416 -0.9808573738805321
4884000000.0 0.5007063534248023 -0.8859535407087514
4888000000.0 0.5151952093398031 -0.8627095735723526
4891000000.0 0.49661523600469415 -0.9013654199449188
4894000000.0 0.4600757242265082 -0.9042452149677751
4897000000.0 0.5109375774029975 -0.891149222026314
4900000000.0 0.5067387081102862 -0.9131237508123564
4903000000.0 0.5273931460434338 -0.9065996791699029
4906000000.0 0.49322971203350957 -0.9218021347174046
4909000000.0 0.46783361277494256 -0.9161252993875396
4912000000.0 0.5365973653962733 -0.9270953754255532
4916000000.0 0.5335728661901623 -0.941465317212688
4919000000.0 0.5561852789320226 -0.9303451570573043
4922000000.0 0.552669556484253 -0.9399469508714087
4925000000.0 0.4760013417034297 -0.9392589416567904
4928000000.0 0.5327999042305654 -0.8910050460959333
4931000000.0 0.5127572186343732 -0.9134074991324026
4934000000.0 0.5050322081089337 -0.8586908569840376
4938000000.0 0.4609610538421343 -0.9105039992740563
4941000000.0 0.49975523803543276 -0.8619784114185313
4944000000.0 0.478167106183364 -0.8637297668358126
4947000000.0 0.496623543733756 -0.8941858473060229
4950000000.0 0.46347552769608674 -0.8744149131992802
4953000000.0 0.49226294914281066 -0.9536077847448925
4956000000.0 0.49941075706963123 -0.9161007137823046
4959000000.0 0.4503168955103396 -0.8916411742506501
4962000000.0 0.4853394951390152 -0.9253244997939875
4966000000.0 0.5407595873425118 -0.9176124672046992
4969000000.0 0.5458168315265188 -0.9472153760246979
4972000000.0 0.47088386306702257 -0.9208398429062328
4975000000.0 0.5021379951860652 -0.899458637656081
4978000000.0 0.5036250573778633 -0.9352007576296
4981000000.0 0.508241600230362 -0.9296383240025562
4984000000.0 0.49027232720336344 -0.8921272764962779
4988000000.0 0.5128592875849748 -0.8994507336813571
4991000000.0 0.5874919430689041 -0.9149221584493845
4994000000.0 0.5018210638838967 -0.9160918443495356
4997000000.0 0.4714090901631915 -0.9372044187217815
5000000000.0 0.5490563377755918 -0.9366207051797645
5003000000.0 0.5621248152930861 -0.9228659314919421
5006000000.0 0.5365484549966294 -0.9527405026986144
5009000000.0 0.49962202730741895 -0.8966305202842088
5012000000.0 0.5172791604550052 -0.9211098569752878
5016000000.0 0.5625810860074049 -0.948197236540248
5019000000.0 0.5265826963560541 -0.9149427096317698
5022000000.0 0.507256259815128 -0.9102423776702501
5025000000.0 0.553756118341461 -0.979151958852613
5028000000.0 0.521602598617644 -0.9208678594283621
5031000000.0 0.4883537904975715 -0.9290354522409513
5034000000.0 0.5068699351408117 -0.9228846064331739
5038000000.0 0.4744147826391824 -0.9041034400082708
5041000000.0 0.5559771576050978 -0.8834275726085906
5044000000.0 0.5127774482801342 -0.888772218494476
5047000000.0 0.5392131289226996 -0.8735302998050148
5050000000.0 0.577502603082491 -0.8481044491642449
5053000000.0 0.518539531874752 -0.9287285340580467
5056000000.0 0.5505001363394891 -0.8811458272131292
5059000000.0 0.5498064943340903 -0.8568147933366976
5062000000.0 0.5153533549771532 -0.940036477414553
5066000000.0 0.5467872910174892 -0.8759075726587964
5069000000.0 0.5270092482018897 -0.8924132995523231
5072000000.0 0.5170885579096698 -0.8742125844722319
5075000000.0 0.5578622812228183 -0.8598815776285889
5078000000.0 0.48851493090626 -0.9176380613453672
5081000000.0 0.5348269152311639 -0.8385528617370859
5084000000.0 0.5566568052230537 -0.9286461518593184
5088000000.0 0.5416943764198934 -0.8965953045955983
5091000000.0 0.49880014121188515 -0.9245888819795205
5094000000.0 0.5137473622990942 -0.9295830338667068
5097000000.0 0.5665558594574924 -0.8853448425461532
5100000000.0 0.5524391398939439 -0.8853751228959903
5103000000.0 0.5209935770439543 -0.9169375304011116
5106000000.0 0.5650053553396076 -0.9041452142124178
5109000000.0 0.5691076080796306 -0.8458876916742948
5112000000.0 0.5178383197567847 -0.9208742556398558
5116000000.0 0.46827648907795133 -0.8537294296731304
5119000000.0 0.5248277233455967 -0.910201888610128
5122000000.0 0.5355238960164643 -0.9128196683116261
5125000000.0 0.5636418315341283 -0.8392550468572462
5128000000.0 0.505546560076588 -0.9185957142946841
5131000000.0 0.5457898401313384 -0.9220140697889072
5134000000.0 0.5190561578213653 -0.8861763540563193
5138000000.0 0.5281951001358859 -0.845791742765128
5141000000.0 0.5765133860118506 -0.8718035370986725
5144000000.0 0.5740305421003329 -0.928441286235216
5147000000.0 0.54731857681105 -0.9089447966697023
5150000000.0 0.5450074392976643 -0.8616589303057325
5153000000.0 0.5293283161162468 -0.880145185101948
5156000000.0 0.5163438249011875 -0.8662774093676939
5159000000.0 0.5150948681514321 -0.9116183983541211
5162000000.0 0.48534526332203687 -0.8925949829556693
5166000000.0 0.5530103251341225 -0.8913568742101028
5169000000.0 0.5289912352759581 -0.8970487100474551
5172000000.0 0.5532988433349519 -0.9037555740216674
5175000000.0 0.6107383318829249 -0.9403566503640951
5178000000.0 0.5691150804261756 -0.9048604675125417
