! Created with skrf 1.8.0 (http://scikit-rf.org).
# Hz S RI R 50.0 
!freq ReS11 ImS11
4000000000.0 0.561946814844306 -0.8602962185352082
4003000000.0 0.6016935154121587 -0.9040940067888682
4006000000.0 0.5456649400776407 -0.9096851232815317
4009000000.0000005 0.5520385083687949 -0.8677407658793198
4011999999.9999995 0.6551227093252607 -0.849710590158933
4016000000.0 0.5148873058331389 -0.8622819368296643
4019000000.0 0.535014743280612 -0.8612144729548724
4022000000.0000005 0.6192407713534765 -0.8503881574822783
4025000000.0000005 0.5097680355569103 -0.9063172178299712
4027999999.9999995 0.5240326206698988 -0.85424488719591
4030999999.9999995 0.5201570655255924 -0.8176098435529952
4034000000.0 0.49372724628547193 -0.833985572242402
4038000000.0000005 0.514792698203866 -0.9308944678265387
4041000000.0000005 0.5498366540329365 -0.8396024513954763
4043999999.9999995 0.6092868343234152 -0.8855029741266126
4046999999.9999995 0.5689296106850775 -0.9052064911958948
4050000000.0 0.5278937221006912 -0.8798921063242693
4053000000.0 0.5286084622063308 -0.8681122343599839
4056000000.0 0.5081932282777978 -0.8878950758249955
4059000000.0 0.5649750242017983 -0.8553347237789259
4062000000.0000005 0.5350622703757494 -0.9021312922735567
4066000000.0 0.5233231642366286 -0.8108806673495976
4069000000.0 0.5761421585399618 -0.9131506648235471
4072000000.0 0.5718897975477653 -0.8465635684462269
4075000000.0 0.586435483430094 -0.9208029378804194
4078000000.0000005 0.5875760145202187 -0.9336193577491801
4081000000.0000005 0.5975594451566478 -0.8748117894461902
4083999999.9999995 0.5239351985504916 -0.8799710996586183
4088000000.0 0.5986283163478346 -0.8308173768866336
4091000000.0 0.6322855655645909 -0.9099914210327107
4094000000.0000005 0.560912356726732 -0.8733909786611516
4097000000.0000005 0.5644359086935685 -0.8743461448942997
4099999999.9999995 0.5428692819313987 -0.8843106165337653
4102999999.9999995 0.5795420271966625 -0.8779613781327598
4106000000.0 0.5540754631871482 -0.8842824462844607
4109000000.0 0.5372103439972203 -0.9080786312271266
4112000000.0 0.5472881526790274 -0.8801516773847915
4115999999.9999995 0.5630328011648806 -0.8419211699217705
4119000000.0 0.543008645388971 -0.9301285310961005
4122000000.0 0.5471810436903016 -0.8750597866995281
4125000000.0 0.545827464942146 -0.866982925792432
4128000000.0 0.5484876980907789 -0.8133260783535086
4131000000.0 0.5375895828876606 -0.892442355546075
4134000000.0000005 0.5758736058409316 -0.8712824969695755
4138000000.0 0.5290725428197262 -0.8534646183650875
4141000000.0 0.533327690109707 -0.8645521311761374
4144000000.0 0.5506969885047962 -0.8550215656116077
4147000000.0000005 0.5201967913225415 -0.8678401338247608
4150000000.0000005 0.5418108492517729 -0.925010187004051
4152999999.9999995 0.5500546675819933 -0.8672127941578753
4155999999.9999995 0.5543975913690607 -0.9017951957368199
4159000000.0 0.5704734363589528 -0.8465354303545172
4162000000.0 0.5561080494794112 -0.8530263449784498
4166000000.0000005 0.5243939791377863 -0.8944350970036835
4168999999.9999995 0.5206808096615926 -0.8560568091036038
4171999999.9999995 0.5572097953422487 -0.8524882520783571
4175000000.0 0.5968472328210933 -0.856178395068999
4178000000.0 0.5642634259823283 -0.860806849390572
4181000000.0 0.5532658571499249 -0.8602604390048347
4184000000.0 0.5505309918461915 -0.8735569002679596
4187999999.9999995 0.5524383995416031 -0.8797638787240579
4191000000.0 0.5836396497911641 -0.8448403629985369
4194000000.0 0.5320895719536662 -0.8157413965583412
4197000000.0 0.5639613248464408 -0.8729168025840316
4200000000.0 0.5696279820702639 -0.8643381609665699
4203000000.0000005 0.5922630052650469 -0.8652944569379651
4206000000.0000005 0.5446424750302601 -0.8556634575840293
4208999999.9999995 0.5684882802158124 -0.8524390052914442
4211999999.9999995 0.5230516169681354 -0.8778712328196286
4216000000.0 0.5509506000217761 -0.856687797372515
4219000000.0000005 0.5545327895391495 -0.8641684769155741
4222000000.0000005 0.5416802005870869 -0.8546612956330237
4224999999.9999995 0.5363984699383673 -0.8344169432360515
4227999999.9999995 0.567211417308567 -0.8662313900957369
4231000000.0 0.5553372799452347 -0.8469461300522637
4234000000.0 0.5487841678043782 -0.869010947416385
4238000000.0000005 0.5435394831498563 -0.8616504781589414
4240999999.9999995 0.5446166496667832 -0.866791157714289
4244000000.0 0.5533807086969028 -0.865010293211659
4247000000.0 0.5600980198721177 -0.8565252846342645
4250000000.0 0.5420863107159272 -0.8450563736515297
4253000000.0 0.5380971547391322 -0.8526543011938617
4256000000.0 0.5470523467544767 -0.8667060156332465
4259000000.0000005 0.5318282245573693 -0.8389527301681856
4261999999.9999995 0.5261597997676948 -0.8694927177919483
4266000000.0 0.5363527557367096 -0.8767801721023846
4269000000.0 0.5664516707817889 -0.8493534094798355
4272000000.0000005 0.5625198275910883 -0.8564149090044113
4275000000.0000005 0.565962737052074 -0.8673354172456885
4277999999.9999995 0.55776475458176 -0.871209433556554
4280999999.9999995 0.5674070553822378 -0.8444671604268774
4284000000.0 0.5219052043138549 -0.8799901974697307
4288000000.0000005 0.5747085773318501 -0.8482964084678968
4291000000.0000005 0.5444554710826587 -0.8293132564486532
4293999999.9999995 0.5360384723146726 -0.8519865642093543
4297000000.0 0.559333073698018 -0.8316608047588219
4300000000.0 0.5576704683476585 -0.8408744344475484
4303000000.0 0.5414560916337309 -0.8365246942745551
4306000000.0 0.5812480989248721 -0.8185701530955137
4309000000.0 0.5437248056484463 -0.8545255694643694
4312000000.0 0.5798343019380298 -0.8604039838199306
4316000000.0 0.5709705885959387 -0.8581466779884482
4319000000.0 0.5426202141442267 -0.8476151826284674
4322000000.0 0.5203662267003416 -0.8737651621486879
4325000000.0 0.5496940326614382 -0.8503596917343591
4328000000.0 0.5466695007176919 -0.8399945526403438
4331000000.0 0.5427670866674063 -0.8580986334746814
4334000000.0 0.5388872418014391 -0.8593054394793458
4338000000.0 0.5554359085855386 -0.8328954001371394
4341000000.0 0.603133219283491 -0.8413819686620566
4344000000.0 0.5738106248205985 -0.8493282672945486
4347000000.0 0.52868241148735 -0.8691363676528661
4350000000.0 0.5103095421408372 -0.8589765175801263
4353000000.0 0.536607803279043 -0.8139188764606379
4356000000.0 0.5454263905451445 -0.8853009875747417
4359000000.0 0.5175084721405196 -0.8194619128306063
4362000000.0 0.5095048899652789 -0.8962847609451647
4366000000.0 0.5429869001820131 -0.8793433776002765
4369000000.0 0.5234766743546577 -0.8249630693245728
4372000000.0 0.48664952420701035 -0.8533659372560078
4375000000.0 0.5665782893397843 -0.8287060904753706
4378000000.0 0.5218245369770692 -0.8342539404655519
4381000000.0 0.5441979639886586 -0.8457686698385121
4384000000.0 0.5625102909162568 -0.9115324080596112
4388000000.0 0.556098867960759 -0.8395258844652209
4391000000.0 0.5470694224389265 -0.851103202720987
4394000000.0 0.540707721802701 -0.8316673894898732
4397000000.0 0.5375231696222456 -0.8461201723373984
4400000000.0 0.5529202819718576 -0.8839012367996752
4403000000.0 0.5499034989410289 -0.8842340208148993
4406000000.0 0.5168220200635343 -0.8719938385260027
4409000000.0 0.5457105236517155 -0.8727798971260238
4412000000.0 0.4899343174604244 -0.8830408119669835
4416000000.0 0.541148789192196 -0.8513215992060288
4419000000.0 0.5199930987170182 -0.8695948598577463
4422000000.0 0.5529954898619199 -0.8407639172945066
4425000000.0 0.5583807233072223 -0.8521858944506281
4428000000.0 0.5302824561634121 -0.8663439434103102
4431000000.0 0.5615765733436909 -0.8748528513065449
4434000000.0 0.5270202973304803 -0.85904093890196
4438000000.0 0.5468214209883728 -0.872557298838113
4441000000.0 0.5509535954740943 -0.8562563487194557
4444000000.0 0.5221934464827691 -0.8612184070183134
4447000000.0 0.535756903829024 -0.849077389978079
4450000000.0 0.5426535120142094 -0.8454047619716909
4453000000.0 0.5432494180688969 -0.8814382261247069
4456000000.0 0.5121861866854631 -0.8509816315786428
4459000000.0 0.5004090233488884 -0.8188840604711173
4462000000.0 0.579290404199501 -0.9051491646249412
4466000000.0 0.5452189283732298 -0.9050687509366656
4469000000.0 0.5570451481989988 -0.84712392164586
4472000000.0 0.535259769595014 -0.9027807736431106
4475000000.0 0.5226159993756299 -0.8503823533374586
4478000000.0 0.5368796778683034 -0.9148461536804704
4481000000.0 0.5121097862509574 -0.8433021295857311
4484000000.0 0.4838577485660592 -0.8826491413252064
4488000000.0 0.5057461759263854 -0.8704320137143433
4491000000.0 0.5182703827478062 -0.880325098257041
4494000000.0 0.5303866378384229 -0.860038827786858
4497000000.0 0.5348318287895235 -0.8484831959970447
4500000000.0 0.5260150044712194 -0.8778349757530028
4503000000.0 0.5536145393166894 -0.8736023474577358
4506000000.0 0.5087308377784767 -0.8644716110440007
4509000000.0 0.5064400167570615 -0.8551825717297407
4512000000.0 0.5123248196091703 -0.8416801750194562
4516000000.0 0.5483483292169397 -0.8797885887441094
4519000000.0 0.5191920093445138 -0.8369698777210369
4522000000.0 0.5114147687137295 -0.8697849408549497
4525000000.0 0.5597083775387477 -0.8295969346050346
4528000000.0 0.5347284565458795 -0.8894584197041944
4531000000.0 0.5499070725707497 -0.8489779338669683
4534000000.0 0.5253450637282492 -0.8527199810593963
4538000000.0 0.5132892945752706 -0.868904841663267
4541000000.0 0.49763594061073335 -0.8813149044550771
4544000000.0 0.5049324974775976 -0.8537682739582453
4547000000.0 0.5398496544138378 -0.8477228122408123
4550000000.0 0.5167617345928388 -0.8891084908479554
4553000000.0 0.5257633285926535 -0.8641241503172064
4556000000.0 0.5155630787173934 -0.8711543727907984
4559000000.0 0.5183592974493986 -0.8824478967085188
4562000000.0 0.5225799902636636 -0.8680653294130733
4566000000.0 0.5201840025356402 -0.8826204716901883
4569000000.0 0.5077174771752504 -0.8352058178871735
4572000000.0 0.5147636784590065 -0.8678216131235266
4575000000.0 0.4977612254828178 -0.8808530455801877
4578000000.0 0.5245266647981324 -0.8941664263624375
4581000000.0 0.5084062830035863 -0.8750249985272297
4584000000.0 0.5101151657801534 -0.8646568306283124
4588000000.0 0.5280690884381364 -0.8920815074103563
4591000000.0 0.5472373190943132 -0.8465199669030088
4594000000.0 0.5038191432452299 -0.887515087336425
4597000000.0 0.5162665888960313 -0.8981668926405796
4600000000.0 0.4804728566505666 -0.8793932058749249
4603000000.0 0.49566746127098704 -0.8769278293173044
4606000000.0 0.5165892482936819 -0.8803844226487532
4609000000.0 0.4992788184785789 -0.8753766541218067
4612000000.0 0.5068344908532794 -0.8962070332579677
4616000000.0 0.4991844102564502 -0.8634495404542881
4619000000.0 0.5245349039464823 -0.8829253925500071
4622000000.0 0.5150804060941949 -0.8688062006995094
4625000000.0 0.47404951543186774 -0.8450666619051067
4628000000.0 0.5378909912285001 -0.8773009220899749
4631000000.0 0.49789730288280576 -0.8800488750530058
4634000000.0 0.5036277712969932 -0.8786718255505779
4638000000.0 0.5059434419681182 -0.8750328483547664
4641000000.0 0.5048889579219102 -0.8699772784948928
4644000000.0 0.5194586512913637 -0.8764734906394506
4647000000.0 0.5102513039581387 -0.8715378392564834
4650000000.0 0.48073277970312445 -0.8756886869302785
4653000000.0 0.5260837642340861 -0.8837914450007329
4656000000.0 0.5005120200373858 -0.8924372618060038
4659000000.0 0.5091295736452919 -0.8727719913444382
4662000000.0 0.48463979102863325 -0.8991239078865526
4666000000.0 0.5100711755237547 -0.8803440560998833
4669000000.0 0.5350511775666091 -0.8698201382833438
4672000000.0 0.48783143223518066 -0.8889676223456849
4675000000.0 0.4963504376813257 -0.8752059995606744
4678000000.0 0.5058346823661256 -0.8724668810560763
4681000000.0 0.4733086047421986 -0.9040361071392876
4684000000.0 0.47299841453124747 -0.9100972687437281
4688000000.0 0.4823186086739353 -0.889096112603444
4691000000.0 0.5249683841647601 -0.8858835529469303
4694000000.0 0.509847788077959 -0.8737894117735491
4697000000.0 0.4672925311689951 -0.8487722488593207
4700000000.0 0.5122711768655505 -0.8497878874524338
4703000000.0 0.49841017807129856 -0.8508975010112231
4706000000.0 0.4896933346532042 -0.9078286148281816
4709000000.0 0.47637910898524777 -0.8742424711084535
4712000000.0 0.5207074612465258 -0.8954273267119515
4716000000.0 0.5115588670975563 -0.8879184505850501
4719000000.0 0.5539012083160503 -0.8918361650824136
4722000000.0 0.5248931924275165 -0.8656618694527183
4725000000.0 0.49468047788192854 -0.883346403465377
4728000000.0 0.4846222430120274 -0.8890174437566023
4731000000.0 0.5125696042661033 -0.8955500617146055
4734000000.0 0.5155101352216728 -0.8794198353918734
4738000000.0 0.49808084135866443 -0.9094555977062883
4741000000.0 0.49515912785785365 -0.9308766618754934
4744000000.0 0.46192907836820896 -0.9134079283566543
4747000000.0 0.48524166149830406 -0.869698583245115
4750000000.0 0.5033458940531883 -0.8928698147120414
4753000000.0 0.5128834045477735 -0.8908104564288463
4756000000.0 0.5093299650222207 -0.8739626570624349
4759000000.0 0.5058069575455508 -0.9208380721726384
4762000000.0 0.493243257848924 -0.9224185899902129
4766000000.0 0.5023695641461557 -0.8880477626803098
4769000000.0 0.5222141484324555 -0.9266043896871535
4772000000.0 0.47941145745607816 -0.9192873575105744
4775000000.0 0.49345820247743954 -0.9472715455352805
4778000000.0 0.5084202087593819 -0.9114619635627613
4781000000.0 0.5033855936671574 -0.8622669279918433
4784000000.0 0.5153377193294384 -0.8818754629002546
4788000000.0 0.47535451579769444 -0.9108326607434671
4791000000.0 0.48112607269122176 -0.8771404200085505
4794000000.0 0.5368608738281067 -0.9300531757041005
4797000000.0 0.4992966536580794 -0.8761917292330161
4800000000.0 0.4646293706239215 -0.866797101095691
4803000000.0 0.43484188133305146 -0.8885095458474372
4806000000.0 0.48808187907952116 -0.9193369382712253
4809000000.0 0.48250536506898556 -0.9111049801797056
4812000000.0 0.4622030740080716 -0.8905405031982981
4816000000.0 0.5116067737839497 -0.8627796811409363
4819000000.0 0.5316888798385058 -0.8981144541886072
4822000000.0 0.5295384365144474 -0.9140768520351856
4825000000.0 0.5231005208979571 -0.9050797040401757
4828000000.0 0.4999360124524078 -0.8869376929446285
4831000000.0 0.4536836536561032 -0.914003089706499
4834000000.0 0.5164939629486403 -0.911590516617252
4838000000.0 0.5025067415191329 -0.9145851971540826
4841000000.0 0.4832506987408416 -0.895365386513681
4844000000.0 0.5393205712259932 -0.8864825277994112
4847000000.0 0.4956949068371499 -0.8544379450120196
4850000000.0 0.49125556868258125 -0.8986519342457534
4853000000.0 0.48455089615254787 -0.8836196617191041
4856000000.0 0.49499053119802705 -0.8958320495648217
4859000000.0 0.488072614704354 -0.9369283836337718
4862000000.0 0.5273561764407315 -0.8867338340706302
4866000000.0 0.5125771926544163 -0.9428359274918755
4869000000.0 0.4673134602417486 -0.9012170442621441
4872000000.0 0.4955262017088954 -0.9319731153947166
4875000000.0 0.5534153753698162 -0.925265821017518
4878000000.0 0.4886572005072228 -0.9015894958805136
4881000000.0 0.4951957906783733 -0.972229789569956
4884000000.0 0.5131690823846398 -0.8994611769939712
4888000000.0 0.5374686971895986 -0.9029832526614378
4891000000.0 0.5460423692318284 -0.9116897707049452
4894000000.0 0.4911569426292084 -0.8987211568327765
4897000000.0 0.5322592201461566 -0.8661336957384891
4900000000.0 0.5219671068684282 -0.9235327547155798
4903000000.0 0.5054349063487295 -0.9034226144598002
4906000000.0 0.48755933910059013 -0.9002154598607977
4909000000.0 0.5009480888319949 -0.9214534251564799
4912000000.0 0.5105174504386459 -0.9467840618074272
4916000000.0 0.5479362825272678 -0.9079109718618835
4919000000.0 0.5550499316468802 -0.9167012096739436
4922000000.0 0.5225978573632778 -0.8795777126924341
4925000000.0 0.4870600959300077 -0.8964380102777592
4928000000.0 0.5295449796723075 -0.8581274135427261
4931000000.0 0.5492058794669866 -0.9091243628256483
4934000000.0 0.5041779735638005 -0.8473399059630539
4938000000.0 0.4663008451146651 -0.9227697440835314
4941000000.0 0.4904214952506298 -0.9075013209552018
4944000000.0 0.5208209246501575 -0.8274389622312993
4947000000.0 0.5167937443913853 -0.8670405867027473
4950000000.0 0.4908120349407157 -0.890853489236922
4953000000.0 0.48400429246757043 -0.952780478460736
4956000000.0 0.5061264274445033 -0.8854729515267024
4959000000.0 0.44294102576730154 -0.8669809484352555
4962000000.0 0.5264953343422152 -0.9248807819252902
4966000000.0 0.5372009964037125 -0.9061288786362696
4969000000.0 0.5633757319377622 -0.9109198757227784
4972000000.0 0.5110864396917829 -0.9148918458112812
4975000000.0 0.5584106210688278 -0.907995387280894
4978000000.0 0.48619048177842983 -0.9276447116321884
4981000000.0 0.4615382755184202 -0.9335021955335333
4984000000.0 0.5163160225227027 -0.872694059531851
4988000000.0 0.5534193950180387 -0.877574879897542
4991000000.0 0.5727309870820947 -0.9087697128696355
4994000000.0 0.5288556622894092 -0.875480092015891
4997000000.0 0.4941465392795933 -0.9240119360673369
5000000000.0 0.557851915890234 -0.9164492881168622
5003000000.0 0.5373686838556552 -0.9156603774201
5006000000.0 0.5578154578722405 -0.9322338441117239
5009000000.0 0.5531929189983693 -0.8945067472867037
5012000000.0 0.4939497679367404 -0.9081446568246296
5016000000.0 0.56169996289246 -0.8973819520953654
5019000000.0 0.5019861357755707 -0.8903066841227868
5022000000.0 0.5211350124587242 -0.8789014997306618
5025000000.0 0.5322040790387657 -0.9507095841697447
5028000000.0 0.5070175489663676 -0.9227811298159663
5031000000.0 0.5433940554158643 -0.8816339525737894
5034000000.0 0.5128319671584857 -0.9518298933847319
5038000000.0 0.48191927009631735 -0.8676338708587997
5041000000.0 0.5406462569991285 -0.8750847110566535
5044000000.0 0.5421069051650032 -0.887624419593953
5047000000.0 0.5357301846829327 -0.8949735686298599
5050000000.0 0.5858245174129217 -0.8269002824344409
5053000000.0 0.5307950374628652 -0.9614997083298549
5056000000.0 0.5784716392529333 -0.8641628907074068
5059000000.0 0.6108822799290063 -0.8668317738125993
5062000000.0 0.5287654615068975 -0.937592255503499
5066000000.0 0.5678613012054381 -0.8781426743314089
5069000000.0 0.5272104196447183 -0.9171353349374196
5072000000.0 0.5364426321530351 -0.8580266223250886
5075000000.0 0.5741494236086613 -0.8334805719482905
5078000000.0 0.49111792410458316 -0.9390244139968844
5081000000.0 0.5099607553994311 -0.8947439859941801
5084000000.0 0.5249960355264391 -0.9149008319830895
5088000000.0 0.5589817779835456 -0.8631712167197685
5091000000.0 0.5164073637496267 -0.9314575268610681
5094000000.0 0.5675924109263528 -0.8731981813085533
5097000000.0 0.5906011637885826 -0.8903155615068831
5100000000.0 0.5330944454720881 -0.9025035054816876
5103000000.0 0.5383915589736514 -0.9554630934472679
5106000000.0 0.6304998061132525 -0.8857409421166279
5109000000.0 0.5119968868139467 -0.8994939854653239
5112000000.0 0.5043464224408329 -0.9066903801832067
5116000000.0 0.5427719380683634 -0.8424096190413972
5119000000.0 0.5493901569632719 -0.8956435064066253
5122000000.0 0.547320198025835 -0.9033115994751558
5125000000.0 0.555086602232046 -0.8571315925967002
5128000000.0 0.5493417517911465 -0.9031348078635311
5131000000.0 0.5567303412840592 -0.8675990088331
5134000000.0 0.529409473267027 -0.8713460705026288
5138000000.0 0.5541293601978577 -0.8686348283061124
5141000000.0 0.5806404108998505 -0.8803669770583111
5144000000.0 0.5529366742013326 -0.9043345864888985
5147000000.0 0.5916151859549901 -0.8982457347273277
5150000000.0 0.6034085206073728 -0.888026502996776
5153000000.0 0.5470420102225134 -0.9048977188697138
5156000000.0 0.5783025897937872 -0.9097259071357833
5159000000.0 0.5480439245112292 -0.9447256102181264
5162000000.0 0.4829714774819765 -0.9245212630514196
5166000000.0 0.553159783532011 -0.9047557555628936
5169000000.0 0.5776610223330271 -0.858904268424179
5172000000.0 0.5094715521723802 -0.8703490064537629
5175000000.0 0.5873241702787918 -0.9248232168171451
5178000000.0 0.535585820010261 -0.9354912990631323
