! Created with skrf 1.8.0 (http://scikit-rf.org).
# Hz S RI R 50.0 
!freq ReS11 ImS11
4000000000.0 0.5515268734021485 -0.8569556060313973
4003000000.0 0.5845021743419496 -0.9181728810252154
4006000000.0 0.515212813646352 -0.8910524139790011
4009000000.0000005 0.5548461318341241 -0.8373557111053357
4011999999.9999995 0.6010317628112195 -0.8559985825771581
4016000000.0 0.5281333496867271 -0.9141680921900971
4019000000.0 0.5483968513015378 -0.9063793858320078
4022000000.0000005 0.616606432795884 -0.8723495004994315
4025000000.0000005 0.5215634019566533 -0.91615039877825
4027999999.9999995 0.5525842930767612 -0.8850105011739263
4030999999.9999995 0.5449196774537216 -0.8618743096055974
4034000000.0 0.5179278424284475 -0.8663060400499322
4038000000.0000005 0.5793743618825515 -0.8993992364650517
4041000000.0000005 0.5760198588594325 -0.9595979297579272
4043999999.9999995 0.574535498870175 -0.9137245224658673
4046999999.9999995 0.5804913079249077 -0.9145820187279521
4050000000.0 0.5534785380647045 -0.8966651451874
4053000000.0 0.5223341854797635 -0.9208943092423338
4056000000.0 0.5847573301996363 -0.9081226539976766
4059000000.0 0.5647149357267911 -0.8746773873747148
4062000000.0000005 0.5119850410325377 -0.9114742124936355
4066000000.0 0.5088950974181773 -0.826789293572437
4069000000.0 0.5628013786737439 -0.9504965263803812
4072000000.0 0.6023135551897228 -0.8550401714031713
4075000000.0 0.6003701132538555 -0.8975279986452486
4078000000.0000005 0.5352461792133285 -0.8995930069193162
4081000000.0000005 0.6175928545646523 -0.8690802258798385
4083999999.9999995 0.5463780685869655 -0.9301067933615768
4088000000.0 0.5987573462364892 -0.8906848552934807
4091000000.0 0.5875160889734663 -0.9732251971872927
4094000000.0000005 0.5559289680279804 -0.8665743392437962
4097000000.0000005 0.5548287346327845 -0.8870778332696264
4099999999.9999995 0.5378413846052108 -0.9260751100462389
4102999999.9999995 0.5873618433992761 -0.8829198166950935
4106000000.0 0.5466879917993639 -0.9130118528438793
4109000000.0 0.5601128274747882 -0.9334714758722074
4112000000.0 0.5520153273987364 -0.892745558321567
4115999999.9999995 0.5923281982321288 -0.8676277389767164
4119000000.0 0.5407207229588327 -0.8862007871051527
4122000000.0 0.5261246762557695 -0.8819645595230344
4125000000.0 0.5763572720804162 -0.9021763801858029
4128000000.0 0.5976403252866832 -0.8670242173145519
4131000000.0 0.5490710600378337 -0.9042391271876612
4134000000.0000005 0.5754659963756918 -0.8876310189811091
4138000000.0 0.5331169669891672 -0.8655140970571255
4141000000.0 0.5182371568500934 -0.9006615858101599
4144000000.0 0.59712957190611 -0.8822041173425189
4147000000.0000005 0.5366881361757211 -0.9003665697429857
4150000000.0000005 0.5647543415944731 -0.913598992748377
4152999999.9999995 0.5760173422542791 -0.8953455497717316
4155999999.9999995 0.5812963510910034 -0.9006141538460297
4159000000.0 0.5342451056802962 -0.840368888656474
4162000000.0 0.5803569434995672 -0.8854508325631557
4166000000.0000005 0.5551346271671536 -0.8846155704844623
4168999999.9999995 0.5283881029807723 -0.8573272976638114
4171999999.9999995 0.5898823896481483 -0.9021336900344293
4175000000.0 0.5734103784680533 -0.8942497795961963
4178000000.0 0.5741873406212646 -0.8783878602092043
4181000000.0 0.5671742041614732 -0.9080735976868105
4184000000.0 0.5877967357538927 -0.874955383876183
4187999999.9999995 0.5475767421216188 -0.8669946202441594
4191000000.0 0.5959211396345078 -0.8552242994214093
4194000000.0 0.5573773788524989 -0.8450078042593231
4197000000.0 0.5892794529164395 -0.8778475306194238
4200000000.0 0.5771775836390769 -0.8622909057374405
4203000000.0000005 0.5759716056897461 -0.8487614586572165
4206000000.0000005 0.5573831008686436 -0.84287534439101
4208999999.9999995 0.5722698166523356 -0.8460763155250507
4211999999.9999995 0.538795523736772 -0.8801510413725903
4216000000.0 0.5775397996193172 -0.8837461179141319
4219000000.0000005 0.5871424122370537 -0.8853880206782234
4222000000.0000005 0.5626856345039415 -0.8892757012813644
4224999999.9999995 0.5684643052858223 -0.8610425319592024
4227999999.9999995 0.5422312467114582 -0.8699470221136466
4231000000.0 0.5540494544435944 -0.8572690824706525
4234000000.0 0.5632278067886386 -0.8774488375736709
4238000000.0000005 0.5459187971388111 -0.8738198225330609
4240999999.9999995 0.5507977737712475 -0.864855549887636
4244000000.0 0.5786382986386527 -0.8542505445040478
4247000000.0 0.5745630775959374 -0.8544598396174924
4250000000.0 0.5482676414034572 -0.8530239491363218
4253000000.0 0.5397439086001565 -0.8466501840021221
4256000000.0 0.5709603267413854 -0.8747847118483713
4259000000.0000005 0.5330082136986863 -0.8497081453689141
4261999999.9999995 0.5407089135855626 -0.8760672680480144
4266000000.0 0.5642224894196897 -0.870627241654769
4269000000.0 0.5821539204124718 -0.8364942657329941
4272000000.0000005 0.5659342160668617 -0.8655652250316244
4275000000.0000005 0.5782771213852174 -0.864492546454799
4277999999.9999995 0.5875506647034353 -0.8891102583359594
4280999999.9999995 0.5615956423024306 -0.8894200090523998
4284000000.0 0.5532126361298655 -0.8806254010644746
4288000000.0000005 0.5819023666709159 -0.8600474509720937
4291000000.0000005 0.5824645860326044 -0.8561458801374502
4293999999.9999995 0.5575802501500788 -0.8601855910802074
4297000000.0 0.5732039249521453 -0.8531067962809437
4300000000.0 0.553204078391685 -0.8523241269537709
4303000000.0 0.523673979971797 -0.874127243823012
4306000000.0 0.5922395309258688 -0.8285627336485983
4309000000.0 0.5770923561153654 -0.8632959371761733
4312000000.0 0.596182358027837 -0.8780289009988151
4316000000.0 0.5966757263272507 -0.8690190136872451
4319000000.0 0.5611043149499243 -0.8792102048157397
4322000000.0 0.5328499838759548 -0.8575039688476587
4325000000.0 0.570365162896518 -0.8692561418662131
4328000000.0 0.53125268272378 -0.8640432550250686
4331000000.0 0.5484849661134102 -0.8914392673379015
4334000000.0 0.5838977331897313 -0.8697617248422984
4338000000.0 0.589642198022888 -0.8611415030339712
4341000000.0 0.5936613551240748 -0.8438388002852257
4344000000.0 0.5789618665175507 -0.8653186845373967
4347000000.0 0.540506924246906 -0.8895334809755078
4350000000.0 0.512935773856978 -0.8160005785537991
4353000000.0 0.5547626099268752 -0.8123109286272858
4356000000.0 0.5352624328958826 -0.8582255075797756
4359000000.0 0.5441192991796118 -0.8050422467467928
4362000000.0 0.511288757780279 -0.9173013285662925
4366000000.0 0.5706701147630725 -0.9035114046783717
4369000000.0 0.5187736115283755 -0.8667264028251104
4372000000.0 0.503162167251934 -0.8364023020382211
4375000000.0 0.5534064383110596 -0.8316312479774485
4378000000.0 0.5251575930104775 -0.8384791076986787
4381000000.0 0.5312251034637916 -0.8299970460178607
4384000000.0 0.5783624315193086 -0.9139328460473641
4388000000.0 0.551283835044289 -0.8452892915917742
4391000000.0 0.5562315159078097 -0.8635954966961964
4394000000.0 0.5444760432327588 -0.8306681876583546
4397000000.0 0.5378651174447364 -0.8506774455906766
4400000000.0 0.5538296117766291 -0.8924813977863352
4403000000.0 0.5620546972507792 -0.8545171086395105
4406000000.0 0.5354790609898807 -0.8724049082441809
4409000000.0 0.5681257113140039 -0.8899387734279316
4412000000.0 0.5029261326950764 -0.8876054899657249
4416000000.0 0.5292582110961428 -0.858008342656656
4419000000.0 0.5216271164143312 -0.8842072694181178
4422000000.0 0.5454596825773538 -0.8500721445257369
4425000000.0 0.5869182634666791 -0.8602580644769543
4428000000.0 0.5366060502789343 -0.8683878002646565
4431000000.0 0.570958385361696 -0.8820062551219938
4434000000.0 0.5295973628790425 -0.8517365349097024
4438000000.0 0.561044660995299 -0.8742356373353721
4441000000.0 0.557964001017085 -0.8641525950892942
4444000000.0 0.5281646967976849 -0.8435896876200564
4447000000.0 0.5320664320638312 -0.861068446435686
4450000000.0 0.560408243180448 -0.8375285488191654
4453000000.0 0.557812123676995 -0.8842461919142497
4456000000.0 0.5085346121424271 -0.846637044775978
4459000000.0 0.4982132964227485 -0.8405318186542841
4462000000.0 0.5618794113900861 -0.9205316092661215
4466000000.0 0.5669704830603084 -0.9015716239107852
4469000000.0 0.5565656683131498 -0.8436240550176215
4472000000.0 0.5356699626106124 -0.8862523317622578
4475000000.0 0.5236023419035495 -0.8357009574127793
4478000000.0 0.5527019655958431 -0.9178761407414755
4481000000.0 0.5229817674911349 -0.8515510428531463
4484000000.0 0.4998757441353563 -0.8794621934564246
4488000000.0 0.5276640805117699 -0.853736882888332
4491000000.0 0.5331061123651818 -0.873745858699507
4494000000.0 0.534895777029144 -0.8623822984920968
4497000000.0 0.5305824362982327 -0.8491497340516064
4500000000.0 0.5349814049680865 -0.8564663651123814
4503000000.0 0.5372261987194586 -0.9000914767040836
4506000000.0 0.5422925290236549 -0.8663125704532828
4509000000.0 0.5201729389533883 -0.860856096775921
4512000000.0 0.5103614812140558 -0.8521726597225787
4516000000.0 0.5471006531744869 -0.8865396407196278
4519000000.0 0.5340706395969013 -0.8447025314573964
4522000000.0 0.502679499902311 -0.8779185448428883
4525000000.0 0.5575252469339428 -0.8589530968701922
4528000000.0 0.5492736567069378 -0.8936671239759493
4531000000.0 0.544508042038593 -0.8597663634819463
4534000000.0 0.5116936047181703 -0.8547932418892634
4538000000.0 0.5157593092795945 -0.8530194163050429
4541000000.0 0.49602066618947876 -0.8798366339297505
4544000000.0 0.5241243808220908 -0.8451661774941406
4547000000.0 0.5431991089316698 -0.8478405498551658
4550000000.0 0.5105650578336288 -0.8789593843858352
4553000000.0 0.5244995942117031 -0.8946452677231096
4556000000.0 0.4982288914110956 -0.8603276710601372
4559000000.0 0.5123041318388603 -0.8772148176807102
4562000000.0 0.5232905988065408 -0.8848630050256403
4566000000.0 0.5215910770008966 -0.8826333827809303
4569000000.0 0.5053344754290334 -0.8371308641078443
4572000000.0 0.5236304371602689 -0.8701127697558665
4575000000.0 0.5059634930696901 -0.8839813047813554
4578000000.0 0.5345897594670173 -0.8915723717367591
4581000000.0 0.507490029274832 -0.8793816356480038
4584000000.0 0.5066634755091545 -0.8682496968876213
4588000000.0 0.5203694335371785 -0.8764962769690212
4591000000.0 0.5385683851591239 -0.8683392823648765
4594000000.0 0.4962228592584817 -0.8734153277147542
4597000000.0 0.526413369390043 -0.8822048677691576
4600000000.0 0.5017101743522705 -0.8607988816227519
4603000000.0 0.5173837754027752 -0.8889080229904103
4606000000.0 0.5299573623007634 -0.8768495890302084
4609000000.0 0.5150740547406807 -0.8782248761745961
4612000000.0 0.5127032404774055 -0.8894905047189269
4616000000.0 0.4918747345392052 -0.8720843801735634
4619000000.0 0.5118798282706578 -0.8838646687587717
4622000000.0 0.514288473682731 -0.8904604084028083
4625000000.0 0.46714889731690207 -0.8681489985842428
4628000000.0 0.5293856194450435 -0.8640160641159184
4631000000.0 0.4973877046494765 -0.8716617141294953
4634000000.0 0.5187754677170233 -0.8845311306841173
4638000000.0 0.5113744445473916 -0.8804113673756891
4641000000.0 0.5284853034063413 -0.8933141967736566
4644000000.0 0.507935156398304 -0.8650517899853849
4647000000.0 0.5228643504382668 -0.8790561000514577
4650000000.0 0.4986000304433146 -0.8710253734316012
4653000000.0 0.5352879376274176 -0.8828253675574436
4656000000.0 0.49507177819488146 -0.9015218054208399
4659000000.0 0.49805711136897934 -0.8896834294137936
4662000000.0 0.5006447222779985 -0.8945837395062642
4666000000.0 0.49525925123491665 -0.8836087230373748
4669000000.0 0.5364977441794243 -0.8742543681375093
4672000000.0 0.5009286598239705 -0.8987593663125419
4675000000.0 0.47753454061254696 -0.8988715429951224
4678000000.0 0.511547113642695 -0.8679694352035873
4681000000.0 0.4877205482913543 -0.9000301769241896
4684000000.0 0.49452649343334587 -0.901313141017545
4688000000.0 0.4672793553284043 -0.890732298290559
4691000000.0 0.5295467725947195 -0.8806028165281349
4694000000.0 0.5300296393857294 -0.8897163952496712
4697000000.0 0.4726937383565349 -0.8757714546580252
4700000000.0 0.49702818237860064 -0.877156068146072
4703000000.0 0.5436306759661516 -0.8400538983312196
4706000000.0 0.4983733372991942 -0.9145681229472807
4709000000.0 0.4991546943841366 -0.8760820274482176
4712000000.0 0.5076268087375806 -0.8921136799791403
4716000000.0 0.5085779949136331 -0.9034157944953309
4719000000.0 0.5394115609021322 -0.8997742225758155
4722000000.0 0.5242119988558698 -0.8832384095533028
4725000000.0 0.5026772922917664 -0.869875914463977
4728000000.0 0.4742518928955353 -0.8885209832818204
4731000000.0 0.5328037769978551 -0.8970034501774767
4734000000.0 0.5358837594046063 -0.8729238475151706
4738000000.0 0.5292286935007001 -0.9265710039489106
4741000000.0 0.5062320876157691 -0.910593484884958
4744000000.0 0.5047100041371047 -0.91041508183798
4747000000.0 0.5178988669342655 -0.8726010131227534
4750000000.0 0.5043296206335541 -0.8888875752499221
4753000000.0 0.4993190075559177 -0.8810355450907821
4756000000.0 0.5095867643320147 -0.902607650534323
4759000000.0 0.5349499171953362 -0.9137003120870626
4762000000.0 0.49591719811931667 -0.9403707939225555
4766000000.0 0.5108210519503521 -0.9246998514021002
4769000000.0 0.5016227811624815 -0.8802649772599319
4772000000.0 0.5397697549047912 -0.9013978025832144
4775000000.0 0.5032382425857052 -0.9674001272681415
4778000000.0 0.5503906404085315 -0.9139384878511143
4781000000.0 0.526425322334227 -0.8888543428662552
4784000000.0 0.5206927397591994 -0.8745550565176277
4788000000.0 0.48720644071013236 -0.9128967757825092
4791000000.0 0.4837660510519999 -0.9035857209171888
4794000000.0 0.5357147218931867 -0.9006575505073714
4797000000.0 0.493653687730808 -0.9048687699098991
4800000000.0 0.4934701064753991 -0.8903851489668038
4803000000.0 0.46361541614884594 -0.892093834057949
4806000000.0 0.48133438432033954 -0.9179620407845153
4809000000.0 0.46819466386711583 -0.919680604109172
4812000000.0 0.4557718545283163 -0.8973695209236929
4816000000.0 0.5328332459632399 -0.8819742569066538
4819000000.0 0.5148305007949401 -0.9170606178358065
4822000000.0 0.5478170515720231 -0.9384399505581088
4825000000.0 0.5301794553817168 -0.9067965238358449
4828000000.0 0.48952177500269717 -0.9184743029412885
4831000000.0 0.48673477346023364 -0.9376295032726044
4834000000.0 0.5184159055083732 -0.8826829466263731
4838000000.0 0.5073950398992936 -0.9348558102705888
4841000000.0 0.4920072925261173 -0.8899873741375095
4844000000.0 0.5471594700492951 -0.8773303048840866
4847000000.0 0.5088778083131937 -0.8651959732201008
4850000000.0 0.4973829077780729 -0.9270092498880329
4853000000.0 0.502936397499234 -0.8739289692041866
4856000000.0 0.5021786141110677 -0.8884175207397225
4859000000.0 0.5221532526911996 -0.9391313820716056
4862000000.0 0.5075823521618463 -0.8712142058142957
4866000000.0 0.5207159596232255 -0.9275246194428896
4869000000.0 0.4815476128629501 -0.909924519984562
4872000000.0 0.4985438552002194 -0.9338079531384336
4875000000.0 0.5559116240295028 -0.904444693205473
4878000000.0 0.5183036901706104 -0.8823408668804347
4881000000.0 0.5356131175379292 -0.9736570608448967
4884000000.0 0.5377203659251909 -0.884435281356263
4888000000.0 0.5574881779285491 -0.8869230167236603
4891000000.0 0.5521663334277964 -0.9285543084546389
4894000000.0 0.5019899637568942 -0.8825205729751084
4897000000.0 0.5378474721257793 -0.8819838493380233
4900000000.0 0.5398430922727581 -0.9199617333713649
4903000000.0 0.5581306768240848 -0.9018583615363618
4906000000.0 0.5383493512630085 -0.9439240055016299
4909000000.0 0.5024629087659763 -0.9128262100591376
4912000000.0 0.531741777084948 -0.9752626889146634
4916000000.0 0.5534580897312732 -0.913287940173594
4919000000.0 0.5594212154386939 -0.9430437631552535
4922000000.0 0.569164531636595 -0.8822752341458348
4925000000.0 0.48479499858618624 -0.9292815033573402
4928000000.0 0.5568325622271527 -0.8709716004001783
4931000000.0 0.5340041739069377 -0.9013572036363408
4934000000.0 0.5186874140200394 -0.8456756218250213
4938000000.0 0.4762959142099683 -0.9276295239819936
4941000000.0 0.49671944039150334 -0.8888343329047318
4944000000.0 0.4778628364771847 -0.8064122600901432
4947000000.0 0.5146130329620091 -0.8938935542838454
4950000000.0 0.4818742619740466 -0.8961161183383295
4953000000.0 0.5245764037674522 -0.9240330470734011
4956000000.0 0.5111239381922632 -0.8780505000092912
4959000000.0 0.48380799785477213 -0.9138523607406038
4962000000.0 0.5504180090059209 -0.9368302251716624
4966000000.0 0.552858967149104 -0.9055559991382633
4969000000.0 0.534120156763005 -0.9302358139512639
4972000000.0 0.5439249131539353 -0.8987431282016857
4975000000.0 0.5372765320718311 -0.9221329117845614
4978000000.0 0.49241742602972194 -0.9225073077918611
4981000000.0 0.5324835106167389 -0.9401583189955512
4984000000.0 0.5425479268829336 -0.8963246646833614
4988000000.0 0.5279777732765769 -0.9149560954730648
4991000000.0 0.6093970298297151 -0.9051259056476814
4994000000.0 0.5183579335389134 -0.8925550552304584
4997000000.0 0.5026292536699933 -0.944803966443549
5000000000.0 0.5629228313163572 -0.9454121481874516
5003000000.0 0.5702348003871346 -0.9375638863256999
5006000000.0 0.5437803203620777 -0.9462523156549114
5009000000.0 0.5275279592439484 -0.8905645378628526
5012000000.0 0.49880139685067104 -0.9333925552395138
5016000000.0 0.5976890923536069 -0.9297440173738156
5019000000.0 0.5293520436016723 -0.890650897442918
5022000000.0 0.5472011120040186 -0.8954034121101889
5025000000.0 0.5613580370552934 -0.968546943927333
5028000000.0 0.5153046825348319 -0.935014938911452
5031000000.0 0.5470891953955342 -0.9032606527877902
5034000000.0 0.5406385591055021 -0.9453712082566448
5038000000.0 0.5237079687745051 -0.8925747878978069
5041000000.0 0.5789033571267849 -0.8867850316679811
5044000000.0 0.5227990782288596 -0.8955038459614411
5047000000.0 0.5394935814654785 -0.9048566919076695
5050000000.0 0.6279257581662445 -0.837306683104996
5053000000.0 0.56087501667706 -0.9272361427323186
5056000000.0 0.5578808731503124 -0.8733490130666541
5059000000.0 0.6084661966903695 -0.8851454430865455
5062000000.0 0.5192185199397561 -0.9035671499145836
5066000000.0 0.5519186670886196 -0.8634331287421242
5069000000.0 0.5300165208468771 -0.9289217986297325
5072000000.0 0.541879539067588 -0.8814248956554505
5075000000.0 0.6073200781678407 -0.8802839978527552
5078000000.0 0.5121089513267914 -0.9230940749084917
5081000000.0 0.5254786689319502 -0.8906416569108845
5084000000.0 0.5377477407760556 -0.9478899763592954
5088000000.0 0.566909866724984 -0.8450436854272502
5091000000.0 0.5395326883101101 -0.9861364260164113
5094000000.0 0.5967993462955214 -0.8755868712663035
5097000000.0 0.5720064487411575 -0.9030797479404922
5100000000.0 0.5874259981957413 -0.8591841471515016
5103000000.0 0.518973003157152 -0.9476228440783647
5106000000.0 0.5688314854623815 -0.9322411666793884
5109000000.0 0.5747545641947993 -0.8620409289315183
5112000000.0 0.5464950855168436 -0.9293671881795058
5116000000.0 0.5405226132706367 -0.843662605742183
5119000000.0 0.5953452568053113 -0.9013562085143958
5122000000.0 0.5862336596423842 -0.9047535972493761
5125000000.0 0.5637057132184475 -0.880191497693191
5128000000.0 0.5720794950909013 -0.908788185353701
5131000000.0 0.5157211221837121 -0.865093594915974
5134000000.0 0.5383371646751096 -0.901832206378693
5138000000.0 0.582289777712734 -0.8695933057605734
5141000000.0 0.6096191085907106 -0.8506851589326403
5144000000.0 0.5727670917074 -0.8705253341501645
5147000000.0 0.5773470686331709 -0.8761873788844758
5150000000.0 0.5649525252220025 -0.8931299951992808
5153000000.0 0.5612208136710161 -0.9078669242997581
5156000000.0 0.6148354355238872 -0.9056471276920898
5159000000.0 0.6133962262653034 -0.9201541309206456
5162000000.0 0.5597563194512616 -0.8823914123335826
5166000000.0 0.5795799722510286 -0.9270769103607336
5169000000.0 0.5926094370520604 -0.8972919436057571
5172000000.0 0.5769772383782755 -0.866318040454279
5175000000.0 0.5981434193426163 -0.9417978515993695
5178000000.0 0.5476951762947467 -0.8981779833556247
