! Created with skrf 1.8.0 (http://scikit-rf.org).
# Hz S RI R 50.0 
!freq ReS11 ImS11
4000000000.0 0.5412396735848733 -0.8094563124646098
4003000000.0 0.603551439862699 -0.9199717859040002
4006000000.0 0.5188163181534021 -0.8817813731661015
4009000000.0000005 0.5297566802568011 -0.8567808936728003
4011999999.9999995 0.5992604238186834 -0.879460663201318
4016000000.0 0.522206623246125 -0.8455828913678364
4019000000.0 0.5254355116049738 -0.8792002879259553
4022000000.0000005 0.5986641664356086 -0.8359882620974126
4025000000.0000005 0.48002475708087644 -0.9121135162573418
4027999999.9999995 0.5066731526642352 -0.884786387713212
4030999999.9999995 0.5283470388321228 -0.80604685800107
4034000000.0 0.5293498980581782 -0.8459386957497356
4038000000.0000005 0.5355999449896052 -0.9060567269499205
4041000000.0000005 0.5386860611715741 -0.8363485207465005
4043999999.9999995 0.5679863494891249 -0.9192655956958089
4046999999.9999995 0.5838114453949839 -0.8859561745536972
4050000000.0 0.5534599965428826 -0.8933972239024333
4053000000.0 0.5258050612150682 -0.8643259948331768
4056000000.0 0.6033885809874657 -0.9110912941827158
4059000000.0 0.5246058651909074 -0.8761077685210942
4062000000.0000005 0.5324154778161944 -0.8716579018780553
4066000000.0 0.48243076868522483 -0.8165063942203452
4069000000.0 0.5563578895370799 -0.9091828263425283
4072000000.0 0.5612462555620925 -0.8546222655900667
4075000000.0 0.5783527524903945 -0.861038337771346
4078000000.0000005 0.5445877905140272 -0.8928899147851425
4081000000.0000005 0.6248434713812936 -0.847898504607041
4083999999.9999995 0.5377595702388163 -0.884682150006448
4088000000.0 0.601665438509274 -0.8179317739466331
4091000000.0 0.5438912234186128 -0.9082766722636215
4094000000.0000005 0.5711915010689528 -0.848025170092576
4097000000.0000005 0.561935790417316 -0.8446652642773265
4099999999.9999995 0.5703282972281485 -0.8402832956471948
4102999999.9999995 0.5467260387068689 -0.8786397520763126
4106000000.0 0.5215196556441978 -0.8541078107787867
4109000000.0 0.5565470426755427 -0.8844833099685743
4112000000.0 0.5474125826691352 -0.8613769449484944
4115999999.9999995 0.5560122385285523 -0.8607655145677675
4119000000.0 0.5291435909460817 -0.8730707841818555
4122000000.0 0.5213494389287512 -0.8459844137140896
4125000000.0 0.5654880500991956 -0.9038112703826585
4128000000.0 0.5304425471792157 -0.8169526778761119
4131000000.0 0.5499289007027708 -0.8309795827040204
4134000000.0000005 0.5431103173899441 -0.8295680453654637
4138000000.0 0.552468076735568 -0.851870966530548
4141000000.0 0.5376389414630819 -0.8548125767782755
4144000000.0 0.5939662333183676 -0.8608953043739471
4147000000.0000005 0.5523381016369296 -0.8594561130766625
4150000000.0000005 0.5874415365434668 -0.8633967710877558
4152999999.9999995 0.5529171199970346 -0.8718206289383416
4155999999.9999995 0.5697578839053453 -0.870135999296767
4159000000.0 0.5284700968772922 -0.818581896980041
4162000000.0 0.5592436788036101 -0.8368361483879814
4166000000.0000005 0.5632747215750371 -0.8612116569061697
4168999999.9999995 0.514677617616156 -0.8461759351506175
4171999999.9999995 0.5555890677571077 -0.8642876438257301
4175000000.0 0.559883553863499 -0.8646766480512061
4178000000.0 0.5772362249910007 -0.859171534092693
4181000000.0 0.5573005744386358 -0.8738359817245577
4184000000.0 0.5698162820032538 -0.8677498528850975
4187999999.9999995 0.5317743778498313 -0.8646265802351331
4191000000.0 0.6035155521886488 -0.8082296146337984
4194000000.0 0.5241237255760932 -0.8065284170584448
4197000000.0 0.5458929340252654 -0.8481166878856988
4200000000.0 0.566790306887727 -0.8331650602001939
4203000000.0000005 0.5820293560622283 -0.8523042728121233
4206000000.0000005 0.5593473485741527 -0.855380297541218
4208999999.9999995 0.5421493898380054 -0.8100794397462865
4211999999.9999995 0.5300810737178887 -0.8592248535595156
4216000000.0 0.57206562555388 -0.8456271877180308
4219000000.0000005 0.5735466641718743 -0.8533509436734429
4222000000.0000005 0.5583967372551262 -0.8635853930125088
4224999999.9999995 0.5581320044482487 -0.8347049911553841
4227999999.9999995 0.5670906055930458 -0.8525045353454758
4231000000.0 0.5408804738812734 -0.8593193696499033
4234000000.0 0.5497598777048108 -0.8471338579743408
4238000000.0000005 0.5332505270725625 -0.8754862690141667
4240999999.9999995 0.5397142481927061 -0.8413067557359505
4244000000.0 0.5704608408800554 -0.8353342464687905
4247000000.0 0.5567745831695318 -0.8516634866792863
4250000000.0 0.5441433710254472 -0.8279251990780467
4253000000.0 0.5367407223984584 -0.8316054261024359
4256000000.0 0.5679474313576952 -0.8544353222968835
4259000000.0000005 0.531084356133198 -0.8320753478779495
4261999999.9999995 0.5479015460868792 -0.8521163697806315
4266000000.0 0.5633721850443911 -0.862444557938809
4269000000.0 0.5726510416801415 -0.8429796129143652
4272000000.0000005 0.5499004729842948 -0.8383629047096837
4275000000.0000005 0.5605355031733013 -0.8591906181254564
4277999999.9999995 0.5733887770514335 -0.85139355809692
4280999999.9999995 0.5785055066275283 -0.8442163327881675
4284000000.0 0.5183751969883379 -0.8603323444682588
4288000000.0000005 0.569498107120213 -0.8297223646225891
4291000000.0000005 0.5331476498384182 -0.828545676550893
4293999999.9999995 0.5552366526242343 -0.8494039662533789
4297000000.0 0.5486731178045643 -0.8209998138817841
4300000000.0 0.5543485935995712 -0.834540985117615
4303000000.0 0.5457220343976692 -0.8437436950934233
4306000000.0 0.5775543192425688 -0.8562315304250453
4309000000.0 0.5823186188645268 -0.8178124332291561
4312000000.0 0.5815383450248295 -0.8465621962590023
4316000000.0 0.5920055783108394 -0.8721192880477764
4319000000.0 0.5630301103885871 -0.8202014964685219
4322000000.0 0.5364808923275834 -0.8414461371816923
4325000000.0 0.5484653613372038 -0.8446065795018686
4328000000.0 0.5655704081698589 -0.8561839584772961
4331000000.0 0.5658768853597715 -0.867901533357999
4334000000.0 0.5506492881865808 -0.8372919802811748
4338000000.0 0.5641981354608098 -0.831316239734104
4341000000.0 0.586757429845231 -0.857427897042534
4344000000.0 0.5773173228501877 -0.8786947610083518
4347000000.0 0.5610993313532883 -0.8671425682056751
4350000000.0 0.5220311688353395 -0.8099691670896223
4353000000.0 0.5372730116533544 -0.8157027063831227
4356000000.0 0.5049960749410224 -0.8486170565551404
4359000000.0 0.5264666745288084 -0.8040166478326963
4362000000.0 0.4806502106584124 -0.8728603211780397
4366000000.0 0.5664545356520708 -0.8623683829272167
4369000000.0 0.5391841500748227 -0.8266983488648078
4372000000.0 0.497708970469675 -0.8612122732263577
4375000000.0 0.5584578944406002 -0.8277039061701208
4378000000.0 0.5450721807402965 -0.8169333528184188
4381000000.0 0.53975306927038 -0.8310646639096196
4384000000.0 0.5840649157492364 -0.9056603244890454
4388000000.0 0.534703602381039 -0.8195883081890526
4391000000.0 0.5698222254709309 -0.8527730002474369
4394000000.0 0.5382296524111169 -0.8300435032205438
4397000000.0 0.5193795239003827 -0.8469937990631506
4400000000.0 0.5498178379838823 -0.8735706965819764
4403000000.0 0.5485230721759784 -0.8588058918330121
4406000000.0 0.534084572351919 -0.8586402885007887
4409000000.0 0.5633359048914875 -0.8965416285450548
4412000000.0 0.4988582102967769 -0.8642713003439311
4416000000.0 0.5215934326016376 -0.8422628984845381
4419000000.0 0.5208471550267728 -0.859075127292108
4422000000.0 0.5512610953724788 -0.8435663654649896
4425000000.0 0.5732338358278024 -0.8452699610492159
4428000000.0 0.5378488363076659 -0.8595626348016504
4431000000.0 0.5548030569808793 -0.8550445707185574
4434000000.0 0.5279849480554829 -0.8516177284684787
4438000000.0 0.5434508581591297 -0.8783093990474575
4441000000.0 0.5425818321875375 -0.8648343025265153
4444000000.0 0.5303650625992538 -0.840775334420618
4447000000.0 0.5209336942492072 -0.846055194966052
4450000000.0 0.538352560743874 -0.8414834930737893
4453000000.0 0.5570374479406196 -0.8743913280261957
4456000000.0 0.522257017695783 -0.837452300556755
4459000000.0 0.5023233029708438 -0.8218401126712661
4462000000.0 0.5755662043404393 -0.9018341383196768
4466000000.0 0.5399946323851543 -0.8866767957171591
4469000000.0 0.558009834329464 -0.8378917465969331
4472000000.0 0.5201317555002734 -0.894385131459104
4475000000.0 0.5252276611737428 -0.8289355386036641
4478000000.0 0.5408806377893245 -0.9008753161213798
4481000000.0 0.5045110281472482 -0.8446819036577444
4484000000.0 0.508649988403069 -0.8850900872561203
4488000000.0 0.5390062276533484 -0.8425502173026649
4491000000.0 0.5358755113162404 -0.8633016616907334
4494000000.0 0.5216461540372453 -0.8468049223400793
4497000000.0 0.5490544337281034 -0.8329815190021519
4500000000.0 0.5348751002472251 -0.8616181145845857
4503000000.0 0.5494404630912685 -0.8785701062619027
4506000000.0 0.5201670487986979 -0.8660753473232143
4509000000.0 0.5368994833542616 -0.8392442711901966
4512000000.0 0.5163665340541839 -0.8415132288905565
4516000000.0 0.565390886660754 -0.8537673009362918
4519000000.0 0.5238873417443718 -0.8377218496435463
4522000000.0 0.5030647655109318 -0.848304778904795
4525000000.0 0.5526663477099658 -0.8460639699660256
4528000000.0 0.5597006384297669 -0.8874012408421525
4531000000.0 0.5434338758425811 -0.8544312330952378
4534000000.0 0.5139639690092275 -0.8411912180366088
4538000000.0 0.5192828029554676 -0.8492569174029687
4541000000.0 0.4851624058499063 -0.8531749603186959
4544000000.0 0.5386643717992348 -0.8573008861004772
4547000000.0 0.5408859344424258 -0.8319096737515268
4550000000.0 0.5084622086417199 -0.8678766299969412
4553000000.0 0.5201868468927741 -0.8655547822619034
4556000000.0 0.4906050176202618 -0.8478816931576649
4559000000.0 0.513645386808004 -0.863103367024582
4562000000.0 0.5375930002395233 -0.872079252136124
4566000000.0 0.5207942274825506 -0.859118142850126
4569000000.0 0.5064583763702792 -0.8417434473642327
4572000000.0 0.5396555364923331 -0.8376220624308643
4575000000.0 0.5106627897679558 -0.8669089438678614
4578000000.0 0.5474190719917522 -0.8905636845877796
4581000000.0 0.5169740885043748 -0.8851667296706287
4584000000.0 0.524834628151384 -0.8489478436272364
4588000000.0 0.5515911910656619 -0.8850048962123025
4591000000.0 0.5203686688319276 -0.8439573080891307
4594000000.0 0.4982557456499097 -0.8765916637290829
4597000000.0 0.5107548696170844 -0.8643373762135614
4600000000.0 0.4859682504417967 -0.8750403323950162
4603000000.0 0.5190306315997875 -0.8650394034060949
4606000000.0 0.5288638853025021 -0.8798876416164185
4609000000.0 0.5284371022107287 -0.8647262632235994
4612000000.0 0.5237335015001366 -0.8673467437971812
4616000000.0 0.5036454153473414 -0.8503521030834048
4619000000.0 0.522051283924187 -0.8647048982513001
4622000000.0 0.5193441993097194 -0.8701241595398281
4625000000.0 0.49825565265299826 -0.8471565798567312
4628000000.0 0.5225242092464522 -0.8435828755373111
4631000000.0 0.4863998570982867 -0.8839431183028598
4634000000.0 0.5205605926449088 -0.866911449618668
4638000000.0 0.5228889658115028 -0.8907533597311127
4641000000.0 0.5186822052781269 -0.8686733666351889
4644000000.0 0.5312288544919334 -0.8639861256993882
4647000000.0 0.526534730086553 -0.8691486304849034
4650000000.0 0.5007380497607923 -0.8630408046648621
4653000000.0 0.5194117051923275 -0.8740739193205491
4656000000.0 0.48577598198193195 -0.8865368565747966
4659000000.0 0.4927164269789884 -0.8777800184638361
4662000000.0 0.501801254901643 -0.8876712815452104
4666000000.0 0.4886245878060886 -0.8737569886169936
4669000000.0 0.5390083481902583 -0.8783886607516741
4672000000.0 0.4884088943003468 -0.8888824151772786
4675000000.0 0.4948544664147084 -0.8848537599958586
4678000000.0 0.48389927568479685 -0.8617668364713266
4681000000.0 0.47728131799263984 -0.881484220065837
4684000000.0 0.47833309841497873 -0.8809012696875009
4688000000.0 0.4798379805339844 -0.8799435453966278
4691000000.0 0.5289943004536714 -0.8723982798402318
4694000000.0 0.4812888450965992 -0.8623545304068708
4697000000.0 0.46932591532542817 -0.8625676424899336
4700000000.0 0.5337241353150302 -0.8659220844238912
4703000000.0 0.5054323182956298 -0.8353432458911334
4706000000.0 0.503653230698437 -0.8900778947964987
4709000000.0 0.47050875309827067 -0.8678798433444156
4712000000.0 0.505662852334743 -0.8910282472023964
4716000000.0 0.49119171393158784 -0.8850389208760736
4719000000.0 0.51321011616291 -0.8802209653242176
4722000000.0 0.5040608935702028 -0.8724478087228963
4725000000.0 0.5254470542688381 -0.8446277592084989
4728000000.0 0.4984449616851439 -0.8735810076818001
4731000000.0 0.5225441161548658 -0.8987278719572742
4734000000.0 0.5218842279135605 -0.8552950637218865
4738000000.0 0.5528839754134716 -0.8834070196845067
4741000000.0 0.5452928788456741 -0.9203974582072005
4744000000.0 0.46295062293485634 -0.8928523256409963
4747000000.0 0.5038217145888151 -0.8398420667161361
4750000000.0 0.5243411315430735 -0.8983358686939732
4753000000.0 0.5175441558111873 -0.8805457332860468
4756000000.0 0.5043294342431113 -0.8751835770183829
4759000000.0 0.5252608720998198 -0.889335612402258
4762000000.0 0.4844475379104478 -0.9119188798131411
4766000000.0 0.4851213103130022 -0.8758504262086187
4769000000.0 0.5088155888822751 -0.9054521497706268
4772000000.0 0.4799684262888631 -0.8934321021124549
4775000000.0 0.5274353912932455 -0.9232671571455536
4778000000.0 0.5044565643667213 -0.9063150848290985
4781000000.0 0.5312956952285146 -0.8716681832496083
4784000000.0 0.5208288382141958 -0.8896609139766094
4788000000.0 0.5123684975696555 -0.8811113367392984
4791000000.0 0.4811552418949537 -0.8926700267450477
4794000000.0 0.5287003425702443 -0.8771226774119627
4797000000.0 0.47427454663275975 -0.8623778797107702
4800000000.0 0.4746361653945557 -0.8616878137613654
4803000000.0 0.4488424772541494 -0.8823025204575381
4806000000.0 0.5255225953604218 -0.873172873659722
4809000000.0 0.4702708284019115 -0.9146122025774375
4812000000.0 0.4722885396171431 -0.8897962170617538
4816000000.0 0.5257572202811408 -0.86540322733914
4819000000.0 0.5298610709353679 -0.8881507665515987
4822000000.0 0.5340047576070983 -0.905211729760282
4825000000.0 0.5303563605228137 -0.9090004796129797
4828000000.0 0.498090535654908 -0.8784154112613749
4831000000.0 0.4770408898263152 -0.9091670652119632
4834000000.0 0.5191552117686742 -0.8936642816471649
4838000000.0 0.4995371227126893 -0.9097799061418851
4841000000.0 0.4896513603155804 -0.8888305113295639
4844000000.0 0.5430295208677898 -0.8579512726309528
4847000000.0 0.5200528572558792 -0.8594379721960153
4850000000.0 0.5014258599428925 -0.915670374238759
4853000000.0 0.47997070482877985 -0.8616446110052339
4856000000.0 0.5147611074358275 -0.8682296710293071
4859000000.0 0.5350174661454838 -0.9306553295954744
4862000000.0 0.5264670883367429 -0.8589704933349056
4866000000.0 0.4914809164645604 -0.8926865027037547
4869000000.0 0.5120059351872879 -0.8767561059764108
4872000000.0 0.4904425499322229 -0.9289146195284694
4875000000.0 0.5706341420017917 -0.8851892148539866
4878000000.0 0.5256766652988634 -0.8981054656042472
4881000000.0 0.5004823012558074 -0.9434826789132313
4884000000.0 0.5200041211874387 -0.8871487138060661
4888000000.0 0.5358482989439692 -0.8760652040848683
4891000000.0 0.5453798239000578 -0.898926589984773
4894000000.0 0.47080210471738815 -0.8955546219304297
4897000000.0 0.5397481909554434 -0.8759635854365642
4900000000.0 0.5361709238496514 -0.9024353270532677
4903000000.0 0.5144920038995557 -0.893748313302298
4906000000.0 0.5061746356467934 -0.9300300313489351
4909000000.0 0.48196698318291115 -0.8977977059372434
4912000000.0 0.5389695481322463 -0.9158811727073839
4916000000.0 0.5426807775452617 -0.9107801324198939
4919000000.0 0.5581113293159711 -0.9099347107360849
4922000000.0 0.567451933269425 -0.8917121700819229
4925000000.0 0.47079010831623497 -0.9161217244193222
4928000000.0 0.5601163356074659 -0.8588748389378557
4931000000.0 0.5816277491274994 -0.8887059174511398
4934000000.0 0.4850243188032476 -0.8471443838526619
4938000000.0 0.46268835632646665 -0.890971896294418
4941000000.0 0.49990222101181575 -0.8599531464747384
4944000000.0 0.4903562292292789 -0.8485820289758548
4947000000.0 0.49085339232602265 -0.8590551773005346
4950000000.0 0.4799637322516184 -0.8866756737086459
4953000000.0 0.47353089957559125 -0.9412088925138837
4956000000.0 0.5047080416980714 -0.9192115647669356
4959000000.0 0.4820281863517234 -0.8663767824122698
4962000000.0 0.541711647318516 -0.8777791999319986
4966000000.0 0.5749656462361684 -0.8968681601797567
4969000000.0 0.5604476110132666 -0.9348720595553335
4972000000.0 0.4929580045145051 -0.9141894573748494
4975000000.0 0.5451170567856013 -0.8811906393387091
4978000000.0 0.522668880966198 -0.8800180851575755
4981000000.0 0.5218118380789057 -0.8618482997592598
4984000000.0 0.5334290941019383 -0.8560850572566452
4988000000.0 0.5363646192560219 -0.8588230788811841
4991000000.0 0.6066386783787818 -0.870646462039163
4994000000.0 0.5425532305326748 -0.8468392755718018
4997000000.0 0.48471577997154003 -0.9179404271478389
5000000000.0 0.5600633633996915 -0.9105661553065072
5003000000.0 0.5465520619021086 -0.892591415636676
5006000000.0 0.5382652603149952 -0.9262377265461096
5009000000.0 0.5333665859539876 -0.8559937220173603
5012000000.0 0.5030316909347778 -0.9125416058926357
5016000000.0 0.5666962983560218 -0.8908697053006163
5019000000.0 0.5374120430955108 -0.8851826932997433
5022000000.0 0.536048158843513 -0.9036619424332645
5025000000.0 0.5558164684813455 -0.934291947098351
5028000000.0 0.5212279199620541 -0.9090565743788677
5031000000.0 0.5372193813881645 -0.9146444848735831
5034000000.0 0.5302556310493554 -0.9281050003821922
5038000000.0 0.5363454714011922 -0.8535111596063729
5041000000.0 0.5798668921956975 -0.8624605961172489
5044000000.0 0.5439123000041872 -0.8519098830568128
5047000000.0 0.5491802192148856 -0.871388009860845
5050000000.0 0.5751417849838725 -0.834001113796249
5053000000.0 0.5390942915692718 -0.9311144671481207
5056000000.0 0.5656100406224533 -0.8676537713272501
5059000000.0 0.5691884727306593 -0.8815013191944485
5062000000.0 0.5092366210255093 -0.9244367698556586
5066000000.0 0.5687955580196584 -0.8476992313085315
5069000000.0 0.5455086963747667 -0.8600075671069936
5072000000.0 0.5220674542344207 -0.881145724900066
5075000000.0 0.5644690348526464 -0.878290493167829
5078000000.0 0.501937320606171 -0.8830833526652645
5081000000.0 0.5078420755251993 -0.8695916374225321
5084000000.0 0.5501367988956085 -0.9085492910665232
5088000000.0 0.5404554802094386 -0.8739617431806916
5091000000.0 0.5131815654257422 -0.8672206253543009
5094000000.0 0.5258506645807307 -0.8772007341033683
5097000000.0 0.5642717447951546 -0.8636420030927032
5100000000.0 0.5211403115897812 -0.8555902534369042
5103000000.0 0.4843542475981374 -0.9161628308741827
5106000000.0 0.60212107714314 -0.8879582578783992
5109000000.0 0.5734527121174378 -0.8446835070651417
5112000000.0 0.5658528591981933 -0.930913131732743
5116000000.0 0.517764867676182 -0.8554608785294158
5119000000.0 0.5474443236930212 -0.902897912927445
5122000000.0 0.5314406749542164 -0.8667067517784746
5125000000.0 0.5593203461470614 -0.8551462852016708
5128000000.0 0.5495441085415037 -0.8578221964905487
5131000000.0 0.5338809336620153 -0.8531098748803879
5134000000.0 0.5317247314683823 -0.8549649068548677
5138000000.0 0.5220615901320349 -0.8423280918778158
5141000000.0 0.6297992920235881 -0.8189510428469625
5144000000.0 0.5821748694377058 -0.8812904333679366
5147000000.0 0.5735965595166999 -0.8805069343193093
5150000000.0 0.6002241803386419 -0.868510456867957
5153000000.0 0.5682940048861572 -0.8929135651378808
5156000000.0 0.5155505760286371 -0.876480186231684
5159000000.0 0.5949880852704633 -0.8709440877352956
5162000000.0 0.5542007934275629 -0.8689301394673867
5166000000.0 0.5639403728502785 -0.88689770263835
5169000000.0 0.5638623044577881 -0.862545739608779
5172000000.0 0.5567908975472563 -0.8667019774966069
5175000000.0 0.5919218292563387 -0.8773952295331098
5178000000.0 0.5535148701094592 -0.9043286709666603
