! Created with skrf 1.8.0 (http://scikit-rf.org).
# Hz S RI R 50.0 
!freq ReS11 ImS11
4000000000.0 0.547714399080145 -0.8731890313703816
4003000000.0 0.5960254104477358 -0.9226165005694897
4006000000.0 0.51586522692486 -0.8490170357921262
4009000000.0000005 0.5104087531047098 -0.8886438850091022
4011999999.9999995 0.574429547148779 -0.880475769247012
4016000000.0 0.5247542756451733 -0.901171207554056
4019000000.0 0.5747294857387906 -0.857047703695425
4022000000.0000005 0.6073976762612091 -0.8326632468020764
4025000000.0000005 0.5058956653893323 -0.9030703609155939
4027999999.9999995 0.5351058320047057 -0.8463872626311703
4030999999.9999995 0.5256331212777963 -0.8063937943190823
4034000000.0 0.5196306383631637 -0.8539970391408136
4038000000.0000005 0.560472062204036 -0.9147661819973724
4041000000.0000005 0.5433881196055252 -0.891293445105812
4043999999.9999995 0.5769308841523689 -0.9134042032751395
4046999999.9999995 0.593526607158643 -0.8543038361725548
4050000000.0 0.5521636370036487 -0.9065503190233914
4053000000.0 0.523385352131078 -0.8581356647229863
4056000000.0 0.5187287375757667 -0.8632933471285756
4059000000.0 0.5513427151908438 -0.8181699313518143
4062000000.0000005 0.5488830646634479 -0.8481961627706429
4066000000.0 0.5041783393339336 -0.8258530858915568
4069000000.0 0.5334204154361192 -0.9109673411713326
4072000000.0 0.5868381617241482 -0.8635297686474048
4075000000.0 0.5984450040836757 -0.8517048448472273
4078000000.0000005 0.550187071580613 -0.8849615440245084
4081000000.0000005 0.6206266213428143 -0.8407605087891007
4083999999.9999995 0.5367401461740251 -0.8943672462972939
4088000000.0 0.5576889938814712 -0.8157750087016369
4091000000.0 0.5787142279989334 -0.891045470852387
4094000000.0000005 0.5463067372910999 -0.8482430933482009
4097000000.0000005 0.5499589073456731 -0.8468803074978547
4099999999.9999995 0.5374416995715111 -0.8816916832383459
4102999999.9999995 0.6127297019072795 -0.8586972238124189
4106000000.0 0.5445756727071075 -0.8783228938271639
4109000000.0 0.5617765843127351 -0.8828419334534164
4112000000.0 0.529842508114797 -0.876223909385348
4115999999.9999995 0.5667608261028575 -0.8787829923169042
4119000000.0 0.5256144942821241 -0.8870201750866442
4122000000.0 0.534864209798202 -0.9089561045901021
4125000000.0 0.5493515760523174 -0.9002067828182403
4128000000.0 0.5339771129366726 -0.8373408454181949
4131000000.0 0.5500540199894358 -0.8464804089059967
4134000000.0000005 0.528176032083616 -0.8460576713734045
4138000000.0 0.5823591168435116 -0.8389793551201248
4141000000.0 0.5355811814591166 -0.8807966208839323
4144000000.0 0.5516570592773224 -0.8755167881710997
4147000000.0000005 0.544506248553323 -0.8454611880327325
4150000000.0000005 0.5485028184786616 -0.8603844632695823
4152999999.9999995 0.5579039069062012 -0.863109703803904
4155999999.9999995 0.5935862538247757 -0.8748839387005498
4159000000.0 0.5532767740495306 -0.8181808326352908
4162000000.0 0.5440476210186918 -0.8178516380193467
4166000000.0000005 0.5403167738748021 -0.8803552819448824
4168999999.9999995 0.52942731527121 -0.8542791483913834
4171999999.9999995 0.5434753337432164 -0.8409725693518773
4175000000.0 0.567077280319544 -0.8676999029268175
4178000000.0 0.5646163762991525 -0.8531525170869825
4181000000.0 0.5556015638458396 -0.8644716506789399
4184000000.0 0.5311852970961788 -0.8478909479858786
4187999999.9999995 0.5444638451810235 -0.8521502353927057
4191000000.0 0.5589927513454496 -0.8055280971725907
4194000000.0 0.5382589823969498 -0.8336787430638029
4197000000.0 0.565903063372489 -0.8710934726464629
4200000000.0 0.5552689763214983 -0.85657147634358
4203000000.0000005 0.5650294378837936 -0.8571870795865433
4206000000.0000005 0.5505232096013652 -0.8675958379593043
4208999999.9999995 0.5599700555282784 -0.8478143303766644
4211999999.9999995 0.5320086165484004 -0.8436683997115931
4216000000.0 0.566309993804228 -0.8710687768222822
4219000000.0000005 0.5714446143375758 -0.8592635901551232
4222000000.0000005 0.5499512831760185 -0.8728558380320289
4224999999.9999995 0.5660589870598942 -0.8400737139478467
4227999999.9999995 0.5718614469246646 -0.8529784406757401
4231000000.0 0.5558636532695009 -0.86784883403168
4234000000.0 0.5545945995379223 -0.8715029981141488
4238000000.0000005 0.5272000494667204 -0.8765043968667299
4240999999.9999995 0.5381140983162469 -0.8493182944471178
4244000000.0 0.5613407799601613 -0.829712690836141
4247000000.0 0.5568086364461208 -0.8512042352299254
4250000000.0 0.5376231837873661 -0.8378252979364168
4253000000.0 0.5650461891938305 -0.8468211944064189
4256000000.0 0.5565209094458068 -0.8661268120391451
4259000000.0000005 0.5267206947381362 -0.8377414458133798
4261999999.9999995 0.5297101091018616 -0.8668454998339151
4266000000.0 0.5503997082413404 -0.8721984125681921
4269000000.0 0.5686681329357959 -0.840569759633922
4272000000.0000005 0.5431521318456531 -0.8437074528126067
4275000000.0000005 0.5554451999955992 -0.8558800424354127
4277999999.9999995 0.5388865182935764 -0.8625217212770536
4280999999.9999995 0.57033311916194 -0.8439801000728664
4284000000.0 0.5285487136903065 -0.8664295871578614
4288000000.0000005 0.5669061530688597 -0.8427860290529295
4291000000.0000005 0.557110635177775 -0.8282117846319402
4293999999.9999995 0.547929619788999 -0.8615362009884546
4297000000.0 0.559999615507923 -0.8217234849353977
4300000000.0 0.542531506979107 -0.844689534442074
4303000000.0 0.5198794878281315 -0.837128765620315
4306000000.0 0.5901164365010942 -0.8432961066832328
4309000000.0 0.5604802549129371 -0.8479281731303744
4312000000.0 0.603005065920853 -0.8512244933808907
4316000000.0 0.565583211373843 -0.8658467926888267
4319000000.0 0.5490673161707421 -0.8159729337323499
4322000000.0 0.5062401785813104 -0.8424521387470818
4325000000.0 0.5614341831149526 -0.8303342728470031
4328000000.0 0.5475498763300933 -0.856833188902302
4331000000.0 0.5130160176307066 -0.8844986308896862
4334000000.0 0.5545110454905113 -0.8575409258348606
4338000000.0 0.5709599733466482 -0.8520906568141362
4341000000.0 0.5801782611876103 -0.8441073547886143
4344000000.0 0.5703730729991175 -0.8650897613521192
4347000000.0 0.5596454290144021 -0.8780041822716349
4350000000.0 0.5373717025105256 -0.8085642212701603
4353000000.0 0.5565120842700108 -0.8310194280573057
4356000000.0 0.508154678974971 -0.8542584920709003
4359000000.0 0.527527269039002 -0.8221103140335637
4362000000.0 0.5171698891523746 -0.8779776546347563
4366000000.0 0.5446310996299697 -0.8618432297153589
4369000000.0 0.5074944269640035 -0.8360376028559149
4372000000.0 0.510490052023568 -0.872747315026097
4375000000.0 0.557040186103555 -0.8365130866843087
4378000000.0 0.5408801131852002 -0.8283444606859992
4381000000.0 0.5513578056651599 -0.8348662186198648
4384000000.0 0.5666863408043518 -0.9082455557718478
4388000000.0 0.5366495552362743 -0.8192453462311335
4391000000.0 0.5532963172140124 -0.8370933570415011
4394000000.0 0.5357475461080888 -0.8329765987787076
4397000000.0 0.5344683661506603 -0.8649888035249618
4400000000.0 0.5657149852253931 -0.8659030096572848
4403000000.0 0.5565515884484752 -0.8453117664577828
4406000000.0 0.5321594869403367 -0.8606095228440851
4409000000.0 0.5561730058157834 -0.889153378147033
4412000000.0 0.48071748568735106 -0.8816225554095131
4416000000.0 0.5244685269707234 -0.8460433974231255
4419000000.0 0.5074883204449341 -0.8741238547177792
4422000000.0 0.5428820216644193 -0.83339856998162
4425000000.0 0.5859599153708754 -0.8618960627856522
4428000000.0 0.5217574278304664 -0.858104790948964
4431000000.0 0.5586847722099448 -0.8777839850374154
4434000000.0 0.5206333656080699 -0.8387510666000149
4438000000.0 0.5460598598221252 -0.8703248670995971
4441000000.0 0.5464129010959315 -0.870804413023138
4444000000.0 0.5273570657243822 -0.8387858273224404
4447000000.0 0.5216018782226657 -0.8457415982245138
4450000000.0 0.5413593007258035 -0.8388094090685485
4453000000.0 0.5540901281429661 -0.8712839419706244
4456000000.0 0.5003355807206278 -0.8383442487836643
4459000000.0 0.4948213975669754 -0.8204103517953484
4462000000.0 0.5709074415960784 -0.8891044307722993
4466000000.0 0.5572002358494803 -0.8875960422468205
4469000000.0 0.5516453686041376 -0.8503866782802416
4472000000.0 0.5056806875697731 -0.8862262899105702
4475000000.0 0.515347545624369 -0.827894792060184
4478000000.0 0.5275230532742361 -0.9043902161739672
4481000000.0 0.49150599655709976 -0.8400456722237435
4484000000.0 0.4799948435071442 -0.8745909416753819
4488000000.0 0.5090764311891065 -0.8563545098207488
4491000000.0 0.5328962102142075 -0.85762424314237
4494000000.0 0.5173883760856681 -0.8447028760698342
4497000000.0 0.5411622208624525 -0.8286826235158385
4500000000.0 0.5434599950143071 -0.8564599294647528
4503000000.0 0.5429404502539678 -0.8541688819803944
4506000000.0 0.5119224730083163 -0.8557291100199934
4509000000.0 0.49684881762533506 -0.8491770760091978
4512000000.0 0.5008669242106157 -0.8419438249892526
4516000000.0 0.5548155627137705 -0.8787276805142062
4519000000.0 0.5174599234158543 -0.8335612263323358
4522000000.0 0.5225441681657302 -0.8733028741203099
4525000000.0 0.5621409707365752 -0.8439539331584692
4528000000.0 0.5530652754084251 -0.8749743296723822
4531000000.0 0.5421166995157605 -0.8437655279410305
4534000000.0 0.5211234043836769 -0.8462527424758914
4538000000.0 0.5365598928328117 -0.8490502562188997
4541000000.0 0.47445961071041715 -0.8628607231982622
4544000000.0 0.5128335840012959 -0.8434521445774137
4547000000.0 0.5446296620286257 -0.8317602104838416
4550000000.0 0.5045170028563968 -0.8660822539404246
4553000000.0 0.5197010508697856 -0.8565278266054958
4556000000.0 0.5027413654272881 -0.8408307498088345
4559000000.0 0.5196170240867406 -0.8651361591900809
4562000000.0 0.5317784149100773 -0.8770682421138023
4566000000.0 0.5487929725370088 -0.8776947006907424
4569000000.0 0.4993832865606721 -0.8393611261351952
4572000000.0 0.5017574596869164 -0.8408692617702078
4575000000.0 0.506024684592124 -0.8761764644353838
4578000000.0 0.5571743369297543 -0.8658017056792747
4581000000.0 0.49867596388133006 -0.8799286761486496
4584000000.0 0.5001767227558126 -0.8570802721627369
4588000000.0 0.531610217570313 -0.8732081184848548
4591000000.0 0.5169265556612112 -0.8600229399471642
4594000000.0 0.5014990980343461 -0.8704103483441539
4597000000.0 0.5230040100250808 -0.8999804412033519
4600000000.0 0.4924027687863567 -0.8599941662406503
4603000000.0 0.5143944568472651 -0.8782456394778866
4606000000.0 0.518322370231542 -0.8825869537444555
4609000000.0 0.5058441732180041 -0.8529684619418264
4612000000.0 0.5219784183883621 -0.8719114833412045
4616000000.0 0.5024239483746498 -0.8559524402963141
4619000000.0 0.5198403149644157 -0.8599931540609511
4622000000.0 0.5251920767292546 -0.8599105133558679
4625000000.0 0.4777828828002467 -0.863294735712694
4628000000.0 0.5298303001960487 -0.8577741047755065
4631000000.0 0.49794271549046476 -0.8699534278144536
4634000000.0 0.4956012532714484 -0.8775920319437971
4638000000.0 0.514417607970284 -0.8656382221306295
4641000000.0 0.5185135095384971 -0.8731676283693386
4644000000.0 0.5173497151691864 -0.8586294727192622
4647000000.0 0.5220239364520429 -0.8739783751395537
4650000000.0 0.5000165174098592 -0.8751487669492611
4653000000.0 0.5113807347965642 -0.8731760502103975
4656000000.0 0.5020294592554726 -0.8709849057985276
4659000000.0 0.5058747601737774 -0.8669937592606832
4662000000.0 0.5087528453014962 -0.890566952679801
4666000000.0 0.4917546952422997 -0.8639592628072305
4669000000.0 0.5184309401817568 -0.8627631945526898
4672000000.0 0.5008463694193888 -0.9005265562451092
4675000000.0 0.5008920676984853 -0.8731841954551853
4678000000.0 0.4987426461873232 -0.875587543061888
4681000000.0 0.4848060683216927 -0.9033823986366049
4684000000.0 0.4863111420827099 -0.8893107690745382
4688000000.0 0.4829609013509026 -0.8717983325283171
4691000000.0 0.5220799695560133 -0.8597090488186357
4694000000.0 0.510304685497747 -0.8529190453524768
4697000000.0 0.47430773697230705 -0.8636645917985946
4700000000.0 0.5203040244948255 -0.8678898278956465
4703000000.0 0.5259889443260106 -0.8282064058783425
4706000000.0 0.49420338757710675 -0.8804794068846443
4709000000.0 0.4883967821147658 -0.873231224160879
4712000000.0 0.5182342518350889 -0.8909904872846319
4716000000.0 0.48877564704735244 -0.8840995472857858
4719000000.0 0.5050342445006188 -0.8741462933614269
4722000000.0 0.5354095007035266 -0.8748299698002957
4725000000.0 0.4949586686794969 -0.8708898821085307
4728000000.0 0.5027149076505805 -0.8662704678620956
4731000000.0 0.5041739477573354 -0.9218435088433441
4734000000.0 0.5167875578579515 -0.8774621523361766
4738000000.0 0.5348190521213443 -0.9004637244944473
4741000000.0 0.4824614099920038 -0.8959703692286447
4744000000.0 0.47899506775215306 -0.8931787074923729
4747000000.0 0.4949828420953814 -0.8562580857973187
4750000000.0 0.5000607170825968 -0.9049458980684156
4753000000.0 0.5220904623160987 -0.8852609269677696
4756000000.0 0.4973255425637306 -0.8901765004940637
4759000000.0 0.5315962349836774 -0.8817418379341394
4762000000.0 0.4681244035180536 -0.888999877363432
4766000000.0 0.5233263637158712 -0.8828128935212847
4769000000.0 0.5328245340319433 -0.8907225227400256
4772000000.0 0.5246123816886656 -0.88736828799431
4775000000.0 0.4864777768383801 -0.932846433245086
4778000000.0 0.5123722847118265 -0.8815126523808718
4781000000.0 0.5139900782191231 -0.8656490545013781
4784000000.0 0.49654660148268737 -0.8574810451813674
4788000000.0 0.4862683580500264 -0.8862987784077733
4791000000.0 0.5001260989389276 -0.8825031623419729
4794000000.0 0.5141339648725298 -0.9250752695665296
4797000000.0 0.4796736293233773 -0.8819792963541944
4800000000.0 0.46772667788151157 -0.86942362026118
4803000000.0 0.4646776474050567 -0.8810100543653175
4806000000.0 0.49607142130244963 -0.9045566195412338
4809000000.0 0.4604027109861556 -0.9197979560411929
4812000000.0 0.4511121110814489 -0.8852001889902871
4816000000.0 0.5285584589140411 -0.8832180043905324
4819000000.0 0.5198529241715265 -0.9104700418964119
4822000000.0 0.5243921816062427 -0.9179169269120134
4825000000.0 0.5342097900483717 -0.8951177108270625
4828000000.0 0.486843113106262 -0.8750179175999084
4831000000.0 0.48083603901003547 -0.9421954144037288
4834000000.0 0.5274225122998255 -0.8744391233024985
4838000000.0 0.46552347528014937 -0.8920664679950969
4841000000.0 0.4828728633676074 -0.8756187441756379
4844000000.0 0.5265952233944388 -0.8843603767020355
4847000000.0 0.5082936210649968 -0.8420649904393422
4850000000.0 0.5104785840717688 -0.9205059781216066
4853000000.0 0.49413625431436736 -0.8731899093380763
4856000000.0 0.4943883760883879 -0.8720680432157029
4859000000.0 0.5204487252643375 -0.9200690086912672
4862000000.0 0.5212013472430133 -0.8593122596243279
4866000000.0 0.48538773696366205 -0.9021290975569661
4869000000.0 0.48494251746774875 -0.9039786373080606
4872000000.0 0.4776373724449915 -0.9388094002453238
4875000000.0 0.5670761762645733 -0.891095567062127
4878000000.0 0.49894956347692343 -0.8814242769458556
4881000000.0 0.492486715261526 -0.9533898852630887
4884000000.0 0.5292190767388875 -0.8940074165272949
4888000000.0 0.5175873950520175 -0.8678142199580587
4891000000.0 0.556432287320766 -0.8998518353534727
4894000000.0 0.49246954228981543 -0.9119916099481568
4897000000.0 0.5206680791254414 -0.8609267538313308
4900000000.0 0.517114086273494 -0.881421416462126
4903000000.0 0.5231160410321156 -0.9088830863645284
4906000000.0 0.5257563305326158 -0.9123477006510655
4909000000.0 0.4992832019893937 -0.8961892093931025
4912000000.0 0.5122879795541824 -0.9229313791181055
4916000000.0 0.5289062784992017 -0.9094859447965583
4919000000.0 0.572068977709993 -0.9036632469259942
4922000000.0 0.5635315958200583 -0.8622126378685394
4925000000.0 0.4814135925911464 -0.8652084977111948
4928000000.0 0.5693670749026704 -0.8920379461126297
4931000000.0 0.5274817262499196 -0.916411499916092
4934000000.0 0.48201069141436814 -0.8661726134463335
4938000000.0 0.4873515932753327 -0.8877869201686576
4941000000.0 0.5182260414091938 -0.8492127810320758
4944000000.0 0.49512877051081633 -0.8149464343310517
4947000000.0 0.49312390103616577 -0.8860467333775985
4950000000.0 0.4880300691191018 -0.8496276974696918
4953000000.0 0.4790781210236579 -0.9549467679158136
4956000000.0 0.47990332683214576 -0.8864655876006543
4959000000.0 0.45476266910667706 -0.8873415839876184
4962000000.0 0.5138147781255726 -0.914893831993479
4966000000.0 0.5265392266575852 -0.9213068892283895
4969000000.0 0.5611471424919312 -0.9224596226392585
4972000000.0 0.5350265686240926 -0.8820021262425661
4975000000.0 0.517564883364219 -0.885203827289914
4978000000.0 0.5098556571991572 -0.8770457903684904
4981000000.0 0.5094706841989239 -0.8921390014170474
4984000000.0 0.4831058450530472 -0.869498957583114
4988000000.0 0.48426167893650995 -0.8801705562473654
4991000000.0 0.5820235575625909 -0.8854808628704898
4994000000.0 0.5222410005326661 -0.8772592126337325
4997000000.0 0.5056864892890071 -0.8814028435097543
5000000000.0 0.5740479020802194 -0.8966676545425023
5003000000.0 0.527080596626234 -0.908623685228142
5006000000.0 0.5304203036233734 -0.9555203345867636
5009000000.0 0.5446982398956792 -0.8822003960275693
5012000000.0 0.502819235502665 -0.9207764617222487
5016000000.0 0.5504242223208001 -0.9017713788545345
5019000000.0 0.5212058054891184 -0.8639780845414581
5022000000.0 0.524858914592437 -0.8958623932633704
5025000000.0 0.5493195743927648 -0.9533627542402979
5028000000.0 0.5194140745664975 -0.915359895054366
5031000000.0 0.5164035326545341 -0.9070599862961386
5034000000.0 0.5241968560619155 -0.9458903723827634
5038000000.0 0.46976170328157246 -0.8615076158627
5041000000.0 0.5678130875926843 -0.8723883991239443
5044000000.0 0.5499255823525531 -0.8412981407995154
5047000000.0 0.540831795293901 -0.884278883404745
5050000000.0 0.6059795996748518 -0.840273199220668
5053000000.0 0.5289125408775692 -0.9277271747164215
5056000000.0 0.5706235347805424 -0.8564147515158158
5059000000.0 0.5914006583319771 -0.8276240052955561
5062000000.0 0.49877137854533155 -0.8922460488164954
5066000000.0 0.5382077815028266 -0.8518027232960514
5069000000.0 0.5321624798929372 -0.882655104860096
5072000000.0 0.5286221812599912 -0.8331422238452757
5075000000.0 0.5340707629699835 -0.8615449211132928
5078000000.0 0.5267657569001074 -0.9091209573724184
5081000000.0 0.5059991876037132 -0.8717660352977186
5084000000.0 0.5202992120314485 -0.9336840588862009
5088000000.0 0.5138454243989274 -0.8447943119497815
5091000000.0 0.5281176671395046 -0.8746226423458539
5094000000.0 0.5430298666475636 -0.9050457103201619
5097000000.0 0.59329688415025 -0.8543220482946017
5100000000.0 0.5355674279572724 -0.8482722078159244
5103000000.0 0.5417568544496143 -0.9029871923044024
5106000000.0 0.5366546240371086 -0.8924920002242505
5109000000.0 0.5969999800597806 -0.8725859629256161
5112000000.0 0.535431566273775 -0.8804651953499658
5116000000.0 0.5588182536160258 -0.847047174782052
5119000000.0 0.5469636565432676 -0.9285667377650837
5122000000.0 0.5502554897037762 -0.8549802242508888
5125000000.0 0.5682377979505076 -0.852474830908319
5128000000.0 0.5371475969557937 -0.9018291621336242
5131000000.0 0.5602385845538214 -0.8486985242434097
5134000000.0 0.533468300144041 -0.8693041272076583
5138000000.0 0.5716060557493869 -0.8617275615199147
5141000000.0 0.5955784743718235 -0.8273409171007335
5144000000.0 0.5699238296342221 -0.8571777608353811
5147000000.0 0.5440532959263626 -0.8590541286662305
5150000000.0 0.5866890620484478 -0.8907999153190265
5153000000.0 0.561745655870473 -0.8598118521203779
5156000000.0 0.527855730987576 -0.8938030791409429
5159000000.0 0.5850613811290696 -0.8903186435817954
5162000000.0 0.5282077821580348 -0.8690025287183865
5166000000.0 0.5655514583200727 -0.9248969611549263
5169000000.0 0.588633443705897 -0.8883680843787365
5172000000.0 0.5625354437167186 -0.8859149625507254
5175000000.0 0.5986116749628686 -0.8860698189212949
5178000000.0 0.5242654462130694 -0.8874494726407163
5181000000.0 0.5752307514347503 -0.877792442679174
