! Created with skrf 1.8.0 (http://scikit-rf.org).
# Hz S RI R 50.0 
!freq ReS11 ImS11
4000000000.0 0.44229226911257746 -0.9103675461728765
4003000000.0 0.5371524479820904 -0.9381500852270082
4006000000.0 0.47519766781107897 -0.9340023736769336
4009000000.0000005 0.5085305542821229 -0.899983265441501
4011999999.9999995 0.5213753011809236 -0.8838711676508219
4016000000.0 0.4851429680433145 -0.927182118425612
4019000000.0 0.4578740171854343 -0.9229019910973842
4022000000.0000005 0.5478939543699065 -0.8793609083625423
4025000000.0000005 0.4674138782216295 -0.930159780550343
4027999999.9999995 0.4978197177228728 -0.9195768332420122
4030999999.9999995 0.45743310756494304 -0.8386298593626349
4034000000.0 0.4493828125065452 -0.9145508471942081
4038000000.0000005 0.4802047012750924 -0.9214872997403916
4041000000.0000005 0.478733062323189 -0.8965253284612099
4043999999.9999995 0.5533684107635533 -0.9894368695829299
4046999999.9999995 0.5246858979540119 -0.9227131025570503
4050000000.0 0.46714355087094195 -0.9400044287705798
4053000000.0 0.43469979830619215 -0.9106330081575919
4056000000.0 0.47646740812939964 -0.8935292719238763
4059000000.0 0.4727363381304447 -0.8595725146725777
4062000000.0000005 0.4640884815891869 -0.9190614416079851
4066000000.0 0.45927094987532674 -0.8555725920319691
4069000000.0 0.4648025979357203 -0.9496383628926252
4072000000.0 0.5558183494663949 -0.8754106378931386
4075000000.0 0.5261836157829818 -0.9048282527930723
4078000000.0000005 0.49779544668346604 -0.9528932948077721
4081000000.0000005 0.5512561666544278 -0.8813714660498853
4083999999.9999995 0.44124289105210523 -0.926721099772734
4088000000.0 0.5124438133264687 -0.8965183527347125
4091000000.0 0.5319978964779735 -0.9449946393127374
4094000000.0000005 0.5075994542328081 -0.9024622435466447
4097000000.0000005 0.46086386492269854 -0.9237531224828134
4099999999.9999995 0.4801207520616674 -0.8916967238086307
4102999999.9999995 0.5072649717382056 -0.9126821562640912
4106000000.0 0.47881715563804844 -0.9119505625156057
4109000000.0 0.4583322884817238 -0.9571046092351595
4112000000.0 0.4476172074005697 -0.9017445447324818
4115999999.9999995 0.506788182109543 -0.8964197334300998
4119000000.0 0.45487535191446615 -0.927775669675014
4122000000.0 0.4572847973684412 -0.9304878327508983
4125000000.0 0.4892286622862221 -0.9366617485517446
4128000000.0 0.4921787901051415 -0.9003467416609494
4131000000.0 0.5022521996697159 -0.880660784571727
4134000000.0000005 0.5173474786584479 -0.8909824168844539
4138000000.0 0.45096523355029267 -0.9110226771734463
4141000000.0 0.46618369509209656 -0.8870481427691838
4144000000.0 0.5021474134845332 -0.9061047385501624
4147000000.0000005 0.449830473554092 -0.904868782007543
4150000000.0000005 0.505083983330106 -0.9586652756505015
4152999999.9999995 0.48005644326449276 -0.8825221769664233
4155999999.9999995 0.47636319383245 -0.9305369477125713
4159000000.0 0.4652762154139307 -0.8974779821005506
4162000000.0 0.4671339674538871 -0.8491409349672165
4166000000.0000005 0.4917491589414384 -0.9175328166470398
4168999999.9999995 0.4442721726826178 -0.8905438014047886
4171999999.9999995 0.49545421102905557 -0.9062632036445846
4175000000.0 0.49191326743729663 -0.8772299815333684
4178000000.0 0.48493370415350423 -0.8904866381502312
4181000000.0 0.46536160476863564 -0.8964922587250629
4184000000.0 0.46270815546221766 -0.880266591113933
4187999999.9999995 0.4654602281450887 -0.8906012558237145
4191000000.0 0.5067589551875832 -0.8448018195151051
4194000000.0 0.47465085742111257 -0.869594075028733
4197000000.0 0.4884701872269125 -0.918214772009408
4200000000.0 0.5062921823722952 -0.8965141711662784
4203000000.0000005 0.48863726258084084 -0.8969926153788479
4206000000.0000005 0.5024276508214329 -0.8810654315632882
4208999999.9999995 0.46733960979162825 -0.8846269579490621
4211999999.9999995 0.4584249853264204 -0.9074434670855077
4216000000.0 0.4991093893766311 -0.8987795784270096
4219000000.0000005 0.48706065996992254 -0.9125585843196569
4222000000.0000005 0.4541938351529216 -0.9068480705725348
4224999999.9999995 0.48997613389679323 -0.8870877343362276
4227999999.9999995 0.4744036898893731 -0.9022905465745915
4231000000.0 0.470793094158347 -0.9095164181829869
4234000000.0 0.48593228359211843 -0.9052049321302057
4238000000.0000005 0.4657769283209544 -0.9039182225704586
4240999999.9999995 0.44995279830317586 -0.8744173448987479
4244000000.0 0.4821464696602835 -0.8770245244674766
4247000000.0 0.4757907318895396 -0.9004972949099772
4250000000.0 0.46498474938534956 -0.8831976446654259
4253000000.0 0.4604240394910539 -0.8748963778365938
4256000000.0 0.46177496099055837 -0.9241431332667499
4259000000.0000005 0.45305483668690794 -0.8735073744262137
4261999999.9999995 0.4570092866921639 -0.8990763599174565
4266000000.0 0.4484214363205431 -0.9169867553513935
4269000000.0 0.4886006420606701 -0.8966296015436868
4272000000.0000005 0.46906574300856096 -0.8837753760859962
4275000000.0000005 0.4639721134811076 -0.897743727612362
4277999999.9999995 0.5014065844565414 -0.9080380708631338
4280999999.9999995 0.47887256226863284 -0.9139898002905096
4284000000.0 0.4717667549052061 -0.9480842055055283
4288000000.0000005 0.5060836473705815 -0.8715682777827991
4291000000.0000005 0.46217045143251495 -0.8876825258020528
4293999999.9999995 0.46575000608785844 -0.8790643327569475
4297000000.0 0.48890310993318914 -0.8948384890371208
4300000000.0 0.4887594537058069 -0.8689308912371332
4303000000.0 0.4517375853506658 -0.8688310789704136
4306000000.0 0.4895220604490062 -0.8856219316970211
4309000000.0 0.4543591113304239 -0.8735004100778646
4312000000.0 0.513869848783468 -0.9122201813164884
4316000000.0 0.48460848295575537 -0.9193357198469562
4319000000.0 0.44946439999288845 -0.8602297658135144
4322000000.0 0.4436315195756503 -0.8865018340090862
4325000000.0 0.47677585678488704 -0.9118497276657141
4328000000.0 0.45485042184534397 -0.897939073052447
4331000000.0 0.43621215032715444 -0.9046402013774193
4334000000.0 0.4896065880947497 -0.9103673290036828
4338000000.0 0.49177929860606545 -0.8886819182458531
4341000000.0 0.5248057167887537 -0.8969352537875529
4344000000.0 0.4802940592263147 -0.9088413648369964
4347000000.0 0.45344686965759307 -0.9302721464628596
4350000000.0 0.4589702543502024 -0.8876894579452513
4353000000.0 0.4708295622265893 -0.8665647703783764
4356000000.0 0.4480300073764063 -0.9044144686080278
4359000000.0 0.4489143530513152 -0.8582497771564901
4362000000.0 0.4116686020339839 -0.9162098863503695
4366000000.0 0.453154009392139 -0.9218858380947181
4369000000.0 0.4438884048168893 -0.8719704660105981
4372000000.0 0.4212133351891918 -0.9197701569904772
4375000000.0 0.47612836223177574 -0.8983674066918571
4378000000.0 0.4633951580900313 -0.864450134036746
4381000000.0 0.46850590587766433 -0.8794426158681021
4384000000.0 0.48655973902858246 -0.9473605720653243
4388000000.0 0.45479637313946253 -0.8753044840590081
4391000000.0 0.4706562885898975 -0.9033365381341778
4394000000.0 0.44556795419424133 -0.8738298305782085
4397000000.0 0.4558120891388808 -0.8959612076785596
4400000000.0 0.459620014624305 -0.9085796291790031
4403000000.0 0.46546401528815495 -0.9016348735878221
4406000000.0 0.4254924214091067 -0.9070978377837922
4409000000.0 0.46463779093116175 -0.9316279955773201
4412000000.0 0.40242970252007604 -0.9177079275691197
4416000000.0 0.4351066338215568 -0.8994568344278362
4419000000.0 0.43191317914986127 -0.9077530419139883
4422000000.0 0.45506214265059286 -0.8872862479264609
4425000000.0 0.4789322722166749 -0.9112151329120044
4428000000.0 0.4577156342583199 -0.8945796311470018
4431000000.0 0.466343758319448 -0.920108320228234
4434000000.0 0.4381969713035219 -0.8988857987776235
4438000000.0 0.4614845635584255 -0.9269244785956299
4441000000.0 0.4519292316089819 -0.9194660228725586
4444000000.0 0.4431413225248809 -0.89214320027372
4447000000.0 0.426637331717309 -0.899931753673401
4450000000.0 0.44590504839269784 -0.8949129817497634
4453000000.0 0.4387644300956495 -0.9223463044931997
4456000000.0 0.4060583648059487 -0.8953439832546091
4459000000.0 0.41120990513456557 -0.8750702613318266
4462000000.0 0.4610590469506055 -0.9443504442690261
4466000000.0 0.4416167520131858 -0.9519732875537805
4469000000.0 0.46298124500341464 -0.912879911882913
4472000000.0 0.4269181544902746 -0.9306518038339096
4475000000.0 0.42831661610148886 -0.8915456660071974
4478000000.0 0.43293529404627534 -0.9460682711958663
4481000000.0 0.41342016995183145 -0.8991503700139374
4484000000.0 0.3782357652172272 -0.9187777107416424
4488000000.0 0.41558083482127645 -0.905237155838019
4491000000.0 0.42593185120487875 -0.9194556177173845
4494000000.0 0.4341543719143898 -0.8948268628581604
4497000000.0 0.4557560228028746 -0.9001193434843522
4500000000.0 0.44970019670435857 -0.9094750096676183
4503000000.0 0.4509807840445648 -0.936355495224177
4506000000.0 0.41106272060385535 -0.9186767500767541
4509000000.0 0.4298682147970065 -0.8916288596276631
4512000000.0 0.421399626668426 -0.9100316752156767
4516000000.0 0.44013965970708263 -0.9212792224327199
4519000000.0 0.4236344343775324 -0.8891006939516188
4522000000.0 0.41404116626241527 -0.9016655806919358
4525000000.0 0.46466893155977324 -0.9066879585052263
4528000000.0 0.4447082241559804 -0.935929021685756
4531000000.0 0.4452721397082052 -0.8964562989602246
4534000000.0 0.4122622706315507 -0.9178615081700796
4538000000.0 0.42255590494455414 -0.9176125477797242
4541000000.0 0.3867595745046314 -0.9108767523673733
4544000000.0 0.42655929623602856 -0.8912815870334501
4547000000.0 0.4273520480343374 -0.8899042367592485
4550000000.0 0.401833847807101 -0.9376848737665238
4553000000.0 0.4051981826925937 -0.915112011022851
4556000000.0 0.4148573440913183 -0.9127506740085508
4559000000.0 0.4245546558055744 -0.9161014806999743
4562000000.0 0.4357221721954558 -0.9043103420990777
4566000000.0 0.40868805762441895 -0.9213539353147764
4569000000.0 0.40381375335246 -0.906019887014542
4572000000.0 0.41326231408502934 -0.9203007507696976
4575000000.0 0.3956325317731365 -0.9183120907482563
4578000000.0 0.4414878313314685 -0.9383842497022098
4581000000.0 0.3982348270432513 -0.928629176968911
4584000000.0 0.4110618338033743 -0.9224589326834041
4588000000.0 0.4350380467681664 -0.9081861212206183
4591000000.0 0.41094643966397065 -0.915328737052733
4594000000.0 0.3923340377157713 -0.9269124150309276
4597000000.0 0.4095136613457421 -0.9269018814919092
4600000000.0 0.3757533223510383 -0.9288847152660512
4603000000.0 0.3911490734119648 -0.9290787716473905
4606000000.0 0.4007268764503491 -0.9365390681789506
4609000000.0 0.40462156174934266 -0.910590968636132
4612000000.0 0.40037772744683 -0.9234692853242379
4616000000.0 0.37809501541657087 -0.9234426252891719
4619000000.0 0.40638834350166114 -0.9240819796891728
4622000000.0 0.3851598140691637 -0.9280431647148151
4625000000.0 0.3799828983655173 -0.9143234737378768
4628000000.0 0.4025489302562991 -0.9362383224716624
4631000000.0 0.37906824690023944 -0.9371031327151373
4634000000.0 0.39247572337095604 -0.9431402115309044
4638000000.0 0.4047251791459304 -0.9274873284597315
4641000000.0 0.395633778743806 -0.9276197713870264
4644000000.0 0.4067407450069338 -0.930450583482165
4647000000.0 0.4063568763721659 -0.9247444871257275
4650000000.0 0.3960614280508139 -0.9213917351269826
4653000000.0 0.40747858154118066 -0.9424558639719735
4656000000.0 0.38026043660067643 -0.9405654396927878
4659000000.0 0.3582783118427314 -0.9514314323337582
4662000000.0 0.3873333226410757 -0.9255654802579001
4666000000.0 0.3782549356284163 -0.9242911409475157
4669000000.0 0.3830404827699196 -0.9281597802889232
4672000000.0 0.39535339494485344 -0.9573430009486048
4675000000.0 0.378533736165949 -0.9459272774702602
4678000000.0 0.3631566587623107 -0.9082436158486267
4681000000.0 0.3507564767879582 -0.9691039355324103
4684000000.0 0.37044154071241703 -0.9621522138651218
4688000000.0 0.36762341223292916 -0.919101354062013
4691000000.0 0.39579478604541857 -0.9438684127983057
4694000000.0 0.36064476107455984 -0.9485656578904517
4697000000.0 0.33030906322464415 -0.9108042297014902
4700000000.0 0.41283503082761114 -0.9140759102943226
4703000000.0 0.4061154922612841 -0.8951868539039899
4706000000.0 0.3576401483695345 -0.9312257797016091
4709000000.0 0.370629147753761 -0.9174699356487124
4712000000.0 0.3896458158324891 -0.9142295663368724
4716000000.0 0.37765555504043025 -0.9747886189619156
4719000000.0 0.4152567507974433 -0.9499629475345405
4722000000.0 0.41435149589400844 -0.936435870201747
4725000000.0 0.39417850551866573 -0.9348735547613167
4728000000.0 0.35411412194069053 -0.9307232909346669
4731000000.0 0.37456890239401264 -0.9629760820758698
4734000000.0 0.3800090063899334 -0.9164670428321563
4738000000.0 0.4130074412850271 -0.9749321375234833
4741000000.0 0.38314448765358516 -0.968808377239082
4744000000.0 0.36207758935610657 -0.9720065229262665
4747000000.0 0.3810758781675859 -0.9078423224048651
4750000000.0 0.3857922484482428 -0.973624269336495
4753000000.0 0.4189493760977925 -0.9565924017747595
4756000000.0 0.36773859768470996 -0.9424274590165781
4759000000.0 0.38509181509119506 -0.9494074074114404
4762000000.0 0.34030795013409254 -0.9760437774509432
4766000000.0 0.3518055591137319 -0.9611035270106952
4769000000.0 0.3730824517411998 -0.9767060843165185
4772000000.0 0.3710097816624538 -0.9645443121862862
4775000000.0 0.3834373008407428 -1.0053408993627777
4778000000.0 0.3674317555841686 -0.9770382661374157
4781000000.0 0.40084705216527555 -0.934615048949927
4784000000.0 0.3980727449125099 -0.9493144784650367
4788000000.0 0.3818070472883817 -0.9602831907076912
4791000000.0 0.3506490520442155 -0.917931483055969
4794000000.0 0.40523504311204483 -0.9703473095932224
4797000000.0 0.3622642046037696 -0.9378488779105107
4800000000.0 0.3555576043917893 -0.9094066628061913
4803000000.0 0.3151253625258814 -0.9416856940650224
4806000000.0 0.3650451522944599 -0.9329560674338929
4809000000.0 0.3269369641446682 -0.9813818567983911
4812000000.0 0.3115464452026372 -0.9580713044311027
4816000000.0 0.3995258963043151 -0.9334307232828909
4819000000.0 0.3882482469082886 -0.9638283877646805
4822000000.0 0.39183033836179565 -0.9589186426960953
4825000000.0 0.4048450970199109 -0.9728697749617603
4828000000.0 0.3590310729588544 -0.9569472100110891
4831000000.0 0.33338564605778376 -0.9912882438640511
4834000000.0 0.4127471307557294 -0.9610405390351809
4838000000.0 0.35843826904267184 -0.9873649828397426
4841000000.0 0.3631787928593074 -0.9545965797491442
4844000000.0 0.3822816490313216 -0.9817643135180811
4847000000.0 0.37138273973694164 -0.9259164878115457
4850000000.0 0.3632083897420196 -0.9880578263285803
4853000000.0 0.35132132229964125 -0.9230348573867846
4856000000.0 0.3547146751731442 -0.9331354051354618
4859000000.0 0.369435032002261 -1.0137050692208136
4862000000.0 0.368542910831796 -0.9397422687221209
4866000000.0 0.3472746285540451 -0.9662957929557678
4869000000.0 0.3396416234802279 -0.9539205904135938
4872000000.0 0.3605992837873562 -0.9966825016653218
4875000000.0 0.43999437250530166 -0.9865605205109605
4878000000.0 0.362105743696582 -0.9855746823716945
4881000000.0 0.36453512363137747 -1.0034101365987431
4884000000.0 0.3610950850184067 -0.9494367124664119
4888000000.0 0.40263832304629155 -0.9332340200722884
4891000000.0 0.3689492315206355 -0.9898647093959336
4894000000.0 0.3457738170222022 -0.9631816551217515
4897000000.0 0.3839773453471422 -0.9295731028482382
4900000000.0 0.3969695772423962 -0.9797126097624606
4903000000.0 0.36471279849857513 -0.9446206118165965
4906000000.0 0.37760926082971613 -0.9959965982969643
4909000000.0 0.3462119958190527 -0.9910931090601105
4912000000.0 0.34143651127479285 -1.0191146120321353
4916000000.0 0.401885796568174 -0.9672045638045847
4919000000.0 0.39612954587560345 -1.0111697306328407
4922000000.0 0.4163864067045368 -0.9437392882294451
4925000000.0 0.321115034461819 -0.958518631165483
4928000000.0 0.41656801780495323 -0.9262306250616472
4931000000.0 0.410406586335404 -0.966259048667755
4934000000.0 0.33328436730496114 -0.9526806018558671
4938000000.0 0.3569177121238505 -0.9698641984877033
4941000000.0 0.3661340215615751 -0.9452469592317586
4944000000.0 0.3828148432778145 -0.9013332213447008
4947000000.0 0.33073947869301423 -0.9189973625707083
4950000000.0 0.3676655328724671 -0.9198373339634331
4953000000.0 0.3592213997725504 -0.9848684198060972
4956000000.0 0.36693999019642337 -0.9554783370029756
4959000000.0 0.29811543458285467 -0.9495970571595063
4962000000.0 0.35567680700927334 -0.9469804606145404
4966000000.0 0.4006002021997703 -0.9816927076714361
4969000000.0 0.44712484462597285 -0.9900843838470516
4972000000.0 0.3356525783987609 -0.9740237805478801
4975000000.0 0.3777108545558679 -0.9689025099953743
4978000000.0 0.35785574277847837 -0.9553187682288069
4981000000.0 0.3738975666844521 -0.9776593931559847
4984000000.0 0.35101308805883297 -0.9562302556314543
4988000000.0 0.373304644345062 -0.9507263436808596
4991000000.0 0.42598043073740177 -0.9822480534205462
4994000000.0 0.3637308734899823 -0.9513599284280506
4997000000.0 0.32791494042290703 -0.9859288243611251
5000000000.0 0.4132702538474353 -0.9999486026499917
5003000000.0 0.39209672402994333 -0.9973785689494061
5006000000.0 0.4161653492318677 -1.029146800451894
5009000000.0 0.39927557539109476 -0.9626049992663026
5012000000.0 0.35151717895584783 -0.9773818697521365
5016000000.0 0.3963930200590349 -0.9917848717562475
5019000000.0 0.36955438349326136 -0.9917083332605616
5022000000.0 0.36531701679590073 -0.9622720814176178
5025000000.0 0.39793109119844733 -1.0056049141883374
5028000000.0 0.3616408948790413 -0.9928404356989212
5031000000.0 0.32802152654133837 -0.9815858698274231
5034000000.0 0.3648787898732855 -1.0296134596837623
5038000000.0 0.3592483543438214 -0.9503468437222238
5041000000.0 0.4156482616426165 -0.9512528380832308
5044000000.0 0.39724750005221426 -0.9327604528742819
5047000000.0 0.3482844895893701 -0.9681172474953799
5050000000.0 0.4383344762682262 -0.9322681170106633
5053000000.0 0.38520088083813103 -1.00321689014566
5056000000.0 0.4187569020162018 -0.9739586310924069
5059000000.0 0.4091840421331165 -0.9468699677883505
5062000000.0 0.35429470846032796 -0.9976013001874668
5066000000.0 0.40154776094815614 -0.9444428582620528
5069000000.0 0.3683602674403961 -0.9732019421001231
5072000000.0 0.3609932009611634 -0.9314904912206794
5075000000.0 0.4189467676875383 -0.9317760258757242
5078000000.0 0.3461051673723971 -0.9801823727492867
5081000000.0 0.35014414071013067 -0.9709817172865584
5084000000.0 0.3901530337278533 -0.9716507455895095
5088000000.0 0.39383504461057467 -0.9394452028187779
5091000000.0 0.3528149542341136 -0.9576169556184497
5094000000.0 0.36309697441300653 -0.967108277254962
5097000000.0 0.39825329777915075 -0.9527397540107196
5100000000.0 0.3339546597430498 -0.9496958374940723
5103000000.0 0.3362310805604189 -1.0042069936268545
5106000000.0 0.4020650205623331 -1.0388557920262396
5109000000.0 0.3899010952385878 -0.94307216483799
5112000000.0 0.33346672053470616 -0.962671073617682
5116000000.0 0.3692601318015724 -0.9389028370592694
5119000000.0 0.36318844618132257 -1.0216000826085203
5122000000.0 0.3900238506920558 -0.9285164773324516
5125000000.0 0.40594131192381705 -0.9347334929051034
5128000000.0 0.35274263475248857 -0.9684487360562745
5131000000.0 0.3976342643719589 -0.9609351369547727
5134000000.0 0.34711725578821473 -0.9761224107350229
5138000000.0 0.4160937854675817 -0.954191664424726
5141000000.0 0.4284533978280385 -0.9543692559296785
5144000000.0 0.3955137637559901 -0.9873212817385454
5147000000.0 0.4073704744985743 -0.9642176656896828
5150000000.0 0.40051255453362744 -0.9741850529579008
5153000000.0 0.38402489811361074 -1.0109513483058148
5156000000.0 0.37907719886804975 -0.9555840826448507
5159000000.0 0.41040327387243747 -0.9694137124700094
5162000000.0 0.33219612300178075 -0.9668904171759749
5166000000.0 0.3884665163977497 -0.9628761094151529
5169000000.0 0.39943204760434264 -0.9839162768506378
5172000000.0 0.3997977295594695 -0.9625908661796012
