! Created with skrf 1.8.0 (http://scikit-rf.org).
# Hz S RI R 50.0 
!freq ReS11 ImS11
4000000000.0 0.5362387893774476 -0.8232443103644067
4003000000.0 0.5658600009377479 -0.9212306038955841
4006000000.0 0.49081508085203185 -0.9018358656298601
4009000000.0000005 0.5648070756689876 -0.853292146772104
4011999999.9999995 0.5741391250647232 -0.8493215422057906
4016000000.0 0.5318046520138832 -0.9167289556399056
4019000000.0 0.5453924410562927 -0.8479525343145525
4022000000.0000005 0.6183208528215258 -0.8275950683352014
4025000000.0000005 0.5054722721455596 -0.9271576739718941
4027999999.9999995 0.5606646311137535 -0.8485071229243282
4030999999.9999995 0.5129938610309027 -0.8459136386927513
4034000000.0 0.5210135458824131 -0.8276705522482913
4038000000.0000005 0.5259857551322061 -0.9001789682921402
4041000000.0000005 0.5463715193382523 -0.8791018284379115
4043999999.9999995 0.5786424052487633 -0.9134581350931024
4046999999.9999995 0.5850656215038935 -0.8960368636561237
4050000000.0 0.5281743474122769 -0.8741891466988353
4053000000.0 0.4802654587599219 -0.85648823570295
4056000000.0 0.5452325938248109 -0.8459157985408862
4059000000.0 0.54885183443664 -0.8225924130132686
4062000000.0000005 0.5224747813938571 -0.8450969019135297
4066000000.0 0.5423987353574958 -0.8257675824106339
4069000000.0 0.5334065187647213 -0.9474743810142555
4072000000.0 0.594548440329246 -0.8731359869990192
4075000000.0 0.6021677334302507 -0.889813505784124
4078000000.0000005 0.5203517806956046 -0.829709256160095
4081000000.0000005 0.6391097424713057 -0.8186672470944573
4083999999.9999995 0.5085427356814434 -0.8726193469752013
4088000000.0 0.6269796246044075 -0.8410026378896983
4091000000.0 0.5849367754876149 -0.9406657420816819
4094000000.0000005 0.6042620931907005 -0.8688676628304522
4097000000.0000005 0.5546042001051913 -0.8889691084915791
4099999999.9999995 0.5437684943174993 -0.8600308155496397
4102999999.9999995 0.5716373245660081 -0.8437785564557062
4106000000.0 0.5460261343212359 -0.8702358259346931
4109000000.0 0.5473207964041537 -0.8956751964843092
4112000000.0 0.5348829619783662 -0.8723341872337195
4115999999.9999995 0.564148692029707 -0.8224384987807348
4119000000.0 0.5171316787621081 -0.8703925459013939
4122000000.0 0.5294669694501637 -0.8668029450202638
4125000000.0 0.5145406707195403 -0.8883713677346116
4128000000.0 0.5331528586663601 -0.8619794836274469
4131000000.0 0.5267425928243059 -0.8675980159861337
4134000000.0000005 0.5131692223998627 -0.827675812889008
4138000000.0 0.5237023091723295 -0.8865827909758056
4141000000.0 0.4980789732526221 -0.8585942075769905
4144000000.0 0.5495212563625709 -0.8301299297870146
4147000000.0000005 0.5192536927081518 -0.8764189144688811
4150000000.0000005 0.5637195036741555 -0.8569040872274601
4152999999.9999995 0.5160575606206145 -0.8584864459448078
4155999999.9999995 0.5618567593628846 -0.8578607891076818
4159000000.0 0.5578678952777918 -0.8288082204222302
4162000000.0 0.5637411117349563 -0.8541143203525083
4166000000.0000005 0.5441072185243097 -0.8825392835340784
4168999999.9999995 0.517930290281133 -0.8782626601533035
4171999999.9999995 0.5407116757589763 -0.8531142465678382
4175000000.0 0.5713706233918835 -0.8613310660607214
4178000000.0 0.5602995237419323 -0.8673857808526031
4181000000.0 0.5375108605753125 -0.8811815325984504
4184000000.0 0.5064105561919471 -0.8697218751250857
4187999999.9999995 0.5303451928801335 -0.8622190481222295
4191000000.0 0.5408355359364131 -0.8387463987764842
4194000000.0 0.5322415705548421 -0.851859343839048
4197000000.0 0.5258039312483492 -0.8623827093832395
4200000000.0 0.5379804716766785 -0.8675583976168554
4203000000.0000005 0.5588516058775527 -0.8434059739033265
4206000000.0000005 0.5550425439043191 -0.8641468582247768
4208999999.9999995 0.543528632000222 -0.8428278878655497
4211999999.9999995 0.49682562338722325 -0.8651536744098977
4216000000.0 0.5649478977672442 -0.8596774277900966
4219000000.0000005 0.5494303258354994 -0.8652610191828275
4222000000.0000005 0.5355201309414134 -0.8788613397904657
4224999999.9999995 0.5621549276422115 -0.8361785761927729
4227999999.9999995 0.5398951979136128 -0.8634309527685674
4231000000.0 0.5484172326849726 -0.8570743226233795
4234000000.0 0.549301672928811 -0.8657201169990587
4238000000.0000005 0.5286866235548711 -0.87172522752475
4240999999.9999995 0.5245119760972424 -0.863039860232327
4244000000.0 0.5425132538266456 -0.8514250641361817
4247000000.0 0.5480944126299323 -0.8570303235478532
4250000000.0 0.5170455209374127 -0.8390444753057092
4253000000.0 0.5327834163139703 -0.845251117282273
4256000000.0 0.5691670270152295 -0.865336323382721
4259000000.0000005 0.5248193303997148 -0.8184145859432267
4261999999.9999995 0.5422788683834487 -0.8687780946431505
4266000000.0 0.5317617490913975 -0.878016354391129
4269000000.0 0.5574190661894866 -0.8435838282144805
4272000000.0000005 0.5507873311199996 -0.8672091321239643
4275000000.0000005 0.5569639903575732 -0.8421442703992454
4277999999.9999995 0.5504226192227147 -0.8789675804464505
4280999999.9999995 0.5560871070094533 -0.8659449261052408
4284000000.0 0.5277321082840141 -0.8845301239165606
4288000000.0000005 0.5988315027747073 -0.841476504000531
4291000000.0000005 0.5357130735184883 -0.8253751284530801
4293999999.9999995 0.5558506926024444 -0.8442551457990402
4297000000.0 0.5385800891414092 -0.8296951034315171
4300000000.0 0.561372063174137 -0.8520994617510613
4303000000.0 0.525181872586445 -0.8616898529549193
4306000000.0 0.5740395332069785 -0.830863400470159
4309000000.0 0.5645564575471115 -0.8394197571524693
4312000000.0 0.5991191845664138 -0.8474135948199508
4316000000.0 0.564266309794232 -0.8542398996980396
4319000000.0 0.5342496813530249 -0.8318949485249496
4322000000.0 0.513483703413737 -0.8525404738789916
4325000000.0 0.5525865927506736 -0.8580616466618209
4328000000.0 0.5399942021028769 -0.8360822240717106
4331000000.0 0.52513454451448 -0.8802823294679022
4334000000.0 0.5429411475827713 -0.8786201102332986
4338000000.0 0.5855143852314904 -0.845993660498803
4341000000.0 0.5802243252619614 -0.8596908112977015
4344000000.0 0.5293644170856869 -0.8638795146989883
4347000000.0 0.5249930034544813 -0.8675648717732248
4350000000.0 0.5202136143908582 -0.8295226985579011
4353000000.0 0.5537433735713182 -0.813103642365839
4356000000.0 0.5353958130310967 -0.8500646945975234
4359000000.0 0.508380339473042 -0.8083954631216012
4362000000.0 0.5166702338621333 -0.8881364465771137
4366000000.0 0.5481938136417207 -0.8771804638837642
4369000000.0 0.5046266751046276 -0.8221374647623426
4372000000.0 0.490679910857564 -0.8679145643287531
4375000000.0 0.5421498502665516 -0.8432859105271452
4378000000.0 0.530659195780059 -0.8238594500815505
4381000000.0 0.5353782138707847 -0.8484213377466968
4384000000.0 0.562854529318047 -0.890984285428397
4388000000.0 0.5323947818083576 -0.8329533237283803
4391000000.0 0.544397312392794 -0.8478905977743562
4394000000.0 0.510731392499469 -0.8309449441909776
4397000000.0 0.5382053430231598 -0.8713949573536818
4400000000.0 0.5396015254717771 -0.8756309230600751
4403000000.0 0.5336112712399537 -0.8617695467434738
4406000000.0 0.5073510204333174 -0.8631185174640332
4409000000.0 0.5491191681562237 -0.8917338484154597
4412000000.0 0.47602376860586815 -0.882168075071712
4416000000.0 0.5106399169478786 -0.845194225690229
4419000000.0 0.5242358431618046 -0.8677087395434637
4422000000.0 0.5494999117624991 -0.8442096282059857
4425000000.0 0.5630685130571844 -0.8634966797064811
4428000000.0 0.5196705324876358 -0.8608013841611172
4431000000.0 0.5484348329447324 -0.8750939205647177
4434000000.0 0.5148627722461678 -0.8562740931442334
4438000000.0 0.5512686980866484 -0.8785918131909435
4441000000.0 0.5501707487273411 -0.861099665262858
4444000000.0 0.5250846153246296 -0.8352083036547405
4447000000.0 0.5015781379735501 -0.871300289350744
4450000000.0 0.5313232829448571 -0.8338923407247583
4453000000.0 0.5392875689901098 -0.8640077699953844
4456000000.0 0.5050494028467877 -0.8435035767222593
4459000000.0 0.4858089428343579 -0.8319728226302536
4462000000.0 0.5488299712030907 -0.9136052706916984
4466000000.0 0.54535308378854 -0.8871158505789094
4469000000.0 0.5359030860149046 -0.8402794576468867
4472000000.0 0.5266545666941305 -0.8840979307032646
4475000000.0 0.5156908627829395 -0.8321601734788271
4478000000.0 0.525733827939702 -0.9132065618996444
4481000000.0 0.5069626742169899 -0.8361798343235713
4484000000.0 0.47943781207861025 -0.8833037706034501
4488000000.0 0.5140067799495773 -0.8505645776124432
4491000000.0 0.5088638877239234 -0.86950471593915
4494000000.0 0.518430853583707 -0.8640273636262497
4497000000.0 0.5118575102013089 -0.8518109671051701
4500000000.0 0.5208474806792404 -0.8702510451544789
4503000000.0 0.5374742059008804 -0.8665508312269519
4506000000.0 0.5136864689062217 -0.8591589541324768
4509000000.0 0.4907531983366476 -0.8534408906542983
4512000000.0 0.4865578014991817 -0.8636198117168574
4516000000.0 0.5259471578522732 -0.8772893105763873
4519000000.0 0.5194042863808997 -0.8330698760570858
4522000000.0 0.5208413004374652 -0.8679030889579059
4525000000.0 0.5414454924971006 -0.8424134337627947
4528000000.0 0.5346140397725465 -0.8694756132378122
4531000000.0 0.5369931507501116 -0.8609973247244194
4534000000.0 0.5176421300001257 -0.8443844568779426
4538000000.0 0.5181628121193306 -0.8488544911224039
4541000000.0 0.47955205328150163 -0.8672296022944086
4544000000.0 0.4923195010620857 -0.8516922781083092
4547000000.0 0.5303002553008189 -0.8428128344246403
4550000000.0 0.49813878796741307 -0.8816805399490134
4553000000.0 0.5163134110401394 -0.8672899194438795
4556000000.0 0.5039763355006186 -0.8486174373252171
4559000000.0 0.5213168895544303 -0.8673171835661919
4562000000.0 0.5216976314525007 -0.8583634573545942
4566000000.0 0.5251166583520238 -0.8821137305576509
4569000000.0 0.49080986108354296 -0.8584718791530024
4572000000.0 0.5155720930825405 -0.8591070676576007
4575000000.0 0.48953025054689037 -0.88709109641014
4578000000.0 0.5261133762013731 -0.8855521545932552
4581000000.0 0.4929857673242796 -0.8827521925743892
4584000000.0 0.5038908462562155 -0.8603986956771512
4588000000.0 0.5309397528376623 -0.876679665063545
4591000000.0 0.5367283879492486 -0.8643128918550309
4594000000.0 0.5082990665842363 -0.871831557593199
4597000000.0 0.5104581314046641 -0.8826389052623849
4600000000.0 0.4711248807679985 -0.8855137813385704
4603000000.0 0.5082225294438986 -0.8748844406973427
4606000000.0 0.5139041184970532 -0.8676106984173135
4609000000.0 0.4978776799153488 -0.8782815868998266
4612000000.0 0.5077839241819725 -0.8763931749838295
4616000000.0 0.4858733062978289 -0.8592063511351553
4619000000.0 0.5148467422421781 -0.8646135264229515
4622000000.0 0.4879552650345011 -0.8891849471680912
4625000000.0 0.4702222602075839 -0.8607014843743904
4628000000.0 0.5160705810149568 -0.8558212716164932
4631000000.0 0.4895584805792089 -0.8692129122523207
4634000000.0 0.5004689120755994 -0.8686689051185944
4638000000.0 0.4923514960856147 -0.8888094124986624
4641000000.0 0.49157215156761536 -0.8774369288003994
4644000000.0 0.494421045673658 -0.8775290632749273
4647000000.0 0.5040507710631348 -0.8868788236949787
4650000000.0 0.4774275683382664 -0.8838163022904297
4653000000.0 0.5194924828782259 -0.8759188111963858
4656000000.0 0.4867721381953767 -0.8706082571881596
4659000000.0 0.47209939532515943 -0.8828541139979162
4662000000.0 0.5034587328317307 -0.8736421828473335
4666000000.0 0.4884738638101811 -0.8955975097886459
4669000000.0 0.5093972348114417 -0.8707880009408262
4672000000.0 0.49524157370953004 -0.9025594987938307
4675000000.0 0.4703508029559529 -0.8755191956058521
4678000000.0 0.46252590656494175 -0.8763419014806172
4681000000.0 0.4770481997335683 -0.9037336593601621
4684000000.0 0.47590803118695174 -0.8987522154006471
4688000000.0 0.4610349652176335 -0.862806236926386
4691000000.0 0.525483280529887 -0.8872703036480879
4694000000.0 0.4909673277735217 -0.8673451798716729
4697000000.0 0.46844523859741216 -0.8438824117343684
4700000000.0 0.5006582852851643 -0.8803282157487048
4703000000.0 0.5178827706045362 -0.8511432036635872
4706000000.0 0.4616532028187612 -0.8875442931839245
4709000000.0 0.487151523828932 -0.9047727681725075
4712000000.0 0.5079564720140587 -0.8821956189811194
4716000000.0 0.4859069805908934 -0.9072391674156319
4719000000.0 0.49698184798254824 -0.8627944144888346
4722000000.0 0.5161460491507013 -0.8702221152121066
4725000000.0 0.49198898767984045 -0.8864670381318038
4728000000.0 0.4579134378948106 -0.8989337057327307
4731000000.0 0.5039173917456785 -0.9072410999183115
4734000000.0 0.5167432170794205 -0.8620325646737156
4738000000.0 0.5112462089905809 -0.9106552287435777
4741000000.0 0.49873773550298767 -0.8970230141732517
4744000000.0 0.4853102178534332 -0.8905863363306553
4747000000.0 0.523431325938853 -0.8688233828427967
4750000000.0 0.4965537538373722 -0.8844387118175204
4753000000.0 0.5233887431514068 -0.9229077112714926
4756000000.0 0.4898034417198689 -0.8865438682884779
4759000000.0 0.49720227600239764 -0.8784734974857102
4762000000.0 0.4795501138957685 -0.9416449147359485
4766000000.0 0.5081467096075445 -0.9058149667331776
4769000000.0 0.5156616245635841 -0.9171557887591923
4772000000.0 0.49042016973111074 -0.9170572192266965
4775000000.0 0.5028553153054891 -0.9283714216716893
4778000000.0 0.5077954721420146 -0.9136138258752848
4781000000.0 0.48755274150856176 -0.8954091595237559
4784000000.0 0.4986734700587776 -0.8626397529826023
4788000000.0 0.4895787377435893 -0.9052725159538539
4791000000.0 0.5069023792042261 -0.8743634890820748
4794000000.0 0.5195189114399196 -0.8944491586620492
4797000000.0 0.4782130738784226 -0.8751651416072024
4800000000.0 0.4935328087398091 -0.8800048198401415
4803000000.0 0.46859703652058327 -0.903283741827568
4806000000.0 0.4857434782738967 -0.9188980339772673
4809000000.0 0.46476033482912205 -0.9062266042193242
4812000000.0 0.43718090956693967 -0.9249934768382226
4816000000.0 0.4970898985481389 -0.8668640645121815
4819000000.0 0.5006798571058273 -0.8889992839179435
4822000000.0 0.5060259068870537 -0.9117798940280768
4825000000.0 0.5147965266579857 -0.9071252435895343
4828000000.0 0.4833008693406048 -0.8977722942819026
4831000000.0 0.453074121724065 -0.9221263526116558
4834000000.0 0.499615953997929 -0.89149582963519
4838000000.0 0.4767175950323804 -0.9169251937211836
4841000000.0 0.4765311728016751 -0.884716636051371
4844000000.0 0.5102350329696278 -0.8857666181206556
4847000000.0 0.5104462877140235 -0.8614479295585271
4850000000.0 0.4810090133969403 -0.9224720185665436
4853000000.0 0.47345466757466037 -0.8767707123863173
4856000000.0 0.4773110786017459 -0.8591230730805334
4859000000.0 0.49934187202051106 -0.926005479657179
4862000000.0 0.5023215458376209 -0.8967639745044081
4866000000.0 0.4826798934052913 -0.9126222928729014
4869000000.0 0.4799959858438775 -0.9027897871003819
4872000000.0 0.4726389116733422 -0.948253127009263
4875000000.0 0.5489127418615852 -0.9067368867011478
4878000000.0 0.5003493189999788 -0.9240449581455582
4881000000.0 0.5049113498010658 -0.9685732472581586
4884000000.0 0.49509448986506566 -0.9003680237887697
4888000000.0 0.5159384144179794 -0.8813168600872427
4891000000.0 0.5254288102486281 -0.9159530385128876
4894000000.0 0.45051908217133335 -0.9144974866507103
4897000000.0 0.4903236546621302 -0.9065888693739763
4900000000.0 0.5096738220382291 -0.90112465210742
4903000000.0 0.5130549286458937 -0.9070608287357282
4906000000.0 0.4983700895807612 -0.9251299445185104
4909000000.0 0.4953671791191557 -0.9214203700011159
4912000000.0 0.4989312157822602 -0.9248590607823636
4916000000.0 0.5229950866588365 -0.9056672444468261
4919000000.0 0.5216102268244244 -0.8970485451925819
4922000000.0 0.5045560159587603 -0.9151693721363905
4925000000.0 0.45757160711478106 -0.9235349553331367
4928000000.0 0.5090010981264254 -0.8532125366833253
4931000000.0 0.5671054260073685 -0.8988415045498116
4934000000.0 0.5065549427421578 -0.8393422506102246
4938000000.0 0.45945795186272065 -0.9075062696375613
4941000000.0 0.525571917580592 -0.8844815744339759
4944000000.0 0.5188367961707298 -0.8217309135353309
4947000000.0 0.5339455214932538 -0.8932388320807724
4950000000.0 0.49781393098202187 -0.87722833003118
4953000000.0 0.4964990354301838 -0.9647135816551694
4956000000.0 0.4791943037604919 -0.9317288030403216
4959000000.0 0.470908410230792 -0.8917235928931802
4962000000.0 0.4937542843877968 -0.8925437040495855
4966000000.0 0.5310265020204972 -0.922365089801144
4969000000.0 0.5605485936823916 -0.9220428119854376
4972000000.0 0.5084357222767534 -0.911596756173826
4975000000.0 0.49868539771914544 -0.8723112162145422
4978000000.0 0.48485015377189894 -0.9160639606189225
4981000000.0 0.4939380828602413 -0.9253607275535238
4984000000.0 0.5098665540845622 -0.8670535002824781
4988000000.0 0.5252123118534167 -0.880320100886283
4991000000.0 0.5742502633934238 -0.892966165640742
4994000000.0 0.5311157376205634 -0.8724395679744048
4997000000.0 0.4995811554544204 -0.91454533918428
5000000000.0 0.5334698268147127 -0.8817516782661561
5003000000.0 0.4991668087442407 -0.9089314680255229
5006000000.0 0.5358471379729735 -0.9438603515872044
5009000000.0 0.5391516157604738 -0.9027509089159598
5012000000.0 0.5149104023974228 -0.9096247748431141
5016000000.0 0.5618023865945627 -0.9079272146454229
5019000000.0 0.5196471430338854 -0.9026511044247166
5022000000.0 0.4996088086652758 -0.8852790233999018
5025000000.0 0.5606454706381182 -0.96448331176863
5028000000.0 0.49122851184183436 -0.9070783580269696
5031000000.0 0.4783300950295772 -0.9301839274152541
5034000000.0 0.4855905205784181 -0.935171334761991
5038000000.0 0.5112172331850996 -0.8407350951754435
5041000000.0 0.5634426875524283 -0.8812128100959911
5044000000.0 0.5380897221721328 -0.8635048236075744
5047000000.0 0.5502520164182279 -0.8654084668836641
5050000000.0 0.5806681209810445 -0.8167591286825397
5053000000.0 0.5222625871370868 -0.9511486705831615
5056000000.0 0.5803333377047785 -0.876858824547447
5059000000.0 0.5740997689147002 -0.8693567456050678
5062000000.0 0.493384663296489 -0.9625327816781128
5066000000.0 0.5832099090783736 -0.8626105915281272
5069000000.0 0.5404948135439323 -0.9090655727481868
5072000000.0 0.5240647968662422 -0.8602477374767068
5075000000.0 0.5257727078808312 -0.9001174577357489
5078000000.0 0.4905988228468268 -0.931782846687625
5081000000.0 0.5003947194722427 -0.8878382011824972
5084000000.0 0.501200948778671 -0.9079453485851379
5088000000.0 0.543798977876266 -0.8889369527267439
5091000000.0 0.5053117298084464 -0.8942998766563143
5094000000.0 0.540675912944095 -0.8958075351052867
5097000000.0 0.5345754999461442 -0.8772480404355624
5100000000.0 0.5108911829253991 -0.8701122690782012
5103000000.0 0.49956712620541327 -0.9186124194985157
5106000000.0 0.5635303945319736 -0.8980275170865621
5109000000.0 0.6129463023232462 -0.8975845292907416
5112000000.0 0.48433973134256547 -0.8711228140414231
5116000000.0 0.5371307367410311 -0.8265159667288084
5119000000.0 0.5323658445486845 -0.9263265744427251
5122000000.0 0.5240642853089572 -0.863561407996198
5125000000.0 0.5623651674411622 -0.8528633072649986
5128000000.0 0.5285548432449898 -0.8981642578081385
5131000000.0 0.500057045907019 -0.8746805129290466
5134000000.0 0.5918771549700094 -0.841384310298279
5138000000.0 0.5228660958052738 -0.8927521474860094
5141000000.0 0.6422031425125401 -0.8959650364275538
5144000000.0 0.5540184184332407 -0.8932652154455987
5147000000.0 0.5329064907368349 -0.9016455983817012
5150000000.0 0.624332481827412 -0.8779528724190077
5153000000.0 0.5603784009807943 -0.8958022915854271
5156000000.0 0.5440397176569602 -0.8785299304425006
5159000000.0 0.5775185401999187 -0.8964542234605505
5162000000.0 0.5105137667768425 -0.8970579091641706
5166000000.0 0.5573625960126617 -0.9222571105155997
5169000000.0 0.5510752457814421 -0.9126943146933635
5172000000.0 0.5375037373624316 -0.8605200479487493
5175000000.0 0.5981840799063085 -0.9207854926424732
5178000000.0 0.5349951849765298 -0.9168288957857096
