! Created with skrf 1.8.0 (http://scikit-rf.org).
# Hz S RI R 50.0 
!freq ReS11 ImS11
4000000000.0 0.5682423710582096 -0.8910874665238033
4003000000.0 0.5811138480084349 -0.9317723037771418
4006000000.0 0.5280820709119498 -0.8968680020245201
4009000000.0000005 0.5592360391529496 -0.8917860676013931
4011999999.9999995 0.5888041993515376 -0.9223757927995133
4016000000.0 0.5459874754984791 -0.8835494870906847
4019000000.0 0.5396644329897737 -0.8584547201662089
4022000000.0000005 0.6425190354430017 -0.8523059407924894
4025000000.0000005 0.4984324907040509 -0.9224043776936162
4027999999.9999995 0.5186340968756699 -0.9127363722915337
4030999999.9999995 0.531917862587845 -0.8283413903395207
4034000000.0 0.5522103574849857 -0.8595538592113552
4038000000.0000005 0.5251500145326563 -0.9020925218863652
4041000000.0000005 0.5470163658829277 -0.8820233952413612
4043999999.9999995 0.586778866755234 -0.9189286322156976
4046999999.9999995 0.5788794273836293 -0.9144074075074845
4050000000.0 0.5511459065126152 -0.9052548050013494
4053000000.0 0.49932549268722176 -0.8984370792685746
4056000000.0 0.536641172214816 -0.8769824615501333
4059000000.0 0.5644914733622499 -0.85088683695608
4062000000.0000005 0.522219111788573 -0.9323161706952583
4066000000.0 0.49892064060882957 -0.8160069193199374
4069000000.0 0.5211182879249169 -0.8967487247545513
4072000000.0 0.5696431594454623 -0.892021778910646
4075000000.0 0.6168235536372144 -0.9057497785326735
4078000000.0000005 0.5467349428720326 -0.8834408070455407
4081000000.0000005 0.609362167602397 -0.8323503728309622
4083999999.9999995 0.5257978435969228 -0.9224356986358956
4088000000.0 0.6019718519533597 -0.8426652295809878
4091000000.0 0.5461209136468711 -0.9641668086177411
4094000000.0000005 0.5336659559797725 -0.8479623195132046
4097000000.0000005 0.556411880825534 -0.8652782716192925
4099999999.9999995 0.5386437307948031 -0.8859174815064291
4102999999.9999995 0.5589779172082916 -0.8809126687592171
4106000000.0 0.5280764787210529 -0.9266789792427869
4109000000.0 0.5203276714402328 -0.8895195703536393
4112000000.0 0.5294679081163837 -0.8744925957378344
4115999999.9999995 0.5531306254249937 -0.8785019447659015
4119000000.0 0.5101605875491314 -0.8936026228884542
4122000000.0 0.5056657995079522 -0.9229238546206857
4125000000.0 0.514700113069946 -0.8851758398353909
4128000000.0 0.49292984770190773 -0.8214360488740015
4131000000.0 0.5348555428176052 -0.8133389920345079
4134000000.0000005 0.5279675804954967 -0.8163589167021732
4138000000.0 0.5288455605971024 -0.8395767749756742
4141000000.0 0.5229898785281882 -0.8442010450415761
4144000000.0 0.5575927560235782 -0.9062243072626723
4147000000.0000005 0.5166673587639223 -0.8660937862184642
4150000000.0000005 0.5650365351212444 -0.8849446242802066
4152999999.9999995 0.5350068444899431 -0.8559563488019066
4155999999.9999995 0.5292817023522345 -0.8803336477216195
4159000000.0 0.5368457052259803 -0.841404561104838
4162000000.0 0.5378274029905512 -0.8585675422856484
4166000000.0000005 0.5359646617449615 -0.8673290841272694
4168999999.9999995 0.5166206287342353 -0.8618970859991821
4171999999.9999995 0.5472758817249109 -0.8575466985508978
4175000000.0 0.5700607419057366 -0.8744377399662423
4178000000.0 0.5470561853586792 -0.8865902247602631
4181000000.0 0.5267347850956658 -0.891011234458946
4184000000.0 0.5572791161444519 -0.8508990135900913
4187999999.9999995 0.5292854166901987 -0.8764446816726859
4191000000.0 0.5676410638272591 -0.8255882954165834
4194000000.0 0.5209125418675049 -0.8582195020618937
4197000000.0 0.5502177838494903 -0.870019968364037
4200000000.0 0.5388789073610392 -0.8646499687643265
4203000000.0000005 0.5651417740134331 -0.8439014769822629
4206000000.0000005 0.5517340050695587 -0.8695495522240042
4208999999.9999995 0.5516789499114594 -0.8501216050462105
4211999999.9999995 0.5321915878771073 -0.8870068287931828
4216000000.0 0.5785749724751668 -0.860847530552889
4219000000.0000005 0.5636860574672781 -0.8753951537224036
4222000000.0000005 0.5277726858961602 -0.8637301495935296
4224999999.9999995 0.5456532855752645 -0.8562813072064261
4227999999.9999995 0.5509588383476525 -0.876671890128431
4231000000.0 0.542423794929688 -0.8518069672659412
4234000000.0 0.5343803065193116 -0.8758255252594205
4238000000.0000005 0.5293821230966241 -0.8647946311679259
4240999999.9999995 0.5252557360574373 -0.8546077099929192
4244000000.0 0.548646663469964 -0.8572057806907327
4247000000.0 0.542389229322154 -0.8598581646031106
4250000000.0 0.5188245916648608 -0.856113797093001
4253000000.0 0.5110675447391734 -0.8503755314982053
4256000000.0 0.5306599496256038 -0.8915975819174089
4259000000.0000005 0.510282379937743 -0.841427424109785
4261999999.9999995 0.5246439054585281 -0.8791312597745924
4266000000.0 0.49222087170163675 -0.8879309064013559
4269000000.0 0.5413936245753458 -0.84481345415516
4272000000.0000005 0.5390033419724642 -0.8506442916117405
4275000000.0000005 0.5455676056115724 -0.8690058163831672
4277999999.9999995 0.548262032589887 -0.8574839063951739
4280999999.9999995 0.5417248122339018 -0.849840885596736
4284000000.0 0.5263674870648136 -0.8954978912803
4288000000.0000005 0.5839148954563211 -0.8443551410147071
4291000000.0000005 0.5126040226228504 -0.8471436658258117
4293999999.9999995 0.5582770598328562 -0.8688909329230101
4297000000.0 0.5421354741759227 -0.8319394050001585
4300000000.0 0.5504673616896495 -0.8278516999604482
4303000000.0 0.5377701483228656 -0.8432365628411587
4306000000.0 0.5526444420578234 -0.8534412507894493
4309000000.0 0.5445757840457629 -0.8472769053891668
4312000000.0 0.6043749595804235 -0.8533987182732666
4316000000.0 0.5573571754693573 -0.8779681141038775
4319000000.0 0.5467766700127803 -0.8497613870567547
4322000000.0 0.5433490385608446 -0.8510126393192237
4325000000.0 0.5600834613915554 -0.8358267148575105
4328000000.0 0.5318575051746266 -0.8656770553135239
4331000000.0 0.5191506384848631 -0.86502110475849
4334000000.0 0.5544245531862888 -0.8613492360086649
4338000000.0 0.5611505109638827 -0.8596069741759219
4341000000.0 0.5735925241699227 -0.8541684711812181
4344000000.0 0.5608025450482202 -0.8570090623664567
4347000000.0 0.5091898437724192 -0.8686831884457188
4350000000.0 0.5205370188719836 -0.8282604628637759
4353000000.0 0.5403610888729583 -0.8371851145469247
4356000000.0 0.5054342542666947 -0.8616403354490557
4359000000.0 0.5153634624444481 -0.818227326422018
4362000000.0 0.4931647099929613 -0.8888745905467401
4366000000.0 0.5344106676819615 -0.8599228737623296
4369000000.0 0.49721144128287 -0.8298533546280952
4372000000.0 0.48541372174203967 -0.8620839797548004
4375000000.0 0.5201192020665384 -0.8513481294344395
4378000000.0 0.5285694265473511 -0.8279561231766095
4381000000.0 0.5404041911037416 -0.8287910317193076
4384000000.0 0.5691432278373656 -0.9196888573019548
4388000000.0 0.539351400768883 -0.8378144608182645
4391000000.0 0.5357976145708383 -0.8655927207318632
4394000000.0 0.5009224099991824 -0.8406867652406284
4397000000.0 0.5255673472309201 -0.8736164216131537
4400000000.0 0.5392915132515328 -0.8836848219988813
4403000000.0 0.5219540667017639 -0.8730205309941903
4406000000.0 0.508915800879089 -0.8836243069019522
4409000000.0 0.5451368795436841 -0.894226546198977
4412000000.0 0.4757666980773819 -0.8920120804213768
4416000000.0 0.5184019868713721 -0.8655480986670199
4419000000.0 0.5077662264538083 -0.8741016792002597
4422000000.0 0.5422134176520661 -0.832990954359393
4425000000.0 0.5534839630441337 -0.868951475976465
4428000000.0 0.5240949023556113 -0.8598777009928935
4431000000.0 0.5416035814612287 -0.8759282433274576
4434000000.0 0.5136104456311616 -0.8573840987311357
4438000000.0 0.5370575296865047 -0.8913874030443693
4441000000.0 0.5420648274984974 -0.8683489417540803
4444000000.0 0.5171801947601675 -0.8503677488110389
4447000000.0 0.5025566695543782 -0.8735358462125699
4450000000.0 0.5257319283405002 -0.8562909462321509
4453000000.0 0.5349449685224029 -0.8991627882492559
4456000000.0 0.5061232786497871 -0.8426278860778921
4459000000.0 0.49512130968319334 -0.8350026519250211
4462000000.0 0.5468129291645696 -0.9224411732489526
4466000000.0 0.5226356516859735 -0.9014364864358646
4469000000.0 0.5340229657534115 -0.8474693006759733
4472000000.0 0.5074093239563013 -0.8953700576979771
4475000000.0 0.5093803836166487 -0.8428729878277783
4478000000.0 0.5163944743308337 -0.9249142841319563
4481000000.0 0.4943015805897564 -0.8514805712463762
4484000000.0 0.47057899500352923 -0.8846347786993669
4488000000.0 0.5126187363431572 -0.8584824253222063
4491000000.0 0.5099401608819607 -0.8616415952623087
4494000000.0 0.516759419444057 -0.8508593237566462
4497000000.0 0.5157287997668523 -0.8492593247980377
4500000000.0 0.5163164920326377 -0.8696972158722818
4503000000.0 0.5219199678815976 -0.9019325715299902
4506000000.0 0.48843567039077607 -0.8525553315096026
4509000000.0 0.5039311650077896 -0.8537603601142689
4512000000.0 0.49458298883903107 -0.8573481054282499
4516000000.0 0.544276481996938 -0.8723144173551718
4519000000.0 0.5177808073480848 -0.8687981750005868
4522000000.0 0.4950879705712552 -0.8675113736563629
4525000000.0 0.5341686775232437 -0.8545389997937559
4528000000.0 0.5206172512957425 -0.8979086507480458
4531000000.0 0.5216134504996749 -0.8698791194694627
4534000000.0 0.4999270432085816 -0.8509071425324615
4538000000.0 0.5048139191909392 -0.8739234805905741
4541000000.0 0.46968302948717133 -0.8766241702800099
4544000000.0 0.5114598983440946 -0.8551135137481303
4547000000.0 0.5162694358991823 -0.8402485017925532
4550000000.0 0.4994929424936061 -0.8899548440601701
4553000000.0 0.5167042751722486 -0.8830449466021668
4556000000.0 0.48717697167361573 -0.854140065021161
4559000000.0 0.5091355915448129 -0.8792587330285673
4562000000.0 0.5129528143434031 -0.8775880198127921
4566000000.0 0.5021032220358624 -0.8909955319623519
4569000000.0 0.4950582739105213 -0.8496703886555459
4572000000.0 0.49285369060183637 -0.8725200957679515
4575000000.0 0.4919240324865569 -0.8761554898515371
4578000000.0 0.5253438723473013 -0.8922135229628487
4581000000.0 0.479487471474782 -0.8992587067587345
4584000000.0 0.5005425987507257 -0.8759739573661087
4588000000.0 0.4983205942589824 -0.8825174319098561
4591000000.0 0.5107215932345752 -0.876404120511826
4594000000.0 0.47110485978371874 -0.8857211984974316
4597000000.0 0.4995287266621614 -0.8859216213626717
4600000000.0 0.4763650519835473 -0.8862144654039978
4603000000.0 0.49741677838267107 -0.8855953005052069
4606000000.0 0.5117937413855966 -0.8884938071262832
4609000000.0 0.5042771333332473 -0.8798688701666169
4612000000.0 0.48085848513269497 -0.8912382389710246
4616000000.0 0.4916922435942795 -0.8739322832722731
4619000000.0 0.49668691369975815 -0.8638563385469542
4622000000.0 0.49525679690011304 -0.8844364465884644
4625000000.0 0.4565468949911668 -0.8814001165161937
4628000000.0 0.4817421345836944 -0.8587708819456359
4631000000.0 0.4692091986157793 -0.8888924697689146
4634000000.0 0.4912123053237587 -0.8742779772921909
4638000000.0 0.4938544344752131 -0.8879378799309157
4641000000.0 0.5025250091549449 -0.8757319919634783
4644000000.0 0.4741994093576485 -0.8765000228394528
4647000000.0 0.49679978660049573 -0.8929331799353213
4650000000.0 0.46759100791938757 -0.8839323623395131
4653000000.0 0.5018106689369408 -0.900606256051001
4656000000.0 0.49124240989053425 -0.8907195968285196
4659000000.0 0.47980967031308014 -0.8880869101608682
4662000000.0 0.481747250375436 -0.8927734308803169
4666000000.0 0.4662006429118141 -0.8939801686536433
4669000000.0 0.5066329672479896 -0.886961541156148
4672000000.0 0.4748562769700855 -0.8944732954548587
4675000000.0 0.4691819208940332 -0.8847568198670079
4678000000.0 0.4786377210555133 -0.8808331714514384
4681000000.0 0.44574198926204117 -0.9139400455819908
4684000000.0 0.44408610932207715 -0.8987968575432183
4688000000.0 0.46288175315080154 -0.8901572333279147
4691000000.0 0.4900115402711171 -0.8872349217312689
4694000000.0 0.49108722230632174 -0.8843806529588878
4697000000.0 0.45415556195313866 -0.8761720490800902
4700000000.0 0.527497019536707 -0.9003231675442084
4703000000.0 0.5038618674094756 -0.847196059762542
4706000000.0 0.45636528891899264 -0.8946354780943707
4709000000.0 0.45610190669360223 -0.8749264348361596
4712000000.0 0.4918013418128899 -0.9048161075231684
4716000000.0 0.4635500229578159 -0.8599627526521902
4719000000.0 0.47463314201857415 -0.8874533031506701
4722000000.0 0.4946447526129733 -0.8659966043599522
4725000000.0 0.4867907736093398 -0.8716965480104983
4728000000.0 0.46561596932038773 -0.884462176307835
4731000000.0 0.4988443793570449 -0.900270207881169
4734000000.0 0.5034927168150328 -0.8829018182655131
4738000000.0 0.5135713883730774 -0.9026131360286272
4741000000.0 0.4714540079230203 -0.9129609174227248
4744000000.0 0.47813635323891757 -0.9079873937449948
4747000000.0 0.4985735447142303 -0.8701772354160962
4750000000.0 0.48408857359572366 -0.8700207639740435
4753000000.0 0.49542171297157234 -0.8642741165175618
4756000000.0 0.4998803160402489 -0.9039820257399005
4759000000.0 0.4873575586431084 -0.9053948631301133
4762000000.0 0.47554692930416254 -0.9187397122819188
4766000000.0 0.4590312947459567 -0.8824610456527158
4769000000.0 0.4896875398376953 -0.9196235082220519
4772000000.0 0.4901063607810795 -0.9133777337333198
4775000000.0 0.48913253047046124 -0.9315969706108531
4778000000.0 0.48973614040165425 -0.9015281879292623
4781000000.0 0.514606966218652 -0.8571411150497035
4784000000.0 0.4875478583064615 -0.8642620552377653
4788000000.0 0.481414435619778 -0.9340126571993895
4791000000.0 0.4847707651655499 -0.8905358464253731
4794000000.0 0.5182226780070693 -0.914469767017279
4797000000.0 0.47306917416124744 -0.8965581709979071
4800000000.0 0.4579591788145485 -0.8875592044244583
4803000000.0 0.42663214241717806 -0.9247313580679954
4806000000.0 0.47186534602136887 -0.914349911293272
4809000000.0 0.4373319574605936 -0.9139442158878287
4812000000.0 0.429387920786968 -0.9047139844124927
4816000000.0 0.47965367579258456 -0.8752071998980129
4819000000.0 0.511473567542702 -0.8978806537738528
4822000000.0 0.49958458617640145 -0.9147192875345099
4825000000.0 0.5193686918319507 -0.9116504886015183
4828000000.0 0.479640311891983 -0.9022202463117397
4831000000.0 0.4605141756745895 -0.928216813750095
4834000000.0 0.4957708084511947 -0.8808446689412404
4838000000.0 0.47160848875428407 -0.9327544909601482
4841000000.0 0.4487091432575453 -0.908055031950444
4844000000.0 0.5051203703527904 -0.8810574355368332
4847000000.0 0.47380316207507633 -0.8749322007193978
4850000000.0 0.46744875249715356 -0.9322062733873031
4853000000.0 0.47551054274331944 -0.8775719678128165
4856000000.0 0.4859329057763811 -0.8892590871075814
4859000000.0 0.5067833761244 -0.9226782519293775
4862000000.0 0.4735662705170942 -0.8777942989909396
4866000000.0 0.4828690209426457 -0.9347900545571014
4869000000.0 0.44339285939845957 -0.9187144636115507
4872000000.0 0.46811840829988716 -0.9176598953063068
4875000000.0 0.5406998759066362 -0.9097857985423401
4878000000.0 0.4874267414748343 -0.9062948054506972
4881000000.0 0.488847052593809 -0.9730490045218881
4884000000.0 0.4851775636240069 -0.9162359807314048
4888000000.0 0.5155441250119456 -0.915980885637479
4891000000.0 0.5202667315044572 -0.92665051686995
4894000000.0 0.4742245791368231 -0.9170414258036714
4897000000.0 0.5037280671013823 -0.8983851212107201
4900000000.0 0.5023904175331944 -0.9180456761745533
4903000000.0 0.5169304319470229 -0.8897886474443257
4906000000.0 0.5007914656045714 -0.9152178986462853
4909000000.0 0.4776276980900953 -0.9358566726135737
4912000000.0 0.46448367433213134 -0.9420120444661285
4916000000.0 0.49831485714590956 -0.8946735255271742
4919000000.0 0.5199347083358254 -0.9174099457866003
4922000000.0 0.5099653408923478 -0.8936280900050262
4925000000.0 0.4524057264457734 -0.9147804368468369
4928000000.0 0.524813734637769 -0.8747376403496759
4931000000.0 0.4970433088651731 -0.9013174516798276
4934000000.0 0.45269932554054515 -0.8634030539225296
4938000000.0 0.4363891572335503 -0.9215607749408351
4941000000.0 0.48136996739424076 -0.8875868207550892
4944000000.0 0.5213924189191766 -0.8321335806345708
4947000000.0 0.5077175550471974 -0.8461049278106278
4950000000.0 0.47138138623714676 -0.8957416067900593
4953000000.0 0.43804381056427155 -0.9713636942348768
4956000000.0 0.4711874839433993 -0.9235789233312934
4959000000.0 0.4336972646705016 -0.9050297466804034
4962000000.0 0.48880900779563147 -0.9254130230224435
4966000000.0 0.5190071044441399 -0.9462342043630709
4969000000.0 0.5357512473275784 -0.9335469934967492
4972000000.0 0.4856325608243082 -0.9043625557592793
4975000000.0 0.527397739150649 -0.9146918271799942
4978000000.0 0.49967046725822134 -0.9087751987666708
4981000000.0 0.46806210050574437 -0.8882232253498599
4984000000.0 0.5006367473188623 -0.8898353392471162
4988000000.0 0.5247239954910699 -0.8846478251476034
4991000000.0 0.5410120078359851 -0.8792230331120563
4994000000.0 0.48968833595600303 -0.9063408040355481
4997000000.0 0.4547125341798929 -0.9309474716589846
5000000000.0 0.5286518692915125 -0.9092403850114411
5003000000.0 0.5255341438772317 -0.9331464743847979
5006000000.0 0.5118220794124066 -0.9367082249852937
5009000000.0 0.5200309741822773 -0.8776032829775203
5012000000.0 0.503046140654365 -0.925298783088569
5016000000.0 0.563093207754365 -0.9102536673208241
5019000000.0 0.4602511304944567 -0.9120630433940249
5022000000.0 0.5058635754638481 -0.9223361774670316
5025000000.0 0.5232747814271841 -0.9692992864344017
5028000000.0 0.475384597210733 -0.9409437493921908
5031000000.0 0.4875966007679027 -0.8824446802401642
5034000000.0 0.4751745655698702 -0.9569730665365404
5038000000.0 0.4635396058710746 -0.8770637459365416
5041000000.0 0.5456271054609512 -0.8958547924725085
5044000000.0 0.5007858089621446 -0.8568477411950703
5047000000.0 0.5236758701101395 -0.9010867931035247
5050000000.0 0.5580450585333133 -0.8565650178711665
5053000000.0 0.4971900756485162 -0.939789932863722
5056000000.0 0.545649485450252 -0.8663597001331007
5059000000.0 0.5292397977823282 -0.8937820080967827
5062000000.0 0.4700345764905439 -0.9430424256447114
5066000000.0 0.552673711055292 -0.8853690286081815
5069000000.0 0.5274205462763073 -0.9169149133997092
5072000000.0 0.49433831595872735 -0.8625815882522838
5075000000.0 0.5629059963918935 -0.8964908918216643
5078000000.0 0.48309886902547655 -0.9446485167601242
5081000000.0 0.513511908252577 -0.8876080930731931
5084000000.0 0.49188545472903034 -0.9166978527649894
5088000000.0 0.5145568536060066 -0.8950268441202731
5091000000.0 0.4500013696051908 -0.924220428831397
5094000000.0 0.5055628266645045 -0.9306116690433135
5097000000.0 0.5914458390365596 -0.9065018397058218
5100000000.0 0.5225446108600686 -0.8992982317491127
5103000000.0 0.4767015357057385 -0.9071869509762045
5106000000.0 0.5197818885322218 -0.9230330054662178
5109000000.0 0.5436339498825027 -0.8687033667210393
5112000000.0 0.5002668403807875 -0.9079212197511668
5116000000.0 0.4929187586744227 -0.8688078595843419
5119000000.0 0.5171411045014354 -0.9228551204594407
5122000000.0 0.5134578170870353 -0.8556486783548249
5125000000.0 0.543980437785871 -0.8614317524066353
5128000000.0 0.5095330288813208 -0.8962534790062979
5131000000.0 0.49377801779857156 -0.8848869284220824
5134000000.0 0.5516385033502689 -0.8764381011782051
5138000000.0 0.5087617272665256 -0.8654736332288027
5141000000.0 0.582447223025028 -0.8711188812218879
5144000000.0 0.5284681015155401 -0.8689705555116367
5147000000.0 0.48212429007171637 -0.922208520880936
5150000000.0 0.5639919139485166 -0.880408642353987
5153000000.0 0.5655054904023159 -0.8902693346825593
5156000000.0 0.5457333930059913 -0.9424920056722397
5159000000.0 0.5587082435425359 -0.9289135868738496
5162000000.0 0.4954192292067208 -0.8826783956867847
5166000000.0 0.5102782777420494 -0.9227098418525111
5169000000.0 0.5488458545392443 -0.9149307785015799
5172000000.0 0.5195753155490663 -0.9094921929935423
5175000000.0 0.5237205079300519 -0.8921968628274461
