! Created with skrf 1.8.0 (http://scikit-rf.org).
# Hz S RI R 50.0 
!freq ReS11 ImS11
4000000000.0 0.5805507556982952 -0.8568786582057943
4003000000.0 0.6512578026600944 -0.9147309405963202
4006000000.0 0.5274840085416757 -0.9081409371574423
4009000000.0000005 0.5714410950609661 -0.870895801299675
4011999999.9999995 0.6521414810257905 -0.8555528513409785
4016000000.0 0.4826878245191533 -0.9178067277238205
4019000000.0 0.5452962450302923 -0.8651030916308597
4022000000.0000005 0.6141941337999254 -0.8437550252139034
4025000000.0000005 0.5030288585982727 -0.93583939156174
4027999999.9999995 0.5485616834243904 -0.8537980157066826
4030999999.9999995 0.5398969335795478 -0.7947802437644789
4034000000.0 0.5636658994190136 -0.8908383992485198
4038000000.0000005 0.5513091166805686 -0.9069562164305298
4041000000.0000005 0.5381563684773464 -0.8910150752146775
4043999999.9999995 0.5721607063548855 -0.9189677342665014
4046999999.9999995 0.5935604475165999 -0.8570197146000536
4050000000.0 0.5124638967621363 -0.9053429760746463
4053000000.0 0.5113247774947605 -0.8866771135860347
4056000000.0 0.5544831974861888 -0.8804985925014998
4059000000.0 0.5639207062858952 -0.8308495614838446
4062000000.0000005 0.5131362546071631 -0.8949950637484009
4066000000.0 0.529160734427627 -0.8167509172555076
4069000000.0 0.5529730584667085 -0.9337556847146793
4072000000.0 0.580584148348394 -0.8275957918798058
4075000000.0 0.5784124441582082 -0.9152237273924476
4078000000.0000005 0.5596495817719731 -0.8836314925184159
4081000000.0000005 0.6311915016864182 -0.8719890029987354
4083999999.9999995 0.49585623645357685 -0.9210920898982483
4088000000.0 0.6156401630375888 -0.8516780037640609
4091000000.0 0.5680843102611365 -0.9135744208823878
4094000000.0000005 0.5152180198729567 -0.8505997716141258
4097000000.0000005 0.5366075461843607 -0.8867736874143536
4099999999.9999995 0.5348666543618374 -0.872049830046414
4102999999.9999995 0.588913584505427 -0.8887992686070483
4106000000.0 0.5729867393046328 -0.8869479445434731
4109000000.0 0.5530565607644429 -0.8876587069357139
4112000000.0 0.5424380244081194 -0.8756921158086156
4115999999.9999995 0.5930182901990692 -0.8430742296821543
4119000000.0 0.5270939240551535 -0.889522907820831
4122000000.0 0.5286369443219082 -0.8972542431202246
4125000000.0 0.5489337921439954 -0.8979551977056253
4128000000.0 0.5531298894478953 -0.8313227353996344
4131000000.0 0.5890339128835773 -0.8722910981961665
4134000000.0000005 0.5591518117813364 -0.8578082184375646
4138000000.0 0.535751705108587 -0.849937766182411
4141000000.0 0.5178028897922795 -0.8717675508402932
4144000000.0 0.585222612439395 -0.8787070555218167
4147000000.0000005 0.5260845625073005 -0.8717692505102119
4150000000.0000005 0.5615090383226141 -0.8951065179924946
4152999999.9999995 0.5450238548855846 -0.8719321219668678
4155999999.9999995 0.6301565873654564 -0.8916785745261924
4159000000.0 0.5611195302908185 -0.8289059248585682
4162000000.0 0.5570743466650897 -0.8393437971181418
4166000000.0000005 0.5580076299233317 -0.8860475308788224
4168999999.9999995 0.505165402422571 -0.8929893646750893
4171999999.9999995 0.5616072259208686 -0.8821174812489007
4175000000.0 0.5662327360787318 -0.8426667185515133
4178000000.0 0.546384938678547 -0.8575286352058911
4181000000.0 0.5271171237529793 -0.8954618614181322
4184000000.0 0.5618510379240573 -0.879141200097007
4187999999.9999995 0.5630093658817126 -0.8531829559494929
4191000000.0 0.6013020546410418 -0.8428955225209969
4194000000.0 0.5307572675823387 -0.8389445367364723
4197000000.0 0.576926086822191 -0.8636680628446134
4200000000.0 0.56983481334548 -0.8649145619168075
4203000000.0000005 0.5832328222775901 -0.8398324096793687
4206000000.0000005 0.5640045071765154 -0.8755782391784739
4208999999.9999995 0.5636741121461176 -0.8620305355971732
4211999999.9999995 0.5285919874371403 -0.8651615660920553
4216000000.0 0.577914543737847 -0.8502317089276589
4219000000.0000005 0.5763406023221183 -0.8792226559227588
4222000000.0000005 0.5477388920931463 -0.8660935908891231
4224999999.9999995 0.5692535529253155 -0.8447763902910472
4227999999.9999995 0.5526203121895878 -0.8663990869356488
4231000000.0 0.5509261802155667 -0.8522975243745797
4234000000.0 0.5531878339102004 -0.8608962525378613
4238000000.0000005 0.5314116749038855 -0.8535317592967527
4240999999.9999995 0.5465209579268875 -0.8518939064543622
4244000000.0 0.5754523341843898 -0.8458873881118345
4247000000.0 0.5688902034488074 -0.8673297200085699
4250000000.0 0.524291608339037 -0.8492852841905402
4253000000.0 0.5292510358281185 -0.8374518484009016
4256000000.0 0.5616676927001317 -0.902876838840165
4259000000.0000005 0.5289119229234877 -0.8284366562042691
4261999999.9999995 0.5298512873756767 -0.8661761568085785
4266000000.0 0.5263887836949919 -0.8902669056400349
4269000000.0 0.5639821575495061 -0.8412656926110882
4272000000.0000005 0.5575526638552825 -0.8397292780436949
4275000000.0000005 0.5465712506604214 -0.8670270741052708
4277999999.9999995 0.5684554666112752 -0.876147638134365
4280999999.9999995 0.5747022474877264 -0.8688762102741538
4284000000.0 0.521783182160819 -0.887446959155701
4288000000.0000005 0.5698956094892057 -0.8325968433789411
4291000000.0000005 0.5344745371278412 -0.8340027247886405
4293999999.9999995 0.5336970666943558 -0.8411689513583119
4297000000.0 0.5658336670626749 -0.8363427385830571
4300000000.0 0.5508224964729591 -0.837116615719189
4303000000.0 0.5493208193158144 -0.873514434006659
4306000000.0 0.5724759884916188 -0.83223240407521
4309000000.0 0.5604350384602076 -0.8521524383137273
4312000000.0 0.5984691873853807 -0.8487969757335551
4316000000.0 0.5813539539398306 -0.8509358828052891
4319000000.0 0.5602649987562436 -0.817327529476825
4322000000.0 0.534958131517342 -0.8507834741805662
4325000000.0 0.5579195514217625 -0.8354601433998744
4328000000.0 0.54237242078692 -0.8454200692566612
4331000000.0 0.5455100690307211 -0.8722183728067012
4334000000.0 0.5487159430769214 -0.8564416735603043
4338000000.0 0.5712957934964782 -0.8290736957337604
4341000000.0 0.5806629229275148 -0.8385258738326216
4344000000.0 0.574959022368085 -0.8796537611703588
4347000000.0 0.5568183994276229 -0.8764323029027381
4350000000.0 0.515200637478733 -0.829306392841177
4353000000.0 0.565335312716839 -0.8322642369900787
4356000000.0 0.5167785728958862 -0.8755936213172809
4359000000.0 0.5363708798668794 -0.8175693324836482
4362000000.0 0.5183214353813156 -0.8890319403575169
4366000000.0 0.5672726831169757 -0.8813463729128547
4369000000.0 0.5369562159814765 -0.8256038033331828
4372000000.0 0.5147372517958599 -0.8752198318077453
4375000000.0 0.5608715787695049 -0.8359208995175651
4378000000.0 0.5265764216782066 -0.8384437021454377
4381000000.0 0.545821102594249 -0.8369298568505166
4384000000.0 0.5780264783312001 -0.9122756419963228
4388000000.0 0.5344067872835276 -0.8261693860476114
4391000000.0 0.5571274339505068 -0.8603352570743371
4394000000.0 0.5236163138597709 -0.8253118406931201
4397000000.0 0.5303410781849667 -0.8581114239937658
4400000000.0 0.5393598882705111 -0.8849968724429851
4403000000.0 0.54899090921067 -0.8469840392177606
4406000000.0 0.5198480507100955 -0.8704945902441128
4409000000.0 0.574830717748747 -0.8819376853695098
4412000000.0 0.47646292879144 -0.8785346738399374
4416000000.0 0.5272486270585879 -0.8462184366394243
4419000000.0 0.5305123675990094 -0.8612900518530526
4422000000.0 0.5384678402345674 -0.8467007899324044
4425000000.0 0.5794812918341465 -0.8582134058185354
4428000000.0 0.5312105282481911 -0.8557763606316289
4431000000.0 0.5508314956615175 -0.8768541033915493
4434000000.0 0.5283273174942854 -0.8417152459977852
4438000000.0 0.5482523160530669 -0.860975176153935
4441000000.0 0.5433588227034019 -0.8773895653015797
4444000000.0 0.5348015907590294 -0.8333100893326786
4447000000.0 0.5113504480084203 -0.8700938586297942
4450000000.0 0.543220206052886 -0.8333643635126289
4453000000.0 0.5579682574833029 -0.8830128799709448
4456000000.0 0.5080959938111284 -0.8396491254060063
4459000000.0 0.48950457543364545 -0.8266041016805616
4462000000.0 0.5684385129152946 -0.9037683372760388
4466000000.0 0.5335918708282236 -0.8850288940701885
4469000000.0 0.5398139728989938 -0.8488645918403543
4472000000.0 0.5385815458140719 -0.8911445160968802
4475000000.0 0.5315597295294894 -0.8326593892682954
4478000000.0 0.5491296035772043 -0.9062628956065336
4481000000.0 0.5077034572733297 -0.8368321006910691
4484000000.0 0.4794206964236022 -0.8875867904764836
4488000000.0 0.504244376302226 -0.8447653129826522
4491000000.0 0.5224952315909914 -0.8623868348179339
4494000000.0 0.5191542639608814 -0.8447673447071233
4497000000.0 0.5355718726781198 -0.8449496647354761
4500000000.0 0.5398959375340114 -0.8562862821460189
4503000000.0 0.5485209888598855 -0.8786952342748171
4506000000.0 0.5248427298932499 -0.8545994824166198
4509000000.0 0.523675599422573 -0.8521053655391342
4512000000.0 0.49435129136489275 -0.8561243819022714
4516000000.0 0.541241645324078 -0.8720050600388622
4519000000.0 0.5352367908947512 -0.8304733039573097
4522000000.0 0.5122452393088577 -0.8663621064930063
4525000000.0 0.5371423613576431 -0.8420705720685646
4528000000.0 0.5411963478609864 -0.87862032637978
4531000000.0 0.5416202786637047 -0.8569168376276697
4534000000.0 0.5094870009371454 -0.8498627505128195
4538000000.0 0.5160972423360359 -0.8728870530421968
4541000000.0 0.4825589322428409 -0.884979266763245
4544000000.0 0.5068259372148882 -0.855578644555431
4547000000.0 0.550674810367977 -0.848356600977518
4550000000.0 0.5013463784146328 -0.8935344604938724
4553000000.0 0.5224000243441317 -0.8757969852588782
4556000000.0 0.5053680159817775 -0.8392767540073571
4559000000.0 0.5135470740265228 -0.8956484376377245
4562000000.0 0.530670819285386 -0.8610765548078667
4566000000.0 0.5293586531111557 -0.8723367427550697
4569000000.0 0.49439789554730706 -0.8411171864943374
4572000000.0 0.49539911469873055 -0.8559891186137776
4575000000.0 0.4950641988025619 -0.8803047638233328
4578000000.0 0.5396462244133267 -0.8724637393303784
4581000000.0 0.5130368590945463 -0.8741195421465587
4584000000.0 0.5108271443110324 -0.863305166109342
4588000000.0 0.5429859998631561 -0.882950420141783
4591000000.0 0.5201996179937666 -0.8588395782023526
4594000000.0 0.5005751345725161 -0.8832020032593331
4597000000.0 0.5141654962553728 -0.8812883181373898
4600000000.0 0.48814577262098235 -0.8685147253416274
4603000000.0 0.504418262425831 -0.8804337969718901
4606000000.0 0.515786741757689 -0.8934168706777574
4609000000.0 0.5103754015772055 -0.8686070760051718
4612000000.0 0.5093718062584749 -0.8896832777541736
4616000000.0 0.5105921326373632 -0.873314241722207
4619000000.0 0.5072996319122408 -0.8706271356583254
4622000000.0 0.5152993191439398 -0.8623354131131538
4625000000.0 0.4880677723579951 -0.8447129466069583
4628000000.0 0.5137156284391582 -0.868045134559893
4631000000.0 0.4829882652309823 -0.8759900089107635
4634000000.0 0.5018928785952603 -0.8636444615565584
4638000000.0 0.5225508247249179 -0.8915993752733895
4641000000.0 0.5164791481305961 -0.8585436430308278
4644000000.0 0.5021147303136424 -0.8804024624507006
4647000000.0 0.5133831350803276 -0.8782305051020312
4650000000.0 0.49254877838000577 -0.872915795939272
4653000000.0 0.5378833854541888 -0.8828738421386602
4656000000.0 0.49826158458083963 -0.8722544736420179
4659000000.0 0.4985906051571867 -0.8933082431663615
4662000000.0 0.5138749733948673 -0.8899001814557468
4666000000.0 0.5026772180418084 -0.8959008235789665
4669000000.0 0.5087281145824013 -0.8697704620847211
4672000000.0 0.5034275058351825 -0.908890111183434
4675000000.0 0.4786839969390797 -0.9040884106829373
4678000000.0 0.4801144166003062 -0.8567063964488976
4681000000.0 0.5108707691368639 -0.9088323035481852
4684000000.0 0.46980237446649253 -0.8998592673872416
4688000000.0 0.45377080584449314 -0.8903070852763767
4691000000.0 0.5088421937551363 -0.8697161423397011
4694000000.0 0.4964530887734744 -0.8634030491949477
4697000000.0 0.46728370945092323 -0.8763789580081779
4700000000.0 0.5024168009391429 -0.8905155513638168
4703000000.0 0.5055079745529628 -0.8433864211653612
4706000000.0 0.4954153637146332 -0.9029454667966785
4709000000.0 0.493446404399055 -0.8824619508119591
4712000000.0 0.48833601593652454 -0.883695561990263
4716000000.0 0.4987944142021716 -0.8791547999486861
4719000000.0 0.5217789175812826 -0.900094083210642
4722000000.0 0.5432690281570305 -0.894067670260809
4725000000.0 0.505711429464714 -0.8773369935831324
4728000000.0 0.47494212615645637 -0.8819061987609101
4731000000.0 0.5491233094794271 -0.9202479046629164
4734000000.0 0.5159501924888762 -0.8390953586847784
4738000000.0 0.49267588219415903 -0.9307511252119272
4741000000.0 0.5058276715162722 -0.8957384477990378
4744000000.0 0.48350509553920723 -0.9204647627300178
4747000000.0 0.4859961574472698 -0.8354768967598492
4750000000.0 0.5279044500935053 -0.9038522321500909
4753000000.0 0.4958618566214364 -0.9175897119429733
4756000000.0 0.5212195183048587 -0.892390901368972
4759000000.0 0.5119470865096579 -0.9013931797144692
4762000000.0 0.47415901275830297 -0.9230854570803378
4766000000.0 0.4939679640972915 -0.869933626508304
4769000000.0 0.5176112865428685 -0.9078524154510581
4772000000.0 0.494363676154456 -0.8920659053042964
4775000000.0 0.5379077210131777 -0.954271317880546
4778000000.0 0.4906726569674645 -0.9103716409949663
4781000000.0 0.517825225676019 -0.881998544133021
4784000000.0 0.5104368261410202 -0.8788942459208294
4788000000.0 0.5052090737859254 -0.9180265114522703
4791000000.0 0.4807840998960574 -0.9022334224935484
4794000000.0 0.5359346351439528 -0.9244659479899306
4797000000.0 0.5112153359845725 -0.8629959798686987
4800000000.0 0.4431296543615342 -0.8848417386692541
4803000000.0 0.4606292431068752 -0.9251739905445411
4806000000.0 0.5126545654551513 -0.8982449870905935
4809000000.0 0.4381932332160613 -0.915172407570726
4812000000.0 0.46222691150139794 -0.9015579495417484
4816000000.0 0.49595879272214366 -0.8801357665897473
4819000000.0 0.5333947160336917 -0.9235142277917149
4822000000.0 0.525343633210037 -0.9146475155770553
4825000000.0 0.5306993752913851 -0.9038168265983261
4828000000.0 0.513693381079543 -0.9193480090985027
4831000000.0 0.4750038605449548 -0.9323042625646207
4834000000.0 0.5065734096521509 -0.9001181394835558
4838000000.0 0.4823236995201824 -0.9248339237489721
4841000000.0 0.491860143850658 -0.8701460004104322
4844000000.0 0.5470194541069501 -0.8956897598610531
4847000000.0 0.5104501593260987 -0.8490574035913402
4850000000.0 0.4928264949706979 -0.9284462818857457
4853000000.0 0.5004948388158285 -0.8780045314081308
4856000000.0 0.49398854037445916 -0.8799603316806108
4859000000.0 0.5228841397111944 -0.9338008550313952
4862000000.0 0.5091014171793204 -0.8486622970141595
4866000000.0 0.4920398839925445 -0.9049331168580526
4869000000.0 0.4827096877693858 -0.9152830148581533
4872000000.0 0.4843349253298825 -0.9228928997189588
4875000000.0 0.5676632768538202 -0.9066020765514181
4878000000.0 0.48392997268699456 -0.8877587433641182
4881000000.0 0.5154524545234436 -0.9714092746146414
4884000000.0 0.5256534144002192 -0.8818030897676853
4888000000.0 0.5235529127447611 -0.8999006246757839
4891000000.0 0.5305937981888356 -0.9026017225543085
4894000000.0 0.47950170605434184 -0.8600649477927752
4897000000.0 0.5378491465415515 -0.8701115651016365
4900000000.0 0.5218629792099553 -0.9245530620323924
4903000000.0 0.5386379458060152 -0.8959911792328685
4906000000.0 0.5159536320450139 -0.9194412303999067
4909000000.0 0.505205280756941 -0.9250337670486615
4912000000.0 0.4868924520254189 -0.9268141302695412
4916000000.0 0.5429105818162206 -0.9251962203659541
4919000000.0 0.5717760632530741 -0.9078086115317189
4922000000.0 0.5359694871177292 -0.8982486788464402
4925000000.0 0.47215687831854547 -0.9090129820080559
4928000000.0 0.5732887169028159 -0.8894516648722768
4931000000.0 0.5470130869271739 -0.905313494356164
4934000000.0 0.5012207160644374 -0.8631428684548285
4938000000.0 0.5229933557893317 -0.9221158571866718
4941000000.0 0.530309557593388 -0.8786315944202487
4944000000.0 0.4884326565863019 -0.842350627992958
4947000000.0 0.49249535700974517 -0.8781257396109745
4950000000.0 0.4901453010723736 -0.8859545163043497
4953000000.0 0.5132450460942202 -0.9465127762986935
4956000000.0 0.47678673398420346 -0.9019819468763464
4959000000.0 0.49906864726295475 -0.869328971688536
4962000000.0 0.5224008636428505 -0.926407878854199
4966000000.0 0.544094047763943 -0.940508236244962
4969000000.0 0.5720883404625563 -0.9115601115187366
4972000000.0 0.5037270347708271 -0.9105520293180462
4975000000.0 0.5332557190840905 -0.8776363697373297
4978000000.0 0.48625263670233776 -0.9097689311819872
4981000000.0 0.5272982505653324 -0.9110155024529037
4984000000.0 0.5041089557148226 -0.8845230529404988
4988000000.0 0.5043410296987195 -0.880758431860568
4991000000.0 0.5641661269001199 -0.8919987578980598
4994000000.0 0.5398476121242762 -0.8759471933394865
4997000000.0 0.5176999366138412 -0.917432635739885
5000000000.0 0.5433115410874912 -0.9247332320068713
5003000000.0 0.5605514117251744 -0.9328921861678343
5006000000.0 0.5501957419352066 -0.9740689885635624
5009000000.0 0.5393390065801335 -0.863608283198973
5012000000.0 0.5270931609536633 -0.8937827290449153
5016000000.0 0.5561790284215731 -0.8724891530150022
5019000000.0 0.5142065099479658 -0.8942919532559677
5022000000.0 0.5318588560979435 -0.9097707599508998
5025000000.0 0.5913745098543843 -0.9591706868277969
5028000000.0 0.5028861124928509 -0.9484106205694116
5031000000.0 0.5296059899673025 -0.9145659607964707
5034000000.0 0.4902200751621359 -0.9767031112213285
5038000000.0 0.4882762275568865 -0.8939656043695665
5041000000.0 0.5479120496738648 -0.8756672674861362
5044000000.0 0.5303335674711623 -0.8760995694736295
5047000000.0 0.53331550314624 -0.8677752956976217
5050000000.0 0.6000684219644752 -0.8534867220945966
5053000000.0 0.5671133732843401 -0.9496491660492626
5056000000.0 0.5774353352514059 -0.8668797831245747
5059000000.0 0.5575496137378737 -0.869980518819345
5062000000.0 0.5086844898510078 -0.9406129735222014
5066000000.0 0.5468758953923842 -0.8905669724626979
5069000000.0 0.5482979200945732 -0.8920690581537662
5072000000.0 0.5444941235992593 -0.8546287196065565
5075000000.0 0.5563083556006028 -0.8857353768259844
5078000000.0 0.5281581029128124 -0.9276364980409086
5081000000.0 0.5114143542951018 -0.8811323150208356
5084000000.0 0.5068012922044947 -0.923567680231643
5088000000.0 0.5297988434421165 -0.8879023126788056
5091000000.0 0.4945070312543961 -0.9308166987752187
5094000000.0 0.5409803957029613 -0.9118592608080156
5097000000.0 0.5647784232522355 -0.8876459296188741
5100000000.0 0.5394287830188208 -0.8508057792364325
5103000000.0 0.5253938025489715 -0.9350928742539766
5106000000.0 0.5375231066781976 -0.9175606839542068
5109000000.0 0.5888124209240657 -0.8544694916187763
5112000000.0 0.5210112864188607 -0.8814052930339162
5116000000.0 0.5103556121156334 -0.8504038626299778
5119000000.0 0.5526846173250731 -0.8853023558075745
5122000000.0 0.575525579234496 -0.9198364192113577
5125000000.0 0.6142695021398755 -0.8721679643586402
5128000000.0 0.563286025729905 -0.9144143362113866
5131000000.0 0.5371528855465164 -0.8896815684366648
5134000000.0 0.5625658856073559 -0.9134963321694859
5138000000.0 0.5950702664547294 -0.8912746464547774
5141000000.0 0.5660588659965751 -0.863312237716522
5144000000.0 0.5930132428911816 -0.8737200347265074
5147000000.0 0.5681210764204541 -0.9229845972699144
5150000000.0 0.5625980701529258 -0.8745979592186401
5153000000.0 0.5625744103606977 -0.9086738926306815
5156000000.0 0.5311979783930654 -0.9214739871233658
5159000000.0 0.6121525797220189 -0.8784266575671025
5162000000.0 0.5198482643275353 -0.8893904293097029
5166000000.0 0.5835967005733167 -0.9038935676574813
5169000000.0 0.5691194674648747 -0.9106142174249502
5172000000.0 0.5786678285264107 -0.8722306230884768
5175000000.0 0.5919451396775152 -0.8606693697360623
5178000000.0 0.5685835423726937 -0.9404247107844173
