! Created with skrf 1.8.0 (http://scikit-rf.org).
# Hz S RI R 50.0 
!freq ReS11 ImS11
4000000000.0 0.5200448587874636 -0.8579834283886032
4003000000.0 0.5806498155454363 -0.9514477574618556
4006000000.0 0.46544171351397273 -0.8709253043614062
4009000000.0000005 0.5227785647650767 -0.9375760791842791
4011999999.9999995 0.6518709472404923 -0.8973164888646591
4016000000.0 0.5238679746405979 -0.9437662213563643
4019000000.0 0.5364691514763377 -0.8428494323765592
4022000000.0000005 0.5739008249998456 -0.8528189173233722
4025000000.0000005 0.4684931570913822 -0.9683183268403718
4027999999.9999995 0.5428100436386488 -0.9086430803355928
4030999999.9999995 0.5000381080972454 -0.8545850385553007
4034000000.0 0.4866030746402773 -0.8762657313070242
4038000000.0000005 0.49811790967771313 -0.9226537042480702
4041000000.0000005 0.5323078684591099 -0.8718852912388686
4043999999.9999995 0.5666906767922052 -0.9435403766119467
4046999999.9999995 0.5802249816228917 -0.947236684832524
4050000000.0 0.5055765216439019 -0.9188029970306637
4053000000.0 0.49426664346331184 -0.8680663749162736
4056000000.0 0.550041926246267 -0.916839549053591
4059000000.0 0.5260132633431842 -0.9028256263585417
4062000000.0000005 0.5374956740226009 -0.8987190997899532
4066000000.0 0.5012206877865529 -0.8689626923032512
4069000000.0 0.5104628493655359 -0.9563435525339015
4072000000.0 0.5626856102774239 -0.890526321876175
4075000000.0 0.5630012804257706 -0.9439851353422506
4078000000.0000005 0.5110766752680144 -0.9447739204650185
4081000000.0000005 0.5769831611523406 -0.9138432967713748
4083999999.9999995 0.5407955032789167 -0.9194382521817662
4088000000.0 0.5590309558267982 -0.8732197728124713
4091000000.0 0.5783395515444925 -0.9647682499008035
4094000000.0000005 0.5535626886051475 -0.8931012548727619
4097000000.0000005 0.5172909685253825 -0.9202833209056397
4099999999.9999995 0.517560238971152 -0.8911782723398486
4102999999.9999995 0.5956526206305695 -0.8939607672898594
4106000000.0 0.5302922800333238 -0.9288619504394052
4109000000.0 0.507613285244771 -0.9097513599340991
4112000000.0 0.5409722209686716 -0.8712355341956577
4115999999.9999995 0.5726600869119568 -0.9020026970373486
4119000000.0 0.5269099670800581 -0.9064906459074374
4122000000.0 0.5141673257740609 -0.9177716608147929
4125000000.0 0.5419755946990308 -0.935124465219341
4128000000.0 0.5415687679099787 -0.8565630866693124
4131000000.0 0.5021611478770222 -0.8839144913424877
4134000000.0000005 0.5675984907303557 -0.8976135357966221
4138000000.0 0.504098760320529 -0.9176202659040386
4141000000.0 0.5135004100276231 -0.889163173540116
4144000000.0 0.5192699760867292 -0.8947787425957024
4147000000.0000005 0.5268796032928366 -0.9070050788302395
4150000000.0000005 0.533895528970025 -0.9438995685192878
4152999999.9999995 0.5418900074998603 -0.8809903712411593
4155999999.9999995 0.5558174668075823 -0.909165445887033
4159000000.0 0.5368680129407505 -0.8885060136250389
4162000000.0 0.5501493488780365 -0.8829685382155424
4166000000.0000005 0.5318121877469306 -0.9465135065132038
4168999999.9999995 0.5470232745788 -0.9086900907949735
4171999999.9999995 0.5209570723953442 -0.8842265930986473
4175000000.0 0.5535407542564091 -0.9088334687050733
4178000000.0 0.5140807789518351 -0.8976840228104037
4181000000.0 0.5003580876788188 -0.9180292848186847
4184000000.0 0.543944003355861 -0.891165453277771
4187999999.9999995 0.5180772882462585 -0.8887061291225145
4191000000.0 0.5569539681588627 -0.876070655327055
4194000000.0 0.5436879922454796 -0.8853967011760561
4197000000.0 0.5367653368650189 -0.9021501025916839
4200000000.0 0.5394603392850577 -0.8734129947447578
4203000000.0000005 0.5538460040179927 -0.8667067662412549
4206000000.0000005 0.5597692466056882 -0.9039489113945223
4208999999.9999995 0.5392256643956601 -0.8871151756398885
4211999999.9999995 0.49516903879269025 -0.9042791154389972
4216000000.0 0.5378469148830378 -0.8817475377847984
4219000000.0000005 0.5623484684630167 -0.8940093723985726
4222000000.0000005 0.5372147825174688 -0.8941733209720182
4224999999.9999995 0.5284321060720653 -0.8767717491811942
4227999999.9999995 0.5321018039463645 -0.8876544222499926
4231000000.0 0.5213025191351705 -0.8897288004336286
4234000000.0 0.5405690423511351 -0.904282416809279
4238000000.0000005 0.5149516293673917 -0.894749372212137
4240999999.9999995 0.506532777994821 -0.8890491965501022
4244000000.0 0.519680803210123 -0.8995889501552522
4247000000.0 0.5345441428886522 -0.8694167699501236
4250000000.0 0.506110399855182 -0.8658125454091607
4253000000.0 0.5039369247607499 -0.8618673344469074
4256000000.0 0.5207138212213863 -0.912270522270319
4259000000.0000005 0.49256001407753336 -0.8680821256318638
4261999999.9999995 0.5184791351427508 -0.8897522196166716
4266000000.0 0.5195868293003109 -0.9099380218131541
4269000000.0 0.528526992811554 -0.8760409888886733
4272000000.0000005 0.5322456820134964 -0.8721245806526339
4275000000.0000005 0.5339651420772977 -0.878870921890977
4277999999.9999995 0.5090328829779592 -0.8937963775086504
4280999999.9999995 0.5451289108667606 -0.878018528435029
4284000000.0 0.5206981713093388 -0.9203221436318125
4288000000.0000005 0.5583153775450643 -0.8583565326072121
4291000000.0000005 0.503970123247994 -0.8463052505028139
4293999999.9999995 0.51485848294059 -0.8896406750735208
4297000000.0 0.5330090415419935 -0.8759261489907122
4300000000.0 0.5284846675138516 -0.8634707726268895
4303000000.0 0.4980838569901256 -0.8733752991842165
4306000000.0 0.5406801874156365 -0.8738334067688749
4309000000.0 0.5462664357437732 -0.8812610796779662
4312000000.0 0.5505666130929552 -0.8789577307406595
4316000000.0 0.5521453727616304 -0.8883710519437858
4319000000.0 0.4926749729934873 -0.8690207558383538
4322000000.0 0.485626448622119 -0.8926965072372471
4325000000.0 0.526956509879054 -0.8809205203711248
4328000000.0 0.506845079930047 -0.8750547899598765
4331000000.0 0.5347574346220428 -0.8878846692527153
4334000000.0 0.5059487703947892 -0.8923662584963968
4338000000.0 0.5640275828789071 -0.8643274547964688
4341000000.0 0.559250276265659 -0.8878560454519969
4344000000.0 0.5391717929711627 -0.8835097304309222
4347000000.0 0.5080875254353211 -0.9152368815182793
4350000000.0 0.49004422785938784 -0.8737575063614835
4353000000.0 0.5289832654970404 -0.8618170183564678
4356000000.0 0.49733329731024273 -0.8834068687215253
4359000000.0 0.491938356692767 -0.8435155081896091
4362000000.0 0.48665505759615946 -0.9121753200135105
4366000000.0 0.5346448506070901 -0.8989006535678103
4369000000.0 0.4854090470120766 -0.8620939903566547
4372000000.0 0.47476463095637667 -0.8827244188156098
4375000000.0 0.5150320711118228 -0.8664081196724432
4378000000.0 0.5063223196705339 -0.8911558013445753
4381000000.0 0.519501780198322 -0.8571819941035235
4384000000.0 0.5412051008088775 -0.9417357891201236
4388000000.0 0.5077396616479877 -0.8594966306244154
4391000000.0 0.5092060472455553 -0.8838016274906847
4394000000.0 0.49862454909466414 -0.8503874442201165
4397000000.0 0.5103148259403851 -0.8846963876457474
4400000000.0 0.518393698373201 -0.9007151266465538
4403000000.0 0.5236945558366671 -0.8774687906279304
4406000000.0 0.5011797773236419 -0.8960719383098756
4409000000.0 0.5042815505757917 -0.9100724548938075
4412000000.0 0.45584039333743914 -0.9025620845842222
4416000000.0 0.4859714677383543 -0.8765948241296606
4419000000.0 0.47376220596374635 -0.8959908008409861
4422000000.0 0.5187585256092739 -0.8727602989422893
4425000000.0 0.5322711377087945 -0.882305974415844
4428000000.0 0.4947973227960274 -0.8696423759943899
4431000000.0 0.5192239255856836 -0.8909606189627584
4434000000.0 0.48788169773101187 -0.8774309974311119
4438000000.0 0.512191433631887 -0.903672475843379
4441000000.0 0.5150078852172099 -0.9072665397602365
4444000000.0 0.49426221907507156 -0.8619675204070182
4447000000.0 0.48555727231618856 -0.8748390348422275
4450000000.0 0.5030396656538009 -0.8787401123154195
4453000000.0 0.5302907999506656 -0.9020690115100822
4456000000.0 0.478067504293962 -0.8587535477138298
4459000000.0 0.4628000940655522 -0.8599838957407249
4462000000.0 0.5346247723239228 -0.9343126858614708
4466000000.0 0.5128207281529085 -0.9329616678681081
4469000000.0 0.5301476510367777 -0.8856663313642952
4472000000.0 0.5015608948085837 -0.896759032421306
4475000000.0 0.4791556141213812 -0.8608020824927074
4478000000.0 0.5019270221469242 -0.9297314807579751
4481000000.0 0.46639721038428417 -0.8667112812857813
4484000000.0 0.4571965854949511 -0.9001965141294186
4488000000.0 0.4692652050052871 -0.8884743834287137
4491000000.0 0.4895836103803734 -0.9030822920936308
4494000000.0 0.48365901520775256 -0.8754176047092123
4497000000.0 0.5087635571008122 -0.8692423862054285
4500000000.0 0.4788403507571053 -0.8861340729509383
4503000000.0 0.4970052139774554 -0.8800835696514975
4506000000.0 0.4986528757165967 -0.897789147717681
4509000000.0 0.45715107467460697 -0.8735156592051735
4512000000.0 0.4680228332550222 -0.8791900545455225
4516000000.0 0.5088007814891315 -0.9075261287658785
4519000000.0 0.4935547511661809 -0.8672300848613104
4522000000.0 0.45429030344991367 -0.8867756895678934
4525000000.0 0.5037059955706854 -0.8811893902099402
4528000000.0 0.49816118947629723 -0.9047267289628147
4531000000.0 0.5123126494832115 -0.8975592833435744
4534000000.0 0.45206580529323076 -0.895858763886727
4538000000.0 0.48260911076819873 -0.8918749077681288
4541000000.0 0.4475581530441533 -0.8950559156782261
4544000000.0 0.4696185132199373 -0.9024622341091078
4547000000.0 0.47465337832091914 -0.8746528671102668
4550000000.0 0.4599558337506494 -0.9035518650653158
4553000000.0 0.4759968602899122 -0.9035690572888727
4556000000.0 0.45167124445791523 -0.9019205153169201
4559000000.0 0.47983201331431113 -0.9012429038995666
4562000000.0 0.4985147095741714 -0.9110130570414631
4566000000.0 0.4909682835529631 -0.9065757738175018
4569000000.0 0.4768602315504509 -0.8936949864185302
4572000000.0 0.4940445799921592 -0.8735067067339646
4575000000.0 0.4486979515146132 -0.912247403637934
4578000000.0 0.4950793794075933 -0.9014680009130714
4581000000.0 0.45745655601207946 -0.904046502357198
4584000000.0 0.47208407491030346 -0.9131766490250417
4588000000.0 0.4879447565564986 -0.9140274797679111
4591000000.0 0.49070531089639013 -0.8905388696658132
4594000000.0 0.4466658230716717 -0.8977396624219947
4597000000.0 0.47862584556578963 -0.9318515809600671
4600000000.0 0.45435965701248116 -0.9110988738228969
4603000000.0 0.4692649778219855 -0.9129832289852351
4606000000.0 0.48656999385544947 -0.9039825944128044
4609000000.0 0.47556071627862617 -0.9089199107254311
4612000000.0 0.4692282610694265 -0.9007149891853545
4616000000.0 0.45517325289854493 -0.9030826046410552
4619000000.0 0.4807948454704343 -0.9134572945163164
4622000000.0 0.4730788545434037 -0.9116713343388482
4625000000.0 0.4323960111653062 -0.9052919577616587
4628000000.0 0.48340314784312133 -0.8785571149889921
4631000000.0 0.46593676093457237 -0.9023179406156239
4634000000.0 0.4722833196518432 -0.9055329083122405
4638000000.0 0.48681128105920657 -0.8910937840724984
4641000000.0 0.47262141407114067 -0.9030673525107225
4644000000.0 0.47316140443963506 -0.9126377034287682
4647000000.0 0.4629871494133155 -0.905687399900036
4650000000.0 0.475481613538039 -0.9086799551170058
4653000000.0 0.46754340609744466 -0.920384588060609
4656000000.0 0.4694677886056966 -0.9046924080553717
4659000000.0 0.46274812048243397 -0.9042170683648503
4662000000.0 0.45346424915935046 -0.9439051045517155
4666000000.0 0.45546564939718065 -0.9231223621708251
4669000000.0 0.47751061048943694 -0.9126295098611563
4672000000.0 0.4618790076438978 -0.9030745355352704
4675000000.0 0.43389759599544986 -0.9203430913912116
4678000000.0 0.44359182310165546 -0.8818852060367601
4681000000.0 0.4319652779758524 -0.943726992113715
4684000000.0 0.4456535517534078 -0.9382429501667372
4688000000.0 0.42910548196916115 -0.8966732581635147
4691000000.0 0.49727231657562165 -0.9153989147131466
4694000000.0 0.48031156789458607 -0.883498837577653
4697000000.0 0.43455709957449523 -0.9006149513352998
4700000000.0 0.47598468137239713 -0.9134691421603898
4703000000.0 0.4525236271811808 -0.8669107122305446
4706000000.0 0.4697170960897718 -0.941120274332917
4709000000.0 0.4487162760942316 -0.9278535668962692
4712000000.0 0.4702071065131314 -0.9270242755595736
4716000000.0 0.49466976273899926 -0.9222345186030383
4719000000.0 0.4843141780428853 -0.910717889919594
4722000000.0 0.47679069436850197 -0.9100452696392386
4725000000.0 0.4525272494053806 -0.9019878694282513
4728000000.0 0.42592322966048474 -0.9344268489721477
4731000000.0 0.48976430697404244 -0.939002160282512
4734000000.0 0.47594704284856615 -0.9038328462268571
4738000000.0 0.4992289967543032 -0.9563968630956916
4741000000.0 0.46272445862986694 -0.9515632069704758
4744000000.0 0.4405910594002664 -0.9243168480080587
4747000000.0 0.4644047471329672 -0.8942215251051087
4750000000.0 0.44147120460106504 -0.9300031005887515
4753000000.0 0.4720642868739247 -0.912221853837373
4756000000.0 0.47212491438225346 -0.937611754020789
4759000000.0 0.43035709639670916 -0.9414626272945477
4762000000.0 0.4320659517182579 -0.9672993121605942
4766000000.0 0.44728062061411233 -0.9419462632017734
4769000000.0 0.4494826158795078 -0.9341952968692265
4772000000.0 0.4251749938382916 -0.9265014606801875
4775000000.0 0.4396955485494247 -0.9663503591555885
4778000000.0 0.4468439696224814 -0.9533182137570674
4781000000.0 0.4633419239819523 -0.9395289962436021
4784000000.0 0.4771471782418073 -0.9050936573532129
4788000000.0 0.4580538634017216 -0.9709595134762687
4791000000.0 0.4507601544015727 -0.9220671479356833
4794000000.0 0.5159561694636865 -0.9289309121929838
4797000000.0 0.43691723363609114 -0.9216321963421259
4800000000.0 0.43166778920551174 -0.9213061609238119
4803000000.0 0.39734821044840296 -0.9244383432034589
4806000000.0 0.41602800391220635 -0.9392676095073688
4809000000.0 0.4057616464624938 -0.9440392920466021
4812000000.0 0.40469037594458795 -0.9289924637670897
4816000000.0 0.4844835576472446 -0.9047454519129539
4819000000.0 0.47374960087416285 -0.9397535543599868
4822000000.0 0.468872930338075 -0.9580709367054593
4825000000.0 0.49289993205365434 -0.9365318861530957
4828000000.0 0.4420423253476233 -0.9526792850735235
4831000000.0 0.42950346993759997 -0.9781753491247188
4834000000.0 0.4684590181488363 -0.9426385647641979
4838000000.0 0.4290627396211815 -0.9608556607939804
4841000000.0 0.4565882067255188 -0.9416417123715005
4844000000.0 0.48502110250973696 -0.9203588198640337
4847000000.0 0.46794575456650767 -0.9109807392401454
4850000000.0 0.4459408358765695 -0.9673603983815192
4853000000.0 0.47691059765963906 -0.9195085508851137
4856000000.0 0.47254983534130773 -0.9280200707099965
4859000000.0 0.4701038170096346 -0.9807184684912036
4862000000.0 0.4805617975954932 -0.8888714845276147
4866000000.0 0.44277006755718523 -0.9606937667349597
4869000000.0 0.4492393519246045 -0.9290954794668824
4872000000.0 0.4216020824728611 -0.9545009578688086
4875000000.0 0.5162427778616957 -0.9495968568790805
4878000000.0 0.4614879879651708 -0.9429933269669767
4881000000.0 0.4556599008154023 -1.0043721143792814
4884000000.0 0.474745109246591 -0.9275164764837531
4888000000.0 0.45453928936387383 -0.9053666290946489
4891000000.0 0.4913094652487227 -0.932853344384252
4894000000.0 0.45104733218321813 -0.9264245473462094
4897000000.0 0.4843747010968593 -0.9110840735273326
4900000000.0 0.47853370536298806 -0.9428650834626494
4903000000.0 0.4745389302302573 -0.937443815710651
4906000000.0 0.47183030894870126 -0.9740956930892007
4909000000.0 0.43932223371092205 -0.9582206754493773
4912000000.0 0.4478835584960801 -0.9795808560866875
4916000000.0 0.463821397783876 -0.9521842680091495
4919000000.0 0.49464092770883183 -0.9734043892313256
4922000000.0 0.5122540430546758 -0.922872694705687
4925000000.0 0.4424057028365338 -0.9697152026132692
4928000000.0 0.5184384274851828 -0.90356962190574
4931000000.0 0.5014537105658432 -0.9851323346735301
4934000000.0 0.45290343310057746 -0.9093434124577823
4938000000.0 0.41932949288198407 -0.9293019509342039
4941000000.0 0.46505935814673827 -0.9310212864952305
4944000000.0 0.4625266245160143 -0.8550248751575387
4947000000.0 0.4528459819585496 -0.9377986810975607
4950000000.0 0.4271046402673768 -0.907213524317932
4953000000.0 0.39694500938583 -0.976802145471697
4956000000.0 0.47590011054378367 -0.9868128518280312
4959000000.0 0.4009904795287085 -0.9189044033745811
4962000000.0 0.4418304572230971 -0.9576863357032335
4966000000.0 0.4818481155531391 -0.9464572475303178
4969000000.0 0.5074239376170925 -0.9759923500482366
4972000000.0 0.45324431687561395 -0.9546321105656178
4975000000.0 0.48616420505371666 -0.8871958648656562
4978000000.0 0.41770410713016715 -0.9298761862796469
4981000000.0 0.43267510695253286 -0.9613037543675238
4984000000.0 0.4615976488693131 -0.9150964735431216
4988000000.0 0.4960622600594078 -0.9278081303113804
4991000000.0 0.5264750228082069 -0.9149696706023852
4994000000.0 0.48939036296214156 -0.9217027037483285
4997000000.0 0.4519826664605384 -0.9411541823734968
5000000000.0 0.468363795821535 -0.9635425595150149
5003000000.0 0.5168224720701093 -1.0176028274278532
5006000000.0 0.4769285733421183 -0.9854579328490121
5009000000.0 0.4905530603002013 -0.9409281157752314
5012000000.0 0.4569499693750505 -0.9534625336172142
5016000000.0 0.5304440017541632 -0.9575381622234971
5019000000.0 0.45012744826875306 -0.9346265707130331
5022000000.0 0.47192062862074885 -0.9562016032000644
5025000000.0 0.544347812413922 -0.9853223422941755
5028000000.0 0.47726705202008796 -0.9515018922484697
5031000000.0 0.4800026883046484 -0.9823885463811405
5034000000.0 0.4544921577060031 -0.997337884299333
5038000000.0 0.4443071789260859 -0.9297137429193164
5041000000.0 0.542958827721746 -0.958669920026403
5044000000.0 0.5050113079267744 -0.9082281556073382
5047000000.0 0.49073713566496613 -0.9761388098247461
5050000000.0 0.5297766990416951 -0.884381865893047
5053000000.0 0.48684142238501926 -1.0082957996724273
5056000000.0 0.5426943613272412 -0.9357974261429758
5059000000.0 0.5686613046114031 -0.8989056491701091
5062000000.0 0.4731702570703775 -0.969192298259937
5066000000.0 0.4761432168914887 -0.9054605525755661
5069000000.0 0.49895930604177535 -0.9630526055214212
5072000000.0 0.46255176068209525 -0.9315238518271045
5075000000.0 0.4987439823531999 -0.9221413539762768
5078000000.0 0.4691935491996435 -0.9361690479358731
5081000000.0 0.46469405646632816 -0.9117307513875293
5084000000.0 0.4890200452802797 -0.9695067080721844
5088000000.0 0.4944930381271271 -0.9260244154944368
5091000000.0 0.4581332290685141 -0.9597187854573428
5094000000.0 0.5299311928633416 -0.9636147387569753
5097000000.0 0.4845093320479101 -0.8935599278508444
5100000000.0 0.4801265407176409 -0.8982445518284208
5103000000.0 0.42827942265475755 -1.0084835458336112
5106000000.0 0.5559973228363719 -0.9930139479799289
5109000000.0 0.493624524292186 -0.8988305974875108
5112000000.0 0.47896527265416583 -0.9275223159990571
5116000000.0 0.47034474512057295 -0.9284956817054701
5119000000.0 0.5091326547315083 -0.9447505148357158
5122000000.0 0.5062509127793545 -0.9506177649157785
5125000000.0 0.49554701063783474 -0.9124847520796088
5128000000.0 0.49129573675412125 -0.914731549203823
5131000000.0 0.5021471440506984 -0.9511821409510708
5134000000.0 0.5006697648474588 -0.9339441705938438
5138000000.0 0.5366226700728168 -0.9565936286509815
5141000000.0 0.529586081961825 -0.8996001451858233
5144000000.0 0.52364109555431 -0.9303686804199429
5147000000.0 0.4862876584694747 -0.9891378907342288
5150000000.0 0.4981283206871242 -0.9443236597873939
5153000000.0 0.4577845053375234 -0.9170100519392796
5156000000.0 0.5285546716729839 -0.9484159570316928
5159000000.0 0.5362106401866784 -0.9656528198136922
5162000000.0 0.48688454463483266 -0.9401782441087705
5166000000.0 0.47722294126071735 -0.9573731581243765
5169000000.0 0.5082468397587103 -0.9206308127924869
5172000000.0 0.49572972420596795 -0.8867078548308864
5175000000.0 0.5806144177486152 -0.9326544821139945
