! Created with skrf 1.8.0 (http://scikit-rf.org).
# Hz S RI R 50.0 
!freq ReS11 ImS11
4000000000.0 0.5388758855174084 -0.8543177816689285
4003000000.0 0.5944297327175032 -0.9136737591765818
4006000000.0 0.5125117213980335 -0.891364524198496
4009000000.0000005 0.5069230204925377 -0.9315383670665857
4011999999.9999995 0.5942171933156946 -0.8428172524385795
4016000000.0 0.44894365958578974 -0.9203658046806912
4019000000.0 0.5282234335137556 -0.8237173526459136
4022000000.0000005 0.5560200649077449 -0.8321224121671242
4025000000.0000005 0.5052093205681395 -0.9087650775520266
4027999999.9999995 0.5308683687184738 -0.8894395641233562
4030999999.9999995 0.5259109568601293 -0.8331107270400979
4034000000.0 0.49141926299031324 -0.8626157508201555
4038000000.0000005 0.5051150987581552 -0.8823138454712102
4041000000.0000005 0.5171392712364644 -0.8836499908125344
4043999999.9999995 0.5643927239819253 -0.9182666223655347
4046999999.9999995 0.5935062735236305 -0.8950771980588907
4050000000.0 0.5297748794663868 -0.8967179117160864
4053000000.0 0.5043337757482231 -0.858695999215401
4056000000.0 0.5485526707704688 -0.8682296954949297
4059000000.0 0.5594859453220067 -0.856944398609793
4062000000.0000005 0.5021161298146691 -0.9016624700437328
4066000000.0 0.45564976852682293 -0.8103211147153542
4069000000.0 0.5435329521300064 -0.904131621284434
4072000000.0 0.5773855910805993 -0.8767062156730445
4075000000.0 0.574843302984236 -0.8782299026532291
4078000000.0000005 0.513638763259425 -0.8944413608413557
4081000000.0000005 0.6267078661509893 -0.8781830332481799
4083999999.9999995 0.5052072071698974 -0.9338606703169146
4088000000.0 0.5759460101603039 -0.8427779304891098
4091000000.0 0.5507587599460291 -0.9316473471839045
4094000000.0000005 0.522923961535364 -0.8182430806247074
4097000000.0000005 0.4889421616837889 -0.8787121283019916
4099999999.9999995 0.5255547921109129 -0.881653366546489
4102999999.9999995 0.5432884141453664 -0.8891144203531706
4106000000.0 0.5285763325552763 -0.8865908000194553
4109000000.0 0.5283751808733655 -0.8756944373235224
4112000000.0 0.5127533181907444 -0.8483476138764897
4115999999.9999995 0.5727872050206143 -0.8491484857570013
4119000000.0 0.5265801553397137 -0.8915142303279576
4122000000.0 0.4851916038071958 -0.8808631814207393
4125000000.0 0.5250420767256402 -0.8964407749142183
4128000000.0 0.5459634140253721 -0.8626141210222156
4131000000.0 0.554137847966934 -0.8795776400988718
4134000000.0000005 0.5400944993917988 -0.858264872361527
4138000000.0 0.4926349595186116 -0.8849737528592752
4141000000.0 0.5220869959381831 -0.8762693933864044
4144000000.0 0.5136652260408628 -0.8646280380097007
4147000000.0000005 0.5172120016999769 -0.8879259315029896
4150000000.0000005 0.5295417348140339 -0.9055843349081704
4152999999.9999995 0.5409641250404074 -0.8807676551902046
4155999999.9999995 0.5356236352565141 -0.8618761445753857
4159000000.0 0.5030545925349832 -0.8605152532079378
4162000000.0 0.5223401849571576 -0.877273141044359
4166000000.0000005 0.5108145094168323 -0.8874080317422743
4168999999.9999995 0.5096492187834073 -0.8733364305663833
4171999999.9999995 0.5473784619573951 -0.8724442994567875
4175000000.0 0.5438947065813279 -0.8776099385974572
4178000000.0 0.5481491800453536 -0.8612820885787836
4181000000.0 0.5386988435700142 -0.8771604493683384
4184000000.0 0.543937744893673 -0.8365658440514543
4187999999.9999995 0.531923000860935 -0.8517617090384312
4191000000.0 0.5537116254620666 -0.8217294737371119
4194000000.0 0.5203791213446312 -0.8548791368675396
4197000000.0 0.5481872995570044 -0.851980561443739
4200000000.0 0.5667948947160846 -0.8640570730398597
4203000000.0000005 0.5543667892327081 -0.873341128973876
4206000000.0000005 0.5308823710984893 -0.8690250867173616
4208999999.9999995 0.5347589933172966 -0.8451488308673687
4211999999.9999995 0.5178415533033696 -0.8731696019028893
4216000000.0 0.5507833514929246 -0.863294255256838
4219000000.0000005 0.5371270838295212 -0.8725853085965692
4222000000.0000005 0.5443164130917328 -0.8572158831374925
4224999999.9999995 0.5335310627696255 -0.8510180818687245
4227999999.9999995 0.5459513781553036 -0.8776940745563702
4231000000.0 0.509841236402608 -0.852976961471149
4234000000.0 0.5353217509804058 -0.8803444646682034
4238000000.0000005 0.5153476000708351 -0.8756726118702354
4240999999.9999995 0.5109969338162597 -0.8600795152839675
4244000000.0 0.537094279757792 -0.8529303119310369
4247000000.0 0.530700519153148 -0.8696364234055407
4250000000.0 0.5342874197142289 -0.8590364027737385
4253000000.0 0.5030753017206423 -0.8398087067488603
4256000000.0 0.5341987277845128 -0.8850977902012831
4259000000.0000005 0.5167250412386986 -0.8316090089886774
4261999999.9999995 0.49270529952569936 -0.8622061925101605
4266000000.0 0.5107135297099931 -0.8840234584389917
4269000000.0 0.5333734860506627 -0.8595154503593777
4272000000.0000005 0.5423475978105825 -0.8662167379215726
4275000000.0000005 0.5315994082639763 -0.8939247747922139
4277999999.9999995 0.5374825463237363 -0.8649392410047424
4280999999.9999995 0.5307497744666708 -0.8909558490127742
4284000000.0 0.5001849454155526 -0.893861005292288
4288000000.0000005 0.5548273005221979 -0.847898638585409
4291000000.0000005 0.5015759704529096 -0.8445845126466035
4293999999.9999995 0.5362458252675054 -0.8495451063029613
4297000000.0 0.533930603475543 -0.8433352974253401
4300000000.0 0.5268721483763678 -0.8467807487729819
4303000000.0 0.49710759422678946 -0.8678798333433987
4306000000.0 0.5669175810677045 -0.8651716243195386
4309000000.0 0.5384055733493975 -0.8529367674912873
4312000000.0 0.5457745011386999 -0.8641217388979113
4316000000.0 0.5291922316914472 -0.8793613605452602
4319000000.0 0.530998447334145 -0.8383542028283909
4322000000.0 0.4867679363486892 -0.8421920674464537
4325000000.0 0.5586162324307883 -0.8615107751645674
4328000000.0 0.5296538164609996 -0.8523273299227913
4331000000.0 0.5023030896940763 -0.8824574932329348
4334000000.0 0.5139089389983191 -0.8488144671962831
4338000000.0 0.561867010080092 -0.8522018849808508
4341000000.0 0.5452028287194344 -0.842555922293438
4344000000.0 0.5122985551947368 -0.8758172702148502
4347000000.0 0.5222514359359612 -0.8895963944168643
4350000000.0 0.4880495538735013 -0.8371866316264915
4353000000.0 0.5197353629763364 -0.8422146091452826
4356000000.0 0.4859052352360352 -0.8483627741718516
4359000000.0 0.4867038324690952 -0.8451264156186816
4362000000.0 0.48869913411853927 -0.8973244675610861
4366000000.0 0.5252228136173879 -0.8761431373712034
4369000000.0 0.49310657725801055 -0.8353233521880592
4372000000.0 0.4779381152342591 -0.8712919267889909
4375000000.0 0.5250120790902129 -0.8635204900135511
4378000000.0 0.5056352081062989 -0.8297694497646138
4381000000.0 0.5149768611948622 -0.853852359014541
4384000000.0 0.5314044855155226 -0.9039341450853167
4388000000.0 0.521707717015234 -0.8483764314097868
4391000000.0 0.5121185983692761 -0.8577072702637633
4394000000.0 0.49515467902460364 -0.8485166094328086
4397000000.0 0.5194257589895883 -0.8707776435362596
4400000000.0 0.5228913892153504 -0.8876688012567595
4403000000.0 0.5132334458263039 -0.8564202208083752
4406000000.0 0.5166679485663312 -0.8769898861415878
4409000000.0 0.5199352403685916 -0.8915463898555476
4412000000.0 0.462204989168417 -0.8884884664600108
4416000000.0 0.4920532182982521 -0.8623461697812758
4419000000.0 0.49176334869036376 -0.8714848361088439
4422000000.0 0.5262980588973087 -0.8551127930150748
4425000000.0 0.5311231023606189 -0.8744766058960767
4428000000.0 0.4953284867370592 -0.8692211124762275
4431000000.0 0.521820940623406 -0.898449724210635
4434000000.0 0.4919318844866434 -0.8673646752364226
4438000000.0 0.5225537653015043 -0.8878754935367444
4441000000.0 0.5256118625234074 -0.8826807668677057
4444000000.0 0.5034073954916636 -0.8608043091054238
4447000000.0 0.4790176980120282 -0.8777599884067229
4450000000.0 0.5136869692473786 -0.8618492743614891
4453000000.0 0.5261812636536194 -0.8954730381582863
4456000000.0 0.49656513097114974 -0.8682307550354798
4459000000.0 0.4679088708259802 -0.8438803010127102
4462000000.0 0.5345442154221438 -0.9245847785619585
4466000000.0 0.5316384311265855 -0.9066594558443841
4469000000.0 0.5208981554963134 -0.8672306433573678
4472000000.0 0.49109448397338146 -0.908984039557824
4475000000.0 0.5032607718306878 -0.844209506209773
4478000000.0 0.5083320904916329 -0.9165024918344195
4481000000.0 0.46792052383740446 -0.8627109395675535
4484000000.0 0.44944598407966657 -0.8818076850108134
4488000000.0 0.5002264029412885 -0.875502096048419
4491000000.0 0.5018937507338925 -0.8847815233340315
4494000000.0 0.4915224773978004 -0.8592313275040737
4497000000.0 0.5218125255278412 -0.8492459639017766
4500000000.0 0.4986141111631006 -0.8520197789400691
4503000000.0 0.5091951909233143 -0.891545938580564
4506000000.0 0.47661608146273826 -0.8769532618415214
4509000000.0 0.4843344093321478 -0.850877566345908
4512000000.0 0.48202460838938455 -0.8699212400862539
4516000000.0 0.49707273449019107 -0.8923379371492031
4519000000.0 0.5039700176441504 -0.8414751317955331
4522000000.0 0.4834722109661263 -0.8821426796648065
4525000000.0 0.5092722710682531 -0.8629737846696909
4528000000.0 0.5082920038530911 -0.9003420107382013
4531000000.0 0.4984256927714106 -0.8674112879585931
4534000000.0 0.4858961947711655 -0.8792979912705452
4538000000.0 0.4687056648486173 -0.8756334440121912
4541000000.0 0.4461540928576441 -0.8780106274772063
4544000000.0 0.5022884853974213 -0.8602412780624771
4547000000.0 0.50084801413448 -0.8606519113811868
4550000000.0 0.4754916449787363 -0.8826975536785102
4553000000.0 0.4911487613872535 -0.8805529510490553
4556000000.0 0.4766425753497125 -0.8716421151096233
4559000000.0 0.4785285030850753 -0.8951156718765647
4562000000.0 0.4779167770725648 -0.8994245955019905
4566000000.0 0.48610635713258665 -0.8956054973766943
4569000000.0 0.4727459799862042 -0.8735967896065107
4572000000.0 0.4997259808748734 -0.8811081707203687
4575000000.0 0.45266183495915124 -0.8860639631979483
4578000000.0 0.5115209722648667 -0.9032803541062406
4581000000.0 0.46845064658721725 -0.876549401312427
4584000000.0 0.4763862449086087 -0.8709953654558393
4588000000.0 0.4963760771357279 -0.9137913669222403
4591000000.0 0.5079651904193654 -0.8848030144678029
4594000000.0 0.4627891794686376 -0.8827659259511773
4597000000.0 0.47652645387116127 -0.9100798969757695
4600000000.0 0.45719545090373775 -0.8648381813523592
4603000000.0 0.47260255597135825 -0.8857279133201431
4606000000.0 0.47677662998168174 -0.8807051838155829
4609000000.0 0.4790117328367886 -0.890424210179785
4612000000.0 0.4757197771901747 -0.8883381662349455
4616000000.0 0.462290632661846 -0.8692965880117786
4619000000.0 0.47822480730373884 -0.8865473627555989
4622000000.0 0.46680866495221784 -0.8764299065286505
4625000000.0 0.43414007032888113 -0.870368361639803
4628000000.0 0.4920638186383781 -0.856586193325216
4631000000.0 0.4751919077323379 -0.901522027388097
4634000000.0 0.4610708804798822 -0.8857918305525088
4638000000.0 0.4825284688199438 -0.896204027515055
4641000000.0 0.4743573496904692 -0.8866232556963303
4644000000.0 0.4665591183363543 -0.8851581080272614
4647000000.0 0.4728661099347783 -0.8893225739320059
4650000000.0 0.44967868394195065 -0.889478105934199
4653000000.0 0.500329484228769 -0.9018742054676064
4656000000.0 0.45809256145289884 -0.8936576074849345
4659000000.0 0.4653152128764015 -0.8818374276376684
4662000000.0 0.4532688813982474 -0.890317992411224
4666000000.0 0.4629770075820575 -0.8979526450573787
4669000000.0 0.48123542144845854 -0.8975342812120664
4672000000.0 0.44662563942778827 -0.9170401031984896
4675000000.0 0.44210517710054015 -0.9101814163447097
4678000000.0 0.44900038170868295 -0.8617385785273002
4681000000.0 0.4438227274179001 -0.9201049818133396
4684000000.0 0.45809382395472886 -0.9009217086986809
4688000000.0 0.4337935111633815 -0.9155308795048908
4691000000.0 0.496163045006823 -0.9034059051479548
4694000000.0 0.48208346706044075 -0.8955344747663689
4697000000.0 0.42622811964775803 -0.869036067225273
4700000000.0 0.4668689682077047 -0.8683427092594059
4703000000.0 0.4790130621026639 -0.8525345483767002
4706000000.0 0.43750310809402115 -0.9025117869754214
4709000000.0 0.4533612427193917 -0.9038734099038397
4712000000.0 0.4777595226987853 -0.8904141835635453
4716000000.0 0.4662662568199344 -0.8926660431694207
4719000000.0 0.4696849289397291 -0.889664626730558
4722000000.0 0.47784310322101486 -0.870105447232138
4725000000.0 0.45683863031657024 -0.8774865024757406
4728000000.0 0.4472548112899727 -0.8966662455736372
4731000000.0 0.4669740223501228 -0.8976159493056475
4734000000.0 0.45233859714020624 -0.9017552246147273
4738000000.0 0.4935194206025191 -0.9442200908867657
4741000000.0 0.449168558010189 -0.9387739453234715
4744000000.0 0.44998304490416363 -0.9366097112933326
4747000000.0 0.4785311797755491 -0.8586563414181702
4750000000.0 0.45936046512576556 -0.9044534063636707
4753000000.0 0.46459385424835586 -0.9162997482312183
4756000000.0 0.4543115475567551 -0.8940700155167429
4759000000.0 0.46052240258120913 -0.9039826454016548
4762000000.0 0.458724257321526 -0.9213274002840014
4766000000.0 0.45283093053249707 -0.934188057232731
4769000000.0 0.4737707145076881 -0.9043428968598444
4772000000.0 0.4583056185612785 -0.9227549148203645
4775000000.0 0.4555272580091695 -0.9410453176398373
4778000000.0 0.47601830394127215 -0.9166022858855372
4781000000.0 0.4695995711859404 -0.8978339883052778
4784000000.0 0.47427645894356796 -0.9052827196453208
4788000000.0 0.449802324635794 -0.9215954601918729
4791000000.0 0.46189732580421616 -0.9029919197246874
4794000000.0 0.5071438004568135 -0.9115142473807917
4797000000.0 0.4448314701747771 -0.9047973587447704
4800000000.0 0.4615681798722886 -0.8927909991165294
4803000000.0 0.42519072577007466 -0.9038065996216614
4806000000.0 0.473362050074556 -0.9028049233076174
4809000000.0 0.4130580804759759 -0.9224595897734356
4812000000.0 0.4336211520137777 -0.9096786828102921
4816000000.0 0.465660274812413 -0.903385647794767
4819000000.0 0.4816640396673538 -0.9043024986160406
4822000000.0 0.5005394639778684 -0.904759367235925
4825000000.0 0.5133843901228033 -0.9437242727801627
4828000000.0 0.43893574647379885 -0.894622143618949
4831000000.0 0.4440914236542794 -0.9559385394908564
4834000000.0 0.474645630541955 -0.9304184380740878
4838000000.0 0.44865447706300876 -0.9544497351184924
4841000000.0 0.44961533486276606 -0.901354367372666
4844000000.0 0.48829917188348326 -0.9108043313673042
4847000000.0 0.4602126197700345 -0.8823999762813461
4850000000.0 0.4752040108593094 -0.9395515327385311
4853000000.0 0.4478216302029647 -0.8771460225266947
4856000000.0 0.44000824351692447 -0.901739127709308
4859000000.0 0.46296284622692435 -0.9466846803411119
4862000000.0 0.4676800533417351 -0.858567878631231
4866000000.0 0.4624688344670785 -0.9195815987171158
4869000000.0 0.46575884356448827 -0.9218669004565023
4872000000.0 0.44088781768143354 -0.9472819412133536
4875000000.0 0.5133377944919231 -0.9286266993086526
4878000000.0 0.45081798588931277 -0.9281557403244992
4881000000.0 0.46918418002307316 -0.9915045473687265
4884000000.0 0.4873353327864473 -0.8982642220101501
4888000000.0 0.500419278229058 -0.8849738622560569
4891000000.0 0.5040976779219557 -0.9139707678776963
4894000000.0 0.4409037773457733 -0.9222428714443636
4897000000.0 0.49319032847112093 -0.8944505896432106
4900000000.0 0.4890757699620209 -0.9478223594413165
4903000000.0 0.512878140519099 -0.9005084817921218
4906000000.0 0.4843718148188434 -0.9164345592585302
4909000000.0 0.4471174763115809 -0.9445304286336129
4912000000.0 0.44802740217809917 -0.9525720696469465
4916000000.0 0.4966766315640521 -0.9236803312404303
4919000000.0 0.5305385970825177 -0.8966647586081922
4922000000.0 0.476582546083674 -0.9013396805712138
4925000000.0 0.4183256419231414 -0.9317318281805584
4928000000.0 0.5062200986667311 -0.8713974246833707
4931000000.0 0.4916739874365416 -0.9231975989374136
4934000000.0 0.48301356838406706 -0.8598135037672596
4938000000.0 0.4589474478448531 -0.9494943729073261
4941000000.0 0.4640051120050147 -0.8944018772226883
4944000000.0 0.4816353396926714 -0.8324158739599844
4947000000.0 0.45307244242866174 -0.9026632556043529
4950000000.0 0.42650022046562974 -0.9027081917590231
4953000000.0 0.48001321512687234 -0.9653984086650093
4956000000.0 0.44504380828208057 -0.9264814503860623
4959000000.0 0.41581782397880107 -0.9200664190162384
4962000000.0 0.47338355713742064 -0.9293287009224914
4966000000.0 0.504863119437014 -0.921032419695579
4969000000.0 0.5278228123795746 -0.9285549061302223
4972000000.0 0.46895626787744615 -0.9341546418046764
4975000000.0 0.5299840965523358 -0.88176955573535
4978000000.0 0.44154231449597303 -0.9147455615189021
4981000000.0 0.4854430239757205 -0.9168439725742753
4984000000.0 0.479336786124609 -0.873677933501861
4988000000.0 0.4843245894344655 -0.9062133595669437
4991000000.0 0.539774824068291 -0.9165317638280884
4994000000.0 0.466342335489515 -0.8984123721900019
4997000000.0 0.43451443409233537 -0.923684733510269
5000000000.0 0.5084329180176268 -0.9281418569808397
5003000000.0 0.5018625485498368 -0.9050371975782459
5006000000.0 0.4910023691052381 -0.9659365874342146
5009000000.0 0.46508805180987955 -0.8852005086330321
5012000000.0 0.47335097331923004 -0.9447125848334637
5016000000.0 0.5295832298556175 -0.9277200622663281
5019000000.0 0.461013927608178 -0.8869811253088077
5022000000.0 0.4851040413932747 -0.894529364551087
5025000000.0 0.5224098948545217 -0.9735623377860843
5028000000.0 0.47688437227974356 -0.951577407722991
5031000000.0 0.4543971207321289 -0.8814082395724065
5034000000.0 0.4669201080050882 -0.9604703690242344
5038000000.0 0.4501151148598154 -0.9253097540278823
5041000000.0 0.5216005109859542 -0.8827896558979152
5044000000.0 0.4873504355138517 -0.8898258900744962
5047000000.0 0.5005257147418921 -0.8962672068031314
5050000000.0 0.5601960789449302 -0.8718704974565616
5053000000.0 0.48907827902308176 -0.9593723973237427
5056000000.0 0.5341238807157979 -0.8770815616402178
5059000000.0 0.5362805938745798 -0.9261384355750141
5062000000.0 0.499962864275434 -0.9693811525439442
5066000000.0 0.5092323788128998 -0.8975373360924779
5069000000.0 0.4637507953081687 -0.9479141758430889
5072000000.0 0.48017239543601664 -0.8886982979618618
5075000000.0 0.495581345933021 -0.8941330424324168
5078000000.0 0.4956998597732401 -0.94396909494237
5081000000.0 0.4585363149128295 -0.8705234000204081
5084000000.0 0.4798371126934093 -0.9356303005822233
5088000000.0 0.5164255167696549 -0.9000644210567554
5091000000.0 0.4619453680897477 -0.9539003680827043
5094000000.0 0.4761772599424906 -0.899306127317123
5097000000.0 0.5371592822144073 -0.8814859481573168
5100000000.0 0.4918322563846574 -0.9277032384942783
5103000000.0 0.4533460017956372 -0.9158749448413623
5106000000.0 0.5224799698509295 -0.8753509869127808
5109000000.0 0.5694441903416303 -0.839374758463078
5112000000.0 0.46304490390853376 -0.9119503838123637
5116000000.0 0.4464012757106951 -0.8572183141509955
5119000000.0 0.4916500932075679 -0.9396555650894693
5122000000.0 0.5235062523679421 -0.8645854753139453
5125000000.0 0.5003386106656486 -0.8802451535848588
5128000000.0 0.4680586709451333 -0.9472026137472738
5131000000.0 0.4957834411466692 -0.9064301008223823
5134000000.0 0.4711399860644678 -0.9008903463541795
5138000000.0 0.4947426689354762 -0.8773779090209215
5141000000.0 0.5437253143640476 -0.8991085532084158
5144000000.0 0.5222580606160899 -0.9233667023479122
5147000000.0 0.5302719159926924 -0.9507334400329033
5150000000.0 0.5204376080788062 -0.8709564217067705
5153000000.0 0.5334992260962672 -0.9432519289080747
5156000000.0 0.5352244052976461 -0.9058945550068378
5159000000.0 0.5337084745261762 -0.9075864150811273
5162000000.0 0.49164405234411035 -0.9110554012635741
5166000000.0 0.4729515818982039 -0.946933681847723
5169000000.0 0.5299836852521098 -0.9141682562319584
5172000000.0 0.4932418719502893 -0.9244053370984407
5175000000.0 0.5162883667577771 -0.8948365061747489
