! Created with skrf 1.8.0 (http://scikit-rf.org).
# Hz S RI R 50.0 
!freq ReS11 ImS11
4000000000.0 1.0301819677177744 -0.17699198354287943
4003000000.0 1.0464933207687772 -0.14264598755716415
4006000000.0 0.999745762060287 -0.2637800620880859
4009000000.0000005 1.021792053904068 -0.17054573308725685
4011999999.9999995 1.025592249499446 -0.12393338419507435
4016000000.0 0.9948978005357536 -0.21455670795488294
4019000000.0 1.0112710431930458 -0.14111093839164227
4022000000.0000005 1.006122462989136 -0.12581060537411848
4025000000.0000005 1.0593685375698847 -0.2660617212205299
4027999999.9999995 1.0138835015679628 -0.2250391560503897
4030999999.9999995 1.000562715038645 -0.18135947644965716
4034000000.0 1.0538753331171682 -0.22231286993837063
4038000000.0000005 1.080605613488845 -0.27364027399241947
4041000000.0000005 1.0278848683777482 -0.21094231946493258
4043999999.9999995 1.1124995519681868 -0.27351959356757544
4046999999.9999995 1.0618842028792785 -0.20485964357451722
4050000000.0 0.9834327962403995 -0.2783950867796016
4053000000.0 0.9798599294324349 -0.3075571269796769
4056000000.0 1.0201035911257634 -0.21668502025729128
4059000000.0 1.0024981115944087 -0.2084048698009774
4062000000.0000005 0.9395923194123252 -0.3111572115398265
4066000000.0 0.9047100171544478 -0.2374107516665968
4069000000.0 1.0679988443583577 -0.29898187862871656
4072000000.0 1.067939367747978 -0.11090805277432329
4075000000.0 1.1174366033982153 -0.2208107410718402
4078000000.0000005 1.023407612381952 -0.2738628871740996
4081000000.0000005 1.0762169371288715 -0.19679184455859544
4083999999.9999995 1.0056436382362681 -0.2598911920457397
4088000000.0 1.0164931738798855 -0.20708022722269034
4091000000.0 1.1111731600353505 -0.306989769456649
4094000000.0000005 1.045488122829203 -0.2893202479786166
4097000000.0000005 1.0444371988780154 -0.2350958873019073
4099999999.9999995 0.9760854321074349 -0.2622675722740919
4102999999.9999995 1.0392502983055243 -0.2683825365927869
4106000000.0 1.028275208589701 -0.2675959796300537
4109000000.0 1.0039431666470993 -0.31978513745894155
4112000000.0 1.0279139133625932 -0.2683433635936288
4115999999.9999995 1.0150391258582303 -0.24494013870276518
4119000000.0 1.0248937352367922 -0.31789191807150524
4122000000.0 1.026972362437743 -0.27564489403020215
4125000000.0 0.9800212618677548 -0.3766921809692814
4128000000.0 0.9958591660814815 -0.30721439813085183
4131000000.0 1.0217802093824413 -0.2883964194745506
4134000000.0000005 0.9657785558381241 -0.2834380725360363
4138000000.0 0.9581346562403041 -0.2846649525617735
4141000000.0 0.9948391280794827 -0.3374555406063634
4144000000.0 1.0330141416742777 -0.29042065470719375
4147000000.0000005 0.9416880735678521 -0.3504988355618112
4150000000.0000005 1.033315704865399 -0.2934241147269249
4152999999.9999995 0.9918764301262367 -0.29665886391606766
4155999999.9999995 0.9923646827565289 -0.3208946493746616
4159000000.0 0.9961720125691031 -0.2432888120830654
4162000000.0 0.9346486985255871 -0.29275983479793405
4166000000.0000005 0.9759915243856158 -0.32409046093252025
4168999999.9999995 0.9809222102124817 -0.3768203207875839
4171999999.9999995 1.005591232494909 -0.24696850355451677
4175000000.0 0.9818603897093773 -0.305662083137551
4178000000.0 1.0160786985134986 -0.33490722068899925
4181000000.0 1.0246870269023294 -0.3138363072451843
4184000000.0 1.0385604005049425 -0.34558928034109704
4187999999.9999995 1.023184718712391 -0.33886677808002225
4191000000.0 0.9352780283958103 -0.28268033091883804
4194000000.0 0.9522092725618975 -0.29544979556454987
4197000000.0 0.9482300355662174 -0.32765907235498987
4200000000.0 0.9318306553178184 -0.32261093509373706
4203000000.0000005 0.9553081454764905 -0.3336678470769209
4206000000.0000005 0.972937010310684 -0.3625985076363981
4208999999.9999995 1.0020409175848095 -0.3271552791807286
4211999999.9999995 0.9804195850607008 -0.349766268695778
4216000000.0 0.9596847612839928 -0.3364421697124845
4219000000.0000005 0.9770232187616752 -0.31635096541602353
4222000000.0000005 1.0038816239108155 -0.3632770062215081
4224999999.9999995 0.978707577198011 -0.3172188565818961
4227999999.9999995 1.016182182325063 -0.3268135226561369
4231000000.0 0.9558050486390999 -0.3415147792214321
4234000000.0 1.0045468684350736 -0.2831340024845287
4238000000.0000005 0.9865405821147876 -0.35648361100849196
4240999999.9999995 0.9860728677357806 -0.31447038660807836
4244000000.0 1.0043898987207376 -0.30922153169881267
4247000000.0 0.998622475869216 -0.334092593401503
4250000000.0 0.9897294183613927 -0.33976286525391947
4253000000.0 0.9742112284261295 -0.3309286409900545
4256000000.0 0.953137180627128 -0.3415077061875555
4259000000.0000005 0.972651785861509 -0.35682507959208076
4261999999.9999995 0.9764627608044403 -0.35420218748177057
4266000000.0 0.9689960044030911 -0.34627169341935055
4269000000.0 1.014258744675188 -0.3494364919387457
4272000000.0000005 0.9508860180067462 -0.3661114418217886
4275000000.0000005 0.9732662182040361 -0.36403964344534834
4277999999.9999995 0.9599318218306845 -0.34700054643261474
4280999999.9999995 0.9552762651764961 -0.3307763568802896
4284000000.0 0.9706769156801006 -0.3733994700666026
4288000000.0000005 0.9706717202542199 -0.346272680053147
4291000000.0000005 0.9535193831670745 -0.335281318042056
4293999999.9999995 0.9412685773322352 -0.3667948232156981
4297000000.0 0.9562215376593828 -0.35332529784718897
4300000000.0 0.9577545159943528 -0.36444944938153523
4303000000.0 0.9899136511847721 -0.34583385645084946
4306000000.0 0.9784169110585533 -0.33662534233453095
4309000000.0 0.9965016149717754 -0.34537229701356015
4312000000.0 0.9791844079693965 -0.3425889565152034
4316000000.0 0.9821638616418837 -0.38619080219721585
4319000000.0 0.9620209565520144 -0.36367754035970773
4322000000.0 0.9236695791455016 -0.3447566312544105
4325000000.0 0.9639952607811442 -0.3556577314513131
4328000000.0 0.9502578883484243 -0.36944108031175776
4331000000.0 0.9565197239245165 -0.41291229542524216
4334000000.0 0.9746191928849208 -0.3855613582343626
4338000000.0 0.9742349053282596 -0.3598080886434306
4341000000.0 0.968115221143034 -0.36336794339189626
4344000000.0 0.9690684778795612 -0.386946265765712
4347000000.0 0.9395244891403656 -0.38576965589504086
4350000000.0 0.9202433204229215 -0.3653165644454902
4353000000.0 0.9354500962182193 -0.32886708994931807
4356000000.0 0.9724556790875576 -0.36650167825877156
4359000000.0 0.9526557886745322 -0.35550618433217585
4362000000.0 0.9437284976164728 -0.40210629619723737
4366000000.0 0.9515012863386794 -0.3981609388096985
4369000000.0 0.943536151672868 -0.36137216071738787
4372000000.0 0.9298351278262909 -0.39899886783222865
4375000000.0 0.9592425030567588 -0.38182624252161423
4378000000.0 0.943751175836629 -0.37918081312669677
4381000000.0 0.959553316227148 -0.36342608613539523
4384000000.0 0.9567706927048762 -0.41464769387408024
4388000000.0 0.9351760680338306 -0.36113563662097725
4391000000.0 0.9593992082355602 -0.37064167354423894
4394000000.0 0.9288341330018127 -0.3654227889911901
4397000000.0 0.900759036389094 -0.36337867161503495
4400000000.0 0.9726462900953985 -0.4101903049118299
4403000000.0 0.9470302027578232 -0.3923276362443793
4406000000.0 0.9256321306670535 -0.4220206445265585
4409000000.0 0.9511685840748381 -0.38078236486218475
4412000000.0 0.9289242603552194 -0.45060457203222953
4416000000.0 0.9025002334925583 -0.4036927140771941
4419000000.0 0.9407279286330436 -0.4167759661475543
4422000000.0 0.9235497773817511 -0.40204875157806175
4425000000.0 0.977074179907772 -0.37226690440097365
4428000000.0 0.926075034304524 -0.4156036632118623
4431000000.0 0.9731712881692317 -0.4083264999550459
4434000000.0 0.9281132332827915 -0.42528182613331367
4438000000.0 0.9524660735750742 -0.42323485272859124
4441000000.0 0.937756086602433 -0.4091274390523581
4444000000.0 0.9050648215023931 -0.3950796726436769
4447000000.0 0.9211993917944957 -0.40858015083271815
4450000000.0 0.9199164010310584 -0.3944380629038059
4453000000.0 0.9436939665296382 -0.4380312966377216
4456000000.0 0.9035448086418438 -0.40716551277532126
4459000000.0 0.8714623511262216 -0.4190853657252569
4462000000.0 0.9701054065488259 -0.4442965626544546
4466000000.0 0.9529137664494648 -0.4418071553245627
4469000000.0 0.9358847598815707 -0.3955346793347978
4472000000.0 0.9577677747143056 -0.4562696240275334
4475000000.0 0.9151689672987846 -0.4182780606652209
4478000000.0 0.9592420918482555 -0.4865515238929905
4481000000.0 0.8910861382330204 -0.42206680246870504
4484000000.0 0.8825712015627358 -0.4574203711169603
4488000000.0 0.9041010103488775 -0.4303646926363719
4491000000.0 0.8996441573903291 -0.4533514475875396
4494000000.0 0.9076305550252162 -0.4197061077948876
4497000000.0 0.9230272554369856 -0.42906918845314423
4500000000.0 0.9338126981912721 -0.4128527879838253
4503000000.0 0.9447638562990197 -0.4155679693259267
4506000000.0 0.8900366840306083 -0.4208275688240174
4509000000.0 0.9134137720229174 -0.42078827174454525
4512000000.0 0.8990439203714001 -0.4537617002593801
4516000000.0 0.9362547432349037 -0.44348290896089
4519000000.0 0.9093962556365847 -0.4136807218517591
4522000000.0 0.9017691390241244 -0.45412511265962346
4525000000.0 0.9103769147079837 -0.39212370067350244
4528000000.0 0.9397930411794101 -0.4606928035023859
4531000000.0 0.9256680367444625 -0.4284880690336232
4534000000.0 0.8942971157689253 -0.4436571236686875
4538000000.0 0.9063808291063663 -0.44529871799075066
4541000000.0 0.8985855550035886 -0.48874624239141407
4544000000.0 0.8970600131558811 -0.43037726816439986
4547000000.0 0.895004225160692 -0.40864807959159677
4550000000.0 0.8832251185054808 -0.47218325184242677
4553000000.0 0.9195162403623774 -0.4333995061677582
4556000000.0 0.8695755201319009 -0.4680562686970959
4559000000.0 0.8890193933989196 -0.49019898535509254
4562000000.0 0.9082481389109863 -0.4699025094916192
4566000000.0 0.9012867093410316 -0.45762275377740047
4569000000.0 0.8621164753963151 -0.4408231688550396
4572000000.0 0.8919669413723033 -0.4585659012792845
4575000000.0 0.8734316253967316 -0.47745572376369694
4578000000.0 0.9288532455186832 -0.4539756495531794
4581000000.0 0.9046914335666079 -0.49177504659843535
4584000000.0 0.8710909018338443 -0.4685084714038078
4588000000.0 0.930203316437827 -0.45073972908894544
4591000000.0 0.8899149791769047 -0.4402640833518493
4594000000.0 0.880723180376129 -0.47724362698591805
4597000000.0 0.9179789507113959 -0.4641785728823036
4600000000.0 0.8325166551672138 -0.49465549903019024
4603000000.0 0.889982876158039 -0.5002886812391183
4606000000.0 0.8822396605306541 -0.4843842144118949
4609000000.0 0.8841771544471572 -0.4831917687439894
4612000000.0 0.9267246822586376 -0.49511079864960306
4616000000.0 0.8791884384479902 -0.48930744568830864
4619000000.0 0.9113507240395033 -0.4589532682379165
4622000000.0 0.8861826691403933 -0.4606860689390704
4625000000.0 0.841418410081418 -0.4573725503119905
4628000000.0 0.8401965312945707 -0.4503437300900627
4631000000.0 0.8488974204209868 -0.5077344300839731
4634000000.0 0.8808082413770211 -0.46663131305469563
4638000000.0 0.8946823475007496 -0.4580260680422973
4641000000.0 0.9033187047817766 -0.4784177877545144
4644000000.0 0.8904745328345965 -0.4894935795683684
4647000000.0 0.8921579179975022 -0.49721137097958523
4650000000.0 0.8774831931268723 -0.5090511385416491
4653000000.0 0.9092732864155849 -0.5001140075818585
4656000000.0 0.8556419199885024 -0.5219194114449642
4659000000.0 0.8673982016810046 -0.49361766301186516
4662000000.0 0.8775246371653699 -0.4832370165530094
4666000000.0 0.8769972173821778 -0.49394337397733845
4669000000.0 0.8860306203574748 -0.47489636734870366
4672000000.0 0.8469527023730753 -0.5248601732215674
4675000000.0 0.8338601300467974 -0.5261090342646957
4678000000.0 0.8709684536850091 -0.4909165529574092
4681000000.0 0.8731346872308409 -0.5179844336397287
4684000000.0 0.8468863698656208 -0.4986452469812761
4688000000.0 0.8636636076998095 -0.5037293637304273
4691000000.0 0.8550710624788493 -0.4769647446036174
4694000000.0 0.9001837877529971 -0.5223719803672623
4697000000.0 0.8560629471781982 -0.49693181585539714
4700000000.0 0.9004505127497525 -0.502779060019813
4703000000.0 0.8807647398345484 -0.5273311787781766
4706000000.0 0.8874434163913008 -0.4926560565445985
4709000000.0 0.8645222081536679 -0.5044645497539957
4712000000.0 0.8559476302617846 -0.508646884455239
4716000000.0 0.8661512607888368 -0.4978444084867471
4719000000.0 0.8702521191411743 -0.5272134312733907
4722000000.0 0.8658676010412354 -0.50897650836355
4725000000.0 0.863133322185215 -0.5210418383754897
4728000000.0 0.8530023116124877 -0.5244827780930655
4731000000.0 0.8916376945585749 -0.5108985086915352
4734000000.0 0.8808870069857921 -0.49489836642632423
4738000000.0 0.8790567715230447 -0.5523955508046354
4741000000.0 0.8540180376761172 -0.5191716509891249
4744000000.0 0.8769086862078329 -0.5504258926233694
4747000000.0 0.9087848426964985 -0.5304100378320771
4750000000.0 0.858835381655687 -0.5160486369230511
4753000000.0 0.8526202650985824 -0.5622270680711534
4756000000.0 0.8612962097144299 -0.5297420857881628
4759000000.0 0.8724608161360512 -0.5365043528978566
4762000000.0 0.8352604563368785 -0.5252566082444399
4766000000.0 0.8619398052446517 -0.5342214927276925
4769000000.0 0.8794477955176476 -0.5288122617829175
4772000000.0 0.8708135412110186 -0.5304260599933108
4775000000.0 0.8690951758558088 -0.5645059510809185
4778000000.0 0.8852805355237816 -0.5160039475674333
4781000000.0 0.8500115161908804 -0.5347222384301289
4784000000.0 0.8665354389130432 -0.5263597766715865
4788000000.0 0.8723735027936252 -0.5328523758952398
4791000000.0 0.8574913040096172 -0.5640546163714444
4794000000.0 0.8717982379008004 -0.5449951283112466
4797000000.0 0.8454180009124526 -0.5377944427857042
4800000000.0 0.8445635016194563 -0.567805899217553
4803000000.0 0.8626284327035528 -0.5360262852592004
4806000000.0 0.8529256163841775 -0.5491921548039741
4809000000.0 0.8402500428549139 -0.5574443157875819
4812000000.0 0.8115270469218192 -0.5660005664504226
4816000000.0 0.8567774610834322 -0.544604623067855
4819000000.0 0.8717291884917714 -0.5645726367755642
4822000000.0 0.8922760711056072 -0.5521647934479724
4825000000.0 0.8684128813217298 -0.5660965294622757
4828000000.0 0.8437915935813196 -0.5377301166448407
4831000000.0 0.8427823702790481 -0.5812153735560607
4834000000.0 0.8639208663575488 -0.5523138226188714
4838000000.0 0.846064719273335 -0.5689574881102624
4841000000.0 0.8552330567278477 -0.5482259630849706
4844000000.0 0.8627044244971054 -0.5363988545159195
4847000000.0 0.8564631577332746 -0.5270999435922035
4850000000.0 0.8539633045872093 -0.5735533889545752
4853000000.0 0.84253681376782 -0.5547139667631142
4856000000.0 0.8506040027319499 -0.5698819993783666
4859000000.0 0.8799271371651494 -0.5772695689363724
4862000000.0 0.8298854428604263 -0.5402482246700662
4866000000.0 0.8472370114065415 -0.5778503292702231
4869000000.0 0.8465756978199889 -0.5626156189010664
4872000000.0 0.8509229399158318 -0.5949839696472341
4875000000.0 0.9032807984681468 -0.5425389528847958
4878000000.0 0.8414512055622649 -0.5766732605415917
4881000000.0 0.8894453351015279 -0.5994716714459162
4884000000.0 0.8691519155869816 -0.5943187866621109
4888000000.0 0.8489586274405191 -0.5381317098940848
4891000000.0 0.8606728394156069 -0.5483195796653049
4894000000.0 0.8426258202192733 -0.5874139287506589
4897000000.0 0.8589114868286787 -0.5534022196596624
4900000000.0 0.8442384248317938 -0.5926395949430755
4903000000.0 0.8855124253697346 -0.5864181087451735
4906000000.0 0.8368028189736864 -0.5848359003252273
4909000000.0 0.8341190339147883 -0.6039355063193305
4912000000.0 0.8703583299462331 -0.6024583869900373
4916000000.0 0.8812600331077896 -0.5910537420675717
4919000000.0 0.8782982874708454 -0.5787586220664137
4922000000.0 0.8809585625657625 -0.5460474407984569
4925000000.0 0.8344468927242461 -0.5793932778513289
4928000000.0 0.8814253520115816 -0.5300293884214168
4931000000.0 0.8936215666064655 -0.5890238334654165
4934000000.0 0.8335103397270437 -0.564248891785939
4938000000.0 0.8161176688192568 -0.5955694286321033
4941000000.0 0.8369177750809123 -0.5715629980507572
4944000000.0 0.8230080342896499 -0.5483436156809605
4947000000.0 0.8252387844216285 -0.5659109872627907
4950000000.0 0.8326875430906826 -0.5555460536758451
4953000000.0 0.8522141628513948 -0.62693244197213
4956000000.0 0.8353018206325403 -0.6165514217516403
4959000000.0 0.8176985616642605 -0.6098252098331494
4962000000.0 0.8449109635310238 -0.6173110008088174
4966000000.0 0.872929633179724 -0.5664729103681471
4969000000.0 0.8899206366692658 -0.5685178465094006
4972000000.0 0.8477317078636235 -0.6116372357245375
4975000000.0 0.8485970772990064 -0.5347062016181321
4978000000.0 0.8143319499266699 -0.594402132090436
4981000000.0 0.853371574915224 -0.567233894290215
4984000000.0 0.8492678760955643 -0.5795903170863594
4988000000.0 0.8412358175334851 -0.5579207813861484
4991000000.0 0.9159369562510611 -0.5196124550691106
4994000000.0 0.8505222359415265 -0.5645788738755416
4997000000.0 0.8554185403148278 -0.6013528286977432
5000000000.0 0.8654837809847264 -0.621525871144872
5003000000.0 0.8823616792173256 -0.6080102709552511
5006000000.0 0.864409925660868 -0.6296403345370065
5009000000.0 0.8332887351621423 -0.5892498114414118
5012000000.0 0.8193601946432078 -0.5778572480139715
5016000000.0 0.8915105618237347 -0.6085161728354117
5019000000.0 0.8529872597970787 -0.5717528764121809
5022000000.0 0.8522632572591893 -0.601003616843079
5025000000.0 0.9027953707477013 -0.6370592029989499
5028000000.0 0.8330010629909927 -0.5961955364922484
5031000000.0 0.8307123191200361 -0.6136253770979523
5034000000.0 0.8734868251429257 -0.6566145773829315
5038000000.0 0.8027713428564129 -0.564023048466988
5041000000.0 0.8896787355214573 -0.5434985320521395
5044000000.0 0.8408094602349009 -0.5487084069957924
5047000000.0 0.8760306888426868 -0.5635506114589505
5050000000.0 0.886109387288236 -0.4844728172462577
5053000000.0 0.8922752948674083 -0.6330409979764344
5056000000.0 0.8820317759029658 -0.5456985332454025
5059000000.0 0.8582414572966498 -0.5087737914166413
5062000000.0 0.8616126632209223 -0.6086879875309146
5066000000.0 0.841660011138383 -0.5388905503002288
5069000000.0 0.8655709993035111 -0.590488929202015
5072000000.0 0.7918860755406586 -0.5966481002273046
5075000000.0 0.869854223155051 -0.5683830557638407
5078000000.0 0.8192521004900626 -0.6406876687771929
5081000000.0 0.8007099587990465 -0.5822914417702655
5084000000.0 0.8705792155810794 -0.6115749905328306
5088000000.0 0.8765109239852734 -0.5695613890723376
5091000000.0 0.8270926117401931 -0.6189763560848256
5094000000.0 0.8972765630318686 -0.6012931439950758
5097000000.0 0.9208609629506785 -0.5343558242344238
5100000000.0 0.8617954919726624 -0.5952400589822899
5103000000.0 0.8742977876855792 -0.5781887003464214
5106000000.0 0.913887512739461 -0.5631373696829821
5109000000.0 0.8811077489752829 -0.5584451999787138
5112000000.0 0.8429457983960645 -0.5391296188805392
5116000000.0 0.7965928495069662 -0.5618467767549153
5119000000.0 0.8861139710602743 -0.5566286086971867
5122000000.0 0.8599099603604244 -0.583849747140002
5125000000.0 0.9352232155033212 -0.5997529983297762
5128000000.0 0.8826355133823828 -0.592292912650639
5131000000.0 0.8310335160389893 -0.5889019753040848
5134000000.0 0.8616173925358623 -0.5975673436621962
5138000000.0 0.8582128734548552 -0.5680272878991046
5141000000.0 0.9178255024959759 -0.5171328301420792
5144000000.0 0.8958951904537812 -0.5947836738378083
5147000000.0 0.8720173707868396 -0.622441502347078
5150000000.0 0.8982292221012398 -0.534826224430659
5153000000.0 0.9046567916259498 -0.5656448671979929
5156000000.0 0.9060475901208013 -0.5969731341429105
5159000000.0 0.8892810379239993 -0.5663109197287525
5162000000.0 0.820023178050653 -0.5476782723186717
5166000000.0 0.9081848777790668 -0.6154917185283254
5169000000.0 0.8822903960021286 -0.58454355716598
5172000000.0 0.8418998232156187 -0.540123104148429
5175000000.0 0.8882201519678754 -0.6109756219935338
