! Created with skrf 1.8.0 (http://scikit-rf.org).
# Hz S RI R 50.0 
!freq ReS11 ImS11
4000000000.0 0.5602003962326754 -0.8689235706065778
4003000000.0 0.5981488973070722 -0.8892141563430535
4006000000.0 0.5066323695086024 -0.8726888729826059
4009000000.0000005 0.5753870908301747 -0.8994554346068189
4011999999.9999995 0.6080572271465514 -0.8928696436162203
4016000000.0 0.5210358487593287 -0.9333996710823833
4019000000.0 0.5812632345928908 -0.8640781841372338
4022000000.0000005 0.6012096207351838 -0.8445020833168584
4025000000.0000005 0.5278333737152281 -0.9815708594873263
4027999999.9999995 0.5584403080354179 -0.9270859175042966
4030999999.9999995 0.5767366459880856 -0.8600796650663001
4034000000.0 0.5228041443243827 -0.8608935966380326
4038000000.0000005 0.5498747968413642 -0.9047831823317601
4041000000.0000005 0.5439632996109904 -0.8852845265127073
4043999999.9999995 0.5973586696426201 -0.9459641079443826
4046999999.9999995 0.6476801964516714 -0.9023191745610589
4050000000.0 0.5232738763860696 -0.9056357511809839
4053000000.0 0.5311700984957393 -0.8671429213761864
4056000000.0 0.5579088782724406 -0.8754019311088435
4059000000.0 0.5283978627326928 -0.8433149822609377
4062000000.0000005 0.50260158478387 -0.8684287356454615
4066000000.0 0.5334691885940497 -0.8281927009709554
4069000000.0 0.5510776373094826 -0.9625396800179057
4072000000.0 0.5914515507027039 -0.8507081043363264
4075000000.0 0.5909956824237563 -0.905416322149953
4078000000.0000005 0.5636678521917428 -0.8676609389064002
4081000000.0000005 0.5955073314650733 -0.8712339899832485
4083999999.9999995 0.5153136302616143 -0.9303790199899116
4088000000.0 0.5513791763141189 -0.857482762724334
4091000000.0 0.6060734508881682 -0.9501899806551933
4094000000.0000005 0.5345303200503483 -0.8620213051855292
4097000000.0000005 0.5650258033493126 -0.8801161285750457
4099999999.9999995 0.5484676102814589 -0.8592465119012666
4102999999.9999995 0.6117668366971314 -0.9060545995317367
4106000000.0 0.5454089341887011 -0.8884687615523305
4109000000.0 0.56141831281108 -0.9122114990433833
4112000000.0 0.5779916466783384 -0.8393368595547962
4115999999.9999995 0.5938772090814192 -0.8972530468434192
4119000000.0 0.5354090440917573 -0.8861251350748909
4122000000.0 0.5060442866505277 -0.8945897912173154
4125000000.0 0.5448860225384092 -0.8842533650466071
4128000000.0 0.572674879428273 -0.8448073469563564
4131000000.0 0.5398549702705872 -0.8680576953584869
4134000000.0000005 0.5709809043914507 -0.8811190724994198
4138000000.0 0.5092181374536692 -0.8681051404077655
4141000000.0 0.5441193889315719 -0.8514122877666038
4144000000.0 0.6063730628382745 -0.8788358448783615
4147000000.0000005 0.5252774011892007 -0.8561262436842113
4150000000.0000005 0.5635168718732458 -0.8845474767831826
4152999999.9999995 0.5400643679062284 -0.8551372552109849
4155999999.9999995 0.6077248652588696 -0.8762905292388992
4159000000.0 0.5538066992447223 -0.8629952979286485
4162000000.0 0.5791311249283889 -0.8674772101498647
4166000000.0000005 0.5476957783197788 -0.8929977059349148
4168999999.9999995 0.5370809974970152 -0.8557044628538131
4171999999.9999995 0.5777337316193625 -0.8848471591445549
4175000000.0 0.5742891558647849 -0.863469876547006
4178000000.0 0.5879129947175924 -0.9127833488555923
4181000000.0 0.5417880185089676 -0.9043780017560791
4184000000.0 0.5429652384305496 -0.8519940690805438
4187999999.9999995 0.5346936800527846 -0.8868331247400411
4191000000.0 0.5513852322673432 -0.8375428823171629
4194000000.0 0.561045356130382 -0.8585299256721768
4197000000.0 0.5574396005898965 -0.8807090726649708
4200000000.0 0.5757101907491511 -0.8351254671962739
4203000000.0000005 0.567830862484611 -0.8668998560725569
4206000000.0000005 0.560557819993423 -0.8682230110189663
4208999999.9999995 0.559332485611704 -0.8482993633002381
4211999999.9999995 0.5201046487913477 -0.8799184137363982
4216000000.0 0.5715565586768923 -0.8716744064535025
4219000000.0000005 0.5908070704049276 -0.8740060044001674
4222000000.0000005 0.5608455499512714 -0.8783977227602835
4224999999.9999995 0.5572693818680757 -0.8461386604374448
4227999999.9999995 0.56969323184673 -0.8528702912709762
4231000000.0 0.5537908642282716 -0.8743914593749204
4234000000.0 0.5619218848907326 -0.8718250583695003
4238000000.0000005 0.547927743036324 -0.8588110489540235
4240999999.9999995 0.5491107927955685 -0.8641365490607528
4244000000.0 0.564678159716485 -0.8430788771013727
4247000000.0 0.578730310151957 -0.8543548232961171
4250000000.0 0.5391393750893649 -0.8496463873662925
4253000000.0 0.5294226591970468 -0.8454816968238961
4256000000.0 0.5446078772556532 -0.8715785515631935
4259000000.0000005 0.533630884217347 -0.8355316840674407
4261999999.9999995 0.5329611082624456 -0.8773994315269494
4266000000.0 0.5506598451531205 -0.8870469076427334
4269000000.0 0.5860562099354902 -0.8506862539832825
4272000000.0000005 0.5585369603634297 -0.8365399546510124
4275000000.0000005 0.5599638793450081 -0.8654246553680572
4277999999.9999995 0.5709089946553606 -0.8517258826199912
4280999999.9999995 0.5756361348578547 -0.858463010399573
4284000000.0 0.5480865666294 -0.8888171187548711
4288000000.0000005 0.5686158656358694 -0.8362657308797558
4291000000.0000005 0.525028700788729 -0.8630765509076274
4293999999.9999995 0.5644317680343564 -0.8615919125174041
4297000000.0 0.5753881396378858 -0.8323909159329875
4300000000.0 0.5545318143665855 -0.8426932738776567
4303000000.0 0.550427745843227 -0.8612008045472814
4306000000.0 0.5627648019774977 -0.8418619302699776
4309000000.0 0.575925037013599 -0.8211052478594996
4312000000.0 0.5922013946936029 -0.8665376953147049
4316000000.0 0.5644841193605183 -0.8461648052827669
4319000000.0 0.5709577062173918 -0.8368045031704705
4322000000.0 0.5382090567524265 -0.8492560769645444
4325000000.0 0.5806969694774414 -0.8547919898945775
4328000000.0 0.5508775645989549 -0.8581479782101069
4331000000.0 0.5397942779574912 -0.848510203496027
4334000000.0 0.5504389992189889 -0.8396328682657049
4338000000.0 0.5774749094639615 -0.8447205224527423
4341000000.0 0.5747826322237508 -0.8501587935285176
4344000000.0 0.570062104205757 -0.8583905139000652
4347000000.0 0.5200233054185104 -0.8773683951374651
4350000000.0 0.5312035570979572 -0.8206879685609243
4353000000.0 0.5665282957226582 -0.8339890077076653
4356000000.0 0.5266339437639685 -0.8558516528084842
4359000000.0 0.5273601334271878 -0.8366289851768464
4362000000.0 0.510239722279249 -0.8917029248975193
4366000000.0 0.5637907375999016 -0.8783822830089311
4369000000.0 0.537280855488162 -0.8345007450966458
4372000000.0 0.5155946226068867 -0.8577438561921109
4375000000.0 0.5527084546138115 -0.8360252243730378
4378000000.0 0.5508865334943096 -0.8427846597563676
4381000000.0 0.5480219318346863 -0.8472244553822726
4384000000.0 0.5627322547551193 -0.9041477167126363
4388000000.0 0.536313446730176 -0.8338549645497249
4391000000.0 0.5501453167809944 -0.8639337791939946
4394000000.0 0.5340883071875485 -0.8307693797281903
4397000000.0 0.5453260342367783 -0.8600221037982043
4400000000.0 0.5452660715421626 -0.887160874151272
4403000000.0 0.562376141944314 -0.8562475195255113
4406000000.0 0.5319815042415762 -0.8563199132091793
4409000000.0 0.5605190614902533 -0.8908106585275138
4412000000.0 0.48682731936612034 -0.8905636053792215
4416000000.0 0.5368846106941394 -0.8446175201991248
4419000000.0 0.521365607703871 -0.8738987196414039
4422000000.0 0.5557725376009932 -0.8304139577386892
4425000000.0 0.583780106936241 -0.8691316834291672
4428000000.0 0.5267193865608957 -0.8594296002428781
4431000000.0 0.5536594102470478 -0.8656362718539824
4434000000.0 0.529340700196395 -0.8477575366170995
4438000000.0 0.5645540197244163 -0.8702976652153044
4441000000.0 0.5551352692788496 -0.8794794024300026
4444000000.0 0.5408592621178976 -0.8417097381600694
4447000000.0 0.514821914561707 -0.8706509960633374
4450000000.0 0.5503051452534853 -0.8358083646914596
4453000000.0 0.5442029639753004 -0.8856611876701107
4456000000.0 0.5206811655702821 -0.8591492318095872
4459000000.0 0.5030603375287057 -0.8222112766410657
4462000000.0 0.559515072358961 -0.9154137452320243
4466000000.0 0.5495632880342238 -0.8978669079478405
4469000000.0 0.5524591645461681 -0.8536920229147673
4472000000.0 0.5367859925310446 -0.8959287094735464
4475000000.0 0.531910530805186 -0.8388074573637907
4478000000.0 0.5371257962731814 -0.9173964380470458
4481000000.0 0.5001731536084539 -0.8627611261768753
4484000000.0 0.5040279682031023 -0.862482692255496
4488000000.0 0.5141257072751495 -0.8594940578260006
4491000000.0 0.529817636324106 -0.8616153807954915
4494000000.0 0.5236937600039109 -0.844262741313199
4497000000.0 0.5359817950899413 -0.8438783124305191
4500000000.0 0.5305316018819148 -0.8442671213985857
4503000000.0 0.5435945412589213 -0.882635972039844
4506000000.0 0.5264549801388841 -0.8680152565012828
4509000000.0 0.5246403113866707 -0.8461164146844695
4512000000.0 0.5203834295994825 -0.8491542897446221
4516000000.0 0.5371428812450506 -0.8812508852179161
4519000000.0 0.5313763970385049 -0.8359322503170545
4522000000.0 0.5154695748484857 -0.8629105043397123
4525000000.0 0.5411884971488878 -0.8389106829854671
4528000000.0 0.5275841307026223 -0.893013060029502
4531000000.0 0.5448893915168029 -0.8649203043577623
4534000000.0 0.5157966534417544 -0.866085081019117
4538000000.0 0.5322135208584851 -0.8771351752010117
4541000000.0 0.464798111136547 -0.8820180027935494
4544000000.0 0.5202396430238851 -0.838029187771534
4547000000.0 0.539431173072968 -0.8555613957578655
4550000000.0 0.5287529815770577 -0.8917780214180995
4553000000.0 0.5318769817675073 -0.887711700750887
4556000000.0 0.49346785262608944 -0.8620952336604683
4559000000.0 0.5138692303220024 -0.8829259344412865
4562000000.0 0.5345015122017363 -0.8636596859527804
4566000000.0 0.5113507012754468 -0.8784202383662192
4569000000.0 0.5152698219519338 -0.8594555800118554
4572000000.0 0.5085853550104109 -0.8566160320792109
4575000000.0 0.5095779972951564 -0.8893516699192082
4578000000.0 0.5530668322132063 -0.8970492216399998
4581000000.0 0.48754197957318407 -0.887106415350849
4584000000.0 0.5165233812875705 -0.861959347745369
4588000000.0 0.5568083680035578 -0.875665443928076
4591000000.0 0.5200100085664032 -0.8440859774342744
4594000000.0 0.5028194568846025 -0.886782215266768
4597000000.0 0.5261719923782922 -0.889258982803993
4600000000.0 0.47233550870155394 -0.889644820652933
4603000000.0 0.5100313745880934 -0.8873522719721629
4606000000.0 0.5142678751160272 -0.8782329901359961
4609000000.0 0.5126406408661544 -0.875903986509364
4612000000.0 0.5133898401166331 -0.8828080935813838
4616000000.0 0.5060927582991239 -0.8809729464570184
4619000000.0 0.5094736880693806 -0.8615810742579161
4622000000.0 0.4997765377990712 -0.8751218707338912
4625000000.0 0.48851764356849225 -0.850243584271603
4628000000.0 0.5235794931855633 -0.867682847628528
4631000000.0 0.484307590269878 -0.8796130554532241
4634000000.0 0.5200799587781212 -0.8750385343228463
4638000000.0 0.5033446572947091 -0.8538231297878164
4641000000.0 0.5130189453841023 -0.8774674030172777
4644000000.0 0.5246527376924692 -0.886834974529134
4647000000.0 0.5188542720166883 -0.8827377876613355
4650000000.0 0.49518924008029885 -0.8780268468064911
4653000000.0 0.520363967401477 -0.8982911752437027
4656000000.0 0.49688427844402494 -0.8655258144734231
4659000000.0 0.4873623241556855 -0.8936561378758252
4662000000.0 0.5036934768088064 -0.8905112311520013
4666000000.0 0.4839535474269396 -0.8782903987015996
4669000000.0 0.5092455031814299 -0.8796927747522915
4672000000.0 0.48909891637124236 -0.8899600226355598
4675000000.0 0.48518585370013756 -0.9105477781402155
4678000000.0 0.4906242651770029 -0.8708525643577156
4681000000.0 0.4737972085165675 -0.8919944075739339
4684000000.0 0.48931238427584955 -0.9026169097847634
4688000000.0 0.48305351348274184 -0.9018497962129819
4691000000.0 0.5494219244404086 -0.8744140479505901
4694000000.0 0.4967924149328194 -0.8692295856179186
4697000000.0 0.46803285125146027 -0.8798281260095046
4700000000.0 0.4857433624831593 -0.8691259896885559
4703000000.0 0.5366318975000733 -0.8475796599462981
4706000000.0 0.5041924160170489 -0.8856667376345975
4709000000.0 0.4698249106198101 -0.8804629476278758
4712000000.0 0.4892353841772178 -0.9042648510873643
4716000000.0 0.5187487863774504 -0.8990400226123964
4719000000.0 0.5289923951472402 -0.8991426862633848
4722000000.0 0.5177932305492405 -0.8476118642586385
4725000000.0 0.5230991706334889 -0.8900575545867374
4728000000.0 0.5034361939128235 -0.8899025278242818
4731000000.0 0.5309042646034352 -0.9162240128873089
4734000000.0 0.5179636432729949 -0.8509226995011581
4738000000.0 0.5263266434795648 -0.9261436702148835
4741000000.0 0.5252797544169214 -0.9227410066667892
4744000000.0 0.489130696183116 -0.9130066747997491
4747000000.0 0.5061728327869304 -0.8712875765851853
4750000000.0 0.4989372854699887 -0.9080562553141169
4753000000.0 0.5449170672500414 -0.8493386161383136
4756000000.0 0.47967212114436114 -0.8830342881628258
4759000000.0 0.5107781850866107 -0.8735883850583155
4762000000.0 0.5055569305020047 -0.9248643592839211
4766000000.0 0.49489613462487814 -0.8658153466009012
4769000000.0 0.5297780726626875 -0.9186503522086945
4772000000.0 0.49925438330680894 -0.8955791805299886
4775000000.0 0.5163042545474499 -0.960634529733797
4778000000.0 0.466209512749739 -0.9136845640183843
4781000000.0 0.5124045833887093 -0.8561921139336712
4784000000.0 0.5363875852547783 -0.8992160769595141
4788000000.0 0.4701868344509238 -0.9184492927779065
4791000000.0 0.5102215454899854 -0.8941301477167014
4794000000.0 0.5362711775839941 -0.9135129104480457
4797000000.0 0.48930683819907217 -0.9004187010726976
4800000000.0 0.46786436305602275 -0.8737578453804072
4803000000.0 0.47136253590064775 -0.9071545020391251
4806000000.0 0.5143395908979884 -0.9118811287347027
4809000000.0 0.4547839687329118 -0.9257605474007263
4812000000.0 0.45629506706538703 -0.9063779486477421
4816000000.0 0.5205733521638918 -0.8774018270060249
4819000000.0 0.519512781751067 -0.9055866146152759
4822000000.0 0.5333518251300788 -0.9209637433086069
4825000000.0 0.5347508613393024 -0.9197056735668031
4828000000.0 0.5010261756923489 -0.8963419492146432
4831000000.0 0.48418166939558444 -0.9400323964888911
4834000000.0 0.5126610363836199 -0.9050217546366142
4838000000.0 0.5261997857344167 -0.9171042009240199
4841000000.0 0.4937744931548427 -0.8958345082760244
4844000000.0 0.5289280915654536 -0.8682216283406076
4847000000.0 0.5046447980430009 -0.8583450727488718
4850000000.0 0.4858017069513839 -0.9225438261850019
4853000000.0 0.49894627552387005 -0.863791472741624
4856000000.0 0.499850449965747 -0.8985875301103187
4859000000.0 0.5201385633766799 -0.9461837886444994
4862000000.0 0.4952747796107082 -0.8624477828757905
4866000000.0 0.48021226408159506 -0.9223811405495781
4869000000.0 0.4890006251758499 -0.9260308978034179
4872000000.0 0.4927645886032817 -0.9378675802607421
4875000000.0 0.5773847609718441 -0.8981550345200171
4878000000.0 0.5054810717641038 -0.911801653053072
4881000000.0 0.5027216551484357 -0.9637967717999314
4884000000.0 0.5042378701299093 -0.8822445429397143
4888000000.0 0.5301835011349758 -0.8618415003835604
4891000000.0 0.5384989271375156 -0.8926923073226011
4894000000.0 0.4731902328045718 -0.879900661935474
4897000000.0 0.5332804939332403 -0.877771939028574
4900000000.0 0.5267621453566425 -0.9116112396867281
4903000000.0 0.5074978344027508 -0.9182526220393684
4906000000.0 0.5148594937887323 -0.9436597747933296
4909000000.0 0.48018574992736596 -0.9290593112499204
4912000000.0 0.5055778369689129 -0.9638013378017886
4916000000.0 0.5581315430380407 -0.9101728452652407
4919000000.0 0.5627313834775685 -0.9311634360766419
4922000000.0 0.560136576156846 -0.9100112709195155
4925000000.0 0.4859087765151684 -0.9363249058933757
4928000000.0 0.5683876529857704 -0.8770172176478287
4931000000.0 0.556875985678126 -0.8940640291135046
4934000000.0 0.4683004840193338 -0.8650131407829649
4938000000.0 0.4826500246494712 -0.9113365848187441
4941000000.0 0.5108278521949945 -0.8806222060568686
4944000000.0 0.5297789932769286 -0.8385707987015224
4947000000.0 0.49601783972896113 -0.8687592453684772
4950000000.0 0.46954917995187145 -0.8659352470069456
4953000000.0 0.5127681349151936 -0.9443999218240463
4956000000.0 0.4903774589318434 -0.9325316903602711
4959000000.0 0.46614489283191385 -0.9202546323095504
4962000000.0 0.49818971769607057 -0.9291979788369543
4966000000.0 0.5345207834160659 -0.9409667973011445
4969000000.0 0.5387010416848057 -0.911981571239099
4972000000.0 0.5179362482775285 -0.9250624784651692
4975000000.0 0.5424721359873337 -0.8621733934802165
4978000000.0 0.47675572443382236 -0.8853559122878656
4981000000.0 0.4995673368032977 -0.9377249255815092
4984000000.0 0.5017509392146354 -0.8683371933462167
4988000000.0 0.5489648132343363 -0.9010078319097782
4991000000.0 0.5600469993659019 -0.9288347503431771
4994000000.0 0.538307900153562 -0.8851890778785452
4997000000.0 0.4850037719533562 -0.9368423376100513
5000000000.0 0.5454539330776582 -0.9324490221897286
5003000000.0 0.575139366532134 -0.9275102029581781
5006000000.0 0.5421007581950559 -0.9184228169192977
5009000000.0 0.5120209972134926 -0.8946023455827015
5012000000.0 0.5108120812354742 -0.9129931618313165
5016000000.0 0.5555026543894174 -0.9300688483058164
5019000000.0 0.5303426396123366 -0.9001508645714993
5022000000.0 0.5333790894551876 -0.9007076389861488
5025000000.0 0.5823862376188654 -0.95837403445144
5028000000.0 0.5096142623383941 -0.9064149232069718
5031000000.0 0.5142495334152618 -0.8941932270896492
5034000000.0 0.504574313057661 -0.9586135451043774
5038000000.0 0.5219873312920661 -0.8785627759310871
5041000000.0 0.5584699857291334 -0.9036543224607183
5044000000.0 0.5498527591912672 -0.8634372864902582
5047000000.0 0.5551750549702377 -0.8912697322551575
5050000000.0 0.5585276354543643 -0.8427004065068799
5053000000.0 0.5676983996435278 -0.9569347484199608
5056000000.0 0.5757695827701208 -0.8890862026290182
5059000000.0 0.5944649987324572 -0.8836979182853357
5062000000.0 0.5307255831180709 -0.9096050932790598
5066000000.0 0.5642602806310505 -0.8562677029400865
5069000000.0 0.5205471727941058 -0.9329727474367597
5072000000.0 0.5191548102020287 -0.8855975422388265
5075000000.0 0.5703899719393452 -0.8569768940684893
5078000000.0 0.4812675188826923 -0.9198330691149346
5081000000.0 0.5191139387959427 -0.8651851927153091
5084000000.0 0.5896161032978298 -0.9127111312021148
5088000000.0 0.5459071354601358 -0.8605027608729787
5091000000.0 0.5101261854305263 -0.9295027228075816
5094000000.0 0.505494198681908 -0.8942656251023131
5097000000.0 0.5735015683127271 -0.8915801073711476
5100000000.0 0.5327084445968867 -0.8739413364230864
5103000000.0 0.5245883381459934 -0.9393516621444993
5106000000.0 0.5449635937194928 -0.9402394781864682
5109000000.0 0.5505101944822101 -0.8687873234050478
5112000000.0 0.5182691513187474 -0.9090549435247808
5116000000.0 0.5594076983796101 -0.8625932733124682
5119000000.0 0.5509247073420064 -0.9646983523752253
5122000000.0 0.5487648533076027 -0.8605244772598846
5125000000.0 0.5400519332537526 -0.8798151777014434
5128000000.0 0.5236692682643938 -0.9032543871316618
5131000000.0 0.5468752735681884 -0.8953799030566195
5134000000.0 0.5534754764589985 -0.8456057641680705
5138000000.0 0.5824314764889212 -0.8814422821890096
5141000000.0 0.5597483280143163 -0.8466328871673778
5144000000.0 0.5949177111518057 -0.8717843337762017
5147000000.0 0.5511455673446783 -0.8981140971323851
5150000000.0 0.6121048618063566 -0.8583854674889778
5153000000.0 0.5776997676255597 -0.8986396014411793
5156000000.0 0.5495413281118028 -0.8833973257934464
5159000000.0 0.6111430135844428 -0.9105776527748195
5162000000.0 0.5155590794500144 -0.9142871421613621
5166000000.0 0.5588413762696911 -0.9274501199945754
5169000000.0 0.5534390720386957 -0.9158373833992621
5172000000.0 0.6046530310151393 -0.8749184732084495
5175000000.0 0.5804653266602963 -0.8892520356700425
5178000000.0 0.5500933526312887 -0.8908976064766623
