! Created with skrf 1.8.0 (http://scikit-rf.org).
# Hz S RI R 50.0 
!freq ReS11 ImS11
4000000000.0 0.5373163461283493 -0.8603438266997829
4003000000.0 0.5172554592561835 -0.9139327768603985
4006000000.0 0.5128150561361048 -0.8897097667031783
4009000000.0000005 0.5573704165757619 -0.8986611603815489
4011999999.9999995 0.5938517536217307 -0.8935476800374016
4016000000.0 0.5319356944370266 -0.9091384346674338
4019000000.0 0.5398660181641279 -0.9002559148960548
4022000000.0000005 0.5464536989997644 -0.8372084981505704
4025000000.0000005 0.5010498066827115 -0.8979863075331695
4027999999.9999995 0.5088107134688703 -0.8600920300243606
4030999999.9999995 0.5210528368556362 -0.794834898588665
4034000000.0 0.5347781887326204 -0.8753621756087114
4038000000.0000005 0.5254585585089245 -0.8994767468213385
4041000000.0000005 0.5344576518109809 -0.9225189568754298
4043999999.9999995 0.5629042676371327 -0.911208137514113
4046999999.9999995 0.5549072919500396 -0.8974344278845499
4050000000.0 0.5388022734259975 -0.8745777812958535
4053000000.0 0.4848346362074295 -0.8749811645982715
4056000000.0 0.5582613662962708 -0.8809129383417699
4059000000.0 0.5583453107743095 -0.8499504770334756
4062000000.0000005 0.5194771911117002 -0.9067960016967914
4066000000.0 0.49042003479980933 -0.797010822756658
4069000000.0 0.5358108016385498 -0.9237249142649097
4072000000.0 0.5477381641614175 -0.8317057738306373
4075000000.0 0.5899929264469507 -0.8853893534394094
4078000000.0000005 0.5372304506387031 -0.8820850369411297
4081000000.0000005 0.5915839329677952 -0.8934210224107452
4083999999.9999995 0.5519306761831573 -0.8712355733274987
4088000000.0 0.6029990076027149 -0.8804603179028728
4091000000.0 0.5573753907585878 -0.929957498343669
4094000000.0000005 0.5340329372696431 -0.8691138786639785
4097000000.0000005 0.5448844609203649 -0.8863982228411039
4099999999.9999995 0.5383279990522867 -0.8876055534599027
4102999999.9999995 0.5972108208292876 -0.8661944963751369
4106000000.0 0.5300697104539412 -0.888016363174915
4109000000.0 0.512395690791105 -0.9103705826225343
4112000000.0 0.5456034705373626 -0.8549996864515793
4115999999.9999995 0.5390664245598844 -0.8400977434494221
4119000000.0 0.5565520868333643 -0.8871249623715399
4122000000.0 0.5113145146067708 -0.9092664105594295
4125000000.0 0.5211665699921385 -0.9152755934230569
4128000000.0 0.5258128376964544 -0.8142342583229276
4131000000.0 0.5314996341499514 -0.9014721098267692
4134000000.0000005 0.5316739734753112 -0.8692410391306586
4138000000.0 0.5142023867961134 -0.8522506983782154
4141000000.0 0.5534155879249122 -0.8554265719694042
4144000000.0 0.5238987447083018 -0.8715966700667662
4147000000.0000005 0.5119100025208593 -0.8853936353995584
4150000000.0000005 0.575565151526485 -0.9117263566506874
4152999999.9999995 0.5683222597671711 -0.8694965399119233
4155999999.9999995 0.5271094021726934 -0.8541357904938299
4159000000.0 0.5453650694125838 -0.8227487547660743
4162000000.0 0.5257413434690454 -0.8558732500292748
4166000000.0000005 0.5317268444502292 -0.8770845616802931
4168999999.9999995 0.5186519409624131 -0.848145199228426
4171999999.9999995 0.5421489190621833 -0.8526492339459362
4175000000.0 0.5863239360470947 -0.8687644412541469
4178000000.0 0.5264301492226693 -0.8746862184942578
4181000000.0 0.5578160153716932 -0.8535692810026849
4184000000.0 0.5526514181787684 -0.8685745650008816
4187999999.9999995 0.5210936116337552 -0.8628471094057811
4191000000.0 0.5471171758959197 -0.8445486049833496
4194000000.0 0.516870602147253 -0.8546917098708017
4197000000.0 0.5485988543779343 -0.8799804653848445
4200000000.0 0.5539546952819642 -0.85706090515022
4203000000.0000005 0.5640158182662582 -0.8770940603497023
4206000000.0000005 0.5430216143292665 -0.8795634772323622
4208999999.9999995 0.5452451823048957 -0.8723761018132802
4211999999.9999995 0.5253180364743502 -0.8845955297561905
4216000000.0 0.556065701241684 -0.864836056419263
4219000000.0000005 0.550673321383689 -0.8597782552839106
4222000000.0000005 0.5421199000728619 -0.8646971303608473
4224999999.9999995 0.5435035833051811 -0.8552844669449435
4227999999.9999995 0.5455525936894222 -0.8768242663675291
4231000000.0 0.5370108655434749 -0.8793074967625638
4234000000.0 0.5352071145257452 -0.8737535833701607
4238000000.0000005 0.5207096266776147 -0.8738805620009941
4240999999.9999995 0.5291136339299373 -0.8547939990783866
4244000000.0 0.5443302435834049 -0.8485134072706193
4247000000.0 0.5593938645286248 -0.8351570670316945
4250000000.0 0.5246552791415422 -0.855644673863408
4253000000.0 0.5258240138476049 -0.8486081206392507
4256000000.0 0.5431488628466183 -0.8869208437587128
4259000000.0000005 0.5089248107820995 -0.8374182109046857
4261999999.9999995 0.5322212777701478 -0.8667771028582618
4266000000.0 0.512364353461388 -0.8949907613668344
4269000000.0 0.5401422929380714 -0.8571416286090368
4272000000.0000005 0.5402281077023742 -0.866649611496644
4275000000.0000005 0.5325383469345735 -0.8506655468344876
4277999999.9999995 0.5697773069986651 -0.8808972760945287
4280999999.9999995 0.5440512157731825 -0.8681681286023598
4284000000.0 0.520030632498272 -0.8871346568470381
4288000000.0000005 0.5619836011493368 -0.8336833573921963
4291000000.0000005 0.5342050939269153 -0.8334015570103527
4293999999.9999995 0.52734953688125 -0.8499031289789919
4297000000.0 0.5633804327459164 -0.8331295968117352
4300000000.0 0.5709947133996603 -0.8364088735770772
4303000000.0 0.50491294394758 -0.8565867624766421
4306000000.0 0.5648843652836297 -0.8458234123205292
4309000000.0 0.5459578536119442 -0.8388310323805461
4312000000.0 0.563723927827039 -0.8493180995876186
4316000000.0 0.5403141239445765 -0.8362216842872638
4319000000.0 0.527131677985865 -0.836948461139561
4322000000.0 0.49796399458707463 -0.8400717682643837
4325000000.0 0.5308932628339404 -0.8662275252006759
4328000000.0 0.5123052126304902 -0.8354089324925679
4331000000.0 0.513847173615389 -0.8827897671561791
4334000000.0 0.5249182574672393 -0.8807266627518499
4338000000.0 0.5570203357042787 -0.8438235713420669
4341000000.0 0.5698918877448852 -0.8815963910309272
4344000000.0 0.5416755033019568 -0.8540214179154083
4347000000.0 0.5272476617836659 -0.8811921457119393
4350000000.0 0.5187129241834955 -0.7975833854670767
4353000000.0 0.5536191355324992 -0.8226182359145394
4356000000.0 0.49426447272642526 -0.8415706268490595
4359000000.0 0.5009509387240051 -0.8063294098811478
4362000000.0 0.49351739674843587 -0.8880856994169525
4366000000.0 0.5411880659329358 -0.8588952438664896
4369000000.0 0.5204227518716917 -0.8411774666821263
4372000000.0 0.475921996085258 -0.8588106738764919
4375000000.0 0.5311585482331233 -0.8391932238771418
4378000000.0 0.5150620201886731 -0.8208921491926573
4381000000.0 0.5268789564505079 -0.8319120287442654
4384000000.0 0.5512895948295077 -0.9109437639428872
4388000000.0 0.5331355814640306 -0.8251367852943073
4391000000.0 0.5287333353967265 -0.8622956910849973
4394000000.0 0.5060767065518568 -0.8298824272395354
4397000000.0 0.5186371919920755 -0.8738652979681387
4400000000.0 0.5354964989568374 -0.8832427751828601
4403000000.0 0.5346726558363213 -0.8628627930845408
4406000000.0 0.5205807646768839 -0.867129681862403
4409000000.0 0.5446097024574704 -0.8844456460676462
4412000000.0 0.471881394172603 -0.8749714783223649
4416000000.0 0.5079183197107862 -0.8460691840405137
4419000000.0 0.5060269602348845 -0.8738419549689127
4422000000.0 0.5208455521927016 -0.8390327769932256
4425000000.0 0.558111392513919 -0.8649705969730159
4428000000.0 0.49973024005787603 -0.8695948053959363
4431000000.0 0.5416120025497491 -0.8724812723474267
4434000000.0 0.5026551021886203 -0.8504205907291413
4438000000.0 0.5407744515426398 -0.8851560086940834
4441000000.0 0.5323800597558093 -0.8730424360112927
4444000000.0 0.5197474450202126 -0.8438248929660817
4447000000.0 0.5071042461210008 -0.8703735966256717
4450000000.0 0.5415478022377251 -0.8561827346296924
4453000000.0 0.5263172847233919 -0.8930903742510936
4456000000.0 0.4978671624898503 -0.8566588459016704
4459000000.0 0.4770028553409818 -0.8376450365125606
4462000000.0 0.5463533991592251 -0.9148011842731996
4466000000.0 0.5344349369073282 -0.9045961164408673
4469000000.0 0.529321478975231 -0.8597330797848477
4472000000.0 0.5056554199559005 -0.8914061832989583
4475000000.0 0.5145662363207105 -0.847717827101722
4478000000.0 0.5258284956459937 -0.8953143290856764
4481000000.0 0.4912740033101822 -0.8395182569648751
4484000000.0 0.48284476345868654 -0.8738349709808158
4488000000.0 0.48728247308491524 -0.854995485796572
4491000000.0 0.5262820151439693 -0.8887699369572117
4494000000.0 0.5156219892797316 -0.8478085019165117
4497000000.0 0.5160476903692752 -0.8511954166568649
4500000000.0 0.518003121788667 -0.8669790974400855
4503000000.0 0.526965197022641 -0.8908803334530465
4506000000.0 0.4901916416289955 -0.8730413320444833
4509000000.0 0.4846178530477981 -0.83311237582875
4512000000.0 0.4839208932610649 -0.8698630446386234
4516000000.0 0.5248200266762737 -0.8869147724488096
4519000000.0 0.49741457136616263 -0.8381251880085524
4522000000.0 0.5042857602127262 -0.863888102508066
4525000000.0 0.5264796741710259 -0.830234072703665
4528000000.0 0.5274052947475752 -0.9016737238282648
4531000000.0 0.5232890989605707 -0.867447688107819
4534000000.0 0.4761107339798136 -0.8521539111423482
4538000000.0 0.507880427954974 -0.8638030478294939
4541000000.0 0.4668003648633661 -0.8714165393395185
4544000000.0 0.5008099268762911 -0.8643744425973414
4547000000.0 0.5121227083429745 -0.830576786197426
4550000000.0 0.49106231063025585 -0.8870324961529235
4553000000.0 0.48174412990770404 -0.8655825118064904
4556000000.0 0.49475742058266103 -0.8521041486423905
4559000000.0 0.48346146073646523 -0.8815590573041827
4562000000.0 0.5013238037016496 -0.881983152691396
4566000000.0 0.4945217030703846 -0.8717357054831789
4569000000.0 0.4943342143657873 -0.8485544086217147
4572000000.0 0.4956532391542974 -0.8504066614687507
4575000000.0 0.4945233913532131 -0.8806631407856907
4578000000.0 0.5177999825446501 -0.9017206058044467
4581000000.0 0.4879969693181623 -0.8620860299173143
4584000000.0 0.4838992929466042 -0.8585757401985092
4588000000.0 0.5176035507107195 -0.8918112828117896
4591000000.0 0.5007916013678819 -0.8686070153692631
4594000000.0 0.470655402080592 -0.8883332213372748
4597000000.0 0.4907402281989106 -0.8915434973002774
4600000000.0 0.46618023628635064 -0.8603035770131715
4603000000.0 0.4896896408271986 -0.883591148190169
4606000000.0 0.5021004056684538 -0.8858760412849325
4609000000.0 0.49551184200712817 -0.8796699317118063
4612000000.0 0.5150781464549326 -0.8824140557354798
4616000000.0 0.4775762213578868 -0.8702731827839931
4619000000.0 0.5072265328263023 -0.8739461082871631
4622000000.0 0.4855307526657542 -0.8805273454936818
4625000000.0 0.4551999247806484 -0.8538213303050595
4628000000.0 0.5010219129743434 -0.8654654236617543
4631000000.0 0.47005149079751085 -0.8801194961818618
4634000000.0 0.4781244446155407 -0.8671560783308832
4638000000.0 0.49348832783029495 -0.8828981156236785
4641000000.0 0.5042611169781952 -0.8576393610281959
4644000000.0 0.4742820351000797 -0.8759671283181357
4647000000.0 0.5009744959182926 -0.8882697668937019
4650000000.0 0.4639581448199447 -0.8772641564941382
4653000000.0 0.5053118950815707 -0.8852444528442972
4656000000.0 0.48755212211690135 -0.898125440865238
4659000000.0 0.46420060094548665 -0.874495483505971
4662000000.0 0.49691245205973683 -0.901873867630828
4666000000.0 0.4636411949095296 -0.8970516036777609
4669000000.0 0.481967091522997 -0.8850465524950261
4672000000.0 0.4902487143096857 -0.9033353741000102
4675000000.0 0.4852384305353169 -0.892329234336439
4678000000.0 0.4745993535664722 -0.8682032136933191
4681000000.0 0.4601257918102161 -0.9183547861130431
4684000000.0 0.4528532895187455 -0.9077019412682726
4688000000.0 0.458245003413145 -0.9035223510654473
4691000000.0 0.4893295233789803 -0.892071584140581
4694000000.0 0.49043088696475856 -0.8855899095468581
4697000000.0 0.4502090201753994 -0.8509228645391039
4700000000.0 0.4739191221063113 -0.8553821376564127
4703000000.0 0.4952876927040029 -0.8602825484744423
4706000000.0 0.46514920426325135 -0.8964901576880389
4709000000.0 0.44861051367540106 -0.8930811504499143
4712000000.0 0.4835805021873407 -0.8744851165667533
4716000000.0 0.4699108175164747 -0.8944002185419634
4719000000.0 0.49063513031016864 -0.8954093273918249
4722000000.0 0.5279674967260113 -0.8870224722581789
4725000000.0 0.4639359117593452 -0.8994127578567243
4728000000.0 0.4537160013024973 -0.9018252453979696
4731000000.0 0.5247624605864449 -0.9088583788581364
4734000000.0 0.4942489683485838 -0.8604977115902502
4738000000.0 0.5416736405212162 -0.9177378419507057
4741000000.0 0.4945893027116561 -0.8829053620898196
4744000000.0 0.495558801825772 -0.8807195659628306
4747000000.0 0.48535355855152407 -0.8617160839244905
4750000000.0 0.48875486912712346 -0.9155029375064464
4753000000.0 0.48097345295481997 -0.9031471309844858
4756000000.0 0.4851080335843153 -0.9105969969512948
4759000000.0 0.4903304925111502 -0.8962400075075888
4762000000.0 0.4303727464256253 -0.9449877234226312
4766000000.0 0.47394178258167424 -0.8939245150761645
4769000000.0 0.4707207000984903 -0.8943690838153214
4772000000.0 0.4746374418804522 -0.9000437182146028
4775000000.0 0.472136580041428 -0.9285385966782791
4778000000.0 0.4732115190732066 -0.8840418101988344
4781000000.0 0.48338820246656455 -0.8961596017202095
4784000000.0 0.5011674315948308 -0.8646205163716336
4788000000.0 0.47141141209513515 -0.9151554447291862
4791000000.0 0.4928500587933303 -0.8961321215284056
4794000000.0 0.5234879837979095 -0.906750936684235
4797000000.0 0.46257080717328203 -0.8868252679728501
4800000000.0 0.46529667333436453 -0.8806730453031999
4803000000.0 0.4317289232925352 -0.900534923312691
4806000000.0 0.4752401533840957 -0.9267452454267489
4809000000.0 0.4399065999973154 -0.9171002174989689
4812000000.0 0.46242545442896144 -0.8968950033711991
4816000000.0 0.4998561309692844 -0.8804639649628994
4819000000.0 0.5046435690373245 -0.9046955650353402
4822000000.0 0.5104151447585489 -0.9203896664521475
4825000000.0 0.524971345912223 -0.8921939131772674
4828000000.0 0.45827159438722026 -0.8809574223783766
4831000000.0 0.43280136440155403 -0.9455448911526319
4834000000.0 0.5039947451989818 -0.8938489225014496
4838000000.0 0.484398321965932 -0.9298862282491454
4841000000.0 0.44243669939329006 -0.8830027489919436
4844000000.0 0.5103468797250825 -0.886514096060414
4847000000.0 0.49289707730509613 -0.8605572563350102
4850000000.0 0.49207335119865303 -0.9285569858945023
4853000000.0 0.4589123261309364 -0.8813323117809307
4856000000.0 0.48101240037860216 -0.8966090110388741
4859000000.0 0.5112164862647525 -0.9380025747842817
4862000000.0 0.4967347086465299 -0.8793509810860347
4866000000.0 0.4672098770697931 -0.908400388995091
4869000000.0 0.4804501286359634 -0.9300242793382545
4872000000.0 0.45548767391982153 -0.9448425602487628
4875000000.0 0.5525899511680781 -0.9156303458624107
4878000000.0 0.4895522521696192 -0.9003710210594873
4881000000.0 0.4803808195162626 -0.9914956391762696
4884000000.0 0.48473793244873636 -0.89317071585356
4888000000.0 0.5172664117432246 -0.8928175978894214
4891000000.0 0.533561686948008 -0.9043118676805916
4894000000.0 0.4648108281447293 -0.8923498379853961
4897000000.0 0.5012652622125181 -0.8855112309974794
4900000000.0 0.5002347619179527 -0.9161153024705416
4903000000.0 0.4910394644455246 -0.9036103890709604
4906000000.0 0.5015045083486812 -0.9322432420758358
4909000000.0 0.48094591123503894 -0.9087015352245648
4912000000.0 0.4765493861398536 -0.9211551979692345
4916000000.0 0.5321089697045612 -0.9112480113292006
4919000000.0 0.5144737843234575 -0.9096267113898787
4922000000.0 0.5288833543980341 -0.8894894563143174
4925000000.0 0.4513445983712868 -0.8910702947182222
4928000000.0 0.5480721881133138 -0.8339987875518696
4931000000.0 0.5299648125730073 -0.8992002713958195
4934000000.0 0.48175503505911443 -0.8651561398876124
4938000000.0 0.46898846871357386 -0.8933344383187982
4941000000.0 0.5279858360610313 -0.8745431358309852
4944000000.0 0.4688444657582628 -0.8444356665148347
4947000000.0 0.48806650091855946 -0.8622614808350662
4950000000.0 0.4408585892442527 -0.8847067095108918
4953000000.0 0.47515883508229706 -0.9552398795711545
4956000000.0 0.4607194369293653 -0.9056433232954871
4959000000.0 0.46477583650548426 -0.910166530358946
4962000000.0 0.5017115534431765 -0.9557322237346282
4966000000.0 0.5085148027247434 -0.9071740903847005
4969000000.0 0.5235981458148663 -0.9514254061071155
4972000000.0 0.4883655711798108 -0.9074362117609532
4975000000.0 0.5090884932064308 -0.8857491501916923
4978000000.0 0.45957697117119745 -0.8942906845252806
4981000000.0 0.48430664784693056 -0.9079787250307128
4984000000.0 0.5026410968925319 -0.875322044073713
4988000000.0 0.4839721086366402 -0.8867348286769583
4991000000.0 0.5211785585137302 -0.9029734612513085
4994000000.0 0.506759433924622 -0.8972439004720763
4997000000.0 0.4718898181230144 -0.9306404613700296
5000000000.0 0.5290166395772451 -0.8878088853991771
5003000000.0 0.5216597961377105 -0.9093162712871787
5006000000.0 0.505375500597888 -0.9361564931296956
5009000000.0 0.46029722086617486 -0.8922821922870476
5012000000.0 0.48076653280321713 -0.9140402194010144
5016000000.0 0.556443171577992 -0.8985905197118235
5019000000.0 0.47791775791461905 -0.9154824109671107
5022000000.0 0.49455942942275544 -0.8893693237705756
5025000000.0 0.5291272890781429 -0.9543190380940049
5028000000.0 0.48380390098801984 -0.936305326462807
5031000000.0 0.5040371549988775 -0.9077126723192301
5034000000.0 0.5022501222239795 -0.9389554971476131
5038000000.0 0.47679689207190357 -0.882780829801814
5041000000.0 0.5127594084137693 -0.8952170688001813
5044000000.0 0.5436098825615986 -0.8818139330229375
5047000000.0 0.5062937827665432 -0.8817186188764249
5050000000.0 0.5547045906702401 -0.860645169657071
5053000000.0 0.537800585185312 -0.9579496551949849
5056000000.0 0.5574666477437812 -0.8972939813458145
5059000000.0 0.5383933404474622 -0.8831339682711222
5062000000.0 0.5196533530277683 -0.9214850802619079
5066000000.0 0.5325059789129685 -0.8893920235861729
5069000000.0 0.5169296611673279 -0.91026157711292
5072000000.0 0.5057910344001183 -0.8860638702576918
5075000000.0 0.528679609971825 -0.8721352072933355
5078000000.0 0.49353013738292517 -0.9372295010716258
5081000000.0 0.5015315399643998 -0.853626814895478
5084000000.0 0.5095682789671508 -0.8860799433040621
5088000000.0 0.5261000625423031 -0.8815967297629059
5091000000.0 0.4885820440897295 -0.9187814818232235
5094000000.0 0.47751812847317593 -0.8636309561704456
5097000000.0 0.5952175302565464 -0.8594190633495637
5100000000.0 0.4947026988102157 -0.8742586648213051
5103000000.0 0.540739913634827 -0.9184095217250248
5106000000.0 0.5459698961259261 -0.9209973426281017
5109000000.0 0.5205872870045152 -0.8690927407760687
5112000000.0 0.43891056111052257 -0.881767579556217
5116000000.0 0.44588300333138253 -0.8276436811628554
5119000000.0 0.5138518947431076 -0.909897670508396
5122000000.0 0.47909403645761717 -0.8929417148247693
5125000000.0 0.5269377370257026 -0.8919950313390497
5128000000.0 0.4903956601514242 -0.8328636131214029
5131000000.0 0.5715332994358169 -0.8861845028026241
5134000000.0 0.5009402564417527 -0.9049927095368097
5138000000.0 0.5480877984036129 -0.8785833267091125
5141000000.0 0.5496995783199334 -0.8742474609177702
5144000000.0 0.5449756937586729 -0.8334523099538608
5147000000.0 0.5243875932280253 -0.9303631691090923
5150000000.0 0.5564074140091656 -0.883243377440546
5153000000.0 0.5460222500173373 -0.901180138409263
5156000000.0 0.5417476971703714 -0.9028241805425106
5159000000.0 0.5659331615122414 -0.910869851597409
5162000000.0 0.5140037420450716 -0.8968786640503417
5166000000.0 0.5265984564260365 -0.9100502639910866
5169000000.0 0.5395789944024911 -0.9037187890416682
5172000000.0 0.5323862445948556 -0.8558892884300653
5175000000.0 0.5877512977772805 -0.8981586280305066
5178000000.0 0.512322044087074 -0.9065931402909331
