! Created with skrf 1.8.0 (http://scikit-rf.org).
# Hz S RI R 50.0 
!freq ReS11 ImS11
4000000000.0 0.3835293458420618 -0.963986028627245
4003000000.0 0.41759007726715136 -0.9689194650824511
4006000000.0 0.3286862133190783 -0.9748857681458505
4009000000.0000005 0.40748692463836916 -0.9369390096743276
4011999999.9999995 0.459875103963752 -0.964271137773121
4016000000.0 0.3561584123641409 -1.0177765610325422
4019000000.0 0.36724483614594483 -0.9338875401420303
4022000000.0000005 0.43362725089988796 -0.9427279854844904
4025000000.0000005 0.318529683515146 -0.9635105700344794
4027999999.9999995 0.35074480543689524 -0.9514173654875575
4030999999.9999995 0.3643352616076164 -0.9067808276641964
4034000000.0 0.3664876972094223 -0.9440174028069618
4038000000.0000005 0.35999177596252596 -0.9847082156521122
4041000000.0000005 0.35372863404283317 -0.9518880606639932
4043999999.9999995 0.3843036695667583 -1.0050380930452036
4046999999.9999995 0.36074073681415963 -0.9725486971439311
4050000000.0 0.3911556075283148 -0.9788054842649494
4053000000.0 0.32866976077945576 -0.9357061195159911
4056000000.0 0.3485447024971661 -0.9815903255250241
4059000000.0 0.34077977098741613 -0.9468978198888277
4062000000.0000005 0.30819080225956075 -0.9558329194393005
4066000000.0 0.32804097083396266 -0.8745717471074137
4069000000.0 0.3556430594746476 -0.9976118320046202
4072000000.0 0.3583862409802362 -0.9838864691121336
4075000000.0 0.3557189416207473 -0.9676019580455709
4078000000.0000005 0.3675801512584324 -0.9726371517557756
4081000000.0000005 0.38580958560430145 -0.9712443275961022
4083999999.9999995 0.3368505631375337 -1.0026190458715578
4088000000.0 0.39999180654542277 -0.9424151643954033
4091000000.0 0.3766349566441525 -1.0132101388330939
4094000000.0000005 0.3635829382722529 -0.9597615640105764
4097000000.0000005 0.3428129162553479 -0.9774512052421327
4099999999.9999995 0.34759819022716343 -0.9920432720367862
4102999999.9999995 0.3738465015982251 -0.9907422598249355
4106000000.0 0.3270769711523296 -1.0059759036810112
4109000000.0 0.34625985516136315 -0.9929412172426026
4112000000.0 0.3347880533149508 -0.9485317721259197
4115999999.9999995 0.3514641499000352 -0.999426461268478
4119000000.0 0.32439966151987787 -0.9660071806652895
4122000000.0 0.335361190039367 -0.9975072984598929
4125000000.0 0.32489207087958294 -0.9694869535365682
4128000000.0 0.34431668097433016 -0.9143373281436724
4131000000.0 0.3006833579600281 -0.9322213686030073
4134000000.0000005 0.32437123644852 -0.9579281777046282
4138000000.0 0.3033035121720743 -0.9503876413650472
4141000000.0 0.32490703501778173 -0.9469047021263766
4144000000.0 0.3747236820918972 -0.9717109936660364
4147000000.0000005 0.337663551213346 -0.9670393067873027
4150000000.0000005 0.3444138581012306 -1.0119608448015138
4152999999.9999995 0.3393094636075422 -0.9663981042041422
4155999999.9999995 0.3403116418545685 -1.0026889355562856
4159000000.0 0.34370024281449885 -0.9470867378628328
4162000000.0 0.3218934778778975 -0.9654431589604685
4166000000.0000005 0.34418408870268574 -0.9807543189639694
4168999999.9999995 0.3231151490558217 -0.9592475296514766
4171999999.9999995 0.3471276670320806 -0.9627315650845584
4175000000.0 0.31011965886389037 -0.9807128363501232
4178000000.0 0.33582865080219254 -0.9675770922164559
4181000000.0 0.30270920047377337 -0.9450052302134903
4184000000.0 0.3339128960283578 -0.9468616876211438
4187999999.9999995 0.31732735846131377 -0.9635287077033021
4191000000.0 0.3421186338133887 -0.9372047825435007
4194000000.0 0.3115582219455831 -0.9483742186105861
4197000000.0 0.3303624042937189 -0.9457639273215368
4200000000.0 0.3500445359999367 -0.974747165013196
4203000000.0000005 0.34672256297566584 -0.9770686338751894
4206000000.0000005 0.3396109565112309 -0.9755745519578674
4208999999.9999995 0.2981155262378543 -0.9502343985756646
4211999999.9999995 0.28947390074115914 -0.9597620104408491
4216000000.0 0.335075330659699 -0.9828737437000229
4219000000.0000005 0.3227672801904782 -0.9765994490068076
4222000000.0000005 0.31150502624169807 -0.9583816904196845
4224999999.9999995 0.31794964200637627 -0.9392327329073021
4227999999.9999995 0.3064071059993705 -0.9770179362817177
4231000000.0 0.3081603191440402 -0.9726995032254881
4234000000.0 0.30149692406932205 -0.98463425988057
4238000000.0000005 0.27794482370841866 -0.9618812092374442
4240999999.9999995 0.2764215265733023 -0.966923172322127
4244000000.0 0.31772565645083833 -0.9563726173488138
4247000000.0 0.2971320643249226 -0.9626130208094762
4250000000.0 0.28206035533971935 -0.9417193394923349
4253000000.0 0.28148087332324306 -0.9466943010659084
4256000000.0 0.30362623628781105 -1.0029915998681371
4259000000.0000005 0.26689023076387786 -0.9427571933540088
4261999999.9999995 0.26655741361661656 -0.9554866884373563
4266000000.0 0.2583054195736264 -0.97398408802947
4269000000.0 0.285933077259122 -0.9748180194404031
4272000000.0000005 0.2959677071603662 -0.9464981135170432
4275000000.0000005 0.29600685837698465 -0.9762809635598426
4277999999.9999995 0.2931850432853852 -1.0091107987006402
4280999999.9999995 0.28947060738463787 -0.9749281346093714
4284000000.0 0.25120596147091323 -0.9950014818446902
4288000000.0000005 0.30001494191343137 -0.9506562861227894
4291000000.0000005 0.2757228984747695 -0.9546023676443975
4293999999.9999995 0.25982780597324584 -0.9409846073230175
4297000000.0 0.3017235100969516 -0.9478464653407508
4300000000.0 0.27809014063936494 -0.9477119995847856
4303000000.0 0.25617828844739643 -0.9627293040560375
4306000000.0 0.3059873093497911 -0.98213194416702
4309000000.0 0.26964785337419733 -0.9580276523205014
4312000000.0 0.32276813165558205 -0.9774205476552652
4316000000.0 0.30983029549759167 -0.9603639114521821
4319000000.0 0.27498418033096095 -0.9482383294189353
4322000000.0 0.2540394905412056 -0.9771406754295184
4325000000.0 0.2665377153817516 -0.9683644918418584
4328000000.0 0.2561474037283679 -0.9689058031650843
4331000000.0 0.253802787266716 -0.9831098960644024
4334000000.0 0.24206718267552763 -0.9954454356864291
4338000000.0 0.27416616175533576 -0.9538225567710323
4341000000.0 0.30459369450906115 -1.0000419188097405
4344000000.0 0.261112276552594 -0.9808204915850068
4347000000.0 0.26517399166969313 -0.9909431125510209
4350000000.0 0.25108420916306795 -0.9538347403592746
4353000000.0 0.28222283242135193 -0.9333659742751135
4356000000.0 0.23078859479018315 -0.9796101589881423
4359000000.0 0.2258572974212692 -0.9341648130393084
4362000000.0 0.20083693622828142 -0.993858050695482
4366000000.0 0.2311913793823968 -1.0261397704142445
4369000000.0 0.22213016424041443 -0.9455144601977802
4372000000.0 0.21179323836163189 -0.9778836567082714
4375000000.0 0.24426478755405778 -0.9564319031621055
4378000000.0 0.23996247651399838 -0.9624427906633246
4381000000.0 0.23334187855683186 -0.9593202789593591
4384000000.0 0.23939980397297028 -1.0455013635798145
4388000000.0 0.22921042196104602 -0.9604142055584453
4391000000.0 0.23902765295590234 -0.9974706349001954
4394000000.0 0.21030333838374915 -0.9639078101087184
4397000000.0 0.20489600700170002 -0.9843589754981312
4400000000.0 0.2233176534887944 -1.0035544340022815
4403000000.0 0.22844095376899404 -0.9824849694287663
4406000000.0 0.20163939990068008 -0.9950096408157982
4409000000.0 0.2208609818201266 -1.002798931863884
4412000000.0 0.16721593539088098 -0.9883573107911587
4416000000.0 0.2048413617012917 -0.9861267982772656
4419000000.0 0.1882440530942468 -0.9952271549129941
4422000000.0 0.22800520316635348 -0.9682256459089711
4425000000.0 0.23671475624068078 -0.9850382663812969
4428000000.0 0.19156364173027507 -1.0043104023720766
4431000000.0 0.21928130527478756 -0.9932779050251415
4434000000.0 0.1871368518303429 -0.9828289143200288
4438000000.0 0.20493247109134832 -1.008009925729467
4441000000.0 0.21059353557017008 -1.0146977718342802
4444000000.0 0.19772783677174283 -0.9701146777091998
4447000000.0 0.17569164494557454 -0.9939964580751215
4450000000.0 0.20432658839361395 -0.9817264041998173
4453000000.0 0.18479350597739053 -1.0024169003326897
4456000000.0 0.18527811417492668 -0.982623172805708
4459000000.0 0.16724666592087872 -0.959562076108554
4462000000.0 0.18491750800037726 -1.0267369470809609
4466000000.0 0.17670997414106177 -1.0289614954199557
4469000000.0 0.19462842213814302 -0.98955818835594
4472000000.0 0.14676148518347049 -1.0038116109416562
4475000000.0 0.17914935457380887 -0.9709820678774796
4478000000.0 0.1583416793539661 -1.0187275822025534
4481000000.0 0.14605977185231273 -0.9865149463228686
4484000000.0 0.126270096746749 -0.9964183765102193
4488000000.0 0.15250046898785002 -0.9959345168073271
4491000000.0 0.16298581055867545 -0.9922534602247903
4494000000.0 0.15073477932052798 -0.9944259316363167
4497000000.0 0.17159582835480502 -0.9768183346237702
4500000000.0 0.15524739090213452 -0.9838311709104138
4503000000.0 0.1660098652988869 -1.0154801884433209
4506000000.0 0.13966733859845504 -0.9936846229450811
4509000000.0 0.13563470346829765 -0.9921053306992236
4512000000.0 0.13664462224054402 -0.9768915918374008
4516000000.0 0.1504558755181724 -1.0200105856689912
4519000000.0 0.15707074457414816 -0.9867849568228673
4522000000.0 0.12436845701612093 -0.9952146234497763
4525000000.0 0.1642971483763081 -1.00300541369033
4528000000.0 0.12815146866296862 -1.0439518354557267
4531000000.0 0.1390089546782039 -0.9955264162867581
4534000000.0 0.14325036419927895 -0.9866877811550279
4538000000.0 0.11859829569032332 -1.0172058632737864
4541000000.0 0.09340202647619472 -0.9845633879043494
4544000000.0 0.10198630949099535 -1.0201968294142534
4547000000.0 0.1239008173206273 -0.9913064250916425
4550000000.0 0.11007931744668936 -1.0191665861789208
4553000000.0 0.08509286307761388 -1.0218810104734166
4556000000.0 0.10353845930904815 -0.9944636557585543
4559000000.0 0.11509567667579118 -0.999685300890691
4562000000.0 0.11349279700241066 -1.0133036032476723
4566000000.0 0.11919009973186145 -1.012044358797349
4569000000.0 0.08297785318272549 -1.0087081955164423
4572000000.0 0.07576376087183018 -1.0043810712500645
4575000000.0 0.06526644270367427 -0.9996768388491697
4578000000.0 0.10187586521615394 -1.0298448315695081
4581000000.0 0.07321158237847059 -1.0138138245519162
4584000000.0 0.09751557355178753 -1.010614085937569
4588000000.0 0.08695896491394789 -1.0141066260186837
4591000000.0 0.08397966268588924 -1.0170937544196765
4594000000.0 0.07608216671513202 -1.0053920436107724
4597000000.0 0.0666360984158273 -1.009732056676941
4600000000.0 0.06720220145384842 -1.0127230290315585
4603000000.0 0.061663564044066976 -1.0004325752553
4606000000.0 0.06804242453754733 -1.049852834524034
4609000000.0 0.07861461656256319 -1.0111649656764747
4612000000.0 0.05825062012709875 -1.0139017407782844
4616000000.0 0.04877741054318768 -0.9915829920805692
4619000000.0 0.046860368911562145 -1.0175040608481323
4622000000.0 0.03221064747955418 -1.0163216399644932
4625000000.0 -0.002153513782652605 -1.0297355636108743
4628000000.0 0.050514700957345365 -1.0607403481287154
4631000000.0 0.04917197407379856 -1.0215365087416854
4634000000.0 0.020613032455980174 -1.033992594702689
4638000000.0 0.051962756080621314 -1.0204023906172028
4641000000.0 0.028447551432220747 -1.0067596811346404
4644000000.0 0.04234888367810022 -1.0049934992176384
4647000000.0 0.058922627395534916 -1.0333478355938313
4650000000.0 0.018257609103832756 -1.0037480967682564
4653000000.0 0.03166867423082942 -1.0178571807954995
4656000000.0 0.032948712950682774 -1.0336638052382672
4659000000.0 0.017579183770094264 -1.017427736750374
4662000000.0 0.01667238369369317 -1.0164865181136769
4666000000.0 -0.03475381472783312 -1.0131399968110115
4669000000.0 0.006210743712544542 -1.0249286805397684
4672000000.0 -0.021746966590483877 -1.0349600361393883
4675000000.0 0.002277351187456325 -1.0538689353093464
4678000000.0 -0.030270963082929564 -0.9864150509505862
4681000000.0 -0.011490240873171173 -1.0571431157074385
4684000000.0 -0.03348736792711078 -1.068345293307673
4688000000.0 -0.033336844458500485 -1.052572492673162
4691000000.0 0.013953173476702482 -1.044354213308738
4694000000.0 0.01590943003088026 -1.001276997207409
4697000000.0 -0.03033932981765571 -0.9827852745979202
4700000000.0 -0.023003680508834976 -1.0126691142368658
4703000000.0 0.03708683226689718 -0.9556577107963515
4706000000.0 -0.04669003648508372 -1.0497772386190847
4709000000.0 -0.03384773746091288 -1.0073692846730475
4712000000.0 -0.012368402839717551 -1.0353711850428937
4716000000.0 -0.059940761982276006 -1.005004499442841
4719000000.0 0.023783856786400926 -1.0340198006077996
4722000000.0 -0.02224137680289872 -1.007593440367339
4725000000.0 0.0038260631459772435 -1.0284602821167104
4728000000.0 -0.042802797362757716 -1.0150850820852122
4731000000.0 -0.09663770934845665 -1.0495630587123574
4734000000.0 -0.04684531255671549 -1.0015850878612083
4738000000.0 -0.07482231788206048 -1.0813813732027142
4741000000.0 -0.0632728346219062 -1.0558496600443554
4744000000.0 -0.05990079235110286 -1.0204970881441902
4747000000.0 -0.006390281196341149 -0.9883512028434499
4750000000.0 -0.06384044489459031 -1.0409701302210628
4753000000.0 -0.00395077153467005 -1.030488031501565
4756000000.0 -0.0765309040502548 -1.0214429753658683
4759000000.0 -0.08055213456844298 -1.0561464771004736
4762000000.0 -0.11450320268380691 -1.0495772467913573
4766000000.0 -0.0823780879290146 -1.0298545492450024
4769000000.0 -0.0712381596479387 -1.0078047497834985
4772000000.0 -0.07065760287279069 -1.050897493028133
4775000000.0 -0.11841204552486664 -1.0560017958928778
4778000000.0 -0.1479210104296316 -1.0282801173503306
4781000000.0 -0.08477345702819342 -1.0083821285779253
4784000000.0 -0.10941967357962162 -1.0200403738926442
4788000000.0 -0.13757129155075207 -1.0471265655650925
4791000000.0 -0.13509175055451506 -1.0159292282675116
4794000000.0 -0.0954955735774134 -1.059449879530433
4797000000.0 -0.13916783783309594 -1.0067500625993508
4800000000.0 -0.14250776768189888 -0.9909850006693732
4803000000.0 -0.1772491487703086 -1.0175311679480927
4806000000.0 -0.14475080903233062 -1.0504183101878242
4809000000.0 -0.1938949103431248 -1.0196610733378884
4812000000.0 -0.1741293435406321 -1.0179625936516894
4816000000.0 -0.10417493017357515 -1.0185361044466368
4819000000.0 -0.11905017311776206 -1.0466569899880867
4822000000.0 -0.13997679955691328 -1.07584842130654
4825000000.0 -0.12477935439017962 -1.050647808195813
4828000000.0 -0.14405731305326674 -1.018295804314615
4831000000.0 -0.19556742103273467 -1.0353666402499109
4834000000.0 -0.13787097696296913 -1.0420681396278402
4838000000.0 -0.20837937626315217 -1.0143114577934969
4841000000.0 -0.1870381347223441 -0.9934289134638763
4844000000.0 -0.14141904596176924 -1.0423712327315253
4847000000.0 -0.1754957922371445 -0.9889939389187966
4850000000.0 -0.17891584666871357 -1.0406445792313521
4853000000.0 -0.17179088968443323 -0.9891851926508292
4856000000.0 -0.19043586181609784 -1.0194293558078542
4859000000.0 -0.23131080259132208 -1.0512640466174505
4862000000.0 -0.1930236619620807 -1.0076434260547376
4866000000.0 -0.2139688519154047 -1.017890076614238
4869000000.0 -0.20665997992789376 -1.012999061258128
4872000000.0 -0.23464046800361354 -1.0253037178329842
4875000000.0 -0.18482818937610496 -1.0810480226249568
4878000000.0 -0.2196498734956891 -1.0267784302171603
4881000000.0 -0.2791657666714992 -1.0713107655875895
4884000000.0 -0.21314388568668763 -1.021209590898446
4888000000.0 -0.1980816456739522 -1.018267160098328
4891000000.0 -0.1942529771557674 -1.008606666799467
4894000000.0 -0.2716990270303541 -0.9717132818835839
4897000000.0 -0.21018465359172778 -1.0265046399540452
4900000000.0 -0.24016685550961048 -1.012677471468604
4903000000.0 -0.25821079021906707 -1.0316500792990857
4906000000.0 -0.26528814775081766 -1.040321565486267
4909000000.0 -0.25864329412834053 -1.0224716368875213
4912000000.0 -0.28349604330292333 -1.0161654560790292
4916000000.0 -0.27782452949217173 -1.0618037025175249
4919000000.0 -0.237166634488154 -1.045138100431315
4922000000.0 -0.24520501949560053 -0.9709309125795097
4925000000.0 -0.3307452199204324 -0.9800965650104059
4928000000.0 -0.24613009303336375 -0.9961608008874799
4931000000.0 -0.2960525858980112 -1.0264037188112605
4934000000.0 -0.27379422163081124 -0.9576904771130466
4938000000.0 -0.3576771036499335 -0.9886635056311718
4941000000.0 -0.3062306086671649 -0.9542076063601314
4944000000.0 -0.3023206848843744 -0.9711377780416605
4947000000.0 -0.34170384695732386 -0.9815320610904923
4950000000.0 -0.2958966243346487 -0.9876692753345285
4953000000.0 -0.3714111989140511 -1.0084676255352802
4956000000.0 -0.3694916106422698 -0.9937216069893569
4959000000.0 -0.37115785603507584 -0.9311147921020655
4962000000.0 -0.34778577041235015 -1.0031411202022091
4966000000.0 -0.3547542319638304 -0.9804335767545531
4969000000.0 -0.32843238317933504 -1.014317498206981
4972000000.0 -0.3664021508270978 -0.9605955428377027
4975000000.0 -0.3911788050687049 -0.972534069968439
4978000000.0 -0.36316985122368134 -0.978946932150202
4981000000.0 -0.38989382505066195 -0.9807124246291768
4984000000.0 -0.3719230065041705 -0.9454614541077677
4988000000.0 -0.38737437659372836 -0.9830955786034985
4991000000.0 -0.3618283605490006 -0.9843108668251264
4994000000.0 -0.4148446446261834 -0.948229112675818
4997000000.0 -0.43707244939436973 -0.936337299458804
5000000000.0 -0.4222574288251641 -0.9718353688427606
5003000000.0 -0.4620825477338903 -0.9675858840124889
5006000000.0 -0.43903223950634607 -0.972790428217738
5009000000.0 -0.455102705437581 -0.9073280277452974
5012000000.0 -0.49395421605347156 -0.9675029103503546
5016000000.0 -0.4336838089980995 -0.9993325259317056
5019000000.0 -0.45903497394480963 -0.918412632751883
5022000000.0 -0.48487910066465734 -0.8986196467185636
5025000000.0 -0.4688104886345417 -0.929004781944754
5028000000.0 -0.4665743432513747 -0.9061069718380942
5031000000.0 -0.5236558936241312 -0.9154601567945566
5034000000.0 -0.507100143934915 -0.9109969525337817
5038000000.0 -0.48153179821067243 -0.8861757683804354
5041000000.0 -0.4889821864258769 -0.9079592310579886
5044000000.0 -0.49394643851512476 -0.8770317069716899
5047000000.0 -0.5055015635656022 -0.8892659546275821
5050000000.0 -0.5120244751807288 -0.9040080402902242
5053000000.0 -0.5843468308982738 -0.8676811495800147
5056000000.0 -0.5478026635324053 -0.8665149534214068
5059000000.0 -0.6028659148619107 -0.8569515227961355
5062000000.0 -0.618170262584394 -0.8561407044602796
5066000000.0 -0.620948884575671 -0.9014618850190524
5069000000.0 -0.6084491023577892 -0.8929130647458117
5072000000.0 -0.5747183484516998 -0.9210984343666798
5075000000.0 -0.5656769195792765 -0.8635122808154013
5078000000.0 -0.5723021855088973 -0.8657414401440223
5081000000.0 -0.6448961137813995 -0.8266306553235668
5084000000.0 -0.6356581710640443 -0.7819679767922133
5088000000.0 -0.6526659204458363 -0.8357750627306169
5091000000.0 -0.6388865913317423 -0.7943782753763255
5094000000.0 -0.6379573003742467 -0.7732036207806026
5097000000.0 -0.6236157134700034 -0.7405465099315723
5100000000.0 -0.6861158900821281 -0.8057676590777425
5103000000.0 -0.715751642103618 -0.7312698658408201
5106000000.0 -0.6870103541446061 -0.7202181859705539
5109000000.0 -0.633065382830962 -0.773242310147798
5112000000.0 -0.7465224751837646 -0.7329912812739027
5116000000.0 -0.7347304987180376 -0.7773779223678674
5119000000.0 -0.7941311538259133 -0.6911593158307192
5122000000.0 -0.7147308566490704 -0.6978349100000671
5125000000.0 -0.6167018789065795 -0.7735864507600861
5128000000.0 -0.724848962615564 -0.7160717000787218
5131000000.0 -0.7649851691860533 -0.7397255940824004
5134000000.0 -0.7451582182910332 -0.6420104997007074
5138000000.0 -0.747145153874146 -0.6668176752011643
5141000000.0 -0.7922801408284965 -0.7378405733425406
5144000000.0 -0.7590375642073268 -0.5771083788525553
5147000000.0 -0.8230042484545794 -0.6343405224039391
5150000000.0 -0.8594841316108578 -0.62064610709448
5153000000.0 -0.8328311051426801 -0.6436897085976987
5156000000.0 -0.7836472246981074 -0.5674723747395809
