! Created with skrf 1.8.0 (http://scikit-rf.org).
# Hz S RI R 50.0 
!freq ReS11 ImS11
4000000000.0 0.5419555217009557 -0.8327272193246492
4003000000.0 0.57757108279002 -0.9394564397974278
4006000000.0 0.5108243466450212 -0.8746757752436403
4009000000.0000005 0.5486399275086902 -0.8702000562343248
4011999999.9999995 0.6112376371974962 -0.904845299129486
4016000000.0 0.5057967433390438 -0.9149400315502942
4019000000.0 0.521470675209435 -0.8893877294266804
4022000000.0000005 0.619238038566822 -0.8386387328113842
4025000000.0000005 0.48118072755725855 -0.9040952990716141
4027999999.9999995 0.48245377116531574 -0.9172709226283757
4030999999.9999995 0.5415737140393208 -0.8173985353978521
4034000000.0 0.5640637115318357 -0.8659395587811415
4038000000.0000005 0.542988000268189 -0.9134234825984348
4041000000.0000005 0.5336532451219707 -0.8591471203093516
4043999999.9999995 0.5720343408599742 -0.9269213991846238
4046999999.9999995 0.5829960094258493 -0.8994473612436749
4050000000.0 0.5260333300704421 -0.8848032034799634
4053000000.0 0.5106779099696956 -0.8669481778675902
4056000000.0 0.5304006509707164 -0.8350037068491871
4059000000.0 0.5660776929303779 -0.8953758732293069
4062000000.0000005 0.557368423285333 -0.8783977972332911
4066000000.0 0.5107306453718439 -0.8506497684570355
4069000000.0 0.5126251377458716 -0.9048486763747451
4072000000.0 0.599836119501905 -0.8331953255197235
4075000000.0 0.6054299824063527 -0.866723218454969
4078000000.0000005 0.5408207408775237 -0.9124203004734743
4081000000.0000005 0.6157270538385081 -0.8399333627616851
4083999999.9999995 0.549954570448589 -0.8926394072454427
4088000000.0 0.5652448244637324 -0.8601293605634103
4091000000.0 0.5681484733432302 -0.9045583215747207
4094000000.0000005 0.5569745016955019 -0.8772106035737335
4097000000.0000005 0.4966726564617096 -0.8578433960568935
4099999999.9999995 0.5209339851102976 -0.8469210738847053
4102999999.9999995 0.5743834857141393 -0.8959017718413449
4106000000.0 0.5372488894939838 -0.9182064163244058
4109000000.0 0.5382530829652354 -0.9077644398882877
4112000000.0 0.5504271107636014 -0.8963681446182817
4115999999.9999995 0.5411279629279306 -0.868727531186172
4119000000.0 0.5350457456885577 -0.8833710443817485
4122000000.0 0.5476136374509587 -0.9010397626560358
4125000000.0 0.5155304930707044 -0.8917439083272474
4128000000.0 0.5264952492776994 -0.8552957153267337
4131000000.0 0.5469684088049851 -0.8887664446388938
4134000000.0000005 0.5416468219566156 -0.8492145906557349
4138000000.0 0.5534725595303468 -0.8473182771661575
4141000000.0 0.5281541671988139 -0.8430640271801099
4144000000.0 0.5616374915870715 -0.8971408141320143
4147000000.0000005 0.5162255302221905 -0.864390980649833
4150000000.0000005 0.5538204094666161 -0.9178890909792756
4152999999.9999995 0.5313475076013633 -0.8677685802283523
4155999999.9999995 0.5643173437948295 -0.8855527425437985
4159000000.0 0.5507600055879784 -0.8552343616037063
4162000000.0 0.5509977793936834 -0.8860946942546899
4166000000.0000005 0.5625414719123457 -0.9038447444238971
4168999999.9999995 0.5044510027023035 -0.8865928378118912
4171999999.9999995 0.5710567097505681 -0.8877522739428453
4175000000.0 0.543125984846647 -0.8913148325306264
4178000000.0 0.5389474494814415 -0.884072293674751
4181000000.0 0.5363796817782172 -0.8790995455324887
4184000000.0 0.5499059304908449 -0.8748584768231552
4187999999.9999995 0.5237929774844108 -0.8856064996253228
4191000000.0 0.5571155897975685 -0.8397257465074667
4194000000.0 0.5389383936345149 -0.8467919209770325
4197000000.0 0.5597240575630419 -0.8783480305126709
4200000000.0 0.560845010957867 -0.8538483807136336
4203000000.0000005 0.575606141951607 -0.87486273794509
4206000000.0000005 0.5473748998951325 -0.8742306251200849
4208999999.9999995 0.552347118794857 -0.8536189965141351
4211999999.9999995 0.515172338213721 -0.869762056660489
4216000000.0 0.5483862253873036 -0.8647540060390542
4219000000.0000005 0.5794713666522153 -0.8777330587191048
4222000000.0000005 0.5362357993719515 -0.8552707275921861
4224999999.9999995 0.5421480774859299 -0.8549592641623472
4227999999.9999995 0.5390284523080703 -0.8867950519958059
4231000000.0 0.5392290055907416 -0.8529141673849104
4234000000.0 0.5423588804953147 -0.8589128658642469
4238000000.0000005 0.5425067064932814 -0.9041533623338882
4240999999.9999995 0.5240533520909985 -0.8821033729058507
4244000000.0 0.5477893498343299 -0.8572364532235984
4247000000.0 0.5455407454130696 -0.8806057435045216
4250000000.0 0.5130471550846334 -0.8558667909468034
4253000000.0 0.5134723081686091 -0.8479548879582881
4256000000.0 0.550117271128122 -0.8783125777417994
4259000000.0000005 0.5077123266113168 -0.869413671828579
4261999999.9999995 0.5323390192779813 -0.8732858110542419
4266000000.0 0.5179780460576249 -0.8804026999167927
4269000000.0 0.5511430472788947 -0.8601998750224483
4272000000.0000005 0.5667883906112544 -0.8731036226046521
4275000000.0000005 0.5588662358672317 -0.8679774467371544
4277999999.9999995 0.5450272944944086 -0.865301442267359
4280999999.9999995 0.5588220927964809 -0.8629343742719031
4284000000.0 0.5052512229666032 -0.8845224703897431
4288000000.0000005 0.5611054670302233 -0.8637866659185355
4291000000.0000005 0.5281004261759961 -0.8367131183159173
4293999999.9999995 0.5263038541296059 -0.8642735794444039
4297000000.0 0.5703504492794876 -0.8577802095314533
4300000000.0 0.5347713201696511 -0.8455871343715006
4303000000.0 0.5304882042557546 -0.8728768933953676
4306000000.0 0.586062058566868 -0.8421782582635612
4309000000.0 0.570332703818716 -0.8297925253916554
4312000000.0 0.5778589758549082 -0.8832769419733726
4316000000.0 0.5792079786982968 -0.8626893805960129
4319000000.0 0.5405174242563036 -0.8383081233803444
4322000000.0 0.5433117114268373 -0.8456257177995439
4325000000.0 0.5336496159061167 -0.8375526922086259
4328000000.0 0.5503309431896496 -0.8237013455759847
4331000000.0 0.5032254249655868 -0.8527580994913155
4334000000.0 0.542034505429375 -0.8646449840877425
4338000000.0 0.5515496935179199 -0.837353243094199
4341000000.0 0.554988718475414 -0.863256648404324
4344000000.0 0.5508687311443577 -0.859682096770016
4347000000.0 0.5230093123547369 -0.8842774161291781
4350000000.0 0.5366211986608693 -0.8325431569233988
4353000000.0 0.5346833987182122 -0.8211492402919734
4356000000.0 0.49849715962575875 -0.8525052861587462
4359000000.0 0.5103880959818826 -0.8071280653696462
4362000000.0 0.5134178111328839 -0.8817101212935732
4366000000.0 0.5428715199868432 -0.874589122130652
4369000000.0 0.512161946950654 -0.821378176585056
4372000000.0 0.4942504346737272 -0.8812504242791575
4375000000.0 0.5410183693058864 -0.8498046493621009
4378000000.0 0.5195391314910558 -0.8369489167007532
4381000000.0 0.5345992491262537 -0.8459112222023303
4384000000.0 0.5625102909162568 -0.9115324080596112
4388000000.0 0.5263285093877482 -0.8362340066404855
4391000000.0 0.5238576436705478 -0.8640269537399405
4394000000.0 0.5204289875338167 -0.843617866602891
4397000000.0 0.5157478989601152 -0.8662405454789537
4400000000.0 0.5412894554729069 -0.8876107843291554
4403000000.0 0.54105120177826 -0.8680825845785675
4406000000.0 0.5156981334182247 -0.8771093255672652
4409000000.0 0.5385033051583417 -0.905684820417842
4412000000.0 0.48104681872402616 -0.8854338876897259
4416000000.0 0.501888171614297 -0.8515951897589304
4419000000.0 0.507981045740032 -0.8732852472613973
4422000000.0 0.5242430262630291 -0.8647495288850764
4425000000.0 0.5670345967371473 -0.8589429901838405
4428000000.0 0.5128335399242322 -0.8682890904014745
4431000000.0 0.538846098621557 -0.8832628451691616
4434000000.0 0.5170233946982296 -0.8508647700090957
4438000000.0 0.5339942929044559 -0.8755636408509014
4441000000.0 0.5468700090259035 -0.8715528912768649
4444000000.0 0.5320626938626589 -0.8640602826037393
4447000000.0 0.511317736284521 -0.8746177950699474
4450000000.0 0.5140838533846873 -0.8430902790740714
4453000000.0 0.5290358003023308 -0.8873494818470562
4456000000.0 0.5023087625985634 -0.8490018071514412
4459000000.0 0.4842205861239083 -0.8423098876547483
4462000000.0 0.5508577080981407 -0.9125413679537385
4466000000.0 0.53486606657794 -0.8983605705814077
4469000000.0 0.5565928116476903 -0.8544308850561444
4472000000.0 0.5214033869425629 -0.8891713622134021
4475000000.0 0.49136991127497376 -0.8398464016280023
4478000000.0 0.5167620680823553 -0.910463923934618
4481000000.0 0.48488283088476225 -0.8563763607482117
4484000000.0 0.4676889637892261 -0.8988570378072491
4488000000.0 0.4953781372349062 -0.8730680626327059
4491000000.0 0.5224683015545462 -0.8696524016908
4494000000.0 0.5190699390936444 -0.856787870302627
4497000000.0 0.5128860943534634 -0.847989913113687
4500000000.0 0.5288260324631474 -0.8778092147954828
4503000000.0 0.54770859554541 -0.8884256748054407
4506000000.0 0.5011176866999251 -0.8703093525381239
4509000000.0 0.49561272140608525 -0.8517313460762053
4512000000.0 0.5012660914806071 -0.8672851807823547
4516000000.0 0.5319160979846096 -0.8876261967510256
4519000000.0 0.5153593031645267 -0.8432010857614944
4522000000.0 0.5104076071187761 -0.8691845749894203
4525000000.0 0.5539210889358576 -0.8457289816386692
4528000000.0 0.5115236356241213 -0.8875347283698638
4531000000.0 0.520846135365246 -0.8566366420139622
4534000000.0 0.48570552738327266 -0.8559096940034545
4538000000.0 0.5156268619091353 -0.8832059506300132
4541000000.0 0.4807238015493769 -0.8723876380131058
4544000000.0 0.5012497083816984 -0.8473183418571696
4547000000.0 0.5134127235650685 -0.8718064886635946
4550000000.0 0.4937136116803194 -0.8934076563419064
4553000000.0 0.5072272556140827 -0.8796350252659288
4556000000.0 0.4925244668569936 -0.8720399301828596
4559000000.0 0.49848285590766916 -0.8824880759305638
4562000000.0 0.49757879113693904 -0.8886196168473013
4566000000.0 0.5039638681768513 -0.8697862434697399
4569000000.0 0.48150342162315907 -0.8468701364334286
4572000000.0 0.493262137031762 -0.8774215968139175
4575000000.0 0.4797691084527764 -0.8865884930034531
4578000000.0 0.5357064387386096 -0.8788883972961321
4581000000.0 0.4868003097735255 -0.9105251321508789
4584000000.0 0.5004410555120827 -0.8684216353849363
4588000000.0 0.5318619397309173 -0.8896845848294119
4591000000.0 0.5147936509421178 -0.864161282642621
4594000000.0 0.4823962534255867 -0.8837874185529531
4597000000.0 0.5110592403443015 -0.8968946047519509
4600000000.0 0.47877285051823104 -0.8814328449730792
4603000000.0 0.5057001312765294 -0.8979973911732507
4606000000.0 0.5141156161092086 -0.8823806836811848
4609000000.0 0.49123649681324455 -0.8799025082956593
4612000000.0 0.5106189669502501 -0.8864246542806479
4616000000.0 0.49306977727830936 -0.8664451621300994
4619000000.0 0.5105770364747231 -0.9041201286616687
4622000000.0 0.5088837942127409 -0.8736709995803957
4625000000.0 0.4586677262511848 -0.8785822141571135
4628000000.0 0.4879005849592932 -0.8732477964366068
4631000000.0 0.48721957173241526 -0.8781292576928642
4634000000.0 0.4906787981221973 -0.887135039330279
4638000000.0 0.4839994900487551 -0.8877964576884428
4641000000.0 0.4983230992154305 -0.8774530503964068
4644000000.0 0.4935331678215178 -0.8844175954772286
4647000000.0 0.5042406653166688 -0.8926285549075126
4650000000.0 0.4623055180964926 -0.9023216324031762
4653000000.0 0.512154917286956 -0.8998266827381246
4656000000.0 0.4871641902797599 -0.888272027883541
4659000000.0 0.49126612737581765 -0.89600569883837
4662000000.0 0.4933454997576184 -0.8919128596810244
4666000000.0 0.49431925998672105 -0.8896302300549457
4669000000.0 0.49734401591758415 -0.8804670147650097
4672000000.0 0.47277788479947674 -0.9055063525348468
4675000000.0 0.450065446456083 -0.9106121453077741
4678000000.0 0.4644402654576363 -0.8795201628493194
4681000000.0 0.4661058136430674 -0.9082684024647003
4684000000.0 0.45768711875843665 -0.8886952763653447
4688000000.0 0.4817093865442399 -0.8892232772698754
4691000000.0 0.5168515298330448 -0.8764119323663399
4694000000.0 0.4967295440955199 -0.8909356113189852
4697000000.0 0.4459353915433292 -0.8676983453963435
4700000000.0 0.4983373701023711 -0.8839150695213727
4703000000.0 0.5011748918288045 -0.8405978903732867
4706000000.0 0.47917789328086274 -0.8680619833379739
4709000000.0 0.4866260295675476 -0.8819876951958234
4712000000.0 0.4866219967760583 -0.9076735618989942
4716000000.0 0.500687431467991 -0.8833057762202983
4719000000.0 0.5286168568607142 -0.8673103629951743
4722000000.0 0.5125119382009952 -0.8918392866043465
4725000000.0 0.4777498656565611 -0.8954857658548755
4728000000.0 0.49255320691292637 -0.886156246610685
4731000000.0 0.49913036170613817 -0.9168616580835689
4734000000.0 0.4902368780019605 -0.8581681504081486
4738000000.0 0.5169922159772945 -0.9310314240333865
4741000000.0 0.48765444444977557 -0.9130027992750278
4744000000.0 0.46615742096800633 -0.887706052114816
4747000000.0 0.4659206704493629 -0.8679172007812874
4750000000.0 0.5086864808247616 -0.905408122233803
4753000000.0 0.4864188927270933 -0.9004005299313342
4756000000.0 0.47393785184153575 -0.8915212091217384
4759000000.0 0.5144821284914434 -0.9107557011175852
4762000000.0 0.45987621749826907 -0.9275340642695101
4766000000.0 0.4963824768455866 -0.8850427711512568
4769000000.0 0.4781928586173548 -0.9106239369115438
4772000000.0 0.482645894225029 -0.9025617606406574
4775000000.0 0.46991486948213024 -0.937932441023478
4778000000.0 0.49078144460290435 -0.9254681475984529
4781000000.0 0.49544958114056503 -0.8921142834118021
4784000000.0 0.49724859823714784 -0.8874955872676646
4788000000.0 0.5045512839313628 -0.9390898776550887
4791000000.0 0.47157773374328094 -0.8920912244514754
4794000000.0 0.5186765786186502 -0.9181841235878531
4797000000.0 0.46980995457454205 -0.9175959037362704
4800000000.0 0.46542360516629766 -0.875471939054276
4803000000.0 0.4549959160525554 -0.8991872157071342
4806000000.0 0.49156277753536903 -0.9251447998210656
4809000000.0 0.431346471863707 -0.9183418370799262
4812000000.0 0.44551270767677065 -0.9009378264421871
4816000000.0 0.513089688757763 -0.8827697502263742
4819000000.0 0.5162211918527203 -0.9294245834037329
4822000000.0 0.5143114730818339 -0.9139621679486893
4825000000.0 0.514317169180464 -0.9148896338343575
4828000000.0 0.4849995302303467 -0.9055226776994463
4831000000.0 0.4652800761126539 -0.9455153690943469
4834000000.0 0.5034643389932254 -0.8916309693920997
4838000000.0 0.468061115915937 -0.9406029317215194
4841000000.0 0.4627540812615326 -0.8827239831250374
4844000000.0 0.5132086308452535 -0.9133124618430564
4847000000.0 0.4866704974580742 -0.8672661634632532
4850000000.0 0.4764904731537747 -0.931632207696395
4853000000.0 0.4630359921547424 -0.8743790038378194
4856000000.0 0.45967973317865307 -0.8955697088344117
4859000000.0 0.48414146854668005 -0.9169251698986975
4862000000.0 0.5003951145428115 -0.8792968328816395
4866000000.0 0.4841359577025185 -0.938691062571151
4869000000.0 0.4492568363005687 -0.917816017827573
4872000000.0 0.4705912788747098 -0.9587968620183416
4875000000.0 0.5514281868725769 -0.9087232211816507
4878000000.0 0.49003181644464333 -0.9051706290909247
4881000000.0 0.47831967547528387 -0.9827614876949587
4884000000.0 0.5030717745280451 -0.906316181917371
4888000000.0 0.5150684859879499 -0.8909629305766221
4891000000.0 0.5033852398797889 -0.8957156582776763
4894000000.0 0.47133096006791975 -0.9048036196918104
4897000000.0 0.5051781988537487 -0.8852850185354475
4900000000.0 0.4844371842398573 -0.9410989873472512
4903000000.0 0.48055894677738276 -0.9010975775483453
4906000000.0 0.4905049585103785 -0.9437589460437982
4909000000.0 0.5080648008870643 -0.933601584104939
4912000000.0 0.5096118423477618 -0.9447633081180586
4916000000.0 0.5101469948203342 -0.9262137452897377
4919000000.0 0.5818643628720228 -0.9479076973997766
4922000000.0 0.5275041387646353 -0.8838023186068131
4925000000.0 0.47025402480628203 -0.9204060084716712
4928000000.0 0.5608011167258514 -0.8825991007800198
4931000000.0 0.5365244557535235 -0.8977466907387963
4934000000.0 0.4871504323567008 -0.887521713705287
4938000000.0 0.44879058720686926 -0.8938701948225777
4941000000.0 0.4997204357734594 -0.8815114946600529
4944000000.0 0.48994753649356343 -0.8364999223988514
4947000000.0 0.46891314264513173 -0.8839088245251785
4950000000.0 0.4778266203164271 -0.8804188026410493
4953000000.0 0.4581511169955616 -0.9644252965570456
4956000000.0 0.47340658115374884 -0.9120743609737717
4959000000.0 0.42616558014849115 -0.8960529043248221
4962000000.0 0.47266129814614777 -0.9299510142586388
4966000000.0 0.5214805968426 -0.92876299559388
4969000000.0 0.5240733873863557 -0.9190522397151489
4972000000.0 0.48040819807628365 -0.895260389497118
4975000000.0 0.5135004139267522 -0.8826383250304549
4978000000.0 0.4829019743226516 -0.9058534193994826
4981000000.0 0.4842678805040601 -0.9020911038734617
4984000000.0 0.4933395079788879 -0.8746686421564687
4988000000.0 0.5265777916798909 -0.8845304649038168
4991000000.0 0.539029161187337 -0.898150015685611
4994000000.0 0.5178093823388438 -0.8846867105729678
4997000000.0 0.4882817762557907 -0.9203757391723651
5000000000.0 0.5324169548368193 -0.9451095256300399
5003000000.0 0.551885158421219 -0.9367875232449159
5006000000.0 0.5235069284573568 -0.9505669641252562
5009000000.0 0.488427771127243 -0.8758531290819531
5012000000.0 0.4777294672256576 -0.9133442347829493
5016000000.0 0.5330563115949356 -0.9156440300413968
5019000000.0 0.489963896793511 -0.9326087438218083
5022000000.0 0.48044093950894895 -0.9257806427214773
5025000000.0 0.5372888425413714 -0.9349904682376294
5028000000.0 0.47831648026837936 -0.8947632141936368
5031000000.0 0.4980270537661004 -0.900499477917083
5034000000.0 0.48910634297422656 -0.9510609511260233
5038000000.0 0.4750703947096877 -0.869681669864992
5041000000.0 0.537743363481634 -0.9049457244758121
5044000000.0 0.5189756739319391 -0.864549164363017
5047000000.0 0.5190713791269259 -0.9255131360334178
5050000000.0 0.5890238004473802 -0.8692245874197475
5053000000.0 0.5269627386931052 -0.9330352778399591
5056000000.0 0.5391771407531297 -0.9179618123795812
5059000000.0 0.5787351039416742 -0.8923351211864892
5062000000.0 0.48481594383514287 -0.9228099872682397
5066000000.0 0.5320331560169038 -0.8946436653667305
5069000000.0 0.5058613524165232 -0.9027343962072396
5072000000.0 0.5009156810363791 -0.917500506835284
5075000000.0 0.542461309938078 -0.9063145479285042
5078000000.0 0.495941111437523 -0.9354350603113077
5081000000.0 0.462826347149239 -0.8707510390164366
5084000000.0 0.5154591964155353 -0.9300819098790811
5088000000.0 0.5293886609386435 -0.8845758307401531
5091000000.0 0.5005616471940169 -0.9064408202277824
5094000000.0 0.5212373500409457 -0.9057622733739243
5097000000.0 0.5640336066578779 -0.8734164950691793
5100000000.0 0.5187724577398464 -0.9086802130121638
5103000000.0 0.5224429340001446 -0.9034750563152382
5106000000.0 0.5717879402376391 -0.9202805966771909
5109000000.0 0.5399000380208288 -0.9058368062648153
5112000000.0 0.4771841298634633 -0.8714840970297393
5116000000.0 0.5231842534757427 -0.8852470637004797
5119000000.0 0.5092860713764773 -0.9035329089054616
5122000000.0 0.5257987135188131 -0.8492405175200742
5125000000.0 0.5618927039224076 -0.8554610769018569
5128000000.0 0.5211335828636569 -0.8744684524011392
5131000000.0 0.5219281310041921 -0.8859865087236152
5134000000.0 0.5329988721148913 -0.9031233479929991
5138000000.0 0.5173895172789182 -0.8585790444472422
5141000000.0 0.5479040683087618 -0.8564574451060428
5144000000.0 0.5926201274211107 -0.8725710155358384
5147000000.0 0.5330178489176622 -0.9282815543360716
5150000000.0 0.5326825971978598 -0.9027131794847604
5153000000.0 0.5363273036619536 -0.8987484124440178
5156000000.0 0.5483996750034578 -0.878615848797048
5159000000.0 0.5872246976040307 -0.9413524360122203
5162000000.0 0.5108484122499756 -0.9029494274905812
5166000000.0 0.5552368255796853 -0.8875493916028372
5169000000.0 0.5316550770176236 -0.9493165560832046
5172000000.0 0.5198309538177893 -0.8722318069943231
5175000000.0 0.601033094195631 -0.9027649281570165
5178000000.0 0.5407223858068149 -0.8860177791030903
