! Created with skrf 1.8.0 (http://scikit-rf.org).
# Hz S RI R 50.0 
!freq ReS11 ImS11
4000000000.0 -0.9315256180613772 -0.37002631772763883
4003000000.0 -0.9298091410782653 -0.35084313104424764
4006000000.0 -0.987475366070143 -0.3685709520612915
4009000000.0000005 -0.9675530122485057 -0.3169258231227143
4011999999.9999995 -0.9781462594355637 -0.2777372216033985
4016000000.0 -0.9633001762689868 -0.2814595082482662
4019000000.0 -0.9434522674222792 -0.29129680301064254
4022000000.0000005 -1.0437111685835112 -0.17260903632093444
4025000000.0000005 -0.9730787788139206 -0.2473526711818927
4027999999.9999995 -0.9846916291731338 -0.20401206511902895
4030999999.9999995 -1.0028956168472452 -0.20358354172802914
4034000000.0 -0.9737361789591403 -0.15888284534102398
4038000000.0000005 -0.9989857377814696 -0.15168118666695654
4041000000.0000005 -1.0000269443689709 -0.08583709583814925
4043999999.9999995 -0.9982958781617367 -0.07799845100226818
4046999999.9999995 -1.0489225002152212 -0.02663691104282309
4050000000.0 -0.9674317110815188 -0.061737320111981936
4053000000.0 -1.0156200857066633 -0.040627915773447876
4056000000.0 -1.0179029548916738 0.003837984640162384
4059000000.0 -0.9913701265372441 0.08252967070282777
4062000000.0000005 -1.0378672856937243 0.054230144642767014
4066000000.0 -1.041719351499561 0.11650513115297151
4069000000.0 -0.9758001487879807 0.13852400408880866
4072000000.0 -0.9706566064463422 0.19006154898849117
4075000000.0 -0.9739296963233158 0.21581644064070288
4078000000.0000005 -0.9864030723937597 0.20466719086570534
4081000000.0000005 -0.9469578934322563 0.32426546138007534
4083999999.9999995 -0.9609534543790141 0.27186112770705906
4088000000.0 -0.9526801000891355 0.31297635089524306
4091000000.0 -0.935014744880273 0.33517417705021196
4094000000.0000005 -0.915992218883121 0.35707589214584967
4097000000.0000005 -0.9126790283276084 0.3730263861926566
4099999999.9999995 -0.9162165828977145 0.4159515065872527
4102999999.9999995 -0.9084363418756464 0.43087463498743694
4106000000.0 -0.9015035525552139 0.47132423929411166
4109000000.0 -0.881727256470868 0.4937992009389463
4112000000.0 -0.8672453149343478 0.5288357806298345
4115999999.9999995 -0.8610607145145388 0.5522615342236243
4119000000.0 -0.8444063228316472 0.5676405223688821
4122000000.0 -0.8279146474284237 0.6053716758313329
4125000000.0 -0.8010554111990807 0.6364149352888675
4128000000.0 -0.7683536574288544 0.6487719684526221
4131000000.0 -0.7647281385804131 0.6754394054296596
4134000000.0000005 -0.7257391910088096 0.6932513687987061
4138000000.0 -0.7387686511508854 0.6984313552240154
4141000000.0 -0.6841569337532462 0.7352236185741574
4144000000.0 -0.6707609575378036 0.7787638140291772
4147000000.0000005 -0.6835271986854522 0.7977392185869567
4150000000.0000005 -0.6369870721939873 0.8242220312519675
4152999999.9999995 -0.6248224350937915 0.8209000227516494
4155999999.9999995 -0.5780971708840527 0.8883355972653348
4159000000.0 -0.568877224093782 0.8771831751452884
4162000000.0 -0.5172443623697729 0.8821035259396376
4166000000.0000005 -0.4920298708739788 0.9106832081644801
4168999999.9999995 -0.48494904908418013 0.9269279420135431
4171999999.9999995 -0.46931183578744146 0.8920318117060995
4175000000.0 -0.4383509413756862 0.9706878910410257
4178000000.0 -0.4040933889297981 0.9709727142698751
4181000000.0 -0.43028997900420796 0.9303691089873268
4184000000.0 -0.3814711305938112 1.0129373079206232
4187999999.9999995 -0.3351896220368992 1.0175568996661526
4191000000.0 -0.3013866902898166 0.988541521855474
4194000000.0 -0.2844985346174647 1.014448436046466
4197000000.0 -0.18168277714873343 1.0229040937441138
4200000000.0 -0.1690197113204322 1.0169362386584349
4203000000.0000005 -0.18176682153961543 0.9533268129294428
4206000000.0000005 -0.0888076856124237 1.0304038910357263
4208999999.9999995 -0.18474645148150606 1.0472953362561703
4211999999.9999995 -0.08513219025639968 1.073158417500641
4216000000.0 -0.06229185955205874 0.9929378547304938
4219000000.0000005 -0.03302938834748584 1.064473571718798
4222000000.0000005 -0.004714431043939038 1.0514826117427742
4224999999.9999995 0.04133797393965577 1.018116158001355
4227999999.9999995 0.042387374125363586 1.0575864033330362
4231000000.0 0.04559739841391325 1.0055649760813639
4234000000.0 -0.001522844704865578 1.0172721998046792
4238000000.0000005 0.09742961439536169 1.023052399849196
4240999999.9999995 0.10912268414180115 1.1140453925194032
4244000000.0 0.059069879500865785 1.0472858684447832
4247000000.0 0.13397363271793566 1.0750108375439318
4250000000.0 0.18963178100461353 1.1172705191047378
4253000000.0 0.15483534109470332 1.0519309303048154
4256000000.0 0.2670161410930501 0.9343067017570541
4259000000.0000005 0.30388876561445805 1.0722064275110563
4261999999.9999995 0.2825267112885296 1.0462973048207385
4266000000.0 0.2620765648957902 0.9622200024750088
4269000000.0 0.3457872342806029 1.0436211258355943
4272000000.0000005 0.38707704742627846 0.9986183242997153
4275000000.0000005 0.3511861197529901 0.9397137998792502
4277999999.9999995 0.3766836480541245 0.906755367943058
4280999999.9999995 0.41056559120917635 0.9541287379175103
4284000000.0 0.38991546300276075 0.991147623487864
4288000000.0000005 0.47111075213172326 0.9175846473144622
4291000000.0000005 0.4515946294354208 1.0177782635885313
4293999999.9999995 0.4529241568676512 0.9273118290313588
4297000000.0 0.5396567033792544 0.8838769157359821
4300000000.0 0.5878925423786985 0.9408248137784124
4303000000.0 0.490733435929687 0.9248224589088361
4306000000.0 0.5765574284642205 0.9489694884203803
4309000000.0 0.5750048280879946 0.8750809571362299
4312000000.0 0.6264742054111945 0.838333658007973
4316000000.0 0.5756781510627624 0.8361147092344609
4319000000.0 0.6109740522088144 0.8884349151633105
4322000000.0 0.6452909389464657 0.8122225450690124
4325000000.0 0.6203120875401884 0.8268501657648255
4328000000.0 0.6933075521918614 0.7953290288420929
4331000000.0 0.6692287407756566 0.8016478326784748
4334000000.0 0.648155889748947 0.8252390720096217
4338000000.0 0.6751598987420223 0.8112854441076828
4341000000.0 0.7146595709345227 0.7726831705548696
4344000000.0 0.6997981533303173 0.7719355862921649
4347000000.0 0.6829527056582214 0.7755075474127056
4350000000.0 0.7622205822463275 0.7231418065932788
4353000000.0 0.7351941054322567 0.6925555280848551
4356000000.0 0.7383885437447539 0.7909179523764268
4359000000.0 0.7514202651029154 0.7387378581483439
4362000000.0 0.718222083970957 0.6844883259206518
4366000000.0 0.7738546210417395 0.6781208239680472
4369000000.0 0.7663617630242181 0.688189355044423
4372000000.0 0.7935667246426749 0.6918193062952805
4375000000.0 0.8068180982913211 0.5921745560403254
4378000000.0 0.8511510646625429 0.669332537839177
4381000000.0 0.8207199272342025 0.6924485965584435
4384000000.0 0.7581289889800219 0.5805835554510488
4388000000.0 0.821685897306681 0.6045041889050725
4391000000.0 0.8136832857064842 0.6204647025834461
4394000000.0 0.8200697982752292 0.6035522289812931
4397000000.0 0.8444080689589324 0.6109155730129862
4400000000.0 0.8551842211002577 0.6262696592359436
4403000000.0 0.8369471175636044 0.5970115705072732
4406000000.0 0.8928195599793577 0.5428001053723257
4409000000.0 0.8538531540937234 0.5547154565035246
4412000000.0 0.868018924029764 0.5184119319184441
4416000000.0 0.8901326033280215 0.5308421356217621
4419000000.0 0.8744234139970692 0.5517410837975117
4422000000.0 0.9100142582882603 0.4922879489553522
4425000000.0 0.9011650686961754 0.5529142071661631
4428000000.0 0.8822798072710653 0.5211057684892191
4431000000.0 0.92525749125043 0.49522226768590666
4434000000.0 0.9203554544386872 0.5054916783374247
4438000000.0 0.9045666246572068 0.4693686109449799
4441000000.0 0.9136289234881196 0.4731930038760983
4444000000.0 0.90768301108561 0.46135274717727953
4447000000.0 0.9307181082042422 0.4546463472820655
4450000000.0 0.9170721020965957 0.4437297418021935
4453000000.0 0.9464297836434605 0.4222739489570465
4456000000.0 0.9511794785187146 0.4098643383865073
4459000000.0 0.9309957859533065 0.385077979879608
4462000000.0 0.9643350345064058 0.3905310421738524
4466000000.0 0.9635302766531963 0.38873414747681245
4469000000.0 0.9669894009507933 0.39055204190557335
4472000000.0 0.973549457928879 0.3400307332014103
4475000000.0 0.9727935024372155 0.3453695256034436
4478000000.0 0.9783704025268074 0.35639073164476276
4481000000.0 0.9545595811940324 0.34837476675336676
4484000000.0 0.9582860045083323 0.3138826596144517
4488000000.0 0.9564938498279786 0.3243010744751686
4491000000.0 0.9725991288974543 0.31414453103405404
4494000000.0 0.9737625200181127 0.29460340640205696
4497000000.0 0.9724285869610274 0.29566260101170894
4500000000.0 0.9632570297964478 0.3241602867321173
4503000000.0 1.0105364724369756 0.31583307287883094
4506000000.0 0.9618084968272016 0.2908922295407423
4509000000.0 0.9874279056543229 0.28173228588883814
4512000000.0 0.9734049640505517 0.25486559800507036
4516000000.0 0.986570672766601 0.28693218859648706
4519000000.0 0.9625260540575156 0.25548986108597144
4522000000.0 0.9622613036512375 0.23554138564710325
4525000000.0 0.9609498899639446 0.2525350915922215
4528000000.0 1.0333260427825393 0.2266979343596383
4531000000.0 0.9863629347303646 0.24409194349346625
4534000000.0 0.9782378954707099 0.22848452436171024
4538000000.0 0.9810845128082045 0.1961133890279551
4541000000.0 1.0130350164910813 0.17885663184654155
4544000000.0 0.9589653210865008 0.19852213041042188
4547000000.0 0.986037116781463 0.1960823534990197
4550000000.0 1.0061456364667525 0.16231668783253284
4553000000.0 1.0271042448535281 0.17646210010421554
4556000000.0 0.9864252505769215 0.14506630467106485
4559000000.0 1.0230702630981343 0.13925958434596236
4562000000.0 1.0244540694351625 0.1437638377021983
4566000000.0 1.0140300140635856 0.13580494477487104
4569000000.0 0.9639649927621029 0.14033796257704328
4572000000.0 0.9751052832246507 0.14050527692986636
4575000000.0 1.0053604072346523 0.10611828178621413
4578000000.0 1.0165322912747374 0.14787118926958726
4581000000.0 1.0314048585465043 0.09410200298564841
4584000000.0 1.0089539042740159 0.0930081697853094
4588000000.0 1.0179009500622924 0.12524551968258696
4591000000.0 1.0012130557602594 0.10847580101096482
4594000000.0 1.0105408067124406 0.09317347460103687
4597000000.0 1.0549262443587026 0.09837981315291328
4600000000.0 0.9608484477442885 0.0107685559628376
4603000000.0 1.0471006826474336 0.07105699438823582
4606000000.0 1.0004834268711325 0.06536254801553126
4609000000.0 1.0304480624552659 0.023605266278592496
4612000000.0 1.0798213308482183 0.07396296434048799
4616000000.0 0.9965366523755063 0.04385772212738259
4619000000.0 0.9993362750751699 0.0932119621536538
4622000000.0 1.0142183726477827 0.06973816171919531
4625000000.0 0.9457808949299498 0.034438753313725645
4628000000.0 0.9444543121176213 0.043563790782662426
4631000000.0 0.9729539756038956 -0.01436806267335275
4634000000.0 0.9994982364187789 0.025724417226303142
4638000000.0 1.0092511042996666 0.023291192489592716
4641000000.0 1.0290335638981227 0.025586555086971247
4644000000.0 1.016641363589167 -0.003980545998019558
4647000000.0 1.0275122002795727 0.017045156680166845
4650000000.0 1.045095434570193 -0.048697997050388936
4653000000.0 1.0462935037190702 -0.016963850199289338
4656000000.0 1.0025928858263229 -0.06399794807365075
4659000000.0 0.9820226241048188 -0.013650653308914878
4662000000.0 0.9983728366513008 -0.01938697570943282
4666000000.0 0.9903866361130135 0.007014766047388377
4669000000.0 1.0094340410235476 -0.0003499620859697128
4672000000.0 0.9845908262930408 -0.08741224030206121
4675000000.0 0.9725915478708823 -0.07946623998161809
4678000000.0 1.0051604218410333 -0.06578284254971492
4681000000.0 1.0256591419900902 -0.11726219813233879
4684000000.0 0.9451108475966908 -0.06798169433747292
4688000000.0 0.9851166787008497 -0.06602751344233534
4691000000.0 0.9629158301677696 -0.04150971371791784
4694000000.0 1.011748478632665 -0.09313011960253031
4697000000.0 1.0325876115824246 -0.07467194926732139
4700000000.0 1.0042390656202462 -0.071169880828465
4703000000.0 1.0519144678018328 -0.12128346142163009
4706000000.0 0.9998575140111344 -0.06955853830477662
4709000000.0 1.0007867276219289 -0.1129473124642868
4712000000.0 0.989904492200903 -0.11302683637591371
4716000000.0 0.9912869462117075 -0.09627601840706529
4719000000.0 1.0173655804964223 -0.14053390750265576
4722000000.0 1.0226377858078852 -0.11493439455409261
4725000000.0 0.9855535506295339 -0.13310050464850748
4728000000.0 0.9710313050240994 -0.15311743905523478
4731000000.0 0.9961140323205142 -0.10487297206518473
4734000000.0 0.98292942453907 -0.12003218272270769
4738000000.0 0.9764327805806937 -0.1415077469178262
4741000000.0 0.9870855115982259 -0.1455483998756655
4744000000.0 0.9929564985811666 -0.16735823980450193
4747000000.0 1.006539569558758 -0.16146393986072055
4750000000.0 0.9567955609155403 -0.1869869797086488
4753000000.0 0.9979413087357738 -0.19208355274525699
4756000000.0 0.9843227952643918 -0.17041654028131573
4759000000.0 0.9889729051652826 -0.1911518588187629
4762000000.0 0.9752189047094065 -0.1613423736915222
4766000000.0 0.9815663082896481 -0.18148294396593617
4769000000.0 1.0314287698883322 -0.16585493171137647
4772000000.0 0.9881464607939349 -0.2125612008567285
4775000000.0 0.9834247830885633 -0.17918164130804412
4778000000.0 0.9867969339847023 -0.1552942919070783
4781000000.0 1.0052932839887267 -0.17165106777761338
4784000000.0 0.9914898969152576 -0.14436859319725842
4788000000.0 1.0172643128214374 -0.19815039904423795
4791000000.0 0.9961793522425086 -0.21817375404600992
4794000000.0 0.9804167055452659 -0.22556519330964397
4797000000.0 1.0009713331869756 -0.19309505802452487
4800000000.0 0.9949475127175137 -0.22071700559126137
4803000000.0 0.9922470630893861 -0.2358593616046557
4806000000.0 0.998508693486014 -0.22016631457715663
4809000000.0 0.9577189047062967 -0.2436181555801555
4812000000.0 0.9823960473897948 -0.25878135534449836
4816000000.0 0.9962377088341638 -0.24292794267530052
4819000000.0 0.9876322029594292 -0.23950253655582318
4822000000.0 0.9896993376844703 -0.2387059566583749
4825000000.0 0.9966783900735352 -0.24896093499492725
4828000000.0 0.9683746672862728 -0.2276068061483352
4831000000.0 0.9784782629618735 -0.2649892529786458
4834000000.0 0.9982975333656253 -0.25713996138163087
4838000000.0 0.9922709343127616 -0.25667229836396366
4841000000.0 0.9884089832676426 -0.25747653062917164
4844000000.0 0.9820895819098217 -0.243099062836779
4847000000.0 0.9707923092714615 -0.25777613759598667
4850000000.0 0.98162623842023 -0.2657357698923165
4853000000.0 0.9714909506670367 -0.2795816153032588
4856000000.0 0.9820087805775816 -0.28168249919582
4859000000.0 0.9834026806005121 -0.27185554782829296
4862000000.0 0.9533136940224524 -0.27808066347045407
4866000000.0 0.9956501118315825 -0.28990727458694615
4869000000.0 0.9735795052197724 -0.3072276925354634
4872000000.0 0.9877209389497674 -0.2986876802420019
4875000000.0 1.0185873832654828 -0.2893960881096949
4878000000.0 0.9969136889431798 -0.32263926431926465
4881000000.0 0.997998112891749 -0.3086494474080192
4884000000.0 0.9831900247645935 -0.29938327463170167
4888000000.0 0.9928711736117981 -0.26885891222865815
4891000000.0 0.9947781467806054 -0.275831560461875
4894000000.0 0.9731870092824434 -0.32546150174692384
4897000000.0 0.9739988246696536 -0.2723884577297661
4900000000.0 0.9848096190497347 -0.32781700264961466
4903000000.0 0.9674258826506626 -0.3117558179357777
4906000000.0 0.9818618528989462 -0.338147192653009
4909000000.0 0.9632375214696022 -0.3304837129110188
4912000000.0 0.9630428956282864 -0.3356604028454609
4916000000.0 0.9675969230474895 -0.30206564414729753
4919000000.0 0.9862562170802809 -0.3241567138360942
4922000000.0 0.9874414468161914 -0.31707230622469124
4925000000.0 0.9434341825296446 -0.3187562406140659
4928000000.0 0.9876762470630498 -0.29982260295752927
4931000000.0 0.9686701566354556 -0.3361322890865193
4934000000.0 0.9313502136826308 -0.31898718788234365
4938000000.0 0.9508000432185892 -0.36835410676612734
4941000000.0 0.961805057098735 -0.323435179813875
4944000000.0 0.9412119874210272 -0.30577469556418413
4947000000.0 0.9496519996133075 -0.33802776304880044
4950000000.0 0.9364896104617273 -0.35034368243286823
4953000000.0 0.9684653400454601 -0.3889193569810902
4956000000.0 0.963297252441879 -0.3767933746219784
4959000000.0 0.9156841485907077 -0.35848616669864414
4962000000.0 0.9659239824067818 -0.357670196093336
4966000000.0 0.9723026880259291 -0.3654201568584807
4969000000.0 0.9749996690694525 -0.32758724087929025
4972000000.0 0.9475085943709589 -0.37043469532524687
4975000000.0 0.9550335366900058 -0.345868318868227
4978000000.0 0.9684570136821792 -0.37690771238889287
4981000000.0 0.953459400840611 -0.36146311069397913
4984000000.0 0.932489075099294 -0.3539737017854975
4988000000.0 0.9246584953517719 -0.3723010867036199
4991000000.0 0.9962030060076392 -0.32404952220909067
4994000000.0 0.9298080382009861 -0.35338735154441436
4997000000.0 0.9505743466264145 -0.3992847647900161
5000000000.0 0.9920621616012961 -0.36635594915414976
5003000000.0 1.0047459217309451 -0.38621709471880383
5006000000.0 1.009880794511919 -0.4052886276247432
5009000000.0 0.9720475285491819 -0.3660925847046923
5012000000.0 0.9406263855723792 -0.3914233586095355
5016000000.0 0.993977131721254 -0.3487273367927729
5019000000.0 0.9378558170702348 -0.3952630782201307
5022000000.0 0.9194774874126435 -0.37884861333810577
5025000000.0 0.9967769031137717 -0.4143418593190583
5028000000.0 0.9636060763599104 -0.4252176670745803
5031000000.0 0.9423709349614218 -0.3898266524107721
5034000000.0 0.9569537179990251 -0.427724517161567
5038000000.0 0.9216501008825853 -0.38956817102902896
5041000000.0 0.9783458850802489 -0.3607975209594963
5044000000.0 0.9362335197029834 -0.3570076834782397
5047000000.0 0.9671456723603474 -0.38833087970952074
5050000000.0 0.963850626218413 -0.2993137963228289
5053000000.0 1.0130658230438603 -0.41953628394482023
5056000000.0 0.9792516232842133 -0.3602816731932409
5059000000.0 0.9724703905866514 -0.3656553828848889
5062000000.0 0.9763595807843414 -0.42325047439792596
5066000000.0 0.9560824002108466 -0.35479196118155715
5069000000.0 0.9483003177666429 -0.4189804576608299
5072000000.0 0.8939487155488541 -0.4193205271990591
5075000000.0 0.9383326413608375 -0.41208666010437345
5078000000.0 0.9280287323791176 -0.44554365282276465
5081000000.0 0.9181157278558205 -0.397487884641141
5084000000.0 0.9684444829421429 -0.4229587489277424
5088000000.0 0.9424637703156672 -0.3891082392728391
5091000000.0 0.9716619197947209 -0.4662896456373854
5094000000.0 0.9906813982132283 -0.36686948099333483
5097000000.0 0.9590152299528433 -0.37424288864606886
5100000000.0 0.9358056467581737 -0.3852903499555897
5103000000.0 0.9561301919972949 -0.382073594620801
5106000000.0 1.0133409844791563 -0.40223726835601953
5109000000.0 0.9435257349811422 -0.4112392421686285
5112000000.0 0.9461078742137689 -0.400586398997001
5116000000.0 0.894814107593577 -0.38843823977159786
5119000000.0 0.9569499328843722 -0.3584305270083077
5122000000.0 0.9863886911303764 -0.403991416884522
5125000000.0 0.9636817492537647 -0.40624807124896034
5128000000.0 0.9566227114039781 -0.489276981558074
5131000000.0 0.9050885942939554 -0.4017708926844584
5134000000.0 0.9819485126804668 -0.43623826040440905
5138000000.0 0.9646632056925682 -0.42670229235131696
5141000000.0 0.9901314229737176 -0.3753319537696845
5144000000.0 0.9952977713867667 -0.35895794191361863
5147000000.0 0.9698026609953564 -0.39785307255006064
5150000000.0 0.9422962998988494 -0.3836770943122106
5153000000.0 0.9446151540821729 -0.4444094317792284
5156000000.0 0.9852310850744885 -0.4233045299185289
5159000000.0 0.9999092239149355 -0.39699748539668595
5162000000.0 0.8905742634994979 -0.4259830447134065
5166000000.0 0.9576128514521912 -0.46604023174598297
5169000000.0 0.9921329617923463 -0.4661024431030132
5172000000.0 0.9313885514941004 -0.4337330615529773
