! Created with skrf 1.8.0 (http://scikit-rf.org).
# Hz S RI R 50.0 
!freq ReS11 ImS11
4000000000.0 0.5182487392258798 -0.8453538309990292
4003000000.0 0.5712837976535353 -0.9499198801311586
4006000000.0 0.4317093157260988 -0.8832775691632269
4009000000.0000005 0.5691610576915105 -0.8628342626737926
4011999999.9999995 0.5535782192225234 -0.840988261515712
4016000000.0 0.48875224898048053 -0.9260287459796883
4019000000.0 0.5522103817012566 -0.885028923419344
4022000000.0000005 0.6003982025397177 -0.8835197673383857
4025000000.0000005 0.523582447448283 -0.9291524910082246
4027999999.9999995 0.5300532061037919 -0.8970227812502749
4030999999.9999995 0.4611436201945507 -0.835835323575336
4034000000.0 0.5302346603691258 -0.866096117157592
4038000000.0000005 0.5402641976568161 -0.8869663508964214
4041000000.0000005 0.5552910963294815 -0.895089356694002
4043999999.9999995 0.5851813378026616 -0.9376128414397125
4046999999.9999995 0.5859582282227611 -0.8843574678730584
4050000000.0 0.5153914696839873 -0.9103246954076851
4053000000.0 0.48458972917576765 -0.8922381307372379
4056000000.0 0.5407461825822467 -0.8992643226805914
4059000000.0 0.5357375813844234 -0.8738429946982056
4062000000.0000005 0.4885176304151471 -0.9159969983292663
4066000000.0 0.4839362113668034 -0.8192989116292283
4069000000.0 0.4897691021232275 -0.9674805781891033
4072000000.0 0.4794232454562766 -0.8605095997746322
4075000000.0 0.5751702474914298 -0.8734766344368688
4078000000.0000005 0.5445754864051668 -0.9039648353537604
4081000000.0000005 0.5817827029445465 -0.8512332949363559
4083999999.9999995 0.501035821643484 -0.8541313916102894
4088000000.0 0.5894321151140374 -0.8497038793855108
4091000000.0 0.5425674138375022 -0.9628664691306319
4094000000.0000005 0.5317932720740227 -0.8548929484482021
4097000000.0000005 0.5153271547965137 -0.8683779149555291
4099999999.9999995 0.543466877364559 -0.8713545745163325
4102999999.9999995 0.5421603850854214 -0.8962607442951864
4106000000.0 0.5238318050381744 -0.909029608857381
4109000000.0 0.5130653583277938 -0.8579386481452109
4112000000.0 0.5381881670668975 -0.8751027538948796
4115999999.9999995 0.5217930426813658 -0.8347306152558648
4119000000.0 0.5000802356926762 -0.9078023565403254
4122000000.0 0.4907697827192303 -0.8938862768741052
4125000000.0 0.501409212548459 -0.9163026957585098
4128000000.0 0.5323768547351114 -0.8686592771064598
4131000000.0 0.48428277011612364 -0.8684789457923309
4134000000.0000005 0.5060774662953114 -0.8681214959451553
4138000000.0 0.4962047695448651 -0.8496074730790566
4141000000.0 0.4799653133976782 -0.862962571404928
4144000000.0 0.5347782972114101 -0.8935841558778527
4147000000.0000005 0.4936398328549825 -0.870284454162109
4150000000.0000005 0.5201707068672382 -0.9195279668437791
4152999999.9999995 0.5272959201334343 -0.851333101640174
4155999999.9999995 0.5325010189163458 -0.8607416971855271
4159000000.0 0.5228539406608651 -0.8773191229229433
4162000000.0 0.5196336833340124 -0.8895754943771422
4166000000.0000005 0.5173508201663306 -0.8873476099918071
4168999999.9999995 0.5212102460802687 -0.8675799156223927
4171999999.9999995 0.5466583337020948 -0.8828796227085705
4175000000.0 0.5209837563403448 -0.8828769083367842
4178000000.0 0.5294807227894449 -0.8993660840352548
4181000000.0 0.5335121343716932 -0.8887114008207954
4184000000.0 0.5307465949462173 -0.8600260787672128
4187999999.9999995 0.5137225725096449 -0.890453863063727
4191000000.0 0.5604754093992963 -0.8260680507192358
4194000000.0 0.5256568163854363 -0.8500247842668818
4197000000.0 0.5223169725535148 -0.870636206302527
4200000000.0 0.5359297046297211 -0.8696105146374694
4203000000.0000005 0.5380409799488486 -0.8730799647673025
4206000000.0000005 0.5370098316116259 -0.8944629887844063
4208999999.9999995 0.5353271219243505 -0.8754585477879367
4211999999.9999995 0.4910313419292972 -0.8686268478753496
4216000000.0 0.5309204676223254 -0.8646346646804017
4219000000.0000005 0.5435734843023223 -0.880320875572795
4222000000.0000005 0.5234150706600399 -0.8800715413702157
4224999999.9999995 0.5394599270069497 -0.8681059215423566
4227999999.9999995 0.5224070815228434 -0.8669463569616573
4231000000.0 0.5172549006117421 -0.8908768653571405
4234000000.0 0.5396590049631018 -0.8890549785896306
4238000000.0000005 0.5117260331222986 -0.8711661826771798
4240999999.9999995 0.5191407232866044 -0.8810537111702533
4244000000.0 0.5466754670258138 -0.8668064592126572
4247000000.0 0.5148172528524718 -0.8746604810651952
4250000000.0 0.5175302225673948 -0.8656839886843058
4253000000.0 0.5114156008222227 -0.873821124707992
4256000000.0 0.5399339975026535 -0.8847433171190023
4259000000.0000005 0.5088158446735214 -0.8529732025669245
4261999999.9999995 0.5057535734675558 -0.8619052026095393
4266000000.0 0.5184593221745893 -0.8903251769877177
4269000000.0 0.5299640349620856 -0.8586691088777909
4272000000.0000005 0.5137046765309671 -0.8537997472280577
4275000000.0000005 0.5180335414425576 -0.8637740398056242
4277999999.9999995 0.5160293289616569 -0.8974627358071355
4280999999.9999995 0.525303098670926 -0.8792442116508704
4284000000.0 0.49335412975220444 -0.9016736385416582
4288000000.0000005 0.5546123390838265 -0.8594865129706459
4291000000.0000005 0.5253076198355479 -0.8594115466780352
4293999999.9999995 0.5266087603188505 -0.8885308786228303
4297000000.0 0.5074187028908266 -0.856680531959549
4300000000.0 0.522278185554161 -0.8628217088760124
4303000000.0 0.4967834003512912 -0.866537813770178
4306000000.0 0.5397527618619133 -0.8444187195044808
4309000000.0 0.5189342868432713 -0.8621776544794593
4312000000.0 0.538881178142427 -0.8727395056540177
4316000000.0 0.5220940730890594 -0.8749454257822887
4319000000.0 0.5211686984953925 -0.8319966138915804
4322000000.0 0.5002495211172722 -0.862266630369127
4325000000.0 0.52108516510557 -0.8723333900644533
4328000000.0 0.5171619207882423 -0.8485914998499169
4331000000.0 0.4788438162965528 -0.8754667036574324
4334000000.0 0.5248439039977457 -0.8949314658535298
4338000000.0 0.5215618923371573 -0.8442543569362866
4341000000.0 0.575641908052513 -0.8757202468124251
4344000000.0 0.5275964868632362 -0.8866416246448775
4347000000.0 0.5183380115685206 -0.8900026490232057
4350000000.0 0.4821270087026887 -0.8516816915621527
4353000000.0 0.5128081010730623 -0.8352649941345978
4356000000.0 0.5038317792667151 -0.8751849282117633
4359000000.0 0.4848976379651386 -0.8345809276248733
4362000000.0 0.4832304939233293 -0.9064636055728184
4366000000.0 0.5150075545398631 -0.8927665436274433
4369000000.0 0.48213847013846906 -0.8388019077624645
4372000000.0 0.4680936788915463 -0.8732655316411332
4375000000.0 0.5249259517821845 -0.8426084541113826
4378000000.0 0.49494217443341354 -0.849237073542737
4381000000.0 0.5032597790731096 -0.8498841198372944
4384000000.0 0.532925510426127 -0.9473892928272294
4388000000.0 0.5056449726472029 -0.8431636072038724
4391000000.0 0.5022364805728466 -0.8705061512508259
4394000000.0 0.49849491582345284 -0.8544339810197492
4397000000.0 0.506034917941901 -0.8758179733611031
4400000000.0 0.50691355318909 -0.8922017618832906
4403000000.0 0.4998465465119344 -0.8843290048529613
4406000000.0 0.4905866116302042 -0.8872844218622451
4409000000.0 0.5145071792556265 -0.9016545684461025
4412000000.0 0.439903839000919 -0.8996073873507588
4416000000.0 0.48306689787443546 -0.8681902527434691
4419000000.0 0.48294530869308605 -0.8775538077275764
4422000000.0 0.5087971557680244 -0.8600844318572445
4425000000.0 0.5317692406595039 -0.8781492426757105
4428000000.0 0.4899519268685742 -0.867931515022458
4431000000.0 0.5100072599282182 -0.8757335546584404
4434000000.0 0.47708842848089217 -0.8747695877330705
4438000000.0 0.518008280672333 -0.895276448144691
4441000000.0 0.508721453904045 -0.8931457890257021
4444000000.0 0.4967261523834452 -0.8582744682488526
4447000000.0 0.482866290419736 -0.8876913075538284
4450000000.0 0.5119480106316608 -0.8530250798779067
4453000000.0 0.5123645349916629 -0.8961695919650071
4456000000.0 0.4759706573456529 -0.8613966068649931
4459000000.0 0.4696318888900356 -0.8576905279120803
4462000000.0 0.5193086580975694 -0.9355565399294008
4466000000.0 0.5030117963639416 -0.92031928708195
4469000000.0 0.49449317442304314 -0.8740632050280114
4472000000.0 0.4886379203298442 -0.9021350841069995
4475000000.0 0.4834521876310446 -0.8618942734124231
4478000000.0 0.5076920458837924 -0.9206677017244929
4481000000.0 0.45377448800855363 -0.8658536113128334
4484000000.0 0.44742514401159683 -0.9008158464921074
4488000000.0 0.4849884686585202 -0.8758672935744981
4491000000.0 0.49205503462125216 -0.8790341086654371
4494000000.0 0.48006313209446116 -0.8612975614902207
4497000000.0 0.5161969834666357 -0.8518042477734973
4500000000.0 0.4915366416973764 -0.8776303519207691
4503000000.0 0.49578973631482104 -0.9057160764275753
4506000000.0 0.4832217583124958 -0.8920738830974541
4509000000.0 0.46888627955973894 -0.8710059385765434
4512000000.0 0.4631117133293659 -0.8738010041048285
4516000000.0 0.4935663059796185 -0.8927523440473439
4519000000.0 0.48875726000281683 -0.8490494838195961
4522000000.0 0.4912589121377791 -0.886023985006575
4525000000.0 0.49867960200386935 -0.8604917524960949
4528000000.0 0.49122305604106503 -0.8982938087946248
4531000000.0 0.5024839816513288 -0.8789605935127434
4534000000.0 0.4801139802858553 -0.8801210245412028
4538000000.0 0.4612656006137731 -0.8834511991712
4541000000.0 0.45770208754603137 -0.8938966338518572
4544000000.0 0.4711275271679535 -0.8604273473893025
4547000000.0 0.4924794189469264 -0.8726627831882123
4550000000.0 0.47721731202203616 -0.8917033522565873
4553000000.0 0.4714061338306116 -0.8840209298173625
4556000000.0 0.45390354528284316 -0.8686955492572863
4559000000.0 0.48267183084808407 -0.8905552853390051
4562000000.0 0.48463862819666337 -0.8898559997447975
4566000000.0 0.4895883608782599 -0.870043511528412
4569000000.0 0.469519628451261 -0.8700561665235866
4572000000.0 0.47657201591636156 -0.8869461634406757
4575000000.0 0.4620530965328673 -0.8938072289863705
4578000000.0 0.47921851928959147 -0.9037783365144465
4581000000.0 0.4679443943389687 -0.9008270295003333
4584000000.0 0.47052123204624874 -0.8825579932828747
4588000000.0 0.4926950275311146 -0.9124275393382273
4591000000.0 0.4808925799924265 -0.8739649935796621
4594000000.0 0.4533890217052735 -0.891221918919761
4597000000.0 0.46748118798676597 -0.9096722757692381
4600000000.0 0.4443150154487443 -0.8940408020916439
4603000000.0 0.46302986392646733 -0.9098010074314484
4606000000.0 0.48787289972550174 -0.9073820360321794
4609000000.0 0.4765616246764437 -0.8948871694208639
4612000000.0 0.49037651527052867 -0.901374829981684
4616000000.0 0.4541814298539544 -0.8654827996628589
4619000000.0 0.4511915529129099 -0.8804267890288201
4622000000.0 0.4757770227387702 -0.8861178768291175
4625000000.0 0.43237593242139505 -0.867465697298075
4628000000.0 0.4737163117633938 -0.8859199089377621
4631000000.0 0.4601694662085235 -0.9044550168593908
4634000000.0 0.4571918752755908 -0.8834947099376761
4638000000.0 0.47704388088792515 -0.8845975395499577
4641000000.0 0.48072083821754763 -0.8989861946896339
4644000000.0 0.4637022028381389 -0.8841891532808909
4647000000.0 0.467371542567071 -0.9075284843591203
4650000000.0 0.44325502898560243 -0.9044070085598264
4653000000.0 0.4830878501746002 -0.9092798475789735
4656000000.0 0.4451609656647304 -0.9047098336846939
4659000000.0 0.43471944895873227 -0.9088486250575588
4662000000.0 0.4462730397151245 -0.9014402140209632
4666000000.0 0.4387006586341974 -0.8902244970418856
4669000000.0 0.44762047186103165 -0.8817550375208777
4672000000.0 0.4624975991389706 -0.95381713488339
4675000000.0 0.4408916655905324 -0.904859574259907
4678000000.0 0.44846656616025005 -0.8859646461436697
4681000000.0 0.44696153291070034 -0.9350483269439712
4684000000.0 0.45202807883051555 -0.9169665753949562
4688000000.0 0.436814836938391 -0.9016568156518033
4691000000.0 0.45807923056404193 -0.8883436535936708
4694000000.0 0.45594685657943396 -0.9000607456660761
4697000000.0 0.41076367484526066 -0.875665179745495
4700000000.0 0.47863434153098916 -0.9133300945436764
4703000000.0 0.4685128159343916 -0.8597046332856852
4706000000.0 0.4279756118525005 -0.934322590249183
4709000000.0 0.41034839742225315 -0.9033185892710454
4712000000.0 0.46644396688421125 -0.9255775868785412
4716000000.0 0.44328489512666486 -0.9144176402676856
4719000000.0 0.4758500023598001 -0.9067757849612567
4722000000.0 0.49422328898739903 -0.9014242913221509
4725000000.0 0.45177559792563393 -0.8808323004029897
4728000000.0 0.45253547400817473 -0.8896558638088451
4731000000.0 0.5042932390452286 -0.9249081834032958
4734000000.0 0.4302365248577991 -0.8734901103332684
4738000000.0 0.48640564147359705 -0.9014922244400819
4741000000.0 0.424463447618583 -0.9502940675267381
4744000000.0 0.45418029112978164 -0.9137513116473956
4747000000.0 0.4624943557840893 -0.8730911915145625
4750000000.0 0.4552893775800669 -0.9102344559857686
4753000000.0 0.48840468914912905 -0.9164243076764336
4756000000.0 0.4674513568165765 -0.9366746234852658
4759000000.0 0.4606578795848985 -0.9204160530248339
4762000000.0 0.4435399939244959 -0.925110581701075
4766000000.0 0.45532833884890356 -0.914777355613466
4769000000.0 0.4609083600112593 -0.9395878621532185
4772000000.0 0.44924731722649247 -0.9211715202079419
4775000000.0 0.449686083786459 -0.9591390715406742
4778000000.0 0.4664114198935183 -0.933852254078218
4781000000.0 0.47856225008758113 -0.9238654932139087
4784000000.0 0.4647285008143678 -0.9021625331470222
4788000000.0 0.45941027582252403 -0.9306765823234201
4791000000.0 0.4285919855461373 -0.909046220633162
4794000000.0 0.4826454616831486 -0.9154226207559139
4797000000.0 0.41421874260230307 -0.9114797129500759
4800000000.0 0.44667756713212325 -0.9135515048486234
4803000000.0 0.4267615896201565 -0.9132882271495828
4806000000.0 0.44553717786816927 -0.9161479113981261
4809000000.0 0.43670063003708115 -0.9177641588221476
4812000000.0 0.4226469363555245 -0.9236312886065908
4816000000.0 0.4502940979814629 -0.8817287280483
4819000000.0 0.46408611017763646 -0.9176284622213186
4822000000.0 0.4894419040100696 -0.9433431653528419
4825000000.0 0.46686328733291177 -0.9342743300731855
4828000000.0 0.4447782261668468 -0.9106965012493986
4831000000.0 0.4104861201914776 -0.9416738437431571
4834000000.0 0.4777405693921707 -0.9210721288126684
4838000000.0 0.4283124806822062 -0.9156053293259221
4841000000.0 0.4268331009853228 -0.9191481478820109
4844000000.0 0.4755781516275389 -0.8938404011103483
4847000000.0 0.46391110657801815 -0.8804617659788339
4850000000.0 0.44521633803202654 -0.9519046513779368
4853000000.0 0.4417772486240823 -0.9019023995260411
4856000000.0 0.44788073070117373 -0.9080769147909403
4859000000.0 0.4470210670724432 -0.9494462672641263
4862000000.0 0.466807085110821 -0.8801643446572103
4866000000.0 0.4462696937796065 -0.9462322142792342
4869000000.0 0.42110442392898717 -0.92319971744726
4872000000.0 0.4395446190405855 -0.9617748948517457
4875000000.0 0.5162165627788132 -0.9318899657757221
4878000000.0 0.4285401198743671 -0.9336970874641682
4881000000.0 0.45721506053455885 -0.9863331585363221
4884000000.0 0.4682201958820557 -0.8997796741000329
4888000000.0 0.4560321575280096 -0.9005376135566197
4891000000.0 0.4926629986996496 -0.9117561656330789
4894000000.0 0.4240702254796157 -0.9174662047302123
4897000000.0 0.49948070210075574 -0.9074410575660813
4900000000.0 0.4659065785610254 -0.9170651963050941
4903000000.0 0.4845958884845828 -0.9445971223704192
4906000000.0 0.4479462774920486 -0.8964313160638412
4909000000.0 0.41654543122398346 -0.9325164905302445
4912000000.0 0.46641725878468493 -0.9622801779313037
4916000000.0 0.4704170595939331 -0.9287186610206394
4919000000.0 0.4799804601669441 -0.9390523068154552
4922000000.0 0.46280974381371787 -0.9107715999649215
4925000000.0 0.42909459974382613 -0.9297760030031903
4928000000.0 0.4886920507595626 -0.8624780229601269
4931000000.0 0.4924042842118401 -0.9563670452291435
4934000000.0 0.4301238091200027 -0.9043811525034631
4938000000.0 0.4211201795069598 -0.9176648929753706
4941000000.0 0.45257476279006953 -0.882573553647342
4944000000.0 0.4680506916243662 -0.8727406283708137
4947000000.0 0.4580185258079119 -0.9313882465696629
4950000000.0 0.44284021141077884 -0.9001930818933526
4953000000.0 0.4449983775765537 -0.9566318751903371
4956000000.0 0.4314159029484911 -0.9139576989425572
4959000000.0 0.42993398149195655 -0.9143080538137687
4962000000.0 0.4921575481137278 -0.9639357040976307
4966000000.0 0.49841069870497584 -0.906408668759433
4969000000.0 0.5143703244749612 -0.9389477013605704
4972000000.0 0.4500997778555125 -0.9384385119687534
4975000000.0 0.450424475089776 -0.8811229548564226
4978000000.0 0.4690861896468346 -0.9354617933135063
4981000000.0 0.44043048581314254 -0.9142946206140565
4984000000.0 0.47108572299140483 -0.90212101847771
4988000000.0 0.45285127420203936 -0.9282786087382952
4991000000.0 0.5215362118097641 -0.9230852814869919
4994000000.0 0.47650190192162234 -0.9306270028857513
4997000000.0 0.43196828660589576 -0.927298964786579
5000000000.0 0.47229354332675416 -0.9393444417026835
5003000000.0 0.5058516772642612 -0.9277848076743221
5006000000.0 0.471399495515371 -0.9846091995189024
5009000000.0 0.4807076084144263 -0.9191136220082022
5012000000.0 0.4597009493716188 -0.9531616663433737
5016000000.0 0.5100357490126957 -0.9401771894908959
5019000000.0 0.471133167382867 -0.9353280180955497
5022000000.0 0.4610986857804612 -0.9189976011669444
5025000000.0 0.4786796123021898 -0.9839026697223521
5028000000.0 0.47990614644180285 -0.9301261749818446
5031000000.0 0.47360960059154744 -0.937124206672491
5034000000.0 0.44097084327149266 -0.9616388057558459
5038000000.0 0.4574764261300187 -0.8939551354836399
5041000000.0 0.5262495971697811 -0.897310259044519
5044000000.0 0.4526899836338844 -0.8995809484169222
5047000000.0 0.48252742911760954 -0.8980532809316693
5050000000.0 0.5256460219929107 -0.8673952332006982
5053000000.0 0.468617291531592 -0.9687269014947223
5056000000.0 0.5087673408777091 -0.9120428192092356
5059000000.0 0.5279430605650156 -0.9129065061206679
5062000000.0 0.4461359834329662 -0.9886664212512501
5066000000.0 0.49604231122610587 -0.8899333378670102
5069000000.0 0.48972907291817647 -0.9048262815827697
5072000000.0 0.45288981055382527 -0.9044421253032711
5075000000.0 0.465870291023189 -0.9238946940319919
5078000000.0 0.4571661656327241 -0.9451020286106953
5081000000.0 0.44795569117796386 -0.9154894289239006
5084000000.0 0.4713077889246173 -0.9602174483311545
5088000000.0 0.4851957985681685 -0.9063906583536421
5091000000.0 0.37873972574827597 -0.9115792198086794
5094000000.0 0.4956972257838897 -0.9134237123791167
5097000000.0 0.470414348298429 -0.8999078820406239
5100000000.0 0.4899605763384157 -0.8790355647105627
5103000000.0 0.43311442535935096 -0.9207922000266335
5106000000.0 0.4622042568691574 -0.9125113900196555
5109000000.0 0.5010395500090727 -0.9008673842132207
5112000000.0 0.47585113977110843 -0.9180376240521491
5116000000.0 0.4358729134560707 -0.8888302319708716
5119000000.0 0.4689863820140882 -0.9678019687817074
5122000000.0 0.5320244843574454 -0.9191783004554896
5125000000.0 0.4798786272208771 -0.9234052390203392
5128000000.0 0.4804344274631176 -0.907979276422084
5131000000.0 0.4954765769633362 -0.9160727154792316
5134000000.0 0.5022979114081663 -0.8839197964820029
5138000000.0 0.48073217496650344 -0.8967777648950908
5141000000.0 0.5719377380740283 -0.8748699038011698
5144000000.0 0.537743436401351 -0.873721635523137
5147000000.0 0.4910364947056397 -0.9334153528694106
5150000000.0 0.48677864923412173 -0.910594632240963
5153000000.0 0.4769669218227983 -0.9050460740581541
5156000000.0 0.5023093187237733 -0.928390379760242
5159000000.0 0.49298714901601526 -0.929510912754469
5162000000.0 0.45376662406410834 -0.9624702393362525
5166000000.0 0.4997452832439895 -0.896564685602008
5169000000.0 0.4894973026217415 -0.9339623753022459
5172000000.0 0.4841105351785381 -0.936725110466256
5175000000.0 0.5255840712057848 -0.8895534282797108
