! Created with skrf 1.8.0 (http://scikit-rf.org).
# Hz S RI R 50.0 
!freq ReS11 ImS11
4000000000.0 0.567349945851832 -0.8738337671064786
4003000000.0 0.5904118912864684 -0.8919134684179362
4006000000.0 0.5004578299704249 -0.89661362978813
4009000000.0000005 0.5088285268411465 -0.8806257518814629
4011999999.9999995 0.6144483468263986 -0.8626664537770332
4016000000.0 0.5428311805905668 -0.9111889991081528
4019000000.0 0.5456920041602874 -0.8806861066875866
4022000000.0000005 0.5790703099602452 -0.8396071843495709
4025000000.0000005 0.5364493566161754 -0.93430103014657
4027999999.9999995 0.5475930698383652 -0.8732848090117827
4030999999.9999995 0.5412108493600025 -0.8459743656634348
4034000000.0 0.49829513944590714 -0.9071459211021764
4038000000.0000005 0.5120022109003532 -0.8660947745453206
4041000000.0000005 0.5486568412971401 -0.8356284490465241
4043999999.9999995 0.5724396200128613 -0.9326105978673891
4046999999.9999995 0.6157422332459124 -0.8799387209585815
4050000000.0 0.547521965534434 -0.8985989860172641
4053000000.0 0.5292243717120293 -0.8497575725605186
4056000000.0 0.5228279109639788 -0.8706290742981004
4059000000.0 0.5847460917940728 -0.8615152352137037
4062000000.0000005 0.5480018333479736 -0.8730117298151562
4066000000.0 0.4984188253122764 -0.8457911896295354
4069000000.0 0.5353787759783606 -0.9217431084479542
4072000000.0 0.5894193548644217 -0.8361257356043077
4075000000.0 0.6283195651670679 -0.8600716890185792
4078000000.0000005 0.571943567648815 -0.8634621816715821
4081000000.0000005 0.6113338280820944 -0.8970883667505777
4083999999.9999995 0.539868177180644 -0.9192468899232826
4088000000.0 0.5715021712057601 -0.8541128283684144
4091000000.0 0.6108458981283895 -0.8916078095652664
4094000000.0000005 0.5625088762937969 -0.8506412845867147
4097000000.0000005 0.5411715841862733 -0.8360293974716495
4099999999.9999995 0.540003278872978 -0.8927093620686533
4102999999.9999995 0.6312966304017394 -0.8537113697517311
4106000000.0 0.5715463541478424 -0.8717541668189431
4109000000.0 0.5487518140335303 -0.896274225652129
4112000000.0 0.5223841217686023 -0.8779271533897385
4115999999.9999995 0.5783171215417288 -0.8486422411115887
4119000000.0 0.57138988355191 -0.9412492776321946
4122000000.0 0.5364231018715913 -0.8727818797074626
4125000000.0 0.5418542550711059 -0.8935990080959043
4128000000.0 0.5368222831442856 -0.8404349760143307
4131000000.0 0.5542633397427161 -0.861777115207781
4134000000.0000005 0.575142405383511 -0.8757583993777204
4138000000.0 0.523847366662172 -0.8577406764762919
4141000000.0 0.5712226089525442 -0.8651759639531006
4144000000.0 0.5790454088227764 -0.8273163803454435
4147000000.0000005 0.5205266441991077 -0.8426324174467735
4150000000.0000005 0.5793525751066371 -0.8749988360791252
4152999999.9999995 0.5461721142197734 -0.8712203097552353
4155999999.9999995 0.5701935069849743 -0.8772233906886598
4159000000.0 0.6068585390391212 -0.876694114977537
4162000000.0 0.5435426439029294 -0.8562151311008386
4166000000.0000005 0.5674159839487767 -0.8967464769335571
4168999999.9999995 0.5428545394332382 -0.8645390756562371
4171999999.9999995 0.5788816190680683 -0.8778895466922162
4175000000.0 0.5797611637238295 -0.8735423724486359
4178000000.0 0.5736449137507994 -0.8552806712758331
4181000000.0 0.5499190799131415 -0.8778414020376302
4184000000.0 0.5539782388942793 -0.8567384269462858
4187999999.9999995 0.5436568826230292 -0.8589548477701765
4191000000.0 0.5812328200665287 -0.8245172861062777
4194000000.0 0.5261844077438369 -0.8306155971712976
4197000000.0 0.5677889836817674 -0.8364285453962074
4200000000.0 0.567626044689219 -0.8519993333840132
4203000000.0000005 0.5841990632820834 -0.8473719700014903
4206000000.0000005 0.5720605738456422 -0.8605858423857506
4208999999.9999995 0.5465303936479182 -0.8369413105896631
4211999999.9999995 0.5258123887787167 -0.8640578802575122
4216000000.0 0.5621534870431608 -0.8428344615882963
4219000000.0000005 0.5686741288196195 -0.8611766163182635
4222000000.0000005 0.5639920848077751 -0.8686343912077923
4224999999.9999995 0.5637608810169206 -0.8356003500247279
4227999999.9999995 0.5652269295040955 -0.8503475357303479
4231000000.0 0.5626067602419186 -0.8582926867150968
4234000000.0 0.5719421314065235 -0.8750077156300884
4238000000.0000005 0.5443947168214135 -0.8738247421859818
4240999999.9999995 0.5501339403531351 -0.8590608016620221
4244000000.0 0.5661880789235892 -0.8448420822450744
4247000000.0 0.5558069060785534 -0.8585038513625175
4250000000.0 0.5530884089916838 -0.8617320449192037
4253000000.0 0.5467725650915013 -0.8385904711964907
4256000000.0 0.5475837056589116 -0.8795532803919397
4259000000.0000005 0.5338431416051591 -0.8369795631643991
4261999999.9999995 0.5371514591120247 -0.8670774036221298
4266000000.0 0.5254766883929748 -0.8703863140213006
4269000000.0 0.5641051403525168 -0.8392109133585769
4272000000.0000005 0.5511251881036912 -0.8596455029076904
4275000000.0000005 0.5582721415222951 -0.8659717500439857
4277999999.9999995 0.5726595044117901 -0.8621351747959917
4280999999.9999995 0.5733440908221761 -0.8467322206511343
4284000000.0 0.525642430386741 -0.8725633555419191
4288000000.0000005 0.570914680346318 -0.8454392029747766
4291000000.0000005 0.5347773653553871 -0.8309287347314712
4293999999.9999995 0.5466183661687459 -0.8428692169550225
4297000000.0 0.5687988544467599 -0.8290217265353306
4300000000.0 0.5413977179013361 -0.8397959582074745
4303000000.0 0.5234717547192382 -0.8660790389907175
4306000000.0 0.5856472892451227 -0.8510347857230575
4309000000.0 0.5310642901130749 -0.8501551906553367
4312000000.0 0.6086931674055325 -0.8439712161103259
4316000000.0 0.5750219559417615 -0.8337998594455185
4319000000.0 0.5455697529288851 -0.829671815997912
4322000000.0 0.542366968513261 -0.8683256270204617
4325000000.0 0.5900429866544619 -0.8584972416914215
4328000000.0 0.5464471852257359 -0.8559549159168319
4331000000.0 0.5215438018122196 -0.8628363312826982
4334000000.0 0.5456572980109043 -0.8416715978816789
4338000000.0 0.5576285242509629 -0.8489796233142813
4341000000.0 0.6042697969878117 -0.848757475626717
4344000000.0 0.5588607407618972 -0.8620129262208996
4347000000.0 0.5420547154425409 -0.8896465693811987
4350000000.0 0.5230260380111539 -0.8154336028823033
4353000000.0 0.5652634206201432 -0.8208772681051669
4356000000.0 0.5267744420776805 -0.8579203491895662
4359000000.0 0.5484783188356185 -0.8171844353059173
4362000000.0 0.518866105701189 -0.8967766784380119
4366000000.0 0.5391450487162401 -0.8628214232781618
4369000000.0 0.5135564772717964 -0.8216711218388849
4372000000.0 0.4991444635951616 -0.8523453122165572
4375000000.0 0.5663886362154282 -0.8320179762251418
4378000000.0 0.5303853627570982 -0.8323714852662973
4381000000.0 0.5477248882075471 -0.8467438894959315
4384000000.0 0.5787712629754516 -0.8970636526303428
4388000000.0 0.5652125645254203 -0.8404241515938777
4391000000.0 0.5514521195322903 -0.8737387795879746
4394000000.0 0.527505689932843 -0.8235817254551331
4397000000.0 0.5378585705355277 -0.8429400873604442
4400000000.0 0.558561466138424 -0.8726199750322491
4403000000.0 0.5581123861670167 -0.8692176748349094
4406000000.0 0.5351000953190667 -0.8740601874256597
4409000000.0 0.5453216369036178 -0.8724931509407692
4412000000.0 0.4938618424903189 -0.879016717137852
4416000000.0 0.5217518106336582 -0.8682578850335817
4419000000.0 0.529556778997559 -0.860137004771039
4422000000.0 0.5544860135340904 -0.8309943245129823
4425000000.0 0.5695637868994421 -0.847071641479559
4428000000.0 0.5337124691786278 -0.8544721838570883
4431000000.0 0.5649784337562797 -0.8652959643634203
4434000000.0 0.5216861083868122 -0.8408262605368455
4438000000.0 0.5650015868840196 -0.8716237276461272
4441000000.0 0.557242898741283 -0.8507186911705433
4444000000.0 0.5289882866778752 -0.8288448083803166
4447000000.0 0.5235496860242741 -0.8561118467575286
4450000000.0 0.5407755060391728 -0.8307117006782657
4453000000.0 0.5542517928489213 -0.8816811219380889
4456000000.0 0.5189676003474785 -0.8301525234189671
4459000000.0 0.5094999069847732 -0.8335047966466105
4462000000.0 0.5531294853786901 -0.9075293584513386
4466000000.0 0.5692059402490827 -0.9058373807390205
4469000000.0 0.5512236091408245 -0.8424943084128738
4472000000.0 0.5287808195616888 -0.8812813061093723
4475000000.0 0.5285682988081428 -0.8433137004864771
4478000000.0 0.5475160920491915 -0.8878137016406287
4481000000.0 0.4991921463951755 -0.8292670881398279
4484000000.0 0.4944803374537896 -0.8569311355447014
4488000000.0 0.5199860525751822 -0.8636353072091296
4491000000.0 0.5238154165925332 -0.856266862474913
4494000000.0 0.5399152414282485 -0.8660258854395186
4497000000.0 0.5418796795211127 -0.8432923923875844
4500000000.0 0.5372042649362826 -0.8531280897396643
4503000000.0 0.5634455331225487 -0.8764276678746332
4506000000.0 0.5139131970074298 -0.8353121019147363
4509000000.0 0.5194488322630888 -0.8383389557908477
4512000000.0 0.5087099342826065 -0.8651648987776523
4516000000.0 0.5381044974712447 -0.8556596367591347
4519000000.0 0.5205977260620236 -0.8420905188276633
4522000000.0 0.520557542661594 -0.8715283135497396
4525000000.0 0.5535962188406915 -0.8245318643949537
4528000000.0 0.5559442709765363 -0.89280780257651
4531000000.0 0.5376364382207224 -0.8479559324334696
4534000000.0 0.5149426805387585 -0.8313435624811709
4538000000.0 0.5274768905908305 -0.8535657796228124
4541000000.0 0.5025297877775439 -0.8599222385404519
4544000000.0 0.5250067061407911 -0.8423442554919919
4547000000.0 0.5362633731899329 -0.8343614152392445
4550000000.0 0.5161394776126996 -0.8775413010106934
4553000000.0 0.5149086312895703 -0.8875807206231315
4556000000.0 0.48678235248733526 -0.8548369413786788
4559000000.0 0.5173479845388367 -0.8681841805048702
4562000000.0 0.5386935231982719 -0.8668582417543442
4566000000.0 0.5158429224740717 -0.8803689422021841
4569000000.0 0.5062131002597713 -0.8455582566858917
4572000000.0 0.5155499803013002 -0.861848724770713
4575000000.0 0.5059840947666929 -0.873871387269988
4578000000.0 0.5493255310948518 -0.8927280997508804
4581000000.0 0.5119571803919736 -0.8760129507779038
4584000000.0 0.5160432557675738 -0.8676899825256577
4588000000.0 0.532422544000369 -0.8803655353051636
4591000000.0 0.5221179238418638 -0.8413064592522104
4594000000.0 0.49819929795345685 -0.886004871428951
4597000000.0 0.5325401776572241 -0.8767913244738275
4600000000.0 0.4887754742846476 -0.8777094936710124
4603000000.0 0.5036948118242484 -0.8709052283148582
4606000000.0 0.5071341569131729 -0.8759308991093481
4609000000.0 0.5107517341468258 -0.8699848865831821
4612000000.0 0.529960646429284 -0.8706930864315403
4616000000.0 0.5014070642253613 -0.8582991861749463
4619000000.0 0.5229282477907448 -0.8714167895263991
4622000000.0 0.5028980276071702 -0.8637879021079001
4625000000.0 0.47025777092163734 -0.8523895069475347
4628000000.0 0.5156911408638684 -0.8536127262585358
4631000000.0 0.5003069826535876 -0.8838546259656429
4634000000.0 0.5088812180299256 -0.8811414063547858
4638000000.0 0.5249380833516374 -0.8914003872072732
4641000000.0 0.5238396953131251 -0.8721224743730378
4644000000.0 0.5137298440745065 -0.8610215958337879
4647000000.0 0.5229776016149862 -0.878221913152508
4650000000.0 0.4946483212306607 -0.879630269896806
4653000000.0 0.5360455354931523 -0.8875371792958794
4656000000.0 0.4806855981299777 -0.8821936247661729
4659000000.0 0.4894991780506056 -0.8820393758839711
4662000000.0 0.5117504551319336 -0.8892674116765207
4666000000.0 0.5041919126240466 -0.8795018923205248
4669000000.0 0.5171537635799798 -0.8675987090146055
4672000000.0 0.5031394833804504 -0.8908294868964004
4675000000.0 0.5048801912027004 -0.8966776940032373
4678000000.0 0.4891653865220436 -0.8472683688898927
4681000000.0 0.5065450665601248 -0.9036905261496109
4684000000.0 0.46172295870833924 -0.8999796012791853
4688000000.0 0.49220112524603027 -0.868616550468354
4691000000.0 0.5408296163429376 -0.8706287931025177
4694000000.0 0.5075182437541654 -0.8579879125048284
4697000000.0 0.49128490186256385 -0.8685001042481066
4700000000.0 0.5066016133488002 -0.8799125323389301
4703000000.0 0.5182717447739685 -0.8352880421627537
4706000000.0 0.4807465091437602 -0.9036857439973741
4709000000.0 0.47272481911980807 -0.8988994725752779
4712000000.0 0.515253535837537 -0.8918206343183626
4716000000.0 0.5056802764623329 -0.8654091263427438
4719000000.0 0.5280423485059331 -0.8693176361861799
4722000000.0 0.529621972485233 -0.8558297103880028
4725000000.0 0.536678140956653 -0.8689254385531913
4728000000.0 0.4827746991348953 -0.8684319553976614
4731000000.0 0.5392367786160749 -0.9200625616944956
4734000000.0 0.5192193262941938 -0.8551438923299206
4738000000.0 0.5247407119650469 -0.8742970028074306
4741000000.0 0.5126626015563276 -0.9132495752724918
4744000000.0 0.48086532096503626 -0.8909553837608917
4747000000.0 0.5145746082030428 -0.8698771268200298
4750000000.0 0.4922240604709661 -0.8874373610177055
4753000000.0 0.5135925918606234 -0.8764208864434362
4756000000.0 0.49834579842490384 -0.8917121083831235
4759000000.0 0.542779582006362 -0.8732346717541631
4762000000.0 0.4973806751783308 -0.9163006035547393
4766000000.0 0.4833540580586534 -0.8923982714148607
4769000000.0 0.5131062733936148 -0.9017007158140213
4772000000.0 0.5063733884496353 -0.8806791215418641
4775000000.0 0.5259571940881349 -0.9185512029785594
4778000000.0 0.49533408699111253 -0.90733211705091
4781000000.0 0.5363550516643818 -0.8893184505780332
4784000000.0 0.5224619827538453 -0.889977976901191
4788000000.0 0.4803260773074164 -0.9089206116452803
4791000000.0 0.47647312809477194 -0.8674552064353009
4794000000.0 0.5425847881254724 -0.8976883309629561
4797000000.0 0.485383451931487 -0.891037380836982
4800000000.0 0.4971123777485028 -0.8748406728158756
4803000000.0 0.4835730786163569 -0.8916729962732514
4806000000.0 0.49573228338851283 -0.8980912839485552
4809000000.0 0.4499647285736412 -0.9000037435169641
4812000000.0 0.45652667323443186 -0.8897545991343739
4816000000.0 0.506059482234746 -0.8661903701798906
4819000000.0 0.5324966712814889 -0.9128860228320568
4822000000.0 0.5432888613544313 -0.9107844015738785
4825000000.0 0.54004986632983 -0.899404028251786
4828000000.0 0.5021608469121553 -0.8977894336783387
4831000000.0 0.49677564387649176 -0.9325878148621566
4834000000.0 0.5316966400321674 -0.8848562758264179
4838000000.0 0.4934270466554348 -0.8992599791068058
4841000000.0 0.5017294859087593 -0.8866382312404264
4844000000.0 0.5294670749469932 -0.8874588898310954
4847000000.0 0.5088574282847919 -0.847654796637732
4850000000.0 0.5137398010421804 -0.906260572495434
4853000000.0 0.4994440730046699 -0.8685533082734048
4856000000.0 0.4955059857246391 -0.8817017473937101
4859000000.0 0.5109813602549583 -0.9388213968497295
4862000000.0 0.49936469170610165 -0.850461062166258
4866000000.0 0.49067136448423543 -0.9223626715484475
4869000000.0 0.4994583203890075 -0.8870448394434607
4872000000.0 0.4782772131213464 -0.9355777593668111
4875000000.0 0.5737653141588791 -0.9137222493741589
4878000000.0 0.519256597933021 -0.907471045677828
4881000000.0 0.4979505618376145 -0.958916132594549
4884000000.0 0.5161193709331203 -0.881146640345793
4888000000.0 0.5290549171198872 -0.8625579715569756
4891000000.0 0.5163736853075898 -0.90680907349136
4894000000.0 0.46791514651751553 -0.9071148524031024
4897000000.0 0.5345859010361499 -0.8849446530100505
4900000000.0 0.5311185448168223 -0.897092953536034
4903000000.0 0.5515089774049536 -0.9094973473681005
4906000000.0 0.5176326953869475 -0.8916381110916843
4909000000.0 0.5070799130598886 -0.9002621106834283
4912000000.0 0.4995134163132919 -0.9126364524443545
4916000000.0 0.5266007091716408 -0.9095984149646763
4919000000.0 0.5477410824715201 -0.8989886140960275
4922000000.0 0.5414704681507455 -0.8874185346761646
4925000000.0 0.5099757761007516 -0.9063524389274253
4928000000.0 0.5688484075664759 -0.8583252544487513
4931000000.0 0.5599542581484555 -0.916786568277233
4934000000.0 0.5150734376567054 -0.8595769373164152
4938000000.0 0.47929694011163326 -0.9283742970982428
4941000000.0 0.49802896620808285 -0.8748680670539609
4944000000.0 0.5159758738618682 -0.8093404881576629
4947000000.0 0.4918171291364235 -0.8747986480471143
4950000000.0 0.4971040255641146 -0.8748852912379091
4953000000.0 0.4889431037236591 -0.9292746003513683
4956000000.0 0.5070677118084348 -0.9038963762191846
4959000000.0 0.4620873876278675 -0.8871362109287112
4962000000.0 0.5255757286364265 -0.9030212851307154
4966000000.0 0.5581504858385797 -0.8853904791594769
4969000000.0 0.571472295445687 -0.8811192099945832
4972000000.0 0.5271634624547359 -0.9131121045089831
4975000000.0 0.5435804514633158 -0.8493385950912775
4978000000.0 0.5108044378464276 -0.8890993515212521
4981000000.0 0.5206855007581122 -0.90783970276736
4984000000.0 0.5055745845891351 -0.8628810779424223
4988000000.0 0.5326536627300393 -0.9250436788217633
4991000000.0 0.5815423229828567 -0.8814787860340776
4994000000.0 0.5231322722477485 -0.9007992499450435
4997000000.0 0.49573276635836727 -0.9270620820528499
5000000000.0 0.5694614043922614 -0.9288179867906041
5003000000.0 0.5463853022655167 -0.9238115656517712
5006000000.0 0.54207891384311 -0.9637428073779336
5009000000.0 0.503027859295125 -0.8782286430742736
5012000000.0 0.5101157928551057 -0.8867414163982721
5016000000.0 0.572443706544352 -0.896046219088166
5019000000.0 0.4936210520874049 -0.8895416517963405
5022000000.0 0.5193062281443565 -0.8829393378383135
5025000000.0 0.5711882837299518 -0.9438345690416641
5028000000.0 0.5114913210861832 -0.9308154577851664
5031000000.0 0.5219653284282533 -0.9235565726210073
5034000000.0 0.5168396747652715 -0.9436006571424196
5038000000.0 0.4993827753580906 -0.879654901978743
5041000000.0 0.5688570118278597 -0.8793702669932266
5044000000.0 0.5273212335202018 -0.8461886658167401
5047000000.0 0.5615859187393535 -0.8837580469512376
5050000000.0 0.5842373208584277 -0.8357365872926065
5053000000.0 0.5613763965554273 -0.9428591242215533
5056000000.0 0.5540064522337661 -0.8875061305141736
5059000000.0 0.5702048533530085 -0.8720808853811137
5062000000.0 0.5179617021058783 -0.9432558564995988
5066000000.0 0.5926402985150004 -0.8616009754659961
5069000000.0 0.5435478105962379 -0.9190916767141081
5072000000.0 0.529094385942766 -0.8369476567675844
5075000000.0 0.5879810032614586 -0.8808240913616827
5078000000.0 0.4903832800586648 -0.9265673895493436
5081000000.0 0.5176442334742426 -0.8477282105369972
5084000000.0 0.5307232081610884 -0.9292212470306563
5088000000.0 0.545520008529079 -0.8448445869639826
5091000000.0 0.5103467661978602 -0.8972219196240927
5094000000.0 0.5162905392568244 -0.9050284731613636
5097000000.0 0.5718953238606539 -0.8594470848492806
5100000000.0 0.5834890744376802 -0.8733412437154378
5103000000.0 0.5383762652008701 -0.8829489263472765
5106000000.0 0.6241079878304007 -0.9167219473144377
5109000000.0 0.5989356953493469 -0.8633819273755624
5112000000.0 0.5622937096502842 -0.8884008844376368
5116000000.0 0.5203118655353839 -0.8114725506242919
5119000000.0 0.5503297756262933 -0.9091033442901212
5122000000.0 0.5453978144939496 -0.8280538584963185
5125000000.0 0.5829086035050868 -0.8984934144462797
5128000000.0 0.5648391182255552 -0.878760371129288
5131000000.0 0.5350127830736651 -0.8471802602670278
5134000000.0 0.5484922123098981 -0.8578494685506011
5138000000.0 0.5688466099700749 -0.8676148081834159
5141000000.0 0.6191938728886841 -0.8700594983162153
5144000000.0 0.5748819699186273 -0.8528244522783823
5147000000.0 0.5671775318269467 -0.9017131822591242
5150000000.0 0.6012306933744386 -0.9080915388130315
5153000000.0 0.5416640993447213 -0.8858736068955352
5156000000.0 0.5989041544758462 -0.8732551379242404
5159000000.0 0.6078799341591681 -0.9527080072105728
5162000000.0 0.5272370534890654 -0.8929363943710229
5166000000.0 0.534438692827322 -0.9125880954654655
5169000000.0 0.5771880503002454 -0.8998713816127437
5172000000.0 0.5555919156687019 -0.8368129300502241
5175000000.0 0.5846399176109862 -0.8859257616614404
5178000000.0 0.5365481542069191 -0.855374712852632
