! Created with skrf 1.8.0 (http://scikit-rf.org).
# Hz S RI R 50.0 
!freq ReS11 ImS11
4000000000.0 -0.96471840432057 0.3000761783951609
4003000000.0 -0.92117838013409 0.30434355372708627
4006000000.0 -0.9660394450318526 0.35495481324907957
4009000000.0000005 -0.9318596431658018 0.40101224002586866
4011999999.9999995 -0.8912218424411593 0.46034429080715156
4016000000.0 -0.916900597904664 0.40479305362671597
4019000000.0 -0.9025591911402321 0.43246632392041034
4022000000.0000005 -0.8670340108160595 0.5566503227178065
4025000000.0000005 -0.8767294459756496 0.46437647598166165
4027999999.9999995 -0.8499358685634255 0.5403485346003639
4030999999.9999995 -0.8632028358589517 0.5500941809193081
4034000000.0 -0.8310430055871318 0.5824058552204364
4038000000.0000005 -0.7848752036449148 0.5929653693918333
4041000000.0000005 -0.7479850956405624 0.6361312688063244
4043999999.9999995 -0.7501134191181237 0.6735944138047696
4046999999.9999995 -0.7379042610582272 0.6697099325817444
4050000000.0 -0.699254362001859 0.6761199720873309
4053000000.0 -0.7349885111425127 0.6807112723074917
4056000000.0 -0.6554374952758617 0.7404404963055673
4059000000.0 -0.6314583615530367 0.8145064386757308
4062000000.0000005 -0.6044071585777336 0.7908971681529133
4066000000.0 -0.6106933707924237 0.7955241645610904
4069000000.0 -0.5814461014600207 0.8065679556026273
4072000000.0 -0.547593702772627 0.8385315095259251
4075000000.0 -0.521543462894455 0.8551923634692661
4078000000.0000005 -0.5274663181028219 0.904721896015024
4081000000.0000005 -0.4409214561690501 0.9124838798020234
4083999999.9999995 -0.4638769610169116 0.9111560930797923
4088000000.0 -0.43879928849354793 0.923052925119587
4091000000.0 -0.3913644616163862 1.0047096571672331
4094000000.0000005 -0.3627240417185895 0.9775468318524319
4097000000.0000005 -0.32834138186063466 0.9467031879121671
4099999999.9999995 -0.3094897535844956 0.9740027255485963
4102999999.9999995 -0.2883325246608481 0.9949368633726131
4106000000.0 -0.27439398365271905 1.0166719817179062
4109000000.0 -0.20403106838632712 0.9821328359688138
4112000000.0 -0.1732284714687313 1.0219130905727094
4115999999.9999995 -0.2097902499327357 1.0113449541866504
4119000000.0 -0.10854782711732697 1.0143234445455906
4122000000.0 -0.07968903119799295 1.037343943518407
4125000000.0 -0.06232224018698753 1.0639693853353653
4128000000.0 -0.04999599621539991 0.9985750932006825
4131000000.0 -0.05159236399960829 1.007677113756584
4134000000.0000005 0.017524734777721332 1.0111707397020184
4138000000.0 0.01570683810572319 1.0017395009131613
4141000000.0 0.09698572563456549 1.0334480561207813
4144000000.0 0.07705580596283026 1.0204357108905633
4147000000.0000005 0.14708562416285534 0.9952318465010667
4150000000.0000005 0.11708251405476415 1.0677840004164132
4152999999.9999995 0.15001389261758566 1.057002796277066
4155999999.9999995 0.21967910818925507 1.0534340142309362
4159000000.0 0.19940650438364244 1.0506764312137298
4162000000.0 0.23168092121721534 0.9747773269365299
4166000000.0000005 0.29520269641880853 1.0252264182767943
4168999999.9999995 0.3792371984687505 0.9813469931233813
4171999999.9999995 0.29929030467672996 1.021387123381782
4175000000.0 0.2957418687136987 0.9721547298748213
4178000000.0 0.36708179678092434 0.9869958303712191
4181000000.0 0.30415776359027513 1.0015186632083244
4184000000.0 0.429540388638177 1.0415315087316632
4187999999.9999995 0.4122462714931474 0.995535566982904
4191000000.0 0.37904442189252996 0.9506878758424482
4194000000.0 0.4325980005840183 0.9129281510282369
4197000000.0 0.4639466443145357 0.9227034366744649
4200000000.0 0.5669001027879645 0.8857212620497646
4203000000.0000005 0.42275847360611063 0.8640810449899814
4206000000.0000005 0.508388533900144 0.9153888880133566
4208999999.9999995 0.4811174924518317 0.958442044022578
4211999999.9999995 0.5988388133366751 0.8749390529672003
4216000000.0 0.6163402391372019 0.8462520939468909
4219000000.0000005 0.5936059002295093 0.8401900362319482
4222000000.0000005 0.6157127125619544 0.8776553551621133
4224999999.9999995 0.6260492866500209 0.8529361523342471
4227999999.9999995 0.6205556587986909 0.8774929445419137
4231000000.0 0.6429544098137232 0.7695924743796915
4234000000.0 0.5894450638594865 0.8920782197695457
4238000000.0000005 0.6673699827994739 0.8418923177709786
4240999999.9999995 0.6630028879048778 0.852655046202123
4244000000.0 0.6878951485797514 0.8284399872097307
4247000000.0 0.7599337812441447 0.8535510721489197
4250000000.0 0.7272155751161917 0.8231591496830446
4253000000.0 0.6517443485996571 0.7746933424064052
4256000000.0 0.6879306285935841 0.675384146561081
4259000000.0000005 0.787890974461487 0.7727504395787499
4261999999.9999995 0.7921522590731822 0.7305865727513251
4266000000.0 0.726041793178333 0.7266486992506309
4269000000.0 0.8045093807613625 0.7677245143602356
4272000000.0000005 0.8151891193310096 0.6538827952717212
4275000000.0000005 0.8006709010667563 0.6539096416804095
4277999999.9999995 0.7741103455108703 0.6435731932578346
4280999999.9999995 0.8101291711033247 0.604287720541774
4284000000.0 0.8186982989879412 0.6773284881677839
4288000000.0000005 0.8632100376072862 0.6096627021957284
4291000000.0000005 0.8402829317436652 0.6784720675291
4293999999.9999995 0.8212974386744811 0.6032590980248212
4297000000.0 0.8435693004067416 0.5699651473056702
4300000000.0 0.9215635376857274 0.6075451237741305
4303000000.0 0.8387106505292387 0.658136976247097
4306000000.0 0.9327990892305664 0.5637590926501392
4309000000.0 0.9075185020386154 0.540792622450548
4312000000.0 0.8928182540275601 0.539197059478058
4316000000.0 0.8748407102875843 0.5293054808476229
4319000000.0 0.8735308583552186 0.5355689636337307
4322000000.0 0.9039009435370069 0.4910969160485616
4325000000.0 0.8958061352347396 0.544952296831235
4328000000.0 0.9399910082009107 0.49646891810290256
4331000000.0 0.9228718956841244 0.4610050220804416
4334000000.0 0.9427289524131544 0.5040587189394043
4338000000.0 0.893742234977148 0.48875362563048974
4341000000.0 0.9136939589334714 0.4687244233106357
4344000000.0 0.9011019551248121 0.42631337797445645
4347000000.0 0.9825218374840455 0.4454979824483174
4350000000.0 0.9512978708177998 0.4078099009677144
4353000000.0 0.9469990523529332 0.4204776593439823
4356000000.0 0.9463931827955042 0.47512432568863744
4359000000.0 0.9833694067258276 0.4297259900625869
4362000000.0 0.9247750135195127 0.42186325822486725
4366000000.0 0.9643355708178092 0.3387334361314246
4369000000.0 0.9791511694009508 0.4045907515944033
4372000000.0 0.9552591618898427 0.3749977052033103
4375000000.0 0.9377258969358618 0.34361644798172314
4378000000.0 1.0153440459516465 0.36949064878475735
4381000000.0 0.9755649054226436 0.38258258544929236
4384000000.0 0.9548603157124059 0.30425385428502044
4388000000.0 0.9808413771895907 0.3356869847795187
4391000000.0 0.956072613090188 0.3295660654706158
4394000000.0 0.9513293648599537 0.35520822032207194
4397000000.0 0.9806556387873298 0.323993601530703
4400000000.0 0.9717291130445483 0.33711275163008275
4403000000.0 1.000171616489136 0.3318127278329052
4406000000.0 0.9902804259736894 0.24040908192385552
4409000000.0 0.9811401541666793 0.27346681002343354
4412000000.0 0.9784971643429214 0.2943638034616689
4416000000.0 0.993289576733171 0.25036747339646337
4419000000.0 1.0187834990600895 0.2715563200419295
4422000000.0 0.9897135946811473 0.23993546083027312
4425000000.0 0.9965589003014264 0.27564440150057257
4428000000.0 0.9793717601899088 0.2227061045995094
4431000000.0 1.0109745641659014 0.23059299665381455
4434000000.0 1.0214477712921497 0.23914831120585595
4438000000.0 1.0321479551262616 0.25220400573281404
4441000000.0 1.0266919388332192 0.2454500636222297
4444000000.0 0.980764390837022 0.21185618454069072
4447000000.0 1.0052535713561925 0.2100835525907574
4450000000.0 1.0180540222404293 0.1992233937886183
4453000000.0 1.0100166107440152 0.18054403419864262
4456000000.0 1.0012434028467474 0.17682010782497726
4459000000.0 0.9666532659709819 0.13459491752984626
4462000000.0 1.0596107970789244 0.1782235997748235
4466000000.0 1.0265112321686374 0.15403654084659085
4469000000.0 1.0130234262292825 0.16800646607188874
4472000000.0 1.0387277797156507 0.13533600833871862
4475000000.0 1.0206640287633704 0.13317875902869564
4478000000.0 1.0689631463164027 0.13114877775880068
4481000000.0 1.0019946875865182 0.12216687814961324
4484000000.0 1.0011975328385154 0.1001621401386576
4488000000.0 1.0034827245695839 0.11513201507740345
4491000000.0 1.0182527326288822 0.10205304375781904
4494000000.0 1.0067692527011962 0.09692703923876939
4497000000.0 1.0103117418432639 0.10278061527494764
4500000000.0 1.0188277605286078 0.11381956741288896
4503000000.0 1.0176713477028 0.09172042090326998
4506000000.0 1.0063415848073753 0.08715801321007144
4509000000.0 1.011792805361088 0.0800479093121329
4512000000.0 0.995729059593837 0.07215495243582865
4516000000.0 1.0396154065785779 0.0904226264428924
4519000000.0 1.0067445958592696 0.07371094578285287
4522000000.0 1.0220971903757639 0.03558396075007747
4525000000.0 1.0004295617948096 0.07869476488285643
4528000000.0 1.052039459752324 0.04684342998287211
4531000000.0 1.0235908360818289 0.05592025961596414
4534000000.0 0.997497240273323 0.03067093349879002
4538000000.0 0.9771293331593771 0.011011150577241169
4541000000.0 1.0248766292245468 -0.030224270500873784
4544000000.0 0.9889761624937159 0.04240399249911431
4547000000.0 0.997125763771371 0.05893754569384391
4550000000.0 1.0338386071554415 -0.021844438953300294
4553000000.0 1.0295258753787797 -0.009513699521555119
4556000000.0 0.9895674525246885 -0.0268422276848978
4559000000.0 1.004834899702614 -0.02054423418728918
4562000000.0 1.0312239503918859 0.013244022087004648
4566000000.0 1.016848822240885 -0.02831268044603702
4569000000.0 0.9787641786218367 -0.012510972848867319
4572000000.0 0.9923041003656862 -0.02434446368144988
4575000000.0 1.0192266168934234 -0.062207388280484666
4578000000.0 1.038527521206312 0.006955587250234596
4581000000.0 1.033992128010468 -0.0854151428979592
4584000000.0 0.9910062454712102 -0.04210064291685167
4588000000.0 1.0197667018603418 -0.039973432815395005
4591000000.0 1.0046300172164644 -0.015423924299119651
4594000000.0 1.015497969630057 -0.0743359073531285
4597000000.0 1.0271434620499242 -0.07286614767943886
4600000000.0 0.962281226820453 -0.11497106002538243
4603000000.0 1.0478155801088205 -0.056656275751243435
4606000000.0 0.9924193609836452 -0.08115669216748733
4609000000.0 1.0213524162057621 -0.08914017475844568
4612000000.0 1.0387869218436063 -0.08468182694444332
4616000000.0 0.9810900455580731 -0.11098159199209404
4619000000.0 1.0063850266267271 -0.0592419518476871
4622000000.0 0.992828323239261 -0.05341559526061965
4625000000.0 0.9386255537841179 -0.08954070789778926
4628000000.0 0.9468778375176996 -0.06633738295441574
4631000000.0 0.9763676223906159 -0.15308056644232493
4634000000.0 1.011955636277873 -0.09255397736400567
4638000000.0 0.9870893151770312 -0.10410809517990652
4641000000.0 1.0315655877417094 -0.10130899251077707
4644000000.0 1.001447252475721 -0.12390024046384279
4647000000.0 1.0126447662198443 -0.12049267519622818
4650000000.0 1.0039113402209323 -0.17414337206620203
4653000000.0 1.0198837003171382 -0.13116480000743846
4656000000.0 0.989529023391962 -0.18958112922273523
4659000000.0 0.9831717924144526 -0.12866677537841537
4662000000.0 0.995586405411588 -0.11780763673677286
4666000000.0 1.0041192884244363 -0.1246351031424007
4669000000.0 1.011357384757434 -0.11009317641150564
4672000000.0 0.9692191155008613 -0.2000716718484894
4675000000.0 0.945243585932917 -0.19023068409509303
4678000000.0 1.0022366603723938 -0.16755530997154847
4681000000.0 0.9931774481932745 -0.2150743724739463
4684000000.0 0.9494178273752243 -0.17459935184043646
4688000000.0 0.9721085316863435 -0.16090835336073242
4691000000.0 0.9611333575945493 -0.16748613111760807
4694000000.0 0.991843253823644 -0.20908507474308285
4697000000.0 0.9952104420395607 -0.18133545020376834
4700000000.0 0.9970888055850915 -0.1676001582071801
4703000000.0 1.015275308630107 -0.2303579031815392
4706000000.0 0.9814436924633448 -0.18282333032670617
4709000000.0 0.972150369579342 -0.20831068796744914
4712000000.0 0.9721501039050335 -0.23091117320448645
4716000000.0 0.9871998622845239 -0.20033863386274856
4719000000.0 0.9886162264288564 -0.22456153109651297
4722000000.0 1.00299882194671 -0.22594924053682625
4725000000.0 0.9597195705413738 -0.2534432982707416
4728000000.0 0.9536246270189965 -0.22260748421094403
4731000000.0 0.9807358320095245 -0.2044519933700343
4734000000.0 0.9680972215986335 -0.22679624999761427
4738000000.0 0.9576916192577247 -0.2251024336308844
4741000000.0 0.9651370956628347 -0.21948131720535713
4744000000.0 0.978974066915143 -0.2560498267016641
4747000000.0 0.9783902379391307 -0.23648801637198646
4750000000.0 0.950500787944703 -0.2638298683435744
4753000000.0 0.9668545713318707 -0.2870630002190165
4756000000.0 0.9733214871281718 -0.28355430933093084
4759000000.0 0.9728661827664882 -0.2737330247992583
4762000000.0 0.9608988669537691 -0.23178534253079988
4766000000.0 0.9641218974778072 -0.2684082097692514
4769000000.0 1.0130249440781862 -0.2608002006665175
4772000000.0 0.9735193669528732 -0.29075138021019226
4775000000.0 0.9669011756326532 -0.3011295362569598
4778000000.0 0.9703668351051663 -0.2301706602700461
4781000000.0 0.9750873467566245 -0.26845644485440256
4784000000.0 0.9665662243948843 -0.2669932689116298
4788000000.0 0.9539855143651446 -0.265955629488371
4791000000.0 0.9656718519610253 -0.30420556936888765
4794000000.0 0.950109420245292 -0.284075360704626
4797000000.0 0.9851942244227717 -0.3001114218019821
4800000000.0 0.9624650975564405 -0.31049266227773814
4803000000.0 0.9530424034299685 -0.2932963081769104
4806000000.0 0.9656683350908408 -0.27942524981135675
4809000000.0 0.9568466442289529 -0.31077631759909613
4812000000.0 0.9624320594107068 -0.33167352372650727
4816000000.0 0.9598709460982491 -0.30688432524242215
4819000000.0 0.9641219777837065 -0.3164506790446549
4822000000.0 0.9757667953745076 -0.3162099477299018
4825000000.0 0.9649151352934364 -0.2871794254603246
4828000000.0 0.954778558571653 -0.3120857070768318
4831000000.0 0.9662505439562379 -0.35773751235827533
4834000000.0 0.9546188425516939 -0.332245601290028
4838000000.0 0.9655884863962834 -0.35337447436073494
4841000000.0 0.9393243656296467 -0.33681925415885805
4844000000.0 0.9716125453382142 -0.3097302474625498
4847000000.0 0.9498564178109179 -0.3363475225288953
4850000000.0 0.9648332311858792 -0.35739111882991553
4853000000.0 0.959642823954441 -0.3359933548147945
4856000000.0 0.9557689587471062 -0.3586317957112554
4859000000.0 0.9764138002664771 -0.3641266379903711
4862000000.0 0.9453415386858159 -0.32162724477026794
4866000000.0 0.9621487145487914 -0.33459095704473574
4869000000.0 0.9589848307119737 -0.357478650756839
4872000000.0 0.9744222350169338 -0.38239576133493497
4875000000.0 0.9772548006760466 -0.34276671741169
4878000000.0 0.9639148297924307 -0.37054751166061206
4881000000.0 1.0017048519901532 -0.38328364008052634
4884000000.0 0.9696147334878231 -0.3528979865674583
4888000000.0 0.967462150826744 -0.35223517332723997
4891000000.0 0.9578677018126442 -0.35982071498742835
4894000000.0 0.9466016681242102 -0.36055467712141004
4897000000.0 0.9631160626159285 -0.3480695286282951
4900000000.0 0.963252538620708 -0.3815901211431567
4903000000.0 0.9680500960483027 -0.35888084676320076
4906000000.0 0.971961519967461 -0.3977025343602226
4909000000.0 0.9456152881136302 -0.3868456095381177
4912000000.0 0.9549843176754147 -0.4002996830349131
4916000000.0 0.9855142039635478 -0.37906407943293574
4919000000.0 0.9769625891955249 -0.3860476962830948
4922000000.0 0.9817568872206377 -0.36948057832333964
4925000000.0 0.9323801252717727 -0.38924010888459626
4928000000.0 0.9492752926229764 -0.3517223737588647
4931000000.0 0.9669324265637482 -0.3641744095099254
4934000000.0 0.9167984831409302 -0.3892821956292498
4938000000.0 0.9448794145485757 -0.40590863118591913
4941000000.0 0.9137791662490273 -0.4084765301864529
4944000000.0 0.9207562663067176 -0.3563181315904783
4947000000.0 0.9365216191954564 -0.3608826890793687
4950000000.0 0.8984572083084679 -0.39388285525951433
4953000000.0 0.9677514652129489 -0.4216491889354147
4956000000.0 0.9073259299590926 -0.41882140691302
4959000000.0 0.8914755902164626 -0.41119423480069184
4962000000.0 0.952312881957444 -0.40579889437268607
4966000000.0 0.9708553957453706 -0.39803074320416504
4969000000.0 0.9827296211034324 -0.41695665323926284
4972000000.0 0.9615132760584251 -0.4487291528532047
4975000000.0 0.9468241310153264 -0.39006239369492784
4978000000.0 0.9475250116912071 -0.3900055578027572
4981000000.0 0.9486618142529248 -0.44732246299334305
4984000000.0 0.9263003234687874 -0.38958439283611196
4988000000.0 0.921845415502853 -0.3931237562205491
4991000000.0 0.9781137213562243 -0.374225567316894
4994000000.0 0.9318533749048677 -0.3885881768721399
4997000000.0 0.9302602913272746 -0.4432565170326408
5000000000.0 0.9852631347828976 -0.3756901249609703
5003000000.0 0.9528819564154543 -0.4417709566940601
5006000000.0 0.9912902553900076 -0.4571409399773406
5009000000.0 0.9310647127025542 -0.40684254658980806
5012000000.0 0.936535149476176 -0.4255815805427151
5016000000.0 0.9906358340352204 -0.38521569542334205
5019000000.0 0.9208114832224411 -0.4203222658980118
5022000000.0 0.9145701261450362 -0.45972244496138803
5025000000.0 0.9984550287188735 -0.4558299494673985
5028000000.0 0.9252236969952178 -0.47026334344867926
5031000000.0 0.9165088358154933 -0.45313542649997707
5034000000.0 0.9312716155228755 -0.48398259527467735
5038000000.0 0.8981721265449158 -0.4400838051096
5041000000.0 0.9598026276177447 -0.4033661199718232
5044000000.0 0.9195515833433853 -0.3767304554843987
5047000000.0 0.9674787277666651 -0.4129397455074061
5050000000.0 0.9339541659548709 -0.3481396249812334
5053000000.0 0.9603014114088986 -0.4785736628717773
5056000000.0 0.9866131957027844 -0.4087576059382956
5059000000.0 0.963972772170895 -0.3864092132117442
5062000000.0 0.9464510876807063 -0.4753663093612561
5066000000.0 0.9499537076102066 -0.38854752405274157
5069000000.0 0.9556753705107104 -0.4322518986219991
5072000000.0 0.8907125433729467 -0.4325323240854312
5075000000.0 0.9322020798223398 -0.447917937195741
5078000000.0 0.9172094697342232 -0.5118058742469085
5081000000.0 0.8822810728213525 -0.4529016015610331
5084000000.0 0.9611759113917928 -0.43905457562290434
5088000000.0 0.9282819176676285 -0.41971045933489415
5091000000.0 0.9548955990113094 -0.47096735829321895
5094000000.0 0.960867996888959 -0.47938034472630975
5097000000.0 0.9668587500390512 -0.3981835380092136
5100000000.0 0.9389791016460749 -0.4439439158783557
5103000000.0 0.9307879867779666 -0.4514971685913844
5106000000.0 1.0337501653411263 -0.44166159339819194
5109000000.0 0.9547525826993123 -0.43381218026425383
5112000000.0 0.9131097500692882 -0.45110948856970534
5116000000.0 0.891933586432551 -0.41719756686054205
5119000000.0 0.905064773750729 -0.4326698886040312
5122000000.0 0.946111312726091 -0.40142161482110766
5125000000.0 0.9350160671378475 -0.41465109502661457
5128000000.0 0.9470932908877525 -0.46680045841394074
5131000000.0 0.8945177633540322 -0.42251578296725595
5134000000.0 0.9447588810742369 -0.45973904177805625
5138000000.0 0.9640602205826427 -0.44920083873973565
5141000000.0 0.9702247608345229 -0.40856047352504987
5144000000.0 0.98299713216866 -0.4394321035575933
5147000000.0 0.9142306773177206 -0.4729356507400742
5150000000.0 0.9089701198635302 -0.41435922205459597
5153000000.0 0.9412630908733572 -0.4533852010288912
5156000000.0 0.9804471828284897 -0.47154792881679297
5159000000.0 0.9981287689584282 -0.4181856972741452
5162000000.0 0.9273048743554028 -0.48934410823111196
5166000000.0 0.9728957732576564 -0.5039036342209656
5169000000.0 0.9563794013730833 -0.4620635943227921
5172000000.0 0.9371202011856219 -0.4592406426634477
5175000000.0 0.9581090861790584 -0.45906303441936275
5178000000.0 0.9079903185584802 -0.4338188974066918
