! Created with skrf 1.8.0 (http://scikit-rf.org).
# Hz S RI R 50.0 
!freq ReS11 ImS11
4000000000.0 0.5577180760383256 -0.8338276865288438
4003000000.0 0.5885501149538337 -0.8889159371036139
4006000000.0 0.48023812810957567 -0.8689623950659967
4009000000.0000005 0.5311205876243044 -0.8667252451352279
4011999999.9999995 0.6178193848679322 -0.8294140491080871
4016000000.0 0.5945030231218942 -0.914968660481968
4019000000.0 0.5607425477332604 -0.9214378047959507
4022000000.0000005 0.663035010425944 -0.8624662266437889
4025000000.0000005 0.5156264119572153 -0.8890792632572398
4027999999.9999995 0.5663179457759228 -0.9420760760766844
4030999999.9999995 0.5034596682241241 -0.8357331742135795
4034000000.0 0.5668809494789226 -0.8619826877721377
4038000000.0000005 0.5927610747872223 -0.9096274844151839
4041000000.0000005 0.5413753816783421 -0.8620876352179351
4043999999.9999995 0.5635312239416419 -0.8941060946084449
4046999999.9999995 0.5727043981147968 -0.9001899098816617
4050000000.0 0.5754498583050103 -0.8983031391784762
4053000000.0 0.4977704295470395 -0.8843625020407516
4056000000.0 0.5531640196335271 -0.8673706107505402
4059000000.0 0.5562392729033957 -0.8505721358864575
4062000000.0000005 0.5131105745608393 -0.9030317794343296
4066000000.0 0.5060748463997093 -0.792294363849198
4069000000.0 0.5651796016785947 -0.9558693108450752
4072000000.0 0.5610218215940929 -0.8734117405342144
4075000000.0 0.5944770420798281 -0.8919457498885145
4078000000.0000005 0.5740971867862731 -0.8820796642236617
4081000000.0000005 0.6183302323126096 -0.8954945726027562
4083999999.9999995 0.5443528021176687 -0.8622175206833698
4088000000.0 0.6056444439547539 -0.8481564857610551
4091000000.0 0.5958594585970087 -0.941461730741711
4094000000.0000005 0.5379031830831091 -0.8709784603851533
4097000000.0000005 0.5527620553274305 -0.8385041095559682
4099999999.9999995 0.5210328688055855 -0.8536549361443639
4102999999.9999995 0.5599233413565594 -0.870726958698111
4106000000.0 0.5278625802581682 -0.878247921963588
4109000000.0 0.5606705908756036 -0.895728419958609
4112000000.0 0.528263906845399 -0.8642410269038655
4115999999.9999995 0.5725727093694422 -0.8631202759926396
4119000000.0 0.5495955605157749 -0.8974765810838141
4122000000.0 0.5338914604000194 -0.9173336226762933
4125000000.0 0.5505141734554658 -0.9223132529305044
4128000000.0 0.5603815187068025 -0.8207928380904689
4131000000.0 0.5548545403678121 -0.8506294890982397
4134000000.0000005 0.5349460945829377 -0.8597857335710066
4138000000.0 0.5347282500581251 -0.8512252605684216
4141000000.0 0.575673860045633 -0.8530403339787208
4144000000.0 0.5539779859796244 -0.894377422369792
4147000000.0000005 0.556655132037537 -0.8890897896156097
4150000000.0000005 0.5593180768988355 -0.9021548776371872
4152999999.9999995 0.5302117913141018 -0.8684774039557488
4155999999.9999995 0.6150046581872102 -0.8641572601796386
4159000000.0 0.5653451964927447 -0.8088461114338639
4162000000.0 0.5396651816241639 -0.8903707517810027
4166000000.0000005 0.5522810861298751 -0.8795118006460827
4168999999.9999995 0.5417193536398227 -0.85839817584387
4171999999.9999995 0.5717586945823067 -0.8715301204255383
4175000000.0 0.5792308491411283 -0.8578644257329684
4178000000.0 0.5604958800237181 -0.9022033845840546
4181000000.0 0.5408930236519144 -0.854143417957467
4184000000.0 0.547895509958984 -0.8551859554157191
4187999999.9999995 0.5563121173951671 -0.8656198071389695
4191000000.0 0.5905633717358987 -0.8470022325644027
4194000000.0 0.5446099358133377 -0.8278507441409227
4197000000.0 0.553513956879583 -0.8807734284560319
4200000000.0 0.5333726886456627 -0.855785818444331
4203000000.0000005 0.5903231955725654 -0.8570431680294709
4206000000.0000005 0.569146872166917 -0.8684516434646119
4208999999.9999995 0.5575386138783429 -0.8690782591976118
4211999999.9999995 0.5246743443558112 -0.8770791829446503
4216000000.0 0.5763986235392562 -0.85152254972618
4219000000.0000005 0.578724009363969 -0.8616874814419025
4222000000.0000005 0.547604312533 -0.8600324439433943
4224999999.9999995 0.5586367417667951 -0.8464768291490784
4227999999.9999995 0.5544176300884531 -0.8529089261278143
4231000000.0 0.5437894165968384 -0.8377041998617839
4234000000.0 0.555858640911719 -0.8654673576505212
4238000000.0000005 0.5358999359470915 -0.8650678985453442
4240999999.9999995 0.5586592026237486 -0.8674127489463876
4244000000.0 0.565523148292719 -0.8441777391532872
4247000000.0 0.5558561927813491 -0.8515956261192235
4250000000.0 0.5474866478908408 -0.8418252819336813
4253000000.0 0.5270825655102763 -0.8231184569578591
4256000000.0 0.558217653635646 -0.8810336463768307
4259000000.0000005 0.5439940515174466 -0.8317519185138158
4261999999.9999995 0.5415020292662274 -0.8631129179366291
4266000000.0 0.5419813751739234 -0.8828951590700647
4269000000.0 0.5683180426058857 -0.8421198212576898
4272000000.0000005 0.5677635612497267 -0.8453581911203663
4275000000.0000005 0.574611372156905 -0.8552259011125335
4277999999.9999995 0.5632692157280761 -0.8585105496594386
4280999999.9999995 0.5512967487148891 -0.8504843748516261
4284000000.0 0.531773776597436 -0.8619198279132797
4288000000.0000005 0.5951458518863049 -0.8530741296171236
4291000000.0000005 0.5527761376876349 -0.8467542190341251
4293999999.9999995 0.5474360310357147 -0.8460645358884255
4297000000.0 0.5672730392881968 -0.84502672889789
4300000000.0 0.564632057575859 -0.8655149254327807
4303000000.0 0.526905694559381 -0.8624762032315583
4306000000.0 0.5991038079654842 -0.869636706058781
4309000000.0 0.5630995238882032 -0.8462432040977556
4312000000.0 0.5946259616301465 -0.8756917092096288
4316000000.0 0.5732126384143449 -0.8689441688180904
4319000000.0 0.5615762301416645 -0.8389740922083488
4322000000.0 0.5114675142371453 -0.8451131010126844
4325000000.0 0.5472878159099555 -0.8693751665851234
4328000000.0 0.5458117957177354 -0.8400315354546529
4331000000.0 0.5409097909527241 -0.8668411675582123
4334000000.0 0.5565627291669175 -0.8814459788566098
4338000000.0 0.570933843354239 -0.8528880761232978
4341000000.0 0.5814059766156732 -0.8698190956733383
4344000000.0 0.5524120464195806 -0.857589883941155
4347000000.0 0.5263481069443445 -0.8784392528197422
4350000000.0 0.5147241666234375 -0.8298114119491014
4353000000.0 0.5572035693281091 -0.8246069405134435
4356000000.0 0.5286320251554354 -0.8506853494506985
4359000000.0 0.5128520632399312 -0.7884818226320142
4362000000.0 0.5038957301304003 -0.8921527267224495
4366000000.0 0.5535052211251629 -0.8735902505142408
4369000000.0 0.5250634309556917 -0.8299879237549865
4372000000.0 0.5127313135039842 -0.8492232864808742
4375000000.0 0.5493368164277255 -0.8442562677621201
4378000000.0 0.5229464442209045 -0.8370083185830696
4381000000.0 0.55620013778152 -0.8442125842380125
4384000000.0 0.5766879250866243 -0.9021329916540132
4388000000.0 0.5456165884545798 -0.8270512751580219
4391000000.0 0.5424130761980693 -0.8573844011704557
4394000000.0 0.5340929378272078 -0.8375760006680223
4397000000.0 0.5457417465342517 -0.8400240130726578
4400000000.0 0.5604258745821125 -0.8732819424031091
4403000000.0 0.5482775969179442 -0.8633364155834781
4406000000.0 0.5266677545083188 -0.8688036226885558
4409000000.0 0.5510149884388374 -0.8749316357149085
4412000000.0 0.4953963268756807 -0.8894013131519681
4416000000.0 0.5303502504050999 -0.8606729805099319
4419000000.0 0.5261989488899798 -0.8695864605926232
4422000000.0 0.5468436173738103 -0.8433524651225947
4425000000.0 0.5641608901081954 -0.8482246085194687
4428000000.0 0.5331406450942181 -0.8549504203680266
4431000000.0 0.5664678766978734 -0.8730067953121561
4434000000.0 0.529829722577715 -0.843424005625465
4438000000.0 0.5609205470559983 -0.877427152575657
4441000000.0 0.5511683344227468 -0.857915323648746
4444000000.0 0.5311148103848444 -0.8410422585411069
4447000000.0 0.5203673312941787 -0.8648224574689942
4450000000.0 0.5384820588338601 -0.8384874556326303
4453000000.0 0.5517850935469866 -0.8759686854521236
4456000000.0 0.5290559473486744 -0.8286226661392777
4459000000.0 0.502541546787092 -0.8293148689493033
4462000000.0 0.5692187482350721 -0.9083711960636753
4466000000.0 0.5529663607465349 -0.8807471509392599
4469000000.0 0.5590983396280402 -0.8620938606534492
4472000000.0 0.5226335543741193 -0.8797524152281339
4475000000.0 0.5281368187183271 -0.8261768026308425
4478000000.0 0.5498333436202397 -0.9093053667571105
4481000000.0 0.511429404941875 -0.8408900361520746
4484000000.0 0.4891168884254128 -0.8817762890831328
4488000000.0 0.5063824218210851 -0.8466177443411328
4491000000.0 0.528276964706847 -0.853371162225071
4494000000.0 0.5201407213858742 -0.8561046807509416
4497000000.0 0.5324509188884126 -0.8337404143461323
4500000000.0 0.5471432060871841 -0.8503923836163233
4503000000.0 0.5589886299684473 -0.8691654764765933
4506000000.0 0.5176775538177768 -0.8584177376863642
4509000000.0 0.518950802373974 -0.8539812426917195
4512000000.0 0.4929036255016289 -0.8494536061173108
4516000000.0 0.5665358952444562 -0.8751901591428306
4519000000.0 0.5398050503657585 -0.8372875051432499
4522000000.0 0.5089508914693195 -0.8633548001863927
4525000000.0 0.5584088699581642 -0.8486733313335386
4528000000.0 0.5470953429762742 -0.8651513856612135
4531000000.0 0.5472648118096461 -0.8559866475169786
4534000000.0 0.5037867635705903 -0.841681816809791
4538000000.0 0.5072094126335421 -0.859312012210041
4541000000.0 0.5002936952264645 -0.8733319246902196
4544000000.0 0.526986536852871 -0.8596385575138807
4547000000.0 0.5345607103652092 -0.8313816456809939
4550000000.0 0.5194357704856649 -0.8704565777248957
4553000000.0 0.5154035012682385 -0.8605515024579291
4556000000.0 0.5200642906409622 -0.8373242738465971
4559000000.0 0.5100683394560045 -0.8813550491777565
4562000000.0 0.5536136406091258 -0.8603417816492915
4566000000.0 0.534896189158585 -0.8678822964917698
4569000000.0 0.5096992808594364 -0.8629801666012028
4572000000.0 0.5269067099373572 -0.8606787031538436
4575000000.0 0.5051888878669619 -0.8681708666470966
4578000000.0 0.5536379628769403 -0.8850237008232458
4581000000.0 0.5075127257767619 -0.8784887359922666
4584000000.0 0.522449051352401 -0.8624853369855532
4588000000.0 0.5320022887454137 -0.8822347304550269
4591000000.0 0.5287978934091753 -0.866485981611657
4594000000.0 0.48968125583143496 -0.8750668550238226
4597000000.0 0.5170954373624534 -0.9011672256537789
4600000000.0 0.4800345830059254 -0.8702222098404693
4603000000.0 0.5211872959570201 -0.8934395869135698
4606000000.0 0.5261552369745255 -0.877176744062746
4609000000.0 0.5251399523519233 -0.8776162577938953
4612000000.0 0.5391468355281576 -0.8781124934547384
4616000000.0 0.49976921515073125 -0.8592866448096521
4619000000.0 0.5133503269972022 -0.8516285251414477
4622000000.0 0.5201439297805873 -0.8761558822439477
4625000000.0 0.4823256652998652 -0.8605042712140848
4628000000.0 0.5163061568409333 -0.8523909015575208
4631000000.0 0.48689920028926525 -0.8721425410986174
4634000000.0 0.49876110027935716 -0.8703204217282235
4638000000.0 0.5142429271715777 -0.8646290701664137
4641000000.0 0.5213852360287591 -0.8772354287444475
4644000000.0 0.5157267999472401 -0.8641326427297927
4647000000.0 0.5226237165958436 -0.8646673068802192
4650000000.0 0.4747727836788307 -0.8632984077752179
4653000000.0 0.5186544105370294 -0.8732303102814596
4656000000.0 0.5012404861922809 -0.8811733629746984
4659000000.0 0.5104079434340218 -0.8842568366024672
4662000000.0 0.528377872246408 -0.8797545281850372
4666000000.0 0.5098327963300833 -0.8767039438604777
4669000000.0 0.5215649155306386 -0.8749444179470475
4672000000.0 0.51350612406043 -0.8928113795837119
4675000000.0 0.48362352793222324 -0.8904084833679249
4678000000.0 0.48372112719064786 -0.8656461547006787
4681000000.0 0.5020817846361997 -0.8904479680806734
4684000000.0 0.4980969442196284 -0.894264009913825
4688000000.0 0.49404905091106066 -0.8758835814940267
4691000000.0 0.5129344704715039 -0.8779203420532765
4694000000.0 0.5029020265329516 -0.8805886947220105
4697000000.0 0.49167802274028505 -0.8549013762894805
4700000000.0 0.52915621821034 -0.8673113393935004
4703000000.0 0.5188142627401487 -0.8260506908310424
4706000000.0 0.48373743057383145 -0.8970185956351628
4709000000.0 0.4813526799118982 -0.8691450028960133
4712000000.0 0.5271392275092541 -0.8952167614141958
4716000000.0 0.5007781831294628 -0.9016338526203033
4719000000.0 0.520402685712743 -0.8859840784468168
4722000000.0 0.5215867832338527 -0.8704410213622362
4725000000.0 0.49133881489090786 -0.8648193681349027
4728000000.0 0.497816324297666 -0.8632435088316784
4731000000.0 0.544907911200618 -0.9025137408266954
4734000000.0 0.5234346373198581 -0.8809274120504155
4738000000.0 0.5335035187507924 -0.90322205499762
4741000000.0 0.49966376627623443 -0.8852374916340352
4744000000.0 0.49948699924494233 -0.9178305404304804
4747000000.0 0.5147270863614879 -0.8576056614002854
4750000000.0 0.524639645152828 -0.8834437412810978
4753000000.0 0.5049935432176884 -0.8925661669635683
4756000000.0 0.5017185415170033 -0.901161529972795
4759000000.0 0.5124222199525009 -0.9247133797233095
4762000000.0 0.4983951939059539 -0.9030107603323818
4766000000.0 0.4922085704660713 -0.8963535632962639
4769000000.0 0.5187916154910516 -0.9220072460745499
4772000000.0 0.47877242722124913 -0.8934678248107235
4775000000.0 0.5055577283410962 -0.9072542989158757
4778000000.0 0.492213067832115 -0.894963304886519
4781000000.0 0.5090700173081135 -0.8822222714587092
4784000000.0 0.5450658998397901 -0.8652038250004069
4788000000.0 0.5129071441320373 -0.909112321975747
4791000000.0 0.5011781079293017 -0.8560543223014969
4794000000.0 0.5290433061037476 -0.8835450795711883
4797000000.0 0.4882508648434139 -0.8989942217918977
4800000000.0 0.49285233282858576 -0.8782705558478775
4803000000.0 0.44436421321127006 -0.9085892505711999
4806000000.0 0.5113224203696499 -0.89106743227472
4809000000.0 0.4460975361319108 -0.9105244564077453
4812000000.0 0.47693829186813397 -0.9249085390729137
4816000000.0 0.5122664223884063 -0.872329773061547
4819000000.0 0.5179279544580426 -0.9087424801997335
4822000000.0 0.5520942240219531 -0.8964106832711831
4825000000.0 0.5346295825723631 -0.9030381914247841
4828000000.0 0.48784647860507657 -0.8940142285175969
4831000000.0 0.46514615638541057 -0.9198132591116495
4834000000.0 0.5243017230275893 -0.8812461402195226
4838000000.0 0.49881901036224474 -0.9099325104602421
4841000000.0 0.48582419920961234 -0.8929142513238231
4844000000.0 0.5383709212746455 -0.8657952848380843
4847000000.0 0.4984257240149635 -0.853594147057205
4850000000.0 0.5001739174900692 -0.9411891659473297
4853000000.0 0.5112974234001477 -0.8628448717202332
4856000000.0 0.4817901741809273 -0.88153159472888
4859000000.0 0.5176662471861384 -0.9103890220761115
4862000000.0 0.5052502152078244 -0.851491482477803
4866000000.0 0.4867804642317285 -0.8999459788597376
4869000000.0 0.49885737131064434 -0.9183873757583269
4872000000.0 0.4939480100927668 -0.9407820135923907
4875000000.0 0.5552871253702105 -0.9096070308171135
4878000000.0 0.503022547585818 -0.887152726583177
4881000000.0 0.5079730891535401 -0.9766237025673479
4884000000.0 0.5266482378719288 -0.8810387337767459
4888000000.0 0.5361876213635351 -0.8642771186124458
4891000000.0 0.5364647546807557 -0.9033758840109887
4894000000.0 0.4959085602895333 -0.897027822218772
4897000000.0 0.5404959178035877 -0.8684744609582382
4900000000.0 0.5061364944972592 -0.898867635861301
4903000000.0 0.5533303448098168 -0.9221898217462139
4906000000.0 0.5205377958723615 -0.9266043399290959
4909000000.0 0.5114346273557289 -0.9031813168501954
4912000000.0 0.525469588337931 -0.9181654811000248
4916000000.0 0.5402429678130098 -0.9349232149838513
4919000000.0 0.5597271719558987 -0.9171792897703369
4922000000.0 0.5349224819477778 -0.9056482336568492
4925000000.0 0.4586990852845782 -0.8858472103236352
4928000000.0 0.5497710940807462 -0.8557865881544325
4931000000.0 0.5660204436928438 -0.9113531987044858
4934000000.0 0.509942496759768 -0.8467679632335791
4938000000.0 0.49655828870361085 -0.87414776643282
4941000000.0 0.5107995112099497 -0.884926129086807
4944000000.0 0.5089254498224993 -0.8520484093221978
4947000000.0 0.5156657850459457 -0.8730007182855084
4950000000.0 0.5074317117237903 -0.8624187086523363
4953000000.0 0.5116507616520395 -0.9450043837755228
4956000000.0 0.5163429107370362 -0.9035422261538651
4959000000.0 0.45502276865588853 -0.8750272105555819
4962000000.0 0.5013022455144224 -0.9201201260932845
4966000000.0 0.5771091942193584 -0.8890168414821937
4969000000.0 0.5473001899567077 -0.9302407986489195
4972000000.0 0.5035525552573217 -0.9012453014401434
4975000000.0 0.5285778432106782 -0.871270816090491
4978000000.0 0.4987388026949204 -0.8933477883392723
4981000000.0 0.5248586282343173 -0.9092095916254911
4984000000.0 0.5015942416655228 -0.877038395516357
4988000000.0 0.5046083756320887 -0.8792266555865986
4991000000.0 0.581927873976102 -0.8797220113221198
4994000000.0 0.5380025300242552 -0.921466085038811
4997000000.0 0.5002087988589025 -0.8983960389523455
5000000000.0 0.5630450840757101 -0.9249621926459851
5003000000.0 0.5485655088844601 -0.9064711146185194
5006000000.0 0.5407022607649523 -0.9618406720633793
5009000000.0 0.521679762953374 -0.8925376210877498
5012000000.0 0.5047965838221147 -0.9104334746685038
5016000000.0 0.5757277676625834 -0.8604122056744601
5019000000.0 0.5135032988787952 -0.9155465493834483
5022000000.0 0.5346387029299596 -0.8786451429117802
5025000000.0 0.5567772142468648 -0.9494563688754416
5028000000.0 0.5234122869137025 -0.9264531462498633
5031000000.0 0.5206553348813284 -0.9055178509050561
5034000000.0 0.5258888805614514 -0.9115400710037282
5038000000.0 0.5215832303486143 -0.8445401953230925
5041000000.0 0.5886358206816891 -0.8604420315879238
5044000000.0 0.5461142310878999 -0.8808293783222777
5047000000.0 0.5597077368321317 -0.8812089698340032
5050000000.0 0.5766726224369404 -0.846222103589471
5053000000.0 0.5878267486305903 -0.9412719998542534
5056000000.0 0.5941612665738966 -0.8447688224997832
5059000000.0 0.6051654782234275 -0.8721637476972413
5062000000.0 0.49326188575142144 -0.9381813240274426
5066000000.0 0.59917281960864 -0.8792217649156606
5069000000.0 0.5704713049522282 -0.9259833994636771
5072000000.0 0.5379395190909111 -0.8743358197167149
5075000000.0 0.564575089442483 -0.9055443987046194
5078000000.0 0.5048514421711945 -0.9200457154258348
5081000000.0 0.5139160507338073 -0.9180887918422751
5084000000.0 0.5915321812277079 -0.9041455357764858
5088000000.0 0.5443403843529563 -0.8397385166768874
5091000000.0 0.5281711319529792 -0.8982123319666868
5094000000.0 0.512626822184068 -0.9147311900782622
5097000000.0 0.6130267170270953 -0.8493282071297075
5100000000.0 0.5745139150769384 -0.8853463455927124
5103000000.0 0.5315136762839454 -0.9150788857900192
5106000000.0 0.5516992413043951 -0.9026717498114003
5109000000.0 0.5838802382893008 -0.8821935011873573
5112000000.0 0.5717628957842444 -0.896456125022493
5116000000.0 0.5689819947572721 -0.8765497898980145
5119000000.0 0.5065987421961176 -0.9399607011847135
5122000000.0 0.5696122203403264 -0.8928124094335479
5125000000.0 0.5775186308350801 -0.8668313678686121
5128000000.0 0.5201142370989041 -0.879338522696999
5131000000.0 0.5218041383584413 -0.898886868940254
5134000000.0 0.5558652597766481 -0.8647552523823168
5138000000.0 0.5672559397420771 -0.8972420568091789
5141000000.0 0.6004604901978932 -0.8741010561607547
5144000000.0 0.6111677960050106 -0.8641591582041417
5147000000.0 0.5474839520820588 -0.9040928708859004
5150000000.0 0.5737437165502162 -0.8387099414838625
5153000000.0 0.5608832865633783 -0.8685498467868653
5156000000.0 0.5833768829467038 -0.8830640545675927
5159000000.0 0.5855631089781816 -0.9181708324614632
5162000000.0 0.5478328251118019 -0.8810297158965659
5166000000.0 0.5511216046901337 -0.8747277511030418
5169000000.0 0.5758047462248216 -0.8928863745312059
5172000000.0 0.5850324834541902 -0.8865874789694724
5175000000.0 0.5821677508013555 -0.917436950994449
5178000000.0 0.5717709318858984 -0.8748965283885894
5181000000.0 0.5751116008176758 -0.9109375600178757
