! Created with skrf 1.8.0 (http://scikit-rf.org).
# Hz S RI R 50.0 
!freq ReS11 ImS11
4000000000.0 0.5212908494833021 -0.861665373472682
4003000000.0 0.5823806673837741 -0.9397112814988814
4006000000.0 0.5239906931069873 -0.8840571606149119
4009000000.0000005 0.567677509707615 -0.8724983711131713
4011999999.9999995 0.5847322260960439 -0.886843703062504
4016000000.0 0.5290679003459103 -0.9138597932331161
4019000000.0 0.513422657448629 -0.9051631704008085
4022000000.0000005 0.619553478573511 -0.8665738707969022
4025000000.0000005 0.5321310929573357 -0.9098154666727868
4027999999.9999995 0.5304969641794492 -0.8644968444867648
4030999999.9999995 0.5228739134303703 -0.8383244756905782
4034000000.0 0.5374819151417312 -0.8730231066828888
4038000000.0000005 0.554862804593253 -0.9213643167084182
4041000000.0000005 0.5687171026659567 -0.8860072117696962
4043999999.9999995 0.5628521970073703 -0.9387262413718259
4046999999.9999995 0.5862681479944521 -0.9097605256888811
4050000000.0 0.54359085740707 -0.9172342009820108
4053000000.0 0.5000381280563826 -0.8660967838743651
4056000000.0 0.5348346775463838 -0.8856415031005322
4059000000.0 0.5078121708032473 -0.8565826180467637
4062000000.0000005 0.5275297673268429 -0.9266476702058777
4066000000.0 0.49950177775908877 -0.833198389793465
4069000000.0 0.5011584508341534 -0.9352851007854731
4072000000.0 0.5544978067961199 -0.875309782693851
4075000000.0 0.574970876626277 -0.851688499942339
4078000000.0000005 0.5509657218092876 -0.8826555599380791
4081000000.0000005 0.6008799826967114 -0.8852146502358232
4083999999.9999995 0.5160106844168673 -0.9159071417062976
4088000000.0 0.5760460060024517 -0.8857511406262903
4091000000.0 0.5577865550049668 -0.9542804277316379
4094000000.0000005 0.5396301643235552 -0.8844385047051715
4097000000.0000005 0.5257811218757769 -0.9124706422074419
4099999999.9999995 0.554024403415515 -0.8947909427066726
4102999999.9999995 0.5615661365741378 -0.8885941485298978
4106000000.0 0.559334505860739 -0.8835986967575711
4109000000.0 0.5368236169943962 -0.9040603862535912
4112000000.0 0.5360594463415643 -0.8878090045606202
4115999999.9999995 0.5731760532591064 -0.8967199720900931
4119000000.0 0.5558084559969261 -0.9066335711512218
4122000000.0 0.5204006142983433 -0.9062442649094858
4125000000.0 0.5235010093233957 -0.934092905697094
4128000000.0 0.5543999535694826 -0.837596412483823
4131000000.0 0.5254332253820001 -0.8654704056447723
4134000000.0000005 0.5586671627290142 -0.9070985811432443
4138000000.0 0.5006837754662541 -0.8666129895454433
4141000000.0 0.5199819639555956 -0.889841969158148
4144000000.0 0.5841379825072541 -0.8880166350122343
4147000000.0000005 0.5176803582789609 -0.8779335782390291
4150000000.0000005 0.5419160114404291 -0.9226314369708494
4152999999.9999995 0.5548351795913306 -0.876221383586232
4155999999.9999995 0.5669769271027809 -0.9042670854469833
4159000000.0 0.546975393930852 -0.8664390079046365
4162000000.0 0.543839969088832 -0.8600038956752295
4166000000.0000005 0.5536931499679153 -0.88482166672206
4168999999.9999995 0.5370189520075541 -0.8879163013621262
4171999999.9999995 0.568607571825754 -0.8526254849232034
4175000000.0 0.563900353068254 -0.8735360965634418
4178000000.0 0.5269776644492341 -0.8915730414373958
4181000000.0 0.5356666352475569 -0.9015814594936784
4184000000.0 0.5397327873056335 -0.8577768387358339
4187999999.9999995 0.5362499717409296 -0.8734071767160345
4191000000.0 0.5541912775001064 -0.8601502752200424
4194000000.0 0.509192325138643 -0.8455824023340768
4197000000.0 0.5423397459756003 -0.8825765628494948
4200000000.0 0.5698758643172626 -0.8472260260424292
4203000000.0000005 0.5419377603427392 -0.8511387737960072
4206000000.0000005 0.5628746785330476 -0.9197472766509734
4208999999.9999995 0.5575389900714116 -0.8446284161489788
4211999999.9999995 0.5099447018749326 -0.8836675436771796
4216000000.0 0.5522461251092005 -0.8630201456035879
4219000000.0000005 0.5581188014408884 -0.8885023519066761
4222000000.0000005 0.5326427574893047 -0.8623045555088497
4224999999.9999995 0.5284105702404903 -0.8484100395785961
4227999999.9999995 0.5574180956286339 -0.8780868984909473
4231000000.0 0.5286542242326417 -0.8706098291382524
4234000000.0 0.5422436216317688 -0.8827691223145155
4238000000.0000005 0.5187865705015835 -0.8849773402709766
4240999999.9999995 0.5265615435582054 -0.858926450565451
4244000000.0 0.5395196613169733 -0.8738834723334423
4247000000.0 0.5469189648917685 -0.8738830071899844
4250000000.0 0.5188830291465385 -0.8607834802842724
4253000000.0 0.5295125564066537 -0.8316837719997117
4256000000.0 0.5377921625374525 -0.8876177791213901
4259000000.0000005 0.5171723133917123 -0.8345069702296892
4261999999.9999995 0.523240522010229 -0.8882618139157983
4266000000.0 0.5287601592259382 -0.8868233660889545
4269000000.0 0.5534729252348366 -0.8376013434582763
4272000000.0000005 0.525771866234414 -0.8682729541082647
4275000000.0000005 0.5258621095610923 -0.8755067169904676
4277999999.9999995 0.5773034793843361 -0.8761127677866276
4280999999.9999995 0.5466037689298677 -0.8514227319684422
4284000000.0 0.5063561765340804 -0.8795960125061981
4288000000.0000005 0.552143337981971 -0.8610541630742912
4291000000.0000005 0.5110322277333925 -0.8350039974557595
4293999999.9999995 0.5234485607219126 -0.8487954941408312
4297000000.0 0.5440856389355904 -0.8437181221915673
4300000000.0 0.5193671223368959 -0.8401059046209663
4303000000.0 0.51966427595077 -0.8727824907601001
4306000000.0 0.5471161321195889 -0.8467619693210721
4309000000.0 0.5548613339842815 -0.8582437289645103
4312000000.0 0.581155726909534 -0.8559902635472642
4316000000.0 0.580315445171496 -0.8666329616398767
4319000000.0 0.5493548199797184 -0.8533465070975321
4322000000.0 0.5240850390443551 -0.8620455177914186
4325000000.0 0.5146336582490352 -0.8572353070217102
4328000000.0 0.5341018299525125 -0.8518542282812815
4331000000.0 0.5028635153459191 -0.9020252165326321
4334000000.0 0.5263375042237645 -0.8950535139110666
4338000000.0 0.5399947418595976 -0.8583794845713488
4341000000.0 0.5751008016369479 -0.8558703094615097
4344000000.0 0.5609924018671166 -0.8481504911956375
4347000000.0 0.5278501733255203 -0.8940129375655135
4350000000.0 0.5263285783479558 -0.8341139656689097
4353000000.0 0.5333220278701407 -0.841365519609248
4356000000.0 0.5206734080651321 -0.8733961049188043
4359000000.0 0.49949667996438946 -0.837486709066538
4362000000.0 0.46700090563923957 -0.9144316706312378
4366000000.0 0.538321233096881 -0.8860119279202291
4369000000.0 0.5172005819310016 -0.8358248662103035
4372000000.0 0.4812960616791718 -0.87222229660257
4375000000.0 0.5484748929901653 -0.8588855516372605
4378000000.0 0.5252062413133923 -0.8545065865509521
4381000000.0 0.5353443874663155 -0.8473667614016324
4384000000.0 0.5449116538937607 -0.9186034998642967
4388000000.0 0.5276030304643473 -0.8499143977711483
4391000000.0 0.5504892152117893 -0.8700005586338
4394000000.0 0.5093007524850092 -0.8400217383416319
4397000000.0 0.5159471015848481 -0.869361239376812
4400000000.0 0.5349000591894485 -0.8943590965297393
4403000000.0 0.5363187193583706 -0.8749356955176806
4406000000.0 0.5095336740137146 -0.8823398910839888
4409000000.0 0.5252485338570888 -0.9049932181131659
4412000000.0 0.4759763262831762 -0.8788361644904779
4416000000.0 0.5098700374366929 -0.856491811012871
4419000000.0 0.5162811423183362 -0.8714570270740407
4422000000.0 0.5319559545238295 -0.8493043178277214
4425000000.0 0.5466355241459899 -0.879919250124692
4428000000.0 0.5204708856113995 -0.8767198613020959
4431000000.0 0.5293908008872803 -0.881124679925547
4434000000.0 0.5124160655051571 -0.8588932031864227
4438000000.0 0.5379651176715309 -0.8721839314402182
4441000000.0 0.5385966798629915 -0.8835156828372317
4444000000.0 0.5231891221517619 -0.8467708824314514
4447000000.0 0.4981563876525675 -0.8675439714447859
4450000000.0 0.5093880495890446 -0.8572380804082663
4453000000.0 0.5453726027569067 -0.8963740946250545
4456000000.0 0.5005230201798433 -0.8503321161583732
4459000000.0 0.48728860411815267 -0.8472224056754207
4462000000.0 0.5325674728459606 -0.9148975174093716
4466000000.0 0.529145441794047 -0.9079461950491372
4469000000.0 0.532700369817297 -0.8603835262050419
4472000000.0 0.5114287548829072 -0.884163504961113
4475000000.0 0.5160744367682988 -0.8383582019369074
4478000000.0 0.5190151969082455 -0.9031443691669954
4481000000.0 0.4891008158669441 -0.8667068392345917
4484000000.0 0.4788255971149531 -0.8936285776023141
4488000000.0 0.49138543075002716 -0.8617775098134353
4491000000.0 0.5079959581994851 -0.865091815377948
4494000000.0 0.5149473626661818 -0.8548439549939466
4497000000.0 0.523385770947678 -0.8596458630721886
4500000000.0 0.527957784217409 -0.8606439462003481
4503000000.0 0.5271980575299858 -0.8779266089335289
4506000000.0 0.49516770158014334 -0.8494083297180622
4509000000.0 0.49119843646183564 -0.85666395821656
4512000000.0 0.4822290942040432 -0.8566989488692904
4516000000.0 0.5193454234602148 -0.8816292389520088
4519000000.0 0.5147735689329535 -0.8533895349330464
4522000000.0 0.5000661223794461 -0.8912043702064091
4525000000.0 0.5060033244482371 -0.8301144251663821
4528000000.0 0.5350017489523129 -0.89809614199248
4531000000.0 0.5166847103606941 -0.8604247388277326
4534000000.0 0.5066650526108984 -0.8560682778055818
4538000000.0 0.4984011542323096 -0.8611863578262685
4541000000.0 0.4607585085835219 -0.8941080639967711
4544000000.0 0.49829248746612453 -0.849057468129981
4547000000.0 0.5238657183049245 -0.8524687613668943
4550000000.0 0.4887275182471621 -0.8725268053767179
4553000000.0 0.4957533062374737 -0.9104776496929052
4556000000.0 0.47566290502930086 -0.8677886865522986
4559000000.0 0.48904066465500023 -0.8818396756730754
4562000000.0 0.5132621319674735 -0.8923656312263555
4566000000.0 0.5028415542825131 -0.8903844590096862
4569000000.0 0.4966025261917808 -0.8636749915374038
4572000000.0 0.49678104919020477 -0.8748842526156437
4575000000.0 0.47923457829272387 -0.9071816952056697
4578000000.0 0.5266458386379076 -0.8963377099596384
4581000000.0 0.47593686920151357 -0.881631143915569
4584000000.0 0.5052287207674184 -0.8810256796007018
4588000000.0 0.5153578792621836 -0.9111550861491065
4591000000.0 0.5097741874173891 -0.8747351672310314
4594000000.0 0.47448587751557136 -0.884399919268612
4597000000.0 0.4991586178412711 -0.8979721888986125
4600000000.0 0.4655069938098658 -0.891584857715868
4603000000.0 0.4724397029411358 -0.8992389308948848
4606000000.0 0.4946030143982585 -0.8960698203386384
4609000000.0 0.4931163439552263 -0.8830221693858483
4612000000.0 0.4840439264039741 -0.8964043184770142
4616000000.0 0.4804053973700309 -0.8850923528642467
4619000000.0 0.5026011090398461 -0.8711935781995819
4622000000.0 0.5024641387089378 -0.8861839002490417
4625000000.0 0.4605541210988069 -0.86994005881541
4628000000.0 0.5120775026322886 -0.8728150210716452
4631000000.0 0.47081849411287446 -0.9034203342233865
4634000000.0 0.47991466158821805 -0.8840457991517022
4638000000.0 0.4976954322629368 -0.8974958761582703
4641000000.0 0.4973713527511757 -0.9065498750414966
4644000000.0 0.4842244917901817 -0.8964711347906391
4647000000.0 0.5122058313616646 -0.8999409858997041
4650000000.0 0.47341208363180354 -0.8771909388965373
4653000000.0 0.5114842397840544 -0.8948603261693507
4656000000.0 0.47768378107108345 -0.8910753559246405
4659000000.0 0.4684031869963964 -0.8868398713761884
4662000000.0 0.4885497606994215 -0.9095962702411058
4666000000.0 0.46813953932513735 -0.8980524247014544
4669000000.0 0.5097321585979847 -0.8888069374584191
4672000000.0 0.4627319056363408 -0.9035365788727241
4675000000.0 0.49031501079534484 -0.8964551664051607
4678000000.0 0.4885131908249488 -0.8804839152233316
4681000000.0 0.4657225104013596 -0.8997800273708343
4684000000.0 0.4559225608500601 -0.9181719122624863
4688000000.0 0.4555552645850101 -0.8864950176947505
4691000000.0 0.49827918763538726 -0.9029536530511304
4694000000.0 0.49799599907574876 -0.8782238403984625
4697000000.0 0.45429833729574837 -0.8838453268075757
4700000000.0 0.492599489624625 -0.8871467089433644
4703000000.0 0.49745839644239925 -0.8471539775382029
4706000000.0 0.4706882074601405 -0.8984382155591139
4709000000.0 0.4860819445116907 -0.9007755902002327
4712000000.0 0.489864165559038 -0.8997747145030418
4716000000.0 0.4669746717602722 -0.9142208833791107
4719000000.0 0.5072210043177241 -0.9023203093187407
4722000000.0 0.49721940509056856 -0.8773542826203579
4725000000.0 0.48220307439804705 -0.8846611252095068
4728000000.0 0.45916797676731624 -0.9010670028995998
4731000000.0 0.49420901016923735 -0.9164559835436819
4734000000.0 0.48119103576075967 -0.8801252610799951
4738000000.0 0.5051915672603599 -0.9364033434826101
4741000000.0 0.46358960434800756 -0.9130455966597972
4744000000.0 0.4662026016036627 -0.9082624932726543
4747000000.0 0.4928536495973308 -0.8638652441009982
4750000000.0 0.5000918990570813 -0.9171151567476764
4753000000.0 0.48283503016813184 -0.8952281850666551
4756000000.0 0.5041071587363468 -0.9020838256933637
4759000000.0 0.5089855716962755 -0.9133669077896638
4762000000.0 0.4794660763783367 -0.9058934838716539
4766000000.0 0.49325795581304055 -0.9141454960446571
4769000000.0 0.4669035196326269 -0.9242068633833411
4772000000.0 0.5065528746983471 -0.9265990187547267
4775000000.0 0.47808601376236304 -0.9765335223111468
4778000000.0 0.4656714703709952 -0.9360392339809661
4781000000.0 0.465764313771408 -0.9001245899894301
4784000000.0 0.5018803544869433 -0.892633835250921
4788000000.0 0.46593825390540605 -0.9412765265511462
4791000000.0 0.495173260430815 -0.8916463660304966
4794000000.0 0.5224892219564061 -0.9148964300798781
4797000000.0 0.4639243406512001 -0.8960323611908192
4800000000.0 0.481094063171308 -0.9059090501726086
4803000000.0 0.441263721041219 -0.9121531799816789
4806000000.0 0.4851500742376556 -0.9218310678798561
4809000000.0 0.43996006032736074 -0.9448439567782853
4812000000.0 0.43433540796021364 -0.9278270957474662
4816000000.0 0.48223369609781985 -0.9117230424728704
4819000000.0 0.5006560505397261 -0.8982446510834775
4822000000.0 0.5250130798609038 -0.9478962054958386
4825000000.0 0.5064260282576806 -0.9152767950910486
4828000000.0 0.4587884465806066 -0.9144750626189864
4831000000.0 0.44526745660970557 -0.9324562983624535
4834000000.0 0.4910273581015435 -0.9101914632883541
4838000000.0 0.44838175489098364 -0.929439764237082
4841000000.0 0.45928383754920277 -0.9040924679270561
4844000000.0 0.5138279006576264 -0.9007595667782098
4847000000.0 0.49378134292600767 -0.8721063985273352
4850000000.0 0.4816342670476949 -0.9478403822682446
4853000000.0 0.46078447399379885 -0.8896213234309622
4856000000.0 0.4666985639338783 -0.8983009507821377
4859000000.0 0.49699619585515575 -0.9369022545049903
4862000000.0 0.4933160446822647 -0.8891593777198809
4866000000.0 0.45831227672505565 -0.9446806795760967
4869000000.0 0.4783510327652486 -0.923456356386728
4872000000.0 0.4570235068833659 -0.9398624430551095
4875000000.0 0.5422849385885988 -0.9331440015656413
4878000000.0 0.4869786323188325 -0.9106695572435044
4881000000.0 0.4881465667023058 -0.9691781446879988
4884000000.0 0.48184728249723985 -0.9178224258455454
4888000000.0 0.5123791234980659 -0.8872393824024367
4891000000.0 0.5295956696231469 -0.9244252908926693
4894000000.0 0.4676514821555789 -0.9344898854183552
4897000000.0 0.4922604991529285 -0.906541675867501
4900000000.0 0.4924663126087269 -0.9206636076456407
4903000000.0 0.5127076535230204 -0.9197241269633266
4906000000.0 0.5029744313381156 -0.9206466629435559
4909000000.0 0.4891950282473036 -0.9189215121149947
4912000000.0 0.4754539319781301 -0.9815089702763844
4916000000.0 0.5241630859419668 -0.9026605549266591
4919000000.0 0.5161763418318344 -0.946888355860606
4922000000.0 0.5104978790357367 -0.9041275187763765
4925000000.0 0.457445410012341 -0.9073161204686782
4928000000.0 0.5446339094553654 -0.8999463707984865
4931000000.0 0.5067345262226837 -0.9090209377647718
4934000000.0 0.4594863027588907 -0.879668379739714
4938000000.0 0.44400711592422737 -0.905270754285373
4941000000.0 0.5009333998617437 -0.9186965465349206
4944000000.0 0.46015991903922937 -0.8072375423285
4947000000.0 0.48748071353179706 -0.8971465498562553
4950000000.0 0.46387475376880605 -0.8868622407186305
4953000000.0 0.46404105734715906 -0.9746823495935251
4956000000.0 0.48344117015739074 -0.9192149369337514
4959000000.0 0.43471647308778444 -0.8929925599876866
4962000000.0 0.4818894543512656 -0.9008989127563902
4966000000.0 0.5062265450217653 -0.9380925601004899
4969000000.0 0.5426415497935496 -0.9573393885001231
4972000000.0 0.4934618145359211 -0.9237406938461616
4975000000.0 0.49070711761408825 -0.8948323827098645
4978000000.0 0.47939932292917187 -0.9257567068809425
4981000000.0 0.5103070262715171 -0.9137787437966489
4984000000.0 0.5008135569027357 -0.9095920423531632
4988000000.0 0.49792129812087466 -0.9129582096891669
4991000000.0 0.5308384387915139 -0.921873291111636
4994000000.0 0.49259211431898353 -0.878424599592478
4997000000.0 0.4907692820962555 -0.9360919098698705
5000000000.0 0.4996638942798256 -0.9459682095479922
5003000000.0 0.5104876917579624 -0.9274929983342853
5006000000.0 0.5177701024565803 -0.9475656965700971
5009000000.0 0.4611662583929257 -0.8865890082297145
5012000000.0 0.47532591225009424 -0.9018898991301786
5016000000.0 0.5476720768163601 -0.9128923679812299
5019000000.0 0.4689366039840628 -0.9164792850799651
5022000000.0 0.4941569172367647 -0.914488104961693
5025000000.0 0.5191851559192269 -0.9822102748609902
5028000000.0 0.5032370262394863 -0.9047079133223976
5031000000.0 0.49836866777303074 -0.9188752457941405
5034000000.0 0.48181661565254374 -0.9367704716755487
5038000000.0 0.45166844475937373 -0.8895459674458458
5041000000.0 0.5550216279325544 -0.8946879382016347
5044000000.0 0.5291685272029871 -0.8915873278694171
5047000000.0 0.5191849296220536 -0.9047227939003211
5050000000.0 0.5638996509037921 -0.8570915434145729
5053000000.0 0.4878685814968378 -0.967516168792
5056000000.0 0.5579788596536381 -0.9004689032852944
5059000000.0 0.5844871763975953 -0.9035039622399834
5062000000.0 0.49428046002207765 -0.9363200443563834
5066000000.0 0.5095261280316589 -0.872260385548771
5069000000.0 0.5076098888293015 -0.9111765544917001
5072000000.0 0.4889119336220298 -0.863533452760127
5075000000.0 0.5524625084034229 -0.8686301432423935
5078000000.0 0.5004562667966008 -0.9076929988442133
5081000000.0 0.501692398471889 -0.9443098761626613
5084000000.0 0.5719498214470164 -0.9101367804076073
5088000000.0 0.5421423025273617 -0.8922641369572281
5091000000.0 0.45118264970935995 -0.9163436141111636
5094000000.0 0.5343730251523153 -0.9150855238584776
5097000000.0 0.5054258774153768 -0.8841612756970774
5100000000.0 0.46411474926405405 -0.8771646508494969
5103000000.0 0.45870305596474464 -0.928138757943243
5106000000.0 0.5758855054547354 -0.9078903943320284
5109000000.0 0.5791087444561407 -0.8941830936920392
5112000000.0 0.5234313398097311 -0.9186276235186767
5116000000.0 0.4822990220043666 -0.8597811654065075
5119000000.0 0.5516392602599524 -0.9096404035427681
5122000000.0 0.5111767222417092 -0.9210167529798032
5125000000.0 0.5377544218262433 -0.8849116180077163
5128000000.0 0.4718135528545757 -0.8462537634081337
5131000000.0 0.5142580552795202 -0.8848702710317515
5134000000.0 0.5030765596755695 -0.8814998635621802
5138000000.0 0.5360888079016122 -0.8547683524361731
5141000000.0 0.5530959551176737 -0.8735787582423071
5144000000.0 0.4866303116624239 -0.8627644677702844
5147000000.0 0.5230790496697102 -0.9256117973539382
5150000000.0 0.5442373144054976 -0.8977196059746437
5153000000.0 0.5828975518107945 -0.9172178930668475
5156000000.0 0.5140737680501049 -0.9162076443688731
5159000000.0 0.5467497711359084 -0.9251843085149112
5162000000.0 0.4828309842367231 -0.8885480063375951
5166000000.0 0.4992676777454025 -0.949289277265829
5169000000.0 0.5608342931357932 -0.9222377311795057
5172000000.0 0.504573793223715 -0.8830005586564185
5175000000.0 0.5777999768968782 -0.9155177612382437
5178000000.0 0.5236794922135808 -0.8910241590579939
