! Created with skrf 1.8.0 (http://scikit-rf.org).
# Hz S RI R 50.0 
!freq ReS11 ImS11
4000000000.0 0.558326814241198 -0.8477177872521062
4003000000.0 0.5567111671697946 -0.9461212465652595
4006000000.0 0.47284574683929376 -0.9210807258055224
4009000000.0000005 0.515518468386982 -0.8776808365511144
4011999999.9999995 0.6271656375347988 -0.9011808005740465
4016000000.0 0.47455784999894773 -0.9149014886836176
4019000000.0 0.5251971353662319 -0.8727989167962975
4022000000.0000005 0.589994812707333 -0.8670753142928743
4025000000.0000005 0.4761975400686349 -0.9410517520071477
4027999999.9999995 0.505008090686394 -0.8896643769060901
4030999999.9999995 0.5130220126392908 -0.8563921579113868
4034000000.0 0.5064350175592998 -0.8794558649278621
4038000000.0000005 0.5077418635989309 -0.8983687651564
4041000000.0000005 0.5633403433538665 -0.9243880051029565
4043999999.9999995 0.5772134036769345 -0.8934308699426834
4046999999.9999995 0.5567716141123124 -0.8716380669008997
4050000000.0 0.5246745177580618 -0.9205789335243143
4053000000.0 0.4713220841057582 -0.9117469124923175
4056000000.0 0.5397499220503875 -0.8858363767166558
4059000000.0 0.572479243038051 -0.8577287314344697
4062000000.0000005 0.5161617418430348 -0.9061966935013026
4066000000.0 0.49231511426927166 -0.8226599160514616
4069000000.0 0.5022874838333135 -0.9309447773439837
4072000000.0 0.5362276684012147 -0.9055097340676124
4075000000.0 0.5518257873491074 -0.9270321336734629
4078000000.0000005 0.5105045273127075 -0.9413848672188639
4081000000.0000005 0.5845898143147447 -0.9111778798498544
4083999999.9999995 0.5239288607787125 -0.8915657504338765
4088000000.0 0.5343219415615957 -0.8664587488477786
4091000000.0 0.5424559087432611 -0.9437401204620507
4094000000.0000005 0.5321578494222052 -0.8748835924744318
4097000000.0000005 0.5173036525338699 -0.8835332314490371
4099999999.9999995 0.5467918738107629 -0.8802700984756417
4102999999.9999995 0.5485199201506623 -0.8743829570361907
4106000000.0 0.5215264452420034 -0.9329421707373884
4109000000.0 0.5172848852495713 -0.9048110694027445
4112000000.0 0.5083856900140988 -0.8638795786328881
4115999999.9999995 0.5373926132662227 -0.9015398791347684
4119000000.0 0.49862754893389816 -0.8853557689611217
4122000000.0 0.47413488410570304 -0.9166864020704166
4125000000.0 0.5259665519782015 -0.9009084733498814
4128000000.0 0.530189460271842 -0.8604863250406065
4131000000.0 0.499554906526362 -0.8591466917505779
4134000000.0000005 0.521290287309167 -0.9095740792029733
4138000000.0 0.4918716430626184 -0.8997817668527512
4141000000.0 0.5034272549766912 -0.8849119552378235
4144000000.0 0.527689978622973 -0.8982483553518397
4147000000.0000005 0.48768818265937086 -0.8982877650488765
4150000000.0000005 0.5376209742962754 -0.9351787270088927
4152999999.9999995 0.52163166917604 -0.8761602739836918
4155999999.9999995 0.5722405721907616 -0.892870052837211
4159000000.0 0.49952491131228577 -0.8704660559884806
4162000000.0 0.5156179847214496 -0.8713592449073198
4166000000.0000005 0.5158748149764784 -0.8614586823527723
4168999999.9999995 0.49532763294676174 -0.8710862246516607
4171999999.9999995 0.5085809399849806 -0.8897982277884116
4175000000.0 0.5361592173297858 -0.908715012918995
4178000000.0 0.543833046492247 -0.9088923765127286
4181000000.0 0.5129992347215474 -0.9049184226975193
4184000000.0 0.5431671764845905 -0.8871853834008151
4187999999.9999995 0.5012564678321605 -0.8846929210765889
4191000000.0 0.5411333251484836 -0.8513071567055155
4194000000.0 0.5034336960841739 -0.8660765675128057
4197000000.0 0.5280894832703364 -0.8772763118783765
4200000000.0 0.5123551038360583 -0.8986011907166092
4203000000.0000005 0.5325128599146074 -0.8934514941669233
4206000000.0000005 0.5179113380269026 -0.8890814193958182
4208999999.9999995 0.5245775952642074 -0.8729110351511769
4211999999.9999995 0.5065800992683029 -0.8919997130784282
4216000000.0 0.5397835926362669 -0.8749095550882217
4219000000.0000005 0.5288082927811366 -0.880980658619127
4222000000.0000005 0.5010139645445711 -0.8736044558537184
4224999999.9999995 0.5197121511365456 -0.8658286799926064
4227999999.9999995 0.5298080619408148 -0.8758556076924207
4231000000.0 0.5158806068689064 -0.8855294555262072
4234000000.0 0.5194770550495841 -0.8870535115880628
4238000000.0000005 0.5114277095924512 -0.8774702093232377
4240999999.9999995 0.4972209710940533 -0.8779210441416025
4244000000.0 0.5085059199479678 -0.8773809134822103
4247000000.0 0.5076907812110887 -0.8756680890552925
4250000000.0 0.5060932663184663 -0.8773295487917586
4253000000.0 0.4836979216841143 -0.8646086547434246
4256000000.0 0.5235262234614856 -0.8930064438654594
4259000000.0000005 0.4820256497809695 -0.8578232071164362
4261999999.9999995 0.4784246061515969 -0.8872711240366531
4266000000.0 0.5180648315894748 -0.909217964151906
4269000000.0 0.5463130115437587 -0.8746525011646397
4272000000.0000005 0.5210710517100083 -0.8814784473298147
4275000000.0000005 0.516770473743082 -0.8603259149339114
4277999999.9999995 0.5124904854659762 -0.8868996281135904
4280999999.9999995 0.5309466513211897 -0.8888608177251468
4284000000.0 0.4843605533729123 -0.888107705982894
4288000000.0000005 0.5478424806196612 -0.8587024350535437
4291000000.0000005 0.5085958600363292 -0.8601080246970413
4293999999.9999995 0.4992537432183334 -0.854125581283786
4297000000.0 0.5302944974793609 -0.8644216295932535
4300000000.0 0.4955685882358243 -0.8526684221753771
4303000000.0 0.49194756021732255 -0.8743900568905812
4306000000.0 0.5268136390765945 -0.874615558549183
4309000000.0 0.5164284303810435 -0.8629651172278713
4312000000.0 0.5669656472701513 -0.8928992751993183
4316000000.0 0.5372718148125394 -0.8790504758723572
4319000000.0 0.5300498559749985 -0.8519235267720849
4322000000.0 0.4877444465066424 -0.8881911811241274
4325000000.0 0.5089205255264173 -0.8611872352181943
4328000000.0 0.5025351624652961 -0.8715519069864934
4331000000.0 0.4917114396094452 -0.8767700678470078
4334000000.0 0.5074735546239201 -0.8693903528525939
4338000000.0 0.5559450899650442 -0.8467481502286538
4341000000.0 0.5475527276246448 -0.86672625289277
4344000000.0 0.5262136128205298 -0.8834835037161106
4347000000.0 0.48693642664420916 -0.9123999067248253
4350000000.0 0.5100091547844294 -0.8547902163623683
4353000000.0 0.5345098410355122 -0.8442965983967679
4356000000.0 0.4719797685571806 -0.8792179347981091
4359000000.0 0.48239966936234174 -0.8378391965678463
4362000000.0 0.4737704814465122 -0.9067355482823922
4366000000.0 0.5150104173547682 -0.8995256341496648
4369000000.0 0.4868149000856383 -0.8657710991216044
4372000000.0 0.46942407061478564 -0.8687516473686046
4375000000.0 0.5184104794683594 -0.8572775219473459
4378000000.0 0.49002685470218316 -0.8519429546541778
4381000000.0 0.49109866691392934 -0.872131645054089
4384000000.0 0.5217060269238785 -0.9441138137445739
4388000000.0 0.508939136243633 -0.8547655349640444
4391000000.0 0.5119477837343293 -0.892189147041558
4394000000.0 0.49734259948203724 -0.8558746645054174
4397000000.0 0.49547130126317934 -0.8796530286096007
4400000000.0 0.5105376486398072 -0.9011225297235804
4403000000.0 0.5120596750913854 -0.8860467915362251
4406000000.0 0.49090650643046857 -0.8971605885961146
4409000000.0 0.5098815767919004 -0.9278200742207184
4412000000.0 0.43388858561595955 -0.9187764883690714
4416000000.0 0.48711273108917347 -0.874451319032191
4419000000.0 0.48131147117391515 -0.8947822091319804
4422000000.0 0.5187865018469354 -0.8673377584810692
4425000000.0 0.5282641875914116 -0.8948413545412437
4428000000.0 0.482250508577902 -0.8779686211608759
4431000000.0 0.5075267470553677 -0.8926352207035488
4434000000.0 0.4920768261886094 -0.8697325887036341
4438000000.0 0.5121035368334855 -0.9101748892348077
4441000000.0 0.5071517354237317 -0.9016284751228532
4444000000.0 0.48643994882241176 -0.8590055334667519
4447000000.0 0.4806890090822691 -0.8837878017260357
4450000000.0 0.4987314589641372 -0.8727568444193357
4453000000.0 0.4951600712322779 -0.9086696537397427
4456000000.0 0.45946318855738466 -0.8781233008720897
4459000000.0 0.4449199165733288 -0.8582017100416222
4462000000.0 0.5094424091181973 -0.9351698774491572
4466000000.0 0.5001766360003139 -0.9212325257931683
4469000000.0 0.5109855535510127 -0.8796822599531914
4472000000.0 0.466181843607999 -0.9113569519190753
4475000000.0 0.49232122505044323 -0.8664611541527114
4478000000.0 0.4732890360188692 -0.9490131490550604
4481000000.0 0.45572878564353053 -0.8674110870685766
4484000000.0 0.4372826231338717 -0.9124427691036998
4488000000.0 0.45346629141790723 -0.8794535262745067
4491000000.0 0.48647793502857717 -0.8955610348058448
4494000000.0 0.47495868697188454 -0.8740140752165196
4497000000.0 0.49267685102783454 -0.8787486762458679
4500000000.0 0.4836638886211168 -0.8830832097767779
4503000000.0 0.49470004930962747 -0.9060524976158608
4506000000.0 0.4687468120520404 -0.9051388348603795
4509000000.0 0.4697884298786442 -0.8712938493994942
4512000000.0 0.45463803586051527 -0.8982422643796373
4516000000.0 0.48205621389896347 -0.8996784644752505
4519000000.0 0.4814324913090679 -0.8637507355981195
4522000000.0 0.46440066225362087 -0.8959426022184978
4525000000.0 0.5113952417413796 -0.8722514043026255
4528000000.0 0.4994138902596993 -0.9060165448584286
4531000000.0 0.492563585229254 -0.8826266501819868
4534000000.0 0.4808444035728096 -0.8757911331024867
4538000000.0 0.4582496953475688 -0.8782166811832662
4541000000.0 0.45114065083936516 -0.8845135238680142
4544000000.0 0.46997638060769964 -0.8691303165637607
4547000000.0 0.47799246136490037 -0.8756100249158341
4550000000.0 0.45400438771706736 -0.911117068377197
4553000000.0 0.46548778924270834 -0.8896710353826188
4556000000.0 0.44759580864473475 -0.8918289157140256
4559000000.0 0.4636974751656534 -0.9133575378899177
4562000000.0 0.48327275411634346 -0.9164270210391732
4566000000.0 0.47820598955812854 -0.9168655606563021
4569000000.0 0.4664062524615886 -0.8605007669825325
4572000000.0 0.47087187737374214 -0.8964807470541156
4575000000.0 0.44191149108080785 -0.9137559362598602
4578000000.0 0.49939635659553183 -0.9031041251758378
4581000000.0 0.4624026170486739 -0.8912696516043583
4584000000.0 0.4575335979728657 -0.8894573817585161
4588000000.0 0.4828772284840551 -0.9026210512627488
4591000000.0 0.47816587480441297 -0.8912092757775079
4594000000.0 0.4482159185279936 -0.896399144536066
4597000000.0 0.4727247433681683 -0.912955233648338
4600000000.0 0.44753057660544604 -0.9068922852230219
4603000000.0 0.4603776605944299 -0.9144852326504329
4606000000.0 0.47210654779554145 -0.9073233610838409
4609000000.0 0.4550657762974111 -0.8985478396501475
4612000000.0 0.4530715887349133 -0.9138257327014455
4616000000.0 0.44538662924680444 -0.8827291497131938
4619000000.0 0.4611691410667307 -0.9021079716012358
4622000000.0 0.4585506265493136 -0.8971717425595398
4625000000.0 0.42418826191773507 -0.8980613345859934
4628000000.0 0.4777858187863016 -0.8932263017463903
4631000000.0 0.43965787939868417 -0.8926559564027821
4634000000.0 0.44718015679605394 -0.9223963385124105
4638000000.0 0.4637598518672581 -0.925006170633098
4641000000.0 0.46409803229954766 -0.8971050453209628
4644000000.0 0.45415228121050133 -0.892090753505536
4647000000.0 0.44506576939358455 -0.9256794361323292
4650000000.0 0.4504361979532279 -0.9075216120567622
4653000000.0 0.47142804107263075 -0.8975963292095039
4656000000.0 0.4389992108776047 -0.9116228663139423
4659000000.0 0.4332462119094487 -0.9036141189042287
4662000000.0 0.4435427860815675 -0.926782557912203
4666000000.0 0.4194417634395653 -0.9124276115644272
4669000000.0 0.46044241971955513 -0.9222860005667473
4672000000.0 0.42970039194457044 -0.9285282633974847
4675000000.0 0.4219900673447385 -0.9091941722699537
4678000000.0 0.44518454086070813 -0.8917289255608939
4681000000.0 0.43029487628934815 -0.906568624203234
4684000000.0 0.4163657636849591 -0.9157106719737478
4688000000.0 0.4425660269802786 -0.9102989528649386
4691000000.0 0.4807807717630195 -0.9206391149777349
4694000000.0 0.4501305263756151 -0.897378005029073
4697000000.0 0.4018317812741548 -0.8922884761791104
4700000000.0 0.4502043362386067 -0.9005602453321119
4703000000.0 0.46184416105429227 -0.8391594003503475
4706000000.0 0.43347181631181525 -0.9286258068385866
4709000000.0 0.43404001344326426 -0.9186346299351689
4712000000.0 0.4494672484750217 -0.8906552574206976
4716000000.0 0.43483181675909094 -0.940941103671314
4719000000.0 0.454780245110499 -0.9106098135533198
4722000000.0 0.4830125322337592 -0.9157232864389462
4725000000.0 0.4403798509349244 -0.9247963147002436
4728000000.0 0.42681691140701783 -0.9089963345694209
4731000000.0 0.4809229975778354 -0.9132969442277445
4734000000.0 0.4751642476719624 -0.8980688753200107
4738000000.0 0.480665062288368 -0.9596458608691062
4741000000.0 0.4722008138238294 -0.9555031889165927
4744000000.0 0.4466850099432172 -0.9304042658658132
4747000000.0 0.4342422998414527 -0.882781313057978
4750000000.0 0.4641682250833107 -0.9145273923480546
4753000000.0 0.48901638699906996 -0.9345685634429403
4756000000.0 0.45165430362623676 -0.9396902574562688
4759000000.0 0.45966975818973954 -0.9120180013468162
4762000000.0 0.42735295883786606 -0.9375741678339146
4766000000.0 0.44987591869930327 -0.9196759170787575
4769000000.0 0.4601547856358307 -0.9376923672363274
4772000000.0 0.4449348837581326 -0.9231574236043343
4775000000.0 0.4341183527481976 -0.9652558761435821
4778000000.0 0.4144534136879282 -0.9296610354710453
4781000000.0 0.45780992305759116 -0.8677276258439014
4784000000.0 0.4758531623469939 -0.8954731701184662
4788000000.0 0.42635452784202554 -0.9465970548060509
4791000000.0 0.4496363507267904 -0.9175153558203574
4794000000.0 0.5028516754461675 -0.9221039314468993
4797000000.0 0.4152865937309475 -0.919809638098746
4800000000.0 0.4445275256800949 -0.9091915739701464
4803000000.0 0.3988517468530077 -0.9184819528294659
4806000000.0 0.43513610234978617 -0.9465203068584136
4809000000.0 0.41406672116173343 -0.9439961287416105
4812000000.0 0.38425608274091916 -0.9361555111031535
4816000000.0 0.4413814926289577 -0.9012805371037597
4819000000.0 0.439984946401321 -0.9387051144348368
4822000000.0 0.469412293226399 -0.9514024776364873
4825000000.0 0.46685622501984925 -0.9294045353239536
4828000000.0 0.4283963154718794 -0.9328961712360457
4831000000.0 0.4115258259934202 -0.9707171056884576
4834000000.0 0.4457269083273358 -0.9034905832244631
4838000000.0 0.4289139027628258 -0.9574802413873439
4841000000.0 0.39065492136658064 -0.9225993556646662
4844000000.0 0.48131794756331076 -0.9120155032138577
4847000000.0 0.44508630621113165 -0.8937723355812122
4850000000.0 0.42477460042120635 -0.9574560194421846
4853000000.0 0.4198813500231152 -0.9060768084398331
4856000000.0 0.43335381424047137 -0.9289122636321625
4859000000.0 0.44707249955505257 -0.9762852669967539
4862000000.0 0.4479822773664409 -0.8779072843052173
4866000000.0 0.41602728544891243 -0.943554982291502
4869000000.0 0.4325008010425395 -0.927489435685102
4872000000.0 0.41781684035728867 -0.9687224287279538
4875000000.0 0.4894808816465088 -0.9674891978574123
4878000000.0 0.43686274634148964 -0.9454646538252794
4881000000.0 0.44070342355216596 -1.015466251894655
4884000000.0 0.45664928938310057 -0.9210842292636833
4888000000.0 0.4602518083706547 -0.9165789187562546
4891000000.0 0.47194223008374714 -0.9140537289318108
4894000000.0 0.4375001426608283 -0.9618526137486856
4897000000.0 0.4688932587374404 -0.9214724751124495
4900000000.0 0.4528699108076455 -0.9478117791427694
4903000000.0 0.46778930500188265 -0.956968331171869
4906000000.0 0.4743396602744619 -0.9734534607828729
4909000000.0 0.41404489710765674 -0.9516739895000884
4912000000.0 0.41522586019275953 -0.9671459845241026
4916000000.0 0.45855024450555637 -0.9492824824676709
4919000000.0 0.48310182926408285 -0.9538232464068579
4922000000.0 0.45906168278974063 -0.9507817128322927
4925000000.0 0.41924750409649436 -0.9262064760108738
4928000000.0 0.4740965981634979 -0.9334621077915226
4931000000.0 0.464809316640024 -0.9163424868411651
4934000000.0 0.4325898335298465 -0.887253589720934
4938000000.0 0.429117099685821 -0.9138791019896514
4941000000.0 0.4610685068009496 -0.9001865839461823
4944000000.0 0.44443779918824433 -0.8749340642836669
4947000000.0 0.45872726488705484 -0.9099688460153516
4950000000.0 0.41180513730097484 -0.9019755825735583
4953000000.0 0.42640372885548916 -1.0058077642906618
4956000000.0 0.44105304457578176 -0.948498296094797
4959000000.0 0.400746935996709 -0.9171565046132637
4962000000.0 0.4290449115626088 -0.9650188521447122
4966000000.0 0.4622598878687626 -0.9455506478199103
4969000000.0 0.5035809595168076 -0.9664157457410426
4972000000.0 0.43148646027838156 -0.9404585239404275
4975000000.0 0.46549237462948884 -0.9170409855055687
4978000000.0 0.42773574229994726 -0.9621707412254994
4981000000.0 0.4281683948495335 -0.9527772473833285
4984000000.0 0.43295552868858767 -0.9081265579682112
4988000000.0 0.4410438283834339 -0.9264856221931537
4991000000.0 0.5151064860069419 -0.9645952679539312
4994000000.0 0.4578585873936472 -0.9333251663924123
4997000000.0 0.44468253404137703 -0.9657608983232865
5000000000.0 0.49823136151025676 -0.9563322046684879
5003000000.0 0.45904612201817846 -0.9609540472064187
5006000000.0 0.4875124929376714 -0.99067636418972
5009000000.0 0.4720700336148226 -0.9528252953287595
5012000000.0 0.4374247556777658 -0.9603394860220524
5016000000.0 0.5027969591795597 -0.9463212761258107
5019000000.0 0.4389850063225038 -0.9438259327281274
5022000000.0 0.46118657846330186 -0.9179888812509585
5025000000.0 0.4537484046577137 -0.998114658145666
5028000000.0 0.4342158788589817 -0.9340844184390582
5031000000.0 0.4461156769968462 -0.967062052263389
5034000000.0 0.44018455629875264 -0.968502133397139
5038000000.0 0.4055302432309463 -0.9061202348796251
5041000000.0 0.4887657296767057 -0.9265314897665844
5044000000.0 0.49147514839169554 -0.9043995899529722
5047000000.0 0.4752795824422061 -0.9237987600931248
5050000000.0 0.5353557568214643 -0.9010143523102013
5053000000.0 0.46462267126859896 -0.9590108263806738
5056000000.0 0.5099291257525467 -0.9001617614530044
5059000000.0 0.4763720121221872 -0.90555227922243
5062000000.0 0.39904435357840584 -0.960297987542363
5066000000.0 0.4647928534011005 -0.9426433401554375
5069000000.0 0.46325196453885775 -0.9484311693420224
5072000000.0 0.4427306629565565 -0.9082321342701367
5075000000.0 0.5093462060409697 -0.9148760864434399
5078000000.0 0.4491043711917923 -0.9549666223158781
5081000000.0 0.4203673475708959 -0.9338564718676668
5084000000.0 0.4303699307993999 -0.9431935795763493
5088000000.0 0.46805443089280885 -0.9583667099782929
5091000000.0 0.4414015116084952 -0.9560868625690009
5094000000.0 0.4175145154232575 -0.9537920514323368
5097000000.0 0.5038211013769436 -0.9143499942463258
5100000000.0 0.44763937306941043 -0.9303850362492356
5103000000.0 0.4552947032266102 -0.9246612254705121
5106000000.0 0.5124334589337591 -1.0193300985466665
5109000000.0 0.5109070152564857 -0.9104116827884081
5112000000.0 0.42261983641825474 -0.9233581026501079
5116000000.0 0.47240446580964535 -0.9560522996823944
5119000000.0 0.416540681415637 -0.9657343806674471
5122000000.0 0.507190570047611 -0.9261318890552028
5125000000.0 0.47406067402570917 -0.9177837415442308
5128000000.0 0.43271500445221245 -0.966489737678476
5131000000.0 0.4519777362492851 -0.8902900710534614
5134000000.0 0.4577179638137573 -0.9188000668289273
5138000000.0 0.5008070105080502 -0.855943510117696
5141000000.0 0.4942941809982016 -0.920132617585959
5144000000.0 0.48793703734627325 -0.8870632016695823
5147000000.0 0.450430751813911 -0.9633931195556069
5150000000.0 0.5082297262972955 -0.9468976806090332
5153000000.0 0.48497516568169446 -0.9671927011101291
5156000000.0 0.4873547710229961 -0.9383701229357093
5159000000.0 0.5200099905628883 -0.9740748381635378
5162000000.0 0.44983970845268734 -0.9506589059867145
5166000000.0 0.4902902539314069 -0.950020214875865
5169000000.0 0.5065650096405283 -0.9630001338150209
5172000000.0 0.4686796376500768 -0.9207103137696753
