! Created with skrf 1.8.0 (http://scikit-rf.org).
# Hz S RI R 50.0 
!freq ReS11 ImS11
4000000000.0 0.44616283448807553 -0.973599791580147
4003000000.0 0.45749873526816065 -0.9498570074291689
4006000000.0 0.41115221220148246 -0.9215142810972282
4009000000.0000005 0.44603121731506373 -0.9516768530498894
4011999999.9999995 0.5500150773675945 -0.9569861444426333
4016000000.0 0.43679357335005053 -0.9377859664410768
4019000000.0 0.45501810836594436 -0.9190665617205938
4022000000.0000005 0.5455836345402749 -0.8924249865189098
4025000000.0000005 0.4020395940159814 -0.9899189630353267
4027999999.9999995 0.40953475605443646 -0.9402631391189972
4030999999.9999995 0.44071026529997526 -0.91737476559169
4034000000.0 0.4654656313553055 -0.9465558219289135
4038000000.0000005 0.4213725845283448 -0.9816621987681163
4041000000.0000005 0.4564296198812241 -0.9589718746209572
4043999999.9999995 0.503635956134552 -0.9545622441913622
4046999999.9999995 0.4699655937026982 -0.9724756642182879
4050000000.0 0.4342649231737742 -0.948040596615459
4053000000.0 0.43972241113367977 -0.9612157486762254
4056000000.0 0.4398898268615763 -0.9207852698504362
4059000000.0 0.443418985378392 -0.9179730392920591
4062000000.0000005 0.4363369684547125 -0.9599698634116709
4066000000.0 0.3844224932666791 -0.8918481822828551
4069000000.0 0.4397172874131424 -0.9866926253594133
4072000000.0 0.5092796094157135 -0.9206619162014217
4075000000.0 0.47820606730852844 -0.9508042496283664
4078000000.0000005 0.43453549984034373 -0.9558107455020806
4081000000.0000005 0.4842416921075297 -0.9447514574788375
4083999999.9999995 0.40409407435311995 -0.9466992651630733
4088000000.0 0.4594310991060702 -0.9052899495921158
4091000000.0 0.42081551566932773 -0.9794361422411924
4094000000.0000005 0.4547003955893115 -0.9194850529287496
4097000000.0000005 0.44354539492344125 -0.9636964583508548
4099999999.9999995 0.4375180949943574 -0.9067988826228424
4102999999.9999995 0.4713770322183917 -0.9472124722914663
4106000000.0 0.4336515306752099 -0.9682602281622318
4109000000.0 0.4282814536134816 -0.9760292787428906
4112000000.0 0.4619387311284762 -0.9422999967418632
4115999999.9999995 0.45679222209781944 -0.9543816232392887
4119000000.0 0.4482618466528237 -0.9507886154321739
4122000000.0 0.43268507294912123 -0.9436552360771625
4125000000.0 0.4092822258570171 -0.9573565318424566
4128000000.0 0.4407824189415748 -0.8650510430313
4131000000.0 0.399319765390824 -0.9520824191618008
4134000000.0000005 0.47631241717908707 -0.9413432332263197
4138000000.0 0.4192678190401729 -0.9223457983882335
4141000000.0 0.4278179956479241 -0.9397472219573437
4144000000.0 0.4500958136022681 -0.9187021482413296
4147000000.0000005 0.44156678718724013 -0.9345168827208152
4150000000.0000005 0.4619334274178477 -0.9279192219004949
4152999999.9999995 0.4396025347982764 -0.9263453193464695
4155999999.9999995 0.4618544661858447 -0.9357136251992124
4159000000.0 0.4389504611035731 -0.8886631083565406
4162000000.0 0.44150149192962906 -0.9201301667515894
4166000000.0000005 0.39674482279410794 -0.9580356483209308
4168999999.9999995 0.4277502626721463 -0.9162062991827725
4171999999.9999995 0.43851204192701443 -0.952612995782405
4175000000.0 0.44297608646376846 -0.9465861264233135
4178000000.0 0.42551201618842766 -0.9532245258866548
4181000000.0 0.40554132819772215 -0.9586580766067241
4184000000.0 0.4089461711246841 -0.9263173025137948
4187999999.9999995 0.41128095923111774 -0.921018877726394
4191000000.0 0.45335401420726085 -0.8809251006350313
4194000000.0 0.4282638745601475 -0.9294926470135274
4197000000.0 0.437936594962343 -0.9341474166337841
4200000000.0 0.45492651339978707 -0.9294581324192226
4203000000.0000005 0.42958085998536966 -0.9441567565154804
4206000000.0000005 0.43709782100564243 -0.9371693590561896
4208999999.9999995 0.42379948522492006 -0.9028432400877924
4211999999.9999995 0.3933837796636206 -0.9452943543117084
4216000000.0 0.43803019605076987 -0.9426478185100176
4219000000.0000005 0.43872688277654887 -0.9318922140798951
4222000000.0000005 0.4065828925322753 -0.9447845533326445
4224999999.9999995 0.42701027603343256 -0.9184958899890825
4227999999.9999995 0.4238708392865821 -0.9441536347446684
4231000000.0 0.4183422339355415 -0.9353339596194381
4234000000.0 0.39906360482860015 -0.9607725525160826
4238000000.0000005 0.40685752867525676 -0.9302697037417003
4240999999.9999995 0.3783027161978272 -0.9233682627317573
4244000000.0 0.414686839976774 -0.9128474881910694
4247000000.0 0.4138996560687439 -0.9436034860940105
4250000000.0 0.40448613758600616 -0.911565972159256
4253000000.0 0.3918286855339112 -0.9075240729679105
4256000000.0 0.40028855352721604 -0.9565830514148791
4259000000.0000005 0.39570926324331995 -0.8852399411869253
4261999999.9999995 0.3971562639181481 -0.945487568285918
4266000000.0 0.4027567922807015 -0.9689889998794994
4269000000.0 0.4182284252892092 -0.9353290723641415
4272000000.0000005 0.3990475024665248 -0.9276585991151242
4275000000.0000005 0.4140840381670361 -0.9288509243720665
4277999999.9999995 0.42142381834177645 -0.9594512774843731
4280999999.9999995 0.4113589913291882 -0.9141040172907092
4284000000.0 0.35665199206270987 -0.9510295140881657
4288000000.0000005 0.45585675196484793 -0.909580646117441
4291000000.0000005 0.4011042916928647 -0.9011497307364842
4293999999.9999995 0.4162029047344652 -0.9395804251025517
4297000000.0 0.4166981674610374 -0.9080727661524597
4300000000.0 0.4155783009697164 -0.9021138426455072
4303000000.0 0.3901257410656448 -0.9325285515695173
4306000000.0 0.40485993007768084 -0.9268713539863265
4309000000.0 0.4154285785392052 -0.9112140859927171
4312000000.0 0.4299735779514925 -0.9176711246548984
4316000000.0 0.4212655486856661 -0.9329917054541782
4319000000.0 0.39056182193117983 -0.919180771043209
4322000000.0 0.35899469021109986 -0.9251848494811686
4325000000.0 0.4342662057327147 -0.9160473845518996
4328000000.0 0.4026643564231096 -0.9262288893744098
4331000000.0 0.3865455598336969 -0.9561675982372482
4334000000.0 0.3715817480228826 -0.9357518805051824
4338000000.0 0.40955864047045787 -0.9121474961628788
4341000000.0 0.42362495149487767 -0.9476250634816094
4344000000.0 0.41423678785910406 -0.9640758947788526
4347000000.0 0.3819096243551558 -0.9677583560248852
4350000000.0 0.36732452878333127 -0.9039927674891121
4353000000.0 0.3952841555021154 -0.9078033982498068
4356000000.0 0.36967672441612565 -0.9129690023245659
4359000000.0 0.36271371880197933 -0.9062287268451217
4362000000.0 0.34571024351679164 -0.9650421561742416
4366000000.0 0.38656094965677595 -0.9616841637901281
4369000000.0 0.3730883446339779 -0.9080989409021631
4372000000.0 0.35086504049891054 -0.9296205411081968
4375000000.0 0.39277724028871663 -0.9334208954335004
4378000000.0 0.3721600288179485 -0.9159433312842529
4381000000.0 0.3859809864592542 -0.920489464101092
4384000000.0 0.3996186198337002 -0.9996046572322427
4388000000.0 0.3871405767564641 -0.934182587755905
4391000000.0 0.38010845964884277 -0.9517845654804318
4394000000.0 0.3637268403182955 -0.9199682444237386
4397000000.0 0.37179783137450595 -0.938780400217848
4400000000.0 0.35655587167042985 -0.9701388989239321
4403000000.0 0.3803342758873607 -0.9548548178289685
4406000000.0 0.3633673553175167 -0.9496014742278704
4409000000.0 0.38387204529167473 -0.9750392849289511
4412000000.0 0.32188096823011597 -0.9585907443009392
4416000000.0 0.3584145021962981 -0.9275811449605211
4419000000.0 0.3587447893582458 -0.9517106581963616
4422000000.0 0.38444021036820336 -0.9275453041484817
4425000000.0 0.37290597735648245 -0.9517326821467647
4428000000.0 0.3626551228859804 -0.9499022957756456
4431000000.0 0.3716878581932995 -0.9618255151535531
4434000000.0 0.34637440267933595 -0.9398845484722312
4438000000.0 0.386214688660682 -0.9544030530624477
4441000000.0 0.38008526219993377 -0.9662835152726335
4444000000.0 0.35625308957021656 -0.9185495748978219
4447000000.0 0.33631687931957277 -0.9470594300323785
4450000000.0 0.3645252019998394 -0.9292149156948767
4453000000.0 0.38920489392286656 -0.9460424202511272
4456000000.0 0.33102418353472624 -0.9380279755264261
4459000000.0 0.32765058126343016 -0.9164166866288087
4462000000.0 0.38486329768579697 -1.0040555643442048
4466000000.0 0.3685477215282581 -0.9967664065114763
4469000000.0 0.36643167844044655 -0.9463955624940636
4472000000.0 0.34016631806340036 -0.9787965841341217
4475000000.0 0.3521929956839244 -0.9233857243139191
4478000000.0 0.3512358024065783 -0.9824183762756591
4481000000.0 0.33938085201963675 -0.9181102817762965
4484000000.0 0.29478164835715237 -0.962534293699213
4488000000.0 0.3423988320210875 -0.9593776328165011
4491000000.0 0.33518502342397954 -0.9620448564454753
4494000000.0 0.3609243212928566 -0.9454354850068143
4497000000.0 0.3514803509776505 -0.9309339737845002
4500000000.0 0.34957980199482663 -0.9499385478087035
4503000000.0 0.33705071718193147 -0.9629881979770953
4506000000.0 0.30578669648678375 -0.9500982860141173
4509000000.0 0.3249054754977608 -0.9300263745244768
4512000000.0 0.32342982089687566 -0.9436068374029786
4516000000.0 0.3503146697107673 -0.9611995032772699
4519000000.0 0.334614622020131 -0.912855572464174
4522000000.0 0.32418725938749704 -0.9688291326709007
4525000000.0 0.3718686928783932 -0.9499209071914435
4528000000.0 0.3357610575878763 -0.9736477014643354
4531000000.0 0.3408214912698358 -0.9513790329382945
4534000000.0 0.320184745893294 -0.9462429763950575
4538000000.0 0.3111163356978168 -0.9594677551777505
4541000000.0 0.2767129464057606 -0.9442786822599984
4544000000.0 0.313586598551964 -0.9439016649606911
4547000000.0 0.3338001654712364 -0.9294225154474278
4550000000.0 0.30590494961092646 -0.9675193475567412
4553000000.0 0.3141109804039331 -0.9694200043636989
4556000000.0 0.29490742408475545 -0.9535426654822048
4559000000.0 0.3043346303520403 -0.9655951608850484
4562000000.0 0.3189369684301089 -0.967730984681743
4566000000.0 0.32120541319511187 -0.9801787825448041
4569000000.0 0.31982839106322364 -0.9630165205508949
4572000000.0 0.30964290164119157 -0.9705678866513534
4575000000.0 0.30414876889231607 -0.9691494139900384
4578000000.0 0.3239672244286458 -0.9657397472556458
4581000000.0 0.29529124106333626 -0.9688675370644024
4584000000.0 0.30885883690075233 -0.9882233697593189
4588000000.0 0.3108418977420713 -0.9856993433268243
4591000000.0 0.32338959204280165 -0.9752340695337064
4594000000.0 0.2904686570375699 -0.968979557912277
4597000000.0 0.2899923330741442 -0.9840473037192248
4600000000.0 0.2861573494708062 -0.9824354073163772
4603000000.0 0.2825591913147384 -0.9770290481793322
4606000000.0 0.3129964508865136 -0.9800504682916953
4609000000.0 0.3075613114072019 -0.9586134727352694
4612000000.0 0.28026469692955464 -0.9702253387406254
4616000000.0 0.29387830697689965 -0.9476134247477191
4619000000.0 0.2791017872179855 -0.9571607445819971
4622000000.0 0.2821358731787048 -0.9807426277358298
4625000000.0 0.2751105611086564 -0.9699110571743342
4628000000.0 0.3012304908061284 -0.9894491418649014
4631000000.0 0.28907547010318013 -0.9677776085442624
4634000000.0 0.273382160735573 -0.9974611285323881
4638000000.0 0.2892729107225016 -0.9878376858450056
4641000000.0 0.28939441220055795 -0.9786897103193809
4644000000.0 0.28143920550844126 -0.964442315671299
4647000000.0 0.2926433486689496 -0.9831060540050125
4650000000.0 0.2637281150969316 -0.9699428109184751
4653000000.0 0.299978044881237 -0.9940375551887873
4656000000.0 0.28177559179847994 -0.9847494735923885
4659000000.0 0.2755374870286301 -0.9799050990784508
4662000000.0 0.26353090069196305 -1.0028243076631957
4666000000.0 0.25944450698541593 -0.9821024838475702
4669000000.0 0.26885428487489327 -0.9910534574663307
4672000000.0 0.26412070547730415 -1.0114761031198138
4675000000.0 0.26374490175581494 -1.0162921872504924
4678000000.0 0.25864678984136347 -0.9569442812825348
4681000000.0 0.26020200676082533 -1.0027975411013843
4684000000.0 0.24996949537834434 -1.005381979885965
4688000000.0 0.24794708195340398 -0.978525059624924
4691000000.0 0.2666396896120805 -0.986563928218426
4694000000.0 0.2710828338497394 -0.9584049750296103
4697000000.0 0.2166050048063851 -0.9544689836052841
4700000000.0 0.2461390191638328 -0.9585084668021491
4703000000.0 0.30119116212602354 -0.9268027740104923
4706000000.0 0.2332430290447386 -1.0120418948498449
4709000000.0 0.2309105360676185 -1.0031524997861778
4712000000.0 0.2548869559813494 -0.9717784622022262
4716000000.0 0.259349519327788 -0.9929740885720427
4719000000.0 0.31050549523512955 -0.9785916956271251
4722000000.0 0.27730569946276284 -0.9785924185405097
4725000000.0 0.22836923800399392 -0.9921301448318305
4728000000.0 0.2298551369409125 -1.0023896492502766
4731000000.0 0.272536217030747 -0.9982228143831412
4734000000.0 0.2441161840310376 -0.9888006886775883
4738000000.0 0.2730216683485003 -0.9786404416765382
4741000000.0 0.23530445746606585 -1.0285293299427174
4744000000.0 0.21918564965502368 -0.9995195874542977
4747000000.0 0.2748235385935785 -0.9333264889919701
4750000000.0 0.24720050033885282 -1.0021595683501308
4753000000.0 0.26285966962135365 -1.0100075074464554
4756000000.0 0.23999730243714995 -1.008554583737262
4759000000.0 0.2753546773341656 -1.01768829307409
4762000000.0 0.24890525102907637 -1.033368328601575
4766000000.0 0.2620704346413837 -1.0032345242919
4769000000.0 0.2355623103851982 -0.9973276602672059
4772000000.0 0.23677989676718456 -1.0051691070837458
4775000000.0 0.2650897285603493 -1.0404475269341171
4778000000.0 0.20153846174233442 -1.021628051931133
4781000000.0 0.2599753035023844 -0.9952735130590588
4784000000.0 0.2508232436448935 -0.9860242815850256
4788000000.0 0.20150963269991723 -1.028575212537092
4791000000.0 0.2218439726446821 -0.9913764636967216
4794000000.0 0.25941156861444353 -1.0181484911572694
4797000000.0 0.2427007468499287 -0.9879605931478687
4800000000.0 0.22551297723196478 -0.9931648132031842
4803000000.0 0.19842461900608382 -0.9906647829531494
4806000000.0 0.22308906930773445 -1.024309019228781
4809000000.0 0.1763945649814519 -1.0294816258383948
4812000000.0 0.18512763027693566 -0.995622370480734
4816000000.0 0.23952903550425012 -0.988789856911248
4819000000.0 0.2429824392611342 -1.01788709316444
4822000000.0 0.245429282329526 -1.008899764110856
4825000000.0 0.2719375548914349 -1.0262997610676592
4828000000.0 0.20412532005984318 -0.9830172472013405
4831000000.0 0.18087588130952592 -1.0228213876047993
4834000000.0 0.24530930123017874 -1.0191282707199454
4838000000.0 0.21572434294183906 -1.0371071142398323
4841000000.0 0.20635190521773916 -0.9971736260882555
4844000000.0 0.25245763860492726 -0.9947743343996525
4847000000.0 0.2425392999370441 -0.9663150827855292
4850000000.0 0.2077297270087253 -1.0602732263072576
4853000000.0 0.20352390010677338 -0.9881372025429404
4856000000.0 0.2132655703009169 -1.0056099658874293
4859000000.0 0.20596031077859733 -1.0617738471291356
4862000000.0 0.22913387676717908 -0.9892956008289557
4866000000.0 0.17425117873758741 -1.0172828002042396
4869000000.0 0.21048062197889408 -1.006071521357032
4872000000.0 0.18064233880964606 -1.0586621757808479
4875000000.0 0.262283825432168 -1.0395752250959602
4878000000.0 0.20921909315323325 -1.0180554448504284
4881000000.0 0.19276944262306717 -1.0662638679824796
4884000000.0 0.2219076185851573 -1.0197025414933498
4888000000.0 0.2239910129024794 -1.0003233232295416
4891000000.0 0.23712343276247091 -1.0246963578671906
4894000000.0 0.17556372747761723 -0.988102863016247
4897000000.0 0.23708623039687066 -1.007685979180401
4900000000.0 0.21602791810287464 -1.0747441399612878
4903000000.0 0.21159055039045221 -1.003929247137897
4906000000.0 0.21782862565854016 -1.0301189806846105
4909000000.0 0.18799007218584068 -1.0302788114876917
4912000000.0 0.18681503312912123 -1.0355147328911865
4916000000.0 0.19339616743856552 -1.0613370478090618
4919000000.0 0.21947926466702694 -1.0706733426778408
4922000000.0 0.1956969247316016 -1.036371631013818
4925000000.0 0.15548516998498207 -1.0089025421157407
4928000000.0 0.29357519815605493 -0.992402959265946
4931000000.0 0.22235096768665435 -1.0833063793739568
4934000000.0 0.22886464399618828 -0.971823995603024
4938000000.0 0.17292761943962714 -0.9975155142866909
4941000000.0 0.18115369352834448 -1.0046531139709365
4944000000.0 0.19310455860127634 -0.9473494594726393
4947000000.0 0.198254177646211 -1.0153957102597733
4950000000.0 0.21527795499269697 -1.0115323090619324
4953000000.0 0.14406679902280317 -1.059599101052508
4956000000.0 0.17336895385987716 -1.0383261467888025
4959000000.0 0.14907782865817676 -0.972542606335026
4962000000.0 0.16348203179949417 -1.04587077637091
4966000000.0 0.21710735264850384 -1.0472764259794796
4969000000.0 0.20199172644974578 -1.0531996877269267
4972000000.0 0.20487072524413608 -0.9970432358401724
4975000000.0 0.19366526582248156 -1.0280226351034776
4978000000.0 0.16050684354017725 -1.0324170450214898
4981000000.0 0.18165925871319877 -1.0707684002384017
4984000000.0 0.172498375065817 -1.0250789331287644
4988000000.0 0.17291041668108553 -1.0447016181485402
4991000000.0 0.257031649886553 -1.0677584102151454
4994000000.0 0.19550615520386655 -1.0015939056460939
4997000000.0 0.12589462198965196 -1.0339040258893402
5000000000.0 0.18491533471474186 -1.0348037727655743
5003000000.0 0.19040606897753914 -1.0746778486041122
5006000000.0 0.17265067701691178 -1.0869341141305866
5009000000.0 0.18285907036956667 -1.0413361953116338
5012000000.0 0.14054080519411116 -1.0381759167097568
5016000000.0 0.2198788988128964 -1.0174048820557242
5019000000.0 0.1732826943539863 -1.0401495244255214
5022000000.0 0.14955768196424502 -1.041658498693503
5025000000.0 0.14416273291505433 -1.073059601751405
5028000000.0 0.16660240030835627 -1.0075923209438975
5031000000.0 0.14775020291277186 -0.9915810449373812
5034000000.0 0.14815635373320957 -1.0780526215229365
5038000000.0 0.13746653733328518 -1.0436520574119832
5041000000.0 0.2109494810758623 -1.015119183615972
5044000000.0 0.1697510317188093 -1.0097251987309268
5047000000.0 0.11965827842745064 -1.0329412635547581
5050000000.0 0.2194467790032027 -0.9984085805250372
5053000000.0 0.14142879583574142 -1.0806521834925986
5056000000.0 0.20675271727192535 -1.0446858993265615
5059000000.0 0.1756375149440368 -1.0242798838739162
5062000000.0 0.098204195191123 -1.0302412520700261
5066000000.0 0.20052639002111028 -1.0347772575492182
5069000000.0 0.16834785081531034 -1.0648051359238133
5072000000.0 0.1656463630151614 -1.0387120884015562
5075000000.0 0.1683086767276729 -1.0006995264203904
5078000000.0 0.12408376886570066 -1.0414276164868266
5081000000.0 0.12170696713099366 -1.056212765438438
5084000000.0 0.1726698801813899 -1.035080656848717
5088000000.0 0.20690526004931448 -1.0229164191835973
5091000000.0 0.12986687310186273 -0.9934689748483563
5094000000.0 0.12792475480094934 -1.032795565308886
5097000000.0 0.15852898311300767 -1.0199504991698614
5100000000.0 0.12508510275972157 -1.0256886140688846
5103000000.0 0.04704233827792864 -1.0336187757487107
5106000000.0 0.12980171222151643 -1.0228009681770982
5109000000.0 0.17477547087166245 -1.0272176864783966
5112000000.0 0.08787499841384538 -1.0242114515076997
5116000000.0 0.10760532099111175 -0.9808569038871873
5119000000.0 0.09824341066784675 -1.0188213438882368
5122000000.0 0.1479508968163818 -1.0439082130515929
5125000000.0 0.14105483454343498 -1.0074538268836633
5128000000.0 0.10876937693827043 -1.0585442925397017
5131000000.0 0.14412272727880227 -1.0905148141506973
5134000000.0 0.10304585728643917 -1.0516790790092225
5138000000.0 0.15998658591474657 -1.0095566881529616
5141000000.0 0.15854497039887083 -1.0815070204281574
5144000000.0 0.12939781291601388 -1.0470857740676136
5147000000.0 0.10405498795192247 -1.0371050944290385
5150000000.0 0.1719698966525242 -1.069355663771096
5153000000.0 0.1017734606943746 -1.1200176650864235
5156000000.0 0.08902194277670289 -1.0429501240083825
5159000000.0 0.11255839792111477 -1.0367164030847653
5162000000.0 0.09535943840975758 -1.073223090847369
5166000000.0 0.12550277377506497 -1.0340395020964144
5169000000.0 0.12856950597446692 -1.0494173726210272
