! Created with skrf 1.8.0 (http://scikit-rf.org).
# Hz S RI R 50.0 
!freq ReS11 ImS11
4000000000.0 0.5348075890276917 -0.83158254320644
4003000000.0 0.5438359152183659 -0.9046797338488228
4006000000.0 0.510295448720308 -0.8779145246348324
4009000000.0000005 0.5131656779823841 -0.8642730166799075
4011999999.9999995 0.6071268026891717 -0.8726001730448971
4016000000.0 0.4591812451856072 -0.9006392189202699
4019000000.0 0.5182563022089002 -0.8388200793691744
4022000000.0000005 0.6242218115870228 -0.8829332607985956
4025000000.0000005 0.49829929949902263 -0.9365298366322639
4027999999.9999995 0.4925880239268723 -0.9062285979882582
4030999999.9999995 0.5709399064252847 -0.8516454667390692
4034000000.0 0.5102320680846689 -0.886772247004926
4038000000.0000005 0.5248387904257579 -0.9047078094976047
4041000000.0000005 0.5471226907115112 -0.8999081271886499
4043999999.9999995 0.5563777432617263 -0.9363143192163255
4046999999.9999995 0.5802001036158619 -0.8756703691559438
4050000000.0 0.5260931606333556 -0.9247324554915596
4053000000.0 0.5348471267074785 -0.8684886063467219
4056000000.0 0.5485541897530863 -0.8997222090803837
4059000000.0 0.5532240215286149 -0.9007754663821179
4062000000.0000005 0.48147875342140944 -0.886242945035594
4066000000.0 0.4861013790078343 -0.8419072565462805
4069000000.0 0.5363023164533663 -0.9717705393031209
4072000000.0 0.5325050982233566 -0.8573467471875152
4075000000.0 0.5846577310168999 -0.867463678556071
4078000000.0000005 0.5142677192239192 -0.8909753338894509
4081000000.0000005 0.5988705434893743 -0.8592851866493062
4083999999.9999995 0.5200483523450967 -0.9103137931856741
4088000000.0 0.5870176971128979 -0.849824758995776
4091000000.0 0.5576070708884717 -0.9491687633749488
4094000000.0000005 0.5555048178770614 -0.8361283423471413
4097000000.0000005 0.5477818558222161 -0.8619150413634385
4099999999.9999995 0.5363877979749887 -0.8786795474614518
4102999999.9999995 0.5812398235509589 -0.9030720256443361
4106000000.0 0.5686839196681237 -0.8821923471855557
4109000000.0 0.5158842920912861 -0.8765295345714488
4112000000.0 0.5540117398788272 -0.8563892570735232
4115999999.9999995 0.542247614827311 -0.8792729956890372
4119000000.0 0.5440685534875122 -0.8685897096552532
4122000000.0 0.49491553468132393 -0.8516454081562431
4125000000.0 0.5402343688787614 -0.8998828220270865
4128000000.0 0.5481954024607706 -0.8378813071230511
4131000000.0 0.5469129831066936 -0.8654916742715285
4134000000.0000005 0.5797115733443233 -0.8321661561525735
4138000000.0 0.48322664132638793 -0.8648039945828432
4141000000.0 0.5252892600147726 -0.8645975643813413
4144000000.0 0.5799566769411726 -0.848270763874276
4147000000.0000005 0.5302807159642317 -0.850565872260691
4150000000.0000005 0.5475586134947371 -0.8999098780781688
4152999999.9999995 0.5378004688768067 -0.8976109509358506
4155999999.9999995 0.5147220341407863 -0.8810727384873736
4159000000.0 0.5222514463300092 -0.8427513817626978
4162000000.0 0.5178366906968899 -0.8648304073306711
4166000000.0000005 0.5343482519637639 -0.8757796184309834
4168999999.9999995 0.5080459630886002 -0.8527714963927233
4171999999.9999995 0.5118646636228419 -0.8413136709719128
4175000000.0 0.5478173063249017 -0.8526104044854664
4178000000.0 0.5498330179213892 -0.8715286028480603
4181000000.0 0.5348174085239177 -0.8664274946865733
4184000000.0 0.5512149230904843 -0.8694904936886029
4187999999.9999995 0.5448138599169101 -0.873566778339893
4191000000.0 0.5516252767649841 -0.8405223721236174
4194000000.0 0.5541116215549797 -0.8384324583260482
4197000000.0 0.5425833942466022 -0.8882597870448801
4200000000.0 0.5680227210099248 -0.8479113533876257
4203000000.0000005 0.543188322575482 -0.8620707800767288
4206000000.0000005 0.5324704315560905 -0.8932714970022904
4208999999.9999995 0.5297893116846617 -0.8490513696819753
4211999999.9999995 0.5095649818548813 -0.8684452972790562
4216000000.0 0.5466358201332681 -0.8736174960025482
4219000000.0000005 0.5635421039503624 -0.8756556032161845
4222000000.0000005 0.5292845708994582 -0.869713155049846
4224999999.9999995 0.5236870024722231 -0.8587230644806826
4227999999.9999995 0.555709387534036 -0.8717113541245746
4231000000.0 0.5299655782759378 -0.8686963951788945
4234000000.0 0.5501101534524153 -0.8780030211437906
4238000000.0000005 0.5168238818530877 -0.8799375793835772
4240999999.9999995 0.5215358484398629 -0.8592776858105713
4244000000.0 0.5274092202308891 -0.8535320428867693
4247000000.0 0.5458563320963905 -0.8628439818049339
4250000000.0 0.5246948452990284 -0.877067613401772
4253000000.0 0.5270479732877651 -0.8322041151278531
4256000000.0 0.5288094449397724 -0.8911358578495308
4259000000.0000005 0.5090295447841601 -0.8497783108956937
4261999999.9999995 0.5062414219692528 -0.8693887293238832
4266000000.0 0.5269056137736073 -0.8753544308538875
4269000000.0 0.5536094831722513 -0.864163262878046
4272000000.0000005 0.5461940532743366 -0.8499601509675306
4275000000.0000005 0.553029198390812 -0.8797509748438731
4277999999.9999995 0.5397623633257898 -0.8826663410903677
4280999999.9999995 0.5395419311538012 -0.8624181552577317
4284000000.0 0.49689072499677533 -0.8944864685822104
4288000000.0000005 0.5632569208656533 -0.8511671864143218
4291000000.0000005 0.5105582735951099 -0.8380793975431221
4293999999.9999995 0.5053956143140101 -0.8401978189817317
4297000000.0 0.5518884444139918 -0.8324452794618291
4300000000.0 0.5435269813275351 -0.8099306808124904
4303000000.0 0.5298655984950481 -0.8501567448545415
4306000000.0 0.5472430808157531 -0.8428119457025055
4309000000.0 0.5120533001281388 -0.8365832935445625
4312000000.0 0.5774164920213932 -0.8670087985412723
4316000000.0 0.5379498113101445 -0.8813698149900729
4319000000.0 0.5328283039013026 -0.849777111142743
4322000000.0 0.5145524484456011 -0.837222429463675
4325000000.0 0.5370795072240803 -0.8651697198205301
4328000000.0 0.525011058555964 -0.850524813176518
4331000000.0 0.5111874682963736 -0.8688388093791005
4334000000.0 0.5295687637286073 -0.8664778209946022
4338000000.0 0.5512811757430843 -0.8398512291912843
4341000000.0 0.5457301931742833 -0.8656826623092297
4344000000.0 0.5509379110714746 -0.8526881854792661
4347000000.0 0.5223132584464336 -0.8983099700458029
4350000000.0 0.4994218688583877 -0.8249680998111482
4353000000.0 0.5198826064507343 -0.8415723459375991
4356000000.0 0.5082731050724741 -0.8788269840175972
4359000000.0 0.505675898231774 -0.8312391074125939
4362000000.0 0.4862811751161548 -0.8861508227666307
4366000000.0 0.542463182617195 -0.880317430310356
4369000000.0 0.5152989668055983 -0.836568028255755
4372000000.0 0.48023119802405 -0.8882473987207979
4375000000.0 0.542921261936993 -0.8329262358425641
4378000000.0 0.5344847800688975 -0.8486232567536649
4381000000.0 0.5220366470034145 -0.8333977663324363
4384000000.0 0.5336910412900537 -0.9171542157015892
4388000000.0 0.5090428394214793 -0.8373269925195659
4391000000.0 0.530870680227647 -0.8731883923985524
4394000000.0 0.5045074885728367 -0.8430784770926771
4397000000.0 0.5013413920526678 -0.860227548534803
4400000000.0 0.5271923570065881 -0.8867509453053596
4403000000.0 0.519096246049497 -0.8657114405673884
4406000000.0 0.5117128419907457 -0.8749942504764046
4409000000.0 0.5328108735376687 -0.8953145585905963
4412000000.0 0.4647141980307463 -0.891920063360257
4416000000.0 0.5132974809308691 -0.858649347699125
4419000000.0 0.49922448635347716 -0.8724138622698365
4422000000.0 0.5414627783776316 -0.8507153527929605
4425000000.0 0.5471862166634923 -0.8591902015345357
4428000000.0 0.5104743500373133 -0.8665881976590082
4431000000.0 0.5340083673313425 -0.8699188667453549
4434000000.0 0.5098935425221277 -0.8630859849868409
4438000000.0 0.5325671737682376 -0.8860474346077578
4441000000.0 0.5252235883132097 -0.8844715992993897
4444000000.0 0.511943977756157 -0.8465464980336549
4447000000.0 0.5044929264979413 -0.8625824461933195
4450000000.0 0.5258950637055424 -0.8553170412779887
4453000000.0 0.5363456417694565 -0.8929059066454803
4456000000.0 0.5015312962916394 -0.8506909076653082
4459000000.0 0.48515611788431745 -0.8380145813573274
4462000000.0 0.5329326124771997 -0.9367722805809278
4466000000.0 0.5226142625266517 -0.9132906741359017
4469000000.0 0.53697808139659 -0.8571826295753142
4472000000.0 0.5021576464564902 -0.9024677960309908
4475000000.0 0.5049540215907297 -0.8545118212537
4478000000.0 0.5242906728862908 -0.9003751715239164
4481000000.0 0.4714378355629148 -0.8584495415812712
4484000000.0 0.448628237977325 -0.8825774874936152
4488000000.0 0.49252777373495693 -0.8644520435260519
4491000000.0 0.49453180789004236 -0.8685185155436397
4494000000.0 0.5009321337925159 -0.8654078163576767
4497000000.0 0.5028738874998032 -0.8654242422619167
4500000000.0 0.5265960544974947 -0.856363130576046
4503000000.0 0.5237024693771548 -0.8855654725909317
4506000000.0 0.5043704024536584 -0.8652951301503191
4509000000.0 0.4837468451180208 -0.8635086433043693
4512000000.0 0.47487196341473087 -0.8502259475527204
4516000000.0 0.5118886883557133 -0.8718894212192947
4519000000.0 0.5312188827040806 -0.8585477068861014
4522000000.0 0.49644144406486945 -0.8500921140678731
4525000000.0 0.5209068013840281 -0.8767328572017523
4528000000.0 0.5108120570482391 -0.890232202846118
4531000000.0 0.5139691610930666 -0.8527181008883525
4534000000.0 0.49210411185785996 -0.8590948567067289
4538000000.0 0.49364257218848 -0.8684707229276003
4541000000.0 0.4517326406609154 -0.8680900000983376
4544000000.0 0.5161962732739526 -0.8609195640258486
4547000000.0 0.5211622598257775 -0.8594624737943963
4550000000.0 0.4888067508009374 -0.8976361286843484
4553000000.0 0.5139133754508991 -0.8932607602403551
4556000000.0 0.47268705859332616 -0.8449675158765433
4559000000.0 0.4856025890806476 -0.8842803663212613
4562000000.0 0.5132675451782832 -0.8874157207230114
4566000000.0 0.48480662433813304 -0.88615499662159
4569000000.0 0.47289332983607146 -0.8586725880806343
4572000000.0 0.48837433234428107 -0.8693315272353577
4575000000.0 0.49371758223977646 -0.8726277802644176
4578000000.0 0.5139081390818254 -0.8933866226360039
4581000000.0 0.4949831845277507 -0.8895752266067191
4584000000.0 0.48263745626109433 -0.8783616514291139
4588000000.0 0.5285832909629358 -0.8912655580014417
4591000000.0 0.49979499929703103 -0.8561427523632376
4594000000.0 0.4725018740797938 -0.8912024964581365
4597000000.0 0.5033670541280165 -0.8949246394003543
4600000000.0 0.46928375419157964 -0.8733142652206259
4603000000.0 0.4823485323491386 -0.875754195291528
4606000000.0 0.4936750993627789 -0.8997044556158394
4609000000.0 0.49602649308555075 -0.8837332211500373
4612000000.0 0.5030425792756887 -0.890001389304491
4616000000.0 0.472118028766385 -0.8717946953271792
4619000000.0 0.4915861277953455 -0.8666268493061425
4622000000.0 0.483528424309245 -0.9038184782647959
4625000000.0 0.43217470807478026 -0.8722980007167496
4628000000.0 0.5094544335142626 -0.8664344861516703
4631000000.0 0.4685610892434723 -0.881393292282318
4634000000.0 0.48306751804977555 -0.8888719079875582
4638000000.0 0.4977329988455574 -0.8869477893875777
4641000000.0 0.48911112286120784 -0.8966924572584642
4644000000.0 0.488824044536752 -0.8858374721987241
4647000000.0 0.48655688362871674 -0.8981477153584251
4650000000.0 0.46285426063459545 -0.8927505128899923
4653000000.0 0.4915001976052428 -0.8850789414633502
4656000000.0 0.4619393366600024 -0.890561005392722
4659000000.0 0.4578585681006601 -0.8898428853675238
4662000000.0 0.46666657486802204 -0.872269615445428
4666000000.0 0.46397257278849574 -0.8935661277815256
4669000000.0 0.49578603145070144 -0.8804166650914902
4672000000.0 0.4519264256867866 -0.9173395842213515
4675000000.0 0.4914137281888245 -0.9004838978920228
4678000000.0 0.47753906105830934 -0.8818666810687362
4681000000.0 0.46197726096110675 -0.920155658335241
4684000000.0 0.43642355361750357 -0.8945826128356922
4688000000.0 0.4661936611520288 -0.9246613767830216
4691000000.0 0.48602761229509023 -0.8969272530889623
4694000000.0 0.48614253832839355 -0.882012453051506
4697000000.0 0.4602128133096639 -0.8780910184323113
4700000000.0 0.4673378489265889 -0.8878247319980267
4703000000.0 0.4810217918730279 -0.8354810525719703
4706000000.0 0.4434642686522756 -0.9068329137695216
4709000000.0 0.46987557176217876 -0.8989991215275287
4712000000.0 0.4807048575599225 -0.8790056944750816
4716000000.0 0.48743932295858394 -0.8804280386061631
4719000000.0 0.4918615456192074 -0.9013161225313648
4722000000.0 0.5129362590723388 -0.8726141721233093
4725000000.0 0.47251408813535073 -0.9079082720933703
4728000000.0 0.4742003737401102 -0.9047985153517046
4731000000.0 0.49622116563775137 -0.8996562329681335
4734000000.0 0.5202400394809539 -0.8626155653449281
4738000000.0 0.5105672087414 -0.932099431436758
4741000000.0 0.47108072823358316 -0.9185118469147476
4744000000.0 0.4486347380263478 -0.9130848926630701
4747000000.0 0.4871122228795963 -0.8838634985908814
4750000000.0 0.4896370860245574 -0.9030655518450863
4753000000.0 0.49282368708885227 -0.8786695365724764
4756000000.0 0.48822416544025604 -0.8952077081667174
4759000000.0 0.4906321702925237 -0.917153526870684
4762000000.0 0.4624085413123454 -0.9282429812463938
4766000000.0 0.4807056328409489 -0.8976234933034938
4769000000.0 0.4863841865115693 -0.9174323997906686
4772000000.0 0.47781061316561413 -0.9128698179470279
4775000000.0 0.5000007449351038 -0.9491996369150293
4778000000.0 0.4714914126113171 -0.911536300965798
4781000000.0 0.4964253462241547 -0.8908478931248365
4784000000.0 0.4880902005304373 -0.8791944676481618
4788000000.0 0.4678858341178216 -0.9483534533441169
4791000000.0 0.4673554627077713 -0.8925017115056086
4794000000.0 0.49883133122679363 -0.9382709915330881
4797000000.0 0.4578797154403118 -0.8883738768716803
4800000000.0 0.4411103351971497 -0.8874330496248457
4803000000.0 0.4159830143681137 -0.9228365236319851
4806000000.0 0.4870318961539641 -0.9139478877679649
4809000000.0 0.44490511576752223 -0.9218585817142418
4812000000.0 0.4491055274384101 -0.9088809571930582
4816000000.0 0.4806394673242529 -0.8593025320646678
4819000000.0 0.5060963897902748 -0.9006048472557102
4822000000.0 0.5049320145241204 -0.9200546621735378
4825000000.0 0.5038660259980002 -0.8988354226914996
4828000000.0 0.45635609182341985 -0.9067964083334545
4831000000.0 0.43199672858212085 -0.958379570709596
4834000000.0 0.5222815218026685 -0.9109561714867305
4838000000.0 0.4655031944285374 -0.9438348640331007
4841000000.0 0.4519080509040243 -0.9156943718940365
4844000000.0 0.5035500485033515 -0.8936148686965115
4847000000.0 0.47926208641878343 -0.8616650168219372
4850000000.0 0.48509459574248415 -0.9442302069801939
4853000000.0 0.4519562879197865 -0.8873861943178558
4856000000.0 0.4441083997304059 -0.8882999893065939
4859000000.0 0.4794928607098904 -0.9614506413980503
4862000000.0 0.4792413596618696 -0.8880557106231983
4866000000.0 0.47532198278739324 -0.9036464534567503
4869000000.0 0.46181856788090087 -0.9262637253550532
4872000000.0 0.4676629508554654 -0.9663737123480756
4875000000.0 0.543534159468982 -0.9322413572978784
4878000000.0 0.4826348768490901 -0.883305128046181
4881000000.0 0.4809120297022129 -1.0028103921765452
4884000000.0 0.5118314000966802 -0.9055439612973415
4888000000.0 0.5271708093216909 -0.8975243648390424
4891000000.0 0.5054329603545342 -0.8972609109342344
4894000000.0 0.4793558236604548 -0.8872945136488296
4897000000.0 0.48758295317557027 -0.8901483143822415
4900000000.0 0.4930599769430829 -0.9125794242924561
4903000000.0 0.5284348797776109 -0.9035264711611304
4906000000.0 0.49091415283124634 -0.9352036216582186
4909000000.0 0.48983692036060966 -0.9060622940992055
4912000000.0 0.4712231720627961 -0.9250141756011772
4916000000.0 0.4894765526771121 -0.9338587374181013
4919000000.0 0.5291582523966086 -0.9300080303954547
4922000000.0 0.5135507804922623 -0.888687572191101
4925000000.0 0.4429629270508932 -0.9126367861669139
4928000000.0 0.50121798100374 -0.875069772226047
4931000000.0 0.5093530174029772 -0.9166215589970614
4934000000.0 0.46640962651946893 -0.8630514447986743
4938000000.0 0.47261875357817335 -0.9052416178758791
4941000000.0 0.4968315463910274 -0.8926863721683529
4944000000.0 0.4764072266295855 -0.8355033875578144
4947000000.0 0.47671853213994536 -0.8897941770443389
4950000000.0 0.45616537983494765 -0.9166867367052777
4953000000.0 0.471344699411409 -0.9346633484371245
4956000000.0 0.4405110501182946 -0.931695819579899
4959000000.0 0.4344309387659372 -0.9182705959593064
4962000000.0 0.5065827519752978 -0.9023704056928046
4966000000.0 0.5076964885853346 -0.9058183152837274
4969000000.0 0.5077519180674948 -0.9532090654747101
4972000000.0 0.4833461187174267 -0.9276810650291122
4975000000.0 0.5141762167691086 -0.8506399505390527
4978000000.0 0.4986945823489489 -0.9209257888138763
4981000000.0 0.4735954274600347 -0.9198354481289828
4984000000.0 0.491934204692584 -0.8753131962954029
4988000000.0 0.4870012643363181 -0.8549701385001974
4991000000.0 0.5538703231326586 -0.8926280315805334
4994000000.0 0.5109824395536706 -0.9281586420755678
4997000000.0 0.4862421734417865 -0.9372148176798423
5000000000.0 0.503993917945929 -0.9037152586086747
5003000000.0 0.5054306645970331 -0.9254779179274377
5006000000.0 0.5397735247750901 -0.9711883195509459
5009000000.0 0.5032131265209014 -0.8906247836466533
5012000000.0 0.5052854059264509 -0.9357160999077316
5016000000.0 0.5293115569738224 -0.9086602577581775
5019000000.0 0.48058199903505217 -0.9042409782486247
5022000000.0 0.5239336413522746 -0.899892140888313
5025000000.0 0.5211206454392542 -0.9685691788069051
5028000000.0 0.46240197911875147 -0.8958886494127255
5031000000.0 0.47059027692414535 -0.9038252991329291
5034000000.0 0.4758275456319874 -0.9534337745457346
5038000000.0 0.46876104830112164 -0.8821975043298174
5041000000.0 0.5333175071472829 -0.9190867753907175
5044000000.0 0.5235560992538801 -0.874199203444984
5047000000.0 0.5055501452998328 -0.9078624004334376
5050000000.0 0.5502921578467961 -0.8607793444977034
5053000000.0 0.4974286138848653 -0.9762211770144413
5056000000.0 0.5059654247266393 -0.8939482132710989
5059000000.0 0.5598545451576158 -0.8911007607914727
5062000000.0 0.46712258700207737 -0.9473094673643168
5066000000.0 0.534777795150817 -0.9062490553341374
5069000000.0 0.5150375381518371 -0.9284238623812555
5072000000.0 0.4712308126707487 -0.8794291611133387
5075000000.0 0.5216892442632879 -0.8659684724635544
5078000000.0 0.461416516396465 -0.9152532571790165
5081000000.0 0.4772839928402945 -0.8761227430538128
5084000000.0 0.49826142239042387 -0.904569165232879
5088000000.0 0.530900506874483 -0.9086384895172788
5091000000.0 0.4579172234768535 -0.9528810103277452
5094000000.0 0.51512875960503 -0.8863699790366592
5097000000.0 0.5393637801124187 -0.8805545508656593
5100000000.0 0.5004331927858388 -0.9050492207421481
5103000000.0 0.4765739630753315 -0.933587078973301
5106000000.0 0.5283256173849404 -0.960172190782473
5109000000.0 0.5712798670520041 -0.8823076977122559
5112000000.0 0.48129168923577087 -0.9231388796376184
5116000000.0 0.4942492234095795 -0.8661178009372225
5119000000.0 0.5133257762993376 -0.9318313217666334
5122000000.0 0.5093320148342527 -0.8745796826138517
5125000000.0 0.5407399892002549 -0.8846855290151345
5128000000.0 0.5282367329802083 -0.9125586889933982
5131000000.0 0.5097476387407833 -0.8791608239707652
5134000000.0 0.5098466041894967 -0.8515442634537356
5138000000.0 0.4866933685450143 -0.9204117687193671
5141000000.0 0.5582490615264517 -0.8958883737728165
5144000000.0 0.521490311792162 -0.8660465830373895
5147000000.0 0.5446940377603903 -0.8926193499515018
5150000000.0 0.5276946480754703 -0.8699967652236209
5153000000.0 0.5558365268174912 -0.9187811087377864
5156000000.0 0.5367149462753078 -0.890247555853738
5159000000.0 0.5333002355795291 -0.9442517926771729
5162000000.0 0.4812475259225873 -0.9258278849550411
5166000000.0 0.5256215977205905 -0.9078594486942784
5169000000.0 0.5644313358800536 -0.9034098454742093
5172000000.0 0.523756744205059 -0.8718390339550324
5175000000.0 0.5256406330801464 -0.9142924388368994
