! Created with skrf 1.8.0 (http://scikit-rf.org).
# Hz S RI R 50.0 
!freq ReS11 ImS11
4000000000.0 0.3389029059658251 -0.9519726477828693
4003000000.0 0.3768111057055832 -1.01567379819402
4006000000.0 0.37378390068428463 -0.953799860941901
4009000000.0000005 0.3653236907496822 -0.9771192135908723
4011999999.9999995 0.42382128797905827 -0.9686623968710157
4016000000.0 0.3444083795928305 -0.9695738277499393
4019000000.0 0.36320519991225336 -0.9735560989544789
4022000000.0000005 0.4037849441726047 -0.9737284539393585
4025000000.0000005 0.35186728092920305 -1.0130565890630157
4027999999.9999995 0.3630493602426106 -1.010486242322082
4030999999.9999995 0.36985334850714646 -0.9604909792020364
4034000000.0 0.3305060760914428 -0.9501597165989978
4038000000.0000005 0.37113169803514867 -0.9474124705780813
4041000000.0000005 0.3695608984079868 -0.981715631185038
4043999999.9999995 0.3809299267764048 -0.9976808296598083
4046999999.9999995 0.42385905805029356 -1.0008547510507073
4050000000.0 0.35524504713081184 -0.9734037671212612
4053000000.0 0.3324953555199763 -0.9748720568592314
4056000000.0 0.3864929516413046 -0.9724524309695644
4059000000.0 0.3929179924921602 -0.9707107613772907
4062000000.0000005 0.34329756163949054 -0.9929361343717937
4066000000.0 0.33702821518382386 -0.9130448300585298
4069000000.0 0.35739890677384356 -1.0061596124865766
4072000000.0 0.38497765107845794 -0.9701120987470411
4075000000.0 0.41228689602337626 -1.0049872199362837
4078000000.0000005 0.3713250857022315 -0.9711066195386397
4081000000.0000005 0.38414688624333637 -0.9620726860904799
4083999999.9999995 0.33493056254051634 -0.9975103592153214
4088000000.0 0.3879255442163133 -0.9407995794764992
4091000000.0 0.36071407697695357 -0.9810945938804809
4094000000.0000005 0.36424813990875127 -0.9706880855672094
4097000000.0000005 0.3376007365388989 -0.9616328176156679
4099999999.9999995 0.34384200453160413 -0.9420051984654455
4102999999.9999995 0.3473184546253086 -0.9946581288503263
4106000000.0 0.30943832934832827 -0.9869621612805226
4109000000.0 0.3675255962871722 -1.0145321132871403
4112000000.0 0.32563929873670994 -0.9647368337882358
4115999999.9999995 0.3597890569230149 -0.9645411871699952
4119000000.0 0.3118989354770267 -0.9532868957664473
4122000000.0 0.316102071713587 -0.9498103013067104
4125000000.0 0.33868664180353814 -0.9913854913474086
4128000000.0 0.3656744262086148 -0.9117737870275677
4131000000.0 0.34417588337984184 -0.9625378004347555
4134000000.0000005 0.3458275036272679 -0.9373711535721468
4138000000.0 0.3061166355336864 -0.9650693257071418
4141000000.0 0.35386371735642175 -1.0028194191106958
4144000000.0 0.35005477441951593 -0.94359687018492
4147000000.0000005 0.33187046945626203 -0.9741604668508084
4150000000.0000005 0.30951562870397964 -1.0028920346221732
4152999999.9999995 0.3204525206634071 -0.9926599089343053
4155999999.9999995 0.34620874630990117 -1.0016606478420091
4159000000.0 0.322586572578522 -0.9573518430827157
4162000000.0 0.32613284854323105 -0.9554174443980604
4166000000.0000005 0.3430747919992545 -0.9785040611834538
4168999999.9999995 0.301630312934253 -0.9701654209704834
4171999999.9999995 0.3311417421270015 -0.9671361378892711
4175000000.0 0.33764447452701973 -0.993722167462088
4178000000.0 0.333327612202189 -0.9725864013169615
4181000000.0 0.3288733528892089 -0.966093915580317
4184000000.0 0.34220011411289397 -0.9725253634258244
4187999999.9999995 0.313011250569803 -0.9581040683623142
4191000000.0 0.38302414294170406 -0.9551615649368752
4194000000.0 0.33414636741047976 -0.9510363015251106
4197000000.0 0.33906564614310586 -0.9707417869798138
4200000000.0 0.33911998337929455 -0.9705729183948941
4203000000.0000005 0.338186757458246 -0.9791579914887664
4206000000.0000005 0.3274975990435775 -0.9823034825859259
4208999999.9999995 0.3155214952542423 -0.9500912455054796
4211999999.9999995 0.27517549141157804 -0.988282993179138
4216000000.0 0.33218197511697833 -0.9744572376357106
4219000000.0000005 0.32681693492303504 -0.9723086149309359
4222000000.0000005 0.30867724530918855 -0.9699239319628078
4224999999.9999995 0.31250072721326044 -0.961541166471239
4227999999.9999995 0.3197753844971391 -0.9666438327888239
4231000000.0 0.3214597795441846 -0.9732850393012074
4234000000.0 0.2863912754215991 -0.985472732762477
4238000000.0000005 0.28479835726671815 -0.9795856281143359
4240999999.9999995 0.2857211182548996 -0.9550668192678877
4244000000.0 0.30163366782033085 -0.9757683534850646
4247000000.0 0.31751081698388706 -0.9599903848189087
4250000000.0 0.28963457040130136 -0.9540125395591004
4253000000.0 0.29052051854644245 -0.9598561638700388
4256000000.0 0.3099753636447959 -1.018222272556633
4259000000.0000005 0.28681244274400164 -0.9255079054692686
4261999999.9999995 0.26306707931836726 -0.96375630585198
4266000000.0 0.2638239106593157 -0.9957972299363714
4269000000.0 0.31179002935618716 -0.9624195365339127
4272000000.0000005 0.29878468342976483 -0.9624423296666419
4275000000.0000005 0.3150037297134872 -0.9631709944380553
4277999999.9999995 0.3025679380113139 -1.0003535268156645
4280999999.9999995 0.3135955940635688 -1.003137719313163
4284000000.0 0.2619972208764948 -0.9855034222498088
4288000000.0000005 0.314351911940687 -0.9590455581801338
4291000000.0000005 0.28285731653414303 -0.9434543319322181
4293999999.9999995 0.28450009061093584 -0.9689513952393201
4297000000.0 0.3109445329031797 -0.9481866521426484
4300000000.0 0.2971635191092683 -0.9565903547944427
4303000000.0 0.26368044610552144 -0.963759538775903
4306000000.0 0.3254662390977636 -0.9566378028243485
4309000000.0 0.28003405260629455 -0.9709760169907532
4312000000.0 0.3178742685801109 -0.9960121761574776
4316000000.0 0.2877519450418161 -1.0003558431781554
4319000000.0 0.2655429768494515 -0.9555542069969636
4322000000.0 0.2346375244067699 -0.9509171049572518
4325000000.0 0.2661074815352372 -0.9912528167968244
4328000000.0 0.2582837386333418 -0.9731694342061552
4331000000.0 0.22844739317516505 -0.9854414200488861
4334000000.0 0.26026683154566843 -1.0107385422553181
4338000000.0 0.2911976183609142 -0.9616786576795882
4341000000.0 0.307807931540759 -0.9882725717139982
4344000000.0 0.2820627521589077 -0.9900823162480132
4347000000.0 0.23693710962951625 -1.0001984093239962
4350000000.0 0.21947634718261017 -0.9481146271769492
4353000000.0 0.2752168491658518 -0.9565935927487738
4356000000.0 0.22616837423581287 -0.9947522683282045
4359000000.0 0.2182631166915855 -0.9335009847815419
4362000000.0 0.20156974757347357 -0.9946601300377336
4366000000.0 0.2558602090655388 -1.0032092777951074
4369000000.0 0.2360012597090574 -0.9430798245174856
4372000000.0 0.20263222395711927 -0.9765308412828797
4375000000.0 0.26820300636492905 -0.9541519146341939
4378000000.0 0.23943947586739173 -0.9483203176526254
4381000000.0 0.2468692953100493 -0.9681821978017344
4384000000.0 0.24641909436341308 -1.0451334360376383
4388000000.0 0.24733228034272886 -0.96738602625998
4391000000.0 0.2379110203064142 -0.9974003002369489
4394000000.0 0.23393855348129527 -0.9641217821035712
4397000000.0 0.2238777090575978 -0.9884796034240423
4400000000.0 0.22956583008081455 -1.0015709420122034
4403000000.0 0.23256222801973186 -0.9948571155250605
4406000000.0 0.21742556617882863 -0.9975490850608982
4409000000.0 0.22985932991616703 -1.0207560210902211
4412000000.0 0.16777389510188817 -0.9811433247288477
4416000000.0 0.21356880041339615 -0.9638683001881301
4419000000.0 0.1925807316734583 -0.991112129785658
4422000000.0 0.21829336218362833 -0.9779427040181188
4425000000.0 0.23884217066295826 -1.0128316219959717
4428000000.0 0.19904488048173324 -1.0089035984707395
4431000000.0 0.222317151595115 -1.0146065038560705
4434000000.0 0.1948851094591545 -0.9809476395325909
4438000000.0 0.2162388307938799 -1.009764315394839
4441000000.0 0.21509602463846722 -1.0070151833909344
4444000000.0 0.19708573379341848 -0.9765145315585484
4447000000.0 0.1896465557350454 -0.9945682759152497
4450000000.0 0.1916210425503952 -0.9678640038673874
4453000000.0 0.19948938495182822 -1.0126104517349608
4456000000.0 0.1850133601035977 -0.965114542226678
4459000000.0 0.17045603688955485 -0.9619285682028185
4462000000.0 0.1893841188682227 -1.0216488631890188
4466000000.0 0.18834071744305003 -1.0571354404266156
4469000000.0 0.18450629179372136 -0.9977843322704351
4472000000.0 0.15052145705024145 -1.032435021027236
4475000000.0 0.18062462644346483 -0.9718075391934241
4478000000.0 0.19699488425937384 -1.035205159240688
4481000000.0 0.15344692717628255 -0.9901345866777765
4484000000.0 0.1298319277147149 -1.0018407408296168
4488000000.0 0.16029999449313914 -1.0047299293609682
4491000000.0 0.17362217211240094 -1.004221765289959
4494000000.0 0.1755485171521411 -0.9700121534224808
4497000000.0 0.1738718736310016 -0.9877232568382786
4500000000.0 0.15545396425018448 -0.9798764651903906
4503000000.0 0.1516784439380106 -1.0210262445182248
4506000000.0 0.13555633572663406 -0.9941123133250577
4509000000.0 0.1314661280458897 -0.9752642118937371
4512000000.0 0.1535653721124703 -0.996747577027389
4516000000.0 0.15988870923178028 -1.0143239611281014
4519000000.0 0.12369967073916649 -0.9835908041578179
4522000000.0 0.1393117504034314 -1.0044771770652619
4525000000.0 0.14422072284757242 -1.0053624120241351
4528000000.0 0.15698598146031434 -1.0219514208216758
4531000000.0 0.12063471160961625 -1.0144784059267515
4534000000.0 0.11603354274172256 -1.0118715512461465
4538000000.0 0.11994282321526684 -1.0035275004120827
4541000000.0 0.09924873774980808 -0.9952113629122552
4544000000.0 0.1273333726353562 -1.0147075387531934
4547000000.0 0.14150976318665387 -1.021713970828228
4550000000.0 0.12563381418935582 -1.021625005000524
4553000000.0 0.10925060071596071 -1.0053020444696454
4556000000.0 0.10526846630807257 -0.9955183609024161
4559000000.0 0.10908934998622799 -1.0190220792166513
4562000000.0 0.12208448918973303 -1.0125771097063103
4566000000.0 0.09574141292452815 -1.0351796739905539
4569000000.0 0.1038923484091322 -1.009888605173788
4572000000.0 0.08990580968264572 -1.0100130767368676
4575000000.0 0.10410668151857044 -1.0060836594510207
4578000000.0 0.1103260935371812 -1.0256156367514628
4581000000.0 0.06987832185457982 -0.9942258233533365
4584000000.0 0.08282894381253947 -1.0137876097296754
4588000000.0 0.09047444504982277 -1.0337654362771491
4591000000.0 0.0700656649841449 -1.0089163106265957
4594000000.0 0.06573293092828325 -0.9935724686623866
4597000000.0 0.06374120736019123 -1.0049012856440893
4600000000.0 0.06918922053959892 -1.0126415657038308
4603000000.0 0.06425409237155932 -1.0002738194015928
4606000000.0 0.07165681581367911 -1.0252721814843908
4609000000.0 0.09365731351361983 -1.0098341418088304
4612000000.0 0.05492465456992557 -1.0043562451491095
4616000000.0 0.054551337992010396 -1.0096291479408621
4619000000.0 0.05847950482823411 -1.0065641630920854
4622000000.0 0.025423758723865736 -0.9934261460479453
4625000000.0 0.03592327950935145 -1.0213110974936785
4628000000.0 0.05983360132293855 -1.0675815404028026
4631000000.0 0.057620298333063036 -1.01980408492855
4634000000.0 0.03250449659020588 -1.0269303465809647
4638000000.0 0.05181065508099525 -1.019122197749847
4641000000.0 0.01819841563991345 -1.0297061781327743
4644000000.0 0.044343814000033704 -1.0227854449300742
4647000000.0 0.042177994072566644 -1.0138927113647638
4650000000.0 0.03295921640325447 -0.9933676070757994
4653000000.0 0.042005131800435636 -1.0065727583436794
4656000000.0 0.03620870755772457 -1.009276841536449
4659000000.0 0.0026986984180014384 -1.0261057736058246
4662000000.0 0.021426852100345145 -1.018102658262805
4666000000.0 0.0032680493899158447 -1.0288990840137273
4669000000.0 0.02966330611025894 -1.0304923353256572
4672000000.0 -0.019669366451474907 -1.0486910858337666
4675000000.0 -0.0007179598841921958 -1.077510922917524
4678000000.0 -0.00273262566311748 -1.0209376902751226
4681000000.0 -0.006365160700275541 -1.0188454887630296
4684000000.0 -0.0498593466037965 -1.0652502555411838
4688000000.0 -0.037975308451327364 -1.0294959764892018
4691000000.0 0.0014938380385680627 -1.0554437649819504
4694000000.0 0.05083267602896699 -0.982628888121805
4697000000.0 -0.0309398618351919 -1.0085913655786782
4700000000.0 -0.015465762734052244 -0.9844398396587171
4703000000.0 0.036364709368347466 -0.9426512172603494
4706000000.0 -0.09072710766004514 -1.0471732139717447
4709000000.0 -0.01961189537607584 -1.0300380701282708
4712000000.0 -0.019341434827937543 -1.0213121275571058
4716000000.0 -0.01813562819516502 -1.0351398984503857
4719000000.0 0.01997151546434519 -1.0098527897636467
4722000000.0 -0.020096948720865905 -1.005085837722504
4725000000.0 -0.03604857210134994 -1.0380719618281928
4728000000.0 -0.0398986504340347 -0.9977415361513147
4731000000.0 -0.028812266097274816 -1.0842643036826765
4734000000.0 0.010511750055741682 -0.9803672619494099
4738000000.0 -0.02065366132759127 -1.088335739086143
4741000000.0 -0.0684142475032807 -1.0357950820722546
4744000000.0 -0.07708109323701896 -1.0435823491608724
4747000000.0 -0.038656951140081344 -0.9820159346043823
4750000000.0 -0.03844330871257763 -1.0595543170716202
4753000000.0 -0.04756368445450551 -1.0463295774672106
4756000000.0 -0.05001933547758805 -1.0406529730613732
4759000000.0 -0.03223101909274749 -1.0649510653314567
4762000000.0 -0.11881145444558502 -1.0506113397229495
4766000000.0 -0.047326811033993665 -1.0363987480577577
4769000000.0 -0.07904758523952829 -1.0158409116366134
4772000000.0 -0.05965180937669792 -1.0440341598477632
4775000000.0 -0.12810993462997802 -1.0660565817814762
4778000000.0 -0.14738944691908218 -1.0282227590563147
4781000000.0 -0.08157499107028723 -1.0386734906384807
4784000000.0 -0.10077767333714008 -1.0675561153743969
4788000000.0 -0.15305402840474253 -1.039266746512662
4791000000.0 -0.0950821047287663 -1.0191160574495777
4794000000.0 -0.053608372085168526 -1.0538804738515466
4797000000.0 -0.10625363673954491 -1.0139775497527916
4800000000.0 -0.0879034466205702 -0.9920268594084756
4803000000.0 -0.18382099871387683 -1.008941118155351
4806000000.0 -0.14226669984433946 -1.035175224065436
4809000000.0 -0.1779389034452605 -1.0270193301846444
4812000000.0 -0.16884611094709562 -1.0008980621747503
4816000000.0 -0.09027806885759718 -1.0095795149569926
4819000000.0 -0.11985264136799273 -1.0599355005689814
4822000000.0 -0.11524163984206814 -1.06306536872683
4825000000.0 -0.13578348574491012 -1.0587354948874275
4828000000.0 -0.16686210274085955 -1.0284249941840338
4831000000.0 -0.19219974073698126 -1.0382973533054631
4834000000.0 -0.13546200613559478 -1.0203894168120462
4838000000.0 -0.18324905513873974 -1.0360380884016231
4841000000.0 -0.17814009290965843 -1.0012967548557992
4844000000.0 -0.11686745840255403 -1.0311034981632003
4847000000.0 -0.13864186148522956 -1.0127558604427227
4850000000.0 -0.19698198854217047 -1.0298056829799365
4853000000.0 -0.16261643317208369 -0.9840685176426511
4856000000.0 -0.1978012232757289 -1.0123030419886543
4859000000.0 -0.23093097897686032 -1.060319481329542
4862000000.0 -0.17611549712072844 -0.9970373863737803
4866000000.0 -0.21396786125065792 -1.0141323574334784
4869000000.0 -0.1784960470467496 -1.0027200463733237
4872000000.0 -0.19747695909704976 -1.038249370665897
4875000000.0 -0.14707937047679426 -1.099622706435301
4878000000.0 -0.2353628274706352 -1.0238991104759683
4881000000.0 -0.26354518999451376 -1.0698111883211499
4884000000.0 -0.1751884905718028 -0.9895443023924607
4888000000.0 -0.20400224657931515 -1.0245692148288497
4891000000.0 -0.23609172850907012 -1.019791475965206
4894000000.0 -0.2505138104002915 -0.9880056412194815
4897000000.0 -0.1898309266639926 -1.0237602524676386
4900000000.0 -0.2426718776354448 -1.0222231086371032
4903000000.0 -0.22032591906319926 -1.0326679070073046
4906000000.0 -0.26193580323741245 -1.023516926410438
4909000000.0 -0.2773696749408867 -0.9973373998669387
4912000000.0 -0.2945334076900727 -1.0229264992568043
4916000000.0 -0.25480917569783007 -1.0230419110890365
4919000000.0 -0.2553431261773387 -1.0534381180316215
4922000000.0 -0.2574693329270908 -1.0581970431172756
4925000000.0 -0.3082965202026599 -0.9832808510680073
4928000000.0 -0.26318785688362845 -1.0021203781681445
4931000000.0 -0.28790146351830015 -1.0328321572977448
4934000000.0 -0.25733996094818334 -0.958607505362927
4938000000.0 -0.3116828811538644 -0.9631622820853029
4941000000.0 -0.29555701545244634 -0.9798317298796786
4944000000.0 -0.2716628016289623 -0.9988790817800244
4947000000.0 -0.29015812800344404 -0.977350638378915
4950000000.0 -0.34002654509855296 -0.9721068883356399
4953000000.0 -0.3559682370882224 -1.0120211874600475
4956000000.0 -0.32991861064590416 -0.9962089286713349
4959000000.0 -0.33791482217728996 -0.9676207062913676
4962000000.0 -0.37359572518333833 -1.0093455116260879
4966000000.0 -0.2904202980543953 -1.021433500717551
4969000000.0 -0.3782035763035171 -1.0162737754459146
4972000000.0 -0.3183615306681013 -0.9753079923508547
4975000000.0 -0.3371634490575636 -0.9889428791881925
4978000000.0 -0.3844764211219041 -0.9821506962326789
4981000000.0 -0.397551276709616 -0.9762288358533382
4984000000.0 -0.3642402989009753 -0.9365412746820898
4988000000.0 -0.374511903181518 -1.0028813788288096
4991000000.0 -0.364296005435714 -1.0114776934792882
4994000000.0 -0.3884106024192934 -0.9673082624150445
4997000000.0 -0.4111564002616383 -0.9325535096435147
5000000000.0 -0.4232808948771588 -0.9591962990010547
5003000000.0 -0.3966623254120643 -0.9942989373301692
5006000000.0 -0.43284780693099945 -0.9424104566941722
5009000000.0 -0.453971969517598 -0.9269691026264781
5012000000.0 -0.49649152665574825 -0.9784188995392452
5016000000.0 -0.4163126546743992 -0.9710716945767377
5019000000.0 -0.4540793834162909 -0.9202328946073539
5022000000.0 -0.47899447935585615 -0.9559509597174727
5025000000.0 -0.4452996206312547 -0.9561574776570002
5028000000.0 -0.44168811890228565 -0.9574218545171163
5031000000.0 -0.49000981890750095 -0.901656588828588
5034000000.0 -0.47332569389366885 -0.9457683716705199
5038000000.0 -0.48114918231474696 -0.9033176409222711
5041000000.0 -0.5206293299900303 -0.956072698929933
5044000000.0 -0.43814630187487136 -0.897311742047651
5047000000.0 -0.5207794662290628 -0.8905585259873556
5050000000.0 -0.50450436897947 -0.9161594252628495
5053000000.0 -0.5078475566889885 -0.8718407384717648
5056000000.0 -0.5219837867460863 -0.8761737612001887
5059000000.0 -0.5723430410237936 -0.8968582244341717
5062000000.0 -0.5606157417531068 -0.886330381430806
5066000000.0 -0.5854225728739975 -0.8929195269337348
5069000000.0 -0.5477241329813578 -0.9213400289175911
5072000000.0 -0.5083303733960626 -0.9209788728745333
5075000000.0 -0.5485186516343584 -0.8652428781136623
5078000000.0 -0.555462853980437 -0.8925374711510093
5081000000.0 -0.5989194673114857 -0.8363721982934069
5084000000.0 -0.5867020353077528 -0.838388583361032
5088000000.0 -0.6492026371174785 -0.8448984751903705
5091000000.0 -0.5884102041677997 -0.8103821399603709
5094000000.0 -0.5904851364206942 -0.7809227364808903
5097000000.0 -0.5966394230895781 -0.7623887995775743
5100000000.0 -0.6552021147699131 -0.8226640574753646
5103000000.0 -0.6713513541124131 -0.7741498015466627
5106000000.0 -0.6417550306128248 -0.7671401152079923
5109000000.0 -0.6487639696515102 -0.7508604002461405
5112000000.0 -0.706063857246062 -0.7984160243221963
5116000000.0 -0.7105091683590704 -0.7770147157549182
5119000000.0 -0.783094028600364 -0.7400789827013914
5122000000.0 -0.7505973628672115 -0.7436765059773722
5125000000.0 -0.6127104100521165 -0.7841575787088482
5128000000.0 -0.6805837016515965 -0.7237270741394406
5131000000.0 -0.7548468880112686 -0.7472774794597046
5134000000.0 -0.7201466974711623 -0.6821619158551614
5138000000.0 -0.7225138969295735 -0.7139812402737927
5141000000.0 -0.7681264778534693 -0.7276965438649738
5144000000.0 -0.7625655103432678 -0.6537390138724133
5147000000.0 -0.7855497490921929 -0.7089681014404224
5150000000.0 -0.8426046181134632 -0.6998700280460197
5153000000.0 -0.8306650204956313 -0.7037481421512448
5156000000.0 -0.7417070694236996 -0.6316297292352626
