! Created with skrf 1.8.0 (http://scikit-rf.org).
# Hz S RI R 50.0 
!freq ReS11 ImS11
4000000000.0 0.5685125684191064 -0.8524365538511031
4003000000.0 0.5982984702255882 -0.9375575296298504
4006000000.0 0.5234387993350869 -0.8966312368556002
4009000000.0000005 0.5265791999462459 -0.9008308990757329
4011999999.9999995 0.6416385700820673 -0.8860860575857716
4016000000.0 0.5335621803955144 -0.898209755307669
4019000000.0 0.5504435400650012 -0.9035300987113329
4022000000.0000005 0.6423860496048005 -0.8938129402533912
4025000000.0000005 0.5113345117594988 -0.9158052454539211
4027999999.9999995 0.528492841004192 -0.9154682649377258
4030999999.9999995 0.520211760952326 -0.8200299429995674
4034000000.0 0.5185893365989167 -0.8864589873850816
4038000000.0000005 0.5519990259616989 -0.9101824245418921
4041000000.0000005 0.5352777159697228 -0.905005193290136
4043999999.9999995 0.5700930596093008 -0.8973838213238505
4046999999.9999995 0.5772789685752534 -0.9223850830457825
4050000000.0 0.5528354406485534 -0.9342050559382999
4053000000.0 0.5148660009292492 -0.8983300824684998
4056000000.0 0.5459471478801698 -0.8630664302874202
4059000000.0 0.5482979187252073 -0.8857411834154384
4062000000.0000005 0.5132028728268689 -0.9147138371594509
4066000000.0 0.4894104212114209 -0.8077747359668839
4069000000.0 0.5316609929369153 -0.9142609394121367
4072000000.0 0.6076305529010365 -0.8376821150251494
4075000000.0 0.5570873328827649 -0.8938546444630416
4078000000.0000005 0.5263354621919915 -0.8796380324884756
4081000000.0000005 0.6162939817649764 -0.8530549483700121
4083999999.9999995 0.5316838528139328 -0.9153473897980718
4088000000.0 0.5716365571687094 -0.859165034328927
4091000000.0 0.5986724975254073 -0.9537041838953562
4094000000.0000005 0.5687881521618637 -0.8485558380736087
4097000000.0000005 0.5419937881680577 -0.8814568649648901
4099999999.9999995 0.5167689226410629 -0.8798283586439359
4102999999.9999995 0.5867260822335303 -0.9023263651404158
4106000000.0 0.5237038464575619 -0.9166729112163513
4109000000.0 0.5140885178840401 -0.9088423646871895
4112000000.0 0.5544667504826764 -0.8633428852114909
4115999999.9999995 0.5671202968929706 -0.8861063089319835
4119000000.0 0.5254586997932019 -0.8834812891471556
4122000000.0 0.5279437622735197 -0.8925000997542735
4125000000.0 0.5271622607364591 -0.8946065729507836
4128000000.0 0.5336216602616608 -0.8391976573804832
4131000000.0 0.5442917714041836 -0.8777974825385756
4134000000.0000005 0.5627702672423911 -0.8846566809139998
4138000000.0 0.5182795369074708 -0.8503463365191208
4141000000.0 0.5101272870074477 -0.8752435193918569
4144000000.0 0.5831237850892671 -0.8738981863304838
4147000000.0000005 0.5156039058091811 -0.914779244429525
4150000000.0000005 0.568618583515273 -0.8794769946882214
4152999999.9999995 0.5452330398606938 -0.8582547153737237
4155999999.9999995 0.5314850665198723 -0.8493124459583414
4159000000.0 0.5407899940804507 -0.8755538964507885
4162000000.0 0.5480044042501853 -0.859430202609631
4166000000.0000005 0.530465697655895 -0.892677754623098
4168999999.9999995 0.5306511605550168 -0.8966053801051944
4171999999.9999995 0.5485276961391136 -0.8813884610552009
4175000000.0 0.5745188011004315 -0.8352542465890231
4178000000.0 0.5801181605807704 -0.8643571233206292
4181000000.0 0.5256097799426563 -0.8620901944072155
4184000000.0 0.5233312469604883 -0.8366761044032363
4187999999.9999995 0.5329722412538007 -0.8639877248485448
4191000000.0 0.5781041504421902 -0.8302537598587326
4194000000.0 0.5670350227138647 -0.8613065905826474
4197000000.0 0.5612959029945993 -0.8868470343267153
4200000000.0 0.5544728019895719 -0.8542630164358024
4203000000.0000005 0.5668715508450056 -0.8740935284892778
4206000000.0000005 0.5474301294018096 -0.8580007635220936
4208999999.9999995 0.5544355080426531 -0.8465013969918365
4211999999.9999995 0.5326355807912659 -0.8902579015305181
4216000000.0 0.5815571047180907 -0.8583009164731505
4219000000.0000005 0.5839538306207502 -0.862653700845197
4222000000.0000005 0.5543943456149556 -0.8832830774154988
4224999999.9999995 0.5521313487567685 -0.843431898830898
4227999999.9999995 0.5733240508935646 -0.8769302454285614
4231000000.0 0.5424616381746851 -0.8638615844012737
4234000000.0 0.5658251688408324 -0.8845004996696407
4238000000.0000005 0.5366540467478702 -0.87629348177477
4240999999.9999995 0.5282805137841733 -0.8697933331789403
4244000000.0 0.5836916712681646 -0.8481994388685592
4247000000.0 0.5431493250296883 -0.8483983541198026
4250000000.0 0.5517328830947946 -0.856573625903262
4253000000.0 0.532726242521973 -0.8438422381813496
4256000000.0 0.5716218515457423 -0.8819527463906274
4259000000.0000005 0.5215525142374273 -0.8571572910882445
4261999999.9999995 0.5352696328123815 -0.8758994632087422
4266000000.0 0.5301417119714564 -0.8890553464767088
4269000000.0 0.5513517475342653 -0.854581725470854
4272000000.0000005 0.5383771558874565 -0.8515585699113476
4275000000.0000005 0.5518138144338876 -0.8790502570677845
4277999999.9999995 0.5589904869094049 -0.8641368784338438
4280999999.9999995 0.5447892737930157 -0.874943979911322
4284000000.0 0.5109952694819094 -0.8792657609219988
4288000000.0000005 0.56081899307928 -0.8551355896956525
4291000000.0000005 0.5237054375873659 -0.8368977642597861
4293999999.9999995 0.5404711506383747 -0.8588340479678499
4297000000.0 0.5635336661346512 -0.8434714031898464
4300000000.0 0.5351885123636834 -0.8546952043182802
4303000000.0 0.5489355591365733 -0.8454280456248905
4306000000.0 0.5500541020352179 -0.858847533276678
4309000000.0 0.5321963821371618 -0.8393699853100813
4312000000.0 0.582407281244399 -0.8641370345898896
4316000000.0 0.5778507287875257 -0.8490999385309678
4319000000.0 0.5412612448587295 -0.8576310831510079
4322000000.0 0.5324687533894675 -0.8460258329842197
4325000000.0 0.5623483864330784 -0.8690906988765501
4328000000.0 0.5243344070656277 -0.8319984688992961
4331000000.0 0.5254054597138453 -0.8490634883801855
4334000000.0 0.5633618272616282 -0.8803082329396488
4338000000.0 0.5605390527695207 -0.8309243998848859
4341000000.0 0.5745225875082924 -0.8515221155752324
4344000000.0 0.557659442213332 -0.872453104354005
4347000000.0 0.5222751673025541 -0.8862433709109313
4350000000.0 0.5192590121856646 -0.85240220357497
4353000000.0 0.5670918607701115 -0.8046735637592866
4356000000.0 0.5277827548874462 -0.8519142020442171
4359000000.0 0.5299806572188681 -0.8327243657465
4362000000.0 0.5116839758513728 -0.9164665927662876
4366000000.0 0.5489486374322622 -0.8863836436728529
4369000000.0 0.5305049792682305 -0.8463770542882765
4372000000.0 0.513549161835565 -0.8514603168766642
4375000000.0 0.5468986220684027 -0.8322967474343381
4378000000.0 0.5386707930546254 -0.8365779143025637
4381000000.0 0.536745240012743 -0.8492326302090898
4384000000.0 0.5448366383582596 -0.9152612907260954
4388000000.0 0.5315100133156685 -0.8333526911427875
4391000000.0 0.5537351800127702 -0.8654092413206478
4394000000.0 0.5331890596127733 -0.8331299912670563
4397000000.0 0.5167477968816041 -0.8653702835922571
4400000000.0 0.5457683720007895 -0.8789464464063932
4403000000.0 0.5459933129151092 -0.8589235312563662
4406000000.0 0.5071896529962805 -0.8663411323335662
4409000000.0 0.5451950625754957 -0.8807786809348545
4412000000.0 0.48487173037839193 -0.8884302035851404
4416000000.0 0.5112586444576176 -0.8552318917184198
4419000000.0 0.5173403834334486 -0.8677752624159475
4422000000.0 0.5396738215314624 -0.8559262350741841
4425000000.0 0.5701516478232145 -0.8616784095873729
4428000000.0 0.5196235090838457 -0.8609519704606515
4431000000.0 0.5453555486087232 -0.869876135812309
4434000000.0 0.5255153553751517 -0.8446922419686113
4438000000.0 0.5449983336017636 -0.8883005112353065
4441000000.0 0.5421718827324679 -0.8827160093287891
4444000000.0 0.5244957920198693 -0.8402068285884592
4447000000.0 0.5192730171960764 -0.8702877718772652
4450000000.0 0.5398167118538786 -0.8335644148037614
4453000000.0 0.5506398806530375 -0.8791443928587794
4456000000.0 0.49309106855006934 -0.8594160124803938
4459000000.0 0.4782741269185995 -0.831359047860109
4462000000.0 0.5609080015208732 -0.9121246581820934
4466000000.0 0.5350547670570037 -0.8953251777361644
4469000000.0 0.5516629792637096 -0.8427732671742859
4472000000.0 0.5192416656651828 -0.8909231839243104
4475000000.0 0.5292975185199535 -0.8400112332905131
4478000000.0 0.5293401879262052 -0.9120428358518722
4481000000.0 0.49808637622621493 -0.8444010889545046
4484000000.0 0.4719790815656009 -0.8718960951318515
4488000000.0 0.5121841011183055 -0.873746202567649
4491000000.0 0.5091889106312114 -0.8705504206783087
4494000000.0 0.5269269859655858 -0.8410694850159852
4497000000.0 0.5229468006242375 -0.8475539648455592
4500000000.0 0.5418323433828505 -0.862008968380814
4503000000.0 0.542832508298675 -0.8854999375139203
4506000000.0 0.5100627789882339 -0.8592078491792281
4509000000.0 0.509552677585224 -0.8560310359014729
4512000000.0 0.49293771544937204 -0.8527177624782856
4516000000.0 0.5101445592208029 -0.8669580484824847
4519000000.0 0.5252061609699041 -0.8436415276055846
4522000000.0 0.5160237676578291 -0.8725928532997369
4525000000.0 0.5363310052641886 -0.8315933125933037
4528000000.0 0.5279362542942616 -0.8996593697839845
4531000000.0 0.530295202388757 -0.8574502337218709
4534000000.0 0.49828353188517216 -0.8403135926772787
4538000000.0 0.5128577587885167 -0.880200993750838
4541000000.0 0.4748778694439397 -0.8690169259532553
4544000000.0 0.5084806143505278 -0.8585757100105702
4547000000.0 0.5420317797643394 -0.853697831497652
4550000000.0 0.48925469530772575 -0.8861646876372395
4553000000.0 0.5114580532376746 -0.8870401076303638
4556000000.0 0.4925894849875836 -0.8720335837517478
4559000000.0 0.49304364726777217 -0.880889617692683
4562000000.0 0.5283331828828336 -0.894170188192799
4566000000.0 0.5039366231005369 -0.9003255810954993
4569000000.0 0.49138062818154493 -0.8618815412082259
4572000000.0 0.5263254945362614 -0.8673862711764668
4575000000.0 0.5026431982990578 -0.900894016177991
4578000000.0 0.5328590143483458 -0.888753637361712
4581000000.0 0.5027630141912545 -0.8960682527272569
4584000000.0 0.49205672569732783 -0.8770940699131584
4588000000.0 0.5172910580626713 -0.9068462404349407
4591000000.0 0.5166232752755592 -0.8567661993523348
4594000000.0 0.47216861142608413 -0.8773008471787063
4597000000.0 0.5243892379089188 -0.9129985958113546
4600000000.0 0.48322631669902427 -0.8792053792134036
4603000000.0 0.5001113982586421 -0.8949835557842456
4606000000.0 0.4999361808279925 -0.8849030439895864
4609000000.0 0.5002686957907119 -0.8797246419089877
4612000000.0 0.4954289420093506 -0.8823118486321894
4616000000.0 0.4953436850799843 -0.8752426597814823
4619000000.0 0.5045157663793254 -0.8806575611610923
4622000000.0 0.5065035718549028 -0.8827171851108615
4625000000.0 0.4710133566010881 -0.8644634193127845
4628000000.0 0.509399169178153 -0.851697475172198
4631000000.0 0.49016433160186107 -0.8784440814814279
4634000000.0 0.4944089404161086 -0.8986536196712711
4638000000.0 0.5014816064657299 -0.8848101309935574
4641000000.0 0.5043402867860591 -0.8753512966180673
4644000000.0 0.48659612678284203 -0.8827822598517682
4647000000.0 0.5031302087222098 -0.8825495050775379
4650000000.0 0.4951075820449203 -0.8911178609801896
4653000000.0 0.5072108191074262 -0.8933615501045559
4656000000.0 0.49826010367582824 -0.8777796646748792
4659000000.0 0.49584672985429556 -0.9104392377800994
4662000000.0 0.49633179393330634 -0.894036909504414
4666000000.0 0.48897382559723207 -0.8945221095470339
4669000000.0 0.5033910767797664 -0.8703275668092775
4672000000.0 0.48374775067088427 -0.9132180312839818
4675000000.0 0.4779116833360383 -0.9103811851718949
4678000000.0 0.49206341060583114 -0.8684475696912102
4681000000.0 0.46671193117514176 -0.8990940892371447
4684000000.0 0.45381100620183246 -0.9031012405324557
4688000000.0 0.4436324126897924 -0.88906551155684
4691000000.0 0.49972939779144093 -0.8850973141315847
4694000000.0 0.49494729010607713 -0.8700174675644455
4697000000.0 0.4611077826123697 -0.8757676773067348
4700000000.0 0.4861793949450735 -0.8769080500063029
4703000000.0 0.5143616085884001 -0.8696528466896564
4706000000.0 0.5035870348755913 -0.8876461753498746
4709000000.0 0.4875647421655994 -0.9062096867802247
4712000000.0 0.4696857737135708 -0.8811914412002324
4716000000.0 0.5078326387107822 -0.8964773462839946
4719000000.0 0.5007573947866396 -0.8882324336917787
4722000000.0 0.5092728801535018 -0.8751253793304237
4725000000.0 0.5071246233146673 -0.8952283123101522
4728000000.0 0.4872166958389943 -0.8904784840714102
4731000000.0 0.5215321032054119 -0.928344238119947
4734000000.0 0.5057195364631079 -0.8730037855503359
4738000000.0 0.5157092956733891 -0.878698305128874
4741000000.0 0.503870063386173 -0.9394190745108311
4744000000.0 0.47988491615453194 -0.8992196977316653
4747000000.0 0.49664625584572586 -0.8718579602157258
4750000000.0 0.49434601659113053 -0.9111729821625341
4753000000.0 0.5010704744836739 -0.8986674520709808
4756000000.0 0.4839991549204224 -0.8831298437508581
4759000000.0 0.5264855373910176 -0.8747075318168647
4762000000.0 0.4805890849344195 -0.8902962189758529
4766000000.0 0.4933997448964033 -0.9123025142752349
4769000000.0 0.5040226806790693 -0.8957653061483839
4772000000.0 0.47185544064685614 -0.8964364387930822
4775000000.0 0.5138931833675549 -0.9322782476636298
4778000000.0 0.4870119560354302 -0.9303442651568813
4781000000.0 0.484460273290214 -0.8597840797952823
4784000000.0 0.5236027034632053 -0.8945550907928623
4788000000.0 0.4759270606429782 -0.9079398397104547
4791000000.0 0.4790136447480956 -0.903280572554072
4794000000.0 0.5091557069083568 -0.9052965158074399
4797000000.0 0.4774396317384745 -0.8918269219139449
4800000000.0 0.46425461224607606 -0.9084293189687668
4803000000.0 0.43710220342211986 -0.9070577721107712
4806000000.0 0.48421037323679816 -0.9257745683209823
4809000000.0 0.4646214495572024 -0.9162713226981065
4812000000.0 0.43134728780617404 -0.9215117495558858
4816000000.0 0.500613710455814 -0.9010783699276806
4819000000.0 0.5339384008591621 -0.9139229051969868
4822000000.0 0.522581015861804 -0.9203019669004232
4825000000.0 0.5311756272113631 -0.9104878997569542
4828000000.0 0.4670435846221076 -0.8966388340502726
4831000000.0 0.4678192677229773 -0.9532021798196388
4834000000.0 0.5084458815886063 -0.8856853050112348
4838000000.0 0.48499977926226256 -0.9222360956750943
4841000000.0 0.4770959983889556 -0.9052506020810858
4844000000.0 0.5245190475947185 -0.9130508201328142
4847000000.0 0.5075219286844356 -0.8635454599232796
4850000000.0 0.48089860803126405 -0.8923777449008536
4853000000.0 0.4933205506933979 -0.8745520013712743
4856000000.0 0.4874019614125942 -0.8964533897019438
4859000000.0 0.5032887313510098 -0.9431523227128845
4862000000.0 0.5116740731510627 -0.8833724070188596
4866000000.0 0.47892965817782535 -0.9199950692309944
4869000000.0 0.4668115867978633 -0.9006586096323695
4872000000.0 0.4778132932273898 -0.9450354060985624
4875000000.0 0.5676121905784672 -0.9142731942076403
4878000000.0 0.4865820992750488 -0.8983067171356776
4881000000.0 0.5053146970048392 -0.9866328074402109
4884000000.0 0.4979313629050538 -0.8911048969032295
4888000000.0 0.5216009872064261 -0.8754175962745429
4891000000.0 0.5371025339947357 -0.9189743401412596
4894000000.0 0.4618301512175278 -0.8996743201983559
4897000000.0 0.5337815329823383 -0.8727629841672867
4900000000.0 0.5273922213419793 -0.9268071952657013
4903000000.0 0.5159994099200236 -0.8841174867640033
4906000000.0 0.4712571563480963 -0.9434677047020424
4909000000.0 0.5201269967067508 -0.9241650264475544
4912000000.0 0.5131710529696228 -0.9176611988112697
4916000000.0 0.5311348232997324 -0.9257722777984
4919000000.0 0.5065890241974099 -0.9111892849794824
4922000000.0 0.5150965071031377 -0.8804994437237255
4925000000.0 0.4631739644302551 -0.9078342938434892
4928000000.0 0.535388517156392 -0.8610687080539312
4931000000.0 0.5224885203359939 -0.9374085423767898
4934000000.0 0.49669872520942804 -0.863305140267254
4938000000.0 0.4867720685608236 -0.9073291213149928
4941000000.0 0.4911316907189408 -0.8986452531310558
4944000000.0 0.47851942912833445 -0.8553239562484832
4947000000.0 0.4961437320570496 -0.8911309755640102
4950000000.0 0.4864827084519754 -0.8810125716961021
4953000000.0 0.5039163900234211 -0.9273535177689848
4956000000.0 0.47641732611205023 -0.8989141881524318
4959000000.0 0.4606838366146059 -0.8838757963441737
4962000000.0 0.5157552460333314 -0.9311025285770014
4966000000.0 0.5212468893454099 -0.9433451622581246
4969000000.0 0.5499603444562081 -0.9135123288660758
4972000000.0 0.4930936151597656 -0.9063378401037716
4975000000.0 0.532405936552978 -0.8582614263031878
4978000000.0 0.4900221291012107 -0.8973165845722785
4981000000.0 0.49270306152140886 -0.9132471214371178
4984000000.0 0.5087474061270797 -0.8885622007522433
4988000000.0 0.51322165263771 -0.894732511804494
4991000000.0 0.5675591967186693 -0.8588865774081422
4994000000.0 0.5193822736311033 -0.8703306389729568
4997000000.0 0.4836470618605917 -0.9123371811097175
5000000000.0 0.5350126036930074 -0.9323648154305376
5003000000.0 0.5317959790998237 -0.9457710810908615
5006000000.0 0.54137139893811 -0.9537101736911855
5009000000.0 0.5095987616574458 -0.8965409986793538
5012000000.0 0.5200484332371551 -0.9219363221382385
5016000000.0 0.5778793421559442 -0.9138009133724412
5019000000.0 0.47593276711500687 -0.930049658877078
5022000000.0 0.5279802541512466 -0.9359997613863267
5025000000.0 0.5704412197217656 -0.9659871064602109
5028000000.0 0.4892174549298989 -0.9104460413824271
5031000000.0 0.49401969343429264 -0.9431261720593607
5034000000.0 0.5009845887452984 -0.9470974797683411
5038000000.0 0.4974244944087882 -0.8854781187038165
5041000000.0 0.5388275721845124 -0.9093070803539008
5044000000.0 0.553488716078698 -0.859560563061048
5047000000.0 0.5676797053796896 -0.8861157333831395
5050000000.0 0.5714416097113637 -0.8487017693369191
5053000000.0 0.5026371566915169 -0.9043688348467566
5056000000.0 0.5590218064864005 -0.8705853469975899
5059000000.0 0.5475242075047488 -0.8464217015499639
5062000000.0 0.5081658181524247 -0.9580402522051827
5066000000.0 0.5795998892969614 -0.8584480031498627
5069000000.0 0.5288339886629945 -0.9360751283273961
5072000000.0 0.5135426791021138 -0.8582136828280109
5075000000.0 0.5519602890629746 -0.8539618004840805
5078000000.0 0.504590028671283 -0.9253978122981533
5081000000.0 0.4813212252658683 -0.8739564917975869
5084000000.0 0.5428354482125022 -0.9425698648545235
5088000000.0 0.5449973100564219 -0.8932151248871828
5091000000.0 0.5037849371307234 -0.9331911303522854
5094000000.0 0.5497127691400625 -0.928024392047663
5097000000.0 0.5768285491199038 -0.8644136292123568
5100000000.0 0.5439440964233138 -0.8638363993340901
5103000000.0 0.5246955967973467 -0.9337744962380701
5106000000.0 0.5827304910556043 -0.8703625283840575
5109000000.0 0.58400807259096 -0.8972798954785686
5112000000.0 0.4796955852160564 -0.9026535646596533
5116000000.0 0.5461178789750898 -0.8897483652445335
5119000000.0 0.522641422765751 -0.9265995483273605
5122000000.0 0.5397992986834932 -0.9070433363978144
5125000000.0 0.5635549982920165 -0.8843017369610136
5128000000.0 0.5210603847130806 -0.8985033375523048
5131000000.0 0.5223881880069423 -0.8894202992273683
5134000000.0 0.5500088174854318 -0.8677473605729281
5138000000.0 0.5277675356532258 -0.8818895198122656
5141000000.0 0.6144123973270696 -0.849766093633789
5144000000.0 0.553986631468953 -0.8614798993848851
5147000000.0 0.5709307161381121 -0.9001219781456233
5150000000.0 0.5837842757648064 -0.9071694932857828
5153000000.0 0.5332527938168226 -0.8860328299918325
5156000000.0 0.5710519714262845 -0.9077877114279973
5159000000.0 0.5883952435929382 -0.9236836834321434
5162000000.0 0.5026623089150322 -0.8799881324273137
5166000000.0 0.5303538774675141 -0.9135722568505281
5169000000.0 0.549725984143133 -0.9197608820191634
5172000000.0 0.5655477684964464 -0.8669896121919856
5175000000.0 0.5921611674557318 -0.9145665476922812
5178000000.0 0.5462204335525773 -0.9352856510307478
