! Created with skrf 1.8.0 (http://scikit-rf.org).
# Hz S RI R 50.0 
!freq ReS11 ImS11
4000000000.0 0.5399671635441039 -0.8510417580428713
4003000000.0 0.5949771751270458 -0.9463064702698505
4006000000.0 0.547934426823194 -0.9058739690173729
4009000000.0000005 0.5610357659514965 -0.8567881151147811
4011999999.9999995 0.5470049351768914 -0.8691442572303769
4016000000.0 0.535311067804048 -0.8966740939013493
4019000000.0 0.5526960790674308 -0.886129910268519
4022000000.0000005 0.6267232565130308 -0.8786767560065782
4025000000.0000005 0.49824444393725675 -0.9565410752621434
4027999999.9999995 0.5021668410562029 -0.9034532510378722
4030999999.9999995 0.5331336575400166 -0.8436358739600576
4034000000.0 0.5178671856060135 -0.891634974430668
4038000000.0000005 0.558767061436082 -0.8715578305454078
4041000000.0000005 0.5538821117543555 -0.891849777918219
4043999999.9999995 0.5353347390768035 -0.9018473742610235
4046999999.9999995 0.6016834837311842 -0.9424615386595323
4050000000.0 0.5031197123539605 -0.9155815295693517
4053000000.0 0.5165556609732913 -0.8419634577164169
4056000000.0 0.5447422249167094 -0.8993546166458057
4059000000.0 0.5429956569854812 -0.8690360331563373
4062000000.0000005 0.5132928220279891 -0.8986411940829573
4066000000.0 0.5011486052221752 -0.8109928408957237
4069000000.0 0.5457040926820627 -0.9290653598884713
4072000000.0 0.5993301308844271 -0.874017981433164
4075000000.0 0.6158618034897811 -0.8855574041331898
4078000000.0000005 0.5748278362121171 -0.9175999438808274
4081000000.0000005 0.641596494275995 -0.8550723751847404
4083999999.9999995 0.5507156084589784 -0.9125003982522835
4088000000.0 0.5893248038333976 -0.841509039035736
4091000000.0 0.5657962788195458 -0.9460390649051723
4094000000.0000005 0.5543324072051483 -0.888061554845304
4097000000.0000005 0.5650135417249977 -0.8476799577635958
4099999999.9999995 0.5440054962753826 -0.8886150624840248
4102999999.9999995 0.5586409419380824 -0.879955661186728
4106000000.0 0.5353296497616329 -0.9415828617751509
4109000000.0 0.5434316160047092 -0.8854603822713483
4112000000.0 0.5421677334482973 -0.8867473624099913
4115999999.9999995 0.5455696396488128 -0.8663622090514969
4119000000.0 0.5251031691577517 -0.889010361402131
4122000000.0 0.527454307520945 -0.9225481599510794
4125000000.0 0.5535218891054172 -0.9008531471703151
4128000000.0 0.55713121082775 -0.8589588684089039
4131000000.0 0.544687093372979 -0.8589685676725637
4134000000.0000005 0.5487353593144033 -0.8468559616927672
4138000000.0 0.4964332590566802 -0.8558759908544242
4141000000.0 0.5355463224765563 -0.8667235031508833
4144000000.0 0.5748823361394926 -0.8267295201343651
4147000000.0000005 0.5324123456594357 -0.8534717174872231
4150000000.0000005 0.5363013269288338 -0.8704989666837093
4152999999.9999995 0.5503354488092974 -0.8702298697933718
4155999999.9999995 0.5557085592919598 -0.8616038252367328
4159000000.0 0.5372023475142489 -0.8272663155658149
4162000000.0 0.5377360875453988 -0.8168462726388439
4166000000.0000005 0.5094861811140896 -0.8911778500340695
4168999999.9999995 0.5368654953021963 -0.8805827271064115
4171999999.9999995 0.5890734050883653 -0.8691098576483557
4175000000.0 0.5460075444110633 -0.8721005011251497
4178000000.0 0.5677947878484734 -0.843102811011902
4181000000.0 0.5286428914571877 -0.8846437203552262
4184000000.0 0.5239484619697399 -0.8743482086067329
4187999999.9999995 0.5382060018708765 -0.8864827371637851
4191000000.0 0.5647132537589121 -0.838760335214512
4194000000.0 0.5208722356199506 -0.8520737185135739
4197000000.0 0.5608298788377337 -0.8753840622103617
4200000000.0 0.5552900098981792 -0.8643533038953312
4203000000.0000005 0.5600462785278866 -0.8672548602728555
4206000000.0000005 0.557924888273086 -0.8758724262671573
4208999999.9999995 0.5385281719365761 -0.8641724175627651
4211999999.9999995 0.5194140014101984 -0.8879294728837437
4216000000.0 0.54943546940817 -0.8620342123367238
4219000000.0000005 0.5737351285628141 -0.8828266503249258
4222000000.0000005 0.5463884254126148 -0.8757162838753549
4224999999.9999995 0.5599661342973957 -0.8660616631837417
4227999999.9999995 0.5599628264050862 -0.8689441271058672
4231000000.0 0.5357243065740459 -0.8614540030751974
4234000000.0 0.5596138209929803 -0.8834438265738245
4238000000.0000005 0.5345834172501926 -0.8707605951753693
4240999999.9999995 0.5343590243847623 -0.8590624282776416
4244000000.0 0.5624309513379899 -0.8594844279530938
4247000000.0 0.544013344252548 -0.8764125371237993
4250000000.0 0.5264782164231478 -0.8603438101924258
4253000000.0 0.5255083202062212 -0.8372924627567331
4256000000.0 0.5539245674742125 -0.8802872237647013
4259000000.0000005 0.5214802143958301 -0.8366011319644919
4261999999.9999995 0.5177969200661889 -0.8544015266631617
4266000000.0 0.5036614932943962 -0.8923201835394408
4269000000.0 0.5521323668109314 -0.8560778081553403
4272000000.0000005 0.5464605708376783 -0.8433501660480864
4275000000.0000005 0.5449668984069655 -0.8829344264033756
4277999999.9999995 0.5588270593568736 -0.8923388184255471
4280999999.9999995 0.5715244630156731 -0.8346826062179469
4284000000.0 0.5180550952290013 -0.8724255268923342
4288000000.0000005 0.5808219853747871 -0.8473114575639737
4291000000.0000005 0.5493587883458695 -0.8340257159060769
4293999999.9999995 0.528176420973286 -0.8433630003596128
4297000000.0 0.549889818246579 -0.8200068795624782
4300000000.0 0.5482698624755977 -0.8434825777057805
4303000000.0 0.5406051567517755 -0.8473000011116625
4306000000.0 0.5453665497266883 -0.8520511239925819
4309000000.0 0.5650096943104352 -0.8550876467910096
4312000000.0 0.5838128649823254 -0.8302927600785411
4316000000.0 0.5520434573248252 -0.870922007343624
4319000000.0 0.5536801017184957 -0.8260283061977717
4322000000.0 0.5053055934136605 -0.8683109699835447
4325000000.0 0.5559428750412526 -0.8731335047825819
4328000000.0 0.529799194997819 -0.8285671073203146
4331000000.0 0.5140340646492705 -0.8842060502872737
4334000000.0 0.5608474338100659 -0.8824134716789622
4338000000.0 0.5646631545633559 -0.8475858933203938
4341000000.0 0.5579164937386227 -0.8526021073525479
4344000000.0 0.5562540833246332 -0.8632053175644802
4347000000.0 0.5235428971938436 -0.8715260824812666
4350000000.0 0.5078704650051874 -0.8112147064196361
4353000000.0 0.5263226481208196 -0.838707406504944
4356000000.0 0.5009923403635183 -0.8511004293453561
4359000000.0 0.5125651808151246 -0.8013564732061333
4362000000.0 0.4988195369793862 -0.8898554567354154
4366000000.0 0.5434576956873554 -0.8961696121480679
4369000000.0 0.5083003172210382 -0.8477209147640599
4372000000.0 0.49085996011814914 -0.8558105006957019
4375000000.0 0.5428156200626143 -0.8175686274232241
4378000000.0 0.514872451665307 -0.8334934775943431
4381000000.0 0.5222571891193231 -0.8424061101185781
4384000000.0 0.5687135886213405 -0.9261559795825459
4388000000.0 0.5528407568879914 -0.8393370075211983
4391000000.0 0.5464502519863038 -0.8684101413459331
4394000000.0 0.49968716745458924 -0.8422010062903185
4397000000.0 0.5374458105324995 -0.8388115761083055
4400000000.0 0.5342555377257519 -0.8762873344118911
4403000000.0 0.5317343867753876 -0.8631063145495284
4406000000.0 0.5082087303803449 -0.8728088067804689
4409000000.0 0.5444385369581644 -0.8921967115186868
4412000000.0 0.4898316805030719 -0.8800981728168606
4416000000.0 0.5107231164408395 -0.8594034698380076
4419000000.0 0.5070523419088622 -0.8761547791270299
4422000000.0 0.5361044679112924 -0.8476310290456781
4425000000.0 0.566179640131498 -0.8644812046595323
4428000000.0 0.5366371144684836 -0.877106147797522
4431000000.0 0.551599427690931 -0.8802170985470991
4434000000.0 0.5094341871959596 -0.8515919565199698
4438000000.0 0.5434929611751473 -0.8788825632638331
4441000000.0 0.5340443766609875 -0.8709650365704481
4444000000.0 0.5106758158320068 -0.8310522520500688
4447000000.0 0.5108762028979716 -0.8662603132217904
4450000000.0 0.5304255027551885 -0.8459741097112096
4453000000.0 0.5305921450494394 -0.8730101238281182
4456000000.0 0.4861262970877891 -0.8511588465665694
4459000000.0 0.48967722497639 -0.8314007045001377
4462000000.0 0.5570359819056513 -0.8981867384730262
4466000000.0 0.5348567020620766 -0.9035111195956389
4469000000.0 0.5437715929877331 -0.8480919001982326
4472000000.0 0.5334055291231472 -0.8846191563265132
4475000000.0 0.5208147837613915 -0.8383781858270587
4478000000.0 0.5211299161138092 -0.9113243548988879
4481000000.0 0.4939833879299209 -0.870842110337132
4484000000.0 0.4664709820237032 -0.8927502924897526
4488000000.0 0.49138823234936124 -0.8571118238307952
4491000000.0 0.5164776480509288 -0.8733956803539298
4494000000.0 0.5127064685289304 -0.8523093293704394
4497000000.0 0.5119001227582883 -0.8503003370026859
4500000000.0 0.510101649711264 -0.8541693136535156
4503000000.0 0.5502315361783621 -0.8815120811796419
4506000000.0 0.5099665404674111 -0.8573454609106506
4509000000.0 0.5086205131863494 -0.858671520732827
4512000000.0 0.4900292000576 -0.8695320405550393
4516000000.0 0.5446559075220752 -0.8965790952116607
4519000000.0 0.507967395655829 -0.8547823725796363
4522000000.0 0.5074029524362218 -0.8840136078668483
4525000000.0 0.5413015137870518 -0.8529229166365928
4528000000.0 0.5155526951220618 -0.8960810837059703
4531000000.0 0.5233600969244864 -0.866091031100042
4534000000.0 0.49277875341499533 -0.8582334928551973
4538000000.0 0.5034563240960686 -0.852730038155826
4541000000.0 0.4768586084393822 -0.8598387601963322
4544000000.0 0.49396508964391633 -0.8599096991713645
4547000000.0 0.5302447244477064 -0.8428525629719434
4550000000.0 0.4948052911220846 -0.8894592642647545
4553000000.0 0.5065952193485891 -0.8745282419838214
4556000000.0 0.4915503136970837 -0.8431758890042592
4559000000.0 0.5134546490418297 -0.8846035327152884
4562000000.0 0.5076484474113924 -0.8690145361822406
4566000000.0 0.5153799561669631 -0.8793260817786777
4569000000.0 0.4864673629519867 -0.849555780614968
4572000000.0 0.4954192355958746 -0.8669933309402162
4575000000.0 0.4924293009844284 -0.894491072422891
4578000000.0 0.540329756375512 -0.8859745764744464
4581000000.0 0.49303458278340306 -0.8783292841862309
4584000000.0 0.4832833688914745 -0.870059449275672
4588000000.0 0.5185229218392771 -0.8757925005663967
4591000000.0 0.5128768787325206 -0.872928221076038
4594000000.0 0.4732615008380071 -0.8909201785296477
4597000000.0 0.5244416586587296 -0.896428001687307
4600000000.0 0.46945075616082643 -0.8852919701278681
4603000000.0 0.4929568570126602 -0.8854926578544423
4606000000.0 0.5020501533154932 -0.8835153524622463
4609000000.0 0.5097228013730093 -0.87708288408518
4612000000.0 0.48815657492332165 -0.8906311114412218
4616000000.0 0.4786387070275633 -0.874933919131099
4619000000.0 0.5133323256527583 -0.8752413190344579
4622000000.0 0.496284123399067 -0.8798762600475476
4625000000.0 0.45223852861243596 -0.8840796370504457
4628000000.0 0.5100309657720873 -0.8646478665664001
4631000000.0 0.4734723609717293 -0.874130084452835
4634000000.0 0.5047285810164104 -0.8720317247357084
4638000000.0 0.49537745044155124 -0.8870173644353561
4641000000.0 0.4952447207204582 -0.879822751160417
4644000000.0 0.5116018891757883 -0.878741714532445
4647000000.0 0.5157804916115157 -0.8767615046949233
4650000000.0 0.4854390805099138 -0.895393651542675
4653000000.0 0.5195704127300543 -0.8787524347409007
4656000000.0 0.48612392864673437 -0.8875265988738715
4659000000.0 0.49449221192246634 -0.8829121408042662
4662000000.0 0.5015898643667397 -0.8898582247941714
4666000000.0 0.4758685219549761 -0.8694814843192119
4669000000.0 0.5022934509991824 -0.8759109495949879
4672000000.0 0.47283589738560305 -0.9054970575056328
4675000000.0 0.47661814619968335 -0.8993064244905973
4678000000.0 0.47238117460854057 -0.8702654912608064
4681000000.0 0.4669151766016989 -0.8907405027623096
4684000000.0 0.46113109170508904 -0.9058674317706733
4688000000.0 0.46643428814967625 -0.8843081193952158
4691000000.0 0.5118644964247087 -0.9021763576804112
4694000000.0 0.5046928397458941 -0.8513607827912775
4697000000.0 0.45927885600246227 -0.870414160940413
4700000000.0 0.49882123327030264 -0.8909349164489689
4703000000.0 0.49587802381731516 -0.8619212493981395
4706000000.0 0.47118410915988873 -0.8956570447955162
4709000000.0 0.4620737863477738 -0.8786378272813726
4712000000.0 0.47608095646888987 -0.8870735084885064
4716000000.0 0.4786820114961906 -0.8969916509229886
4719000000.0 0.5102543299281521 -0.906557594175128
4722000000.0 0.5088581333343177 -0.8847973284420451
4725000000.0 0.49914166188073555 -0.8763458813356645
4728000000.0 0.4962274948023883 -0.8906676997137776
4731000000.0 0.5119024936190686 -0.9015156478580999
4734000000.0 0.49878188526988476 -0.8686452229987645
4738000000.0 0.5248858578757726 -0.9090883920407069
4741000000.0 0.5022640201166803 -0.8980428522337678
4744000000.0 0.4831268664776644 -0.8916618207206368
4747000000.0 0.4983571464708923 -0.8425628718700501
4750000000.0 0.4846325956742582 -0.896903639666036
4753000000.0 0.5058222299502914 -0.882393444149782
4756000000.0 0.4470526075164403 -0.9072750399102298
4759000000.0 0.5056887349491859 -0.9030054925674293
4762000000.0 0.48789300194407687 -0.91317133852248
4766000000.0 0.48260986278046925 -0.9071846080494782
4769000000.0 0.4914477595115506 -0.9206236360531417
4772000000.0 0.49851242269002016 -0.9213754150501867
4775000000.0 0.49033016254832196 -0.9410081020556808
4778000000.0 0.4838024876889616 -0.8797649294131621
4781000000.0 0.5180396987966382 -0.8789909564703166
4784000000.0 0.5276739324525608 -0.905996219841673
4788000000.0 0.4834775146860325 -0.9275936476982171
4791000000.0 0.47920153131083487 -0.8875988496410444
4794000000.0 0.5315603777999443 -0.9148798644437939
4797000000.0 0.4669144798548138 -0.8912887559899093
4800000000.0 0.48237066399785644 -0.8799298486537211
4803000000.0 0.4458536627357827 -0.9054663356543641
4806000000.0 0.47047696383613713 -0.9015405537546746
4809000000.0 0.46319064276326166 -0.9234874078832958
4812000000.0 0.44885059875877237 -0.9043731454582344
4816000000.0 0.5066851305199733 -0.9020506956198666
4819000000.0 0.5290635769183144 -0.9101720261370011
4822000000.0 0.528172731353135 -0.9173186954638829
4825000000.0 0.5039690670521978 -0.9059551013146744
4828000000.0 0.4786655618736396 -0.8919789596554967
4831000000.0 0.4469755883987655 -0.9399919608305817
4834000000.0 0.5084116515973955 -0.9042474158532184
4838000000.0 0.4851381948812987 -0.9186401229292475
4841000000.0 0.4675682389015945 -0.9006976387693548
4844000000.0 0.528687302361442 -0.9021752703175527
4847000000.0 0.4953414248170094 -0.8798033048840064
4850000000.0 0.4577913942399336 -0.9421923691241035
4853000000.0 0.4944020627759066 -0.8825903922302464
4856000000.0 0.4580823212975887 -0.9016850142878566
4859000000.0 0.48013669723496144 -0.9505009686497861
4862000000.0 0.500499835239264 -0.8585726048547302
4866000000.0 0.48618502495083227 -0.9189897161260094
4869000000.0 0.4614289702199912 -0.9278214380093806
4872000000.0 0.4910172112062452 -0.9584071126722814
4875000000.0 0.5593207742038546 -0.9138771407086826
4878000000.0 0.4953483046303742 -0.9045450178257931
4881000000.0 0.5074234748819808 -0.9529820812357682
4884000000.0 0.4918008494389625 -0.9141106768774849
4888000000.0 0.5052360507590873 -0.8914859385129292
4891000000.0 0.5288145018013485 -0.8980401153787535
4894000000.0 0.482599493213028 -0.9163518565794112
4897000000.0 0.4947558172067103 -0.8634833477075752
4900000000.0 0.49611416080865656 -0.9376075838784803
4903000000.0 0.5178796162450174 -0.922900329837722
4906000000.0 0.4952459326992296 -0.9391355151579023
4909000000.0 0.48655969039242314 -0.913213707356912
4912000000.0 0.4932923248396993 -0.9276533226295935
4916000000.0 0.4995735016381679 -0.9245715960516679
4919000000.0 0.524926670536505 -0.9249970465896178
4922000000.0 0.511559271306776 -0.8641626282842346
4925000000.0 0.45788249092075745 -0.8999973289367862
4928000000.0 0.5262425646303737 -0.8655308127447194
4931000000.0 0.5286735524441708 -0.9029694475991039
4934000000.0 0.47865282289151756 -0.869592748282143
4938000000.0 0.48272275429166267 -0.9306350512771364
4941000000.0 0.5088584899321555 -0.8615360365053593
4944000000.0 0.5017793362279421 -0.8517147570940828
4947000000.0 0.4705921602696203 -0.8778215877651274
4950000000.0 0.5120895944133063 -0.8609994192717153
4953000000.0 0.4914644794705846 -0.9324963582934187
4956000000.0 0.48515528974983707 -0.9321045080228925
4959000000.0 0.41214632996304135 -0.8952665235053655
4962000000.0 0.499688778188808 -0.9179434576555551
4966000000.0 0.528565413532975 -0.9135079650049014
4969000000.0 0.5211910556701868 -0.9170191439876483
4972000000.0 0.4976724110281448 -0.8989988530328701
4975000000.0 0.5158510999415717 -0.885301697249389
4978000000.0 0.4824943910416043 -0.9190309805306885
4981000000.0 0.49791409184080526 -0.9321721643951373
4984000000.0 0.5108934580365608 -0.8863304916207172
4988000000.0 0.5231016983668312 -0.8578506543265123
4991000000.0 0.5665958909878439 -0.9076531562491759
4994000000.0 0.5192725173255978 -0.8767815240697019
4997000000.0 0.4820487505547502 -0.9230603051660238
5000000000.0 0.538703898145751 -0.8980937655541822
5003000000.0 0.5388018011297672 -0.9190448938031791
5006000000.0 0.5380554538800048 -0.9387352943814377
5009000000.0 0.5237262589504799 -0.904698698503142
5012000000.0 0.4896344175828698 -0.9139331973269946
5016000000.0 0.5501611106674761 -0.9217618847923358
5019000000.0 0.4864972704474005 -0.8890249112033457
5022000000.0 0.5173258814967923 -0.906040111946441
5025000000.0 0.5499335394684493 -0.9526391027103657
5028000000.0 0.4962094187353749 -0.9407999620637129
5031000000.0 0.47117061606948685 -0.9120316361461372
5034000000.0 0.5149463832247514 -0.9302952173145945
5038000000.0 0.49924654005682056 -0.9025669814021979
5041000000.0 0.5533547575758078 -0.8999930392611857
5044000000.0 0.5299285797765234 -0.8481093656617267
5047000000.0 0.5334606999317161 -0.8833778033653977
5050000000.0 0.5715243678211135 -0.8455146535510445
5053000000.0 0.513906430470132 -0.9487264619617954
5056000000.0 0.5600633196695308 -0.8972668167711495
5059000000.0 0.5594818332665903 -0.8976370453742182
5062000000.0 0.4867989152118904 -0.9373816467882657
5066000000.0 0.550094472544661 -0.8686282586408924
5069000000.0 0.5217526460616784 -0.9140316252258895
5072000000.0 0.502763906482482 -0.8856284095440204
5075000000.0 0.5527345674491828 -0.8585066014843067
5078000000.0 0.49348869690453123 -0.9287890999364081
5081000000.0 0.4923445756239378 -0.8828491308957663
5084000000.0 0.5291345461515198 -0.936344465996376
5088000000.0 0.5348272838751821 -0.8931425255368642
5091000000.0 0.48890903730848406 -0.8865595577473218
5094000000.0 0.49651665240192105 -0.902497133871342
5097000000.0 0.5238391487576637 -0.8627611770752017
5100000000.0 0.4813879597605415 -0.9364113348101322
5103000000.0 0.4852799099186281 -0.927528589149596
5106000000.0 0.5750004913761967 -0.8881332204027916
5109000000.0 0.561198712019668 -0.8855088415416345
5112000000.0 0.5312748999012312 -0.8746258591978545
5116000000.0 0.5401263544621429 -0.8634240880626642
5119000000.0 0.540181071716925 -0.9206540941727863
5122000000.0 0.5277870605021755 -0.8800881482344434
5125000000.0 0.5406874094431714 -0.8750658912877862
5128000000.0 0.4991597319911538 -0.8633165608853675
5131000000.0 0.5217762884262029 -0.8719679267835903
5134000000.0 0.5087613802440978 -0.8997884110145988
5138000000.0 0.5060806965225015 -0.8634112614504275
5141000000.0 0.5956301262492555 -0.8839419073019783
5144000000.0 0.5785061169097631 -0.8982030635311302
5147000000.0 0.5772988985066367 -0.897402145226551
5150000000.0 0.5762174758342553 -0.8945652977281566
5153000000.0 0.5372530230848053 -0.9504913017495811
5156000000.0 0.5795312037632809 -0.8951820827564707
5159000000.0 0.5922779880221277 -0.9422496660052422
5162000000.0 0.523757712129099 -0.8837445613549072
5166000000.0 0.5092317811297857 -0.8611186432644754
5169000000.0 0.5254056821682379 -0.875541664487086
5172000000.0 0.5819029656048876 -0.8874405210219949
5175000000.0 0.593942334338517 -0.9362030220814306
5178000000.0 0.527556609611291 -0.9335593469896308
