! Created with skrf 1.8.0 (http://scikit-rf.org).
# Hz S RI R 50.0 
!freq ReS11 ImS11
4000000000.0 0.5415111053639403 -0.8235602149741348
4003000000.0 0.5516673240554251 -0.9820183029013985
4006000000.0 0.46708778084800273 -0.8691131477262554
4009000000.0000005 0.5643032974966861 -0.8834202335457157
4011999999.9999995 0.5740962120167505 -0.8889387300444879
4016000000.0 0.5292771810880716 -0.9062513209970572
4019000000.0 0.5118229213319159 -0.8910086556093164
4022000000.0000005 0.6287658672988331 -0.8181372000558513
4025000000.0000005 0.525530323156326 -0.921976649274456
4027999999.9999995 0.5531656167463965 -0.8763728513547016
4030999999.9999995 0.5026413179534841 -0.8526955034547492
4034000000.0 0.4916198823718792 -0.9010870091890992
4038000000.0000005 0.575985540182357 -0.9037623911351766
4041000000.0000005 0.5428514709491556 -0.8812919515724816
4043999999.9999995 0.5713543752591151 -0.9016317652857118
4046999999.9999995 0.578984652597537 -0.8332598327784169
4050000000.0 0.529479641115193 -0.9110445285536732
4053000000.0 0.5101343479695006 -0.8503703726197591
4056000000.0 0.5637712365333549 -0.89981794806593
4059000000.0 0.5588616575681089 -0.827791493129637
4062000000.0000005 0.5364856629602786 -0.9009691384160617
4066000000.0 0.5227141550564137 -0.829828070613827
4069000000.0 0.54543431704163 -0.955363635720739
4072000000.0 0.5613567464837061 -0.8520413232259512
4075000000.0 0.5874927878809151 -0.8949982562756001
4078000000.0000005 0.5421963722677015 -0.853891475329306
4081000000.0000005 0.611750516457986 -0.8256480098834263
4083999999.9999995 0.48740756528328344 -0.9085951951758064
4088000000.0 0.5666398038722047 -0.8961854186160243
4091000000.0 0.5485444767289339 -0.9519539589691839
4094000000.0000005 0.570721162602075 -0.8849293721891662
4097000000.0000005 0.546831361033288 -0.9055639301135516
4099999999.9999995 0.5381429766335193 -0.8837015422437458
4102999999.9999995 0.595232426352493 -0.8960599604928285
4106000000.0 0.520579664735632 -0.9251604297528766
4109000000.0 0.5262048494614819 -0.8959433394017543
4112000000.0 0.49944095772732455 -0.8819754047954147
4115999999.9999995 0.5485798742610909 -0.8523142633079098
4119000000.0 0.5144100069234137 -0.909531338224862
4122000000.0 0.5349962585515246 -0.8736978064350999
4125000000.0 0.536469140372062 -0.8982106709923113
4128000000.0 0.5150478451357313 -0.8059306325918033
4131000000.0 0.5446761909008927 -0.8567574638156638
4134000000.0000005 0.5683345233499398 -0.8845111215007595
4138000000.0 0.5188278573177267 -0.8651463879910712
4141000000.0 0.5388166775665622 -0.8650055188079464
4144000000.0 0.54343551833191 -0.8763451398983271
4147000000.0000005 0.5238640483349675 -0.8780541125855494
4150000000.0000005 0.5720354614258824 -0.8716637464581526
4152999999.9999995 0.5524944628391163 -0.8608848620910349
4155999999.9999995 0.5715755099753607 -0.8674383984767275
4159000000.0 0.5673303759780478 -0.879065104812394
4162000000.0 0.5238346067569142 -0.8742713697088618
4166000000.0000005 0.5385066889840866 -0.8997216185345508
4168999999.9999995 0.5091486765408071 -0.8845224922169177
4171999999.9999995 0.5454233908378825 -0.8646706238375105
4175000000.0 0.5399381892582852 -0.8736254930083824
4178000000.0 0.5409858956550412 -0.884918428985617
4181000000.0 0.5466091353431562 -0.8830211697663589
4184000000.0 0.5326638916128006 -0.8660151282944706
4187999999.9999995 0.5200002928305024 -0.8777228137305215
4191000000.0 0.5668413771213859 -0.8428842991535619
4194000000.0 0.5509212260388419 -0.8604707134896414
4197000000.0 0.5475074683119476 -0.8706475045673214
4200000000.0 0.5392103549102872 -0.8554859671716931
4203000000.0000005 0.5597746378102745 -0.8784417076478461
4206000000.0000005 0.5441364254454724 -0.8573407052937829
4208999999.9999995 0.5390379273744934 -0.8603149247222904
4211999999.9999995 0.5193086075293537 -0.878453649199155
4216000000.0 0.563326558747743 -0.8695778851936984
4219000000.0000005 0.5719662914011875 -0.862475329521142
4222000000.0000005 0.5374272050129647 -0.8761168378256738
4224999999.9999995 0.5426645962177867 -0.8627114294910869
4227999999.9999995 0.5526575664348452 -0.8657699995386137
4231000000.0 0.5353408051805572 -0.8771084768743314
4234000000.0 0.557132313522154 -0.8745351893352913
4238000000.0000005 0.5335935652802043 -0.8581256455275883
4240999999.9999995 0.515807570857483 -0.8563046884350655
4244000000.0 0.5444786772373698 -0.8594929442334358
4247000000.0 0.5518845499309895 -0.8618922687552233
4250000000.0 0.5231123360886215 -0.8526419228998594
4253000000.0 0.5088805621182011 -0.8588854097871694
4256000000.0 0.5400377928824388 -0.8818815096468107
4259000000.0000005 0.5132664591811269 -0.8425818240573641
4261999999.9999995 0.5399288405441708 -0.8657743969355058
4266000000.0 0.5303229392580375 -0.9087620639606374
4269000000.0 0.5608452861997719 -0.860800535585977
4272000000.0000005 0.5380088575962519 -0.8636733338068548
4275000000.0000005 0.5432627001785284 -0.8807505277394153
4277999999.9999995 0.5543511688922738 -0.8830040969802019
4280999999.9999995 0.5428415291535676 -0.8702387912169963
4284000000.0 0.5167272947676247 -0.8782268339395679
4288000000.0000005 0.5850143624972768 -0.8343802260603679
4291000000.0000005 0.5405751441258881 -0.8349814275124355
4293999999.9999995 0.5458433189402497 -0.860088030257368
4297000000.0 0.5615908081732116 -0.8388221860375138
4300000000.0 0.5310114320601519 -0.8386997134039981
4303000000.0 0.5203318188601949 -0.8599461773851922
4306000000.0 0.5768806333742642 -0.8461250746989224
4309000000.0 0.536289136749271 -0.8442583023464953
4312000000.0 0.5833658614322607 -0.8639481089407675
4316000000.0 0.5570819062625276 -0.886005296221825
4319000000.0 0.5444962705530716 -0.8303963852164237
4322000000.0 0.49056744653365314 -0.8539991933061404
4325000000.0 0.5422117998881626 -0.833777095478277
4328000000.0 0.5517138762281889 -0.8658825619888244
4331000000.0 0.5191200083326877 -0.877587303800396
4334000000.0 0.5334404771071602 -0.8807439611872294
4338000000.0 0.5674090745141682 -0.8453416545388156
4341000000.0 0.5754645162941253 -0.8502887727255855
4344000000.0 0.5684910769470977 -0.8613633217920482
4347000000.0 0.5199232921913771 -0.8665966235035274
4350000000.0 0.5182425978012986 -0.82331041483507
4353000000.0 0.5374596904591904 -0.8369987442399661
4356000000.0 0.5379800279570393 -0.8723749632041891
4359000000.0 0.48715971942253694 -0.8344892344067741
4362000000.0 0.49689327002812617 -0.911847560823622
4366000000.0 0.5478611669965039 -0.8690754445279892
4369000000.0 0.5102820326479182 -0.8383680823146352
4372000000.0 0.4797762698720055 -0.8740728185948653
4375000000.0 0.5446126945934741 -0.8556912880003069
4378000000.0 0.5335299311697277 -0.8521111610174125
4381000000.0 0.5148436195400475 -0.8496695974570058
4384000000.0 0.5466691949317559 -0.9140419693062442
4388000000.0 0.5545622824455628 -0.8470433899968212
4391000000.0 0.5571130380003824 -0.8748097819945655
4394000000.0 0.5110435787332258 -0.8500297259915393
4397000000.0 0.5162171327693021 -0.8608898664926384
4400000000.0 0.540352187244481 -0.8935324455276448
4403000000.0 0.520291312039916 -0.8609443701631243
4406000000.0 0.5127788152143093 -0.8737315786105928
4409000000.0 0.5352153038783872 -0.885910922791705
4412000000.0 0.4677825391940169 -0.8856331907239671
4416000000.0 0.5058433893457166 -0.8706672595014436
4419000000.0 0.508357625734544 -0.8800318284750251
4422000000.0 0.5342863205276175 -0.8589670773403437
4425000000.0 0.5525010911367466 -0.8584156500562226
4428000000.0 0.521005507118262 -0.8723559591811022
4431000000.0 0.5389251270368766 -0.8753481748478511
4434000000.0 0.5078066025823049 -0.8653339593591205
4438000000.0 0.5297569562798707 -0.893785417580305
4441000000.0 0.5198718837300973 -0.8801952262129128
4444000000.0 0.5250085159651512 -0.848485548434988
4447000000.0 0.5014540209120644 -0.863625086520423
4450000000.0 0.5346732842158181 -0.8432906288184686
4453000000.0 0.5330623698018941 -0.8878456976009848
4456000000.0 0.495740946040533 -0.85760715514417
4459000000.0 0.4784451894296551 -0.841379468522077
4462000000.0 0.5458136359250689 -0.9246734409293647
4466000000.0 0.53207110559702 -0.9107161810665925
4469000000.0 0.5452796529302301 -0.8635353840157673
4472000000.0 0.5005188528345437 -0.9266388814603583
4475000000.0 0.5065147969988852 -0.8390441872373278
4478000000.0 0.5124613038776682 -0.9127056294074899
4481000000.0 0.4916340517344726 -0.8682140602532857
4484000000.0 0.4595995651272089 -0.8817139380894079
4488000000.0 0.49649716404798006 -0.8606548722427216
4491000000.0 0.514119452090172 -0.870996153202414
4494000000.0 0.513089195999893 -0.8620929087966274
4497000000.0 0.5154105313616596 -0.8333665289857753
4500000000.0 0.5237405779241282 -0.8790291909448046
4503000000.0 0.539273883076371 -0.889776132369016
4506000000.0 0.4983499814825333 -0.8620353692220031
4509000000.0 0.5003736485958585 -0.8626792100226274
4512000000.0 0.49541708767268156 -0.8707825280027917
4516000000.0 0.5587738112822855 -0.8938999294332579
4519000000.0 0.5067766352022235 -0.8623720971647638
4522000000.0 0.5062684752275852 -0.8754103600190123
4525000000.0 0.5486226940794652 -0.847352753368344
4528000000.0 0.5300224662855965 -0.8769417484863806
4531000000.0 0.524909801700264 -0.8543606312650343
4534000000.0 0.5160476228329351 -0.8557478466207964
4538000000.0 0.5052470797024713 -0.8692455147241607
4541000000.0 0.47973097703029566 -0.8741681923208333
4544000000.0 0.5259928216763303 -0.8650527436120674
4547000000.0 0.5268597291079291 -0.8503178924737368
4550000000.0 0.4927186819752061 -0.8790667409437911
4553000000.0 0.5016581020585857 -0.881088569153585
4556000000.0 0.4771655967573245 -0.863025281219292
4559000000.0 0.49484338912860226 -0.8885692725639348
4562000000.0 0.5116665185443705 -0.8864106608674645
4566000000.0 0.5089080949205667 -0.8731422096660602
4569000000.0 0.47794548675114046 -0.8716758649014883
4572000000.0 0.5081971125358905 -0.8859917107630998
4575000000.0 0.4719011075631404 -0.8840504730262448
4578000000.0 0.5221065662588247 -0.9060541115540861
4581000000.0 0.49278288984636315 -0.8925587769251678
4584000000.0 0.48040750850698344 -0.8717133480651245
4588000000.0 0.5001427830873584 -0.8967042837641732
4591000000.0 0.5285033419240819 -0.8732919515702487
4594000000.0 0.4908290896645565 -0.8833440018433534
4597000000.0 0.4974107814110419 -0.8885001237014005
4600000000.0 0.4810095276158972 -0.8800353083860653
4603000000.0 0.4997947955748648 -0.8812336055835822
4606000000.0 0.49582814617683 -0.8918122360469778
4609000000.0 0.4960356021362227 -0.8760680674614831
4612000000.0 0.5013469923457381 -0.8915941004775186
4616000000.0 0.48913427818549704 -0.8671837772431137
4619000000.0 0.49732258250503497 -0.8740577933931473
4622000000.0 0.49839344070777447 -0.874895804829203
4625000000.0 0.4616011893699734 -0.869690391057486
4628000000.0 0.4931812479220622 -0.8695452345102332
4631000000.0 0.46636592586751435 -0.8865511614972934
4634000000.0 0.4994957090315307 -0.8959607437560664
4638000000.0 0.5030282932232106 -0.9016373675672664
4641000000.0 0.49728781493718377 -0.8793066445868869
4644000000.0 0.4823670690118693 -0.8810358926400479
4647000000.0 0.4960843235526803 -0.8816856938084847
4650000000.0 0.4664280172965555 -0.8967232439536019
4653000000.0 0.5007196668613947 -0.91037465076806
4656000000.0 0.4842436025387512 -0.8881891133158498
4659000000.0 0.49648571690235366 -0.9031540526338684
4662000000.0 0.47799772681675695 -0.89321163295328
4666000000.0 0.48343243510080625 -0.9027806676074107
4669000000.0 0.48905594494483784 -0.8772019245294472
4672000000.0 0.47925041680436925 -0.9175082143721286
4675000000.0 0.4750141760746318 -0.9231415170672966
4678000000.0 0.45844204668776606 -0.8694104115947395
4681000000.0 0.44845582356185276 -0.9214551669637464
4684000000.0 0.451355562061302 -0.923783684177078
4688000000.0 0.4780861441408168 -0.887411067542221
4691000000.0 0.5103378752251194 -0.8799006951131317
4694000000.0 0.4875678772287235 -0.8733770592444785
4697000000.0 0.44313359732115853 -0.8784269789238218
4700000000.0 0.47242593776807146 -0.8775274161750647
4703000000.0 0.49555128330279996 -0.8604674744438542
4706000000.0 0.4739412554862669 -0.8874701430135707
4709000000.0 0.4468737917818372 -0.8752898063906445
4712000000.0 0.5052401999413899 -0.8760485998902799
4716000000.0 0.4752461954667877 -0.9116093119523015
4719000000.0 0.517928892969471 -0.9012122806465562
4722000000.0 0.5324616945767373 -0.8866431650147208
4725000000.0 0.4734991442798569 -0.8958228486050068
4728000000.0 0.45949663698899695 -0.854981723710803
4731000000.0 0.4785497539937012 -0.9153571214103213
4734000000.0 0.4893929181889186 -0.8711737539424005
4738000000.0 0.5207726670439423 -0.9109799543422079
4741000000.0 0.4847353664967398 -0.9086868493415532
4744000000.0 0.46634707275028286 -0.8732997869107811
4747000000.0 0.49948815176973416 -0.8554787839518961
4750000000.0 0.4747598638294267 -0.8985594112733294
4753000000.0 0.514377670938543 -0.9049351792101078
4756000000.0 0.4813124789001502 -0.8992654453126342
4759000000.0 0.49254783251329404 -0.902996307961233
4762000000.0 0.44526767324332656 -0.9101831181852483
4766000000.0 0.4999611376735855 -0.8838500831557113
4769000000.0 0.46327778241372214 -0.8969879805611622
4772000000.0 0.46445161905008303 -0.9346296067412831
4775000000.0 0.46971123233454437 -0.9263044854445474
4778000000.0 0.470688026997906 -0.9157426550841479
4781000000.0 0.4601668790343091 -0.8696145496243248
4784000000.0 0.516333019063639 -0.8683262758814676
4788000000.0 0.46236893024738623 -0.9235230906235697
4791000000.0 0.46287705030660464 -0.9055347456548575
4794000000.0 0.5199486042187207 -0.9109758070125562
4797000000.0 0.4715499542259478 -0.9023918412423273
4800000000.0 0.4478253997196612 -0.8961728031490369
4803000000.0 0.4332356213741389 -0.918556312913112
4806000000.0 0.48708621512594685 -0.9186129574826808
4809000000.0 0.44505304029388504 -0.9346971664363776
4812000000.0 0.42407106215870094 -0.9148508010019897
4816000000.0 0.4889588164380485 -0.8712074187958708
4819000000.0 0.5071241610545983 -0.9234906630601375
4822000000.0 0.5113134369861746 -0.9387764201851597
4825000000.0 0.5190333874063922 -0.9168425284262777
4828000000.0 0.463252267052508 -0.9051102238489265
4831000000.0 0.44471088138740844 -0.9376346901994473
4834000000.0 0.5130200834557475 -0.8984378725415012
4838000000.0 0.4712792796122256 -0.921189892107237
4841000000.0 0.46643127023417646 -0.8865700845614689
4844000000.0 0.5033058494054868 -0.8846851224403235
4847000000.0 0.4778008280611481 -0.8506762073003935
4850000000.0 0.4666149561113163 -0.9354290653957118
4853000000.0 0.47320410330811635 -0.8842995596201593
4856000000.0 0.4652667808085558 -0.9192082748941607
4859000000.0 0.47705708306939243 -0.9470244593449784
4862000000.0 0.48996508757591234 -0.8817472379090373
4866000000.0 0.46309742350230687 -0.9303879219666155
4869000000.0 0.4672227995440858 -0.912430811570527
4872000000.0 0.4485321541168413 -0.957856140439856
4875000000.0 0.5440651939967531 -0.9118130873950476
4878000000.0 0.48911119962918925 -0.9197853832868391
4881000000.0 0.4748043420806395 -0.9720364382388839
4884000000.0 0.5100761742897606 -0.8938127420725839
4888000000.0 0.5057942098693027 -0.8831023945130195
4891000000.0 0.5068965435464714 -0.9187181200736111
4894000000.0 0.4472841984577246 -0.9004981001083419
4897000000.0 0.504829558045285 -0.876089969992765
4900000000.0 0.48454293184661706 -0.8989065299704669
4903000000.0 0.4985190656475025 -0.9477484319755383
4906000000.0 0.4929439738896325 -0.9290373707431308
4909000000.0 0.4800610052455211 -0.9219737759656491
4912000000.0 0.4810548115419285 -0.987795249675628
4916000000.0 0.5218185594517736 -0.9281833557542626
4919000000.0 0.5311486812463209 -0.9048600048005664
4922000000.0 0.5450068932564422 -0.8965112731223941
4925000000.0 0.4599670542859133 -0.9329160038939655
4928000000.0 0.5409841449646803 -0.8551835180340039
4931000000.0 0.5183536726452099 -0.8900141702590844
4934000000.0 0.4833794323705208 -0.8638218966056944
4938000000.0 0.47836479703721135 -0.9066133694008853
4941000000.0 0.4634560669147285 -0.8902073119072168
4944000000.0 0.47803996853171216 -0.852082503015743
4947000000.0 0.467564501330013 -0.8969831295045508
4950000000.0 0.4620316044009573 -0.931791704719975
4953000000.0 0.4847895962051905 -0.9757834436595338
4956000000.0 0.4833393900146199 -0.9410097403195395
4959000000.0 0.4489626169164994 -0.9044809621006356
4962000000.0 0.4817786282200752 -0.9686269086964647
4966000000.0 0.4904622640985973 -0.9270499129325758
4969000000.0 0.5410892845199601 -0.9430644990572097
4972000000.0 0.4808028765431266 -0.9268648883347985
4975000000.0 0.4872735068933553 -0.8647444993501228
4978000000.0 0.43857460648738456 -0.9166401083576179
4981000000.0 0.4787088460334246 -0.9451125371880174
4984000000.0 0.5138102846769946 -0.8775609580745671
4988000000.0 0.493629869344418 -0.8934074281056973
4991000000.0 0.5679715210812161 -0.9065912244846682
4994000000.0 0.5192160009986182 -0.9176275672472969
4997000000.0 0.4731286209658969 -0.9341512690238738
5000000000.0 0.5496339165547246 -0.9433776590818072
5003000000.0 0.4945839696036871 -0.9397706916382367
5006000000.0 0.5320862321524913 -0.9743886219949356
5009000000.0 0.4892972245831677 -0.9269351454607361
5012000000.0 0.4715971538987375 -0.8807705672552417
5016000000.0 0.5678052507405453 -0.9110516624173812
5019000000.0 0.505194002226091 -0.9147322118670589
5022000000.0 0.48568516743563805 -0.9196558386785046
5025000000.0 0.5413773238538506 -0.9969826303359759
5028000000.0 0.502731985201013 -0.9196665830579513
5031000000.0 0.4895636461794644 -0.9308358800230758
5034000000.0 0.5256370147919475 -1.00189047885627
5038000000.0 0.4724977500786965 -0.8870465863708954
5041000000.0 0.5469092722207214 -0.8908728745753987
5044000000.0 0.520445783203599 -0.8703441233832407
5047000000.0 0.5400768251150834 -0.90576335439171
5050000000.0 0.5733823749764616 -0.8650797355765407
5053000000.0 0.4815220230675778 -0.9698584373809879
5056000000.0 0.5698908660234444 -0.8646188252800564
5059000000.0 0.6070752129339066 -0.9038953237196461
5062000000.0 0.49103699672586315 -0.9116219944104884
5066000000.0 0.5423819343830658 -0.8675023562236139
5069000000.0 0.5308668154436884 -0.8986259717372796
5072000000.0 0.5299160835583766 -0.8865647635134655
5075000000.0 0.541402433859759 -0.8729426356825141
5078000000.0 0.46340630231899804 -0.8830609582738027
5081000000.0 0.4740462247942253 -0.8821772484442314
5084000000.0 0.5505355618934205 -0.9158042594083138
5088000000.0 0.5503523798310281 -0.9051441589762552
5091000000.0 0.48183684739028043 -0.9255420763102857
5094000000.0 0.53329786292616 -0.9128050620442355
5097000000.0 0.5261218374813097 -0.8861306870866765
5100000000.0 0.46825555798013685 -0.8832909272630483
5103000000.0 0.49150149517238984 -0.9340931497667647
5106000000.0 0.5494697744657897 -0.9062201146409878
5109000000.0 0.5356861002171738 -0.862902169264613
5112000000.0 0.5061979947048417 -0.9169866018282745
5116000000.0 0.5140668262852779 -0.8575432417807543
5119000000.0 0.5518346655671125 -0.931110182813506
5122000000.0 0.5233066247694944 -0.8695544720200981
5125000000.0 0.5552195970439008 -0.856947487070061
5128000000.0 0.5468648777030058 -0.8960311862232431
5131000000.0 0.5331336140253364 -0.8611411393135967
5134000000.0 0.5061846043490905 -0.8814589746562799
5138000000.0 0.5287273049000196 -0.9222436196666448
5141000000.0 0.5622588796075639 -0.8317190824599623
5144000000.0 0.5566995643078572 -0.9078117699786552
5147000000.0 0.5422882166879643 -0.882567101838545
5150000000.0 0.5304837971591384 -0.8994135645497469
5153000000.0 0.5181682836308696 -0.9199309148875818
5156000000.0 0.5279735456124655 -0.9544238883810638
5159000000.0 0.553103740371617 -0.9331738286883549
5162000000.0 0.5392894467967189 -0.9013372820730201
5166000000.0 0.5234069675573825 -0.9602808444122954
5169000000.0 0.5517033394695869 -0.9097139458526717
5172000000.0 0.5550575096150311 -0.8889769055175138
5175000000.0 0.5584046487151686 -0.9198161360783257
5178000000.0 0.506000770564696 -0.903746591444333
