! Created with skrf 1.8.0 (http://scikit-rf.org).
# Hz S RI R 50.0 
!freq ReS11 ImS11
4000000000.0 0.595255412425086 -0.8481826318632553
4003000000.0 0.5643546911602297 -0.9240841194158733
4006000000.0 0.5483964637760869 -0.8717015567605424
4009000000.0000005 0.5390162481307013 -0.8504989290393828
4011999999.9999995 0.5659401171641274 -0.8411043164921048
4016000000.0 0.5049665319895615 -0.8946903436851308
4019000000.0 0.5206133195155228 -0.8396886525707963
4022000000.0000005 0.6163071753361025 -0.8479742961816137
4025000000.0000005 0.5548090433237415 -0.9210311687558601
4027999999.9999995 0.5564873670240337 -0.8884662461500765
4030999999.9999995 0.5582988269364381 -0.8423906853591067
4034000000.0 0.5316668152938 -0.896527864054913
4038000000.0000005 0.5547041569775685 -0.8735601230504638
4041000000.0000005 0.5520917371057298 -0.8804319382921909
4043999999.9999995 0.5737559290507823 -0.8565689151298229
4046999999.9999995 0.595439236722325 -0.8499473702999268
4050000000.0 0.5418686650668695 -0.901357597249493
4053000000.0 0.5118859073735627 -0.8581591017119066
4056000000.0 0.5266837405162832 -0.8330773260961872
4059000000.0 0.5656977963069783 -0.8349088835541845
4062000000.0000005 0.5199118283214398 -0.8634252505456006
4066000000.0 0.5017390396998406 -0.8245113535409968
4069000000.0 0.5064694133284603 -0.8885428970731333
4072000000.0 0.5958899870994423 -0.8606625415011792
4075000000.0 0.5948324763625409 -0.8909799773197404
4078000000.0000005 0.5039643330486625 -0.8892822195086847
4081000000.0000005 0.6040836606420318 -0.8397549710204809
4083999999.9999995 0.5496126525904975 -0.8835360683595715
4088000000.0 0.5407094508697184 -0.8392055203076846
4091000000.0 0.5868473274580889 -0.9028326275793853
4094000000.0000005 0.5351110838762393 -0.8401805458660208
4097000000.0000005 0.5297646157031671 -0.8872395279163933
4099999999.9999995 0.5223842210975506 -0.8604340298981299
4102999999.9999995 0.6080167287473371 -0.8450992236147474
4106000000.0 0.5311693010676368 -0.9070076215898939
4109000000.0 0.5273154092991916 -0.8677801230164508
4112000000.0 0.5577791845261678 -0.8336837209286171
4115999999.9999995 0.5599544795643915 -0.8273021126574677
4119000000.0 0.49731239537084154 -0.8944528032124326
4122000000.0 0.5604349186045113 -0.8916649136763197
4125000000.0 0.5797048842560338 -0.9182573835389061
4128000000.0 0.5411650756436884 -0.8450176206215618
4131000000.0 0.544737557880778 -0.8158814423844416
4134000000.0000005 0.5488424845584986 -0.8642849239309344
4138000000.0 0.5093078400863696 -0.8521942797336567
4141000000.0 0.5457785876234934 -0.8504924459974049
4144000000.0 0.5775034377849038 -0.8425029900340063
4147000000.0000005 0.529391627743253 -0.8470486215923919
4150000000.0000005 0.5508302416142058 -0.8495688675450155
4152999999.9999995 0.5337943290808227 -0.8780749060404061
4155999999.9999995 0.5752055073811388 -0.8620248370080104
4159000000.0 0.5557388106551019 -0.8296996957979601
4162000000.0 0.5374653861147726 -0.8548609879363553
4166000000.0000005 0.5486293061930436 -0.8524515587161491
4168999999.9999995 0.5123426873197277 -0.8664857972764621
4171999999.9999995 0.5596888092554774 -0.8564112950134777
4175000000.0 0.5837420020287398 -0.8458547787907423
4178000000.0 0.5598657276159401 -0.8301086747903497
4181000000.0 0.5355134818282365 -0.884952853614303
4184000000.0 0.5275504520951497 -0.8566876427438511
4187999999.9999995 0.5193426318078376 -0.8716730977634825
4191000000.0 0.5892303287816507 -0.8484580633691192
4194000000.0 0.5677489372440264 -0.8436628824004239
4197000000.0 0.5595667922130818 -0.8699799626214082
4200000000.0 0.5880864580722471 -0.8538153526832761
4203000000.0000005 0.5353887388950322 -0.8452267941611264
4206000000.0000005 0.5616895423058598 -0.8702382649823746
4208999999.9999995 0.5564576145109283 -0.8353212889344152
4211999999.9999995 0.5183114540659336 -0.8561947919151243
4216000000.0 0.5736668323930977 -0.8473929129044627
4219000000.0000005 0.5612698144988187 -0.8653307186814884
4222000000.0000005 0.5467271447201573 -0.8659724754805138
4224999999.9999995 0.5468048060719947 -0.8455242702318599
4227999999.9999995 0.5423707578271291 -0.8686361874576012
4231000000.0 0.5502899538528441 -0.8415749806771223
4234000000.0 0.5490358933565318 -0.8720146125551236
4238000000.0000005 0.5488892842565016 -0.8781233021851016
4240999999.9999995 0.5377011148972293 -0.8465357575786049
4244000000.0 0.5554210505183284 -0.8409666625635067
4247000000.0 0.5572517135394395 -0.8452229442541215
4250000000.0 0.537204165495701 -0.8531260736300739
4253000000.0 0.5344783942678332 -0.8349313073506393
4256000000.0 0.5673754327259946 -0.8697409597361795
4259000000.0000005 0.5138172200932947 -0.8278017960488856
4261999999.9999995 0.502505684799657 -0.8756062165819498
4266000000.0 0.5362639337090944 -0.8823578148083231
4269000000.0 0.5724708834645581 -0.8532062864993532
4272000000.0000005 0.5433230304694127 -0.8514697096179277
4275000000.0000005 0.5620434246467019 -0.8493398408908681
4277999999.9999995 0.5680754364782808 -0.8824348396624323
4280999999.9999995 0.5550331829781134 -0.8659415497819457
4284000000.0 0.5231799980725808 -0.893119469041024
4288000000.0000005 0.5848894007112021 -0.8076540684400377
4291000000.0000005 0.5542703009794095 -0.8491458379747076
4293999999.9999995 0.550728513712459 -0.827501251858705
4297000000.0 0.5659165888501243 -0.8291742756706554
4300000000.0 0.5538928530851278 -0.8382618759426484
4303000000.0 0.5154152878812227 -0.8463807689600944
4306000000.0 0.5851281844205554 -0.8378882611208399
4309000000.0 0.5511065541563431 -0.8363357076173031
4312000000.0 0.5987779871850493 -0.8386736258929322
4316000000.0 0.5601314987777509 -0.8401753874194744
4319000000.0 0.5763619822716743 -0.8215889444498521
4322000000.0 0.5328341639231404 -0.8423488853976359
4325000000.0 0.5571061161222836 -0.8483269732235967
4328000000.0 0.5335107991896023 -0.8305711514047965
4331000000.0 0.527829483426646 -0.8698897128058287
4334000000.0 0.5416328122579925 -0.8691513749187392
4338000000.0 0.5509808835638935 -0.8329480623465393
4341000000.0 0.5895735393524002 -0.8473227391774963
4344000000.0 0.5894659985361742 -0.8571293743880303
4347000000.0 0.5113870175985917 -0.8748370812034881
4350000000.0 0.5287546051810289 -0.8111886557453644
4353000000.0 0.5547833679702389 -0.8104025332237897
4356000000.0 0.5306956588431476 -0.8522715240721384
4359000000.0 0.5223133712833553 -0.7937970123637983
4362000000.0 0.49706985221624267 -0.8982104976111417
4366000000.0 0.553483382861047 -0.8680632946123807
4369000000.0 0.5382497395568479 -0.830020269675926
4372000000.0 0.5130568151949294 -0.8603291657495661
4375000000.0 0.5559699610351282 -0.8238858011795644
4378000000.0 0.5232939297998291 -0.8234858117578151
4381000000.0 0.5373648938746092 -0.8266706365096965
4384000000.0 0.5573386106392164 -0.9086367967448411
4388000000.0 0.5362247664417937 -0.8338946352865542
4391000000.0 0.5503662675908426 -0.8327653996178643
4394000000.0 0.5225749283171557 -0.827232829880545
4397000000.0 0.5480472976318451 -0.841949828977341
4400000000.0 0.5526583064563377 -0.873794059230979
4403000000.0 0.5347819569990199 -0.8443625827501506
4406000000.0 0.5185732659744725 -0.8618099853387436
4409000000.0 0.5528364457295999 -0.87835810276079
4412000000.0 0.4993147350487034 -0.8870828104802825
4416000000.0 0.519894586208973 -0.8352800505280404
4419000000.0 0.5210339810046496 -0.8570397537264566
4422000000.0 0.5398124161339153 -0.8271160184646692
4425000000.0 0.5760316300183795 -0.8616491428275805
4428000000.0 0.5294904347117438 -0.8520999522308446
4431000000.0 0.5442044237959366 -0.8770537523249647
4434000000.0 0.5214887152722558 -0.8487799193587917
4438000000.0 0.5609011271852373 -0.8590872364653015
4441000000.0 0.5636529800520844 -0.8549700713628587
4444000000.0 0.5320043406457288 -0.8474869214942715
4447000000.0 0.5254482472109646 -0.8543168652266303
4450000000.0 0.5284738767535139 -0.8217421256120734
4453000000.0 0.5477198898854208 -0.8687643798440189
4456000000.0 0.5107067828970787 -0.8222552993372334
4459000000.0 0.4874885811364864 -0.8186942537476695
4462000000.0 0.5541802405227858 -0.9145062763303053
4466000000.0 0.5497571163908607 -0.8849231596675633
4469000000.0 0.541657959022873 -0.8537542021314948
4472000000.0 0.5235524620443426 -0.8761153830724093
4475000000.0 0.5362431010867401 -0.8224231195383075
4478000000.0 0.5477009570436462 -0.9175335551763981
4481000000.0 0.5051973290769014 -0.833581270773121
4484000000.0 0.4855663974645176 -0.8800570367347049
4488000000.0 0.5160158284530294 -0.8597027427378021
4491000000.0 0.5377760866292625 -0.8707188308514402
4494000000.0 0.5285984798881536 -0.8483758328245716
4497000000.0 0.5214286099004759 -0.8356530470717787
4500000000.0 0.5387842481998515 -0.8548833522081873
4503000000.0 0.5577704164504635 -0.872539627475055
4506000000.0 0.5200856608993724 -0.8629685853825158
4509000000.0 0.519575274668405 -0.858692448869407
4512000000.0 0.49717495448438526 -0.8413320349491581
4516000000.0 0.5545861304002458 -0.8597997704902155
4519000000.0 0.5309408922995928 -0.8414612826250234
4522000000.0 0.4986735100225015 -0.8629276309095109
4525000000.0 0.5540246266968942 -0.8287731093123258
4528000000.0 0.5435950087841079 -0.87389573829697
4531000000.0 0.5392938989819631 -0.8487533059284026
4534000000.0 0.528284310760041 -0.8362597308460145
4538000000.0 0.5225513754090427 -0.846323688294689
4541000000.0 0.506764517604121 -0.8506485457173647
4544000000.0 0.540000529460755 -0.8412525616981645
4547000000.0 0.5413690761592014 -0.829054569775896
4550000000.0 0.509312628105649 -0.8700071499101851
4553000000.0 0.5115845372810313 -0.8650838198157881
4556000000.0 0.5016075068775625 -0.8514660817881728
4559000000.0 0.488254327091217 -0.8795276141905896
4562000000.0 0.5345703794037485 -0.8777797935319841
4566000000.0 0.5262103277451505 -0.8660972230932682
4569000000.0 0.49963794830483543 -0.8407138740722577
4572000000.0 0.521949756478047 -0.8710476160690561
4575000000.0 0.5117253404162074 -0.879415268932478
4578000000.0 0.5481695826213477 -0.8778588400650702
4581000000.0 0.49949397770458376 -0.8773997929874026
4584000000.0 0.5072254577502958 -0.8637622888582223
4588000000.0 0.5494474477204139 -0.8811936372365707
4591000000.0 0.5493836107589782 -0.8611550320379546
4594000000.0 0.49993562803262 -0.8636845352750381
4597000000.0 0.5167486409131732 -0.8715150071395081
4600000000.0 0.4966556899829926 -0.8844969519894454
4603000000.0 0.48213378328471046 -0.8735777555607674
4606000000.0 0.5182416920286819 -0.8684128811610494
4609000000.0 0.5142870497888796 -0.8726992752165875
4612000000.0 0.5102855945650939 -0.8746155959502716
4616000000.0 0.503887979995215 -0.852584242287766
4619000000.0 0.5038751579869818 -0.8645869677815823
4622000000.0 0.5060441057754161 -0.8595684013356681
4625000000.0 0.48123954113250383 -0.8570458292240926
4628000000.0 0.5151218067120725 -0.8508631536878116
4631000000.0 0.48942064876703617 -0.8740075138545825
4634000000.0 0.5089903086954417 -0.880537080454635
4638000000.0 0.5036494865458191 -0.877856416101039
4641000000.0 0.5196210437600348 -0.8606111000127658
4644000000.0 0.49580649019948464 -0.8690779956313163
4647000000.0 0.5180117980838981 -0.8688536036343826
4650000000.0 0.48134187145959956 -0.8788220406512147
4653000000.0 0.5232786269987579 -0.8576533745175472
4656000000.0 0.49199256708858996 -0.8948829644015635
4659000000.0 0.49139386378202643 -0.8594711912520843
4662000000.0 0.5151528272177969 -0.8782423073960374
4666000000.0 0.49851807734637177 -0.8671054601650302
4669000000.0 0.5112253612116608 -0.8705453591161999
4672000000.0 0.4860383667620059 -0.8904142646546315
4675000000.0 0.47672851638767666 -0.8906482034474684
4678000000.0 0.491951584614006 -0.8589878668352822
4681000000.0 0.48809304809591814 -0.8968265879983329
4684000000.0 0.4808410435397845 -0.8815129252018382
4688000000.0 0.48509852421157523 -0.8737176049046322
4691000000.0 0.5114044589861384 -0.8638715705912323
4694000000.0 0.49173781116696064 -0.8658153770716565
4697000000.0 0.48360520436140675 -0.8524790100229775
4700000000.0 0.4994382046534697 -0.84787717981441
4703000000.0 0.49365080575474346 -0.82652974326677
4706000000.0 0.4891552307435623 -0.8840774022407728
4709000000.0 0.4782763389270487 -0.8769712105709909
4712000000.0 0.5126919691063776 -0.8884141910008633
4716000000.0 0.4697904987087373 -0.8921696800156467
4719000000.0 0.5138511335897392 -0.8849390474911282
4722000000.0 0.5368137037579872 -0.8744707734215716
4725000000.0 0.5180947645883127 -0.8858449329763041
4728000000.0 0.4852817383076714 -0.8672726574373373
4731000000.0 0.5122990856156944 -0.8891084616052167
4734000000.0 0.5187070968351569 -0.859605784997973
4738000000.0 0.5619881135413006 -0.9035999209928064
4741000000.0 0.5378530926623156 -0.9056880111978061
4744000000.0 0.47862969397352606 -0.9108342472200917
4747000000.0 0.5020441593415801 -0.862200926590506
4750000000.0 0.5050530298199826 -0.8877660018809485
4753000000.0 0.5246273272702087 -0.8727585342529349
4756000000.0 0.5001155073936574 -0.8949040122320608
4759000000.0 0.5240505369156109 -0.9365221493690279
4762000000.0 0.46745319920099504 -0.9008647146261088
4766000000.0 0.5023318977873129 -0.882683398036767
4769000000.0 0.524779397087239 -0.9104000498743513
4772000000.0 0.48898256288979947 -0.8903980501866094
4775000000.0 0.48718262627928705 -0.918455691025303
4778000000.0 0.4923755289958788 -0.8879124205333714
4781000000.0 0.5044926231854274 -0.8935972301154522
4784000000.0 0.520257800562687 -0.8606231210128217
4788000000.0 0.4976888761583673 -0.9083168616373918
4791000000.0 0.49879363100247986 -0.843026628689327
4794000000.0 0.5168756753017472 -0.8749788916798581
4797000000.0 0.48630660676992393 -0.8696845337188566
4800000000.0 0.4685659450070008 -0.8841649973363493
4803000000.0 0.44197294698188516 -0.8930054898314936
4806000000.0 0.48143035432609904 -0.9020414830740878
4809000000.0 0.46816084437147854 -0.891800509122097
4812000000.0 0.4540458731188154 -0.882343316463502
4816000000.0 0.5162060150162403 -0.8811677263408536
4819000000.0 0.5239846732875273 -0.9034880002551781
4822000000.0 0.5272375207834242 -0.8914654056627116
4825000000.0 0.5330970437764372 -0.8867760352525205
4828000000.0 0.5020826105274928 -0.8977992241724514
4831000000.0 0.48220299639939124 -0.9430084310810112
4834000000.0 0.5388023538866636 -0.9069849064253719
4838000000.0 0.48038657017684117 -0.9143509864117796
4841000000.0 0.4830487368814255 -0.8815915959256146
4844000000.0 0.5226157069628861 -0.8900752257444395
4847000000.0 0.4926805448462238 -0.845192920018416
4850000000.0 0.49610458099343474 -0.9079752977796781
4853000000.0 0.4853572246679968 -0.8766103902918781
4856000000.0 0.48700451689628604 -0.8896213154841376
4859000000.0 0.511122094025403 -0.932736665203071
4862000000.0 0.5117232399419843 -0.8743815179345035
4866000000.0 0.48770318991538386 -0.8969637522323366
4869000000.0 0.47506849948402713 -0.8839276598334878
4872000000.0 0.48806282622473424 -0.9075227621989205
4875000000.0 0.5669595548360757 -0.9062856656698347
4878000000.0 0.5079596101500204 -0.8900188268040012
4881000000.0 0.5070830180623361 -0.9510618776349401
4884000000.0 0.5179612710450983 -0.889725072740085
4888000000.0 0.5346600371406885 -0.8654736477613011
4891000000.0 0.5465045227340578 -0.9070104985759989
4894000000.0 0.4875370513123897 -0.8799858071284338
4897000000.0 0.523909057760609 -0.8816966978396256
4900000000.0 0.5035611254810858 -0.894237989746709
4903000000.0 0.5187649726132825 -0.8855889540680777
4906000000.0 0.5172038604377478 -0.9173733338620864
4909000000.0 0.49144441013839674 -0.9197712049569229
4912000000.0 0.5056291188730349 -0.9459163335772464
4916000000.0 0.5535126452607745 -0.8958987510593478
4919000000.0 0.5550953796953065 -0.9036599357935037
4922000000.0 0.5849970954661452 -0.8690419425936974
4925000000.0 0.4949515739895645 -0.9196286680207707
4928000000.0 0.5427938134672796 -0.8293507365870249
4931000000.0 0.5470552913893938 -0.8763718615217531
4934000000.0 0.4912193283723535 -0.8473677063240227
4938000000.0 0.46690124015840867 -0.8949223581719582
4941000000.0 0.5077979746419766 -0.8747142677848786
4944000000.0 0.4952991242978444 -0.8086557326686469
4947000000.0 0.5250989480267094 -0.8785049885902355
4950000000.0 0.5121152179543885 -0.8828540286707034
4953000000.0 0.4879747271713237 -0.9300825907003099
4956000000.0 0.4874523243204359 -0.9064636844418971
4959000000.0 0.4591040299174337 -0.862131566013
4962000000.0 0.5181724970338435 -0.9025578143003048
4966000000.0 0.5481432456071743 -0.8938132476132508
4969000000.0 0.5369498181886371 -0.8983175510099934
4972000000.0 0.5021567875143997 -0.8977893221790488
4975000000.0 0.5560942739990803 -0.8699919420229382
4978000000.0 0.4936148327153478 -0.8941646116011857
4981000000.0 0.4980764276930396 -0.9014659485106569
4984000000.0 0.512991960398415 -0.850848474155628
4988000000.0 0.5384029052973043 -0.8560305438157152
4991000000.0 0.5919302703012628 -0.8777731518072205
4994000000.0 0.5223284845517375 -0.9036432139959099
4997000000.0 0.48554206589769244 -0.9186832378202855
5000000000.0 0.5284586370200954 -0.88898775853121
5003000000.0 0.5771789159706884 -0.9001401222653418
5006000000.0 0.5523831805732581 -0.95186224041376
5009000000.0 0.5259975323910823 -0.8629721906495991
5012000000.0 0.4885697429554045 -0.9052348371629468
5016000000.0 0.5788657366406769 -0.87162146678552
5019000000.0 0.5093955389591024 -0.9008908599921253
5022000000.0 0.5234364519326845 -0.8948869565150717
5025000000.0 0.5563974311791788 -0.9287207819201451
5028000000.0 0.5083604973639959 -0.9165680230076038
5031000000.0 0.506444101036978 -0.9014374486320289
5034000000.0 0.5408243304675049 -0.9648577801900782
5038000000.0 0.4710222017566944 -0.8573522217461045
5041000000.0 0.5462046543639841 -0.8849075752131461
5044000000.0 0.531386397276501 -0.8741608590670513
5047000000.0 0.5288499477177397 -0.9045779286299584
5050000000.0 0.5888521685718975 -0.8187380640917882
5053000000.0 0.5508979000699988 -0.9440969167598706
5056000000.0 0.5617465085512406 -0.8840551405251895
5059000000.0 0.5582866161335827 -0.8667616942313942
5062000000.0 0.4885237871976531 -0.9083492827211512
5066000000.0 0.5274803688071016 -0.8641681470910589
5069000000.0 0.5607273396576826 -0.8980317534982587
5072000000.0 0.5305790969492651 -0.8864427087505948
5075000000.0 0.5448584865165452 -0.8576963071285076
5078000000.0 0.5223872372832324 -0.9010076795929849
5081000000.0 0.4742993185468947 -0.8661236315784789
5084000000.0 0.5404451833516619 -0.8977306794756742
5088000000.0 0.5140187384865755 -0.8547167497545742
5091000000.0 0.5002235351969726 -0.9234504347022012
5094000000.0 0.5169834697433585 -0.9218107092903989
5097000000.0 0.5786679700374826 -0.8734237471044759
5100000000.0 0.5071262155464726 -0.9225430329520315
5103000000.0 0.5492517944478109 -0.9421357864460305
5106000000.0 0.6101887409012471 -0.9224157349600743
5109000000.0 0.5653347358822991 -0.8609661035645397
5112000000.0 0.5267648119773092 -0.8933805320353345
5116000000.0 0.5302763943166245 -0.8663363125969155
5119000000.0 0.5659659637889294 -0.8813884818351059
5122000000.0 0.5769113175529905 -0.9022992824775098
5125000000.0 0.5505916326848362 -0.8428277221404123
5128000000.0 0.539987910071712 -0.8843973684829032
5131000000.0 0.5261176980763272 -0.8383577247772258
5134000000.0 0.5571656686413158 -0.8785670236954868
5138000000.0 0.5535675606229278 -0.8684845872383449
5141000000.0 0.5938789005150564 -0.8665845241924537
5144000000.0 0.5777903476710088 -0.8396725456078448
5147000000.0 0.5656988408045955 -0.8706149594088626
5150000000.0 0.5918975494280714 -0.8594382380848642
5153000000.0 0.570055050348506 -0.9231553746914474
5156000000.0 0.5456911120252681 -0.8295266119956023
5159000000.0 0.5723497729141338 -0.8924039754016283
5162000000.0 0.5250286108676567 -0.8749498185713906
5166000000.0 0.5299347460176657 -0.8580261921516907
5169000000.0 0.5780559932652998 -0.8872044658515766
5172000000.0 0.5626239997589941 -0.8544865539524378
5175000000.0 0.5539134327102918 -0.9050258000330862
5178000000.0 0.5613477980017967 -0.8994469025019743
