! Created with skrf 1.8.0 (http://scikit-rf.org).
# Hz S RI R 50.0 
!freq ReS11 ImS11
4000000000.0 0.5245087341542131 -0.8165228247667075
4003000000.0 0.5913198862904143 -0.899789538059502
4006000000.0 0.5186829354064151 -0.896524808837321
4009000000.0000005 0.551501902024762 -0.9052356704398857
4011999999.9999995 0.6145583559955528 -0.8583862150741763
4016000000.0 0.5243827064927626 -0.8834177905558295
4019000000.0 0.5639918260923442 -0.9496341272724224
4022000000.0000005 0.6023638501690176 -0.8389366879579812
4025000000.0000005 0.5236368094220474 -0.8989459416338125
4027999999.9999995 0.5515310312599847 -0.8569082056144799
4030999999.9999995 0.5099641444449551 -0.7874245830499995
4034000000.0 0.5195624455607593 -0.8297635066456872
4038000000.0000005 0.5830353555095218 -0.9182591104005585
4041000000.0000005 0.5522765552875255 -0.8520333768780808
4043999999.9999995 0.6114227754106962 -0.9314632389507316
4046999999.9999995 0.5595875878003211 -0.8674290968313829
4050000000.0 0.5406478943108266 -0.8464903828575101
4053000000.0 0.528080947387587 -0.8721256032741409
4056000000.0 0.5486889605711717 -0.8710456364235936
4059000000.0 0.5887662627946167 -0.8575623171248234
4062000000.0000005 0.5141342679310468 -0.8927591358887934
4066000000.0 0.5209296922187183 -0.8234467826702866
4069000000.0 0.5562844431755102 -0.9355522418668356
4072000000.0 0.5632093228373111 -0.8491796835354788
4075000000.0 0.5987509109632939 -0.8908693349876495
4078000000.0000005 0.5541332661569738 -0.8970418040080915
4081000000.0000005 0.5902808601374461 -0.8916889015646423
4083999999.9999995 0.5292979490366115 -0.892981154871429
4088000000.0 0.6084359234475968 -0.8343557173938367
4091000000.0 0.5559491257128224 -0.9425289450362516
4094000000.0000005 0.5391153681834859 -0.8554847708645021
4097000000.0000005 0.5473284956365929 -0.8647316826079242
4099999999.9999995 0.560560167755953 -0.8963484230653703
4102999999.9999995 0.5989969233063448 -0.8945117776031857
4106000000.0 0.5275389106913895 -0.8957668964555815
4109000000.0 0.5331329449274277 -0.9051768303829947
4112000000.0 0.540402266870436 -0.8725662969838276
4115999999.9999995 0.563273174093693 -0.8868766949846401
4119000000.0 0.5578767847813199 -0.9028628516504043
4122000000.0 0.57950514293054 -0.8901902886742488
4125000000.0 0.5757804733868983 -0.8799570068373469
4128000000.0 0.5512750809393827 -0.8528167754668705
4131000000.0 0.5780462976918098 -0.8514674569484667
4134000000.0000005 0.5340571260128074 -0.8504971266613557
4138000000.0 0.5543923551700974 -0.8666746116968652
4141000000.0 0.557264883812942 -0.8358477884662455
4144000000.0 0.599755959095722 -0.8913598883184226
4147000000.0000005 0.549251301966932 -0.8653330460270845
4150000000.0000005 0.5704130316807631 -0.8713270196134209
4152999999.9999995 0.5586388550137699 -0.8850517313883902
4155999999.9999995 0.5780315507182169 -0.8697466571318866
4159000000.0 0.5498587003853848 -0.8475900450549992
4162000000.0 0.5649132811310497 -0.8429784924610704
4166000000.0000005 0.5748174396723789 -0.8938999891359164
4168999999.9999995 0.5457038779015715 -0.8635996169361696
4171999999.9999995 0.5549195214909912 -0.8869090020094922
4175000000.0 0.5395717226665062 -0.8673731931350612
4178000000.0 0.5447254833540229 -0.8638907911199065
4181000000.0 0.5300479889353165 -0.8972280410952564
4184000000.0 0.5467196868696611 -0.8732591860981178
4187999999.9999995 0.5307260496683993 -0.8645236485417666
4191000000.0 0.5690413858858139 -0.8195587772285043
4194000000.0 0.5328718867153227 -0.8358602249260079
4197000000.0 0.5495554078826426 -0.8735504674459708
4200000000.0 0.5470844392450229 -0.8459620714797298
4203000000.0000005 0.5721727313884025 -0.861171377090483
4206000000.0000005 0.5735015591730225 -0.8966642285610616
4208999999.9999995 0.5626777187515335 -0.8447457871357981
4211999999.9999995 0.5378280119934642 -0.8669207971597819
4216000000.0 0.5615598848777187 -0.8470462586982156
4219000000.0000005 0.582409286628112 -0.8498602444947119
4222000000.0000005 0.5489033703700066 -0.8513292950040763
4224999999.9999995 0.5565741493808957 -0.8430642259004733
4227999999.9999995 0.5813452311601539 -0.859431441422652
4231000000.0 0.530924138536996 -0.8654203314728928
4234000000.0 0.5625229463554062 -0.8709630404572182
4238000000.0000005 0.5448402968214501 -0.8660354623578995
4240999999.9999995 0.5489892875838378 -0.8694054107510186
4244000000.0 0.5564971677575037 -0.8485719090037686
4247000000.0 0.5579292814314653 -0.8669223023216983
4250000000.0 0.5367313508844854 -0.8462472938127291
4253000000.0 0.5414249667858594 -0.8467789879081722
4256000000.0 0.5686493739171716 -0.8792144573973619
4259000000.0000005 0.5370797717590621 -0.8318596659038555
4261999999.9999995 0.5424813194901864 -0.8724636637358717
4266000000.0 0.527606983695309 -0.8747426009824817
4269000000.0 0.5507239232454161 -0.8392606315564421
4272000000.0000005 0.5559672070548108 -0.8517504063317791
4275000000.0000005 0.542580735057832 -0.8677828580235419
4277999999.9999995 0.570093467487526 -0.8627323007413057
4280999999.9999995 0.5392487346788264 -0.856665610447803
4284000000.0 0.5309151026236751 -0.8701183887735202
4288000000.0000005 0.5761896362802134 -0.8468778978308084
4291000000.0000005 0.544395421327265 -0.8231817680051702
4293999999.9999995 0.5334919720210607 -0.8436127340719217
4297000000.0 0.5858240169729465 -0.8405494962642485
4300000000.0 0.5427673642949706 -0.8342873183682121
4303000000.0 0.5438259322373609 -0.8355624107242968
4306000000.0 0.5565013203850244 -0.8581205101134404
4309000000.0 0.5419834361628396 -0.8690084501218772
4312000000.0 0.6129797311467874 -0.8481951870604012
4316000000.0 0.559214902338043 -0.8567497668918497
4319000000.0 0.5558163316847513 -0.8397010205595545
4322000000.0 0.5280177557945603 -0.8500161929954229
4325000000.0 0.5583035886699904 -0.8623095738751073
4328000000.0 0.5410172406671748 -0.8617857728811015
4331000000.0 0.5386494147847873 -0.878637268148409
4334000000.0 0.5580470573188298 -0.869218831301529
4338000000.0 0.5638165174142082 -0.8172766536926485
4341000000.0 0.5856174776049068 -0.8642904940781411
4344000000.0 0.5560856287482371 -0.8711042918008031
4347000000.0 0.5464830431075216 -0.8729869792680558
4350000000.0 0.5040474846378163 -0.823689562962326
4353000000.0 0.5499274469940341 -0.8174952350989012
4356000000.0 0.5242299210112693 -0.8694530118166807
4359000000.0 0.5174255989320458 -0.8326823060028115
4362000000.0 0.5188204884085877 -0.8924252786721315
4366000000.0 0.5353685590152572 -0.8739182775195927
4369000000.0 0.5027677282028586 -0.8263842554034736
4372000000.0 0.5270371831725382 -0.8711943167515263
4375000000.0 0.5588749294761926 -0.8299002734400458
4378000000.0 0.547713102932828 -0.821286297863984
4381000000.0 0.5473580327761904 -0.8323556377392085
4384000000.0 0.5843340778009602 -0.9017158062258446
4388000000.0 0.5341217899871407 -0.8332407766755728
4391000000.0 0.5525926324600277 -0.8695811469816749
4394000000.0 0.5133421942788221 -0.8528106514207255
4397000000.0 0.5384039377888468 -0.8570342011148339
4400000000.0 0.550672679431382 -0.8641571171233053
4403000000.0 0.5484803474157525 -0.8588154076636717
4406000000.0 0.5238094763410575 -0.8699191088542444
4409000000.0 0.5632771297336678 -0.8894537465534043
4412000000.0 0.4860293938012672 -0.8682676726371783
4416000000.0 0.5220057283725419 -0.8597350622681389
4419000000.0 0.5231555474022551 -0.8701829801323674
4422000000.0 0.5491294546504734 -0.8440727482605751
4425000000.0 0.5746103168447501 -0.8643386963632138
4428000000.0 0.530836616192121 -0.867179318596718
4431000000.0 0.5455836871303007 -0.8780500840228176
4434000000.0 0.5028417391141318 -0.8639021786050892
4438000000.0 0.549751748695592 -0.8790979533807175
4441000000.0 0.5533182200929548 -0.8676489668587906
4444000000.0 0.5345846204530466 -0.8319265893634964
4447000000.0 0.5221538647275407 -0.8684515972116598
4450000000.0 0.547440981479133 -0.8398636292397448
4453000000.0 0.5409620631752329 -0.8738423085277238
4456000000.0 0.5110623238620267 -0.8395229431643447
4459000000.0 0.5016601856966306 -0.8383859634921375
4462000000.0 0.555523284695964 -0.9087969763485323
4466000000.0 0.5539705564153993 -0.8943399515445098
4469000000.0 0.5412659650250188 -0.850166344033948
4472000000.0 0.5350051220879971 -0.9093655995273524
4475000000.0 0.5335518294817783 -0.8314160137368551
4478000000.0 0.5427035808097991 -0.9146420422647393
4481000000.0 0.5041089758072725 -0.8342536376183289
4484000000.0 0.49170314139544635 -0.8874697117739934
4488000000.0 0.5196566653052043 -0.8623752921726253
4491000000.0 0.5264764486046052 -0.8699764014218596
4494000000.0 0.5389613968307854 -0.856947212805147
4497000000.0 0.5313135897825452 -0.86387190309202
4500000000.0 0.5406567129707295 -0.8518428263832933
4503000000.0 0.5414724228805899 -0.8871325148916662
4506000000.0 0.5107074290284601 -0.8446688403842726
4509000000.0 0.5391318460931742 -0.8447481338330237
4512000000.0 0.5072899811084295 -0.8585201341735567
4516000000.0 0.5359433114834464 -0.8728317519412455
4519000000.0 0.5369196053702054 -0.8279066523676153
4522000000.0 0.515783618159648 -0.8703037175360977
4525000000.0 0.5502351076781034 -0.8372721525988599
4528000000.0 0.5353183703878375 -0.8847813859321334
4531000000.0 0.5280469744459324 -0.8568926373843495
4534000000.0 0.5116428437059803 -0.8458889638552226
4538000000.0 0.5253401628116373 -0.8692896007777018
4541000000.0 0.4911377719296389 -0.8705181521872727
4544000000.0 0.5301463682885459 -0.8475841778957542
4547000000.0 0.5164919539068572 -0.8400889289732676
4550000000.0 0.49841786749843764 -0.8715300832713458
4553000000.0 0.5166548198035547 -0.8688668580600887
4556000000.0 0.5102821110861496 -0.8434434987385921
4559000000.0 0.5062201962338684 -0.887688323865571
4562000000.0 0.5172866832379287 -0.8870964643738675
4566000000.0 0.5103569139165245 -0.8844883323178203
4569000000.0 0.494964799847195 -0.8474972199352426
4572000000.0 0.5139200298450093 -0.8641739362163525
4575000000.0 0.5115042567801666 -0.872574941653989
4578000000.0 0.5557967000132535 -0.8865426269331032
4581000000.0 0.5176686616712904 -0.8732205217990593
4584000000.0 0.4997802874860605 -0.8754437613617236
4588000000.0 0.5435054093555418 -0.8953094069318459
4591000000.0 0.541590963537951 -0.8719373713117766
4594000000.0 0.490830078697758 -0.8741620271747508
4597000000.0 0.5083884500275444 -0.8865682112880846
4600000000.0 0.4841120727719611 -0.8946180807846204
4603000000.0 0.5148915485845508 -0.8910038497569541
4606000000.0 0.5171274126823548 -0.8791552142749399
4609000000.0 0.520067028868566 -0.8657492948892946
4612000000.0 0.5167771355257157 -0.8748916041701068
4616000000.0 0.4979124344757113 -0.8607859504901132
4619000000.0 0.5126250862500693 -0.8546431070774096
4622000000.0 0.511506024825407 -0.8788283803814251
4625000000.0 0.47355101863106003 -0.8575491200464692
4628000000.0 0.5186289942479484 -0.8605310811889954
4631000000.0 0.4946776280845945 -0.8728237850860496
4634000000.0 0.5050121790229475 -0.8765434777002459
4638000000.0 0.5132666890617315 -0.8756944481646693
4641000000.0 0.5016948869768023 -0.8780993040931265
4644000000.0 0.4983748357779752 -0.8781715670114176
4647000000.0 0.528649883334701 -0.8868784423028084
4650000000.0 0.4978044188132539 -0.8951259140720469
4653000000.0 0.5293641388895975 -0.8916373290283857
4656000000.0 0.49300401224218304 -0.881797684900508
4659000000.0 0.4894406324704654 -0.8684473987255286
4662000000.0 0.5010991392119741 -0.8942811233903165
4666000000.0 0.49383909891394123 -0.8778958699854986
4669000000.0 0.514551877120828 -0.8852341799454047
4672000000.0 0.4959355208681817 -0.8819061377328379
4675000000.0 0.4897949811556873 -0.9009880822522812
4678000000.0 0.4883122004418744 -0.8640482151321943
4681000000.0 0.4954610085067874 -0.886948631102764
4684000000.0 0.48757828246842483 -0.9076768666749253
4688000000.0 0.46072413657115696 -0.8693893560138223
4691000000.0 0.514083795900788 -0.8598856083801235
4694000000.0 0.5158892748110957 -0.8773743993185362
4697000000.0 0.4836438807169571 -0.8820769273921959
4700000000.0 0.49946685850793116 -0.8678274616304917
4703000000.0 0.5131777198994576 -0.8301971980296149
4706000000.0 0.5138350851157372 -0.8836090841636244
4709000000.0 0.46728804343334734 -0.8971055609066327
4712000000.0 0.5232013925637067 -0.8711941450202286
4716000000.0 0.48576670327237775 -0.8960465734706631
4719000000.0 0.5322706184790563 -0.8839685120204528
4722000000.0 0.5292443957652829 -0.8716690854372534
4725000000.0 0.5139472130814949 -0.8685246941421857
4728000000.0 0.48291221160677406 -0.8844451207073722
4731000000.0 0.5120383584055044 -0.905186308181374
4734000000.0 0.5049888553786627 -0.8859844093387507
4738000000.0 0.5470687345925176 -0.9120124348362774
4741000000.0 0.5264662126915587 -0.9016754870441512
4744000000.0 0.48470389383150925 -0.9311859612540156
4747000000.0 0.5299878055210763 -0.8446346864858422
4750000000.0 0.4644583533212726 -0.9163418690352405
4753000000.0 0.5080971934153318 -0.8972519778842935
4756000000.0 0.48911307268332965 -0.8818803537551848
4759000000.0 0.4983248235867507 -0.9018206646581008
4762000000.0 0.5138064536590452 -0.916062846800604
4766000000.0 0.4978974045145321 -0.8882956268885931
4769000000.0 0.5052884299910207 -0.9097988923204601
4772000000.0 0.495522270874074 -0.8993794750919625
4775000000.0 0.49354498683865977 -0.9152156075938638
4778000000.0 0.5268257057618569 -0.8862761397004493
4781000000.0 0.49105329705044254 -0.8603496361542099
4784000000.0 0.5077406842789122 -0.8729595095061523
4788000000.0 0.48985904072823266 -0.8917210004575156
4791000000.0 0.4844773863150301 -0.9000487439005492
4794000000.0 0.5478167687451647 -0.8808927904967894
4797000000.0 0.4808470149576416 -0.8695788871651442
4800000000.0 0.4792598074290408 -0.8790421256037323
4803000000.0 0.46216394830669816 -0.9078691201365577
4806000000.0 0.5073076432927205 -0.9152467702566042
4809000000.0 0.45069463303964763 -0.9096185703949407
4812000000.0 0.45112229758150946 -0.8989862259254254
4816000000.0 0.4922873093361852 -0.8832797785281264
4819000000.0 0.5412124839611681 -0.881287992147134
4822000000.0 0.5158439405134883 -0.9382099326540851
4825000000.0 0.5468950798942622 -0.9013645314359245
4828000000.0 0.5150005414580017 -0.8969819063065463
4831000000.0 0.46806785499129355 -0.9269253597653657
4834000000.0 0.517763887229848 -0.8933933973294972
4838000000.0 0.4924266422721362 -0.922764483756359
4841000000.0 0.47896899890443034 -0.8927864906760404
4844000000.0 0.5150080122843731 -0.8793295216104978
4847000000.0 0.5189154271092074 -0.8565348496860207
4850000000.0 0.5054345651548123 -0.9120291560732371
4853000000.0 0.49557307989696175 -0.8679921994436086
4856000000.0 0.4935952674139823 -0.8793364539486842
4859000000.0 0.5349116132699514 -0.942143405113031
4862000000.0 0.5117590003038973 -0.8627425957377824
4866000000.0 0.47080926971842835 -0.9178777216947732
4869000000.0 0.47331739411252105 -0.8913344355407804
4872000000.0 0.48448324547988875 -0.9493822181330651
4875000000.0 0.5718596579451067 -0.9029133398404321
4878000000.0 0.4963037679882623 -0.9082974122698146
4881000000.0 0.4944281625113975 -0.9558501032286386
4884000000.0 0.5093582377919084 -0.8773316796844994
4888000000.0 0.5233954023973234 -0.8680826464445202
4891000000.0 0.5441612965356982 -0.9209462448240915
4894000000.0 0.4851189281482175 -0.9074136846133907
4897000000.0 0.5396400117402004 -0.8761927211381487
4900000000.0 0.5123452217247934 -0.9057035453203701
4903000000.0 0.530968919058794 -0.9181304279167238
4906000000.0 0.5098329205440608 -0.9308885554887693
4909000000.0 0.4981899657000127 -0.9172066074373024
4912000000.0 0.5140920927037745 -0.9475210802768811
4916000000.0 0.5245826646576911 -0.9237492451303234
4919000000.0 0.5567592361259135 -0.9399094819806748
4922000000.0 0.5339160701318284 -0.9046326303295258
4925000000.0 0.5145117898806384 -0.8925903142242065
4928000000.0 0.5846860990212823 -0.8698300868218688
4931000000.0 0.5425819672530795 -0.877450330714059
4934000000.0 0.47395662656224147 -0.8693008975678995
4938000000.0 0.46378510595577904 -0.8891695592219079
4941000000.0 0.5040889905238001 -0.8698270615723328
4944000000.0 0.48877233375336737 -0.8434047388761989
4947000000.0 0.48773976725136103 -0.8833990578948657
4950000000.0 0.5092869614644676 -0.8865748365228127
4953000000.0 0.5325288330308724 -0.9652702540803403
4956000000.0 0.5114123864500577 -0.9242146605960238
4959000000.0 0.464071583483042 -0.8813465411217171
4962000000.0 0.5062892327981525 -0.9109229521923092
4966000000.0 0.5639252430298524 -0.9037827802205682
4969000000.0 0.5928344728359279 -0.9293919516607367
4972000000.0 0.5126355118039165 -0.9164156844218003
4975000000.0 0.5322317396017793 -0.8870839236694967
4978000000.0 0.53145784738767 -0.9125154098913031
4981000000.0 0.5038889531049349 -0.9412412678532991
4984000000.0 0.5339028961098521 -0.8756016169147595
4988000000.0 0.5241976562449735 -0.8970834211574221
4991000000.0 0.5668304953904847 -0.8943200531552974
4994000000.0 0.5079214095988294 -0.9068706333857043
4997000000.0 0.4983018631157389 -0.9292166033488466
5000000000.0 0.558108838895504 -0.9243459788521738
5003000000.0 0.5743292819239303 -0.9022067808705727
5006000000.0 0.5404095278702724 -0.9482972729652154
5009000000.0 0.5127575282649636 -0.9003956936341309
5012000000.0 0.5137582274039574 -0.9137250160371263
5016000000.0 0.583044453022957 -0.8967747731562892
5019000000.0 0.5394838529180477 -0.8976473116148243
5022000000.0 0.5395937671737734 -0.9146287210064716
5025000000.0 0.5584874972841543 -0.9637631743986447
5028000000.0 0.5173252370073158 -0.9078534596287895
5031000000.0 0.49291509860937155 -0.9055639115952067
5034000000.0 0.5304199872467832 -0.9671459216962932
5038000000.0 0.49049981707391876 -0.8709862377503341
5041000000.0 0.5588719350287145 -0.8692923000438026
5044000000.0 0.5458896766803314 -0.8615338015433274
5047000000.0 0.53667024898302 -0.8938776290343204
5050000000.0 0.5875377340375959 -0.83588730197911
5053000000.0 0.5339784988756755 -0.9335578993009723
5056000000.0 0.5511207999793549 -0.9023982164135378
5059000000.0 0.5846155124846858 -0.8656043036413474
5062000000.0 0.5192355566310383 -0.914465085634742
5066000000.0 0.5276334759329945 -0.842566664109883
5069000000.0 0.5175225966749275 -0.91111028953314
5072000000.0 0.5233217160032985 -0.9044642170246697
5075000000.0 0.5644677273381454 -0.8900172595767712
5078000000.0 0.5282280144519637 -0.9244540576010716
5081000000.0 0.5270941141266646 -0.8299519033558691
5084000000.0 0.5722349858623895 -0.9099775550803065
5088000000.0 0.5698125188620944 -0.8730592766641645
5091000000.0 0.4927822717553266 -0.9182241340487192
5094000000.0 0.5106390826214244 -0.902920493422604
5097000000.0 0.5508143514408367 -0.8602267784260638
5100000000.0 0.5552017804280577 -0.8549037289926423
5103000000.0 0.5149726885337771 -0.9286448600567752
5106000000.0 0.5513910200673473 -0.9121721377079406
5109000000.0 0.526950180719733 -0.8656211825504743
5112000000.0 0.5397916018688006 -0.8661160141659323
5116000000.0 0.518049007723679 -0.848800561854933
5119000000.0 0.5351278771878808 -0.8807701688006369
5122000000.0 0.56867781804052 -0.8477839009301873
5125000000.0 0.5638930936041062 -0.8975044024440227
5128000000.0 0.5334102762255093 -0.8919794905932195
5131000000.0 0.5531905951449232 -0.9152856977097976
5134000000.0 0.5683666985875157 -0.8872187227950399
5138000000.0 0.5884383090585189 -0.8884520147276652
5141000000.0 0.6160426930064901 -0.8269927418522992
5144000000.0 0.5531875301021829 -0.9156823774086632
5147000000.0 0.5294310989943395 -0.8846638473396751
5150000000.0 0.5862139197772239 -0.9214881336742485
5153000000.0 0.5401090547080862 -0.889168061437453
5156000000.0 0.579702822949108 -0.889779392712506
5159000000.0 0.618102967723566 -0.9500250413767739
5162000000.0 0.5554823560742954 -0.8623143283003287
5166000000.0 0.5390978751109708 -0.9212379203124483
5169000000.0 0.5602007777047935 -0.8988401794957842
5172000000.0 0.5832900202010427 -0.8461345100042839
5175000000.0 0.5654126343462762 -0.8970127894450446
5178000000.0 0.5921743809437543 -0.8754763950878146
