! Created with skrf 1.8.0 (http://scikit-rf.org).
# Hz S RI R 50.0 
!freq ReS11 ImS11
4000000000.0 0.5613588379538608 -0.8691679752190316
4003000000.0 0.6056397921479623 -0.9568264279419965
4006000000.0 0.5038568896419438 -0.8981699594487286
4009000000.0000005 0.5780765559506631 -0.8753849489776835
4011999999.9999995 0.5597561497433667 -0.8823640667940841
4016000000.0 0.5359631357837975 -0.9418094938302755
4019000000.0 0.5681190183490847 -0.8600592263064799
4022000000.0000005 0.6237998330178354 -0.8291629865277335
4025000000.0000005 0.4918588176202334 -0.931044417407426
4027999999.9999995 0.5623248310043406 -0.901798816687313
4030999999.9999995 0.5410465441937324 -0.7929962366333286
4034000000.0 0.5075895649701796 -0.8890036089604704
4038000000.0000005 0.5384837862173969 -0.9493220707789096
4041000000.0000005 0.5251407327352824 -0.8947542290029648
4043999999.9999995 0.5699871436965519 -0.9594322856960145
4046999999.9999995 0.5972232220740888 -0.8636822938471643
4050000000.0 0.49234269642914374 -0.9322671835922695
4053000000.0 0.5079131317903288 -0.8449974493765213
4056000000.0 0.5712919743640574 -0.8857332570152966
4059000000.0 0.5617882636113107 -0.8846731552182777
4062000000.0000005 0.49296007456330604 -0.8762663808298381
4066000000.0 0.4939304314515421 -0.8355229722226031
4069000000.0 0.5520604803533992 -0.9372921977582978
4072000000.0 0.6246262700977219 -0.8608171112017245
4075000000.0 0.6225291162612424 -0.9229960620106643
4078000000.0000005 0.5476676359662442 -0.9114332641737635
4081000000.0000005 0.6248278590415379 -0.8776009013476254
4083999999.9999995 0.5568522224713603 -0.9337314929417664
4088000000.0 0.5916381284242285 -0.8599921265724597
4091000000.0 0.5733449532780684 -0.9700794761934587
4094000000.0000005 0.5531143554455306 -0.8787008765803664
4097000000.0000005 0.49331440671834825 -0.8594889461135495
4099999999.9999995 0.5522868377243754 -0.891083287397042
4102999999.9999995 0.6248020385571307 -0.9042514427511402
4106000000.0 0.569537612372659 -0.8632795096941229
4109000000.0 0.5322840818790494 -0.8878882145896876
4112000000.0 0.5846085589330582 -0.9202488206646332
4115999999.9999995 0.5765527722113224 -0.902494944839875
4119000000.0 0.5350203479613233 -0.8834710209972918
4122000000.0 0.5637957646270894 -0.9106765531755745
4125000000.0 0.5341773938375145 -0.9119804275466545
4128000000.0 0.5309126173871359 -0.8344796826128695
4131000000.0 0.5631678758680738 -0.8746993992591653
4134000000.0000005 0.5523887219438479 -0.8578895981521553
4138000000.0 0.5703056496523881 -0.8580082728012848
4141000000.0 0.5591557109090313 -0.8679332136606583
4144000000.0 0.5825026701446492 -0.8874918969500898
4147000000.0000005 0.5348367506888825 -0.8823851614917024
4150000000.0000005 0.5756519295481578 -0.9092992350547932
4152999999.9999995 0.5504844529492939 -0.8388108539157295
4155999999.9999995 0.5629828926895653 -0.9109576736446329
4159000000.0 0.5633504862320524 -0.8395259561773379
4162000000.0 0.5701940513872509 -0.8579815347315047
4166000000.0000005 0.5795926139157248 -0.910000620375255
4168999999.9999995 0.5410137078505899 -0.8974462410996028
4171999999.9999995 0.5845178067661849 -0.8571289169197682
4175000000.0 0.5937379336187015 -0.8811343779177748
4178000000.0 0.5810933345441684 -0.898336494782828
4181000000.0 0.5727057805002399 -0.8964040328486838
4184000000.0 0.5718471745524989 -0.8710656888205474
4187999999.9999995 0.571412267653479 -0.8696106210718672
4191000000.0 0.6130522856725095 -0.8627342096729922
4194000000.0 0.536490462812594 -0.8547292649263369
4197000000.0 0.5638005671379744 -0.8890149393378526
4200000000.0 0.558310155507556 -0.872296230006003
4203000000.0000005 0.5820832225962224 -0.8866693618025413
4206000000.0000005 0.5746806898096459 -0.8705587341342873
4208999999.9999995 0.5903737970385766 -0.8528163345423286
4211999999.9999995 0.5525342045898339 -0.8867060853184935
4216000000.0 0.5521906379099579 -0.8594921995049091
4219000000.0000005 0.566370386395193 -0.8528194732781431
4222000000.0000005 0.547691236106049 -0.8897612328069355
4224999999.9999995 0.5546849926602685 -0.8642461130773822
4227999999.9999995 0.5720762618256544 -0.8689974530495929
4231000000.0 0.561074517045853 -0.8485555375733665
4234000000.0 0.5567295059451187 -0.8734441215274323
4238000000.0000005 0.5610505310516729 -0.8738885577001232
4240999999.9999995 0.5569052321335234 -0.8741994388781401
4244000000.0 0.5602243785923693 -0.8510445626668319
4247000000.0 0.5630598861727556 -0.8539875916915071
4250000000.0 0.5530240524528436 -0.8664266308674302
4253000000.0 0.5383511718308519 -0.8331780634881432
4256000000.0 0.5671934876092938 -0.8828099516371113
4259000000.0000005 0.543450745925929 -0.8438272197784444
4261999999.9999995 0.5391115784190761 -0.8811946384869678
4266000000.0 0.548592944668099 -0.8682582084098482
4269000000.0 0.5799402228032801 -0.8406695701734569
4272000000.0000005 0.5507253129774909 -0.8566852833903359
4275000000.0000005 0.5602551410425988 -0.8790488037476742
4277999999.9999995 0.5902511489847987 -0.8846880687749855
4280999999.9999995 0.5825737642177312 -0.866655212695452
4284000000.0 0.5311302744163312 -0.8891217312099673
4288000000.0000005 0.5904924514892871 -0.8502279975111229
4291000000.0000005 0.5289183925481414 -0.847678455149418
4293999999.9999995 0.565005795673877 -0.8371408795127968
4297000000.0 0.5865934734736011 -0.8409869224664721
4300000000.0 0.5592697041263849 -0.8617662914765645
4303000000.0 0.5297883110505396 -0.8472164242440935
4306000000.0 0.5926010921221433 -0.8522122039861962
4309000000.0 0.5518621054349948 -0.8509586594203792
4312000000.0 0.5859198201531148 -0.8560470158230682
4316000000.0 0.586175154172425 -0.8466655989757037
4319000000.0 0.5734032567690925 -0.8454781977585158
4322000000.0 0.5155182847689 -0.868524900619545
4325000000.0 0.5777465252905836 -0.8289444296012696
4328000000.0 0.5704253610971728 -0.8693806939035371
4331000000.0 0.5601343953063613 -0.8852211218310885
4334000000.0 0.5659703270788993 -0.8832876059159012
4338000000.0 0.5785412150125451 -0.8661156883162259
4341000000.0 0.5893613520274493 -0.8607782537764537
4344000000.0 0.5702659006931352 -0.8806998426686393
4347000000.0 0.5360963988934069 -0.8770474572746093
4350000000.0 0.5365791133636607 -0.8562538657948567
4353000000.0 0.5638645059261116 -0.8419250609501041
4356000000.0 0.53379917408353 -0.863701614999427
4359000000.0 0.5216618025043954 -0.8376773465163282
4362000000.0 0.5294335100309985 -0.887398629264718
4366000000.0 0.5483873899979034 -0.8722448946645864
4369000000.0 0.5229355537082541 -0.8405803084462492
4372000000.0 0.516689491217242 -0.8710055167982291
4375000000.0 0.5660293273236425 -0.8441029152910876
4378000000.0 0.5212706682064017 -0.8316374017299157
4381000000.0 0.5507648659091173 -0.8381930267146593
4384000000.0 0.5849801953395894 -0.9096835780900413
4388000000.0 0.5605740889070403 -0.8539423543505207
4391000000.0 0.5478837207654597 -0.8518205704473318
4394000000.0 0.5272287710628276 -0.8340755835326157
4397000000.0 0.5378557423929027 -0.8470419395989947
4400000000.0 0.5649957178095589 -0.8880916576757474
4403000000.0 0.565991854491157 -0.8554881610571481
4406000000.0 0.5295126452627809 -0.887824392780359
4409000000.0 0.540727051069264 -0.8729066741116761
4412000000.0 0.4939679330183307 -0.8735930836968346
4416000000.0 0.5259964782349378 -0.8483693266426788
4419000000.0 0.5264221813397931 -0.8667669755539723
4422000000.0 0.550846905266388 -0.8390678682159766
4425000000.0 0.5741013417528407 -0.8558604836200909
4428000000.0 0.536841691738867 -0.8752161339012209
4431000000.0 0.5527085366535028 -0.880423784041042
4434000000.0 0.5288998398364719 -0.872070652548495
4438000000.0 0.5486367581306963 -0.8686156399302215
4441000000.0 0.5655510487436501 -0.8819009804275009
4444000000.0 0.5422829114087587 -0.8360433552511801
4447000000.0 0.5365314407384538 -0.8509579694550163
4450000000.0 0.5397882248406757 -0.8450916470272705
4453000000.0 0.5648262041962644 -0.8800982068037644
4456000000.0 0.5167019750918248 -0.8405306250298336
4459000000.0 0.49822925162739695 -0.8426533935110185
4462000000.0 0.5676995943276961 -0.9107156149884
4466000000.0 0.5772555669019761 -0.8921888085174009
4469000000.0 0.545080561751844 -0.8603865224030026
4472000000.0 0.52663546377384 -0.8932679749252305
4475000000.0 0.5316278269913821 -0.8325946760739034
4478000000.0 0.5471383135917023 -0.9063221336702727
4481000000.0 0.5059473603337714 -0.8485850641618113
4484000000.0 0.4951893784341055 -0.8769774149679849
4488000000.0 0.5080081070825013 -0.862029673170118
4491000000.0 0.5444282821526817 -0.8607086230906092
4494000000.0 0.521608290966489 -0.8545012085647261
4497000000.0 0.542209713420315 -0.8517188397364961
4500000000.0 0.5475101888991278 -0.8689298477181971
4503000000.0 0.554699589874177 -0.8820017750124636
4506000000.0 0.5076083732225498 -0.8678179509998561
4509000000.0 0.5153501686435458 -0.8496768363087317
4512000000.0 0.5103212853285797 -0.8665205343553779
4516000000.0 0.5385522697525693 -0.8905590126285807
4519000000.0 0.5197509026417899 -0.8479079898562241
4522000000.0 0.5099877199170413 -0.8799467300641857
4525000000.0 0.5584145706439976 -0.8327652514412924
4528000000.0 0.5436103135333964 -0.8885247316246676
4531000000.0 0.5535795086038383 -0.8609252500249064
4534000000.0 0.5357608656555513 -0.8330487759529637
4538000000.0 0.5135827218248514 -0.8734187357965136
4541000000.0 0.4911286051694147 -0.8830962659257207
4544000000.0 0.5116839099574468 -0.8441246870836207
4547000000.0 0.5480808407641868 -0.8510440885903637
4550000000.0 0.5187186538593672 -0.8805342581418394
4553000000.0 0.5075935483628431 -0.890689259166523
4556000000.0 0.4964019852367918 -0.8611579815799282
4559000000.0 0.5130265504903047 -0.8650548076274622
4562000000.0 0.538655937158863 -0.8774623660862509
4566000000.0 0.5300623137355092 -0.8800564710182797
4569000000.0 0.5097667373310393 -0.868096935429449
4572000000.0 0.5160477648878701 -0.8729496181366387
4575000000.0 0.5110208973575072 -0.8853043241661098
4578000000.0 0.5423937835267622 -0.8921787761807548
4581000000.0 0.5173291292852337 -0.9047321250247532
4584000000.0 0.5273184203186996 -0.8574804742459063
4588000000.0 0.5510837603781085 -0.8917666479186552
4591000000.0 0.5457181156746636 -0.8724683701090893
4594000000.0 0.5072519594668801 -0.8854766694258509
4597000000.0 0.525136290138513 -0.896737232408271
4600000000.0 0.5013682442559119 -0.8902555240429397
4603000000.0 0.5208970733151337 -0.880546923768124
4606000000.0 0.5227560989698985 -0.9027371091008516
4609000000.0 0.5051171595358275 -0.8739528263651093
4612000000.0 0.515059165537562 -0.88538372236005
4616000000.0 0.5094189928382529 -0.8676911849900195
4619000000.0 0.5093869678646609 -0.8767113300168464
4622000000.0 0.5190663316139764 -0.8800934768771702
4625000000.0 0.49073141961469624 -0.8689644092220359
4628000000.0 0.5348040689547732 -0.8665880935678258
4631000000.0 0.5101511469193929 -0.8859635245406694
4634000000.0 0.5052844730251087 -0.8753157784361709
4638000000.0 0.5088829921576394 -0.8764426072577098
4641000000.0 0.5277645999582241 -0.8924678986508106
4644000000.0 0.522104536029693 -0.8509240583045511
4647000000.0 0.5130804369308537 -0.8763022845590339
4650000000.0 0.5052414156125745 -0.8915619750675378
4653000000.0 0.5187226131135414 -0.8721474152406149
4656000000.0 0.4954078495184403 -0.8864964229348868
4659000000.0 0.4921714201109433 -0.8776522864808552
4662000000.0 0.5319519933865595 -0.8854685925261583
4666000000.0 0.520152961554073 -0.8850657064972546
4669000000.0 0.5164374701885805 -0.8735804570792395
4672000000.0 0.5001734885399601 -0.9041395394393488
4675000000.0 0.49919209162388717 -0.8703076869745509
4678000000.0 0.490143886100547 -0.8703870426303592
4681000000.0 0.4957706835454948 -0.9227405978648116
4684000000.0 0.4955949742824621 -0.909787688499493
4688000000.0 0.47747176916954376 -0.8858822011972787
4691000000.0 0.5195802471981263 -0.8772436537939231
4694000000.0 0.5044341673672131 -0.8763357198045915
4697000000.0 0.47938390732564584 -0.8701179056019477
4700000000.0 0.5050612245467512 -0.8825330020116967
4703000000.0 0.5188154372930273 -0.8599526627216983
4706000000.0 0.5026871404465567 -0.87828818194532
4709000000.0 0.5023264602100422 -0.9037360916014145
4712000000.0 0.5053109553026157 -0.8874968046875686
4716000000.0 0.4916401604230864 -0.8944045303183846
4719000000.0 0.5255449342548266 -0.8796347675468926
4722000000.0 0.5311731721099546 -0.887771007519544
4725000000.0 0.4999586130461218 -0.8793167934297266
4728000000.0 0.488414678576867 -0.8952937484749734
4731000000.0 0.5383133405569833 -0.89710272911904
4734000000.0 0.5557020673236824 -0.8718224075369765
4738000000.0 0.5389247418443025 -0.912319986844728
4741000000.0 0.5205543161833152 -0.9175547791282608
4744000000.0 0.506692235724212 -0.8934286430069883
4747000000.0 0.49845941967083374 -0.8643441311069382
4750000000.0 0.5129762135810744 -0.8930731157983118
4753000000.0 0.5145996026903361 -0.8946774221974088
4756000000.0 0.5086626270327879 -0.8940663781828867
4759000000.0 0.5200335832521212 -0.8819704961342418
4762000000.0 0.4960342087141183 -0.9484327844927065
4766000000.0 0.4989018225458854 -0.8841728164602549
4769000000.0 0.5068258753459329 -0.8845316760645352
4772000000.0 0.5286823973428848 -0.8863065906717316
4775000000.0 0.4935509071081962 -0.9479488257196319
4778000000.0 0.5173676164697871 -0.8994139043095162
4781000000.0 0.515985898567113 -0.864615872791586
4784000000.0 0.5248469314997901 -0.8879501773095784
4788000000.0 0.5122583163137265 -0.9190464892114708
4791000000.0 0.48657178861026323 -0.9091981888354429
4794000000.0 0.5225797624316587 -0.9139888823679576
4797000000.0 0.4982210500833838 -0.8896585917792988
4800000000.0 0.4852652987862496 -0.9033291766519351
4803000000.0 0.4559703313931308 -0.9121759772906657
4806000000.0 0.5148675688361416 -0.9248397115736994
4809000000.0 0.4356019611380909 -0.9316716201322697
4812000000.0 0.44348058102359134 -0.9273912439538411
4816000000.0 0.5093107575528398 -0.8714309819819311
4819000000.0 0.5311236412190767 -0.9169171249384936
4822000000.0 0.5242483321166045 -0.9312195237657955
4825000000.0 0.5484490694589019 -0.9235789033541469
4828000000.0 0.49304100893217606 -0.8877926994906706
4831000000.0 0.47589320030936866 -0.938147540595614
4834000000.0 0.5251951689583315 -0.90581160992495
4838000000.0 0.5238148592678159 -0.9418419088118017
4841000000.0 0.47771306137292735 -0.903998653225275
4844000000.0 0.5399425220274364 -0.8901940921129888
4847000000.0 0.5033357804667103 -0.8638921935768005
4850000000.0 0.5075831908263926 -0.9109576782511162
4853000000.0 0.4724670837764193 -0.8755915265152482
4856000000.0 0.4980884758129585 -0.9093285404588747
4859000000.0 0.5267175090010964 -0.9151586658619272
4862000000.0 0.5047606747526066 -0.8643648246780509
4866000000.0 0.49622959372756814 -0.902971363689016
4869000000.0 0.5127673310563086 -0.9150757432972723
4872000000.0 0.49253700586344557 -0.9449075206403313
4875000000.0 0.5736928516913767 -0.9253135747503929
4878000000.0 0.47804412714450134 -0.9221187698204784
4881000000.0 0.5034514513063507 -0.9611200674395409
4884000000.0 0.5401866646579422 -0.9114462883353579
4888000000.0 0.5601940162933561 -0.8946240942154348
4891000000.0 0.5383971128313519 -0.9186965089035903
4894000000.0 0.48753248148707934 -0.909513790684659
4897000000.0 0.5301663300077234 -0.8903760950222046
4900000000.0 0.5240331027977063 -0.9138460900161397
4903000000.0 0.521707272538422 -0.9018596781961647
4906000000.0 0.5470300414321114 -0.9351290026050901
4909000000.0 0.5109405523908939 -0.9173901078512513
4912000000.0 0.5125543749656598 -0.9328984584390367
4916000000.0 0.5564032570817186 -0.8956871266471608
4919000000.0 0.5420340078389052 -0.912067797286795
4922000000.0 0.5442434459474957 -0.9104184540492769
4925000000.0 0.489268300098348 -0.889319669893068
4928000000.0 0.5489999766049894 -0.8629692648992096
4931000000.0 0.5679311396503406 -0.9003864695136626
4934000000.0 0.5041159451817715 -0.874521836633293
4938000000.0 0.47629930404566656 -0.894657116636754
4941000000.0 0.5170746734437189 -0.8913431856768514
4944000000.0 0.5195794942504219 -0.849963180688684
4947000000.0 0.5582975224477562 -0.8898564940448024
4950000000.0 0.49756121100082373 -0.8658387017276271
4953000000.0 0.4768775581928897 -0.9387470160731894
4956000000.0 0.48869363911154223 -0.9181320343949351
4959000000.0 0.4717472783102532 -0.9293427905622471
4962000000.0 0.5154206070345877 -0.9157893408629837
4966000000.0 0.5444563441951544 -0.9260862960170156
4969000000.0 0.5709162949276211 -0.9292868201571618
4972000000.0 0.5041684312529291 -0.8997440044939371
4975000000.0 0.5366905222192765 -0.8850895602657156
4978000000.0 0.5193623859194587 -0.9108860560817371
4981000000.0 0.47901409944774065 -0.9244366372441639
4984000000.0 0.503189288065953 -0.8627509126560229
4988000000.0 0.5360102696059423 -0.902125349775211
4991000000.0 0.6073813239775021 -0.8978866701417842
4994000000.0 0.537402515443985 -0.8650615554997105
4997000000.0 0.46539803970093185 -0.9381592194012044
5000000000.0 0.5487795504401067 -0.913994832721453
5003000000.0 0.5637463383472412 -0.9556958566370619
5006000000.0 0.5758120903475904 -0.9568162767772187
5009000000.0 0.5441244408788725 -0.875713669627863
5012000000.0 0.520369197522678 -0.908998044032026
5016000000.0 0.5499847347892206 -0.9153989479412055
5019000000.0 0.5057805558879289 -0.9168280993025422
5022000000.0 0.5462967157587737 -0.9134769332786867
5025000000.0 0.5698868816844747 -0.947011361634246
5028000000.0 0.5241749688700552 -0.9292749151748924
5031000000.0 0.5160287191916658 -0.9049074703455269
5034000000.0 0.5132253635748832 -0.9234350200525935
5038000000.0 0.5024935729793225 -0.9238132922556489
5041000000.0 0.5648103116812055 -0.8774724130675132
5044000000.0 0.5391825433071552 -0.8692887221841523
5047000000.0 0.5313712930983083 -0.8905513429924534
5050000000.0 0.6066341902704676 -0.8558741103917777
5053000000.0 0.5442207745157353 -0.9698292691312453
5056000000.0 0.6009176390028068 -0.8732096385623771
5059000000.0 0.5939821849606892 -0.8606781413247677
5062000000.0 0.5223164012945813 -0.9514684889532734
5066000000.0 0.564403891091583 -0.8812560031247172
5069000000.0 0.5476367175279037 -0.8942272951050112
5072000000.0 0.5531322471612374 -0.9008264942982062
5075000000.0 0.5166099969944539 -0.8934593102078046
5078000000.0 0.5300711090020773 -0.936534127224983
5081000000.0 0.5040956363501942 -0.8959782436509848
5084000000.0 0.607687454646374 -0.9337963208725875
5088000000.0 0.5906417517508686 -0.8798519574237604
5091000000.0 0.5407039417554671 -0.8950547680269356
5094000000.0 0.5590756111122545 -0.8894793761733117
5097000000.0 0.5878709220487075 -0.8785775530029102
5100000000.0 0.5717516901739959 -0.8765630362230145
5103000000.0 0.5383673208211313 -0.9069799251289733
5106000000.0 0.6261039926119958 -0.9186102379033942
5109000000.0 0.5484538175249948 -0.8667700826752069
5112000000.0 0.5392081475185191 -0.9110550523332481
5116000000.0 0.5396041965428897 -0.9164913677195766
5119000000.0 0.5681807093472395 -0.8810273498711465
5122000000.0 0.5846503792446445 -0.9156607712635341
5125000000.0 0.5485590681898714 -0.8661549367229531
5128000000.0 0.5252348785335212 -0.9316893087355564
5131000000.0 0.5018902993335056 -0.8752222115563861
5134000000.0 0.5581383254571276 -0.8807551008343925
5138000000.0 0.5770405149745729 -0.8931858505988128
5141000000.0 0.609805184639995 -0.8771371621552383
5144000000.0 0.6210014154018133 -0.8915371631756096
5147000000.0 0.608881120011012 -0.9052424258311241
5150000000.0 0.5851196020711185 -0.8483403404384824
5153000000.0 0.5642010478637454 -0.9168448420281923
5156000000.0 0.5794106774020203 -0.8914768575958045
5159000000.0 0.593681408700738 -0.9298197258366716
5162000000.0 0.5513632993987533 -0.8866067394616466
5166000000.0 0.5947398167837497 -0.9120339099455091
5169000000.0 0.5677679586663252 -0.8984148920522359
5172000000.0 0.5979699835539873 -0.8969853727803949
5175000000.0 0.5786152871030319 -0.9111395014843784
5178000000.0 0.570568369504382 -0.8640736785293718
