! Created with skrf 1.8.0 (http://scikit-rf.org).
# Hz S RI R 50.0 
!freq ReS11 ImS11
4000000000.0 0.47273331048782874 -0.8752607521022523
4003000000.0 0.5466032755627764 -0.925120080346497
4006000000.0 0.470101742338636 -0.902116507641272
4009000000.0000005 0.518741159243563 -0.8550255521041578
4011999999.9999995 0.5695842797896218 -0.8659316350307968
4016000000.0 0.5470328627655049 -0.9534471688019531
4019000000.0 0.5218311915487591 -0.9157872174073991
4022000000.0000005 0.5734939646671118 -0.8312270533932664
4025000000.0000005 0.44979246411113305 -0.946155447526692
4027999999.9999995 0.495719672368127 -0.936984467365384
4030999999.9999995 0.4530637641071069 -0.8690737231568326
4034000000.0 0.5058482260521799 -0.8816588483399976
4038000000.0000005 0.4670981779469523 -0.9331061824106218
4041000000.0000005 0.5050272979749743 -0.8964873638703565
4043999999.9999995 0.5126430098262087 -0.9287069269434041
4046999999.9999995 0.5362856582976115 -0.9124324598124198
4050000000.0 0.5131936886721274 -0.9410720364486765
4053000000.0 0.473381947036131 -0.9038357518461477
4056000000.0 0.5107262390679456 -0.930996827042458
4059000000.0 0.4833003326581079 -0.8725714657577562
4062000000.0000005 0.4874457996881776 -0.9163990197709414
4066000000.0 0.4950730389930904 -0.8834207989636851
4069000000.0 0.49602142418861933 -0.9265478522754839
4072000000.0 0.5664465057062585 -0.8885591068784512
4075000000.0 0.5708674903799582 -0.9191657474205495
4078000000.0000005 0.5012502677321874 -0.9181783102344188
4081000000.0000005 0.5413711126841396 -0.8925330163093909
4083999999.9999995 0.5176523618198792 -0.933609641453278
4088000000.0 0.5239383087222065 -0.8582044836486461
4091000000.0 0.5343856712710477 -0.9298768162287002
4094000000.0000005 0.519143324917088 -0.9125914494496183
4097000000.0000005 0.5059426349103702 -0.8836634011338561
4099999999.9999995 0.5087551876872198 -0.9188106835117019
4102999999.9999995 0.5522249293672457 -0.9049330202186767
4106000000.0 0.5095522759372135 -0.9050875748043523
4109000000.0 0.49063226178990166 -0.9026146089858543
4112000000.0 0.45985744787945365 -0.876819151003586
4115999999.9999995 0.5507686856682161 -0.8946443347564901
4119000000.0 0.517245062955413 -0.9028659116107094
4122000000.0 0.47883957402781563 -0.9314096794089882
4125000000.0 0.4806160343229269 -0.9383160360352645
4128000000.0 0.5240531225645163 -0.8503441901741695
4131000000.0 0.5070678325206991 -0.9130885420574918
4134000000.0000005 0.5585093860599722 -0.8866237569002307
4138000000.0 0.49017114215376106 -0.8550440568244615
4141000000.0 0.4933742083260851 -0.8943762691347545
4144000000.0 0.5574683214128281 -0.9237270627799131
4147000000.0000005 0.4922683929291322 -0.8741920736114592
4150000000.0000005 0.5466814630086403 -0.9085709776741548
4152999999.9999995 0.5316843527685939 -0.8746539819064004
4155999999.9999995 0.5240397506735929 -0.8916754077785829
4159000000.0 0.5154164825877898 -0.8787437187545307
4162000000.0 0.5301796424918087 -0.9085222275310948
4166000000.0000005 0.5348354166838216 -0.8947827571113175
4168999999.9999995 0.522582372004699 -0.8927543729283559
4171999999.9999995 0.5379993798467521 -0.8937628669917306
4175000000.0 0.5270901766218286 -0.892741150058694
4178000000.0 0.5211725865356223 -0.90146502125517
4181000000.0 0.5098710422721805 -0.9039525364754558
4184000000.0 0.5125366722258624 -0.8869799745360146
4187999999.9999995 0.512197550026935 -0.8954694964268368
4191000000.0 0.5268943869215404 -0.8609831692546771
4194000000.0 0.5003651321688294 -0.9070926756868586
4197000000.0 0.5420015145280119 -0.8879671161519455
4200000000.0 0.5233572909509353 -0.895793095058005
4203000000.0000005 0.5491709363260654 -0.8860837765634341
4206000000.0000005 0.5250760801588419 -0.897775392000421
4208999999.9999995 0.5192149173230254 -0.8672537836041257
4211999999.9999995 0.48034425327866515 -0.8960863119051083
4216000000.0 0.5380954709438059 -0.8851712345624078
4219000000.0000005 0.5201695053133522 -0.8806835285475033
4222000000.0000005 0.5032240563309298 -0.894080642755495
4224999999.9999995 0.5204170796108036 -0.8870079043146436
4227999999.9999995 0.515426022359514 -0.8918348296820949
4231000000.0 0.502074231227251 -0.8787573507378126
4234000000.0 0.5073575671629343 -0.8968951795175412
4238000000.0000005 0.4826234147980893 -0.8827279402183478
4240999999.9999995 0.498908161673147 -0.8929070340711924
4244000000.0 0.5031460521694849 -0.8828550234001366
4247000000.0 0.5190613795138872 -0.8965427668805501
4250000000.0 0.4932209530208782 -0.8860767775731837
4253000000.0 0.4738780042333298 -0.8607952339265447
4256000000.0 0.5291055379478972 -0.9021814307638414
4259000000.0000005 0.4889300604971022 -0.8683281208855229
4261999999.9999995 0.47723904737583955 -0.9013420115166886
4266000000.0 0.486789389886959 -0.91766685095915
4269000000.0 0.526830592234498 -0.8756230837078607
4272000000.0000005 0.4911357968961974 -0.8866678931281995
4275000000.0000005 0.49110182378430134 -0.8877931221915561
4277999999.9999995 0.532627657187883 -0.8916709387045294
4280999999.9999995 0.5181715321553063 -0.8725205330177326
4284000000.0 0.4710024322070583 -0.9145691897726679
4288000000.0000005 0.5282682860256337 -0.8817183285687185
4291000000.0000005 0.4941921062491921 -0.8589211905688732
4293999999.9999995 0.5156549511518467 -0.866000242157543
4297000000.0 0.5227390940273116 -0.8781665930762554
4300000000.0 0.5144965370624099 -0.8751428792704297
4303000000.0 0.508755256218044 -0.8918757589569266
4306000000.0 0.534303829098634 -0.8915873438945705
4309000000.0 0.5062952844824917 -0.8670261914517581
4312000000.0 0.5367567009784417 -0.8718077591603832
4316000000.0 0.5135563092847947 -0.8950275899503741
4319000000.0 0.5010544849751237 -0.8647663578296146
4322000000.0 0.4802028387824763 -0.8892963773671694
4325000000.0 0.5108481996412884 -0.8608485920171242
4328000000.0 0.4760908094326179 -0.8683283317089217
4331000000.0 0.4657014874263291 -0.893124795521857
4334000000.0 0.516524998079155 -0.8927921785742555
4338000000.0 0.5015777794000111 -0.8834622244294645
4341000000.0 0.526653830133777 -0.8952351742569916
4344000000.0 0.5158919555966985 -0.8949950277072347
4347000000.0 0.47360256261119527 -0.9049903644332211
4350000000.0 0.4708536672551262 -0.8627720149738991
4353000000.0 0.5217907715627923 -0.8775550884103609
4356000000.0 0.46319153509065875 -0.8876962395186504
4359000000.0 0.45112865127304 -0.8435849838113894
4362000000.0 0.4460313043699733 -0.9084315990586949
4366000000.0 0.5036554532774542 -0.8937154847598068
4369000000.0 0.4826698331058238 -0.8609505764976139
4372000000.0 0.448052033543831 -0.8880852501129278
4375000000.0 0.49869760200510477 -0.866372264175723
4378000000.0 0.49355330232163147 -0.8803960302027887
4381000000.0 0.4952035380123724 -0.8805560661893304
4384000000.0 0.5093670317833524 -0.9431596627944132
4388000000.0 0.5000937425097752 -0.8640973958478062
4391000000.0 0.5138529289787931 -0.8998659653423458
4394000000.0 0.4632676751002497 -0.8768584826555407
4397000000.0 0.4805407599014616 -0.882244185177836
4400000000.0 0.48875132934029036 -0.9139089781154547
4403000000.0 0.4801678753651616 -0.903135164339359
4406000000.0 0.46900552473460844 -0.8909426659644654
4409000000.0 0.48561702130647566 -0.9137921885896121
4412000000.0 0.4334502495432706 -0.9063511525715781
4416000000.0 0.46257838844601695 -0.8940434913828332
4419000000.0 0.45744270763977357 -0.8995051890057176
4422000000.0 0.49080034079963764 -0.8640112315184891
4425000000.0 0.5173355980613716 -0.8925502213696126
4428000000.0 0.47181456031596425 -0.8974645451783689
4431000000.0 0.49961284802536443 -0.9120919634423211
4434000000.0 0.4827080091428198 -0.8804059549611156
4438000000.0 0.49066329739944187 -0.90010055692451
4441000000.0 0.5047567097403789 -0.902238537369797
4444000000.0 0.4856565433473934 -0.8639107891795985
4447000000.0 0.4681094615520405 -0.8909103306668618
4450000000.0 0.4833739270539742 -0.8618873660689028
4453000000.0 0.49151918896595703 -0.9236252934056001
4456000000.0 0.45615270256223783 -0.8796758320477212
4459000000.0 0.43735004469190386 -0.8640595813867656
4462000000.0 0.49876037893440256 -0.942996464915852
4466000000.0 0.4873904977953189 -0.9262774079100746
4469000000.0 0.49174778730371327 -0.8888673584332212
4472000000.0 0.4626459973542171 -0.926980798716766
4475000000.0 0.4686484951193632 -0.8749649175273893
4478000000.0 0.46810415849280324 -0.9404895599988736
4481000000.0 0.44693057089361604 -0.9005167515201928
4484000000.0 0.42716914847308735 -0.9268980020421811
4488000000.0 0.4420613612210013 -0.8908043421548525
4491000000.0 0.48302028299369887 -0.879579373727206
4494000000.0 0.45940734726618015 -0.872343346373855
4497000000.0 0.4897922700090421 -0.8782755253792109
4500000000.0 0.4595034738929673 -0.8888810919797108
4503000000.0 0.48278899643198203 -0.9093600258991587
4506000000.0 0.44878454881230934 -0.878027803726863
4509000000.0 0.4757916128858403 -0.8882929070980498
4512000000.0 0.4525913032168248 -0.8970537080841655
4516000000.0 0.48447898948605206 -0.9081882797540217
4519000000.0 0.458137185502135 -0.8845564471383214
4522000000.0 0.4585535227076591 -0.8869692234396646
4525000000.0 0.49473914674663816 -0.8828339324855983
4528000000.0 0.46666054690060893 -0.9194279901555112
4531000000.0 0.4855527554197356 -0.8967606063857537
4534000000.0 0.4485665153257614 -0.8794367962922607
4538000000.0 0.4533293569631309 -0.8782350061549348
4541000000.0 0.40846271229448416 -0.9084725410607082
4544000000.0 0.4590855435256436 -0.8936320784011148
4547000000.0 0.4613558692811881 -0.8861374863933011
4550000000.0 0.43890163685916705 -0.9225893105625339
4553000000.0 0.454443446642388 -0.9069859995038988
4556000000.0 0.4339149409802177 -0.8893806127254817
4559000000.0 0.4458809247103098 -0.9079521502892741
4562000000.0 0.4563157677980553 -0.9058742105906512
4566000000.0 0.4399975617052986 -0.9165585574874513
4569000000.0 0.4353978936152192 -0.9064258878789335
4572000000.0 0.44836726405846183 -0.9053633324739305
4575000000.0 0.4428646332116384 -0.9185755083961806
4578000000.0 0.46059764078819554 -0.9254212629844271
4581000000.0 0.44028200587987953 -0.9041933215588163
4584000000.0 0.44763215262764755 -0.9003814834597608
4588000000.0 0.4701933428190828 -0.9209358538726591
4591000000.0 0.46004247888543126 -0.8987881336020397
4594000000.0 0.4258127519411882 -0.8943131919986754
4597000000.0 0.44307497077119606 -0.9154232956068125
4600000000.0 0.4179108730594713 -0.9063514891347102
4603000000.0 0.44864109319656154 -0.9153810437138207
4606000000.0 0.45961341896564184 -0.9134816388257854
4609000000.0 0.4433552156790279 -0.9127930513039175
4612000000.0 0.4502198249251142 -0.9115950794666002
4616000000.0 0.44696211167770705 -0.9027902980189914
4619000000.0 0.43901915180493173 -0.906163118849886
4622000000.0 0.4223470627524526 -0.9087948508529677
4625000000.0 0.4092973198709262 -0.9069330569888815
4628000000.0 0.4762539520244419 -0.9111804697808275
4631000000.0 0.40656404494752296 -0.9061361070743482
4634000000.0 0.43690978653176427 -0.909986879130999
4638000000.0 0.44289544354658517 -0.9121311610879923
4641000000.0 0.44877022559301727 -0.9152982491784547
4644000000.0 0.44196052319382684 -0.9013444035643721
4647000000.0 0.4309249167734509 -0.910977080951477
4650000000.0 0.42201723090430576 -0.9122292983143889
4653000000.0 0.4581593198296894 -0.9281118312252508
4656000000.0 0.4280093836498584 -0.9285398123226032
4659000000.0 0.4353041995095721 -0.9156369099518147
4662000000.0 0.43365113585722065 -0.9144606542886756
4666000000.0 0.4398384676469877 -0.9161736542358252
4669000000.0 0.4462339537385201 -0.9230887626893449
4672000000.0 0.43611088976552836 -0.9395301283317582
4675000000.0 0.4047074691636195 -0.9326213927140219
4678000000.0 0.4126356013598662 -0.9019668645500974
4681000000.0 0.41145683510767317 -0.947348265104193
4684000000.0 0.421497913918666 -0.9559080423610813
4688000000.0 0.4164300546624096 -0.9441563166452325
4691000000.0 0.4585194075355263 -0.9423363284933716
4694000000.0 0.43864542557089603 -0.9044460981556566
4697000000.0 0.40021380407469315 -0.8813960012186848
4700000000.0 0.4269062232385413 -0.9147424119483802
4703000000.0 0.4317724145252196 -0.8887778498599993
4706000000.0 0.4230979098686645 -0.9216157619615313
4709000000.0 0.39700670235784685 -0.9162777735219944
4712000000.0 0.4079008070356555 -0.9298229939595208
4716000000.0 0.4502588379529072 -0.9406381232218463
4719000000.0 0.46046664876255117 -0.9406550210022521
4722000000.0 0.44396271492500705 -0.9136889170946745
4725000000.0 0.4451776233669354 -0.9443397517999719
4728000000.0 0.40967772089851484 -0.9282188625386038
4731000000.0 0.4352561449166542 -0.9537092401428714
4734000000.0 0.46776968944519004 -0.9065680427255789
4738000000.0 0.47133485725296725 -0.9532226004925454
4741000000.0 0.4353112096619294 -0.9462835590091163
4744000000.0 0.4177313128864678 -0.9546464422856998
4747000000.0 0.44404053833619594 -0.9015948307017747
4750000000.0 0.43624735205071336 -0.9467101389270135
4753000000.0 0.4711324526357534 -0.9126554953173525
4756000000.0 0.4414642044446519 -0.940151401988813
4759000000.0 0.4566537087767506 -0.9602234981972756
4762000000.0 0.40383580393869467 -0.9745257657905245
4766000000.0 0.4081674374267392 -0.9214163487084279
4769000000.0 0.42729240807991287 -0.9291063727773637
4772000000.0 0.4172590815949729 -0.9548183178111165
4775000000.0 0.43328920049023667 -1.0075835262222146
4778000000.0 0.3965072043913833 -0.9353710267940812
4781000000.0 0.4244107471760865 -0.9351909938993882
4784000000.0 0.4299105643305241 -0.9115490735001917
4788000000.0 0.4249932466702353 -0.954453167026667
4791000000.0 0.43162735710929945 -0.9616683397543141
4794000000.0 0.439972870672646 -0.9712105080715447
4797000000.0 0.41036768836128357 -0.9330560042780571
4800000000.0 0.3936148165248261 -0.9105971710324304
4803000000.0 0.38304418805521584 -0.9464792787766874
4806000000.0 0.4304285301630318 -0.9559881341833318
4809000000.0 0.3623722417480648 -0.9581078306384471
4812000000.0 0.4053504509002376 -0.9398136026798501
4816000000.0 0.4498408968183795 -0.9216975796533684
4819000000.0 0.4467793610443055 -0.934956012881532
4822000000.0 0.4608420262638874 -0.9701974096223144
4825000000.0 0.4721878414960141 -0.9563296492030477
4828000000.0 0.41741386216682486 -0.9359797364251694
4831000000.0 0.37772593756732953 -0.9698915827394958
4834000000.0 0.4560263390017695 -0.9296589184664953
4838000000.0 0.42109948016644955 -0.9589052472662141
4841000000.0 0.4083272587305503 -0.9273348839718911
4844000000.0 0.46444489060892935 -0.934569023550069
4847000000.0 0.43701738285470276 -0.8898775204291082
4850000000.0 0.4153448683039093 -0.9919017938676719
4853000000.0 0.41405579999742304 -0.919179775790268
4856000000.0 0.39506503883896527 -0.921376612089433
4859000000.0 0.4206217404120638 -0.9977168969226979
4862000000.0 0.4390360988020932 -0.9004461185723034
4866000000.0 0.39722816906065644 -0.9611840926726024
4869000000.0 0.3827769344343568 -0.9492359715686972
4872000000.0 0.41164235074829136 -0.971400014657924
4875000000.0 0.49095543379230944 -0.9681178512485084
4878000000.0 0.4217926089648834 -0.9504944610088477
4881000000.0 0.4164293377943613 -0.9990044319613465
4884000000.0 0.4455421945995572 -0.932910205035036
4888000000.0 0.4573996594397818 -0.9240174755500323
4891000000.0 0.48165911248292276 -0.9436948784673329
4894000000.0 0.42139626462038177 -0.9440109463320827
4897000000.0 0.43673690739157556 -0.9296622381085581
4900000000.0 0.44784388256666186 -0.9783374528662943
4903000000.0 0.4310939340394077 -0.9563120282022075
4906000000.0 0.4246938223337137 -0.9624612841121438
4909000000.0 0.424757696638372 -0.9592415905059984
4912000000.0 0.4151964479640513 -0.9610682414740911
4916000000.0 0.4626843293357146 -0.9657427656345747
4919000000.0 0.47301936962733054 -0.9738495670254615
4922000000.0 0.4360021750237859 -0.9366762242319101
4925000000.0 0.38978272216054777 -0.9488770190870089
4928000000.0 0.47746005835142363 -0.93064938149851
4931000000.0 0.4534581323157037 -0.949168055271572
4934000000.0 0.43138504373051806 -0.8963918248049092
4938000000.0 0.43165189157022965 -0.9537378449110363
4941000000.0 0.4242176972983277 -0.9060349772161489
4944000000.0 0.435713565993682 -0.8870315393283956
4947000000.0 0.41074219962096414 -0.9615888684422942
4950000000.0 0.40057784783319395 -0.9209081215894704
4953000000.0 0.3613610777712611 -0.9793114245025616
4956000000.0 0.39201556304961926 -0.9552348788529387
4959000000.0 0.38805173272231175 -0.9282392905815539
4962000000.0 0.4500417292669027 -0.9819775811342297
4966000000.0 0.45177753248316765 -0.9661734078654993
4969000000.0 0.4548653221623289 -0.9749976641439648
4972000000.0 0.4309319476539615 -0.9586165270555438
4975000000.0 0.4362031685297102 -0.9420715592089461
4978000000.0 0.413138728317056 -0.9203594134000836
4981000000.0 0.4398930374516347 -0.9593684095692002
4984000000.0 0.41621952186027505 -0.9068885132039409
4988000000.0 0.4459972793935645 -0.9565742742577605
4991000000.0 0.5240099431207388 -0.9431586831473021
4994000000.0 0.44301098561252494 -0.9295756787589846
4997000000.0 0.40436031811785667 -0.9493567582756459
5000000000.0 0.49925582801375123 -0.9550999872704643
5003000000.0 0.45756135667199704 -0.9611314647116685
5006000000.0 0.4513445808915263 -0.9580504096172293
5009000000.0 0.43777883062420764 -0.9420994680215685
5012000000.0 0.4102167676284096 -0.9898889182161897
5016000000.0 0.4987269248066992 -0.9572816362636598
5019000000.0 0.42290311973868977 -0.9583682823221844
5022000000.0 0.43469714889557654 -0.9587213338214855
5025000000.0 0.44646033344435115 -1.0177612972274424
5028000000.0 0.4227482741876755 -0.9621617584851829
5031000000.0 0.438488790721792 -0.9402805860140266
5034000000.0 0.421236075433351 -0.99174805811416
5038000000.0 0.4034330303605403 -0.9173610491795223
5041000000.0 0.49277871081190067 -0.948298186540726
5044000000.0 0.4496632909897147 -0.9269456895545973
5047000000.0 0.4407111305386035 -0.958756309985334
5050000000.0 0.4847355116841766 -0.8717894931244333
5053000000.0 0.45229086857944617 -0.9630133033491157
5056000000.0 0.4843115693846743 -0.9341559464771088
5059000000.0 0.47781900597566124 -0.8686019295109336
5062000000.0 0.4272710728106821 -0.9562961484385206
5066000000.0 0.4789319223253252 -0.8885388777973438
5069000000.0 0.41259557153076476 -0.9326847790803727
5072000000.0 0.42220421892171006 -0.9308402736828918
5075000000.0 0.4657367611649507 -0.9066585452679401
5078000000.0 0.40452104628110525 -0.9470184042755465
5081000000.0 0.4094770609736316 -0.919705416061436
5084000000.0 0.4232979439700005 -0.9493972823594343
5088000000.0 0.45785357384421116 -0.9110458580630599
5091000000.0 0.36037710803724027 -0.974120885017985
5094000000.0 0.46576524883564363 -0.9503784116718994
5097000000.0 0.48009448340796174 -0.9177645862619339
5100000000.0 0.43802852722727814 -0.9557460508425129
5103000000.0 0.4060263439260495 -0.9505725407116363
5106000000.0 0.4749222924175304 -0.9694284383588625
5109000000.0 0.49565749218147565 -0.9346702148858024
5112000000.0 0.407877059965893 -0.9742425702288843
5116000000.0 0.44682479177877693 -0.9127838640861186
5119000000.0 0.5179764947071943 -0.9525974521532983
5122000000.0 0.44373650885160465 -0.9238510096617454
5125000000.0 0.41596856879140076 -0.9198933989149245
5128000000.0 0.46204782673555905 -0.9316544792243677
5131000000.0 0.4494798237017731 -0.9171527022796824
5134000000.0 0.42397274426140186 -0.9449588508182727
5138000000.0 0.46065418144488457 -0.9200718663821593
5141000000.0 0.5150478633360904 -0.9090462783778264
5144000000.0 0.43268850795605307 -0.947044012189376
5147000000.0 0.4490132845268694 -0.971719089902169
5150000000.0 0.4769966566783513 -0.9902507234019852
5153000000.0 0.4638187087350173 -0.9533324150534531
5156000000.0 0.4673924607088679 -0.9582171145502902
5159000000.0 0.483286960864137 -0.991662068497881
5162000000.0 0.4085194002208674 -0.9601113024618921
5166000000.0 0.4352493994681299 -0.9375221761937621
5169000000.0 0.43069832536964564 -0.9534764360896886
5172000000.0 0.48016506329411535 -0.9276049013090717
