! Created with skrf 1.8.0 (http://scikit-rf.org).
# Hz S RI R 50.0 
!freq ReS11 ImS11
4000000000.0 0.4864633099633553 -0.9034357728331193
4003000000.0 0.5426958705513117 -0.952079208428813
4006000000.0 0.4662597086457038 -0.9216466796367281
4009000000.0000005 0.5208029188864703 -0.8712626114574568
4011999999.9999995 0.5340414523957422 -0.8777711759494069
4016000000.0 0.4716148880157689 -0.9232046089860945
4019000000.0 0.49870676267920433 -0.928085708154516
4022000000.0000005 0.6218179478095123 -0.8859344149842445
4025000000.0000005 0.440777876292062 -0.9401612287477689
4027999999.9999995 0.4845992188883457 -0.9398015147713625
4030999999.9999995 0.4823198100385413 -0.8692505786599938
4034000000.0 0.4615660005486766 -0.8777708248012016
4038000000.0000005 0.49578008154880476 -0.9290883388342889
4041000000.0000005 0.4998735262519538 -0.9005899184298747
4043999999.9999995 0.5125734398006072 -0.9584924288937274
4046999999.9999995 0.5095050132229854 -0.9218412349925186
4050000000.0 0.4974627805129952 -0.9161958036398951
4053000000.0 0.48492556654014274 -0.899268630494554
4056000000.0 0.4911424031201237 -0.914265964106583
4059000000.0 0.48997615289414537 -0.8938890172496134
4062000000.0000005 0.4938734278972653 -0.9237815628436898
4066000000.0 0.4799717514711933 -0.8445423793599914
4069000000.0 0.5164413764096404 -0.9336869044343459
4072000000.0 0.5352230675168793 -0.8439238978894298
4075000000.0 0.507963284293793 -0.8930306318550141
4078000000.0000005 0.49814609620629446 -0.8865057593676308
4081000000.0000005 0.5765707074598191 -0.8675695294708925
4083999999.9999995 0.49067059676977537 -0.9305771529075084
4088000000.0 0.5307692805545569 -0.8338332208156056
4091000000.0 0.5437621070592623 -0.9201946608893389
4094000000.0000005 0.5001617357968546 -0.8819696114672894
4097000000.0000005 0.48344285064456793 -0.9099363386591749
4099999999.9999995 0.4937752715743399 -0.9151065280439631
4102999999.9999995 0.5139040713478619 -0.9316353359713079
4106000000.0 0.4836093937072322 -0.9173601253130286
4109000000.0 0.502126464179338 -0.9449676871110023
4112000000.0 0.47103367656355066 -0.8862505257897372
4115999999.9999995 0.4987169308685447 -0.9246487090387571
4119000000.0 0.5119138694967493 -0.9226454857402513
4122000000.0 0.44523171746026136 -0.9104952035700121
4125000000.0 0.4971296835539306 -0.9220039302230708
4128000000.0 0.5185874787028859 -0.8276802298368617
4131000000.0 0.4697966896026118 -0.8669789543999041
4134000000.0000005 0.5017594218045657 -0.8988482690383702
4138000000.0 0.45626191765633695 -0.8978036940144379
4141000000.0 0.5113847217755763 -0.9083335299389664
4144000000.0 0.5211779208167593 -0.877984149566205
4147000000.0000005 0.5125092095538163 -0.9119469905658044
4150000000.0000005 0.5179580255895959 -0.9229202495571155
4152999999.9999995 0.48209102376173785 -0.8858353610366846
4155999999.9999995 0.5360160790320402 -0.9051101842346315
4159000000.0 0.5289676200416574 -0.8683096841085897
4162000000.0 0.5000264893580227 -0.8886444570164225
4166000000.0000005 0.46874603461650544 -0.9291791838185167
4168999999.9999995 0.47126462616795517 -0.923028238007547
4171999999.9999995 0.5390286738325613 -0.8888602703703458
4175000000.0 0.5225436885558504 -0.8951137223918685
4178000000.0 0.5148257223114723 -0.9035475534167199
4181000000.0 0.4920195684620764 -0.9094973569930415
4184000000.0 0.49620132544547974 -0.8930235082377618
4187999999.9999995 0.46835790836270796 -0.9052026949496208
4191000000.0 0.5256447470112131 -0.881133940354493
4194000000.0 0.4861355956779868 -0.8705521734603459
4197000000.0 0.5038727337901726 -0.8775954568379861
4200000000.0 0.5104452828939896 -0.8830668664956759
4203000000.0000005 0.5169667572876653 -0.9059659283545854
4206000000.0000005 0.49553465754919157 -0.9043609844375485
4208999999.9999995 0.5110308284775317 -0.8837925067143848
4211999999.9999995 0.4746337297078771 -0.9174213976748639
4216000000.0 0.5066282115822116 -0.8899025468591696
4219000000.0000005 0.5204979923443855 -0.9038733185316123
4222000000.0000005 0.4855752984442092 -0.9119931485037737
4224999999.9999995 0.48894981576239227 -0.8767710759682519
4227999999.9999995 0.4930353588679268 -0.8850694179848941
4231000000.0 0.4953598317092975 -0.9053544158993578
4234000000.0 0.5007764289394692 -0.9085863861250585
4238000000.0000005 0.4815038255898495 -0.8968424874714621
4240999999.9999995 0.46857523568776394 -0.8971825861420696
4244000000.0 0.49589473784555804 -0.8764600260003218
4247000000.0 0.4945622810460675 -0.8953614214704664
4250000000.0 0.48214743072330324 -0.8779310229487592
4253000000.0 0.4707365067661116 -0.8705073969622898
4256000000.0 0.5020166447731895 -0.9003947376511395
4259000000.0000005 0.4617322627684729 -0.8482691644070047
4261999999.9999995 0.471860105599758 -0.8800932369863136
4266000000.0 0.4598948855677386 -0.9086353616599103
4269000000.0 0.49344380561185497 -0.8887307427255143
4272000000.0000005 0.4869587461397904 -0.8757328516840639
4275000000.0000005 0.4903192914135628 -0.9073257120392673
4277999999.9999995 0.49499795910253136 -0.9061677491833071
4280999999.9999995 0.49469499682173707 -0.8913448117787462
4284000000.0 0.45984509167179705 -0.910275098317539
4288000000.0000005 0.5401117261042641 -0.8734881265400386
4291000000.0000005 0.48279279581686524 -0.8697654948399487
4293999999.9999995 0.4718383394830713 -0.8846047074772527
4297000000.0 0.5210332196762336 -0.8469847049267508
4300000000.0 0.5006086605853795 -0.8824795249362957
4303000000.0 0.47766952807876895 -0.8860470555507464
4306000000.0 0.5044784181569392 -0.8964808787519362
4309000000.0 0.46508604537090825 -0.8764005192280026
4312000000.0 0.5417840316457381 -0.8744680748898757
4316000000.0 0.5084022979382907 -0.8725164554556597
4319000000.0 0.5344056008078977 -0.8797064166917927
4322000000.0 0.4658113884623865 -0.8844479176871317
4325000000.0 0.49015941541190744 -0.9060322645971998
4328000000.0 0.47550600378384456 -0.869253682385163
4331000000.0 0.4657831384130671 -0.899593975995325
4334000000.0 0.4833322336706061 -0.9125255640540554
4338000000.0 0.5138909473242167 -0.876907710319356
4341000000.0 0.531595331662329 -0.914805090201936
4344000000.0 0.5045699259429861 -0.9163915317040972
4347000000.0 0.46012729924524237 -0.9002958821848511
4350000000.0 0.44706768968660354 -0.8605875234716225
4353000000.0 0.48480722098039186 -0.8618620557888207
4356000000.0 0.4378840902067819 -0.8921388658623356
4359000000.0 0.4506181450910812 -0.8431430131055991
4362000000.0 0.4451468339771091 -0.9353380910210064
4366000000.0 0.46936094330589645 -0.9198274318574731
4369000000.0 0.46418755517838783 -0.86217880349351
4372000000.0 0.43765765981692406 -0.8941403004610222
4375000000.0 0.48637764295479474 -0.8819905677244988
4378000000.0 0.4576605142787197 -0.885160664676216
4381000000.0 0.46355709004006623 -0.8651780335723938
4384000000.0 0.49934818698602135 -0.9458496011631093
4388000000.0 0.4867793830203464 -0.8714302582555458
4391000000.0 0.48162601044946296 -0.885476821193815
4394000000.0 0.457008286842437 -0.8762959731905117
4397000000.0 0.4797884416396808 -0.8948384837239248
4400000000.0 0.48861940978735635 -0.9098709771518282
4403000000.0 0.47599542493174596 -0.8973378228545246
4406000000.0 0.4565089529165532 -0.9016441763636105
4409000000.0 0.4831220810879396 -0.9374780542243415
4412000000.0 0.42708751677657253 -0.9202073578860414
4416000000.0 0.458408021120189 -0.8928651189717838
4419000000.0 0.45155345436491645 -0.9112426682042867
4422000000.0 0.4766627730260784 -0.887457338272237
4425000000.0 0.49933060909411076 -0.906608653754615
4428000000.0 0.4662146172414998 -0.8943036776297915
4431000000.0 0.47387384960388546 -0.9150769911093093
4434000000.0 0.4415258588228941 -0.8925798653484694
4438000000.0 0.4786359541798139 -0.9149108518569526
4441000000.0 0.4809628336518412 -0.9175430429011098
4444000000.0 0.4565076184139807 -0.8740432903198055
4447000000.0 0.44932445421074146 -0.8932432860257171
4450000000.0 0.4725462832211945 -0.8769964388218984
4453000000.0 0.4519836458668997 -0.9150804140658924
4456000000.0 0.450444346212441 -0.8827217746353764
4459000000.0 0.4218332994681991 -0.8695111694920074
4462000000.0 0.48442864072336295 -0.9346497311964566
4466000000.0 0.46628167130917214 -0.9351279624849862
4469000000.0 0.48398051511575046 -0.8968719151392491
4472000000.0 0.4577604306058521 -0.9251526686656593
4475000000.0 0.4576574958125666 -0.8773763569974052
4478000000.0 0.45215618569929833 -0.9320758234848046
4481000000.0 0.43056261070198265 -0.8781704107902697
4484000000.0 0.4110960527307764 -0.9230303340116404
4488000000.0 0.4388764357060349 -0.904754052224013
4491000000.0 0.4459944094433944 -0.9162084330099847
4494000000.0 0.45252439157137836 -0.8889221747440641
4497000000.0 0.46627159792394307 -0.9028957666120876
4500000000.0 0.4758599401833378 -0.898084908908584
4503000000.0 0.46697456144418975 -0.9061377543801026
4506000000.0 0.4283887389752679 -0.8982264078874277
4509000000.0 0.4338414411909818 -0.8799885961201341
4512000000.0 0.4152662336931689 -0.8950522136736206
4516000000.0 0.4380166797754664 -0.912176744762092
4519000000.0 0.4478111013153055 -0.8992238218150017
4522000000.0 0.4517705933418681 -0.9104584386344284
4525000000.0 0.4654443828442336 -0.8970723070793216
4528000000.0 0.44192955821292784 -0.9057066688489402
4531000000.0 0.47947534043530066 -0.8920276655079257
4534000000.0 0.4451446653709142 -0.9081380420406074
4538000000.0 0.45730704468794053 -0.8985405513301234
4541000000.0 0.41777838751811686 -0.9019113407353694
4544000000.0 0.44461236824277495 -0.9053999734279841
4547000000.0 0.4506531479357043 -0.8820671087504537
4550000000.0 0.42465546430044726 -0.9233438700020198
4553000000.0 0.4312027489309356 -0.9265802623969568
4556000000.0 0.42528479480118225 -0.8949897502518711
4559000000.0 0.4269567929490454 -0.9222850210750402
4562000000.0 0.4410158321459241 -0.9249356754117419
4566000000.0 0.4385829703255105 -0.9282814908214949
4569000000.0 0.4310603646676882 -0.8945297041792073
4572000000.0 0.41744505947877986 -0.9199046789263909
4575000000.0 0.42264725305670814 -0.9238815529212046
4578000000.0 0.4595961684265588 -0.9106203286776354
4581000000.0 0.4018692217659741 -0.9231439192356725
4584000000.0 0.4175361775443823 -0.9151040812675089
4588000000.0 0.4464499876221691 -0.9204947736623375
4591000000.0 0.4271915998092397 -0.914989570468278
4594000000.0 0.41962565558482673 -0.9228518254210114
4597000000.0 0.41998491579089414 -0.9298199663632236
4600000000.0 0.3849586402689378 -0.9212056914718427
4603000000.0 0.4169989506334486 -0.9302611396400702
4606000000.0 0.42687547260387226 -0.9305884735750596
4609000000.0 0.4299615195625358 -0.9107752918205905
4612000000.0 0.4239535952783099 -0.9192643307641412
4616000000.0 0.4047693125918399 -0.9082972579474383
4619000000.0 0.4430753361917634 -0.9171729530877929
4622000000.0 0.41959189448492995 -0.9380463896675192
4625000000.0 0.39875224597751757 -0.9035703633423331
4628000000.0 0.41233212740382175 -0.9136523566779585
4631000000.0 0.41387175927735853 -0.9426674877920872
4634000000.0 0.41580609770588095 -0.9159047472371341
4638000000.0 0.4193536340772034 -0.9261463439552826
4641000000.0 0.43249086970387696 -0.9133843204181695
4644000000.0 0.42651099981002466 -0.9113964601905146
4647000000.0 0.43943923179943734 -0.9266575362158885
4650000000.0 0.402663585921151 -0.9130883130960816
4653000000.0 0.44688767115882866 -0.9315395846012047
4656000000.0 0.4008279928169985 -0.9191003016360593
4659000000.0 0.3991683061636454 -0.9152553179329296
4662000000.0 0.4307787273157946 -0.9387443299231049
4666000000.0 0.4018851135614079 -0.9190103580376373
4669000000.0 0.41534169409109456 -0.9187828711415083
4672000000.0 0.39229879724776173 -0.9423607208309138
4675000000.0 0.37838489942724646 -0.9433356187161076
4678000000.0 0.40337884813106983 -0.9329330878646065
4681000000.0 0.39514157228080055 -0.940792599601189
4684000000.0 0.38926561978933094 -0.9317015709229056
4688000000.0 0.4026225542285575 -0.9150759822440041
4691000000.0 0.41162381183305674 -0.9269743910685825
4694000000.0 0.41805084677801596 -0.9119237779942219
4697000000.0 0.36655742378046435 -0.912272949099969
4700000000.0 0.40009263952758056 -0.9288262548687163
4703000000.0 0.43271186163766695 -0.8883929559160555
4706000000.0 0.41238090891040685 -0.9224641458624849
4709000000.0 0.3906925659063377 -0.9301797425765422
4712000000.0 0.40146589317695275 -0.9503073789412421
4716000000.0 0.41203283000338947 -0.9336266831436308
4719000000.0 0.440497133835316 -0.9347343479264134
4722000000.0 0.44142703749864515 -0.9425560801650054
4725000000.0 0.3879472504058984 -0.9072822111287231
4728000000.0 0.39897661171638804 -0.9361191069862437
4731000000.0 0.3966346399099476 -0.9642828295629411
4734000000.0 0.42369945345745963 -0.9265548863442419
4738000000.0 0.4493545239175596 -0.968231929439219
4741000000.0 0.3883408766175327 -0.9943708813945761
4744000000.0 0.3942993369938725 -0.9298286299991001
4747000000.0 0.44010595476103087 -0.8891750757727841
4750000000.0 0.4231538714634127 -0.927115246768825
4753000000.0 0.39128956404556375 -0.9529728146801569
4756000000.0 0.41888925653004816 -0.96042896529498
4759000000.0 0.381989372362096 -0.9452908374977458
4762000000.0 0.3786652070730899 -0.9561131593902596
4766000000.0 0.4301815512233137 -0.9292480386534456
4769000000.0 0.4282318942104926 -0.9576645111643617
4772000000.0 0.4129395601145535 -0.9343019120065369
4775000000.0 0.40857036719500206 -0.9921753467185834
4778000000.0 0.39390946205428423 -0.9603738922761802
4781000000.0 0.40707035466837377 -0.9129825439196637
4784000000.0 0.4278938021295486 -0.9256716876145856
4788000000.0 0.37974019331873154 -0.9679415558990797
4791000000.0 0.3879912131996798 -0.9475493175959742
4794000000.0 0.43327053959621026 -0.9639897757903364
4797000000.0 0.3734562618090471 -0.9402371041737502
4800000000.0 0.39302223544362175 -0.9202049521314832
4803000000.0 0.35616523038423126 -0.9397850822377839
4806000000.0 0.4181208217824859 -0.972743440581879
4809000000.0 0.3479848789414992 -0.9387475071672481
4812000000.0 0.33808329932868175 -0.9431606804323436
4816000000.0 0.4002819762616844 -0.9045237446447296
4819000000.0 0.4106490711360814 -0.9615241470588121
4822000000.0 0.4023911264276965 -0.9637093719059946
4825000000.0 0.4502635844698635 -0.9567651655949224
4828000000.0 0.37698318005100245 -0.9471565508526724
4831000000.0 0.3517313443139639 -0.9835244262139691
4834000000.0 0.3992999545260152 -0.9342973006838481
4838000000.0 0.39789305072070696 -0.9841457271785368
4841000000.0 0.39158570784249436 -0.9629618096849354
4844000000.0 0.4527886838871824 -0.9311954789669805
4847000000.0 0.4070141713886623 -0.9050769225580472
4850000000.0 0.41161095071820386 -0.9783956612932897
4853000000.0 0.399965535502947 -0.9215824909201903
4856000000.0 0.3790227686050523 -0.9352053727344259
4859000000.0 0.3906342157122208 -0.9918054138098681
4862000000.0 0.43271858030306826 -0.9155888505725595
4866000000.0 0.3892749704234277 -0.9630870956577106
4869000000.0 0.4013762627661757 -0.9570444648324418
4872000000.0 0.37820296679606863 -1.0007874834441706
4875000000.0 0.4711916102681131 -0.9591071729013125
4878000000.0 0.40784587588102733 -0.9454682032122358
4881000000.0 0.40435158297761276 -1.0350394040686215
4884000000.0 0.4152128831249635 -0.9548116046217152
4888000000.0 0.44927260789003326 -0.9299523713672698
4891000000.0 0.43734410141701974 -0.9716480108219678
4894000000.0 0.3730495220381579 -0.9413614472312529
4897000000.0 0.4315285167292099 -0.9240378349534285
4900000000.0 0.430196727986331 -0.9714335621222661
4903000000.0 0.38628245143462725 -0.9361319299681768
4906000000.0 0.4086228328587789 -0.9799873577391388
4909000000.0 0.33706278412312557 -0.9780087049125774
4912000000.0 0.39410100603438686 -0.9848110938936258
4916000000.0 0.4372033632341101 -0.9600781728118671
4919000000.0 0.4471964357283701 -0.9720138489926277
4922000000.0 0.44753875289733125 -0.9352289683284023
4925000000.0 0.3868358196635822 -0.9447413782067046
4928000000.0 0.4632864573540349 -0.9362809121840752
4931000000.0 0.4403746773599098 -0.9506297079135229
4934000000.0 0.37916483097027787 -0.9180785692903564
4938000000.0 0.33994767012164157 -0.9750346973999562
4941000000.0 0.38318671709396823 -0.9052574072971427
4944000000.0 0.3962622245056485 -0.9112222204219403
4947000000.0 0.34459179961087305 -0.9223252935844851
4950000000.0 0.3764972393129167 -0.9148208468252333
4953000000.0 0.41322917385645785 -1.0430579006879628
4956000000.0 0.3780621418868986 -0.9840301538964501
4959000000.0 0.33431281140291863 -0.9723973118331513
4962000000.0 0.38629966270342486 -0.9643298526870435
4966000000.0 0.43212322655447366 -0.9701377367001829
4969000000.0 0.43091049700108863 -0.9962308795144035
4972000000.0 0.38323096943534185 -0.9707928577249669
4975000000.0 0.3905008475572219 -0.8961014979690278
4978000000.0 0.4108092963010137 -0.9781409249455701
4981000000.0 0.3577865384126923 -0.9807525076021983
4984000000.0 0.40577772389391165 -0.9437085259509668
4988000000.0 0.401651700468854 -0.9418432451293648
4991000000.0 0.4618037601555558 -0.9750343034413381
4994000000.0 0.3974801325828342 -0.9495737611350157
4997000000.0 0.35900199278111905 -0.951059933334435
5000000000.0 0.44538220736353634 -0.9791464714252075
5003000000.0 0.4300286269616973 -0.9680587429469243
5006000000.0 0.4349134198256117 -1.0017829251251524
5009000000.0 0.385483683864667 -0.9499473802452687
5012000000.0 0.3988726714112445 -0.9538807288704276
5016000000.0 0.4601180100234965 -0.9694846333753903
5019000000.0 0.38882465140390515 -0.9462590556501396
5022000000.0 0.3956832253807385 -0.9763386016238067
5025000000.0 0.4075553464773058 -1.0203087478159873
5028000000.0 0.40768391008258714 -0.9382054256653778
5031000000.0 0.41130177004200547 -0.9766650508155262
5034000000.0 0.37631156168793045 -0.9996801501773193
5038000000.0 0.3687155604029811 -0.9488232145223409
5041000000.0 0.4420980000427185 -0.9392558459912379
5044000000.0 0.4339891348797659 -0.9318527605852964
5047000000.0 0.42301066157756 -0.9471695619728575
5050000000.0 0.46118868262056983 -0.8961153524971693
5053000000.0 0.41004539694803704 -0.9832591133109146
5056000000.0 0.4224520019342485 -0.9401561174136576
5059000000.0 0.43792431247475555 -0.9297775250561664
5062000000.0 0.3669235901898941 -0.9812560720368597
5066000000.0 0.4381392614388491 -0.9324456136611987
5069000000.0 0.4457725018242125 -0.9680184706481187
5072000000.0 0.3741283718642473 -0.9403250312592587
5075000000.0 0.4295031467313722 -0.9755994609021674
5078000000.0 0.3948908550568922 -0.992585076761104
5081000000.0 0.3885472407276787 -0.9352615900716961
5084000000.0 0.4186207939214029 -0.9743667000339291
5088000000.0 0.4284561101093317 -0.9519193151910498
5091000000.0 0.3561572355554963 -0.9731576214560204
5094000000.0 0.43037013289398085 -0.9701781810366445
5097000000.0 0.4366633041158124 -0.9265776162684234
5100000000.0 0.4184300803309106 -0.9459614577077576
5103000000.0 0.4221482963071032 -0.9910272776570437
5106000000.0 0.4427108060490436 -0.9529286208085257
5109000000.0 0.4053355739514553 -0.9279063268300332
5112000000.0 0.33185725735194316 -0.9309521003753973
5116000000.0 0.3819875349994157 -0.940838811134245
5119000000.0 0.3875013647907612 -0.9897578817956847
5122000000.0 0.3919576621605271 -0.9444027373325752
5125000000.0 0.4623632003355894 -0.9384117538727957
5128000000.0 0.4589919085554954 -0.9906844440011139
5131000000.0 0.4267975898806272 -0.9704002769481954
5134000000.0 0.4318788268284085 -0.9733851872816729
5138000000.0 0.42363499214268197 -0.9418684846486899
5141000000.0 0.46969255205903376 -0.9566145624200315
5144000000.0 0.47632386295046353 -0.9452527382384129
5147000000.0 0.4417201351608633 -0.9848391422479224
5150000000.0 0.428338852868157 -0.9281229273564047
5153000000.0 0.4491618929587587 -0.9554611438258449
5156000000.0 0.4041343859527959 -0.9710656474199163
5159000000.0 0.4399716244414325 -0.9486237189745981
5162000000.0 0.38707171810468927 -0.9937991263558006
5166000000.0 0.4228618409439209 -0.9761259139075029
5169000000.0 0.4350584956909996 -0.9989629664468238
