! Created with skrf 1.8.0 (http://scikit-rf.org).
# Hz S RI R 50.0 
!freq ReS11 ImS11
4000000000.0 0.5234533408886394 -0.831604342715494
4003000000.0 0.5429308687365925 -0.8738701999631996
4006000000.0 0.5043632473201067 -0.8725541778510135
4009000000.0000005 0.5104417928834014 -0.8969214654880331
4011999999.9999995 0.5746728688498755 -0.8642272098550535
4016000000.0 0.5411635041807987 -0.9193202654263254
4019000000.0 0.5310573693878943 -0.8453391111703202
4022000000.0000005 0.5772998005437984 -0.8824580154136212
4025000000.0000005 0.480580497484098 -0.8899822817976775
4027999999.9999995 0.550087196457859 -0.8733497415802313
4030999999.9999995 0.557940854604547 -0.8038706699433191
4034000000.0 0.517744618949892 -0.842414169157836
4038000000.0000005 0.4786041656547265 -0.910316522583974
4041000000.0000005 0.5247960375859351 -0.8707539489862323
4043999999.9999995 0.6029254020073128 -0.9400155305634491
4046999999.9999995 0.570451349899205 -0.9044655010778512
4050000000.0 0.5307997226584982 -0.8805881491769498
4053000000.0 0.5120993692200514 -0.840719605302945
4056000000.0 0.539572145344946 -0.8846051627151474
4059000000.0 0.5435993873589207 -0.8415270681333186
4062000000.0000005 0.47897491277592885 -0.8597450590563293
4066000000.0 0.5157003175241623 -0.7958496046897553
4069000000.0 0.529216396686027 -0.9239145224982744
4072000000.0 0.5196482558594514 -0.8415505952530592
4075000000.0 0.5748155990431012 -0.9067278294221804
4078000000.0000005 0.5425338321601652 -0.9049436082137453
4081000000.0000005 0.6228577025210635 -0.8862594274686225
4083999999.9999995 0.5004512595075666 -0.905078170335355
4088000000.0 0.574596625446113 -0.8526472713960285
4091000000.0 0.5803615153069454 -0.9218339918462869
4094000000.0000005 0.5621428366168394 -0.8497539356944934
4097000000.0000005 0.5183486131788962 -0.8545070573457818
4099999999.9999995 0.5373592812957492 -0.8653502399617621
4102999999.9999995 0.5790353096790776 -0.8800607297229338
4106000000.0 0.5081497171982204 -0.8680146465393155
4109000000.0 0.5307489997730133 -0.8852678286716738
4112000000.0 0.530134233940003 -0.8781451294922252
4115999999.9999995 0.5929207816326645 -0.8431282634352928
4119000000.0 0.5361022749189968 -0.8875806660853883
4122000000.0 0.5479824939680696 -0.8929451010510339
4125000000.0 0.5043907301152509 -0.8846988782666667
4128000000.0 0.5229459829573505 -0.8187092140551722
4131000000.0 0.5517797014985725 -0.8652411082545398
4134000000.0000005 0.5823221573327562 -0.8539300613140902
4138000000.0 0.5289836857700865 -0.8566968781171863
4141000000.0 0.5206735409503935 -0.8687223388048795
4144000000.0 0.5881396757828583 -0.8720474757228239
4147000000.0000005 0.5221405722504009 -0.8741201985150685
4150000000.0000005 0.5764493438345636 -0.9005365134709757
4152999999.9999995 0.5232888002713619 -0.8813916723890338
4155999999.9999995 0.5823728161611765 -0.8650201285020156
4159000000.0 0.5321196851551391 -0.8468728406312129
4162000000.0 0.5473702014997004 -0.8365397046171161
4166000000.0000005 0.5504586188347874 -0.8586130523323263
4168999999.9999995 0.5483602649650049 -0.8644908063908024
4171999999.9999995 0.5700649695023208 -0.8644876169171147
4175000000.0 0.5786096612115591 -0.844514167306508
4178000000.0 0.5437455384923267 -0.8735571799014223
4181000000.0 0.5270868633873143 -0.8599016453648685
4184000000.0 0.5513913877082295 -0.8519795104477133
4187999999.9999995 0.5582392899095803 -0.8619724579216613
4191000000.0 0.5745297829465023 -0.8309831548505396
4194000000.0 0.5355203841104184 -0.8562371055973779
4197000000.0 0.5548242681887565 -0.8525434364233646
4200000000.0 0.5604595611547714 -0.8533377694970685
4203000000.0000005 0.5745208369840721 -0.8598328719615531
4206000000.0000005 0.5580935419061854 -0.8683685040852449
4208999999.9999995 0.5490781105097665 -0.8526146053086113
4211999999.9999995 0.5345849505073202 -0.8411725393212264
4216000000.0 0.5592067733962504 -0.8713187355402032
4219000000.0000005 0.5617999013222549 -0.8506902981791826
4222000000.0000005 0.5580159041914073 -0.8667844293928895
4224999999.9999995 0.5436179634384706 -0.8447649961133312
4227999999.9999995 0.5498078521516341 -0.8529818916103558
4231000000.0 0.5538398408159424 -0.8628480721766139
4234000000.0 0.5597638559748063 -0.8906528431518843
4238000000.0000005 0.5369072902409289 -0.8804910108240592
4240999999.9999995 0.5289353928901113 -0.8513816128267775
4244000000.0 0.5467216063137201 -0.8468785870991576
4247000000.0 0.5492422136619421 -0.8603271869010667
4250000000.0 0.5305465165278647 -0.8544588735788088
4253000000.0 0.5330427989656032 -0.8380829507063746
4256000000.0 0.5471212766383828 -0.88716369052703
4259000000.0000005 0.5275898936052685 -0.8486598441082613
4261999999.9999995 0.5270116723683931 -0.8654288332863138
4266000000.0 0.5199300589579919 -0.8807629217810098
4269000000.0 0.5454979694496329 -0.8538263277405896
4272000000.0000005 0.5495454469202321 -0.8628236371489715
4275000000.0000005 0.5564899186351543 -0.8577454362623667
4277999999.9999995 0.5606439827900791 -0.8852570799332671
4280999999.9999995 0.5489353886271913 -0.8407313978168356
4284000000.0 0.5258554955154863 -0.9050355230812235
4288000000.0000005 0.5721993846122646 -0.833641631897448
4291000000.0000005 0.5279628966878128 -0.8348837926099401
4293999999.9999995 0.5366691975099345 -0.8435662731350169
4297000000.0 0.5607441066960347 -0.8299672986361981
4300000000.0 0.5299037181789303 -0.8294523370155547
4303000000.0 0.5263197303880947 -0.8441661762126075
4306000000.0 0.5850731929682118 -0.8529813837177306
4309000000.0 0.5146627818609101 -0.8365519210728316
4312000000.0 0.5919224198433349 -0.853265942246537
4316000000.0 0.5618046525685796 -0.8218367357036545
4319000000.0 0.5478842367114862 -0.832534358654664
4322000000.0 0.5203473918158105 -0.8619774616698402
4325000000.0 0.566382460801393 -0.8143911350601449
4328000000.0 0.5452223950335031 -0.8500786415954527
4331000000.0 0.5434533184173006 -0.8861748657048193
4334000000.0 0.5290950748752418 -0.8603773495535345
4338000000.0 0.546075503451566 -0.8418744057198208
4341000000.0 0.5767207133677003 -0.8462847546769574
4344000000.0 0.545580416685325 -0.8776302942010223
4347000000.0 0.535704338842405 -0.8716029969665094
4350000000.0 0.5225578477546732 -0.8252010093213721
4353000000.0 0.5396195452032863 -0.8322936178417583
4356000000.0 0.5217382647145521 -0.8606383434448269
4359000000.0 0.515882261226757 -0.8180678139495213
4362000000.0 0.5118846712886944 -0.9014819714933814
4366000000.0 0.5671253409142036 -0.8585087277462843
4369000000.0 0.5035089116251078 -0.8230663416248369
4372000000.0 0.4808004769470314 -0.8656083555399167
4375000000.0 0.5468071891949557 -0.82297243953138
4378000000.0 0.5208710058544351 -0.82471248614691
4381000000.0 0.5272701628807854 -0.8355791440101634
4384000000.0 0.5461774637772367 -0.9184784086613493
4388000000.0 0.5363856936018039 -0.8438897506394767
4391000000.0 0.5344750106368562 -0.8553275513130743
4394000000.0 0.5133682834963288 -0.8237740315081156
4397000000.0 0.5255194659613129 -0.8678268224050008
4400000000.0 0.5400279923560682 -0.8849138685415447
4403000000.0 0.5458846929338158 -0.8634237355038878
4406000000.0 0.5110127087571925 -0.8698193812361125
4409000000.0 0.5429704302511322 -0.8895987115070109
4412000000.0 0.4857402365437264 -0.8865732902289878
4416000000.0 0.522461500720481 -0.8441334860966834
4419000000.0 0.5213755060262937 -0.8699012968105564
4422000000.0 0.5439429854100535 -0.8413992885399055
4425000000.0 0.5574169438408676 -0.8665454988515136
4428000000.0 0.5238974704379372 -0.8591946293058246
4431000000.0 0.5520552658521808 -0.8750368095730415
4434000000.0 0.5115399831989242 -0.850921300590421
4438000000.0 0.5388385045835733 -0.8749278585699928
4441000000.0 0.539889341051589 -0.8624305155828444
4444000000.0 0.5307115731816757 -0.8465309099069416
4447000000.0 0.5051837167108586 -0.8485530280235752
4450000000.0 0.5284337264817911 -0.8453740779051013
4453000000.0 0.542699615870877 -0.8886087051218564
4456000000.0 0.49859737671494 -0.8520858801337861
4459000000.0 0.4902732947636901 -0.8377486811201278
4462000000.0 0.552737042592076 -0.909581668451217
4466000000.0 0.5437397518779171 -0.889885033937341
4469000000.0 0.5456072067343805 -0.8611523471253635
4472000000.0 0.5164241040991175 -0.9099152143735467
4475000000.0 0.510324079658454 -0.8479027788296931
4478000000.0 0.5378000104171621 -0.9148132616762248
4481000000.0 0.4908855602043133 -0.8349377611199977
4484000000.0 0.48666349248677643 -0.8781643153344489
4488000000.0 0.5131041066269109 -0.8644938894290966
4491000000.0 0.5123107318208313 -0.8664806410739612
4494000000.0 0.5282193126849721 -0.8630454880515774
4497000000.0 0.511868924192916 -0.8429602905214697
4500000000.0 0.5288816837958519 -0.8475530316213451
4503000000.0 0.5335786384798602 -0.8858561271605059
4506000000.0 0.5082535811280751 -0.8639346822027167
4509000000.0 0.5001078127709911 -0.8559007684404369
4512000000.0 0.48995384938152986 -0.8393898372869933
4516000000.0 0.5307161883023029 -0.8868157028971458
4519000000.0 0.5251558037855483 -0.83465512649331
4522000000.0 0.5015639476733403 -0.862191408812114
4525000000.0 0.5409422230855951 -0.8438654403926804
4528000000.0 0.5384193526413179 -0.8926696996354462
4531000000.0 0.5291810315609042 -0.8441802151881367
4534000000.0 0.49945872311438044 -0.8455227955356446
4538000000.0 0.512320878050952 -0.8500220086349024
4541000000.0 0.47823466815388177 -0.86983596204369
4544000000.0 0.503197780464881 -0.868593908132635
4547000000.0 0.5239579381085234 -0.8297001254030597
4550000000.0 0.49197359627860915 -0.8701544368790375
4553000000.0 0.4960935088298577 -0.870155488711406
4556000000.0 0.4780520757744148 -0.8470950701169087
4559000000.0 0.49550279302440114 -0.8685341729345081
4562000000.0 0.5200335698394836 -0.8750812812935115
4566000000.0 0.5010970849327703 -0.8769797640967921
4569000000.0 0.4908155461401852 -0.8421747324882147
4572000000.0 0.514109410170636 -0.8453781330929038
4575000000.0 0.4819583445035166 -0.8741972406276999
4578000000.0 0.5514261884601026 -0.865999694537938
4581000000.0 0.5131916557348852 -0.865257118422541
4584000000.0 0.5009591431426027 -0.8582452566836482
4588000000.0 0.5284330256120892 -0.8951211157236036
4591000000.0 0.5242706594449509 -0.8600612075350473
4594000000.0 0.49471929775607637 -0.8843327060447459
4597000000.0 0.5127194939486579 -0.8765165596305506
4600000000.0 0.46922467837277443 -0.8767280927288423
4603000000.0 0.512581323812824 -0.8704390639841262
4606000000.0 0.5125631878837795 -0.8789796780408472
4609000000.0 0.5083735915354535 -0.8675641578189859
4612000000.0 0.5009507954985455 -0.8809886474422683
4616000000.0 0.5000692773647062 -0.8768365368124864
4619000000.0 0.5082572672793632 -0.8596030757502617
4622000000.0 0.4962761736043436 -0.8668428318877581
4625000000.0 0.48523930351937516 -0.8503192587835997
4628000000.0 0.5141575844536397 -0.8566686054953476
4631000000.0 0.4817565870973195 -0.8907878707994947
4634000000.0 0.5023960259347278 -0.8830529290260456
4638000000.0 0.5206002091862145 -0.8849205856058225
4641000000.0 0.5176315627286354 -0.8616959939623174
4644000000.0 0.4901319701872049 -0.880631967425677
4647000000.0 0.5040668794722181 -0.8572565806587638
4650000000.0 0.47901099904307465 -0.8942503096335872
4653000000.0 0.5077282743573562 -0.8855899223364494
4656000000.0 0.48242540280534896 -0.8827000549576254
4659000000.0 0.49400443017317897 -0.8774563064200995
4662000000.0 0.4996409879620619 -0.882270658483403
4666000000.0 0.4920385084415758 -0.8888465168848214
4669000000.0 0.49326677349379955 -0.8805399904766663
4672000000.0 0.4812669990348115 -0.8940892206823732
4675000000.0 0.48818623886719814 -0.8954639920752338
4678000000.0 0.4953791837626127 -0.8571800388378221
4681000000.0 0.45813733965924675 -0.9205373860013795
4684000000.0 0.47623945078116126 -0.8977494872186803
4688000000.0 0.46591799024513614 -0.8791819439232705
4691000000.0 0.5118404093809535 -0.8732292685334656
4694000000.0 0.49128557677206425 -0.8765106316042758
4697000000.0 0.46546651287480084 -0.8833011403635316
4700000000.0 0.4969829931688863 -0.8692966968052612
4703000000.0 0.5095150247732415 -0.8438177867730048
4706000000.0 0.49883221693439955 -0.8902839319287166
4709000000.0 0.48557928135458606 -0.8990333735494005
4712000000.0 0.5046793990694273 -0.8803875992180663
4716000000.0 0.48337991861980434 -0.8875991483411027
4719000000.0 0.5317653336595869 -0.8739278797904726
4722000000.0 0.5193917741606819 -0.8437665573070018
4725000000.0 0.5040855513344868 -0.8714116791929271
4728000000.0 0.47315530726764216 -0.8908387283455999
4731000000.0 0.5216715714932222 -0.9232270477603948
4734000000.0 0.5067564314886207 -0.8732958582758477
4738000000.0 0.5243640053901023 -0.8939621941483209
4741000000.0 0.5059323703936968 -0.9072028139672698
4744000000.0 0.4796686051887661 -0.9023616196410805
4747000000.0 0.4867952423071726 -0.8538825792889532
4750000000.0 0.5124194447188829 -0.9043897269465203
4753000000.0 0.5095017071415902 -0.8835889427374948
4756000000.0 0.48044606127864464 -0.915693608571129
4759000000.0 0.49739163779212253 -0.9001199680282779
4762000000.0 0.49060384717632355 -0.9148904718052739
4766000000.0 0.4650819447285407 -0.8973834203776078
4769000000.0 0.4885520028010153 -0.9029061415930326
4772000000.0 0.48590645950848776 -0.9199869828157857
4775000000.0 0.4868747728063239 -0.9455451583706765
4778000000.0 0.5132225729224518 -0.8943285468725108
4781000000.0 0.5180772004424437 -0.874333078300839
4784000000.0 0.5177279023770958 -0.8536372393752863
4788000000.0 0.4915541353823644 -0.8967044439059829
4791000000.0 0.486654534602346 -0.8842416732881804
4794000000.0 0.5391792951484922 -0.9174571147858206
4797000000.0 0.45928286678900476 -0.8837879716437288
4800000000.0 0.4794088638639139 -0.8825072285054036
4803000000.0 0.4559376872740586 -0.905156780157481
4806000000.0 0.4796434503962993 -0.9192564110307506
4809000000.0 0.4562362572865639 -0.9043481881050303
4812000000.0 0.4276235597935174 -0.8896843062328785
4816000000.0 0.5015756691306847 -0.8784339422975774
4819000000.0 0.5109098602171485 -0.9064724856141976
4822000000.0 0.4988359940184127 -0.9146731258096785
4825000000.0 0.5047264744706794 -0.8978770064787196
4828000000.0 0.4906462219113823 -0.907988473582466
4831000000.0 0.46386281638071525 -0.9102384237718149
4834000000.0 0.5134815065623431 -0.8902046909329767
4838000000.0 0.46501179086300604 -0.9328834679615832
4841000000.0 0.46491324832799436 -0.8875053835025187
4844000000.0 0.5079861011070768 -0.8908528661523876
4847000000.0 0.5188813815856821 -0.8617165269924457
4850000000.0 0.4872498267730593 -0.8992108622967383
4853000000.0 0.49089872710246907 -0.8899021598511587
4856000000.0 0.4862948925096501 -0.8774751680014196
4859000000.0 0.4878823105844574 -0.9291596266439234
4862000000.0 0.4972066771599336 -0.8601161136915749
4866000000.0 0.47712739789566677 -0.9060833302509345
4869000000.0 0.4976521006987293 -0.9142137312163691
4872000000.0 0.49522359734418425 -0.9320225639432713
4875000000.0 0.5611011869601186 -0.9232295363487584
4878000000.0 0.4920205198264702 -0.9101540754450033
4881000000.0 0.4818174548212573 -0.9666582318811763
4884000000.0 0.4963840795037724 -0.8812234169880463
4888000000.0 0.5265201646108663 -0.8756642569696073
4891000000.0 0.5155465416880493 -0.9037478269025406
4894000000.0 0.48106280307707494 -0.8844674731430687
4897000000.0 0.5249449485263267 -0.865721996077939
4900000000.0 0.5077805834639155 -0.9126443292007248
4903000000.0 0.5094507138666455 -0.8876815318504081
4906000000.0 0.5077768609296408 -0.9148633113712591
4909000000.0 0.4980797632184322 -0.925091641540881
4912000000.0 0.4860596396406859 -0.9349754546669482
4916000000.0 0.5238694012915576 -0.9127272580341069
4919000000.0 0.5270296395710056 -0.909204152880765
4922000000.0 0.4884264543066891 -0.9045624792520897
4925000000.0 0.4666996290797955 -0.9043472571728203
4928000000.0 0.5359940172232462 -0.8344944346497506
4931000000.0 0.5295849319073195 -0.9104758480953714
4934000000.0 0.5073879360507553 -0.853862821250966
4938000000.0 0.48519501785117175 -0.8802732849416944
4941000000.0 0.49146078153477923 -0.8764693304153012
4944000000.0 0.49450931823323 -0.8466741712649085
4947000000.0 0.5311219589208708 -0.8606127173687758
4950000000.0 0.47092510806496046 -0.8720175538500842
4953000000.0 0.4963449133733383 -0.9415091674787668
4956000000.0 0.495789960932038 -0.9406404024578244
4959000000.0 0.45720649238414934 -0.8758541893605287
4962000000.0 0.5243483368039723 -0.8956479684816534
4966000000.0 0.5097109003979264 -0.9041224606174463
4969000000.0 0.532629687409834 -0.9409748000659861
4972000000.0 0.5044728460885101 -0.9041565626410795
4975000000.0 0.5345237481051842 -0.8454003562802217
4978000000.0 0.460632372292084 -0.9026743795511277
4981000000.0 0.5111664773092943 -0.8695612064925105
4984000000.0 0.5209159501016699 -0.8779636885751798
4988000000.0 0.5444735071994843 -0.8788429487430224
4991000000.0 0.5464817995062985 -0.888104145716544
4994000000.0 0.5382736874171923 -0.878827283853634
4997000000.0 0.4703877767694159 -0.9293124882389985
5000000000.0 0.5357984916949661 -0.9322865575094831
5003000000.0 0.5427158140768192 -0.9288064721333695
5006000000.0 0.5275831444597306 -0.9472118805527188
5009000000.0 0.5450684413641813 -0.8786072176367603
5012000000.0 0.5066180178820225 -0.8886203878152631
5016000000.0 0.5442344000229112 -0.9101917412878292
5019000000.0 0.5222607886275097 -0.8914276682781332
5022000000.0 0.5161284469750891 -0.917115951878919
5025000000.0 0.5012793336060571 -0.9157054601695951
5028000000.0 0.4911601753009017 -0.8981814340541587
5031000000.0 0.49595160342048167 -0.9245029891449108
5034000000.0 0.48135836791217845 -0.9489146577387713
5038000000.0 0.4838936806914058 -0.8763099441544349
5041000000.0 0.5428930109318904 -0.8784702880103081
5044000000.0 0.524652828660337 -0.8577704392093588
5047000000.0 0.5436867563375282 -0.9190398415883265
5050000000.0 0.58373934496788 -0.8400803160667878
5053000000.0 0.5537592520616977 -0.9146351851530695
5056000000.0 0.5706067778529894 -0.8609219021753513
5059000000.0 0.5427595536731773 -0.9005797713659511
5062000000.0 0.5112395736340272 -0.9438697466404549
5066000000.0 0.5424700781240652 -0.8601985736810746
5069000000.0 0.548612245471966 -0.8961315963892913
5072000000.0 0.5295478963138764 -0.8641443963336348
5075000000.0 0.5493826009891523 -0.8561921245996535
5078000000.0 0.49466678490586125 -0.9073443341124081
5081000000.0 0.4730907291536201 -0.8634046132036832
5084000000.0 0.5584384861063256 -0.9401807527193129
5088000000.0 0.5214802169424092 -0.8493577321130081
5091000000.0 0.4483560565571143 -0.9088487082662731
5094000000.0 0.5114035294165534 -0.9089974953984172
5097000000.0 0.5773979120808308 -0.8788849814264217
5100000000.0 0.5083127415046835 -0.8767273437928544
5103000000.0 0.5301493985664137 -0.9284709407358669
5106000000.0 0.5392920239280667 -0.8941379435027804
5109000000.0 0.5430330465390444 -0.8467887331044871
5112000000.0 0.5191642430624065 -0.846981408928387
5116000000.0 0.5058253876624497 -0.8808550287275214
5119000000.0 0.4849381843608418 -0.8547380970321886
5122000000.0 0.5527825092412875 -0.8781314819802695
5125000000.0 0.5432873605135977 -0.8811799412286263
5128000000.0 0.518740067346301 -0.8695721465699244
5131000000.0 0.5072622744904262 -0.9042783700770864
5134000000.0 0.54712851539238 -0.8641926084877283
5138000000.0 0.5960067807933728 -0.9020436757061264
5141000000.0 0.5678277446776072 -0.8636239289084766
5144000000.0 0.540608137103057 -0.8897142731847592
5147000000.0 0.5720456522065758 -0.9023876383711813
5150000000.0 0.5691118208207802 -0.8657714788741518
5153000000.0 0.553110282343234 -0.8921666455317789
5156000000.0 0.5505639977583502 -0.8816382741509836
5159000000.0 0.5921244046526355 -0.9192911998185179
5162000000.0 0.5218304202843085 -0.9028325517897415
5166000000.0 0.5287895553430608 -0.9090731864187378
5169000000.0 0.5465504652059907 -0.9018304469113398
5172000000.0 0.5805900504264472 -0.8564916740799611
5175000000.0 0.6038974735788347 -0.8805387621618316
5178000000.0 0.5177413896022842 -0.8647217671945033
