! Created with skrf 1.8.0 (http://scikit-rf.org).
# Hz S RI R 50.0 
!freq ReS11 ImS11
4000000000.0 0.479742973831751 -0.8983685907026557
4003000000.0 0.5166400570506304 -0.933057282722321
4006000000.0 0.4516430494484335 -0.893694089721557
4009000000.0000005 0.5119677649713241 -0.9188065347552612
4011999999.9999995 0.5203297754700852 -0.9215136719533454
4016000000.0 0.4764057520166426 -0.9235141118776807
4019000000.0 0.45826744512985246 -0.9283946097997123
4022000000.0000005 0.5439950258579881 -0.9184840622720741
4025000000.0000005 0.44857041192411473 -0.9671864889400217
4027999999.9999995 0.4777259240945576 -0.8823904165448095
4030999999.9999995 0.4757131822160434 -0.8556202999893836
4034000000.0 0.44157771143137403 -0.9142948449196953
4038000000.0000005 0.473305471317492 -0.9364732235883404
4041000000.0000005 0.503632878588918 -0.9153183783973905
4043999999.9999995 0.5247616148062493 -0.9443988383271538
4046999999.9999995 0.5034412945296416 -0.9690319723138265
4050000000.0 0.46358801870386634 -0.9492695518872559
4053000000.0 0.4224197056611367 -0.9350607772970745
4056000000.0 0.47520902960902245 -0.9228201834764801
4059000000.0 0.470061503666488 -0.8842903433196212
4062000000.0000005 0.45069497565942973 -0.9367300047015603
4066000000.0 0.4292198316050725 -0.813212912812889
4069000000.0 0.4763042595189521 -0.9924806989771141
4072000000.0 0.4930262969535257 -0.9101335690404412
4075000000.0 0.5036324040574217 -0.8949697593539644
4078000000.0000005 0.4659425161417773 -0.9220964834422221
4081000000.0000005 0.5144311187921461 -0.887514244423066
4083999999.9999995 0.4591018113730671 -0.9344775545328934
4088000000.0 0.4998834236461611 -0.9011504973887619
4091000000.0 0.49334516716927046 -0.931155856174785
4094000000.0000005 0.45959176894602344 -0.9292909298344632
4097000000.0000005 0.4753397046146365 -0.8731052488919717
4099999999.9999995 0.482415461796602 -0.9407640983378796
4102999999.9999995 0.49801138375339415 -0.8971319609113634
4106000000.0 0.47664460209127624 -0.9170709145409967
4109000000.0 0.43965655523430064 -0.9126252043281385
4112000000.0 0.4802806163985915 -0.9099712631368888
4115999999.9999995 0.4998438014191766 -0.8684892383669315
4119000000.0 0.4831418868802475 -0.8886599377796001
4122000000.0 0.47259661068451525 -0.9550326338346607
4125000000.0 0.4439807338432312 -0.9379926352683798
4128000000.0 0.46617556846203817 -0.8897222648645718
4131000000.0 0.4620557154350931 -0.8535431682060827
4134000000.0000005 0.47566402895652043 -0.9033238235349269
4138000000.0 0.4646613117713213 -0.9179688730178429
4141000000.0 0.4709955045626323 -0.9017256146997628
4144000000.0 0.5121608341608648 -0.9345015619587813
4147000000.0000005 0.4546204897488889 -0.9241685212789396
4150000000.0000005 0.4935471172105251 -0.9122661023054661
4152999999.9999995 0.4748412275344096 -0.9462419402368268
4155999999.9999995 0.4859374662312179 -0.9210263546943136
4159000000.0 0.4976507873767068 -0.8676131555627644
4162000000.0 0.4990650638350656 -0.8936246327262491
4166000000.0000005 0.4533558312076956 -0.9285421853648433
4168999999.9999995 0.4766591108515602 -0.911568226239282
4171999999.9999995 0.47657876483153544 -0.878195962296356
4175000000.0 0.4786081291166263 -0.9184984359844144
4178000000.0 0.5103949191769288 -0.9188213142031685
4181000000.0 0.46262953201565354 -0.9262022547634304
4184000000.0 0.4402906559482902 -0.9143660518554863
4187999999.9999995 0.45631483925710403 -0.9032450582071979
4191000000.0 0.49724938406051267 -0.8889693324630911
4194000000.0 0.4486780973832113 -0.9154446030654403
4197000000.0 0.47058336010276236 -0.9166726442286921
4200000000.0 0.4970738092464281 -0.899994719692127
4203000000.0000005 0.4962945560507511 -0.9299095933032961
4206000000.0000005 0.47038943884716555 -0.9151448055697939
4208999999.9999995 0.48024106395721144 -0.9020045759947448
4211999999.9999995 0.44874279216975926 -0.9226804967327162
4216000000.0 0.4838980220407497 -0.9130801966751987
4219000000.0000005 0.471734776973019 -0.9053831541983458
4222000000.0000005 0.4478920358680246 -0.9057416476286632
4224999999.9999995 0.46671452930635504 -0.8963398240290812
4227999999.9999995 0.4719179795917849 -0.9056297955274465
4231000000.0 0.4546156067359348 -0.9189175901892429
4234000000.0 0.4613611056501658 -0.9199998587970569
4238000000.0000005 0.4519374202432266 -0.9225370694271482
4240999999.9999995 0.4559284036404324 -0.9068308097402599
4244000000.0 0.4709060209762372 -0.9063011280746183
4247000000.0 0.47528315532925536 -0.8995899587769864
4250000000.0 0.4495126539945411 -0.8818118126709252
4253000000.0 0.44360054193672643 -0.9001458924329749
4256000000.0 0.47054919992727307 -0.9303413007105061
4259000000.0000005 0.44217997652421914 -0.876026299545591
4261999999.9999995 0.44518507019101966 -0.9131460874644717
4266000000.0 0.4536325853754385 -0.9517117468000922
4269000000.0 0.46171054497104347 -0.9066035920185808
4272000000.0000005 0.462081470538932 -0.8908213747645378
4275000000.0000005 0.4671687730714479 -0.9153611056675851
4277999999.9999995 0.49322861992137174 -0.9294224283535703
4280999999.9999995 0.46013421248421343 -0.8956203545770494
4284000000.0 0.43000178591649924 -0.9468997973792525
4288000000.0000005 0.4937265568676756 -0.8730476026914235
4291000000.0000005 0.44181267639181604 -0.8675759139202085
4293999999.9999995 0.4404364273572227 -0.8939080495411659
4297000000.0 0.4771241262272136 -0.8795552114964393
4300000000.0 0.4473833855155034 -0.8783550570808758
4303000000.0 0.44384284370545735 -0.9121287182137777
4306000000.0 0.5032043732360064 -0.9086404735271854
4309000000.0 0.45649700740178933 -0.914008962819088
4312000000.0 0.50651362461058 -0.8837324650836358
4316000000.0 0.47119051786392674 -0.9034409519073644
4319000000.0 0.45754131536224873 -0.9046813956163327
4322000000.0 0.42168565208425113 -0.9073470718645604
4325000000.0 0.465282637336027 -0.9151805302609436
4328000000.0 0.4572884261969006 -0.9066484805407681
4331000000.0 0.40675124086621395 -0.9511769890524319
4334000000.0 0.44350675176288573 -0.9075173578692846
4338000000.0 0.4793197070395619 -0.9222600944821591
4341000000.0 0.5046420446662213 -0.9209430495751885
4344000000.0 0.45210552841918794 -0.9473387249994685
4347000000.0 0.4107477687783567 -0.9264369916135028
4350000000.0 0.4274958686614523 -0.8773379233939963
4353000000.0 0.45462904053146413 -0.8722737819504641
4356000000.0 0.4176526816633831 -0.8884969993538576
4359000000.0 0.4319686326873364 -0.8673332435836184
4362000000.0 0.4227195368505502 -0.9509108427332371
4366000000.0 0.4591508461217861 -0.9171024426023271
4369000000.0 0.4275001231730362 -0.8883501467970075
4372000000.0 0.40456135503310886 -0.915553772497865
4375000000.0 0.4571347217933436 -0.9042419982995105
4378000000.0 0.4398533697826543 -0.8674563915078372
4381000000.0 0.4369742654827913 -0.9035805264768008
4384000000.0 0.4621477499510992 -0.9733431525587473
4388000000.0 0.44497700607037993 -0.8910385241557168
4391000000.0 0.45109844663164134 -0.9213440128999426
4394000000.0 0.4254217038891468 -0.8861436878030875
4397000000.0 0.44149600379877657 -0.915873199463108
4400000000.0 0.4334453909792827 -0.9326436292973849
4403000000.0 0.43944414893193856 -0.9111625553780888
4406000000.0 0.41587494776945 -0.9327324407166911
4409000000.0 0.44297399255292413 -0.9417610980512652
4412000000.0 0.3751011335899239 -0.9142272411682849
4416000000.0 0.4155793453314225 -0.8960076566858575
4419000000.0 0.42005303340790495 -0.9166573373227092
4422000000.0 0.44045890205236593 -0.8965299336952629
4425000000.0 0.4569697459021849 -0.9249560963914981
4428000000.0 0.43071634178514784 -0.9166123520566443
4431000000.0 0.4432673099303623 -0.935099257348657
4434000000.0 0.4218572891579406 -0.9031577858674663
4438000000.0 0.43748598704927794 -0.92754052432634
4441000000.0 0.434268927823551 -0.9296839045949392
4444000000.0 0.4288271051514369 -0.9011182023237394
4447000000.0 0.42079279491830146 -0.9033245510969167
4450000000.0 0.4333151564627759 -0.9025663012597807
4453000000.0 0.438812105627861 -0.9345056822465352
4456000000.0 0.3951513039039943 -0.9023451455554812
4459000000.0 0.39058186766608294 -0.8829755120970915
4462000000.0 0.43933643112576665 -0.9670899615241589
4466000000.0 0.43993871206803076 -0.9610493526891288
4469000000.0 0.448508835709686 -0.9223989336318927
4472000000.0 0.4054697395238031 -0.9359058138788836
4475000000.0 0.40731525397543833 -0.891943054682237
4478000000.0 0.41785828497602057 -0.9700098575644152
4481000000.0 0.3900742637292417 -0.8995948804131704
4484000000.0 0.3651389421190463 -0.9184087540404123
4488000000.0 0.39074459306156045 -0.9276665334711145
4491000000.0 0.39576950407764866 -0.9402674130658188
4494000000.0 0.3993747021005619 -0.9163871534186797
4497000000.0 0.4147449534877755 -0.9149421735615341
4500000000.0 0.411205123985162 -0.912456878299348
4503000000.0 0.3997722791350525 -0.9488082176432856
4506000000.0 0.3911378074548478 -0.926963851906558
4509000000.0 0.3927519413731354 -0.9138758031650672
4512000000.0 0.4014080864456782 -0.9126825702200785
4516000000.0 0.43158652227680305 -0.940531585817058
4519000000.0 0.41051285058637427 -0.8893620994653824
4522000000.0 0.3976005535974969 -0.9277376308772629
4525000000.0 0.4558040771084522 -0.9043326765723987
4528000000.0 0.41568828412510817 -0.9509564938656501
4531000000.0 0.41908989636457106 -0.9243554517008818
4534000000.0 0.4015046270472312 -0.9117410072762026
4538000000.0 0.3915102447253927 -0.9092764081115835
4541000000.0 0.3667243951156032 -0.934738075096204
4544000000.0 0.39295576988433384 -0.9189546714432925
4547000000.0 0.40099210481143693 -0.8992568317495366
4550000000.0 0.38558458463244294 -0.9411236914352351
4553000000.0 0.3822092471163639 -0.927931668553391
4556000000.0 0.36531843056159946 -0.9175975764144292
4559000000.0 0.3808168968953818 -0.9412671406107077
4562000000.0 0.39925849619925036 -0.945780271530125
4566000000.0 0.39825385933190055 -0.9517534867571589
4569000000.0 0.3869239283602136 -0.9279376344853373
4572000000.0 0.39300316224339876 -0.9320335398493069
4575000000.0 0.37369252533368125 -0.9480296874795943
4578000000.0 0.4078040579713708 -0.960066622894391
4581000000.0 0.36568468489497563 -0.9387476673446411
4584000000.0 0.36296407431332456 -0.9362622691986976
4588000000.0 0.4013218230508803 -0.9292624046549027
4591000000.0 0.3977303608313901 -0.9377213586827094
4594000000.0 0.36023725064767015 -0.941012511731858
4597000000.0 0.38671588851616046 -0.9479175895862612
4600000000.0 0.3457351488156842 -0.9463030646300422
4603000000.0 0.3760908401799036 -0.9503469853243137
4606000000.0 0.3818295395283114 -0.9673169007807876
4609000000.0 0.3777447600778556 -0.9369397515294047
4612000000.0 0.37015259301975617 -0.9479776635130243
4616000000.0 0.36835443198856094 -0.9169740860969768
4619000000.0 0.3747068886366941 -0.9290753347848659
4622000000.0 0.3683848035861393 -0.9452556642761277
4625000000.0 0.3497862119183985 -0.9262409011594632
4628000000.0 0.37531083766752016 -0.9333213275454549
4631000000.0 0.35614793845974974 -0.9392601445054302
4634000000.0 0.360597094248697 -0.9367529543573603
4638000000.0 0.3807849054986331 -0.9613699265047383
4641000000.0 0.37927636929762304 -0.9569885514957226
4644000000.0 0.34762170489622524 -0.9391253583422341
4647000000.0 0.37040225001366034 -0.9461226406397997
4650000000.0 0.35386339898665525 -0.9402012198575814
4653000000.0 0.37063893019687916 -0.9605503909035991
4656000000.0 0.36922842882259665 -0.9410907921693661
4659000000.0 0.3534417712095267 -0.9450149533958314
4662000000.0 0.3772322273583344 -0.9634832329330997
4666000000.0 0.3403467128972645 -0.9514407953725948
4669000000.0 0.3696694917477449 -0.9513239623740966
4672000000.0 0.34415964251655784 -0.9713649447244428
4675000000.0 0.34984664424872197 -0.9666120597932033
4678000000.0 0.35319994573715346 -0.9362545260863099
4681000000.0 0.3532516908410249 -0.9722467065960267
4684000000.0 0.3491283567057492 -0.9815955478358118
4688000000.0 0.3226611719987484 -0.9543268491860106
4691000000.0 0.38811290212472543 -0.9588518640233671
4694000000.0 0.3694985757885617 -0.9398792355669856
4697000000.0 0.33082061258012285 -0.9175358078168899
4700000000.0 0.37253853040964985 -0.9411035886872314
4703000000.0 0.3677514856250249 -0.9008096902927327
4706000000.0 0.3437325778782666 -0.9720398275899323
4709000000.0 0.3647066311048099 -0.9454091394611394
4712000000.0 0.3657458771011016 -0.9421548109880328
4716000000.0 0.3379522848745694 -0.9519590798190694
4719000000.0 0.37726544736406903 -0.9554570616475574
4722000000.0 0.3624735533835071 -0.9286577351308606
4725000000.0 0.34323966289169866 -0.9476853470890638
4728000000.0 0.36272337714126746 -0.9591359485343312
4731000000.0 0.36161745734722944 -0.9945929475152193
4734000000.0 0.37031654354867066 -0.9210771497368551
4738000000.0 0.37832501487857456 -0.9679187847985151
4741000000.0 0.35367145467397865 -1.0028592266225407
4744000000.0 0.35510326477990484 -0.9760541714504988
4747000000.0 0.36959643498704364 -0.9277835085521943
4750000000.0 0.33928535252111547 -0.9766893393270412
4753000000.0 0.36043352377624194 -0.9445070145543775
4756000000.0 0.3357465479809553 -0.9674516564686662
4759000000.0 0.3608068484548723 -0.9929152378122648
4762000000.0 0.31449210142106615 -0.9833889761991197
4766000000.0 0.334082101215957 -0.9739941806951653
4769000000.0 0.3490958638703487 -0.9919523583607787
4772000000.0 0.36244299461430096 -0.9495798619643895
4775000000.0 0.35595760444690727 -1.0363657148053504
4778000000.0 0.3507161267264608 -0.9721577687332379
4781000000.0 0.3744522561024574 -0.9802105882873761
4784000000.0 0.3743737010139936 -0.9766552173850591
4788000000.0 0.33148313971055643 -1.0109668450012703
4791000000.0 0.3237126585782004 -0.9535674450580456
4794000000.0 0.39043445082936235 -0.9678024902920735
4797000000.0 0.3191358002307112 -0.9453369882939031
4800000000.0 0.32187289144184517 -0.9610020243429691
4803000000.0 0.29260500192077776 -0.9766531741521212
4806000000.0 0.3280162774317998 -0.9851942328595183
4809000000.0 0.30676782674168407 -0.9742727107303509
4812000000.0 0.3050296903182618 -0.9770281169571229
4816000000.0 0.35782788123531895 -0.9376409203325179
4819000000.0 0.3446256706473467 -0.9727703999682021
4822000000.0 0.36165227536825745 -1.00482296444901
4825000000.0 0.35786638153456485 -0.98702667439522
4828000000.0 0.3139189394711697 -0.9707224314562638
4831000000.0 0.2925952363161399 -0.993869592906645
4834000000.0 0.3452425343085072 -0.9647386300308353
4838000000.0 0.2976125572331452 -0.9920658849948842
4841000000.0 0.3297229953349099 -0.9566351268287631
4844000000.0 0.3800978650392482 -0.953494506505622
4847000000.0 0.34717260535799316 -0.9609251940113583
4850000000.0 0.3369741755850729 -0.9909379859858045
4853000000.0 0.32863468623525016 -0.9437253422496453
4856000000.0 0.31771574020560633 -0.9627096079195222
4859000000.0 0.33109728597415267 -1.0281038515727072
4862000000.0 0.3345493884416597 -0.9329454743979907
4866000000.0 0.3406164938844229 -0.9858613475903588
4869000000.0 0.3192017750202357 -0.9776208102032548
4872000000.0 0.3302576388556727 -1.0303000714377992
4875000000.0 0.3872389165181252 -1.0159677662921085
4878000000.0 0.3233145456366004 -0.9846001936624739
4881000000.0 0.3193373000250658 -1.0558090451227464
4884000000.0 0.3411993270722371 -0.9683541349352981
4888000000.0 0.3658400777202724 -0.9654879813154348
4891000000.0 0.3504964217937273 -1.001278846783943
4894000000.0 0.2956717603628107 -0.9868007672872674
4897000000.0 0.33635558563180273 -0.9426281687453388
4900000000.0 0.3569141947247617 -1.0076054661271403
4903000000.0 0.36485725289019094 -0.9723626601661159
4906000000.0 0.31696020294099125 -1.0027025738732496
4909000000.0 0.31625882355195356 -0.9912628447575094
4912000000.0 0.325628258723604 -1.0178318097663768
4916000000.0 0.34046757234529845 -0.9965530786936644
4919000000.0 0.3665449959872227 -1.0074177492355476
4922000000.0 0.3447124591134386 -0.986132576726398
4925000000.0 0.2797420020938447 -0.9858223345319772
4928000000.0 0.392563053167434 -0.9589613497666335
4931000000.0 0.34395018039260095 -1.0116786178659956
4934000000.0 0.3111233205724383 -0.9204547286626286
4938000000.0 0.28324932733160213 -0.9715114999433015
4941000000.0 0.33577736283507986 -0.9852704693148786
4944000000.0 0.3353194875202651 -0.9289036034064468
4947000000.0 0.3216921185054898 -0.9361694829079503
4950000000.0 0.3300442701108952 -0.9834978224230803
4953000000.0 0.2965194727790039 -1.037128374961147
4956000000.0 0.2895217436467485 -0.9971028021218122
4959000000.0 0.3039416065217341 -0.9736902848869057
4962000000.0 0.365033184538782 -1.001104944116701
4966000000.0 0.3797460359227327 -0.9999278259638653
4969000000.0 0.34687162989289266 -1.039774076799442
4972000000.0 0.3164440385712932 -0.996209917346939
4975000000.0 0.3472342145905191 -0.976317486638814
4978000000.0 0.2928149843714324 -1.0014407048979883
4981000000.0 0.3157293222189328 -1.0122086929896679
4984000000.0 0.32078730336979644 -0.9528722222171514
4988000000.0 0.35210645275706715 -0.9781133508701483
4991000000.0 0.38935816916740984 -1.001339025574833
4994000000.0 0.3754949929164352 -0.9937262739323561
4997000000.0 0.28835304370921316 -1.0029453853457946
5000000000.0 0.34683715662188586 -0.991898471350624
5003000000.0 0.3468947481859267 -0.9982892193149504
5006000000.0 0.3291740743090063 -1.015852991059358
5009000000.0 0.3282508114848614 -0.9966419618091837
5012000000.0 0.31421852821869106 -0.9605181778117002
5016000000.0 0.374900270767448 -1.0080504045766552
5019000000.0 0.2995088096714707 -0.9721741106367314
5022000000.0 0.3163447359517218 -0.9918753438524535
5025000000.0 0.31927068456145474 -1.0422026655714018
5028000000.0 0.31916783734623005 -1.0319035967549848
5031000000.0 0.3188090757851067 -0.985141273912125
5034000000.0 0.30710515437130126 -1.0427104422836937
5038000000.0 0.27187044822429096 -0.9286367818293253
5041000000.0 0.3777716428560783 -1.0039962964591336
5044000000.0 0.33547821522705573 -0.9660081315917001
5047000000.0 0.2950317478595282 -0.9672011227928232
5050000000.0 0.3918981236384571 -0.9529515471690703
5053000000.0 0.32685979943565363 -1.0271418653034583
5056000000.0 0.34793673811873466 -0.9655929492212928
5059000000.0 0.3622196763009799 -0.9841081543106598
5062000000.0 0.3066054458241572 -0.9920846720980059
5066000000.0 0.36737567339255545 -0.9970022805825037
5069000000.0 0.3340790539551504 -1.0064177457441827
5072000000.0 0.3639821604880811 -0.9836585946725371
5075000000.0 0.3481921019854352 -0.959955813306853
5078000000.0 0.3104909668470341 -0.9765239830789074
5081000000.0 0.3010722415404529 -0.9466730748159233
5084000000.0 0.33642700726356783 -0.9903580474821991
5088000000.0 0.34208201592616244 -0.9517484360730213
5091000000.0 0.2889699168684888 -0.9973244111526756
5094000000.0 0.29069634873254274 -0.9816460485670905
5097000000.0 0.33659204646284946 -0.9687873640638358
5100000000.0 0.33920308879313615 -1.0342907496168223
5103000000.0 0.2917584817898073 -1.0018548269530818
5106000000.0 0.3028992345621238 -0.9791634109184892
5109000000.0 0.3674890615390287 -0.9740744471028298
5112000000.0 0.33612715165179274 -0.9710590833807023
5116000000.0 0.3125764400229029 -0.9616169811564348
5119000000.0 0.33441141774857824 -1.0358349448597346
5122000000.0 0.29646257758175437 -0.9673057848219395
5125000000.0 0.3346550813305562 -0.9700073793123261
5128000000.0 0.3399109641438059 -0.9757493642960434
5131000000.0 0.36945862907239696 -0.9785530288853685
5134000000.0 0.3195086884845112 -0.9533026206924531
5138000000.0 0.35849142562942327 -0.9780598424188525
5141000000.0 0.3626226366334575 -0.9765176141948457
5144000000.0 0.35037161610863843 -0.9534428960303863
5147000000.0 0.30996771828838543 -1.0019162102109798
5150000000.0 0.33005022415015917 -0.9994179384534315
5153000000.0 0.3103011111179676 -1.018508224967028
5156000000.0 0.29150859968612014 -0.9831307942017331
5159000000.0 0.34649407045748165 -1.009693046813923
5162000000.0 0.2906254858721571 -0.9899852522122263
5166000000.0 0.3020134968783983 -0.9897113433002093
5169000000.0 0.3502412594177108 -1.0063334514082087
