! Created with skrf 1.8.0 (http://scikit-rf.org).
# Hz S RI R 50.0 
!freq ReS11 ImS11
4000000000.0 0.47664351306020025 -0.8985049575992962
4003000000.0 0.5124753902040897 -0.9568093375886485
4006000000.0 0.43326609686199635 -0.9334699316069641
4009000000.0000005 0.4436225336439581 -0.9088327256578412
4011999999.9999995 0.4898195150515178 -0.9218073046520491
4016000000.0 0.4295220275289414 -0.9815174372757612
4019000000.0 0.4486854689324321 -0.9129371789996189
4022000000.0000005 0.6056989015802376 -0.8981071267659808
4025000000.0000005 0.40700857174076177 -0.9700776309839455
4027999999.9999995 0.4379594575524999 -0.9453523104039083
4030999999.9999995 0.45947108629607375 -0.8778976724524374
4034000000.0 0.416801948138078 -0.9220900720459799
4038000000.0000005 0.4504995554517188 -0.9397587997687075
4041000000.0000005 0.4279770774317655 -0.9295909303612245
4043999999.9999995 0.4594522041735537 -0.9783433456535113
4046999999.9999995 0.5587579892687187 -0.9772397138102872
4050000000.0 0.4584047888188121 -0.9536233840173096
4053000000.0 0.4186935297279579 -0.9229904110015303
4056000000.0 0.46541656852481883 -0.9325549404428165
4059000000.0 0.44338788250488237 -0.9057040648291207
4062000000.0000005 0.42119212142499457 -0.951114032939168
4066000000.0 0.4098222214362962 -0.8524794588859308
4069000000.0 0.4432474348529297 -0.9566140507549646
4072000000.0 0.48487442318173934 -0.9037603313605181
4075000000.0 0.49229928978876286 -0.9387420775514538
4078000000.0000005 0.48668141357890327 -0.9118948689882358
4081000000.0000005 0.5384281997399042 -0.8931766907771591
4083999999.9999995 0.4467543860657953 -0.979751941122748
4088000000.0 0.48264986063810417 -0.9009093888239135
4091000000.0 0.4648908678756218 -0.98164408993982
4094000000.0000005 0.46640222456781005 -0.9064878978385964
4097000000.0000005 0.504185088175323 -0.9474335546439532
4099999999.9999995 0.456294940829002 -0.9180761817626264
4102999999.9999995 0.460066820940994 -0.9232228288079436
4106000000.0 0.4266737670556465 -0.9593620001822412
4109000000.0 0.47506300371879745 -0.945478525248863
4112000000.0 0.4990576516938509 -0.9226816875125615
4115999999.9999995 0.4636738805712332 -0.9085417401516678
4119000000.0 0.47048908150268315 -0.960474534717609
4122000000.0 0.4407873217543004 -0.9743502125152963
4125000000.0 0.44939119744032713 -0.9631357189595514
4128000000.0 0.45960571351114976 -0.904376157202305
4131000000.0 0.44536965623139224 -0.8985106369987236
4134000000.0000005 0.4638558099674465 -0.9386564335734571
4138000000.0 0.4240275616088299 -0.9145217883855324
4141000000.0 0.4493177489032528 -0.9118365734803472
4144000000.0 0.445655629286859 -0.9140628460293222
4147000000.0000005 0.4534047918147691 -0.9273327905948061
4150000000.0000005 0.4468346042850948 -0.9286858713430997
4152999999.9999995 0.47956469846700145 -0.9220138075761717
4155999999.9999995 0.4931090471803934 -0.9190534259442465
4159000000.0 0.46750388960157796 -0.8805357480781854
4162000000.0 0.4434984950591294 -0.9004552498808154
4166000000.0000005 0.44432801100421454 -0.9381965849928994
4168999999.9999995 0.41423427818543057 -0.9410761489729618
4171999999.9999995 0.4604938771864828 -0.9077775787025474
4175000000.0 0.46469554577597405 -0.9398715438937055
4178000000.0 0.4588461857835032 -0.9456265965398992
4181000000.0 0.4576415402628212 -0.9213543030867768
4184000000.0 0.45405884710777156 -0.9337890289913429
4187999999.9999995 0.4383946570288141 -0.9168726026080657
4191000000.0 0.49167179472645217 -0.8829782508014846
4194000000.0 0.44548981180876834 -0.9158675906464049
4197000000.0 0.4812375629491322 -0.935403086526654
4200000000.0 0.47142441959126347 -0.9195268994828362
4203000000.0000005 0.47541143169307887 -0.9360324732943985
4206000000.0000005 0.4615182215460209 -0.9119386799921947
4208999999.9999995 0.44922101418067084 -0.9156810753759311
4211999999.9999995 0.42555531054930595 -0.934366553785265
4216000000.0 0.4717907394971641 -0.9171368944740549
4219000000.0000005 0.45527043087941765 -0.9006497706400429
4222000000.0000005 0.437987134239751 -0.9391983316308882
4224999999.9999995 0.4488564550670801 -0.8910812702979491
4227999999.9999995 0.45699417967084555 -0.9309133036573946
4231000000.0 0.4422870969758227 -0.9262485378066548
4234000000.0 0.4421805801223521 -0.9405939687534348
4238000000.0000005 0.41763015708266393 -0.9301344993248848
4240999999.9999995 0.4188766413196404 -0.920364231050797
4244000000.0 0.4438978397977037 -0.9189123622159454
4247000000.0 0.4569260292856346 -0.9146606092537107
4250000000.0 0.43555355367284954 -0.906630768499082
4253000000.0 0.4153260923950801 -0.8855814853635408
4256000000.0 0.44329704269743503 -0.9473310179486344
4259000000.0000005 0.4170042744510545 -0.8955544305634426
4261999999.9999995 0.4195497151568537 -0.919511151333421
4266000000.0 0.4192584859796375 -0.915160299733228
4269000000.0 0.4515069555589793 -0.9159491848235586
4272000000.0000005 0.4344076442741517 -0.9144525883783852
4275000000.0000005 0.4508762708991725 -0.9211083750104548
4277999999.9999995 0.45696711885491803 -0.9298104725299874
4280999999.9999995 0.4619327719153983 -0.9196085622442126
4284000000.0 0.41302414311486474 -0.9399453797691762
4288000000.0000005 0.4638767281608185 -0.9065396379983183
4291000000.0000005 0.4185843432144607 -0.9103658974974101
4293999999.9999995 0.43407332493276496 -0.924267157040443
4297000000.0 0.4525785546568011 -0.874428331898554
4300000000.0 0.44281992232565515 -0.9058894709793789
4303000000.0 0.40839791636856004 -0.9048857084351009
4306000000.0 0.46694554210246125 -0.9219024195840851
4309000000.0 0.44176318136179993 -0.912072335059656
4312000000.0 0.4790168051314756 -0.915637204057789
4316000000.0 0.43561442307539255 -0.9223239821410412
4319000000.0 0.44237690537047597 -0.8998349609428505
4322000000.0 0.4220851553436682 -0.9297148227759973
4325000000.0 0.4387047610344526 -0.9260016707717893
4328000000.0 0.43241223667992534 -0.8955632478418964
4331000000.0 0.4295563868379202 -0.9384595686613164
4334000000.0 0.43037285375830325 -0.912841176681412
4338000000.0 0.46136427513626255 -0.9190385126305707
4341000000.0 0.45577766041958023 -0.9101233736936546
4344000000.0 0.4397026208214527 -0.9319619825938408
4347000000.0 0.41497351491268275 -0.9355035253724991
4350000000.0 0.41368264026224344 -0.9000605542506325
4353000000.0 0.44123396400225323 -0.9058315992697588
4356000000.0 0.40362481565148023 -0.9383582035472078
4359000000.0 0.4179296703648981 -0.8948918622391235
4362000000.0 0.38148846915137413 -0.9577654021411204
4366000000.0 0.41734793848858465 -0.933738252699368
4369000000.0 0.3929245001057834 -0.8990088309318396
4372000000.0 0.39347395838151694 -0.9310114530023419
4375000000.0 0.4327805842256723 -0.9120408197797405
4378000000.0 0.41045891841722426 -0.8926950506134531
4381000000.0 0.42099468511664095 -0.9102876180850987
4384000000.0 0.4311908543183176 -0.995891086151293
4388000000.0 0.4104002537376739 -0.8980253953838314
4391000000.0 0.4144402452982046 -0.9308408589035455
4394000000.0 0.3967821497190106 -0.9063675561847219
4397000000.0 0.41330208342904906 -0.9249214590309736
4400000000.0 0.4172863785740202 -0.938953143341996
4403000000.0 0.4029457226369715 -0.9389010881430082
4406000000.0 0.4016538103716403 -0.9506876322270811
4409000000.0 0.4075393415437459 -0.9459380338176144
4412000000.0 0.35824304298586135 -0.948455940046379
4416000000.0 0.3895946917135412 -0.9222070451255275
4419000000.0 0.3793933532559529 -0.932611095636513
4422000000.0 0.42585363960387246 -0.9127483675607436
4425000000.0 0.4360452481924228 -0.939172936557352
4428000000.0 0.4039343863342628 -0.9245358469221936
4431000000.0 0.41668064370501057 -0.9587652606693813
4434000000.0 0.38037713488655495 -0.9145740457044433
4438000000.0 0.41161786023003794 -0.9310394119533262
4441000000.0 0.40553409293225 -0.9382213298060819
4444000000.0 0.3915901893759866 -0.914838201445378
4447000000.0 0.3713348667366162 -0.9253358042964042
4450000000.0 0.4061803750940336 -0.9164985544617867
4453000000.0 0.4056264794196086 -0.9486779888260788
4456000000.0 0.3955167970427055 -0.9214125546840625
4459000000.0 0.3714222541515876 -0.9061591065936057
4462000000.0 0.4069733980914985 -0.9799451959708564
4466000000.0 0.4024352002065079 -0.9739629829063037
4469000000.0 0.4162498345390393 -0.9259063974512525
4472000000.0 0.38286208701539204 -0.9537071165882648
4475000000.0 0.3745281571427784 -0.9076471982501932
4478000000.0 0.37731955049459276 -0.9935875816731914
4481000000.0 0.38440757133693676 -0.908990401534769
4484000000.0 0.3488957689483465 -0.9490578361797133
4488000000.0 0.35726926407194004 -0.9400595517791608
4491000000.0 0.3656569008654976 -0.9505626503697496
4494000000.0 0.37625102471913513 -0.9279253543430537
4497000000.0 0.3990760524621999 -0.9033658978857659
4500000000.0 0.3604908074850957 -0.943846991431096
4503000000.0 0.38695860620049527 -0.9433851234710005
4506000000.0 0.38649697527120835 -0.9403589700532196
4509000000.0 0.35366568252691877 -0.9216462605283402
4512000000.0 0.3766494471995145 -0.9241083863259562
4516000000.0 0.38401134298432854 -0.9623367209341699
4519000000.0 0.37650901930255415 -0.9141948178258601
4522000000.0 0.3480320215776967 -0.9410438366140499
4525000000.0 0.407679032846953 -0.9341038085366146
4528000000.0 0.37417992640531794 -0.9622378798988563
4531000000.0 0.3783681669652536 -0.9360965771801755
4534000000.0 0.3749506281057686 -0.9276195453900573
4538000000.0 0.35001565839926724 -0.9201951941161484
4541000000.0 0.334234309590239 -0.9483528989237748
4544000000.0 0.34897063662957944 -0.9327315256118955
4547000000.0 0.3734506535798162 -0.9471742823477894
4550000000.0 0.3561236309914966 -0.9667782718244353
4553000000.0 0.332820777436801 -0.9564747852478355
4556000000.0 0.34844982073664477 -0.9278400624924921
4559000000.0 0.35802519842355385 -0.9675355185409953
4562000000.0 0.3787585967330177 -0.9466172598140581
4566000000.0 0.3531980864516829 -0.9698884133202696
4569000000.0 0.337770817700412 -0.9338434282364987
4572000000.0 0.3539163174848381 -0.960148582888513
4575000000.0 0.3478723218111867 -0.9657742346613484
4578000000.0 0.3648568040978031 -0.9750037125996349
4581000000.0 0.3464841034061396 -0.9488665559275762
4584000000.0 0.34929956785937605 -0.9348744924285423
4588000000.0 0.36425318401655327 -0.9697551214006175
4591000000.0 0.35710583775283405 -0.9415301301943143
4594000000.0 0.32544949482464375 -0.9627173107608833
4597000000.0 0.34186430706423127 -0.9560036715778881
4600000000.0 0.3349140012919616 -0.9495039218061453
4603000000.0 0.33961820879315635 -0.9671577043952062
4606000000.0 0.36090769092272335 -0.9742115690830431
4609000000.0 0.3492450977512902 -0.9511160735342886
4612000000.0 0.3455665319943465 -0.9609612902969502
4616000000.0 0.33675549276657957 -0.9539393302169752
4619000000.0 0.3368162145367981 -0.946695242355061
4622000000.0 0.3283669013221242 -0.9520763487976771
4625000000.0 0.33142731213730825 -0.9588612051667805
4628000000.0 0.34666277948046104 -0.9764899049767668
4631000000.0 0.3303359823732298 -0.9531553214042392
4634000000.0 0.32752899823537773 -0.9548228212365595
4638000000.0 0.33672415111796006 -0.9712140699122318
4641000000.0 0.35173635326149516 -0.9677937894310826
4644000000.0 0.3343566241610797 -0.9631608109940846
4647000000.0 0.3397561407224946 -0.963528667906117
4650000000.0 0.3114396455075218 -0.9450949296817469
4653000000.0 0.3543888523436898 -0.9517530655096988
4656000000.0 0.3294747459680275 -0.9684050250392529
4659000000.0 0.3065292293179485 -0.9680422152637209
4662000000.0 0.3298772141095483 -0.9784450523888543
4666000000.0 0.29863768576823213 -0.9656923136276347
4669000000.0 0.3380044126717542 -0.9768145413805878
4672000000.0 0.30927544431551524 -0.987092840227545
4675000000.0 0.33159797924057965 -0.9927953480201304
4678000000.0 0.3087527083407867 -0.9357066328933334
4681000000.0 0.28143922460598914 -0.9987861639780874
4684000000.0 0.32310342686720656 -0.9910447853865585
4688000000.0 0.2682303111130719 -0.976254231042341
4691000000.0 0.33049836427257573 -0.9851027961701787
4694000000.0 0.33066000276233964 -0.919611329302716
4697000000.0 0.28479414240484746 -0.9420861216552481
4700000000.0 0.3083576616755122 -0.9741924008824676
4703000000.0 0.3573222882225345 -0.9200275244916422
4706000000.0 0.306897671794735 -0.9989147804374794
4709000000.0 0.2773733320478019 -0.9577884006411813
4712000000.0 0.30896679083936585 -0.9772593467400945
4716000000.0 0.31606045167648295 -0.9540264920715441
4719000000.0 0.3472435623353307 -0.9553307244249157
4722000000.0 0.31690289846197317 -0.9849469487799295
4725000000.0 0.3022324804088004 -0.96027143812828
4728000000.0 0.30538595706913235 -0.9905567943219697
4731000000.0 0.3109703362803805 -1.0010934831276803
4734000000.0 0.31138494248420534 -0.9363087137813655
4738000000.0 0.34072706931088576 -1.0264335059728198
4741000000.0 0.29043207660095754 -0.9948806202142323
4744000000.0 0.3103439781209373 -1.0006366672308156
4747000000.0 0.3064355878581423 -0.9206668512616774
4750000000.0 0.2817611269223027 -1.0019657316145965
4753000000.0 0.31205765983141404 -0.9893033419267974
4756000000.0 0.2985515627360324 -0.9863194387535161
4759000000.0 0.31265252542432226 -0.9964745768046137
4762000000.0 0.28512711054207396 -1.0201291766471772
4766000000.0 0.3205935921265329 -0.9787954533016765
4769000000.0 0.31466430943713253 -0.9970765357337784
4772000000.0 0.31936772579773265 -0.9655645757621016
4775000000.0 0.3177652623572086 -1.0528004850188395
4778000000.0 0.29240561194508763 -0.9927000781541014
4781000000.0 0.31032014378988865 -0.9799572363568826
4784000000.0 0.3325991375511832 -0.9544048047662904
4788000000.0 0.2905418481210903 -1.003652394985213
4791000000.0 0.28912474799456245 -0.9514609938838988
4794000000.0 0.34114644403922056 -0.9886598035343922
4797000000.0 0.28803908501547104 -0.9556393696206991
4800000000.0 0.29499129716306466 -0.9467104768182611
4803000000.0 0.23777302879309217 -0.9957938394737741
4806000000.0 0.2876140125133602 -0.9888901650612618
4809000000.0 0.25109597624246816 -1.0068435322480211
4812000000.0 0.2586934524157992 -0.9925674792240204
4816000000.0 0.33201581277669623 -0.9680782536294308
4819000000.0 0.3268382705106196 -1.0161313923077542
4822000000.0 0.3354044471728381 -0.9993349266873337
4825000000.0 0.3206546278667618 -0.992320549683186
4828000000.0 0.28618507459747616 -0.9878642654479135
4831000000.0 0.26403957246116144 -1.0251271334274914
4834000000.0 0.3144238449743818 -0.9742436408878695
4838000000.0 0.27553762978704666 -1.0167729041615137
4841000000.0 0.2739734331640782 -0.9836548581121515
4844000000.0 0.3312516260421648 -0.9827086801385075
4847000000.0 0.30461919377623925 -0.95216787890745
4850000000.0 0.2777977048481526 -1.0378369386009636
4853000000.0 0.28138966975096413 -0.9736526868936648
4856000000.0 0.2790703531331295 -0.9770116254820844
4859000000.0 0.259170493589019 -1.0334769267792008
4862000000.0 0.2847838365615402 -0.9714294931203633
4866000000.0 0.2821451228096972 -1.014679016887716
4869000000.0 0.2840195168683435 -0.9946703345904463
4872000000.0 0.2692253265241982 -1.0303157139943195
4875000000.0 0.3289333982725052 -1.0319513195588783
4878000000.0 0.292757774022099 -1.0124682018008024
4881000000.0 0.28060273224404964 -1.075920863907104
4884000000.0 0.28308078320533914 -1.0036204583605992
4888000000.0 0.2914936359661888 -0.9814372479585207
4891000000.0 0.31605433706821084 -0.990801077568805
4894000000.0 0.28074674276802847 -0.9757168570276313
4897000000.0 0.300696969997085 -0.9919143354269877
4900000000.0 0.3022029270441913 -1.0179089180312169
4903000000.0 0.30699209442787034 -0.9912780186365471
4906000000.0 0.2899263664210986 -1.036694687410466
4909000000.0 0.29580271879678777 -1.0032131180448278
4912000000.0 0.23808561310272042 -1.0343911857167438
4916000000.0 0.2820260648021998 -1.0358814514652088
4919000000.0 0.3140893292938305 -1.013916119524484
4922000000.0 0.3140840992827262 -1.0054060081846403
4925000000.0 0.21388896004766933 -1.0462910721904524
4928000000.0 0.2935054448297564 -0.9876284593589457
4931000000.0 0.3169819042959645 -1.0157202905882208
4934000000.0 0.255402404938476 -0.9491007210431842
4938000000.0 0.25938563230163775 -1.0150026598919863
4941000000.0 0.28779018001427265 -0.9496352582841008
4944000000.0 0.2990424660004377 -0.9245152436230584
4947000000.0 0.2485961343561361 -0.9518686113968011
4950000000.0 0.2669189832796554 -0.982809088988528
4953000000.0 0.2632216654560595 -1.028224925598188
4956000000.0 0.2573572836496923 -1.0063492952809714
4959000000.0 0.21392629603673696 -0.9897990325681985
4962000000.0 0.23690376525746482 -1.0148752905112217
4966000000.0 0.2978924548634488 -1.0288632458906077
4969000000.0 0.3106561297902695 -1.041707743163354
4972000000.0 0.2656171932945758 -0.9947298767680989
4975000000.0 0.29196213578072006 -0.9944142855845264
4978000000.0 0.2549655977011471 -0.9897599819531251
4981000000.0 0.24404719673631042 -1.0307682068800634
4984000000.0 0.2809817101342402 -0.9930366140465026
4988000000.0 0.28574546539729545 -1.018589096136686
4991000000.0 0.3111859892166943 -1.0402432962521941
4994000000.0 0.2756864367890736 -0.9788257573031315
4997000000.0 0.21481432481904922 -1.0187528401219874
5000000000.0 0.28375278710393137 -1.0217262501392654
5003000000.0 0.299786291178916 -1.0429136805343278
5006000000.0 0.28908879613739935 -1.0611306603609298
5009000000.0 0.2637059795663011 -1.0105340326928247
5012000000.0 0.22257378378170956 -1.0150614897218644
5016000000.0 0.3150926492174002 -1.0318169671814275
5019000000.0 0.2413342498342918 -0.9980169220801398
5022000000.0 0.2769122407443699 -1.0060780115328236
5025000000.0 0.2582370474931579 -1.0712862598677568
5028000000.0 0.24690443646230337 -1.0012033770122644
5031000000.0 0.27688315073389447 -1.0376811237149939
5034000000.0 0.22292763341565147 -1.0488021320509906
5038000000.0 0.22629286179355557 -0.9974910646849062
5041000000.0 0.2849361193445438 -0.9910574495400252
5044000000.0 0.3065546401561886 -0.9976470604969883
5047000000.0 0.24999411536820954 -1.0072864887661206
5050000000.0 0.3185384903730957 -0.9790617490350908
5053000000.0 0.2907439975917481 -1.0409930869527353
5056000000.0 0.29268807261216895 -1.025471809689735
5059000000.0 0.28657132221558596 -1.0058498182834439
5062000000.0 0.2414714864489647 -1.0162473642486758
5066000000.0 0.30237075131641794 -0.9847376538671604
5069000000.0 0.26624783809271946 -0.9880406165601165
5072000000.0 0.26929499247765837 -1.0096347824233407
5075000000.0 0.2581099857106616 -1.0015816884692994
5078000000.0 0.24529445026482954 -0.9993321775524802
5081000000.0 0.18340072140709107 -0.9691405119714613
5084000000.0 0.2653410629672221 -1.0044167078172175
5088000000.0 0.2424243987968907 -1.00521361354886
5091000000.0 0.2689278019845104 -1.0796490835239387
5094000000.0 0.2393651536518911 -0.9655025365737855
5097000000.0 0.2540442861115082 -1.0017701717081773
5100000000.0 0.23691416296147133 -1.008126750695431
5103000000.0 0.1884445390679868 -1.034863000702095
5106000000.0 0.2865009539462756 -1.0110783883013454
5109000000.0 0.286847366404414 -0.9841040804375953
5112000000.0 0.2177979849074128 -1.035057862726499
5116000000.0 0.2534003038626218 -0.9710365058293589
5119000000.0 0.2303580775644608 -1.061486725668567
5122000000.0 0.22745206877367896 -1.0196836824372346
5125000000.0 0.33368685147101124 -0.9934918617078576
5128000000.0 0.1979117244139591 -1.0261024817468416
5131000000.0 0.25614156794256765 -1.0188821778746269
5134000000.0 0.26728949512994443 -1.0040126536715988
5138000000.0 0.28452915552973596 -0.9573579607691183
5141000000.0 0.2815599850100301 -1.0309019749236665
5144000000.0 0.23622915503397246 -0.9862149552009158
5147000000.0 0.2291541704342151 -1.0350963151077832
5150000000.0 0.25036310798163997 -1.0529776736490168
5153000000.0 0.2041018226261226 -1.0298980225957068
5156000000.0 0.2784369596315091 -0.949891226067241
5159000000.0 0.24988717262098636 -1.017245980037884
5162000000.0 0.21087925391595186 -1.0905224211809623
5166000000.0 0.23578887962665052 -1.0145836491064097
5169000000.0 0.24041712207701244 -1.0359233740648797
