! Created with skrf 1.8.0 (http://scikit-rf.org).
# Hz S RI R 50.0 
!freq ReS11 ImS11
4000000000.0 0.5142870856902307 -0.8918966126118774
4003000000.0 0.5549121986545928 -0.9401604234234167
4006000000.0 0.535757123144663 -0.8857600289920633
4009000000.0000005 0.5807841192780994 -0.8966634862755037
4011999999.9999995 0.5857739784925371 -0.8868738068311353
4016000000.0 0.5203584952358244 -0.902641594259491
4019000000.0 0.5662190703324581 -0.891387327440407
4022000000.0000005 0.6288043797511155 -0.8864848616022113
4025000000.0000005 0.5198651266295218 -0.9300785980175488
4027999999.9999995 0.563648719339548 -0.9110341123135077
4030999999.9999995 0.5802232859559652 -0.8034511400099712
4034000000.0 0.5484270748164783 -0.9255099169877088
4038000000.0000005 0.5500911123417411 -0.9285663818656144
4041000000.0000005 0.55131681445726 -0.8801309759441749
4043999999.9999995 0.5886053013393909 -0.9644174870252644
4046999999.9999995 0.6025998943697897 -0.8969021356210721
4050000000.0 0.5693117305826878 -0.9310013286378477
4053000000.0 0.553047872803525 -0.9033415126160924
4056000000.0 0.5432747361972216 -0.8925753948832065
4059000000.0 0.5318607947617331 -0.8622541783771943
4062000000.0000005 0.5501426138483154 -0.920720541234918
4066000000.0 0.49377881862034273 -0.7940792987934344
4069000000.0 0.549759794354732 -0.9461264329324444
4072000000.0 0.614222475551093 -0.8635819392467182
4075000000.0 0.6163564586091729 -0.8990178534451684
4078000000.0000005 0.5896057728356955 -0.9368735011098688
4081000000.0000005 0.6496037064377225 -0.886172797777784
4083999999.9999995 0.5346306259734617 -0.9155992666241649
4088000000.0 0.5919134051685898 -0.8588312218359351
4091000000.0 0.5710420614070212 -0.9398125042722963
4094000000.0000005 0.5726322814984387 -0.8481665387193176
4097000000.0000005 0.5895253103107634 -0.8874588053590048
4099999999.9999995 0.589128469769544 -0.8765589827448569
4102999999.9999995 0.5974893249905957 -0.9110651569169863
4106000000.0 0.5822415926414468 -0.9262920653279932
4109000000.0 0.5615902398241329 -0.9403439944128155
4112000000.0 0.5899028926189556 -0.918785451088996
4115999999.9999995 0.6040708499973023 -0.8893413182569191
4119000000.0 0.5749251341138601 -0.8997238628926855
4122000000.0 0.5521550207393502 -0.9008237919525784
4125000000.0 0.5755348511017732 -0.944296875940473
4128000000.0 0.5737195239568946 -0.8574364190947618
4131000000.0 0.5634936163487532 -0.8635100616645988
4134000000.0000005 0.5747125712128324 -0.8568303208880436
4138000000.0 0.5271304857587595 -0.8976894126553319
4141000000.0 0.5496704019286601 -0.862119215758884
4144000000.0 0.5810012873655569 -0.8913645239890986
4147000000.0000005 0.5496398002571299 -0.8550603486048822
4150000000.0000005 0.6231089052737111 -0.8836418996509517
4152999999.9999995 0.5603429057288138 -0.8567440064081174
4155999999.9999995 0.5746533784752971 -0.898364076785356
4159000000.0 0.5636583520291013 -0.8663812781614699
4162000000.0 0.5521889776313201 -0.8657263071968835
4166000000.0000005 0.596508925807927 -0.8787313410598335
4168999999.9999995 0.5346353806545889 -0.8836685782882191
4171999999.9999995 0.573850754025498 -0.8793946913904792
4175000000.0 0.5596421887547328 -0.8604229555667202
4178000000.0 0.5731839274185424 -0.8853460935118693
4181000000.0 0.5628111317811426 -0.9022066280703228
4184000000.0 0.564642148597935 -0.874666785986559
4187999999.9999995 0.5462874375263355 -0.894264580726742
4191000000.0 0.5727566325841879 -0.8800095663844941
4194000000.0 0.5538227473666486 -0.8614994737353672
4197000000.0 0.564029821035873 -0.8540782046200438
4200000000.0 0.5681273241698208 -0.8544371204947925
4203000000.0000005 0.5804484466659358 -0.8758309600179032
4206000000.0000005 0.5926554597046904 -0.8606021862993707
4208999999.9999995 0.5363399788508668 -0.8413857889305575
4211999999.9999995 0.5392669705045023 -0.8678153968195662
4216000000.0 0.5838233389355652 -0.848178421862445
4219000000.0000005 0.5748572449201339 -0.8767874136911672
4222000000.0000005 0.5623648161920846 -0.8858876724209587
4224999999.9999995 0.5672537349683056 -0.8563867022468158
4227999999.9999995 0.5585522378125973 -0.8658749475329666
4231000000.0 0.5698825540066563 -0.8733246446624969
4234000000.0 0.5650527218351172 -0.8806466553848397
4238000000.0000005 0.5343897082202096 -0.869867306090081
4240999999.9999995 0.5662405571084677 -0.867027715909712
4244000000.0 0.5629479517996172 -0.8629799044554315
4247000000.0 0.5786077826297176 -0.8663197054101474
4250000000.0 0.5510570877106314 -0.8816990298875486
4253000000.0 0.5414608565597183 -0.8444066605063874
4256000000.0 0.5733784320624352 -0.8738762909204201
4259000000.0000005 0.5466894800007394 -0.8377148085833632
4261999999.9999995 0.5425666656484962 -0.8859074631094748
4266000000.0 0.557038898029301 -0.8938494986916272
4269000000.0 0.572795805864562 -0.8618544769095058
4272000000.0000005 0.5584440819589722 -0.8490583190658758
4275000000.0000005 0.5535771372115956 -0.8531776342312579
4277999999.9999995 0.5787976583581689 -0.864891120374265
4280999999.9999995 0.5709255258509669 -0.8574248571613603
4284000000.0 0.5471175926252254 -0.8908143397683772
4288000000.0000005 0.6075415406732968 -0.8526018822728251
4291000000.0000005 0.5426922916752538 -0.8312219458402105
4293999999.9999995 0.5450514579378671 -0.8514858497299375
4297000000.0 0.57955447374851 -0.8474662347919524
4300000000.0 0.5601791512444162 -0.8445193016019146
4303000000.0 0.5501648519231925 -0.8501481966585094
4306000000.0 0.5943262625378709 -0.8488490905277517
4309000000.0 0.5736634793828279 -0.8704996472691671
4312000000.0 0.6002341955120158 -0.8548525836375555
4316000000.0 0.5901519676218363 -0.8747218634007166
4319000000.0 0.5441047434696291 -0.825369330350477
4322000000.0 0.549853562175297 -0.8436279404176171
4325000000.0 0.5742415388950618 -0.846871119143371
4328000000.0 0.5521727349861517 -0.8651771415724304
4331000000.0 0.5385473527376421 -0.9030614049905454
4334000000.0 0.5455845573217035 -0.8902558655925036
4338000000.0 0.5781054096802996 -0.8639989209451298
4341000000.0 0.5849311055463287 -0.8485602494308973
4344000000.0 0.5748536611888299 -0.8951522608057428
4347000000.0 0.5396049476593101 -0.8860863255059497
4350000000.0 0.5295242365685878 -0.8490268222988779
4353000000.0 0.5572350140685446 -0.8214402621310928
4356000000.0 0.5395225225778507 -0.8713257468049322
4359000000.0 0.535564489630292 -0.8285701124357414
4362000000.0 0.5162932423417899 -0.8919465214104527
4366000000.0 0.5499358134375977 -0.8734684420308967
4369000000.0 0.5318367705983593 -0.8226924329458212
4372000000.0 0.49515376446003057 -0.8715448241326247
4375000000.0 0.5544746161527477 -0.8370940620118458
4378000000.0 0.5360631664439913 -0.8444097320646474
4381000000.0 0.544448695499172 -0.8483840608016695
4384000000.0 0.5673515037854582 -0.9218964412314272
4388000000.0 0.5444236280152177 -0.8371681941873643
4391000000.0 0.5471406228924732 -0.8621283072548546
4394000000.0 0.5245577501926226 -0.8433997830258904
4397000000.0 0.5341194841136889 -0.8595858211550885
4400000000.0 0.5674766681212131 -0.8941571919225422
4403000000.0 0.5523180505327984 -0.8619981994740837
4406000000.0 0.5351560121519264 -0.8739501046411262
4409000000.0 0.5656704708886003 -0.886853072541782
4412000000.0 0.4900317968249769 -0.8826487607247993
4416000000.0 0.5293204592152153 -0.8620911698821928
4419000000.0 0.5293801626193079 -0.8665850682147975
4422000000.0 0.5402334689522654 -0.8385089420370964
4425000000.0 0.5826377540985413 -0.8635342817257514
4428000000.0 0.5530833853914503 -0.870638542396695
4431000000.0 0.569292085121115 -0.8658086069573809
4434000000.0 0.5365317616506198 -0.8624837037992179
4438000000.0 0.5521505526799833 -0.8892630519499867
4441000000.0 0.5533033654539932 -0.8744032837591356
4444000000.0 0.5391294885382272 -0.8343834248677717
4447000000.0 0.5255200842912495 -0.8699695935658041
4450000000.0 0.5542462167326471 -0.8501273167972584
4453000000.0 0.5622906002267278 -0.8832872255792912
4456000000.0 0.5290048705792151 -0.8396871811612459
4459000000.0 0.49888518695867506 -0.8338490619910253
4462000000.0 0.5647366196340919 -0.9168364495014834
4466000000.0 0.5426535491430522 -0.8938665219404838
4469000000.0 0.5690154042796245 -0.8582209441411315
4472000000.0 0.5379532090783774 -0.8927178730184745
4475000000.0 0.5381008069233921 -0.8374314373065979
4478000000.0 0.554942344339704 -0.9147529771025225
4481000000.0 0.5190900704046395 -0.8436186255600177
4484000000.0 0.4914133482085282 -0.8721138747820911
4488000000.0 0.5165561392654693 -0.8600366601796392
4491000000.0 0.5457337658688096 -0.8809436944238319
4494000000.0 0.5042748980087853 -0.8557292234515852
4497000000.0 0.5343622672034805 -0.8627338976624481
4500000000.0 0.5329314763240263 -0.8475582178210628
4503000000.0 0.5497554439647678 -0.8704330891340266
4506000000.0 0.523535936848571 -0.8573352059441375
4509000000.0 0.5115054185370799 -0.8380128728331684
4512000000.0 0.5038234125858508 -0.8584979076815313
4516000000.0 0.5438747101717395 -0.8661840037818661
4519000000.0 0.5205910707744044 -0.830806354157885
4522000000.0 0.5151812267882945 -0.8778741676241928
4525000000.0 0.5686568370150596 -0.853234841504908
4528000000.0 0.5373530594722322 -0.8860515592489451
4531000000.0 0.5518216643261111 -0.871276427062034
4534000000.0 0.5343027088047835 -0.8668474637638555
4538000000.0 0.5160156655450416 -0.8710997228862738
4541000000.0 0.4839230004433236 -0.8767645148476786
4544000000.0 0.5156363204830944 -0.8423098655271117
4547000000.0 0.5380877610218866 -0.8598770283486161
4550000000.0 0.5139668934543502 -0.8739133565974836
4553000000.0 0.5173468176488086 -0.8748558336341227
4556000000.0 0.511122445359795 -0.8505961021240265
4559000000.0 0.526004342882823 -0.8766202907009666
4562000000.0 0.5264064585958539 -0.8826610395665384
4566000000.0 0.5228968927359292 -0.8915883480165825
4569000000.0 0.5090183052095103 -0.8640579721795164
4572000000.0 0.5215383925922071 -0.8784702751889463
4575000000.0 0.5026723727913857 -0.8977790217665582
4578000000.0 0.5469380376639257 -0.8864979117331209
4581000000.0 0.5247058900989567 -0.8873945282463604
4584000000.0 0.511077895262664 -0.8727245899674514
4588000000.0 0.548743531632865 -0.8834916481362227
4591000000.0 0.545666103538033 -0.8738208988684628
4594000000.0 0.504010477940664 -0.863653867337185
4597000000.0 0.5213902226550237 -0.9029402449971782
4600000000.0 0.4947076356329462 -0.87514666015773
4603000000.0 0.5156262301358299 -0.9035158915487866
4606000000.0 0.528627425146861 -0.8846137062769615
4609000000.0 0.5123526237662984 -0.8838578751508226
4612000000.0 0.5312796894145219 -0.8934559923984595
4616000000.0 0.5035759600270288 -0.878456337164815
4619000000.0 0.522549969597705 -0.8487380511133982
4622000000.0 0.5281654665863699 -0.8739981556405326
4625000000.0 0.49238694181752074 -0.8592571555927337
4628000000.0 0.5394600819595179 -0.8709366891904438
4631000000.0 0.5068402808803721 -0.8825943057423439
4634000000.0 0.5017504462835403 -0.8935626519324857
4638000000.0 0.5161854411013294 -0.8814658967695503
4641000000.0 0.5355961321857625 -0.8669694908356899
4644000000.0 0.497636232379329 -0.8747499086694026
4647000000.0 0.514461283446927 -0.8897366972312012
4650000000.0 0.5168115143146501 -0.8816054317955554
4653000000.0 0.5428027718604332 -0.8988593893651136
4656000000.0 0.5146605903501624 -0.8962735340868331
4659000000.0 0.5112321708677868 -0.8903570878945617
4662000000.0 0.5106837573240544 -0.8926855973940108
4666000000.0 0.4976463831228465 -0.8736660334758746
4669000000.0 0.5328132099907453 -0.8816973750971276
4672000000.0 0.4947636667071237 -0.9043944409794278
4675000000.0 0.4982829913931455 -0.9109437384624501
4678000000.0 0.4912165375887554 -0.8687435401084778
4681000000.0 0.48233727269824217 -0.882273329846362
4684000000.0 0.4994746959187685 -0.8963713144746009
4688000000.0 0.4969906051037768 -0.887393028856616
4691000000.0 0.5228109425935733 -0.8696291462085523
4694000000.0 0.5108069172421158 -0.8693539310521765
4697000000.0 0.4706041608964018 -0.8608728147946922
4700000000.0 0.5034333141088184 -0.875896934022614
4703000000.0 0.5123723067212322 -0.8437328578069782
4706000000.0 0.48542278279146767 -0.9019012098799242
4709000000.0 0.49808140525857675 -0.8793292961709035
4712000000.0 0.5199325531258936 -0.9164840960782193
4716000000.0 0.5232118139474471 -0.9154421842997623
4719000000.0 0.5264266522973594 -0.8934632804259007
4722000000.0 0.5363387382701428 -0.8848417537365552
4725000000.0 0.5009178535015847 -0.8930944259013179
4728000000.0 0.4968461219891328 -0.9011250608099499
4731000000.0 0.5380788227059726 -0.908024815012517
4734000000.0 0.5245523580779683 -0.8687708429218544
4738000000.0 0.5412547334902249 -0.9014558632303121
4741000000.0 0.5076665209511771 -0.9104455521993221
4744000000.0 0.49548006316502513 -0.9077713860921481
4747000000.0 0.507090446529988 -0.8921677530858165
4750000000.0 0.49860076421398436 -0.8876184375882412
4753000000.0 0.5262637044349983 -0.8711207130491465
4756000000.0 0.5270519251411137 -0.9006630164239992
4759000000.0 0.5118256804803932 -0.8998403873843352
4762000000.0 0.50332862647309 -0.9553307880781666
4766000000.0 0.5163937029251504 -0.8752107976583485
4769000000.0 0.4977030468517938 -0.9151619003754687
4772000000.0 0.4844872461935028 -0.9025028177673864
4775000000.0 0.4898509956779666 -0.9737184883132226
4778000000.0 0.49894217275350516 -0.9186117575936537
4781000000.0 0.5247419809127798 -0.8854888143115324
4784000000.0 0.5554698516061362 -0.8849434191093672
4788000000.0 0.49215210288685385 -0.9079905578803795
4791000000.0 0.49194808807025237 -0.9070484781492565
4794000000.0 0.5465837590670645 -0.9099503678820114
4797000000.0 0.486273475260281 -0.9063520154081324
4800000000.0 0.48713057365348955 -0.9128671343243642
4803000000.0 0.4772047264936997 -0.9173658206591673
4806000000.0 0.4816474694098034 -0.9291288483938663
4809000000.0 0.4619754741355982 -0.9376158994964301
4812000000.0 0.45857096022277993 -0.9120182705679318
4816000000.0 0.5093854211043196 -0.8723035444825846
4819000000.0 0.5431793505254051 -0.8870564581699395
4822000000.0 0.5313240910590903 -0.9283198013081824
4825000000.0 0.536488463350212 -0.9213653372822729
4828000000.0 0.48704383253714567 -0.9084471505107304
4831000000.0 0.4852827468961609 -0.9398110740318373
4834000000.0 0.5288102849315541 -0.9060233653232669
4838000000.0 0.5067439998329103 -0.9343738495872755
4841000000.0 0.49258352826480867 -0.9026314445749158
4844000000.0 0.554276116678451 -0.9048356278221713
4847000000.0 0.5153178995285566 -0.8624318987527266
4850000000.0 0.5073390816553476 -0.9393517413702319
4853000000.0 0.4927272475115142 -0.8896445128706371
4856000000.0 0.5025237728607259 -0.9060458376473037
4859000000.0 0.5213342097096069 -0.9504561109495506
4862000000.0 0.5221911027545308 -0.8674626407423672
4866000000.0 0.5089375886094912 -0.9327553490995811
4869000000.0 0.5063183245073979 -0.9233215694412584
4872000000.0 0.5110741146490551 -0.9402559235499471
4875000000.0 0.5890144715940052 -0.9228976056907625
4878000000.0 0.5273163411256997 -0.9179863956310353
4881000000.0 0.5155476042167134 -0.9487069796406371
4884000000.0 0.5426806339851867 -0.8984862379779486
4888000000.0 0.5370590680125532 -0.8944581304587544
4891000000.0 0.5567047467411016 -0.9240664731056573
4894000000.0 0.5083035036340242 -0.907384093353011
4897000000.0 0.5031172008762552 -0.8816382462411426
4900000000.0 0.5382450687323957 -0.9149282497857014
4903000000.0 0.5485839728087736 -0.9126697187500311
4906000000.0 0.5436065604286724 -0.9306668164391225
4909000000.0 0.4938260694036208 -0.9163898142607204
4912000000.0 0.5287997759539319 -0.936672874680832
4916000000.0 0.5386288191147839 -0.9269994529057376
4919000000.0 0.5475559673219947 -0.934249557144123
4922000000.0 0.5548504377168482 -0.9208968680502102
4925000000.0 0.4763557001536367 -0.9268884757191076
4928000000.0 0.5562466074198893 -0.8860215063153675
4931000000.0 0.5588804627112901 -0.8981574553613083
4934000000.0 0.5112760356635058 -0.8726225303161677
4938000000.0 0.4964306110469855 -0.9323560234179697
4941000000.0 0.4912928022589086 -0.8738068553793238
4944000000.0 0.5113731533536056 -0.8681702497941979
4947000000.0 0.5180899783188249 -0.8816721259630619
4950000000.0 0.49110738215730565 -0.896546781907962
4953000000.0 0.5193858622503681 -0.9649292289576297
4956000000.0 0.4808680536280695 -0.9319031078055509
4959000000.0 0.4768622741226677 -0.9065000412150888
4962000000.0 0.5136994726265484 -0.9375157517675848
4966000000.0 0.5304654021514283 -0.8969805515189697
4969000000.0 0.5854959736330216 -0.9577808501218753
4972000000.0 0.5291927696751282 -0.917338213983904
4975000000.0 0.5591130313829358 -0.8919347121748481
4978000000.0 0.5164103345601785 -0.9211807818855693
4981000000.0 0.5197469881760639 -0.955470806569237
4984000000.0 0.5161580130103831 -0.9062063515500532
4988000000.0 0.5414205706046743 -0.8981718489791254
4991000000.0 0.5846614457999575 -0.9303855731053818
4994000000.0 0.533069325886804 -0.8850898937873221
4997000000.0 0.5094968673739497 -0.9370109132496944
5000000000.0 0.5519178721655499 -0.9159333365209028
5003000000.0 0.5526339829825246 -0.959989077831524
5006000000.0 0.5592815031181573 -0.9013214786505956
5009000000.0 0.5366032647266739 -0.9262391612572007
5012000000.0 0.5329514153471311 -0.9195958317499908
5016000000.0 0.5753540625607864 -0.9112701049190831
5019000000.0 0.5211252361843244 -0.9337711731468206
5022000000.0 0.5181942688399265 -0.9251235534765985
5025000000.0 0.5326574335134125 -0.9941432354277324
5028000000.0 0.5092184013967123 -0.9163976712011705
5031000000.0 0.5111508905362518 -0.9223599155815141
5034000000.0 0.49443708066638803 -0.9422766534328239
5038000000.0 0.5186726239152644 -0.8828700565795529
5041000000.0 0.5563148639587948 -0.8910036645317951
5044000000.0 0.5718586756337709 -0.8969980544226601
5047000000.0 0.5618454446265179 -0.9312162490404836
5050000000.0 0.6034804822028198 -0.8483269447908585
5053000000.0 0.5688170624904952 -0.9426215880839243
5056000000.0 0.6105988798607507 -0.9038724201266943
5059000000.0 0.606980138877255 -0.8779826454605599
5062000000.0 0.5241306541286537 -0.9235039648363431
5066000000.0 0.5777442961643051 -0.8854710782666391
5069000000.0 0.5505046308064228 -0.9058752074014578
5072000000.0 0.5587316916659093 -0.9066091268258718
5075000000.0 0.5776543630994813 -0.9136103508279669
5078000000.0 0.509750133978329 -0.9565782675348196
5081000000.0 0.48186482311832896 -0.9128161972684496
5084000000.0 0.5648552794017809 -0.9128450980165423
5088000000.0 0.5630034097521086 -0.8912109690753569
5091000000.0 0.5337033334390442 -0.9315173074490728
5094000000.0 0.5010443509570445 -0.907506938648639
5097000000.0 0.5922926656090907 -0.8689721265950718
5100000000.0 0.5771296092099473 -0.8501604176773192
5103000000.0 0.5528569978549414 -0.8650512861239126
5106000000.0 0.6324155586574334 -0.9011238434854285
5109000000.0 0.5850048699236033 -0.8743561780712727
5112000000.0 0.5378463976958576 -0.9061865706843235
5116000000.0 0.5654393373604565 -0.8710724295637695
5119000000.0 0.5506954819169037 -0.9051545280926057
5122000000.0 0.5722032270695592 -0.9190650219878849
5125000000.0 0.6083082383332578 -0.8726954944927183
5128000000.0 0.5465545102682838 -0.8818143892038026
5131000000.0 0.5727657785658458 -0.878339187910301
5134000000.0 0.5570883772330109 -0.8943420864082955
5138000000.0 0.6189299407651424 -0.9272962295940153
5141000000.0 0.6085486944818586 -0.8665228679575133
5144000000.0 0.5371064748510914 -0.9011440514214197
5147000000.0 0.6013198532802468 -0.8950461649145273
5150000000.0 0.5870316946578621 -0.8547810593242458
5153000000.0 0.5766043916665944 -0.8874438893089422
5156000000.0 0.5771487201987365 -0.8923318171553467
5159000000.0 0.5893390094860949 -0.8774539515768005
5162000000.0 0.5445039969883377 -0.8892978338154354
5166000000.0 0.53989944272509 -0.930122685108329
5169000000.0 0.5807865858699759 -0.9010547245484458
5172000000.0 0.5665928496041749 -0.8922479569111607
5175000000.0 0.5875987443945159 -0.9110533951122233
5178000000.0 0.5890855041757028 -0.8657192540853165
