! Created with skrf 1.8.0 (http://scikit-rf.org).
# Hz S RI R 50.0 
!freq ReS11 ImS11
4000000000.0 0.5432565764227593 -0.8554521297787505
4003000000.0 0.5413469260229453 -0.8834081578477334
4006000000.0 0.505624014939507 -0.8909804046848269
4009000000.0000005 0.5622329205310965 -0.8725115484869066
4011999999.9999995 0.5578312912648853 -0.8486974699901706
4016000000.0 0.5328053919107254 -0.8890219260867
4019000000.0 0.5372766097415018 -0.8647781786482195
4022000000.0000005 0.6524513218676952 -0.8266183357149418
4025000000.0000005 0.5422419785947462 -0.927858595156418
4027999999.9999995 0.5291902940037497 -0.8748868629720412
4030999999.9999995 0.518327764591273 -0.8024732320485576
4034000000.0 0.4911563987029709 -0.8727388771612453
4038000000.0000005 0.5621407796475038 -0.9280086104316319
4041000000.0000005 0.5231472149274711 -0.9152538303672426
4043999999.9999995 0.5812233485219392 -0.9160089729210832
4046999999.9999995 0.5900010119986201 -0.8883768949870859
4050000000.0 0.5388260386644631 -0.9148504332173295
4053000000.0 0.4862168798814448 -0.8607674586769113
4056000000.0 0.5307227247170365 -0.8738132498090098
4059000000.0 0.5545896240757698 -0.8364138779386707
4062000000.0000005 0.5149503742239947 -0.8788308648699978
4066000000.0 0.5125413226707626 -0.7977337646434358
4069000000.0 0.5424401952963116 -0.9085414683550576
4072000000.0 0.5431321188226479 -0.8357616198520615
4075000000.0 0.5798339702344408 -0.8799784500277186
4078000000.0000005 0.5200830056149253 -0.8800702423833612
4081000000.0000005 0.6185868610993918 -0.8841810019986384
4083999999.9999995 0.5319914395700933 -0.8801260105656922
4088000000.0 0.5609574540484844 -0.8305268458461702
4091000000.0 0.5922423223766808 -0.913766004967246
4094000000.0000005 0.5723907244016094 -0.8529225136388868
4097000000.0000005 0.5100550644247873 -0.8877093596295852
4099999999.9999995 0.5577603663478033 -0.889589298750257
4102999999.9999995 0.5627899025814584 -0.8843967530893654
4106000000.0 0.5215721473115397 -0.8919604445121009
4109000000.0 0.546292868015036 -0.8669019479091989
4112000000.0 0.5200081592912752 -0.8600611705530187
4115999999.9999995 0.5741306696960274 -0.8079359975600084
4119000000.0 0.5148387861242933 -0.8795130538852725
4122000000.0 0.5179053193131931 -0.8729315928896674
4125000000.0 0.5198450916989686 -0.8902513489370545
4128000000.0 0.5585522632993949 -0.8089104139840837
4131000000.0 0.5000941339720341 -0.8278109238961691
4134000000.0000005 0.5498237927648741 -0.8524700368084789
4138000000.0 0.5528149231449937 -0.8441983918005734
4141000000.0 0.5600876913244827 -0.868344400925836
4144000000.0 0.5782833344621516 -0.8656586138241951
4147000000.0000005 0.4859202505005497 -0.8483223628377358
4150000000.0000005 0.5411404141793759 -0.9031860328932666
4152999999.9999995 0.5702101001650954 -0.8699399303171517
4155999999.9999995 0.5517345586465767 -0.8953750008640986
4159000000.0 0.533187001487007 -0.8647761182781257
4162000000.0 0.5193250255479112 -0.8495476893938492
4166000000.0000005 0.555336147218216 -0.8809058126122976
4168999999.9999995 0.5217912967897652 -0.8713248154411168
4171999999.9999995 0.5518476558559382 -0.8794553256405316
4175000000.0 0.5404241532326614 -0.8723502153606905
4178000000.0 0.5585204328689818 -0.8866762463825467
4181000000.0 0.5402146826748009 -0.8565839637103269
4184000000.0 0.5584847918397663 -0.865766671128713
4187999999.9999995 0.5319809866349801 -0.8744681317933898
4191000000.0 0.5695912869094981 -0.8200380022991954
4194000000.0 0.526487429439664 -0.8471562506156487
4197000000.0 0.5364632946662733 -0.869872379104247
4200000000.0 0.5586509528934837 -0.8753923993229625
4203000000.0000005 0.5657235647784832 -0.8591311330541747
4206000000.0000005 0.565902482741401 -0.877801983251558
4208999999.9999995 0.5323752208171483 -0.8414812903659887
4211999999.9999995 0.5099509091954394 -0.8725519697815008
4216000000.0 0.5510774029553471 -0.8586901170321396
4219000000.0000005 0.5534484004467936 -0.8503230390251705
4222000000.0000005 0.5375802376500564 -0.8705106826103369
4224999999.9999995 0.5480776194027293 -0.8482358290870506
4227999999.9999995 0.5533873381371 -0.8543417193746238
4231000000.0 0.5430145793440724 -0.863833044726374
4234000000.0 0.5416236733023387 -0.8744346299062261
4238000000.0000005 0.542540342120631 -0.8696392096245499
4240999999.9999995 0.5280269360901879 -0.8653541444867938
4244000000.0 0.5672698134188457 -0.8639378574375278
4247000000.0 0.5347241379178052 -0.8584479586927899
4250000000.0 0.5433244176163612 -0.85442587136748
4253000000.0 0.5330410903744188 -0.8323740139962976
4256000000.0 0.5469189005291627 -0.885099640402868
4259000000.0000005 0.5189200397598043 -0.845560669426212
4261999999.9999995 0.523189405948997 -0.8453742556477675
4266000000.0 0.5289498999436145 -0.8715013057400707
4269000000.0 0.5429352721379702 -0.8503694943847293
4272000000.0000005 0.5422537257992578 -0.8459057714379652
4275000000.0000005 0.5514810677495312 -0.8582683391831136
4277999999.9999995 0.553906202747268 -0.8634709688139471
4280999999.9999995 0.5654020903913258 -0.8417517044416372
4284000000.0 0.5096687393364265 -0.8813228592729221
4288000000.0000005 0.5542098160994058 -0.8476800363309028
4291000000.0000005 0.5278407551749144 -0.8348889024739655
4293999999.9999995 0.530473327663698 -0.832620582907494
4297000000.0 0.5580086464039041 -0.8287824587703254
4300000000.0 0.5259690540012288 -0.8271538056715024
4303000000.0 0.5104301117407931 -0.8447086999654275
4306000000.0 0.5719861311705942 -0.8344223616955269
4309000000.0 0.5293435349281544 -0.8470870193928028
4312000000.0 0.5966045493770812 -0.854909638663898
4316000000.0 0.5610079045079904 -0.85810897260146
4319000000.0 0.5327761735055951 -0.8190075508025583
4322000000.0 0.49709091474627093 -0.8518923352229568
4325000000.0 0.5277515197235729 -0.857891689654667
4328000000.0 0.5205907085866721 -0.8327015398410103
4331000000.0 0.5305891475072186 -0.8735362377932763
4334000000.0 0.5377366287759998 -0.8510972964682191
4338000000.0 0.5468357546725274 -0.8632774385898163
4341000000.0 0.563467477109454 -0.8712001987993024
4344000000.0 0.5268489957570555 -0.8667502794221076
4347000000.0 0.5241857567499697 -0.8675174512404382
4350000000.0 0.5065373596652912 -0.8274791632545208
4353000000.0 0.5365345595118798 -0.8333915427402977
4356000000.0 0.5261616986968273 -0.8519773054410392
4359000000.0 0.5175399551313901 -0.8295155070754271
4362000000.0 0.5142947541934668 -0.8797722444293589
4366000000.0 0.5588136643244418 -0.8783028725177364
4369000000.0 0.510784131206554 -0.8344322255542986
4372000000.0 0.49750794409747817 -0.8620679437329788
4375000000.0 0.5496913380315369 -0.8190484592214501
4378000000.0 0.5153641801477936 -0.8271525680785249
4381000000.0 0.5249740061794954 -0.8413497969495061
4384000000.0 0.570211865441356 -0.9085229773211096
4388000000.0 0.5348285344433269 -0.8429984982824842
4391000000.0 0.5354092212639796 -0.8555668620843039
4394000000.0 0.5213167436186833 -0.8390003601019156
4397000000.0 0.521116631956815 -0.8483882221441915
4400000000.0 0.5425945659150968 -0.8874823980248083
4403000000.0 0.5434146134784846 -0.8554649529530541
4406000000.0 0.510255456671934 -0.8685404835351822
4409000000.0 0.5322028984604696 -0.8841053298378527
4412000000.0 0.49480182698621106 -0.8917355243950797
4416000000.0 0.5190586612607454 -0.8439908936987266
4419000000.0 0.5169918210613608 -0.8730051340701637
4422000000.0 0.5353081548209198 -0.8564944545968042
4425000000.0 0.5532546517251277 -0.8764194709004747
4428000000.0 0.5313388481851189 -0.8604994915212664
4431000000.0 0.5476982373211415 -0.8702184474279159
4434000000.0 0.5000381193088792 -0.8598182646759392
4438000000.0 0.538959389906289 -0.8791658634112012
4441000000.0 0.5376016294105175 -0.8824727602415232
4444000000.0 0.507198831761362 -0.8386466832333659
4447000000.0 0.5042223486344825 -0.8649900945571964
4450000000.0 0.5281554770091952 -0.8374152841580432
4453000000.0 0.5412230867205597 -0.8915400104838072
4456000000.0 0.49528655080248774 -0.8444064268920991
4459000000.0 0.49802708088249714 -0.8251076603924526
4462000000.0 0.5494743948654859 -0.9036948217610775
4466000000.0 0.5229009955127021 -0.8877799364611803
4469000000.0 0.5324491438174601 -0.8665915414642198
4472000000.0 0.5124394703459877 -0.8927854440318439
4475000000.0 0.5139853597136445 -0.8436715193995665
4478000000.0 0.5534151076523229 -0.9097080090607785
4481000000.0 0.49029907899342284 -0.848613028489008
4484000000.0 0.47313698314098773 -0.8764230011746639
4488000000.0 0.5069739081944451 -0.8650009390061851
4491000000.0 0.5313494675753108 -0.8836835364640837
4494000000.0 0.5102812624157489 -0.8446113595030529
4497000000.0 0.510824218263278 -0.8593345085759341
4500000000.0 0.5214147530814621 -0.8511390504687555
4503000000.0 0.5228254976183302 -0.8857363209392064
4506000000.0 0.5153632646229191 -0.876979394238053
4509000000.0 0.49932838675243174 -0.8445686570398849
4512000000.0 0.4872547241500238 -0.8469481868207045
4516000000.0 0.5225225628882072 -0.871330671746916
4519000000.0 0.5359677383178113 -0.8225265670595305
4522000000.0 0.4942612270737227 -0.8594909476646998
4525000000.0 0.5279553639083334 -0.8410156395211767
4528000000.0 0.5311672526801843 -0.8862391338322535
4531000000.0 0.5124882838104503 -0.871159855103542
4534000000.0 0.5088952603976771 -0.8431471882141557
4538000000.0 0.500646466957964 -0.8544407766087712
4541000000.0 0.4816235698301983 -0.8825413504374849
4544000000.0 0.49931097006427694 -0.8523832023069492
4547000000.0 0.5070422418521323 -0.8384375634331074
4550000000.0 0.4966729320141254 -0.8801672596651091
4553000000.0 0.5067560333136643 -0.8857808883400722
4556000000.0 0.486757021188749 -0.8620845126577719
4559000000.0 0.5058406008217929 -0.8747526706003168
4562000000.0 0.5118887063432903 -0.8778592714702333
4566000000.0 0.4863480491704616 -0.8788556425576026
4569000000.0 0.49790709515298764 -0.8452802036580269
4572000000.0 0.4973993273590429 -0.8729843561482933
4575000000.0 0.4899899729831467 -0.894560160353773
4578000000.0 0.514880321339046 -0.8948001082118647
4581000000.0 0.4901708966557681 -0.874063072633269
4584000000.0 0.4952828413215752 -0.8728823240298054
4588000000.0 0.5357074509719935 -0.8848089981768933
4591000000.0 0.5284179714088613 -0.86729309749375
4594000000.0 0.47925945875140946 -0.8841575052877868
4597000000.0 0.508015920240592 -0.886774752301541
4600000000.0 0.47625330104162444 -0.8645544229634441
4603000000.0 0.49163173284368855 -0.8803662163730814
4606000000.0 0.5142141227765795 -0.8847313358827764
4609000000.0 0.5031513359274109 -0.878577224084467
4612000000.0 0.4902631760113835 -0.8853506944640892
4616000000.0 0.48154027844844743 -0.8680159867635346
4619000000.0 0.49563313475556847 -0.8598034575772238
4622000000.0 0.4888831659030529 -0.8691992778657335
4625000000.0 0.45091309302643473 -0.8617396687368625
4628000000.0 0.5024830764938318 -0.8686465814442798
4631000000.0 0.4941180592782496 -0.8718012998587858
4634000000.0 0.4995651941561587 -0.8781456396667306
4638000000.0 0.5126635798720259 -0.8656273194477102
4641000000.0 0.5003740493775248 -0.8794752829396361
4644000000.0 0.4833853463841171 -0.8839074074233899
4647000000.0 0.5042094468471079 -0.8889531774173696
4650000000.0 0.4705646198540435 -0.8863813789148288
4653000000.0 0.5252306731261126 -0.8850621067239703
4656000000.0 0.49620323442194586 -0.8840103079188926
4659000000.0 0.4761202615619933 -0.8797005269891316
4662000000.0 0.49789805347732885 -0.8998409946637006
4666000000.0 0.4784464884825992 -0.886443607296475
4669000000.0 0.4984054372326085 -0.8696147241596808
4672000000.0 0.49623399683680874 -0.8994733103107333
4675000000.0 0.46973681391625755 -0.9031951411894905
4678000000.0 0.48074122468541014 -0.8673247600772371
4681000000.0 0.4693290235393663 -0.9053113182270416
4684000000.0 0.4618608941808855 -0.9006658719586385
4688000000.0 0.45732555472546965 -0.8800767273937921
4691000000.0 0.5014770928489676 -0.8820862362829344
4694000000.0 0.49263945280261395 -0.8810505139835427
4697000000.0 0.4424073575031928 -0.8783907684717883
4700000000.0 0.4830502540569478 -0.8814794738545401
4703000000.0 0.5066608675017535 -0.8282980143118622
4706000000.0 0.49207624645809284 -0.8841208091841454
4709000000.0 0.48426952409955515 -0.9021336815225591
4712000000.0 0.49589828458752383 -0.8874332944210719
4716000000.0 0.4861525084210933 -0.898706718308467
4719000000.0 0.5072298502291945 -0.8914631949543458
4722000000.0 0.5126740625933219 -0.871885553175897
4725000000.0 0.49798785408705154 -0.8883606590836672
4728000000.0 0.4840874496910762 -0.8758456216487736
4731000000.0 0.5142338779328219 -0.9095916599447695
4734000000.0 0.5054645851885262 -0.868018358356515
4738000000.0 0.5216076491378402 -0.9124176729637747
4741000000.0 0.4842056664182245 -0.9079016180465732
4744000000.0 0.49079867233376057 -0.9088090947560603
4747000000.0 0.4893053322750597 -0.8494961342401239
4750000000.0 0.5073494667107568 -0.8973805589732199
4753000000.0 0.5153933504187407 -0.878145733270893
4756000000.0 0.5015239234909485 -0.87642066154707
4759000000.0 0.49110517552754795 -0.8968493931757773
4762000000.0 0.45368900019052727 -0.9129668977511068
4766000000.0 0.46921619279039084 -0.8822044678592574
4769000000.0 0.5208617456478003 -0.9075256114941697
4772000000.0 0.49950434292403667 -0.8863952210424278
4775000000.0 0.4729334529464996 -0.934638425682112
4778000000.0 0.4811999900528677 -0.88533018695194
4781000000.0 0.5132314313946786 -0.8956402673059647
4784000000.0 0.49310000146352007 -0.8659805573342035
4788000000.0 0.4919030012216381 -0.9285769210270759
4791000000.0 0.4797407225775234 -0.8976570541617794
4794000000.0 0.5396920129976243 -0.8955750946167873
4797000000.0 0.4728091500465235 -0.8979179790295707
4800000000.0 0.4579043372148742 -0.8832196717205856
4803000000.0 0.4546624471006453 -0.9066238947649705
4806000000.0 0.4736780629987677 -0.9074160172691809
4809000000.0 0.44905170768339625 -0.9072096569122612
4812000000.0 0.4444828402817774 -0.9040548348714216
4816000000.0 0.48377958920866754 -0.8841187667799394
4819000000.0 0.5174202009761046 -0.8876006486825319
4822000000.0 0.5119795383140415 -0.9179850185533833
4825000000.0 0.5352726736504881 -0.9107170438113091
4828000000.0 0.47716036168186327 -0.8977510262097207
4831000000.0 0.4335129640288461 -0.9270724856677806
4834000000.0 0.4915475551556476 -0.8921776894117228
4838000000.0 0.500104185298639 -0.9189243754547971
4841000000.0 0.4658193947718119 -0.8886921687300674
4844000000.0 0.5154902328068186 -0.8889885316822501
4847000000.0 0.49020342813541495 -0.8582434648116138
4850000000.0 0.482134759573644 -0.9099608103883945
4853000000.0 0.4658677810343636 -0.8696260807775944
4856000000.0 0.4803544654014258 -0.8781943415525276
4859000000.0 0.4606916114082952 -0.9213907472105927
4862000000.0 0.5112105246622415 -0.872082104378544
4866000000.0 0.4766374498595452 -0.9167679607514088
4869000000.0 0.46017427433153124 -0.8857497526665108
4872000000.0 0.46732228342771376 -0.9185686865392236
4875000000.0 0.5478763879308436 -0.9033658901924034
4878000000.0 0.49406786812343206 -0.9017650650874782
4881000000.0 0.4679531733150242 -0.954451830924505
4884000000.0 0.5067654133319697 -0.8803114673332363
4888000000.0 0.5110276546264598 -0.8692367298297609
4891000000.0 0.5086958748522726 -0.9109538967321831
4894000000.0 0.47434258640677346 -0.8983262256963741
4897000000.0 0.49085802418217667 -0.8873106857787701
4900000000.0 0.4874982337351949 -0.9317863271634642
4903000000.0 0.5012372095470018 -0.8909266154686901
4906000000.0 0.4981642418550252 -0.9287930585051835
4909000000.0 0.4790801217221701 -0.9233493734417342
4912000000.0 0.473487692278469 -0.9790156746577396
4916000000.0 0.5264939940086982 -0.8973965313682132
4919000000.0 0.545899051754968 -0.9184052374933439
4922000000.0 0.5292277410999602 -0.8957451383102049
4925000000.0 0.4706522663102038 -0.8889642088844468
4928000000.0 0.5534637251539298 -0.8439170922303373
4931000000.0 0.5437959588621945 -0.9025499832246352
4934000000.0 0.48999966642241255 -0.8875512491574831
4938000000.0 0.46744279795932026 -0.8919297207352768
4941000000.0 0.5113532176741359 -0.8786621767506405
4944000000.0 0.4998873126045793 -0.8197180847500505
4947000000.0 0.48031465278951 -0.9031331235378302
4950000000.0 0.45257036637892123 -0.8992222852411125
4953000000.0 0.46036181604416904 -0.9454131796570369
4956000000.0 0.48500429943366746 -0.914326172897831
4959000000.0 0.4353119585550387 -0.9011970765794439
4962000000.0 0.5132221639863362 -0.900692950700364
4966000000.0 0.5693386029032508 -0.901132814438618
4969000000.0 0.5234074219098164 -0.9346886780869088
4972000000.0 0.46825710775788 -0.9305206388111591
4975000000.0 0.5130941954764833 -0.8604336740430603
4978000000.0 0.48949000623475936 -0.8847889836579919
4981000000.0 0.49043213863307283 -0.8861635425564579
4984000000.0 0.493370638059336 -0.8648046662679663
4988000000.0 0.5244298636183874 -0.8621508906642936
4991000000.0 0.5476678129215783 -0.891557529131616
4994000000.0 0.508283004821984 -0.8926800327909822
4997000000.0 0.4574668310904706 -0.9383026845580625
5000000000.0 0.5387085009807895 -0.9071117948699355
5003000000.0 0.5235257390957879 -0.9138074509291368
5006000000.0 0.5249936877391961 -0.9592402072173304
5009000000.0 0.5223715048019246 -0.8841713690270365
5012000000.0 0.5018288555987209 -0.9213091006389973
5016000000.0 0.5347924306967059 -0.9117236917778453
5019000000.0 0.5121243567619684 -0.8908726053228417
5022000000.0 0.5316150028826487 -0.9027498446918185
5025000000.0 0.5441957314685439 -0.9382360283647866
5028000000.0 0.510818624691827 -0.9378943896072551
5031000000.0 0.4802051484811447 -0.882312285328297
5034000000.0 0.5265239716190817 -0.9514147449836148
5038000000.0 0.46438846806439293 -0.8684109445500559
5041000000.0 0.5448271552327542 -0.8886534645157035
5044000000.0 0.5218609203399668 -0.8838837348771695
5047000000.0 0.5328684672989442 -0.8919735717359637
5050000000.0 0.5551975637921267 -0.867929584190937
5053000000.0 0.5348095210238418 -0.9588654986223891
5056000000.0 0.566636491045062 -0.8694509635761877
5059000000.0 0.581731352937312 -0.8657368157949406
5062000000.0 0.49203959066024733 -0.9352973647333813
5066000000.0 0.5511803379555555 -0.8895478929488041
5069000000.0 0.5472555614711669 -0.8873125947682172
5072000000.0 0.5356710598702357 -0.8806139704918354
5075000000.0 0.5360672012852779 -0.8602664327421204
5078000000.0 0.47971813505485644 -0.9192462486744455
5081000000.0 0.4726497203133976 -0.907836338383781
5084000000.0 0.5282363641356611 -0.9230958816208346
5088000000.0 0.5234264902507587 -0.8780259409558792
5091000000.0 0.48825289304552494 -0.9079008036986007
5094000000.0 0.5030593041988412 -0.8914280884474199
5097000000.0 0.5693936572304634 -0.8835701699266437
5100000000.0 0.4933188259498234 -0.8781831032417143
5103000000.0 0.49147544307935853 -0.9580130223372719
5106000000.0 0.5823757161064027 -0.9133757193848838
5109000000.0 0.5487574427142607 -0.8679579975314018
5112000000.0 0.5281024284464764 -0.8910598441045667
5116000000.0 0.4885245042065407 -0.8582330963850852
5119000000.0 0.5044816306599618 -0.9276429956527406
5122000000.0 0.5249339434588832 -0.9180963963135579
5125000000.0 0.5321669711396966 -0.8867686698480084
5128000000.0 0.49392579670719355 -0.9025077663355785
5131000000.0 0.542461741032171 -0.8911733397269608
5134000000.0 0.4944141876978861 -0.9098878515012306
5138000000.0 0.5343136297600379 -0.8906770442552524
5141000000.0 0.5473114976236394 -0.8870625113573354
5144000000.0 0.5470707690130585 -0.9170670528642544
5147000000.0 0.5833072748114544 -0.8881629153571613
5150000000.0 0.5481916700189045 -0.8714247636713837
5153000000.0 0.5110643421615932 -0.8863164299570776
5156000000.0 0.5417568822641966 -0.8750459995771045
5159000000.0 0.5755922576304797 -0.9110185932982293
5162000000.0 0.48994917331411053 -0.874561006028618
5166000000.0 0.5103696813417131 -0.9117600555077137
5169000000.0 0.5479300761206938 -0.883821732194575
5172000000.0 0.5714232963215701 -0.869120765020662
5175000000.0 0.5362553951100117 -0.8713627723525899
5178000000.0 0.5527705130811678 -0.897538221469423
