! Created with skrf 1.8.0 (http://scikit-rf.org).
# Hz S RI R 50.0 
!freq ReS11 ImS11
4000000000.0 0.5101812234758285 -0.9172391558259678
4003000000.0 0.48822942498566135 -0.9464692601319927
4006000000.0 0.4027495447931156 -0.9240668280109596
4009000000.0000005 0.47759666644885174 -0.9238412614381397
4011999999.9999995 0.5185770171340919 -0.9171680344203174
4016000000.0 0.4512886013847549 -0.9423918843939619
4019000000.0 0.4586074602249104 -0.8904729884647933
4022000000.0000005 0.4953944079469731 -0.8678664301034851
4025000000.0000005 0.4177437036090413 -0.9031186783665837
4027999999.9999995 0.44189572888072576 -0.9506894919147238
4030999999.9999995 0.4658334602209419 -0.9239756372926028
4034000000.0 0.4273134205819177 -0.9357640229709345
4038000000.0000005 0.4355176408956779 -0.937822146950631
4041000000.0000005 0.464947766479199 -0.9240798794234211
4043999999.9999995 0.5074297062417367 -0.959263982633094
4046999999.9999995 0.522092560039343 -0.9777766984134202
4050000000.0 0.4572118035363174 -0.950470477857236
4053000000.0 0.4375126081148123 -0.9127909414534128
4056000000.0 0.47392953724900455 -0.9275232571259235
4059000000.0 0.4793936743326044 -0.8887995657709479
4062000000.0000005 0.44432190641472985 -0.9276406085268233
4066000000.0 0.4189774622561675 -0.8955356556225977
4069000000.0 0.42436151468890637 -0.9832439324598006
4072000000.0 0.5078503283308914 -0.9218406577065801
4075000000.0 0.4756058250476042 -0.9785920375599362
4078000000.0000005 0.47261991813974735 -0.9358071680784614
4081000000.0000005 0.5023923165692256 -0.9422002920188111
4083999999.9999995 0.43691307414111835 -0.9489378336120037
4088000000.0 0.48320262820728144 -0.8957279649907565
4091000000.0 0.5201478415441372 -1.0038023872034665
4094000000.0000005 0.45772132390115017 -0.9240147786018135
4097000000.0000005 0.42358054476048523 -0.8956757868703666
4099999999.9999995 0.43321172980656186 -0.9328807511703343
4102999999.9999995 0.4787070012733978 -0.9181215334824138
4106000000.0 0.462056639755541 -0.9157708279259796
4109000000.0 0.4452208079695274 -0.9477542618315372
4112000000.0 0.4275738310364757 -0.9285031544045824
4115999999.9999995 0.4511971283834925 -0.933524561171646
4119000000.0 0.45679809365549634 -0.9283170177342639
4122000000.0 0.4293899716063653 -0.9224221876063855
4125000000.0 0.45156136246490025 -0.9540861216714559
4128000000.0 0.4411591455926549 -0.8688897827219952
4131000000.0 0.43061377516423316 -0.9103645263279964
4134000000.0000005 0.5141205667961399 -0.9316259067080185
4138000000.0 0.4282418267473813 -0.9299834001111513
4141000000.0 0.46015556340354824 -0.9105179748741205
4144000000.0 0.48589246714880296 -0.940974623882602
4147000000.0000005 0.4509900195469482 -0.9438580562755494
4150000000.0000005 0.4646718959918111 -0.9464842973826859
4152999999.9999995 0.4379931121658766 -0.9066192970151657
4155999999.9999995 0.45085210945374765 -0.9270630717240423
4159000000.0 0.44116367741724616 -0.915313483414496
4162000000.0 0.45101966366084245 -0.8985429134619446
4166000000.0000005 0.4309958912609328 -0.9482436845425457
4168999999.9999995 0.44629414436960013 -0.9284626664076643
4171999999.9999995 0.4827739122168407 -0.912619408486116
4175000000.0 0.4384711177030038 -0.936727987865621
4178000000.0 0.43789872050530554 -0.9442878950202819
4181000000.0 0.43932167833465363 -0.9262861823741635
4184000000.0 0.4606826965551711 -0.9122040315540164
4187999999.9999995 0.4362311509264952 -0.8943076180027996
4191000000.0 0.4752114152138694 -0.8953841679837556
4194000000.0 0.44300974245469865 -0.9130240254471634
4197000000.0 0.4456404111645522 -0.9364188981340698
4200000000.0 0.4494087759948251 -0.9022078516305571
4203000000.0000005 0.4788732416633532 -0.9264257973678919
4206000000.0000005 0.4505010832664302 -0.9190916129079141
4208999999.9999995 0.4478614725354715 -0.9258336179562561
4211999999.9999995 0.41155702135302397 -0.9203316575264325
4216000000.0 0.4644863304035719 -0.9163855457870338
4219000000.0000005 0.4524215489128527 -0.9267381135539725
4222000000.0000005 0.44937368681738354 -0.9281328778021907
4224999999.9999995 0.4501523551042883 -0.9100578350817494
4227999999.9999995 0.44645105789172723 -0.9221275703973808
4231000000.0 0.45026039958387887 -0.9210887998739402
4234000000.0 0.4384978175801675 -0.924275072605527
4238000000.0000005 0.43661432416533713 -0.9356855923505556
4240999999.9999995 0.44330248968133107 -0.911370439144772
4244000000.0 0.430004509842913 -0.8963560920437482
4247000000.0 0.45274322768142283 -0.911486776570317
4250000000.0 0.4409879379359629 -0.8957490611661793
4253000000.0 0.42032095774293554 -0.9099355648134848
4256000000.0 0.4472367529728402 -0.9387314408343856
4259000000.0000005 0.41635237371576767 -0.8912381246439806
4261999999.9999995 0.4266039336683636 -0.9279845795655044
4266000000.0 0.42147365505667883 -0.9278227924715885
4269000000.0 0.4444742816255591 -0.910471614196907
4272000000.0000005 0.4530655136668772 -0.9120970322249752
4275000000.0000005 0.4304974455902064 -0.9333612833604251
4277999999.9999995 0.4698449136377022 -0.9476797334436299
4280999999.9999995 0.4539129974313133 -0.9373364918947652
4284000000.0 0.41841853668647855 -0.9366825936641942
4288000000.0000005 0.4746284027744625 -0.9016348366214687
4291000000.0000005 0.4149550486074571 -0.8732931884115175
4293999999.9999995 0.43220961725103346 -0.9011119320867644
4297000000.0 0.454516741735884 -0.8970193002482216
4300000000.0 0.453842742409436 -0.9235116535659795
4303000000.0 0.42318306410198425 -0.9219463553957139
4306000000.0 0.428939489937858 -0.9191890677536073
4309000000.0 0.4574421454538819 -0.9084904861807485
4312000000.0 0.47539523884066337 -0.9124395119744647
4316000000.0 0.45882621644369226 -0.9369724639560725
4319000000.0 0.42583926628697866 -0.9273513951369688
4322000000.0 0.38928789190375324 -0.8975563368771042
4325000000.0 0.4338282614172093 -0.9168341281833884
4328000000.0 0.435499020190788 -0.8906775794029457
4331000000.0 0.4073622616158533 -0.9370276668532944
4334000000.0 0.42086412260462425 -0.9269578267820557
4338000000.0 0.44625256193829266 -0.9343611887891662
4341000000.0 0.4613619886389262 -0.9325227202526778
4344000000.0 0.435416750861422 -0.943447404013921
4347000000.0 0.3829415907486905 -0.9313064798063557
4350000000.0 0.4082603836165722 -0.9032868319497945
4353000000.0 0.432600740117964 -0.9048940201502361
4356000000.0 0.38364907359234574 -0.9109077635504744
4359000000.0 0.4137060976162865 -0.869787109877537
4362000000.0 0.36914160954569986 -0.9518670858902236
4366000000.0 0.42736736653959984 -0.9375458313573076
4369000000.0 0.3952614464198393 -0.9015212878660421
4372000000.0 0.38017171652384363 -0.9311559511432107
4375000000.0 0.42954290386167926 -0.9031998445891708
4378000000.0 0.4157066158894964 -0.8898368391280146
4381000000.0 0.4147110081856467 -0.8984739216838993
4384000000.0 0.4371591149195684 -0.9807820188462741
4388000000.0 0.412855963082146 -0.9027725356346159
4391000000.0 0.4290859023941295 -0.9327483965580551
4394000000.0 0.40278237033725595 -0.9050159795865187
4397000000.0 0.3998661046741536 -0.918590231899355
4400000000.0 0.411321800067891 -0.9465271139111325
4403000000.0 0.4237921882056001 -0.9387768673718405
4406000000.0 0.3906820582632393 -0.9237158894130574
4409000000.0 0.41823644526256654 -0.9534020016815576
4412000000.0 0.34919605174770074 -0.951464640744589
4416000000.0 0.38556426685889006 -0.9160962826763962
4419000000.0 0.3811518760400071 -0.9427300317599495
4422000000.0 0.4176570450740294 -0.90991690149183
4425000000.0 0.42851147300524733 -0.9404720664954249
4428000000.0 0.4046670501277501 -0.9375721868900679
4431000000.0 0.41837988790022435 -0.9372122627724027
4434000000.0 0.3856218675219453 -0.9256102531280259
4438000000.0 0.3972401880323144 -0.9538584125761409
4441000000.0 0.39920925621341463 -0.9492339932803989
4444000000.0 0.37792523654703386 -0.9091146795665344
4447000000.0 0.3843724625039683 -0.9439043962877873
4450000000.0 0.4001317560749112 -0.9173718696763968
4453000000.0 0.40086748822930013 -0.9460160640183417
4456000000.0 0.38024989773756346 -0.9027619863621006
4459000000.0 0.3763949930442569 -0.9049339137712559
4462000000.0 0.3848688234255133 -0.9841988987581965
4466000000.0 0.38855055894660867 -0.9788330951572399
4469000000.0 0.4022331749900435 -0.9246477054154906
4472000000.0 0.37911663613688307 -0.9692938090717044
4475000000.0 0.3892959120362971 -0.9148909183350926
4478000000.0 0.37584808828672095 -0.9664113844469735
4481000000.0 0.3604528967601114 -0.9146114096124776
4484000000.0 0.33449164894714867 -0.9601676824484601
4488000000.0 0.35690648499594546 -0.932798041599556
4491000000.0 0.3976415094384249 -0.9584703519454957
4494000000.0 0.3763367569293967 -0.9167552043384286
4497000000.0 0.3888306414431356 -0.9231493701470257
4500000000.0 0.37163060996880853 -0.9518939216414561
4503000000.0 0.389573955280409 -0.9526507913672848
4506000000.0 0.3354138915894869 -0.915905002987317
4509000000.0 0.37275004903668113 -0.901616529506926
4512000000.0 0.37267519919341446 -0.9162310404746787
4516000000.0 0.38339783547961376 -0.9514402787966734
4519000000.0 0.37059711564456727 -0.917491482627601
4522000000.0 0.3622299419244186 -0.9452540344364301
4525000000.0 0.40923195590727174 -0.9344263091377147
4528000000.0 0.3729254098722821 -0.9595942935138893
4531000000.0 0.36720115690966293 -0.9252468203879409
4534000000.0 0.35221900390124583 -0.9475600238333293
4538000000.0 0.3683244705992114 -0.9384301571351592
4541000000.0 0.32187623397768844 -0.9335420697625656
4544000000.0 0.37143210498292517 -0.9328932225616071
4547000000.0 0.3624832473530522 -0.9293501787978319
4550000000.0 0.35677750471172187 -0.9539005941939553
4553000000.0 0.3550635052516744 -0.9509423844499796
4556000000.0 0.33984405528868594 -0.9270006569737891
4559000000.0 0.3721800106821133 -0.9586743817068222
4562000000.0 0.359712590639038 -0.9521115302269532
4566000000.0 0.36118803094842616 -0.9602364730003566
4569000000.0 0.35146183790250746 -0.9474827188528532
4572000000.0 0.35792185049962233 -0.9296997957900082
4575000000.0 0.33842513562608895 -0.9512027214480769
4578000000.0 0.37768070874717163 -0.9494529524858333
4581000000.0 0.3309724986287825 -0.9479672308827972
4584000000.0 0.34200310139061046 -0.9336411205236405
4588000000.0 0.37434288524036735 -0.9454303988147266
4591000000.0 0.3565571187033268 -0.9438241724805632
4594000000.0 0.33591045410985104 -0.9542285091625062
4597000000.0 0.3345403197224748 -0.9671849012604048
4600000000.0 0.3234706279681613 -0.9413477093887642
4603000000.0 0.335928483706484 -0.9592607231744703
4606000000.0 0.3518474068880288 -0.9619399368640422
4609000000.0 0.345349309837561 -0.9413913498382678
4612000000.0 0.34493287646172727 -0.9478659318574119
4616000000.0 0.33194229550013576 -0.9488015542768558
4619000000.0 0.33442949702183467 -0.94405526831095
4622000000.0 0.3253699487838331 -0.9554004965040146
4625000000.0 0.3119840552600224 -0.942961850263544
4628000000.0 0.35699892425622787 -0.9524281047367011
4631000000.0 0.31340810481436054 -0.9547020922751731
4634000000.0 0.328994015616656 -0.9603902901392818
4638000000.0 0.3230818921215888 -0.9578495558262357
4641000000.0 0.3403569731031836 -0.9444166529295159
4644000000.0 0.34126348149701563 -0.953099481040632
4647000000.0 0.3347544860481769 -0.9605996537575713
4650000000.0 0.30726326048289765 -0.9592325801936995
4653000000.0 0.3415743898034218 -0.9675398623553706
4656000000.0 0.32185911888744656 -0.9565149882631693
4659000000.0 0.3134786780114429 -0.9753053167068388
4662000000.0 0.3107399398931853 -0.9762566444471946
4666000000.0 0.31005533803698093 -0.9614333846695041
4669000000.0 0.3149395187775215 -0.9729527481012443
4672000000.0 0.3180861844846011 -1.0007117518165436
4675000000.0 0.30706575798418523 -0.9780664486204159
4678000000.0 0.29049826537332407 -0.9361904835450766
4681000000.0 0.29365670401285354 -1.0307851745182475
4684000000.0 0.29419832478432983 -0.9884320703278352
4688000000.0 0.28943243511669364 -0.9746164589106456
4691000000.0 0.36684605241277424 -0.9591626651683528
4694000000.0 0.3280942659353919 -0.9276105651320724
4697000000.0 0.29758228804235437 -0.9313498491960402
4700000000.0 0.32755715030241084 -0.9587753501291576
4703000000.0 0.37411789226736697 -0.9084136053111668
4706000000.0 0.28955923839682157 -0.9850629345289581
4709000000.0 0.2946750694696 -0.9666159757706574
4712000000.0 0.31648119381471795 -0.9700374271949945
4716000000.0 0.314809999334201 -0.9724983699401457
4719000000.0 0.3408107247884785 -0.9508516169310485
4722000000.0 0.3590244106567239 -0.9682967821164083
4725000000.0 0.32530044811096287 -0.9731261389323048
4728000000.0 0.30856352316891505 -0.9772164803748454
4731000000.0 0.31592433396174835 -0.981812325166551
4734000000.0 0.35205208199223803 -0.9537144159965862
4738000000.0 0.33921915768484484 -0.9946026413597732
4741000000.0 0.259600540643846 -0.9915073425652151
4744000000.0 0.30456637950919674 -1.0143039043559972
4747000000.0 0.3423663016446471 -0.912453605325829
4750000000.0 0.3296214466918329 -0.9721608903941893
4753000000.0 0.3183817339344553 -0.9675002917107567
4756000000.0 0.28900067982247635 -0.9850223610634666
4759000000.0 0.2850479565230277 -0.9868237907734464
4762000000.0 0.2805097403813938 -0.9930340004357395
4766000000.0 0.2780175070875355 -0.9800437055381396
4769000000.0 0.30380377090708033 -1.002696895574816
4772000000.0 0.30180446133649586 -0.9754043296945338
4775000000.0 0.29798301791679194 -1.0171181546218833
4778000000.0 0.2873064519748387 -0.9967668100329602
4781000000.0 0.33564060290511843 -0.981218389814002
4784000000.0 0.30658564665467636 -0.9659086570005017
4788000000.0 0.2867336964299082 -0.9884265701875388
4791000000.0 0.3181584088491238 -0.9536332924290892
4794000000.0 0.34211185154949 -1.0190571262246042
4797000000.0 0.2897339221604877 -0.9844384123318741
4800000000.0 0.2925404549928775 -0.9555192164827835
4803000000.0 0.26313388325476056 -1.0106291171612827
4806000000.0 0.2947304490765086 -1.0083649975710374
4809000000.0 0.24511783318021393 -0.9864067990969658
4812000000.0 0.2548685686652041 -0.9865128418660617
4816000000.0 0.3334129078365453 -0.9426607936301574
4819000000.0 0.32877008892013826 -1.0009796316854753
4822000000.0 0.32796250783482817 -1.0092046776379089
4825000000.0 0.3123510236031658 -1.02230214397804
4828000000.0 0.2793887719046902 -0.9888815848003666
4831000000.0 0.26380815855413015 -1.0364052905544054
4834000000.0 0.30956065171733654 -0.98473020401916
4838000000.0 0.28334902661747574 -1.0083910215739356
4841000000.0 0.25930607511299436 -0.9972538672538449
4844000000.0 0.31730107584130907 -0.997304580175065
4847000000.0 0.3099900743145364 -0.946932466053219
4850000000.0 0.29098722438459806 -1.0240435827588432
4853000000.0 0.2784347421450496 -0.9662825832065323
4856000000.0 0.2913483292000616 -0.9708070500898259
4859000000.0 0.2671479839770093 -1.0424236710053163
4862000000.0 0.3114099859352829 -0.9645053797547294
4866000000.0 0.2669525081526227 -1.0043231100533636
4869000000.0 0.2729317591013539 -0.9917724487478203
4872000000.0 0.265748082595212 -1.0208544881265553
4875000000.0 0.33871420873751595 -1.0200032726231072
4878000000.0 0.26457549807254044 -0.9933143062527607
4881000000.0 0.2613723608547371 -1.060662269273344
4884000000.0 0.3068690309191564 -0.9912650422800081
4888000000.0 0.31860461615034386 -0.9802096615294497
4891000000.0 0.3354717132341678 -0.9874861683556222
4894000000.0 0.23652652124160975 -0.9741119695401861
4897000000.0 0.28020343356248445 -0.9941262160830815
4900000000.0 0.2945291553180475 -0.9904541697311108
4903000000.0 0.3036951859858943 -1.0260837341678402
4906000000.0 0.2991969569595324 -1.0226038468064396
4909000000.0 0.26698709272109244 -0.9847456528933205
4912000000.0 0.2548387821782875 -1.034947292572327
4916000000.0 0.2892911133170194 -1.0350469270156504
4919000000.0 0.327622199022683 -1.0487309452409772
4922000000.0 0.3071296486538753 -0.9799275603951711
4925000000.0 0.22510276526421852 -0.9649053595701739
4928000000.0 0.338753269475107 -0.9951023856527892
4931000000.0 0.2997896434355529 -1.0308799790656133
4934000000.0 0.24099507032191958 -0.9825907715746481
4938000000.0 0.24781467240276067 -1.0019659544361303
4941000000.0 0.2751114604466148 -0.9665213806635521
4944000000.0 0.27240171460597085 -0.9415281022615604
4947000000.0 0.281274811839408 -1.0040551262979829
4950000000.0 0.21439191028629212 -0.9746258656816029
4953000000.0 0.2472892077443944 -1.0806236257325468
4956000000.0 0.25865896074463235 -0.9880275390582108
4959000000.0 0.2281943847031821 -0.9772083869137724
4962000000.0 0.293632747125241 -1.0020602672933838
4966000000.0 0.3128804417900294 -1.006787840356888
4969000000.0 0.30878100938692055 -1.0463842234554641
4972000000.0 0.25973078055752685 -0.9911634438292911
4975000000.0 0.27234506726835583 -0.9574505065771921
4978000000.0 0.2510344053701719 -1.010961538919442
4981000000.0 0.23999890754206782 -1.0097136579085193
4984000000.0 0.2791292237384805 -1.0012929470942127
4988000000.0 0.25675432667303066 -0.9897552295791037
4991000000.0 0.3348846232789878 -0.9759458494639266
4994000000.0 0.2842078401466924 -1.0063202305067072
4997000000.0 0.21190805028334314 -0.9791213835869081
5000000000.0 0.2948728927749371 -1.0234643769977758
5003000000.0 0.28530372606858106 -1.027952815966803
5006000000.0 0.266844604457499 -1.049058855411597
5009000000.0 0.2795734989192432 -1.0309864794153185
5012000000.0 0.26772309712389203 -0.9958230459162181
5016000000.0 0.31353748683955035 -1.029340518825947
5019000000.0 0.2646943848452755 -1.0245815047033993
5022000000.0 0.2841197277780248 -0.997919892207447
5025000000.0 0.23811324581774163 -1.0542491223809884
5028000000.0 0.242699011171698 -1.0029707280876023
5031000000.0 0.23766131187928452 -1.0006510123739063
5034000000.0 0.2370531170624126 -1.0452253661903206
5038000000.0 0.21922556833922585 -0.9596173434741344
5041000000.0 0.29817278829684946 -1.0005704338560364
5044000000.0 0.28134689215211667 -0.9654390443238801
5047000000.0 0.2477607390449728 -1.0097379867559617
5050000000.0 0.31052435380798676 -0.9976343411105868
5053000000.0 0.23088591518158147 -1.0455247594677424
5056000000.0 0.2810287716268487 -0.9800917383107333
5059000000.0 0.28866004279721613 -1.0253172602499772
5062000000.0 0.22944496192419445 -1.013481558946638
5066000000.0 0.2830356406973225 -0.9894336472639598
5069000000.0 0.26264636054809704 -1.025809951883438
5072000000.0 0.24334672828003362 -0.9551354426351826
5075000000.0 0.2770856596488486 -1.0195226364414172
5078000000.0 0.22260393428211933 -1.0186966544324554
5081000000.0 0.22931832167787292 -0.9896979958254422
5084000000.0 0.19833972087558915 -1.0392985862098916
5088000000.0 0.2603264414426184 -0.9714211712040595
5091000000.0 0.22255629838448288 -0.9892965563989233
5094000000.0 0.21893944797993892 -1.012993967184596
5097000000.0 0.29347619544494696 -0.9521555516594209
5100000000.0 0.2820075971164997 -1.0024697445213924
5103000000.0 0.18801455886040208 -1.0215705391519143
5106000000.0 0.2305062346590468 -1.0163636411181836
5109000000.0 0.26228146898311844 -1.0332001625983538
5112000000.0 0.2116612541355426 -1.0428730777891333
5116000000.0 0.23615267928090428 -0.9914770763241827
5119000000.0 0.18397403803306478 -1.0250402647804346
5122000000.0 0.2326683982132144 -0.9987343551449481
5125000000.0 0.2544995763638935 -0.9742421567197934
5128000000.0 0.22770822385023193 -0.9810512426896256
5131000000.0 0.23993854000663317 -1.0234285655789384
5134000000.0 0.2004970292781723 -1.0094953574476506
5138000000.0 0.26477282568999744 -0.9969195263436668
5141000000.0 0.28926342774988173 -1.0440729707038419
5144000000.0 0.2789813624133116 -0.9584489360524981
5147000000.0 0.26660571760243307 -1.041973362450837
5150000000.0 0.2538494759927315 -1.0413936861810655
5153000000.0 0.2296581175437209 -1.025190300241411
5156000000.0 0.2448748549368328 -1.033700759909744
5159000000.0 0.25371931956185073 -1.0389509200234055
5162000000.0 0.2172580334744918 -1.021682281851924
5166000000.0 0.24596790013041098 -0.9856745174793691
5169000000.0 0.232141579949681 -1.0387441289927541
