! Created with skrf 1.8.0 (http://scikit-rf.org).
# Hz S RI R 50.0 
!freq ReS11 ImS11
4000000000.0 0.5400883909664931 -0.8497535666564768
4003000000.0 0.5741938424642034 -0.9206480259495509
4006000000.0 0.5143065593594517 -0.893367554134555
4009000000.0000005 0.6029627652555564 -0.8557082106672731
4011999999.9999995 0.6025813913192376 -0.877194511670416
4016000000.0 0.525797236529842 -0.9102329848873023
4019000000.0 0.5580251303115514 -0.8817980377317727
4022000000.0000005 0.6394804004474139 -0.8036174857172579
4025000000.0000005 0.4782572325891078 -0.8879023892105247
4027999999.9999995 0.5385289048732265 -0.8583356132908612
4030999999.9999995 0.5312409741771159 -0.8462868855814756
4034000000.0 0.5528209719649166 -0.878745031807006
4038000000.0000005 0.5599167788200616 -0.9260217770231196
4041000000.0000005 0.5400433621156305 -0.9042339930050528
4043999999.9999995 0.6021667788915853 -0.9274810747193682
4046999999.9999995 0.6120216173578843 -0.8668286070376418
4050000000.0 0.5308260679396626 -0.8903655462824558
4053000000.0 0.5417165604210537 -0.8592334578190604
4056000000.0 0.544243856166057 -0.8382565863072935
4059000000.0 0.5798110033158974 -0.8721776929947292
4062000000.0000005 0.546421014013108 -0.8497426561391511
4066000000.0 0.5249703780272633 -0.7968486381357931
4069000000.0 0.5349544383720686 -0.9160238368485507
4072000000.0 0.5984046487987081 -0.8369995711797007
4075000000.0 0.5904935593146347 -0.8739307801434867
4078000000.0000005 0.5488371706930805 -0.8865420168045889
4081000000.0000005 0.6341960282910909 -0.8764120503614716
4083999999.9999995 0.5302770570215939 -0.9007563655378954
4088000000.0 0.549563316941983 -0.8431075504624888
4091000000.0 0.5787667430529022 -0.946607584233595
4094000000.0000005 0.5748746864096173 -0.8706770443505698
4097000000.0000005 0.5698255554372141 -0.8641620486996491
4099999999.9999995 0.5473226385072505 -0.8396705794469201
4102999999.9999995 0.5903948245328127 -0.8835002229559243
4106000000.0 0.5680989650633913 -0.9043187526345484
4109000000.0 0.5427228081153471 -0.8815323739438337
4112000000.0 0.5413983476884965 -0.8623162769227444
4115999999.9999995 0.55326227900311 -0.8460257944708469
4119000000.0 0.5649313172795369 -0.8664270931690733
4122000000.0 0.5083597463332085 -0.8841554297435384
4125000000.0 0.5731457475672308 -0.9127593059559826
4128000000.0 0.5567974265653021 -0.8260284945820066
4131000000.0 0.5293348659570491 -0.8411472750960202
4134000000.0000005 0.5619602686257478 -0.8787257701132211
4138000000.0 0.576911595331842 -0.8819174403448076
4141000000.0 0.5603467335318982 -0.8533769713676455
4144000000.0 0.5895088591263555 -0.8535866664000279
4147000000.0000005 0.5350025991352323 -0.896384950735112
4150000000.0000005 0.5599290988511054 -0.8971058865368894
4152999999.9999995 0.5562147512576935 -0.8745737590082246
4155999999.9999995 0.5755217576387888 -0.87050461797029
4159000000.0 0.5858448386137972 -0.8491380869805206
4162000000.0 0.5362273889042761 -0.857638835877963
4166000000.0000005 0.5740355059864487 -0.8744676655961028
4168999999.9999995 0.5227114191199059 -0.8715461211911096
4171999999.9999995 0.5431357207257238 -0.8737525338268753
4175000000.0 0.5662530291247732 -0.8625520075794928
4178000000.0 0.5713995283311878 -0.8787740628240923
4181000000.0 0.568972446291653 -0.8853770483395732
4184000000.0 0.5467007678450427 -0.8365661426440325
4187999999.9999995 0.5387543633726551 -0.8660827224662424
4191000000.0 0.5776308518238013 -0.8318848190469393
4194000000.0 0.539023346030499 -0.8279780350499569
4197000000.0 0.5670950333233469 -0.8654898140701337
4200000000.0 0.5893131345655457 -0.8474235342182626
4203000000.0000005 0.5611162028324307 -0.8595293752295847
4206000000.0000005 0.5754007538893187 -0.868776624707573
4208999999.9999995 0.5583994776621812 -0.8424532878330481
4211999999.9999995 0.5242647405805586 -0.8662870175958252
4216000000.0 0.5781734562370322 -0.8537718109461785
4219000000.0000005 0.5692570464585237 -0.8837149516670519
4222000000.0000005 0.5584761161694209 -0.8782596479891506
4224999999.9999995 0.5548999428073607 -0.8518261791625975
4227999999.9999995 0.5510500319309884 -0.8813423412248069
4231000000.0 0.5595226780460802 -0.8810523532379124
4234000000.0 0.5386591871779329 -0.8694938106415728
4238000000.0000005 0.5576597477895047 -0.8758799467213172
4240999999.9999995 0.5266347095027418 -0.8535581722801016
4244000000.0 0.5543394896519982 -0.8400273423690747
4247000000.0 0.5589787081878921 -0.8651698148297242
4250000000.0 0.5427078764644993 -0.8637680297411946
4253000000.0 0.5320407540641332 -0.848717513186109
4256000000.0 0.5660546734794336 -0.87299745236765
4259000000.0000005 0.5289233104395727 -0.8330891034547434
4261999999.9999995 0.5465092893085652 -0.8630970856825612
4266000000.0 0.535053684763329 -0.8737771039408271
4269000000.0 0.570928167556137 -0.8609076758413112
4272000000.0000005 0.5537378399510704 -0.8532055408360373
4275000000.0000005 0.5553362721669921 -0.8691213838128196
4277999999.9999995 0.570206356556383 -0.8848094679492962
4280999999.9999995 0.5688540824549967 -0.8448916896031591
4284000000.0 0.5478650516692103 -0.886722449797638
4288000000.0000005 0.5851460794155602 -0.8358779655150125
4291000000.0000005 0.5603343570071602 -0.839131669688068
4293999999.9999995 0.5588206260695263 -0.8434307550941642
4297000000.0 0.5666377528147135 -0.8439060429388306
4300000000.0 0.5535439921349811 -0.8587153175311932
4303000000.0 0.5457484970873221 -0.8347820116889056
4306000000.0 0.5857448039475218 -0.8232346121111663
4309000000.0 0.552882580106413 -0.8360264300315677
4312000000.0 0.5904336296863311 -0.8606376637074039
4316000000.0 0.5590246648679404 -0.8755289741525518
4319000000.0 0.5375584913493552 -0.8239840575130162
4322000000.0 0.5188890773784471 -0.8496069406451814
4325000000.0 0.5680159854333104 -0.8636653559589068
4328000000.0 0.5598742877308517 -0.8571912385011681
4331000000.0 0.5145647057008272 -0.870798716810531
4334000000.0 0.5354489160324674 -0.8636602093868939
4338000000.0 0.5629374052371404 -0.833572926414116
4341000000.0 0.5817436577050665 -0.8514921580113795
4344000000.0 0.573667905332546 -0.8659795762206635
4347000000.0 0.5435895242059351 -0.8775512841046673
4350000000.0 0.5260119476326484 -0.8075729541118017
4353000000.0 0.554216651663159 -0.8149328757740634
4356000000.0 0.5346067831993677 -0.856894301509047
4359000000.0 0.5191428903052074 -0.806288776876015
4362000000.0 0.48402669443384433 -0.8743887775627651
4366000000.0 0.5582676034278522 -0.8751469862907872
4369000000.0 0.5236881936271583 -0.8343502841361298
4372000000.0 0.5045391454897742 -0.8624311673666065
4375000000.0 0.5451387990748316 -0.8546057095251605
4378000000.0 0.5355941913338136 -0.8230160318220491
4381000000.0 0.5513633760222442 -0.8321742653566637
4384000000.0 0.5708529605273572 -0.926701681742348
4388000000.0 0.5481563592685471 -0.8323421391169512
4391000000.0 0.552447302588844 -0.8535408536204538
4394000000.0 0.5264440209126957 -0.8295219784481876
4397000000.0 0.5393154986048986 -0.8507295445676057
4400000000.0 0.561872895586701 -0.8751104264267731
4403000000.0 0.5485299354985215 -0.8552114039862178
4406000000.0 0.5337609937729846 -0.8766994218365142
4409000000.0 0.5561841330728139 -0.8814917556061609
4412000000.0 0.48334175303459226 -0.8930075228866681
4416000000.0 0.5231767485742527 -0.8540016910227419
4419000000.0 0.5200096343742993 -0.8639722995629414
4422000000.0 0.5487553997394803 -0.8305695994441443
4425000000.0 0.5723894624262547 -0.8499585554858075
4428000000.0 0.5335970897345896 -0.870078138349853
4431000000.0 0.5524774672431852 -0.8566227823181971
4434000000.0 0.5262851144860814 -0.8423587703594693
4438000000.0 0.5505053327457148 -0.8745284790506724
4441000000.0 0.5526958587513237 -0.8605754280950113
4444000000.0 0.5259968317655219 -0.8286145953508813
4447000000.0 0.524669541569304 -0.8564826660977038
4450000000.0 0.5381183468729869 -0.8450821504706973
4453000000.0 0.5507029919334534 -0.8840905487326698
4456000000.0 0.5214597493670609 -0.853830753331353
4459000000.0 0.5010849093092048 -0.834239919037603
4462000000.0 0.5505850611531155 -0.9043562699338097
4466000000.0 0.5440160565421568 -0.8816921316191947
4469000000.0 0.5496303758649213 -0.8652018374812372
4472000000.0 0.5104832373291022 -0.8788037904543358
4475000000.0 0.5238773913726544 -0.8458861782048607
4478000000.0 0.5399889771379442 -0.9229107812672174
4481000000.0 0.49832984391282337 -0.829620920741607
4484000000.0 0.489489123517378 -0.8763497027471125
4488000000.0 0.500994915054604 -0.8519687112827152
4491000000.0 0.5340524894745962 -0.8534254071768189
4494000000.0 0.5051781790882746 -0.847092428384205
4497000000.0 0.5226333957180924 -0.8456211142258093
4500000000.0 0.5539055427769894 -0.8678605687626586
4503000000.0 0.5450815506765332 -0.8789099186895052
4506000000.0 0.5203436569771921 -0.8616715887209037
4509000000.0 0.5243188139166892 -0.8513481777487655
4512000000.0 0.49718940496828845 -0.8635772775490278
4516000000.0 0.5381093029011077 -0.8899968124019371
4519000000.0 0.5126395266010129 -0.8268456346756099
4522000000.0 0.5012202347370611 -0.876416703909596
4525000000.0 0.5494600408483411 -0.8305589838962317
4528000000.0 0.5299282192220378 -0.8782783531113831
4531000000.0 0.5383327906062765 -0.8512030019262404
4534000000.0 0.5121789661265159 -0.8553560763467234
4538000000.0 0.530359866707716 -0.8410206225797168
4541000000.0 0.4959484445687967 -0.8679947705020542
4544000000.0 0.5206794302474437 -0.8516867119369769
4547000000.0 0.5181269294551232 -0.8456532159720906
4550000000.0 0.5043122095750174 -0.9012807369207084
4553000000.0 0.5334610840480355 -0.8663898082627102
4556000000.0 0.4988099516093345 -0.877328670673353
4559000000.0 0.517568847722172 -0.8812824232906302
4562000000.0 0.5278551139952401 -0.876642172752157
4566000000.0 0.5225466092092665 -0.874534417698576
4569000000.0 0.5047874096551099 -0.8720759123616474
4572000000.0 0.5246558956623294 -0.8635234070957176
4575000000.0 0.5076432755134719 -0.8921745650995864
4578000000.0 0.5415174190808245 -0.8853961220994524
4581000000.0 0.511490989860367 -0.9042260575208484
4584000000.0 0.5072027373386417 -0.8719614170494283
4588000000.0 0.5343705237953569 -0.8748815711171094
4591000000.0 0.5268980974037214 -0.8638159141463402
4594000000.0 0.5063464989243989 -0.8695895868511427
4597000000.0 0.5324573375078068 -0.8802974462944014
4600000000.0 0.49265803235055416 -0.8867587943734161
4603000000.0 0.5049071219614935 -0.8846909973362708
4606000000.0 0.5331174661694396 -0.884224947961578
4609000000.0 0.5197608122581171 -0.8802703053055769
4612000000.0 0.5215814352953524 -0.89332948958554
4616000000.0 0.49596192932100225 -0.8723792978917775
4619000000.0 0.5245318248927933 -0.8731701614028592
4622000000.0 0.5120795491103715 -0.8771553993586916
4625000000.0 0.4756918341562789 -0.87127154392512
4628000000.0 0.5260412828873113 -0.8560675391466616
4631000000.0 0.49818291417442306 -0.872341919055613
4634000000.0 0.49162697710939834 -0.8851198678000762
4638000000.0 0.5133205327793519 -0.8828171211934595
4641000000.0 0.5095786709640764 -0.8635857530546864
4644000000.0 0.5198809033826477 -0.8617316145202061
4647000000.0 0.5199693424380465 -0.8780512521386726
4650000000.0 0.49561325820135615 -0.8711773624312618
4653000000.0 0.5256570921971924 -0.8844266838190478
4656000000.0 0.49064865744348585 -0.900894349379001
4659000000.0 0.49464306852997153 -0.8841956807944876
4662000000.0 0.5093033431311169 -0.8868081621834824
4666000000.0 0.5084304321308428 -0.876102431813265
4669000000.0 0.5165342572639461 -0.8970574086147802
4672000000.0 0.49615834527756325 -0.902417739777781
4675000000.0 0.4771625052923565 -0.9007551238659313
4678000000.0 0.49654867613080766 -0.8662525728795937
4681000000.0 0.4933805049620879 -0.8934840264469064
4684000000.0 0.4808215040466213 -0.8969154729621209
4688000000.0 0.48673218477308045 -0.8712168245088745
4691000000.0 0.510143274652691 -0.8811184535098635
4694000000.0 0.49293613138090303 -0.8582599054301272
4697000000.0 0.46980572934812315 -0.83310741971353
4700000000.0 0.5039154048228358 -0.8943381584569008
4703000000.0 0.5191544888516684 -0.8396696075988116
4706000000.0 0.5060408387020733 -0.8953356722009266
4709000000.0 0.4845323980902656 -0.8746982514331241
4712000000.0 0.522877200650674 -0.8895807826277006
4716000000.0 0.5051724721937478 -0.8951982256300364
4719000000.0 0.5289045870822012 -0.8778552538220862
4722000000.0 0.5229580160911218 -0.8891206358230792
4725000000.0 0.5060103913982715 -0.8819372881168175
4728000000.0 0.4858002190179112 -0.8714817832709285
4731000000.0 0.5195643241315258 -0.8901835236148691
4734000000.0 0.4922758094196118 -0.86705744544505
4738000000.0 0.545069244823328 -0.902269483527794
4741000000.0 0.49829608830126415 -0.8838759623976827
4744000000.0 0.48162191007008015 -0.9169695292575128
4747000000.0 0.5006044400659762 -0.8869823873789279
4750000000.0 0.502100183613879 -0.9062639190903545
4753000000.0 0.4932970538003058 -0.8872493160005134
4756000000.0 0.5023228901586468 -0.8939190450822743
4759000000.0 0.5225787684278802 -0.9046293457063096
4762000000.0 0.48748486692360676 -0.9330598191758966
4766000000.0 0.48520762091183833 -0.884108241845847
4769000000.0 0.5356173744191557 -0.8920417353162801
4772000000.0 0.5102192068686023 -0.8942863300004259
4775000000.0 0.5069560039401542 -0.9247258398985432
4778000000.0 0.5196220388404277 -0.9351372996962108
4781000000.0 0.4959670414846815 -0.8718112672366898
4784000000.0 0.5276456422858794 -0.8736245580640203
4788000000.0 0.5060137574915683 -0.9143953259260568
4791000000.0 0.48274772261509946 -0.9073064575904534
4794000000.0 0.529839660688769 -0.9165417122029711
4797000000.0 0.4783438720849419 -0.886503717611656
4800000000.0 0.5005962696704384 -0.8843718681211199
4803000000.0 0.4312092532692899 -0.8814110215863691
4806000000.0 0.5219767281762344 -0.8999961196375706
4809000000.0 0.4634470747404673 -0.8927368777067174
4812000000.0 0.4620392509711724 -0.8758951348671074
4816000000.0 0.494739726467906 -0.86955519885788
4819000000.0 0.5263166852585435 -0.9079991269023331
4822000000.0 0.5281162813989364 -0.9023412513083998
4825000000.0 0.5154153943103892 -0.9028240901171921
4828000000.0 0.5091038982149658 -0.8929528385067369
4831000000.0 0.4628657609594675 -0.9491630040798504
4834000000.0 0.5259765881767435 -0.910329626551046
4838000000.0 0.48768137981896664 -0.9136752872940579
4841000000.0 0.4730112247641721 -0.8886210321670198
4844000000.0 0.543218339036484 -0.8726999879291151
4847000000.0 0.49930196990566467 -0.8630348334345282
4850000000.0 0.4943900596830675 -0.9159107082321836
4853000000.0 0.5043516242435152 -0.8507073381053324
4856000000.0 0.49868938041676386 -0.8889872906734091
4859000000.0 0.507168670423033 -0.9408724663061343
4862000000.0 0.504861938367399 -0.8499925355668602
4866000000.0 0.47765710647174753 -0.9206689565352886
4869000000.0 0.48019842265136864 -0.9103065648279295
4872000000.0 0.49421043425790256 -0.9492944523266751
4875000000.0 0.5480437481173639 -0.9067713742814247
4878000000.0 0.5097439928197586 -0.8909120015646833
4881000000.0 0.5067080757646706 -0.987959092671878
4884000000.0 0.5070496323941265 -0.880094220923232
4888000000.0 0.5303086707994099 -0.8710013567312722
4891000000.0 0.5480676894731323 -0.9228104840789246
4894000000.0 0.48957908726437793 -0.9091400371106038
4897000000.0 0.5342173601713134 -0.8718462764144015
4900000000.0 0.5052196843433637 -0.9186875567590843
4903000000.0 0.5307037855770111 -0.9055101926594089
4906000000.0 0.5376000382205902 -0.9397893027464472
4909000000.0 0.5053643530965662 -0.9228351177553458
4912000000.0 0.5311004308500648 -0.9431206899861093
4916000000.0 0.5546719907326034 -0.9052418861363576
4919000000.0 0.5457653923658575 -0.9044674987884809
4922000000.0 0.5547859640584297 -0.8920522170055014
4925000000.0 0.49458866481457453 -0.8882331805196215
4928000000.0 0.5496755083982255 -0.8598819426615417
4931000000.0 0.5620850475266427 -0.8878383144594711
4934000000.0 0.5029454560701824 -0.8463958681970664
4938000000.0 0.4755099028810509 -0.904629675121176
4941000000.0 0.5254664383215295 -0.8725576052646338
4944000000.0 0.5156114403278834 -0.8071222474651589
4947000000.0 0.4987428134405317 -0.8683484457872586
4950000000.0 0.5040924972004269 -0.8927533333153665
4953000000.0 0.48295407473626617 -0.9361646503686404
4956000000.0 0.46502025849759937 -0.9023871584150697
4959000000.0 0.4566301142833726 -0.8873616585327023
4962000000.0 0.5163194747661181 -0.9398796954212872
4966000000.0 0.5244510148326302 -0.909437818234142
4969000000.0 0.551301052819124 -0.9024384415486946
4972000000.0 0.4824969228670313 -0.8816075266423095
4975000000.0 0.5329568004513279 -0.8749808850097348
4978000000.0 0.5010770937630866 -0.9298697589526496
4981000000.0 0.48561842174072245 -0.8902796193921346
4984000000.0 0.5169751011062931 -0.8748564373084613
4988000000.0 0.5386411986731169 -0.8704998806265778
4991000000.0 0.5772877388537128 -0.8774940336937754
4994000000.0 0.550756988624676 -0.888655180612702
4997000000.0 0.4653196710254607 -0.91153547358238
5000000000.0 0.5478746428978776 -0.9095687527259839
5003000000.0 0.5371955924929886 -0.906328276378623
5006000000.0 0.5506699836935952 -0.952327825887523
5009000000.0 0.5054169264035768 -0.9082498206716075
5012000000.0 0.5094363324067819 -0.9067785041511105
5016000000.0 0.5816407779950873 -0.9070586518272897
5019000000.0 0.49693595047873274 -0.9203293923987529
5022000000.0 0.5081784347932284 -0.9112309864609108
5025000000.0 0.5613340901577866 -0.9538658461631011
5028000000.0 0.4991731657938214 -0.9382263117943905
5031000000.0 0.49901708793770116 -0.897805551277339
5034000000.0 0.53242427577385 -0.9543236657241354
5038000000.0 0.4822283970761088 -0.8752051776463914
5041000000.0 0.5531319734949228 -0.8831484036291575
5044000000.0 0.5361131728841333 -0.8529071306967576
5047000000.0 0.5270176590028257 -0.8861263437033222
5050000000.0 0.5689704076712573 -0.8462081573354324
5053000000.0 0.5519588468347291 -0.9732986343330243
5056000000.0 0.5523575687816908 -0.861143880295223
5059000000.0 0.5483886747004487 -0.8551170374470831
5062000000.0 0.5351454827413329 -0.9286520722829472
5066000000.0 0.5720054978661997 -0.8364546246548784
5069000000.0 0.5465283868039281 -0.8836919334601953
5072000000.0 0.5213214970601445 -0.8920674469690144
5075000000.0 0.5800329291724591 -0.8587237499252537
5078000000.0 0.4646142913382149 -0.910074295671057
5081000000.0 0.5095531210279336 -0.8523394170721832
5084000000.0 0.5629601449704695 -0.9251393522204573
5088000000.0 0.5008272480077453 -0.84818299309489
5091000000.0 0.5316819259221972 -0.9079372448547
5094000000.0 0.5446832150859493 -0.9074228552964917
5097000000.0 0.6035637008634325 -0.8982782698548871
5100000000.0 0.522837845912823 -0.8753402586262291
5103000000.0 0.5196101358987769 -0.8904411170968729
5106000000.0 0.6097916256725928 -0.9144622202962265
5109000000.0 0.5603714280585599 -0.8839360393486505
5112000000.0 0.5463997083818747 -0.8502967891147346
5116000000.0 0.532384224183147 -0.819613752666351
5119000000.0 0.5762525512618828 -0.9750015644931489
5122000000.0 0.5568051304730182 -0.8695365981998837
5125000000.0 0.5413786836523115 -0.8681121198122282
5128000000.0 0.5668427253038657 -0.8887706854663966
5131000000.0 0.5035482797691511 -0.8592863545268361
5134000000.0 0.522265844608881 -0.8699106772326439
5138000000.0 0.5593893904854235 -0.9080992617004244
5141000000.0 0.59569205459663 -0.8495513658898475
5144000000.0 0.5678285031684386 -0.8902480594558713
5147000000.0 0.5535301721718408 -0.9277261605352641
5150000000.0 0.5967928875831436 -0.8780991120158256
5153000000.0 0.5693418988111303 -0.8904415907759766
5156000000.0 0.5834622351585941 -0.8471300761512006
5159000000.0 0.5447701059980103 -0.8895191765799038
5162000000.0 0.5240456703348821 -0.9041511517251091
5166000000.0 0.5115196781679983 -0.8601721861331315
5169000000.0 0.5588758826303515 -0.9021907780200782
5172000000.0 0.552766271042267 -0.85466236180883
5175000000.0 0.6166134169778231 -0.892688828272021
5178000000.0 0.5451395543482094 -0.89035746217534
5181000000.0 0.5759783089262778 -0.8832811066643096
