! Created with skrf 1.8.0 (http://scikit-rf.org).
# Hz S RI R 50.0 
!freq ReS11 ImS11
4000000000.0 0.478885345232291 -0.9470148901562703
4003000000.0 0.4540601230234925 -0.9317602139695902
4006000000.0 0.4785979809822606 -0.9097897767247952
4009000000.0000005 0.4938025671443463 -0.9178315261766422
4011999999.9999995 0.5135880259746686 -0.8905005002810571
4016000000.0 0.49731691997154326 -1.005933630424283
4019000000.0 0.4715193836075573 -0.9178300170753397
4022000000.0000005 0.583819698239733 -0.887918026703725
4025000000.0000005 0.46188298760261026 -0.9668525379912754
4027999999.9999995 0.5167830410030103 -0.9379850391015062
4030999999.9999995 0.4445900240677261 -0.9076292046725732
4034000000.0 0.4809783490525416 -0.8784995494779264
4038000000.0000005 0.46388320084296886 -0.9659256426530433
4041000000.0000005 0.4725596062710592 -0.962354709055042
4043999999.9999995 0.4965542743893157 -0.9772599177650882
4046999999.9999995 0.5171664621346361 -0.9538899751020216
4050000000.0 0.48245106582453484 -0.9333018897818851
4053000000.0 0.44520570841442497 -0.9123763200669308
4056000000.0 0.4900844621305561 -0.8837099753605975
4059000000.0 0.49138767885982143 -0.897070136738693
4062000000.0000005 0.4709367306864779 -0.909803686152515
4066000000.0 0.42278150313064244 -0.8782042523314487
4069000000.0 0.48100421754425926 -0.9447685105330708
4072000000.0 0.5365202571210119 -0.9465247548859774
4075000000.0 0.5443742926105227 -0.9375071587662089
4078000000.0000005 0.4599746244710875 -0.9512108633708609
4081000000.0000005 0.539592367925432 -0.9148187882699899
4083999999.9999995 0.44049293690074226 -0.9622681398049195
4088000000.0 0.5115309374691533 -0.8949330891033589
4091000000.0 0.49678710609619947 -0.9570611205923775
4094000000.0000005 0.5010827357319039 -0.9155674532742105
4097000000.0000005 0.4670491617914132 -0.9271023893394179
4099999999.9999995 0.47411673865966025 -0.9161539258657911
4102999999.9999995 0.5147431144169741 -0.9196610227159411
4106000000.0 0.47958437876069093 -0.9539542266704676
4109000000.0 0.4804835893350763 -0.9318654629470102
4112000000.0 0.49114905033355016 -0.910563245828394
4115999999.9999995 0.4961340763603542 -0.9187011255816604
4119000000.0 0.47003135982373867 -0.9330933379085304
4122000000.0 0.4360785377030651 -0.9404666930990065
4125000000.0 0.4644783149679296 -0.9396333862084443
4128000000.0 0.49729765406433296 -0.8940345631815264
4131000000.0 0.46864756857759093 -0.9106982019971852
4134000000.0000005 0.49466317689597705 -0.8877747958792842
4138000000.0 0.4461165134935382 -0.9230660133002355
4141000000.0 0.48130977131840735 -0.9165783834063695
4144000000.0 0.4497206655680059 -0.9085718418394285
4147000000.0000005 0.4356750030351327 -0.8972633988874837
4150000000.0000005 0.47883685590506286 -0.9352563273766344
4152999999.9999995 0.4797119004264748 -0.9031688108139798
4155999999.9999995 0.49844478551357974 -0.8962651700858408
4159000000.0 0.46274456711531253 -0.882059753030015
4162000000.0 0.4942419009195695 -0.9053459259013297
4166000000.0000005 0.4774286376137286 -0.927225353423455
4168999999.9999995 0.4572676000287694 -0.9276900373633093
4171999999.9999995 0.4599416352197566 -0.9261659085181448
4175000000.0 0.485963818968067 -0.9154683964966729
4178000000.0 0.47438555734427085 -0.9112298048476482
4181000000.0 0.4544514827550272 -0.914635537729464
4184000000.0 0.4778321483010456 -0.9132016314862905
4187999999.9999995 0.47374328056311393 -0.9122341495949694
4191000000.0 0.518779527331214 -0.8988180951161956
4194000000.0 0.4544335718454181 -0.8980016426287869
4197000000.0 0.4679062939519517 -0.88888844480559
4200000000.0 0.4713672062909472 -0.8964273753899455
4203000000.0000005 0.49662492875654696 -0.9149923744222502
4206000000.0000005 0.4746199048237698 -0.920712324562271
4208999999.9999995 0.47436785174345075 -0.8811062985435573
4211999999.9999995 0.44778294906618876 -0.932066220927692
4216000000.0 0.4748730628186468 -0.9159844957227453
4219000000.0000005 0.4784180135318689 -0.9264077257794021
4222000000.0000005 0.45976613350468354 -0.9260816574549507
4224999999.9999995 0.4631675697914115 -0.8983299039841025
4227999999.9999995 0.4850787640294789 -0.9247660795656462
4231000000.0 0.4675120241261447 -0.9000319637028519
4234000000.0 0.45261799109433937 -0.9237346811342575
4238000000.0000005 0.46423844885560994 -0.9231144363351915
4240999999.9999995 0.4488563494401313 -0.8932832362840217
4244000000.0 0.45490349571132904 -0.9193383727093518
4247000000.0 0.4726078607494635 -0.8901198228468915
4250000000.0 0.44894228306314565 -0.8943166318112632
4253000000.0 0.43148245691455955 -0.8827031131306303
4256000000.0 0.4619443190873679 -0.9335689839563559
4259000000.0000005 0.43476619569352815 -0.8809415135017116
4261999999.9999995 0.42983250160823305 -0.9353194373321491
4266000000.0 0.4442398116968826 -0.9423349187242052
4269000000.0 0.47054630621475096 -0.9054471147644619
4272000000.0000005 0.4545589017727372 -0.8950663904116267
4275000000.0000005 0.4745882945795906 -0.881880660434985
4277999999.9999995 0.47055824186769046 -0.9256148258614353
4280999999.9999995 0.4622374892955559 -0.8995666779531428
4284000000.0 0.4250902363748501 -0.9217505072455107
4288000000.0000005 0.4823546763256667 -0.8964714615233267
4291000000.0000005 0.4423539490746282 -0.8916880622631881
4293999999.9999995 0.45827150784050924 -0.8894789305390215
4297000000.0 0.456362895738033 -0.8823410313673594
4300000000.0 0.4498706967614609 -0.891895361996992
4303000000.0 0.4391035319891202 -0.9002687958648041
4306000000.0 0.4850963500945915 -0.8811299752909477
4309000000.0 0.4633653514064142 -0.8981050992606098
4312000000.0 0.471224703489653 -0.9000190426268626
4316000000.0 0.48923104207574125 -0.9143599352452425
4319000000.0 0.4497800503726634 -0.8991327185262586
4322000000.0 0.4186879936363726 -0.9003259338359664
4325000000.0 0.4509790650809723 -0.9168265475558428
4328000000.0 0.45104277375790625 -0.8774099406892233
4331000000.0 0.4360010719694154 -0.9210650718795043
4334000000.0 0.46534213139644187 -0.9063584504783236
4338000000.0 0.4655481914804779 -0.9116256235047905
4341000000.0 0.49354517556764393 -0.9139869814743017
4344000000.0 0.4723581025974474 -0.9413575882005619
4347000000.0 0.42230253014886143 -0.9162737300691461
4350000000.0 0.4160044752681002 -0.8668927354381686
4353000000.0 0.4564913091635087 -0.8569611688531668
4356000000.0 0.4352070663140218 -0.9004841052260745
4359000000.0 0.4244225561892272 -0.8786965421905399
4362000000.0 0.41536708305840864 -0.943191044064234
4366000000.0 0.46087263149451296 -0.9331868238892053
4369000000.0 0.4269197792720951 -0.8779962857986257
4372000000.0 0.4130521991246132 -0.9287729050354149
4375000000.0 0.46879574466681284 -0.9006923153931556
4378000000.0 0.42633710311345835 -0.8928616181194153
4381000000.0 0.4476385958025108 -0.8916579071889484
4384000000.0 0.45369883681007683 -0.9759493362033033
4388000000.0 0.42553838275624944 -0.9010901939867748
4391000000.0 0.4612749750724724 -0.9050276823419952
4394000000.0 0.41559870016616723 -0.891145675205297
4397000000.0 0.4333722193386276 -0.9232556676665702
4400000000.0 0.44333509388604464 -0.9315056040000111
4403000000.0 0.4387574803208685 -0.9264108978444126
4406000000.0 0.42574940905221625 -0.918212024713481
4409000000.0 0.4424510275452508 -0.9501330601255216
4412000000.0 0.3849421434054534 -0.9304655541831055
4416000000.0 0.4122026532754987 -0.916344599540161
4419000000.0 0.40933233058895874 -0.9207903526030164
4422000000.0 0.4393257119815779 -0.8998011459724574
4425000000.0 0.45264471681614227 -0.9160130711370891
4428000000.0 0.428616173334047 -0.9153686335245845
4431000000.0 0.4500516973070249 -0.929395106081388
4434000000.0 0.4130289597988663 -0.9163501079153682
4438000000.0 0.43924190798660534 -0.9243924253300269
4441000000.0 0.44606718470265144 -0.9333811882434511
4444000000.0 0.4272563860676491 -0.9150857726555679
4447000000.0 0.4071774952834472 -0.9205212177851763
4450000000.0 0.43590285104079235 -0.9019583725472249
4453000000.0 0.4223162739385409 -0.9454010444590725
4456000000.0 0.40303879402654325 -0.9101752855710465
4459000000.0 0.38627600373689264 -0.9017528837714335
4462000000.0 0.45107222070561165 -0.9725673093249239
4466000000.0 0.44712286924488337 -0.9552200901295316
4469000000.0 0.43094134191965816 -0.9225029000832121
4472000000.0 0.40300363847298093 -0.938152962274518
4475000000.0 0.42337063616224924 -0.8911462467196416
4478000000.0 0.4148237942144625 -0.9797892054718558
4481000000.0 0.39702496675845483 -0.8934138120003332
4484000000.0 0.3764716729930831 -0.9416773568994716
4488000000.0 0.40828779014215894 -0.9104868786806345
4491000000.0 0.4041448479468374 -0.9436553297369532
4494000000.0 0.4040469486310639 -0.9127894678513504
4497000000.0 0.39483197173045154 -0.907264075339299
4500000000.0 0.41557508308549723 -0.9068601046890816
4503000000.0 0.43144086606079096 -0.950650516000637
4506000000.0 0.3955297198005995 -0.9169016032727392
4509000000.0 0.3939451330979899 -0.905806936390251
4512000000.0 0.39508850168001947 -0.901740941432323
4516000000.0 0.4291674075234599 -0.9389427983170802
4519000000.0 0.41319358594871364 -0.9071448419383623
4522000000.0 0.4048931981733224 -0.9410015747883571
4525000000.0 0.4240574149125689 -0.9144656195985748
4528000000.0 0.4016388782939493 -0.9442990724577766
4531000000.0 0.40838515312349455 -0.9012257320933068
4534000000.0 0.3817499106338323 -0.9179525127069544
4538000000.0 0.39559567879890617 -0.9251335551238027
4541000000.0 0.3680245198358232 -0.9313558289825508
4544000000.0 0.4106421757055237 -0.9126177522873793
4547000000.0 0.39966329552042046 -0.9193403069418975
4550000000.0 0.39028677932217687 -0.9401399136177235
4553000000.0 0.4000713264622741 -0.9425019237974491
4556000000.0 0.3721426255209585 -0.9346784573882028
4559000000.0 0.38412897410473157 -0.9310686901291605
4562000000.0 0.4094474119251517 -0.9222376252498211
4566000000.0 0.3796351454840025 -0.9427415978615586
4569000000.0 0.3768894585016783 -0.9304040726976415
4572000000.0 0.39901760422857296 -0.9442691832162781
4575000000.0 0.35704557884367155 -0.9393554333809155
4578000000.0 0.4140610317655333 -0.9630143737141366
4581000000.0 0.3831366241589919 -0.9458805779745423
4584000000.0 0.37056497286160234 -0.9412729655537106
4588000000.0 0.3975361977160431 -0.9593010916505413
4591000000.0 0.3894269362698746 -0.9349738546872128
4594000000.0 0.36597637861660864 -0.9360237223663115
4597000000.0 0.37795927378000105 -0.9625967921350489
4600000000.0 0.35433134748983064 -0.9390178294634846
4603000000.0 0.3747476021863029 -0.9467595621618773
4606000000.0 0.3864006820748418 -0.9618631903374013
4609000000.0 0.38058460221154455 -0.9366211113243145
4612000000.0 0.36514656262775297 -0.9549062060306545
4616000000.0 0.3774440771930788 -0.9226149538385474
4619000000.0 0.38380337697493183 -0.9296345056496589
4622000000.0 0.362593076712347 -0.9535773572126318
4625000000.0 0.3591538170324624 -0.9406150943626083
4628000000.0 0.39332250886341147 -0.9305709021204218
4631000000.0 0.37082029716037546 -0.949100322581313
4634000000.0 0.34149893123593256 -0.9322906306216708
4638000000.0 0.37168652796413437 -0.9430866961044106
4641000000.0 0.3869726836820551 -0.94591477520865
4644000000.0 0.3655426344976548 -0.9451099256998358
4647000000.0 0.3859964021225412 -0.9467294122469592
4650000000.0 0.3481107503888734 -0.9326701057797052
4653000000.0 0.3819430613483568 -0.9696352104276657
4656000000.0 0.3585482765159856 -0.9378679096466521
4659000000.0 0.34376900801087906 -0.9542588855393936
4662000000.0 0.36253411949698283 -0.9474705552381566
4666000000.0 0.34047060293694975 -0.9608408559123022
4669000000.0 0.37788932288884775 -0.9452163112998332
4672000000.0 0.3441724974590885 -0.977789990507457
4675000000.0 0.32748115225948615 -0.9810263072451215
4678000000.0 0.341658949414208 -0.9368357639462092
4681000000.0 0.35415590513151946 -0.9603617769476699
4684000000.0 0.3389298005708847 -0.9694587346947623
4688000000.0 0.32013104407918475 -0.9573389839252129
4691000000.0 0.39040190153694043 -0.9448938694792395
4694000000.0 0.3816447417300746 -0.934284397023619
4697000000.0 0.3235688460787132 -0.9293838595790261
4700000000.0 0.3723571027363931 -0.9504147212996364
4703000000.0 0.37475762103441834 -0.9125857599019597
4706000000.0 0.320993867571668 -0.9715764563208128
4709000000.0 0.3293233027563358 -0.9628991561588424
4712000000.0 0.3587580720915029 -0.947835423941217
4716000000.0 0.3531082714108306 -0.975754557728421
4719000000.0 0.390973272288643 -0.9392056403360803
4722000000.0 0.38144035334693754 -0.9511023151392651
4725000000.0 0.34734208517157394 -0.9549162534182819
4728000000.0 0.35498765649531583 -0.9734538113699321
4731000000.0 0.3877075956043647 -1.0005734163047404
4734000000.0 0.3714890254892685 -0.9575283199107419
4738000000.0 0.35415150430536657 -0.9731211597880403
4741000000.0 0.340571061565644 -0.9663455928101714
4744000000.0 0.34682458922198445 -0.9613220125129148
4747000000.0 0.33577028369469497 -0.9109935127095276
4750000000.0 0.3397858776445772 -0.9538555760562529
4753000000.0 0.35474262060795014 -0.9545100415951299
4756000000.0 0.368346460330293 -0.970174704381088
4759000000.0 0.3551108907599725 -0.9332700490482746
4762000000.0 0.31469797641224917 -1.013004888365782
4766000000.0 0.3601733866802859 -0.9613662436835078
4769000000.0 0.3437528076605215 -0.9503634328909699
4772000000.0 0.3437999250708562 -0.9803787549294923
4775000000.0 0.31843159039757396 -1.0020085441269604
4778000000.0 0.33205289933723037 -0.9809690940644032
4781000000.0 0.3548707042810776 -0.9363195562053419
4784000000.0 0.35448574374906205 -0.9579253514440592
4788000000.0 0.3661267176475157 -0.9904790494773305
4791000000.0 0.32071309555070004 -0.9616487164397436
4794000000.0 0.38294902069374714 -0.9961007928188679
4797000000.0 0.3313420637113914 -0.9480989523006533
4800000000.0 0.32665480076713244 -0.9733587393559163
4803000000.0 0.27566472719188856 -0.969470572446484
4806000000.0 0.328389664803146 -0.9813174711467619
4809000000.0 0.2720697599311638 -0.9998981956265115
4812000000.0 0.2736512510627838 -0.9668622397999957
4816000000.0 0.3492964540175009 -0.9523741433287503
4819000000.0 0.35174574278892823 -0.9982529133645154
4822000000.0 0.35661327391766606 -1.0037369931629754
4825000000.0 0.3615256505121509 -0.9853079300283047
4828000000.0 0.3285369146693299 -0.962100587762945
4831000000.0 0.2928269546332372 -1.0025154573963202
4834000000.0 0.3458928974174755 -0.975352346335734
4838000000.0 0.3204265971320038 -1.0005262871584573
4841000000.0 0.3298507299707485 -0.9484045488220961
4844000000.0 0.37819408671651883 -0.9694987860080859
4847000000.0 0.33585579487622147 -0.9380694228583544
4850000000.0 0.3362592125343336 -0.9974656077079501
4853000000.0 0.3316907809124957 -0.9506410370871119
4856000000.0 0.3372327845801394 -0.9592802619958991
4859000000.0 0.3351988721432474 -1.0266295885511556
4862000000.0 0.34282157874594243 -0.9351132523392583
4866000000.0 0.3106225462998492 -1.010948370983904
4869000000.0 0.32309633949992933 -0.9839321472962732
4872000000.0 0.3074755204770162 -1.022207249649563
4875000000.0 0.3800231831833068 -1.004857391906315
4878000000.0 0.36629042918942867 -0.9907623618989021
4881000000.0 0.3043541985315745 -1.0656596500220707
4884000000.0 0.36950092892408554 -1.0002904114459203
4888000000.0 0.3649514919746551 -0.9472539867586548
4891000000.0 0.35967104404081374 -1.0164948032854735
4894000000.0 0.3153659212664318 -0.9731936674956149
4897000000.0 0.34556914225018687 -0.9693503640115697
4900000000.0 0.35800274575533675 -1.0144558151087515
4903000000.0 0.34000637546445184 -0.9861800270153268
4906000000.0 0.32726817201547553 -0.9831573794280178
4909000000.0 0.31939250546647296 -0.966449158224495
4912000000.0 0.3296876692259513 -1.0179085872615796
4916000000.0 0.34541908449415104 -0.9918338044991022
4919000000.0 0.3346545524081399 -1.0299989590531518
4922000000.0 0.39118155884556194 -0.9944078362958295
4925000000.0 0.3046043800151686 -0.9952843046223402
4928000000.0 0.39987956936471536 -0.9492458863517906
4931000000.0 0.34124193627018407 -1.0104736915705568
4934000000.0 0.30191094426259635 -0.9657549369014609
4938000000.0 0.3236924358222 -0.9975689315561544
4941000000.0 0.3249854456022325 -0.9525374881189775
4944000000.0 0.36309728908749217 -0.9333447950779982
4947000000.0 0.3049984059741982 -0.9566754995313766
4950000000.0 0.3299531472231031 -0.9841168102182457
4953000000.0 0.299439697864962 -1.0363196704134123
4956000000.0 0.31396059822328604 -0.9811140575837429
4959000000.0 0.2809555215177822 -0.9815622258294732
4962000000.0 0.29303018549936166 -0.9917679915110817
4966000000.0 0.3527793823055751 -1.0359278121971043
4969000000.0 0.3721463882405975 -1.0185481531233227
4972000000.0 0.3257375106692696 -0.9915530714217697
4975000000.0 0.3485987168966761 -0.9600900149134504
4978000000.0 0.3166797025077273 -0.9928976739724142
4981000000.0 0.2876809468473344 -0.9924812827340688
4984000000.0 0.336795019061199 -0.988465197878163
4988000000.0 0.3332769104732268 -0.980864345536866
4991000000.0 0.3865439899869016 -0.9916839994416656
4994000000.0 0.34036125524812927 -0.9883727910079887
4997000000.0 0.28681247904717583 -0.9889488397396133
5000000000.0 0.3716339651427416 -1.0109123304624195
5003000000.0 0.3698231642790755 -1.018699508265134
5006000000.0 0.3198483570940764 -1.0179960988485237
5009000000.0 0.33686669928629326 -0.9808266336549651
5012000000.0 0.2983352790753651 -1.0187795877052976
5016000000.0 0.3623688779203689 -1.030390549034681
5019000000.0 0.3056334764475378 -0.9762712206635847
5022000000.0 0.33364734579537314 -1.0225558795163812
5025000000.0 0.31449760396367715 -1.0180691958594825
5028000000.0 0.3396667871760169 -1.0060039166018901
5031000000.0 0.2677397433299717 -0.9888582224833461
5034000000.0 0.306310691920393 -1.0069030297184614
5038000000.0 0.31644193712598984 -0.971020726040245
5041000000.0 0.373684204302366 -0.984717962322228
5044000000.0 0.3692948661530969 -0.9632356739193241
5047000000.0 0.33612286946158043 -0.9849133034252706
5050000000.0 0.38618730852730354 -0.9609684340553171
5053000000.0 0.31566600715573645 -1.053035729202616
5056000000.0 0.36420362461397926 -0.9461963360058305
5059000000.0 0.3355941971212258 -1.0310484596487006
5062000000.0 0.3317520277353842 -0.9818032165322592
5066000000.0 0.3935801683983253 -1.020758582954664
5069000000.0 0.3141594035975906 -0.9744742528398043
5072000000.0 0.3559614730078947 -0.9596910055760257
5075000000.0 0.30647222468278257 -1.0041760355057745
5078000000.0 0.2928703734980232 -1.0074263702236985
5081000000.0 0.2984946241346966 -0.9804789470868638
5084000000.0 0.3466190031610943 -1.01788889957787
5088000000.0 0.3586552428776658 -0.9541627887478115
5091000000.0 0.29472630678904504 -0.9999967829033651
5094000000.0 0.30278173906089983 -1.0376480333290126
5097000000.0 0.36600658718481904 -0.9672222668781776
5100000000.0 0.30120605785543986 -0.9787554295600776
5103000000.0 0.24347815660094607 -1.006382368146608
5106000000.0 0.3590631962288427 -1.0277659138526005
5109000000.0 0.31823835153743874 -0.9325942844890666
5112000000.0 0.2912821017720911 -1.0180231941774551
5116000000.0 0.30526664587894786 -0.9666166609338609
5119000000.0 0.26795563194592315 -1.0205924906566506
5122000000.0 0.30464283176417234 -0.9845891671437328
5125000000.0 0.3389613125004952 -0.9574276979709353
5128000000.0 0.27781479990434604 -1.0314950288107103
5131000000.0 0.30786661627828965 -0.9857508835416737
5134000000.0 0.28775335095045246 -0.9709158503457896
5138000000.0 0.3209547583684362 -0.9514639912852025
5141000000.0 0.3305663514564531 -1.0206432396446528
5144000000.0 0.3549160219788408 -0.9790363164016698
5147000000.0 0.32797629695864994 -1.0369048980404152
5150000000.0 0.36015215121659283 -0.9659377970343157
5153000000.0 0.2895674265385228 -1.0223509264262525
5156000000.0 0.31720058323075234 -0.9723964606071559
5159000000.0 0.35876614816586067 -1.010880215721481
5162000000.0 0.3072340327404717 -0.9587598890637808
5166000000.0 0.30594041903034813 -0.9798560349348016
5169000000.0 0.36691557762501387 -1.0079727498730455
