! Created with skrf 1.8.0 (http://scikit-rf.org).
# Hz S RI R 50.0 
!freq ReS11 ImS11
4000000000.0 0.5698517681556124 -0.8332166018658227
4003000000.0 0.577831816862234 -0.8720245510750958
4006000000.0 0.494950867288212 -0.8868729148424184
4009000000.0000005 0.558179598282081 -0.8638537880404431
4011999999.9999995 0.6436236124080132 -0.8679381684286638
4016000000.0 0.5346724782120411 -0.8798758639581534
4019000000.0 0.5460008626700148 -0.8608398313890062
4022000000.0000005 0.6226095872569726 -0.8736094360421764
4025000000.0000005 0.5141563406175915 -0.9222200093364771
4027999999.9999995 0.5532068530408003 -0.9498468781846855
4030999999.9999995 0.5386851811215333 -0.843817275814677
4034000000.0 0.47934879292841126 -0.8641486571107365
4038000000.0000005 0.4902061870387109 -0.9313476188521492
4041000000.0000005 0.5098027210266167 -0.8799017675040324
4043999999.9999995 0.559396665589344 -0.9366561781791761
4046999999.9999995 0.6283574989676624 -0.8627961045256616
4050000000.0 0.5202425148239053 -0.9125748184223392
4053000000.0 0.506688530259032 -0.8529960347760918
4056000000.0 0.5268753307438112 -0.8765521549931659
4059000000.0 0.5168506324789478 -0.841308006708769
4062000000.0000005 0.5405986118992012 -0.8816384094239038
4066000000.0 0.506182909683027 -0.804303795217609
4069000000.0 0.5601007092400473 -0.9280319957253352
4072000000.0 0.5508622393184954 -0.8562180949183066
4075000000.0 0.570538817333827 -0.8868893022203177
4078000000.0000005 0.5662714722881186 -0.9107677195712482
4081000000.0000005 0.6080041479892366 -0.8764410367559876
4083999999.9999995 0.560501743725711 -0.8960473108578648
4088000000.0 0.5726717431810441 -0.8453666243585167
4091000000.0 0.5842174834909813 -0.9282325761619384
4094000000.0000005 0.5780271968111508 -0.893677061213754
4097000000.0000005 0.5027695010330233 -0.9021615064175385
4099999999.9999995 0.5390575777120095 -0.8772917348026223
4102999999.9999995 0.5879322270823657 -0.9052144860923815
4106000000.0 0.5410760315931922 -0.8743351556003798
4109000000.0 0.5563178646595756 -0.9022827386729715
4112000000.0 0.5323372132847712 -0.8730362267199551
4115999999.9999995 0.5871147347911143 -0.8425259345962345
4119000000.0 0.5172055319093803 -0.8485361658807555
4122000000.0 0.5276336612024249 -0.8614610797987237
4125000000.0 0.5493205518043582 -0.8881807532132058
4128000000.0 0.5182393512634942 -0.8369535530660822
4131000000.0 0.527333974073158 -0.8807338799119333
4134000000.0000005 0.5442397146240311 -0.8440085430225936
4138000000.0 0.5540124240985721 -0.8493778897799987
4141000000.0 0.5229898785281882 -0.8442010450415761
4144000000.0 0.5522679388851542 -0.8741964087987408
4147000000.0000005 0.5223251345374628 -0.8910253588353696
4150000000.0000005 0.5727685405562374 -0.888078736229796
4152999999.9999995 0.5188950228769343 -0.8629779889681095
4155999999.9999995 0.5726373864101938 -0.8703197250691218
4159000000.0 0.5769217512023409 -0.8593772268409812
4162000000.0 0.5521773340478532 -0.8643661676004303
4166000000.0000005 0.5553262568740942 -0.8992834968763309
4168999999.9999995 0.5253759158081011 -0.8738705623420145
4171999999.9999995 0.5585801330989794 -0.8904811992303687
4175000000.0 0.5593707987462874 -0.8732689134886993
4178000000.0 0.5414503238906594 -0.8673381862646478
4181000000.0 0.554657277397301 -0.8553424449389148
4184000000.0 0.5560988192272031 -0.858123718491199
4187999999.9999995 0.5380426423194802 -0.8743555686007829
4191000000.0 0.5757508776039628 -0.8207642529949214
4194000000.0 0.5275702299797153 -0.8818323521605692
4197000000.0 0.5256973891079765 -0.8860217016462077
4200000000.0 0.5536846384171562 -0.8565111011430742
4203000000.0000005 0.5671842572849348 -0.8521789527966098
4206000000.0000005 0.5446923957831845 -0.9016659995117049
4208999999.9999995 0.5504976340036579 -0.8629892388433614
4211999999.9999995 0.525891755815703 -0.8833222721365823
4216000000.0 0.5583708740059732 -0.8608735351544221
4219000000.0000005 0.5617775518583185 -0.8737193996850965
4222000000.0000005 0.5445956443676145 -0.8601733693235177
4224999999.9999995 0.5370324689604317 -0.8441797554080978
4227999999.9999995 0.5562744971589727 -0.8676810277392962
4231000000.0 0.5446159931625258 -0.8554100853259328
4234000000.0 0.5364499641207364 -0.8727610289007776
4238000000.0000005 0.5448071435161054 -0.8846210323553994
4240999999.9999995 0.520084036218335 -0.8695965067826884
4244000000.0 0.5427107994095322 -0.8595968835773979
4247000000.0 0.5438776097083444 -0.8649989995593748
4250000000.0 0.5348481620047789 -0.8469834876627814
4253000000.0 0.5163972330614742 -0.8492116814039232
4256000000.0 0.5416889349322966 -0.8919351428011822
4259000000.0000005 0.5089146840227441 -0.8353480135265701
4261999999.9999995 0.5204738521950955 -0.8584131967300415
4266000000.0 0.5344054461216876 -0.8874055910469003
4269000000.0 0.5475869910492732 -0.8537302988359171
4272000000.0000005 0.5364909655159119 -0.8480690592026681
4275000000.0000005 0.5482661897060873 -0.8582123643442611
4277999999.9999995 0.5755110163961025 -0.86930878510577
4280999999.9999995 0.5462973053404251 -0.8502938743673073
4284000000.0 0.5179665987895359 -0.8885751601363959
4288000000.0000005 0.5492301359892408 -0.8410814972607076
4291000000.0000005 0.5415174271551673 -0.8324940627289386
4293999999.9999995 0.5330155514802958 -0.8475079461853405
4297000000.0 0.5554410658767839 -0.8346970927394599
4300000000.0 0.5577155756144898 -0.8478570958818064
4303000000.0 0.5183903195968811 -0.8429398217392232
4306000000.0 0.5697771973933535 -0.8727007544341787
4309000000.0 0.5560291962364824 -0.8482752927503094
4312000000.0 0.5694808986871392 -0.8656802865819077
4316000000.0 0.5609444850854828 -0.8591471957092608
4319000000.0 0.5489249347080958 -0.8447400702750181
4322000000.0 0.5114686669387637 -0.8429435808196114
4325000000.0 0.5515574347252165 -0.8507822594793827
4328000000.0 0.5326025960253924 -0.8786033696708864
4331000000.0 0.5276159536295142 -0.8617929182240456
4334000000.0 0.5453466915780354 -0.8624130884704876
4338000000.0 0.5479636496500218 -0.843986013814046
4341000000.0 0.5675023904037015 -0.8565262424261553
4344000000.0 0.5327995320730474 -0.874012771641898
4347000000.0 0.5163140625625305 -0.8798238028998491
4350000000.0 0.5083864413324999 -0.8310261645508171
4353000000.0 0.5512999717331662 -0.8210759697903621
4356000000.0 0.5233409326086352 -0.8628534411866752
4359000000.0 0.4849572335793677 -0.8308443163025488
4362000000.0 0.49759958614395206 -0.892559705171028
4366000000.0 0.5422962275635053 -0.8762838100620952
4369000000.0 0.5075629420472655 -0.8302760644583677
4372000000.0 0.4957117422954315 -0.8634202888163652
4375000000.0 0.5464258645629253 -0.8361311893919118
4378000000.0 0.5330191597451492 -0.8446962378777879
4381000000.0 0.5320533254925918 -0.8298375512174091
4384000000.0 0.5485183877738682 -0.9081209525032536
4388000000.0 0.5259552306831152 -0.8427596918432495
4391000000.0 0.5347529268053894 -0.8444100883404004
4394000000.0 0.502477082976234 -0.8451882289920172
4397000000.0 0.5190750935713002 -0.8631895722435673
4400000000.0 0.5527922172147729 -0.881975055540241
4403000000.0 0.5450857774787312 -0.8751602944256509
4406000000.0 0.5175761064833102 -0.8760651421677181
4409000000.0 0.5581730178359511 -0.8848154584984014
4412000000.0 0.46198822731404543 -0.8839180782454107
4416000000.0 0.5139939259355453 -0.8601184850886981
4419000000.0 0.5221063201240675 -0.8706527131206974
4422000000.0 0.5526559141968239 -0.8515923473220277
4425000000.0 0.5540507179197993 -0.8634988585786094
4428000000.0 0.5351748301041189 -0.8652086515256169
4431000000.0 0.5381387093551744 -0.8827818783408806
4434000000.0 0.5351079443489523 -0.8470166331907217
4438000000.0 0.5321761721235028 -0.8827371443528362
4441000000.0 0.5426059716929296 -0.8690813359937439
4444000000.0 0.5202396785071632 -0.8314292870707092
4447000000.0 0.5040623505780641 -0.8614281545119369
4450000000.0 0.5307664798162268 -0.8323117437796609
4453000000.0 0.5312586876625208 -0.8820546427808171
4456000000.0 0.48357708251928505 -0.8383793330902045
4459000000.0 0.4907741734548623 -0.8442380906584648
4462000000.0 0.5369596927818201 -0.9116592017884666
4466000000.0 0.5362456914546142 -0.8999526040927058
4469000000.0 0.5397301867135632 -0.8626019984312505
4472000000.0 0.5263092907914233 -0.9096283720228069
4475000000.0 0.5103059841295188 -0.8413114596651519
4478000000.0 0.519002884070543 -0.9222263212362399
4481000000.0 0.47915761698993886 -0.8490265989048512
4484000000.0 0.49124125298393473 -0.8881252575451049
4488000000.0 0.49384483727819667 -0.8459008250682971
4491000000.0 0.5203797820977756 -0.8544093845102603
4494000000.0 0.5010869984661345 -0.8457000391903062
4497000000.0 0.5298757040302594 -0.8453668619205246
4500000000.0 0.5217130731789797 -0.868012821881288
4503000000.0 0.5316629476341447 -0.8911069831862757
4506000000.0 0.5177028616523952 -0.8777803803488621
4509000000.0 0.5057196403990964 -0.8558318598370322
4512000000.0 0.4902869024786564 -0.8655024208776056
4516000000.0 0.5469895072336219 -0.8928253838983636
4519000000.0 0.5084234631227709 -0.8408735179738793
4522000000.0 0.49772305596530814 -0.8964100691291597
4525000000.0 0.5233494290601496 -0.840018956828235
4528000000.0 0.5183741448159483 -0.8966516405641303
4531000000.0 0.5206683652385328 -0.8426162850157481
4534000000.0 0.5005650359733199 -0.856933099260241
4538000000.0 0.517129000057416 -0.8686521900022695
4541000000.0 0.4901497609895177 -0.8750880339117129
4544000000.0 0.4909829686102039 -0.8558048866777581
4547000000.0 0.5215747699193369 -0.8482271075607372
4550000000.0 0.5046358953959224 -0.8918552664390693
4553000000.0 0.5025984545142558 -0.9020697972419778
4556000000.0 0.49336223161229664 -0.8752387149372343
4559000000.0 0.5042830477789029 -0.8802268054794151
4562000000.0 0.5142527304608402 -0.8779650938762407
4566000000.0 0.51331206198309 -0.8922263116496774
4569000000.0 0.5040051531696927 -0.8510921750826069
4572000000.0 0.4986964152980584 -0.863018623093275
4575000000.0 0.47680013112062836 -0.8940325296791485
4578000000.0 0.5140451824709358 -0.9054707326490278
4581000000.0 0.4901331710213703 -0.8959780418400161
4584000000.0 0.5168521427100042 -0.872621898332987
4588000000.0 0.5159362942609474 -0.8871950288822357
4591000000.0 0.5031671790275221 -0.8636876275766867
4594000000.0 0.48368190009917794 -0.887549197807893
4597000000.0 0.5030701904096104 -0.8895234768031802
4600000000.0 0.46786984834838974 -0.8856514742542319
4603000000.0 0.4839130910087378 -0.8846232285076534
4606000000.0 0.49956767490397014 -0.8996965030738513
4609000000.0 0.5026105948119242 -0.876471686297654
4612000000.0 0.48569031182822225 -0.8781042299119866
4616000000.0 0.49530256499923975 -0.8852355168098054
4619000000.0 0.5170341039793105 -0.8595178359104219
4622000000.0 0.4908453864623823 -0.8724849275807665
4625000000.0 0.47667695341539484 -0.8643415023675891
4628000000.0 0.5008749107454922 -0.875710320615161
4631000000.0 0.47000936255525205 -0.8698665322184037
4634000000.0 0.4917850078950898 -0.8844959094368354
4638000000.0 0.5076768596267742 -0.8867887640108025
4641000000.0 0.5061863955032367 -0.8762201221816452
4644000000.0 0.5053943166395701 -0.8713863112730194
4647000000.0 0.49699455773480117 -0.8756271271185879
4650000000.0 0.4628174076554117 -0.8847901572826596
4653000000.0 0.49586752083809527 -0.8966035226180471
4656000000.0 0.48213148355349145 -0.8861487670088379
4659000000.0 0.4865988826814768 -0.8663949755726426
4662000000.0 0.4891890318696437 -0.8919355203232621
4666000000.0 0.46722633843514494 -0.8707680206325621
4669000000.0 0.5051507020042966 -0.8640505490117455
4672000000.0 0.4551715940296399 -0.8975377001762618
4675000000.0 0.4821724889225706 -0.895392103202535
4678000000.0 0.47903244502582615 -0.8838851963300103
4681000000.0 0.4463173740835275 -0.9021283380973135
4684000000.0 0.48003594775945335 -0.9137294522890305
4688000000.0 0.45329556972565566 -0.8619979678611022
4691000000.0 0.49724292444525814 -0.9011190273051276
4694000000.0 0.4811943460862141 -0.8611423684673057
4697000000.0 0.4473309959395203 -0.8674026325417156
4700000000.0 0.516493892445708 -0.879687161111087
4703000000.0 0.4979101745442862 -0.8607465620691132
4706000000.0 0.466200830282521 -0.888390010115697
4709000000.0 0.43952235095027087 -0.8837426026858768
4712000000.0 0.4815128083189472 -0.8918567845415504
4716000000.0 0.47886860244679275 -0.9015193104340935
4719000000.0 0.5144645596586954 -0.8907124381964318
4722000000.0 0.5096231338556458 -0.8631160765913708
4725000000.0 0.5090881039205225 -0.9042713906191715
4728000000.0 0.47062355834272623 -0.8875249173025513
4731000000.0 0.5288966374238905 -0.9225888740869066
4734000000.0 0.48011335503038316 -0.896610091214446
4738000000.0 0.5002925580479567 -0.9359957597662695
4741000000.0 0.4728282824644949 -0.9232637633710282
4744000000.0 0.44671570295198904 -0.9231372693055195
4747000000.0 0.48094820137741817 -0.8750416151147254
4750000000.0 0.5114599892141893 -0.9083838716469648
4753000000.0 0.5100240410301182 -0.9323168602590264
4756000000.0 0.48705502002298523 -0.8847710294101674
4759000000.0 0.48115009546805887 -0.8742372371930285
4762000000.0 0.47693068537529104 -0.9236286215411232
4766000000.0 0.4798326940860191 -0.9301723585327202
4769000000.0 0.5381911134650981 -0.9391526006631283
4772000000.0 0.5032583812358777 -0.886273937804916
4775000000.0 0.48758030162688865 -0.9173054097116664
4778000000.0 0.5081259085600981 -0.8844519076497559
4781000000.0 0.490652646848008 -0.8634780996902935
4784000000.0 0.5164139649218411 -0.8955914236952183
4788000000.0 0.4727651628059407 -0.9157192644919476
4791000000.0 0.4664986698041341 -0.8940446478802664
4794000000.0 0.5043440412640907 -0.9048020884478142
4797000000.0 0.45899592313986326 -0.8828771909118471
4800000000.0 0.4663234527882952 -0.8954241396679897
4803000000.0 0.43992534289142726 -0.9249892102456384
4806000000.0 0.48264558564990956 -0.9148772367100564
4809000000.0 0.43664607390693727 -0.9022537100591025
4812000000.0 0.4508253905320408 -0.922069844801594
4816000000.0 0.5019297079611496 -0.8657834075450814
4819000000.0 0.5133373834588993 -0.8955579028123304
4822000000.0 0.5183291907924753 -0.9341945370938656
4825000000.0 0.5301873849500027 -0.9151959120021271
4828000000.0 0.48988909704312844 -0.9001265337128019
4831000000.0 0.46047229595162903 -0.9571120935881897
4834000000.0 0.49797250200680143 -0.9139554418423398
4838000000.0 0.4793519644054538 -0.9172127745626685
4841000000.0 0.4678326790492465 -0.9014060199792011
4844000000.0 0.5159175025016044 -0.8971539434215889
4847000000.0 0.4831768793708684 -0.8626742919788112
4850000000.0 0.4935901016825728 -0.9252572505376816
4853000000.0 0.47907732844276874 -0.8772488970938455
4856000000.0 0.4738482017893814 -0.8853695997855099
4859000000.0 0.47460298727583455 -0.9413570488237463
4862000000.0 0.5036120750555704 -0.8777764997206072
4866000000.0 0.4710797566937734 -0.951619303362169
4869000000.0 0.4715584080421151 -0.9176493184388336
4872000000.0 0.4717990927081151 -0.9648668876439769
4875000000.0 0.5532971849654116 -0.9197731684088496
4878000000.0 0.4882372056410437 -0.9235215565874675
4881000000.0 0.48333986036302223 -0.9547908005932361
4884000000.0 0.5091865707047789 -0.9371182087126666
4888000000.0 0.5166672346964496 -0.8789693360971643
4891000000.0 0.5304543165267639 -0.927473853698566
4894000000.0 0.4781744405901154 -0.9069740158303999
4897000000.0 0.5137558108880581 -0.8792295796963647
4900000000.0 0.4923697763807891 -0.9472574018977692
4903000000.0 0.49983288792912584 -0.9165453218932593
4906000000.0 0.49234083285732594 -0.9224391501475038
4909000000.0 0.49700806019883503 -0.9200997637620606
4912000000.0 0.4688794244647708 -0.95532207367262
4916000000.0 0.537097036296245 -0.9041175231535464
4919000000.0 0.5367191979971255 -0.9576116709098337
4922000000.0 0.5094134040118835 -0.8943632989670984
4925000000.0 0.4835611857648905 -0.9009752345304978
4928000000.0 0.5238840450475741 -0.867238369760552
4931000000.0 0.5501511469341479 -0.898148402110934
4934000000.0 0.48972269061913143 -0.8893829399334827
4938000000.0 0.4785770418378846 -0.9287603685236221
4941000000.0 0.4751514668733123 -0.8667717295078057
4944000000.0 0.4652314075812365 -0.8674189519596075
4947000000.0 0.48433315736730786 -0.8814352442564868
4950000000.0 0.46373328561848537 -0.896135132276273
4953000000.0 0.48493647973607995 -0.9780197553515668
4956000000.0 0.4740665089477014 -0.9095637667132445
4959000000.0 0.44735869957322993 -0.9210632154505102
4962000000.0 0.4881002429183412 -0.938137662321748
4966000000.0 0.529590699055054 -0.910901324624
4969000000.0 0.5252695828210535 -0.9265196252240899
4972000000.0 0.5109369091653375 -0.9039849458757657
4975000000.0 0.509786717547225 -0.8917245517245391
4978000000.0 0.5120499372424849 -0.9032497731505803
4981000000.0 0.47857498240586105 -0.9391222974041608
4984000000.0 0.4912737980298173 -0.8916678844015835
4988000000.0 0.5174642316340188 -0.8979509851552467
4991000000.0 0.5510514027342925 -0.919610297204561
4994000000.0 0.515506431312561 -0.8777933686591017
4997000000.0 0.4658074527624695 -0.9127315857640362
5000000000.0 0.5103482374261674 -0.9472425636393467
5003000000.0 0.5151322946723201 -0.9506176014351677
5006000000.0 0.515947875986805 -1.012890778703818
5009000000.0 0.5073978602985283 -0.9097793777876599
5012000000.0 0.45618135802093945 -0.9190189123760725
5016000000.0 0.5433126829840932 -0.9100328978066314
5019000000.0 0.48393695634979583 -0.9221048662958737
5022000000.0 0.4904476660384167 -0.8894322013582783
5025000000.0 0.540964515433167 -0.951799397212804
5028000000.0 0.47750184058350786 -0.8850295453949025
5031000000.0 0.49075541445542814 -0.8878346429290662
5034000000.0 0.5036828126457149 -0.9502956616261121
5038000000.0 0.479807345919397 -0.8858827279494648
5041000000.0 0.5469579519735025 -0.8947623398799699
5044000000.0 0.5190723160745527 -0.8645488609913619
5047000000.0 0.5021808864453913 -0.8927762795800015
5050000000.0 0.5552266703971818 -0.8594449161816424
5053000000.0 0.5432183795945082 -0.9241843889699659
5056000000.0 0.5530359634506323 -0.8947358611337739
5059000000.0 0.5592693282913304 -0.8899540196606855
5062000000.0 0.48141087490367834 -0.9188721186291138
5066000000.0 0.5602934161358496 -0.8479264281978357
5069000000.0 0.5216381510489746 -0.902411331557494
5072000000.0 0.5234457143331184 -0.8779569968944636
5075000000.0 0.5170553805608344 -0.9161411224835281
5078000000.0 0.5353972556264803 -0.9285552492875211
5081000000.0 0.4743780799614032 -0.8750912632500043
5084000000.0 0.5480705384742957 -0.9547365423034009
5088000000.0 0.5097788421205022 -0.8885720860286813
5091000000.0 0.5028069970670246 -0.9004720126413492
5094000000.0 0.5097764316405441 -0.9168391258828057
5097000000.0 0.5892572483437565 -0.8691304118067038
5100000000.0 0.5214974817468508 -0.8911983529033278
5103000000.0 0.5296961315817958 -0.9239944413122043
5106000000.0 0.5676680670086668 -0.9044348423458097
5109000000.0 0.540675792100408 -0.8289093671942824
5112000000.0 0.4622813531376959 -0.9095788340384823
5116000000.0 0.5095811108495503 -0.8498955033549936
5119000000.0 0.5415908029795728 -0.9139086510043213
5122000000.0 0.5697751547311636 -0.8969243485848484
5125000000.0 0.5429834018840294 -0.8777194963556336
5128000000.0 0.5176620593778083 -0.8924814029464442
5131000000.0 0.5428957852911062 -0.8895493016514484
5134000000.0 0.5091410608070465 -0.860671707024671
5138000000.0 0.5374893790363897 -0.8803074583939157
5141000000.0 0.5703554176336201 -0.8658534859481538
5144000000.0 0.5563186049453778 -0.8771381654808529
5147000000.0 0.535862767343094 -0.8905114063095684
5150000000.0 0.5599718012499225 -0.850911423547103
5153000000.0 0.557844738547566 -0.8948540901793105
5156000000.0 0.5720971305842739 -0.8711774875850451
5159000000.0 0.5305859375731128 -0.877038264810641
5162000000.0 0.507190593639522 -0.9117680718998171
5166000000.0 0.5521712738172346 -0.9237352308416935
5169000000.0 0.5514789949223138 -0.96745296160752
5172000000.0 0.5088160504219958 -0.922963321619928
5175000000.0 0.5806572042354878 -0.9010050958328298
