! Created with skrf 1.8.0 (http://scikit-rf.org).
# Hz S RI R 50.0 
!freq ReS11 ImS11
4000000000.0 0.5470224613156746 -0.8761294125529346
4003000000.0 0.5659922981504697 -0.9163603943201104
4006000000.0 0.510921955875267 -0.9075964853375316
4009000000.0000005 0.5501137307690818 -0.9035868903964399
4011999999.9999995 0.5593777497102451 -0.8536618823163071
4016000000.0 0.5397453777372291 -0.8648492122430301
4019000000.0 0.5463906413071334 -0.8501298525210845
4022000000.0000005 0.637451429159327 -0.8574405935408839
4025000000.0000005 0.5105369044301453 -0.9231674519626292
4027999999.9999995 0.499216426681496 -0.8619607632707909
4030999999.9999995 0.5432294512083543 -0.8229050344415241
4034000000.0 0.5346018847946902 -0.8599726702640911
4038000000.0000005 0.5287345237506108 -0.929836642566346
4041000000.0000005 0.5620845966201087 -0.8914895962969325
4043999999.9999995 0.5290507249491253 -0.9227724508229529
4046999999.9999995 0.6088850634386669 -0.8820273748995939
4050000000.0 0.5221468161198648 -0.9366723172327732
4053000000.0 0.5030956042389042 -0.9139774274849243
4056000000.0 0.5030228007313544 -0.8778108252125554
4059000000.0 0.5383015287958018 -0.849471962222572
4062000000.0000005 0.5123912522421098 -0.8946622717796793
4066000000.0 0.5120816181441381 -0.8212185163903448
4069000000.0 0.5364209665590927 -0.9323128553472103
4072000000.0 0.5771400731993255 -0.8644553352452411
4075000000.0 0.540687338909454 -0.8782640894900288
4078000000.0000005 0.5645613803016855 -0.9293363132231766
4081000000.0000005 0.58865782506577 -0.8718196542688752
4083999999.9999995 0.53291225535985 -0.9187847447648736
4088000000.0 0.5568698717040842 -0.8059641893020566
4091000000.0 0.592504379336168 -0.9189261884100701
4094000000.0000005 0.5753192610394693 -0.8795214743552985
4097000000.0000005 0.5353003740401882 -0.8810052717764224
4099999999.9999995 0.5393886658740747 -0.8919740745616714
4102999999.9999995 0.5790769934281532 -0.9013368325416332
4106000000.0 0.5236471248079522 -0.8678664398392308
4109000000.0 0.513602886277294 -0.9294481288330404
4112000000.0 0.5459966161935799 -0.9216360821862254
4115999999.9999995 0.5686200884395956 -0.8602254623298708
4119000000.0 0.5296318518950083 -0.9082803879608389
4122000000.0 0.5354281644476293 -0.9086078702287
4125000000.0 0.522786717868736 -0.9025687787771196
4128000000.0 0.5595439212551445 -0.8201333456903106
4131000000.0 0.5350506183648028 -0.8188143747499097
4134000000.0000005 0.5481146233962586 -0.8756741531578045
4138000000.0 0.5268322338682804 -0.8656917569670997
4141000000.0 0.5178408359891615 -0.8676870185188102
4144000000.0 0.535186094105842 -0.8728469690773724
4147000000.0000005 0.5219224828916005 -0.8834941674766822
4150000000.0000005 0.585329138172673 -0.9007876655628542
4152999999.9999995 0.5436574533325305 -0.8735716600839974
4155999999.9999995 0.5921196299416225 -0.9083339800472828
4159000000.0 0.560792564701195 -0.8461328586897652
4162000000.0 0.5384099588384601 -0.8496506166259511
4166000000.0000005 0.5470553252976657 -0.8976525258439746
4168999999.9999995 0.5176153362329055 -0.8832043318060988
4171999999.9999995 0.5146910359168759 -0.845894710411903
4175000000.0 0.557692996176667 -0.8680030168024839
4178000000.0 0.5814919495789361 -0.8636965909689381
4181000000.0 0.5517657672450084 -0.8433928600908038
4184000000.0 0.5401742599810824 -0.8464872674280687
4187999999.9999995 0.5376800529507786 -0.8811302645655539
4191000000.0 0.5588688549964924 -0.8517704388151579
4194000000.0 0.5213534656294284 -0.8649738626245377
4197000000.0 0.5731855076706758 -0.8670640726067941
4200000000.0 0.576816631694323 -0.8844620491968901
4203000000.0000005 0.5546312365526906 -0.8827346866282055
4206000000.0000005 0.5513105034562787 -0.8778596837296434
4208999999.9999995 0.5521964605655613 -0.8547335899938446
4211999999.9999995 0.5195843666105299 -0.8848327757361276
4216000000.0 0.5560733597944004 -0.8753942144284939
4219000000.0000005 0.5597982807989064 -0.8659475116491668
4222000000.0000005 0.5458398788802907 -0.883458525741993
4224999999.9999995 0.5537824513311252 -0.8582757197824638
4227999999.9999995 0.5411807157138254 -0.8707955742483213
4231000000.0 0.5328542598814974 -0.8597703012769827
4234000000.0 0.5418824478917721 -0.8748979240388108
4238000000.0000005 0.5209104898909647 -0.873336574155757
4240999999.9999995 0.5488347628548269 -0.8796396356149937
4244000000.0 0.5352541377100472 -0.8586386429884015
4247000000.0 0.5609434924406049 -0.8575111087998425
4250000000.0 0.5300653266235882 -0.8455394810373814
4253000000.0 0.5171279116103873 -0.8495264289616908
4256000000.0 0.545696083076509 -0.8830383281865827
4259000000.0000005 0.518260348499248 -0.8345071235685388
4261999999.9999995 0.5315259471258371 -0.8629817446516492
4266000000.0 0.5476126098148224 -0.906045401839627
4269000000.0 0.553223805211768 -0.8565397860259334
4272000000.0000005 0.5447492048777053 -0.8493942840095055
4275000000.0000005 0.5412542901198143 -0.8649137670829782
4277999999.9999995 0.5287627089578207 -0.8821521152940623
4280999999.9999995 0.5330266523262488 -0.8420480393128248
4284000000.0 0.5274154947080585 -0.8896601538476988
4288000000.0000005 0.550690271249162 -0.8567670790152766
4291000000.0000005 0.511109731743644 -0.8648661977418872
4293999999.9999995 0.5344568089569806 -0.8767286078570596
4297000000.0 0.5559661849393539 -0.8540012951988167
4300000000.0 0.5396450656271841 -0.8432036682289298
4303000000.0 0.5120662079547574 -0.8625511581993593
4306000000.0 0.5701099884958726 -0.8268098655620072
4309000000.0 0.5417695041961635 -0.8516020217506836
4312000000.0 0.6015990783020876 -0.8591277446434146
4316000000.0 0.5452192530576642 -0.8671728055248494
4319000000.0 0.5518983824519558 -0.829638376276541
4322000000.0 0.5213906390834213 -0.8554015435904447
4325000000.0 0.5633009156400851 -0.8277470433064225
4328000000.0 0.5421351883584148 -0.8561780524757601
4331000000.0 0.5179864777859777 -0.8874844158037443
4334000000.0 0.5423948550284098 -0.8727614466477549
4338000000.0 0.5761077037837499 -0.8367726249883427
4341000000.0 0.5699614243424663 -0.878801896244138
4344000000.0 0.5725991690633316 -0.8917528047135321
4347000000.0 0.522564805527538 -0.8869338391037171
4350000000.0 0.5136218142434161 -0.8437751669681205
4353000000.0 0.5386824249451987 -0.8405583986725796
4356000000.0 0.536806169051885 -0.8695543004436553
4359000000.0 0.5280851323569318 -0.8307678680973208
4362000000.0 0.5039257119830416 -0.8676775071282287
4366000000.0 0.5444629895253291 -0.8723319225319343
4369000000.0 0.5143391805333533 -0.8264937759943743
4372000000.0 0.4931284496526227 -0.8583265146279386
4375000000.0 0.5599265169738145 -0.8717678005978904
4378000000.0 0.5274310759346374 -0.8423029957144005
4381000000.0 0.512059473428376 -0.8475841662221861
4384000000.0 0.5509456023966499 -0.9081042266067333
4388000000.0 0.5330450615153475 -0.853775309357886
4391000000.0 0.5346944351167886 -0.8717225451268639
4394000000.0 0.5126142573196675 -0.8494195133729621
4397000000.0 0.5124459607365477 -0.8563373494017781
4400000000.0 0.5354373674151183 -0.8777082695355216
4403000000.0 0.5368374488431419 -0.861016004863633
4406000000.0 0.5162977431374383 -0.882403821809123
4409000000.0 0.528831500068908 -0.8820059265838273
4412000000.0 0.47259628838434886 -0.9002679879047093
4416000000.0 0.5068620279098277 -0.8539444075950414
4419000000.0 0.5155756023211836 -0.8755017449850218
4422000000.0 0.5334873713976859 -0.8535336388975282
4425000000.0 0.5463707635272075 -0.8700247215275311
4428000000.0 0.5136097886944474 -0.867088381789148
4431000000.0 0.5505050104378437 -0.8819452871569788
4434000000.0 0.5043842226543331 -0.8560757588350945
4438000000.0 0.5302994065327968 -0.8659941322787771
4441000000.0 0.5303232706913424 -0.8739335691893063
4444000000.0 0.5292767231484246 -0.8412252064176948
4447000000.0 0.5034690294017723 -0.8576154524191124
4450000000.0 0.526277507651826 -0.833741345598088
4453000000.0 0.5416441042779747 -0.889504742069281
4456000000.0 0.5054293997106684 -0.841007389756486
4459000000.0 0.49568828034390655 -0.8334653156653464
4462000000.0 0.5464151739944585 -0.909917127623413
4466000000.0 0.5387197801612469 -0.9000221533106239
4469000000.0 0.5374290536436525 -0.8634834393179959
4472000000.0 0.5121097346603307 -0.8935556574625567
4475000000.0 0.5061487411599155 -0.8440398120692236
4478000000.0 0.5305485196040882 -0.9099434997736908
4481000000.0 0.5026916720202944 -0.8463983295604098
4484000000.0 0.4916411146708229 -0.8896121650266129
4488000000.0 0.502288689868673 -0.86638912110155
4491000000.0 0.5177377648310866 -0.8660711413326762
4494000000.0 0.5036549781255468 -0.8533848740016725
4497000000.0 0.5205536341698898 -0.8495782844467761
4500000000.0 0.5341328715188234 -0.8664777946824398
4503000000.0 0.5241549554266236 -0.8788268888445677
4506000000.0 0.5084534695106502 -0.8745498991845739
4509000000.0 0.5079687313698142 -0.8590771647189785
4512000000.0 0.4797028339848689 -0.8517205721176011
4516000000.0 0.5335042426531353 -0.8583162535544404
4519000000.0 0.4970437484775234 -0.8482297952058302
4522000000.0 0.49227873333646516 -0.8784192407274931
4525000000.0 0.530272829353162 -0.8575779102072294
4528000000.0 0.5360530494727256 -0.8914132702077998
4531000000.0 0.5203026555360428 -0.8647056830430806
4534000000.0 0.5233557977873147 -0.8559559574800821
4538000000.0 0.49442090168423514 -0.8565501931594149
4541000000.0 0.48278470255231837 -0.8758003305402714
4544000000.0 0.5041286153422344 -0.8682082082999147
4547000000.0 0.510396172352661 -0.850372109081307
4550000000.0 0.5057679336580135 -0.8926522984515455
4553000000.0 0.500731315807385 -0.8933811586041174
4556000000.0 0.5018966087333401 -0.8678565687379163
4559000000.0 0.4957041247354621 -0.8761424876947561
4562000000.0 0.5113798897887856 -0.8758636537691897
4566000000.0 0.505228843836238 -0.8936072884213024
4569000000.0 0.49359623259014507 -0.8696261724853316
4572000000.0 0.5160125249062375 -0.8688290727228863
4575000000.0 0.4820080047291604 -0.8959970286268664
4578000000.0 0.5236565114136428 -0.8887286552199269
4581000000.0 0.4959798762808332 -0.8929815418908302
4584000000.0 0.5036830444672666 -0.8912740675666664
4588000000.0 0.5180895697591573 -0.8716256546676926
4591000000.0 0.5202359459116044 -0.8594991389638227
4594000000.0 0.4775029219558601 -0.8861196300269629
4597000000.0 0.4860329762805631 -0.8997860151222404
4600000000.0 0.48036306857702227 -0.8839206743981916
4603000000.0 0.49291588483208976 -0.8956741996124129
4606000000.0 0.4946007309521408 -0.8854268201010436
4609000000.0 0.5005554288616821 -0.8812322025585415
4612000000.0 0.5089970947908277 -0.8951010517482884
4616000000.0 0.4817723468977483 -0.8688981034731036
4619000000.0 0.4951315358151049 -0.8838065586523385
4622000000.0 0.4719754810201947 -0.8967812428666552
4625000000.0 0.4663226024459372 -0.8546037365925936
4628000000.0 0.5023371084335629 -0.8607136657306949
4631000000.0 0.48664652989492985 -0.8918999012799846
4634000000.0 0.48606766113637034 -0.8839124437756353
4638000000.0 0.5053454688696127 -0.892713672224295
4641000000.0 0.5036688219216734 -0.8801608488017121
4644000000.0 0.48665648671816353 -0.8817078442093333
4647000000.0 0.5102913198435798 -0.871501131814996
4650000000.0 0.4743980050749791 -0.8982544787626386
4653000000.0 0.5103720517351733 -0.8915620201642063
4656000000.0 0.4830112100931544 -0.8947489139506138
4659000000.0 0.48345544327461115 -0.8948256642795234
4662000000.0 0.4947524974620923 -0.8909762435939164
4666000000.0 0.47228676397389124 -0.8958269465574882
4669000000.0 0.476926583413113 -0.8843827008695447
4672000000.0 0.47366467140444884 -0.9095267677283875
4675000000.0 0.46047412850869396 -0.9003174045005776
4678000000.0 0.4925451357855898 -0.8727122872228262
4681000000.0 0.4717645593443816 -0.9138049843673284
4684000000.0 0.47297199112583865 -0.9108954415285617
4688000000.0 0.47816860277018197 -0.8822571501605552
4691000000.0 0.5144411411084734 -0.871261577560408
4694000000.0 0.5107201369127143 -0.8721381897866961
4697000000.0 0.4531986535845689 -0.8662775475818831
4700000000.0 0.4954019265231783 -0.8669151537205011
4703000000.0 0.4931485195797183 -0.8488930862333837
4706000000.0 0.4536671384692256 -0.8827075154184765
4709000000.0 0.4530771045813789 -0.9033856916096006
4712000000.0 0.4922300845714928 -0.8927304254382441
4716000000.0 0.47906791188450354 -0.8781689766176152
4719000000.0 0.4955652986409645 -0.87100359335196
4722000000.0 0.5041097908761636 -0.8884139894741322
4725000000.0 0.4765992553571474 -0.8658696813443864
4728000000.0 0.47367479033516446 -0.8798059126283782
4731000000.0 0.5236858284930944 -0.9022549335445533
4734000000.0 0.5100549154519788 -0.8565230333510007
4738000000.0 0.545449819958872 -0.8955726485505886
4741000000.0 0.4759702666963382 -0.8978766550085882
4744000000.0 0.47150273453778335 -0.9120686137540233
4747000000.0 0.4895497499143509 -0.8480505308685802
4750000000.0 0.4846967114514113 -0.8950157893901309
4753000000.0 0.5039366517932503 -0.8993300837306625
4756000000.0 0.49572901221014515 -0.9018473921689854
4759000000.0 0.5200123005117518 -0.9129924056368641
4762000000.0 0.4912863004359112 -0.9317697027720516
4766000000.0 0.4914260167568504 -0.913911960081904
4769000000.0 0.493423871914136 -0.884848250689828
4772000000.0 0.4648032592920353 -0.9169873285896788
4775000000.0 0.46101426988399385 -0.9234936467249625
4778000000.0 0.4846491630243879 -0.9379503377020453
4781000000.0 0.5059854733040868 -0.8704012744340058
4784000000.0 0.48156372214730203 -0.8718082362662186
4788000000.0 0.4851529391560139 -0.9253770010726493
4791000000.0 0.4589458694117529 -0.8974521794199722
4794000000.0 0.5290680901517246 -0.935722698589474
4797000000.0 0.48438519282773523 -0.8941477783514864
4800000000.0 0.46436755767345034 -0.8893391902681901
4803000000.0 0.4484659077158033 -0.9081067003252927
4806000000.0 0.4706410089079647 -0.9174175901280971
4809000000.0 0.45463921913701255 -0.930378292441053
4812000000.0 0.43009924477335953 -0.8952645081899314
4816000000.0 0.5144343200454433 -0.8755367720122094
4819000000.0 0.514554639699938 -0.9141771123479397
4822000000.0 0.5043646300081164 -0.9225226649915388
4825000000.0 0.5274774103766376 -0.9134165334794323
4828000000.0 0.46995127882894505 -0.896270086541838
4831000000.0 0.46162109619606423 -0.9294302348474717
4834000000.0 0.4978990483323958 -0.8889231258357437
4838000000.0 0.48405707616715504 -0.9175032775760608
4841000000.0 0.46892074341813506 -0.8745757148795739
4844000000.0 0.5095147689595739 -0.8946340692835133
4847000000.0 0.49767722375715745 -0.867900909784817
4850000000.0 0.4860040231474621 -0.930221777152863
4853000000.0 0.47532042419457693 -0.8935443950566201
4856000000.0 0.47140142783013494 -0.9019260481772253
4859000000.0 0.4901185920793497 -0.9326491655052603
4862000000.0 0.5013272707260609 -0.8678171169999117
4866000000.0 0.47525860449701046 -0.9342787226479934
4869000000.0 0.4736969197915907 -0.9130544752681646
4872000000.0 0.4923103256200387 -0.9379427089232675
4875000000.0 0.5432257392202586 -0.9175049557463654
4878000000.0 0.4883029246690285 -0.9167890372736055
4881000000.0 0.48416243319026275 -0.9773943045199167
4884000000.0 0.5096600829683511 -0.8961463531535958
4888000000.0 0.5228121938662296 -0.8749350170637475
4891000000.0 0.5046168383288084 -0.9285217233291226
4894000000.0 0.4532308162093154 -0.911442236323684
4897000000.0 0.5208735314716053 -0.8722433931773285
4900000000.0 0.47316812458797153 -0.9118258259096299
4903000000.0 0.5441632370413084 -0.9261999866336986
4906000000.0 0.4924325049150781 -0.945904938717907
4909000000.0 0.46646451998545 -0.9128046050360088
4912000000.0 0.5317743673730223 -0.9409398776736836
4916000000.0 0.5327433623631157 -0.9472475533178947
4919000000.0 0.5498337724386522 -0.9332817270965319
4922000000.0 0.5159627016418795 -0.918269195712675
4925000000.0 0.4634881389545341 -0.9035691540936386
4928000000.0 0.5292764044137173 -0.848974835696706
4931000000.0 0.5188115579742033 -0.9145155026709113
4934000000.0 0.4821421295489189 -0.8432855113482419
4938000000.0 0.4476726557169239 -0.9295317034374495
4941000000.0 0.468110730642151 -0.9194203253697394
4944000000.0 0.4936788165232061 -0.8581644249424057
4947000000.0 0.4785600954275965 -0.8632060347235526
4950000000.0 0.46310573534622956 -0.8827869116754922
4953000000.0 0.4686243406487172 -0.9053171569486139
4956000000.0 0.43009540570569615 -0.8999895986162258
4959000000.0 0.4400004292360629 -0.880522684465729
4962000000.0 0.4757917667418866 -0.9122907305995382
4966000000.0 0.4931309696441448 -0.9301153122935514
4969000000.0 0.5481287484072698 -0.9574664648750837
4972000000.0 0.4974649424902581 -0.9130932125767462
4975000000.0 0.5021477554479858 -0.8602176238565563
4978000000.0 0.4733712736577833 -0.9153409161237175
4981000000.0 0.47930428927695234 -0.9209905562744322
4984000000.0 0.5072232842271021 -0.8867931157671459
4988000000.0 0.48348404568293113 -0.907265661529349
4991000000.0 0.558490921511511 -0.9197576970925592
4994000000.0 0.5423903670281157 -0.8652472343876143
4997000000.0 0.47046492996506645 -0.9229721403506321
5000000000.0 0.5358029160634252 -0.9153070386163578
5003000000.0 0.5215729582470722 -0.9178214028897345
5006000000.0 0.5019562856644922 -0.9585394146234425
5009000000.0 0.5086440800469798 -0.895564022259539
5012000000.0 0.5219862990286882 -0.9139236882952732
5016000000.0 0.5493568430965526 -0.903694758171497
5019000000.0 0.4796554987445292 -0.886982003256767
5022000000.0 0.5032545592022202 -0.9113177467440227
5025000000.0 0.5464964753405056 -0.9664709404964131
5028000000.0 0.4686321503565246 -0.9085397888330922
5031000000.0 0.48960232780028423 -0.8988928457092699
5034000000.0 0.49963172812985046 -0.9661601510141122
5038000000.0 0.4789541744518667 -0.875831823323294
5041000000.0 0.5478415005917816 -0.9019032943753917
5044000000.0 0.5194418901323987 -0.8587511377100578
5047000000.0 0.515726047801677 -0.8976507423751184
5050000000.0 0.6000728144319489 -0.8629784751351675
5053000000.0 0.5384141647372519 -0.9651665589896236
5056000000.0 0.531095231261973 -0.9033442238224819
5059000000.0 0.5404689059820134 -0.8778220701061877
5062000000.0 0.4894686354460672 -0.913819125177784
5066000000.0 0.5464531351751706 -0.8675475461781122
5069000000.0 0.5650195349062119 -0.9184904749665858
5072000000.0 0.47388367811755155 -0.8760050749021251
5075000000.0 0.5381439442602474 -0.9035367862058588
5078000000.0 0.48820372716723737 -0.909300569288104
5081000000.0 0.5018452273033011 -0.8619662384865505
5084000000.0 0.5367656285108005 -0.9109390138677671
5088000000.0 0.514262407063317 -0.8917009537526865
5091000000.0 0.49414188198059505 -0.904604039018758
5094000000.0 0.52238947815546 -0.9136733594756502
5097000000.0 0.6064939011906915 -0.8809412752129504
5100000000.0 0.5275686222030895 -0.8420896422711691
5103000000.0 0.46869105393628446 -0.9171343574509611
5106000000.0 0.5497497126124212 -0.9141544497957431
5109000000.0 0.5272810517251652 -0.849708799937344
5112000000.0 0.5155782264956306 -0.8964493276878327
5116000000.0 0.5171383134868446 -0.869847435786057
5119000000.0 0.5384959336268594 -0.8882319612269136
5122000000.0 0.5060787649180425 -0.9126500619529628
5125000000.0 0.519963437038258 -0.877002795732712
5128000000.0 0.4846967926246626 -0.9011302519117987
5131000000.0 0.5408323352176085 -0.8871188211183576
5134000000.0 0.5165537653971681 -0.9156678826842122
5138000000.0 0.5557400994701341 -0.8806359477907006
5141000000.0 0.5731649816944516 -0.8339115186898305
5144000000.0 0.5259411868036303 -0.9083238380254461
5147000000.0 0.5492129728174645 -0.8941950639231051
5150000000.0 0.5687029667864627 -0.9051417219999516
5153000000.0 0.4941467267260169 -0.9050501103987467
5156000000.0 0.5443813901349458 -0.9229011795986086
5159000000.0 0.5539357783759609 -0.9009445965473718
5162000000.0 0.5270534184203898 -0.9240211737896804
5166000000.0 0.5256981122951994 -0.9278509787471891
5169000000.0 0.5587295437717423 -0.9303219553531473
5172000000.0 0.547896761674916 -0.8976570281340108
5175000000.0 0.6351159923700801 -0.9009545467234845
5178000000.0 0.5346452463399534 -0.9030130728357371
