! Created with skrf 1.8.0 (http://scikit-rf.org).
# Hz S RI R 50.0 
!freq ReS11 ImS11
4000000000.0 0.4757775180137347 -0.884301912355383
4003000000.0 0.501827142461652 -0.9617984362178557
4006000000.0 0.4479087289695073 -0.9509902867051113
4009000000.0000005 0.4697527922099712 -0.9068132780129038
4011999999.9999995 0.5146649223253691 -0.9185311720390281
4016000000.0 0.4495355905589251 -0.9265498070325244
4019000000.0 0.47646576044606354 -0.9296920715329104
4022000000.0000005 0.5210255982118506 -0.8947422179852664
4025000000.0000005 0.44426437029128973 -0.9703233754936348
4027999999.9999995 0.4632080966811789 -0.923910988810906
4030999999.9999995 0.4260579002922217 -0.8686814935650675
4034000000.0 0.4703878158868038 -0.9307981179778317
4038000000.0000005 0.43552790275189746 -0.9288851572543186
4041000000.0000005 0.4715784763430254 -0.9206914377137642
4043999999.9999995 0.4974567398769933 -0.9349085153166677
4046999999.9999995 0.524813831349576 -0.9673873511937896
4050000000.0 0.4393925406297605 -0.9146352636761297
4053000000.0 0.41116818113722503 -0.8874692443440361
4056000000.0 0.47981342475400646 -0.9176278202510282
4059000000.0 0.45348402619133676 -0.9135408392746179
4062000000.0000005 0.4554054613691545 -0.8992956509910283
4066000000.0 0.4168978576646215 -0.8367060326324567
4069000000.0 0.4396694074302734 -0.9784478221081977
4072000000.0 0.48423229545660823 -0.8899676517174404
4075000000.0 0.4910392555249825 -0.9081455325272642
4078000000.0000005 0.44786178675787003 -0.9476046333782093
4081000000.0000005 0.5148059502542491 -0.9239349287976719
4083999999.9999995 0.49317553698088046 -0.9389951207967907
4088000000.0 0.4945380835189732 -0.876753600740607
4091000000.0 0.4838829942969986 -0.9219113021612454
4094000000.0000005 0.4601207563993061 -0.8954077748489102
4097000000.0000005 0.44895494848823925 -0.9134446143882299
4099999999.9999995 0.444135911689304 -0.9299788511495891
4102999999.9999995 0.5066824256653921 -0.9384028853178392
4106000000.0 0.427928753944573 -0.9086377672698451
4109000000.0 0.42793983649079115 -0.9189671038451951
4112000000.0 0.4834178517593425 -0.9152962514691776
4115999999.9999995 0.44098491313078486 -0.8810092321247214
4119000000.0 0.43908198862051256 -0.9140833159682199
4122000000.0 0.43866024128933245 -0.9658082605824204
4125000000.0 0.4295228049020017 -0.9146474315154665
4128000000.0 0.5158741232459318 -0.894943531858181
4131000000.0 0.4443690286572018 -0.8680530651073742
4134000000.0000005 0.4525981778847072 -0.9059216263160211
4138000000.0 0.448271717518038 -0.908412615276248
4141000000.0 0.4322713092184434 -0.9033203952969381
4144000000.0 0.45317295060646956 -0.9135526803725716
4147000000.0000005 0.43407045856002174 -0.9434005518112356
4150000000.0000005 0.48334453660294724 -0.9297109119439851
4152999999.9999995 0.4401373313002499 -0.8961339901990959
4155999999.9999995 0.4786395139694376 -0.9390916416546895
4159000000.0 0.45825087411521725 -0.8853788880234015
4162000000.0 0.44361557843101657 -0.8990644230072584
4166000000.0000005 0.4479360720905955 -0.9309391114480676
4168999999.9999995 0.43101809348398656 -0.9019699220738598
4171999999.9999995 0.4585785144312431 -0.9057371694217387
4175000000.0 0.4728002733510257 -0.9044185531320489
4178000000.0 0.467974212402577 -0.91683942259674
4181000000.0 0.4611388660933957 -0.9166752397264426
4184000000.0 0.4417006518947291 -0.8720982038963697
4187999999.9999995 0.4381610424067082 -0.888161482086628
4191000000.0 0.4671420339801322 -0.8802576186137658
4194000000.0 0.4542306343250244 -0.890281334875245
4197000000.0 0.47488534161466867 -0.9190397780539572
4200000000.0 0.4711145363495111 -0.9050916856380132
4203000000.0000005 0.47778937459833626 -0.9118516775852086
4206000000.0000005 0.4601194044932615 -0.9166550015014375
4208999999.9999995 0.4504586538314094 -0.9147843202536504
4211999999.9999995 0.42034332673762753 -0.9339818349437623
4216000000.0 0.46085015176779226 -0.9181589819915335
4219000000.0000005 0.47095521123043604 -0.9101237720283842
4222000000.0000005 0.43946026656745607 -0.9200640185281083
4224999999.9999995 0.45369437158706094 -0.9009514652777423
4227999999.9999995 0.4505697106467826 -0.9278317426888042
4231000000.0 0.4341051869258554 -0.929269151170676
4234000000.0 0.44440484873189634 -0.9463262137821802
4238000000.0000005 0.4206949165038317 -0.9376910628640499
4240999999.9999995 0.4339975960220037 -0.9046256196990282
4244000000.0 0.4549465504954867 -0.9143778011901657
4247000000.0 0.45101059339363303 -0.9039209231127064
4250000000.0 0.41277731088028635 -0.8967058468677732
4253000000.0 0.4133591886397767 -0.8987679407760518
4256000000.0 0.44395798344793885 -0.9338301047418575
4259000000.0000005 0.417307555637955 -0.8818860754855867
4261999999.9999995 0.417816930956932 -0.9226343021185994
4266000000.0 0.4313259191093944 -0.9417176768215386
4269000000.0 0.4568800976547712 -0.9034403116204847
4272000000.0000005 0.43557911970470264 -0.8838076362562526
4275000000.0000005 0.45017532965475787 -0.9279574377284628
4277999999.9999995 0.46621596194168136 -0.9318498068387406
4280999999.9999995 0.46267127184638035 -0.9244135456495286
4284000000.0 0.40266556736288833 -0.9204780647490414
4288000000.0000005 0.4525883238664059 -0.9054621824944921
4291000000.0000005 0.41521105786472734 -0.8937463912925444
4293999999.9999995 0.42592407346864625 -0.9120614899114956
4297000000.0 0.4690531702929057 -0.9024511350044861
4300000000.0 0.41677477912542815 -0.8897268629792933
4303000000.0 0.41702899888999123 -0.8984376832319899
4306000000.0 0.4560231170377654 -0.9086527630905844
4309000000.0 0.42243372897994164 -0.8902970019857818
4312000000.0 0.48403142641570107 -0.8942388853018441
4316000000.0 0.4418170478965895 -0.9159427082918548
4319000000.0 0.4272359947719907 -0.8929931268299237
4322000000.0 0.41591799198692164 -0.9232325885671245
4325000000.0 0.4472631282002608 -0.9160124812141112
4328000000.0 0.42785332306027235 -0.886423105916406
4331000000.0 0.3901043490610729 -0.9398880232183497
4334000000.0 0.44579235093566993 -0.9471027818998
4338000000.0 0.4542774888985984 -0.9034797754512557
4341000000.0 0.48263254308204506 -0.9159066270794999
4344000000.0 0.45233187003673525 -0.9178339283798417
4347000000.0 0.411627232229119 -0.9409731761040726
4350000000.0 0.4042713317285037 -0.8998194061151925
4353000000.0 0.4397163882400406 -0.8766147610745435
4356000000.0 0.4077010656314444 -0.9132971842895081
4359000000.0 0.39379900437541526 -0.8899463910753209
4362000000.0 0.38480414985720685 -0.9138672013864556
4366000000.0 0.42660412501418044 -0.92433626679102
4369000000.0 0.40513197313475735 -0.896447571715402
4372000000.0 0.3822195097709684 -0.9128980892430258
4375000000.0 0.4453431197499657 -0.9133825218513055
4378000000.0 0.4240526844778639 -0.8902184342563443
4381000000.0 0.42977440973106107 -0.8867994843722952
4384000000.0 0.4315009327448133 -0.9765302295822456
4388000000.0 0.4199197568015818 -0.9105776028177871
4391000000.0 0.4309656177075246 -0.9213526709908169
4394000000.0 0.3983508310335919 -0.9122115450540519
4397000000.0 0.4036243852269244 -0.9200316365383431
4400000000.0 0.4366829786939584 -0.9403902543292566
4403000000.0 0.40382819056975183 -0.9283677330149556
4406000000.0 0.39871645599632716 -0.9377701170378063
4409000000.0 0.42704425942431845 -0.9348961323962087
4412000000.0 0.3657177983022089 -0.9334581192246544
4416000000.0 0.39836631287558116 -0.9128052657285637
4419000000.0 0.4002836313581094 -0.9321158791110187
4422000000.0 0.4212614962992838 -0.9074080364368947
4425000000.0 0.4357544250484442 -0.9205692914552225
4428000000.0 0.41098828347832506 -0.9302120912496129
4431000000.0 0.43280315164504773 -0.9398851475583928
4434000000.0 0.389623789490115 -0.9096621497346888
4438000000.0 0.40974520082409965 -0.9381225423252518
4441000000.0 0.42391119409001 -0.9290513581573978
4444000000.0 0.40032145216960713 -0.9075824135789152
4447000000.0 0.39698480632118477 -0.9286949292922033
4450000000.0 0.4136280537067714 -0.9195546588398353
4453000000.0 0.4150455522690002 -0.9502944186215989
4456000000.0 0.3768758634195093 -0.9041247610279318
4459000000.0 0.3647064910894293 -0.8963576351480744
4462000000.0 0.41949650415379364 -0.9814586369688584
4466000000.0 0.4024645813968248 -0.9638310199950597
4469000000.0 0.4076344599399893 -0.9225365758153563
4472000000.0 0.38089980560473746 -0.960996419972185
4475000000.0 0.38427328263033567 -0.8855899977968648
4478000000.0 0.39147772681523185 -0.9713447142558316
4481000000.0 0.35700961145684523 -0.9159460547891238
4484000000.0 0.34519645339895877 -0.95708658519266
4488000000.0 0.38313826184240174 -0.9361031155009543
4491000000.0 0.39928924212001704 -0.9323938352955606
4494000000.0 0.376705776441528 -0.9182411622757258
4497000000.0 0.39663208209988493 -0.9190662673565758
4500000000.0 0.39735887990300445 -0.9214534781101824
4503000000.0 0.3920972826560227 -0.9582059755439094
4506000000.0 0.3826162571247188 -0.9243160389307572
4509000000.0 0.3561882504390521 -0.9246716434266107
4512000000.0 0.3605227427819888 -0.9109880037310795
4516000000.0 0.38753140554793464 -0.9608120916224326
4519000000.0 0.3875679353704838 -0.8978773729683001
4522000000.0 0.36264221871553204 -0.9433304175886332
4525000000.0 0.39739116177700523 -0.931191340989361
4528000000.0 0.3839651704102476 -0.955514757992237
4531000000.0 0.4047958881033862 -0.9372186616346471
4534000000.0 0.3715898477139586 -0.9222231009888979
4538000000.0 0.38084883298868705 -0.9375839171275413
4541000000.0 0.3563837928037125 -0.9369044080233464
4544000000.0 0.371873026092266 -0.923891641906124
4547000000.0 0.3884547574102932 -0.9017509416259051
4550000000.0 0.36246352534881143 -0.9379627777281241
4553000000.0 0.36310830297762575 -0.9390034599457704
4556000000.0 0.34872847153858083 -0.9204497449120321
4559000000.0 0.3479749349578893 -0.9370843386743907
4562000000.0 0.37223513184097984 -0.9420512096461463
4566000000.0 0.3760277155000793 -0.9513998810331372
4569000000.0 0.35194498874175845 -0.9327998384177156
4572000000.0 0.3601467309080838 -0.9485846651033474
4575000000.0 0.36350890424650384 -0.956095127588321
4578000000.0 0.3802314118722676 -0.9475471835309737
4581000000.0 0.343346898230645 -0.9421744600743163
4584000000.0 0.3386396974478126 -0.9323376700331106
4588000000.0 0.3697926482786531 -0.9494990356190972
4591000000.0 0.37624850302779117 -0.9438286010558469
4594000000.0 0.33189162783979603 -0.9383099494190406
4597000000.0 0.3457758235148576 -0.9657411410699321
4600000000.0 0.3295698452165264 -0.9463047924989222
4603000000.0 0.35276560319325145 -0.9472168042820497
4606000000.0 0.35027498568102877 -0.9603973687605762
4609000000.0 0.35230472573172356 -0.9375650672507365
4612000000.0 0.3554961449902495 -0.9427837898394084
4616000000.0 0.35608322258293756 -0.9434522796194798
4619000000.0 0.34519790608782663 -0.9544897624917387
4622000000.0 0.34317535535573707 -0.9612084157246537
4625000000.0 0.3256229114693839 -0.9369763729864661
4628000000.0 0.3563690435209219 -0.9471860242152972
4631000000.0 0.33110636454955156 -0.9373927052688232
4634000000.0 0.35223929980902063 -0.9550664213121395
4638000000.0 0.3489683500640881 -0.9590659268180456
4641000000.0 0.34609511636042556 -0.9344058986285679
4644000000.0 0.3355678149188736 -0.9409336620692152
4647000000.0 0.34269013722447245 -0.9603025682434471
4650000000.0 0.3200011766255808 -0.9483067810812551
4653000000.0 0.36298651061151976 -0.9647566853216515
4656000000.0 0.33297157991916104 -0.9649672055023042
4659000000.0 0.3181218494318572 -0.9633697461771416
4662000000.0 0.3281334669649937 -0.9736103220315403
4666000000.0 0.30947633786905127 -0.9652356306473593
4669000000.0 0.31850002330806826 -0.9497164892272494
4672000000.0 0.3378907764715876 -0.9804935108680196
4675000000.0 0.32226232241153485 -0.9809528799732624
4678000000.0 0.3182355240005447 -0.9500834912698429
4681000000.0 0.3012540763333218 -0.9892014431755973
4684000000.0 0.29110007715222197 -0.9792157158241649
4688000000.0 0.2759923506443309 -0.9470452527805895
4691000000.0 0.32116575837221295 -0.9814305507886972
4694000000.0 0.3500396574926709 -0.934018708023321
4697000000.0 0.28084819750114864 -0.9107847267600034
4700000000.0 0.32031672802290145 -0.9771449157258145
4703000000.0 0.3443576947167715 -0.9024270994045335
4706000000.0 0.310415520918053 -0.9767359454252715
4709000000.0 0.3165935764163983 -0.9582420888070947
4712000000.0 0.3164512259184057 -0.9553937627482024
4716000000.0 0.33086799922883536 -0.9814638702519866
4719000000.0 0.3624503312539181 -0.9875148072522341
4722000000.0 0.3467424753384039 -0.9421224495874803
4725000000.0 0.34555214578533316 -0.9694794292106055
4728000000.0 0.3175943943213458 -0.9505337416987388
4731000000.0 0.30918197321277097 -0.9916523770912505
4734000000.0 0.3345114244850398 -0.9488182315863877
4738000000.0 0.3633342688307401 -0.9893373924895857
4741000000.0 0.3175767234528908 -0.9751175120515692
4744000000.0 0.289333188810851 -0.9544607295984577
4747000000.0 0.31891671875511723 -0.9285659379780483
4750000000.0 0.31969940686872406 -0.9875629863319569
4753000000.0 0.320277838826557 -0.9799734794056179
4756000000.0 0.3177617902830944 -0.9792730876618991
4759000000.0 0.32024616631169145 -1.0028714565963555
4762000000.0 0.2559227206594798 -1.0016211668110284
4766000000.0 0.32365095377490216 -0.9851142285693759
4769000000.0 0.29800078261473073 -0.9662906950244774
4772000000.0 0.34011211498564353 -0.9986219630039839
4775000000.0 0.30855713100497695 -0.9917832779644579
4778000000.0 0.2866695318928614 -1.0145420730423236
4781000000.0 0.31362310240738384 -0.9339761333941649
4784000000.0 0.30997193873979556 -0.956263420557668
4788000000.0 0.29564891119824505 -0.9736334722474187
4791000000.0 0.300293245741744 -0.9492228226562575
4794000000.0 0.36291449465117953 -0.9958087875885323
4797000000.0 0.2465883814553051 -0.9568876917966044
4800000000.0 0.2926600682168344 -0.9405135675781364
4803000000.0 0.23964798667522139 -0.9802238325460629
4806000000.0 0.3033086269584953 -0.992277098712816
4809000000.0 0.26314258055692086 -0.9820187922293645
4812000000.0 0.2701418131069285 -0.965327479821664
4816000000.0 0.3239263879356491 -0.9390775459860294
4819000000.0 0.32101940533304385 -0.9874828484007975
4822000000.0 0.33072804790436827 -0.9974102899287783
4825000000.0 0.3423057369887521 -1.0012849802052752
4828000000.0 0.2941845571836835 -0.9442000791336739
4831000000.0 0.2515924410458816 -1.0315998163736821
4834000000.0 0.31247365451510933 -0.9860306820311144
4838000000.0 0.2893550769115548 -1.0128970745010895
4841000000.0 0.27267503827257933 -0.9587863616450972
4844000000.0 0.3287445836769317 -0.9865490403179183
4847000000.0 0.29758426420804734 -0.9455789366569648
4850000000.0 0.2920178138567384 -1.0279036112531847
4853000000.0 0.27875863085634706 -0.9448759579510485
4856000000.0 0.2858969940826177 -0.9832021214636367
4859000000.0 0.2851599644541528 -1.0298521840035932
4862000000.0 0.31787739351153865 -0.9512926160947303
4866000000.0 0.2760567616814606 -0.9843809147028092
4869000000.0 0.30114858760904023 -0.9781476966759761
4872000000.0 0.26017429884882487 -1.0244360294709345
4875000000.0 0.34150974378652543 -1.0215365271537866
4878000000.0 0.2871149454135177 -0.9857348929977472
4881000000.0 0.25283863245360894 -1.0748387879723844
4884000000.0 0.31126089653253197 -0.9733708771958142
4888000000.0 0.3139731270681807 -0.9598493947329959
4891000000.0 0.3126646594376698 -1.0280546286129089
4894000000.0 0.2616115423911286 -0.9827780673075337
4897000000.0 0.3286136294705335 -0.966379050980838
4900000000.0 0.30996290976902807 -1.0101174714019012
4903000000.0 0.30284796135002023 -0.9840239193565167
4906000000.0 0.2855752542826493 -1.0030837959486347
4909000000.0 0.2716193017685782 -0.998313400802874
4912000000.0 0.3071550434636525 -1.017263108204112
4916000000.0 0.28831447681674205 -1.015396052092096
4919000000.0 0.31573798254562957 -0.9748273697844713
4922000000.0 0.3032580984263699 -0.9925133583494592
4925000000.0 0.24727638531120544 -0.988711554051044
4928000000.0 0.3582376255915874 -0.9540915331977076
4931000000.0 0.31440613338822754 -0.9900907789690225
4934000000.0 0.2944496281493064 -0.955946664554072
4938000000.0 0.24078112681356356 -0.9616329381204219
4941000000.0 0.2590500359506962 -0.9707301820446319
4944000000.0 0.27148176404163954 -0.9320207092265956
4947000000.0 0.2922704652309058 -0.9705176267148166
4950000000.0 0.2675808064978333 -0.9794285878187936
4953000000.0 0.24042848811656725 -1.0471626052181628
4956000000.0 0.23502448437136914 -0.9865316970873609
4959000000.0 0.2723224225717076 -0.953945042344455
4962000000.0 0.2837851187799762 -1.0279262625928438
4966000000.0 0.30499441565766716 -1.0282597534252753
4969000000.0 0.30426414110919303 -1.0275237384398013
4972000000.0 0.3047293530651558 -0.9857358041742897
4975000000.0 0.29208602640525533 -0.995250295950126
4978000000.0 0.27813484197628047 -1.0044091726987552
4981000000.0 0.2492750410928128 -1.0361481741560026
4984000000.0 0.3008033048246399 -0.9686571509518364
4988000000.0 0.2975641562315984 -1.0136538657547374
4991000000.0 0.36425686609364966 -0.9788996159883724
4994000000.0 0.28674156250270944 -0.9917571334809725
4997000000.0 0.23653507258154943 -1.017043452364858
5000000000.0 0.285294417494054 -1.0090403177766296
5003000000.0 0.2895513938884862 -1.039306922439634
5006000000.0 0.2914681079728993 -1.0266765213033764
5009000000.0 0.2889937056903467 -0.9785809345870078
5012000000.0 0.2628975363156984 -1.0169465703895997
5016000000.0 0.33368599420145534 -1.016103806291046
5019000000.0 0.281628442720882 -0.9929505282247038
5022000000.0 0.2770044877467871 -1.0081280792272835
5025000000.0 0.27347607993674733 -1.0358892010472327
5028000000.0 0.2521966342741805 -0.9922298954894466
5031000000.0 0.24812238320806418 -1.0026132617256438
5034000000.0 0.2720814266003361 -1.0013050595248294
5038000000.0 0.26684293834486394 -0.9641354848113832
5041000000.0 0.28768675235224533 -0.986276402305486
5044000000.0 0.3146078547090036 -0.9887299452064546
5047000000.0 0.29116468107643884 -1.0095617184021934
5050000000.0 0.3206738952098655 -0.9774310125803649
5053000000.0 0.22215531529327648 -1.0204258928318697
5056000000.0 0.32906355972154133 -1.0116860187025705
5059000000.0 0.2948110361879176 -0.9907658281034848
5062000000.0 0.2269488182877481 -1.0050727644697746
5066000000.0 0.2949638230820539 -0.97664192227749
5069000000.0 0.25238914779799854 -1.024050499501271
5072000000.0 0.27206298392173983 -0.995726219841955
5075000000.0 0.2994616660147692 -0.9992963601026422
5078000000.0 0.26418210459771585 -1.0232162805129752
5081000000.0 0.2575414149154274 -0.9825133648328399
5084000000.0 0.2833830191263418 -1.0005609684398404
5088000000.0 0.2589666797904902 -0.9861026263913863
5091000000.0 0.22551012661427267 -0.995452208202328
5094000000.0 0.22748312138651372 -0.9755384879558716
5097000000.0 0.2623493664504647 -0.9930922735126289
5100000000.0 0.2590991144347599 -0.9998967271419343
5103000000.0 0.21907605555339793 -0.9944916349688357
5106000000.0 0.26033691748565113 -1.0393908365905231
5109000000.0 0.32575981079346944 -1.0030399696402172
5112000000.0 0.23343429133295696 -0.987556251747691
5116000000.0 0.2691142105178598 -0.9755295978129006
5119000000.0 0.2275336687419522 -1.0298502876748472
5122000000.0 0.29394469201956774 -0.9689563541165547
5125000000.0 0.26243244599170784 -0.9649590613284553
5128000000.0 0.24096315335623125 -1.033530784629919
5131000000.0 0.2130173551217121 -0.9815103022204552
5134000000.0 0.2579881759956966 -0.966391161497377
5138000000.0 0.25853589806818444 -1.0210194933592374
5141000000.0 0.29828839813509167 -1.0206261583091722
5144000000.0 0.27096653815406374 -0.9692858668135034
5147000000.0 0.3064711195443879 -1.0036806923784551
5150000000.0 0.2934541476616375 -1.0618746611553758
5153000000.0 0.24035643673792256 -1.023573859589967
5156000000.0 0.29294573295414467 -0.9956311194339611
5159000000.0 0.2987080615236952 -1.017861283690805
5162000000.0 0.24400983597983816 -1.0112234307016525
5166000000.0 0.27005808132715736 -1.0275150818460197
5169000000.0 0.28494688457150563 -0.9932013117617374
