! Created with skrf 1.8.0 (http://scikit-rf.org).
# Hz S RI R 50.0 
!freq ReS11 ImS11
4000000000.0 0.4183712853380633 -0.922958088318337
4003000000.0 0.47923071051495486 -0.9562657633889704
4006000000.0 0.42943120323110584 -0.9387094615751534
4009000000.0000005 0.45094278532672705 -0.9275859039191185
4011999999.9999995 0.4792815923323618 -0.9220401766899462
4016000000.0 0.41615911730613164 -0.9745943946125484
4019000000.0 0.4527448765746145 -0.9181334135214716
4022000000.0000005 0.5017109081353005 -0.9387580006808034
4025000000.0000005 0.4090528867226334 -0.9616620492729003
4027999999.9999995 0.4369703846621714 -0.9719858990616204
4030999999.9999995 0.41158919265091354 -0.8903015727546004
4034000000.0 0.4356289352740984 -0.9221961114892541
4038000000.0000005 0.41577194121177885 -0.9379288444397447
4041000000.0000005 0.46213842556787654 -0.9203104289824526
4043999999.9999995 0.4599194837636331 -0.9724947362818865
4046999999.9999995 0.44373367416564913 -0.9366531474136004
4050000000.0 0.45193776678773656 -0.9455638023580282
4053000000.0 0.4024408319159525 -0.9405547425654117
4056000000.0 0.46287768423223963 -0.9615963892595201
4059000000.0 0.44235593212279045 -0.9462823367999842
4062000000.0000005 0.459750223219361 -0.928553155935727
4066000000.0 0.40958078981801455 -0.8669329650087687
4069000000.0 0.40744524555404305 -0.9667060155392942
4072000000.0 0.46162886860169766 -0.9592866229135162
4075000000.0 0.4689669809365957 -0.9831442419229934
4078000000.0000005 0.41073381775973916 -0.9381389074564195
4081000000.0000005 0.4936317593790871 -0.8655938162005162
4083999999.9999995 0.4249572860259853 -0.9326213930471248
4088000000.0 0.4768801150221106 -0.9388764834361751
4091000000.0 0.4681443348460505 -0.9937380633892468
4094000000.0000005 0.43762054599569544 -0.935758507095783
4097000000.0000005 0.4493358007547511 -0.925462265301297
4099999999.9999995 0.40550361128748763 -0.9126712645825026
4102999999.9999995 0.44861986175220425 -0.9863393720766964
4106000000.0 0.4331331925553273 -0.9638302668659516
4109000000.0 0.38553876403480103 -0.9367079601372049
4112000000.0 0.41665309065683936 -0.942265780339514
4115999999.9999995 0.4283941553261579 -0.9350927863073483
4119000000.0 0.4299157254015815 -0.9392434197372782
4122000000.0 0.4193674408451276 -0.9561445046941006
4125000000.0 0.4190436880138315 -0.9675673409403023
4128000000.0 0.43376710828101506 -0.9297383645398761
4131000000.0 0.3670146220893291 -0.9680377833536248
4134000000.0000005 0.44283072870041496 -0.9194849435674818
4138000000.0 0.39098248535658225 -0.928823686264798
4141000000.0 0.4052786322249737 -0.933391345895249
4144000000.0 0.43145931919474073 -0.9461801779529765
4147000000.0000005 0.40185589973315167 -0.9167072722441751
4150000000.0000005 0.43527310225272337 -0.9613628109320521
4152999999.9999995 0.3934894747736847 -0.9447311688695696
4155999999.9999995 0.4375460300571301 -0.9448230462341012
4159000000.0 0.4178923413283746 -0.8987282695402321
4162000000.0 0.4413400968591466 -0.9090890437501846
4166000000.0000005 0.4060089550731045 -0.940426523186811
4168999999.9999995 0.3912794248867976 -0.9382757447153607
4171999999.9999995 0.42191481597487374 -0.9115970439622935
4175000000.0 0.3964766881278418 -0.9534187263737476
4178000000.0 0.41367719972771483 -0.9349113219801067
4181000000.0 0.42079116756545426 -0.9166548148551473
4184000000.0 0.42154409977026086 -0.9091639953678567
4187999999.9999995 0.40399046601134536 -0.9345404322643546
4191000000.0 0.4352430748593 -0.936759324918147
4194000000.0 0.4181088142362956 -0.9345692324220324
4197000000.0 0.44170409145078104 -0.9461715051826531
4200000000.0 0.4456080785224047 -0.9211854671792651
4203000000.0000005 0.44450852783191297 -0.9236013549389593
4206000000.0000005 0.41850363781687816 -0.9412913516740403
4208999999.9999995 0.4092139903350155 -0.938345876809052
4211999999.9999995 0.3827611641235963 -0.946540770301962
4216000000.0 0.43952378340404513 -0.9381189732928786
4219000000.0000005 0.42178050294812414 -0.9505513417825858
4222000000.0000005 0.4156812732870868 -0.9260280936133574
4224999999.9999995 0.4080399772211468 -0.9208497620876861
4227999999.9999995 0.4114578950022568 -0.9345505909179668
4231000000.0 0.41740303531083506 -0.941477718575158
4234000000.0 0.41950374096099685 -0.9513372642438185
4238000000.0000005 0.38773469496095403 -0.9376379862720535
4240999999.9999995 0.40209689716793917 -0.9336183476987532
4244000000.0 0.41327139217500475 -0.9228554594024461
4247000000.0 0.4132224302264269 -0.9366591517503918
4250000000.0 0.3772166142620056 -0.9251776473846833
4253000000.0 0.3757309781620166 -0.9140054359212859
4256000000.0 0.41850858519894163 -0.940121963144262
4259000000.0000005 0.3805948245333911 -0.909268119156694
4261999999.9999995 0.3852763008240597 -0.9494505887890263
4266000000.0 0.39010524117428363 -0.9571800086936071
4269000000.0 0.42719379677344776 -0.9245028118586534
4272000000.0000005 0.4032884392674032 -0.9255530254057851
4275000000.0000005 0.41694134819050427 -0.9283599250301664
4277999999.9999995 0.42292652619247156 -0.9454184967400274
4280999999.9999995 0.4116590650000709 -0.9484406314934835
4284000000.0 0.3730136863958719 -0.9659480267004681
4288000000.0000005 0.41630937684507147 -0.9203578027649723
4291000000.0000005 0.3904805323413493 -0.9059632520541865
4293999999.9999995 0.38150494164904725 -0.9186423267872241
4297000000.0 0.4121738533174366 -0.9190072975737164
4300000000.0 0.4049763400992742 -0.9034980036576519
4303000000.0 0.3765457030119087 -0.9345084965094188
4306000000.0 0.4171864358914707 -0.9211105247176464
4309000000.0 0.4096249932172525 -0.9255555829844974
4312000000.0 0.43911382929814335 -0.9248910497123408
4316000000.0 0.40015486942882733 -0.9420775205390501
4319000000.0 0.40261925923460373 -0.9061762520915224
4322000000.0 0.3570037166121514 -0.9192505166112657
4325000000.0 0.39814332519351237 -0.940483016359393
4328000000.0 0.38378622085667163 -0.9103875083347854
4331000000.0 0.35960087936025553 -0.9699529461556269
4334000000.0 0.40529856455898605 -0.9350762666787324
4338000000.0 0.39156428656436093 -0.9292383484388493
4341000000.0 0.4295924003396655 -0.9435347814800452
4344000000.0 0.4095258363611223 -0.9550532277649042
4347000000.0 0.37099544288721853 -0.9307641795234005
4350000000.0 0.35211795475187285 -0.9148221566289603
4353000000.0 0.40006445202429397 -0.9127184058308273
4356000000.0 0.3455773703356281 -0.9299204010378195
4359000000.0 0.36960088745625164 -0.888920726321253
4362000000.0 0.32925880789028206 -0.9606313323659665
4366000000.0 0.36404411597199454 -0.9664510065063382
4369000000.0 0.3522779538002507 -0.9078218694630397
4372000000.0 0.3386883503624549 -0.9515366727999787
4375000000.0 0.3873810681685581 -0.918183825325351
4378000000.0 0.36630747327839364 -0.9119666946828021
4381000000.0 0.3757789148227556 -0.9164043291121178
4384000000.0 0.37888002852489244 -0.9942138867661405
4388000000.0 0.3665199606727276 -0.9200302312680687
4391000000.0 0.39007047541751894 -0.9455815013425022
4394000000.0 0.34931739488842706 -0.9239071843139892
4397000000.0 0.36259511151577434 -0.9505297002825625
4400000000.0 0.37273307332483013 -0.961328691221899
4403000000.0 0.3808921325025087 -0.9546538069557965
4406000000.0 0.3403607671048482 -0.9568572881702523
4409000000.0 0.35765715946399096 -0.9812726043255837
4412000000.0 0.3264799662544571 -0.9660822888917026
4416000000.0 0.3526357419643665 -0.9323306105266154
4419000000.0 0.34864239977345524 -0.9547799127603179
4422000000.0 0.3832976434724102 -0.9283718577594191
4425000000.0 0.38480898020161847 -0.9557331342823198
4428000000.0 0.3508678715078888 -0.9555704946493921
4431000000.0 0.3762042797191947 -0.9727874384374422
4434000000.0 0.3485819754777294 -0.9506060398170639
4438000000.0 0.3767061940695726 -0.9662295373368128
4441000000.0 0.36261119578380335 -0.9616888008714666
4444000000.0 0.35944513830716035 -0.9306250231194069
4447000000.0 0.34460864459491664 -0.9464396483082151
4450000000.0 0.34889345384306714 -0.9364565147415796
4453000000.0 0.3555394762469517 -0.9803565038557199
4456000000.0 0.33143865076744017 -0.9203979189805207
4459000000.0 0.31028761150723455 -0.9155728121054393
4462000000.0 0.3428500973170512 -1.0121778521983
4466000000.0 0.3455237180282149 -0.9904979823353458
4469000000.0 0.35063593904477136 -0.9547796864781668
4472000000.0 0.3264828304277204 -0.9898433064531176
4475000000.0 0.3432698878360064 -0.926862783819653
4478000000.0 0.35187258405190586 -0.9818084717853021
4481000000.0 0.3129832117029825 -0.9379985364642619
4484000000.0 0.287426469802019 -0.962826651630417
4488000000.0 0.30031364203575994 -0.950527686849416
4491000000.0 0.3310761953521731 -0.9626078983890423
4494000000.0 0.3300123605388603 -0.9352671948969196
4497000000.0 0.3320992798635097 -0.9379749380754943
4500000000.0 0.3358368571818238 -0.9543770810287566
4503000000.0 0.35214351810454114 -0.9899144596321916
4506000000.0 0.3019554677663977 -0.9690653002448644
4509000000.0 0.30975752147750407 -0.9459991727194501
4512000000.0 0.2986114630863536 -0.9493773296668351
4516000000.0 0.3349572664528579 -0.9845763010232369
4519000000.0 0.3219295308270724 -0.9273920343490396
4522000000.0 0.2908566772717519 -0.9734645424040258
4525000000.0 0.3644344784615269 -0.9326038355689062
4528000000.0 0.32236358094483075 -0.9841898017804525
4531000000.0 0.3247533852092747 -0.9685172170857517
4534000000.0 0.29564244112472177 -0.957073537329453
4538000000.0 0.3189724633398618 -0.9562576712821141
4541000000.0 0.2752507711602078 -0.9608124948049694
4544000000.0 0.3212792932090195 -0.9476896667992832
4547000000.0 0.3178081083849293 -0.9471148879986153
4550000000.0 0.29335062895409314 -0.986579445035879
4553000000.0 0.2895870106048524 -0.9689809770204934
4556000000.0 0.28640258400434676 -0.9595322239305066
4559000000.0 0.2819128570103262 -0.9754337217713916
4562000000.0 0.31768377478223253 -0.9688255617198647
4566000000.0 0.28450815314192146 -0.9734784587969432
4569000000.0 0.29157406365935895 -0.97923575025025
4572000000.0 0.3149008415912586 -0.9634922752607811
4575000000.0 0.28332034866002326 -0.9750479722806824
4578000000.0 0.31118685985495864 -0.994782822682939
4581000000.0 0.276542949181764 -0.9550830352863322
4584000000.0 0.2860420036006936 -0.9666821005124908
4588000000.0 0.3015254957313561 -0.9732792699106784
4591000000.0 0.30864500069402434 -0.9789290225048565
4594000000.0 0.28677762677204865 -0.9589971086894167
4597000000.0 0.28937864650761824 -1.001192962013604
4600000000.0 0.27947451583041655 -0.9679657080491472
4603000000.0 0.2725229076991595 -0.9812828873929609
4606000000.0 0.29743109898695724 -0.9762477079580819
4609000000.0 0.2929116089219259 -0.9805597161689681
4612000000.0 0.28571458171668934 -0.9750875464243274
4616000000.0 0.2647346718916678 -0.9763525973738962
4619000000.0 0.2799697854994598 -0.9877809733062832
4622000000.0 0.26620961836933377 -0.9868912483166667
4625000000.0 0.2605870829494598 -0.9669354219864377
4628000000.0 0.2994404428792046 -0.9887054117395655
4631000000.0 0.269389919938025 -0.9627841778401678
4634000000.0 0.2712773024164159 -0.9807699083250727
4638000000.0 0.2701511180386753 -0.9815903910150161
4641000000.0 0.2736700238174954 -0.959032297386326
4644000000.0 0.2674978230382929 -0.9694530983361287
4647000000.0 0.28118635669049363 -0.9849200831559415
4650000000.0 0.24813522183626677 -0.9727634826485331
4653000000.0 0.2648990215233198 -0.9760956443838646
4656000000.0 0.2600531611586615 -0.9653011955194236
4659000000.0 0.25078852178464583 -0.9911167391052378
4662000000.0 0.2540733493485867 -1.0056859220058734
4666000000.0 0.24843476215506263 -0.9873180452350313
4669000000.0 0.2508707382329731 -0.9623217033169604
4672000000.0 0.2311994010659842 -1.011783657191532
4675000000.0 0.2239102684755484 -1.0108418274049649
4678000000.0 0.2625922700496489 -0.9661451197919363
4681000000.0 0.2316349314190772 -0.9924718266402145
4684000000.0 0.2250392399208292 -1.0165662504265036
4688000000.0 0.26208265780805573 -0.9986212728042715
4691000000.0 0.2857841043264586 -1.009020893208936
4694000000.0 0.24482265016532537 -0.9723155019557693
4697000000.0 0.1963519951236613 -0.953795819871702
4700000000.0 0.23290468411394946 -0.9944677685707646
4703000000.0 0.2955686746545785 -0.9421698852484165
4706000000.0 0.24522582330025108 -1.0069681561217936
4709000000.0 0.21560651824543706 -0.968239046721303
4712000000.0 0.25608899572700144 -0.9880174312889678
4716000000.0 0.2354864587603485 -1.0127341055058803
4719000000.0 0.27830632793788607 -1.0022562735784828
4722000000.0 0.23090253866649257 -0.9615473425705223
4725000000.0 0.242779113332965 -0.9945599533510462
4728000000.0 0.2373150668438961 -0.9797275617871
4731000000.0 0.24717624544704497 -1.0482483469316173
4734000000.0 0.24790343713434693 -0.9760850377148738
4738000000.0 0.29181726542030695 -1.0657154298277152
4741000000.0 0.20217727989107293 -1.027536920243385
4744000000.0 0.2050961013058695 -0.9870135008814472
4747000000.0 0.23857260098160146 -0.9789100788608398
4750000000.0 0.2221769208306181 -0.9977729020504693
4753000000.0 0.23938572218631693 -0.9975116513134671
4756000000.0 0.2416386330780152 -0.9960623634703327
4759000000.0 0.22826115477385872 -1.0120952033011859
4762000000.0 0.21203617066453592 -1.0442394245705584
4766000000.0 0.17702111544166857 -0.9899546939833724
4769000000.0 0.2381659704465341 -1.0138015532304179
4772000000.0 0.23673968467392428 -0.9993288069295478
4775000000.0 0.1741993167799803 -1.0533628702282762
4778000000.0 0.2186348731208737 -1.0353979328800669
4781000000.0 0.2211524381681545 -0.9826615412534547
4784000000.0 0.24174817369451249 -0.9979686572406415
4788000000.0 0.20312644271367303 -1.0054593097082432
4791000000.0 0.20497612902586082 -0.9861549869878017
4794000000.0 0.25357387837392825 -1.0212820232399824
4797000000.0 0.21332647956274683 -0.9839318445683071
4800000000.0 0.19349062383287277 -0.9956142086703376
4803000000.0 0.17426404197902287 -1.0076172919104693
4806000000.0 0.19751405149755752 -1.0305824574537128
4809000000.0 0.1483256602737894 -1.019559623508714
4812000000.0 0.16131905934646742 -0.9967065213811447
4816000000.0 0.19998091869672485 -0.9822052651430923
4819000000.0 0.2112705416428109 -1.031090317766677
4822000000.0 0.23813625845323805 -1.0387253202153846
4825000000.0 0.22894803452285928 -1.027977709216668
4828000000.0 0.2130432861329007 -1.0138474766551615
4831000000.0 0.14567602068588056 -1.0163615742564627
4834000000.0 0.22779974487707333 -1.0156078702951967
4838000000.0 0.1772419834873382 -1.0435533312720215
4841000000.0 0.2069082141798758 -0.998663597770065
4844000000.0 0.21830299686078514 -1.009884552056184
4847000000.0 0.21459353101281833 -0.9575745367659315
4850000000.0 0.15654014083142465 -1.0503293046508504
4853000000.0 0.19262443721856512 -0.9959670797148062
4856000000.0 0.16468584594043081 -0.9914767361859667
4859000000.0 0.18980420257854172 -1.078867516420757
4862000000.0 0.20088098204780938 -0.9881366136558084
4866000000.0 0.1498026655967871 -1.0240072244958773
4869000000.0 0.18610011540671456 -1.0291856063622167
4872000000.0 0.16286772948090564 -1.0569380399629844
4875000000.0 0.23239485118105807 -1.0427907049130196
4878000000.0 0.1650849385601851 -1.0263023002634117
4881000000.0 0.15462251481635553 -1.0696681779132453
4884000000.0 0.23367121174189665 -1.0114242867286185
4888000000.0 0.20774829818543644 -1.0144038240661057
4891000000.0 0.19817670634349743 -1.0086844085642868
4894000000.0 0.19678370369427733 -1.01301048071973
4897000000.0 0.20792555848731847 -1.0008960384049304
4900000000.0 0.19931409530264027 -1.0432811339700554
4903000000.0 0.22057855484555472 -1.0462715840232597
4906000000.0 0.17488479834805964 -1.0434602078173476
4909000000.0 0.17111918820022204 -1.045510429116487
4912000000.0 0.16250929680306508 -1.0502371679862805
4916000000.0 0.16568087431238177 -1.040345300716323
4919000000.0 0.23594057952631714 -1.0691536343116324
4922000000.0 0.24776932897165488 -1.0149989406059958
4925000000.0 0.14028561052533217 -1.0238709862084154
4928000000.0 0.20232266833423573 -0.9693541706554105
4931000000.0 0.21354234640467867 -1.0330681222209208
4934000000.0 0.1712129741784963 -1.023582797062435
4938000000.0 0.11708864001628894 -1.0459720641773942
4941000000.0 0.17110106559253802 -1.007789730201977
4944000000.0 0.19561603577455172 -0.9929900650887414
4947000000.0 0.14558785680239017 -0.9776930060157324
4950000000.0 0.16052159477890438 -1.0569728229049948
4953000000.0 0.11936024108234877 -1.085990847415681
4956000000.0 0.1373625278082285 -1.0730801635164062
4959000000.0 0.13588155758546555 -0.9839626887076907
4962000000.0 0.14336937110137565 -1.0476250696313674
4966000000.0 0.1613188829038643 -1.0443041331239513
4969000000.0 0.17499282176846065 -1.0719158882016784
4972000000.0 0.13065270426408798 -1.017837818619368
4975000000.0 0.19149685601554634 -1.0244884366661478
4978000000.0 0.1015276299565609 -1.0169133917561188
4981000000.0 0.12376219623700285 -1.0577632124780882
4984000000.0 0.12744994220200279 -1.003639811754306
4988000000.0 0.1782772766887773 -1.023363878432173
4991000000.0 0.2170748650299979 -1.042508192987393
4994000000.0 0.15293445489611535 -1.0144750365718034
4997000000.0 0.11493777992318327 -1.0193622585507234
5000000000.0 0.18763815558357388 -1.041624051854686
5003000000.0 0.15753724802520147 -1.0477102730889913
5006000000.0 0.1374122574109961 -1.0747609041969872
5009000000.0 0.1292029505211722 -1.0332322561995877
5012000000.0 0.11054094528268804 -1.039954499894167
5016000000.0 0.1952848437874532 -1.0446864760274623
5019000000.0 0.15156689596166983 -1.0326645834234351
5022000000.0 0.13873839175599056 -1.0228561930213393
5025000000.0 0.1283873086574296 -1.094711548741463
5028000000.0 0.10993074688684645 -1.0195078228922672
5031000000.0 0.10443508043496957 -1.040168696906815
5034000000.0 0.08350514591855296 -1.0907820773833818
5038000000.0 0.07494142380975483 -1.0412960662132469
5041000000.0 0.1437366544241358 -1.0238536894872028
5044000000.0 0.14338252153224296 -1.0192773111414235
5047000000.0 0.13100032834229913 -1.0211722127821705
5050000000.0 0.1613415128460089 -1.027521129549284
5053000000.0 0.11487818586525966 -1.07577383081229
5056000000.0 0.16237064832695336 -1.0254940789978462
5059000000.0 0.10039101669494405 -1.0403276607820888
5062000000.0 0.06424493043706442 -1.0620188196200857
5066000000.0 0.13485897095985772 -1.0583299604073
5069000000.0 0.1210956721356799 -1.049127818826723
5072000000.0 0.1508935306729985 -1.040096246977314
5075000000.0 0.16766613228010113 -1.0065687703018518
5078000000.0 0.13248170167465095 -1.047917434547478
5081000000.0 0.12308184598042454 -1.0113175145600586
5084000000.0 0.09025647558106997 -1.0378826106244232
5088000000.0 0.14211898430893277 -1.039166478392545
5091000000.0 0.07023823958989828 -1.0294486320134104
5094000000.0 0.05454769825999456 -1.0574126003113593
5097000000.0 0.1164120943634418 -1.0147928062571154
5100000000.0 0.10278634946270582 -1.030849384689966
5103000000.0 0.05607691743373161 -1.098623734189456
5106000000.0 0.14421856722070925 -1.0095334214967178
5109000000.0 0.147774066863962 -1.0429927987623888
5112000000.0 0.04807387199252072 -0.9979623812777598
5116000000.0 0.10858727864342393 -1.0459048652534073
5119000000.0 0.002923263347010485 -1.049550660692584
5122000000.0 0.05570964429734526 -1.0120152381130685
5125000000.0 0.1547236505047584 -1.0153029296423952
5128000000.0 0.06176624363894845 -1.0842696861758552
5131000000.0 0.08439173544334072 -1.0855826821997456
5134000000.0 0.036605027844772264 -1.0444631225620769
5138000000.0 0.1062942038141535 -1.0363425292605566
5141000000.0 0.08385244221443433 -1.0535822519941198
5144000000.0 0.07982695952814345 -1.0159168706590707
5147000000.0 0.04828105980997954 -1.07845606185266
5150000000.0 0.09485970662673032 -1.0486491662866253
5153000000.0 0.08476649021560806 -1.0996561784216499
5156000000.0 0.048031861747118765 -1.0337624117000548
5159000000.0 0.052330961382069774 -1.0336256781021373
5162000000.0 0.028909421892747256 -1.0473865454867963
5166000000.0 0.06406790297877868 -1.0539024218722957
