! Created with skrf 1.8.0 (http://scikit-rf.org).
# Hz S RI R 50.0 
!freq ReS11 ImS11
4000000000.0 0.5156942800986999 -0.8977767576705002
4003000000.0 0.5894187987020202 -0.9351407526459972
4006000000.0 0.4940787759438771 -0.9035279370662846
4009000000.0000005 0.580137830538896 -0.9128684067422366
4011999999.9999995 0.5816598338074257 -0.8984264070451222
4016000000.0 0.526069856459685 -0.8969644350971093
4019000000.0 0.5261642163228039 -0.8749726036696135
4022000000.0000005 0.6269244502597855 -0.8443969630102726
4025000000.0000005 0.4989705813388653 -0.9308366727603938
4027999999.9999995 0.5227106060169022 -0.9114413443557077
4030999999.9999995 0.5403153481060944 -0.8346690029614863
4034000000.0 0.5393599414707428 -0.8888112512684883
4038000000.0000005 0.553662991734966 -0.9020588184963603
4041000000.0000005 0.5348164369482661 -0.9039302392389597
4043999999.9999995 0.5566074087952513 -0.9391234197751627
4046999999.9999995 0.5820240341628863 -0.891204619242562
4050000000.0 0.5218783587641143 -0.9154630607468401
4053000000.0 0.5078574780143561 -0.861607681790894
4056000000.0 0.5552905586682586 -0.901779470981873
4059000000.0 0.5100360284045049 -0.8658381103194719
4062000000.0000005 0.551904044495866 -0.8661570024423111
4066000000.0 0.5038942959638114 -0.7982412715581619
4069000000.0 0.5255142915542921 -0.916443465289185
4072000000.0 0.580261557361503 -0.8579917701009738
4075000000.0 0.5968160136244203 -0.8746749098774833
4078000000.0000005 0.5457678671789048 -0.9081062764631109
4081000000.0000005 0.6105966902403344 -0.8564731265055178
4083999999.9999995 0.5370643869392865 -0.9244295303698933
4088000000.0 0.5545267824238935 -0.8692137784753757
4091000000.0 0.5629752647323696 -0.9510956508119977
4094000000.0000005 0.5533675202608797 -0.8592492857482458
4097000000.0000005 0.5070200907948853 -0.8622278686001001
4099999999.9999995 0.5393491511259279 -0.8947390957583081
4102999999.9999995 0.5638051334106848 -0.8953337620969243
4106000000.0 0.5313891696525709 -0.9066662291735739
4109000000.0 0.5242282407305758 -0.8965467604242734
4112000000.0 0.532488808827278 -0.9137156954744691
4115999999.9999995 0.5418229849600771 -0.8881499726220428
4119000000.0 0.5269099670800581 -0.9064906459074374
4122000000.0 0.4902004470228754 -0.8980480885758394
4125000000.0 0.5325922730832933 -0.9455058462627065
4128000000.0 0.551128702185509 -0.8544641187800489
4131000000.0 0.5362554754805424 -0.8561199376252692
4134000000.0000005 0.5679064151327431 -0.8989558088388365
4138000000.0 0.4894702706850368 -0.8572828175770135
4141000000.0 0.5513656008523472 -0.885614017058214
4144000000.0 0.5245040662071403 -0.8735321055460238
4147000000.0000005 0.4925259117456 -0.915577234443088
4150000000.0000005 0.5633142814020053 -0.8751046900039807
4152999999.9999995 0.5393726264191115 -0.9068292503079495
4155999999.9999995 0.5612371839764587 -0.8916342188253243
4159000000.0 0.5151531168377008 -0.8527211149578304
4162000000.0 0.5331414319750288 -0.8638558696971571
4166000000.0000005 0.5518074864186593 -0.9116350091669562
4168999999.9999995 0.5385777205101941 -0.8690387634285353
4171999999.9999995 0.5504883483676688 -0.8835840851388969
4175000000.0 0.5360491681260077 -0.8670494787888826
4178000000.0 0.5158564578363525 -0.8977336367274386
4181000000.0 0.5343417782410328 -0.8741397882176591
4184000000.0 0.5620728326367994 -0.875365832208996
4187999999.9999995 0.5302029696919979 -0.8705116966752843
4191000000.0 0.554083270258529 -0.8442279357705392
4194000000.0 0.5248610422121145 -0.8556233085810259
4197000000.0 0.5361819616810566 -0.8690875058991884
4200000000.0 0.5375742474846501 -0.8753900393063193
4203000000.0000005 0.5382209712632858 -0.8682339707694002
4206000000.0000005 0.5453107289499106 -0.8921012874810831
4208999999.9999995 0.5366294033104292 -0.843681355662771
4211999999.9999995 0.5057783054840566 -0.8773188849146184
4216000000.0 0.546410308391584 -0.8570514938318499
4219000000.0000005 0.5525483008593588 -0.8802708676595901
4222000000.0000005 0.5293855193902544 -0.8802351932631141
4224999999.9999995 0.5342666483623777 -0.8478467407620583
4227999999.9999995 0.5280023099435676 -0.8701481690080659
4231000000.0 0.5098364112249236 -0.8713651915948927
4234000000.0 0.5613426463738358 -0.8826273936343514
4238000000.0000005 0.5170333866574937 -0.8912308755967546
4240999999.9999995 0.5287510089347545 -0.8672911217833837
4244000000.0 0.532867239723883 -0.8691237292584614
4247000000.0 0.5523410074198309 -0.8619252044251186
4250000000.0 0.5266189982706155 -0.8628747422566861
4253000000.0 0.5070755823742116 -0.8545662927209434
4256000000.0 0.5261836491466402 -0.8821426156609833
4259000000.0000005 0.5240376236137103 -0.8400397563426881
4261999999.9999995 0.5071761342562803 -0.8844821837646687
4266000000.0 0.5223266763634817 -0.8890028650470244
4269000000.0 0.5372610538737255 -0.8639074604022822
4272000000.0000005 0.5503976648571067 -0.8748393555261382
4275000000.0000005 0.5242454473866511 -0.868328443822469
4277999999.9999995 0.5501627053005489 -0.9040753589352686
4280999999.9999995 0.5383902427463367 -0.8730181108389374
4284000000.0 0.49717674433872755 -0.8675665911299336
4288000000.0000005 0.5663883327369078 -0.8335217725352433
4291000000.0000005 0.5105308937107708 -0.872788805707982
4293999999.9999995 0.527114656144904 -0.846986663831419
4297000000.0 0.5696444038906413 -0.8346340760578488
4300000000.0 0.513452514254396 -0.87576517130251
4303000000.0 0.5172985898731175 -0.8670874305888033
4306000000.0 0.5522447854657245 -0.8410654013182102
4309000000.0 0.5306291834207331 -0.842065176572689
4312000000.0 0.5775052390973995 -0.8709849195560685
4316000000.0 0.5399013680892051 -0.8483933120061506
4319000000.0 0.5226184649834319 -0.8462460334297016
4322000000.0 0.5001135620765493 -0.8742011047737753
4325000000.0 0.5125974843335823 -0.8649594332265488
4328000000.0 0.5352785075966083 -0.861658847983753
4331000000.0 0.5224014232672879 -0.891376643092685
4334000000.0 0.5590757028121082 -0.8898769219336943
4338000000.0 0.5487658889654325 -0.8583719459192515
4341000000.0 0.5647007891969618 -0.8819566038667546
4344000000.0 0.5354814600417908 -0.8804390725562656
4347000000.0 0.5040934424419488 -0.8884147921572131
4350000000.0 0.5242411160318532 -0.8589792145420885
4353000000.0 0.5201991470809068 -0.8439991479505771
4356000000.0 0.49838215426342997 -0.8538171807271497
4359000000.0 0.5151871821484422 -0.8333534848410162
4362000000.0 0.49264116445258527 -0.8990373720815984
4366000000.0 0.5397665647283827 -0.8859047871097244
4369000000.0 0.4895029775811535 -0.8425738697096368
4372000000.0 0.49334891639840084 -0.886747576877502
4375000000.0 0.5467303264511885 -0.8410315469963617
4378000000.0 0.5247704138014604 -0.844592038413293
4381000000.0 0.5159327572769541 -0.8367459762817497
4384000000.0 0.5382653247904586 -0.9105134305096466
4388000000.0 0.5375758413522419 -0.8522999693939904
4391000000.0 0.5372876722243592 -0.8674652053291703
4394000000.0 0.4946117130159501 -0.854585012891606
4397000000.0 0.5237428068644083 -0.8592716872113828
4400000000.0 0.5327927101232306 -0.8871171292218571
4403000000.0 0.523446713587899 -0.8691041391904275
4406000000.0 0.5054251400862848 -0.8918429085254772
4409000000.0 0.5249881712956022 -0.905130426312635
4412000000.0 0.46373369145619514 -0.8834827736942045
4416000000.0 0.50781497505936 -0.8573069863208232
4419000000.0 0.4882284322435354 -0.8845944821436548
4422000000.0 0.5211992202905327 -0.8554480028924222
4425000000.0 0.5557601968969703 -0.8711014011582372
4428000000.0 0.5111175738831566 -0.8807475845217789
4431000000.0 0.5274857187410904 -0.8958007813054831
4434000000.0 0.49873605679870014 -0.8648916017619375
4438000000.0 0.5217824510481096 -0.8760635547312539
4441000000.0 0.5365316669930194 -0.88946522693779
4444000000.0 0.5177190764913684 -0.8568152986597041
4447000000.0 0.4972593188895547 -0.8761935041255456
4450000000.0 0.5170101451324858 -0.8477967290225713
4453000000.0 0.5318836784668399 -0.8882921740007464
4456000000.0 0.4936188877256822 -0.8606186897988399
4459000000.0 0.47653414464299804 -0.844974626794964
4462000000.0 0.550708941542202 -0.9469018409055916
4466000000.0 0.5276961121491884 -0.9261820516894221
4469000000.0 0.5285085291982796 -0.859136429449868
4472000000.0 0.5046223565977657 -0.8965490925888944
4475000000.0 0.500388962352335 -0.8423639920414661
4478000000.0 0.5173347732750628 -0.8995834337636329
4481000000.0 0.4859076633519598 -0.861818287649414
4484000000.0 0.4665874011235174 -0.8943304098770439
4488000000.0 0.49626311862433004 -0.8644759541463674
4491000000.0 0.5137229660849634 -0.8881948900127051
4494000000.0 0.504704891667277 -0.8724760185428208
4497000000.0 0.5180343630378367 -0.8561256507249557
4500000000.0 0.5048223654988095 -0.8697928082669302
4503000000.0 0.546150702049729 -0.8873712948003445
4506000000.0 0.5096343091089297 -0.8705660911197746
4509000000.0 0.5016347767226347 -0.8462367423492075
4512000000.0 0.48639117592537023 -0.8741820433430372
4516000000.0 0.5051113614213192 -0.9120823175637958
4519000000.0 0.5078656210417614 -0.8404769471795925
4522000000.0 0.4922510860580368 -0.8683265595162188
4525000000.0 0.5356963736065887 -0.8482564157912562
4528000000.0 0.49398349468556246 -0.9022086248884743
4531000000.0 0.5164710706979927 -0.866907352793536
4534000000.0 0.4856125068932765 -0.8566232864542573
4538000000.0 0.48899898866286945 -0.87814872163175
4541000000.0 0.44702860058470206 -0.8783740913887406
4544000000.0 0.4950680331067805 -0.8672795674308269
4547000000.0 0.5090582987581158 -0.8690605489263097
4550000000.0 0.4914646428723762 -0.8870747711024453
4553000000.0 0.4946968350516446 -0.8943448314368916
4556000000.0 0.48744686385396535 -0.8830395831664566
4559000000.0 0.4777278072698916 -0.898482078580654
4562000000.0 0.5157914021896743 -0.9044232393110319
4566000000.0 0.5034301448719919 -0.887919174468277
4569000000.0 0.4684088519656627 -0.8572440842160987
4572000000.0 0.49373666117412895 -0.8823342444701625
4575000000.0 0.48948579073021037 -0.8980023047238057
4578000000.0 0.5256277126371862 -0.8929061632995047
4581000000.0 0.4783863670817513 -0.8985738618471064
4584000000.0 0.4789564700344655 -0.8712778198273645
4588000000.0 0.504875763285577 -0.8927455209365408
4591000000.0 0.4990358073269679 -0.8726251446179367
4594000000.0 0.46896532555244197 -0.8860434708865311
4597000000.0 0.49433245993961183 -0.8937127674124787
4600000000.0 0.4631014177456021 -0.8935421168374201
4603000000.0 0.48746912813481424 -0.9065823349105393
4606000000.0 0.48986554684577693 -0.9183410610405514
4609000000.0 0.5010019093034368 -0.8834690013768511
4612000000.0 0.5096459429169566 -0.9067537365607903
4616000000.0 0.4840940768445686 -0.8662557054949374
4619000000.0 0.4917861107231708 -0.8836685798190764
4622000000.0 0.48067381841581325 -0.8916003028563025
4625000000.0 0.44579701631406643 -0.8949946302870918
4628000000.0 0.4918665641741178 -0.8765945648593849
4631000000.0 0.4641098513298924 -0.9013020439813706
4634000000.0 0.48155843125072895 -0.8835450131306252
4638000000.0 0.47772200931942643 -0.904315001859663
4641000000.0 0.5033497836255908 -0.8771721250276127
4644000000.0 0.4751951779803826 -0.8715219124623315
4647000000.0 0.48955648283821773 -0.9027892954970692
4650000000.0 0.46851609795521443 -0.8896975785605922
4653000000.0 0.4921666435850185 -0.911480398799652
4656000000.0 0.4611780755104693 -0.8897071951459701
4659000000.0 0.46560774738539107 -0.9026567724186249
4662000000.0 0.4864858488813252 -0.885473042308036
4666000000.0 0.4581374760345367 -0.89734541946868
4669000000.0 0.4795858480633105 -0.8939907374251359
4672000000.0 0.47720432768207577 -0.9000515982886731
4675000000.0 0.4584751075335065 -0.8940947310536366
4678000000.0 0.4686882723949913 -0.8741409253198289
4681000000.0 0.4434459694824875 -0.9290859408518523
4684000000.0 0.46225093031244513 -0.9121447333841408
4688000000.0 0.47051108033199573 -0.9027931951556895
4691000000.0 0.4856453874292809 -0.9086409550445536
4694000000.0 0.4862453714263452 -0.9124271029040402
4697000000.0 0.44131107279662846 -0.8520778042291508
4700000000.0 0.4582930035231339 -0.8950529146595984
4703000000.0 0.48016609823304984 -0.8496302509135539
4706000000.0 0.4839553926557882 -0.9068913054999738
4709000000.0 0.4765449942122314 -0.9268665795028025
4712000000.0 0.4670955409523337 -0.9179859043798514
4716000000.0 0.47457430577083903 -0.9018495032824778
4719000000.0 0.4931363535583456 -0.8984002329707432
4722000000.0 0.4901701376615736 -0.8831382068899832
4725000000.0 0.4788970221617947 -0.8932475066702965
4728000000.0 0.4508152457685097 -0.8949992957781082
4731000000.0 0.4881510302794901 -0.9393660137745757
4734000000.0 0.49362546356616854 -0.8858371327617154
4738000000.0 0.5107888165040269 -0.9274834711602666
4741000000.0 0.4648453996620958 -0.9123162162404485
4744000000.0 0.4506905745446014 -0.9247712171045657
4747000000.0 0.46315933033780604 -0.8947057243230244
4750000000.0 0.4780194325843682 -0.879012888737966
4753000000.0 0.4943713147718646 -0.9017624394250303
4756000000.0 0.47093810960173166 -0.9038466509344745
4759000000.0 0.4758324553269976 -0.895486093367758
4762000000.0 0.4667809502246942 -0.9382109383859512
4766000000.0 0.46226351800731447 -0.8913974829475575
4769000000.0 0.4823855739713817 -0.927260284132001
4772000000.0 0.46851310816322245 -0.9020726020171504
4775000000.0 0.4744316561299855 -0.9532345340891842
4778000000.0 0.4930803971869071 -0.9421507392945403
4781000000.0 0.4744396698472193 -0.9259235576270418
4784000000.0 0.492624243415256 -0.8843778380328076
4788000000.0 0.4635627011268577 -0.925169720141284
4791000000.0 0.4664323934060849 -0.9138430054929269
4794000000.0 0.495743754030079 -0.9241420566193493
4797000000.0 0.4583005322247946 -0.9063814350928551
4800000000.0 0.43159122537834516 -0.8925771077531595
4803000000.0 0.4060737227276452 -0.9356205418686949
4806000000.0 0.47406469436276727 -0.9335538478590873
4809000000.0 0.44147801273961873 -0.9214552568527988
4812000000.0 0.41480300202356724 -0.8969102835850502
4816000000.0 0.48933556031674874 -0.8764309036830635
4819000000.0 0.49768049007877957 -0.9229227647625607
4822000000.0 0.5007552889769049 -0.9298140667199661
4825000000.0 0.5177293906701508 -0.9219192625041013
4828000000.0 0.48194264826449057 -0.9059117444863389
4831000000.0 0.45328014583518106 -0.9347975909297062
4834000000.0 0.5003393182108118 -0.9243443591803429
4838000000.0 0.4517152561052986 -0.9347837842481348
4841000000.0 0.4465465017271477 -0.897126501002717
4844000000.0 0.4828876341412322 -0.9046174684576914
4847000000.0 0.4739330584914495 -0.8779483126631084
4850000000.0 0.4708561958780211 -0.9316978597586448
4853000000.0 0.46478642814091087 -0.8714389373823553
4856000000.0 0.4646383604185209 -0.8936316303882004
4859000000.0 0.47819277758836853 -0.9545037424573235
4862000000.0 0.48348002760391257 -0.8703443601381594
4866000000.0 0.45548798360205317 -0.9314098734551056
4869000000.0 0.44991595921025684 -0.9182066050340115
4872000000.0 0.4508037553394478 -0.9614176711717537
4875000000.0 0.5397862577885802 -0.9061181935814563
4878000000.0 0.46978994140329966 -0.9282801189026899
4881000000.0 0.47363875970903174 -0.9805287983389762
4884000000.0 0.4776388346167098 -0.9180453801320784
4888000000.0 0.4939069902682346 -0.917821993076917
4891000000.0 0.501750088242113 -0.9363461379976732
4894000000.0 0.4593984122295899 -0.9171828881359443
4897000000.0 0.4896415532310498 -0.9039686946945779
4900000000.0 0.47682934655408216 -0.9496147119315179
4903000000.0 0.486968257498096 -0.9333018848727582
4906000000.0 0.4795685622043867 -0.9410330068578615
4909000000.0 0.4698075522265455 -0.9111495737471998
4912000000.0 0.5022458950231916 -0.9434893980291288
4916000000.0 0.5212644938407276 -0.9534850073954254
4919000000.0 0.5386380508773481 -0.9422928449280371
4922000000.0 0.5190184765566034 -0.9092649070485163
4925000000.0 0.46247891391688833 -0.9232843455990197
4928000000.0 0.5154537995239596 -0.8754769585073341
4931000000.0 0.49096339241817766 -0.9211515586813027
4934000000.0 0.4999345754751625 -0.891987656178026
4938000000.0 0.4342840312815513 -0.8946158160105205
4941000000.0 0.45781584025122196 -0.898992258418986
4944000000.0 0.4707442293988976 -0.8516947226391829
4947000000.0 0.4657987815504979 -0.8826763251564446
4950000000.0 0.47373496794741793 -0.9129962366749825
4953000000.0 0.4816609103344769 -0.9755835256645082
4956000000.0 0.46492705953340374 -0.9233057956803339
4959000000.0 0.45044676326855737 -0.9166300501608606
4962000000.0 0.47957629680361125 -0.9501447956312684
4966000000.0 0.5363909271917842 -0.9630898125679974
4969000000.0 0.5312225318806028 -0.9530325549008501
4972000000.0 0.46319718473583127 -0.9566039241147867
4975000000.0 0.5001282041810645 -0.8863700281420395
4978000000.0 0.451897599572575 -0.9444282680242622
4981000000.0 0.4629725578073603 -0.9275261631899385
4984000000.0 0.4580257337904772 -0.8981346701784503
4988000000.0 0.514853945373062 -0.9132427210240857
4991000000.0 0.5657603209860674 -0.9244291669816356
4994000000.0 0.48001608871691837 -0.9197007241931509
4997000000.0 0.45750017395718956 -0.9557439293797445
5000000000.0 0.5278537683411793 -0.9183545695310147
5003000000.0 0.5116623602555312 -0.949977402562155
5006000000.0 0.5092076602196922 -0.9702365358609959
5009000000.0 0.5116990595274079 -0.929594933001126
5012000000.0 0.4643558233751295 -0.9413716291814798
5016000000.0 0.5283481780591286 -0.9232759219497608
5019000000.0 0.48903474691785487 -0.908825285977112
5022000000.0 0.5132919210195501 -0.9051106202295429
5025000000.0 0.5118899893020034 -0.9615021357965807
5028000000.0 0.4741669967629296 -0.9332400841730646
5031000000.0 0.45672802182184025 -0.9033675799834885
5034000000.0 0.4612905277404311 -0.9726516463336863
5038000000.0 0.45765168689340247 -0.8959520464074742
5041000000.0 0.5091638455259311 -0.8916003011612639
5044000000.0 0.49711201329562493 -0.8626555571004271
5047000000.0 0.5271877907362731 -0.9096899712901811
5050000000.0 0.5574158303015421 -0.8853800133790908
5053000000.0 0.5207699344605645 -0.9290867425142764
5056000000.0 0.527443181896661 -0.9038220674991047
5059000000.0 0.520839112022954 -0.8977630911559125
5062000000.0 0.4717787261395693 -0.918828029790181
5066000000.0 0.5080265691327737 -0.9006904780363444
5069000000.0 0.4827072498260444 -0.9311981213444565
5072000000.0 0.4788584268633416 -0.9126575114080293
5075000000.0 0.5207158440135817 -0.8733146097356764
5078000000.0 0.47306576086288993 -0.9328807750924495
5081000000.0 0.49485871046470065 -0.8756817695367993
5084000000.0 0.5060658055735072 -0.9102805665138267
5088000000.0 0.5250224300455388 -0.9091208827116282
5091000000.0 0.5062936186367919 -0.881028303051409
5094000000.0 0.5141685240166902 -0.9095364213518451
5097000000.0 0.5247328442529515 -0.88977874692547
5100000000.0 0.5324670716572171 -0.9557429738177936
5103000000.0 0.4443378748757024 -0.9680948990793257
5106000000.0 0.5499709083157414 -0.9288549071377012
5109000000.0 0.5421837673561997 -0.8844926136828941
5112000000.0 0.5293001100972486 -0.8716414705846063
5116000000.0 0.4924324217716722 -0.8908128686547165
5119000000.0 0.47855921107025445 -0.8898792541095405
5122000000.0 0.4874602362043158 -0.8933990118614318
5125000000.0 0.5482231888204736 -0.8860301992844525
5128000000.0 0.5072591167362775 -0.8887458496588307
5131000000.0 0.4633959353082944 -0.8883563718477803
5134000000.0 0.5325001444456168 -0.8939046245439091
5138000000.0 0.5192326056054953 -0.9244957030061565
5141000000.0 0.580291135214329 -0.8956098126127277
5144000000.0 0.524971280264358 -0.8730588070305385
5147000000.0 0.5251828629200128 -0.9189590924967832
5150000000.0 0.5552360529887121 -0.8757521854557748
5153000000.0 0.5012810401055241 -0.9395498520068275
5156000000.0 0.5233748981228874 -0.9292100563198333
5159000000.0 0.5196462836037383 -0.9340263513898408
5162000000.0 0.4671133823731083 -0.9325693935547501
5166000000.0 0.49972016694857463 -0.9103459934997553
5169000000.0 0.5374335810042965 -0.9259902440835259
5172000000.0 0.5337730619566371 -0.8875372996228632
5175000000.0 0.5214197883058762 -0.9230012672850014
