! Created with skrf 1.8.0 (http://scikit-rf.org).
# Hz S RI R 50.0 
!freq ReS11 ImS11
4000000000.0 0.5668601054316305 -0.8429786784498285
4003000000.0 0.6114294452650078 -0.899486119494034
4006000000.0 0.5278255403597018 -0.9011356385820037
4009000000.0000005 0.5546645364978133 -0.8981667658235029
4011999999.9999995 0.6135714109328265 -0.8865339549830511
4016000000.0 0.5228896376375811 -0.8801667783923591
4019000000.0 0.5485516537402259 -0.8319737273521829
4022000000.0000005 0.611964222010951 -0.8723941421537514
4025000000.0000005 0.517981414371409 -0.9364112176420907
4027999999.9999995 0.5469628576884413 -0.8610855062152573
4030999999.9999995 0.5247164514444542 -0.7894855312554372
4034000000.0 0.5429790474367233 -0.8724796811440247
4038000000.0000005 0.5524846688304967 -0.8784604005635919
4041000000.0000005 0.5477887900602638 -0.8592093746332149
4043999999.9999995 0.5938990277915431 -0.9339272361999819
4046999999.9999995 0.5929392515020829 -0.9059218467637149
4050000000.0 0.5244496698301798 -0.9002900886511134
4053000000.0 0.503843806927535 -0.9147260480344936
4056000000.0 0.5605586896514936 -0.879007757674654
4059000000.0 0.5546708009882277 -0.8327262398895755
4062000000.0000005 0.5220595940240437 -0.868736242341799
4066000000.0 0.470878279736022 -0.8324513517266677
4069000000.0 0.546854067173612 -0.9133913652100709
4072000000.0 0.5680576815420804 -0.8772734406966125
4075000000.0 0.5903667419072836 -0.8729818412718968
4078000000.0000005 0.5617514794613155 -0.8825620833497664
4081000000.0000005 0.6173540142728488 -0.8527971722316718
4083999999.9999995 0.541022774878928 -0.9132773822436677
4088000000.0 0.566307826637839 -0.8361289428006706
4091000000.0 0.5720170152165189 -0.9108989022086464
4094000000.0000005 0.5512428882474134 -0.8607131488782058
4097000000.0000005 0.5469319218961687 -0.8618644820974648
4099999999.9999995 0.5342210642912554 -0.8822750278992408
4102999999.9999995 0.5532116624020988 -0.8827312884766053
4106000000.0 0.5492694829861058 -0.839687072507627
4109000000.0 0.5521158902467251 -0.9014832030737823
4112000000.0 0.50638075137245 -0.8424803286285368
4115999999.9999995 0.5842947284624306 -0.8326577235331654
4119000000.0 0.5306400906878843 -0.8755654646794951
4122000000.0 0.5367684506876623 -0.889549731537321
4125000000.0 0.5507099157471792 -0.8927595304920936
4128000000.0 0.5331877258104075 -0.8216405494493635
4131000000.0 0.550006834088902 -0.8387272782581743
4134000000.0000005 0.5762008539518528 -0.8169078512648964
4138000000.0 0.4978267810423347 -0.8313494386928219
4141000000.0 0.525923212698236 -0.8815687068011191
4144000000.0 0.5671903508719037 -0.8487178062418329
4147000000.0000005 0.5503819890955565 -0.8800611072929913
4150000000.0000005 0.5948489862036972 -0.874039607375049
4152999999.9999995 0.4996515693490168 -0.8548384461917136
4155999999.9999995 0.5884433776362268 -0.8876649079060547
4159000000.0 0.5455414131265249 -0.8530992341594763
4162000000.0 0.5461339863082998 -0.8532728296677766
4166000000.0000005 0.5409349072248247 -0.862888451297263
4168999999.9999995 0.4961099341955091 -0.8759646174257488
4171999999.9999995 0.5515439206332302 -0.8571223499056778
4175000000.0 0.5679050061184128 -0.8532280070248826
4178000000.0 0.5519576731552688 -0.857548142779701
4181000000.0 0.5608099127498426 -0.8739871831188268
4184000000.0 0.542214767525209 -0.8386542365298522
4187999999.9999995 0.5335418512135717 -0.8564628903730005
4191000000.0 0.5865961608620414 -0.8106019558049101
4194000000.0 0.5378256447689013 -0.8427851427630454
4197000000.0 0.5707297205731319 -0.8647177420951373
4200000000.0 0.5582207292336786 -0.8645747620265161
4203000000.0000005 0.5626532813388451 -0.8794063344877232
4206000000.0000005 0.5393531098620209 -0.8751400927767267
4208999999.9999995 0.5475146865517093 -0.8427589662819363
4211999999.9999995 0.531404919459425 -0.8692338935375117
4216000000.0 0.570443518049026 -0.8617467478545002
4219000000.0000005 0.5680063048897566 -0.8592656359015055
4222000000.0000005 0.5476135863060885 -0.8757571680481836
4224999999.9999995 0.554422994167179 -0.8459223138509115
4227999999.9999995 0.5612272750823246 -0.8456339190786633
4231000000.0 0.5422142140132635 -0.8471573087732307
4234000000.0 0.5658929225418993 -0.8661353092372464
4238000000.0000005 0.5436866983547439 -0.873095309913338
4240999999.9999995 0.5321214899412257 -0.8597737235645037
4244000000.0 0.5708583863422212 -0.8675710718809381
4247000000.0 0.5617897325962407 -0.846491568848553
4250000000.0 0.542715237178912 -0.8577657037840387
4253000000.0 0.5389274827159385 -0.83828912575243
4256000000.0 0.5467403313908673 -0.8752360725156619
4259000000.0000005 0.5094917793962227 -0.8121188377549001
4261999999.9999995 0.5202423794074842 -0.8667636709286084
4266000000.0 0.5631110338470675 -0.8913731196371288
4269000000.0 0.5689709193539573 -0.8497661011079614
4272000000.0000005 0.5158599855349308 -0.8488037351606771
4275000000.0000005 0.558078808811712 -0.8616350717688369
4277999999.9999995 0.5437096029069476 -0.8726958623713333
4280999999.9999995 0.5484506681576227 -0.8647698890864045
4284000000.0 0.5259365174685642 -0.8844500459864721
4288000000.0000005 0.5682946716441577 -0.8276198849886451
4291000000.0000005 0.5570211643405028 -0.8177723943100772
4293999999.9999995 0.5353716893856266 -0.8561342924471617
4297000000.0 0.5442638450440572 -0.8228924304145947
4300000000.0 0.5641977170323039 -0.8325163308791297
4303000000.0 0.5118678744404711 -0.841152260545797
4306000000.0 0.5741372648005607 -0.8455406769736235
4309000000.0 0.5523968386435818 -0.8472601247147247
4312000000.0 0.5782714808124104 -0.8502781094351701
4316000000.0 0.5712337331859619 -0.8450964797854849
4319000000.0 0.5414112433599739 -0.8074093445087837
4322000000.0 0.519368907523884 -0.8577022307764752
4325000000.0 0.5602844971549976 -0.85375932402384
4328000000.0 0.5435686514348408 -0.8448516994992753
4331000000.0 0.5141619743031738 -0.8701788497829824
4334000000.0 0.5498158877734388 -0.8374087953750542
4338000000.0 0.5608762963145751 -0.849598553847454
4341000000.0 0.5825479061809367 -0.8495209090704254
4344000000.0 0.5612700911649142 -0.8661710839191079
4347000000.0 0.5359395511130475 -0.8783907540987699
4350000000.0 0.5181651010115402 -0.8298475225378097
4353000000.0 0.5371979081675916 -0.8251467124258054
4356000000.0 0.5165448797157537 -0.8407665416691327
4359000000.0 0.5141499533964584 -0.8116512055084049
4362000000.0 0.5178198729064246 -0.8704133216029785
4366000000.0 0.5589430104817672 -0.8334332273128355
4369000000.0 0.5166154399245916 -0.8182303978928795
4372000000.0 0.4876322407008422 -0.8660156822845765
4375000000.0 0.5432397525098355 -0.8405493418159662
4378000000.0 0.5469278909807959 -0.8303488097315248
4381000000.0 0.5398706921706097 -0.8299672410755706
4384000000.0 0.5670023638272808 -0.91226232273821
4388000000.0 0.543849147382087 -0.8235465347214059
4391000000.0 0.5423936369843725 -0.8478713067650745
4394000000.0 0.5200831934936148 -0.8210346004075957
4397000000.0 0.5102071855947514 -0.858991650575744
4400000000.0 0.5599799212424802 -0.8807062232491258
4403000000.0 0.5534345192612401 -0.8572729397781612
4406000000.0 0.5202096838506777 -0.8669474697901033
4409000000.0 0.5409944191137049 -0.8829275333889537
4412000000.0 0.48702805222564327 -0.8693524398553291
4416000000.0 0.5094918598250617 -0.8563079106764617
4419000000.0 0.5287770164432042 -0.8605872764716723
4422000000.0 0.5408497964796473 -0.8382441156064648
4425000000.0 0.5712001021328439 -0.8673430297773719
4428000000.0 0.5324463154708868 -0.868558996540788
4431000000.0 0.561623975309704 -0.8719159742651271
4434000000.0 0.5319245206690282 -0.8586083983214072
4438000000.0 0.5442279453480685 -0.8743000064995017
4441000000.0 0.5412520706269177 -0.8604292399035568
4444000000.0 0.5285673381565429 -0.845525096120786
4447000000.0 0.5073732392410903 -0.8474965933515067
4450000000.0 0.5301684242849503 -0.8403019624809165
4453000000.0 0.5421624428525262 -0.8739568747064566
4456000000.0 0.5027587669973052 -0.8378171740183205
4459000000.0 0.4972076792877137 -0.8262788664481191
4462000000.0 0.5478016733131452 -0.9216689138049083
4466000000.0 0.5465141001247107 -0.9144582596805454
4469000000.0 0.5532597362916778 -0.8439841075056793
4472000000.0 0.5151439810812768 -0.8830716274379002
4475000000.0 0.510646211892972 -0.8179200932358923
4478000000.0 0.5295942082331382 -0.8951964884073491
4481000000.0 0.49496066593279925 -0.8479759612809123
4484000000.0 0.4893860490686859 -0.8779756557919275
4488000000.0 0.5008907975667545 -0.8527793381195445
4491000000.0 0.5131332294236636 -0.8551205270841375
4494000000.0 0.51197495218848 -0.8427645506520994
4497000000.0 0.5273133802332388 -0.8475259119827248
4500000000.0 0.5399891799668836 -0.8398441261517297
4503000000.0 0.5270732326704637 -0.8858327103844228
4506000000.0 0.5265780311721843 -0.8729746078166194
4509000000.0 0.507517742096118 -0.8468322005513946
4512000000.0 0.505782110455288 -0.8512472552445669
4516000000.0 0.5331024799447033 -0.8820856781608455
4519000000.0 0.5248149718229264 -0.8378791012063551
4522000000.0 0.49920276715202855 -0.8738643087403719
4525000000.0 0.5324168776272116 -0.8478184157206199
4528000000.0 0.5392906186747286 -0.9012789017219298
4531000000.0 0.5336573527083173 -0.855338025035755
4534000000.0 0.5155478108308292 -0.8469654700604012
4538000000.0 0.5089395695913587 -0.8533500413644443
4541000000.0 0.47947795523394665 -0.879866256244161
4544000000.0 0.5031974600882518 -0.8586002236756016
4547000000.0 0.5251667035047775 -0.8389247908518984
4550000000.0 0.5066636758650842 -0.8805662561349453
4553000000.0 0.5165425947403598 -0.8708693300653072
4556000000.0 0.5004308573701115 -0.8436758059029958
4559000000.0 0.514324759284164 -0.8767239274640026
4562000000.0 0.5402181853076609 -0.8735427171840302
4566000000.0 0.5145568009153356 -0.878257631146994
4569000000.0 0.48359039439406687 -0.8576844413131459
4572000000.0 0.5137204934974136 -0.8606893976915378
4575000000.0 0.49010803387518737 -0.8742413636636748
4578000000.0 0.528271346752746 -0.8836981922793603
4581000000.0 0.48778646242183243 -0.8859955936640564
4584000000.0 0.49553230991849895 -0.8627430013880988
4588000000.0 0.5263017919234703 -0.8670939029094644
4591000000.0 0.529146358284447 -0.8441894299929369
4594000000.0 0.4995956144111485 -0.8696314013215344
4597000000.0 0.5232094968946432 -0.8901905865996182
4600000000.0 0.47884542561935795 -0.8632001138813535
4603000000.0 0.5003466020073041 -0.8745192523683603
4606000000.0 0.5169517335256208 -0.8791710658016874
4609000000.0 0.5098339215011319 -0.8579689342047412
4612000000.0 0.49452288497959174 -0.8735745011446627
4616000000.0 0.49829619528370506 -0.8627048052397713
4619000000.0 0.5035377063049178 -0.8752847228019729
4622000000.0 0.5004596151286748 -0.8716827017233697
4625000000.0 0.47797265083311746 -0.8705990732761232
4628000000.0 0.5112706319473702 -0.8763280367126373
4631000000.0 0.4938513778010293 -0.8676119995772869
4634000000.0 0.4988786428881713 -0.8529570551217938
4638000000.0 0.5134117988898093 -0.8623533727381579
4641000000.0 0.5066990807901608 -0.8753015399524651
4644000000.0 0.5071174098413059 -0.8572552023307275
4647000000.0 0.5045104200861672 -0.8805267516116705
4650000000.0 0.5062529297418312 -0.8743116122535296
4653000000.0 0.5220942773769234 -0.9085546661078293
4656000000.0 0.48501146545952956 -0.873439981832268
4659000000.0 0.4797779457175093 -0.8917282894701608
4662000000.0 0.502466393770971 -0.8858683461536836
4666000000.0 0.47518185068609553 -0.8810055449850054
4669000000.0 0.5080606269522249 -0.8766136760370804
4672000000.0 0.48213446505348323 -0.8892206059749755
4675000000.0 0.48201021418092127 -0.8848993862291435
4678000000.0 0.4779479939445014 -0.8574525892892897
4681000000.0 0.473482814951145 -0.8992162494585688
4684000000.0 0.4816735262557756 -0.8932465096948159
4688000000.0 0.48037046610697304 -0.8782882263128788
4691000000.0 0.5176128890050414 -0.8794968831932791
4694000000.0 0.4933511456872174 -0.8578461044059187
4697000000.0 0.45434887316132866 -0.8595261184397385
4700000000.0 0.4874763475011482 -0.8736316059276813
4703000000.0 0.4823272531208264 -0.8329260837809385
4706000000.0 0.48504088459342115 -0.889654928828655
4709000000.0 0.4515164231581437 -0.8979141755692011
4712000000.0 0.49588877030527023 -0.8922795090488487
4716000000.0 0.48684062592075295 -0.8864949661080401
4719000000.0 0.5094988920175125 -0.8849490075998401
4722000000.0 0.4941682876005816 -0.8741128710982327
4725000000.0 0.5024221991019886 -0.8828091316622341
4728000000.0 0.48283178038173413 -0.8675153709689588
4731000000.0 0.5014215878800922 -0.8870723708063012
4734000000.0 0.5088308770994606 -0.8842474585669422
4738000000.0 0.5192005710965766 -0.902908677554644
4741000000.0 0.45987144419659276 -0.8925038647629271
4744000000.0 0.4713232890882235 -0.9120769770591636
4747000000.0 0.4821143696134152 -0.8403226183897743
4750000000.0 0.5039691741095422 -0.9010887178956829
4753000000.0 0.5209343168133342 -0.8818866144709502
4756000000.0 0.4806073426474653 -0.8826256564598408
4759000000.0 0.5113462332307164 -0.9110947817509225
4762000000.0 0.49043027194714717 -0.9058053492766194
4766000000.0 0.47193675505691735 -0.8908594820540561
4769000000.0 0.5174525098490359 -0.9092554169609468
4772000000.0 0.4801466016837148 -0.8869852947769277
4775000000.0 0.5102965808280285 -0.9285894673160806
4778000000.0 0.5125504971301187 -0.8714939564582228
4781000000.0 0.5093831213802116 -0.8832190494665291
4784000000.0 0.5200946827451491 -0.8778380549051835
4788000000.0 0.4905433627139293 -0.8900056357228159
4791000000.0 0.4799363838959181 -0.8819833870789177
4794000000.0 0.5522504486455573 -0.8986411602249178
4797000000.0 0.4831484737149896 -0.9054805554941645
4800000000.0 0.4709322478049439 -0.8694504106737837
4803000000.0 0.4293816677556048 -0.9074590612953759
4806000000.0 0.48986066647794074 -0.9021326669210767
4809000000.0 0.4502668555037189 -0.9065512140755559
4812000000.0 0.4589369031200785 -0.896269461207742
4816000000.0 0.5054225313476108 -0.8532307262149805
4819000000.0 0.5185659377199823 -0.8960104030263003
4822000000.0 0.5264326096216849 -0.9172110228179639
4825000000.0 0.5257352220062124 -0.8793673260674278
4828000000.0 0.4895904918884705 -0.8914070199366819
4831000000.0 0.48110434378161504 -0.9446621212493886
4834000000.0 0.5117265926404209 -0.8860424041805661
4838000000.0 0.467918239909732 -0.9201465527706028
4841000000.0 0.48089941698016014 -0.900290337835863
4844000000.0 0.5247517901075197 -0.8857455267110007
4847000000.0 0.5079545067471161 -0.8475818377348401
4850000000.0 0.4707356110390593 -0.919334431211094
4853000000.0 0.4882053618937968 -0.8522227228787503
4856000000.0 0.45933141255518206 -0.888652426478642
4859000000.0 0.48710381830861565 -0.9459832101927581
4862000000.0 0.5286509524124526 -0.8617846790903101
4866000000.0 0.47072424184522205 -0.9055951431483137
4869000000.0 0.47259168867696766 -0.8976471092425877
4872000000.0 0.4744440261790058 -0.9244768495563137
4875000000.0 0.5729382297164296 -0.9347455447589736
4878000000.0 0.4874267414748343 -0.9062948054506972
4881000000.0 0.5049063438433072 -0.9914954645338698
4884000000.0 0.511597391499555 -0.8986693713209547
4888000000.0 0.5214574366532037 -0.8886689445434617
4891000000.0 0.5398680925842863 -0.903163506109354
4894000000.0 0.45540631013683275 -0.9101989255478778
4897000000.0 0.5218236636906053 -0.8821219410718288
4900000000.0 0.5040112323876674 -0.9143785426571232
4903000000.0 0.5109525348584337 -0.9163181748066178
4906000000.0 0.5026358982308147 -0.9220580192136771
4909000000.0 0.5089491877530984 -0.9319310702505809
4912000000.0 0.5169191003651592 -0.9181984449454433
4916000000.0 0.5107060597875539 -0.9093490810414677
4919000000.0 0.5794023790351633 -0.898548882624175
4922000000.0 0.5249039520377852 -0.8777347053124032
4925000000.0 0.45496448230052144 -0.8952856982487934
4928000000.0 0.5400705446223245 -0.8505686271776128
4931000000.0 0.5358517270898419 -0.9077759786796938
4934000000.0 0.47108932713901075 -0.8556239685571609
4938000000.0 0.4686117128804086 -0.9001894602240164
4941000000.0 0.48746127575614223 -0.875936071010386
4944000000.0 0.4996256379834531 -0.8353846042932745
4947000000.0 0.4948784511728396 -0.8610537496654208
4950000000.0 0.49339287504083884 -0.8923869483997678
4953000000.0 0.49645972444780134 -0.95251263557469
4956000000.0 0.46767972587560747 -0.9014149393452581
4959000000.0 0.460646833002374 -0.8756859688520348
4962000000.0 0.5116510391824589 -0.926763509951088
4966000000.0 0.5481137349822607 -0.8833782345402021
4969000000.0 0.5251607245947365 -0.9035735995426122
4972000000.0 0.48252793918719117 -0.9033464314048099
4975000000.0 0.5094803594260457 -0.8541877747552773
4978000000.0 0.5184976707041528 -0.8992198883103509
4981000000.0 0.49772850656093426 -0.9236283383219874
4984000000.0 0.5013592807576217 -0.8759129782036751
4988000000.0 0.5295306744717828 -0.8654443070271229
4991000000.0 0.6047937835212035 -0.9146381758151707
4994000000.0 0.5381343535832399 -0.8872962668750871
4997000000.0 0.49465874812980454 -0.9265430879183654
5000000000.0 0.5061182637513679 -0.9215718761166231
5003000000.0 0.5432054411923021 -0.9259272297715897
5006000000.0 0.5127575739127338 -0.9296866380024269
5009000000.0 0.5088966375106673 -0.8866571660043094
5012000000.0 0.5303258837095431 -0.903615233179367
5016000000.0 0.572992783744634 -0.914034095378937
5019000000.0 0.5036108247412545 -0.874794214608912
5022000000.0 0.5358854059144265 -0.9006560928737127
5025000000.0 0.526634761223606 -0.9653657110576421
5028000000.0 0.5002433560400951 -0.9251167251750558
5031000000.0 0.5054704155739563 -0.9101658878235503
5034000000.0 0.5029285209552206 -0.9430110371950445
5038000000.0 0.47542452546835234 -0.8675329486172344
5041000000.0 0.5428436590666821 -0.8811238006859925
5044000000.0 0.543718048827717 -0.8692616092407948
5047000000.0 0.5382140862208513 -0.8920775808807047
5050000000.0 0.5414136213583989 -0.8430584430340327
5053000000.0 0.5229007145127816 -0.9357412732847994
5056000000.0 0.5794989955259663 -0.8166459521904437
5059000000.0 0.5775836923271056 -0.8860918201035543
5062000000.0 0.5177720262433367 -0.9397180013267106
5066000000.0 0.5372766704855415 -0.8663957235470641
5069000000.0 0.5520730586045715 -0.9056910259942632
5072000000.0 0.5102759438175076 -0.8607486096976064
5075000000.0 0.5348459143336382 -0.8699563608876659
5078000000.0 0.49090299355212275 -0.9074310657043643
5081000000.0 0.4957140074643595 -0.8856612105556487
5084000000.0 0.5549260492741601 -0.9271061233570591
5088000000.0 0.5213544380341546 -0.8951062673909146
5091000000.0 0.48444526649226066 -0.9123190388572784
5094000000.0 0.5268822379356819 -0.9282300760865217
5097000000.0 0.5899589322982332 -0.8892396708939817
5100000000.0 0.5110540239699036 -0.9251322687322849
5103000000.0 0.5091013613950304 -0.9028757962457228
5106000000.0 0.5701003487925992 -0.9357933047906977
5109000000.0 0.5230592416576053 -0.8847239047561821
5112000000.0 0.5009324826682716 -0.9161132005887347
5116000000.0 0.5546169936128418 -0.8797695738353748
5119000000.0 0.5518536891851578 -0.9220530781726393
5122000000.0 0.5539465014193727 -0.8732058897280381
5125000000.0 0.5798033686665164 -0.8246786080908499
5128000000.0 0.5194669786241554 -0.9142996326347471
5131000000.0 0.5013874664212644 -0.9022405567508416
5134000000.0 0.5177229031142722 -0.8810147107263121
5138000000.0 0.57726187292303 -0.8338277354652011
5141000000.0 0.5704120818944062 -0.84070569418687
5144000000.0 0.5612724567661862 -0.8913607262439038
5147000000.0 0.5582895314827183 -0.8985722068494706
5150000000.0 0.582202923923463 -0.889070855829468
5153000000.0 0.5270095548410512 -0.9149215933659658
5156000000.0 0.503470000037803 -0.8798614534107949
5159000000.0 0.5866388212776328 -0.9233544516762184
5162000000.0 0.5342551745980663 -0.8874254707172755
5166000000.0 0.5567002071779887 -0.9047777118100999
5169000000.0 0.5551223041918868 -0.8944603107277742
5172000000.0 0.5754347628228005 -0.8620873889417154
5175000000.0 0.5664473783012496 -0.8960150043116133
5178000000.0 0.542485805840141 -0.8987252581870528
