! Created with skrf 1.8.0 (http://scikit-rf.org).
# Hz S RI R 50.0 
!freq ReS11 ImS11
4000000000.0 0.8521665683642053 -0.5005054617194142
4003000000.0 0.921225113815752 -0.5091230886610957
4006000000.0 0.8669914968251973 -0.5320779650871297
4009000000.0000005 0.8651913814820873 -0.5431305832097486
4011999999.9999995 0.9503809573935713 -0.509383193364492
4016000000.0 0.8896867239498604 -0.5769087600707817
4019000000.0 0.9607275462460548 -0.4908755215957207
4022000000.0000005 0.943349788394417 -0.40726551540707046
4025000000.0000005 0.8743246103238103 -0.6156029441325205
4027999999.9999995 0.878754522216038 -0.5085744293512354
4030999999.9999995 0.8359095915481134 -0.5216053000264209
4034000000.0 0.8645724419690922 -0.5410863012740544
4038000000.0000005 0.8725111599588384 -0.5501600291150033
4041000000.0000005 0.8575623653580129 -0.5455882563617831
4043999999.9999995 0.9447878995873267 -0.6104424634778728
4046999999.9999995 0.9568581156879631 -0.48539692507497934
4050000000.0 0.895027137834036 -0.5911374177109688
4053000000.0 0.8322764392940285 -0.5667144027214683
4056000000.0 0.8765055696439655 -0.5304986677222198
4059000000.0 0.891139500347604 -0.49293925039344955
4062000000.0000005 0.8739915508635239 -0.591822299902121
4066000000.0 0.7645798493989421 -0.5056039761225921
4069000000.0 0.8832131346284855 -0.5906172407871682
4072000000.0 0.949055169216732 -0.4985721104124343
4075000000.0 0.9175575864529166 -0.5402155410476064
4078000000.0000005 0.9505544393131103 -0.5702692597802943
4081000000.0000005 0.981601274872039 -0.487956569290363
4083999999.9999995 0.9029227318723492 -0.5519730694925146
4088000000.0 0.941385751964235 -0.48497557020117277
4091000000.0 0.9893782740492504 -0.6185783680410797
4094000000.0000005 0.9329159840938266 -0.5071076505278911
4097000000.0000005 0.8930349236415235 -0.5230272517234245
4099999999.9999995 0.8933298412592287 -0.5503965074172054
4102999999.9999995 0.9087934952902071 -0.5629422986602114
4106000000.0 0.8709330464909146 -0.5517547068467437
4109000000.0 0.8762503003002298 -0.5528909448856191
4112000000.0 0.92088863336527 -0.5624320751053404
4115999999.9999995 0.8855673415732181 -0.48282714239573876
4119000000.0 0.8751443130343153 -0.5538246167912632
4122000000.0 0.9400979838222281 -0.5574305987395098
4125000000.0 0.9367407171544762 -0.594714594688786
4128000000.0 0.8809565515085215 -0.4905433060830971
4131000000.0 0.8608656448595764 -0.5707002041237667
4134000000.0000005 0.8806179309543233 -0.5265047390593478
4138000000.0 0.827114981064687 -0.5588683186291686
4141000000.0 0.8919049869875091 -0.5086506259879722
4144000000.0 0.9229093300082541 -0.48281260836350337
4147000000.0000005 0.8264701134358582 -0.5526395199560021
4150000000.0000005 0.9490017054562739 -0.5317823006866851
4152999999.9999995 0.8569102211473563 -0.5809556196247446
4155999999.9999995 0.900336317751461 -0.5392630844679186
4159000000.0 0.841750367038339 -0.4979006586799054
4162000000.0 0.8915350599627391 -0.5070937149100934
4166000000.0000005 0.8431171936074165 -0.5527530359132116
4168999999.9999995 0.8356248078976655 -0.5387492716345044
4171999999.9999995 0.9348646071320024 -0.5316270093375917
4175000000.0 0.8971899863190819 -0.4914880151733899
4178000000.0 0.892133350113818 -0.5503443558727904
4181000000.0 0.9369171787410996 -0.5482948882749225
4184000000.0 0.8750340846316774 -0.532087875246143
4187999999.9999995 0.9001035692169121 -0.5571198070516445
4191000000.0 0.8832899400239463 -0.5017394712077489
4194000000.0 0.8663049325153132 -0.536525945751559
4197000000.0 0.8793624795761031 -0.5373088517131843
4200000000.0 0.8882261247600746 -0.4964080755472978
4203000000.0000005 0.876292717119546 -0.518071711658803
4206000000.0000005 0.8627881059915022 -0.5829953082392091
4208999999.9999995 0.8900672464908836 -0.5203441308891545
4211999999.9999995 0.8575510652006841 -0.5673376346379164
4216000000.0 0.8488966037277477 -0.5306485112082341
4219000000.0000005 0.9052565806663881 -0.5504714567025465
4222000000.0000005 0.8865676575642085 -0.5324183627348501
4224999999.9999995 0.8800122987225816 -0.5165636933648616
4227999999.9999995 0.8879076763288838 -0.5421176855622077
4231000000.0 0.8971098084107115 -0.5565163067960412
4234000000.0 0.8943548825533515 -0.5332679429116436
4238000000.0000005 0.873892486216533 -0.5352435370368036
4240999999.9999995 0.8975937435254339 -0.5348070312213684
4244000000.0 0.8813412592139851 -0.5178814213497953
4247000000.0 0.9195418776627249 -0.5534853704144027
4250000000.0 0.8731722956629997 -0.5479784819659522
4253000000.0 0.8558782904510851 -0.5185021025247489
4256000000.0 0.8810749770855166 -0.5452304877563783
4259000000.0000005 0.8639732991459819 -0.5340229178194895
4261999999.9999995 0.866609102753957 -0.5572985325199116
4266000000.0 0.8901382543861073 -0.5525009486876028
4269000000.0 0.9035175702682756 -0.5354282875846589
4272000000.0000005 0.8659447435967349 -0.5565949666430443
4275000000.0000005 0.8578668984536539 -0.5376925573573894
4277999999.9999995 0.888558452629688 -0.5454423069858984
4280999999.9999995 0.8815689831611633 -0.5148986417925657
4284000000.0 0.8794386414128654 -0.5708035543963008
4288000000.0000005 0.9085068249167159 -0.49338386417655333
4291000000.0000005 0.8935954766111041 -0.5233229526819809
4293999999.9999995 0.850118599051223 -0.5263817351519533
4297000000.0 0.8623579231452487 -0.527192607308056
4300000000.0 0.8716738995581341 -0.5547645039063992
4303000000.0 0.8549624908991615 -0.5603268668457229
4306000000.0 0.9332334031611541 -0.5455149935386217
4309000000.0 0.8676233149981312 -0.5310566060970127
4312000000.0 0.8873482847405778 -0.5062949567865276
4316000000.0 0.8861765178646926 -0.5171738736609096
4319000000.0 0.8634714846859259 -0.5084371541058822
4322000000.0 0.856652495333846 -0.5304308958304258
4325000000.0 0.8996263637224049 -0.5216357644143405
4328000000.0 0.8664627446813263 -0.5464667756488664
4331000000.0 0.8850377400207063 -0.5724776536353853
4334000000.0 0.8453294586736221 -0.5545970149246215
4338000000.0 0.8743523201945025 -0.5192173000060551
4341000000.0 0.9290603650996838 -0.5407000450543926
4344000000.0 0.872539872923477 -0.5280875894259166
4347000000.0 0.8449074796653506 -0.5477918240587262
4350000000.0 0.8565293743820587 -0.5453610665838559
4353000000.0 0.8494352796540535 -0.530425421044586
4356000000.0 0.828866329272788 -0.5316026321924041
4359000000.0 0.8410021696445811 -0.5224727511009
4362000000.0 0.841121624884566 -0.5724371285448769
4366000000.0 0.8816782229088349 -0.5476099624338666
4369000000.0 0.8418088645588422 -0.5281100101390329
4372000000.0 0.8527030531974833 -0.5806813797199806
4375000000.0 0.8583020924408222 -0.5354236244736745
4378000000.0 0.8595696215058346 -0.551136748572572
4381000000.0 0.8538943735618212 -0.5065276612702111
4384000000.0 0.8935310993563674 -0.5607815196402826
4388000000.0 0.869005956279754 -0.5233967125175476
4391000000.0 0.8513115596902985 -0.5340747817754472
4394000000.0 0.8262175254864995 -0.5106635243070196
4397000000.0 0.837169137843677 -0.5483310213328125
4400000000.0 0.890418782322061 -0.541927867695571
4403000000.0 0.8775696358426947 -0.5306072941778877
4406000000.0 0.843429766570867 -0.5667849442131466
4409000000.0 0.8764071169371215 -0.5455699984173761
4412000000.0 0.8372896728387402 -0.5943350789196213
4416000000.0 0.8405043414238175 -0.5455411895940359
4419000000.0 0.8533058431453334 -0.5663845533886465
4422000000.0 0.8501157221224449 -0.5391435376667644
4425000000.0 0.8763693619102451 -0.5305013471211686
4428000000.0 0.8479990564356576 -0.5462054541585519
4431000000.0 0.8679288915245955 -0.5551200045228066
4434000000.0 0.8320211121161234 -0.5519025370498476
4438000000.0 0.8699933846816287 -0.5562337271857184
4441000000.0 0.8530254571597765 -0.5529157326452164
4444000000.0 0.8382785759111541 -0.52978607455378
4447000000.0 0.8385229847585718 -0.543878125076963
4450000000.0 0.8638894889323104 -0.537978124112363
4453000000.0 0.871093844280415 -0.5664242716926906
4456000000.0 0.817283707454388 -0.5417823624673407
4459000000.0 0.7918284437125813 -0.5429728610343421
4462000000.0 0.8814848938815495 -0.5883513091679606
4466000000.0 0.8779721278797971 -0.5749365239028151
4469000000.0 0.850939643671675 -0.547187806026308
4472000000.0 0.8610325946214472 -0.5969693850093722
4475000000.0 0.8348724067022387 -0.5380720717159286
4478000000.0 0.8825591464511391 -0.59466981708368
4481000000.0 0.8206243611987748 -0.5528144798297866
4484000000.0 0.8114094929539627 -0.5841067123001068
4488000000.0 0.8311254441054609 -0.5495633078648526
4491000000.0 0.8336220103824747 -0.5733518374424507
4494000000.0 0.8379202438643383 -0.5506457266170331
4497000000.0 0.8284598231511496 -0.5415813155773734
4500000000.0 0.8476560481717169 -0.5399683007295943
4503000000.0 0.8746096976812758 -0.5581356040945009
4506000000.0 0.8192488049918462 -0.5607487152625937
4509000000.0 0.8297016673966741 -0.5497040701113466
4512000000.0 0.8090793029454573 -0.5666480425823106
4516000000.0 0.8602996033615757 -0.5475671718541204
4519000000.0 0.842143079676622 -0.5335178286929971
4522000000.0 0.8254936567551746 -0.5577512489703826
4525000000.0 0.8675426721346061 -0.5189747780098993
4528000000.0 0.8793648739952563 -0.5812965313806557
4531000000.0 0.8379826714695549 -0.5429852809085015
4534000000.0 0.8246897712486799 -0.5339253875106855
4538000000.0 0.8151555255141046 -0.5754737675470679
4541000000.0 0.8080022181903168 -0.6022726987777393
4544000000.0 0.8042779081639868 -0.5620412174667495
4547000000.0 0.8498519028101721 -0.5374952154849789
4550000000.0 0.8432370047429469 -0.5839865159977323
4553000000.0 0.8361704355498196 -0.5946497119916982
4556000000.0 0.7947343658523129 -0.5732608409273652
4559000000.0 0.817017830781266 -0.5807697408162287
4562000000.0 0.8391806049669798 -0.5585931299178319
4566000000.0 0.8158344737041388 -0.5990068028798456
4569000000.0 0.7898332774122787 -0.5553456373928497
4572000000.0 0.8252307014599558 -0.5655966577345753
4575000000.0 0.8369547185156768 -0.5863868022031182
4578000000.0 0.8565623957066375 -0.5857291410791184
4581000000.0 0.8230880032404351 -0.6022939716914542
4584000000.0 0.8306864626302213 -0.5671558052743686
4588000000.0 0.8590120876344806 -0.5591875351471886
4591000000.0 0.8493378631074683 -0.5653444238041494
4594000000.0 0.8174758836100783 -0.58815850150362
4597000000.0 0.8371301922321048 -0.5943395347431968
4600000000.0 0.7771429337802859 -0.5908934657031348
4603000000.0 0.8242483971575157 -0.602353172401099
4606000000.0 0.842123726681379 -0.5740892090219815
4609000000.0 0.821614440012548 -0.5938297938339498
4612000000.0 0.8510444853909546 -0.5984777937640022
4616000000.0 0.8155034086987432 -0.5833560735713095
4619000000.0 0.842620199501198 -0.5624437331292643
4622000000.0 0.8309412111395766 -0.5517494825266989
4625000000.0 0.7868435287047684 -0.564439533443626
4628000000.0 0.8047787628164276 -0.5455059745855274
4631000000.0 0.7865439468524014 -0.5926347447618869
4634000000.0 0.8114161192747165 -0.5812843606126684
4638000000.0 0.82827227920077 -0.5959301528438987
4641000000.0 0.8355883128444197 -0.5661694287935044
4644000000.0 0.8186688217985478 -0.5914686215388857
4647000000.0 0.8345981513176601 -0.5987672012572717
4650000000.0 0.8215525902613371 -0.6132288060547824
4653000000.0 0.845158697851464 -0.6058780968925559
4656000000.0 0.7987928402270272 -0.6195051818144299
4659000000.0 0.8086827128126527 -0.5833378341007569
4662000000.0 0.809727756964789 -0.5918662166021613
4666000000.0 0.7974660920648817 -0.5909333034961204
4669000000.0 0.8159384344134948 -0.5627219110326671
4672000000.0 0.7948424974436006 -0.6027790357571225
4675000000.0 0.7832480256387441 -0.602783625647464
4678000000.0 0.7964145497683123 -0.6044242359495241
4681000000.0 0.795051643128804 -0.6370766784432057
4684000000.0 0.778323252048184 -0.6051780514349019
4688000000.0 0.808469249488519 -0.5812769406401693
4691000000.0 0.817993284172038 -0.5702651477604277
4694000000.0 0.8135007331463505 -0.5958927333232881
4697000000.0 0.8331194841340468 -0.6094038791516686
4700000000.0 0.8316169981142442 -0.6020698711280169
4703000000.0 0.8355973837313108 -0.6080511488178126
4706000000.0 0.8094669342515054 -0.5957538656882533
4709000000.0 0.8033897958415488 -0.6224063190659758
4712000000.0 0.8025186854519772 -0.6248372726302762
4716000000.0 0.8006519864499545 -0.6269792421756399
4719000000.0 0.7990589848525886 -0.6166867407403033
4722000000.0 0.8340710025223141 -0.6149377005659051
4725000000.0 0.8007069363479657 -0.5892873836063306
4728000000.0 0.8011910078621534 -0.5952838945281759
4731000000.0 0.8137994571785806 -0.6021174161162028
4734000000.0 0.8222761347410377 -0.572157265426052
4738000000.0 0.8259675714599992 -0.6067065483302321
4741000000.0 0.8192496360219531 -0.6122926186232697
4744000000.0 0.7803610483488961 -0.6374188325522722
4747000000.0 0.7971531292593955 -0.6204391723038671
4750000000.0 0.7946951852968364 -0.6151126316429489
4753000000.0 0.8104544146609758 -0.6500180784225547
4756000000.0 0.8007870858407694 -0.6157772650708082
4759000000.0 0.8085023528476182 -0.6285086812684081
4762000000.0 0.8172184332072597 -0.627587318336124
4766000000.0 0.79559543538629 -0.6198464128127221
4769000000.0 0.8188743510945313 -0.6123651275941195
4772000000.0 0.827881723010683 -0.6249306453323444
4775000000.0 0.7850650850398885 -0.6543333291894282
4778000000.0 0.8139690953468615 -0.627244164983091
4781000000.0 0.809868281387173 -0.6149216298236702
4784000000.0 0.8213060963679211 -0.5936942267398215
4788000000.0 0.8244246887166055 -0.6236990256469928
4791000000.0 0.8133147746928986 -0.6418661419193077
4794000000.0 0.8017902540216842 -0.6167804073810899
4797000000.0 0.8076910820417367 -0.6211602038199758
4800000000.0 0.7967753115870055 -0.6095210023721498
4803000000.0 0.7556906340512544 -0.642503199282677
4806000000.0 0.8174633530345135 -0.6289452154334345
4809000000.0 0.782483088247077 -0.6184619401765052
4812000000.0 0.7673635730689408 -0.6366744631206647
4816000000.0 0.801294023908521 -0.617177151379156
4819000000.0 0.8157278183682752 -0.611800798116575
4822000000.0 0.8337606913920848 -0.6405863939283597
4825000000.0 0.8232908497084399 -0.6335689245322698
4828000000.0 0.7931966397098622 -0.6289846395632089
4831000000.0 0.7834158066377958 -0.6615121228874863
4834000000.0 0.7995178033643617 -0.621253175187038
4838000000.0 0.7941981300596962 -0.6496810976470097
4841000000.0 0.7777855857136207 -0.6258995602358114
4844000000.0 0.8174228775413662 -0.6056884156751902
4847000000.0 0.7922238968238877 -0.613177146008121
4850000000.0 0.810824662902941 -0.6489529258929543
4853000000.0 0.7884242209482829 -0.6124198872900729
4856000000.0 0.7792961413308996 -0.6292470174436684
4859000000.0 0.8114895148054418 -0.6632780076034545
4862000000.0 0.7892412342469044 -0.6177758954777333
4866000000.0 0.813033958667039 -0.641402157799579
4869000000.0 0.7908876186188121 -0.6532934625546112
4872000000.0 0.7949887429522491 -0.6703235751181771
4875000000.0 0.8618635804088428 -0.6420104860932364
4878000000.0 0.7988419946605605 -0.6460888904828188
4881000000.0 0.8072406444756346 -0.6928502908018838
4884000000.0 0.8043101251958589 -0.6315230328638458
4888000000.0 0.813295279772425 -0.6157546607852808
4891000000.0 0.8286569206512688 -0.6254221672260591
4894000000.0 0.7878002368945265 -0.6455016604633391
4897000000.0 0.7989030007708124 -0.620788966190253
4900000000.0 0.820644502594015 -0.6700408918752117
4903000000.0 0.8398169874309316 -0.6279499715598744
4906000000.0 0.8147639564576289 -0.661657201183366
4909000000.0 0.7954237307462343 -0.6693837682840946
4912000000.0 0.812731409270592 -0.6692957214501645
4916000000.0 0.8607671387595651 -0.6531396067755771
4919000000.0 0.8367982641029228 -0.6618342170966547
4922000000.0 0.8418952565673641 -0.6264290108375553
4925000000.0 0.7780505132193009 -0.6711908944691969
4928000000.0 0.8311610923950998 -0.5854928536567641
4931000000.0 0.8182238541518283 -0.6297837377203239
4934000000.0 0.7586472913967826 -0.6196504377628892
4938000000.0 0.7772347317705952 -0.6462443613000013
4941000000.0 0.7714169334975487 -0.5999817956427005
4944000000.0 0.7577167731574985 -0.5821085390144136
4947000000.0 0.7848838433191578 -0.5974578667092559
4950000000.0 0.7653138980890515 -0.6491672220086258
4953000000.0 0.82155638895223 -0.684715245284967
4956000000.0 0.7974068605453326 -0.6864044271617463
4959000000.0 0.7289153353467823 -0.6500159207304634
4962000000.0 0.8467782723895938 -0.6653083930273238
4966000000.0 0.8636145570796959 -0.6630498813936264
4969000000.0 0.8293951700942195 -0.6336169809299018
4972000000.0 0.7900506266520362 -0.6605104452596504
4975000000.0 0.808954059224219 -0.6142200246586509
4978000000.0 0.779304469159063 -0.6443466465412894
4981000000.0 0.771070081162597 -0.6669073103037167
4984000000.0 0.7962089485096571 -0.6392743724719004
4988000000.0 0.7983379520823582 -0.6439097728051546
4991000000.0 0.8587393085640465 -0.6107693014058999
4994000000.0 0.8413551933785193 -0.6395136596129751
4997000000.0 0.7738382465744128 -0.6721237418700465
5000000000.0 0.8536049519381792 -0.6575642281703917
5003000000.0 0.8400543605249478 -0.6835184213108281
5006000000.0 0.8192860766668167 -0.7172429887257672
5009000000.0 0.8303358836621915 -0.6252520370881034
5012000000.0 0.7850343067115051 -0.6693924260536304
5016000000.0 0.8629663843947727 -0.6479595185866518
5019000000.0 0.8005789656113894 -0.6329305974615579
5022000000.0 0.783667311995336 -0.6420685203354118
5025000000.0 0.8839211815420353 -0.6566324708601131
5028000000.0 0.8236270949318332 -0.6887618515699455
5031000000.0 0.7927101623049909 -0.667898707812268
5034000000.0 0.8123628731859028 -0.6888943268889576
5038000000.0 0.7764905433064719 -0.6187766136772638
5041000000.0 0.8400683870059544 -0.6059194296519421
5044000000.0 0.821901253806395 -0.6307716226733394
5047000000.0 0.8017703069291298 -0.6584059924825304
5050000000.0 0.8261715120095764 -0.5740346072477525
5053000000.0 0.8242811485563312 -0.6638010307039637
5056000000.0 0.8582322054852053 -0.6311584062190994
5059000000.0 0.8896411205735474 -0.5922833112768393
5062000000.0 0.7959820718786798 -0.6763291373644138
5066000000.0 0.857494579334333 -0.620194531031214
5069000000.0 0.8269247143513497 -0.6448475290177723
5072000000.0 0.7536627680514203 -0.6475069100896699
5075000000.0 0.8137489977831465 -0.6196364190462349
5078000000.0 0.7681906448496842 -0.6698394328462033
5081000000.0 0.787670389227529 -0.6134046712434217
5084000000.0 0.8370218485067785 -0.6705097390155358
5088000000.0 0.8375497743664818 -0.638333755008212
5091000000.0 0.8134662455536295 -0.6731663228018718
5094000000.0 0.8247033917002635 -0.6392087372273239
5097000000.0 0.8059823573887204 -0.646400007295632
5100000000.0 0.7928155196445908 -0.613840298613899
5103000000.0 0.8055555027151908 -0.6367131094361366
5106000000.0 0.8592535571998688 -0.6263960422303153
5109000000.0 0.8562525360118665 -0.600965423018422
5112000000.0 0.7838863098555802 -0.6466200145726997
5116000000.0 0.7831290089603032 -0.6212316783785048
5119000000.0 0.8364421411501728 -0.6106558464216442
5122000000.0 0.8412889509550939 -0.6442148607625946
5125000000.0 0.8718000044988585 -0.6102137915723533
5128000000.0 0.8300947659834105 -0.6419233037860425
5131000000.0 0.7643285487727562 -0.6083692908177865
5134000000.0 0.7874501981161837 -0.5804970189815303
5138000000.0 0.8145159706748961 -0.6230028281977078
5141000000.0 0.8285909150522882 -0.59062746553735
5144000000.0 0.8603950009691314 -0.6339173788864723
5147000000.0 0.8590720398972069 -0.6293254932608108
5150000000.0 0.8322231851689438 -0.594081095345321
5153000000.0 0.8118444064941803 -0.6315174608332288
5156000000.0 0.8610524466280433 -0.6202124428506817
5159000000.0 0.895178689120531 -0.6548359479735489
5162000000.0 0.7939176093255809 -0.6376707566251826
5166000000.0 0.8256584208799723 -0.6952847864251763
5169000000.0 0.8488088740393922 -0.6505090413077947
5172000000.0 0.8078486403090828 -0.633344711372348
5175000000.0 0.8734562046392211 -0.6486378905627523
5178000000.0 0.789277554132137 -0.6678014807283268
5181000000.0 0.9023561516805374 -0.6160035401554261
