! Created with skrf 1.8.0 (http://scikit-rf.org).
# Hz S RI R 50.0 
!freq ReS11 ImS11
4000000000.0 0.5455102049166346 -0.8416742291225143
4003000000.0 0.6102119096018258 -0.9004354434812938
4006000000.0 0.5480360749837733 -0.8721049933752434
4009000000.0000005 0.5527541959719807 -0.8750915720705674
4011999999.9999995 0.6153507965747409 -0.8527748301314234
4016000000.0 0.499880567697898 -0.8945321480783437
4019000000.0 0.5684949942860499 -0.8492530268595095
4022000000.0000005 0.6492124795341051 -0.8411105718248477
4025000000.0000005 0.515099685163589 -0.932463401632408
4027999999.9999995 0.5371863977133353 -0.9135688596287281
4030999999.9999995 0.5262046122789522 -0.8476641766365747
4034000000.0 0.5277168261230867 -0.8752651388753667
4038000000.0000005 0.5683459724238753 -0.8765942054917644
4041000000.0000005 0.5648906232460564 -0.9250182502077045
4043999999.9999995 0.5637764604309847 -0.9303880428745012
4046999999.9999995 0.6144973231206822 -0.8706978934247891
4050000000.0 0.5481361575648455 -0.9024252310020398
4053000000.0 0.504933206142521 -0.8854924309145472
4056000000.0 0.5592170574432991 -0.8855186961267946
4059000000.0 0.551190945951758 -0.8209631124032681
4062000000.0000005 0.5470684810917474 -0.9075437798865579
4066000000.0 0.4992979524886953 -0.8314741445111562
4069000000.0 0.5552468005007077 -0.9211416671344286
4072000000.0 0.5893296526067952 -0.8801462695873896
4075000000.0 0.6385834000520738 -0.892563679212386
4078000000.0000005 0.5000543343431485 -0.8801878619930847
4081000000.0000005 0.6040935172080942 -0.8539719453267318
4083999999.9999995 0.5206555282382059 -0.86488055910785
4088000000.0 0.5684809881665293 -0.8596284603855607
4091000000.0 0.581852325001719 -0.9436400600775608
4094000000.0000005 0.5549352045587191 -0.854756175339105
4097000000.0000005 0.585901494572052 -0.8679696438556447
4099999999.9999995 0.5673114811080576 -0.8658451691939294
4102999999.9999995 0.5823041844246347 -0.8512045650646811
4106000000.0 0.5812239000307673 -0.9048391584005244
4109000000.0 0.5196104986682433 -0.8825518191086487
4112000000.0 0.5318111969182563 -0.8452166313463347
4115999999.9999995 0.592721907803451 -0.858516047806416
4119000000.0 0.5420807313594859 -0.885052413127697
4122000000.0 0.5344213373211467 -0.8949345851647478
4125000000.0 0.5506219453082501 -0.9025931151615703
4128000000.0 0.5650994610503295 -0.8660468557242412
4131000000.0 0.5351229592251132 -0.8616845651224384
4134000000.0000005 0.5880558802836984 -0.8624956913918621
4138000000.0 0.5332856103372885 -0.8515236291348744
4141000000.0 0.5553172068425882 -0.8603101880417944
4144000000.0 0.5792487653213106 -0.8563690952824237
4147000000.0000005 0.5325517276575096 -0.8799998019740116
4150000000.0000005 0.5353462419079146 -0.892125334964803
4152999999.9999995 0.5540696905178651 -0.858287607051915
4155999999.9999995 0.574183649193248 -0.8814917436060403
4159000000.0 0.5608360112354257 -0.837517815480779
4162000000.0 0.568774911062938 -0.854000975181321
4166000000.0000005 0.5487805491490512 -0.8781903583098885
4168999999.9999995 0.5316927748207181 -0.8478736913256224
4171999999.9999995 0.5468782134214633 -0.8651461875990438
4175000000.0 0.571773782046706 -0.8553293101452641
4178000000.0 0.5611607114153351 -0.8539258991612245
4181000000.0 0.5601633495233973 -0.8791310725531087
4184000000.0 0.5678724403692649 -0.8542128977986517
4187999999.9999995 0.550892240325047 -0.8466056741464284
4191000000.0 0.5800710691727844 -0.8357270720875598
4194000000.0 0.5570450541498337 -0.8232159385986997
4197000000.0 0.5798878492203842 -0.8615038188110538
4200000000.0 0.5617227491581543 -0.8456550186322246
4203000000.0000005 0.6015730824870024 -0.8628045803285876
4206000000.0000005 0.5750420956577067 -0.8797772614418735
4208999999.9999995 0.5614754321298178 -0.8451561957035632
4211999999.9999995 0.5299520604207435 -0.8646185241617089
4216000000.0 0.5735122593958016 -0.8763796974452397
4219000000.0000005 0.577468221034285 -0.867026054179192
4222000000.0000005 0.5515662199617406 -0.8666699868756899
4224999999.9999995 0.5568135855612735 -0.8460262522644335
4227999999.9999995 0.5629168475051461 -0.8479356378904627
4231000000.0 0.5596215133379911 -0.8495555418137888
4234000000.0 0.5497636363184983 -0.8709542931158918
4238000000.0000005 0.5568124871729637 -0.8732823278967101
4240999999.9999995 0.5478881337000427 -0.8572340204649987
4244000000.0 0.5701535090255695 -0.8433108363250388
4247000000.0 0.5600586177229276 -0.850986244152315
4250000000.0 0.5424473896513595 -0.8527129072788248
4253000000.0 0.5315628178265468 -0.8459795289861824
4256000000.0 0.5505179878740805 -0.8567255516918643
4259000000.0000005 0.5228147636765814 -0.8406181911693831
4261999999.9999995 0.5427735308258217 -0.8664874651565587
4266000000.0 0.5485752706542468 -0.8813141673080092
4269000000.0 0.5778283236661256 -0.8417677525812692
4272000000.0000005 0.5473780862149399 -0.8455747566214411
4275000000.0000005 0.5589756138918465 -0.8541873606031034
4277999999.9999995 0.5819806839049213 -0.8625028504355818
4280999999.9999995 0.5709659931109852 -0.8527999889875731
4284000000.0 0.530872245915822 -0.873738651232364
4288000000.0000005 0.5724567523545155 -0.8528878011261186
4291000000.0000005 0.5411496115907293 -0.8355709411172119
4293999999.9999995 0.5410030478887882 -0.8537994278180829
4297000000.0 0.5620549420786962 -0.8425856300130211
4300000000.0 0.5577033794434866 -0.8123455972226833
4303000000.0 0.5408158447972844 -0.8367847313509051
4306000000.0 0.5703064353453604 -0.8160025104074311
4309000000.0 0.531131896585621 -0.8517840266069872
4312000000.0 0.6063053710902108 -0.8619451898632187
4316000000.0 0.5826436873149967 -0.8478166305306667
4319000000.0 0.579350164722265 -0.8273851832556478
4322000000.0 0.5369615179698652 -0.8495897830481655
4325000000.0 0.5668467626080107 -0.8466422747775283
4328000000.0 0.5460485547732474 -0.846187985906561
4331000000.0 0.5450628709476681 -0.8879468591486978
4334000000.0 0.5603054769013739 -0.8640764399378529
4338000000.0 0.5682443382232761 -0.8251783868117616
4341000000.0 0.5790427199777245 -0.8552179782228236
4344000000.0 0.5654133136172005 -0.8912868988577588
4347000000.0 0.5345070646225348 -0.8884274516345588
4350000000.0 0.5067055312330448 -0.8437685490787682
4353000000.0 0.5385879849218183 -0.8148614967000452
4356000000.0 0.5418669938295191 -0.8612774644840251
4359000000.0 0.5432258438393146 -0.8231692243116845
4362000000.0 0.5321295598333183 -0.9008616473071822
4366000000.0 0.5564748192984112 -0.8678126269286147
4369000000.0 0.5157734255200672 -0.8314511878082964
4372000000.0 0.4943136405214281 -0.8616603855044351
4375000000.0 0.5504849885027784 -0.8491304542332629
4378000000.0 0.5431931421289289 -0.8321917212530368
4381000000.0 0.5475953012765221 -0.8073362181429696
4384000000.0 0.5449259524980872 -0.8890261476326968
4388000000.0 0.5499365678522394 -0.828361311895811
4391000000.0 0.5450672658516917 -0.8394996575080685
4394000000.0 0.5224846606866127 -0.8555755070801848
4397000000.0 0.5464504279133141 -0.8528276755738361
4400000000.0 0.5513500373579721 -0.871805329122614
4403000000.0 0.5489643831284845 -0.8613955046494636
4406000000.0 0.5395527011837616 -0.8561702973296141
4409000000.0 0.5648791885790688 -0.880549960381088
4412000000.0 0.49671391892943273 -0.8793204315356473
4416000000.0 0.5348809547900577 -0.8562096331143737
4419000000.0 0.5299035002721013 -0.8585013295167816
4422000000.0 0.5430950494967345 -0.8427928870232537
4425000000.0 0.577093448891799 -0.8599581535442986
4428000000.0 0.5271888496076513 -0.8501894189717916
4431000000.0 0.554249667059567 -0.870607400500276
4434000000.0 0.532573196517214 -0.840452379395651
4438000000.0 0.5513588294764753 -0.880337148379727
4441000000.0 0.5534420770204955 -0.862542671415846
4444000000.0 0.5338923805775745 -0.8296933818776164
4447000000.0 0.5216078210988618 -0.8687139224270091
4450000000.0 0.5460463170606807 -0.838387600515151
4453000000.0 0.5476040959370712 -0.8783412103319242
4456000000.0 0.5153498135103308 -0.8306871642369343
4459000000.0 0.5001694981651841 -0.8185138987876595
4462000000.0 0.5559222200893348 -0.911591706357385
4466000000.0 0.5558819489680064 -0.9069922730441877
4469000000.0 0.5584832467477613 -0.8511232285966557
4472000000.0 0.5376529501999011 -0.8790624080968572
4475000000.0 0.5113188962506026 -0.8278056536993713
4478000000.0 0.5602464347102237 -0.9044259291467982
4481000000.0 0.5102072335255616 -0.826640828931275
4484000000.0 0.49507191848050264 -0.8706273515899812
4488000000.0 0.5110419627698148 -0.8617937792715104
4491000000.0 0.5272141581281871 -0.8762225922654738
4494000000.0 0.5327811157829463 -0.8459304964619634
4497000000.0 0.5439675995993443 -0.8372050956332531
4500000000.0 0.531935069958877 -0.8565292384753962
4503000000.0 0.5359235000536269 -0.862451700293573
4506000000.0 0.5307912894920572 -0.8584935073671738
4509000000.0 0.5106066297678368 -0.8451340376762893
4512000000.0 0.5117999542782069 -0.8555526463188164
4516000000.0 0.5563230324362006 -0.898016858564135
4519000000.0 0.5438522660500064 -0.8294812706391653
4522000000.0 0.5264193101241874 -0.8633376848915935
4525000000.0 0.5757832385518984 -0.8339217075545122
4528000000.0 0.5581531949450654 -0.884129783468315
4531000000.0 0.5410766563532905 -0.8656194380971665
4534000000.0 0.5195645721511344 -0.8582819214376473
4538000000.0 0.520113006573062 -0.8628118979495811
4541000000.0 0.48709543006865214 -0.8818437661879683
4544000000.0 0.5277785782680906 -0.8350205809224452
4547000000.0 0.5445258652176224 -0.8401999047755357
4550000000.0 0.5187783536691097 -0.8812173888179264
4553000000.0 0.5217941696803126 -0.8687871287122396
4556000000.0 0.4987718150786006 -0.8392134349989798
4559000000.0 0.5093017794271364 -0.8566280882351056
4562000000.0 0.5341783655092137 -0.883525012467147
4566000000.0 0.5274119150078586 -0.872505296584515
4569000000.0 0.5090799456640869 -0.8529782434102181
4572000000.0 0.5235358595912399 -0.8499015339954819
4575000000.0 0.5003881274698889 -0.8899899311045731
4578000000.0 0.5553889940791563 -0.8670014251365383
4581000000.0 0.5108734893893836 -0.8883449447300655
4584000000.0 0.5331130638767051 -0.8787610596686763
4588000000.0 0.5166337815570412 -0.865432978436108
4591000000.0 0.5217942932683645 -0.8569190262185933
4594000000.0 0.4954762460635591 -0.8763730677492632
4597000000.0 0.5236078726472345 -0.8865104436831961
4600000000.0 0.49838543008228386 -0.8705640701211671
4603000000.0 0.48868991480857427 -0.8828801647935636
4606000000.0 0.5255329392398286 -0.8713294691607478
4609000000.0 0.5232760647980437 -0.8613942865934775
4612000000.0 0.5238778992604085 -0.8927977363851619
4616000000.0 0.5161953320489018 -0.8728636454477083
4619000000.0 0.5216585075321586 -0.8642600245471885
4622000000.0 0.5087896183829762 -0.870699909140468
4625000000.0 0.4723146611992447 -0.8459411810779189
4628000000.0 0.5190696234071593 -0.870613429110996
4631000000.0 0.4828427123010828 -0.8715750224990828
4634000000.0 0.5119096880198466 -0.8842554536714626
4638000000.0 0.5172884264648306 -0.8700841463177001
4641000000.0 0.5194058766549251 -0.8733043645792322
4644000000.0 0.5333401554527202 -0.884058527085419
4647000000.0 0.5354293565796664 -0.8727209693303388
4650000000.0 0.4934452992961309 -0.8581046893610921
4653000000.0 0.5359361792872246 -0.8808969011597387
4656000000.0 0.5054144654754058 -0.8704015405965393
4659000000.0 0.4914900604873627 -0.8524926799745058
4662000000.0 0.5083761880693387 -0.8582639045256052
4666000000.0 0.5079646926610135 -0.8712632950533871
4669000000.0 0.5352337602884104 -0.8833607160757304
4672000000.0 0.48700281100965637 -0.8808213276372838
4675000000.0 0.5115524430003264 -0.8733323966294653
4678000000.0 0.486897080926244 -0.8499378374751603
4681000000.0 0.48147117355637226 -0.8998817833662418
4684000000.0 0.48297528742999435 -0.9008342838429012
4688000000.0 0.4823566890360214 -0.8997939355598505
4691000000.0 0.5316500118670655 -0.8929982159950008
4694000000.0 0.5080172745795247 -0.8811507614621168
4697000000.0 0.48280330002097577 -0.8589862722128954
4700000000.0 0.52138416347258 -0.8753383800878008
4703000000.0 0.511371385910786 -0.8453425265693875
4706000000.0 0.4983323453589329 -0.87739377322041
4709000000.0 0.488544348247302 -0.867646450683209
4712000000.0 0.5163210718141625 -0.8889153449845313
4716000000.0 0.4920566111202619 -0.9001132887027993
4719000000.0 0.538908747206355 -0.9004835494480009
4722000000.0 0.5157729288115332 -0.8687298356007036
4725000000.0 0.5063191037627198 -0.8909105361967541
4728000000.0 0.5033317766887473 -0.9006806732069085
4731000000.0 0.5225689734529165 -0.8651802808379013
4734000000.0 0.5085333261228431 -0.872022991614535
4738000000.0 0.5483699256476788 -0.8967953895965961
4741000000.0 0.492963987815717 -0.8850538789899902
4744000000.0 0.4937896734868514 -0.9297830738987289
4747000000.0 0.5196636580452723 -0.852539088798826
4750000000.0 0.5023916534024597 -0.8773386384834085
4753000000.0 0.5014765431994843 -0.8803493342214038
4756000000.0 0.47759730547486995 -0.8889206742741433
4759000000.0 0.5227730875632716 -0.888145770851767
4762000000.0 0.45506122893128864 -0.9063538533132885
4766000000.0 0.5094507487470099 -0.8875796556358252
4769000000.0 0.5050657891258732 -0.9328262722713357
4772000000.0 0.48458816759761114 -0.8969733232955804
4775000000.0 0.5189130922444942 -0.9377557915708544
4778000000.0 0.5032352759924819 -0.8985542934123931
4781000000.0 0.4993213656502471 -0.8557509273838521
4784000000.0 0.510484717621327 -0.844612643700136
4788000000.0 0.5010269268182566 -0.9148796548323499
4791000000.0 0.5097690738625892 -0.8499769064160733
4794000000.0 0.5408482480049075 -0.9286038571606544
4797000000.0 0.4988876999443028 -0.8708117245749278
4800000000.0 0.48613431160917997 -0.8868802451139683
4803000000.0 0.4714709772899077 -0.8872841628960252
4806000000.0 0.4874332365843923 -0.9176038708046714
4809000000.0 0.45321257734600495 -0.9088742502092884
4812000000.0 0.4634749399081719 -0.8836673064909899
4816000000.0 0.49254398922991294 -0.8535506465100805
4819000000.0 0.5402014642521574 -0.8972880555329804
4822000000.0 0.5179545670108658 -0.9050253218313103
4825000000.0 0.5391894665403787 -0.8872025369174457
4828000000.0 0.48514225604211597 -0.8959468941454163
4831000000.0 0.48546006015243603 -0.9409781548734906
4834000000.0 0.5448739932501627 -0.8950538490522925
4838000000.0 0.5046226922272941 -0.9219675830971711
4841000000.0 0.4745368275890728 -0.8885531444317012
4844000000.0 0.536272287614593 -0.8929566353763986
4847000000.0 0.5386696070978857 -0.8540160716122637
4850000000.0 0.5095758408783421 -0.9152729952533685
4853000000.0 0.4952295099700492 -0.8657635592216897
4856000000.0 0.4841389085702451 -0.8821836739675013
4859000000.0 0.5209559974323172 -0.9517934110555717
4862000000.0 0.5097259782315293 -0.8633586014418824
4866000000.0 0.49399597466341644 -0.9248835245426494
4869000000.0 0.5119396146191292 -0.9192789564067347
4872000000.0 0.4946510774377386 -0.917363447326857
4875000000.0 0.5666895645376732 -0.9012545918700522
4878000000.0 0.5094412995366736 -0.901791871806862
4881000000.0 0.5269184773598554 -0.964178267680782
4884000000.0 0.5223654566431215 -0.8903234563139995
4888000000.0 0.5417777477014437 -0.8734962404393123
4891000000.0 0.5395045511325385 -0.8968390611501058
4894000000.0 0.47448506358852127 -0.8923688305873874
4897000000.0 0.5285645473222701 -0.8621075299916421
4900000000.0 0.5464799300934405 -0.9274324311996036
4903000000.0 0.5548968133535394 -0.9020227929968894
4906000000.0 0.50845751136 -0.9108887096227868
4909000000.0 0.4918285779300329 -0.9005561298583495
4912000000.0 0.5099834294111139 -0.9355403828224107
4916000000.0 0.5375116265691815 -0.9018530941434225
4919000000.0 0.5540673491899895 -0.8919276516963438
4922000000.0 0.5504153058414508 -0.8648186383267213
4925000000.0 0.5179373017666083 -0.9118914622342947
4928000000.0 0.5369900156557069 -0.8675323728898267
4931000000.0 0.5096066272718854 -0.903020565426255
4934000000.0 0.5178350541790028 -0.8811185971374469
4938000000.0 0.4805058634297398 -0.8954237722650366
4941000000.0 0.4968544684580179 -0.856150177180791
4944000000.0 0.5129239872728114 -0.8005485482356852
4947000000.0 0.4801033768913904 -0.8513642500873587
4950000000.0 0.5148098354372777 -0.8958451003828397
4953000000.0 0.47767135966174945 -0.9464062360228986
4956000000.0 0.49019526855553575 -0.9095363376255958
4959000000.0 0.4641136255665227 -0.8855671353651272
4962000000.0 0.5144539392452698 -0.9039593050051051
4966000000.0 0.5491468662610056 -0.9308877564880698
4969000000.0 0.5446753897375118 -0.943210055785425
4972000000.0 0.5289459713781153 -0.9123419074378565
4975000000.0 0.5057301776857177 -0.8655025591637167
4978000000.0 0.5230695712933311 -0.9266283348626804
4981000000.0 0.49161650142267765 -0.9183380402640002
4984000000.0 0.5103167826059816 -0.8594597588617756
4988000000.0 0.5314948371756409 -0.8802572939518459
4991000000.0 0.580971366458609 -0.8775506425604386
4994000000.0 0.535773498453525 -0.864593677905238
4997000000.0 0.5054237362709012 -0.9241995348226616
5000000000.0 0.5517367016863706 -0.9306726892178016
5003000000.0 0.5430106359740559 -0.9148317790409265
5006000000.0 0.5404411486997297 -0.9494228238380761
5009000000.0 0.5459931629242165 -0.919654315542895
5012000000.0 0.5079521425808917 -0.9029434288237215
5016000000.0 0.5988873373617467 -0.8931030775593184
5019000000.0 0.5167250820359028 -0.8999298912848788
5022000000.0 0.5329199426832912 -0.9268349035303636
5025000000.0 0.5544320942900387 -0.9636486696830782
5028000000.0 0.5079418592318139 -0.8859710538163976
5031000000.0 0.5093605270063095 -0.907132521230833
5034000000.0 0.5346433998049516 -0.9208092436282882
5038000000.0 0.5050638595973687 -0.8668153869437109
5041000000.0 0.5636296537857539 -0.9099067562935022
5044000000.0 0.5488409369570996 -0.8345749533100688
5047000000.0 0.5372295472258898 -0.9011515234780602
5050000000.0 0.5974410115906978 -0.8489475919207397
5053000000.0 0.5649374618725362 -0.9430122023209231
5056000000.0 0.5718262367313557 -0.8795469944048147
5059000000.0 0.5763525744325824 -0.8776327555602689
5062000000.0 0.5263382468084206 -0.9648008949261446
5066000000.0 0.5785385765057376 -0.8332144140729723
5069000000.0 0.5165299911970236 -0.8945632629179858
5072000000.0 0.5179418027653875 -0.8691645187080665
5075000000.0 0.5891090997351844 -0.8477672580612997
5078000000.0 0.5022392043088197 -0.9366758579092975
5081000000.0 0.48892978952551286 -0.8770780909655861
5084000000.0 0.5489728192026109 -0.8967596380833878
5088000000.0 0.5408749246715755 -0.8824058152454807
5091000000.0 0.5316005241593595 -0.9360316915914395
5094000000.0 0.5578773027197095 -0.8869927918344653
5097000000.0 0.6050920229548592 -0.8502556978470177
5100000000.0 0.5657722241500264 -0.853244628036109
5103000000.0 0.5253316507909993 -0.9540503418901485
5106000000.0 0.6083948339029905 -0.8760274275756402
5109000000.0 0.6038933891061503 -0.8863530530058799
5112000000.0 0.5092305670675213 -0.8662989814169331
5116000000.0 0.5365999561575197 -0.8878508370980032
5119000000.0 0.5385185827912682 -0.9457052069993617
5122000000.0 0.5398075967332514 -0.8873116536978245
5125000000.0 0.5708858893895393 -0.8487887211090568
5128000000.0 0.5354648853795405 -0.8768435992757135
5131000000.0 0.5667924934502389 -0.9113060611374375
5134000000.0 0.5298915894968258 -0.9122268844812793
5138000000.0 0.5672949752020346 -0.9020943270151001
5141000000.0 0.5851427614703618 -0.8290700528707425
5144000000.0 0.5785960113439639 -0.8580924350191652
5147000000.0 0.5375802816023987 -0.9262585679223407
5150000000.0 0.5864671630160927 -0.8488514104573812
5153000000.0 0.5443396422812345 -0.8983364206598616
5156000000.0 0.5677788984472942 -0.8996871266194364
5159000000.0 0.5615277821140247 -0.8816742877613966
5162000000.0 0.5111797641142122 -0.9257167775827764
5166000000.0 0.5534707004383939 -0.9195193805428361
5169000000.0 0.5638744950967425 -0.9128678400612826
5172000000.0 0.584089754029589 -0.8685278457764587
5175000000.0 0.6014671731929413 -0.9128337527664846
5178000000.0 0.5490568956847321 -0.885558470749791
