! Created with skrf 1.8.0 (http://scikit-rf.org).
# Hz S RI R 50.0 
!freq ReS11 ImS11
4000000000.0 0.5037671193675841 -0.8513934804505479
4003000000.0 0.568795173309664 -0.9419236513414788
4006000000.0 0.49921429687510255 -0.9097429005471687
4009000000.0000005 0.5279486782130786 -0.8802283834256253
4011999999.9999995 0.6096126977667928 -0.8678683359432007
4016000000.0 0.5385352197539871 -0.9031538563918878
4019000000.0 0.517627666110632 -0.9104657988219765
4022000000.0000005 0.5920370705235388 -0.8260254718111999
4025000000.0000005 0.4899683615851833 -0.9149057575924469
4027999999.9999995 0.5408494501910981 -0.906932293192156
4030999999.9999995 0.5228617390118043 -0.8731231364358092
4034000000.0 0.5588772913311758 -0.8973947227745613
4038000000.0000005 0.5750556996365983 -0.9108970951540452
4041000000.0000005 0.5289551665974894 -0.8918298672600659
4043999999.9999995 0.546090029566981 -0.9291417463810661
4046999999.9999995 0.5910151358238415 -0.9229980836066456
4050000000.0 0.5241299628889823 -0.9231954253709751
4053000000.0 0.5181070431495991 -0.9218965954042633
4056000000.0 0.5377681118301457 -0.8723022370201275
4059000000.0 0.5647710179361957 -0.8407012518111472
4062000000.0000005 0.5056566734934873 -0.8634556222441689
4066000000.0 0.4966724477926885 -0.8127132263004212
4069000000.0 0.5234901250941016 -0.9280495519609746
4072000000.0 0.6258689728800448 -0.8418610102581476
4075000000.0 0.5654135156173654 -0.9021821181796694
4078000000.0000005 0.5450688656117332 -0.8826129482276763
4081000000.0000005 0.6321328357059983 -0.882039299048256
4083999999.9999995 0.5319364843332548 -0.9544963787962808
4088000000.0 0.5801026422574576 -0.8623496432481712
4091000000.0 0.5570613894784482 -0.9308520804622087
4094000000.0000005 0.5482054167434194 -0.8707258042522785
4097000000.0000005 0.5610131339374792 -0.8598378690966679
4099999999.9999995 0.5585998327103648 -0.8443831650539537
4102999999.9999995 0.6051557746752195 -0.8946672430187901
4106000000.0 0.4958629136194244 -0.8911473244671595
4109000000.0 0.5280814777850749 -0.8685679006157564
4112000000.0 0.559569287295023 -0.8805738560181849
4115999999.9999995 0.5386335131606401 -0.8984390318279379
4119000000.0 0.5220874976336891 -0.8924733062646435
4122000000.0 0.5139143758883696 -0.8832246581630231
4125000000.0 0.5436984152752039 -0.899330730820976
4128000000.0 0.5397052370490938 -0.8539567787410562
4131000000.0 0.5111134203938767 -0.8563832802801922
4134000000.0000005 0.5477399381790999 -0.8951163368280575
4138000000.0 0.511750699294905 -0.8516923915123601
4141000000.0 0.5199423790517225 -0.8780150776187527
4144000000.0 0.5371877670830786 -0.8818859278641346
4147000000.0000005 0.5297064662264799 -0.8791947378444797
4150000000.0000005 0.5665601879532342 -0.9410094590401322
4152999999.9999995 0.5268665649035433 -0.874490095314151
4155999999.9999995 0.5655253241367988 -0.9223213733552366
4159000000.0 0.5117711345901192 -0.8692641105356971
4162000000.0 0.511040595976485 -0.8777990870712872
4166000000.0000005 0.5067531707872844 -0.8817530045097731
4168999999.9999995 0.5105447812503793 -0.8599065518812898
4171999999.9999995 0.5338831588812941 -0.8885586364845152
4175000000.0 0.5434775223837158 -0.869123649143492
4178000000.0 0.548688594959841 -0.8921932645933763
4181000000.0 0.5154937009577156 -0.8910840657345422
4184000000.0 0.531518600366274 -0.8631440844683296
4187999999.9999995 0.5309265462373444 -0.8584918055707894
4191000000.0 0.5620488938903409 -0.8439186519853806
4194000000.0 0.5208849480932538 -0.8431535075559274
4197000000.0 0.536094739597902 -0.8667403196745264
4200000000.0 0.542122375908426 -0.8717862373866875
4203000000.0000005 0.5633912555091258 -0.8604745323051344
4206000000.0000005 0.5538476650102746 -0.8574147851972812
4208999999.9999995 0.5280926479111786 -0.8628179236522131
4211999999.9999995 0.5148777043904789 -0.8826580221764077
4216000000.0 0.5520158384952364 -0.8524224066422298
4219000000.0000005 0.5488053971303183 -0.8653764811164019
4222000000.0000005 0.5351968371869811 -0.8834929399929092
4224999999.9999995 0.5377728718488436 -0.834732073142842
4227999999.9999995 0.5447546119556942 -0.8762737654300686
4231000000.0 0.5298971667665988 -0.8746625525208069
4234000000.0 0.541436725438524 -0.8747092957770184
4238000000.0000005 0.5228940170873396 -0.8855143281130495
4240999999.9999995 0.5222311749378086 -0.8626165351733072
4244000000.0 0.5356370267090782 -0.8616943323734501
4247000000.0 0.5524789607127389 -0.8788315480698251
4250000000.0 0.5336117477586239 -0.863800464577546
4253000000.0 0.5195195222053818 -0.8395250124844233
4256000000.0 0.5583346019693435 -0.8705483384806477
4259000000.0000005 0.5030722971018048 -0.8407620071009193
4261999999.9999995 0.5068415432604584 -0.8515595674402683
4266000000.0 0.5215691667665503 -0.8992884772352481
4269000000.0 0.533092522519581 -0.8569788588330305
4272000000.0000005 0.5467893940600468 -0.8419833244890358
4275000000.0000005 0.5360742510080094 -0.8644121991181317
4277999999.9999995 0.5824459232004904 -0.8782911362049977
4280999999.9999995 0.5409499444035178 -0.8661518938358994
4284000000.0 0.49304508709118927 -0.8962180457105101
4288000000.0000005 0.5607970098092906 -0.8413376201005619
4291000000.0000005 0.5278741070112115 -0.8611361409770906
4293999999.9999995 0.5377446199794269 -0.8690139056083845
4297000000.0 0.5507922735617279 -0.849615957710759
4300000000.0 0.5304928497350704 -0.8623961706098934
4303000000.0 0.5289434524532005 -0.8609147190152504
4306000000.0 0.5524962566967158 -0.869559657904011
4309000000.0 0.5211683885255326 -0.8364921947918871
4312000000.0 0.5862801884228697 -0.8574579725966551
4316000000.0 0.5805589060268908 -0.8732936720347487
4319000000.0 0.5351073167513818 -0.846914432739599
4322000000.0 0.5077030489856912 -0.8933142242387208
4325000000.0 0.5435486101842146 -0.8484506640485793
4328000000.0 0.5239757152339374 -0.8391253445512227
4331000000.0 0.5175375674891834 -0.8949555347435365
4334000000.0 0.5392924769631472 -0.888621608908425
4338000000.0 0.5502697107771258 -0.862237248524057
4341000000.0 0.5468224881706757 -0.8770329038183188
4344000000.0 0.5567810116181968 -0.8902628361688149
4347000000.0 0.5300206674024597 -0.8840716384494801
4350000000.0 0.5121682129754178 -0.827923968465997
4353000000.0 0.5324432470675221 -0.8470902472899118
4356000000.0 0.49888792107420354 -0.8844927635797677
4359000000.0 0.5245517106845782 -0.8343215389072994
4362000000.0 0.4880908273805705 -0.8774418350845307
4366000000.0 0.5242827596988376 -0.8869272382488654
4369000000.0 0.49699925071918477 -0.8372732536495529
4372000000.0 0.4871942739403444 -0.8677489263736343
4375000000.0 0.536151829268285 -0.8585017592236673
4378000000.0 0.5102485424784196 -0.8373699177605008
4381000000.0 0.5300411734383749 -0.8462271855900043
4384000000.0 0.543971951093589 -0.9398640001184511
4388000000.0 0.5273771623289174 -0.8405296218546546
4391000000.0 0.5193297767926456 -0.86044126675355
4394000000.0 0.5114462523835889 -0.8440833235856512
4397000000.0 0.519152356515762 -0.8578136974162258
4400000000.0 0.5278892629116313 -0.9012021475215148
4403000000.0 0.531903337273787 -0.8693090879653471
4406000000.0 0.5071132933330019 -0.8731955676086609
4409000000.0 0.5285180288297889 -0.9028002370167342
4412000000.0 0.45928713346362837 -0.8849678699158614
4416000000.0 0.5025387837657582 -0.8600285705633018
4419000000.0 0.5056639722245708 -0.8698672851137301
4422000000.0 0.5243132613153344 -0.847010414171949
4425000000.0 0.5556941659416377 -0.8654744996401549
4428000000.0 0.5233402425321687 -0.8792760711896537
4431000000.0 0.524747569289828 -0.8864454357734671
4434000000.0 0.5119348375621258 -0.8702582709652048
4438000000.0 0.5313499707563589 -0.8900031786036257
4441000000.0 0.5238164025707734 -0.8720051708396331
4444000000.0 0.5116838054867945 -0.8490468327727372
4447000000.0 0.5016371921660666 -0.8635345262101084
4450000000.0 0.5239389406150214 -0.8545301714711042
4453000000.0 0.5243950650479426 -0.8771556084099554
4456000000.0 0.4935425145820117 -0.8593880686385305
4459000000.0 0.47592110312294833 -0.8436808245705829
4462000000.0 0.5400551943774766 -0.9239314671120067
4466000000.0 0.5235099411818267 -0.9030776142513588
4469000000.0 0.5366475178184812 -0.8529978521860819
4472000000.0 0.502295440207724 -0.8950284507476347
4475000000.0 0.502224809868973 -0.847221509042638
4478000000.0 0.5162636908686965 -0.9171928933580196
4481000000.0 0.5014055439165955 -0.8584338234246768
4484000000.0 0.4618073280950233 -0.8832671434222344
4488000000.0 0.4902464165250942 -0.8745984405507352
4491000000.0 0.5029880338109043 -0.880535560227324
4494000000.0 0.5125927890787876 -0.8350202664273442
4497000000.0 0.5120964904419496 -0.8552947748032109
4500000000.0 0.5338251039370076 -0.8627335662301362
4503000000.0 0.5463545374530575 -0.8822558068074284
4506000000.0 0.5058960927291151 -0.8700245332725796
4509000000.0 0.4939120862202476 -0.8447448801239618
4512000000.0 0.4925014298841628 -0.8692585702814227
4516000000.0 0.5376047034623921 -0.8896232291933035
4519000000.0 0.4938643973352428 -0.849533968330801
4522000000.0 0.49206340472404325 -0.8763201210683401
4525000000.0 0.5283211171574127 -0.8548378201917978
4528000000.0 0.5069848043687932 -0.8917001323913971
4531000000.0 0.5114039962071346 -0.8647366796440682
4534000000.0 0.4954909302633309 -0.8719865365381736
4538000000.0 0.49873416112284624 -0.8547576881754354
4541000000.0 0.46877360873494256 -0.8699551952192016
4544000000.0 0.4802991598178241 -0.8580863930216158
4547000000.0 0.48902909492677443 -0.8683953798031303
4550000000.0 0.5069257612940117 -0.8738154181097068
4553000000.0 0.5038012101545852 -0.899028600912757
4556000000.0 0.47814129023608404 -0.8708333106519077
4559000000.0 0.4931720490613205 -0.8829675255944273
4562000000.0 0.4978385564511579 -0.8835905282553655
4566000000.0 0.5040483290850262 -0.8891071510607631
4569000000.0 0.49593467952521647 -0.8617967509661435
4572000000.0 0.49399635980811996 -0.8810307267482052
4575000000.0 0.48187363948200235 -0.8875212600992219
4578000000.0 0.5260617489927211 -0.894281112812696
4581000000.0 0.4886092690488815 -0.8895798000920092
4584000000.0 0.4872622851362016 -0.8752116140053982
4588000000.0 0.519782360463198 -0.8943915782576997
4591000000.0 0.5108684535868274 -0.8581789563581469
4594000000.0 0.49941614664784745 -0.8825346113991839
4597000000.0 0.5027976977815163 -0.8931555823798942
4600000000.0 0.4667233435964698 -0.9019225301082314
4603000000.0 0.49051342962799105 -0.8930497142342975
4606000000.0 0.5056790151828275 -0.9079004320817192
4609000000.0 0.48506601788003 -0.8857021179498086
4612000000.0 0.5005054043492044 -0.8917961141957376
4616000000.0 0.4860962086529756 -0.8872254722079671
4619000000.0 0.4985941072009903 -0.8865078316869555
4622000000.0 0.48238254734201386 -0.890091139817645
4625000000.0 0.45430748902716267 -0.8691293697178449
4628000000.0 0.5015161338412484 -0.8642518073916559
4631000000.0 0.47253437275271515 -0.8951923989228594
4634000000.0 0.46450392213609315 -0.8917203532900554
4638000000.0 0.48820520003149526 -0.8995862490186977
4641000000.0 0.5016037937885882 -0.8990543710226155
4644000000.0 0.48177660871030603 -0.8744167398744039
4647000000.0 0.5085445492662305 -0.8989499044248612
4650000000.0 0.49073288201898724 -0.8772231141347413
4653000000.0 0.5054564949805684 -0.9050747685238233
4656000000.0 0.4658005987177054 -0.8992990853062799
4659000000.0 0.483276282330382 -0.8935922017160409
4662000000.0 0.48112049075183905 -0.8959615517925229
4666000000.0 0.48667656713882484 -0.8989195895967769
4669000000.0 0.5032114957628092 -0.885461666374974
4672000000.0 0.47341337764479813 -0.9226448718015043
4675000000.0 0.4613408307457159 -0.8999803620545932
4678000000.0 0.4768935517012604 -0.8827382926725302
4681000000.0 0.4657569662961526 -0.9244334945656926
4684000000.0 0.4595323366884793 -0.9022764738801672
4688000000.0 0.4346548700218279 -0.8901875441590054
4691000000.0 0.47779200786224374 -0.8709644742446583
4694000000.0 0.48548010577404427 -0.8810468742391824
4697000000.0 0.4688182892889378 -0.8643453417023724
4700000000.0 0.47479560997314824 -0.8746273569491131
4703000000.0 0.4994003668521014 -0.839932030917277
4706000000.0 0.4709879804493671 -0.9319082549975428
4709000000.0 0.46206263686442633 -0.8795108068628928
4712000000.0 0.484115220787237 -0.8720800489184539
4716000000.0 0.48325407093552036 -0.9272856475704769
4719000000.0 0.4996784984304214 -0.8979145463976752
4722000000.0 0.5056863017961206 -0.8880087332159583
4725000000.0 0.46652235968892786 -0.9072825025131253
4728000000.0 0.4777966473761434 -0.9057902200124699
4731000000.0 0.5019387226825526 -0.9194645377627713
4734000000.0 0.47425541481998035 -0.8850648483596684
4738000000.0 0.49462561554099393 -0.9184031876311337
4741000000.0 0.46995507071442844 -0.9181865567683488
4744000000.0 0.4552626078078992 -0.9137040376673079
4747000000.0 0.4578690303634875 -0.8539801062116655
4750000000.0 0.467163182499234 -0.922247948733048
4753000000.0 0.4948544880686898 -0.9014070120279969
4756000000.0 0.4659039366540418 -0.9312854495931989
4759000000.0 0.4983208176165777 -0.8979153200949095
4762000000.0 0.4537870063691381 -0.9395106020295086
4766000000.0 0.47531128572131315 -0.908089802268213
4769000000.0 0.46797443532807925 -0.9131406610576156
4772000000.0 0.5000441686550943 -0.932394437593229
4775000000.0 0.46268922026619297 -0.9252784557048326
4778000000.0 0.4693165927053995 -0.9433554745591259
4781000000.0 0.49708529487437314 -0.8716689648951138
4784000000.0 0.4931331147104472 -0.8750578586372728
4788000000.0 0.4448068144002628 -0.9231870680783758
4791000000.0 0.4807935331019871 -0.8897713838319102
4794000000.0 0.5085894800705382 -0.9171705668857111
4797000000.0 0.4428029639431705 -0.8972753340284582
4800000000.0 0.4631894078501987 -0.8971402126598623
4803000000.0 0.4381768823013257 -0.8931355225903379
4806000000.0 0.46961464885499005 -0.9138889241259205
4809000000.0 0.4285906350922244 -0.9216727421907638
4812000000.0 0.4074225585660767 -0.9289568801547973
4816000000.0 0.47519896519617 -0.8747137838807687
4819000000.0 0.5049137558924862 -0.9137432276911105
4822000000.0 0.5129708189866569 -0.9222124749477016
4825000000.0 0.5280506030140912 -0.9175856285853617
4828000000.0 0.459153880043986 -0.9024393009037145
4831000000.0 0.4547808078556531 -0.9339755663094635
4834000000.0 0.5076869372345068 -0.9004948406733837
4838000000.0 0.4738531488203156 -0.9385270725790463
4841000000.0 0.45791689584946826 -0.8935745218926844
4844000000.0 0.5243966752824967 -0.8960720597530066
4847000000.0 0.47727876076026166 -0.8785078506848947
4850000000.0 0.44826911944025805 -0.9459831888100219
4853000000.0 0.4655863169164377 -0.9001049739239045
4856000000.0 0.469165053102542 -0.8871814987643062
4859000000.0 0.4934048054208896 -0.9185937723987663
4862000000.0 0.4868968243941908 -0.8768245010625003
4866000000.0 0.4487840820619089 -0.9371309261285053
4869000000.0 0.4549172551953337 -0.9362575640714532
4872000000.0 0.47449561034022697 -0.9495067637429133
4875000000.0 0.5422677278771102 -0.9139133777743351
4878000000.0 0.4713933327739943 -0.9157629365623597
4881000000.0 0.47513509960532313 -0.9657002505660441
4884000000.0 0.48932804218756804 -0.9109485174824917
4888000000.0 0.508667696018078 -0.8947285096364543
4891000000.0 0.5080760072227253 -0.9241382760230717
4894000000.0 0.4594735221583166 -0.901792003571604
4897000000.0 0.5114565395596441 -0.8920575204258464
4900000000.0 0.4910307752875934 -0.9183889565923506
4903000000.0 0.5006638107101877 -0.9323882475082853
4906000000.0 0.5046940666467178 -0.9381517945155801
4909000000.0 0.46933026208087203 -0.9214960354744155
4912000000.0 0.5145919577083753 -0.9337379502432988
4916000000.0 0.5177996378567957 -0.9246080796701419
4919000000.0 0.5125472704944001 -0.9198052113670664
4922000000.0 0.5173891158620121 -0.9243684570784605
4925000000.0 0.44470685257284354 -0.8995321181718379
4928000000.0 0.5387264335016122 -0.8677686755911853
4931000000.0 0.5076651975042291 -0.8946637951233556
4934000000.0 0.4779084210983894 -0.8578302723033508
4938000000.0 0.4631822467557916 -0.9153953608732766
4941000000.0 0.499603662821836 -0.9083475191206402
4944000000.0 0.4978269464108264 -0.8525173058996625
4947000000.0 0.47591521549473104 -0.8966393568510006
4950000000.0 0.5024470212599816 -0.8935237855267538
4953000000.0 0.4616297329681103 -0.9930515175180729
4956000000.0 0.4681720342939345 -0.9311982121496325
4959000000.0 0.4647724803980381 -0.8846103326088249
4962000000.0 0.4952710986747094 -0.928461962923189
4966000000.0 0.5244316594391876 -0.930058065175889
4969000000.0 0.5493677189974535 -0.9235139430768702
4972000000.0 0.48181880721033554 -0.9325386695720317
4975000000.0 0.4965861225150999 -0.89020693376362
4978000000.0 0.468984108659355 -0.9223692254851893
4981000000.0 0.45952419212066664 -0.9272210826049374
4984000000.0 0.49317461414888036 -0.8526120009346378
4988000000.0 0.5035414038029968 -0.8885587240007647
4991000000.0 0.5882966890887388 -0.9157658151408401
4994000000.0 0.505595844281231 -0.8902054522380338
4997000000.0 0.4518736224977872 -0.9476646996115836
5000000000.0 0.48291349273712875 -0.9236950309738227
5003000000.0 0.5132103882954522 -0.9397259711265504
5006000000.0 0.5179263106706675 -0.9509207310314396
5009000000.0 0.4820180633099016 -0.9115281624572512
5012000000.0 0.500196753584732 -0.9187047910715782
5016000000.0 0.5262484847549799 -0.9292545959690519
5019000000.0 0.4703113839271015 -0.8831505845183596
5022000000.0 0.5030015442550881 -0.9083068019228865
5025000000.0 0.5076935360654029 -0.9809945486984266
5028000000.0 0.4718563576662955 -0.9386584594136673
5031000000.0 0.4958777357280957 -0.90153030240079
5034000000.0 0.4630136371096436 -0.967566288416045
5038000000.0 0.4718112121824025 -0.8813176443617332
5041000000.0 0.5378218146707008 -0.90488138412535
5044000000.0 0.5127445136975446 -0.8810196231835091
5047000000.0 0.49784928572904596 -0.9390507097424159
5050000000.0 0.5914356603227469 -0.8611562897579753
5053000000.0 0.4983007351026554 -0.9624593056038603
5056000000.0 0.5526627994560188 -0.9096644419475599
5059000000.0 0.5399523927087687 -0.8537399150769546
5062000000.0 0.49783234211161903 -0.9097784053986294
5066000000.0 0.5149334713161099 -0.8692044052887122
5069000000.0 0.4782057801953846 -0.8845914659397327
5072000000.0 0.5069332431265613 -0.8623196652116769
5075000000.0 0.5416375532662276 -0.8881096192951132
5078000000.0 0.5088854098402726 -0.9325227627631375
5081000000.0 0.47316844495462396 -0.8510253434975366
5084000000.0 0.527409157507671 -0.9322896618487659
5088000000.0 0.5329450278476937 -0.854760387844316
5091000000.0 0.4800993905060642 -0.9732142922937683
5094000000.0 0.5135807149517619 -0.9172505932320414
5097000000.0 0.5533349290947144 -0.9081357983976932
5100000000.0 0.498571686091261 -0.895945063204623
5103000000.0 0.48909352754768554 -0.9045026873353141
5106000000.0 0.5339762615845911 -0.9498883706163372
5109000000.0 0.5749582123091679 -0.86172500127218
5112000000.0 0.5048030725920585 -0.8734714834433929
5116000000.0 0.4702179254996144 -0.8806206280671063
5119000000.0 0.5238579725624747 -0.9272386764826187
5122000000.0 0.5271937991034309 -0.8600308051327173
5125000000.0 0.5242906321773789 -0.8807339976897877
5128000000.0 0.47980911110149627 -0.8796307764325282
5131000000.0 0.47671237648787795 -0.8806171261182347
5134000000.0 0.5339955543734384 -0.8791224989800277
5138000000.0 0.5391179447002677 -0.9122073823081653
5141000000.0 0.5691290414300149 -0.844263727525583
5144000000.0 0.5479769521406611 -0.9042182469824411
5147000000.0 0.5107324190729583 -0.9007757927010407
5150000000.0 0.5460939101362591 -0.8812345218195708
5153000000.0 0.5198459799395003 -0.9397063255184162
5156000000.0 0.5441670453936447 -0.8860567737201155
5159000000.0 0.5711082413781996 -0.9409440414509442
5162000000.0 0.5376031065090339 -0.8838540903789412
5166000000.0 0.5023445758238408 -0.9326416984897936
5169000000.0 0.5273695416142133 -0.9172662144799616
5172000000.0 0.5213993292875198 -0.9031517616612905
5175000000.0 0.5839045056863325 -0.9141830636710804
