! Created with skrf 1.8.0 (http://scikit-rf.org).
# Hz S RI R 50.0 
!freq ReS11 ImS11
4000000000.0 0.9771548569662772 -0.10114903905949163
4003000000.0 1.054513325676416 -0.16719994635058605
4006000000.0 1.0198712671287482 -0.15943684992685958
4009000000.0000005 1.0530580682417443 -0.15045065843730707
4011999999.9999995 1.0111679471038397 -0.151816052553705
4016000000.0 1.027082660461888 -0.22687410469759428
4019000000.0 1.0273862426520506 -0.22618569817971362
4022000000.0000005 1.0368334755117141 -0.09998720621824445
4025000000.0000005 1.0426461512339926 -0.3073973409205957
4027999999.9999995 1.0614412744799846 -0.23958748565099244
4030999999.9999995 0.9343084030023525 -0.1787149910415049
4034000000.0 1.0014665845334103 -0.19815273683554913
4038000000.0000005 0.9955750308148179 -0.2525606599535577
4041000000.0000005 1.026735680369495 -0.1963217336921075
4043999999.9999995 1.0590909934485708 -0.23679601504238088
4046999999.9999995 1.0498723732282655 -0.14342076195362902
4050000000.0 1.056698701368454 -0.27824376966231434
4053000000.0 0.9958835631544849 -0.2704413097079574
4056000000.0 0.9775187694519342 -0.23144504219775874
4059000000.0 1.0158234855566717 -0.1546304555240174
4062000000.0000005 1.0024165914736418 -0.2683228267009885
4066000000.0 0.9186209123211622 -0.209749176952895
4069000000.0 1.0641156089891357 -0.27860952368161407
4072000000.0 1.0298768672961525 -0.17534718804975408
4075000000.0 1.0492221045233103 -0.2174770485629094
4078000000.0000005 1.0244563932875628 -0.28957604707492884
4081000000.0000005 1.0552270349002941 -0.16787624101189746
4083999999.9999995 0.9896578059251181 -0.2526233872008498
4088000000.0 1.019813227093828 -0.20172041564436693
4091000000.0 1.0801809112754834 -0.2606032555139117
4094000000.0000005 1.007913611925152 -0.2527928809221406
4097000000.0000005 1.007560576537799 -0.2532403734989652
4099999999.9999995 1.0110973202922222 -0.28368914660459893
4102999999.9999995 1.0389762757224823 -0.24472819873493878
4106000000.0 1.0328666615730042 -0.3047583135250066
4109000000.0 0.9607627546852249 -0.32338270428188276
4112000000.0 1.007760689209301 -0.2730862352966805
4115999999.9999995 1.0127304785186053 -0.2563945523091899
4119000000.0 0.9989877098919256 -0.3323573158514515
4122000000.0 1.0102256643420908 -0.24535054023373054
4125000000.0 1.0291003223148532 -0.34333762947361063
4128000000.0 0.9625706659713915 -0.3069700697073261
4131000000.0 0.9740371536128283 -0.24651933974754567
4134000000.0000005 1.0137176577011593 -0.26416489018111444
4138000000.0 0.9618481880418027 -0.2453709896847542
4141000000.0 0.9821672425659791 -0.30415316232943834
4144000000.0 0.9683857891383032 -0.29267174271074875
4147000000.0000005 0.9247545856080452 -0.29387150657649913
4150000000.0000005 1.0345358140824485 -0.3001320504313981
4152999999.9999995 0.9884785532455337 -0.3357241447076998
4155999999.9999995 1.0432257489574532 -0.30699506504811946
4159000000.0 0.9794097123855889 -0.2566457619749066
4162000000.0 0.9645508200355289 -0.30223446478681437
4166000000.0000005 0.9838844672383351 -0.3201167352404675
4168999999.9999995 0.9921957064812251 -0.34544893160271173
4171999999.9999995 1.0336503833658914 -0.24436792665825466
4175000000.0 0.985333016550492 -0.2806820802117681
4178000000.0 0.9883095293376778 -0.3219085247420986
4181000000.0 1.0056258461988077 -0.2690070256373239
4184000000.0 1.03760194875963 -0.29094877262073043
4187999999.9999995 0.9839930965700012 -0.3066180136950722
4191000000.0 0.9804392284495829 -0.2765542284809069
4194000000.0 0.9585659691245365 -0.2946658996733147
4197000000.0 0.992491801506886 -0.3223817637995806
4200000000.0 0.9701523714222057 -0.32697021212737554
4203000000.0000005 0.9748084109490638 -0.29355710069608865
4206000000.0000005 0.9754170701228128 -0.3304285465466066
4208999999.9999995 0.9725483377795803 -0.2938477784219102
4211999999.9999995 0.9772012911837933 -0.33237648689904387
4216000000.0 0.940893343386058 -0.33476319301492724
4219000000.0000005 0.9728495176967491 -0.29866364603869533
4222000000.0000005 0.9942032604749381 -0.3343716008554233
4224999999.9999995 0.9532283566304445 -0.3304668200808636
4227999999.9999995 0.9995857485880646 -0.3168234624984974
4231000000.0 0.9978087418458106 -0.2967167556778807
4234000000.0 0.9943918541709 -0.30248081212076094
4238000000.0000005 0.9789585211401085 -0.32170507697798195
4240999999.9999995 0.9893736456780341 -0.3194770356627462
4244000000.0 0.9732139865522136 -0.2875781817438652
4247000000.0 1.0069534849186217 -0.3078064557570617
4250000000.0 0.9810790167850201 -0.35287508864331263
4253000000.0 0.9692930555476198 -0.2988522868247224
4256000000.0 0.9375397139573334 -0.3220771284405908
4259000000.0000005 0.9723202322680515 -0.3341200987672657
4261999999.9999995 0.9726010411130608 -0.34327564929981963
4266000000.0 0.9647490932131183 -0.3229461699696252
4269000000.0 1.0068295772023799 -0.3406901874470916
4272000000.0000005 0.9848116703020242 -0.36086616936034266
4275000000.0000005 0.9848836145844895 -0.36007785913065005
4277999999.9999995 0.9536634940475701 -0.3464709074884759
4280999999.9999995 0.9604762988857947 -0.3302910389583446
4284000000.0 1.0001066748912644 -0.353558668484509
4288000000.0000005 0.9879896960415623 -0.33143653917808896
4291000000.0000005 0.9752978879061246 -0.32276004850396517
4293999999.9999995 0.9623823557136901 -0.33506089452788884
4297000000.0 0.9633242663970463 -0.35369073673455026
4300000000.0 0.9549059514436964 -0.3557620270775591
4303000000.0 0.9677819960099354 -0.3449462391708108
4306000000.0 0.9943163282469581 -0.3379329406461538
4309000000.0 1.0054409455705375 -0.33619134469799583
4312000000.0 1.0007983862350607 -0.3305587727304564
4316000000.0 0.9317010979070603 -0.3240798483363954
4319000000.0 0.9532772886735753 -0.36108720531115385
4322000000.0 0.9230730270969656 -0.37917846657070114
4325000000.0 0.9647117145710729 -0.3549197621238353
4328000000.0 0.9311662641209995 -0.3612958621474613
4331000000.0 0.9588795378010503 -0.35626226598471794
4334000000.0 1.004881749516246 -0.3701283013062957
4338000000.0 0.9476406221297786 -0.3224140847293211
4341000000.0 0.9527109325525696 -0.3590117565722338
4344000000.0 0.9775539623834717 -0.3791693155848267
4347000000.0 0.9368831345599375 -0.3885470175666759
4350000000.0 0.9145883013485108 -0.3345380960954014
4353000000.0 0.93888407037627 -0.34189201226192917
4356000000.0 0.9664514697725726 -0.3656116853858315
4359000000.0 0.9398625593668526 -0.35946772521084946
4362000000.0 0.9209229014626301 -0.42820303624995776
4366000000.0 0.9356853785722774 -0.3805689533846765
4369000000.0 0.9092400606536665 -0.4040011326763328
4372000000.0 0.9195863780660718 -0.44142836738159263
4375000000.0 0.9275545811599046 -0.38139090757293775
4378000000.0 0.914475543907605 -0.3701709965486665
4381000000.0 0.9255658581587924 -0.36182738686575155
4384000000.0 0.968654450997163 -0.38441301297634134
4388000000.0 0.9314233337017359 -0.37388741292677535
4391000000.0 0.9453110002620502 -0.3539130560752415
4394000000.0 0.9074520012392663 -0.3758290022563046
4397000000.0 0.9259799657077218 -0.35748213376326493
4400000000.0 0.9669668794797946 -0.3995186799581596
4403000000.0 0.9492694214130976 -0.36865872417804185
4406000000.0 0.9264202135117341 -0.4115085898726845
4409000000.0 0.9681310972334897 -0.4043901509686535
4412000000.0 0.9210742538536345 -0.41346560109355
4416000000.0 0.8980054202864538 -0.38464974073103336
4419000000.0 0.9186804435436386 -0.3993520592396277
4422000000.0 0.9429171911003678 -0.37891181716744043
4425000000.0 0.975530513344403 -0.3904404953686091
4428000000.0 0.9306876200739207 -0.4100800411588357
4431000000.0 0.9625905300445856 -0.41426697862183437
4434000000.0 0.9336462751180444 -0.39788948271231633
4438000000.0 0.9548210415487078 -0.38635232375443523
4441000000.0 0.9311079709714336 -0.39476909379721714
4444000000.0 0.9188527728498019 -0.3940261105601516
4447000000.0 0.9146572291795804 -0.3995062955134413
4450000000.0 0.9294255601305702 -0.39362389980827794
4453000000.0 0.9659402710978169 -0.41098473256945073
4456000000.0 0.8985186165385526 -0.40392168357005415
4459000000.0 0.8802877720717982 -0.40648554943417714
4462000000.0 0.9968055370044023 -0.4418974817144592
4466000000.0 0.9446121507997605 -0.434674443406155
4469000000.0 0.9318315963503464 -0.391527450106693
4472000000.0 0.9438319321833996 -0.4550560713697177
4475000000.0 0.8919866465786941 -0.3995860539123652
4478000000.0 0.9575224198622846 -0.4532804170981554
4481000000.0 0.9005209724308348 -0.42220893691125455
4484000000.0 0.8837475838571911 -0.44867029599643665
4488000000.0 0.8936146061327895 -0.4133130916789529
4491000000.0 0.9146091627285828 -0.4449233159081418
4494000000.0 0.9254592488758232 -0.4276913429293492
4497000000.0 0.9077518783945464 -0.40909821389279233
4500000000.0 0.9401394427855617 -0.4035016395427623
4503000000.0 0.9481071865433787 -0.43742096680062637
4506000000.0 0.9068973538870466 -0.42237719572931737
4509000000.0 0.9041501556372666 -0.4263909421426706
4512000000.0 0.8980264344662147 -0.4290523755155857
4516000000.0 0.9197999845834736 -0.41230813845462966
4519000000.0 0.9070394988138197 -0.3985055444024814
4522000000.0 0.9108253644944656 -0.4306820453404441
4525000000.0 0.9212663319242611 -0.40116103404179415
4528000000.0 0.9324669056709128 -0.4482264145411056
4531000000.0 0.913400607330543 -0.41335293307409476
4534000000.0 0.892937574005324 -0.4374588366813868
4538000000.0 0.8791126827204347 -0.4337316045185038
4541000000.0 0.8936053929910441 -0.47478760312933377
4544000000.0 0.8859213826574871 -0.40438181891602354
4547000000.0 0.9140459602885498 -0.4100548755448531
4550000000.0 0.8890252802936222 -0.4624322988453179
4553000000.0 0.9161296221484073 -0.4484587782114543
4556000000.0 0.8592315775054075 -0.44635238888063444
4559000000.0 0.9151579318895405 -0.45862167947461113
4562000000.0 0.9135817276349034 -0.44257223878888025
4566000000.0 0.8934011629656642 -0.47005072800614406
4569000000.0 0.8628965880315939 -0.42976061588603204
4572000000.0 0.9097152913739526 -0.4434009326745422
4575000000.0 0.8926955175074653 -0.48807686469038675
4578000000.0 0.9430065278215012 -0.4600240496934036
4581000000.0 0.9102823480110361 -0.5039336287989923
4584000000.0 0.8816067912064286 -0.4516221783312174
4588000000.0 0.9275929524369886 -0.45496403330960705
4591000000.0 0.9055878101279335 -0.4291416352605103
4594000000.0 0.8852879552231241 -0.468505832588214
4597000000.0 0.9004621683332338 -0.4688607602678492
4600000000.0 0.8364055658696666 -0.47816016858473476
4603000000.0 0.9084676954183503 -0.4671863341805865
4606000000.0 0.8868805698732433 -0.45370102443017823
4609000000.0 0.894459018649837 -0.5065058739863226
4612000000.0 0.9218946778608718 -0.48280533647270685
4616000000.0 0.8753796989055135 -0.4499402077867882
4619000000.0 0.916248596965086 -0.4543957020634135
4622000000.0 0.8985690287984153 -0.44474602437668087
4625000000.0 0.8430708345683025 -0.4628704149043035
4628000000.0 0.856886126709764 -0.42619296199657775
4631000000.0 0.8441223921884778 -0.4949993787263193
4634000000.0 0.882520555510151 -0.46847236667741443
4638000000.0 0.8824034771099357 -0.4689173500576027
4641000000.0 0.8990216549280834 -0.4572858111983864
4644000000.0 0.8827652187884811 -0.490577061391397
4647000000.0 0.897689073577591 -0.47719992531059474
4650000000.0 0.8854802405225257 -0.5049804482063875
4653000000.0 0.9089160230886599 -0.4875558055631358
4656000000.0 0.8460705760430766 -0.4980894203731462
4659000000.0 0.8764564405314319 -0.49945824530483673
4662000000.0 0.8749488518692176 -0.4763595839755822
4666000000.0 0.8645781975679147 -0.47703721453566705
4669000000.0 0.8755795385478045 -0.46475338260080334
4672000000.0 0.8639554707542012 -0.5051873729989896
4675000000.0 0.8397246230029425 -0.5148328611705867
4678000000.0 0.8757451815630413 -0.475847370884752
4681000000.0 0.8602424939078279 -0.5159278557929492
4684000000.0 0.8543722842547103 -0.4917414795170118
4688000000.0 0.863594076353867 -0.4850135753162423
4691000000.0 0.8577748405826482 -0.476401272198138
4694000000.0 0.8849444766934959 -0.5203726351906061
4697000000.0 0.8643524885506211 -0.4772882248669359
4700000000.0 0.8866655528760099 -0.48190831894146446
4703000000.0 0.8904557143973727 -0.5316645288234206
4706000000.0 0.8610648097519323 -0.5117800156501302
4709000000.0 0.8689322905677935 -0.5124580602461483
4712000000.0 0.8602188323852409 -0.48885562547187034
4716000000.0 0.862862999480546 -0.5106719400069221
4719000000.0 0.8884702990694554 -0.5241344345329777
4722000000.0 0.8873883867234316 -0.5125125955406136
4725000000.0 0.8772281290846966 -0.5132318963110162
4728000000.0 0.838182673675925 -0.520645093508791
4731000000.0 0.8799783888211933 -0.5296704592905277
4734000000.0 0.86232700895228 -0.5104246687605577
4738000000.0 0.8863282078923177 -0.5087512458933008
4741000000.0 0.8869848733896853 -0.545188744184502
4744000000.0 0.8398067011370579 -0.5403720943686592
4747000000.0 0.8715219345528327 -0.5146569469463077
4750000000.0 0.8533012337065291 -0.5489122409870111
4753000000.0 0.8642236795791466 -0.5375425148083035
4756000000.0 0.8389139783032747 -0.51523207628264
4759000000.0 0.8743194129517837 -0.5276250084639467
4762000000.0 0.8620763179918617 -0.5134888984541692
4766000000.0 0.839959304365083 -0.5319833397428183
4769000000.0 0.8792867862381659 -0.548144849219528
4772000000.0 0.8725027204311595 -0.5388979714061979
4775000000.0 0.8682333765405216 -0.5498467485118541
4778000000.0 0.8594497491678159 -0.5067690091206828
4781000000.0 0.866246004097573 -0.48874593606395306
4784000000.0 0.8624099789123609 -0.5141120259158525
4788000000.0 0.883465286288803 -0.5310441981080541
4791000000.0 0.8480726806363661 -0.552082224523455
4794000000.0 0.8721687620163865 -0.5114485783291899
4797000000.0 0.850289177363473 -0.5294889312790181
4800000000.0 0.8457510582832763 -0.5376214297808061
4803000000.0 0.8357563455609808 -0.5659559173600774
4806000000.0 0.8803440785955754 -0.539975580013605
4809000000.0 0.8306871628963947 -0.5338342971101032
4812000000.0 0.823197225558924 -0.5259756684482895
4816000000.0 0.8564686713010501 -0.5293181368087054
4819000000.0 0.8724520138614273 -0.5603118180357862
4822000000.0 0.8780022903408072 -0.5642145440092774
4825000000.0 0.8799286961030264 -0.5580745033237803
4828000000.0 0.8389575884710616 -0.5366142075215157
4831000000.0 0.831528654568096 -0.5829701875932837
4834000000.0 0.8523467164089406 -0.5532744443414401
4838000000.0 0.860673985286361 -0.5787090970152919
4841000000.0 0.8254398786863448 -0.552781323916532
4844000000.0 0.8847955331671701 -0.5268758805874537
4847000000.0 0.8294295871988903 -0.5288298741287583
4850000000.0 0.8779072582394902 -0.5692147706436388
4853000000.0 0.8515456770194312 -0.5455639023735877
4856000000.0 0.8402053382135855 -0.5475377009913079
4859000000.0 0.8636204729935499 -0.5966848869192831
4862000000.0 0.8528932786891896 -0.5208901610392521
4866000000.0 0.8689159271381774 -0.5877413474173176
4869000000.0 0.8483357371639748 -0.5723159340214443
4872000000.0 0.8471031657711534 -0.5857205476022019
4875000000.0 0.8983646388498538 -0.565088457891404
4878000000.0 0.8462598636343656 -0.5645256439464811
4881000000.0 0.8607271625988571 -0.6087755320629425
4884000000.0 0.8645429803767544 -0.5572162944318757
4888000000.0 0.8496421327599001 -0.5512332201829971
4891000000.0 0.8742016952480625 -0.5661950455777075
4894000000.0 0.8340015500699967 -0.578569321246885
4897000000.0 0.8608870549953931 -0.5414285962041134
4900000000.0 0.8365675605429617 -0.5711893817462805
4903000000.0 0.8706086543139951 -0.5680287961948076
4906000000.0 0.8592280151404137 -0.5823491476281494
4909000000.0 0.8402351924421245 -0.597830852737386
4912000000.0 0.855984944393243 -0.5708194951321817
4916000000.0 0.866914979219278 -0.5627742644046237
4919000000.0 0.8836653208894092 -0.5711594216604354
4922000000.0 0.8894720918226089 -0.5440551131056004
4925000000.0 0.8244973214836604 -0.5917742168811546
4928000000.0 0.8643603325769741 -0.5177755603407295
4931000000.0 0.8814146210702996 -0.5444274067447658
4934000000.0 0.8091711766414089 -0.5514356005995863
4938000000.0 0.8373399820143481 -0.5708988688640145
4941000000.0 0.8501305386846768 -0.5547738339244688
4944000000.0 0.8244165791325582 -0.5079633857474758
4947000000.0 0.8412442179587987 -0.5434393803570716
4950000000.0 0.8275371737784564 -0.5550218389820041
4953000000.0 0.8521959965832115 -0.6259042856883197
4956000000.0 0.8374542477524287 -0.6096523183005218
4959000000.0 0.829124272618943 -0.5734565150393834
4962000000.0 0.8582279166951439 -0.5694090500251376
4966000000.0 0.8636733331288394 -0.5726681723146813
4969000000.0 0.8930607627544114 -0.5663102565393326
4972000000.0 0.8388531097643224 -0.6016170735737557
4975000000.0 0.8558090590683687 -0.5238303440449071
4978000000.0 0.8272533298902118 -0.6155135446739957
4981000000.0 0.8347642310658824 -0.5895477919721925
4984000000.0 0.8221615013767746 -0.5603370433502948
4988000000.0 0.8394237827578793 -0.5704338288018689
4991000000.0 0.9044523427598935 -0.5421683588931074
4994000000.0 0.8669714992991495 -0.5626849248715838
4997000000.0 0.8318101208590968 -0.5748802588701838
5000000000.0 0.8975777934989485 -0.5677483105208431
5003000000.0 0.8815152051249491 -0.5762962050898575
5006000000.0 0.8987569482268323 -0.588852567674637
5009000000.0 0.8442566656628859 -0.5854608075254022
5012000000.0 0.8515620335277315 -0.5772693569991674
5016000000.0 0.8772479972100364 -0.5458486884487352
5019000000.0 0.8369954246551574 -0.5807637378996359
5022000000.0 0.8492621897970135 -0.5941513631861425
5025000000.0 0.9156021589309216 -0.6051162756714978
5028000000.0 0.8301957179206206 -0.6332084093491653
5031000000.0 0.849557587561172 -0.5801314084991254
5034000000.0 0.8453515055162013 -0.6415373438459424
5038000000.0 0.800323414595291 -0.5879420052908448
5041000000.0 0.8777821565032058 -0.5275303471059379
5044000000.0 0.8377495647853916 -0.541936689060379
5047000000.0 0.8280995524138482 -0.5777668828849977
5050000000.0 0.8770176110549704 -0.5024564666831427
5053000000.0 0.8973129212804393 -0.605501603597587
5056000000.0 0.8846967255334279 -0.5433793798340669
5059000000.0 0.9011359218968219 -0.5275605695273269
5062000000.0 0.8274293786936053 -0.6175263566175175
5066000000.0 0.8647844489038189 -0.5298982683118715
5069000000.0 0.8580226219646004 -0.5711724581380421
5072000000.0 0.8088145218723378 -0.5868956893284291
5075000000.0 0.8591937984218698 -0.5718021814788417
5078000000.0 0.8290728963751752 -0.6315932927671268
5081000000.0 0.8232527724174601 -0.5823881372526053
5084000000.0 0.8685940547951697 -0.605670593978047
5088000000.0 0.8426735218899053 -0.561639995121812
5091000000.0 0.8395678637331815 -0.6269694381407244
5094000000.0 0.8870612962291475 -0.6061706300618201
5097000000.0 0.8948187291579515 -0.5543301885734353
5100000000.0 0.8372993893846771 -0.5636853692776267
5103000000.0 0.8028474971883663 -0.572870181809677
5106000000.0 0.8694466722060654 -0.5847593082369009
5109000000.0 0.8455346688092323 -0.5631063484762502
5112000000.0 0.819840377388481 -0.6043488826395909
5116000000.0 0.8413085234373157 -0.506169796218142
5119000000.0 0.8987148507374173 -0.5380372491659234
5122000000.0 0.8787010376839292 -0.5512789507329785
5125000000.0 0.863606094277261 -0.5761976963499801
5128000000.0 0.8326714019187099 -0.5516879338501633
5131000000.0 0.851846772074878 -0.5505700921560048
5134000000.0 0.8326552706994844 -0.5518532920076725
5138000000.0 0.8825439954997328 -0.5471691478431369
5141000000.0 0.9047147131059754 -0.49818743631236
5144000000.0 0.8795161056006593 -0.5573868515205586
5147000000.0 0.8624207958023836 -0.5390320715802807
5150000000.0 0.8699655063105017 -0.5510138682786481
5153000000.0 0.8238734150953723 -0.5888752478461856
5156000000.0 0.875212044049145 -0.5977239504423985
5159000000.0 0.9211664751747555 -0.5874353836246736
5162000000.0 0.8402428182703413 -0.5691434037306327
5166000000.0 0.8723263517239012 -0.6438769949165287
5169000000.0 0.9358134082615642 -0.585973274999312
5172000000.0 0.8463232873689435 -0.5593638685714113
5175000000.0 0.8979625630283138 -0.6119382822658446
