! Created with skrf 1.8.0 (http://scikit-rf.org).
# Hz S RI R 50.0 
!freq ReS11 ImS11
4000000000.0 -0.22757816859540475 -1.0030792353203988
4003000000.0 -0.25020800553972533 -1.0243774158504277
4006000000.0 -0.2754147999981178 -1.00248053357656
4009000000.0000005 -0.3020457338677883 -0.9926927102530057
4011999999.9999995 -0.23812068374159887 -1.0272299199693535
4016000000.0 -0.2954927170630212 -1.004162465660611
4019000000.0 -0.27202506681992755 -0.9219687386242029
4022000000.0000005 -0.3008704015021123 -1.023796777284308
4025000000.0000005 -0.28558920727464093 -0.9867721978607722
4027999999.9999995 -0.33840766452400584 -0.9361318835783681
4030999999.9999995 -0.28166448285223145 -0.9507593064595398
4034000000.0 -0.31539519722531006 -0.9541454929481047
4038000000.0000005 -0.29793503975418467 -0.9398022286117609
4041000000.0000005 -0.3231683127034618 -0.9640959721966904
4043999999.9999995 -0.33374458696551756 -0.9550213271145872
4046999999.9999995 -0.3487120182879677 -0.9934080950512272
4050000000.0 -0.33693992854266386 -0.9742733852645381
4053000000.0 -0.3382726158708857 -0.9380438864767315
4056000000.0 -0.34773304874421146 -0.9617618733108152
4059000000.0 -0.38381170502663825 -0.9068036922030074
4062000000.0000005 -0.35426843278077613 -0.9244988226176485
4066000000.0 -0.3720231833091845 -0.9499202305272444
4069000000.0 -0.4274371470035885 -0.9256002020390223
4072000000.0 -0.42322885751555794 -0.9010276376848592
4075000000.0 -0.4472345369636623 -0.9265596171083603
4078000000.0000005 -0.4087170057365393 -0.912553005484452
4081000000.0000005 -0.44933189846579 -0.8697872093970435
4083999999.9999995 -0.45208180627974826 -0.8934042959863058
4088000000.0 -0.42586578358417637 -0.861912051554793
4091000000.0 -0.44749845798234256 -0.8879738196528105
4094000000.0000005 -0.44897333182564375 -0.8770795347467122
4097000000.0000005 -0.4729086132605969 -0.8796347868011777
4099999999.9999995 -0.48931036900435954 -0.8593475910929008
4102999999.9999995 -0.4772675927026587 -0.8842076060625763
4106000000.0 -0.5075250385426942 -0.8573204668689892
4109000000.0 -0.4873593298009159 -0.8858579756358069
4112000000.0 -0.5234279232747661 -0.8480699845069649
4115999999.9999995 -0.56283628540353 -0.8333349929767588
4119000000.0 -0.5369311763914973 -0.8593351666171811
4122000000.0 -0.5568019301551932 -0.8024043344331185
4125000000.0 -0.5529855246859432 -0.8173202677767287
4128000000.0 -0.5433099003389757 -0.812994864637371
4131000000.0 -0.5901587301874985 -0.7913699933233689
4134000000.0000005 -0.566680291501764 -0.8146559492412445
4138000000.0 -0.616308403013665 -0.7954561395681258
4141000000.0 -0.5895440980298776 -0.8125470515695461
4144000000.0 -0.5931697876840288 -0.795932915459768
4147000000.0000005 -0.6501711272664156 -0.8105779850629098
4150000000.0000005 -0.6491681255998231 -0.7607918583927785
4152999999.9999995 -0.6101686912704103 -0.7768114939428531
4155999999.9999995 -0.654085672978056 -0.7773518205689429
4159000000.0 -0.6636419384877287 -0.7111797644675673
4162000000.0 -0.6769481425607743 -0.7371474529940762
4166000000.0000005 -0.6939979016446582 -0.7604751504737577
4168999999.9999995 -0.6886635397564189 -0.6834749017445518
4171999999.9999995 -0.7039072110219714 -0.7146465723534785
4175000000.0 -0.724318309287332 -0.7343514137756431
4178000000.0 -0.7164679029999959 -0.7109561901642993
4181000000.0 -0.7325612989914759 -0.6425952399524867
4184000000.0 -0.7018308257450842 -0.6470550872443999
4187999999.9999995 -0.7424733239800979 -0.6430901684231639
4191000000.0 -0.7629513606389062 -0.6601061911239523
4194000000.0 -0.7938189730094914 -0.6319801391445845
4197000000.0 -0.7811602943062265 -0.6345342278818025
4200000000.0 -0.7932890531638009 -0.6484441386581546
4203000000.0000005 -0.8320131312221365 -0.6089167862243179
4206000000.0000005 -0.8045231558887547 -0.6050023928939297
4208999999.9999995 -0.826186258043316 -0.5428521773193986
4211999999.9999995 -0.8495229970514652 -0.5396187422200388
4216000000.0 -0.8609025091245773 -0.5912247056499549
4219000000.0000005 -0.8561060761587114 -0.5360868685523945
4222000000.0000005 -0.8291579804399366 -0.5210377258771106
4224999999.9999995 -0.8700309406832847 -0.47342738257182004
4227999999.9999995 -0.9034305898178301 -0.4668144573683104
4231000000.0 -0.9000171670031442 -0.4511960323473554
4234000000.0 -0.9163731405689473 -0.43459448527352007
4238000000.0000005 -0.9045023780464934 -0.4366986493522541
4240999999.9999995 -0.8998387932672198 -0.3945730759724773
4244000000.0 -0.9103573730805519 -0.40543391847640076
4247000000.0 -0.9301600902894261 -0.361468779732093
4250000000.0 -0.9258127225043677 -0.3516055826693437
4253000000.0 -0.9457332806060298 -0.3500427390532074
4256000000.0 -0.9954255255326935 -0.3091676025898681
4259000000.0000005 -0.962530256736077 -0.2781753523577548
4261999999.9999995 -0.9556341348664924 -0.316414348876995
4266000000.0 -0.9613217657551157 -0.24757209604432295
4269000000.0 -0.9571893046124048 -0.24695207748822834
4272000000.0000005 -0.9639010944588967 -0.21925361586502318
4275000000.0000005 -0.981661355629783 -0.20870882473828797
4277999999.9999995 -0.9930460356870302 -0.1769270929777556
4280999999.9999995 -0.9816330566472219 -0.14612252587222047
4284000000.0 -1.0111917967439688 -0.1294350221279903
4288000000.0000005 -0.98711044830949 -0.11514568988672147
4291000000.0000005 -1.034892752740711 -0.09429089843409127
4293999999.9999995 -1.00186938182644 -0.08414356737034029
4297000000.0 -1.0064287645838057 -0.03411683631766205
4300000000.0 -1.0233398802679439 -0.005491076147632168
4303000000.0 -1.0069480248497888 -0.010250219392216042
4306000000.0 -1.0027436463633435 0.04208998336842884
4309000000.0 -1.0047628391872891 0.07080956541251615
4312000000.0 -1.0291615198621946 0.08552510230639715
4316000000.0 -0.9720974001071011 0.10563581304054048
4319000000.0 -1.030204351364222 0.0901149092764627
4322000000.0 -1.015353106565309 0.16620812334367935
4325000000.0 -0.9982207372576894 0.1628965789775555
4328000000.0 -1.010915656895201 0.21146172044235678
4331000000.0 -0.9802296044948631 0.2285847500163008
4334000000.0 -0.9731714074488836 0.26689314541856685
4338000000.0 -0.9812266721000587 0.29510242261721537
4341000000.0 -0.9487484259198704 0.326926311560354
4344000000.0 -0.9629199109568346 0.3016182564058437
4347000000.0 -0.9669154232438184 0.3436678886503182
4350000000.0 -0.9668077041490482 0.3927584935837347
4353000000.0 -0.9426035367245349 0.43947235206499224
4356000000.0 -0.9644531716270404 0.4052492069893029
4359000000.0 -0.9426164316465344 0.47063198132021505
4362000000.0 -0.9108092755210702 0.41869920764967355
4366000000.0 -0.853718342564326 0.5364790942847149
4369000000.0 -0.9091427047675976 0.5445932772267352
4372000000.0 -0.8763976754420876 0.5494126306360673
4375000000.0 -0.798918689646455 0.5742499995925611
4378000000.0 -0.8599438531784629 0.6547030557759898
4381000000.0 -0.8608253088930568 0.6347312398697628
4384000000.0 -0.7385161497625469 0.5496492998397993
4388000000.0 -0.7562685071056078 0.6747333764970149
4391000000.0 -0.7468692327575139 0.6773264672620101
4394000000.0 -0.8035126379669882 0.7369268676598657
4397000000.0 -0.7297896737443391 0.7381406053526612
4400000000.0 -0.6981745891678703 0.7087881436230631
4403000000.0 -0.6681580801632166 0.6944556749269227
4406000000.0 -0.6549573185785735 0.7643907638598308
4409000000.0 -0.6181360105994389 0.7777249143697265
4412000000.0 -0.7214227274326992 0.7003838660535666
4416000000.0 -0.5903638812116745 0.7776730949779365
4419000000.0 -0.5992228625078354 0.8316143177747789
4422000000.0 -0.5145919814526827 0.8651656920908519
4425000000.0 -0.46598817922345104 0.8764416292174292
4428000000.0 -0.4958350935294071 0.8985691392668066
4431000000.0 -0.4633446678531994 0.8819139640786955
4434000000.0 -0.5038621463571936 0.9029230007257623
4438000000.0 -0.44859431824324436 0.855529557365053
4441000000.0 -0.429082742844829 0.8932551942473181
4444000000.0 -0.4115128047368738 0.974789559924961
4447000000.0 -0.4067473477743045 0.9783318957275453
4450000000.0 -0.29248823028778415 1.0330541924879941
4453000000.0 -0.29357838397915886 0.9045078497602986
4456000000.0 -0.31701498000770256 1.0046199206357107
4459000000.0 -0.32072372185647613 1.0392415887406825
4462000000.0 -0.21812660594119548 0.9727897476826046
4466000000.0 -0.23716849945787816 0.9638680050096041
4469000000.0 -0.22780291290552518 1.0049770597933838
4472000000.0 -0.14164823713874336 0.9799699284677872
4475000000.0 -0.13016626030084144 1.0923999922410368
4478000000.0 -0.18217517201764555 0.9787342902005713
4481000000.0 -0.11822666239400637 1.0422076193116456
4484000000.0 -0.11147616748027406 1.0125633819795508
4488000000.0 -0.05696618956937066 1.0180481446649978
4491000000.0 -0.03570451921067552 1.0422469538944363
4494000000.0 -0.038961889310384135 1.043630545381739
4497000000.0 0.014550082275860465 1.0587373638790665
4500000000.0 0.029657821876811263 0.9889167219667085
4503000000.0 0.04670400569893124 0.9975270947143706
4506000000.0 0.07036147534835951 1.0175992036890373
4509000000.0 0.15008783016397526 0.992896467117632
4512000000.0 0.11739068233789862 1.0032016399873558
4516000000.0 0.14778381326198342 0.9973917640764035
4519000000.0 0.19386590197252218 1.0079019978827628
4522000000.0 0.17260091916401427 1.0251969995523262
4525000000.0 0.22268285573785002 0.9894486698844724
4528000000.0 0.2522657951698419 0.9976407143406337
4531000000.0 0.2674516990707318 0.9581174216489684
4534000000.0 0.2816859097724517 0.9651707709008148
4538000000.0 0.31220329182519924 0.9792693802960627
4541000000.0 0.33919117146802935 0.9553125160960972
4544000000.0 0.35019573361635764 0.9821121819359511
4547000000.0 0.3663990032432733 0.9605335596519136
4550000000.0 0.3801417946467139 0.9298321431150591
4553000000.0 0.3971600623213806 0.935585360435469
4556000000.0 0.3985601845130385 0.9417762330558662
4559000000.0 0.4294288994555405 0.9026781612987107
4562000000.0 0.47261079758657965 0.9080998124866074
4566000000.0 0.4569479044428959 0.9169295022107466
4569000000.0 0.4500677706687231 0.9019431989455747
4572000000.0 0.5056360547020523 0.851275928895446
4575000000.0 0.5097224763542106 0.8719521479848806
4578000000.0 0.5078200707378245 0.8699124784581745
4581000000.0 0.5529136772711286 0.8524765042149085
4584000000.0 0.5481237062158202 0.8347015967980614
4588000000.0 0.5703561245922508 0.8510549455340302
4591000000.0 0.5571844041957652 0.8316997114708031
4594000000.0 0.5791113695687622 0.845746309659603
4597000000.0 0.6200521649678854 0.8071270110545401
4600000000.0 0.6219148865059962 0.7589158983955047
4603000000.0 0.6403309909012607 0.8187814171495321
4606000000.0 0.6463840127769329 0.7934261162941438
4609000000.0 0.6959890177028001 0.7656076640475109
4612000000.0 0.6845314405292284 0.8133864487001894
4616000000.0 0.6712294616658139 0.7177458362373387
4619000000.0 0.6792449992085381 0.7598434968458094
4622000000.0 0.6762534361123473 0.7340783384209733
4625000000.0 0.6662152882665469 0.6821004843719931
4628000000.0 0.6541972365676549 0.6729997886522929
4631000000.0 0.7534400904865517 0.6729084732564372
4634000000.0 0.7431417419417641 0.6952720342999478
4638000000.0 0.7587801542609207 0.6906668767617797
4641000000.0 0.7464737944168156 0.7163806508294236
4644000000.0 0.7673865524724304 0.675106836981491
4647000000.0 0.7635552044014478 0.6622766980428261
4650000000.0 0.8149777812709971 0.6216543849878036
4653000000.0 0.8028496615043598 0.6081958666726425
4656000000.0 0.8165682256435107 0.5702516218772158
4659000000.0 0.7879201247069154 0.6125196653690066
4662000000.0 0.789035258733071 0.6066842388108761
4666000000.0 0.793937147313373 0.6064145039753677
4669000000.0 0.7842168752504792 0.5816030488614142
4672000000.0 0.8499402735444402 0.5411490376006546
4675000000.0 0.8188656214641593 0.4852510360671722
4678000000.0 0.8402675461156167 0.5434871194086031
4681000000.0 0.8766017203781542 0.5002547133834395
4684000000.0 0.7845582467588795 0.48388039992530296
4688000000.0 0.8250016550284398 0.5526233706436152
4691000000.0 0.8121318834271228 0.4904730034745175
4694000000.0 0.9032332985029411 0.45781026889591026
4697000000.0 0.9122977788598712 0.5019013533447617
4700000000.0 0.8943158051908666 0.5042799618384072
4703000000.0 0.9757055316405693 0.4388851822757821
4706000000.0 0.8425274325857631 0.4935909404776232
4709000000.0 0.8662587082157431 0.4268833115365547
4712000000.0 0.9101553243049146 0.39873254080635673
4716000000.0 0.8969539162257855 0.4240008344102604
4719000000.0 0.9302243698825838 0.3924321333096879
4722000000.0 0.9442003944103106 0.42187542907063935
4725000000.0 0.926903337911463 0.3634668989051778
4728000000.0 0.9223309827769087 0.3695348978234762
4731000000.0 0.9166931766859073 0.38410734518450546
4734000000.0 0.932596916460933 0.36952861151535193
4738000000.0 0.9092217756123212 0.32228901711256136
4741000000.0 0.8989082056264354 0.3317510119387327
4744000000.0 0.948786968686013 0.30861367280010754
4747000000.0 0.9865391746084964 0.33040208281731875
4750000000.0 0.9249658639384634 0.2733479795180736
4753000000.0 0.9867568509297743 0.2835857608671112
4756000000.0 0.9225211384417384 0.26060163729559926
4759000000.0 0.9617459447859164 0.2589597517646655
4762000000.0 0.9246760239811318 0.30264821982424467
4766000000.0 0.9377718520711141 0.2490022059753508
4769000000.0 0.978561061096164 0.2800997512906046
4772000000.0 0.9733051552556432 0.2490795873120591
4775000000.0 0.9566029431240181 0.22636369983960516
4778000000.0 0.9352039766095308 0.27414630238862214
4781000000.0 0.9864730603088187 0.25714656996447927
4784000000.0 0.974188005997965 0.25615295456183773
4788000000.0 0.973251142818132 0.26643326706071996
4791000000.0 1.0054825359828927 0.1860502273689993
4794000000.0 0.9537777384156558 0.18759154483987714
4797000000.0 1.0019466621737176 0.17837804047146083
4800000000.0 0.9763870685837208 0.15174447127757693
4803000000.0 0.9617766471651767 0.20588465305646478
4806000000.0 0.9809896194804703 0.1704012212036488
4809000000.0 0.9475456666972174 0.1637838104138482
4812000000.0 1.0062383281942902 0.18880592378700106
4816000000.0 0.9979175672355984 0.1422123809922942
4819000000.0 1.0080784045355782 0.12923980381604536
4822000000.0 0.9980582218744919 0.1332538119804631
4825000000.0 0.9781182146494 0.12484734165560671
4828000000.0 0.9624154766708324 0.1327457711083574
4831000000.0 1.0020552619807686 0.12976573540505204
4834000000.0 0.9910777547803293 0.10435994570906812
4838000000.0 1.0325679728670956 0.10509289013545259
4841000000.0 1.0193112820869095 0.07942395709638883
4844000000.0 1.0014776731712858 0.11037538863925683
4847000000.0 1.001256043772194 0.08431218980278155
4850000000.0 0.9814830925982261 0.08468098281263176
4853000000.0 1.0099809875799173 0.0828577602144771
4856000000.0 1.0034490559660427 0.07005849205177572
4859000000.0 0.9955373361295664 0.05566972782683033
4862000000.0 1.0032135489257266 0.053145488120737105
4866000000.0 1.0021521204700155 0.04771206982122689
4869000000.0 1.0049989670349475 0.023029583617769633
4872000000.0 0.9955552564015596 0.011900681860972206
4875000000.0 1.0127711659086496 0.03491757892393155
4878000000.0 0.9980732669859698 -0.00032773770830646365
4881000000.0 1.0324458621340824 0.02285676330876879
4884000000.0 1.011270450056723 0.018917385656588792
4888000000.0 1.0277758263089132 0.032939403114939814
4891000000.0 1.0153479063435047 0.012017781026582353
4894000000.0 0.9957114059192759 -0.00902026452162552
4897000000.0 1.0004945908094327 -0.018437846501786315
4900000000.0 1.0002485964619319 -0.045854216910640955
4903000000.0 1.0160774816953806 -0.00932765275962999
4906000000.0 1.009977915985802 -0.02978307648779943
4909000000.0 1.0037426384314516 -0.0615608078501817
4912000000.0 1.0132460008273163 -0.04941296882138885
4916000000.0 1.017539081067315 -0.025824333510182707
4919000000.0 1.002039509858081 -0.032388723238576944
4922000000.0 1.015699607172092 -0.04989273267922789
4925000000.0 0.9930999920311443 -0.05324609177541462
4928000000.0 1.0025281612049801 -0.040101650075103856
4931000000.0 1.0087646268190134 -0.030161463768300978
4934000000.0 0.98217834995422 -0.052322340716282056
4938000000.0 0.9848474104031726 -0.09135777165831555
4941000000.0 0.997803470671105 -0.07881037009479325
4944000000.0 0.9485763986041387 -0.0866929623922933
4947000000.0 0.9537793606725095 -0.08339760210121644
4950000000.0 0.9946300559870158 -0.10254662369861006
4953000000.0 1.0169470615013847 -0.1455109389486962
4956000000.0 1.0244072856021638 -0.10842255963372993
4959000000.0 0.9967244285830452 -0.14269517325879044
4962000000.0 1.0071354204825684 -0.1369440429844122
4966000000.0 0.9947838345806042 -0.11216107790821828
4969000000.0 1.0280509997371277 -0.10947904841298911
4972000000.0 1.0218643558882965 -0.1377815728283328
4975000000.0 0.9962172098260925 -0.10403235781486758
4978000000.0 0.9765884164937726 -0.14874628500841047
4981000000.0 0.9870990275068448 -0.14433812181272837
4984000000.0 0.993659804953898 -0.11173826404911219
4988000000.0 0.9799583118658723 -0.11796564061137693
4991000000.0 1.0233488902115393 -0.09409752234121654
4994000000.0 1.0007528788093616 -0.11075322597938003
4997000000.0 0.9922866131143018 -0.16396134034792537
5000000000.0 1.021198990962944 -0.14766393776672676
5003000000.0 1.0407321349263772 -0.1418492817833769
5006000000.0 1.0295421891022223 -0.14629531944050111
5009000000.0 0.9961255992588807 -0.17428232591847298
5012000000.0 0.9513003725595082 -0.1787461242030025
5016000000.0 1.0065322531490088 -0.1473984740117678
5019000000.0 0.9737650799300546 -0.17869446042300346
5022000000.0 1.001345936231832 -0.1538856952831384
5025000000.0 1.0732626532125855 -0.19992120492238047
5028000000.0 1.0049460669930572 -0.2221021605978068
5031000000.0 0.9824214535849494 -0.19153589200861781
5034000000.0 1.036087851760958 -0.23189963751277143
5038000000.0 0.9759054330600643 -0.21348195853879742
5041000000.0 1.0155762271573505 -0.14874342106297572
5044000000.0 0.9810496464528491 -0.16660036829323482
5047000000.0 1.0080092367856786 -0.18686164970900443
5050000000.0 0.990750100189647 -0.1082834648278006
5053000000.0 1.043259999510366 -0.20623959927132307
5056000000.0 1.011031794160176 -0.1680015036799697
5059000000.0 1.0049048672415681 -0.14281066017841648
5062000000.0 1.004713858530975 -0.2416865843232493
5066000000.0 0.97034527730389 -0.1583689635549091
5069000000.0 0.9941873361140758 -0.21594593131410933
5072000000.0 0.9494433581817487 -0.2309182193884216
5075000000.0 0.9998762238840398 -0.21666900078679446
5078000000.0 0.9881625242145806 -0.28043669960219114
5081000000.0 0.9468231788845538 -0.2412895715868434
5084000000.0 1.001935782308176 -0.24507686341313462
5088000000.0 0.9666744864054888 -0.1933455611233002
5091000000.0 1.0033591433116253 -0.2778483657448319
5094000000.0 0.9856348659893268 -0.2648672799883714
5097000000.0 1.0278323645644758 -0.18383897014355532
5100000000.0 0.9977626984902553 -0.2326069293795428
5103000000.0 0.9826026703042101 -0.257562997039033
5106000000.0 1.0558295813494558 -0.21648648698897527
5109000000.0 1.0090029829198741 -0.22970802586676514
5112000000.0 0.9873795655425506 -0.2591980285406549
5116000000.0 0.9284923697874788 -0.20908305156376808
5119000000.0 0.975075635182616 -0.2304111222799887
5122000000.0 0.9661499345435527 -0.19068646375420772
5125000000.0 1.0023144490710065 -0.2473210674349971
5128000000.0 1.01004916056981 -0.2568753616759445
5131000000.0 0.9328155878379976 -0.2583940086748322
5134000000.0 0.9744802975851949 -0.2376494907178111
5138000000.0 0.9733446508599886 -0.27266861787908636
5141000000.0 0.9897345482151338 -0.2304532704431898
5144000000.0 1.0212064352776093 -0.2389890966444519
5147000000.0 1.042198768643229 -0.23695190707819846
5150000000.0 0.9803863988297726 -0.20215082301037313
5153000000.0 0.9488180852358036 -0.25193923878360097
5156000000.0 1.0377320328443271 -0.25969030588791187
5159000000.0 1.0196878434570231 -0.26628544058475945
5162000000.0 0.9819107024534048 -0.2781557503283012
5166000000.0 1.0467016297303497 -0.32842543015934805
5169000000.0 0.9654271473459227 -0.26994848335008953
