! Created with skrf 1.8.0 (http://scikit-rf.org).
# Hz S RI R 50.0 
!freq ReS11 ImS11
4000000000.0 0.5228507526342421 -0.8332881666440147
4003000000.0 0.5735088698291212 -0.8864756465426966
4006000000.0 0.4951940671943027 -0.87477206844717
4009000000.0000005 0.5493744209181219 -0.8579459998064372
4011999999.9999995 0.6033535569442721 -0.8596304511422173
4016000000.0 0.54048942170329 -0.9441494361418679
4019000000.0 0.5303854551278003 -0.8567683214726074
4022000000.0000005 0.5587890711503134 -0.8563259628874403
4025000000.0000005 0.4756387286492644 -0.9715640707961066
4027999999.9999995 0.501360123052038 -0.9276975855325983
4030999999.9999995 0.5201559677238988 -0.8507663217211885
4034000000.0 0.5095429238583087 -0.9001963047313395
4038000000.0000005 0.49915366906509345 -0.8923243896798163
4041000000.0000005 0.5327941956175426 -0.8933448757975098
4043999999.9999995 0.5339129242299661 -0.8782160636858682
4046999999.9999995 0.565700744198773 -0.931932688554158
4050000000.0 0.49723287515633086 -0.9185241192587337
4053000000.0 0.5162275411825807 -0.8958768463697879
4056000000.0 0.5393748667305324 -0.8863908674161693
4059000000.0 0.5537484896254307 -0.8394122844180518
4062000000.0000005 0.5175816019025905 -0.9247871171860048
4066000000.0 0.47046809689293867 -0.8354325229210451
4069000000.0 0.507361451886711 -0.8924517583420534
4072000000.0 0.5316885675561788 -0.8776354023197356
4075000000.0 0.5870893121745467 -0.897870651477404
4078000000.0000005 0.569625418172081 -0.9027142361872821
4081000000.0000005 0.5896398637475746 -0.9232554339299585
4083999999.9999995 0.5286499363366511 -0.9057205980706211
4088000000.0 0.5770673299214943 -0.8288928978480876
4091000000.0 0.5574624899230963 -0.9239629943411198
4094000000.0000005 0.5256647465945915 -0.899383915835939
4097000000.0000005 0.5052104294076161 -0.8808033625215689
4099999999.9999995 0.5298086329275602 -0.863625661248242
4102999999.9999995 0.5764325440370691 -0.8753764348180972
4106000000.0 0.5333702381464901 -0.892272387287831
4109000000.0 0.5244740116258115 -0.8902992603467479
4112000000.0 0.47588171570347193 -0.9147431203662683
4115999999.9999995 0.5831609598823239 -0.8788766255572147
4119000000.0 0.5227669784131477 -0.9448731308883092
4122000000.0 0.5388847800809119 -0.8369776837632796
4125000000.0 0.5239446718255809 -0.9396034161902796
4128000000.0 0.535178350966665 -0.8718015275426019
4131000000.0 0.5210287927490511 -0.9039860653414373
4134000000.0000005 0.5390159241385617 -0.8666336213378738
4138000000.0 0.5520980177527524 -0.8649631537098907
4141000000.0 0.543335557430495 -0.8934096675435866
4144000000.0 0.5615711178086346 -0.8861803116295727
4147000000.0000005 0.5307381271519441 -0.8908468032389104
4150000000.0000005 0.5528220376257857 -0.8735271864037892
4152999999.9999995 0.5315737285617423 -0.8872806992707089
4155999999.9999995 0.548528288522837 -0.8784210194941442
4159000000.0 0.5156170017980426 -0.8527406747741075
4162000000.0 0.5426783964904982 -0.8763009441724426
4166000000.0000005 0.5130673551567921 -0.8924508285980729
4168999999.9999995 0.4951733795436323 -0.9094938454276391
4171999999.9999995 0.5448499802505206 -0.876009538833668
4175000000.0 0.5404946051888433 -0.8769422582559975
4178000000.0 0.5436748393961831 -0.8863694750471405
4181000000.0 0.5244332945864572 -0.9041617511854274
4184000000.0 0.5394035211139766 -0.8688913191370895
4187999999.9999995 0.5369420862881791 -0.8696916335347872
4191000000.0 0.5591300821873905 -0.8578868340270546
4194000000.0 0.5115206802308813 -0.8506912532038515
4197000000.0 0.5381245464609288 -0.8880396959547536
4200000000.0 0.5441004085397204 -0.8787331081665704
4203000000.0000005 0.5507618989130795 -0.8747726211624318
4206000000.0000005 0.5567317357902546 -0.8832738594124304
4208999999.9999995 0.5229986323624702 -0.8543920110467726
4211999999.9999995 0.5124935184328403 -0.8937045333944402
4216000000.0 0.5474012421107881 -0.8774734118779758
4219000000.0000005 0.5501491917497454 -0.8722858185283523
4222000000.0000005 0.5231478109260941 -0.9029702782080783
4224999999.9999995 0.5451306313077198 -0.8623588083158423
4227999999.9999995 0.5292712722259625 -0.8762947199691935
4231000000.0 0.5291336999133249 -0.8797329772608695
4234000000.0 0.519216592722801 -0.8865984021624926
4238000000.0000005 0.5231883576568861 -0.878775166611926
4240999999.9999995 0.509201647258656 -0.8766987449662405
4244000000.0 0.5300023166497785 -0.8522816301097637
4247000000.0 0.5359700918558402 -0.8576074968553521
4250000000.0 0.5075609881205767 -0.861436688268256
4253000000.0 0.5061851622484043 -0.8552362853091122
4256000000.0 0.5441979646049392 -0.8920062931398717
4259000000.0000005 0.5064043637189065 -0.8324010193714826
4261999999.9999995 0.5021240684976453 -0.8775172957738714
4266000000.0 0.5263728860182685 -0.8854666451418255
4269000000.0 0.5377655676693098 -0.8679529120533118
4272000000.0000005 0.5064307463952882 -0.8763421119016885
4275000000.0000005 0.5340490495249967 -0.8782934571318772
4277999999.9999995 0.5265692010787622 -0.8975091293381073
4280999999.9999995 0.5374581464492705 -0.8531628780611892
4284000000.0 0.49923294097243637 -0.8810617364650564
4288000000.0000005 0.5589639215699853 -0.8504208645006591
4291000000.0000005 0.49312039845330247 -0.854105644692794
4293999999.9999995 0.5246043823061027 -0.8837806848162307
4297000000.0 0.5369042233374353 -0.8580380481743792
4300000000.0 0.5318835708065554 -0.8497890272311762
4303000000.0 0.5170910713344525 -0.8619964325131654
4306000000.0 0.5474101270081718 -0.8681400179236759
4309000000.0 0.5054778375886809 -0.8534073670375835
4312000000.0 0.5532846349120764 -0.8734992813706017
4316000000.0 0.5314084935005201 -0.8686538923709065
4319000000.0 0.5163514305128267 -0.8455667609967467
4322000000.0 0.5125908226222606 -0.8675504423864843
4325000000.0 0.5397194470589144 -0.8795332632027313
4328000000.0 0.5310521734425622 -0.8746091615459908
4331000000.0 0.5022545477755659 -0.8802732840809631
4334000000.0 0.5236903595637726 -0.906171392351088
4338000000.0 0.5635399863490299 -0.8614675523658062
4341000000.0 0.576713942003083 -0.8822727148104271
4344000000.0 0.5353466082308622 -0.8932947810753684
4347000000.0 0.5169508942094655 -0.9059337406230665
4350000000.0 0.4993231266196079 -0.822304216598888
4353000000.0 0.5365488825371062 -0.8421243819444034
4356000000.0 0.49349430498786373 -0.8666715720791576
4359000000.0 0.5002729117768556 -0.8341420309710283
4362000000.0 0.4713966981022331 -0.89863229928561
4366000000.0 0.5250887826519296 -0.9061179451688278
4369000000.0 0.48116801771249335 -0.860072537873425
4372000000.0 0.4578959316508663 -0.8804478269388861
4375000000.0 0.5345352211410982 -0.8729510390674086
4378000000.0 0.490124497437765 -0.8606963428836244
4381000000.0 0.5177174037851519 -0.8411725764625482
4384000000.0 0.5344337389371582 -0.9410975655075391
4388000000.0 0.5229309221287887 -0.8430776817388361
4391000000.0 0.5177182091983168 -0.8629972060892083
4394000000.0 0.49326929047163415 -0.8459941646102165
4397000000.0 0.48885204376549274 -0.8557251702497759
4400000000.0 0.5202374543349322 -0.8922420727260848
4403000000.0 0.5247888291389505 -0.8785306274590257
4406000000.0 0.4937619739256195 -0.8823585411414587
4409000000.0 0.5365242434654607 -0.9133037902260815
4412000000.0 0.4639833579603637 -0.889706773767461
4416000000.0 0.4936829439432658 -0.8570801934949713
4419000000.0 0.496295823191802 -0.8834390641306531
4422000000.0 0.515035184411152 -0.8537751784913699
4425000000.0 0.5353789088421219 -0.8792781009166469
4428000000.0 0.49719883263565345 -0.8698429644720667
4431000000.0 0.5256613195247385 -0.8946656250602232
4434000000.0 0.5024825056876753 -0.8697815485004552
4438000000.0 0.5162166578698133 -0.8910705213261685
4441000000.0 0.5262130381788784 -0.875726560814419
4444000000.0 0.4965889279243373 -0.8486406105019134
4447000000.0 0.48562764784532086 -0.8880787967192084
4450000000.0 0.5088019704536956 -0.8477140710286347
4453000000.0 0.5082802667240607 -0.8992082316475347
4456000000.0 0.4883422506732831 -0.8580644387737513
4459000000.0 0.4656574014050521 -0.8600746518232876
4462000000.0 0.5369111939939419 -0.9404303050264122
4466000000.0 0.511217465215757 -0.9050203810677333
4469000000.0 0.5285926200649247 -0.8789420473600107
4472000000.0 0.5079707409819438 -0.896636372266572
4475000000.0 0.4952272367168058 -0.8628640556544145
4478000000.0 0.5131892388242787 -0.9188724917543518
4481000000.0 0.47677648994012367 -0.8681555029222401
4484000000.0 0.46616741756938646 -0.8783036660907375
4488000000.0 0.4939743749257359 -0.8667902790382788
4491000000.0 0.5062438073743013 -0.8842849149608907
4494000000.0 0.48838162682946995 -0.8559150953330923
4497000000.0 0.5003888106412995 -0.8586517357738556
4500000000.0 0.4971935782019991 -0.8882020647836908
4503000000.0 0.5088778860218737 -0.9139234356039273
4506000000.0 0.470693915873565 -0.8819258350514556
4509000000.0 0.48025913545801074 -0.8684872279610787
4512000000.0 0.4644428114330291 -0.8699895781544145
4516000000.0 0.5184696277716321 -0.8830225783352954
4519000000.0 0.4785021294346162 -0.853444380386978
4522000000.0 0.49674374675746674 -0.8676891201497312
4525000000.0 0.5183522833306251 -0.8526997098927993
4528000000.0 0.5171991195991847 -0.9086910530884653
4531000000.0 0.5049728879659621 -0.882070991336508
4534000000.0 0.47537151616789397 -0.8661685394502725
4538000000.0 0.4950310739025568 -0.8780454286660812
4541000000.0 0.4485050546263656 -0.8876530870837589
4544000000.0 0.4708442127381623 -0.8695576215520435
4547000000.0 0.4913729476509865 -0.8514303767546607
4550000000.0 0.48927773657514384 -0.8970079126007647
4553000000.0 0.4612060436524571 -0.9091250150538351
4556000000.0 0.46562870232221065 -0.875400874845305
4559000000.0 0.47173369082447175 -0.9044869584218942
4562000000.0 0.505994355587144 -0.8885734478583109
4566000000.0 0.4969059589240168 -0.8900667420905032
4569000000.0 0.4644733178375423 -0.8733927692662316
4572000000.0 0.49408756762977224 -0.8844750711249563
4575000000.0 0.4904135611177273 -0.9105641728298819
4578000000.0 0.5174011373808669 -0.9184195405078718
4581000000.0 0.4729387342853493 -0.8906950412231287
4584000000.0 0.47574567541362905 -0.8856187243699752
4588000000.0 0.5030219459908292 -0.9103583041088774
4591000000.0 0.5044154626581657 -0.8652535870688589
4594000000.0 0.4716030406012618 -0.8929840633024115
4597000000.0 0.4915170946153554 -0.8973879450897586
4600000000.0 0.46772696886795384 -0.8884711190877191
4603000000.0 0.46843348487477265 -0.8885547750389572
4606000000.0 0.4905719120479696 -0.8970718540744327
4609000000.0 0.48236884637397137 -0.8895209732475962
4612000000.0 0.4869631142604335 -0.9034021905748206
4616000000.0 0.4645700295557809 -0.8989498239113071
4619000000.0 0.48329385580640877 -0.8883567625256743
4622000000.0 0.46531120421350586 -0.9011130447084419
4625000000.0 0.4445556060500112 -0.8900980825512299
4628000000.0 0.4781320732085983 -0.8971623514318254
4631000000.0 0.4503341798188657 -0.906157936091476
4634000000.0 0.4547830487244469 -0.8836642138903548
4638000000.0 0.4784780734053581 -0.9038451587112545
4641000000.0 0.48417162763062926 -0.9180553735591589
4644000000.0 0.45437057151055704 -0.9002974841327649
4647000000.0 0.4835961727748289 -0.8889378922791513
4650000000.0 0.44081978136137445 -0.8944571237129326
4653000000.0 0.4884330760706588 -0.8958600119398064
4656000000.0 0.454539417077951 -0.8989300153053831
4659000000.0 0.4385994601213885 -0.917478553136704
4662000000.0 0.46646328472242093 -0.9115053538545711
4666000000.0 0.46343189709118143 -0.8974519872378592
4669000000.0 0.4684270515393647 -0.8884708566054342
4672000000.0 0.4520682626915161 -0.9185200049622488
4675000000.0 0.4503407171152952 -0.9290815115423634
4678000000.0 0.4477058865905523 -0.8829909898660668
4681000000.0 0.4558207752405089 -0.9176378989108903
4684000000.0 0.4506828953271999 -0.910005749222454
4688000000.0 0.4418851747932965 -0.9034237120159411
4691000000.0 0.4864605167204797 -0.8994828082086782
4694000000.0 0.4797305671728523 -0.8951207725815669
4697000000.0 0.43267360046919273 -0.8854453674204842
4700000000.0 0.4665987226356286 -0.8626216716400648
4703000000.0 0.4817006057186133 -0.8732350996957072
4706000000.0 0.43042706320566126 -0.8979294605429566
4709000000.0 0.43812748181249017 -0.8845242865429318
4712000000.0 0.43256928427820945 -0.9100457583653839
4716000000.0 0.4450924915377096 -0.9259143976442894
4719000000.0 0.4880985982475156 -0.9125888741261502
4722000000.0 0.45969527472590194 -0.8997865908344377
4725000000.0 0.45715848772467876 -0.9057652842998222
4728000000.0 0.44655985286908634 -0.909780485385079
4731000000.0 0.4794336146742433 -0.9185390209393889
4734000000.0 0.47584159539769894 -0.8902225369352492
4738000000.0 0.4947128126271562 -0.953504755950831
4741000000.0 0.4870727962518272 -0.9142559187628544
4744000000.0 0.4706285553353312 -0.9256197936760164
4747000000.0 0.47204199356381626 -0.8952839894864548
4750000000.0 0.45465354444740774 -0.8849564531291755
4753000000.0 0.4711573062937036 -0.8854235632945144
4756000000.0 0.4657445457454568 -0.9091499108280127
4759000000.0 0.47212420502426766 -0.9171382743473822
4762000000.0 0.42330012144234114 -0.9424357661791588
4766000000.0 0.4498680528890434 -0.925319057874975
4769000000.0 0.4741164959241577 -0.9561849896392527
4772000000.0 0.48491381091707075 -0.9126333345551279
4775000000.0 0.4383563233450041 -0.9449650079416377
4778000000.0 0.4601713997772787 -0.9483983879414452
4781000000.0 0.46058283261923694 -0.897180223307701
4784000000.0 0.49319510070502864 -0.9156177409526528
4788000000.0 0.48594665810799037 -0.927911271798269
4791000000.0 0.4490874988389604 -0.9188822972488709
4794000000.0 0.48572601881581523 -0.9203497437856936
4797000000.0 0.43216531778125034 -0.9013901858262594
4800000000.0 0.41853909778058707 -0.902928675280885
4803000000.0 0.42831274593668966 -0.9129185465667339
4806000000.0 0.4568369893393755 -0.9372173105084787
4809000000.0 0.4263847704740411 -0.9364177490280107
4812000000.0 0.42506987825257536 -0.9080599815325183
4816000000.0 0.4766733480292781 -0.8819782214577113
4819000000.0 0.48023056909409223 -0.9331243256680876
4822000000.0 0.47660000225100074 -0.9384194194465866
4825000000.0 0.4804802321109898 -0.9056005816390056
4828000000.0 0.4547260622869611 -0.9022076084946893
4831000000.0 0.4357287333803142 -0.9672141209882106
4834000000.0 0.4931868197787849 -0.9166336765295211
4838000000.0 0.4388045379003864 -0.9360174987873884
4841000000.0 0.42952662314253065 -0.916568829411372
4844000000.0 0.49490932406416305 -0.9147900715777543
4847000000.0 0.47323618555926206 -0.8734448495867736
4850000000.0 0.43689252029908393 -0.9750501676797579
4853000000.0 0.45441441955191564 -0.8990492744745975
4856000000.0 0.47054893488265204 -0.8983562485015691
4859000000.0 0.47935955183377665 -0.9561327799836855
4862000000.0 0.4622224967111007 -0.8854681154034565
4866000000.0 0.4549825957576221 -0.9413890289045534
4869000000.0 0.44355594418485556 -0.9095353362941402
4872000000.0 0.4728010810327529 -0.9584167398463401
4875000000.0 0.5046702491167956 -0.9344992174465777
4878000000.0 0.45995784483682467 -0.9351731981225001
4881000000.0 0.4809996714090081 -0.976098825214677
4884000000.0 0.4688471590610511 -0.9023603693095305
4888000000.0 0.4921047099036981 -0.9104522498608696
4891000000.0 0.509399345354724 -0.9321736728071606
4894000000.0 0.45752898521702756 -0.920091002520958
4897000000.0 0.4761582825553511 -0.8979521701430815
4900000000.0 0.46075345407565554 -0.9471581944787645
4903000000.0 0.4722256738552561 -0.9428409228561885
4906000000.0 0.4808008638125689 -0.9567566739126311
4909000000.0 0.4296064062127726 -0.940409738904472
4912000000.0 0.4578843751372276 -0.9309842390540599
4916000000.0 0.48381050710013984 -0.9429110321057713
4919000000.0 0.4703792057027055 -0.900290468837577
4922000000.0 0.48630548921499894 -0.9323766707915899
4925000000.0 0.43709747660280285 -0.9393436172204316
4928000000.0 0.5168249639088026 -0.885748429155745
4931000000.0 0.4779811298356663 -0.9329393898162335
4934000000.0 0.4454186579893772 -0.8507790238887932
4938000000.0 0.40724944688210674 -0.9270983960546046
4941000000.0 0.4693870695134152 -0.8948758818050173
4944000000.0 0.43768149911770043 -0.8657634565838528
4947000000.0 0.42183390696220585 -0.9060346716654508
4950000000.0 0.43424451332403713 -0.9122551839923562
4953000000.0 0.4547095358044808 -0.9949952467364787
4956000000.0 0.44729652494872774 -0.9003482908976308
4959000000.0 0.4100474922362344 -0.9170717311070957
4962000000.0 0.47163132699411936 -0.8964614935323585
4966000000.0 0.49127957773725073 -0.9271235224517103
4969000000.0 0.5025228808052417 -0.9929289677926583
4972000000.0 0.47088386306702257 -0.9208398429062328
4975000000.0 0.49952228529506215 -0.8870675861038704
4978000000.0 0.482808441553204 -0.9404363281448724
4981000000.0 0.44046756515671487 -0.9315672764922106
4984000000.0 0.4673095034990161 -0.8927041895919079
4988000000.0 0.4873138555304595 -0.9130620497241807
4991000000.0 0.520572536986844 -0.901979241425531
4994000000.0 0.48445182762151984 -0.9059662152134098
4997000000.0 0.4655945607469093 -0.9559274629115347
5000000000.0 0.5191786239364762 -0.9339151468758761
5003000000.0 0.5104082650057948 -0.9305289199963306
5006000000.0 0.522285871452191 -0.9588276626972002
5009000000.0 0.47445750883616966 -0.9021945061303256
5012000000.0 0.46806916898535017 -0.9254535533187138
5016000000.0 0.5196253035468785 -0.934447068635582
5019000000.0 0.47114929983159154 -0.9275572873392689
5022000000.0 0.4812101880586732 -0.9167040413527614
5025000000.0 0.518684357414664 -0.9893026495156028
5028000000.0 0.46579981728469255 -0.9487899594248834
5031000000.0 0.47885286202942284 -0.944427260072636
5034000000.0 0.4786776459415715 -0.9631024741452823
5038000000.0 0.48210904456083414 -0.9079935221559378
5041000000.0 0.5280330753486511 -0.9221063453282731
5044000000.0 0.4667307925618864 -0.8888696243065615
5047000000.0 0.5104476264770156 -0.9291861422466373
5050000000.0 0.5233567602137476 -0.8383212223243784
5053000000.0 0.48660507141690323 -0.9757606306416273
5056000000.0 0.5189723867958929 -0.9075574311771062
5059000000.0 0.5391053664113183 -0.8934047600456825
5062000000.0 0.46769214861094427 -0.9591723384786717
5066000000.0 0.4828057563585123 -0.8759348972178593
5069000000.0 0.46952828993658 -0.9301326687545954
5072000000.0 0.4777567339729956 -0.8772951304350998
5075000000.0 0.518193411339078 -0.9260652888636859
5078000000.0 0.47981383431068725 -0.9477694886130315
5081000000.0 0.4597163073109263 -0.922736199828403
5084000000.0 0.5189909616192517 -0.9082283708260124
5088000000.0 0.5080281103270876 -0.9044291615318598
5091000000.0 0.455812025806647 -0.9349724288705964
5094000000.0 0.47495013863673113 -0.9314513678771692
5097000000.0 0.5536450665337622 -0.9191910023183023
5100000000.0 0.5207767102564771 -0.9249893413203158
5103000000.0 0.4683175427735131 -0.9006920835716367
5106000000.0 0.5115662877907462 -0.9208004675038722
5109000000.0 0.5577758843656289 -0.8763527010785527
5112000000.0 0.4785250487158368 -0.9249298914025912
5116000000.0 0.46806168510098417 -0.8882604694331256
5119000000.0 0.5377463976397563 -0.9193884679518582
5122000000.0 0.507394109226539 -0.9046980356234601
5125000000.0 0.5064459705645017 -0.885594865532835
5128000000.0 0.47717059609730933 -0.8761160945563327
5131000000.0 0.48596111431855427 -0.8914523701474752
5134000000.0 0.5287016536847825 -0.9092013215905108
5138000000.0 0.5436302738011768 -0.8705137763565897
5141000000.0 0.5461202693855189 -0.9178308297476601
5144000000.0 0.5441795355106895 -0.9333669240963547
5147000000.0 0.5215158741640369 -0.9527198722053027
5150000000.0 0.5759165723240198 -0.9266291899837928
5153000000.0 0.5205004266453025 -0.9078733472503999
5156000000.0 0.5075225423531817 -0.921605970604304
5159000000.0 0.5494059516787133 -0.9609555729675192
5162000000.0 0.4772407824311027 -0.8974858129693513
5166000000.0 0.48149564536027206 -0.9385210477454216
5169000000.0 0.5375515461837622 -0.9140751357475764
5172000000.0 0.4820285201918726 -0.9007136286816935
5175000000.0 0.5412073757988467 -0.9170734059079488
