! Created with skrf 1.8.0 (http://scikit-rf.org).
# Hz S RI R 50.0 
!freq ReS11 ImS11
4000000000.0 0.5005975948616754 -0.8598007985535576
4003000000.0 0.5533576953108775 -0.940071035362869
4006000000.0 0.49323639869669855 -0.9148585718395178
4009000000.0000005 0.4901327462543706 -0.8526761596484442
4011999999.9999995 0.619469078964223 -0.8794249800198641
4016000000.0 0.5123163583257226 -0.9137390707450104
4019000000.0 0.5045527185312575 -0.9115257017207782
4022000000.0000005 0.5919034445130698 -0.8586627183885733
4025000000.0000005 0.526464411427243 -0.9364750211736249
4027999999.9999995 0.5061469471289146 -0.9022125913292025
4030999999.9999995 0.5379940856718216 -0.8463379084509052
4034000000.0 0.5269508918992183 -0.8749165262612961
4038000000.0000005 0.5190195495157248 -0.9180417586867395
4041000000.0000005 0.5263271448772081 -0.8872522637085831
4043999999.9999995 0.5693140957570713 -0.9372353995972723
4046999999.9999995 0.539965732404493 -0.9065839656689713
4050000000.0 0.5155211403968407 -0.9187977040193442
4053000000.0 0.511831321503776 -0.8937618327426554
4056000000.0 0.5269337391140079 -0.9237393614327541
4059000000.0 0.5213217390786851 -0.8662011291464383
4062000000.0000005 0.5330906096631248 -0.8904501989350713
4066000000.0 0.465740674803099 -0.8372710540931924
4069000000.0 0.5126229173066552 -0.9690695187292063
4072000000.0 0.5227752930416827 -0.8852123467622831
4075000000.0 0.5855942986640739 -0.9523956975780887
4078000000.0000005 0.538088290148721 -0.9251346159922942
4081000000.0000005 0.5717802292880968 -0.8817498815282229
4083999999.9999995 0.5366680620180608 -0.902215863932293
4088000000.0 0.5642302569507383 -0.8371254233004831
4091000000.0 0.5570950844415445 -0.8958190352492625
4094000000.0000005 0.5389164069856487 -0.8544923631692045
4097000000.0000005 0.538944086382672 -0.8803044646912576
4099999999.9999995 0.5293562056406134 -0.899466372604777
4102999999.9999995 0.5437949627031595 -0.8950414753503353
4106000000.0 0.5423918472000357 -0.8875259935404238
4109000000.0 0.5102425339495302 -0.9059018356967823
4112000000.0 0.5162203842186679 -0.9270618384253689
4115999999.9999995 0.524019613832748 -0.8802056391824633
4119000000.0 0.5396829598107432 -0.8691049125547491
4122000000.0 0.4998183501571007 -0.9137419240643028
4125000000.0 0.5222599347653847 -0.902485450949265
4128000000.0 0.5421499905165765 -0.830493386947217
4131000000.0 0.5218946478734965 -0.9116369330614725
4134000000.0000005 0.5708167938168955 -0.8672590708630705
4138000000.0 0.508219408514088 -0.8947411144278156
4141000000.0 0.5125235947816518 -0.8849389311346036
4144000000.0 0.5430831376011989 -0.8753839963264562
4147000000.0000005 0.5039096511652039 -0.8932353611658994
4150000000.0000005 0.5537946024246809 -0.8789509748028471
4152999999.9999995 0.502461928099936 -0.9108747627535893
4155999999.9999995 0.5509522447572636 -0.9092633935550539
4159000000.0 0.49364822550648524 -0.875652972664846
4162000000.0 0.5186686123404459 -0.869285584493716
4166000000.0000005 0.5024776158914755 -0.8823988499346821
4168999999.9999995 0.5116856550636921 -0.8809880514911475
4171999999.9999995 0.5372467820381471 -0.8811047986486424
4175000000.0 0.5579938040317641 -0.8955772493482018
4178000000.0 0.5436635547931918 -0.9008677111588561
4181000000.0 0.530468769957184 -0.8930110263679756
4184000000.0 0.5139232441991959 -0.8557890836232597
4187999999.9999995 0.5489781589768984 -0.9029535449499423
4191000000.0 0.5411118080770276 -0.8587757188255029
4194000000.0 0.5167192393372532 -0.8628815088614507
4197000000.0 0.5408243950263074 -0.8994083590204008
4200000000.0 0.5403527243680296 -0.8608713487879311
4203000000.0000005 0.5434956252198644 -0.8758469115663796
4206000000.0000005 0.537679800466043 -0.8901075808039438
4208999999.9999995 0.5233664064816805 -0.86055984545065
4211999999.9999995 0.5134524501350057 -0.8942596863534548
4216000000.0 0.540424744341187 -0.8822551824730084
4219000000.0000005 0.5368664301159612 -0.8751724158310514
4222000000.0000005 0.5200005981338629 -0.8809210922163654
4224999999.9999995 0.5422417500615366 -0.8664102688140902
4227999999.9999995 0.5239805149755767 -0.8853893260659018
4231000000.0 0.5290233107416876 -0.8737970270385065
4234000000.0 0.5402923756575274 -0.8814367815690495
4238000000.0000005 0.5288278626440946 -0.8721565654064053
4240999999.9999995 0.5177554074725925 -0.8796125520364675
4244000000.0 0.520833022214477 -0.8785944596279487
4247000000.0 0.5329413895849314 -0.8761445007939399
4250000000.0 0.5323896613970899 -0.8537553892230882
4253000000.0 0.5057296076143738 -0.8529747922565554
4256000000.0 0.5297969279055905 -0.8898937467718702
4259000000.0000005 0.4892945546112766 -0.8547431607941363
4261999999.9999995 0.5147014225346878 -0.8840264509362843
4266000000.0 0.5225608049598351 -0.8860440735028615
4269000000.0 0.5254134750906017 -0.8680772906162031
4272000000.0000005 0.5345783229216325 -0.8722584634812152
4275000000.0000005 0.5296082790060361 -0.8956825337062744
4277999999.9999995 0.5297867498090023 -0.9001662507502991
4280999999.9999995 0.5487752793384598 -0.8520509759584328
4284000000.0 0.4919739548387437 -0.906829785891252
4288000000.0000005 0.5436506338342242 -0.847286131856337
4291000000.0000005 0.5274360073383695 -0.8623716037069331
4293999999.9999995 0.5172053769159015 -0.8606334919854892
4297000000.0 0.515405707381907 -0.8440498821106092
4300000000.0 0.5270729262062122 -0.8605627900856171
4303000000.0 0.48527941092452653 -0.8609153768069179
4306000000.0 0.5198637153170533 -0.8692825656690175
4309000000.0 0.5407836497633585 -0.8781045772543343
4312000000.0 0.5452752196029295 -0.8662229920356124
4316000000.0 0.5382269181690311 -0.8645679869155615
4319000000.0 0.517598119852722 -0.8540914804214162
4322000000.0 0.5082254622234152 -0.8660670804541144
4325000000.0 0.5320311274327933 -0.8430474784993465
4328000000.0 0.5217912560883822 -0.8735763244583592
4331000000.0 0.4982398866271713 -0.9164033547567837
4334000000.0 0.5024196350267213 -0.8934237265495959
4338000000.0 0.5268762157298906 -0.8723087264221515
4341000000.0 0.5546832056456934 -0.8813610795960591
4344000000.0 0.5276814260090611 -0.8823255431221338
4347000000.0 0.4840144125373609 -0.9049878319696517
4350000000.0 0.4885690119373975 -0.8619393476671331
4353000000.0 0.5406889372962127 -0.8315040264434942
4356000000.0 0.4962239980598421 -0.8860982743830728
4359000000.0 0.5078543866585098 -0.8324467052663239
4362000000.0 0.4675901157436851 -0.8860665162460781
4366000000.0 0.5164413370300702 -0.8872127011550694
4369000000.0 0.48929698622467976 -0.8538864534609865
4372000000.0 0.4752966400798645 -0.8733086420032715
4375000000.0 0.524723644457611 -0.8576541555351036
4378000000.0 0.4932438768397829 -0.8472291983197116
4381000000.0 0.5121025652023061 -0.8517878608360402
4384000000.0 0.5278565254679569 -0.9366967750424537
4388000000.0 0.5178087454588259 -0.8569588769959918
4391000000.0 0.5132697097173574 -0.8731587179088486
4394000000.0 0.48398932876576817 -0.8560250967176142
4397000000.0 0.5018841043515481 -0.8642434595498227
4400000000.0 0.5422463244397842 -0.8954673370999886
4403000000.0 0.5096128517843755 -0.873867923999035
4406000000.0 0.49568625897730323 -0.8868829764782464
4409000000.0 0.5241504307786143 -0.9012878978584771
4412000000.0 0.4608169792417136 -0.8947247088516134
4416000000.0 0.48680924998815533 -0.8672970159315585
4419000000.0 0.4902005722575635 -0.8931015795690043
4422000000.0 0.5220019026462017 -0.865572953542089
4425000000.0 0.5372706326840295 -0.8928111922919371
4428000000.0 0.49931241711047913 -0.8851042217608133
4431000000.0 0.5280820478878236 -0.8904528720955367
4434000000.0 0.5018627111319099 -0.8713207449334517
4438000000.0 0.5191843847370714 -0.8970304308978083
4441000000.0 0.5067976458594052 -0.8867848506653875
4444000000.0 0.48579681323035945 -0.8666449371050589
4447000000.0 0.490472472564913 -0.8732439745612328
4450000000.0 0.4962065909318677 -0.8821891529578543
4453000000.0 0.5192881067820458 -0.8878242344157741
4456000000.0 0.48150639266843437 -0.8622460259398463
4459000000.0 0.47239761339416947 -0.853455143226816
4462000000.0 0.5214884088671651 -0.9319427596637242
4466000000.0 0.5272739050142171 -0.9154560661666445
4469000000.0 0.511853848801419 -0.8662858124966631
4472000000.0 0.491134554864158 -0.9075267190815998
4475000000.0 0.49193264545287824 -0.8554073931359044
4478000000.0 0.4923632673462396 -0.9250392275047872
4481000000.0 0.4658059456143205 -0.8684658396305639
4484000000.0 0.46588678728152605 -0.8998991157009694
4488000000.0 0.48598749950377873 -0.8686012184880694
4491000000.0 0.5025981001405722 -0.9063679360280632
4494000000.0 0.48874704254183543 -0.8649857197715516
4497000000.0 0.5045637839477601 -0.8706471883997098
4500000000.0 0.49012547092215497 -0.8865399361747084
4503000000.0 0.502383868164145 -0.9169287906418315
4506000000.0 0.4780169165893972 -0.8652847083578049
4509000000.0 0.48326315498471406 -0.8807311385840435
4512000000.0 0.48517469292409876 -0.85428701288919
4516000000.0 0.5062705111288868 -0.8960073128874939
4519000000.0 0.48286804442158626 -0.8513589923236387
4522000000.0 0.48117054249879987 -0.8921001893108529
4525000000.0 0.5224918374164815 -0.8789067597175424
4528000000.0 0.5004231818222791 -0.9026352694077521
4531000000.0 0.5055078630837944 -0.8601386034381509
4534000000.0 0.4854290723599592 -0.8711503499449469
4538000000.0 0.4945549854004403 -0.88117120342601
4541000000.0 0.45628874885961 -0.8923426087326986
4544000000.0 0.4884628850954872 -0.8694882241975239
4547000000.0 0.4902241594345399 -0.8692205631363187
4550000000.0 0.46310644724343153 -0.8997890845096481
4553000000.0 0.4933884053400597 -0.9155867871210617
4556000000.0 0.4587951276290039 -0.8635583721759919
4559000000.0 0.46746425648681444 -0.9081275848876891
4562000000.0 0.484996688063693 -0.8890527261858798
4566000000.0 0.4680517860651019 -0.9040445268391716
4569000000.0 0.4626984986444176 -0.8824819483510122
4572000000.0 0.48804500557947444 -0.873365979405917
4575000000.0 0.4575280487916883 -0.9085851583359151
4578000000.0 0.5116842021733528 -0.906642287709978
4581000000.0 0.4753287246721661 -0.8918904315527323
4584000000.0 0.4616736979428066 -0.8857029515744763
4588000000.0 0.5064016687083176 -0.9036922096347846
4591000000.0 0.4955907568215082 -0.8920765777187468
4594000000.0 0.46707589586551623 -0.8970861094037599
4597000000.0 0.4680864189346076 -0.907923381862237
4600000000.0 0.4336046961229765 -0.8893474370877795
4603000000.0 0.46722163899688235 -0.9029934976657343
4606000000.0 0.48908118313766924 -0.9043079901744949
4609000000.0 0.4690463021554828 -0.8910662464389913
4612000000.0 0.481655431308081 -0.9070940736350492
4616000000.0 0.45278390651219436 -0.8867219835956602
4619000000.0 0.47921250398897836 -0.8886429845183529
4622000000.0 0.44895207976645163 -0.8838920155631256
4625000000.0 0.4463594326987521 -0.878377390505368
4628000000.0 0.4939321801052742 -0.8887601475663865
4631000000.0 0.4626018157298463 -0.9007468477082907
4634000000.0 0.4555297007438399 -0.8974798835492807
4638000000.0 0.4765285312412806 -0.905954442786976
4641000000.0 0.45996170569749106 -0.9027756842203565
4644000000.0 0.46104651094071913 -0.8930708964008429
4647000000.0 0.49069440972472134 -0.9017043511678862
4650000000.0 0.4457625013462928 -0.894057725321858
4653000000.0 0.4762769648209957 -0.908620726631961
4656000000.0 0.456866288824442 -0.8986358818155695
4659000000.0 0.4684656996448413 -0.8938436065984469
4662000000.0 0.4690007277370505 -0.913257036601287
4666000000.0 0.44385127131912216 -0.9190612363842203
4669000000.0 0.468144245274649 -0.8924108418046565
4672000000.0 0.45472850885653016 -0.9457073095268554
4675000000.0 0.4564044941483965 -0.926559186912775
4678000000.0 0.45029500240393966 -0.8801010240883482
4681000000.0 0.4451974646591105 -0.9190728357469153
4684000000.0 0.4285687743840016 -0.9095649696764914
4688000000.0 0.42822183185913587 -0.9066187414286322
4691000000.0 0.4680060180759429 -0.8871766871016928
4694000000.0 0.4639362224373966 -0.8741622396254866
4697000000.0 0.44984975889522877 -0.8876338641047171
4700000000.0 0.4577951140520289 -0.8930131458944272
4703000000.0 0.45915267233466556 -0.8655692852118491
4706000000.0 0.4404040542283043 -0.919585731161694
4709000000.0 0.45297954934616674 -0.897505737383607
4712000000.0 0.4606408932982594 -0.9170446314413796
4716000000.0 0.4736882253985347 -0.9089259529993646
4719000000.0 0.46712569051925007 -0.9166630701930504
4722000000.0 0.4865782862459137 -0.893720651506263
4725000000.0 0.45000616920413905 -0.8921452318549331
4728000000.0 0.45776622945227574 -0.9017304926498325
4731000000.0 0.46433861100353163 -0.9180864680701271
4734000000.0 0.45094539192083183 -0.9155199258375051
4738000000.0 0.49185880797754905 -0.9426466971084436
4741000000.0 0.48572842559422963 -0.9186746776577847
4744000000.0 0.4282748751589107 -0.930320057342833
4747000000.0 0.4777396335868444 -0.8878924653515105
4750000000.0 0.47596205918002027 -0.9302983419263589
4753000000.0 0.4823836091659168 -0.8778559010288808
4756000000.0 0.4741633152701074 -0.9134667436080894
4759000000.0 0.47270033978939896 -0.9515251614044667
4762000000.0 0.45776461321789863 -0.9196243977535196
4766000000.0 0.43938830651848965 -0.9003732369409102
4769000000.0 0.46320621312534593 -0.9096667562060071
4772000000.0 0.45942467462821557 -0.9199359866293978
4775000000.0 0.4474523459140135 -0.9913050158643615
4778000000.0 0.4457220952742085 -0.9302009796742681
4781000000.0 0.48397236780062936 -0.9142925067766993
4784000000.0 0.4584063745893969 -0.8794096165941794
4788000000.0 0.45860067698736773 -0.9155236648792074
4791000000.0 0.46897459006393905 -0.9269277163161272
4794000000.0 0.4766055167768614 -0.9498874767595491
4797000000.0 0.416078472264792 -0.9099578941386168
4800000000.0 0.43242614597806034 -0.9265363394865198
4803000000.0 0.4019640190063819 -0.9332699308704528
4806000000.0 0.4398597292865432 -0.9248493887222569
4809000000.0 0.4096158404635533 -0.9304303261175128
4812000000.0 0.4056752038620999 -0.9304897061864762
4816000000.0 0.4765924498180764 -0.8972836189925275
4819000000.0 0.47599850657116594 -0.925783226633947
4822000000.0 0.4728765303501882 -0.9674965233216368
4825000000.0 0.4867785275452613 -0.9410128779244773
4828000000.0 0.44393795474639064 -0.9035968074709126
4831000000.0 0.4304351759733348 -0.9564000998063491
4834000000.0 0.4752212613059425 -0.9033736848064859
4838000000.0 0.44401206048438824 -0.9494952943166785
4841000000.0 0.41616602751413373 -0.9029053236688301
4844000000.0 0.49222158812959393 -0.8990536176588918
4847000000.0 0.4830209760546602 -0.9048329095760522
4850000000.0 0.446653288779297 -0.9197594279087531
4853000000.0 0.45966542932187565 -0.9102684771920514
4856000000.0 0.4610558539608461 -0.9028655960790062
4859000000.0 0.4470425210968867 -0.9537219751373477
4862000000.0 0.46197197460833433 -0.8966648505395935
4866000000.0 0.45008519643359035 -0.9557234893391343
4869000000.0 0.4442547234687817 -0.9188815111710159
4872000000.0 0.44899354443814576 -0.9728043887486795
4875000000.0 0.5160622796523331 -0.9381272594544767
4878000000.0 0.4392874413595232 -0.9512498879543977
4881000000.0 0.4490962558883153 -1.001647006622226
4884000000.0 0.46088652780043765 -0.9353626157567216
4888000000.0 0.49194312173592986 -0.8982321718113538
4891000000.0 0.5039994638930422 -0.932087510701589
4894000000.0 0.44733015817812155 -0.9253839355284874
4897000000.0 0.4799387401468672 -0.9143882176295864
4900000000.0 0.46452787608388046 -0.93745714649309
4903000000.0 0.46961260438356583 -0.9309308741037722
4906000000.0 0.46924797456020817 -0.9580073084746082
4909000000.0 0.4650242058738358 -0.9048197588378183
4912000000.0 0.4486578500973495 -0.9712948387796068
4916000000.0 0.4789208538195608 -0.930421796381052
4919000000.0 0.5467259172027384 -0.9577039971061821
4922000000.0 0.48321495826575506 -0.9226392375967355
4925000000.0 0.44497877501991384 -0.9335773995032839
4928000000.0 0.5197415305947617 -0.8651450790847806
4931000000.0 0.49129541306734015 -0.9110009220687594
4934000000.0 0.4625735102843171 -0.8803667806140865
4938000000.0 0.4233940235493677 -0.9551701257151117
4941000000.0 0.4518282322794686 -0.9116347492996146
4944000000.0 0.4386530933535502 -0.8644406587116344
4947000000.0 0.4790484617631114 -0.8960804102422548
4950000000.0 0.42714865056248175 -0.923992539414635
4953000000.0 0.44279370951100583 -0.9623185395467972
4956000000.0 0.4834636120789422 -0.9578042808699228
4959000000.0 0.43504066348564296 -0.9041737428611251
4962000000.0 0.4875818090946932 -0.9746727028737193
4966000000.0 0.49998958615162903 -0.9351977741783666
4969000000.0 0.49815206369878806 -0.9678514608805581
4972000000.0 0.4499769334649081 -0.934436358306043
4975000000.0 0.49323982596057236 -0.891276081885554
4978000000.0 0.4563322782056861 -0.9218842732079036
4981000000.0 0.4431560687353199 -0.912201184571401
4984000000.0 0.47095842837085367 -0.8947565975893663
4988000000.0 0.48273762947620213 -0.9138652884854079
4991000000.0 0.5383664755798653 -0.9146844833841027
4994000000.0 0.47462206315043504 -0.9349584334265609
4997000000.0 0.4137657967681935 -0.9810817661865279
5000000000.0 0.4971651646879406 -0.9348536819443769
5003000000.0 0.5153932512793021 -0.9829934961655223
5006000000.0 0.46330969352337015 -0.9640344996456811
5009000000.0 0.4943985795842871 -0.9252127193323995
5012000000.0 0.4711730086461827 -0.935410481030905
5016000000.0 0.5093534531894706 -0.9326396173900836
5019000000.0 0.454419325880658 -0.9259139579220571
5022000000.0 0.4942762637808859 -0.9336205244718154
5025000000.0 0.48570716172513834 -0.9806171815757898
5028000000.0 0.45232725407715507 -0.9454656103779222
5031000000.0 0.43376418970931796 -0.9453636892701897
5034000000.0 0.4651254684861442 -0.977562725233857
5038000000.0 0.4479037012786733 -0.9267077631029386
5041000000.0 0.48008797370456996 -0.9151802794726125
5044000000.0 0.5070485410997405 -0.8868569843165681
5047000000.0 0.4848408109618627 -0.904870172290553
5050000000.0 0.5240731463967878 -0.9051544259483681
5053000000.0 0.494600656083403 -0.9871062142191396
5056000000.0 0.5268106743724317 -0.8995578740909352
5059000000.0 0.5500083784153559 -0.8793531534991603
5062000000.0 0.46267072860366365 -0.9403390069018329
5066000000.0 0.5129079879497606 -0.891257738656296
5069000000.0 0.4879712764453232 -0.9449057980392828
5072000000.0 0.46872329704862514 -0.902606899333459
5075000000.0 0.5126342772663481 -0.8746585944797882
5078000000.0 0.4254920274715678 -0.9206563282714633
5081000000.0 0.4792302244019074 -0.879865590836938
5084000000.0 0.48288580262519154 -0.9252698661335546
5088000000.0 0.48502501535627757 -0.8700447306579884
5091000000.0 0.44044954370947953 -0.8860031828983769
5094000000.0 0.4744720149325289 -0.9283334386742811
5097000000.0 0.47712237206439834 -0.919591930523484
5100000000.0 0.5100367920386697 -0.8894029492040983
5103000000.0 0.47244751704834476 -0.9624959921576869
5106000000.0 0.5211322508876852 -0.9332540174538124
5109000000.0 0.5085194127477253 -0.9187556449786742
5112000000.0 0.47862168516913356 -0.91337713588268
5116000000.0 0.45497733158822745 -0.9019109391401687
5119000000.0 0.4681139433642807 -1.0045053298572992
5122000000.0 0.43207447580542274 -0.8866344427045609
5125000000.0 0.4921184398710967 -0.8911784378977783
5128000000.0 0.43508060938342746 -0.9183179900467531
5131000000.0 0.47428050535742466 -0.8831770106283539
5134000000.0 0.4608846095455756 -0.9198169814771551
5138000000.0 0.5324240782753568 -0.9376192932597758
5141000000.0 0.5022565427835013 -0.897994269172416
5144000000.0 0.5074175047519123 -0.9270178666411795
5147000000.0 0.48036507981712384 -0.9341198869410818
5150000000.0 0.4697544285679634 -0.9125085069857191
5153000000.0 0.49260094647081315 -0.9278460483656008
5156000000.0 0.5321876359897104 -0.9358974654508823
5159000000.0 0.526237289342874 -0.981150752281247
5162000000.0 0.4839431238469529 -0.921259006424775
5166000000.0 0.49521348165615775 -0.9441183266493807
5169000000.0 0.49022436949295756 -0.9106707811530599
5172000000.0 0.4979700857722217 -0.9045932153432372
5175000000.0 0.5415896103871659 -0.9191666694482359
