! Created with skrf 1.8.0 (http://scikit-rf.org).
# Hz S RI R 50.0 
!freq ReS11 ImS11
4000000000.0 0.5120473654313512 -0.8422512620118838
4003000000.0 0.6074844820664891 -0.8786567336279173
4006000000.0 0.5171727850771181 -0.8981726075639718
4009000000.0000005 0.5385273663434631 -0.8607979639278678
4011999999.9999995 0.6085305750452972 -0.8577902137568361
4016000000.0 0.5104467240373025 -0.8862991541167903
4019000000.0 0.5099755641155563 -0.8562515691317554
4022000000.0000005 0.6238071312551451 -0.8374099671143392
4025000000.0000005 0.5009375893571131 -0.888008309464306
4027999999.9999995 0.578758737381522 -0.9069988771208025
4030999999.9999995 0.5404203279914108 -0.8069431273713145
4034000000.0 0.5564846731976316 -0.8650512500651548
4038000000.0000005 0.5560874716987291 -0.8757403246610308
4041000000.0000005 0.5447068062449832 -0.8509561191523725
4043999999.9999995 0.5772063608215989 -0.906324791669266
4046999999.9999995 0.6244163278350056 -0.9000047610371715
4050000000.0 0.48700161881953163 -0.8943477286372787
4053000000.0 0.5121491726702012 -0.8676392985925525
4056000000.0 0.553657349135916 -0.8772076774391611
4059000000.0 0.5346511230838603 -0.8432764017872456
4062000000.0000005 0.5068283712643904 -0.8770367957403896
4066000000.0 0.5013406541615842 -0.8219743989518006
4069000000.0 0.5437343659981098 -0.9257437409902927
4072000000.0 0.6082921989033461 -0.8510495108448355
4075000000.0 0.621890796564921 -0.8815100729081513
4078000000.0000005 0.5209678186084842 -0.8429611564427291
4081000000.0000005 0.5925988357020202 -0.8445892616940441
4083999999.9999995 0.504845990901211 -0.8796685500866391
4088000000.0 0.5607301110856695 -0.8439018530775373
4091000000.0 0.6235452160827567 -0.9296112280935832
4094000000.0000005 0.537101686534242 -0.8760254531176498
4097000000.0000005 0.5440006679554269 -0.8740041003557678
4099999999.9999995 0.577221250346211 -0.9041574024869806
4102999999.9999995 0.5805626416662704 -0.8656542528497833
4106000000.0 0.5319050390100831 -0.8448829668372805
4109000000.0 0.5446521786242046 -0.8653490538226773
4112000000.0 0.5463046888631711 -0.8398392237308278
4115999999.9999995 0.5751799493622242 -0.8579300494911616
4119000000.0 0.5243112385357467 -0.8626751919539749
4122000000.0 0.5488307880557298 -0.8950347475534803
4125000000.0 0.567127038271084 -0.9350515572196844
4128000000.0 0.5532267325126164 -0.8083659485135042
4131000000.0 0.5219535776266025 -0.8919053151635523
4134000000.0000005 0.5667168765990817 -0.8388588557940578
4138000000.0 0.5279539611485935 -0.8697485186167003
4141000000.0 0.5242641807733143 -0.8542188438525375
4144000000.0 0.5801983039202515 -0.8313538481725875
4147000000.0000005 0.5447412605468275 -0.8811017917765266
4150000000.0000005 0.572117340420254 -0.843832699735983
4152999999.9999995 0.5525843110861972 -0.8855501106601493
4155999999.9999995 0.591760233271542 -0.876329208154011
4159000000.0 0.5629552909281869 -0.8596377771837111
4162000000.0 0.5578510907790541 -0.853828059881541
4166000000.0000005 0.5611731816874873 -0.877285577402156
4168999999.9999995 0.5322446209911216 -0.8779124504690871
4171999999.9999995 0.5711342980143088 -0.8980416580292546
4175000000.0 0.5770340613323384 -0.8587170463651482
4178000000.0 0.5564177278093917 -0.881244572077894
4181000000.0 0.5577826327053846 -0.8722032772268495
4184000000.0 0.5386322491149067 -0.8438309489060902
4187999999.9999995 0.5543599645204699 -0.8592598501493406
4191000000.0 0.5821405919027767 -0.8223813093236381
4194000000.0 0.5402141330052466 -0.8312980094679867
4197000000.0 0.5776591431351359 -0.8687316461816432
4200000000.0 0.5640870078160829 -0.8288756332497261
4203000000.0000005 0.5800909743590932 -0.8372549890357724
4206000000.0000005 0.554323541155735 -0.8666162304185153
4208999999.9999995 0.5741150006710283 -0.8532541193166997
4211999999.9999995 0.5436712844395297 -0.8711714914263571
4216000000.0 0.5598201328287883 -0.8646556291442853
4219000000.0000005 0.5792170448644821 -0.8576948849496638
4222000000.0000005 0.5439896505030923 -0.8725918411047454
4224999999.9999995 0.5519369744086153 -0.8341819435271001
4227999999.9999995 0.563875479912447 -0.8694435860928303
4231000000.0 0.5457024110308613 -0.8539587690744008
4234000000.0 0.5518027865207731 -0.8518510478870497
4238000000.0000005 0.5429883418291261 -0.8555659722740059
4240999999.9999995 0.5291530786426709 -0.8521041950640648
4244000000.0 0.5653911447105319 -0.8398261576115531
4247000000.0 0.5660077693193175 -0.845892980648245
4250000000.0 0.525039363747773 -0.8204020582573934
4253000000.0 0.5375968808218708 -0.8522857837557141
4256000000.0 0.5610442110983848 -0.8676398514690223
4259000000.0000005 0.529503384648594 -0.833333656267498
4261999999.9999995 0.5284506787314716 -0.8466806380919208
4266000000.0 0.5520844420664018 -0.8769221018703617
4269000000.0 0.5797146390814502 -0.8488599777541861
4272000000.0000005 0.5480646294258433 -0.8428010351086611
4275000000.0000005 0.5520453322074623 -0.8476032820129091
4277999999.9999995 0.5732375406234123 -0.8776647453162449
4280999999.9999995 0.5654402748914725 -0.8371134799750676
4284000000.0 0.5318964333568883 -0.8544280332956212
4288000000.0000005 0.587717361773462 -0.8253011725399343
4291000000.0000005 0.5337323882483971 -0.853588924470468
4293999999.9999995 0.5215692235735506 -0.8319041517216169
4297000000.0 0.554363498027999 -0.8180984797029127
4300000000.0 0.5675311080444287 -0.8416609212679378
4303000000.0 0.5341796459602689 -0.8424596616128595
4306000000.0 0.5792516407321198 -0.8677291643388312
4309000000.0 0.5285803110268835 -0.831654499487918
4312000000.0 0.6119690601956663 -0.8693715408108371
4316000000.0 0.5763030456572257 -0.8672105062494347
4319000000.0 0.5615034616552529 -0.8382534342117404
4322000000.0 0.5369531606549869 -0.8409066461476459
4325000000.0 0.5755798818973706 -0.853402138024672
4328000000.0 0.5576802830849226 -0.8332182702645121
4331000000.0 0.5565823070393872 -0.8600681710147878
4334000000.0 0.5608575254117509 -0.8501484909178809
4338000000.0 0.5547508168671842 -0.8277522605040197
4341000000.0 0.5764383421028029 -0.8299400766439855
4344000000.0 0.5826120745462026 -0.8388390956583497
4347000000.0 0.5474044252645214 -0.8764533728280589
4350000000.0 0.5261055413856329 -0.8130804326869161
4353000000.0 0.557039440815272 -0.8036838449713032
4356000000.0 0.5395886081164485 -0.8554525037431405
4359000000.0 0.5140594315894951 -0.8142097207318765
4362000000.0 0.5287980560322109 -0.8887667050438897
4366000000.0 0.5710586418436785 -0.8689335349359286
4369000000.0 0.5121482344220936 -0.8161288823710147
4372000000.0 0.49887652671141103 -0.8687634733157649
4375000000.0 0.5572385806558928 -0.8238637121829716
4378000000.0 0.5424770458821118 -0.8174696623649638
4381000000.0 0.545806817049321 -0.8288678374424177
4384000000.0 0.574476786019241 -0.8958359685273161
4388000000.0 0.5429243434801059 -0.8478588461962449
4391000000.0 0.5381485704087889 -0.8487811568809512
4394000000.0 0.5397652201600328 -0.8317778982572653
4397000000.0 0.5178892231104737 -0.8514852015723752
4400000000.0 0.5540765464945526 -0.8707700642019157
4403000000.0 0.540380815596463 -0.8668995543501048
4406000000.0 0.5269084874028145 -0.869246524492395
4409000000.0 0.5562466807622282 -0.8905467862990478
4412000000.0 0.4879897450161666 -0.8636810463021648
4416000000.0 0.5332267611898727 -0.8493502110945981
4419000000.0 0.5182863967675955 -0.8547950175183358
4422000000.0 0.5543197372169899 -0.8290427269854008
4425000000.0 0.5570606098628358 -0.8645071830152355
4428000000.0 0.5155938278876839 -0.8552660516665671
4431000000.0 0.5596360744511568 -0.8625595403234151
4434000000.0 0.5316695438986664 -0.8367849964850511
4438000000.0 0.5512164908418092 -0.8700079367475646
4441000000.0 0.5514080527023719 -0.857014465941901
4444000000.0 0.5326702791446063 -0.831315904163362
4447000000.0 0.525279248533867 -0.8552959181480184
4450000000.0 0.5415968611127402 -0.844334940966826
4453000000.0 0.5549646420032952 -0.8711170466411545
4456000000.0 0.49030760710153143 -0.8283876915055841
4459000000.0 0.5003015629863062 -0.8247087648091391
4462000000.0 0.5589221447229786 -0.9020332207677995
4466000000.0 0.5521246248018137 -0.9089765446442157
4469000000.0 0.5457766846342371 -0.8545064315323316
4472000000.0 0.520890058126715 -0.8858185064976489
4475000000.0 0.5204797345113393 -0.8367372117074938
4478000000.0 0.5348224153708685 -0.9026031827642054
4481000000.0 0.500732467825564 -0.8483180634851721
4484000000.0 0.4787274580606637 -0.8754639157371346
4488000000.0 0.5132880167354815 -0.8598858204761346
4491000000.0 0.5259346473082018 -0.8660362702191076
4494000000.0 0.5115408937003886 -0.8514210703303164
4497000000.0 0.5261080628107064 -0.852933795940908
4500000000.0 0.5237748297752185 -0.8557817856976951
4503000000.0 0.5447923399304391 -0.8851006998686634
4506000000.0 0.5231930171856987 -0.8561502166418542
4509000000.0 0.5171180336666156 -0.8549777996731687
4512000000.0 0.5074100887107358 -0.8480392593963801
4516000000.0 0.5366264427888456 -0.877524134728715
4519000000.0 0.5354838458405089 -0.8295675915109785
4522000000.0 0.523763677538567 -0.8634507854249098
4525000000.0 0.5594285263391504 -0.8410879259777644
4528000000.0 0.5350005894074943 -0.880795431869676
4531000000.0 0.5279088874362476 -0.8584510116924973
4534000000.0 0.5187153580241344 -0.8338372140571264
4538000000.0 0.5182518438677457 -0.830197093611504
4541000000.0 0.4963288969055892 -0.8566636569359123
4544000000.0 0.5212502535541939 -0.8418402399390884
4547000000.0 0.5535603510278131 -0.8312738845403502
4550000000.0 0.5019126803260768 -0.8793739196620378
4553000000.0 0.5191185284529305 -0.876035472577589
4556000000.0 0.48241701596233766 -0.8519587397798809
4559000000.0 0.49937591144805515 -0.866659256045707
4562000000.0 0.5310738652899092 -0.8708836897522635
4566000000.0 0.5276947739914937 -0.8642821856542922
4569000000.0 0.5118332699698865 -0.840543822546011
4572000000.0 0.534989484025221 -0.8607357019769624
4575000000.0 0.5171349734452418 -0.8712152560449701
4578000000.0 0.5407579881845419 -0.8577043426503994
4581000000.0 0.499153331981669 -0.8785989435704683
4584000000.0 0.5039062886450647 -0.8540718410279877
4588000000.0 0.5189434460577216 -0.8860384507396406
4591000000.0 0.5427304785425874 -0.8561509942862626
4594000000.0 0.4759623417731298 -0.8723586789905358
4597000000.0 0.5156401209054611 -0.8895051543259377
4600000000.0 0.49263830930429864 -0.8548775385801212
4603000000.0 0.5087436985290998 -0.8806710833563557
4606000000.0 0.5052225659709582 -0.8582819665409276
4609000000.0 0.5268310059707599 -0.8565927701073539
4612000000.0 0.5264465380716402 -0.8619671818601566
4616000000.0 0.491938671479539 -0.8690996995186423
4619000000.0 0.5125276135928906 -0.8481179323857606
4622000000.0 0.5016466242133402 -0.8641720230472663
4625000000.0 0.4655078317189908 -0.8463146664457839
4628000000.0 0.5296495858912962 -0.86734329230041
4631000000.0 0.4987888283262808 -0.8596464138851969
4634000000.0 0.5002112079184038 -0.8756540328137967
4638000000.0 0.5074548409986473 -0.8741769531804079
4641000000.0 0.5287703141270661 -0.8725530689581735
4644000000.0 0.5102002389524339 -0.8561120473318893
4647000000.0 0.5333086123710404 -0.8710144829549709
4650000000.0 0.501452486069178 -0.8745513589096655
4653000000.0 0.5251139176676234 -0.8773971842740016
4656000000.0 0.5076582203341508 -0.8718506332768836
4659000000.0 0.49618191129296924 -0.8660666508996344
4662000000.0 0.5107883980919525 -0.8871882980011322
4666000000.0 0.5109272884161885 -0.8934051369591827
4669000000.0 0.5098092290163904 -0.8685976819350587
4672000000.0 0.4922465798699135 -0.8877297591512731
4675000000.0 0.4972054280321855 -0.8878024701980703
4678000000.0 0.4993860091538877 -0.8684215864102949
4681000000.0 0.5041507528214425 -0.8906664182188412
4684000000.0 0.47815078129766153 -0.9026255881820652
4688000000.0 0.4809953810383474 -0.8690362855418845
4691000000.0 0.5126625327485343 -0.8663841390972166
4694000000.0 0.501234603312729 -0.8660115222273782
4697000000.0 0.46255900980053877 -0.862712255123423
4700000000.0 0.490078697592787 -0.8649421923073853
4703000000.0 0.5151736818469588 -0.8437625179409998
4706000000.0 0.47935435878715665 -0.882011576053718
4709000000.0 0.47893724396286314 -0.9020425247371829
4712000000.0 0.49686829240612407 -0.8817277078162926
4716000000.0 0.5078677814048375 -0.8869220810325343
4719000000.0 0.5253930479555922 -0.8900319152876819
4722000000.0 0.5025885639606664 -0.8856015133909145
4725000000.0 0.5108634053658511 -0.8651613591149733
4728000000.0 0.5143715037796561 -0.8678738587206326
4731000000.0 0.524434523033738 -0.8780159025608802
4734000000.0 0.5300750338052659 -0.8678763527989063
4738000000.0 0.5175365554743089 -0.9339740707293204
4741000000.0 0.5020582677820493 -0.8965460027582822
4744000000.0 0.4910461828063407 -0.9029023117392558
4747000000.0 0.4978619153647367 -0.8486956877324596
4750000000.0 0.5065005571705914 -0.9032028488361405
4753000000.0 0.5063212099662608 -0.8623730970789968
4756000000.0 0.48209066069553874 -0.8919324984767816
4759000000.0 0.48389771731887715 -0.9100279994131022
4762000000.0 0.5174090333042155 -0.9171797768166956
4766000000.0 0.48333949785492664 -0.8679255411952586
4769000000.0 0.5099838599396664 -0.8981262974454328
4772000000.0 0.5279992134063348 -0.8972953973582223
4775000000.0 0.49757710360295254 -0.9400915878787188
4778000000.0 0.5119605546857382 -0.8706273924375434
4781000000.0 0.49327422052462544 -0.8701851395039844
4784000000.0 0.5214201294240084 -0.8681935368870211
4788000000.0 0.5138805691669489 -0.8899952411902383
4791000000.0 0.47953441518878304 -0.8842926354636153
4794000000.0 0.5205315594273362 -0.8881512989584238
4797000000.0 0.4853964636214747 -0.8555772402395327
4800000000.0 0.48544716438918456 -0.8860102748018532
4803000000.0 0.4750468223878243 -0.8803519789851889
4806000000.0 0.5265696323490487 -0.8794652329909232
4809000000.0 0.4657618172715551 -0.8885397504910324
4812000000.0 0.45917064475177594 -0.8980261042246095
4816000000.0 0.5115797292709982 -0.8534149830681116
4819000000.0 0.5513652041218476 -0.9027648160128219
4822000000.0 0.5254157928965169 -0.9121557101902157
4825000000.0 0.5472716206273136 -0.9177033799669274
4828000000.0 0.49888253074411837 -0.8751358013885793
4831000000.0 0.48567576321703 -0.9277579362734791
4834000000.0 0.517221543437881 -0.8710652141077526
4838000000.0 0.48306265323800157 -0.9197967399406337
4841000000.0 0.4980527009611375 -0.8767719215160446
4844000000.0 0.5377349053651176 -0.8746108252181521
4847000000.0 0.5200685882784825 -0.8614787704702357
4850000000.0 0.5133644025778192 -0.9063131376526115
4853000000.0 0.5004753019108532 -0.8612606015326632
4856000000.0 0.5031875668041532 -0.888029774394056
4859000000.0 0.49288714978440296 -0.925907396289321
4862000000.0 0.5028766975998746 -0.8586034603567224
4866000000.0 0.4579957917245538 -0.9030832596811494
4869000000.0 0.5056456602480894 -0.9163704619439362
4872000000.0 0.4880565954086041 -0.9261883666589567
4875000000.0 0.572125515024475 -0.9117264240414064
4878000000.0 0.4940561530145942 -0.8984401139404404
4881000000.0 0.5095807704474952 -0.9673976913494665
4884000000.0 0.5020687936884749 -0.8969874336026615
4888000000.0 0.5506452228588443 -0.8655153580093142
4891000000.0 0.5531949067428452 -0.905316032015805
4894000000.0 0.5063322590578976 -0.9347264091985321
4897000000.0 0.5195186437824844 -0.8731035195894764
4900000000.0 0.5152078367717515 -0.902461001036323
4903000000.0 0.5244640865974054 -0.874514662189512
4906000000.0 0.5323930215516886 -0.9261030028399808
4909000000.0 0.48664181710576526 -0.9028152877170064
4912000000.0 0.5020398611860704 -0.9129859329838514
4916000000.0 0.5518492701185341 -0.9165778510398712
4919000000.0 0.5739013629165592 -0.8899061038674438
4922000000.0 0.5480867646004127 -0.8726300962471784
4925000000.0 0.48766939619575417 -0.8974253050244283
4928000000.0 0.5532806424414503 -0.8620946708012375
4931000000.0 0.535506821349436 -0.9002972617160127
4934000000.0 0.5025196456786397 -0.8376990303979625
4938000000.0 0.49377266777742357 -0.9254196510428476
4941000000.0 0.4988529835861338 -0.8452752525873333
4944000000.0 0.5209893878579728 -0.8516390806510358
4947000000.0 0.4842620151938641 -0.8537519153894799
4950000000.0 0.4956821170118793 -0.8769665496660892
4953000000.0 0.4720396560601484 -0.9446847703663848
4956000000.0 0.4746467720353536 -0.8930908283009775
4959000000.0 0.45010328075403333 -0.900968948043476
4962000000.0 0.5524371323331337 -0.9144731213287711
4966000000.0 0.5358877528744826 -0.9095271025701789
4969000000.0 0.5572428091736168 -0.9298908092041733
4972000000.0 0.5118157334520551 -0.8957790700461861
4975000000.0 0.522146018618485 -0.8980012622745865
4978000000.0 0.5107245214273675 -0.9166763204377124
4981000000.0 0.4745075606143469 -0.9048054377760915
4984000000.0 0.5333685169755021 -0.8561134248753011
4988000000.0 0.5416865668379748 -0.8593193225378861
4991000000.0 0.5648890874838706 -0.8524132371285511
4994000000.0 0.5279585496723369 -0.8583867628641189
4997000000.0 0.4775256379288869 -0.9194008360106248
5000000000.0 0.5378194691163597 -0.9377571829858609
5003000000.0 0.5518969431738624 -0.9139337477229874
5006000000.0 0.5418048531223306 -0.9490545913492762
5009000000.0 0.5205149199080553 -0.8681446205584564
5012000000.0 0.511147368917896 -0.8908105446506436
5016000000.0 0.5715160434818539 -0.8760429219401458
5019000000.0 0.5022902460315146 -0.8939194272870016
5022000000.0 0.5456071766301307 -0.8674287163067732
5025000000.0 0.5357888047859163 -0.9562554099335168
5028000000.0 0.48651536894018793 -0.8921673008562406
5031000000.0 0.5293022869271258 -0.862025051438843
5034000000.0 0.5271603538015311 -0.9207510209863077
5038000000.0 0.5005241850738855 -0.8724622205024581
5041000000.0 0.5755443108204075 -0.8568955875624829
5044000000.0 0.5706384676770729 -0.88254098352979
5047000000.0 0.5423527497227486 -0.8793457035411025
5050000000.0 0.5728472614326399 -0.8325181287867349
5053000000.0 0.5523404288275398 -0.9252212927797657
5056000000.0 0.5586258541169912 -0.8877110982507599
5059000000.0 0.5828308336448087 -0.8602135053184141
5062000000.0 0.5175309078610536 -0.9337791547876113
5066000000.0 0.5634897008378439 -0.861456615962814
5069000000.0 0.543143308822849 -0.8974805500354985
5072000000.0 0.52329100176218 -0.8760274170494642
5075000000.0 0.5640761378494199 -0.8886999822314628
5078000000.0 0.5047647834159239 -0.8990235349029524
5081000000.0 0.5175635425336751 -0.8510427832253034
5084000000.0 0.5794820254616203 -0.9271621074729048
5088000000.0 0.5618621567070313 -0.8510081642850489
5091000000.0 0.5194735601283031 -0.8926822372606682
5094000000.0 0.5602633389381572 -0.9062824235628075
5097000000.0 0.5644566999184257 -0.848302797894956
5100000000.0 0.5275057924002658 -0.8681716046577002
5103000000.0 0.5415161719473416 -0.898108374544103
5106000000.0 0.5489552282142234 -0.9252128893190541
5109000000.0 0.5981861440542675 -0.8255047999525307
5112000000.0 0.5367730798948336 -0.831101116757165
5116000000.0 0.4959007722350537 -0.8602156431263348
5119000000.0 0.5694876809310039 -0.8833458731869605
5122000000.0 0.5544002300955624 -0.8744182008453588
5125000000.0 0.5537517239251109 -0.88228714406764
5128000000.0 0.5307477098902851 -0.8489513613747266
5131000000.0 0.5481755080221605 -0.875030025259629
5134000000.0 0.5566535202309593 -0.8862658158302411
5138000000.0 0.5707238014629397 -0.8623363057673701
5141000000.0 0.5899070016961704 -0.8874864404810805
5144000000.0 0.5399596225567376 -0.8612347705883896
5147000000.0 0.5572270231190195 -0.894457582167695
5150000000.0 0.5901549001980214 -0.8847356642996553
5153000000.0 0.5106018711308672 -0.891972181013587
5156000000.0 0.5168827435293866 -0.870701494499869
5159000000.0 0.5554734945247762 -0.8953968280034341
5162000000.0 0.5504506619917684 -0.8611511365261293
5166000000.0 0.5214228001117523 -0.9004272617452913
5169000000.0 0.5597325679656139 -0.9227548886668857
5172000000.0 0.5639708825735473 -0.8845387540490144
5175000000.0 0.602420718571762 -0.886059445889406
5178000000.0 0.5444396450264225 -0.884953113345358
