! Created with skrf 1.8.0 (http://scikit-rf.org).
# Hz S RI R 50.0 
!freq ReS11 ImS11
4000000000.0 0.5022051312382129 -0.9026220267137637
4003000000.0 0.5759748980127835 -0.9452709911005073
4006000000.0 0.47961842076055206 -0.9332014165266646
4009000000.0000005 0.48108761748063866 -0.8860103194200161
4011999999.9999995 0.570672141192162 -0.8855119160653327
4016000000.0 0.5060841590200857 -0.9512178094026471
4019000000.0 0.487893608920683 -0.9389363626092884
4022000000.0000005 0.5504512508117545 -0.9115108767268194
4025000000.0000005 0.4694703710069115 -0.9297596357521407
4027999999.9999995 0.4835089388948799 -0.9107957180338468
4030999999.9999995 0.44493180455877446 -0.8871800060298066
4034000000.0 0.4821930007591173 -0.9245920326952111
4038000000.0000005 0.4776465014200545 -0.9180158047239415
4041000000.0000005 0.4909346251913022 -0.9075421283027727
4043999999.9999995 0.48859534826575224 -0.9491223703096161
4046999999.9999995 0.5168545798358548 -0.9413744109694785
4050000000.0 0.4854989649675125 -0.9158844874307794
4053000000.0 0.45071549160057384 -0.9113052528495994
4056000000.0 0.483318913483673 -0.9226616439037756
4059000000.0 0.4679601287371622 -0.8786739546089346
4062000000.0000005 0.4917350356518396 -0.9147893644118903
4066000000.0 0.4368324765626619 -0.8494869381063649
4069000000.0 0.48266526672018495 -0.9286246576587267
4072000000.0 0.4975990332928288 -0.8799111275274014
4075000000.0 0.5367495292879216 -0.9083996138151311
4078000000.0000005 0.469853558268461 -0.9109989758474022
4081000000.0000005 0.5768763063094456 -0.8745467909273514
4083999999.9999995 0.4886932087145657 -0.9708250886385754
4088000000.0 0.5059647504002276 -0.8854824720041546
4091000000.0 0.5432990877678214 -0.9581023764934014
4094000000.0000005 0.47276058746171823 -0.8662725624370963
4097000000.0000005 0.5096279517156121 -0.9149287113085387
4099999999.9999995 0.49669756597699666 -0.9015587931510198
4102999999.9999995 0.5464767128969082 -0.926723411757584
4106000000.0 0.5036546475408921 -0.8863875826078851
4109000000.0 0.4653787598040378 -0.8930560701085578
4112000000.0 0.49439136818528523 -0.9132645631237285
4115999999.9999995 0.5223995273309319 -0.8883955894415732
4119000000.0 0.4789471114653537 -0.9084039800767185
4122000000.0 0.45544328060995437 -0.9105164880825103
4125000000.0 0.48457551940731924 -0.9358312516457811
4128000000.0 0.48695970707038777 -0.8710435975940355
4131000000.0 0.4785062133374416 -0.9169247857404443
4134000000.0000005 0.49757385754758354 -0.9106770639178611
4138000000.0 0.4504313960073456 -0.880400959625433
4141000000.0 0.5005639632987913 -0.9129951558204156
4144000000.0 0.5034962118728418 -0.9109334076385543
4147000000.0000005 0.4385610196756496 -0.8753960104907133
4150000000.0000005 0.4689194293111094 -0.9895611711003224
4152999999.9999995 0.4816512371588869 -0.9140526717449138
4155999999.9999995 0.5323089353452346 -0.9055706078038583
4159000000.0 0.4627458079593391 -0.8964095221196993
4162000000.0 0.5047879293521014 -0.9004542224770962
4166000000.0000005 0.48938584694296106 -0.9301081622752747
4168999999.9999995 0.46199290310577507 -0.9186032063174454
4171999999.9999995 0.4959348180930798 -0.9212302486296791
4175000000.0 0.4896090293735897 -0.912956878707467
4178000000.0 0.4998275520024845 -0.908807879590824
4181000000.0 0.46838731226748787 -0.8783251283583359
4184000000.0 0.4890813457612846 -0.9095717078477293
4187999999.9999995 0.4647354495846759 -0.9083848473622192
4191000000.0 0.5111086025232141 -0.9020702281963925
4194000000.0 0.46511359733195873 -0.8815334300028375
4197000000.0 0.48473171022210365 -0.9148579478524054
4200000000.0 0.5034890906699102 -0.8680982200373293
4203000000.0000005 0.49918585069559096 -0.8939719061595951
4206000000.0000005 0.5051065687674063 -0.9202665081516842
4208999999.9999995 0.47100014068014573 -0.877549807446572
4211999999.9999995 0.45810208186756773 -0.8976420573686538
4216000000.0 0.49090348814361273 -0.9096781852816381
4219000000.0000005 0.48114162427272944 -0.9190114989737974
4222000000.0000005 0.4754107675870558 -0.8982091854442796
4224999999.9999995 0.45969193776951334 -0.8931491752674294
4227999999.9999995 0.4956998553234525 -0.9100163427754415
4231000000.0 0.48171864115327767 -0.9041635277743304
4234000000.0 0.481994938127673 -0.9214738990389836
4238000000.0000005 0.46119515957418533 -0.911210128382126
4240999999.9999995 0.46459591893907276 -0.8882944849301826
4244000000.0 0.48835447537202903 -0.9006398150364754
4247000000.0 0.4830139259159757 -0.8953726421360394
4250000000.0 0.45450303927074476 -0.8840831697791779
4253000000.0 0.45611398316496976 -0.8834670426193452
4256000000.0 0.4863998457399771 -0.9292083649265314
4259000000.0000005 0.46512233824585436 -0.874061765784605
4261999999.9999995 0.4597781030675913 -0.9054717639403248
4266000000.0 0.45562859604637707 -0.9284790205565394
4269000000.0 0.4823280836785665 -0.8935138128657286
4272000000.0000005 0.4843217572700695 -0.8942644154846365
4275000000.0000005 0.47750546511921393 -0.9035027044379991
4277999999.9999995 0.49068244582666004 -0.9050470208585821
4280999999.9999995 0.4741191350978685 -0.8819858960239739
4284000000.0 0.4475812718946273 -0.9189443691755238
4288000000.0000005 0.502259555566515 -0.8777560975605383
4291000000.0000005 0.46515254790256466 -0.8869348382727797
4293999999.9999995 0.45750469304777314 -0.9023705216799693
4297000000.0 0.4871544143537979 -0.8927662718508026
4300000000.0 0.4791482577556635 -0.8765135426127642
4303000000.0 0.47280773347261545 -0.8989755224656398
4306000000.0 0.5009665118812253 -0.9008970637136163
4309000000.0 0.472933597890426 -0.9009659781961498
4312000000.0 0.5114235672765038 -0.9098288248247215
4316000000.0 0.5070802865955732 -0.9074126691434807
4319000000.0 0.4839648624200724 -0.8718602506700119
4322000000.0 0.4382941645517823 -0.9009993339660018
4325000000.0 0.4738065543065416 -0.9022240182169958
4328000000.0 0.45098668413892806 -0.8825792690378828
4331000000.0 0.44698698292390854 -0.9221901276216934
4334000000.0 0.47999795374668364 -0.9217301379314999
4338000000.0 0.4852137614043148 -0.8891610459276196
4341000000.0 0.5212414185944667 -0.9154350039518894
4344000000.0 0.4744170611586387 -0.9035351391947596
4347000000.0 0.45874870165203274 -0.9261167083445334
4350000000.0 0.4363129667004592 -0.8810333865509945
4353000000.0 0.46911130186839933 -0.8656451738031636
4356000000.0 0.45500265776579074 -0.9018406844756001
4359000000.0 0.4401707970246712 -0.8694628581852994
4362000000.0 0.4297925950337472 -0.9393989268668136
4366000000.0 0.4765445119934077 -0.9322142393319468
4369000000.0 0.44544408934895924 -0.8788332067909064
4372000000.0 0.42432104932166065 -0.9073017193750166
4375000000.0 0.46915155061445135 -0.8883726881661539
4378000000.0 0.4580429710900664 -0.8751371988579837
4381000000.0 0.4596688939162169 -0.8706762422939813
4384000000.0 0.4689300271190908 -0.9592233186303406
4388000000.0 0.45592974538445175 -0.8664535717146995
4391000000.0 0.46817356315239933 -0.9018535417227567
4394000000.0 0.45020859130605284 -0.8756496711425311
4397000000.0 0.44100378015564473 -0.8929256052228394
4400000000.0 0.44728108475142975 -0.9241242887864431
4403000000.0 0.47599670143678696 -0.9133519745839753
4406000000.0 0.4441821430906378 -0.9227472233846774
4409000000.0 0.4667426201106508 -0.9351353064245821
4412000000.0 0.4048177555083311 -0.9344902365030351
4416000000.0 0.4404138926206658 -0.8955569057739821
4419000000.0 0.4348923531405398 -0.9159205243557877
4422000000.0 0.451353547312219 -0.8853329705315236
4425000000.0 0.48411138840605605 -0.9188584783526319
4428000000.0 0.44787262111353554 -0.9157320696822665
4431000000.0 0.45939997322545023 -0.9180648934501087
4434000000.0 0.42703996441080555 -0.9037989326123219
4438000000.0 0.4659890308991187 -0.9256002970747041
4441000000.0 0.4672308769022471 -0.9184302787137597
4444000000.0 0.4344167499588117 -0.897373849387794
4447000000.0 0.4286761133554392 -0.9039816390239559
4450000000.0 0.4476950710471411 -0.8972001466430191
4453000000.0 0.45019179285471606 -0.9349123079048353
4456000000.0 0.4122925037439158 -0.8788044210300244
4459000000.0 0.4214841590300116 -0.8805918920940636
4462000000.0 0.47502143850402434 -0.9457379558470732
4466000000.0 0.43663804369770653 -0.9361137888023183
4469000000.0 0.461568798351526 -0.901127734928638
4472000000.0 0.41273336822416695 -0.9416640901585237
4475000000.0 0.42961727273966666 -0.882297931523517
4478000000.0 0.4368336332198216 -0.9536861154726688
4481000000.0 0.41381131063723486 -0.8921771401704514
4484000000.0 0.3839010676229001 -0.9131090626325363
4488000000.0 0.4160959920900041 -0.9019172437680262
4491000000.0 0.4154657752534449 -0.9127463350362424
4494000000.0 0.42694610201273686 -0.9089725222625045
4497000000.0 0.446572205258652 -0.908411996632698
4500000000.0 0.4496370765778685 -0.9250433980887935
4503000000.0 0.44512096442330823 -0.9226321453486577
4506000000.0 0.43366285481946487 -0.8951994785679467
4509000000.0 0.42375721270590433 -0.901403781456048
4512000000.0 0.40956524380707315 -0.8946242663903253
4516000000.0 0.4266051730006591 -0.935961335756979
4519000000.0 0.4492108633950829 -0.894407031863715
4522000000.0 0.43141100623062256 -0.9188711888863432
4525000000.0 0.4641883154576836 -0.894492187802971
4528000000.0 0.4349930617441277 -0.9276476171871051
4531000000.0 0.4399090399436816 -0.9110576777886419
4534000000.0 0.4085913636009582 -0.9083808504097441
4538000000.0 0.44276714025649316 -0.9156872099712122
4541000000.0 0.37852087021997033 -0.9121059960830085
4544000000.0 0.42090137719033555 -0.8962060440021276
4547000000.0 0.43840192771736364 -0.904031506078004
4550000000.0 0.41315928463290974 -0.9298107159760349
4553000000.0 0.4212978164941209 -0.919780774804012
4556000000.0 0.3958799325122204 -0.907090077904374
4559000000.0 0.4205838989239809 -0.9243903387268068
4562000000.0 0.44095346967478133 -0.9263735216807081
4566000000.0 0.40183501938353566 -0.9417861424064919
4569000000.0 0.41218560083230416 -0.897789401351813
4572000000.0 0.4118505030356507 -0.9308743329596283
4575000000.0 0.4085182580853501 -0.9407629024730173
4578000000.0 0.4217245288991949 -0.936695292250038
4581000000.0 0.3952955848806946 -0.9316257704748621
4584000000.0 0.41966528058265523 -0.9261308108586067
4588000000.0 0.4256380530924287 -0.9467229217504323
4591000000.0 0.41196605499019723 -0.9387462782421966
4594000000.0 0.39910584132733695 -0.9242568304663655
4597000000.0 0.4068407604020565 -0.9370327984348359
4600000000.0 0.39359814081049393 -0.9163478036956854
4603000000.0 0.3888752281313812 -0.942455118457185
4606000000.0 0.40551106614831456 -0.9400353063195995
4609000000.0 0.4067722965799454 -0.9359346861091153
4612000000.0 0.3940168975859019 -0.9397125344206014
4616000000.0 0.3979775046470872 -0.9206199699532174
4619000000.0 0.4036032153924115 -0.924403227738015
4622000000.0 0.39153823312650793 -0.943024419667156
4625000000.0 0.3753265408960615 -0.914402939933878
4628000000.0 0.4122136959372637 -0.9365146406193493
4631000000.0 0.38542992059696524 -0.9315975096222018
4634000000.0 0.38069021642789447 -0.9390332483467685
4638000000.0 0.3973128389578946 -0.932727605488211
4641000000.0 0.4037966814574223 -0.9118006912675807
4644000000.0 0.37860763676219705 -0.9169845344770668
4647000000.0 0.39679313801241944 -0.9466874419332688
4650000000.0 0.3892985069005323 -0.9264985720691794
4653000000.0 0.39574735058707045 -0.9286878093451569
4656000000.0 0.3905205886943821 -0.9285895111845704
4659000000.0 0.3780711911804538 -0.9478090942580044
4662000000.0 0.403345891643522 -0.9353124752077228
4666000000.0 0.36081163223894114 -0.9551682342730292
4669000000.0 0.3990967320359917 -0.9352069205325615
4672000000.0 0.37867715649413225 -0.9727418536858818
4675000000.0 0.37983574698527334 -0.9577291672120815
4678000000.0 0.3765365212017213 -0.9077953006865987
4681000000.0 0.37093201923857355 -0.9500005759567886
4684000000.0 0.3521061842770458 -0.9707493948064061
4688000000.0 0.3537664370693623 -0.9165881567059535
4691000000.0 0.3815007627816278 -0.9253781201847029
4694000000.0 0.40164624910646857 -0.9379244896317045
4697000000.0 0.3532982076790651 -0.9273165919053915
4700000000.0 0.41542534764319905 -0.935796129877275
4703000000.0 0.4037557369127668 -0.896217665675413
4706000000.0 0.36091522291157785 -0.975538110565528
4709000000.0 0.35246853860307653 -0.9498479214548023
4712000000.0 0.3773430689243621 -0.9398067716856695
4716000000.0 0.3644679834738278 -0.9528261455357112
4719000000.0 0.3897992186087258 -0.9468080261051315
4722000000.0 0.4249243887025143 -0.9361445645742545
4725000000.0 0.3937630257973468 -0.9311422916680245
4728000000.0 0.39080711830172193 -0.9523051906040447
4731000000.0 0.39778796742617284 -0.9570416618985134
4734000000.0 0.39340575263333755 -0.9363342169844974
4738000000.0 0.4275253579246284 -0.9711015326628046
4741000000.0 0.36486219953999893 -0.9835218463831009
4744000000.0 0.36959193146800623 -0.94367800758013
4747000000.0 0.3916975456358001 -0.9156761714917154
4750000000.0 0.39896698440533024 -0.9662576471391876
4753000000.0 0.38878452042466916 -0.9303576673034275
4756000000.0 0.37575848114161353 -0.9256499602479548
4759000000.0 0.3759924473506161 -0.9538760812759739
4762000000.0 0.36347526334259506 -0.9866613513522472
4766000000.0 0.376486025043296 -0.9666048898161653
4769000000.0 0.3648746493453531 -0.9480932693535113
4772000000.0 0.3608531942347513 -0.9505583105124066
4775000000.0 0.37315388577684266 -1.0091573377410925
4778000000.0 0.3706892353029081 -0.9528126668884382
4781000000.0 0.3809501456634715 -0.9518404462265908
4784000000.0 0.3631606759831468 -0.9657480969642729
4788000000.0 0.3443486759348959 -0.961678360661071
4791000000.0 0.3602892624091828 -0.956448060386912
4794000000.0 0.416910996866562 -1.0174983415433485
4797000000.0 0.34923175169401877 -0.9404178428468462
4800000000.0 0.3650230733040921 -0.9463005869106305
4803000000.0 0.33072496203936685 -0.9551257034714803
4806000000.0 0.3640684554845023 -0.9586748473123639
4809000000.0 0.31077772762762523 -0.9642373802482693
4812000000.0 0.30260361894486687 -0.9667856925364569
4816000000.0 0.3890718396873897 -0.9440932569698611
4819000000.0 0.3736401634645905 -0.9920636276454529
4822000000.0 0.4143108831976693 -0.9744619103187249
4825000000.0 0.4023944095522309 -0.9657510494230807
4828000000.0 0.36436117382722544 -0.9545779036987896
4831000000.0 0.33905523201089055 -1.0136755208526342
4834000000.0 0.4027716591881699 -0.9659497461199195
4838000000.0 0.3446451736802099 -0.9617105160971586
4841000000.0 0.3493845750850269 -0.9554986041498973
4844000000.0 0.40732537589019446 -0.9616722289903157
4847000000.0 0.38718497801949775 -0.9353882397856349
4850000000.0 0.3557711851472336 -0.9980837191472192
4853000000.0 0.3472470100378886 -0.9410761781520304
4856000000.0 0.3589433916758956 -0.9549506901530875
4859000000.0 0.37236249246910724 -1.0061111020917992
4862000000.0 0.389263334503243 -0.9280406414306663
4866000000.0 0.3484155122607408 -0.9925961340853752
4869000000.0 0.3540153691092156 -0.9777337522165012
4872000000.0 0.3451811121603575 -0.9978530515730254
4875000000.0 0.4358651095345847 -0.994262704727085
4878000000.0 0.36395333671113317 -0.9820518902223734
4881000000.0 0.34752999750506264 -1.0300946425311104
4884000000.0 0.3824389572984268 -0.9637948925717064
4888000000.0 0.3967921600770242 -0.9229254761174548
4891000000.0 0.3928232568447624 -0.9919958424737398
4894000000.0 0.33444519728225286 -0.9823754831918381
4897000000.0 0.3914379714343011 -0.9513892477347657
4900000000.0 0.3737853504284251 -0.9635502548860556
4903000000.0 0.3716859155280857 -0.9784611526432461
4906000000.0 0.4059342725771131 -1.0138366475052132
4909000000.0 0.3682400975995934 -0.9826297855783654
4912000000.0 0.3494108500981981 -1.0099920203608177
4916000000.0 0.392686054068236 -0.97705559241391
4919000000.0 0.3807908289997798 -0.9685138577775505
4922000000.0 0.4131073678019544 -0.9795446341565468
4925000000.0 0.34135258761574555 -0.9908358959129654
4928000000.0 0.41952079800802905 -0.9495942977079426
4931000000.0 0.40223385787018745 -0.9463172296092264
4934000000.0 0.38597471728097354 -0.9301226639548869
4938000000.0 0.3406965866935203 -0.9886621451433848
4941000000.0 0.3598182448233488 -0.9354532032818602
4944000000.0 0.3893481853508114 -0.918057741063905
4947000000.0 0.3604381837468588 -0.9405936374794686
4950000000.0 0.3530715551901136 -0.9777583895944866
4953000000.0 0.3279436570894318 -1.016739585490538
4956000000.0 0.3417527538821419 -0.953701632271889
4959000000.0 0.3300512909912061 -0.928586400874897
4962000000.0 0.3843458827304017 -0.9799451919988879
4966000000.0 0.40974121169108524 -1.0157353057151728
4969000000.0 0.4295684466177729 -0.9942835479908122
4972000000.0 0.3484631164786968 -0.9868064611040295
4975000000.0 0.41058360070851635 -0.9481953209364182
4978000000.0 0.3369208601739185 -0.9910143325454338
4981000000.0 0.3627919213645741 -0.9995115698927564
4984000000.0 0.33245802884630865 -0.9690853740850662
4988000000.0 0.35594672978517894 -0.9659937140355546
4991000000.0 0.43130025977479675 -0.9871501554027677
4994000000.0 0.34916129642511357 -0.9462133724754592
4997000000.0 0.34176678195268384 -0.9675114357076742
5000000000.0 0.36177498374626704 -0.9738494410092579
5003000000.0 0.40578480082449303 -1.0170617141687226
5006000000.0 0.36679394467957915 -1.0319572202811544
5009000000.0 0.35035456095022327 -0.9823732712114559
5012000000.0 0.3399481285154772 -0.9985359211692366
5016000000.0 0.4154440082111786 -0.9964728173697701
5019000000.0 0.3433556106477965 -0.9664640618754733
5022000000.0 0.3775764147284449 -0.9937665896269878
5025000000.0 0.40118586240434545 -1.043569645479313
5028000000.0 0.355513519267179 -0.9680531599352095
5031000000.0 0.34821208674789966 -0.9706650002457542
5034000000.0 0.3581888938851833 -0.982130803806321
5038000000.0 0.35769159550477253 -0.9548846046494115
5041000000.0 0.3889007934323925 -0.972607001746793
5044000000.0 0.39279416220959695 -0.9386498030464174
5047000000.0 0.39055909009682405 -0.9904780122132135
5050000000.0 0.4213425116434532 -0.9269118049023443
5053000000.0 0.377950802702713 -1.0169506030804136
5056000000.0 0.41466674215573096 -0.9653165220930664
5059000000.0 0.4118147541708152 -0.932118964090864
5062000000.0 0.3486410501940772 -1.0109328987858563
5066000000.0 0.44715668653058643 -0.9812104510148749
5069000000.0 0.38274567428882916 -1.0001643756094982
5072000000.0 0.3612594028991005 -0.9324546866575285
5075000000.0 0.37576029313819476 -0.9971130898346365
5078000000.0 0.31642972118740037 -0.9941671157240898
5081000000.0 0.35570725853419527 -0.9370609837947583
5084000000.0 0.3985590901628027 -0.9635432175641137
5088000000.0 0.38907053952851417 -0.9320681843786887
5091000000.0 0.3450147308710229 -0.9788472671358046
5094000000.0 0.37657189351840464 -0.9966541035082961
5097000000.0 0.379139005363551 -0.9534485949964336
5100000000.0 0.3760031986332062 -0.9815510855590319
5103000000.0 0.33216091391660774 -0.9618544729707049
5106000000.0 0.3731955044317629 -0.9973707580371504
5109000000.0 0.37303169567500527 -0.9853898232842295
5112000000.0 0.3489487199974742 -0.96899437810908
5116000000.0 0.36141571994504956 -0.9055242882973011
5119000000.0 0.36061708164752865 -1.0539444114878425
5122000000.0 0.35851106094284724 -0.9907852586703758
5125000000.0 0.38123011530741685 -0.962736805980195
5128000000.0 0.38340715262403724 -0.9898898960745552
5131000000.0 0.35789386326524963 -0.9403155993666517
5134000000.0 0.3573610179232048 -1.025731478716264
5138000000.0 0.3620481552348882 -0.9524020511478559
5141000000.0 0.4304901493493748 -1.004834321916012
5144000000.0 0.3913570486598982 -0.9543756642735525
5147000000.0 0.3646168301203594 -1.0122371593821413
5150000000.0 0.43977334074434543 -0.997058117985713
5153000000.0 0.37093557718529635 -0.990999577385955
5156000000.0 0.40582671169835266 -1.0123063029404373
5159000000.0 0.4189095951426687 -0.9908135316802317
5162000000.0 0.3609406136658229 -1.0091466662139328
5166000000.0 0.3534339918224359 -0.9901549495369216
5169000000.0 0.3677999395585312 -0.9896335239545792
