! Created with skrf 1.8.0 (http://scikit-rf.org).
# Hz S RI R 50.0 
!freq ReS11 ImS11
4000000000.0 0.9872134769032166 -0.21339404615835822
4003000000.0 1.0401587510697128 -0.18222412075759045
4006000000.0 0.9922156374912003 -0.2405492363248244
4009000000.0000005 0.9728460659615711 -0.17748844883897763
4011999999.9999995 1.059650276322791 -0.14097828564355672
4016000000.0 1.0200531397498083 -0.22555158787783713
4019000000.0 0.9999050168019752 -0.16097793634905583
4022000000.0000005 0.9821399370102529 -0.09811688294550586
4025000000.0000005 0.9842131031471706 -0.3068504565992471
4027999999.9999995 1.011753910183244 -0.21900740760509702
4030999999.9999995 0.953747875974246 -0.17469032112276628
4034000000.0 0.9876046087416813 -0.21528554659252885
4038000000.0000005 1.040868266416671 -0.2488073970660703
4041000000.0000005 1.0186981326839533 -0.2366471276779505
4043999999.9999995 1.133133432979502 -0.2305329369804295
4046999999.9999995 1.0206589469234948 -0.2088341896898884
4050000000.0 0.994252308766342 -0.2992637371092866
4053000000.0 0.9901614419997934 -0.3064578504206349
4056000000.0 0.9874227989995777 -0.2553795856621899
4059000000.0 1.0143973734926455 -0.2132757547888349
4062000000.0000005 0.9390432067947422 -0.3057689889770935
4066000000.0 0.9015092308163032 -0.24116389836682356
4069000000.0 1.056977132675862 -0.25095977478680026
4072000000.0 1.015889392602451 -0.14978972582407263
4075000000.0 1.052286002154771 -0.18985224962880443
4078000000.0000005 1.0247630566628085 -0.2712938706643807
4081000000.0000005 1.071772106502836 -0.13627613309953326
4083999999.9999995 1.0259802507444034 -0.24710978918247437
4088000000.0 1.0480621794066831 -0.22537036751250278
4091000000.0 1.1200985227131883 -0.2654783970329734
4094000000.0000005 1.0157858334037237 -0.2615352705371831
4097000000.0000005 0.9985178693565296 -0.2514363515411771
4099999999.9999995 1.0037850629460865 -0.31820351899374405
4102999999.9999995 1.052594295308595 -0.30008561003681233
4106000000.0 1.0054004860652255 -0.28311377668550763
4109000000.0 1.0029624137124784 -0.3203837199117
4112000000.0 0.971683383519428 -0.30674098633603225
4115999999.9999995 0.9859429616501022 -0.27083266363910075
4119000000.0 0.9732650857357311 -0.3448058966022389
4122000000.0 1.067040432354322 -0.3080154833954542
4125000000.0 1.0465244676346441 -0.3321173296652853
4128000000.0 0.9969721777421962 -0.22704584724512475
4131000000.0 0.9675968325769775 -0.2556071896640598
4134000000.0000005 0.9869851142341601 -0.3222696011256497
4138000000.0 0.9100602890185789 -0.3288187892802858
4141000000.0 0.9859810401580373 -0.360625336592489
4144000000.0 0.9809778010921402 -0.26815941280508354
4147000000.0000005 0.9110777073724425 -0.3298831405721602
4150000000.0000005 1.0284532325744846 -0.32582502561240456
4152999999.9999995 1.0032540533128453 -0.3508622726613986
4155999999.9999995 1.0165628987059532 -0.30770012641059225
4159000000.0 0.980676741148019 -0.29366692091504165
4162000000.0 0.9541742058453387 -0.32261629750715703
4166000000.0000005 0.97222860055637 -0.3613968601275791
4168999999.9999995 0.9707612340477677 -0.3229093178011595
4171999999.9999995 0.9946219245923307 -0.34456250259090426
4175000000.0 0.96616744224861 -0.30268403136241334
4178000000.0 0.9894748770555074 -0.3210005683336388
4181000000.0 1.0198651810683013 -0.2695940686548441
4184000000.0 1.024652287325109 -0.32037606590288603
4187999999.9999995 1.0007151863423784 -0.2949938876965866
4191000000.0 0.9785313933716057 -0.27951351678017355
4194000000.0 0.9629276885476394 -0.3025656834265244
4197000000.0 0.9834148035429284 -0.34564779146978797
4200000000.0 0.9450872146316461 -0.358628459026588
4203000000.0000005 0.9696869970856804 -0.2905104390590828
4206000000.0000005 0.960216527356459 -0.3625524186789776
4208999999.9999995 0.9939958306800952 -0.286652139409728
4211999999.9999995 0.9627782254779359 -0.33207133051729065
4216000000.0 0.9234129105178319 -0.3313166628226605
4219000000.0000005 0.9547512195290417 -0.3145776954596623
4222000000.0000005 0.97160468040727 -0.3535193977086353
4224999999.9999995 0.9655915665888937 -0.32703234121105645
4227999999.9999995 1.0027551095481952 -0.32847554843768717
4231000000.0 0.9455983303891973 -0.34334861377314907
4234000000.0 1.0031418942377803 -0.2999013964883635
4238000000.0000005 0.9566648202118349 -0.3324017677408163
4240999999.9999995 1.0031699019902278 -0.30878022369799174
4244000000.0 0.9570891005264537 -0.32203515870329436
4247000000.0 0.9928801578508942 -0.34355017476612404
4250000000.0 0.9566421153763638 -0.33633659045658415
4253000000.0 0.9717947374310196 -0.32948785261869
4256000000.0 0.9298564170616674 -0.3414299546016415
4259000000.0000005 0.9674702317597861 -0.3574165467813102
4261999999.9999995 0.9641212693622918 -0.347186091298486
4266000000.0 0.9711992122555505 -0.332413053308081
4269000000.0 0.9909381924881482 -0.3262701793267638
4272000000.0000005 0.9705177988686542 -0.37053758931800523
4275000000.0000005 0.9414292272992979 -0.3473560781678304
4277999999.9999995 0.9878778805659971 -0.354516525609986
4280999999.9999995 0.9673904202118976 -0.35576118579316807
4284000000.0 0.9625030516367585 -0.3548717778683708
4288000000.0000005 0.9787514730464026 -0.322685856419573
4291000000.0000005 0.9393750532080873 -0.3497437147721294
4293999999.9999995 0.9540089808800676 -0.34975905578225386
4297000000.0 0.938404937313297 -0.3712475387888499
4300000000.0 0.9737268290397341 -0.37639814383114484
4303000000.0 0.9638901314980719 -0.3381662824887682
4306000000.0 0.9623975774983127 -0.33593462103353194
4309000000.0 0.9463248675308698 -0.3384203508671438
4312000000.0 0.9731880689458459 -0.34951697727226766
4316000000.0 0.9737816373118591 -0.3348979999910588
4319000000.0 0.9664821044475798 -0.36630576563050404
4322000000.0 0.933631551712601 -0.37094730530256653
4325000000.0 0.9520561929461245 -0.36555876884886895
4328000000.0 0.94531745887741 -0.3586835805697939
4331000000.0 0.9294420213401944 -0.40027692080935345
4334000000.0 0.9519103216074805 -0.37327274007673433
4338000000.0 0.9530600134763053 -0.35037745198311915
4341000000.0 0.9561567659264829 -0.35972071046472404
4344000000.0 0.9643024413385625 -0.38293050968630193
4347000000.0 0.94584319151711 -0.3542090763671701
4350000000.0 0.8899583748334674 -0.3613354687000439
4353000000.0 0.9265915601447132 -0.35847843279235136
4356000000.0 0.9371472780524492 -0.38215374896697424
4359000000.0 0.9218295602866843 -0.3631827798535958
4362000000.0 0.9307277912020309 -0.43738654422465256
4366000000.0 0.9596827561407247 -0.39152284867548937
4369000000.0 0.9000502554578642 -0.37381038414402584
4372000000.0 0.9103983576270583 -0.40266290051340864
4375000000.0 0.9306124098381383 -0.3855580162086121
4378000000.0 0.9268687379800952 -0.3825798116890162
4381000000.0 0.942534628900439 -0.35581293249899437
4384000000.0 0.9772081046899416 -0.3970165748450479
4388000000.0 0.9153200187012798 -0.3620316513783931
4391000000.0 0.9425445348188819 -0.3811922067961652
4394000000.0 0.9078034577712076 -0.3858607489233156
4397000000.0 0.9070293073598121 -0.3753529081461894
4400000000.0 0.9442030072198181 -0.4012900234693666
4403000000.0 0.9502944885701132 -0.3908332725194465
4406000000.0 0.9184699929501401 -0.4266381595894459
4409000000.0 0.9670212221949801 -0.39424251739873734
4412000000.0 0.9056459169951474 -0.42065289713137255
4416000000.0 0.9197874389732374 -0.4004018570405067
4419000000.0 0.92272712496021 -0.4073456109035688
4422000000.0 0.922145373035599 -0.3997348831161755
4425000000.0 0.9489655850677199 -0.385360768694721
4428000000.0 0.9216110328076057 -0.40687437261244724
4431000000.0 0.9492380321432117 -0.4079937751780758
4434000000.0 0.937645369174329 -0.38917122739197657
4438000000.0 0.9577026419924426 -0.4223220476544602
4441000000.0 0.9493588996051072 -0.4068184487669065
4444000000.0 0.9117048535628 -0.3938226357782507
4447000000.0 0.91533481469329 -0.42158997139518006
4450000000.0 0.9263311318199895 -0.3683674406550797
4453000000.0 0.9591234380414968 -0.41315425647222154
4456000000.0 0.8997134217598246 -0.3985365160567119
4459000000.0 0.8660769069882329 -0.40558757913812143
4462000000.0 0.9685559425187549 -0.4586905405841455
4466000000.0 0.9549863255216574 -0.4416394728154
4469000000.0 0.9320777423036932 -0.4071807421553594
4472000000.0 0.938056125277875 -0.4616158155038339
4475000000.0 0.8961544118813118 -0.41015145097927164
4478000000.0 0.982035088539583 -0.46142515548047486
4481000000.0 0.8903557564688371 -0.426214270805897
4484000000.0 0.8890147419085627 -0.4584907283418414
4488000000.0 0.8979814341662884 -0.4373435494833679
4491000000.0 0.8975690869916191 -0.43290713137444115
4494000000.0 0.9080390713871255 -0.42126577156210776
4497000000.0 0.9080228167326216 -0.41908816617688177
4500000000.0 0.9059656538821597 -0.4130542244604586
4503000000.0 0.9393509912253877 -0.4205615914961767
4506000000.0 0.8906044904832406 -0.42461964363905175
4509000000.0 0.9121360565839371 -0.42943029780798314
4512000000.0 0.8920508873073485 -0.42624776229564526
4516000000.0 0.9269074209039605 -0.4203853376879738
4519000000.0 0.8830337667343936 -0.4063451289525728
4522000000.0 0.8909034306033107 -0.46009976519259244
4525000000.0 0.9112852035483001 -0.3981960642387869
4528000000.0 0.9451959528068761 -0.45905384853702785
4531000000.0 0.9254082485395256 -0.41840972404666754
4534000000.0 0.8990905806145167 -0.41537785750523626
4538000000.0 0.9004804598407226 -0.439008244012998
4541000000.0 0.8861771766378311 -0.4776011014239817
4544000000.0 0.8950817861742899 -0.43537503553360624
4547000000.0 0.8883507291749417 -0.4258697195753403
4550000000.0 0.9022053579355102 -0.4725103027311276
4553000000.0 0.9030524155536043 -0.4594414747656901
4556000000.0 0.856654386561831 -0.46721223423989067
4559000000.0 0.8858099397211628 -0.4468802764140694
4562000000.0 0.913684446249448 -0.44832391963698504
4566000000.0 0.9036056533484649 -0.47630133900542115
4569000000.0 0.8728572454305858 -0.44344194737384046
4572000000.0 0.8844238174812795 -0.4588761067489838
4575000000.0 0.8849350344495577 -0.503000288781898
4578000000.0 0.9422210454473358 -0.44133685983126847
4581000000.0 0.9034077829460623 -0.4678162399578285
4584000000.0 0.8731109715373622 -0.4387726881805847
4588000000.0 0.8990287435510781 -0.4448859621319832
4591000000.0 0.9107180999299197 -0.430168624813484
4594000000.0 0.8926687789525176 -0.47053499559364775
4597000000.0 0.9038694249522489 -0.4803693390623299
4600000000.0 0.8614328152658588 -0.47925373363056845
4603000000.0 0.9028856616643175 -0.4735364051257641
4606000000.0 0.8899347505683693 -0.44937469277478426
4609000000.0 0.8952180013123595 -0.4816146622333405
4612000000.0 0.9079017973009669 -0.48556329955843713
4616000000.0 0.8685134438455474 -0.46333371942348933
4619000000.0 0.9071710123392431 -0.46075780071729516
4622000000.0 0.9083527128776925 -0.4528453563726048
4625000000.0 0.8488860764592026 -0.44832322530915986
4628000000.0 0.8507247597230956 -0.4298420035849251
4631000000.0 0.8495677402437091 -0.49481901060723177
4634000000.0 0.8589106780274423 -0.47513980854183535
4638000000.0 0.8924911434434418 -0.4802477084405462
4641000000.0 0.9168805823060677 -0.4782947467842262
4644000000.0 0.8832415672711931 -0.4871991487599634
4647000000.0 0.9045681656557387 -0.4828050956146128
4650000000.0 0.8703570299466976 -0.493366490802264
4653000000.0 0.9053968661202442 -0.4945032070357617
4656000000.0 0.855107037202297 -0.5154704988565226
4659000000.0 0.8612335884854604 -0.4933666017525837
4662000000.0 0.885735677337931 -0.4854440026931732
4666000000.0 0.8816593701191753 -0.47395399596518456
4669000000.0 0.8932926199784766 -0.48440672023732967
4672000000.0 0.8621327459939488 -0.5291219366298787
4675000000.0 0.8358194545234562 -0.5241887527340541
4678000000.0 0.8755229766829082 -0.49678253070070977
4681000000.0 0.8582604863255511 -0.5186001518092875
4684000000.0 0.8321653175021915 -0.5096889960798999
4688000000.0 0.8616442759939783 -0.48872008650643034
4691000000.0 0.8664713734410615 -0.4702851139010844
4694000000.0 0.8720191787379922 -0.5061215066226865
4697000000.0 0.857381446201153 -0.5090015505165784
4700000000.0 0.8861832730004393 -0.4882989923430862
4703000000.0 0.8585339883810058 -0.5177369090201114
4706000000.0 0.864397405158316 -0.5078035753248842
4709000000.0 0.8616386939588706 -0.4938454074578727
4712000000.0 0.8437076724749927 -0.5292421843664901
4716000000.0 0.856368113493579 -0.5388140591011698
4719000000.0 0.8587599375930867 -0.5248280841629861
4722000000.0 0.8680370644873503 -0.4994442751728701
4725000000.0 0.8675704814363026 -0.5327488497156777
4728000000.0 0.8626813170349141 -0.5220612583466024
4731000000.0 0.8759532526436087 -0.5164171674064681
4734000000.0 0.8667339266403108 -0.496254867221132
4738000000.0 0.8667152060172538 -0.531787314453186
4741000000.0 0.8807916487841332 -0.5131009331218154
4744000000.0 0.8695524802481897 -0.5365195830496821
4747000000.0 0.860775586876146 -0.5329191029531449
4750000000.0 0.8585211205078129 -0.535579336538016
4753000000.0 0.8634047911796903 -0.5443225445710348
4756000000.0 0.8392876704940654 -0.5520802030036975
4759000000.0 0.8264468823454509 -0.5468006796310289
4762000000.0 0.8437095114630858 -0.5306503081769237
4766000000.0 0.8464997421376963 -0.5227172296255247
4769000000.0 0.8798160040627185 -0.5635615585515764
4772000000.0 0.8767410885709316 -0.5476033903137777
4775000000.0 0.8715240032372455 -0.5858226605770668
4778000000.0 0.862054903694252 -0.5157700702665081
4781000000.0 0.8651994063630357 -0.5401531553873491
4784000000.0 0.8966081548677132 -0.5236664942084025
4788000000.0 0.8601558251277029 -0.5445153790889694
4791000000.0 0.8446002532321989 -0.5482839637911119
4794000000.0 0.8632056872765632 -0.547591079950243
4797000000.0 0.8416421185001614 -0.556200028195619
4800000000.0 0.8383364976163233 -0.5465476705738012
4803000000.0 0.8172863819717736 -0.5722686942569748
4806000000.0 0.8745699779886593 -0.5453083973562542
4809000000.0 0.8097561851193542 -0.557550156108764
4812000000.0 0.8294908558139166 -0.5610708350229564
4816000000.0 0.851854191970316 -0.5442416407866033
4819000000.0 0.8649647911072894 -0.5555418727343291
4822000000.0 0.8614986160038518 -0.5580943971560464
4825000000.0 0.8593868800118752 -0.5329590728851386
4828000000.0 0.8432706176198616 -0.5435288882626487
4831000000.0 0.8163419628840487 -0.588609658718394
4834000000.0 0.8513638779340094 -0.5505454432787009
4838000000.0 0.8627795109812965 -0.5723033293117332
4841000000.0 0.8364234507734692 -0.5619159762881671
4844000000.0 0.8569110433520906 -0.5372773006165271
4847000000.0 0.8475941859359692 -0.521243729137921
4850000000.0 0.8359504801318601 -0.566859671947608
4853000000.0 0.8410986511329299 -0.5532716047108542
4856000000.0 0.8365121493092813 -0.5628674666839728
4859000000.0 0.8580873365542065 -0.5685204088650538
4862000000.0 0.8343226646251136 -0.5254649594916622
4866000000.0 0.8588224547073116 -0.582642274038875
4869000000.0 0.8351067729663715 -0.5643450684173419
4872000000.0 0.8533245341594012 -0.5889351512118401
4875000000.0 0.8990820079029226 -0.549214980287366
4878000000.0 0.8304354570342667 -0.5745372989416543
4881000000.0 0.8824723348594941 -0.6045021748001884
4884000000.0 0.8574068160047146 -0.5506901778839091
4888000000.0 0.8651635614427206 -0.5440401041114934
4891000000.0 0.863941256951503 -0.5508816315870575
4894000000.0 0.8403748775828936 -0.5660011267938497
4897000000.0 0.8550763764373983 -0.5419397094465832
4900000000.0 0.8399482397687745 -0.567827506897828
4903000000.0 0.8904851134839831 -0.5550447975694331
4906000000.0 0.8575334361678137 -0.5900329549906602
4909000000.0 0.8245005346139846 -0.5802850830579763
4912000000.0 0.8430984138468116 -0.5914537484313798
4916000000.0 0.8813085910481744 -0.5697613784210063
4919000000.0 0.8740406223462334 -0.5609787629472835
4922000000.0 0.8856295004493722 -0.5718459776815467
4925000000.0 0.8394404928001742 -0.5625816888475121
4928000000.0 0.875100738228413 -0.5276731224794973
4931000000.0 0.8590823359459483 -0.5470955877205113
4934000000.0 0.8205559810779803 -0.5666091342380873
4938000000.0 0.8021338195988474 -0.5837491540940077
4941000000.0 0.8392009386726649 -0.5728266028990936
4944000000.0 0.82497880600266 -0.5154765437854885
4947000000.0 0.8192393097106279 -0.5612608469485558
4950000000.0 0.801529928049515 -0.575635613415781
4953000000.0 0.8478705843609239 -0.6571151782750405
4956000000.0 0.8201084694738305 -0.5996282268000074
4959000000.0 0.7932295105093345 -0.5892382060533259
4962000000.0 0.8404888130640478 -0.5586252938245454
4966000000.0 0.8774011924378086 -0.5685926075893627
4969000000.0 0.8692079592197781 -0.5883483360667201
4972000000.0 0.8395750326446344 -0.607458329397399
4975000000.0 0.8544720530597508 -0.5233072513890292
4978000000.0 0.8428306113890707 -0.5999543847243152
4981000000.0 0.8640759085138416 -0.6039996795296538
4984000000.0 0.8045077876105893 -0.5564289620196281
4988000000.0 0.8220206784606204 -0.5442828777422469
4991000000.0 0.8848761612403362 -0.5440547674874598
4994000000.0 0.8443588871160218 -0.5569628989313491
4997000000.0 0.8206453094050337 -0.6207770959253118
5000000000.0 0.8430510807010396 -0.5842383032302558
5003000000.0 0.8761404688609464 -0.554533170830894
5006000000.0 0.8734274194871152 -0.6235577936770821
5009000000.0 0.8658463850152325 -0.5668301177090095
5012000000.0 0.8450977063710918 -0.5899511606423543
5016000000.0 0.8926402680310348 -0.5688348020715615
5019000000.0 0.798119327321052 -0.5933063320217871
5022000000.0 0.8658808239175101 -0.5854276720919439
5025000000.0 0.8872046902074592 -0.6288519869463508
5028000000.0 0.8247746643238691 -0.6014069188002574
5031000000.0 0.823202955659992 -0.5856646096802955
5034000000.0 0.8157312148999333 -0.6006816489786981
5038000000.0 0.8025883783841008 -0.5936621537727078
5041000000.0 0.8849192817695474 -0.5713206920486033
5044000000.0 0.8274176963063045 -0.5180102441578559
5047000000.0 0.867534502049343 -0.5754276094530438
5050000000.0 0.8698327259181889 -0.4949381885383871
5053000000.0 0.8827586256349008 -0.621727711145416
5056000000.0 0.8734511454045963 -0.5309439647471978
5059000000.0 0.9032580757352014 -0.5356097907748829
5062000000.0 0.8608784315695017 -0.6367589271564226
5066000000.0 0.8583153724539573 -0.5302105392015365
5069000000.0 0.8992279410582141 -0.6132006511240728
5072000000.0 0.8142632759119096 -0.578627517105859
5075000000.0 0.8626910943865341 -0.5435028810307196
5078000000.0 0.836712299466411 -0.6520104597849496
5081000000.0 0.8229950676984693 -0.5985864496260476
5084000000.0 0.8430087910951463 -0.6261542247867027
5088000000.0 0.8384280557121296 -0.5801585153398439
5091000000.0 0.8571921924460757 -0.5910336710542597
5094000000.0 0.895549456235772 -0.5941068498456028
5097000000.0 0.8772417617010478 -0.5613027918965429
5100000000.0 0.8158889182122622 -0.5784959909950269
5103000000.0 0.8289772560079091 -0.5740683617631852
5106000000.0 0.919811903968851 -0.6086063675568687
5109000000.0 0.8597915921584206 -0.5354819571813461
5112000000.0 0.8619829040115596 -0.5444450643781412
5116000000.0 0.7966093258353476 -0.560143364535795
5119000000.0 0.8898344129099297 -0.5853525054622907
5122000000.0 0.8338820712352581 -0.5388165340117506
5125000000.0 0.8328286653877665 -0.5376680340242003
5128000000.0 0.8329282462689775 -0.6247201849681059
5131000000.0 0.816804410018717 -0.582394037416035
5134000000.0 0.8564452687784151 -0.585146084863424
5138000000.0 0.8766562680895997 -0.5655255857244521
5141000000.0 0.8667313495068403 -0.5485364998198007
5144000000.0 0.8906138940120962 -0.571087967318349
5147000000.0 0.8719404053198662 -0.6316572577724987
5150000000.0 0.8761137001651926 -0.5461253733302139
5153000000.0 0.8441623641984553 -0.5589814945509348
5156000000.0 0.9077921466525053 -0.5431340439898511
5159000000.0 0.9080465903235353 -0.5607540912466604
5162000000.0 0.8672809845481642 -0.5847354795102242
5166000000.0 0.8727792804983593 -0.6307576784455111
5169000000.0 0.9018384923242403 -0.607040194421575
5172000000.0 0.8114962327581222 -0.580031309231416
5175000000.0 0.9156960122680965 -0.5898313053489127
