! Created with skrf 1.8.0 (http://scikit-rf.org).
# Hz S RI R 50.0 
!freq ReS11 ImS11
4000000000.0 0.5158237446257563 -0.8719698640592386
4003000000.0 0.5007127254089707 -0.952131735308454
4006000000.0 0.48729545086103443 -0.8952152488940651
4009000000.0000005 0.4674587947936574 -0.8881476417897041
4011999999.9999995 0.6050573364697012 -0.9043938118960283
4016000000.0 0.5172703016057992 -0.8802195044768115
4019000000.0 0.5198077718321807 -0.9004772765367501
4022000000.0000005 0.5614191566718034 -0.8863390146285851
4025000000.0000005 0.4682576876833029 -0.9600035860318674
4027999999.9999995 0.5079828327991761 -0.8870215942361352
4030999999.9999995 0.48848604187407385 -0.8726093465329489
4034000000.0 0.48845979855830757 -0.8902788854345114
4038000000.0000005 0.5024976567218277 -0.8738173408893759
4041000000.0000005 0.5106287572616057 -0.915504335047205
4043999999.9999995 0.5315449705767494 -0.9630072522475486
4046999999.9999995 0.5573115859132486 -0.9102623433889288
4050000000.0 0.4969968436334039 -0.9155323105435779
4053000000.0 0.4865397124524756 -0.8960403302670991
4056000000.0 0.4982278934072938 -0.8893279673521265
4059000000.0 0.512436545259291 -0.8876532559294442
4062000000.0000005 0.5037843387678788 -0.8819233986747926
4066000000.0 0.46422411495870064 -0.8554502647257279
4069000000.0 0.4952556487131169 -0.9745641504006372
4072000000.0 0.48147267966114615 -0.9018181000186213
4075000000.0 0.5663988543235885 -0.8955256486080001
4078000000.0000005 0.5363144066742405 -0.917583799787041
4081000000.0000005 0.5633677938144388 -0.8626074392916824
4083999999.9999995 0.4987384512513241 -0.9139078776550079
4088000000.0 0.5655637808507155 -0.8813962818028996
4091000000.0 0.5152536445912925 -0.9608664352062553
4094000000.0000005 0.5222913542739772 -0.9116343387563768
4097000000.0000005 0.5033244964260999 -0.8937710908378002
4099999999.9999995 0.4795958973783399 -0.8922264722003741
4102999999.9999995 0.5055327775938674 -0.9178246467775253
4106000000.0 0.5214947249070955 -0.8883215611498307
4109000000.0 0.5025661434106368 -0.9031022097278834
4112000000.0 0.5246591302662376 -0.8983464601491997
4115999999.9999995 0.5614373170557299 -0.8753510355228057
4119000000.0 0.5051046918568184 -0.9165468108178182
4122000000.0 0.4614326717115268 -0.9515652518054997
4125000000.0 0.49049652793225174 -0.9112872298795986
4128000000.0 0.5285624904884266 -0.8591481733107954
4131000000.0 0.5092993270039251 -0.9064987995649771
4134000000.0000005 0.5200483864219708 -0.8841710614441809
4138000000.0 0.4910235270216272 -0.8967921543463871
4141000000.0 0.4834790983202786 -0.8919747110260898
4144000000.0 0.5415228459988035 -0.8933547545819338
4147000000.0000005 0.4841644518452758 -0.9050614282612643
4150000000.0000005 0.5417313008695959 -0.9087313464443959
4152999999.9999995 0.5103956196626421 -0.8908037019997411
4155999999.9999995 0.5364297638775847 -0.9285704375835759
4159000000.0 0.5101526690299587 -0.8608466889677298
4162000000.0 0.5278467644389833 -0.8859056670119542
4166000000.0000005 0.48781594841357734 -0.9224243254747065
4168999999.9999995 0.4808769609901661 -0.8899443014436891
4171999999.9999995 0.5070836447225258 -0.8875431650862218
4175000000.0 0.5124589907552104 -0.8721933077307137
4178000000.0 0.5280660848141515 -0.90806239999411
4181000000.0 0.49854704237272973 -0.8877741552258679
4184000000.0 0.5228550694103679 -0.8687895144967921
4187999999.9999995 0.49558968434184536 -0.9038673252075231
4191000000.0 0.5187466639227664 -0.8415675267490336
4194000000.0 0.47865209371056067 -0.8835292679240668
4197000000.0 0.5040780121344259 -0.888264266858302
4200000000.0 0.5306822890926107 -0.9050102842733914
4203000000.0000005 0.5249079688560792 -0.9041041528965756
4206000000.0000005 0.5126678447440545 -0.9220750744298043
4208999999.9999995 0.5225944126323294 -0.8754144951335198
4211999999.9999995 0.48070155400794806 -0.9058690811536504
4216000000.0 0.5254936504208964 -0.8791810715261299
4219000000.0000005 0.5285696067925811 -0.8918002543630172
4222000000.0000005 0.49499470763515424 -0.9081716463748537
4224999999.9999995 0.5121983956592794 -0.8762827264914682
4227999999.9999995 0.5133468251508908 -0.9023766442535016
4231000000.0 0.5061658841195462 -0.8924948944754758
4234000000.0 0.5019619037127735 -0.9059407994691392
4238000000.0000005 0.4880153965890879 -0.8950128532190156
4240999999.9999995 0.5123849467148266 -0.8862059539775311
4244000000.0 0.5056299843802912 -0.8904206261658151
4247000000.0 0.5125710412747805 -0.8840508071070806
4250000000.0 0.490567449199197 -0.8985885376232785
4253000000.0 0.4850075424416973 -0.8690093272480579
4256000000.0 0.5228297274899141 -0.9146322548463426
4259000000.0000005 0.4792742335315588 -0.8777441571502905
4261999999.9999995 0.4982331837381603 -0.8896257467011487
4266000000.0 0.47537367784073137 -0.9043870446123164
4269000000.0 0.49153871365269375 -0.8929003439759147
4272000000.0000005 0.5090608798340599 -0.8805144674109305
4275000000.0000005 0.4968517454410472 -0.9089277265289969
4277999999.9999995 0.5312354217764579 -0.927381154588962
4280999999.9999995 0.5096295322153269 -0.8864891998059837
4284000000.0 0.4860142581333862 -0.897997854880314
4288000000.0000005 0.5284234065057462 -0.8823801687784697
4291000000.0000005 0.48167169930647963 -0.8704239172232291
4293999999.9999995 0.4934984717700302 -0.8728866409109192
4297000000.0 0.506599291453018 -0.8556209408040036
4300000000.0 0.5003659733029933 -0.8560449978116349
4303000000.0 0.4658820282346762 -0.8944773213765117
4306000000.0 0.534907204382478 -0.8616740269523795
4309000000.0 0.4922650265673882 -0.8909884567591567
4312000000.0 0.5458749950713077 -0.881337283450197
4316000000.0 0.5172792451229431 -0.8985121406988394
4319000000.0 0.5097258180971184 -0.8555392969061777
4322000000.0 0.47958620436438526 -0.8740675600772948
4325000000.0 0.4948378632895226 -0.9009014488904185
4328000000.0 0.4938890510245645 -0.871012871197976
4331000000.0 0.49282366356396484 -0.9164609397131345
4334000000.0 0.5009121529095525 -0.8792941094865975
4338000000.0 0.5210219768105803 -0.8615747800122591
4341000000.0 0.5463844867351525 -0.8998688247352561
4344000000.0 0.5053780572156488 -0.9049236737395303
4347000000.0 0.47447232517062293 -0.8899845501166832
4350000000.0 0.4761903167291208 -0.8660421127042143
4353000000.0 0.5065200820698462 -0.8645379228321993
4356000000.0 0.47043032946701047 -0.8925085491073392
4359000000.0 0.48167998854585825 -0.8770938226081508
4362000000.0 0.4513144782722408 -0.937487587271695
4366000000.0 0.5002677603431576 -0.9110606002076749
4369000000.0 0.4569261483527028 -0.8778502674037683
4372000000.0 0.44424186000914334 -0.9046446268785316
4375000000.0 0.49759547922670544 -0.8679908742159124
4378000000.0 0.4862843275990021 -0.8843071499910626
4381000000.0 0.4916151612514694 -0.8658292838859827
4384000000.0 0.5083487719236596 -0.9393965004880489
4388000000.0 0.49242944594937327 -0.8567902156167576
4391000000.0 0.49916173105117356 -0.8895421144767935
4394000000.0 0.47024926931976635 -0.8640145909227546
4397000000.0 0.4647264825993006 -0.8880411499263139
4400000000.0 0.4911946433960104 -0.9108695315396054
4403000000.0 0.4840392508214859 -0.8876740212786
4406000000.0 0.46332523096339817 -0.8949120057007248
4409000000.0 0.4891521682058172 -0.9227500370435364
4412000000.0 0.42546524400196417 -0.9044046080251968
4416000000.0 0.45805624388161936 -0.890535459215873
4419000000.0 0.46097181973788937 -0.9041714850568902
4422000000.0 0.4903789390808104 -0.8631702374905375
4425000000.0 0.5021864371107516 -0.8996427996476093
4428000000.0 0.4799747429854817 -0.8983654296751213
4431000000.0 0.48831922089574 -0.8900244182030008
4434000000.0 0.45731085271688254 -0.8878315973327984
4438000000.0 0.5031325053434876 -0.9130193279523995
4441000000.0 0.4976013581436757 -0.898962917100236
4444000000.0 0.4685333443013404 -0.8762112520343794
4447000000.0 0.46693111068649285 -0.9007754346274652
4450000000.0 0.469220778833336 -0.868248933374612
4453000000.0 0.4915014991891118 -0.9119995351024285
4456000000.0 0.44318022130702855 -0.869588176751872
4459000000.0 0.44540817652948517 -0.8675159863929638
4462000000.0 0.4875747727036016 -0.9321402992213962
4466000000.0 0.46513878690540617 -0.9554737945384713
4469000000.0 0.49105827472425406 -0.8859247137715209
4472000000.0 0.4628588573544307 -0.9043924319693277
4475000000.0 0.4558273265365555 -0.8709346965785971
4478000000.0 0.470525705625352 -0.9512756973651397
4481000000.0 0.4426841470612031 -0.8815919766230137
4484000000.0 0.4382300362709837 -0.9056399318480228
4488000000.0 0.45301290223952073 -0.8782488965858166
4491000000.0 0.47324346752641033 -0.9065399944048843
4494000000.0 0.4541663708902544 -0.893684323341735
4497000000.0 0.4742481865570214 -0.8897029630681206
4500000000.0 0.4667689504354829 -0.8935122821003125
4503000000.0 0.4793110456091808 -0.9207446122547374
4506000000.0 0.4461567034927092 -0.8977268055254686
4509000000.0 0.4327605749567438 -0.8903521339861127
4512000000.0 0.4464661069615551 -0.8921452274113153
4516000000.0 0.4744319280369589 -0.9249117541587987
4519000000.0 0.4697342727511745 -0.8845157458809507
4522000000.0 0.4582188454878103 -0.9087159599162291
4525000000.0 0.4802064877834016 -0.8796421187626202
4528000000.0 0.4727120195539189 -0.9272099730753941
4531000000.0 0.46298869861582176 -0.8946819134842116
4534000000.0 0.4434914709783501 -0.8926053336674372
4538000000.0 0.4589765501701544 -0.9047899182925945
4541000000.0 0.4329149505624172 -0.9078702226965678
4544000000.0 0.44707836984163474 -0.8742283107844291
4547000000.0 0.46075389157405144 -0.9096499317061943
4550000000.0 0.4419886021044284 -0.9431604834503032
4553000000.0 0.44532349233379803 -0.9186706031579657
4556000000.0 0.4305116120079647 -0.9122252685337073
4559000000.0 0.45090797536619737 -0.9220859546820535
4562000000.0 0.4658804306625197 -0.9089998127301113
4566000000.0 0.4468581902312125 -0.9125692744063825
4569000000.0 0.44816410659877576 -0.9168011947532715
4572000000.0 0.43952185539875654 -0.9066652776374508
4575000000.0 0.43654988574938264 -0.915865607238178
4578000000.0 0.4624455098523474 -0.9168261739547732
4581000000.0 0.42865231209400745 -0.9131022017116099
4584000000.0 0.4270959512335244 -0.9136041133068036
4588000000.0 0.4760174980980305 -0.9187695517759474
4591000000.0 0.45462240508595697 -0.9150782670878747
4594000000.0 0.4287500276865752 -0.909599203790453
4597000000.0 0.4361026325785622 -0.9385301001812814
4600000000.0 0.41922470990684957 -0.9104651543279718
4603000000.0 0.43838773578693013 -0.9173738839527781
4606000000.0 0.4367899552183786 -0.9108835303512165
4609000000.0 0.4253169225509166 -0.9076785121694103
4612000000.0 0.4420772778135132 -0.9101681777024868
4616000000.0 0.43628035024517875 -0.91184581203467
4619000000.0 0.4393902121248072 -0.9046085143439143
4622000000.0 0.42561568678438055 -0.9056568990587709
4625000000.0 0.3980115267306751 -0.8908783295196503
4628000000.0 0.453302345875362 -0.9051030593191631
4631000000.0 0.42203251285511745 -0.9094331409090366
4634000000.0 0.4198086235269933 -0.9056493079078602
4638000000.0 0.4367702817697512 -0.9261805457875468
4641000000.0 0.43288371024899286 -0.898682663173246
4644000000.0 0.4336793460319145 -0.9057310395937261
4647000000.0 0.44040621197653856 -0.9241298833458551
4650000000.0 0.42726305111545415 -0.9165503387385532
4653000000.0 0.4438735733047576 -0.9268079553365484
4656000000.0 0.42908778935527875 -0.9194850891444174
4659000000.0 0.4197538228059664 -0.9165668821748842
4662000000.0 0.42833823997551146 -0.9318547756119308
4666000000.0 0.42797724661632175 -0.9244807330388642
4669000000.0 0.44694440236784516 -0.9120179455690491
4672000000.0 0.4138793412908301 -0.9227973075565468
4675000000.0 0.41215958041300255 -0.9342231987405578
4678000000.0 0.41766503970772423 -0.9080099196169987
4681000000.0 0.40138753791201315 -0.9492274230560944
4684000000.0 0.4034071147214371 -0.94373240263978
4688000000.0 0.40925173668983 -0.9388811340070176
4691000000.0 0.46089477471997325 -0.9266933058991463
4694000000.0 0.4350656190183494 -0.9061363302113921
4697000000.0 0.4012419835611595 -0.8887972826032041
4700000000.0 0.4109150912921752 -0.916956391882935
4703000000.0 0.4326614329317012 -0.8691520039861406
4706000000.0 0.3787863678766783 -0.9282233476512052
4709000000.0 0.4092788752820993 -0.8978900441322296
4712000000.0 0.4325712807746315 -0.9312349320299323
4716000000.0 0.4192168205841121 -0.9412119425603558
4719000000.0 0.4252271044011838 -0.9155812730099654
4722000000.0 0.43987774545209085 -0.9271749728587116
4725000000.0 0.4174663337094202 -0.932097714906414
4728000000.0 0.40187210265701917 -0.9039660932248728
4731000000.0 0.4421653394909258 -0.9676502787651138
4734000000.0 0.43754367499004754 -0.9038012074857217
4738000000.0 0.4611147321167421 -0.9416293082789571
4741000000.0 0.4241334684010685 -0.9673675422415398
4744000000.0 0.39803875735286354 -0.9287714781689446
4747000000.0 0.41903658869624455 -0.9019972721615114
4750000000.0 0.4097756061857485 -0.9614625136774093
4753000000.0 0.4288721135619621 -0.9312422307133147
4756000000.0 0.4058600640579243 -0.9394230142498015
4759000000.0 0.4177393114548698 -0.9513298657750239
4762000000.0 0.39995360404271163 -0.9816752272390775
4766000000.0 0.42348875629056054 -0.9359029554877394
4769000000.0 0.4189123203037681 -0.9580089920757964
4772000000.0 0.4311950214035071 -0.9282056521947611
4775000000.0 0.38067203628445145 -0.9590909245175548
4778000000.0 0.41133619145258826 -0.9721027501430249
4781000000.0 0.43840212617810104 -0.9233761028293168
4784000000.0 0.4235439571004781 -0.9060147960869857
4788000000.0 0.41168265458048037 -0.9654919611325838
4791000000.0 0.3988671609822167 -0.946400945764968
4794000000.0 0.44743812188628623 -0.9719783144570295
4797000000.0 0.3981710640461263 -0.9257671353471763
4800000000.0 0.4075351314983342 -0.9333942445372833
4803000000.0 0.3662168811711861 -0.9530240491228507
4806000000.0 0.39377260905234124 -0.9694269993160118
4809000000.0 0.3755572383774863 -0.9518324527649615
4812000000.0 0.3752076015277023 -0.9550104581467682
4816000000.0 0.4339782243984034 -0.91446071347076
4819000000.0 0.4155045718904148 -0.9685122435370143
4822000000.0 0.45123959790227164 -0.9570972534329356
4825000000.0 0.4512595946067006 -0.9544044474944575
4828000000.0 0.41458650395189367 -0.9251101547775572
4831000000.0 0.38557334184440173 -0.9798474911092387
4834000000.0 0.4248747688585986 -0.9314378256021026
4838000000.0 0.40093491139131976 -0.9685452639638482
4841000000.0 0.38734920570202924 -0.9264910412511693
4844000000.0 0.4406168701712061 -0.9383362789598577
4847000000.0 0.42452710816232775 -0.9178841726542619
4850000000.0 0.39846515986362874 -0.9821412023685003
4853000000.0 0.39721418247089796 -0.8922044192788373
4856000000.0 0.4061812506627118 -0.9264516777874977
4859000000.0 0.4099241430587972 -0.9762085283523336
4862000000.0 0.43347771458766116 -0.9196672885679277
4866000000.0 0.3943947038441096 -0.9641594676044526
4869000000.0 0.38915516177046583 -0.9582666794364741
4872000000.0 0.3913637574802317 -0.9749523232015678
4875000000.0 0.48156076512478796 -0.9655883480989426
4878000000.0 0.40191967773759474 -0.9428913304540568
4881000000.0 0.4114934366355746 -1.0285090904653382
4884000000.0 0.42204299893192493 -0.941997630088701
4888000000.0 0.4362366664347217 -0.9106681631700079
4891000000.0 0.4598891971527636 -0.9501353958498653
4894000000.0 0.37300729610153194 -0.952001882628427
4897000000.0 0.4501535339655284 -0.9344967000635398
4900000000.0 0.4233533612501913 -0.9715738339419953
4903000000.0 0.4589331635326113 -0.9441597225921017
4906000000.0 0.42952438921339586 -0.9422584315760822
4909000000.0 0.4081273193422698 -0.991359237384339
4912000000.0 0.4226237305618138 -0.9764183111894182
4916000000.0 0.4227517725253775 -0.9704617358170322
4919000000.0 0.4712007528287381 -0.9454748527906428
4922000000.0 0.43428698395311377 -0.9594417195872633
4925000000.0 0.36813286389127886 -0.9539013786134157
4928000000.0 0.47945473845941045 -0.9284907933785341
4931000000.0 0.4591337691395062 -0.938779073181733
4934000000.0 0.4054414612152455 -0.9161229293398663
4938000000.0 0.37245678695889006 -0.9441178146005994
4941000000.0 0.4091759855492891 -0.9097733810313194
4944000000.0 0.4416371426299112 -0.8890658513712938
4947000000.0 0.4086259682582738 -0.9218389344085581
4950000000.0 0.41286658886662947 -0.9363075743053394
4953000000.0 0.36839199827091096 -1.008604319337839
4956000000.0 0.38336994745042635 -0.9626511904806029
4959000000.0 0.38664631904881225 -0.9358962417974985
4962000000.0 0.4109094340380506 -1.0163385116204522
4966000000.0 0.4847462081801952 -0.9602491404445306
4969000000.0 0.4577795736079733 -0.9861238355946818
4972000000.0 0.41437331414856404 -0.9386967127534013
4975000000.0 0.42473516640368014 -0.9352623331971771
4978000000.0 0.39836724550039776 -0.9617998257876634
4981000000.0 0.4058897557671758 -0.9629854819221357
4984000000.0 0.4369236091665345 -0.9237009687777377
4988000000.0 0.4575483804650887 -0.9410753944044188
4991000000.0 0.48656633399515037 -0.9508106968995094
4994000000.0 0.4497043547938997 -0.933638293767093
4997000000.0 0.4033359798840546 -0.9416887948666399
5000000000.0 0.4478354431647755 -0.9561644353080896
5003000000.0 0.43541473418439824 -0.9593399951962256
5006000000.0 0.42149309495260845 -1.0164660403608385
5009000000.0 0.4217128002806826 -0.9386352473846431
5012000000.0 0.4394808188539494 -0.9499367911994259
5016000000.0 0.47353922712646734 -0.9665971639161355
5019000000.0 0.41427410688364413 -0.9900948062708805
5022000000.0 0.4248202419598532 -0.9214037812583699
5025000000.0 0.45666581586461624 -0.9883166314246924
5028000000.0 0.41647272267638746 -0.927575443100311
5031000000.0 0.41076944902440804 -0.9356254470694751
5034000000.0 0.3853427323193825 -0.9849894938786099
5038000000.0 0.3733505501973564 -0.9253736811139763
5041000000.0 0.493791391253563 -0.9765877696418193
5044000000.0 0.46322333811333094 -0.9005596511054638
5047000000.0 0.4290407003726489 -0.981727581214626
5050000000.0 0.48821090953057444 -0.8826309100568221
5053000000.0 0.446640800550781 -0.964151464801404
5056000000.0 0.4529288310591117 -0.9466214115846163
5059000000.0 0.4603655366738534 -0.9247468383929311
5062000000.0 0.4148473662506915 -1.0057940470743003
5066000000.0 0.4609292308798502 -0.9490254791743641
5069000000.0 0.4312259595391079 -0.9563627560585819
5072000000.0 0.4766820280579914 -0.9061230887412224
5075000000.0 0.4512385820796073 -0.9159818974291267
5078000000.0 0.38616690392139025 -0.9812612933843998
5081000000.0 0.36386803463798434 -0.9332369872469444
5084000000.0 0.44459036805958413 -0.9656895088395392
5088000000.0 0.4713885042135527 -0.972631482216957
5091000000.0 0.4142674922496819 -0.9409920053266619
5094000000.0 0.4477616745013279 -0.9678716517448174
5097000000.0 0.4466343209497089 -0.9423190884077182
5100000000.0 0.4272747821653293 -0.9389854692786177
5103000000.0 0.4206809164560426 -0.971626653096057
5106000000.0 0.4528092599027114 -0.962697191594561
5109000000.0 0.4567016522458408 -0.8856079519103205
5112000000.0 0.4027910350755995 -0.9258008126818024
5116000000.0 0.3877461721538879 -0.9468894995275037
5119000000.0 0.41029354999323553 -0.9432289206131454
5122000000.0 0.4320219543215522 -0.984600414105878
5125000000.0 0.4311631754330922 -0.9222301591003017
5128000000.0 0.4828974510826073 -0.9248905136251092
5131000000.0 0.4318126538081056 -0.956097361940122
5134000000.0 0.4519862823645886 -0.9525815889698138
5138000000.0 0.4668375523408668 -0.922689246120791
5141000000.0 0.4460209824090204 -0.9166923139343064
5144000000.0 0.45128436367712765 -0.9207948066774048
5147000000.0 0.48475714034174927 -0.969579935824749
5150000000.0 0.48453555260432857 -0.947760486781621
5153000000.0 0.43680632726934543 -0.9610095746017178
5156000000.0 0.46775552820737326 -0.9352290652667643
5159000000.0 0.4858188440359829 -0.969785361588759
5162000000.0 0.41681650348386895 -0.9387707254362332
5166000000.0 0.4315436939934068 -0.965921270131479
5169000000.0 0.4615906684771877 -0.9430870286515965
5172000000.0 0.4480082378145182 -0.9683659607267736
