! Created with skrf 1.8.0 (http://scikit-rf.org).
# Hz S RI R 50.0 
!freq ReS11 ImS11
4000000000.0 0.554491225127557 -0.9116678579961898
4003000000.0 0.5167681625923073 -0.9244351575741732
4006000000.0 0.49561395196269814 -0.8979446517876164
4009000000.0000005 0.5173107112617703 -0.8746175278682236
4011999999.9999995 0.6191856365395014 -0.910003502291842
4016000000.0 0.4955711122825751 -0.9396238135098263
4019000000.0 0.5034015052700898 -0.8850142874509757
4022000000.0000005 0.6086649088929172 -0.8772453252022656
4025000000.0000005 0.482946342834464 -0.9682035462236928
4027999999.9999995 0.4796357617379544 -0.9263505083919032
4030999999.9999995 0.4859346518772719 -0.864889498654569
4034000000.0 0.5241662509976933 -0.8759585376537332
4038000000.0000005 0.49830162200711703 -0.9259403957595337
4041000000.0000005 0.508277993612925 -0.8793067794506939
4043999999.9999995 0.5504355150512178 -0.9482517588093807
4046999999.9999995 0.5663957756151797 -0.9103459822381262
4050000000.0 0.5008863565621826 -0.9100341969982126
4053000000.0 0.47548599529301805 -0.8943470917753225
4056000000.0 0.5077455886949501 -0.9164040091113494
4059000000.0 0.48195506597090115 -0.9023243530840099
4062000000.0000005 0.49253100080694506 -0.9383344365696641
4066000000.0 0.4650866254355988 -0.8257829746898837
4069000000.0 0.5075327498808684 -0.9285923051782254
4072000000.0 0.5708792188775911 -0.862411543039709
4075000000.0 0.5811053475733742 -0.9428642352920251
4078000000.0000005 0.5229686847813417 -0.9096347902152045
4081000000.0000005 0.6002351882093236 -0.8569299075627008
4083999999.9999995 0.48682878850003863 -0.8927300238424053
4088000000.0 0.5623265135643654 -0.8268019401071415
4091000000.0 0.5440220229601358 -0.9533374413475324
4094000000.0000005 0.5266811979009574 -0.869629143792494
4097000000.0000005 0.5250852368864172 -0.9105224582560686
4099999999.9999995 0.5244928464538247 -0.8881659817912697
4102999999.9999995 0.5506148447882498 -0.8871033465191562
4106000000.0 0.5195249830340499 -0.9414721918767271
4109000000.0 0.4980836137418298 -0.8810494362359786
4112000000.0 0.5347188664497075 -0.9062104790899531
4115999999.9999995 0.543163075021907 -0.8862150882952329
4119000000.0 0.5120065160990437 -0.9184259048422847
4122000000.0 0.4840124514784066 -0.9207814135034988
4125000000.0 0.48717892443220684 -0.9427021309938213
4128000000.0 0.5107814073936775 -0.8606379034817938
4131000000.0 0.5184578404457459 -0.8832844838033564
4134000000.0000005 0.5706687485479819 -0.8780142381403867
4138000000.0 0.5082893033421708 -0.8830990231342349
4141000000.0 0.5136304980767292 -0.8650791011016645
4144000000.0 0.5539757955610931 -0.8746652622046206
4147000000.0000005 0.5356491009980792 -0.9088151505318152
4150000000.0000005 0.5411802283678874 -0.9195040175108077
4152999999.9999995 0.52037888125268 -0.9048805171407142
4155999999.9999995 0.555179539288173 -0.9192745608567355
4159000000.0 0.5454143233868277 -0.8833999202596523
4162000000.0 0.523528972342544 -0.866526884289749
4166000000.0000005 0.5009520023553163 -0.9012888316517209
4168999999.9999995 0.49781038614680856 -0.9188595353713339
4171999999.9999995 0.5225789923806806 -0.8764191032975528
4175000000.0 0.52981424559065 -0.9018850842258064
4178000000.0 0.5176083794822567 -0.9066813517635577
4181000000.0 0.5102874088961484 -0.8998016922997082
4184000000.0 0.5320495612170328 -0.8798856729642984
4187999999.9999995 0.5211839891677204 -0.8778457833047937
4191000000.0 0.5478711019686028 -0.8404559218565875
4194000000.0 0.4962490696732421 -0.8623969451994677
4197000000.0 0.5308715875203357 -0.8898684246033066
4200000000.0 0.543347838484694 -0.8674792143172756
4203000000.0000005 0.5467281826112824 -0.8714005059799957
4206000000.0000005 0.5322847395103145 -0.8979739606922005
4208999999.9999995 0.5198835107349828 -0.8750633083226198
4211999999.9999995 0.5021701326735615 -0.8918149539504725
4216000000.0 0.5264721940647874 -0.8859131508233563
4219000000.0000005 0.5208143784850456 -0.8971365161369282
4222000000.0000005 0.5043469521319776 -0.8871984244655514
4224999999.9999995 0.514850966642019 -0.8623841932987586
4227999999.9999995 0.5104081267571727 -0.8936261481886764
4231000000.0 0.5202271941300627 -0.8838977717272039
4234000000.0 0.5197110274889298 -0.8867021676999406
4238000000.0000005 0.5251418594347129 -0.8946886270952626
4240999999.9999995 0.5010031611385379 -0.8767568178811167
4244000000.0 0.5308861331086379 -0.8748917691117575
4247000000.0 0.523424175233492 -0.8742173471994155
4250000000.0 0.5041413916313193 -0.8694243327139364
4253000000.0 0.48435346200833196 -0.8668100701822536
4256000000.0 0.5183315238117817 -0.9039650189679809
4259000000.0000005 0.4978309031263807 -0.8557217557612911
4261999999.9999995 0.4862794520801663 -0.8798641256008007
4266000000.0 0.5015300511129631 -0.923110987118446
4269000000.0 0.5217982038446732 -0.8764015062022816
4272000000.0000005 0.4973961916583268 -0.8790474016291063
4275000000.0000005 0.5371563908010728 -0.8822116341583006
4277999999.9999995 0.5367154461224272 -0.874227563135693
4280999999.9999995 0.515858632468228 -0.8871678275020104
4284000000.0 0.4928458997148397 -0.9045839326962145
4288000000.0000005 0.5350162097952231 -0.8483056755598342
4291000000.0000005 0.4858962999121509 -0.8726531281252023
4293999999.9999995 0.5031884659578238 -0.8724188238967278
4297000000.0 0.5254200660306034 -0.845093292872843
4300000000.0 0.5069122815539395 -0.8701674115583653
4303000000.0 0.5297576638135159 -0.8553963913048399
4306000000.0 0.5469217410784946 -0.8638715271082784
4309000000.0 0.5310370482920688 -0.8568592401542332
4312000000.0 0.5639762667094715 -0.8666962222113567
4316000000.0 0.5529459539776559 -0.9022221136430767
4319000000.0 0.5011472071487835 -0.8534571254845756
4322000000.0 0.4837819783190999 -0.8852480810547748
4325000000.0 0.525416723086785 -0.8679048444624409
4328000000.0 0.5006552654137557 -0.8935086831395249
4331000000.0 0.48241935628556437 -0.8838772377343059
4334000000.0 0.5128744206526978 -0.8675550934505222
4338000000.0 0.5174897130150228 -0.8826425154974564
4341000000.0 0.5674383084919397 -0.8916152544176995
4344000000.0 0.5057021398837418 -0.8870135795864326
4347000000.0 0.5038280729833867 -0.8996905391308706
4350000000.0 0.4751250597267849 -0.8510365988884617
4353000000.0 0.5230404012162013 -0.8379769184032093
4356000000.0 0.4906074100354848 -0.8775885744881237
4359000000.0 0.46692914268534536 -0.837223997359273
4362000000.0 0.4776483755632401 -0.9172686919800522
4366000000.0 0.5079976366972179 -0.902071089299575
4369000000.0 0.4938825202091164 -0.8525924298509304
4372000000.0 0.4696860065767133 -0.8775997730725994
4375000000.0 0.5128259614821019 -0.8542381429964895
4378000000.0 0.48664596263331444 -0.8600777074668821
4381000000.0 0.49904779568495694 -0.8538922743179399
4384000000.0 0.5332397903089026 -0.9342695533928154
4388000000.0 0.5106819121000471 -0.8664488283605762
4391000000.0 0.5010182780141745 -0.8957250688888401
4394000000.0 0.4982780241295287 -0.8657924277983335
4397000000.0 0.48507528855771265 -0.8892081353432086
4400000000.0 0.5046253541069211 -0.8978168897057888
4403000000.0 0.5100511480776009 -0.882594522870014
4406000000.0 0.47371854115996026 -0.896190136025266
4409000000.0 0.5171377408805502 -0.9078728420054338
4412000000.0 0.4543184870622552 -0.8908530604942636
4416000000.0 0.4752785936552299 -0.8820927952262669
4419000000.0 0.47643551072844875 -0.9070592349015931
4422000000.0 0.5071883675238227 -0.8660949068830474
4425000000.0 0.5239943567217762 -0.8892652899267499
4428000000.0 0.4851678345413399 -0.8821407297525287
4431000000.0 0.5073697609950044 -0.8942525615831973
4434000000.0 0.4897960261018933 -0.8798387553301321
4438000000.0 0.505685115125087 -0.8995028010025328
4441000000.0 0.49700814038015173 -0.8999722639732971
4444000000.0 0.4871393791610352 -0.8563512809328262
4447000000.0 0.47589688308033035 -0.8895237255941196
4450000000.0 0.49749628387167544 -0.865086547979964
4453000000.0 0.5017397065972595 -0.9044700925750464
4456000000.0 0.46045865451194995 -0.8888097459801156
4459000000.0 0.46345364005782264 -0.8597237138311289
4462000000.0 0.516524076253263 -0.9359250979652869
4466000000.0 0.5143591647005972 -0.9153255874608119
4469000000.0 0.5151429627146717 -0.8864735172196019
4472000000.0 0.47197068787102103 -0.9175339203225004
4475000000.0 0.4672534298201368 -0.8784773203404409
4478000000.0 0.4969307322234243 -0.9330930253530505
4481000000.0 0.46089657768339237 -0.8793091889807338
4484000000.0 0.42536884560430827 -0.9268986931243499
4488000000.0 0.4673723284391718 -0.8717473235289833
4491000000.0 0.4922677903073572 -0.8899607413785549
4494000000.0 0.47361159531053326 -0.8746767234216601
4497000000.0 0.48591153285373784 -0.883178547658885
4500000000.0 0.5011241515084272 -0.8658639436511878
4503000000.0 0.49596576696811123 -0.8899084680731841
4506000000.0 0.47915337911655836 -0.8909960050256125
4509000000.0 0.49151844054281 -0.86426096742088
4512000000.0 0.46346780105718827 -0.8763087864890374
4516000000.0 0.49070548038086625 -0.9036377269501182
4519000000.0 0.47486683651892897 -0.8719021057277037
4522000000.0 0.4606299034012414 -0.8678729917253718
4525000000.0 0.5034547401238874 -0.8872185980232391
4528000000.0 0.49363922095835566 -0.915603553278047
4531000000.0 0.48921843115420033 -0.8790708948511958
4534000000.0 0.45414259952660835 -0.8800422317597054
4538000000.0 0.45548726929875194 -0.8979071058339364
4541000000.0 0.43869520203156 -0.8915016925344859
4544000000.0 0.4670740020178076 -0.8701431223956646
4547000000.0 0.47707312062828083 -0.8847915115661915
4550000000.0 0.4517646558923763 -0.9061543513141103
4553000000.0 0.47454693946491866 -0.8963446058783324
4556000000.0 0.4619750696809936 -0.8757800402700762
4559000000.0 0.4611211654408264 -0.8957539229517608
4562000000.0 0.4713158360761061 -0.9040068613394023
4566000000.0 0.4770358455432155 -0.9116660329584982
4569000000.0 0.457402931376938 -0.8837375511134463
4572000000.0 0.46227311395320037 -0.8841095748459843
4575000000.0 0.45082926430853715 -0.9029785344862684
4578000000.0 0.4941410389270634 -0.9054300999426761
4581000000.0 0.45740691244766934 -0.9093782966850433
4584000000.0 0.45588709252440496 -0.8972750074774496
4588000000.0 0.4743571402004785 -0.9103842277368336
4591000000.0 0.477548294475604 -0.8900925857223347
4594000000.0 0.4495493774259588 -0.9046547888874606
4597000000.0 0.47456064506548107 -0.9146956752332365
4600000000.0 0.4400690490998943 -0.9020468580506524
4603000000.0 0.44971742072059884 -0.9128492220017931
4606000000.0 0.48656061867514466 -0.9116437604088183
4609000000.0 0.4627342421170898 -0.8982130908336285
4612000000.0 0.45315899587814373 -0.9209421822180357
4616000000.0 0.4386226124942737 -0.8937064415575455
4619000000.0 0.47278119487772235 -0.8789704375744748
4622000000.0 0.4644364463535988 -0.9145420907705132
4625000000.0 0.42184685977435443 -0.8926413441205538
4628000000.0 0.4544565181748301 -0.902006159126947
4631000000.0 0.45548546711850735 -0.8992041343742658
4634000000.0 0.4446252006366665 -0.9045135157234229
4638000000.0 0.4522356574117147 -0.9233576574210154
4641000000.0 0.47311655974857525 -0.9002060897864784
4644000000.0 0.4481468971934336 -0.8885100945908895
4647000000.0 0.44933730465625144 -0.9075152527616721
4650000000.0 0.4364570320770138 -0.9114097702429272
4653000000.0 0.46466055516844407 -0.8988408921238126
4656000000.0 0.43642033352361154 -0.9080309356236789
4659000000.0 0.4243474612622936 -0.9035349960753566
4662000000.0 0.43341452930194607 -0.8996168907493619
4666000000.0 0.4478131589738068 -0.9053175407339354
4669000000.0 0.45586439464895157 -0.8916913204435258
4672000000.0 0.4440361264287086 -0.9465225914718981
4675000000.0 0.4351643760000614 -0.9334340665820846
4678000000.0 0.4384195194407078 -0.8916223700443285
4681000000.0 0.4362181775303191 -0.94507092496783
4684000000.0 0.4063026414370883 -0.9367074660637509
4688000000.0 0.4460591998716029 -0.9175181712224159
4691000000.0 0.4728635519441114 -0.9207339825047282
4694000000.0 0.44988812341340706 -0.9065577928111019
4697000000.0 0.40489547963461414 -0.8822108960007599
4700000000.0 0.4612075112559433 -0.9014489263739406
4703000000.0 0.47009092160901544 -0.8745598316507585
4706000000.0 0.4152536589748985 -0.93033333215907
4709000000.0 0.42184265932616466 -0.897341037915522
4712000000.0 0.42164146257333807 -0.9282463454619965
4716000000.0 0.44225338617522547 -0.9317588531979021
4719000000.0 0.4686772989935446 -0.919149258794704
4722000000.0 0.4638933401350229 -0.8938232917134968
4725000000.0 0.4384025694544873 -0.900285097797687
4728000000.0 0.4276184643330503 -0.9485363109398727
4731000000.0 0.4566516402296595 -0.9088039041675878
4734000000.0 0.4694017437458991 -0.9075075014795765
4738000000.0 0.4655338823812215 -0.9373536362380216
4741000000.0 0.44000999823401077 -0.9442474502570557
4744000000.0 0.42452658043389 -0.938717611134396
4747000000.0 0.4268175753982151 -0.8812847538511082
4750000000.0 0.44434815124236976 -0.9102251256663674
4753000000.0 0.4259103430881194 -0.8930440562763621
4756000000.0 0.4193789309645214 -0.957121769593021
4759000000.0 0.4611517514267876 -0.9315737307259072
4762000000.0 0.4225282957163245 -0.9464132549936661
4766000000.0 0.4290676159561826 -0.929094645804988
4769000000.0 0.4546187627095679 -0.9145315005584743
4772000000.0 0.45072470520988756 -0.9500027545898213
4775000000.0 0.4556193553716604 -0.9797994779378444
4778000000.0 0.43878433552747464 -0.9499568947681347
4781000000.0 0.4524017918408747 -0.8943251715969639
4784000000.0 0.4753491627302774 -0.9068669849809495
4788000000.0 0.441420322233807 -0.9663427308236964
4791000000.0 0.4499532541603219 -0.9162855915725487
4794000000.0 0.48713478320374126 -0.9490985762841979
4797000000.0 0.4313750940239416 -0.911228759409802
4800000000.0 0.42335954071589477 -0.9116754727560549
4803000000.0 0.3877780810506698 -0.9424679687675757
4806000000.0 0.4482915685329499 -0.9380918626509467
4809000000.0 0.4111651169236783 -0.9173859124695851
4812000000.0 0.40976894538282416 -0.9299772525946983
4816000000.0 0.4528977419261227 -0.8995842176982568
4819000000.0 0.47901387828989406 -0.9422387857594274
4822000000.0 0.4766324764382861 -0.9451155945308752
4825000000.0 0.4501791114224606 -0.937245095100575
4828000000.0 0.4260868699597785 -0.9179580068595239
4831000000.0 0.42013376309761524 -0.9823300378200889
4834000000.0 0.4456279693704277 -0.9256189971660717
4838000000.0 0.39853240364954445 -0.9610444190541301
4841000000.0 0.43800206178926404 -0.9244311583994802
4844000000.0 0.4527996260508211 -0.901884688267697
4847000000.0 0.4412226470882384 -0.89163998470909
4850000000.0 0.4350389688613996 -0.9566171199504943
4853000000.0 0.42714903322636055 -0.9184667202793566
4856000000.0 0.4259485584047648 -0.9200209638891048
4859000000.0 0.4611199801196761 -0.9537638567434507
4862000000.0 0.4401552991951428 -0.8930958931868019
4866000000.0 0.4222242525764566 -0.9649425087974248
4869000000.0 0.417327499907134 -0.9630579404513158
4872000000.0 0.4311878645086991 -0.9671934153361685
4875000000.0 0.5225352869421193 -0.9332105702190637
4878000000.0 0.42987671110209136 -0.9477321288843783
4881000000.0 0.42989104198063305 -0.9791048611976152
4884000000.0 0.4884701288992682 -0.936210680967274
4888000000.0 0.47707194728824576 -0.9148686450485265
4891000000.0 0.47752172325987624 -0.9391023078755404
4894000000.0 0.4385297336712801 -0.9477549826342638
4897000000.0 0.4704524934407255 -0.8917366416051078
4900000000.0 0.4311396187999613 -0.9588471275173656
4903000000.0 0.4646021337432827 -0.9403614191076298
4906000000.0 0.42777368698661533 -0.9518632744355064
4909000000.0 0.40931229087286736 -0.9240029978550351
4912000000.0 0.4072641402401025 -0.9932261935938546
4916000000.0 0.45907085220199684 -0.9389042663440832
4919000000.0 0.5120502048468556 -0.953970216825995
4922000000.0 0.4789087214161214 -0.9475820603183552
4925000000.0 0.42660960253275815 -0.9327312084090366
4928000000.0 0.48944008387846166 -0.897909955960485
4931000000.0 0.48466451436965 -0.902182079485236
4934000000.0 0.4589694270646137 -0.9108547035845118
4938000000.0 0.3992691624536997 -0.9428255808206015
4941000000.0 0.47729381862062964 -0.9112527975487904
4944000000.0 0.42991376673848414 -0.8538038337956004
4947000000.0 0.4080130711823253 -0.9006813157743712
4950000000.0 0.4582501428384501 -0.9157047630869921
4953000000.0 0.4124347569721996 -0.9909586475319112
4956000000.0 0.42054889632047143 -0.9425113573770234
4959000000.0 0.3943238701442568 -0.9443621812165119
4962000000.0 0.4394295259151024 -0.9741410087553001
4966000000.0 0.47976962735861495 -0.9626515258885275
4969000000.0 0.4928073299826884 -0.957414888667306
4972000000.0 0.44122519419414785 -0.9244108324377774
4975000000.0 0.45633034351818613 -0.9255270548681119
4978000000.0 0.46435162471334435 -0.9414020401752307
4981000000.0 0.43957832395015184 -0.960248631705287
4984000000.0 0.44360010169523323 -0.9169945541160929
4988000000.0 0.46470815389036424 -0.9267011642460952
4991000000.0 0.5184519546075843 -0.9327213598680331
4994000000.0 0.4457027747601292 -0.9208382761813803
4997000000.0 0.4224325256068569 -0.9665459022721596
5000000000.0 0.4614327137647951 -0.9664114411414386
5003000000.0 0.445795039386516 -0.949693702687063
5006000000.0 0.45237158694509605 -0.9600463022198635
5009000000.0 0.46262896306407153 -0.9083216691904791
5012000000.0 0.4505912876691185 -0.9266226880387113
5016000000.0 0.5132787530564604 -0.9694229861685657
5019000000.0 0.4260851582326235 -0.9286297151763593
5022000000.0 0.45199796512697415 -0.949401859939109
5025000000.0 0.4780308509167533 -0.9636689025174661
5028000000.0 0.425158967238281 -0.9597036542151214
5031000000.0 0.4379505581396435 -0.9292853484224609
5034000000.0 0.4249911194460469 -0.9705440421406613
5038000000.0 0.4220584171524232 -0.9289790144267533
5041000000.0 0.49648601242157964 -0.9255145295684206
5044000000.0 0.4879275824825779 -0.9180473310161541
5047000000.0 0.49445297785453096 -0.9429944814077429
5050000000.0 0.5012153776084491 -0.8877520642505781
5053000000.0 0.45128146946970926 -0.9728072412534257
5056000000.0 0.5035631934930389 -0.9188831437226888
5059000000.0 0.5070520511432477 -0.8878099470724558
5062000000.0 0.4058092670734089 -0.9966281090487046
5066000000.0 0.48784735057736095 -0.9322821447184196
5069000000.0 0.46822504079753446 -0.921188004936156
5072000000.0 0.4553902681377613 -0.8871488290759051
5075000000.0 0.48417781794277837 -0.9122981121127516
5078000000.0 0.4564448650822048 -0.9665645386182236
5081000000.0 0.4584192678686725 -0.892273025256966
5084000000.0 0.47268110752282966 -0.9720340336790152
5088000000.0 0.4676252129325744 -0.888650191958684
5091000000.0 0.4390858055358984 -0.9467208506558114
5094000000.0 0.49836663980258017 -0.8788950824987041
5097000000.0 0.4833171080482313 -0.8857299569833003
5100000000.0 0.4213662382213188 -0.9018827002011915
5103000000.0 0.4544970393432608 -0.9595398067199096
5106000000.0 0.4892917560004394 -0.943919701515745
5109000000.0 0.4658684276720033 -0.9180996421540091
5112000000.0 0.4551095718432118 -0.9500843577606508
5116000000.0 0.4345257617987156 -0.8866289115816485
5119000000.0 0.467864649126274 -0.9813620103294911
5122000000.0 0.47895447114269524 -0.9132919130293045
5125000000.0 0.48648736201387593 -0.9287485135276317
5128000000.0 0.45866604856723076 -0.9077463055069497
5131000000.0 0.44686096847597107 -0.9005279727517246
5134000000.0 0.44691631504693125 -0.940424349365369
5138000000.0 0.497752422062767 -0.9382482116529964
5141000000.0 0.521290042944528 -0.942788314406994
5144000000.0 0.49854715772402586 -0.9306616086615573
5147000000.0 0.512820796971718 -0.9524738405765307
5150000000.0 0.5219839210374706 -0.9514065963153995
5153000000.0 0.47686769210761726 -0.9356107243115379
5156000000.0 0.48330673076855873 -0.9553819863237345
5159000000.0 0.49942277751720904 -0.9577410614964414
5162000000.0 0.47906104159030344 -0.9544699543016164
5166000000.0 0.5004231171137976 -0.9580500939270407
5169000000.0 0.5100531710153542 -0.9377349051774835
5172000000.0 0.47337437298719864 -0.9036186052869939
