! Created with skrf 1.8.0 (http://scikit-rf.org).
# Hz S RI R 50.0 
!freq ReS11 ImS11
4000000000.0 0.5132131064415191 -0.8764146591587243
4003000000.0 0.5486988404617998 -0.9329965055012328
4006000000.0 0.48933680728484474 -0.9203233580075905
4009000000.0000005 0.5064110223027717 -0.8929618171294671
4011999999.9999995 0.5558764571088484 -0.8739982870338835
4016000000.0 0.5095009875738821 -0.9286747788847349
4019000000.0 0.5166938195702353 -0.9037587279888813
4022000000.0000005 0.5933042315712789 -0.886557847953291
4025000000.0000005 0.4648813584290924 -0.931282311434214
4027999999.9999995 0.4674973703411178 -0.9080788280277625
4030999999.9999995 0.4704822694610952 -0.8371402819836133
4034000000.0 0.48380527187756756 -0.9048115091928028
4038000000.0000005 0.49438432656070874 -0.9311103137470327
4041000000.0000005 0.5071383242721642 -0.9132061697161924
4043999999.9999995 0.532747422205283 -0.9314449227037715
4046999999.9999995 0.4960759940386936 -0.9414734143075187
4050000000.0 0.4854379619797466 -0.9852282547189792
4053000000.0 0.4660226272574417 -0.9252548231101692
4056000000.0 0.544991641526307 -0.9019620464089172
4059000000.0 0.5324971619368353 -0.8783936773853017
4062000000.0000005 0.5011488234726984 -0.9351661931850934
4066000000.0 0.468588418211084 -0.8438269284866241
4069000000.0 0.4912951712242356 -0.9197960129730681
4072000000.0 0.5367507197640969 -0.9293809042255252
4075000000.0 0.5729522942087748 -0.9134225856384461
4078000000.0000005 0.5188243005876421 -0.9198215636597966
4081000000.0000005 0.5536355673035073 -0.9198427625158637
4083999999.9999995 0.4890363583267565 -0.9335501260362083
4088000000.0 0.5231980600546698 -0.9277154708667577
4091000000.0 0.5358803678785364 -0.9564083487284607
4094000000.0000005 0.5005640790736958 -0.9378826445030244
4097000000.0000005 0.4982425964999563 -0.9083577624609833
4099999999.9999995 0.5153758429247577 -0.9202325974031892
4102999999.9999995 0.5090192196282943 -0.9016132855881022
4106000000.0 0.5073429463883415 -0.9396847028194689
4109000000.0 0.4709478832807424 -0.9235317974651955
4112000000.0 0.5020454007806922 -0.876007524258629
4115999999.9999995 0.5739683728367299 -0.8774670849721637
4119000000.0 0.5007926949157248 -0.9471270206409702
4122000000.0 0.4588359341055048 -0.9357621764354163
4125000000.0 0.4930026104287867 -0.939476643017023
4128000000.0 0.48392940858656225 -0.888287423723093
4131000000.0 0.5041484368803697 -0.901203963458189
4134000000.0000005 0.5019575537931372 -0.9102155519452297
4138000000.0 0.5285139028225199 -0.8792665919898115
4141000000.0 0.482350124122605 -0.899656596339775
4144000000.0 0.5265151778336574 -0.911550026686064
4147000000.0000005 0.4652950244184632 -0.8816655870821114
4150000000.0000005 0.48721610559539913 -0.9502305609081775
4152999999.9999995 0.5051229203392511 -0.9298195371551353
4155999999.9999995 0.5137341758812202 -0.9325840520971533
4159000000.0 0.4906578060165484 -0.8700039807723297
4162000000.0 0.5191767686196904 -0.8660197667700213
4166000000.0000005 0.502012999223422 -0.9320997599468852
4168999999.9999995 0.48449388358535644 -0.898030604960237
4171999999.9999995 0.5166617489835014 -0.904561176557826
4175000000.0 0.5039756424518228 -0.9058092705514362
4178000000.0 0.5170219652967004 -0.9324646259359364
4181000000.0 0.48647674011208025 -0.9271199185830692
4184000000.0 0.5088794288146208 -0.9067202809196392
4187999999.9999995 0.492300331806417 -0.9114942070658704
4191000000.0 0.49686941301294124 -0.8636423843419861
4194000000.0 0.49941459921669323 -0.9012687938747305
4197000000.0 0.516679824585024 -0.9192283929794327
4200000000.0 0.5222302001162922 -0.8867969569123363
4203000000.0000005 0.5199233240183169 -0.892115975819438
4206000000.0000005 0.5149368880499567 -0.9162303049860895
4208999999.9999995 0.4791224015457547 -0.8869679364465483
4211999999.9999995 0.46731157656270844 -0.9130812793842956
4216000000.0 0.5160729774289159 -0.8800883869502725
4219000000.0000005 0.5167644629658055 -0.9068173686891501
4222000000.0000005 0.4825270424712077 -0.9035297847525927
4224999999.9999995 0.4984011076341437 -0.8778656644642675
4227999999.9999995 0.5151102378006553 -0.9020986760848803
4231000000.0 0.4880257912039342 -0.9103438112834693
4234000000.0 0.4992706100168379 -0.9058330317816947
4238000000.0000005 0.4899612832543066 -0.9023209428145267
4240999999.9999995 0.47019041605482914 -0.901960826595044
4244000000.0 0.5084906017498816 -0.899851947389303
4247000000.0 0.5080036990502611 -0.8851778723994758
4250000000.0 0.4853633863348946 -0.8864251493531845
4253000000.0 0.48470928792354084 -0.876586279132734
4256000000.0 0.4932401141379533 -0.9227675501578244
4259000000.0000005 0.47615405404100475 -0.8787918737862692
4261999999.9999995 0.48643265259096036 -0.9021116778757282
4266000000.0 0.48543084507197387 -0.9360699887223889
4269000000.0 0.4852785406986231 -0.8877479361250569
4272000000.0000005 0.49117289198089953 -0.8802673106416937
4275000000.0000005 0.5108476751259754 -0.9123824307597757
4277999999.9999995 0.5124268291726491 -0.9154145597712297
4280999999.9999995 0.5050446207406875 -0.9157211553513999
4284000000.0 0.4574792381053097 -0.930151734636004
4288000000.0000005 0.5035438997540385 -0.8846543906734947
4291000000.0000005 0.476753646359392 -0.8664124779277358
4293999999.9999995 0.4842943719762484 -0.8995713708103316
4297000000.0 0.5007837997141348 -0.8630970960904911
4300000000.0 0.4877545711164067 -0.8949230389800266
4303000000.0 0.46926044077361884 -0.8645451380959016
4306000000.0 0.5222632525660277 -0.8977536955109591
4309000000.0 0.488128504616396 -0.8696781812558916
4312000000.0 0.5387862161551723 -0.9156211518086786
4316000000.0 0.5215420157740766 -0.9197733117702743
4319000000.0 0.4897729906105816 -0.8648068746545579
4322000000.0 0.4836739687258958 -0.8811237940924885
4325000000.0 0.4851903523835335 -0.9075737274024314
4328000000.0 0.4650055442151675 -0.870540145928805
4331000000.0 0.4771847719032621 -0.9430557468257612
4334000000.0 0.49220810789420993 -0.9199007580259944
4338000000.0 0.5176990297104568 -0.867206940970871
4341000000.0 0.5515926552707229 -0.9175860742907774
4344000000.0 0.49158535838341677 -0.9206893619398441
4347000000.0 0.4646479215558782 -0.9445911667301933
4350000000.0 0.4460086320551611 -0.8856044403508888
4353000000.0 0.5013817307289218 -0.8707985201531543
4356000000.0 0.46260141796661236 -0.9081471861819469
4359000000.0 0.4751496389100949 -0.8681805157698474
4362000000.0 0.44776491543538666 -0.9280774618707422
4366000000.0 0.4848030150124381 -0.905060366252311
4369000000.0 0.449857382040992 -0.8753305867731715
4372000000.0 0.45634606535445355 -0.9021620937564329
4375000000.0 0.489271407036958 -0.8844879207828781
4378000000.0 0.4599918030521747 -0.8854482248719776
4381000000.0 0.46502312193772993 -0.8689593941080714
4384000000.0 0.508737760867911 -0.9592730559231408
4388000000.0 0.46709369805422474 -0.8947200580265445
4391000000.0 0.4829581056760349 -0.9004729092442408
4394000000.0 0.47333110734199024 -0.8716733697147484
4397000000.0 0.4745037874188124 -0.9166657802559743
4400000000.0 0.4696551693310546 -0.9105788886071917
4403000000.0 0.4811934386851282 -0.9054519283194069
4406000000.0 0.4576741611709352 -0.9288875026798306
4409000000.0 0.47885101358361537 -0.9361516423651594
4412000000.0 0.41618254664047705 -0.9173711763785002
4416000000.0 0.45193674674853757 -0.8934826543107672
4419000000.0 0.4454679642844976 -0.9163521990843823
4422000000.0 0.47751361767010575 -0.8882818563188928
4425000000.0 0.5081838367841615 -0.9225392176818031
4428000000.0 0.47284153063256334 -0.9151112784911015
4431000000.0 0.4811211834305785 -0.908831364303114
4434000000.0 0.45877527348436975 -0.892918465655159
4438000000.0 0.48190511139150954 -0.9265396071327737
4441000000.0 0.4754355798719968 -0.9049047535857828
4444000000.0 0.47038498146246943 -0.8865107097259083
4447000000.0 0.4496445962626189 -0.8972791288894966
4450000000.0 0.46843121176954006 -0.8919820374092746
4453000000.0 0.47012334892500335 -0.9313172006459554
4456000000.0 0.44366413925791326 -0.8846556442973399
4459000000.0 0.4314664133550633 -0.8680751753840116
4462000000.0 0.48831651632168493 -0.9612837601489796
4466000000.0 0.46896314789738924 -0.9387070214474352
4469000000.0 0.46841435432956025 -0.9051091416714001
4472000000.0 0.44231730478801295 -0.926828063652415
4475000000.0 0.45312123958781597 -0.8856201174376404
4478000000.0 0.45535206421957697 -0.9565036327296356
4481000000.0 0.42492037842535646 -0.8800017986518478
4484000000.0 0.4024596888116232 -0.9328595704432163
4488000000.0 0.4481767180563777 -0.8965788743921237
4491000000.0 0.45627544115887303 -0.91977671329681
4494000000.0 0.46136746895430225 -0.8874003836624063
4497000000.0 0.4792609476383041 -0.9034060638645434
4500000000.0 0.47543683644647733 -0.9212605166202413
4503000000.0 0.4845416862142048 -0.9401724229008297
4506000000.0 0.4321952867886695 -0.9032042250424238
4509000000.0 0.44796597080321376 -0.889245680178325
4512000000.0 0.4194950823386635 -0.9128007945076049
4516000000.0 0.45313994232878635 -0.9290627188391396
4519000000.0 0.46289153514866294 -0.8744574155093379
4522000000.0 0.4484885814287429 -0.9268705648140254
4525000000.0 0.4818578802940554 -0.9011835510245166
4528000000.0 0.4654841471476004 -0.9376020623852288
4531000000.0 0.44962995335858147 -0.9210924929894245
4534000000.0 0.45356145599405984 -0.9093222726351646
4538000000.0 0.446129774598114 -0.9052899210816492
4541000000.0 0.4103520315472877 -0.909126913312488
4544000000.0 0.45589263825686743 -0.8970197353235462
4547000000.0 0.4488152119993871 -0.9091317379547044
4550000000.0 0.43952792022910797 -0.9321272120812862
4553000000.0 0.4270754390300506 -0.9102934407235915
4556000000.0 0.42683504873100453 -0.9067132747318507
4559000000.0 0.44180117015936105 -0.9245695616835229
4562000000.0 0.43991764139325196 -0.92736671817809
4566000000.0 0.4386426008419888 -0.9126133061312719
4569000000.0 0.41769323236564826 -0.9158354875380429
4572000000.0 0.4372080216409426 -0.914986302825944
4575000000.0 0.4188198438631441 -0.9445385771540378
4578000000.0 0.46328275086290255 -0.946933458358991
4581000000.0 0.43744945488128084 -0.9123193323793691
4584000000.0 0.41632134171101975 -0.8911930856699071
4588000000.0 0.44906228899008754 -0.9361245167828629
4591000000.0 0.4574181981954174 -0.9092663065143702
4594000000.0 0.417037419422789 -0.9365607026197155
4597000000.0 0.4258448282108145 -0.9383121859886536
4600000000.0 0.39466050573448563 -0.9294794388572064
4603000000.0 0.42558909251740384 -0.9256755108088096
4606000000.0 0.44337070286479197 -0.9414605355386361
4609000000.0 0.4289517824169856 -0.9223343289121709
4612000000.0 0.4220709984344496 -0.926963194200265
4616000000.0 0.4206464910446616 -0.9154937471528185
4619000000.0 0.43275452274579 -0.9318983663567078
4622000000.0 0.43706492012823484 -0.9225745395529801
4625000000.0 0.39846566425990143 -0.9101959015132944
4628000000.0 0.43102958232785227 -0.9209820864201567
4631000000.0 0.39282806304424434 -0.9357714169297235
4634000000.0 0.41098375611614274 -0.9306172941978442
4638000000.0 0.4170581487704266 -0.9279248558735878
4641000000.0 0.4268918134939208 -0.9214159384988158
4644000000.0 0.4103899975109303 -0.9061419753913316
4647000000.0 0.43192688314149175 -0.937385299168622
4650000000.0 0.41070633219525704 -0.9155078157347948
4653000000.0 0.4174514090040855 -0.9356507673633049
4656000000.0 0.41823496992845144 -0.9353580038152258
4659000000.0 0.39466478389389503 -0.9413238932998873
4662000000.0 0.41701770375459657 -0.9283878607348429
4666000000.0 0.3931453890009547 -0.9268745538579775
4669000000.0 0.4324585381832 -0.9403461499243587
4672000000.0 0.40980914428967485 -0.9433052067298685
4675000000.0 0.3989966314744799 -0.9423312619845395
4678000000.0 0.4100533077449278 -0.9202664289583161
4681000000.0 0.37047565126242477 -0.9589511016007785
4684000000.0 0.37263706479952796 -0.9571501149026399
4688000000.0 0.3923908788257294 -0.93619002935118
4691000000.0 0.4445386410898593 -0.9618130257165297
4694000000.0 0.41919716720327305 -0.9058097530340872
4697000000.0 0.38520878774535766 -0.9031050215079792
4700000000.0 0.4348324923807132 -0.9196028641646224
4703000000.0 0.417744329105452 -0.8910855972118533
4706000000.0 0.3938253226755628 -0.9389801644542549
4709000000.0 0.399330553126749 -0.9398717016645762
4712000000.0 0.37963933213336404 -0.9469423603884938
4716000000.0 0.40804911800142124 -0.9684302015722218
4719000000.0 0.4425447359914605 -0.9332857517069592
4722000000.0 0.4128581903020189 -0.9217243216363661
4725000000.0 0.42813397910153705 -0.921729047740595
4728000000.0 0.4014620013473347 -0.9509377509119163
4731000000.0 0.4281557405071855 -0.9694132158251688
4734000000.0 0.43563844315237715 -0.9136964041215446
4738000000.0 0.42980178502586497 -0.9721054431792965
4741000000.0 0.4203383594326429 -0.9433362404690553
4744000000.0 0.39770454616839435 -0.9297046868369154
4747000000.0 0.40489247005121165 -0.9136016136100337
4750000000.0 0.42155233216997573 -0.981642790045488
4753000000.0 0.40733704400001897 -0.97370371605609
4756000000.0 0.4206398906857174 -0.9627430477133576
4759000000.0 0.4086197097562328 -0.9749220430254308
4762000000.0 0.39132707509589515 -0.9882656145143712
4766000000.0 0.4095568658853513 -0.9549167879549177
4769000000.0 0.4075617041684063 -0.9434316955843645
4772000000.0 0.3967977800737522 -0.9601057543588718
4775000000.0 0.38483926081568653 -1.0035415417161653
4778000000.0 0.3769737255934701 -0.9444073396049795
4781000000.0 0.40735167717725146 -0.9460813286128374
4784000000.0 0.41165784408333617 -0.9488290491907982
4788000000.0 0.36042240236679934 -0.9726705954715613
4791000000.0 0.38729806015535745 -0.9469062494175781
4794000000.0 0.4534168562792329 -0.9800338188159587
4797000000.0 0.38719441191173976 -0.915163572309684
4800000000.0 0.38245498000883127 -0.9315071169245659
4803000000.0 0.3605810889297705 -0.9750490899067813
4806000000.0 0.42324057810621996 -0.9650526511733778
4809000000.0 0.35628560235215384 -0.9746958887082083
4812000000.0 0.346857592737896 -0.9271419783385866
4816000000.0 0.397439287665167 -0.9174057717161043
4819000000.0 0.4467033263103396 -0.9640615580673139
4822000000.0 0.4335032839945364 -0.9603273801854911
4825000000.0 0.43445960637061487 -0.9698780346819258
4828000000.0 0.39851279712891235 -0.9610875685793282
4831000000.0 0.35886000173572796 -0.9872602153184351
4834000000.0 0.4311354512672917 -0.9757295652707326
4838000000.0 0.40558132883896314 -0.9784717395808846
4841000000.0 0.3822148685877219 -0.9440568406165196
4844000000.0 0.4215983020562373 -0.9665043871426127
4847000000.0 0.3961624065339009 -0.9228713375529677
4850000000.0 0.38957058041989656 -0.9741455346851169
4853000000.0 0.38921112190900786 -0.9436724905232875
4856000000.0 0.3815704642644121 -0.9607708920395928
4859000000.0 0.4011534572170767 -1.0261428494386144
4862000000.0 0.42045989581026094 -0.9261414758229303
4866000000.0 0.38782018842697497 -0.9724337472982612
4869000000.0 0.38613710409944724 -0.9617392768065911
4872000000.0 0.39653330937126885 -0.9804891826399937
4875000000.0 0.45431703863887934 -0.9925757266312298
4878000000.0 0.4062865449630955 -0.9705595980254947
4881000000.0 0.3877254792932307 -1.0261847980087941
4884000000.0 0.43043343396053485 -0.9553851858386725
4888000000.0 0.4132425313555051 -0.9268737096868747
4891000000.0 0.4703697235054122 -0.9552523461710302
4894000000.0 0.39477116726043243 -0.9727430611868696
4897000000.0 0.4257806522120992 -0.953039022372557
4900000000.0 0.4275298129012449 -0.9696312352876254
4903000000.0 0.4379964553060066 -0.9502834204740256
4906000000.0 0.4320093795006438 -0.9801790188882222
4909000000.0 0.40149456269493833 -1.0144226403306285
4912000000.0 0.3771345473102701 -1.0063645086204664
4916000000.0 0.42960092824301027 -0.9722569737321086
4919000000.0 0.4446089150352057 -0.9809590458260826
4922000000.0 0.4289388647588044 -0.9579469873228436
4925000000.0 0.3797715572522484 -0.9720917783913194
4928000000.0 0.43688704607399365 -0.9189498246946992
4931000000.0 0.4608966062398592 -0.9731216494034677
4934000000.0 0.41136167349546476 -0.9055706353988708
4938000000.0 0.37041736982959395 -0.9800054854668512
4941000000.0 0.4077687687362175 -0.9125662779332468
4944000000.0 0.4083507503954249 -0.9236849128060416
4947000000.0 0.3879783594477151 -0.9533869393530852
4950000000.0 0.39094077950515504 -0.9568029184827215
4953000000.0 0.40002778538306616 -0.9950996504823993
4956000000.0 0.38292598698231156 -0.9686149818720822
4959000000.0 0.3712594660278423 -0.9704985025048138
4962000000.0 0.3863397269623572 -0.9819686922596846
4966000000.0 0.4128713747816284 -0.9817441488256711
4969000000.0 0.4240369077230971 -0.9898791556717988
4972000000.0 0.3986888137922392 -0.9942620780517012
4975000000.0 0.4210170007702446 -0.9430605041884152
4978000000.0 0.392197031771681 -0.9500496530780891
4981000000.0 0.398594433000822 -0.9576538668647071
4984000000.0 0.38902433762977645 -0.9635013399202061
4988000000.0 0.40710266364013437 -0.9524040370754205
4991000000.0 0.4507526422503437 -0.986104741335939
4994000000.0 0.4246112758723795 -0.9650032184810613
4997000000.0 0.3629475683425417 -0.9737891934543311
5000000000.0 0.42757177343401614 -0.9600569452027097
5003000000.0 0.4402949121380228 -0.9716724293713468
5006000000.0 0.40667814018618764 -1.0019586458819814
5009000000.0 0.4281113584507641 -0.9433010948480374
5012000000.0 0.39808548423462337 -0.9705909644598161
5016000000.0 0.454822403045006 -0.9663821669497151
5019000000.0 0.3934146381212666 -0.96704230629203
5022000000.0 0.3793574607445965 -0.9449637895045981
5025000000.0 0.4289730520718301 -1.0055653975981083
5028000000.0 0.38908174657233396 -0.9746267511180766
5031000000.0 0.42054026159170893 -0.9696675607871426
5034000000.0 0.38535135723976505 -0.9915327099171212
5038000000.0 0.37487594630192655 -0.9405416159432227
5041000000.0 0.4700275071931366 -0.9536014035554016
5044000000.0 0.42918043532825917 -0.9377396613124742
5047000000.0 0.41447996878153665 -0.990403093073819
5050000000.0 0.46576052389309747 -0.9132089075069343
5053000000.0 0.4091909650752902 -0.9725009531294981
5056000000.0 0.4878840244342067 -0.9670354754110762
5059000000.0 0.46019034706547246 -0.9594416271526665
5062000000.0 0.38198251078491074 -1.0151111530532635
5066000000.0 0.44474298705177445 -0.9627668339815049
5069000000.0 0.4320919598016396 -0.9881327546090255
5072000000.0 0.41409885427498233 -0.9543694696747054
5075000000.0 0.43648601439651646 -0.935307691114436
5078000000.0 0.36836287714573945 -0.9651169929946773
5081000000.0 0.40061064898079474 -0.9346296885302398
5084000000.0 0.4159460188456113 -0.9695003517620362
5088000000.0 0.4147873524373599 -0.9119112280100642
5091000000.0 0.3651148776620659 -1.0125083413402234
5094000000.0 0.43096574599469817 -0.966678841609254
5097000000.0 0.4395071841533285 -0.9623041913427623
5100000000.0 0.4026671888469623 -0.9643006705118085
5103000000.0 0.4291687956591153 -0.9832558398878655
5106000000.0 0.4363694662720517 -0.9915130283148439
5109000000.0 0.48167438986871397 -0.9620834826859592
5112000000.0 0.4079491384565208 -0.9655519031230893
5116000000.0 0.43637432734031434 -0.9115422799129211
5119000000.0 0.4368730664652484 -1.0185920086964604
5122000000.0 0.47597243477832396 -0.9376472145602407
5125000000.0 0.40402882408735086 -0.928361344067602
5128000000.0 0.40518859713618255 -0.9450664524888626
5131000000.0 0.41552641410132024 -0.9308587294557438
5134000000.0 0.3826461491296386 -0.9467847804888134
5138000000.0 0.44407093179973056 -0.9513790296267366
5141000000.0 0.4368572322593478 -0.9470288974340817
5144000000.0 0.4742283453379326 -0.981593465146499
5147000000.0 0.41485450604083923 -0.9941185823201714
5150000000.0 0.44851917653998036 -0.9664406162879642
5153000000.0 0.41134778443924847 -0.9717633682890696
5156000000.0 0.43001879817138056 -0.9443894219030681
5159000000.0 0.43435263941752833 -0.9632868800459407
5162000000.0 0.3914059512694642 -0.9705762052518742
5166000000.0 0.4153553896226897 -0.9723103945151491
5169000000.0 0.4401149581729906 -0.9706048750889188
5172000000.0 0.41655630400530275 -0.948683822411728
