! Created with skrf 1.8.0 (http://scikit-rf.org).
# Hz S RI R 50.0 
!freq ReS11 ImS11
4000000000.0 0.4882919197929989 -0.8858848164428582
4003000000.0 0.5337202565829529 -0.9389116266064652
4006000000.0 0.5037676995711011 -0.8916920197127738
4009000000.0000005 0.5409586892753337 -0.9190451213645736
4011999999.9999995 0.5636215840761538 -0.853500785863616
4016000000.0 0.5058719507151901 -0.9111837210972834
4019000000.0 0.4867078104951983 -0.8820597778124393
4022000000.0000005 0.5904671671234402 -0.8377176021901387
4025000000.0000005 0.5319257295305228 -0.9215679459206021
4027999999.9999995 0.5079370440294729 -0.9096602606804389
4030999999.9999995 0.5085503002237748 -0.8681435128201491
4034000000.0 0.5319576150942967 -0.9142373248722974
4038000000.0000005 0.5199740342910288 -0.877343228386525
4041000000.0000005 0.5252996794261403 -0.8965894986658913
4043999999.9999995 0.5107405578578834 -0.9258811825503969
4046999999.9999995 0.6017842399415847 -0.889537112097775
4050000000.0 0.5295087763783515 -0.9185695111190305
4053000000.0 0.508411931845635 -0.8868563348641781
4056000000.0 0.5029959827479615 -0.898473416357806
4059000000.0 0.5115858547105467 -0.8842928782809152
4062000000.0000005 0.5327384992463868 -0.8992868010807137
4066000000.0 0.4604794159111729 -0.8138653271039507
4069000000.0 0.49351572152022516 -0.9536564531033008
4072000000.0 0.55303749600941 -0.8691609911156452
4075000000.0 0.5574994788100074 -0.9449778676402771
4078000000.0000005 0.5398732132064505 -0.9394785919513924
4081000000.0000005 0.5966278854513483 -0.8699576700931458
4083999999.9999995 0.5092389225551281 -0.91520827692896
4088000000.0 0.5309321032041496 -0.8559428594240628
4091000000.0 0.5460026143065486 -0.9050161742372342
4094000000.0000005 0.5508038526122573 -0.8983351867530132
4097000000.0000005 0.5078658129050957 -0.8969293091319311
4099999999.9999995 0.5172291514412418 -0.8847652755002557
4102999999.9999995 0.5521851744486393 -0.9250153416456073
4106000000.0 0.5151907383476553 -0.9130669588084845
4109000000.0 0.5140536059559976 -0.8924704602150326
4112000000.0 0.5552865634558851 -0.928948191533927
4115999999.9999995 0.5673622641501598 -0.883474800226255
4119000000.0 0.512090425857001 -0.8983313430834811
4122000000.0 0.514001919051487 -0.8780070806329064
4125000000.0 0.5219375626846282 -0.9229797677714973
4128000000.0 0.5435819531492604 -0.8575330148115701
4131000000.0 0.4948473457771092 -0.8766340023551703
4134000000.0000005 0.5431392044770602 -0.89920041339598
4138000000.0 0.48872476783736557 -0.8898842930194389
4141000000.0 0.523313772254045 -0.870106515408159
4144000000.0 0.5581321210400292 -0.9005672914649879
4147000000.0000005 0.49122146581387494 -0.8970253866777185
4150000000.0000005 0.5464947655753915 -0.9086652960334299
4152999999.9999995 0.5639779027743465 -0.8794023801241624
4155999999.9999995 0.5432297274088516 -0.9079591017715692
4159000000.0 0.5237933875387326 -0.8614976990795469
4162000000.0 0.4995336224873709 -0.855962767503483
4166000000.0000005 0.525788960013344 -0.9310691361415742
4168999999.9999995 0.4858816307142776 -0.8710780237795859
4171999999.9999995 0.49137014650223704 -0.869007833318542
4175000000.0 0.546502054199349 -0.9057773344959852
4178000000.0 0.5432292425628674 -0.886580546222695
4181000000.0 0.5209924282691798 -0.9177646965323103
4184000000.0 0.5175387809923869 -0.8749195360431077
4187999999.9999995 0.5106596832564703 -0.8648713951662869
4191000000.0 0.5459043347660584 -0.8469948974969703
4194000000.0 0.49934433832635194 -0.8619473645852271
4197000000.0 0.5180391623755355 -0.8910543838344237
4200000000.0 0.5413570530385652 -0.8611374487682227
4203000000.0000005 0.5461236110965408 -0.8857682830111501
4206000000.0000005 0.5365337906101624 -0.8993389874781681
4208999999.9999995 0.5051698404841802 -0.8556769741185539
4211999999.9999995 0.4908882584449401 -0.8732491764045289
4216000000.0 0.5458442033233888 -0.8712620332768303
4219000000.0000005 0.526506879667745 -0.8748624976317995
4222000000.0000005 0.5194186139910015 -0.8930819312830368
4224999999.9999995 0.525004641595289 -0.863274542076551
4227999999.9999995 0.5257796894813067 -0.8797518946285863
4231000000.0 0.5053650034677177 -0.8835119224303827
4234000000.0 0.5380146494844948 -0.867047022448518
4238000000.0000005 0.4876008341397865 -0.9008007700989475
4240999999.9999995 0.4962729709074264 -0.8765706562646745
4244000000.0 0.5134412830026736 -0.8594591485093053
4247000000.0 0.5254320811135254 -0.8661334227023357
4250000000.0 0.5054740889851759 -0.8685755853017862
4253000000.0 0.5009680938593952 -0.8488323238889972
4256000000.0 0.530511729636373 -0.8827996172188859
4259000000.0000005 0.47730088584393315 -0.8705039524344385
4261999999.9999995 0.48513899781561853 -0.8806355970517284
4266000000.0 0.4888086750260605 -0.9013635674195741
4269000000.0 0.5430124114723698 -0.8798760156063427
4272000000.0000005 0.5107160443937632 -0.8843333085528485
4275000000.0000005 0.5103766541380903 -0.8812432777427122
4277999999.9999995 0.5284703070635879 -0.8953280716587599
4280999999.9999995 0.5345843325888635 -0.8509947182516536
4284000000.0 0.48714010645778677 -0.8705391254098618
4288000000.0000005 0.5463628163405364 -0.8771840572179433
4291000000.0000005 0.5100324231450815 -0.8496941924974536
4293999999.9999995 0.5193490613309589 -0.8684506767208383
4297000000.0 0.5320494613419136 -0.8594030091813233
4300000000.0 0.5184426303132054 -0.8702856388004121
4303000000.0 0.5199232693457274 -0.8778437598656031
4306000000.0 0.5435550960295739 -0.8410237196401663
4309000000.0 0.532507235659879 -0.8634223201128928
4312000000.0 0.5450800916763872 -0.8617563304601398
4316000000.0 0.550390212410372 -0.853777093066175
4319000000.0 0.5239322102765913 -0.868294193096666
4322000000.0 0.4987881941168428 -0.8510218333278328
4325000000.0 0.526513193398754 -0.8669783239715821
4328000000.0 0.5357000571127049 -0.8725638004653871
4331000000.0 0.4840028226946238 -0.8870520427407561
4334000000.0 0.5036195694043614 -0.8941800124491625
4338000000.0 0.5478227708003295 -0.8534265930121038
4341000000.0 0.564419889565284 -0.8734908777291471
4344000000.0 0.5313698710907733 -0.8845247633100832
4347000000.0 0.5191565165094001 -0.8846971097117077
4350000000.0 0.48405850483231505 -0.8505288386716711
4353000000.0 0.5316466568899982 -0.8241418852327422
4356000000.0 0.4910204817169224 -0.88914694870016
4359000000.0 0.48067116190026266 -0.8352967913622968
4362000000.0 0.4913986514870551 -0.9017763701239957
4366000000.0 0.5088213074900052 -0.8785550588215726
4369000000.0 0.49161964143392356 -0.8447210845763367
4372000000.0 0.469424451240085 -0.8902053763161982
4375000000.0 0.5190852221794099 -0.8545884067172567
4378000000.0 0.5082852680032377 -0.8678145617778475
4381000000.0 0.5070929565397362 -0.8601093918251341
4384000000.0 0.5493768294571278 -0.9169509932148775
4388000000.0 0.4913436961974671 -0.8468165541063439
4391000000.0 0.5069874598896913 -0.896709795784064
4394000000.0 0.4851027611638107 -0.8585430263256083
4397000000.0 0.4837992005566074 -0.8730303418878868
4400000000.0 0.49855757542745427 -0.9080605783188261
4403000000.0 0.5070353046230622 -0.8899397264275137
4406000000.0 0.48606644085855444 -0.885476653557869
4409000000.0 0.5027654072001387 -0.9156603023617818
4412000000.0 0.4561154528320748 -0.8957265630323427
4416000000.0 0.4837637141608234 -0.859475325298194
4419000000.0 0.49149025492734605 -0.8925840868392447
4422000000.0 0.5166468527071703 -0.8680064030313992
4425000000.0 0.5178532234813175 -0.8805027837541998
4428000000.0 0.49566895397017063 -0.8836997330337185
4431000000.0 0.5253700059006448 -0.898810112652758
4434000000.0 0.4862183167132771 -0.879334353905877
4438000000.0 0.5111328996384504 -0.9017743740421381
4441000000.0 0.5027460049112391 -0.8787624316062324
4444000000.0 0.48848777072886573 -0.8491697832892253
4447000000.0 0.4761545984205213 -0.8792547778016446
4450000000.0 0.5020739899524063 -0.8605608858762808
4453000000.0 0.5100243871852547 -0.9062681449891676
4456000000.0 0.4740577675372776 -0.8619525953016192
4459000000.0 0.4543619355504961 -0.861009728642042
4462000000.0 0.5093018375450002 -0.9450744248269627
4466000000.0 0.5068048014326454 -0.91546273051008
4469000000.0 0.49519485579762085 -0.8724788832009212
4472000000.0 0.4960652847104504 -0.8951436175339353
4475000000.0 0.48987387488046 -0.8406459054809956
4478000000.0 0.4793420751249987 -0.9267763746723297
4481000000.0 0.4562348723451654 -0.8657703729190793
4484000000.0 0.44475526942188853 -0.8858314598475067
4488000000.0 0.4755859962492183 -0.8857466448004828
4491000000.0 0.48102350686837325 -0.8911413267205992
4494000000.0 0.47010273591996343 -0.8722746288474982
4497000000.0 0.4964870519992492 -0.891867965602972
4500000000.0 0.4911967202915871 -0.878820309658582
4503000000.0 0.5022218885948795 -0.904926462225347
4506000000.0 0.4792239006060969 -0.8802356854945317
4509000000.0 0.4712677598604885 -0.8762850081236429
4512000000.0 0.4708649623142471 -0.8807414525817387
4516000000.0 0.5039987695310473 -0.892189579592388
4519000000.0 0.47924393449925773 -0.8651891323136336
4522000000.0 0.49593701572322996 -0.8921666080559079
4525000000.0 0.5249996883658706 -0.859188528946353
4528000000.0 0.4924105032424383 -0.9149846013782579
4531000000.0 0.4836885028739679 -0.8946084181400801
4534000000.0 0.4782065950129482 -0.8744092836464004
4538000000.0 0.4858356975471787 -0.888453370116198
4541000000.0 0.4146109457392295 -0.9052978015712418
4544000000.0 0.4999941420878974 -0.8672886004330091
4547000000.0 0.4811101668420462 -0.8741778955287092
4550000000.0 0.4705622500179242 -0.8964583671769548
4553000000.0 0.4675821256830516 -0.8924635593046251
4556000000.0 0.45286783815568826 -0.8905948112042281
4559000000.0 0.4589282295367039 -0.8954883020344777
4562000000.0 0.4708272860198694 -0.8863724114254565
4566000000.0 0.4737757391991981 -0.9016287759920896
4569000000.0 0.4556411392552653 -0.8719957714039657
4572000000.0 0.4628174484076887 -0.8897218059371397
4575000000.0 0.4564635211195785 -0.8913273078533124
4578000000.0 0.4918365060445258 -0.9240181015294476
4581000000.0 0.44070142976107923 -0.90023145490765
4584000000.0 0.45152102436226466 -0.8915942829115787
4588000000.0 0.4867636238562981 -0.9110423592590476
4591000000.0 0.4838067774594823 -0.8991880185775708
4594000000.0 0.4447503883712417 -0.9008756262342155
4597000000.0 0.4625399079088328 -0.9223222207611714
4600000000.0 0.4411718078014101 -0.8999091299883966
4603000000.0 0.4664950781978755 -0.9044133808312969
4606000000.0 0.48246211434873565 -0.9091398252544816
4609000000.0 0.4660739402061427 -0.9090161039755894
4612000000.0 0.4622972848263455 -0.9078511830597151
4616000000.0 0.465852231034533 -0.886994068589922
4619000000.0 0.45907258986595756 -0.8913261266423445
4622000000.0 0.46701876020490674 -0.901953154200078
4625000000.0 0.4311681005884439 -0.8841108047232416
4628000000.0 0.4841456337716912 -0.8966809880493564
4631000000.0 0.4424174801820616 -0.903916857429003
4634000000.0 0.45354289502578654 -0.8905043936022459
4638000000.0 0.4645262688025542 -0.9117680202281676
4641000000.0 0.4646333245758425 -0.889680233047873
4644000000.0 0.46239817869312627 -0.9046648920655438
4647000000.0 0.46798219174704403 -0.9214128676219612
4650000000.0 0.4390717824422776 -0.8972794372298867
4653000000.0 0.4876596328587716 -0.9154684631188431
4656000000.0 0.4668202347056531 -0.9129703888305666
4659000000.0 0.42918934555128685 -0.909942799428287
4662000000.0 0.4552370468554861 -0.9178715369922098
4666000000.0 0.447662758744373 -0.9015330797142693
4669000000.0 0.4607637835061188 -0.9053450150688088
4672000000.0 0.44734394006832967 -0.9344291908245106
4675000000.0 0.4378179825451136 -0.9181300141993999
4678000000.0 0.44053864458858977 -0.8849581337763622
4681000000.0 0.43628033168159386 -0.9293889249867138
4684000000.0 0.412751050660735 -0.908559467425933
4688000000.0 0.41417057595127504 -0.9042946458642495
4691000000.0 0.48499394700200216 -0.9011993319818112
4694000000.0 0.46491433667160686 -0.9082406511145905
4697000000.0 0.43638863349587165 -0.8969429470889249
4700000000.0 0.43438435499146727 -0.8797057582462052
4703000000.0 0.4647234484184164 -0.8740678759781703
4706000000.0 0.43438817800425955 -0.9212644995410295
4709000000.0 0.44690092870747905 -0.9249181725033276
4712000000.0 0.452904064701726 -0.9152693354602042
4716000000.0 0.4503293861663368 -0.9131393493388515
4719000000.0 0.4621473085704216 -0.9064382513124641
4722000000.0 0.45836578801626937 -0.9124152749631562
4725000000.0 0.4797956187112894 -0.9122577516663553
4728000000.0 0.4491056399567638 -0.8803765466857221
4731000000.0 0.4806611022913643 -0.9450263443896662
4734000000.0 0.45268448760768804 -0.891989087025441
4738000000.0 0.4725099541927588 -0.9320149577921504
4741000000.0 0.4300153985143482 -0.9537894376946371
4744000000.0 0.42374451099087457 -0.9177250127554247
4747000000.0 0.44179683857490004 -0.8891393104030706
4750000000.0 0.46137553655638724 -0.9067597025014364
4753000000.0 0.4558923663628091 -0.916401503922227
4756000000.0 0.439925385103598 -0.9123965526361592
4759000000.0 0.45927085642550036 -0.9480658944438652
4762000000.0 0.43222185697457327 -0.9403347828671588
4766000000.0 0.4183336580456029 -0.9219172079077207
4769000000.0 0.4415710897223804 -0.9257525655770572
4772000000.0 0.4578568713345893 -0.9172008377569484
4775000000.0 0.4577587870344879 -0.9811858174778035
4778000000.0 0.43105018244425947 -0.9292486341736554
4781000000.0 0.4587812365697411 -0.9013889597489018
4784000000.0 0.4927875444901316 -0.9127362536019268
4788000000.0 0.4403892300192045 -0.9514295892552931
4791000000.0 0.4503981375678101 -0.8993608350000459
4794000000.0 0.4743484242547086 -0.9357842506031626
4797000000.0 0.425211204069712 -0.9243340984382991
4800000000.0 0.4351214168183274 -0.9108766713331463
4803000000.0 0.4070028757766906 -0.9232545318402589
4806000000.0 0.45623282557118283 -0.9317152490362322
4809000000.0 0.39754122755164845 -0.9481173306576188
4812000000.0 0.39426761529997456 -0.9289580429801269
4816000000.0 0.48190792800428617 -0.9039764203198699
4819000000.0 0.47064728205852063 -0.9429748501634377
4822000000.0 0.47551397037685095 -0.9500723071285447
4825000000.0 0.48026852347005694 -0.9410683849331675
4828000000.0 0.423751060163052 -0.9142515350463676
4831000000.0 0.4291696690490854 -0.9452557291452497
4834000000.0 0.4564653196126333 -0.9319329486214686
4838000000.0 0.41579405469130404 -0.9512230086630412
4841000000.0 0.4376202695113004 -0.927310008294677
4844000000.0 0.4534765264760432 -0.9056731644651388
4847000000.0 0.46738342654444853 -0.8745529626365174
4850000000.0 0.4390280926409465 -0.9481904492807803
4853000000.0 0.4539677158328995 -0.9172149983191196
4856000000.0 0.441483763690975 -0.9161464635317381
4859000000.0 0.46393286909825854 -0.9438552936818182
4862000000.0 0.45349325858890216 -0.9216881285440133
4866000000.0 0.4278575818120852 -0.9497358289101091
4869000000.0 0.43529035636939634 -0.9108085763859016
4872000000.0 0.4413166921143161 -0.9559223423701231
4875000000.0 0.4862143279040393 -0.9427582478214573
4878000000.0 0.4474748042921288 -0.93987095084558
4881000000.0 0.4497191699911435 -1.0154303189170915
4884000000.0 0.4526665914668523 -0.931463744635821
4888000000.0 0.4787238035381305 -0.8833748355312013
4891000000.0 0.4753066925553915 -0.9517866794678372
4894000000.0 0.43554261281394263 -0.9283929035986843
4897000000.0 0.48415122659430193 -0.8993551921408255
4900000000.0 0.48049289374489107 -0.9360203019415668
4903000000.0 0.4752007523172342 -0.9300861790083772
4906000000.0 0.4409018707098927 -0.9568997772901754
4909000000.0 0.4357119236515581 -0.9406338227155708
4912000000.0 0.43801803314840043 -0.9820295243394395
4916000000.0 0.4538746135022195 -0.9475967417144405
4919000000.0 0.4706740687742377 -0.932121496417687
4922000000.0 0.48698503126188364 -0.9423431803984826
4925000000.0 0.42172091852818583 -0.9446693827176749
4928000000.0 0.47454642851015166 -0.9117167339690868
4931000000.0 0.4893271189322393 -0.9429855229614823
4934000000.0 0.448633375960667 -0.8880219381912067
4938000000.0 0.40556782754003895 -0.949591943981969
4941000000.0 0.4676551468696508 -0.881766672273917
4944000000.0 0.4519932858634838 -0.8937115746529518
4947000000.0 0.45455049489363825 -0.9098021580289619
4950000000.0 0.4478213668727014 -0.9339299599516355
4953000000.0 0.44389004329168347 -0.992326350460768
4956000000.0 0.41233968890333883 -0.9416665149419163
4959000000.0 0.42735958212205943 -0.9206849075541911
4962000000.0 0.43648352858394457 -0.9556140032126604
4966000000.0 0.49611866216732226 -0.9111197059944797
4969000000.0 0.5194940281313494 -0.9661871632948852
4972000000.0 0.4208718317038569 -0.9374022413156855
4975000000.0 0.4748073361779207 -0.904370744296986
4978000000.0 0.4414877432226937 -0.9326014145805228
4981000000.0 0.43207955902024975 -0.9478868619171924
4984000000.0 0.46436133884929953 -0.927512859602625
4988000000.0 0.4709195011066292 -0.9222805541335892
4991000000.0 0.49842930354643866 -0.9375625723163246
4994000000.0 0.4772946858988161 -0.932957526261977
4997000000.0 0.42103507642340005 -0.9541177170158016
5000000000.0 0.5002657026191567 -0.9255100163801286
5003000000.0 0.4975115314902126 -0.9476067164497102
5006000000.0 0.4975521863873513 -0.9960316694883669
5009000000.0 0.48339246720576234 -0.9498444253899244
5012000000.0 0.4590463404231219 -0.9383868644392663
5016000000.0 0.5120828950239721 -0.9490232520184164
5019000000.0 0.45682320424776957 -0.9303821583682019
5022000000.0 0.4417156012484579 -0.9525641705205325
5025000000.0 0.4713517305164348 -0.9778409355470135
5028000000.0 0.45901820796957815 -0.9242984360222708
5031000000.0 0.44144225902015594 -0.9164275402492292
5034000000.0 0.43271912326833184 -0.9574958351153549
5038000000.0 0.4228300492003176 -0.9105505087886592
5041000000.0 0.5024606497253654 -0.9167094061425561
5044000000.0 0.4853112762960924 -0.890801613488996
5047000000.0 0.4460072498393588 -0.91303449663263
5050000000.0 0.5093622163081198 -0.8653347909665744
5053000000.0 0.48777119415170145 -0.9717738533297566
5056000000.0 0.5179162308908734 -0.9457073956660238
5059000000.0 0.5148729925001142 -0.91422730581035
5062000000.0 0.45292186307481014 -0.9354593717304882
5066000000.0 0.4651330716259495 -0.9180288529057756
5069000000.0 0.47874229615188785 -0.9574926745843209
5072000000.0 0.45479672436564067 -0.9299546452972367
5075000000.0 0.502503945682979 -0.9356886184786483
5078000000.0 0.42425712797838017 -0.9411678675938824
5081000000.0 0.4158077283568594 -0.8977306282826003
5084000000.0 0.4805423161712555 -0.9514978572913896
5088000000.0 0.4653489119269324 -0.912382444764853
5091000000.0 0.44913959960452404 -0.9346446987378527
5094000000.0 0.450664499002622 -0.9469256178778676
5097000000.0 0.5251854036288721 -0.9137616517661186
5100000000.0 0.4798736129903269 -0.9271416064103845
5103000000.0 0.4769163102076013 -0.9460899621594555
5106000000.0 0.49129088941827936 -0.978229694943944
5109000000.0 0.4917650371539247 -0.8938335383237136
5112000000.0 0.4494241895958158 -0.9768634992505968
5116000000.0 0.41817729296499323 -0.9208206751488722
5119000000.0 0.44734265444071086 -0.9414509787160772
5122000000.0 0.48587261738026 -0.9342773481033565
5125000000.0 0.52419457533186 -0.9054257344717859
5128000000.0 0.42834167589451255 -0.92091815066117
5131000000.0 0.45558211090821926 -0.9540869812751454
5134000000.0 0.4731850070042141 -0.9094052166198016
5138000000.0 0.5111671584580719 -0.9184977321875355
5141000000.0 0.5576397571622305 -0.8697734486290725
5144000000.0 0.5281886243104718 -0.9202492165338869
5147000000.0 0.515590302005204 -0.9333166034674116
5150000000.0 0.511757954941976 -0.9023922284864768
5153000000.0 0.5188775012520364 -0.9307284010723703
5156000000.0 0.5439584542736666 -0.9274941760701307
5159000000.0 0.5178154373345576 -0.9392075023633758
5162000000.0 0.46638816544545086 -0.9554555685798612
5166000000.0 0.4938727474665877 -0.9529180965483657
5169000000.0 0.5165624358573352 -0.9517465357772255
5172000000.0 0.4798605925259892 -0.9308878247303041
5175000000.0 0.4998940414456387 -0.9372670426894527
