! Created with skrf 1.8.0 (http://scikit-rf.org).
# Hz S RI R 50.0 
!freq ReS11 ImS11
4000000000.0 0.5726125385492695 -0.8586605665217188
4003000000.0 0.5811498885630338 -0.9406312314022938
4006000000.0 0.5362858395379395 -0.9132008037657353
4009000000.0000005 0.5362445343704021 -0.8899877358396109
4011999999.9999995 0.5837004397701172 -0.8650053885009921
4016000000.0 0.531621332807615 -0.8894259028616811
4019000000.0 0.5596688449401508 -0.8870069826087368
4022000000.0000005 0.5451722922813057 -0.8711782898446228
4025000000.0000005 0.5117359708553251 -0.9008577391256382
4027999999.9999995 0.4914073659546735 -0.8746696002805824
4030999999.9999995 0.5448044034622017 -0.8496475805220475
4034000000.0 0.4978636901851995 -0.8479254206840113
4038000000.0000005 0.5219429904930563 -0.8995815698121963
4041000000.0000005 0.563368644970945 -0.8579995330510537
4043999999.9999995 0.5651385432623837 -0.9433856789118236
4046999999.9999995 0.6096978070349797 -0.9113228972736314
4050000000.0 0.5116879592196697 -0.9146019651250192
4053000000.0 0.4656285869958203 -0.8583247119572847
4056000000.0 0.5437503909773799 -0.8466454587577912
4059000000.0 0.5531622901596023 -0.8752385794361518
4062000000.0000005 0.5032452648327851 -0.8710189980803416
4066000000.0 0.5129652261861252 -0.8197726088345487
4069000000.0 0.5400150514449978 -0.9070032309219066
4072000000.0 0.5705539267535751 -0.9060836718503451
4075000000.0 0.5677100355819157 -0.9125706000056802
4078000000.0000005 0.5474032192513452 -0.865906937315458
4081000000.0000005 0.6008584102813538 -0.8283806505472869
4083999999.9999995 0.5406821173446146 -0.9004552472721548
4088000000.0 0.5378841232861257 -0.8759064331005563
4091000000.0 0.5635426326833747 -0.9381699176548797
4094000000.0000005 0.5525904154667853 -0.8586494630959532
4097000000.0000005 0.5367125528743312 -0.8754247498678364
4099999999.9999995 0.5184468886872503 -0.871324834144116
4102999999.9999995 0.5810107670988995 -0.905132668470848
4106000000.0 0.5738990542686347 -0.8932392604541465
4109000000.0 0.5071305555017905 -0.8945829561092753
4112000000.0 0.5544930864008596 -0.8552398803313727
4115999999.9999995 0.6009861620069257 -0.8909733828311351
4119000000.0 0.5069688299891609 -0.9096515971192174
4122000000.0 0.4848894616000222 -0.8924658647177993
4125000000.0 0.4988751952457565 -0.9148101234648708
4128000000.0 0.5606575048938843 -0.853918754324674
4131000000.0 0.5500477929146853 -0.8908672574469911
4134000000.0000005 0.5499332571590552 -0.8750653104078205
4138000000.0 0.5228240821364222 -0.8590156361050102
4141000000.0 0.5096364379940402 -0.8580770622972068
4144000000.0 0.5395221449189481 -0.8701578084871623
4147000000.0000005 0.5259225457424251 -0.8632978157662562
4150000000.0000005 0.5404125834742336 -0.8953632107039842
4152999999.9999995 0.5496886771401778 -0.8602459002395756
4155999999.9999995 0.5746797707571684 -0.9081275052787646
4159000000.0 0.5504425023591244 -0.8314437390839784
4162000000.0 0.5659376082287484 -0.8558112437859886
4166000000.0000005 0.5611792033709646 -0.8698822750630734
4168999999.9999995 0.5323735729088401 -0.8655195535807009
4171999999.9999995 0.548280084325418 -0.8684387224891458
4175000000.0 0.5637578624595522 -0.8786779104234415
4178000000.0 0.5724670823159311 -0.874554327304931
4181000000.0 0.5450743063290889 -0.885197964809958
4184000000.0 0.5151719179843003 -0.857661644896811
4187999999.9999995 0.5432032005316886 -0.8642517337715283
4191000000.0 0.5779221588917931 -0.837032986540809
4194000000.0 0.5181643324958588 -0.8414956829849234
4197000000.0 0.5344153495526828 -0.8731923551811747
4200000000.0 0.5693423132989089 -0.8689877529350192
4203000000.0000005 0.5616679202395503 -0.8491160030454866
4206000000.0000005 0.5602240763011601 -0.8805191320284883
4208999999.9999995 0.5386619396788608 -0.8714595335284767
4211999999.9999995 0.5289898793941418 -0.8892432552921785
4216000000.0 0.5562551466653445 -0.8546704372693398
4219000000.0000005 0.5508180201778976 -0.8741645915599409
4222000000.0000005 0.5301003567088489 -0.8607697027677524
4224999999.9999995 0.5189997242591795 -0.8543560389590783
4227999999.9999995 0.5574176336755956 -0.8655768282572069
4231000000.0 0.5355447171842915 -0.876640016293163
4234000000.0 0.5418563992411538 -0.8774626184329949
4238000000.0000005 0.5289031550739233 -0.8901689094909554
4240999999.9999995 0.5257814167439986 -0.8648401053479225
4244000000.0 0.5350627158261465 -0.8537779383007954
4247000000.0 0.5424803481778546 -0.8584869592347248
4250000000.0 0.5111489143638587 -0.8491625883368566
4253000000.0 0.5165951391619142 -0.8642553969441239
4256000000.0 0.5312163137212147 -0.8809849254718154
4259000000.0000005 0.5111401367803414 -0.8451511254707154
4261999999.9999995 0.5109433372178876 -0.8585060016587684
4266000000.0 0.5378351387446167 -0.8967623661432924
4269000000.0 0.5562197356706927 -0.853859008726012
4272000000.0000005 0.5261597792180708 -0.8650186774140641
4275000000.0000005 0.5407204414490508 -0.8694941601280802
4277999999.9999995 0.56550616365987 -0.8502311105239134
4280999999.9999995 0.5564483747408794 -0.8676925080934939
4284000000.0 0.5180127053621392 -0.9018244595321938
4288000000.0000005 0.5683534884250878 -0.8348904249433613
4291000000.0000005 0.5164342547603104 -0.8341541054165922
4293999999.9999995 0.5381167820555441 -0.8652826015870148
4297000000.0 0.5388718893058241 -0.8374024797330462
4300000000.0 0.545584442090882 -0.8444365626859656
4303000000.0 0.5132029554745902 -0.8406054089732831
4306000000.0 0.5446472669558304 -0.8550285300221457
4309000000.0 0.5687416803969957 -0.8619183851990022
4312000000.0 0.5504984198339643 -0.8782334464572545
4316000000.0 0.5405472447926457 -0.8595784032894681
4319000000.0 0.5516404394701255 -0.8375522319008504
4322000000.0 0.505773897096634 -0.8473204533475154
4325000000.0 0.5462621856470545 -0.8576563209389829
4328000000.0 0.5379841583184556 -0.8587482446317384
4331000000.0 0.5097931543949077 -0.8824894294372175
4334000000.0 0.5217018864913812 -0.8631658827358248
4338000000.0 0.542575802853338 -0.8554489968337182
4341000000.0 0.569898234949891 -0.8513472604276793
4344000000.0 0.5511630088838275 -0.864635772023575
4347000000.0 0.5085916772492283 -0.896023992523115
4350000000.0 0.5102702084241466 -0.8345298243367514
4353000000.0 0.5270508909268428 -0.8117046838538952
4356000000.0 0.5194180803699491 -0.8537761882670972
4359000000.0 0.5124410648519999 -0.8210164149193675
4362000000.0 0.4911189569737001 -0.9009085430197071
4366000000.0 0.5372416939584719 -0.8666593180101336
4369000000.0 0.5134748300437332 -0.836170638461347
4372000000.0 0.47944596068239786 -0.8567918888933685
4375000000.0 0.5244721747932601 -0.8560550563989751
4378000000.0 0.5066836282527124 -0.8432573050617849
4381000000.0 0.5138914482168013 -0.8398123576841126
4384000000.0 0.5565112564095805 -0.9297356637932864
4388000000.0 0.5307161669841625 -0.8267711121556278
4391000000.0 0.5317044516696309 -0.8699613974458225
4394000000.0 0.5072996565835933 -0.8392564031119992
4397000000.0 0.514919563592505 -0.8608639581937759
4400000000.0 0.5243746536636837 -0.8830872593986956
4403000000.0 0.5301997451164173 -0.8549470286820723
4406000000.0 0.5061926267060111 -0.877977690080286
4409000000.0 0.5192643957062775 -0.8976684593703335
4412000000.0 0.4639094053928377 -0.8826971373650258
4416000000.0 0.5053147201867075 -0.843101133206624
4419000000.0 0.49804131702096555 -0.8717161343370337
4422000000.0 0.5285772113959805 -0.8382203984571331
4425000000.0 0.5483961965209121 -0.8731380345689866
4428000000.0 0.5111730861045136 -0.8710650345953955
4431000000.0 0.5399561389632803 -0.8696961936126848
4434000000.0 0.5007091312931858 -0.859850517907246
4438000000.0 0.5293778068167927 -0.8847902766883717
4441000000.0 0.5325928216664113 -0.8623139542793371
4444000000.0 0.5133592587905901 -0.8463161162285262
4447000000.0 0.49042065163191106 -0.8613377086202382
4450000000.0 0.524156853873071 -0.8532290292428302
4453000000.0 0.5421568575500604 -0.8896280484992528
4456000000.0 0.4898912958281655 -0.8488565984067623
4459000000.0 0.46732004485271106 -0.8447728767309971
4462000000.0 0.5379834383740146 -0.9128293505057306
4466000000.0 0.520943109708859 -0.8902002679679544
4469000000.0 0.5352237752744122 -0.8511284330216013
4472000000.0 0.49964216010543594 -0.8979966671991768
4475000000.0 0.5018785992624132 -0.8362538450907779
4478000000.0 0.5176588717112323 -0.9109446746117635
4481000000.0 0.48433297557262445 -0.8667056775450602
4484000000.0 0.4726004141701047 -0.8851574173964474
4488000000.0 0.4975142468283206 -0.8561799818850346
4491000000.0 0.4966621361884186 -0.8771856893889205
4494000000.0 0.5163608863762557 -0.8623694853156627
4497000000.0 0.5148524196243114 -0.8492669029824691
4500000000.0 0.5137282430673564 -0.8608802909137836
4503000000.0 0.5176417083115106 -0.8842976181943913
4506000000.0 0.5020863950214758 -0.8638434668257262
4509000000.0 0.49684075763082813 -0.8514367600232324
4512000000.0 0.4857587294279822 -0.8383022030392764
4516000000.0 0.51223823548461 -0.9007286983775016
4519000000.0 0.4991469767815211 -0.8392830079947459
4522000000.0 0.4963920045222493 -0.8790104081532097
4525000000.0 0.5394167310231738 -0.8557908370013647
4528000000.0 0.5071246716636016 -0.895706553018307
4531000000.0 0.5301301908133457 -0.8533481950392348
4534000000.0 0.4988734447874044 -0.8442944146281972
4538000000.0 0.4830587125108431 -0.8788153283196316
4541000000.0 0.47450608501327335 -0.8894775509442385
4544000000.0 0.49301450797514557 -0.8506177705383242
4547000000.0 0.5114185006036279 -0.8513224327238401
4550000000.0 0.4844566148177036 -0.8781927591462557
4553000000.0 0.5114796137329015 -0.881324942721845
4556000000.0 0.47246566737679757 -0.8681100541973893
4559000000.0 0.48243837884789126 -0.8829596105486139
4562000000.0 0.4746459866597445 -0.8946076256898392
4566000000.0 0.5000675367640608 -0.8961778526844474
4569000000.0 0.49725879121357597 -0.8574353036393597
4572000000.0 0.5031888074525107 -0.8847207354345559
4575000000.0 0.5008408044778484 -0.905181290704919
4578000000.0 0.5113989970358354 -0.8797501817980617
4581000000.0 0.5034173947378597 -0.9023910906498975
4584000000.0 0.49405848796864354 -0.8793486911536684
4588000000.0 0.5205109804456847 -0.8750589445838854
4591000000.0 0.4952668604119992 -0.8800852216290602
4594000000.0 0.47341159887644135 -0.8889055995901959
4597000000.0 0.5051548246861325 -0.8848812904373498
4600000000.0 0.47469602044434955 -0.8746179220886887
4603000000.0 0.494332313215475 -0.8936838147534852
4606000000.0 0.5066854730984462 -0.8730093104254022
4609000000.0 0.49924013543452744 -0.8773396573291128
4612000000.0 0.506176751870013 -0.8809384780937752
4616000000.0 0.4770685291906342 -0.8599639400197387
4619000000.0 0.4924129964059363 -0.866176665074617
4622000000.0 0.499650107229206 -0.8857303907786738
4625000000.0 0.44055234430137236 -0.8710216766390222
4628000000.0 0.5051173671353139 -0.8688034499498904
4631000000.0 0.46668786830426273 -0.8851267504940526
4634000000.0 0.48823677421220624 -0.8821017373651189
4638000000.0 0.5101538170490472 -0.8834723761506318
4641000000.0 0.49472687754968814 -0.8782054151597316
4644000000.0 0.49862642903613175 -0.873342269600143
4647000000.0 0.4803768200105514 -0.8837040503633617
4650000000.0 0.47731384614782607 -0.8811821442504681
4653000000.0 0.49424863964844745 -0.8970654570984009
4656000000.0 0.4571403462676731 -0.8792711584235058
4659000000.0 0.4746865544579625 -0.8928746899123202
4662000000.0 0.473067697399288 -0.9048860985453303
4666000000.0 0.48929987706442113 -0.8948428567924671
4669000000.0 0.47859829727935543 -0.8602396352156286
4672000000.0 0.46479695460026416 -0.8942316161819854
4675000000.0 0.4535130459347856 -0.8968720247583973
4678000000.0 0.4699916994664324 -0.8512327879459465
4681000000.0 0.4867055004416748 -0.9068530494203688
4684000000.0 0.44790943187469573 -0.9206699319767707
4688000000.0 0.4471831301652668 -0.8980839020497547
4691000000.0 0.5103722417626124 -0.8938507753189723
4694000000.0 0.5013919714076569 -0.873359930805353
4697000000.0 0.4269818207680342 -0.8361448782638639
4700000000.0 0.4747019458023733 -0.8594791235387714
4703000000.0 0.4848740364061065 -0.8542299405277547
4706000000.0 0.4499522156590109 -0.8990142473347126
4709000000.0 0.471697622176957 -0.8892154686905388
4712000000.0 0.4952140207609186 -0.8880589421077862
4716000000.0 0.46785516030935786 -0.9096707906025877
4719000000.0 0.5220635115637391 -0.8926669414704131
4722000000.0 0.5225024089765544 -0.8979935485426858
4725000000.0 0.46291178037512515 -0.9012046173670663
4728000000.0 0.4688691564497335 -0.885644989477251
4731000000.0 0.4951937944287002 -0.9307628130127431
4734000000.0 0.4890880662629045 -0.8662088504021546
4738000000.0 0.5022705224429234 -0.9213455593029231
4741000000.0 0.494770699823179 -0.9158270804576507
4744000000.0 0.4652654871649201 -0.911455032620046
4747000000.0 0.49611651271007073 -0.8583218069428352
4750000000.0 0.4856275386223012 -0.8882331012333025
4753000000.0 0.478177270532969 -0.8901922907329785
4756000000.0 0.46541732789187595 -0.9012594488001481
4759000000.0 0.46763863594337335 -0.8965893805543929
4762000000.0 0.4424011848963838 -0.9269826052095199
4766000000.0 0.495448810418698 -0.892141612119548
4769000000.0 0.48958889901636704 -0.8894183760721488
4772000000.0 0.46617931848163174 -0.8947531151282457
4775000000.0 0.4839803153314194 -0.9259536880696154
4778000000.0 0.46936127671481964 -0.8908799346097098
4781000000.0 0.48399136854846403 -0.9084274950259505
4784000000.0 0.5053224155092337 -0.8952323801678808
4788000000.0 0.4851181813218967 -0.9050976528322477
4791000000.0 0.4637287903743944 -0.8511358870398117
4794000000.0 0.5208573212715775 -0.908318166490431
4797000000.0 0.4601114201425569 -0.8957175167527539
4800000000.0 0.4600986981180778 -0.891913432971177
4803000000.0 0.43684202201664013 -0.8918494521978316
4806000000.0 0.46900018021711626 -0.9233848905008731
4809000000.0 0.4427010037787324 -0.9409791041766068
4812000000.0 0.42999422532355225 -0.868613488900506
4816000000.0 0.48931408554549427 -0.8925903110046838
4819000000.0 0.48911875195479393 -0.9155518404312069
4822000000.0 0.4916553992972431 -0.9200805758235914
4825000000.0 0.49729214142646194 -0.9170489089802218
4828000000.0 0.46537996562753303 -0.9239973383984273
4831000000.0 0.4573322702594082 -0.9445485583091612
4834000000.0 0.49183322384475703 -0.9042105664638653
4838000000.0 0.464120184230346 -0.9207746208124077
4841000000.0 0.4594578864024304 -0.8943690416092571
4844000000.0 0.5142667402299437 -0.8852234439711368
4847000000.0 0.48199778923388215 -0.8807163811420496
4850000000.0 0.4864490987357776 -0.9347794177456721
4853000000.0 0.4473377505983681 -0.8779641416050599
4856000000.0 0.48163678264014675 -0.9025888957564218
4859000000.0 0.4661079047375178 -0.9219128952045311
4862000000.0 0.4803235399109826 -0.875429997772592
4866000000.0 0.4538317902270036 -0.9081648484264963
4869000000.0 0.45605829638259493 -0.9237191902354799
4872000000.0 0.454037743375414 -0.9379920328613255
4875000000.0 0.5369791334171324 -0.9335512017349603
4878000000.0 0.4830373488690793 -0.9048427740098919
4881000000.0 0.46429420133892074 -0.9870083886817941
4884000000.0 0.48287638078472117 -0.909861948228565
4888000000.0 0.5077298147856896 -0.9011659170147384
4891000000.0 0.5201145263143796 -0.9213155767317164
4894000000.0 0.44754297512392227 -0.9141706983098341
4897000000.0 0.5126992137395554 -0.8974732055514121
4900000000.0 0.49542731638370713 -0.9428542754626189
4903000000.0 0.523385762940869 -0.9203090353191192
4906000000.0 0.4946331115610941 -0.8987025839020686
4909000000.0 0.45006786740721483 -0.9089259495325235
4912000000.0 0.48193151169821985 -0.9406248336123078
4916000000.0 0.5276484278511635 -0.9102958761596512
4919000000.0 0.5207711062737389 -0.9164425959135514
4922000000.0 0.5323137745338025 -0.9198996400400401
4925000000.0 0.4696210988548927 -0.9018959861340852
4928000000.0 0.5434320655953323 -0.8927890016948735
4931000000.0 0.4966099696150497 -0.9363366300291651
4934000000.0 0.4369533241114169 -0.8954632929096313
4938000000.0 0.4514258181485437 -0.9124541656719072
4941000000.0 0.4789441150364926 -0.8928782534268718
4944000000.0 0.5021191947725039 -0.8481759588775578
4947000000.0 0.49623576210833464 -0.8565858595356943
4950000000.0 0.4786140517098769 -0.8964746534450421
4953000000.0 0.46141981000350996 -0.9678383434552155
4956000000.0 0.46106023466935675 -0.9268985492409566
4959000000.0 0.40228828409056416 -0.8898116420631633
4962000000.0 0.4796731543391377 -0.9162098198560445
4966000000.0 0.510646621170305 -0.9164838647725474
4969000000.0 0.517022389550905 -0.9308573360239124
4972000000.0 0.49079893806330277 -0.9142767593101826
4975000000.0 0.5068740152799589 -0.8787660636825871
4978000000.0 0.47763968896283315 -0.9345466574977079
4981000000.0 0.4803209314454915 -0.9098478770297911
4984000000.0 0.5018263155529562 -0.8744643453110494
4988000000.0 0.5112830588301063 -0.9044473626881854
4991000000.0 0.5728380052421876 -0.9248366353713129
4994000000.0 0.498070101131091 -0.902959950128032
4997000000.0 0.483985992910255 -0.9168109364169528
5000000000.0 0.5264983760277183 -0.924142902152751
5003000000.0 0.5471942982941026 -0.919282531596641
5006000000.0 0.5251126341372254 -0.9546717382346062
5009000000.0 0.5154424811748299 -0.9161703979991193
5012000000.0 0.49920611670824133 -0.9285259936063448
5016000000.0 0.5499701071052225 -0.9111775267945408
5019000000.0 0.48449983799328 -0.9190526700881091
5022000000.0 0.4927469144681802 -0.8954179465160176
5025000000.0 0.5348000721527811 -0.947661576319005
5028000000.0 0.4905232519632608 -0.9210901687740947
5031000000.0 0.4848162056515001 -0.912905022676015
5034000000.0 0.4898202642216506 -0.9605445590013855
5038000000.0 0.44479755413569866 -0.868355292382012
5041000000.0 0.5180452133051698 -0.9171337904886597
5044000000.0 0.512659342695036 -0.8839264947216396
5047000000.0 0.5220419833574951 -0.9316111668652751
5050000000.0 0.5301157768086936 -0.8725786671951948
5053000000.0 0.522803069941161 -0.9420439701342437
5056000000.0 0.5384776157110744 -0.9148558816283736
5059000000.0 0.5270834906076299 -0.8918739548358141
5062000000.0 0.49315359273165765 -0.928509090478838
5066000000.0 0.5350122897607599 -0.9030900002844904
5069000000.0 0.5105837446150051 -0.9124804442610381
5072000000.0 0.49752050906720047 -0.8728140781141485
5075000000.0 0.5375539781286932 -0.8849843081253689
5078000000.0 0.48676865913160244 -0.9414110310934382
5081000000.0 0.45716900115218373 -0.8834953933152508
5084000000.0 0.4648390342315834 -0.9001601495765195
5088000000.0 0.5108605220463154 -0.8996775714125018
5091000000.0 0.46729937335604743 -0.9161610166157657
5094000000.0 0.5240979345523087 -0.9199763716180305
5097000000.0 0.5338628121827778 -0.8932451904313878
5100000000.0 0.5193816190221323 -0.8762415885690863
5103000000.0 0.5148478718701922 -0.920897561855349
5106000000.0 0.5160155719249149 -0.9325168112085722
5109000000.0 0.5639738098081706 -0.8686017981097542
5112000000.0 0.48577766615545537 -0.8958539667794962
5116000000.0 0.5381169564641626 -0.8664274349118501
5119000000.0 0.5245169940381994 -0.9355947215830976
5122000000.0 0.4980406939006614 -0.8955927331671991
5125000000.0 0.5307246045844314 -0.8811997158063485
5128000000.0 0.48681754644338393 -0.9018548936401272
5131000000.0 0.5109139851506113 -0.8417798788949804
5134000000.0 0.4601934579574953 -0.8633826369706427
5138000000.0 0.4976627053543751 -0.9003102011056943
5141000000.0 0.5597650242989046 -0.8816688627255322
5144000000.0 0.5577982253612637 -0.9207484444388054
5147000000.0 0.5094026560202376 -0.8878932813129704
5150000000.0 0.5374577090661915 -0.9002628283303202
5153000000.0 0.508596970671459 -0.8827005722977185
5156000000.0 0.5810431852702278 -0.8896688408194566
5159000000.0 0.5685768430537271 -0.9103636656502494
5162000000.0 0.48605762789493423 -0.9377019596161927
5166000000.0 0.5238879471428144 -0.9149998133344155
5169000000.0 0.5530410373873984 -0.9262090735878978
5172000000.0 0.542522703775277 -0.8927958920923513
5175000000.0 0.5268772500691047 -0.9236943777841635
