! Created with skrf 1.8.0 (http://scikit-rf.org).
# Hz S RI R 50.0 
!freq ReS11 ImS11
4000000000.0 0.5813636674144272 -0.885208596204851
4003000000.0 0.5567287579815763 -0.9441689490838872
4006000000.0 0.5108382256557076 -0.8799664474697003
4009000000.0000005 0.5536694894206884 -0.9189503158486052
4011999999.9999995 0.6631220134410992 -0.9189762168408351
4016000000.0 0.568023008364857 -0.9055987678134966
4019000000.0 0.5371342122761299 -0.8386010324139903
4022000000.0000005 0.687684299975387 -0.8285048288260528
4025000000.0000005 0.5020170931768385 -0.9297921318550004
4027999999.9999995 0.5221924609151684 -0.9232040697462685
4030999999.9999995 0.56977738093141 -0.8295325094464404
4034000000.0 0.5466490350553114 -0.8830174927460751
4038000000.0000005 0.5740088977707946 -0.9060150944986524
4041000000.0000005 0.5522125810948518 -0.8983486612464653
4043999999.9999995 0.611638980680644 -0.9552870498421515
4046999999.9999995 0.5998678992305762 -0.8521365139584272
4050000000.0 0.5219277921049328 -0.9400623100746709
4053000000.0 0.5120758193508068 -0.8541867038805857
4056000000.0 0.5456616433823537 -0.858952241772053
4059000000.0 0.595342321381465 -0.8982547994166614
4062000000.0000005 0.49555523489347886 -0.9102883515289006
4066000000.0 0.49893839883054664 -0.8095244487916035
4069000000.0 0.5359349505073207 -0.9378139609482533
4072000000.0 0.5967443679925997 -0.8422626667452198
4075000000.0 0.5834501822929865 -0.8865312817837875
4078000000.0000005 0.5622667828945571 -0.9070568674729355
4081000000.0000005 0.5697776869423024 -0.8751708303214678
4083999999.9999995 0.5126939633181041 -0.920143916594906
4088000000.0 0.5903278793629674 -0.8626713501348552
4091000000.0 0.6266755795973201 -0.923494224480717
4094000000.0000005 0.565005155104877 -0.8648920087706168
4097000000.0000005 0.527659228951193 -0.9078869278323501
4099999999.9999995 0.5583682939800106 -0.8765539500799432
4102999999.9999995 0.5741289851927046 -0.8605539883947025
4106000000.0 0.5466296551067029 -0.9093283853639156
4109000000.0 0.5646007230266022 -0.8966061264365238
4112000000.0 0.5406761139681296 -0.8797790534735319
4115999999.9999995 0.571535165914983 -0.8938141591764321
4119000000.0 0.5710063330449598 -0.8767542384140339
4122000000.0 0.5521838468757448 -0.8955521390474078
4125000000.0 0.5132821836999137 -0.8999908825025008
4128000000.0 0.5833095477020356 -0.8477595476559298
4131000000.0 0.568244000874104 -0.8666134468372746
4134000000.0000005 0.585989055724337 -0.8829481037421987
4138000000.0 0.5249729956591669 -0.8692650145714441
4141000000.0 0.556381747033686 -0.8970781219518286
4144000000.0 0.5696548396621868 -0.8622182994139814
4147000000.0000005 0.5526310784024593 -0.8493523767676782
4150000000.0000005 0.5885930248187787 -0.9015242548772286
4152999999.9999995 0.5569320850712444 -0.8362483073912582
4155999999.9999995 0.5736282880542005 -0.8843994717796456
4159000000.0 0.5627867876465291 -0.8337519430660372
4162000000.0 0.5473364424902252 -0.9074197384821735
4166000000.0000005 0.5884984971778238 -0.8826829432946514
4168999999.9999995 0.5320282595141047 -0.8812396767955109
4171999999.9999995 0.551423346281824 -0.8805141691196534
4175000000.0 0.5943621653455038 -0.8723781149468539
4178000000.0 0.567496855006739 -0.8852302641111114
4181000000.0 0.5382787333762373 -0.8665419021130829
4184000000.0 0.558300781508117 -0.8557772894945839
4187999999.9999995 0.5320480921429155 -0.8578396805220732
4191000000.0 0.5646876974898787 -0.8409607577699875
4194000000.0 0.551874658794392 -0.8478298638791991
4197000000.0 0.5807158556705294 -0.8848337638517088
4200000000.0 0.581016403709598 -0.862236172892014
4203000000.0000005 0.5747855408171952 -0.863141268498291
4206000000.0000005 0.5554641870457713 -0.8979293021467533
4208999999.9999995 0.5710159443267975 -0.8625457005324255
4211999999.9999995 0.5491487589976998 -0.8816943878625108
4216000000.0 0.5784369477710738 -0.8491141215941911
4219000000.0000005 0.5583372739431371 -0.8602732037787504
4222000000.0000005 0.5266534164572997 -0.8808011192155584
4224999999.9999995 0.5630435286963329 -0.8596474999544319
4227999999.9999995 0.5735727780016777 -0.8743709639580358
4231000000.0 0.5581433936053999 -0.8682153470614427
4234000000.0 0.5732766299515701 -0.8648062587492129
4238000000.0000005 0.5455884611962154 -0.8782085084960886
4240999999.9999995 0.5471127844425958 -0.8592020447039788
4244000000.0 0.5610476015017802 -0.8560094131142061
4247000000.0 0.5642193703059243 -0.8568449106369063
4250000000.0 0.5637840795718542 -0.8468852370695458
4253000000.0 0.5550332967102012 -0.8534819647392886
4256000000.0 0.5572369508592712 -0.8617901839950356
4259000000.0000005 0.5129419558565838 -0.8494455774847521
4261999999.9999995 0.541386414378904 -0.8682860748587881
4266000000.0 0.5407918283124057 -0.8811797725959586
4269000000.0 0.5569037121389827 -0.854340120639616
4272000000.0000005 0.5542726681260421 -0.877142733048201
4275000000.0000005 0.5640284624823073 -0.8657615904289875
4277999999.9999995 0.574397133258744 -0.8553465592213447
4280999999.9999995 0.5638559527367609 -0.8631040542677213
4284000000.0 0.5267412266197616 -0.8967695542535512
4288000000.0000005 0.5991041504986003 -0.8355483435973295
4291000000.0000005 0.5615650215829644 -0.8175995194256398
4293999999.9999995 0.5517363710841827 -0.8380155137822897
4297000000.0 0.565319540602012 -0.8410288644549153
4300000000.0 0.5473647728388424 -0.8367252305864522
4303000000.0 0.522583780876074 -0.8679152423530332
4306000000.0 0.5813779376250502 -0.8580882630360331
4309000000.0 0.5700304028364495 -0.8316751077345469
4312000000.0 0.5833948163121959 -0.8496424948796151
4316000000.0 0.5788296010387588 -0.8669553879994525
4319000000.0 0.5607121945481133 -0.8454565576473562
4322000000.0 0.5385243434757401 -0.8423781376325624
4325000000.0 0.5818635482862032 -0.8658626126311029
4328000000.0 0.5572289809685902 -0.8522074914552842
4331000000.0 0.5000487531591095 -0.8574042166132101
4334000000.0 0.5543726941940349 -0.8863551933844003
4338000000.0 0.5341476700206347 -0.8475320432179627
4341000000.0 0.5924081612857084 -0.8777039145175263
4344000000.0 0.5615184446351912 -0.8616487425050839
4347000000.0 0.5271082062165892 -0.8514384460493727
4350000000.0 0.5181940540821237 -0.8435379035562556
4353000000.0 0.5508096773069008 -0.8224136520715746
4356000000.0 0.524615601230941 -0.8519345669871226
4359000000.0 0.5230286755494195 -0.8120764368356067
4362000000.0 0.505124698908927 -0.9057735835974983
4366000000.0 0.5586095991642519 -0.8866640851592138
4369000000.0 0.5374908633586736 -0.8368964814198872
4372000000.0 0.5145841528508059 -0.844261924652501
4375000000.0 0.5627576911719094 -0.8380975010799222
4378000000.0 0.5300712481479952 -0.837615490197587
4381000000.0 0.5402980535923512 -0.8244965323903549
4384000000.0 0.5523052202074806 -0.9274501788970877
4388000000.0 0.5440652221789374 -0.8399750194894406
4391000000.0 0.5619617749163343 -0.8500774501292776
4394000000.0 0.5330969507035167 -0.8263556684057428
4397000000.0 0.5501741215204381 -0.8615969438577539
4400000000.0 0.5634030159888788 -0.8740740945848262
4403000000.0 0.5649720745331895 -0.8624246376764775
4406000000.0 0.5228861258661379 -0.8782676065195509
4409000000.0 0.5599786969247229 -0.892028291863761
4412000000.0 0.49575278621996166 -0.8715179792393041
4416000000.0 0.5197241475656258 -0.8523571651885501
4419000000.0 0.5278407485730696 -0.8734795361673705
4422000000.0 0.5453200022301717 -0.8346597062749002
4425000000.0 0.5708642360045411 -0.8601090617035143
4428000000.0 0.5320744321181251 -0.8684393227663629
4431000000.0 0.5663187922625705 -0.8827278503703926
4434000000.0 0.5384391079254975 -0.8571464583909721
4438000000.0 0.5487682206659549 -0.876519271911514
4441000000.0 0.5672037886254098 -0.8723746056337207
4444000000.0 0.5404646981805723 -0.833445177043469
4447000000.0 0.5239804694042944 -0.8532066998244053
4450000000.0 0.5513852835420403 -0.8345515076564186
4453000000.0 0.5474679725765235 -0.872879531131553
4456000000.0 0.5239661274775113 -0.8504703838609968
4459000000.0 0.513132265760829 -0.8367479191922904
4462000000.0 0.5671766768447558 -0.9276748743663592
4466000000.0 0.5643514799102125 -0.9068522906543506
4469000000.0 0.5611346301717435 -0.8721740133462927
4472000000.0 0.512213650260317 -0.886063024664125
4475000000.0 0.5288175469012772 -0.8424231476707658
4478000000.0 0.5422947983205175 -0.9018590984602877
4481000000.0 0.49603185075193634 -0.8498722093446647
4484000000.0 0.48739374653882694 -0.8785038352651791
4488000000.0 0.4978117636758288 -0.8572672310849508
4491000000.0 0.5481847872322028 -0.88026465540973
4494000000.0 0.5339340407478835 -0.8579062332568139
4497000000.0 0.5341817417218788 -0.8468459446766146
4500000000.0 0.5496715827820423 -0.8445069429690408
4503000000.0 0.5405934643547817 -0.868686164985569
4506000000.0 0.515857576631597 -0.8550016917842493
4509000000.0 0.5123915653149647 -0.8290993583500273
4512000000.0 0.5186990907188302 -0.8523691983162427
4516000000.0 0.5326786409814804 -0.8889209702551135
4519000000.0 0.5180201210742907 -0.8497794183427081
4522000000.0 0.5198995079465927 -0.8790172749265555
4525000000.0 0.5588790503831034 -0.8425791396297486
4528000000.0 0.5473357093641882 -0.8744606850724221
4531000000.0 0.5406333061787535 -0.8628173584845462
4534000000.0 0.5102513447925243 -0.8359415940119872
4538000000.0 0.5114869755077636 -0.8745912948371122
4541000000.0 0.480883533589263 -0.8646185565354592
4544000000.0 0.5249060694836719 -0.8687118725695429
4547000000.0 0.5425209091661806 -0.8407918373150197
4550000000.0 0.5099083708291781 -0.8775323626977687
4553000000.0 0.5389954713754175 -0.8716107137106417
4556000000.0 0.4971150857683567 -0.861747311152961
4559000000.0 0.5041530008600357 -0.8736715638373598
4562000000.0 0.544298312198177 -0.8802853974717588
4566000000.0 0.5229500387605773 -0.8836647103033158
4569000000.0 0.5233512908574944 -0.848082219521755
4572000000.0 0.5200342073822894 -0.8691818141997624
4575000000.0 0.5159794407578424 -0.8758501403168006
4578000000.0 0.5393717243767466 -0.8879146764319028
4581000000.0 0.49979753156770923 -0.8797310441753073
4584000000.0 0.5068141801828479 -0.8757887447928518
4588000000.0 0.5342971446856466 -0.8810187090198807
4591000000.0 0.5420994568505701 -0.8617299890398389
4594000000.0 0.49948981027965644 -0.8869842456040526
4597000000.0 0.5202434426616334 -0.8945887721233965
4600000000.0 0.48976583085069636 -0.8687464885482533
4603000000.0 0.5144133801394536 -0.8751229749426539
4606000000.0 0.5364356328359984 -0.8768923034071634
4609000000.0 0.5294669977009804 -0.8857365602803565
4612000000.0 0.5065313089858389 -0.8862032507433661
4616000000.0 0.5058221051636251 -0.8662532956435484
4619000000.0 0.5180401068155536 -0.866183537534851
4622000000.0 0.517183801080841 -0.876243901921622
4625000000.0 0.4782931472119702 -0.8643088613476065
4628000000.0 0.5327881547537717 -0.8752738366795372
4631000000.0 0.4865239486409796 -0.8782215352781271
4634000000.0 0.5080598396233277 -0.8716383604400816
4638000000.0 0.5344952213807113 -0.8778160838903403
4641000000.0 0.5165912239062258 -0.8767450288321565
4644000000.0 0.49477796743357394 -0.8786695453375143
4647000000.0 0.5110853611410202 -0.8840336916802856
4650000000.0 0.499805922853199 -0.8741115503731507
4653000000.0 0.5252585130977149 -0.8860019805486424
4656000000.0 0.5016136528154846 -0.874984494479745
4659000000.0 0.5127851524551768 -0.8773801601805001
4662000000.0 0.5209772822576906 -0.8886087715159459
4666000000.0 0.4937123190389109 -0.8919248452204063
4669000000.0 0.5295053018344322 -0.8672171421086825
4672000000.0 0.5008984261500945 -0.8958390119768861
4675000000.0 0.4782564881357675 -0.8951573444384315
4678000000.0 0.489950641390702 -0.8647477316541486
4681000000.0 0.4812617764082493 -0.9075568737362548
4684000000.0 0.4788352706987184 -0.8890219762781092
4688000000.0 0.490175417023479 -0.8644051624216763
4691000000.0 0.5340381265789982 -0.8833041756919008
4694000000.0 0.5142781376494899 -0.8812927255497569
4697000000.0 0.4723716969634265 -0.8596326207707892
4700000000.0 0.4977589414761072 -0.8783629047532919
4703000000.0 0.5179524220555685 -0.8447430518021689
4706000000.0 0.5108050325637679 -0.8951397739012016
4709000000.0 0.48526405760373376 -0.8983315649980044
4712000000.0 0.5069099122212951 -0.8831507434895007
4716000000.0 0.49111995696446875 -0.8959636099560191
4719000000.0 0.5304972038235222 -0.8653656566592113
4722000000.0 0.5193514456012795 -0.8678361648746485
4725000000.0 0.5086135695677936 -0.9012285522278042
4728000000.0 0.49853150651000316 -0.8673350835287715
4731000000.0 0.5399250622168328 -0.8993050833261342
4734000000.0 0.5172887109747027 -0.8739999978724732
4738000000.0 0.5350951479292356 -0.9209948069885308
4741000000.0 0.5111478416051336 -0.9209135055478141
4744000000.0 0.49060598110167564 -0.889464294076166
4747000000.0 0.4899614349082512 -0.8685083917110837
4750000000.0 0.5036064693165493 -0.892800177708683
4753000000.0 0.5289643005444022 -0.9018540651326469
4756000000.0 0.49125352813570494 -0.8998500039153157
4759000000.0 0.5440163607000857 -0.9052142021500598
4762000000.0 0.4918671650099331 -0.9037413437986009
4766000000.0 0.5131603919792838 -0.9027416035135405
4769000000.0 0.49703412729146335 -0.8955454854276037
4772000000.0 0.5155103294865854 -0.9225559408097406
4775000000.0 0.4919045895182059 -0.9235285179647439
4778000000.0 0.5270632050147154 -0.8842244685701529
4781000000.0 0.5156300406041707 -0.8800231062060938
4784000000.0 0.5213631139310814 -0.8934839146030418
4788000000.0 0.5106005296284946 -0.9108013570154051
4791000000.0 0.5202052634058904 -0.8995949087341691
4794000000.0 0.5573459659647764 -0.9109902436452036
4797000000.0 0.47915719241220717 -0.9018793265175081
4800000000.0 0.4709438827620414 -0.8789815430883899
4803000000.0 0.4752648857421485 -0.919603852691547
4806000000.0 0.5171787218834851 -0.9168754314216364
4809000000.0 0.4631301438153318 -0.9112386941949164
4812000000.0 0.44897780586502267 -0.943855233928909
4816000000.0 0.514390295607748 -0.867028944495302
4819000000.0 0.5453436391008073 -0.8977858575674967
4822000000.0 0.5592091523204354 -0.9200732285030716
4825000000.0 0.5433931649034522 -0.900473853455898
4828000000.0 0.4987979023405177 -0.9013904173614975
4831000000.0 0.4784022385997039 -0.9343742058569702
4834000000.0 0.5183262995620272 -0.903638131365583
4838000000.0 0.49651441102908134 -0.9327542965384857
4841000000.0 0.4776150862183077 -0.8910105257201106
4844000000.0 0.5279582613947763 -0.889598487724981
4847000000.0 0.5080221085539096 -0.8413214512446051
4850000000.0 0.48239721223407384 -0.905292812813033
4853000000.0 0.5022392863199601 -0.8933553822839231
4856000000.0 0.49460590111300257 -0.8835943968287739
4859000000.0 0.5234980371206381 -0.9206413979573083
4862000000.0 0.4909608407259874 -0.8530675355548826
4866000000.0 0.4841340380858852 -0.9241872127695825
4869000000.0 0.4919251747648373 -0.9106233094026476
4872000000.0 0.5122290800720715 -0.9369724187706762
4875000000.0 0.562874651956794 -0.9268887117038782
4878000000.0 0.5206419435003461 -0.8961527640674813
4881000000.0 0.5215942151674768 -0.9809332954415159
4884000000.0 0.5039989582569006 -0.9025587898629281
4888000000.0 0.5486123896770974 -0.8844321813237044
4891000000.0 0.5401077224069831 -0.9083071207388855
4894000000.0 0.48236530541021255 -0.894372917341523
4897000000.0 0.5236491522207766 -0.8902374192640855
4900000000.0 0.5076585627733464 -0.8981774787437857
4903000000.0 0.5178133219239673 -0.9102504988450083
4906000000.0 0.5137716403837559 -0.9362261971600075
4909000000.0 0.49382083918141023 -0.9266082862254069
4912000000.0 0.5077308111915936 -0.9290505269629491
4916000000.0 0.5344724637793594 -0.9289943385323269
4919000000.0 0.5368753356428083 -0.9080975102292125
4922000000.0 0.5212429420658371 -0.9350171246862091
4925000000.0 0.4715036601613553 -0.8919686941188603
4928000000.0 0.5354379614811617 -0.8520959841493745
4931000000.0 0.5452656627526961 -0.9146489251757309
4934000000.0 0.4978411026332002 -0.871568156162884
4938000000.0 0.49025407551527717 -0.9110541894653444
4941000000.0 0.5159451837597799 -0.8834526659789622
4944000000.0 0.5006852310407137 -0.8388544361550612
4947000000.0 0.4907477193260663 -0.8835814902760906
4950000000.0 0.48110425908451754 -0.8598930701953921
4953000000.0 0.4865445491293714 -0.9508015885896877
4956000000.0 0.5117021221804315 -0.9134871061817492
4959000000.0 0.4446033133110051 -0.8857868364188773
4962000000.0 0.5189501220916388 -0.9024519970154179
4966000000.0 0.5575319263696241 -0.8875455100206454
4969000000.0 0.5631950895384948 -0.9167578530829914
4972000000.0 0.49200064749457034 -0.9327082743910697
4975000000.0 0.5551585592669928 -0.8620633320282857
4978000000.0 0.5298298866934524 -0.9177091671578146
4981000000.0 0.5004098768575153 -0.8995497858626262
4984000000.0 0.5476113094109422 -0.8728588771063412
4988000000.0 0.5373545507163524 -0.9236494447685829
4991000000.0 0.5930506491703398 -0.9120555518557749
4994000000.0 0.5596446152110061 -0.8749667672770834
4997000000.0 0.492756680043985 -0.9252808954413128
5000000000.0 0.5462005582276983 -0.9108689828043862
5003000000.0 0.5383589909042814 -0.9424641515346168
5006000000.0 0.5377914084603873 -0.9399387169519151
5009000000.0 0.5444778987320287 -0.887336502137191
5012000000.0 0.5000854409761962 -0.9303771190439906
5016000000.0 0.5800432784395626 -0.898375083593999
5019000000.0 0.522572288593446 -0.9157164060544924
5022000000.0 0.5159616033740229 -0.9241605631254755
5025000000.0 0.5594981776681789 -0.9642038982361978
5028000000.0 0.5106255298690356 -0.9419030978072676
5031000000.0 0.5030951868510255 -0.9280944253356462
5034000000.0 0.5483480054175904 -0.9496680445911451
5038000000.0 0.45747069206338314 -0.8851700631967843
5041000000.0 0.5460919039042261 -0.8680226558754448
5044000000.0 0.5507725520390068 -0.8711437325906991
5047000000.0 0.5743360283871671 -0.9068899516997098
5050000000.0 0.6100444581570197 -0.8454506582094131
5053000000.0 0.5844291778676108 -0.9408592533749878
5056000000.0 0.5677236809902949 -0.8554564395514458
5059000000.0 0.5750583995534396 -0.8847811293585051
5062000000.0 0.5182169826907626 -0.9126836748010041
5066000000.0 0.5651345249303263 -0.8812595007924611
5069000000.0 0.5605955644044514 -0.8791499775913463
5072000000.0 0.5201024236151175 -0.8697543400403682
5075000000.0 0.566722940242669 -0.8765638752597251
5078000000.0 0.5248292345409958 -0.9212899617225141
5081000000.0 0.5292561067761421 -0.9017945272721697
5084000000.0 0.562784628563776 -0.9189893694228362
5088000000.0 0.5487979525319879 -0.8838841610794959
5091000000.0 0.5064095439607135 -0.9451138758516519
5094000000.0 0.5709501029854178 -0.9247504682809983
5097000000.0 0.5642937964444781 -0.882568950636512
5100000000.0 0.5453857596544873 -0.8634532718143093
5103000000.0 0.5272729238800111 -0.9207032304266429
5106000000.0 0.5781107647376056 -0.8922481307307337
5109000000.0 0.6005291259834424 -0.8820703815621332
5112000000.0 0.5286915676258936 -0.925267243931077
5116000000.0 0.5297229953378717 -0.8926918253118378
5119000000.0 0.54753680986037 -0.9099943298052482
5122000000.0 0.6055648837078755 -0.8827719393450537
5125000000.0 0.5448571869382899 -0.8751383589658572
5128000000.0 0.5681176552875123 -0.8713540459209539
5131000000.0 0.5674148499497591 -0.8672293935967854
5134000000.0 0.5668968740464828 -0.8986569834070246
5138000000.0 0.5990930533272025 -0.8642286993348041
5141000000.0 0.5941730582332971 -0.8384430859212636
5144000000.0 0.608941575482522 -0.8972176134847499
5147000000.0 0.5725826419367877 -0.9515496550782738
5150000000.0 0.6016347215025942 -0.8845523630118062
5153000000.0 0.5546266907028575 -0.9174924243148215
5156000000.0 0.5386058664291317 -0.897936854128709
5159000000.0 0.6064034400823447 -0.9467925236769861
5162000000.0 0.5167150958297808 -0.8960039464676178
5166000000.0 0.5767463488998921 -0.9007373245685409
5169000000.0 0.5757191496453063 -0.9079430993558799
5172000000.0 0.556007937560656 -0.8731139515632034
5175000000.0 0.6226356036718645 -0.8797142900691679
5178000000.0 0.5675928458528707 -0.8712216485591251
