! Created with skrf 1.8.0 (http://scikit-rf.org).
# Hz S RI R 50.0 
!freq ReS11 ImS11
4000000000.0 0.532090043410389 -0.8492579574933847
4003000000.0 0.5745855923201639 -0.9383144130310187
4006000000.0 0.4949486369275915 -0.9518847239962264
4009000000.0000005 0.5635462381227234 -0.8779146883650792
4011999999.9999995 0.5380880975873615 -0.8779832509695757
4016000000.0 0.4622303487763552 -0.9280197935410388
4019000000.0 0.5114355060884304 -0.845208754120499
4022000000.0000005 0.6059225720989985 -0.8420047573834655
4025000000.0000005 0.5028870349657952 -0.932472114057496
4027999999.9999995 0.5162703891882197 -0.8670545086398473
4030999999.9999995 0.5454727985779277 -0.8822145516581531
4034000000.0 0.5498458917887867 -0.8700389769594836
4038000000.0000005 0.508605461023417 -0.882187297566724
4041000000.0000005 0.5320424507292457 -0.8974890494329114
4043999999.9999995 0.5506021632045848 -0.9423208859681418
4046999999.9999995 0.5639151406127085 -0.9082763902458931
4050000000.0 0.5009012105227063 -0.8939481010673913
4053000000.0 0.5156791582201011 -0.8919510323094647
4056000000.0 0.5498574106127817 -0.8828520438180458
4059000000.0 0.5423220159279122 -0.8482863123464592
4062000000.0000005 0.5136392850881424 -0.889857952845871
4066000000.0 0.48526119682112273 -0.8074665261230493
4069000000.0 0.5435094727407941 -0.9266253194061725
4072000000.0 0.5712240732147614 -0.8733074567656317
4075000000.0 0.5677672775731483 -0.935379041461649
4078000000.0000005 0.5069463484801617 -0.9116769537320228
4081000000.0000005 0.5859223712413417 -0.8916607588283335
4083999999.9999995 0.5247279404969527 -0.9168283915115276
4088000000.0 0.5623480865239634 -0.8533332416001906
4091000000.0 0.5743768840203444 -0.9389670664241228
4094000000.0000005 0.5398432470951043 -0.8764166691598959
4097000000.0000005 0.5380311671034513 -0.8755110954290894
4099999999.9999995 0.5067820012659249 -0.8806177895368595
4102999999.9999995 0.5784060689055203 -0.8771134909908247
4106000000.0 0.5384679272849663 -0.9050542046560688
4109000000.0 0.5281706253792336 -0.893281672897516
4112000000.0 0.560958461792307 -0.887883584048537
4115999999.9999995 0.5637874219623579 -0.9078269914011557
4119000000.0 0.5504939215610968 -0.9224718294891574
4122000000.0 0.548846721301332 -0.884518604207939
4125000000.0 0.5198091038214665 -0.8988633421303055
4128000000.0 0.5441765358979275 -0.8389621922988241
4131000000.0 0.49265046015431135 -0.8756459961120957
4134000000.0000005 0.5396170288765099 -0.879684078247027
4138000000.0 0.5265636196309589 -0.8785705453664333
4141000000.0 0.5103815888067174 -0.8866653635423707
4144000000.0 0.5508199581223339 -0.8747287210418984
4147000000.0000005 0.5065399656338689 -0.8744048593332351
4150000000.0000005 0.5680242008046431 -0.928518848319134
4152999999.9999995 0.5214151679713656 -0.8770756949677144
4155999999.9999995 0.5683457278827725 -0.8823861480122814
4159000000.0 0.550803579504644 -0.8542855944130175
4162000000.0 0.5135718357271276 -0.8709685969727917
4166000000.0000005 0.5337207875738302 -0.9157294421216251
4168999999.9999995 0.5412408102945532 -0.8926541371541553
4171999999.9999995 0.5403963008966144 -0.9077391205989717
4175000000.0 0.5606660286453257 -0.8601609825013178
4178000000.0 0.529192738264954 -0.886015611205825
4181000000.0 0.5313307721403941 -0.8784859295808396
4184000000.0 0.5289646686424968 -0.8593833511531075
4187999999.9999995 0.5195917803561803 -0.8844004028087241
4191000000.0 0.5750273532343518 -0.8575075361861504
4194000000.0 0.540187894561649 -0.8857904079350543
4197000000.0 0.5464682497402897 -0.8735479156914461
4200000000.0 0.5497811725050747 -0.8773065034054577
4203000000.0000005 0.5607338351502086 -0.8794407454974493
4206000000.0000005 0.5388111590967368 -0.8707875585073038
4208999999.9999995 0.5478447395434888 -0.8490504077074469
4211999999.9999995 0.5075129307066674 -0.879352358340074
4216000000.0 0.5585445628011363 -0.8704317748027495
4219000000.0000005 0.5461947779076204 -0.8607749165225725
4222000000.0000005 0.5307976043491942 -0.885683753644651
4224999999.9999995 0.5227021466153303 -0.8712091821775207
4227999999.9999995 0.5456179239037027 -0.870809190595643
4231000000.0 0.5190753539973786 -0.8734878132747054
4234000000.0 0.5278981458038376 -0.89884773667985
4238000000.0000005 0.5209343917200305 -0.8993514219259937
4240999999.9999995 0.5161068514501048 -0.8827027064699967
4244000000.0 0.5501382596942859 -0.8534285626121252
4247000000.0 0.5280183627565419 -0.8562091816453068
4250000000.0 0.5252342288564509 -0.8461925427382901
4253000000.0 0.5184158197951187 -0.8685533058577781
4256000000.0 0.5442132013766301 -0.885508398650999
4259000000.0000005 0.5056425721759802 -0.8390002227717135
4261999999.9999995 0.508726190999453 -0.8718827906519522
4266000000.0 0.5455908472388147 -0.9071099619683575
4269000000.0 0.5295367111567829 -0.8749733809335535
4272000000.0000005 0.5220280064581383 -0.8746973714683168
4275000000.0000005 0.5360627727140218 -0.8842196777201633
4277999999.9999995 0.5353615101746244 -0.8887699091125012
4280999999.9999995 0.5337686012543039 -0.8792002248697219
4284000000.0 0.5114489120102449 -0.8910323461562505
4288000000.0000005 0.5556936730425922 -0.8503175600904804
4291000000.0000005 0.5211858604642783 -0.8510476121441983
4293999999.9999995 0.5109526931515622 -0.8487479470708149
4297000000.0 0.5598258522939715 -0.8522797336002992
4300000000.0 0.5289847620549669 -0.8525966620144659
4303000000.0 0.5072197176410828 -0.8497265159653371
4306000000.0 0.5521607711979413 -0.8483689543810656
4309000000.0 0.5352267780267554 -0.8874661120227754
4312000000.0 0.5868332250224206 -0.8755803555684379
4316000000.0 0.5497749664426805 -0.8690133401746297
4319000000.0 0.5248608518763964 -0.8604763418398612
4322000000.0 0.5006259486375813 -0.8704129313410643
4325000000.0 0.5605654666518692 -0.879069343078522
4328000000.0 0.5079998682166638 -0.8539660448346842
4331000000.0 0.5023338441772973 -0.8787838942176304
4334000000.0 0.5124217319982355 -0.8845991288218105
4338000000.0 0.5394618820751848 -0.8617640933234642
4341000000.0 0.5780132666907003 -0.8719659048053423
4344000000.0 0.5519599590937121 -0.8640055769556542
4347000000.0 0.5321900086600575 -0.8767915574332046
4350000000.0 0.48867821230932673 -0.8483287200861551
4353000000.0 0.5277669077495055 -0.8359948141936245
4356000000.0 0.4865449728812988 -0.8977229175982403
4359000000.0 0.5041234473305886 -0.8229604988095994
4362000000.0 0.5000598813403222 -0.9123034288562902
4366000000.0 0.5222800353436949 -0.8961850332625427
4369000000.0 0.5036455347356408 -0.8501398477849245
4372000000.0 0.48328731753228904 -0.8893980199967328
4375000000.0 0.5290999254606751 -0.8596999879213608
4378000000.0 0.5085527085254209 -0.8587640166687517
4381000000.0 0.5102260986996385 -0.8547832212764539
4384000000.0 0.5213307758070292 -0.9240094316660878
4388000000.0 0.5159765730271179 -0.8415135153700901
4391000000.0 0.5238564346361334 -0.8659951521404159
4394000000.0 0.4974796145757974 -0.8529547990425973
4397000000.0 0.5039774081745008 -0.8713684896640354
4400000000.0 0.5310369777744097 -0.8981918526298096
4403000000.0 0.530471015706685 -0.8696467333568497
4406000000.0 0.4943274922205275 -0.8869201209251295
4409000000.0 0.5169436821778852 -0.898909829403007
4412000000.0 0.4874346373477686 -0.9079317244361366
4416000000.0 0.5018937410880449 -0.8732537601028002
4419000000.0 0.47747592388404814 -0.8821161056616245
4422000000.0 0.5250382805036614 -0.8679444833179412
4425000000.0 0.5360267285698717 -0.8763937276895001
4428000000.0 0.5058201030500735 -0.8753083671388051
4431000000.0 0.5207864421294583 -0.8883316708156728
4434000000.0 0.4964551592917468 -0.8800774035252336
4438000000.0 0.5197682835523249 -0.8994983506464018
4441000000.0 0.5276673742160622 -0.888563079439602
4444000000.0 0.4971276450654492 -0.849401943805337
4447000000.0 0.4848475471530783 -0.8696855301178809
4450000000.0 0.5083835441820422 -0.8521600326083154
4453000000.0 0.5247043955322395 -0.901855561811296
4456000000.0 0.47353637172162244 -0.8682204709661326
4459000000.0 0.4688629277688039 -0.8476576401573364
4462000000.0 0.5372589401595803 -0.9193904125620188
4466000000.0 0.5079318691745234 -0.9137775710413623
4469000000.0 0.5241401313180222 -0.8828923855590233
4472000000.0 0.490105517409629 -0.8956142738084929
4475000000.0 0.5007369231758235 -0.8714057017055826
4478000000.0 0.49996757402083175 -0.9298311702913382
4481000000.0 0.47759991091106896 -0.8704469734166806
4484000000.0 0.4695879385845481 -0.8886657661413566
4488000000.0 0.48816746964526736 -0.873266939011631
4491000000.0 0.5085941066192188 -0.8848565797181934
4494000000.0 0.496604207607075 -0.8699650102375566
4497000000.0 0.5152857635203588 -0.8806180422860723
4500000000.0 0.5076189034955649 -0.8827406730774102
4503000000.0 0.5158883747880911 -0.8884882662590083
4506000000.0 0.47656878042445716 -0.8560586795284905
4509000000.0 0.494112809212429 -0.8670545585361551
4512000000.0 0.47430431408255047 -0.869548552075465
4516000000.0 0.5301111015099647 -0.8985387507511313
4519000000.0 0.47274688185821917 -0.8579763767413562
4522000000.0 0.49363548330011964 -0.8920359029411742
4525000000.0 0.5449337713257296 -0.8567582380126626
4528000000.0 0.5077285046215456 -0.9050368910859383
4531000000.0 0.5103119081491507 -0.8814334658777041
4534000000.0 0.4836601633687772 -0.8757463964524719
4538000000.0 0.5019343521106854 -0.8699091852689184
4541000000.0 0.4621001115472699 -0.8865720356600935
4544000000.0 0.4836274343673185 -0.8644354472378201
4547000000.0 0.498551811624103 -0.8673944800798329
4550000000.0 0.45526665785112563 -0.9078470484689081
4553000000.0 0.4710410566624047 -0.911184142430427
4556000000.0 0.46236660948545905 -0.8757392725195914
4559000000.0 0.46973456989055046 -0.8638352951252156
4562000000.0 0.5051596598494524 -0.888080304654063
4566000000.0 0.48796741320279396 -0.9016745634831318
4569000000.0 0.4778071769162508 -0.866557819350609
4572000000.0 0.47227411704046096 -0.8639219932216988
4575000000.0 0.48402140762001256 -0.9008708649992633
4578000000.0 0.4993716602133045 -0.9044438009855809
4581000000.0 0.47677005199622635 -0.905393630717568
4584000000.0 0.459522035870087 -0.8834797204287613
4588000000.0 0.503774006383356 -0.8884163687991143
4591000000.0 0.5012013351834325 -0.8772149992557658
4594000000.0 0.46183332659810916 -0.8908240013876177
4597000000.0 0.493714487865921 -0.8989392369609044
4600000000.0 0.4536408064972912 -0.8866624276946615
4603000000.0 0.48019350110221093 -0.905836803018274
4606000000.0 0.4855893353773956 -0.8946311691514077
4609000000.0 0.47920723058702025 -0.9046528114338408
4612000000.0 0.4792832873720345 -0.9070952648273382
4616000000.0 0.48663365719436724 -0.8830824775946828
4619000000.0 0.4806961868963814 -0.8838515802457151
4622000000.0 0.46781242110292437 -0.8961621759753764
4625000000.0 0.45222202811662887 -0.866575347339538
4628000000.0 0.4908606632448901 -0.8739087325323011
4631000000.0 0.4570863995906954 -0.8900870742538279
4634000000.0 0.4809839791781806 -0.8999133248018139
4638000000.0 0.48181366991452723 -0.8813390226901807
4641000000.0 0.484122776303079 -0.8880641886919702
4644000000.0 0.4591422971753297 -0.87694521801289
4647000000.0 0.46685196058385736 -0.8927995732618171
4650000000.0 0.449450249058297 -0.9033532757251368
4653000000.0 0.5026416347175867 -0.8902882792266573
4656000000.0 0.48496545922542883 -0.898497362081644
4659000000.0 0.4675252240648726 -0.8967268691075513
4662000000.0 0.47056219703009117 -0.914278172248502
4666000000.0 0.45420290887313186 -0.9054099188051207
4669000000.0 0.47859686593811657 -0.8987103860182396
4672000000.0 0.4648240498077221 -0.9324819666523291
4675000000.0 0.45809675414559115 -0.8960007824114447
4678000000.0 0.45856438548792405 -0.8887515714399756
4681000000.0 0.4588911170500815 -0.9078949660469112
4684000000.0 0.4641894008475898 -0.9225726094828374
4688000000.0 0.4385363389482113 -0.881917681193934
4691000000.0 0.4950221359317416 -0.8885157151719938
4694000000.0 0.47183215253206784 -0.8913704098063672
4697000000.0 0.4333354817961812 -0.8753493568027867
4700000000.0 0.495271177847578 -0.9107871793966202
4703000000.0 0.4840622427066038 -0.8551212526917855
4706000000.0 0.4640330080854982 -0.9308165305652752
4709000000.0 0.44593003549704185 -0.8870247452164716
4712000000.0 0.45375576154013864 -0.9174736457648751
4716000000.0 0.4770116028747305 -0.9340066737739278
4719000000.0 0.48050466727752983 -0.9191751077473926
4722000000.0 0.4961074366842092 -0.8969041129197676
4725000000.0 0.49097631738458514 -0.9156040696436637
4728000000.0 0.4556572812996723 -0.9145942668910476
4731000000.0 0.49008614485052626 -0.9298889139452947
4734000000.0 0.47857130007473325 -0.9135678988451075
4738000000.0 0.49519457880721457 -0.9104980191113154
4741000000.0 0.4911498647823553 -0.9402450673347004
4744000000.0 0.43638185222658993 -0.9564711627668571
4747000000.0 0.46037112974190714 -0.8644100683610154
4750000000.0 0.46151542357558156 -0.9152265972097318
4753000000.0 0.47082491326653025 -0.8775571669118278
4756000000.0 0.46294741413589924 -0.9083709517574239
4759000000.0 0.46837299524406284 -0.9184437098565691
4762000000.0 0.4630869085059453 -0.9382442992631902
4766000000.0 0.4760807351062259 -0.9287573275445339
4769000000.0 0.4606942818897436 -0.9105665125316753
4772000000.0 0.4635868434032684 -0.9105416988014703
4775000000.0 0.44516376329957624 -0.9682178609646561
4778000000.0 0.4658029300501758 -0.9188170042033773
4781000000.0 0.4937951799410818 -0.9191933582464796
4784000000.0 0.458951105513818 -0.8741192724467501
4788000000.0 0.43746190509021243 -0.9240700263079221
4791000000.0 0.46103681452099377 -0.9159922819362863
4794000000.0 0.4996545656324714 -0.942962382038879
4797000000.0 0.42645973763962536 -0.8796615957502185
4800000000.0 0.43334916182108835 -0.9021619310054383
4803000000.0 0.42303094216126513 -0.9048738717024862
4806000000.0 0.4613824474484622 -0.933437388955381
4809000000.0 0.43266184738122904 -0.9375144811141484
4812000000.0 0.4228063709766652 -0.9171330882115976
4816000000.0 0.46236160253453124 -0.8938791639763352
4819000000.0 0.4955440396671038 -0.9244222241401961
4822000000.0 0.4846724970263113 -0.9405605238387118
4825000000.0 0.4872210486804742 -0.9332193243804136
4828000000.0 0.43241824364134723 -0.9074966696470693
4831000000.0 0.43944356566939435 -0.9615555362601974
4834000000.0 0.48628836366513317 -0.9177149802558229
4838000000.0 0.4734664155979462 -0.9417004406217045
4841000000.0 0.44754285391455917 -0.9070296912038542
4844000000.0 0.5001461525268442 -0.9120309822640342
4847000000.0 0.4812785165848572 -0.8815008316278008
4850000000.0 0.4781870844784971 -0.9383298710046541
4853000000.0 0.46001395349952834 -0.8666397372766704
4856000000.0 0.4462315108425614 -0.8961315622141365
4859000000.0 0.4640313234785488 -0.9403685364028875
4862000000.0 0.4673740650798099 -0.8843013824178282
4866000000.0 0.4477602531820653 -0.96792403476563
4869000000.0 0.4596388534969451 -0.9242119852835049
4872000000.0 0.4606806190023758 -0.951843817173532
4875000000.0 0.5326844398986169 -0.9473423702411794
4878000000.0 0.45636067593997703 -0.9274176376641258
4881000000.0 0.45909282096150256 -1.0074988702947258
4884000000.0 0.48677707187033764 -0.9499653845837663
4888000000.0 0.4906133850514006 -0.8879125059261747
4891000000.0 0.5097748569582138 -0.9372705351497
4894000000.0 0.4420475761086153 -0.9280713876313246
4897000000.0 0.48069115943929513 -0.9066567399451877
4900000000.0 0.49774306076895464 -0.9427488312110194
4903000000.0 0.49028206734929075 -0.9207331035267213
4906000000.0 0.4852047845305184 -0.9559230522115757
4909000000.0 0.45078436526498994 -0.9716382928458706
4912000000.0 0.4782119897702323 -0.9429168018063004
4916000000.0 0.5024426714187122 -0.9579943103011368
4919000000.0 0.5014038986900643 -0.8934719972105062
4922000000.0 0.5155673067811227 -0.9371256610138223
4925000000.0 0.4222038575685725 -0.9462377796646599
4928000000.0 0.50048712355348 -0.8875472791914791
4931000000.0 0.5060121182095609 -0.9483268146119271
4934000000.0 0.45161490374060986 -0.87909421464596
4938000000.0 0.46895313161525604 -0.9167797005459151
4941000000.0 0.46088859845411745 -0.8779613939355302
4944000000.0 0.4722500741367606 -0.8698231399363057
4947000000.0 0.48797884676218295 -0.876207235412213
4950000000.0 0.45184423924912165 -0.913795267370996
4953000000.0 0.44492697196667785 -0.9931714153722205
4956000000.0 0.4774135120094962 -0.9559423155755843
4959000000.0 0.4424224237053745 -0.8938786378062189
4962000000.0 0.468017403523156 -0.9585753369715488
4966000000.0 0.5238887227554763 -0.920742698178334
4969000000.0 0.5058992432622695 -0.9251292628366543
4972000000.0 0.46137389555647035 -0.9263007928401787
4975000000.0 0.4925211259315525 -0.8507064132484513
4978000000.0 0.46530823520000364 -0.9304202003759277
4981000000.0 0.46914204523512704 -0.9430839467205553
4984000000.0 0.4962781099226242 -0.8918429188739239
4988000000.0 0.4966263016526429 -0.8823722606631266
4991000000.0 0.5430394350944442 -0.9125796965529346
4994000000.0 0.49756560770733527 -0.9134601101369693
4997000000.0 0.4471605816157441 -0.9359572223051351
5000000000.0 0.5268182056581452 -0.9320398075246212
5003000000.0 0.5092286251555952 -0.9388628105700021
5006000000.0 0.509447298168113 -0.9395967958869248
5009000000.0 0.49850412257716936 -0.9266214081763917
5012000000.0 0.4585440822070921 -0.9293624966512821
5016000000.0 0.5262484847549799 -0.9292545959690519
5019000000.0 0.47988735316399733 -0.9500680186533743
5022000000.0 0.5049177014483055 -0.9475524751248272
5025000000.0 0.5407298174819674 -0.9814095458967642
5028000000.0 0.4704120899157936 -0.9419219293205741
5031000000.0 0.45873273825871697 -0.9305928717515175
5034000000.0 0.45452507002070053 -0.9580964147832322
5038000000.0 0.43214446529142897 -0.8982428004080678
5041000000.0 0.5246435997715226 -0.9104250997892618
5044000000.0 0.5099933814583795 -0.8684425696517888
5047000000.0 0.5136635849264771 -0.9366009380432909
5050000000.0 0.5187638056645836 -0.8671008972128269
5053000000.0 0.5021425782141867 -0.9458399634954401
5056000000.0 0.5195832480492677 -0.8970637001667494
5059000000.0 0.5194729668407387 -0.9128872844910272
5062000000.0 0.46850437206389567 -0.9635570578910959
5066000000.0 0.4859356405525459 -0.8728398636767929
5069000000.0 0.5392578173722478 -0.9250890060318628
5072000000.0 0.49893597028695014 -0.8873027142070534
5075000000.0 0.5050725903436578 -0.8848006206048937
5078000000.0 0.43772429933689916 -0.9265572687647584
5081000000.0 0.46443169476432883 -0.9155944019920564
5084000000.0 0.48977645394134883 -0.9365214892611107
5088000000.0 0.5593444264809845 -0.9275412952293587
5091000000.0 0.46760710744094897 -0.9368271210584258
5094000000.0 0.5054278597990713 -0.8880844375944132
5097000000.0 0.5719442693206692 -0.8840686061727248
5100000000.0 0.47868956405168106 -0.9105973479786023
5103000000.0 0.4851701496787978 -0.9780912104898405
5106000000.0 0.4884606950515938 -0.9590240884035943
5109000000.0 0.5539183072419109 -0.9030534902293348
5112000000.0 0.48494331987783507 -0.9250874766246114
5116000000.0 0.4770615210257662 -0.8910853389626165
5119000000.0 0.5024101482794616 -0.9438946827998956
5122000000.0 0.47257473902294 -0.8946227817541684
5125000000.0 0.5418966927586968 -0.920050198412664
5128000000.0 0.46028823838985605 -0.907375826341885
5131000000.0 0.5034974612839582 -0.9027701176564438
5134000000.0 0.49163977300138945 -0.8994532395936854
5138000000.0 0.520537123895565 -0.9127069511633493
5141000000.0 0.5098215960356935 -0.8741462545063621
5144000000.0 0.5358000641186128 -0.8907199709232279
5147000000.0 0.5421891326327684 -0.9081648705336407
5150000000.0 0.5368879610279661 -0.9216599591672279
5153000000.0 0.5211593896507017 -0.8780338206259558
5156000000.0 0.5446791511639841 -0.9264347651525121
5159000000.0 0.5368890158469422 -0.9472884029950922
5162000000.0 0.4570335737310337 -0.9032384867668486
5166000000.0 0.5369519592140505 -0.9327602427842872
5169000000.0 0.4662755295979075 -0.9457300680867865
5172000000.0 0.4664542343822509 -0.872375398410046
5175000000.0 0.5644717912275756 -0.936659553007985
