! Created with skrf 1.8.0 (http://scikit-rf.org).
# Hz S RI R 50.0 
!freq ReS11 ImS11
4000000000.0 0.5096117804746227 -0.850112695661608
4003000000.0 0.5750752741457879 -0.9383405376498875
4006000000.0 0.5347266124042144 -0.9109032384626123
4009000000.0000005 0.5548883818385317 -0.8915724091723705
4011999999.9999995 0.6166557549870085 -0.8685885691353294
4016000000.0 0.5489475075316177 -0.9480963092034147
4019000000.0 0.5180989113325497 -0.9070335180084182
4022000000.0000005 0.6321489669498381 -0.8509354918578056
4025000000.0000005 0.5249373689505383 -0.9344770107222342
4027999999.9999995 0.5339645439612553 -0.860186021971899
4030999999.9999995 0.5586256923784211 -0.8661389282077564
4034000000.0 0.5173554381151115 -0.8614536692332324
4038000000.0000005 0.5215847180258228 -0.9038927331940403
4041000000.0000005 0.5259234240931758 -0.9039341964854548
4043999999.9999995 0.5768165476820664 -0.9420800612923439
4046999999.9999995 0.5837448354463216 -0.9113059232882855
4050000000.0 0.5358007317803142 -0.8957855210861202
4053000000.0 0.5428905511767068 -0.8895264721546895
4056000000.0 0.5092790650264178 -0.8384695505292137
4059000000.0 0.5631731721634775 -0.88244924119848
4062000000.0000005 0.5269248302174023 -0.8921934891013994
4066000000.0 0.491226013538882 -0.8306616791055736
4069000000.0 0.5192526348910438 -0.9372143877684147
4072000000.0 0.5655776493110413 -0.8756857749041953
4075000000.0 0.6101587328385865 -0.9328784080411336
4078000000.0000005 0.572932655562012 -0.9002711483288864
4081000000.0000005 0.5830220838361827 -0.8509368685939239
4083999999.9999995 0.5742318061384059 -0.9188942427777793
4088000000.0 0.5753091330145834 -0.8615302785148237
4091000000.0 0.6180974246094034 -0.9215833750551077
4094000000.0000005 0.561878741497823 -0.8863663647600202
4097000000.0000005 0.5727871294085669 -0.8930847861411629
4099999999.9999995 0.554189619569361 -0.8863830970548637
4102999999.9999995 0.5659324719873167 -0.9021021455408514
4106000000.0 0.5190604234632666 -0.9015022982613007
4109000000.0 0.5365366527450227 -0.9031136559117638
4112000000.0 0.5561221379434789 -0.9041203904163045
4115999999.9999995 0.5594879593652957 -0.8763852063466788
4119000000.0 0.5683529907133643 -0.9164552783843051
4122000000.0 0.5275810571874225 -0.9030932814725969
4125000000.0 0.5326109363862238 -0.9041231007822826
4128000000.0 0.5511692642801007 -0.8363572313701323
4131000000.0 0.5454878458489427 -0.8999134253985659
4134000000.0000005 0.5493555509451689 -0.8618657263762814
4138000000.0 0.4810209894040153 -0.8548058253112817
4141000000.0 0.5072893077329115 -0.8762323923881443
4144000000.0 0.5534926463046949 -0.8945496777068771
4147000000.0000005 0.5122960557169507 -0.9013796167359441
4150000000.0000005 0.5793843611153208 -0.8689419817063194
4152999999.9999995 0.5359602410978366 -0.8971485644914551
4155999999.9999995 0.5851380822097692 -0.9062724784335028
4159000000.0 0.5314301605344516 -0.8374500673594759
4162000000.0 0.5738120354038894 -0.8580983580341126
4166000000.0000005 0.5404992539670304 -0.8748500600186562
4168999999.9999995 0.5566521037184686 -0.87603422687964
4171999999.9999995 0.5621915154776788 -0.8735072190790414
4175000000.0 0.5563548025737735 -0.8494081822738557
4178000000.0 0.5505194267771442 -0.8867795337112467
4181000000.0 0.5183973688811954 -0.8842042615861182
4184000000.0 0.536543841633436 -0.8534801233085882
4187999999.9999995 0.5262507115746418 -0.8686070058945712
4191000000.0 0.5709402938764339 -0.8382980994182159
4194000000.0 0.5632608705591773 -0.8526641894882399
4197000000.0 0.5480822528218459 -0.864748691668403
4200000000.0 0.5542431547725524 -0.8634435860225742
4203000000.0000005 0.5639512534487268 -0.8690935189429532
4206000000.0000005 0.5688467021483117 -0.8914127228640315
4208999999.9999995 0.5625591645089365 -0.8538872312608704
4211999999.9999995 0.5371098017879881 -0.871331129327664
4216000000.0 0.5692965275993337 -0.8604252672832801
4219000000.0000005 0.5790449506320957 -0.8590416592023578
4222000000.0000005 0.5496890510378457 -0.8749747995096903
4224999999.9999995 0.5305589643721379 -0.843169829489005
4227999999.9999995 0.553126584629831 -0.8791053405461329
4231000000.0 0.5522895004778305 -0.875834796473071
4234000000.0 0.5332144931903235 -0.8859790407731853
4238000000.0000005 0.5317712693486332 -0.86784754760855
4240999999.9999995 0.5239165413986953 -0.8620328497993605
4244000000.0 0.561309152507758 -0.8574856960935362
4247000000.0 0.5672770331218979 -0.8589307663768382
4250000000.0 0.5279165251407789 -0.867458770443201
4253000000.0 0.5297368565105767 -0.8591014672029534
4256000000.0 0.5627488148045698 -0.8989079823461499
4259000000.0000005 0.5084365255930026 -0.8449010523341294
4261999999.9999995 0.5358801779553803 -0.8542890661202412
4266000000.0 0.5437746415155018 -0.8731037868837883
4269000000.0 0.5492255973023076 -0.8572278016764601
4272000000.0000005 0.5430132673353839 -0.8536993983737247
4275000000.0000005 0.5473106402222901 -0.847484539248834
4277999999.9999995 0.5570173242075227 -0.8786126029030686
4280999999.9999995 0.5712677097634211 -0.87361501709238
4284000000.0 0.5209562803078025 -0.8819330539092857
4288000000.0000005 0.5663441440523864 -0.8254187442009167
4291000000.0000005 0.51639633074425 -0.8249784939917648
4293999999.9999995 0.5250965117611618 -0.8788195870625799
4297000000.0 0.561492484840467 -0.8284586008906886
4300000000.0 0.5639183393489481 -0.8316373947511277
4303000000.0 0.5507794334968519 -0.8394630514234036
4306000000.0 0.5749948076497537 -0.8698135957280367
4309000000.0 0.5436497287407247 -0.8470371323547955
4312000000.0 0.6092576158623013 -0.8736490764136461
4316000000.0 0.568757496375593 -0.8344438784383496
4319000000.0 0.5344977437868459 -0.8189896245145244
4322000000.0 0.5130521539069329 -0.880933523397998
4325000000.0 0.5343139511204278 -0.8641611591553013
4328000000.0 0.523451251448645 -0.8555627854579148
4331000000.0 0.5401390260480265 -0.8685525509982207
4334000000.0 0.5350578029295376 -0.8858874227419248
4338000000.0 0.543161209027109 -0.8277704406002205
4341000000.0 0.5644735996873556 -0.8517287565899319
4344000000.0 0.5622537810770628 -0.8628018981614891
4347000000.0 0.5273326195634327 -0.8724315432830767
4350000000.0 0.5171525072453836 -0.8336716567689509
4353000000.0 0.5445590002680347 -0.8453035399636423
4356000000.0 0.5263419981791588 -0.8831507686455273
4359000000.0 0.5224889436204159 -0.8217326231200209
4362000000.0 0.5120115761837798 -0.9070727467016354
4366000000.0 0.5411599376822613 -0.8630840047648595
4369000000.0 0.5133709884125774 -0.8448119665788705
4372000000.0 0.5001386921197084 -0.8664196408299626
4375000000.0 0.5469203455933137 -0.8545844768814994
4378000000.0 0.5348158407275786 -0.8337311433567917
4381000000.0 0.5325076535632073 -0.8489483838576827
4384000000.0 0.5552356829077759 -0.9195914927678697
4388000000.0 0.544919276618245 -0.842773251463412
4391000000.0 0.5532708267639788 -0.8652822670688167
4394000000.0 0.5242482223826436 -0.8396712668596045
4397000000.0 0.5161895112239998 -0.8555056925268613
4400000000.0 0.5423788975473722 -0.8793915665571318
4403000000.0 0.5461824658036714 -0.8633570135237078
4406000000.0 0.516353663565984 -0.8766996972088897
4409000000.0 0.5448128677358495 -0.8717821244601086
4412000000.0 0.4878821552929842 -0.8846112526650135
4416000000.0 0.5057656636072814 -0.861817149828759
4419000000.0 0.5125298980033457 -0.8689289677852247
4422000000.0 0.5427916908732678 -0.8447868498008904
4425000000.0 0.5637998781588782 -0.8601712779775608
4428000000.0 0.5185882779158342 -0.8709123961352199
4431000000.0 0.5571943235476216 -0.8744369544695112
4434000000.0 0.5263194309981302 -0.8578117842594651
4438000000.0 0.5361902247610638 -0.873623997472069
4441000000.0 0.5639062058099988 -0.8814066252302075
4444000000.0 0.5288840437259871 -0.8495052707149171
4447000000.0 0.5109567280015821 -0.858974363165842
4450000000.0 0.5435734644693971 -0.8381742382086308
4453000000.0 0.5505435122775225 -0.8786690279489412
4456000000.0 0.4995118016377012 -0.8367216068626895
4459000000.0 0.48839870394193863 -0.851385964377405
4462000000.0 0.5660387114297584 -0.9034603603970268
4466000000.0 0.5471199084382301 -0.8989913732781839
4469000000.0 0.5492073952880434 -0.8594818239760029
4472000000.0 0.5097368243956303 -0.8912392741848616
4475000000.0 0.5146274140776099 -0.8285832982498247
4478000000.0 0.5428221681097074 -0.9105483330533866
4481000000.0 0.5127020546869334 -0.8551019664913764
4484000000.0 0.47005482305185925 -0.8944415874818201
4488000000.0 0.49440513403388875 -0.8536066216561549
4491000000.0 0.5047947426409426 -0.8478680729568534
4494000000.0 0.5024739945898108 -0.8543343106704078
4497000000.0 0.5297223263540755 -0.8527975701805661
4500000000.0 0.5301914104822695 -0.8621606978651488
4503000000.0 0.5450874760758686 -0.8619061846977608
4506000000.0 0.5324790351682939 -0.8619159087344181
4509000000.0 0.49865567172487407 -0.8437600968490202
4512000000.0 0.5034328681336622 -0.8638656319821554
4516000000.0 0.5333386608419686 -0.8905301279611746
4519000000.0 0.5033932405397439 -0.8388188249121191
4522000000.0 0.5194371607534145 -0.8799773953268945
4525000000.0 0.5442145167974928 -0.8443079346175002
4528000000.0 0.5286272129678331 -0.8923134118473842
4531000000.0 0.5611088868957022 -0.8562696725894634
4534000000.0 0.5055930149838878 -0.8618331280437456
4538000000.0 0.5262403889104449 -0.8807741135728253
4541000000.0 0.49538135393014643 -0.8814751233766104
4544000000.0 0.5123912869626319 -0.862499605689329
4547000000.0 0.5187335008388604 -0.8654250127792126
4550000000.0 0.49655304164239145 -0.8781188694475259
4553000000.0 0.5146074113337351 -0.871738245065698
4556000000.0 0.4852879688651077 -0.853002398143677
4559000000.0 0.5003438947669693 -0.8878210987951618
4562000000.0 0.5238712958911524 -0.8974197042305909
4566000000.0 0.5043853871304681 -0.8780401085557077
4569000000.0 0.49764357509476853 -0.8557638167746611
4572000000.0 0.515680705467332 -0.8749095972079068
4575000000.0 0.5069216535980985 -0.889552203833988
4578000000.0 0.524311084632482 -0.8773395854508959
4581000000.0 0.49804199948570754 -0.8822816425404707
4584000000.0 0.5104587271401702 -0.8658744383431289
4588000000.0 0.5214060537026165 -0.8845413186366923
4591000000.0 0.5458796517535329 -0.8623947477510636
4594000000.0 0.4904068691717883 -0.8901857265585168
4597000000.0 0.5101108207334386 -0.8988077639937951
4600000000.0 0.4914234635583804 -0.8706933526830781
4603000000.0 0.5131235564457115 -0.89945322071681
4606000000.0 0.5069239232337222 -0.8812771513265985
4609000000.0 0.5058953971216965 -0.8690759463249222
4612000000.0 0.5033110721401148 -0.8834023459736455
4616000000.0 0.4996483098010738 -0.8764166325979605
4619000000.0 0.5046104671775533 -0.8569487027048523
4622000000.0 0.4911042294697236 -0.8701530597673669
4625000000.0 0.4796715780863873 -0.8645010818638061
4628000000.0 0.5071595382593113 -0.8764106034402805
4631000000.0 0.4723926730330075 -0.8916496956303319
4634000000.0 0.5052868090980913 -0.8844902661014714
4638000000.0 0.5070645743350928 -0.8839316996820977
4641000000.0 0.5090647412896121 -0.8840892359844936
4644000000.0 0.504143515549933 -0.8640755252413524
4647000000.0 0.5048557675273615 -0.8890900277139833
4650000000.0 0.4837347080008262 -0.896555697607448
4653000000.0 0.5208332342434896 -0.875895819300839
4656000000.0 0.5025204404336509 -0.8779827498861732
4659000000.0 0.48957995944928223 -0.8835373778828354
4662000000.0 0.501199043601351 -0.883975366908374
4666000000.0 0.47895753909332694 -0.8945271705896207
4669000000.0 0.5175642932817496 -0.8706210299940316
4672000000.0 0.48133503691626606 -0.8976323325135861
4675000000.0 0.4843136562882728 -0.8784897982333866
4678000000.0 0.478068457135882 -0.8561348759899534
4681000000.0 0.4665933772077143 -0.9094419636150882
4684000000.0 0.47616005479240164 -0.9055586098577881
4688000000.0 0.46675980683378304 -0.8676196541179393
4691000000.0 0.5089529448926242 -0.8765188269366125
4694000000.0 0.49025219162997885 -0.8850312921228188
4697000000.0 0.465212813834185 -0.8735958892268639
4700000000.0 0.5134698797403736 -0.8756523855262133
4703000000.0 0.5151975300108399 -0.8658605513657179
4706000000.0 0.4856082962617726 -0.8926574637226047
4709000000.0 0.47996832598730166 -0.8895606408215665
4712000000.0 0.5215260349725587 -0.9033396124317123
4716000000.0 0.5124270257279688 -0.9053632280211112
4719000000.0 0.5225446455375379 -0.8904971283778544
4722000000.0 0.5117954615632396 -0.8800609446894054
4725000000.0 0.49532933718309347 -0.867447041823037
4728000000.0 0.5096727019398191 -0.9038699948830943
4731000000.0 0.5009332790166348 -0.9004899905929172
4734000000.0 0.4876383851206644 -0.8672338259211487
4738000000.0 0.5647000506685397 -0.9061788513866712
4741000000.0 0.4809270701091952 -0.9093640163085213
4744000000.0 0.4783776914852121 -0.8869527897537731
4747000000.0 0.5069136396867233 -0.8559633107575558
4750000000.0 0.46905487568336524 -0.8841092330907367
4753000000.0 0.48658314324192486 -0.9038091402519199
4756000000.0 0.4726920403246592 -0.885083847856803
4759000000.0 0.4997472559519336 -0.9203482640194008
4762000000.0 0.46225555563110793 -0.9110304661440257
4766000000.0 0.47920747995962687 -0.8717050404567237
4769000000.0 0.4774297251986841 -0.9024440376074621
4772000000.0 0.5000434584611111 -0.9203957520998924
4775000000.0 0.49150011447777875 -0.9450553511012968
4778000000.0 0.4992980516606995 -0.9034411718755666
4781000000.0 0.4918146758869393 -0.882893024208213
4784000000.0 0.496006740690595 -0.8849802277577771
4788000000.0 0.48487206758747436 -0.9262094276446697
4791000000.0 0.515390267223183 -0.8838179471196036
4794000000.0 0.5355335149840181 -0.898812234926842
4797000000.0 0.48460487156364773 -0.895113189512466
4800000000.0 0.48579758594577405 -0.9007330950325901
4803000000.0 0.4636535736001447 -0.9103885530041244
4806000000.0 0.483568097373422 -0.9090701441831268
4809000000.0 0.46277034061364597 -0.9258560832641052
4812000000.0 0.46760566614162724 -0.8831535486339767
4816000000.0 0.51823975531076 -0.8775415494513366
4819000000.0 0.49595203129778576 -0.9097419377608689
4822000000.0 0.5233903745853185 -0.9386545027610145
4825000000.0 0.5164134570849293 -0.9065245800672991
4828000000.0 0.4850613966467755 -0.8895833447218802
4831000000.0 0.4484006458829598 -0.9522932627598286
4834000000.0 0.502526092787269 -0.9057203851590107
4838000000.0 0.4761817928245794 -0.9269341959114267
4841000000.0 0.472393664924907 -0.9003255096500343
4844000000.0 0.5268893928767986 -0.8703286749592543
4847000000.0 0.4856306228936701 -0.8568985851322217
4850000000.0 0.4821625578541607 -0.9277043422837931
4853000000.0 0.4820471070077267 -0.8722726980366792
4856000000.0 0.49519110677856526 -0.8849178065494921
4859000000.0 0.5083753175918344 -0.9063348888928026
4862000000.0 0.511825256765876 -0.8671558369684099
4866000000.0 0.4802577746771297 -0.9361429293876924
4869000000.0 0.48510118446077305 -0.9404233473943059
4872000000.0 0.47852881737706826 -0.9488256507007535
4875000000.0 0.5586499283878873 -0.9249439920173581
4878000000.0 0.4718385650114112 -0.9113594951187454
4881000000.0 0.48495483300384007 -0.9474379585111602
4884000000.0 0.49743305030370366 -0.8754095473764707
4888000000.0 0.5138673365011251 -0.9051014649079743
4891000000.0 0.5268913882321 -0.9195980712661892
4894000000.0 0.49136480712088537 -0.9096587710572535
4897000000.0 0.5172843937998164 -0.8738269558817899
4900000000.0 0.5051248644617503 -0.9245818781900513
4903000000.0 0.5255643051648838 -0.9287636517291035
4906000000.0 0.5176788484057964 -0.9100656915919813
4909000000.0 0.4911864156099272 -0.9218737149701619
4912000000.0 0.51071201064412 -0.9644258057033411
4916000000.0 0.5050127970708231 -0.903964321250527
4919000000.0 0.5597132559661766 -0.9280593537632277
4922000000.0 0.5276408206259527 -0.9183974091088072
4925000000.0 0.4751971550395533 -0.9270767673641719
4928000000.0 0.5399127096849903 -0.8633985236756363
4931000000.0 0.5547593464121127 -0.9002756295031097
4934000000.0 0.4716415628035183 -0.855886921865702
4938000000.0 0.4827761102382242 -0.8798005319462976
4941000000.0 0.5038530629246455 -0.894737691742978
4944000000.0 0.4685649865159421 -0.8255375327567508
4947000000.0 0.4756984939282179 -0.8995087729297081
4950000000.0 0.5157655108142792 -0.9034431717540952
4953000000.0 0.48367790965349033 -0.9703356276313571
4956000000.0 0.48226503912506 -0.9190843685510135
4959000000.0 0.42798927827660527 -0.8827686261341438
4962000000.0 0.4841702098442665 -0.9089672595981835
4966000000.0 0.5645217685404841 -0.9498404682353331
4969000000.0 0.5493718884599061 -0.9620870440401037
4972000000.0 0.4846178493369171 -0.9133823414272018
4975000000.0 0.5091932521261449 -0.8738585330787914
4978000000.0 0.5037743746412897 -0.944743858271212
4981000000.0 0.4754694660573347 -0.9370731456950178
4984000000.0 0.510913727189517 -0.8714989388598219
4988000000.0 0.504593260915621 -0.8903074131351546
4991000000.0 0.5765630326926723 -0.8722371248089766
4994000000.0 0.5034723443751155 -0.8602626992457112
4997000000.0 0.4873292304833374 -0.9557426581773214
5000000000.0 0.5194783985257615 -0.9123922033945471
5003000000.0 0.5377706566608133 -0.9068541483354482
5006000000.0 0.5549131395367191 -0.9477672836780119
5009000000.0 0.5138499228224105 -0.8929827301873962
5012000000.0 0.47553582416249407 -0.9203115291054298
5016000000.0 0.564495989817688 -0.9094378764980016
5019000000.0 0.4993259395607054 -0.9196292591297263
5022000000.0 0.5232896534202398 -0.9029148259284663
5025000000.0 0.5461944324989298 -0.9407610931260448
5028000000.0 0.4862596357438007 -0.9487309043437411
5031000000.0 0.5070417786361834 -0.8946120216322538
5034000000.0 0.4937566121080358 -0.9403934353962278
5038000000.0 0.49715389438306024 -0.8942590129773663
5041000000.0 0.5696582982755806 -0.8747885441168629
5044000000.0 0.5343563823838863 -0.8857456126139217
5047000000.0 0.4989414102584022 -0.869736561890533
5050000000.0 0.5632248285979742 -0.8848461362660653
5053000000.0 0.5163793705560964 -0.961000241256422
5056000000.0 0.5700453732483286 -0.9257634752172512
5059000000.0 0.5377245231223191 -0.8827347922622446
5062000000.0 0.5104849639690779 -0.9370332441377726
5066000000.0 0.5546306526426507 -0.8530558780761093
5069000000.0 0.513809026123297 -0.9282363313931373
5072000000.0 0.47613188928599337 -0.865764630727944
5075000000.0 0.5487324901683039 -0.8553105917388426
5078000000.0 0.4905117453499166 -0.9339229560124889
5081000000.0 0.49163292215559184 -0.8632486943041986
5084000000.0 0.5112926179300211 -0.9173922019425453
5088000000.0 0.5333923864175285 -0.9005542546876363
5091000000.0 0.5068647148202272 -0.9419392748459126
5094000000.0 0.5133567218524298 -0.9089724930224811
5097000000.0 0.4908472437098197 -0.8856433015276899
5100000000.0 0.5277819552869025 -0.8728561434506347
5103000000.0 0.4932821501413917 -0.9518856046809959
5106000000.0 0.5799311618741794 -0.918392466896877
5109000000.0 0.5334018708231675 -0.8650039365611165
5112000000.0 0.4917115460014429 -0.9192497831259179
5116000000.0 0.4890483527776509 -0.8416698261016877
5119000000.0 0.5294264676325233 -0.9147714429818128
5122000000.0 0.5493495512409596 -0.8960554392295561
5125000000.0 0.5223953881316975 -0.878500719802444
5128000000.0 0.4957988508814585 -0.8814763474950107
5131000000.0 0.5231540808459457 -0.8616080226350402
5134000000.0 0.5947551339744959 -0.9321809293139041
5138000000.0 0.5339069635406135 -0.8743922504904993
5141000000.0 0.5795898127445586 -0.8552144616307398
5144000000.0 0.5945049723588276 -0.8567932422472014
5147000000.0 0.5437824606024234 -0.8910557723681416
5150000000.0 0.5784531475016246 -0.8850590019266618
5153000000.0 0.5586224322395812 -0.9354540470722097
5156000000.0 0.5965189475851869 -0.9348905337091153
5159000000.0 0.5697558836748735 -0.9675844351263572
5162000000.0 0.5407030382841883 -0.8560375768925659
5166000000.0 0.514306932804044 -0.9058991676677433
5169000000.0 0.5558412409606124 -0.9271105393414083
5172000000.0 0.5521799512375802 -0.9104254190689667
5175000000.0 0.55767676462562 -0.9123213539337203
5178000000.0 0.5201061041447654 -0.8952865418807474
