! Created with skrf 1.8.0 (http://scikit-rf.org).
# Hz S RI R 50.0 
!freq ReS11 ImS11
4000000000.0 0.5290593442966744 -0.8352034521288716
4003000000.0 0.599369279302248 -0.9109118914752026
4006000000.0 0.5220791462079584 -0.871498348424871
4009000000.0000005 0.5704787198982562 -0.9040400857063507
4011999999.9999995 0.6041543263008339 -0.8762248570492447
4016000000.0 0.5445591167958945 -0.9238915075027432
4019000000.0 0.5296708067329141 -0.9053074170679686
4022000000.0000005 0.6174622714644777 -0.8423783017708455
4025000000.0000005 0.539342841849139 -0.8985609944867248
4027999999.9999995 0.5212718243804612 -0.8922597472420126
4030999999.9999995 0.5434179616320316 -0.7992122249025906
4034000000.0 0.5094405312179959 -0.8654765635220314
4038000000.0000005 0.5090655521284345 -0.8786989037130144
4041000000.0000005 0.5374667932089411 -0.8676763635100533
4043999999.9999995 0.6026213879894622 -0.8982599328865013
4046999999.9999995 0.5682596519471517 -0.8628557562451615
4050000000.0 0.5321471219660668 -0.9044023276478084
4053000000.0 0.5037159820902515 -0.8555817441821745
4056000000.0 0.5217631534066274 -0.872218738502943
4059000000.0 0.5670553836103576 -0.8694169281061084
4062000000.0000005 0.5280039451184815 -0.836316560970201
4066000000.0 0.45446776277822776 -0.8329046143284768
4069000000.0 0.5123933224255822 -0.8983093868522494
4072000000.0 0.5806984771134908 -0.8400644198670426
4075000000.0 0.5709318230649053 -0.8121928264988196
4078000000.0000005 0.5259396676871874 -0.8662601632004517
4081000000.0000005 0.5536110780458784 -0.868858707604866
4083999999.9999995 0.5202773465947598 -0.8733895680998314
4088000000.0 0.5710603795931193 -0.8430631251785038
4091000000.0 0.5752220481749922 -0.9423050270594534
4094000000.0000005 0.5926923545953372 -0.856060075268319
4097000000.0000005 0.5577059927679422 -0.879642822765499
4099999999.9999995 0.5210440605473736 -0.9011274929836446
4102999999.9999995 0.5646502441753123 -0.8700350359611191
4106000000.0 0.5466885179152039 -0.8536863264389085
4109000000.0 0.51863103166446 -0.8787492467220365
4112000000.0 0.5744616215599226 -0.8506776727769998
4115999999.9999995 0.545556198934511 -0.8589204746419392
4119000000.0 0.5366780041200379 -0.9058780960944405
4122000000.0 0.5323090643249913 -0.8610396251010274
4125000000.0 0.5229741629117555 -0.9340010243770696
4128000000.0 0.5564287797549836 -0.8264089172623549
4131000000.0 0.5382749444079432 -0.8471939706476219
4134000000.0000005 0.5386262072928848 -0.8826718714690148
4138000000.0 0.5129852012957844 -0.840811651635347
4141000000.0 0.528973342909456 -0.8941702575924252
4144000000.0 0.5609702178362527 -0.8632635490132685
4147000000.0000005 0.5055057203081124 -0.8859803347775915
4150000000.0000005 0.5706149863681924 -0.8844145016669502
4152999999.9999995 0.5478206211619128 -0.8598214170878327
4155999999.9999995 0.5859638717170231 -0.869663279947659
4159000000.0 0.5607764241892044 -0.8336849960352063
4162000000.0 0.5563508385211207 -0.8624409169265317
4166000000.0000005 0.4999950059776714 -0.8818842364770909
4168999999.9999995 0.5278293335915605 -0.8627574535078544
4171999999.9999995 0.5386008928345535 -0.8631012844438071
4175000000.0 0.5637370845603729 -0.8763496273108521
4178000000.0 0.5432355676596554 -0.8655436161959214
4181000000.0 0.5408160898861287 -0.8698976373785429
4184000000.0 0.5354323258052429 -0.8505565355917557
4187999999.9999995 0.519489026815861 -0.8701906631602735
4191000000.0 0.5797608014342978 -0.8217511473239026
4194000000.0 0.5107765790193773 -0.8535232522789289
4197000000.0 0.5356331650978314 -0.8523870750756067
4200000000.0 0.5557593597161155 -0.83671725857447
4203000000.0000005 0.5683257469341948 -0.8755735101460553
4206000000.0000005 0.5497534595183219 -0.8741190386544516
4208999999.9999995 0.5315853177359 -0.8385676236918451
4211999999.9999995 0.5209427019608085 -0.8709540639333146
4216000000.0 0.5452207063003303 -0.8708782794524212
4219000000.0000005 0.5569164498275909 -0.8555300844846334
4222000000.0000005 0.5423220374771338 -0.8696913438824698
4224999999.9999995 0.5495510703633568 -0.848110885979862
4227999999.9999995 0.5490381853231378 -0.8662675356179791
4231000000.0 0.5315282113311037 -0.8663059944494592
4234000000.0 0.5373243249276796 -0.8757003379744847
4238000000.0000005 0.5390077665224644 -0.8587757619599596
4240999999.9999995 0.511378446466251 -0.8616794452008727
4244000000.0 0.5433677955034458 -0.8558295448963691
4247000000.0 0.5525439623164671 -0.846270155660719
4250000000.0 0.5339437178630172 -0.8419022313583834
4253000000.0 0.5140640097219803 -0.8454560263928139
4256000000.0 0.5400733286445352 -0.870095731148562
4259000000.0000005 0.5067660129723373 -0.8363828081987807
4261999999.9999995 0.5129116851220731 -0.8365919432375629
4266000000.0 0.5283203757285079 -0.8851436627186833
4269000000.0 0.562876275849397 -0.8581703526107538
4272000000.0000005 0.5384132630633941 -0.8577422567206806
4275000000.0000005 0.5512461707005953 -0.8655025135295046
4277999999.9999995 0.5710275312128199 -0.8565550887213967
4280999999.9999995 0.5545830297673944 -0.8741055452871871
4284000000.0 0.5137195419153026 -0.8812534123057392
4288000000.0000005 0.5737066042331791 -0.8622249998802124
4291000000.0000005 0.5432017980343954 -0.853833572063752
4293999999.9999995 0.5331205573895641 -0.8710478028634646
4297000000.0 0.5525513049671161 -0.8355059409040745
4300000000.0 0.5426658111476129 -0.8273597231048351
4303000000.0 0.523097396601246 -0.8506737306828844
4306000000.0 0.5603424281624584 -0.8559053608440244
4309000000.0 0.5242427427393899 -0.8562423327476351
4312000000.0 0.5801168188604988 -0.8420090012065112
4316000000.0 0.5615667452823303 -0.8566316559077767
4319000000.0 0.5189374498362123 -0.8298766702037743
4322000000.0 0.5059093483055093 -0.8644073415808353
4325000000.0 0.5459451259113944 -0.830863894668421
4328000000.0 0.5235891727339019 -0.84235054293716
4331000000.0 0.5154430813722801 -0.8712797082438664
4334000000.0 0.5498365151916491 -0.8646799919617151
4338000000.0 0.5535986578188203 -0.8440899756156486
4341000000.0 0.5693984172396618 -0.8561850616585949
4344000000.0 0.5704158516261366 -0.8607192926139234
4347000000.0 0.5376537608753644 -0.8383504240521716
4350000000.0 0.5153015307527377 -0.8143910921306302
4353000000.0 0.5516922406948888 -0.8077111266293246
4356000000.0 0.5157771225800054 -0.8601931572385254
4359000000.0 0.5096892621612099 -0.8224925924566091
4362000000.0 0.48705292246617865 -0.8844041465521263
4366000000.0 0.5461193980896816 -0.854037465970427
4369000000.0 0.5222630632932546 -0.8200170401519387
4372000000.0 0.4916591324074729 -0.8608525396072937
4375000000.0 0.5524976110576078 -0.8556118941839783
4378000000.0 0.5276027567855801 -0.8421034229018438
4381000000.0 0.5316042663055964 -0.8395531056054264
4384000000.0 0.5492464907617176 -0.9055333444254487
4388000000.0 0.5305182836496405 -0.8353966142562514
4391000000.0 0.532193187943787 -0.8794163519668864
4394000000.0 0.5155660471253887 -0.8330329894147033
4397000000.0 0.5168726871576812 -0.8573163927432184
4400000000.0 0.5500544812830439 -0.8988199374993643
4403000000.0 0.539098501066055 -0.8667474848266836
4406000000.0 0.5267477368671102 -0.8621342689904248
4409000000.0 0.5412346421526235 -0.8876115645988737
4412000000.0 0.46699131407284106 -0.8763520624851453
4416000000.0 0.5096337692832094 -0.8556510582358916
4419000000.0 0.5100391870261142 -0.8699210330689102
4422000000.0 0.5371302020678079 -0.8383669454606884
4425000000.0 0.5627140685059817 -0.8570960801745559
4428000000.0 0.521492637144805 -0.861578305768278
4431000000.0 0.53926598900812 -0.873631352768522
4434000000.0 0.5164525730655916 -0.853603249797767
4438000000.0 0.5406499041419723 -0.8728242950539986
4441000000.0 0.5345315650331648 -0.8670179239895014
4444000000.0 0.5193763208898224 -0.8455769919210915
4447000000.0 0.4958908092286223 -0.8659354927446616
4450000000.0 0.5308311582809402 -0.8413030853412431
4453000000.0 0.5286924193730341 -0.8814205403318249
4456000000.0 0.5079530081384844 -0.8499534850271975
4459000000.0 0.4814744769994137 -0.8390769238891361
4462000000.0 0.5371453806085634 -0.8998485070877061
4466000000.0 0.5363569757456352 -0.9009467664715121
4469000000.0 0.5233948241215922 -0.8540281985776244
4472000000.0 0.5116779633643403 -0.8866026312635589
4475000000.0 0.5096796118521664 -0.840598966909967
4478000000.0 0.5382963308832507 -0.9019802280641835
4481000000.0 0.5009017930287127 -0.8685581338583978
4484000000.0 0.4958712852080411 -0.9001355673786611
4488000000.0 0.4898574498676498 -0.8572339582097253
4491000000.0 0.5122677111104674 -0.8853291311179163
4494000000.0 0.5268473867114964 -0.8428836087542936
4497000000.0 0.5061811566533678 -0.8374424242617129
4500000000.0 0.5264910103116374 -0.8607077350243575
4503000000.0 0.5371968908363466 -0.8690229039170481
4506000000.0 0.5008074602102348 -0.859057003948352
4509000000.0 0.5085187693212762 -0.8354462622269009
4512000000.0 0.4714871041257668 -0.8501685094925555
4516000000.0 0.5188973572889779 -0.8804324299332131
4519000000.0 0.5079689690811767 -0.8593228072547409
4522000000.0 0.5161670989528351 -0.8664313082565266
4525000000.0 0.5334847949243409 -0.841067829322176
4528000000.0 0.5352349256709135 -0.8907734699743881
4531000000.0 0.5273715394362984 -0.8731298340917993
4534000000.0 0.48619634392653327 -0.8661265796927256
4538000000.0 0.49533258256431356 -0.8563322620795515
4541000000.0 0.47291650062001 -0.8802870189532079
4544000000.0 0.5064176889332168 -0.8419122404171576
4547000000.0 0.5131283172265502 -0.8492475172152063
4550000000.0 0.49747300714699794 -0.8809311529109224
4553000000.0 0.506882210729854 -0.8780597321520927
4556000000.0 0.4829631048012788 -0.8696948145038335
4559000000.0 0.4945127254386481 -0.8619903961268569
4562000000.0 0.5126202806768431 -0.8776727606320078
4566000000.0 0.5040021646875661 -0.8953923062545392
4569000000.0 0.5011111791183993 -0.86730105778537
4572000000.0 0.5198148489213454 -0.8684396790412318
4575000000.0 0.4757944640832529 -0.893927354475009
4578000000.0 0.5090123398412313 -0.8829453582494824
4581000000.0 0.48094105374241053 -0.8644632144796107
4584000000.0 0.5007389694086813 -0.8721674124519996
4588000000.0 0.528112451394517 -0.8896002629578973
4591000000.0 0.5160457443128373 -0.8690854001180232
4594000000.0 0.48141133602228103 -0.8804019292836904
4597000000.0 0.5119703763777353 -0.8991614048956854
4600000000.0 0.47524175776265704 -0.8798157976867922
4603000000.0 0.4898252963784703 -0.8834751442309453
4606000000.0 0.5204393359492117 -0.8812173933929071
4609000000.0 0.5124640816839251 -0.8704739601251003
4612000000.0 0.4999020575091762 -0.8818345369078953
4616000000.0 0.4870183014328733 -0.8821655060619622
4619000000.0 0.49620608889721673 -0.8845323336860654
4622000000.0 0.48306973758649063 -0.8807324477258178
4625000000.0 0.4628593339672029 -0.8631884086521586
4628000000.0 0.5028892712449106 -0.8668799887829935
4631000000.0 0.4914224880971684 -0.8885628297665009
4634000000.0 0.4926930670448472 -0.8905565687126775
4638000000.0 0.4937398614634244 -0.8674083140866249
4641000000.0 0.5038037036529946 -0.8800851842919974
4644000000.0 0.5031051750646935 -0.8666659546160826
4647000000.0 0.4908094055604375 -0.88887310406729
4650000000.0 0.4877456841174388 -0.8668421325992283
4653000000.0 0.5146874285376654 -0.896970484917006
4656000000.0 0.4691285102116667 -0.8890943961348354
4659000000.0 0.4626011976326425 -0.8810529612423752
4662000000.0 0.4781442190816507 -0.8744229913748235
4666000000.0 0.4849871155312384 -0.8839351836866968
4669000000.0 0.48424425464999876 -0.8816254501288152
4672000000.0 0.48075337033046595 -0.9089729862767382
4675000000.0 0.4666226257747504 -0.8953671299836061
4678000000.0 0.47485657093279654 -0.8687524595496
4681000000.0 0.48173034899798767 -0.9064860138104927
4684000000.0 0.47624389315965976 -0.9000700364098866
4688000000.0 0.46138874492729126 -0.9034633655804859
4691000000.0 0.5054606121203935 -0.884507169872343
4694000000.0 0.5208673616269219 -0.8753164011505332
4697000000.0 0.45624674124556336 -0.8655572968066809
4700000000.0 0.509722429015958 -0.878944569043674
4703000000.0 0.5026131011933491 -0.8571071127555323
4706000000.0 0.4918654413932993 -0.9149356700786291
4709000000.0 0.47179751037898954 -0.8945319320342774
4712000000.0 0.4840221751726026 -0.8973552260601234
4716000000.0 0.48315104542352194 -0.8918260539878818
4719000000.0 0.5073623958091633 -0.8833959692146203
4722000000.0 0.5123175533988312 -0.8910911859120499
4725000000.0 0.5092503302581362 -0.8631843399114267
4728000000.0 0.48787249754185485 -0.8830043746467429
4731000000.0 0.525921302044851 -0.9131823431489634
4734000000.0 0.5182281243125428 -0.8857459352211543
4738000000.0 0.5319117656686612 -0.8910939201552582
4741000000.0 0.492759647802666 -0.9112548839293356
4744000000.0 0.47554800431506883 -0.9334840281157939
4747000000.0 0.4864967627684252 -0.8027489746338873
4750000000.0 0.49691654006319336 -0.9123520123879169
4753000000.0 0.4894897612164151 -0.8854798979505123
4756000000.0 0.4787976512934466 -0.8923834791387945
4759000000.0 0.48641520597569776 -0.8875458711472967
4762000000.0 0.48769790536586544 -0.912145482860163
4766000000.0 0.47125873537298146 -0.8842532525366412
4769000000.0 0.4973428781346555 -0.8902466000255471
4772000000.0 0.47954324362753153 -0.9035821567975394
4775000000.0 0.46858121684825976 -0.9255550540040802
4778000000.0 0.48715549768273053 -0.8970717543393274
4781000000.0 0.48751123677734076 -0.8479329380188
4784000000.0 0.49938312931774 -0.880522459180282
4788000000.0 0.5229652974821924 -0.9186073223453353
4791000000.0 0.48023180226528417 -0.893215064089442
4794000000.0 0.5045026476941145 -0.9139998462916369
4797000000.0 0.4616559290592124 -0.8726877332933773
4800000000.0 0.4518705050559251 -0.8779645324848798
4803000000.0 0.44083740148200523 -0.877410767773171
4806000000.0 0.4756359827396968 -0.8967161603684417
4809000000.0 0.4544820545517242 -0.9052180140883895
4812000000.0 0.4527618923003105 -0.8947391873800183
4816000000.0 0.5141460643951323 -0.8542016928576223
4819000000.0 0.5239821807213173 -0.9055364407549754
4822000000.0 0.5165642265489432 -0.9166010595958632
4825000000.0 0.5072080143442018 -0.9047515434746578
4828000000.0 0.4801759533710491 -0.8862075779774332
4831000000.0 0.43933659589674423 -0.9428780573439781
4834000000.0 0.4955821239439995 -0.8841522774529792
4838000000.0 0.48211599065815164 -0.9162209534914466
4841000000.0 0.4654055700224318 -0.9090203045239293
4844000000.0 0.5001590650225685 -0.8703843374271981
4847000000.0 0.4910877568280711 -0.8562530326907349
4850000000.0 0.48369638081486255 -0.9405871643036577
4853000000.0 0.48683489368623534 -0.8911027550664316
4856000000.0 0.4649829813289506 -0.8802016545082103
4859000000.0 0.4903638148513524 -0.9374252007386853
4862000000.0 0.48043817229568725 -0.8844200897838921
4866000000.0 0.48553065960677433 -0.9143612801437125
4869000000.0 0.4793963286973299 -0.9089773905899212
4872000000.0 0.46089706110740025 -0.9195850709205983
4875000000.0 0.5605361909718538 -0.9073791472018642
4878000000.0 0.4734100762379396 -0.903116654325308
4881000000.0 0.4742532018199095 -0.9717976089657046
4884000000.0 0.4767403063034001 -0.8983116884725736
4888000000.0 0.5044957973110271 -0.8883931088461663
4891000000.0 0.527125489480047 -0.9028741135939253
4894000000.0 0.4506199200644687 -0.9136217967283654
4897000000.0 0.5182088231338322 -0.8877708480597863
4900000000.0 0.502279106025477 -0.9190716965470859
4903000000.0 0.5111717547391819 -0.9201161998907539
4906000000.0 0.5101865427791539 -0.9459153542721115
4909000000.0 0.497508582427795 -0.9110985709228577
4912000000.0 0.4693571079811096 -0.9149466070974567
4916000000.0 0.5210406378449803 -0.8975050594142857
4919000000.0 0.5581267957614265 -0.9090982095222151
4922000000.0 0.5263525353230682 -0.8875138763811156
4925000000.0 0.44145188653281675 -0.8967886105300668
4928000000.0 0.5580767223531717 -0.8665575964689847
4931000000.0 0.5311374271951087 -0.8860641086351767
4934000000.0 0.4858615397021403 -0.863324234026903
4938000000.0 0.4495902140484715 -0.8979288441741523
4941000000.0 0.4822451844080725 -0.8898684806249898
4944000000.0 0.4804010572286201 -0.825141220231641
4947000000.0 0.4700874224346487 -0.8920129793391668
4950000000.0 0.49060146392402704 -0.8986394463606878
4953000000.0 0.48539657773930134 -0.9402886851610848
4956000000.0 0.4863778034984733 -0.9142481697479848
4959000000.0 0.4648039440243248 -0.9005454131287548
4962000000.0 0.4992825386366483 -0.9310250513019225
4966000000.0 0.5310188910134328 -0.8871496417513751
4969000000.0 0.5331462223099868 -0.9197954589851984
4972000000.0 0.4932459426697112 -0.9268308613051266
4975000000.0 0.545274339671283 -0.8913944874594038
4978000000.0 0.47654383794452715 -0.9228886431062476
4981000000.0 0.45068318043204486 -0.9199681855270622
4984000000.0 0.47928500320402756 -0.8589521274941936
4988000000.0 0.5058081870192739 -0.8698320691032881
4991000000.0 0.554023244295629 -0.8939667057941649
4994000000.0 0.5188719460530296 -0.8969622514521614
4997000000.0 0.463608619988394 -0.9098103184011062
5000000000.0 0.5299826088167128 -0.917014703986061
5003000000.0 0.5083058860645546 -0.9108290040578536
5006000000.0 0.5158712996581922 -0.9333737087040588
5009000000.0 0.4982161778317128 -0.8983161173313853
5012000000.0 0.4991587913691694 -0.9018774323041724
5016000000.0 0.5302036380645325 -0.9035429035967415
5019000000.0 0.4931235036214977 -0.9118768890289106
5022000000.0 0.48970565152697676 -0.8934571033484664
5025000000.0 0.5314262612166497 -0.9353877476299846
5028000000.0 0.4927130964908069 -0.888971950488186
5031000000.0 0.4913781198495065 -0.888798277688879
5034000000.0 0.4993695053425228 -0.9466980918673205
5038000000.0 0.49653627152074403 -0.8640661824586768
5041000000.0 0.560123650050596 -0.8865608873152366
5044000000.0 0.5151204804739669 -0.8684283043436942
5047000000.0 0.5273127023786972 -0.8842040491008769
5050000000.0 0.5770594548575145 -0.8387424087726817
5053000000.0 0.5100094037115535 -0.9490899021276012
5056000000.0 0.5699283440659938 -0.891711323334929
5059000000.0 0.568530953286043 -0.8641717452352637
5062000000.0 0.48997139268963497 -0.9147167712612337
5066000000.0 0.4943362020104002 -0.8464452299386556
5069000000.0 0.498757268344576 -0.8867205042970148
5072000000.0 0.507768998806025 -0.8719675220138356
5075000000.0 0.5322016129440734 -0.8897395769002789
5078000000.0 0.4871657201760766 -0.9191018875241523
5081000000.0 0.4784814203699058 -0.8392499881006299
5084000000.0 0.5180899620551601 -0.9186718406559348
5088000000.0 0.5402821805704139 -0.8422192387676344
5091000000.0 0.49649059979410115 -0.8971724383859175
5094000000.0 0.5298539386041419 -0.8706434936336769
5097000000.0 0.553832487526122 -0.8922722067445055
5100000000.0 0.5395103337253211 -0.8960072570159101
5103000000.0 0.5352970677679784 -0.9183733294169655
5106000000.0 0.5272479041373688 -0.9376393351376067
5109000000.0 0.5268653251628794 -0.8357357474958823
5112000000.0 0.5148918672661773 -0.8997724315902114
5116000000.0 0.5432308250438851 -0.850817308805006
5119000000.0 0.5513073625688762 -0.911760711555789
5122000000.0 0.544852729906392 -0.8728091836346513
5125000000.0 0.5364341763128478 -0.8754927275690343
5128000000.0 0.5105943115877698 -0.8782106444774695
5131000000.0 0.5051343971817798 -0.8984140084798751
5134000000.0 0.5022896065778737 -0.8869201536041111
5138000000.0 0.5688363927752781 -0.8803853620218629
5141000000.0 0.5919570513774685 -0.8799229845905387
5144000000.0 0.5818253677646794 -0.8619629223872276
5147000000.0 0.5403288306527018 -0.8986011291277372
5150000000.0 0.5409428371454834 -0.893222805382786
5153000000.0 0.5123886744991303 -0.9046613763397564
5156000000.0 0.5642687302051907 -0.8911641034955526
5159000000.0 0.5567733126733256 -0.9079456817381291
5162000000.0 0.5295453532123908 -0.8959953868220496
5166000000.0 0.5246303591741399 -0.9018878962157387
5169000000.0 0.5520200564230145 -0.9137740577251572
5172000000.0 0.5503070505732574 -0.8874869153581404
5175000000.0 0.5768376775131602 -0.8818010291659599
5178000000.0 0.5324379786699809 -0.9221863489961167
