! Created with skrf 1.8.0 (http://scikit-rf.org).
# Hz S RI R 50.0 
!freq ReS11 ImS11
4000000000.0 0.5172725596693523 -0.8237935992613927
4003000000.0 0.5753775291318054 -0.9070117240380089
4006000000.0 0.5395783120035363 -0.8922617645985511
4009000000.0000005 0.5210425194568388 -0.8592307803030909
4011999999.9999995 0.598212510515373 -0.8573714369016965
4016000000.0 0.5371048470421773 -0.8989047341580666
4019000000.0 0.5317110748947957 -0.9070305553868198
4022000000.0000005 0.5998685154005579 -0.8943601791013734
4025000000.0000005 0.5140534722896889 -0.9113257301210493
4027999999.9999995 0.513303550141807 -0.9049629306919563
4030999999.9999995 0.5093701156446403 -0.8495413243595948
4034000000.0 0.510667404905399 -0.8707937085222907
4038000000.0000005 0.5176692431984198 -0.9209164381631256
4041000000.0000005 0.5141480702702462 -0.8526250611235122
4043999999.9999995 0.5467503137666725 -0.9599059286796703
4046999999.9999995 0.5846969359472014 -0.9159446671530826
4050000000.0 0.5202637148063329 -0.9114806133451627
4053000000.0 0.503542971295123 -0.9005580203098267
4056000000.0 0.536007034548731 -0.8719274896856616
4059000000.0 0.5277335031818775 -0.8661649348932906
4062000000.0000005 0.5199405474783474 -0.8837152462610106
4066000000.0 0.5082215053604342 -0.8179298324179606
4069000000.0 0.5430588642516462 -0.9283881804296121
4072000000.0 0.5642434728080692 -0.8544964040298634
4075000000.0 0.5235034969211394 -0.9423544432495418
4078000000.0000005 0.5403950739493516 -0.8825365105464996
4081000000.0000005 0.6163973864645055 -0.908212487195868
4083999999.9999995 0.5250240571274916 -0.9010227358638441
4088000000.0 0.5433343591624604 -0.8430227703303729
4091000000.0 0.5652573347566259 -0.924666643567982
4094000000.0000005 0.5135401484866318 -0.8528732846463485
4097000000.0000005 0.5440342384479269 -0.8749543116486995
4099999999.9999995 0.5178368428525768 -0.8922457969442169
4102999999.9999995 0.5805500790220867 -0.8575532773479135
4106000000.0 0.5353249398242218 -0.8566946312142917
4109000000.0 0.5182179474687789 -0.9004277180928131
4112000000.0 0.5327192408492425 -0.9081498229089422
4115999999.9999995 0.5881959671245616 -0.8495533490734489
4119000000.0 0.4963497708408366 -0.8696083702523538
4122000000.0 0.510099533421051 -0.8843445581657514
4125000000.0 0.4822315626772841 -0.9237164353448595
4128000000.0 0.5007323180399881 -0.8029719548505566
4131000000.0 0.5251632380510468 -0.8392187547929949
4134000000.0000005 0.5329337483984928 -0.8554668539539896
4138000000.0 0.49380076175739124 -0.8805598846326871
4141000000.0 0.5304591764655302 -0.8756691736601887
4144000000.0 0.5391585204291957 -0.910429827111399
4147000000.0000005 0.5076237828209458 -0.8504373306742147
4150000000.0000005 0.5897090426138336 -0.9117818763104292
4152999999.9999995 0.5099595757607771 -0.8379804079360024
4155999999.9999995 0.5523590151515008 -0.898526199279291
4159000000.0 0.5225843585578106 -0.8633060508671201
4162000000.0 0.5325126756074701 -0.8577435024751044
4166000000.0000005 0.5328750654988792 -0.9022934211488015
4168999999.9999995 0.514128403853442 -0.8547287686722573
4171999999.9999995 0.54690046605915 -0.8670042132995636
4175000000.0 0.5355142741344677 -0.8512971018860628
4178000000.0 0.5389273444999659 -0.8694900077605954
4181000000.0 0.5294977555591251 -0.8961902904845794
4184000000.0 0.5394668920514187 -0.8432725620959308
4187999999.9999995 0.5173754820591141 -0.8849064698122803
4191000000.0 0.5491709140617591 -0.8476066789276392
4194000000.0 0.5074560556430534 -0.8369641519051663
4197000000.0 0.5439883248810934 -0.8576031451692561
4200000000.0 0.5244217121652087 -0.8707704581428074
4203000000.0000005 0.5647207172870017 -0.870737948602577
4206000000.0000005 0.5352306352007408 -0.8527594838570525
4208999999.9999995 0.5291589249732909 -0.824711534478373
4211999999.9999995 0.512142242336752 -0.8666985118893556
4216000000.0 0.5574139989876269 -0.8595301685628668
4219000000.0000005 0.5565300788397423 -0.9013870485359736
4222000000.0000005 0.5281661177768855 -0.8751929344557329
4224999999.9999995 0.5136204242455243 -0.8465443847185228
4227999999.9999995 0.5289916532001715 -0.87712055553837
4231000000.0 0.5290264221696217 -0.8516626870874734
4234000000.0 0.548533906700355 -0.8777821666937923
4238000000.0000005 0.5292334657087134 -0.8624423489503285
4240999999.9999995 0.49320182550026215 -0.8744552115870815
4244000000.0 0.53361468278859 -0.8614323883082835
4247000000.0 0.5496054846406653 -0.8681406455937754
4250000000.0 0.5127005090827996 -0.8329760053457014
4253000000.0 0.5009783001473003 -0.8606460764346219
4256000000.0 0.5192331620575893 -0.871044065177535
4259000000.0000005 0.49704779465279736 -0.8421347120249014
4261999999.9999995 0.5208335115851651 -0.8783398091638286
4266000000.0 0.5154208494289141 -0.8805745560101682
4269000000.0 0.5362717706135212 -0.861409613466681
4272000000.0000005 0.5381892058163501 -0.8509415090019856
4275000000.0000005 0.540415729861107 -0.8750947500779396
4277999999.9999995 0.5488982350326411 -0.8852167187908666
4280999999.9999995 0.5477869765379773 -0.8533248955411427
4284000000.0 0.4824554486604664 -0.8729283264373034
4288000000.0000005 0.5768731379361038 -0.8478459470318469
4291000000.0000005 0.5235058500963327 -0.8570476885185293
4293999999.9999995 0.4977459329587647 -0.8680891759127445
4297000000.0 0.5516105540309115 -0.8474435514326292
4300000000.0 0.5195590552762256 -0.8482763056964984
4303000000.0 0.5100356057222388 -0.8359631815717208
4306000000.0 0.5580083298621294 -0.8444775188483614
4309000000.0 0.5175237121743772 -0.86558720964049
4312000000.0 0.559145103317705 -0.8475657052654093
4316000000.0 0.5365878093603175 -0.8718688941805978
4319000000.0 0.5215947661171039 -0.8860130615010303
4322000000.0 0.47945424061359965 -0.8538798098057951
4325000000.0 0.548857832441874 -0.8400579063990541
4328000000.0 0.5265961402003866 -0.8584010685700841
4331000000.0 0.5188802862971255 -0.8864938971921624
4334000000.0 0.553963527282091 -0.8872702846371777
4338000000.0 0.5356188629997201 -0.8444001311074751
4341000000.0 0.5676024870565927 -0.8607672440501091
4344000000.0 0.5611893138538032 -0.8739958087820039
4347000000.0 0.528224629921632 -0.867756679940127
4350000000.0 0.4938333622065706 -0.855509045417333
4353000000.0 0.5434968519720006 -0.8203888488930919
4356000000.0 0.4948409538094658 -0.8714398884144605
4359000000.0 0.49374132335034937 -0.8086498027990267
4362000000.0 0.49396097973723996 -0.882531237171353
4366000000.0 0.53514870665893 -0.8925188272372214
4369000000.0 0.48317608312641114 -0.8390101219232887
4372000000.0 0.4782709895533001 -0.859111486581406
4375000000.0 0.5233055741335676 -0.8501881165338769
4378000000.0 0.5102208833312964 -0.8283686350461243
4381000000.0 0.5239139012261672 -0.8463273313093482
4384000000.0 0.5296297541455782 -0.9332402825485633
4388000000.0 0.5221243182550619 -0.831238587188182
4391000000.0 0.5336879998781981 -0.8680098075899627
4394000000.0 0.502548472015556 -0.8479662230905347
4397000000.0 0.508028330489225 -0.8611957634055784
4400000000.0 0.5234834770849437 -0.8981187286833775
4403000000.0 0.5319914933661256 -0.8719537817441965
4406000000.0 0.5001608911339688 -0.8811713114718367
4409000000.0 0.5170127972515425 -0.8969551056039424
4412000000.0 0.4696546092072882 -0.8918174000969723
4416000000.0 0.491899960892417 -0.8646206503966496
4419000000.0 0.5042639358765809 -0.8819535921038458
4422000000.0 0.5097259674359094 -0.855293982667216
4425000000.0 0.5406453828940241 -0.877560627366746
4428000000.0 0.5038450833166559 -0.8723162123086513
4431000000.0 0.5311464800438181 -0.8754170855290304
4434000000.0 0.4943151554132912 -0.8799968374124625
4438000000.0 0.5346561843283647 -0.891099773628085
4441000000.0 0.5304977685583194 -0.8832452380435948
4444000000.0 0.5115005321720316 -0.8475244392200313
4447000000.0 0.5105101688613671 -0.8709571999997194
4450000000.0 0.50737384663512 -0.8556196502295677
4453000000.0 0.52872430716491 -0.8955299248786734
4456000000.0 0.4916353329539037 -0.8429409794353491
4459000000.0 0.47842049601339903 -0.8421512951683378
4462000000.0 0.5276046193771683 -0.9158677729429061
4466000000.0 0.5175947092721109 -0.9186810120371844
4469000000.0 0.5192772258440104 -0.8515979255174366
4472000000.0 0.4924633270729028 -0.902077250046075
4475000000.0 0.5043790412457406 -0.8557461867196606
4478000000.0 0.5121164590861331 -0.9080640288979496
4481000000.0 0.49088283781226394 -0.8658505369328475
4484000000.0 0.445011083399864 -0.8982523263294894
4488000000.0 0.5019511668089945 -0.8618950600763486
4491000000.0 0.4796421443487053 -0.8795485633666729
4494000000.0 0.5029600520978255 -0.8800866535861787
4497000000.0 0.5372290830189181 -0.8537407691862464
4500000000.0 0.5155996559230417 -0.857571755686517
4503000000.0 0.5037761290420124 -0.8897806835744639
4506000000.0 0.49688865330592863 -0.8692330415768461
4509000000.0 0.4791632347769177 -0.8575402675150876
4512000000.0 0.4848390392875001 -0.8701735962210615
4516000000.0 0.5125258151176144 -0.9000521655887362
4519000000.0 0.5150869434843588 -0.8448852871527763
4522000000.0 0.49699245227765915 -0.8761914181140555
4525000000.0 0.5327501542467437 -0.8484238738048574
4528000000.0 0.5101021583539612 -0.8929295751682524
4531000000.0 0.5138197964218326 -0.8704629789657452
4534000000.0 0.49331159671894764 -0.8608509571336733
4538000000.0 0.501859081216026 -0.8573729396106164
4541000000.0 0.46085974883372277 -0.8786274655646312
4544000000.0 0.5027485281325665 -0.8736084333605411
4547000000.0 0.5138422406940686 -0.8563203176628242
4550000000.0 0.4860770119246578 -0.8770042199479431
4553000000.0 0.4781057138223279 -0.8948614848101519
4556000000.0 0.4890149779409967 -0.8710701320374983
4559000000.0 0.4788844011854169 -0.885568309965022
4562000000.0 0.4915084978377603 -0.890902937816584
4566000000.0 0.49222445620641364 -0.8710820034990654
4569000000.0 0.4857643284066649 -0.8499109361008714
4572000000.0 0.4758741911325632 -0.8751241458598287
4575000000.0 0.48020099969503216 -0.8987616097924173
4578000000.0 0.5129277040359855 -0.8818822536324967
4581000000.0 0.48499874400552667 -0.8728847165642881
4584000000.0 0.48736687443160326 -0.8764599872630444
4588000000.0 0.5046261431216336 -0.8870475347400727
4591000000.0 0.4944087852427168 -0.8567668004750687
4594000000.0 0.48536753883881645 -0.8915964314120458
4597000000.0 0.5003765890328208 -0.9042396450123499
4600000000.0 0.457525051986389 -0.890563252280312
4603000000.0 0.4964039291813165 -0.8903569654543304
4606000000.0 0.5011819077397718 -0.880639065936788
4609000000.0 0.49264563936602945 -0.8664097757727294
4612000000.0 0.4866557924808176 -0.8874240410416044
4616000000.0 0.46319498005479526 -0.8627136369556441
4619000000.0 0.492620359091238 -0.8746455106780066
4622000000.0 0.4949687904302199 -0.8737458661719179
4625000000.0 0.44551416357813894 -0.8661932002974563
4628000000.0 0.49312562109258873 -0.8724036152301725
4631000000.0 0.4792253836461065 -0.8750026609814143
4634000000.0 0.4749061953646595 -0.889643538664936
4638000000.0 0.49939800143051216 -0.8694298382671555
4641000000.0 0.49439532989321244 -0.9012861066336326
4644000000.0 0.49083468840689526 -0.8958570142453306
4647000000.0 0.49338041099723134 -0.8842151216670905
4650000000.0 0.46724009697271685 -0.8850170091001013
4653000000.0 0.5030003429448351 -0.8887413949582943
4656000000.0 0.47703525368948607 -0.894101552223034
4659000000.0 0.4843153487616356 -0.8869419697236085
4662000000.0 0.47587035442591613 -0.8960307746249698
4666000000.0 0.4887219553068314 -0.8997880292489817
4669000000.0 0.4734263775133587 -0.8946089253055842
4672000000.0 0.4623759910062978 -0.9101810778741728
4675000000.0 0.4704351751664956 -0.9056067215179467
4678000000.0 0.4612249164764422 -0.8690694293909299
4681000000.0 0.45434323468203514 -0.9204116932828937
4684000000.0 0.4420799748978877 -0.9009715959238442
4688000000.0 0.4451774572480488 -0.8728738187645688
4691000000.0 0.492275115561642 -0.9162158832161272
4694000000.0 0.4762933106011119 -0.8824462881241169
4697000000.0 0.453320479203264 -0.8694611292655876
4700000000.0 0.48694562402201913 -0.8925309665662011
4703000000.0 0.46836541158461414 -0.8543172362163007
4706000000.0 0.46822407860016946 -0.918284829419659
4709000000.0 0.4502198783180269 -0.8811100479663551
4712000000.0 0.48575244063171635 -0.8879845617242917
4716000000.0 0.4928856305117361 -0.8934919386148021
4719000000.0 0.48865652077278093 -0.8815103778892287
4722000000.0 0.5153825440278402 -0.8902951740559174
4725000000.0 0.4805938317685662 -0.8984792432333685
4728000000.0 0.4497759616812806 -0.900038449455121
4731000000.0 0.5179546881247012 -0.9395810061502269
4734000000.0 0.4855276893635221 -0.8990109258421499
4738000000.0 0.4999637424344339 -0.9002153897713493
4741000000.0 0.45935463827656375 -0.9163628300006569
4744000000.0 0.4436353846618643 -0.8860018573783951
4747000000.0 0.48695982836166496 -0.8654535538852427
4750000000.0 0.5013325247471367 -0.9027336661204454
4753000000.0 0.46575913963517085 -0.9008576659629981
4756000000.0 0.4686712025180031 -0.9068538195737558
4759000000.0 0.47547826378244185 -0.9138927553420484
4762000000.0 0.4517996889205286 -0.9187655525088043
4766000000.0 0.45585205899139863 -0.8905076347078795
4769000000.0 0.47788771495188903 -0.8844373344502802
4772000000.0 0.4772024600356135 -0.9276941698652189
4775000000.0 0.4790196420369053 -0.9451520787170911
4778000000.0 0.44957733693036983 -0.9152229584351816
4781000000.0 0.49742281970267144 -0.881760919059694
4784000000.0 0.4775217725342876 -0.8856434893140063
4788000000.0 0.4555064824705105 -0.9312045423398865
4791000000.0 0.4719972228213808 -0.8876934774600003
4794000000.0 0.5231249089109444 -0.9158764032876995
4797000000.0 0.4345118794489524 -0.9063607698657746
4800000000.0 0.44267345199274166 -0.8770182746294035
4803000000.0 0.43333050707295884 -0.911389809237714
4806000000.0 0.486929398354114 -0.9205173017670996
4809000000.0 0.43576056760224124 -0.9164905875844843
4812000000.0 0.4417571514146767 -0.9206369710107614
4816000000.0 0.4895608688588343 -0.8807550940688761
4819000000.0 0.4920937710565977 -0.9484860692868531
4822000000.0 0.5086221673973467 -0.9102734121260752
4825000000.0 0.49881569675046156 -0.9117151485146424
4828000000.0 0.464542993788411 -0.9089379025292841
4831000000.0 0.42815179768243694 -0.9453502696653487
4834000000.0 0.4887986048902785 -0.8932385913307348
4838000000.0 0.4693934879461427 -0.9394208559601664
4841000000.0 0.4511861647010551 -0.9178986259578479
4844000000.0 0.48579736120665684 -0.8942949708557912
4847000000.0 0.4806227155453814 -0.8706722494295689
4850000000.0 0.45535452168093615 -0.9254739676702556
4853000000.0 0.46357291772322273 -0.8706307435879084
4856000000.0 0.44978512672740767 -0.8790123189178488
4859000000.0 0.47542027257787983 -0.94419732717721
4862000000.0 0.4830935340742567 -0.8787834823233173
4866000000.0 0.4789725761855418 -0.9131121714326559
4869000000.0 0.44456322921198405 -0.8972240141922991
4872000000.0 0.46263595336300556 -0.9475810568305922
4875000000.0 0.5383049920446301 -0.9247232645663219
4878000000.0 0.45767551871364526 -0.9141236824482774
4881000000.0 0.45704147560350544 -0.9691792070027524
4884000000.0 0.47275259426913985 -0.8952741858405342
4888000000.0 0.5086487252666788 -0.911998063368489
4891000000.0 0.4838375616196486 -0.9089695806609364
4894000000.0 0.45171638623771865 -0.8954578786576322
4897000000.0 0.48821107518272716 -0.8928450484151055
4900000000.0 0.4726031621471434 -0.9160049090048126
4903000000.0 0.5105974119263912 -0.9264142491157404
4906000000.0 0.4604165340738498 -0.9512670627019906
4909000000.0 0.468265724412334 -0.9372833187294598
4912000000.0 0.4684397816676485 -0.9321775069122744
4916000000.0 0.5059113998752827 -0.9279749670634031
4919000000.0 0.5255731526435202 -0.936589766697122
4922000000.0 0.5111998578410911 -0.8946939985061383
4925000000.0 0.4555539640017646 -0.9126540843031409
4928000000.0 0.5204700302931172 -0.9111924279143222
4931000000.0 0.49085044708487624 -0.9139516926472797
4934000000.0 0.4872054603569009 -0.90322672992794
4938000000.0 0.4691988528960115 -0.8988931861143427
4941000000.0 0.4641703467756517 -0.8885482594209723
4944000000.0 0.4900012190886987 -0.8263664187175969
4947000000.0 0.4722708314352579 -0.925641122728539
4950000000.0 0.46300667187144673 -0.8866141191916987
4953000000.0 0.4764214171209646 -0.915831272323268
4956000000.0 0.4539731761585956 -0.9301902312668491
4959000000.0 0.4497283796600927 -0.9115616435658754
4962000000.0 0.506751036584041 -0.9346688695966835
4966000000.0 0.5098382274807827 -0.9260373640725711
4969000000.0 0.5245499452428994 -0.9571644332332383
4972000000.0 0.4697886303848161 -0.9156372065903429
4975000000.0 0.5189304085119686 -0.8980757621704443
4978000000.0 0.4350538369301014 -0.9400976093972728
4981000000.0 0.48666342382690275 -0.9370609989577494
4984000000.0 0.470178474493706 -0.8914038130356617
4988000000.0 0.4761296635543548 -0.9004589361862149
4991000000.0 0.5032832926839039 -0.9222637606835944
4994000000.0 0.48131655933506 -0.8999557123484301
4997000000.0 0.45223043234930266 -0.9184531939620788
5000000000.0 0.5363532575841535 -0.9526814468864406
5003000000.0 0.5305428044436342 -0.9377891314498158
5006000000.0 0.5159699663198983 -0.9435184848996601
5009000000.0 0.47165958338393615 -0.9044260680863374
5012000000.0 0.4815493869213482 -0.9391629692966674
5016000000.0 0.5378331320197918 -0.934439575772918
5019000000.0 0.46392404528661985 -0.9090246807143783
5022000000.0 0.48847150340971984 -0.891468470028788
5025000000.0 0.514870851833777 -0.975871724192986
5028000000.0 0.4693566845426331 -0.9431227358413703
5031000000.0 0.48893186872586836 -0.8975763884696504
5034000000.0 0.47751656576671064 -0.9385914974559932
5038000000.0 0.46857594138829556 -0.9094563988062956
5041000000.0 0.5329732053888306 -0.9036074563585097
5044000000.0 0.512332863313035 -0.874242656676028
5047000000.0 0.49982333116372946 -0.8781547637143312
5050000000.0 0.5461343929206633 -0.8842086535983127
5053000000.0 0.48064072007100056 -0.9326133128025358
5056000000.0 0.515213189468175 -0.8933083886127824
5059000000.0 0.4950812960413339 -0.8681746119500025
5062000000.0 0.4611991335182218 -0.9632522560860111
5066000000.0 0.5088248602286123 -0.896475535115371
5069000000.0 0.5113618053338349 -0.9014059727209955
5072000000.0 0.4824462994846079 -0.8892787662542032
5075000000.0 0.5260528944225575 -0.8860456779128618
5078000000.0 0.46752279246036704 -0.922925192243144
5081000000.0 0.4786672711936527 -0.8327047584622236
5084000000.0 0.5283230478961529 -0.9305386903309647
5088000000.0 0.5131220049658687 -0.8665036549497924
5091000000.0 0.47232285520189854 -0.9554922277501189
5094000000.0 0.4978046455395576 -0.8799278254214989
5097000000.0 0.5589822408164971 -0.8818374736382203
5100000000.0 0.48785428670142705 -0.8867260715254448
5103000000.0 0.47478215675600255 -0.9030139252097117
5106000000.0 0.550158040698977 -0.9207099680015542
5109000000.0 0.5227625672725772 -0.8867508796282404
5112000000.0 0.5225646460691332 -0.9105438467590716
5116000000.0 0.4833082218822937 -0.8723449062758472
5119000000.0 0.5185382176703899 -0.9322820311242815
5122000000.0 0.5039466003574371 -0.9102628450778294
5125000000.0 0.5172761587184189 -0.8606587548624718
5128000000.0 0.5226099142843842 -0.9024086462624807
5131000000.0 0.49749876878493576 -0.8837926911988192
5134000000.0 0.4808877819200155 -0.8712807721020488
5138000000.0 0.5145893542700579 -0.8802129843598356
5141000000.0 0.5615983682131179 -0.8653260536413816
5144000000.0 0.5156328407649535 -0.9118440852802019
5147000000.0 0.48868654065043976 -0.9087785406852424
5150000000.0 0.5056875145056338 -0.8915141393724363
5153000000.0 0.5018994705697251 -0.9177252338365638
5156000000.0 0.4978231183949496 -0.9287860842317301
5159000000.0 0.5273969633452259 -0.9456526476092927
5162000000.0 0.5094447334652186 -0.8926593703298525
5166000000.0 0.49893448944900465 -0.9018512237828498
5169000000.0 0.5158872639743302 -0.9342214739555219
5172000000.0 0.5359844051274789 -0.878057775773429
5175000000.0 0.5405103413225765 -0.9250769582020133
