! Created with skrf 1.8.0 (http://scikit-rf.org).
# Hz S RI R 50.0 
!freq ReS11 ImS11
4000000000.0 0.5238615867801746 -0.8713244145379662
4003000000.0 0.6085296148430759 -0.9241440400768359
4006000000.0 0.46443188134834634 -0.9350750363350024
4009000000.0000005 0.4884698403760293 -0.9195305626722163
4011999999.9999995 0.6196179278893641 -0.8892162936389036
4016000000.0 0.5576675606692622 -0.9405527546185934
4019000000.0 0.549831577601812 -0.8841073465298993
4022000000.0000005 0.6081446647433243 -0.8297345905471956
4025000000.0000005 0.5166559598563271 -0.956307431477615
4027999999.9999995 0.5574157087878125 -0.941698009880914
4030999999.9999995 0.5434429298764212 -0.8440903752869889
4034000000.0 0.5416040395435585 -0.8955898823344199
4038000000.0000005 0.48731767507771806 -0.9204681796172749
4041000000.0000005 0.5270235841145219 -0.8786796869995952
4043999999.9999995 0.5496155770733848 -0.9262678336956074
4046999999.9999995 0.60384606021417 -0.8851874399474133
4050000000.0 0.5232272961318128 -0.9175251647718252
4053000000.0 0.51927330883313 -0.9020380718070662
4056000000.0 0.5221711561034938 -0.8998197931766929
4059000000.0 0.5389352265221693 -0.8838317510874927
4062000000.0000005 0.5602578395126468 -0.9244405988764428
4066000000.0 0.5138961543526432 -0.8395909811198244
4069000000.0 0.4954262800720126 -0.9671703760063974
4072000000.0 0.5717247013547364 -0.8790870454749657
4075000000.0 0.6002334223039506 -0.9263092150445194
4078000000.0000005 0.5414646755974847 -0.9171739957313321
4081000000.0000005 0.6445911126959681 -0.9224946188404471
4083999999.9999995 0.5275782769417292 -0.9134439111244272
4088000000.0 0.5610504612288553 -0.855984588239459
4091000000.0 0.5713661423569065 -0.9754664981804181
4094000000.0000005 0.5636867315918418 -0.8919566170617852
4097000000.0000005 0.5363362751146227 -0.8810753893207552
4099999999.9999995 0.5321674648352469 -0.9101509862424298
4102999999.9999995 0.5626309709584885 -0.9015375362818074
4106000000.0 0.5444998531867037 -0.9107507726848371
4109000000.0 0.5270714359399522 -0.9172955649680776
4112000000.0 0.5431060594763623 -0.9305018113836385
4115999999.9999995 0.5656448152395552 -0.86308609756067
4119000000.0 0.5084098681512501 -0.9121541364446875
4122000000.0 0.5383551165231852 -0.8885481061428152
4125000000.0 0.5289724780262309 -0.9165627391736009
4128000000.0 0.5174768325176902 -0.8451268334870171
4131000000.0 0.5217522384186105 -0.8864375243125988
4134000000.0000005 0.5574234714163094 -0.9000791630637006
4138000000.0 0.4863347927086655 -0.8673287685299046
4141000000.0 0.5211758355993356 -0.8758623292148867
4144000000.0 0.5291690668667828 -0.9074126066055819
4147000000.0000005 0.5332780763100013 -0.8779594481598862
4150000000.0000005 0.5329603314980953 -0.9477978235482907
4152999999.9999995 0.5530703079137482 -0.8915939835599617
4155999999.9999995 0.6096673132009075 -0.8873673358296557
4159000000.0 0.5526915648670635 -0.8895740865836836
4162000000.0 0.5464503573152992 -0.896393878218853
4166000000.0000005 0.5256272545895058 -0.8987676080893724
4168999999.9999995 0.5144171172676012 -0.8831629273294578
4171999999.9999995 0.5417067941342237 -0.895430959676426
4175000000.0 0.5427543729624544 -0.9037095290725544
4178000000.0 0.5307493219241877 -0.8951825526065202
4181000000.0 0.5349644483016154 -0.9065966979173881
4184000000.0 0.5408218613042451 -0.8868624767241446
4187999999.9999995 0.5257073192543784 -0.8865675140650422
4191000000.0 0.5648615423185309 -0.8579666945398767
4194000000.0 0.5140672052336495 -0.8673109726253776
4197000000.0 0.5665593926632626 -0.8762190490140078
4200000000.0 0.5440441353211036 -0.8729987599528987
4203000000.0000005 0.5354899200518168 -0.8625307779732687
4206000000.0000005 0.5574953832456148 -0.8801474684936846
4208999999.9999995 0.527744404404779 -0.8655559986237492
4211999999.9999995 0.5046937941505514 -0.8879432252345372
4216000000.0 0.5386886441071469 -0.8736212828195453
4219000000.0000005 0.5531635397860589 -0.8883404992272053
4222000000.0000005 0.5467937295226881 -0.8644216735697924
4224999999.9999995 0.5378239670270462 -0.8729097045141379
4227999999.9999995 0.540101988293576 -0.8971022362438376
4231000000.0 0.5249719843675766 -0.8881565920609485
4234000000.0 0.5243263881448126 -0.8991369763901713
4238000000.0000005 0.5265557608696636 -0.8652453955772459
4240999999.9999995 0.5151557339514177 -0.8659011957315182
4244000000.0 0.5332706667751711 -0.8858217378858019
4247000000.0 0.5192401681215097 -0.8726227508064396
4250000000.0 0.5159660307436051 -0.8721623822102417
4253000000.0 0.5199812859043029 -0.8649331793763598
4256000000.0 0.5450136858296993 -0.896382255841043
4259000000.0000005 0.5111886714352034 -0.8656925082601858
4261999999.9999995 0.5107141861142337 -0.8792460291375875
4266000000.0 0.5192294305651213 -0.910936093368538
4269000000.0 0.5359930575511664 -0.890332686909509
4272000000.0000005 0.5271546475454844 -0.862658733888663
4275000000.0000005 0.5413099027764803 -0.8824898409691087
4277999999.9999995 0.5279366257305094 -0.8793469862332833
4280999999.9999995 0.5479753558397751 -0.8880601019378626
4284000000.0 0.49093495788412894 -0.879621977546713
4288000000.0000005 0.559696509662578 -0.8789140999167371
4291000000.0000005 0.5129355161391748 -0.8562703367671604
4293999999.9999995 0.5309800596795886 -0.8643104846853582
4297000000.0 0.545360877501587 -0.8459529672373571
4300000000.0 0.5297975060179682 -0.8524317340588627
4303000000.0 0.5199212080174412 -0.8534458482709686
4306000000.0 0.5354399875984768 -0.8595890171798869
4309000000.0 0.538467632841082 -0.8579131846057839
4312000000.0 0.5795542847498805 -0.8748068745094038
4316000000.0 0.5546857728949182 -0.87348055677587
4319000000.0 0.5232849469165467 -0.8533638389970819
4322000000.0 0.5180512698133077 -0.8720928564008844
4325000000.0 0.5234942894790363 -0.8822357939022194
4328000000.0 0.5291501803772986 -0.8838982052069171
4331000000.0 0.5039899002521695 -0.8987895144736293
4334000000.0 0.5302964966694185 -0.9069763131192653
4338000000.0 0.5468981622499923 -0.8616928173164606
4341000000.0 0.5673163541010153 -0.8712541715455113
4344000000.0 0.5474930896962358 -0.9041957309424341
4347000000.0 0.4858264925164872 -0.9123243549949793
4350000000.0 0.4705743072854507 -0.8541063177499117
4353000000.0 0.531862616953849 -0.8415868589187798
4356000000.0 0.5113063576242421 -0.8744911357896872
4359000000.0 0.4870397348249608 -0.8548412350631418
4362000000.0 0.47328471605990463 -0.9239012450652914
4366000000.0 0.5344833246779735 -0.8730329050450778
4369000000.0 0.5025385235299817 -0.8538963051736941
4372000000.0 0.49804001405701925 -0.8915452405932829
4375000000.0 0.5473162304876794 -0.8696399145176018
4378000000.0 0.4992650095584706 -0.8601667402656381
4381000000.0 0.5122366841290102 -0.8648417611019895
4384000000.0 0.5462234231108771 -0.9423618344893074
4388000000.0 0.5225318549423152 -0.8631504412859903
4391000000.0 0.531658455544308 -0.8943752926441444
4394000000.0 0.5122077535104913 -0.8435127469004196
4397000000.0 0.5108554840727123 -0.8776690496628167
4400000000.0 0.5286391502684512 -0.8940965491312787
4403000000.0 0.522709591785664 -0.8900109521954789
4406000000.0 0.4955324111684637 -0.8919886726811435
4409000000.0 0.5353296002045957 -0.896395146115779
4412000000.0 0.47273360285739474 -0.9100377353364596
4416000000.0 0.5023530860565196 -0.8638981365655809
4419000000.0 0.5053399251376816 -0.883451230765483
4422000000.0 0.5147597116421638 -0.8635882444194224
4425000000.0 0.5480557873955981 -0.8841066081954732
4428000000.0 0.5112178344687867 -0.880412355478536
4431000000.0 0.5255191074525156 -0.900664624472469
4434000000.0 0.4961610256285072 -0.8651723753010165
4438000000.0 0.5397903014828711 -0.8894197630889925
4441000000.0 0.5226053733961843 -0.8884871967707861
4444000000.0 0.5195197408136254 -0.8671391321822115
4447000000.0 0.5006011127734097 -0.886737875780345
4450000000.0 0.5096827936196342 -0.8626041361194428
4453000000.0 0.5093095951828572 -0.898295501230024
4456000000.0 0.4813251683511971 -0.8614303578419704
4459000000.0 0.4632393561402051 -0.8457361961096099
4462000000.0 0.5337411691616348 -0.9384747803745674
4466000000.0 0.5295479786264634 -0.905602960748571
4469000000.0 0.5278025073562078 -0.8915861650599763
4472000000.0 0.5007797374679742 -0.9113822852516436
4475000000.0 0.4784864769415638 -0.8546749487879787
4478000000.0 0.513026537237719 -0.9255826716900983
4481000000.0 0.4874863603145335 -0.8483283642462205
4484000000.0 0.4664487046101961 -0.8938315215736903
4488000000.0 0.4969371260889597 -0.8722748395490365
4491000000.0 0.5070224997951918 -0.8942184643530304
4494000000.0 0.4839220781950557 -0.8764678919395841
4497000000.0 0.504126878363268 -0.8598950027552381
4500000000.0 0.5203323007012143 -0.8784768060342818
4503000000.0 0.49126662318088776 -0.9076658524470418
4506000000.0 0.494991284710047 -0.8828094766022068
4509000000.0 0.4909015412075635 -0.8765952019884558
4512000000.0 0.482953285261374 -0.8846762139448243
4516000000.0 0.5209910417307335 -0.8892305289768163
4519000000.0 0.49943547337317223 -0.8709732352814963
4522000000.0 0.49773295874351003 -0.8926774713902398
4525000000.0 0.5179834020238353 -0.8730787715538064
4528000000.0 0.49873054744084727 -0.9073798144887188
4531000000.0 0.5016262498998565 -0.8683888292758077
4534000000.0 0.47086286346746586 -0.8887710391051931
4538000000.0 0.48367810156948904 -0.8804251289085223
4541000000.0 0.4764161442937318 -0.9013220810703952
4544000000.0 0.4853958749122007 -0.8681537835406103
4547000000.0 0.49828044712056013 -0.8709769139538515
4550000000.0 0.48812102783256855 -0.9036540707053762
4553000000.0 0.4929443029406986 -0.8921975364994655
4556000000.0 0.4714182613023978 -0.8635982697373109
4559000000.0 0.4785387856617308 -0.8894402857580961
4562000000.0 0.48337137293770543 -0.9015352033956571
4566000000.0 0.5015272496472716 -0.9185336199387656
4569000000.0 0.46552486026550827 -0.8773092086208437
4572000000.0 0.4982126397115745 -0.8814098555402297
4575000000.0 0.46108680419990566 -0.894460035074603
4578000000.0 0.5061266146608223 -0.8941740285042685
4581000000.0 0.4613633874092625 -0.9046192045437105
4584000000.0 0.4938813074497337 -0.869911166016164
4588000000.0 0.5025206436799586 -0.9123863531632008
4591000000.0 0.5057052070916604 -0.8997157448698352
4594000000.0 0.46422087132222906 -0.9051944945966569
4597000000.0 0.4751581577373272 -0.9108624409377127
4600000000.0 0.46090010513801777 -0.905137314899779
4603000000.0 0.48310454621381566 -0.9095661430444987
4606000000.0 0.4944222635222606 -0.9131612757572405
4609000000.0 0.4898682103858528 -0.8981423629035611
4612000000.0 0.4886953281372971 -0.90297434126838
4616000000.0 0.4690170743042992 -0.8851166545718843
4619000000.0 0.483580207234489 -0.8822548240714303
4622000000.0 0.47290151930769264 -0.8910084679348393
4625000000.0 0.4564434736026811 -0.8754248407683005
4628000000.0 0.5073870313282679 -0.8803308697194626
4631000000.0 0.4571986285338637 -0.8889645136624705
4634000000.0 0.47365931832606234 -0.8975700593873794
4638000000.0 0.4804439688113695 -0.9125034822113524
4641000000.0 0.48089804603257036 -0.8988833708095013
4644000000.0 0.5008792642404991 -0.8823584534363149
4647000000.0 0.4866082440560786 -0.9078623228258436
4650000000.0 0.4680854017317108 -0.9060944176735067
4653000000.0 0.48556906715224757 -0.913614921636052
4656000000.0 0.4643843440675637 -0.9150089752862286
4659000000.0 0.4798380169516604 -0.9077065988413492
4662000000.0 0.4641672083133962 -0.9215119244276775
4666000000.0 0.4622985492286291 -0.8967100950562328
4669000000.0 0.4692746160922563 -0.8983934206621071
4672000000.0 0.44888428009766534 -0.9329429322681102
4675000000.0 0.47236209598713413 -0.9218509336795518
4678000000.0 0.4671025243476774 -0.8972211514234237
4681000000.0 0.45676818744521464 -0.9130795132385091
4684000000.0 0.46092318247103886 -0.943928982870078
4688000000.0 0.4687399736873591 -0.9056560193553398
4691000000.0 0.4942518596930483 -0.891426700843083
4694000000.0 0.46181132939487546 -0.8831730965446102
4697000000.0 0.4473016948193387 -0.8888403538195182
4700000000.0 0.4760231117442334 -0.8959944042964394
4703000000.0 0.4894354581323845 -0.8599196136122286
4706000000.0 0.46795115300239615 -0.9336542589151844
4709000000.0 0.4779865683749511 -0.9021013157004142
4712000000.0 0.4812847456342312 -0.9195681197172609
4716000000.0 0.4805399591268795 -0.9182119913502365
4719000000.0 0.5036762335222502 -0.9038628954108839
4722000000.0 0.5122476064428133 -0.8871185671772815
4725000000.0 0.45777903095853184 -0.910975931320992
4728000000.0 0.43943130052639995 -0.9232951700958381
4731000000.0 0.4814947390464118 -0.9260503012976101
4734000000.0 0.4829715919733666 -0.9050773283249047
4738000000.0 0.5153898013141283 -0.9380958691406923
4741000000.0 0.47308409542776525 -0.9219390252402572
4744000000.0 0.46565474382663685 -0.9060376922189395
4747000000.0 0.46192006678517505 -0.8938762600328494
4750000000.0 0.47001927447538283 -0.9205388204371746
4753000000.0 0.47527521974517856 -0.9095166915801363
4756000000.0 0.46266543343231037 -0.9510473199296974
4759000000.0 0.5011991459009199 -0.9449465530768509
4762000000.0 0.43756115449532595 -0.9451211395293251
4766000000.0 0.47903046451508025 -0.9011242963982695
4769000000.0 0.45305287609140715 -0.9311101134855979
4772000000.0 0.47870421813253383 -0.9359831257530413
4775000000.0 0.46843476302417836 -0.9550052672561833
4778000000.0 0.46092084708499154 -0.9431570789040948
4781000000.0 0.4993048865130716 -0.9067742746993116
4784000000.0 0.4784614659680262 -0.9055581162122552
4788000000.0 0.45486024551994464 -0.9574104012686595
4791000000.0 0.45194530623530094 -0.9297173325715744
4794000000.0 0.4838390894800334 -0.9533913083471619
4797000000.0 0.4385164523594206 -0.8984885494118493
4800000000.0 0.43382633011224886 -0.9091279624406906
4803000000.0 0.43895201574382586 -0.9232831844640437
4806000000.0 0.43463568940025377 -0.9156200951850395
4809000000.0 0.440711087988508 -0.9186089956493297
4812000000.0 0.4106405869066543 -0.9388800765301079
4816000000.0 0.4649457844388184 -0.8963564751460786
4819000000.0 0.4937365218641505 -0.9452633644394134
4822000000.0 0.4977616456211399 -0.949663908224967
4825000000.0 0.4992481026896799 -0.9330155477789761
4828000000.0 0.4530194576954544 -0.9088268630833038
4831000000.0 0.44696412411381536 -0.9703995859738666
4834000000.0 0.4883046015034103 -0.9298884441811215
4838000000.0 0.46112921337718227 -0.9414517243409386
4841000000.0 0.44398290901339305 -0.926810780947009
4844000000.0 0.49592426060362427 -0.9081416483502346
4847000000.0 0.4720707724279468 -0.8768203950093436
4850000000.0 0.47840775443750977 -0.952965007889706
4853000000.0 0.4470920293127577 -0.9058334023639467
4856000000.0 0.4398500765134864 -0.9128534129051323
4859000000.0 0.4722575289534324 -0.9669945477273616
4862000000.0 0.46680153082590886 -0.9094845065964099
4866000000.0 0.47401448539631463 -0.9487391889497291
4869000000.0 0.441673766790066 -0.9398758438618553
4872000000.0 0.4377592041839538 -0.9517697205291619
4875000000.0 0.5087006459990253 -0.9391356402431259
4878000000.0 0.46711843146387594 -0.9319989958022211
4881000000.0 0.4945235927378684 -0.9812319978562182
4884000000.0 0.4808139996764667 -0.9278738664864826
4888000000.0 0.49751803924676213 -0.8998432983570923
4891000000.0 0.49894603873118504 -0.9329355218914275
4894000000.0 0.4441365806554371 -0.9389088809810633
4897000000.0 0.4956803875412823 -0.9155973404969571
4900000000.0 0.4941835878219958 -0.941467634611568
4903000000.0 0.49552065158075065 -0.9214584683108501
4906000000.0 0.48242506267197255 -0.9567625862964331
4909000000.0 0.443502637000514 -0.9417757697911591
4912000000.0 0.4744679131472256 -0.969004680241925
4916000000.0 0.508706075844262 -0.9572923872170984
4919000000.0 0.5074490279325945 -0.9397566362653402
4922000000.0 0.4943111102209363 -0.9031717756716732
4925000000.0 0.41882759404224723 -0.9368432555147201
4928000000.0 0.5223684503608367 -0.8793534660586754
4931000000.0 0.49235794837828883 -0.9099551364338613
4934000000.0 0.4462654507845601 -0.8908361898902073
4938000000.0 0.4434210330365078 -0.9200383785693329
4941000000.0 0.47662000357861467 -0.9042764208095757
4944000000.0 0.4816940322396619 -0.8859768193156703
4947000000.0 0.4738430130127385 -0.882162318764862
4950000000.0 0.4741489348816334 -0.9242960420695103
4953000000.0 0.43798689884081404 -0.9788233534141552
4956000000.0 0.47128510195822015 -0.9571256529905349
4959000000.0 0.4617955097445754 -0.9033357511890071
4962000000.0 0.4615805964509546 -0.9529733111620358
4966000000.0 0.5312728303337547 -0.8912326652142797
4969000000.0 0.5130847529846485 -0.9419324645486604
4972000000.0 0.4529740844149319 -0.9388072193713866
4975000000.0 0.49602445153494285 -0.9071409010654717
4978000000.0 0.4514199245460751 -0.9421525618434365
4981000000.0 0.47245587096304065 -0.9452432478187951
4984000000.0 0.46782226354884504 -0.9271870263272949
4988000000.0 0.4878150883011365 -0.9239003302513003
4991000000.0 0.5262720678779462 -0.9020252298919034
4994000000.0 0.4759433605456017 -0.9305737333908889
4997000000.0 0.4443979730983958 -0.9464783633725413
5000000000.0 0.509929325389171 -0.9416034821849917
5003000000.0 0.5080065061670045 -0.9531204865794719
5006000000.0 0.4647737905204041 -0.9897084541324335
5009000000.0 0.49522287696264583 -0.901840030727846
5012000000.0 0.4779649490974607 -0.9422449273478345
5016000000.0 0.5539756777166988 -0.9446185415363466
5019000000.0 0.4889214179101913 -0.9270072585894374
5022000000.0 0.5063797969118042 -0.9394534449510069
5025000000.0 0.5089156436513271 -0.9617310586961938
5028000000.0 0.4715118204991123 -0.9576081171794704
5031000000.0 0.47877718587831 -0.940974780819388
5034000000.0 0.4466328571320205 -0.9690481942477327
5038000000.0 0.4327873857542554 -0.898407219830106
5041000000.0 0.5100401884777029 -0.8921957559034792
5044000000.0 0.5200563021067857 -0.9061923035924373
5047000000.0 0.5018218630177154 -0.9201163996844333
5050000000.0 0.5218076712174888 -0.8737377992102645
5053000000.0 0.4987391541980871 -0.9863778302363615
5056000000.0 0.5572466628087364 -0.9155760658311733
5059000000.0 0.509137512611623 -0.9441793372167939
5062000000.0 0.46181072081745816 -0.9506396923944612
5066000000.0 0.5008812137291161 -0.9122409878544455
5069000000.0 0.5096596506966027 -0.9622032286564439
5072000000.0 0.4972889991457331 -0.905335469677528
5075000000.0 0.5241493182693447 -0.9027375367033088
5078000000.0 0.4754099897976393 -0.9385189212009419
5081000000.0 0.44867985182948533 -0.8980205198036846
5084000000.0 0.5416325039779362 -0.9419813353250086
5088000000.0 0.5189626138820455 -0.9310922782846138
5091000000.0 0.48267702484570013 -0.9782101997828145
5094000000.0 0.4957058871111374 -0.9383493569677055
5097000000.0 0.5405087088354981 -0.9074840636917437
5100000000.0 0.5155240535144667 -0.9348175234455747
5103000000.0 0.4457480045696237 -0.9202464566029626
5106000000.0 0.5344118034658512 -0.9524235280894973
5109000000.0 0.5425453718911935 -0.8925105836778259
5112000000.0 0.40783527150900845 -0.9426515804120585
5116000000.0 0.45058272405447436 -0.9224329538547851
5119000000.0 0.5225040241291885 -0.9195629040287574
5122000000.0 0.4897824603715722 -0.9521041681172941
5125000000.0 0.5541894936915552 -0.8972648044970208
5128000000.0 0.4970778740797028 -0.9164324365345283
5131000000.0 0.45407228806979305 -0.91187248350478
5134000000.0 0.5344253358062893 -0.8962048748029416
5138000000.0 0.500637421129356 -0.8904894153157918
5141000000.0 0.5913599447942594 -0.9457600686614263
5144000000.0 0.5200340758457198 -0.9220116818613766
5147000000.0 0.5080021551585704 -0.9342964709535508
5150000000.0 0.5168540629866536 -0.9396258410793346
5153000000.0 0.47122831244175944 -0.9550297277403037
5156000000.0 0.5267925906437947 -0.9011430191859069
5159000000.0 0.532566005571774 -0.9696762763188298
5162000000.0 0.472968218615513 -0.9458478144250695
5166000000.0 0.5146664778330314 -0.9386106367157196
5169000000.0 0.5220683912650689 -0.9493609684689218
5172000000.0 0.4898360237382543 -0.8931924729849263
5175000000.0 0.5622405889805109 -0.9540575918033402
