! Created with skrf 1.8.0 (http://scikit-rf.org).
# Hz S RI R 50.0 
!freq ReS11 ImS11
4000000000.0 0.5196389639399529 -0.8536152713362841
4003000000.0 0.5309379506721216 -0.9522837801812065
4006000000.0 0.47556722329804685 -0.9143221358822008
4009000000.0000005 0.5268952558710196 -0.8767024523133551
4011999999.9999995 0.5279278530095164 -0.90038947405669
4016000000.0 0.495735539710233 -0.9460701330059268
4019000000.0 0.4900174359842251 -0.9074659840102342
4022000000.0000005 0.5315165085854405 -0.8372936116335982
4025000000.0000005 0.46342527897910535 -0.9186757151018399
4027999999.9999995 0.4695472125677653 -0.8885270130632645
4030999999.9999995 0.434639055377 -0.877981159672505
4034000000.0 0.5014044888235839 -0.8457336386105438
4038000000.0000005 0.484935360021281 -0.9161104378032764
4041000000.0000005 0.49100892858048856 -0.8786923242357825
4043999999.9999995 0.5653666646831714 -0.9569655336621071
4046999999.9999995 0.545710935259781 -0.9161655829098082
4050000000.0 0.48154606286883295 -0.919290255209003
4053000000.0 0.44537227141354263 -0.9069586585806251
4056000000.0 0.5060885947664193 -0.9347326817790065
4059000000.0 0.4937067839461789 -0.8803452983156957
4062000000.0000005 0.4853244644066328 -0.8994629800603577
4066000000.0 0.4680824052222724 -0.845031693012112
4069000000.0 0.45831383784604673 -0.9607245905671008
4072000000.0 0.527078184855925 -0.9264620193089987
4075000000.0 0.5248412185222522 -0.9029797330446976
4078000000.0000005 0.5037598847453136 -0.9112597074239029
4081000000.0000005 0.5428365392051012 -0.8802668438981975
4083999999.9999995 0.4893150771698014 -0.8994075365251855
4088000000.0 0.5416482925324948 -0.9014306620326265
4091000000.0 0.4969495751503365 -0.9403253458797142
4094000000.0000005 0.5177740267398324 -0.8812453067455264
4097000000.0000005 0.49572805889764526 -0.93722146270289
4099999999.9999995 0.4633643116581444 -0.8914346076261805
4102999999.9999995 0.5147632640894966 -0.889013707394904
4106000000.0 0.4878586666147885 -0.8925319711101404
4109000000.0 0.4886056319030168 -0.8718083934332599
4112000000.0 0.4865317461425376 -0.8836178268956187
4115999999.9999995 0.5177297783070341 -0.9103145678496701
4119000000.0 0.46277173479852307 -0.958190868681705
4122000000.0 0.4605745185386073 -0.9322597891505435
4125000000.0 0.5017218514631602 -0.9163548863849573
4128000000.0 0.47089491304219394 -0.8709974309449656
4131000000.0 0.5092781998203172 -0.8629948666244766
4134000000.0000005 0.5068424002381461 -0.8857484748469094
4138000000.0 0.44946285301477074 -0.8682902198948359
4141000000.0 0.4485113497230714 -0.89260963181562
4144000000.0 0.5048336650702178 -0.877522868862608
4147000000.0000005 0.4438289854965742 -0.8884915723951022
4150000000.0000005 0.4947483426238792 -0.9184633389688529
4152999999.9999995 0.4509873798815362 -0.8951029554925883
4155999999.9999995 0.5149322447903469 -0.8832987084094391
4159000000.0 0.4860750450388526 -0.8834340078929795
4162000000.0 0.49569904422189115 -0.8749916748149761
4166000000.0000005 0.4741337590793333 -0.9371706417479215
4168999999.9999995 0.47069183905611445 -0.8793554730517982
4171999999.9999995 0.4855169092269975 -0.8976517766077294
4175000000.0 0.4717331863918809 -0.9160232642849602
4178000000.0 0.4806278287948672 -0.903057716274713
4181000000.0 0.46282728072413637 -0.9081233397611546
4184000000.0 0.49644726181939536 -0.8885171647477271
4187999999.9999995 0.48233654762884987 -0.8799190195868113
4191000000.0 0.4955785399751298 -0.8682463442345137
4194000000.0 0.4688891982642196 -0.8822919094777606
4197000000.0 0.49003300239309766 -0.8822046715280354
4200000000.0 0.5062592770608595 -0.9193260957487598
4203000000.0000005 0.5090708946887564 -0.9078406684004646
4206000000.0000005 0.4890639898059556 -0.9045647056399889
4208999999.9999995 0.4899615715570187 -0.902146543100248
4211999999.9999995 0.4470732855811087 -0.8985295839708223
4216000000.0 0.5101044937771246 -0.888696330383784
4219000000.0000005 0.5188121776400008 -0.8864308307391238
4222000000.0000005 0.49112406895913663 -0.8950759379653324
4224999999.9999995 0.4744943223914643 -0.9001819654818132
4227999999.9999995 0.48797109261598015 -0.8959484074048217
4231000000.0 0.48641050821647736 -0.907800058634587
4234000000.0 0.47954445618466846 -0.8989290407910461
4238000000.0000005 0.4654615744499194 -0.902156550594387
4240999999.9999995 0.474602718381317 -0.887987099926511
4244000000.0 0.4747890347718213 -0.8995890480109441
4247000000.0 0.4885779397819264 -0.8780316276295314
4250000000.0 0.4742122389670815 -0.8659705130335348
4253000000.0 0.45956902345280776 -0.8788633687131171
4256000000.0 0.5053523606113366 -0.9170815269768056
4259000000.0000005 0.4569150543033632 -0.8808253667921976
4261999999.9999995 0.46798431624171377 -0.9035419159481355
4266000000.0 0.46975208222166764 -0.919840917291661
4269000000.0 0.4920265866336676 -0.8832497852605697
4272000000.0000005 0.4928836973848507 -0.8867461480455328
4275000000.0000005 0.4781606947490172 -0.8977660644197074
4277999999.9999995 0.4844133834253139 -0.929638822909115
4280999999.9999995 0.4996913166306445 -0.9059694623391528
4284000000.0 0.44319835002574304 -0.9431858500536594
4288000000.0000005 0.48904718902311417 -0.8931552053965021
4291000000.0000005 0.4560312045924151 -0.8771149825730182
4293999999.9999995 0.45839046016061963 -0.89899160146994
4297000000.0 0.4707109196414926 -0.8562499071536437
4300000000.0 0.48237748593558505 -0.8786564706671045
4303000000.0 0.47695099962859994 -0.8965755255671827
4306000000.0 0.5146796857039722 -0.9003332066176436
4309000000.0 0.481083645096574 -0.8626550919916449
4312000000.0 0.522228517110432 -0.8867557905646791
4316000000.0 0.5092772042755931 -0.8833536279116146
4319000000.0 0.4739381660722314 -0.8719013078870236
4322000000.0 0.4360854974827502 -0.8919708472580874
4325000000.0 0.4804941406626973 -0.8989312572096393
4328000000.0 0.4490704426404649 -0.8613708783008601
4331000000.0 0.4638311667600653 -0.9087931892921103
4334000000.0 0.4627188345861577 -0.9023606699920868
4338000000.0 0.5012439826403892 -0.873735178544277
4341000000.0 0.5265976669612039 -0.9082890403727979
4344000000.0 0.5042080850215739 -0.9199922626812855
4347000000.0 0.48078374570004934 -0.9132942466380487
4350000000.0 0.43540608742508125 -0.8714285757981542
4353000000.0 0.4792683557948406 -0.8657860807890764
4356000000.0 0.4503916083307864 -0.8889447597518784
4359000000.0 0.4391652964393995 -0.8505551376205283
4362000000.0 0.4212454547554455 -0.9190166942407884
4366000000.0 0.4639709247000911 -0.9043577088513951
4369000000.0 0.4471793650523968 -0.8802693429595727
4372000000.0 0.437177839160646 -0.8917852714296557
4375000000.0 0.476389316972651 -0.8719917770708678
4378000000.0 0.4496617041713022 -0.8800125854261207
4381000000.0 0.45544594764070245 -0.8736807871377451
4384000000.0 0.4791062824560245 -0.9626304883892887
4388000000.0 0.4672034015149439 -0.8706352348652503
4391000000.0 0.4671287068716639 -0.8846792630788187
4394000000.0 0.4402077919847296 -0.886095719062902
4397000000.0 0.45076439521141254 -0.9076021543873454
4400000000.0 0.44991561290134885 -0.9192019332152958
4403000000.0 0.4734208275728824 -0.9089014533415329
4406000000.0 0.4420499536546214 -0.9031748501202024
4409000000.0 0.4667666201483961 -0.9198774134999625
4412000000.0 0.40099232002030183 -0.9166800619233648
4416000000.0 0.4482949740203717 -0.8907031391149592
4419000000.0 0.44075492425651563 -0.9146784430885153
4422000000.0 0.46708223479223765 -0.8744284923142674
4425000000.0 0.4772131298027479 -0.9018643637883381
4428000000.0 0.4453677686642448 -0.9026558952980839
4431000000.0 0.4772873591064397 -0.9154089746884906
4434000000.0 0.44502974412755486 -0.8945078024566824
4438000000.0 0.4617971579958733 -0.9095333940549778
4441000000.0 0.45649926549325415 -0.9215700319695121
4444000000.0 0.4485752779465514 -0.8789507401444031
4447000000.0 0.4327122246377206 -0.9026062787314819
4450000000.0 0.4580282052216096 -0.8708044847529759
4453000000.0 0.4658434248554989 -0.9193239498382608
4456000000.0 0.42404160660746393 -0.8749231966028894
4459000000.0 0.40330611008772865 -0.8719587376228294
4462000000.0 0.4595531905954953 -0.954967749369966
4466000000.0 0.4664799300806634 -0.9319298198754864
4469000000.0 0.45636196616550845 -0.900632797328369
4472000000.0 0.42356754304338595 -0.926291146609389
4475000000.0 0.4426324990810689 -0.8875930363456632
4478000000.0 0.4520753010498454 -0.9567430094597714
4481000000.0 0.4040783215785705 -0.8807604716564433
4484000000.0 0.3984063528797532 -0.9269434996162226
4488000000.0 0.42251318449972636 -0.917637935809738
4491000000.0 0.431857784985698 -0.9223853745020001
4494000000.0 0.42673374008913484 -0.8988738542522123
4497000000.0 0.43521938614493216 -0.9086793843730567
4500000000.0 0.4537956431456337 -0.908164642162184
4503000000.0 0.4455555497776299 -0.914688601391171
4506000000.0 0.42850143746148767 -0.9033416198922479
4509000000.0 0.4269670144333625 -0.8820152810660361
4512000000.0 0.423247075365107 -0.9052823106854698
4516000000.0 0.4359651987657967 -0.9283468107585618
4519000000.0 0.4289007716335687 -0.8878899661969293
4522000000.0 0.4160644705719511 -0.9104173409392652
4525000000.0 0.4499456077543475 -0.8830846579404064
4528000000.0 0.4349736163907484 -0.9175167784168007
4531000000.0 0.4324532232722461 -0.9044987552329172
4534000000.0 0.4186575757338519 -0.9056142659799729
4538000000.0 0.42807202626056967 -0.894258956063547
4541000000.0 0.3797284084371224 -0.9251100892899924
4544000000.0 0.4269209674037265 -0.8990486474176387
4547000000.0 0.4412877523950777 -0.9061714815854973
4550000000.0 0.4173207512828896 -0.9430496239538686
4553000000.0 0.4338226011487825 -0.9317545856986156
4556000000.0 0.40378738960147736 -0.8955061364597803
4559000000.0 0.3943454948168764 -0.915540578669354
4562000000.0 0.4386320606740202 -0.9390758734732545
4566000000.0 0.4226590127259786 -0.9157606587181188
4569000000.0 0.4175161901521903 -0.9047001440358897
4572000000.0 0.422989792441048 -0.9054942601669609
4575000000.0 0.4228157353653766 -0.9127770416076573
4578000000.0 0.4418566117902444 -0.9377361810831598
4581000000.0 0.40286272221419867 -0.9194514418271861
4584000000.0 0.4042968279975576 -0.9115206048268651
4588000000.0 0.42859207408125455 -0.9316316660748364
4591000000.0 0.43752920557110364 -0.9204085540584992
4594000000.0 0.40141831863287036 -0.9250984760950257
4597000000.0 0.42239075646548363 -0.922720318635507
4600000000.0 0.39531688291039113 -0.9261499112016727
4603000000.0 0.41882930674371416 -0.938152159181425
4606000000.0 0.4240140176861603 -0.9327479846560737
4609000000.0 0.4115701405790914 -0.9275271214127795
4612000000.0 0.40559357384787476 -0.935781495921247
4616000000.0 0.40622942191699274 -0.8938471580236809
4619000000.0 0.4083354676342218 -0.916147722902641
4622000000.0 0.3962693860026203 -0.9192148500282713
4625000000.0 0.3582474415478727 -0.9326295989856312
4628000000.0 0.42873939841566366 -0.9167883098641129
4631000000.0 0.39694684596864394 -0.9371294623417571
4634000000.0 0.3900675295379167 -0.9434144828364102
4638000000.0 0.4053225480996906 -0.9454857155649156
4641000000.0 0.41578143177422927 -0.9216704414116668
4644000000.0 0.40638457883839174 -0.9106336828919086
4647000000.0 0.42179923771181393 -0.9248709114956951
4650000000.0 0.3787678724833765 -0.9222577917619298
4653000000.0 0.40226482665177277 -0.9300353960834516
4656000000.0 0.37872905292679726 -0.9281418898980549
4659000000.0 0.38785666344806047 -0.9266155287432327
4662000000.0 0.39056982948739993 -0.9217630546587297
4666000000.0 0.3689293507753092 -0.9492411795874925
4669000000.0 0.4120193258476147 -0.9236549004988353
4672000000.0 0.3872467273113186 -0.9558758382414327
4675000000.0 0.38446214863620676 -0.9416912087622616
4678000000.0 0.3633648822271108 -0.9047445300978745
4681000000.0 0.36745411438159736 -0.9577444227566703
4684000000.0 0.3882676652735927 -0.9523254860072494
4688000000.0 0.36376169262134267 -0.9069381388866471
4691000000.0 0.38647905237389907 -0.9507928522595075
4694000000.0 0.40383730801374684 -0.9316062260577943
4697000000.0 0.37888938886014023 -0.8929546871622815
4700000000.0 0.39286601341520794 -0.9342745904126941
4703000000.0 0.3942746817822567 -0.8858020162417622
4706000000.0 0.36631397988875086 -0.9546197363846074
4709000000.0 0.36210860342174767 -0.9363238166068384
4712000000.0 0.38161267549505645 -0.937803923513514
4716000000.0 0.37921767253986755 -0.9478279092792535
4719000000.0 0.4279229631417673 -0.9510864866253858
4722000000.0 0.3992119822415141 -0.9277660829779155
4725000000.0 0.40627218322606806 -0.9297228273687003
4728000000.0 0.34942592093879815 -0.9376642993539489
4731000000.0 0.4052339078945472 -0.9408609258800906
4734000000.0 0.3749630563835368 -0.9107860057875312
4738000000.0 0.4149963835842037 -0.9817062568571235
4741000000.0 0.4051006757660103 -0.9877852960542894
4744000000.0 0.36770021663670205 -0.9344383155025957
4747000000.0 0.3728405201972002 -0.8942766612124189
4750000000.0 0.3998583807456138 -0.9611545820967881
4753000000.0 0.4068721996469581 -0.9591246840887898
4756000000.0 0.3635796580437084 -0.9680690180032914
4759000000.0 0.37901384489038514 -0.9498341979384923
4762000000.0 0.3740589710826116 -0.9789363826948795
4766000000.0 0.36966138665557635 -0.9310266445928335
4769000000.0 0.37971630908686477 -0.9446303430849073
4772000000.0 0.3674949264567544 -0.951368405160514
4775000000.0 0.3794774510576118 -1.028585313951295
4778000000.0 0.38214371275412284 -0.9781573846751912
4781000000.0 0.3744373155545501 -0.9172293533944371
4784000000.0 0.37312145746229086 -0.9205009145939662
4788000000.0 0.3648801925008311 -0.9689939030840439
4791000000.0 0.35440618627727316 -0.9272881613987276
4794000000.0 0.4269257791968746 -0.9605240053678669
4797000000.0 0.3679458166559626 -0.9274334518012676
4800000000.0 0.35622064235808304 -0.9515181534225641
4803000000.0 0.3410162111636846 -0.9480443741889385
4806000000.0 0.3731843458769287 -0.9699996727622929
4809000000.0 0.3314592330268082 -0.9810370913614558
4812000000.0 0.34142092428575 -0.9466036813147817
4816000000.0 0.40074734121455297 -0.9029456484461694
4819000000.0 0.4007153393930539 -0.9570813268080637
4822000000.0 0.3976341532712834 -0.9871084396971014
4825000000.0 0.41782357513671853 -0.9580197873081002
4828000000.0 0.3712272842986934 -0.952806201440424
4831000000.0 0.357990464523568 -0.9797371232860949
4834000000.0 0.37759609509184366 -0.9489117607563192
4838000000.0 0.3599822061119721 -0.9803641982724892
4841000000.0 0.3443059325789336 -0.9389829599969957
4844000000.0 0.41343313230951745 -0.9299751403924698
4847000000.0 0.38074790697016925 -0.9151662729983834
4850000000.0 0.37548005435757553 -0.9859847170171977
4853000000.0 0.36309396873361977 -0.9386977910835119
4856000000.0 0.36849514929326577 -0.9517308456767156
4859000000.0 0.3702883365633955 -0.9938343673078729
4862000000.0 0.3746823911514092 -0.9271510405219984
4866000000.0 0.3498743100285548 -0.9902803682895036
4869000000.0 0.35431904520933544 -0.9524678378705829
4872000000.0 0.3778983873250294 -0.9870473644761367
4875000000.0 0.448132440426767 -0.9633630446846457
4878000000.0 0.3712598804937769 -0.9751475327998131
4881000000.0 0.37619463632209516 -1.0246360934735974
4884000000.0 0.39051960109196493 -0.9605885801280956
4888000000.0 0.38314685309502555 -0.9410772822265211
4891000000.0 0.40780615685717525 -0.9372157283816837
4894000000.0 0.36132041675909876 -0.9310062712056123
4897000000.0 0.41424739937688076 -0.9274592968183691
4900000000.0 0.3627650737076875 -0.977804123493241
4903000000.0 0.3840000559623733 -0.9891919432807725
4906000000.0 0.38228557053952417 -0.9889811403276738
4909000000.0 0.35930859531498927 -0.9867361704624722
4912000000.0 0.39508484164430396 -0.9977496629686315
4916000000.0 0.394969865761275 -0.9600113808181238
4919000000.0 0.4044262583778072 -0.9824088063552565
4922000000.0 0.40034312076784506 -0.960645537019246
4925000000.0 0.3370797316077491 -0.9855821791165452
4928000000.0 0.40906314564434987 -0.9190334322515987
4931000000.0 0.39545661812397526 -0.9821655979019944
4934000000.0 0.375476059969696 -0.9068781611357193
4938000000.0 0.32956970965017446 -0.9946263098027504
4941000000.0 0.33782956861174007 -0.9218991109187529
4944000000.0 0.37627521793584606 -0.8932317374306419
4947000000.0 0.3844819738272228 -0.9434196812682736
4950000000.0 0.3543620485723751 -0.9361864503411793
4953000000.0 0.32856337335363317 -0.977749047073585
4956000000.0 0.3829512867183791 -0.9649537941838926
4959000000.0 0.3250830075912309 -0.9442300427720549
4962000000.0 0.385512148859147 -1.0016998836967184
4966000000.0 0.39977422997361556 -0.9678963887490111
4969000000.0 0.3932705941928657 -0.982903431207545
4972000000.0 0.38354982863795983 -0.94614915958224
4975000000.0 0.3974675453657308 -0.9375479000715606
4978000000.0 0.33360682102869954 -0.9845109642315651
4981000000.0 0.3754937058427299 -0.9596071538955193
4984000000.0 0.37144598473564083 -0.9301062574095841
4988000000.0 0.37101110869518283 -0.9412058032183863
4991000000.0 0.4493208905529237 -0.9827582420751585
4994000000.0 0.40183207693671763 -0.9511900894843177
4997000000.0 0.3470749725087663 -0.9746499466991781
5000000000.0 0.40357519669015823 -0.9926525286171743
5003000000.0 0.4095769714820073 -0.9916628528906574
5006000000.0 0.3846396355771794 -1.0163633398261365
5009000000.0 0.4050094975728108 -0.9701529259512933
5012000000.0 0.3952263953357246 -0.9755875261037685
5016000000.0 0.42903718766157234 -0.9605353312666681
5019000000.0 0.3616419652579605 -0.9735697375127912
5022000000.0 0.37984450253453217 -0.962210673620437
5025000000.0 0.41128032984643076 -0.9904562635886496
5028000000.0 0.36928907799463556 -0.9833964881551512
5031000000.0 0.3836660956677774 -0.9748753494439422
5034000000.0 0.3583689172752035 -0.9951526476241503
5038000000.0 0.32381510945092146 -0.9283512977424857
5041000000.0 0.3803472444727738 -0.9346382213101474
5044000000.0 0.3944725285149998 -0.9013066727950514
5047000000.0 0.4075436488135366 -0.9631879411289068
5050000000.0 0.4653773170187843 -0.9014721487494923
5053000000.0 0.35791435690227924 -0.9676323915167149
5056000000.0 0.40701210633772517 -0.9847538961541233
5059000000.0 0.4101067173115041 -0.9400601468051162
5062000000.0 0.3636393642033463 -0.9857255938125471
5066000000.0 0.39598219820820724 -0.9529650104895093
5069000000.0 0.3914860043770075 -0.9467899803247791
5072000000.0 0.3689407912393894 -0.9371890612717282
5075000000.0 0.40901911913896716 -0.9337130755273999
5078000000.0 0.3418003747687958 -0.9760737284155261
5081000000.0 0.3424095468740707 -0.9128535029320877
5084000000.0 0.37443239310238635 -0.9734957339875945
5088000000.0 0.4228647857105771 -0.9221005066715452
5091000000.0 0.3557219708157113 -0.9958416516615864
5094000000.0 0.34478758514079033 -0.9193544428739507
5097000000.0 0.40027108943056944 -0.9299874287144159
5100000000.0 0.3562706226375675 -0.9459218920832101
5103000000.0 0.3545066925421299 -0.97011028885046
5106000000.0 0.41459115629593546 -0.9978791378529904
5109000000.0 0.43586396570529284 -0.9697007161651359
5112000000.0 0.3718678219505453 -0.9692850461941696
5116000000.0 0.3343992330556298 -0.9454138589283058
5119000000.0 0.3745764508886051 -0.9396434039983055
5122000000.0 0.35542629618129506 -0.9331858827787254
5125000000.0 0.4585479274044678 -0.935837505626253
5128000000.0 0.36828227515108874 -0.9917309417864755
5131000000.0 0.3824543521448486 -0.9500634314845808
5134000000.0 0.393881333978793 -0.9504514917577858
5138000000.0 0.39579544396192723 -0.9909893903981004
5141000000.0 0.4238548775516324 -0.9205013512515032
5144000000.0 0.38080211722957963 -0.9419011151748915
5147000000.0 0.35329860107043687 -0.975473575553483
5150000000.0 0.39910824906728964 -0.9641854699014485
5153000000.0 0.3960512088449398 -0.9802142679596744
5156000000.0 0.41247645499867275 -0.9719178786922538
5159000000.0 0.4215901851717282 -0.9921670102263125
5162000000.0 0.3491069031385998 -0.9802836887073368
5166000000.0 0.35380088388327263 -0.9563203825264022
5169000000.0 0.3832101451133523 -0.9929680800999674
5172000000.0 0.41106735462542354 -0.9357800584942184
