! Created with skrf 1.8.0 (http://scikit-rf.org).
# Hz S RI R 50.0 
!freq ReS11 ImS11
4000000000.0 0.5468844436338318 -0.8584062667557644
4003000000.0 0.5891061207456322 -0.8957891919584167
4006000000.0 0.5617870093045607 -0.8933531144396827
4009000000.0000005 0.5503970757549115 -0.8904470641299873
4011999999.9999995 0.6412741207869282 -0.8765605267124101
4016000000.0 0.5183309943078509 -0.9155124621460344
4019000000.0 0.5186085599053761 -0.8828615245191792
4022000000.0000005 0.602913969613911 -0.8350035393029246
4025000000.0000005 0.47960338949084336 -0.9417667043368848
4027999999.9999995 0.49057464997505507 -0.8810540802678368
4030999999.9999995 0.5528591534489355 -0.8642941609837775
4034000000.0 0.5331708383028009 -0.905652566051546
4038000000.0000005 0.5563941134529429 -0.8944830940543838
4041000000.0000005 0.554858222277981 -0.9074668202353455
4043999999.9999995 0.553021150047302 -0.9028720721246041
4046999999.9999995 0.6077437177027223 -0.8992444304720193
4050000000.0 0.5030124116189494 -0.9231406233757475
4053000000.0 0.5301252238627788 -0.8544713756224919
4056000000.0 0.5737812794660061 -0.8422990296509206
4059000000.0 0.5874524253579047 -0.8403622906232416
4062000000.0000005 0.5232048544331362 -0.9084794974546986
4066000000.0 0.5079952798394478 -0.8217658627938873
4069000000.0 0.5613401919484722 -0.9415876466186713
4072000000.0 0.5502229148196801 -0.8530642039619388
4075000000.0 0.6136319241902233 -0.8606615333277109
4078000000.0000005 0.5431837767214072 -0.9041931000133775
4081000000.0000005 0.5908054698792904 -0.8581675704954601
4083999999.9999995 0.5135487632898402 -0.9110037005029307
4088000000.0 0.5442018968898364 -0.8648949669656625
4091000000.0 0.5794695126542698 -0.956009597339277
4094000000.0000005 0.5610474512398755 -0.8937319214327311
4097000000.0000005 0.5449535828984536 -0.9101840168399993
4099999999.9999995 0.553199688942059 -0.8653507194681116
4102999999.9999995 0.5902243900597831 -0.8774199298172961
4106000000.0 0.5405436565153878 -0.9149975388241055
4109000000.0 0.5284815305747473 -0.8849406892324472
4112000000.0 0.5557164653278641 -0.8894733723646833
4115999999.9999995 0.5877307725434434 -0.9168676331657699
4119000000.0 0.5484796813299264 -0.8766219182453515
4122000000.0 0.5372528377229394 -0.8735582308832328
4125000000.0 0.5172213848555741 -0.8716009896315253
4128000000.0 0.575364347426456 -0.8205808254369084
4131000000.0 0.552279799580227 -0.8663259221836904
4134000000.0000005 0.5289134069925608 -0.8624669171420585
4138000000.0 0.5508151316436761 -0.8760501592640021
4141000000.0 0.5445869701164622 -0.8690764013103999
4144000000.0 0.5886400726284388 -0.8953197466306978
4147000000.0000005 0.5255820881187715 -0.8963842547045462
4150000000.0000005 0.5640809138410834 -0.9351564873378375
4152999999.9999995 0.5442153065543324 -0.9070961236272946
4155999999.9999995 0.5873568516535774 -0.8660409093559913
4159000000.0 0.5686784409142259 -0.8108337690932487
4162000000.0 0.5630213750837562 -0.8479492209479815
4166000000.0000005 0.5839057461473204 -0.8767694744534754
4168999999.9999995 0.5273249880890347 -0.8877375099075475
4171999999.9999995 0.5613709541578028 -0.8539876807985906
4175000000.0 0.5604871084187131 -0.8727739427087661
4178000000.0 0.5733568488209929 -0.871337736477001
4181000000.0 0.552311410659751 -0.8697137576509694
4184000000.0 0.537574804904702 -0.8546281172426607
4187999999.9999995 0.5465312922089836 -0.8630638139568775
4191000000.0 0.5979208702129177 -0.8454892942596193
4194000000.0 0.5512182941950122 -0.8534889259606987
4197000000.0 0.5507045943154172 -0.8692402862554778
4200000000.0 0.5647135315284979 -0.8745157921220801
4203000000.0000005 0.5521376978815853 -0.8702517184965628
4206000000.0000005 0.57761269705012 -0.8647433267438714
4208999999.9999995 0.542886686766312 -0.8523706165898702
4211999999.9999995 0.5236624221964455 -0.8876132159382496
4216000000.0 0.5838269592725996 -0.8599592773315076
4219000000.0000005 0.5767879731143721 -0.8774178026192039
4222000000.0000005 0.5395491265290824 -0.8918063358901038
4224999999.9999995 0.5890957328054275 -0.838180289683608
4227999999.9999995 0.5633671716799282 -0.8763802430410671
4231000000.0 0.542478136727447 -0.8536647812487927
4234000000.0 0.564465798433905 -0.8798276728118528
4238000000.0000005 0.5476475514123078 -0.8761339794218571
4240999999.9999995 0.5537242467967147 -0.8710986237952145
4244000000.0 0.553321260455327 -0.8523779250294943
4247000000.0 0.5669660228191079 -0.8455052138643641
4250000000.0 0.5519711915276011 -0.8523240721829999
4253000000.0 0.5343011685913897 -0.8416182013626663
4256000000.0 0.5693308374707167 -0.8800526067331484
4259000000.0000005 0.5446223359806524 -0.8304310541510316
4261999999.9999995 0.5495112034885675 -0.863101714591348
4266000000.0 0.5345898730884548 -0.8803746476523047
4269000000.0 0.5513034654212488 -0.8407733774479927
4272000000.0000005 0.5542986179983754 -0.849739420293362
4275000000.0000005 0.5533263350193405 -0.8554645406493261
4277999999.9999995 0.5823569923767639 -0.8802627709748194
4280999999.9999995 0.5644001776979031 -0.8607964308775483
4284000000.0 0.532631407290781 -0.8706673783065046
4288000000.0000005 0.581621608603498 -0.8449251552638313
4291000000.0000005 0.5483700801126525 -0.8322251716509005
4293999999.9999995 0.5642861789293802 -0.8531992411787626
4297000000.0 0.5739203326902637 -0.8477245690804126
4300000000.0 0.5419755075623239 -0.8400931327676
4303000000.0 0.5462629586751794 -0.8569224897515435
4306000000.0 0.5684520211273361 -0.8550109858308201
4309000000.0 0.5530258245754083 -0.8384563274740032
4312000000.0 0.5989931432643522 -0.823448077696373
4316000000.0 0.5738268714004578 -0.8575917922510368
4319000000.0 0.5433592661866384 -0.832556791591277
4322000000.0 0.5297406901238917 -0.8523852220071423
4325000000.0 0.5649058711140834 -0.8432293944918363
4328000000.0 0.5520856405892294 -0.8678814447019761
4331000000.0 0.5333942619974198 -0.8919603746810104
4334000000.0 0.570598037814858 -0.8746963749874982
4338000000.0 0.568320166835481 -0.8644182665644046
4341000000.0 0.5865763737952001 -0.8207707383967481
4344000000.0 0.5658307321574407 -0.8669155609832813
4347000000.0 0.5445818534606202 -0.8687759413072561
4350000000.0 0.5186791660134966 -0.8274623119095433
4353000000.0 0.5531279045748656 -0.8264791207738698
4356000000.0 0.5175347208011615 -0.8655582128577277
4359000000.0 0.5119145260252782 -0.8136124368792426
4362000000.0 0.5098035349558483 -0.8911617660581627
4366000000.0 0.5470030895572376 -0.8853839322667958
4369000000.0 0.5336461454124563 -0.8401065455667752
4372000000.0 0.5130986774112487 -0.88748841814145
4375000000.0 0.5502933955423489 -0.8426103191837653
4378000000.0 0.5319631018484724 -0.8435014173829838
4381000000.0 0.558611948486153 -0.8448735615477008
4384000000.0 0.5515983422581149 -0.9184703753861355
4388000000.0 0.5582333691939383 -0.832237848755821
4391000000.0 0.5589673634707928 -0.851783135119657
4394000000.0 0.5249509914385345 -0.8346135048962249
4397000000.0 0.5356847271063314 -0.8424126746415715
4400000000.0 0.551486542488075 -0.8958272638438255
4403000000.0 0.5420161775709003 -0.8691979934158107
4406000000.0 0.5156760850031313 -0.8649180839095081
4409000000.0 0.5728932278768731 -0.8828701454092911
4412000000.0 0.5018906832915606 -0.8835804163375937
4416000000.0 0.5332352209966962 -0.8540172267557897
4419000000.0 0.521203156758807 -0.8703132379934291
4422000000.0 0.5501524447073893 -0.8401923685983435
4425000000.0 0.5594619429920773 -0.8460508208564161
4428000000.0 0.5229314195986363 -0.8530785639120364
4431000000.0 0.5643742299893652 -0.8690945598224896
4434000000.0 0.5458865633464305 -0.8608942509862434
4438000000.0 0.548783576362569 -0.8746451219899796
4441000000.0 0.546888629861134 -0.8804133658085967
4444000000.0 0.532218731351698 -0.8396375724274545
4447000000.0 0.5288680089168439 -0.8616774053557612
4450000000.0 0.5517254742368507 -0.8458799525319205
4453000000.0 0.556386416088486 -0.8782480643692078
4456000000.0 0.51580072622664 -0.8352131741069053
4459000000.0 0.49355774658614027 -0.8229300227499966
4462000000.0 0.5594499804009566 -0.9067303593203802
4466000000.0 0.5554280634271094 -0.8821064312202755
4469000000.0 0.5542999496131034 -0.8558251000425798
4472000000.0 0.5254870669598719 -0.887820945993741
4475000000.0 0.5315780695839144 -0.8345862365190362
4478000000.0 0.5256366923487658 -0.9049715240616061
4481000000.0 0.5092656259503829 -0.8430744237269885
4484000000.0 0.5007041007445185 -0.8728831455471174
4488000000.0 0.5015402193410237 -0.8510541991376328
4491000000.0 0.5175014687304724 -0.8540766134361379
4494000000.0 0.5276362063502064 -0.8579712507356065
4497000000.0 0.5483987973996887 -0.8515826541796367
4500000000.0 0.5273390629714798 -0.8666292586498021
4503000000.0 0.5452649962412089 -0.8650896179488974
4506000000.0 0.5103260776959736 -0.8741912125659395
4509000000.0 0.5084093438678935 -0.8606632645451194
4512000000.0 0.4824902263794909 -0.8677744251362562
4516000000.0 0.5320761364481121 -0.8680559130059295
4519000000.0 0.5236332745912353 -0.8536833008011258
4522000000.0 0.5116576132366757 -0.8738160072177124
4525000000.0 0.5629893542585274 -0.8458994791792418
4528000000.0 0.5254664728919598 -0.9090591942938104
4531000000.0 0.5271324671885389 -0.851993397173135
4534000000.0 0.5235390331906062 -0.8449642718474679
4538000000.0 0.5133107373442518 -0.8580394532136437
4541000000.0 0.4858015172703619 -0.857841695772338
4544000000.0 0.5266559308768828 -0.8635652203457865
4547000000.0 0.5366806648109435 -0.8374169913739207
4550000000.0 0.5085699861945552 -0.8936279504863014
4553000000.0 0.5203254163464208 -0.8843757366337908
4556000000.0 0.4919392796856964 -0.8720970904442461
4559000000.0 0.5068284804765897 -0.8666890904765179
4562000000.0 0.5300900457970568 -0.881024865264437
4566000000.0 0.5298720185162349 -0.895713510781617
4569000000.0 0.4979122889555021 -0.8489759406566367
4572000000.0 0.5211526062408687 -0.854026093615921
4575000000.0 0.517448803096157 -0.8663518624634745
4578000000.0 0.5396151812273338 -0.8959855520099433
4581000000.0 0.5134290897363836 -0.889391638045802
4584000000.0 0.5097865198596984 -0.884203153734748
4588000000.0 0.5364310405379523 -0.8836672144634801
4591000000.0 0.5364532765830801 -0.8717707789169524
4594000000.0 0.49282322468375495 -0.8666738046267413
4597000000.0 0.5061036689722945 -0.8724941180331777
4600000000.0 0.49107649969866035 -0.8803050763514253
4603000000.0 0.5038370394088534 -0.8894860943116945
4606000000.0 0.5222734711634773 -0.8904683826375113
4609000000.0 0.5187656569801038 -0.8712868704599972
4612000000.0 0.5082829946653524 -0.8940870968428793
4616000000.0 0.499102203850303 -0.8650448639100439
4619000000.0 0.5286450435739699 -0.8735892148788817
4622000000.0 0.5193943258145819 -0.8719028067212261
4625000000.0 0.48209791057741547 -0.8711663524576534
4628000000.0 0.5102761950338949 -0.8572439790314716
4631000000.0 0.5055386617931524 -0.8880957475523794
4634000000.0 0.5208868293303146 -0.866247864710259
4638000000.0 0.5123993894201865 -0.87785217847389
4641000000.0 0.5208004924702578 -0.8832038832124699
4644000000.0 0.5190418060678248 -0.8907000129682445
4647000000.0 0.5235422818195854 -0.8901228414695764
4650000000.0 0.4919954516920287 -0.8818788895632662
4653000000.0 0.533289876086869 -0.890663341285239
4656000000.0 0.5033722106077128 -0.903515282257193
4659000000.0 0.48567189695793966 -0.8759604263090524
4662000000.0 0.5015189897725452 -0.8810374417051793
4666000000.0 0.4975764450503239 -0.8807072450561195
4669000000.0 0.5057507374315874 -0.882658260938967
4672000000.0 0.49557084359699133 -0.8919435429354131
4675000000.0 0.49024155530002467 -0.8787773778485407
4678000000.0 0.498064670244221 -0.8682508848896964
4681000000.0 0.47701416098845106 -0.908722111484052
4684000000.0 0.4852933318038732 -0.9077244042571851
4688000000.0 0.47551881260381046 -0.9030741547538639
4691000000.0 0.5261514709619975 -0.8805643478353473
4694000000.0 0.5052958313643483 -0.8745523433874646
4697000000.0 0.4637541097394398 -0.8644448807089137
4700000000.0 0.50621329997136 -0.8714784259506351
4703000000.0 0.5309605108015616 -0.859679480913845
4706000000.0 0.5135758377297696 -0.9034615579904208
4709000000.0 0.48497817769830803 -0.8852308938719484
4712000000.0 0.5118392246085565 -0.887276899109864
4716000000.0 0.5071063805110092 -0.8894670006834502
4719000000.0 0.533042100258574 -0.8751275337789135
4722000000.0 0.534400559246762 -0.8837667666740904
4725000000.0 0.5064289513762311 -0.8729644003292711
4728000000.0 0.4878026590502612 -0.8696617269837496
4731000000.0 0.518353482958971 -0.89927326137053
4734000000.0 0.5101033513427398 -0.8523893474216643
4738000000.0 0.5011980885771984 -0.9092212631258633
4741000000.0 0.5196589374325561 -0.9015748600542679
4744000000.0 0.48824377812921654 -0.9184257916615267
4747000000.0 0.491776136447477 -0.8645639908257116
4750000000.0 0.5166095424530963 -0.892091745077016
4753000000.0 0.5080276358196447 -0.8960173014399504
4756000000.0 0.4822058455034277 -0.8700253065850155
4759000000.0 0.5397117488319073 -0.923050169503975
4762000000.0 0.4786861643909155 -0.9144375257925554
4766000000.0 0.5031609055623254 -0.8826998168388466
4769000000.0 0.527871656787299 -0.9114699928932221
4772000000.0 0.5174605605159239 -0.8867092378102258
4775000000.0 0.5144691472298168 -0.9324728482761347
4778000000.0 0.5266837514669143 -0.8803159430191585
4781000000.0 0.4973067456536897 -0.8750199019696779
4784000000.0 0.5302684546815024 -0.8947466057132947
4788000000.0 0.4893397401598445 -0.8971853782609501
4791000000.0 0.4869020224807735 -0.8923885521513438
4794000000.0 0.5206764425183095 -0.9211354400107644
4797000000.0 0.47714776721334895 -0.8726052612141091
4800000000.0 0.4701048358747304 -0.9015182256102539
4803000000.0 0.46222312456776604 -0.9049784909014973
4806000000.0 0.5041025050559456 -0.9168636858640425
4809000000.0 0.46963041492999624 -0.9102793596561425
4812000000.0 0.46099074192252604 -0.8973935409517607
4816000000.0 0.5161053271070826 -0.8913166891422875
4819000000.0 0.5406651735453685 -0.9194380418739384
4822000000.0 0.5258241840043187 -0.9354719921387239
4825000000.0 0.5385413202975681 -0.8867251718787916
4828000000.0 0.4800090508059788 -0.8758590183858666
4831000000.0 0.4787952660119468 -0.9266104722452428
4834000000.0 0.522519515226032 -0.8835319906066301
4838000000.0 0.47392228518569957 -0.9286099766838585
4841000000.0 0.49793679434757154 -0.8872248862869327
4844000000.0 0.5342916367887505 -0.8825398593558746
4847000000.0 0.5086243318635257 -0.8665027642386252
4850000000.0 0.5070645375177018 -0.9286630682221813
4853000000.0 0.5008910082163364 -0.8787447026145982
4856000000.0 0.49545707109821024 -0.8763044173175731
4859000000.0 0.5066367637692168 -0.9399133896264966
4862000000.0 0.5240931505914221 -0.8758284502431357
4866000000.0 0.46990727960553597 -0.9155105819913119
4869000000.0 0.5150385030579503 -0.903840311114595
4872000000.0 0.506871737232548 -0.9316685785942964
4875000000.0 0.5804473158102981 -0.9138337799205055
4878000000.0 0.5039888562008438 -0.9116198591151271
4881000000.0 0.5187912826396925 -0.9686610223923627
4884000000.0 0.5277507371411077 -0.9152359461357348
4888000000.0 0.5264630763988002 -0.9072336728407507
4891000000.0 0.5407174456877646 -0.9267453019485323
4894000000.0 0.48903153557648543 -0.8991014747141237
4897000000.0 0.5477644991816754 -0.8767557961103872
4900000000.0 0.5136954052156273 -0.9264356197048806
4903000000.0 0.5192619852374655 -0.8892388125632137
4906000000.0 0.5216066341975812 -0.9176738086253716
4909000000.0 0.48852606334038595 -0.8964372817201532
4912000000.0 0.5120187472243313 -0.9086815161957833
4916000000.0 0.5454070229544153 -0.9228145138273092
4919000000.0 0.5320155905416183 -0.8841531914442416
4922000000.0 0.5603664070311657 -0.8990979548606779
4925000000.0 0.47932709852144023 -0.9271656372585746
4928000000.0 0.5947565687353387 -0.8679977693786189
4931000000.0 0.562676870020784 -0.8970037271445228
4934000000.0 0.4892156349687952 -0.8641844994495541
4938000000.0 0.492291361752397 -0.9062815639761854
4941000000.0 0.53511102184663 -0.8932102755309477
4944000000.0 0.532523522850761 -0.860735033097125
4947000000.0 0.5040611212961803 -0.9085548051007295
4950000000.0 0.4872443795069044 -0.8940656493453621
4953000000.0 0.5330302916554582 -0.920967281257918
4956000000.0 0.49558275027545606 -0.9332086110897361
4959000000.0 0.4834179664844071 -0.8876444678451891
4962000000.0 0.5244550736948159 -0.9190039766143933
4966000000.0 0.5140402487539038 -0.9026229234023361
4969000000.0 0.5539020735079099 -0.9100105220583532
4972000000.0 0.49837455456916113 -0.9157868909796668
4975000000.0 0.5550574620319394 -0.8923035516631361
4978000000.0 0.4805074538891265 -0.9350300976344338
4981000000.0 0.5026334849902409 -0.9112017067408745
4984000000.0 0.5203685404612712 -0.8930724388724631
4988000000.0 0.5497702659308606 -0.871930605706093
4991000000.0 0.5626854109673983 -0.8844016145254443
4994000000.0 0.5458945883128088 -0.9045993966446799
4997000000.0 0.46395178939220305 -0.9279731450418727
5000000000.0 0.5731605280690084 -0.9125683364935581
5003000000.0 0.5383364117308657 -0.94446394677834
5006000000.0 0.5535463633363535 -0.9515458169465711
5009000000.0 0.5335756118694264 -0.8881037613879839
5012000000.0 0.5173163823222524 -0.9106459461164347
5016000000.0 0.5813595988384672 -0.9555847335980204
5019000000.0 0.509574271369627 -0.9020324004189302
5022000000.0 0.5233934818806871 -0.9431504395478961
5025000000.0 0.5589817232166956 -0.9860818499325121
5028000000.0 0.5054051769424585 -0.9171544762944961
5031000000.0 0.5062801206297639 -0.8979623087767126
5034000000.0 0.5159542959521296 -0.9461509887271791
5038000000.0 0.49653627152074403 -0.8640661824586768
5041000000.0 0.5566125382078051 -0.858109327200093
5044000000.0 0.5435372180901561 -0.8711926531469847
5047000000.0 0.54107199831331 -0.868215786484352
5050000000.0 0.586254630992098 -0.8446560516765005
5053000000.0 0.5415725000057561 -0.9474766570974344
5056000000.0 0.558417525221381 -0.8946010378736309
5059000000.0 0.5703643634474515 -0.8613571957121877
5062000000.0 0.5212003906550385 -0.955847817758148
5066000000.0 0.5530483506303484 -0.8770065734499206
5069000000.0 0.547415640102539 -0.9268056997996694
5072000000.0 0.5089641349998566 -0.8737141529701333
5075000000.0 0.5578526203278796 -0.906723796216013
5078000000.0 0.519069066045075 -0.9483979926793737
5081000000.0 0.46773566688571144 -0.8479844675262598
5084000000.0 0.5383470789822625 -0.9262770583059758
5088000000.0 0.548778244248755 -0.8915256823922428
5091000000.0 0.5367671267502756 -0.9010320696903922
5094000000.0 0.5008607911443121 -0.889046106886356
5097000000.0 0.5581798984130063 -0.8526343197328294
5100000000.0 0.5755680729709678 -0.8970107336423241
5103000000.0 0.520851589839446 -0.8906719077445007
5106000000.0 0.6069059606809653 -0.9659259292215201
5109000000.0 0.6046963382819137 -0.8604115589020814
5112000000.0 0.5433453821080215 -0.8938796801888023
5116000000.0 0.5587723384005618 -0.8235822451177122
5119000000.0 0.5201729737825356 -0.9164072998459611
5122000000.0 0.5551287120295126 -0.9173385812925684
5125000000.0 0.5774597074914067 -0.896275398298876
5128000000.0 0.5567998833919059 -0.9344702432850647
5131000000.0 0.5044739560873766 -0.8909866027822407
5134000000.0 0.5368495798113232 -0.842702980130068
5138000000.0 0.5755601326062963 -0.8745680208676232
5141000000.0 0.6257520467821731 -0.8558683705563523
5144000000.0 0.5774135647806024 -0.8724365074942768
5147000000.0 0.5524667230609278 -0.9366048825371487
5150000000.0 0.5803155555779473 -0.8962445141626167
5153000000.0 0.5760479369212244 -0.892173872166657
5156000000.0 0.5812054652288277 -0.9028378871436435
5159000000.0 0.5609664319732894 -0.8986588231095802
5162000000.0 0.5147307250543226 -0.8489635155699415
5166000000.0 0.529038820836809 -0.8632847462216321
5169000000.0 0.5936322572506039 -0.8589412010453423
5172000000.0 0.5832655113987868 -0.861255785895154
5175000000.0 0.5725923815151795 -0.8638523533966744
5178000000.0 0.5648710904501899 -0.8914790122935374
5181000000.0 0.6094929506134021 -0.9315717963680636
