! Created with skrf 1.8.0 (http://scikit-rf.org).
# Hz S RI R 50.0 
!freq ReS11 ImS11
4000000000.0 0.5639081715754708 -0.861071615962624
4003000000.0 0.5298136980101745 -0.9657801333313013
4006000000.0 0.5034668088316702 -0.854969981664295
4009000000.0000005 0.5580042574268667 -0.8713747555576805
4011999999.9999995 0.6160812152316307 -0.8838151594543617
4016000000.0 0.5478231827665897 -0.9342150638934981
4019000000.0 0.5497139024505842 -0.8749567948546224
4022000000.0000005 0.5944938883010354 -0.8508648620736412
4025000000.0000005 0.47541875416710744 -0.9582557361246165
4027999999.9999995 0.49639913126691226 -0.8972753255643027
4030999999.9999995 0.5306892138080193 -0.8544659078374011
4034000000.0 0.5342529273768761 -0.8831528964875046
4038000000.0000005 0.5346029017991124 -0.8970030493337079
4041000000.0000005 0.5481925701454013 -0.8416448396890034
4043999999.9999995 0.594523484597031 -0.948460971379284
4046999999.9999995 0.610112306187703 -0.9177713361931444
4050000000.0 0.5502583928104174 -0.8994818157780265
4053000000.0 0.4812378226619929 -0.9088679649722982
4056000000.0 0.5783862352902851 -0.8918638424895734
4059000000.0 0.5684626886958888 -0.8497129906523664
4062000000.0000005 0.5244033534240823 -0.9018356551055786
4066000000.0 0.499379671730411 -0.8166604924810831
4069000000.0 0.5505875841705639 -0.9246683576319052
4072000000.0 0.5866240955153016 -0.8749782938514258
4075000000.0 0.5552544405854442 -0.8204848547702416
4078000000.0000005 0.5559768306139166 -0.8627314488718472
4081000000.0000005 0.6645338339124982 -0.8483395340119086
4083999999.9999995 0.5500337167917398 -0.8827320919395112
4088000000.0 0.5917967662393487 -0.8640390473022055
4091000000.0 0.5910767918777207 -0.9052704855672874
4094000000.0000005 0.575182492924406 -0.849830679136266
4097000000.0000005 0.5762220118611021 -0.8693226660355704
4099999999.9999995 0.5221956504966254 -0.8932131828364587
4102999999.9999995 0.5819692319641302 -0.8786228036000898
4106000000.0 0.5407382367420582 -0.9090563541930993
4109000000.0 0.5255153530889096 -0.8910079161420494
4112000000.0 0.5727415458481411 -0.8790582891422728
4115999999.9999995 0.5413101766748706 -0.8512818146836203
4119000000.0 0.5406096498158912 -0.8824379848916406
4122000000.0 0.5236084685098146 -0.8913331031408002
4125000000.0 0.5674355278858162 -0.9273428336119481
4128000000.0 0.5212653564955138 -0.8766350792217417
4131000000.0 0.5393286322284911 -0.8482329597243454
4134000000.0000005 0.567934292020891 -0.8919862870765677
4138000000.0 0.5001852157692813 -0.8593325588164478
4141000000.0 0.5267290906393416 -0.8660961695280839
4144000000.0 0.5864390490266777 -0.8659633639867906
4147000000.0000005 0.5050853243316992 -0.8928385997290679
4150000000.0000005 0.5486875611279033 -0.9005080638214501
4152999999.9999995 0.5664364136149712 -0.869054382673807
4155999999.9999995 0.581366160909866 -0.8919368576424712
4159000000.0 0.5407704235055069 -0.84249339409783
4162000000.0 0.5618566895834274 -0.8741803469880086
4166000000.0000005 0.5352771777409008 -0.8729066443540938
4168999999.9999995 0.5199158153047984 -0.8769899928549868
4171999999.9999995 0.5644258021776135 -0.8728252244354539
4175000000.0 0.5636193926957263 -0.8596990688031673
4178000000.0 0.5562751723951055 -0.8404370993804933
4181000000.0 0.5230009492690267 -0.8743296192057991
4184000000.0 0.5500667453743082 -0.8684041371031473
4187999999.9999995 0.5411110838914612 -0.8754455095212363
4191000000.0 0.5726046958778654 -0.8265576740926107
4194000000.0 0.5492708159253024 -0.8460832811658421
4197000000.0 0.5411088667894053 -0.8759701495918701
4200000000.0 0.5645629223894025 -0.8511622608775006
4203000000.0000005 0.5670718364188534 -0.8714051038339001
4206000000.0000005 0.5445237693673088 -0.8826426896666492
4208999999.9999995 0.5630584488833803 -0.8419270052856208
4211999999.9999995 0.5314034542650286 -0.8906649865481038
4216000000.0 0.5550343327800634 -0.8584521639124089
4219000000.0000005 0.5648605205193691 -0.8587467608614122
4222000000.0000005 0.5334007699944587 -0.8680940688892563
4224999999.9999995 0.5577365007492948 -0.8559003062915772
4227999999.9999995 0.5561963176936258 -0.8689384930069115
4231000000.0 0.5343818868715979 -0.8638383745702688
4234000000.0 0.5569185099631583 -0.8914252502396949
4238000000.0000005 0.5461529102509768 -0.8632203308780332
4240999999.9999995 0.5406285317607636 -0.8669447560641682
4244000000.0 0.5457897270991893 -0.8558349066076114
4247000000.0 0.549041863497979 -0.8566364817357872
4250000000.0 0.5084142733484219 -0.8570586418640973
4253000000.0 0.5327021127429313 -0.8518853493852072
4256000000.0 0.5600988089054393 -0.8814308375930721
4259000000.0000005 0.5190227314518525 -0.8403520127028992
4261999999.9999995 0.5377182118192415 -0.8690958016912171
4266000000.0 0.5477166600386936 -0.9025507719194644
4269000000.0 0.5608379991387733 -0.855705311327039
4272000000.0000005 0.5416850252662555 -0.8404938271241638
4275000000.0000005 0.5615108912159432 -0.8478566166558613
4277999999.9999995 0.556317933608923 -0.8876100783387332
4280999999.9999995 0.5679690813774646 -0.8625327508399779
4284000000.0 0.5081276122175107 -0.8856300627443361
4288000000.0000005 0.570358637701322 -0.8402854355065807
4291000000.0000005 0.529259337427706 -0.847054039954986
4293999999.9999995 0.5282258036865111 -0.859481004693758
4297000000.0 0.5730156562916859 -0.8310994836970509
4300000000.0 0.5339980842986342 -0.8300114946426073
4303000000.0 0.5406848430421621 -0.8784244631112622
4306000000.0 0.5619155223090606 -0.8695775061199359
4309000000.0 0.5383159067544053 -0.8345514817453652
4312000000.0 0.6174893247499283 -0.8592124148155901
4316000000.0 0.5501332347222913 -0.8657642230595423
4319000000.0 0.5472731431010391 -0.8260667890287209
4322000000.0 0.5175247657740141 -0.8651784458185378
4325000000.0 0.5257620887938346 -0.8848020117616138
4328000000.0 0.5438057779221852 -0.8470865747653951
4331000000.0 0.519820160511076 -0.8818078861458861
4334000000.0 0.5444238627726518 -0.8573248790231942
4338000000.0 0.5671127146323479 -0.8439284153235292
4341000000.0 0.5601843964132412 -0.8635519985466622
4344000000.0 0.5523368371703367 -0.870605814151624
4347000000.0 0.5230990264850033 -0.884955035064427
4350000000.0 0.5146844492520526 -0.839927787607561
4353000000.0 0.5512708103913672 -0.8217119784709769
4356000000.0 0.5007080797011254 -0.8594916984341338
4359000000.0 0.5225275877813977 -0.8160328586677439
4362000000.0 0.5039268979558605 -0.9141749986376849
4366000000.0 0.5424832518272991 -0.880992908718601
4369000000.0 0.5135604190544496 -0.8263279323323811
4372000000.0 0.5145473745774527 -0.872569218622795
4375000000.0 0.5507395622603245 -0.8327726659367729
4378000000.0 0.5294065637272181 -0.8187306778476785
4381000000.0 0.5564851958070443 -0.8468357174147484
4384000000.0 0.5420155727468658 -0.9265029293038761
4388000000.0 0.5313589418246196 -0.8382026555356494
4391000000.0 0.5382132278527182 -0.8677077764462456
4394000000.0 0.5169772441950138 -0.8439152771850529
4397000000.0 0.526322899326295 -0.8430612362747992
4400000000.0 0.5445008368482889 -0.8762268441510062
4403000000.0 0.5418331216338095 -0.8589692696300344
4406000000.0 0.5088301899116817 -0.8715112309478958
4409000000.0 0.5477773392924471 -0.8823548410315794
4412000000.0 0.4925636178120939 -0.892408576787921
4416000000.0 0.5270358662068594 -0.8625484441265373
4419000000.0 0.5096071348695748 -0.8606965860304674
4422000000.0 0.54672882633534 -0.8420539997898061
4425000000.0 0.5507132176989534 -0.8661191094133229
4428000000.0 0.5319286350276233 -0.8650628547409493
4431000000.0 0.5337950992277014 -0.8750210159428016
4434000000.0 0.5164274366794553 -0.8496352804002674
4438000000.0 0.5615383164870006 -0.8809950483994382
4441000000.0 0.5416655408732233 -0.8663089613741253
4444000000.0 0.520049024590878 -0.856446235115838
4447000000.0 0.5122563967105752 -0.8701015534967602
4450000000.0 0.5371428815693406 -0.8412212937448282
4453000000.0 0.5444446241257812 -0.8821078069383064
4456000000.0 0.5076315983089824 -0.8355332477231712
4459000000.0 0.48389181895148886 -0.8449871314287172
4462000000.0 0.5455491389565043 -0.9189227011823005
4466000000.0 0.5306555447233678 -0.8988712465599387
4469000000.0 0.553102852934624 -0.8549277263848747
4472000000.0 0.5230475274668922 -0.8921869959679583
4475000000.0 0.5065422039806073 -0.8575939892906661
4478000000.0 0.5398061323383215 -0.9106482910237046
4481000000.0 0.5054176421301643 -0.8510282900101163
4484000000.0 0.49019316486274 -0.8703007001933462
4488000000.0 0.5083369111587726 -0.8753540271809439
4491000000.0 0.5117184341535214 -0.8540301970517485
4494000000.0 0.5186408893767236 -0.8555433439465026
4497000000.0 0.5141815185984713 -0.8314601443347058
4500000000.0 0.5555358213345594 -0.8805092790914986
4503000000.0 0.5318114134433485 -0.8840596464313732
4506000000.0 0.5239460658052806 -0.8622500880725487
4509000000.0 0.5160556386248172 -0.846343593656448
4512000000.0 0.488473486991982 -0.8563421415217747
4516000000.0 0.5535777509585778 -0.8955984674419766
4519000000.0 0.5188280342967586 -0.8356972829160294
4522000000.0 0.5128989425932222 -0.8671686704783395
4525000000.0 0.544891925433648 -0.8473828417919975
4528000000.0 0.5203939148535421 -0.8952495302552748
4531000000.0 0.5250369612131343 -0.866063020859243
4534000000.0 0.5129179905251452 -0.8544834086446218
4538000000.0 0.5148433058545603 -0.8524987575177863
4541000000.0 0.4873300166298679 -0.8831512745213151
4544000000.0 0.5128082726749761 -0.8633004348733184
4547000000.0 0.5459036829821959 -0.874347665154604
4550000000.0 0.5023217162604652 -0.887548247434601
4553000000.0 0.5209091683039333 -0.8781437335756692
4556000000.0 0.48652112202467135 -0.8548619915784681
4559000000.0 0.4936697855948035 -0.883415310698425
4562000000.0 0.518008479632023 -0.8656758732998816
4566000000.0 0.49662405004239696 -0.8943842292399092
4569000000.0 0.5067407577995748 -0.8607827415916027
4572000000.0 0.5193756055496705 -0.8799647686355627
4575000000.0 0.497650558763733 -0.8933540336284105
4578000000.0 0.5301824566736093 -0.8939204346612484
4581000000.0 0.49711224889191497 -0.8779266502275223
4584000000.0 0.5222153138750232 -0.863143926671283
4588000000.0 0.517503906110268 -0.8895457207761241
4591000000.0 0.5215199093842622 -0.881179663020721
4594000000.0 0.4957632857914053 -0.8883278124131186
4597000000.0 0.5102226943064034 -0.9001318154020853
4600000000.0 0.47518360651505387 -0.8689793716290904
4603000000.0 0.5006551121039493 -0.8820634812814814
4606000000.0 0.5268099686610201 -0.8965105547652119
4609000000.0 0.518662468294226 -0.8911697953148491
4612000000.0 0.5141777009100817 -0.882624059626821
4616000000.0 0.5023325654075982 -0.8659526915918214
4619000000.0 0.5051068472689464 -0.8777149400315964
4622000000.0 0.4984402888479056 -0.8955422738605227
4625000000.0 0.4760919745503206 -0.8551525353010694
4628000000.0 0.5142085646229739 -0.8589252296851942
4631000000.0 0.4724114440140308 -0.8850567502422864
4634000000.0 0.5032549966215704 -0.8793556121110886
4638000000.0 0.4959901566433145 -0.8794991607373575
4641000000.0 0.5071562788859322 -0.8756792639550064
4644000000.0 0.5034738003536434 -0.877388090044738
4647000000.0 0.5071886863774504 -0.8891321124185328
4650000000.0 0.4939197454003652 -0.8870065753067607
4653000000.0 0.5204338057076563 -0.9001673891163526
4656000000.0 0.5139433649762527 -0.8856117969325032
4659000000.0 0.4865043280006758 -0.8683774261070459
4662000000.0 0.5113550181151536 -0.8813939306923553
4666000000.0 0.4744529212584848 -0.8758327664862255
4669000000.0 0.5043317480490056 -0.873682390964247
4672000000.0 0.4823785558550528 -0.9199435179130178
4675000000.0 0.4959324844333505 -0.8959884612866961
4678000000.0 0.4897677947916017 -0.8603732050901854
4681000000.0 0.48218156801873696 -0.8956112547735365
4684000000.0 0.4745920393044715 -0.8803467619707808
4688000000.0 0.4612179253116234 -0.8953715300165888
4691000000.0 0.4833179364577588 -0.8807891990799833
4694000000.0 0.5023059821468264 -0.8706193378985365
4697000000.0 0.45249381870104693 -0.8483710994022161
4700000000.0 0.5003612493197473 -0.8761287513078649
4703000000.0 0.5104720669271957 -0.8707589343235713
4706000000.0 0.48527629432650266 -0.8746489084981339
4709000000.0 0.4608589718994788 -0.8980503096159654
4712000000.0 0.48940429407863095 -0.8846576970429866
4716000000.0 0.4962349945469782 -0.9104800013514696
4719000000.0 0.5183194553545698 -0.8924956399522695
4722000000.0 0.5236412101201449 -0.8738785577579643
4725000000.0 0.4816195362010381 -0.8789999045500798
4728000000.0 0.4625832288277958 -0.8705806803002047
4731000000.0 0.5165875634443409 -0.9105662756739387
4734000000.0 0.5227729107622748 -0.8628563090659066
4738000000.0 0.5421774425943228 -0.9186268156352072
4741000000.0 0.5165036416675401 -0.9399351839387213
4744000000.0 0.48533614139086506 -0.910509870284016
4747000000.0 0.49149080363798653 -0.8511812275381916
4750000000.0 0.48482318242958217 -0.9071630524514324
4753000000.0 0.4807708531425559 -0.8937575579232218
4756000000.0 0.44841739604131853 -0.9006415758200088
4759000000.0 0.5229345474885563 -0.9180839965168052
4762000000.0 0.5014607760578728 -0.9217411772598159
4766000000.0 0.506776224272502 -0.9130603147857804
4769000000.0 0.5251590115201754 -0.8911556461397514
4772000000.0 0.48751342907896045 -0.8904433363459662
4775000000.0 0.5195473014269305 -0.9558260698107098
4778000000.0 0.5124684881939878 -0.9236420540318182
4781000000.0 0.4991689145253362 -0.8925950099461546
4784000000.0 0.5213690078395196 -0.8793180795953611
4788000000.0 0.4994680606108989 -0.9253524432517639
4791000000.0 0.4880853106560002 -0.8989522038782813
4794000000.0 0.5293787864094617 -0.9064257413834818
4797000000.0 0.47889178246015673 -0.8917814931017098
4800000000.0 0.4803351813937448 -0.9015721216687332
4803000000.0 0.451633346671239 -0.9270578453205427
4806000000.0 0.49233274918074266 -0.9146936146136218
4809000000.0 0.44275596378812676 -0.897100487565824
4812000000.0 0.4326271173573387 -0.9201448873672137
4816000000.0 0.5064718687954002 -0.8833145193638337
4819000000.0 0.5188974847692398 -0.9254918657616669
4822000000.0 0.525231024619371 -0.9071509276305585
4825000000.0 0.5290395372446933 -0.9056662833385065
4828000000.0 0.48368185247264706 -0.9033007273683173
4831000000.0 0.46858271397986884 -0.9434106769858898
4834000000.0 0.5119133830550665 -0.8924176451124767
4838000000.0 0.5008603895383126 -0.9268858739055196
4841000000.0 0.49406236026740363 -0.8991223174517078
4844000000.0 0.5223992855294171 -0.8930216120244779
4847000000.0 0.5066735116753194 -0.8530757364078078
4850000000.0 0.4879537993253114 -0.939176621197867
4853000000.0 0.4709658338642877 -0.8823834724972064
4856000000.0 0.4827566015643542 -0.8904877816817269
4859000000.0 0.4987987600131386 -0.927871388256085
4862000000.0 0.5221756935085149 -0.8888638894276292
4866000000.0 0.49693750034313755 -0.9106374829048308
4869000000.0 0.4856491026286316 -0.9131376499041667
4872000000.0 0.47097792837277047 -0.932078144903267
4875000000.0 0.5501007775766266 -0.8947289013310024
4878000000.0 0.4836914504129674 -0.912934243937455
4881000000.0 0.5003219485271797 -0.9694243154959974
4884000000.0 0.5208296119324591 -0.9055643102422769
4888000000.0 0.49805622182057857 -0.8826066425606244
4891000000.0 0.5299427349060378 -0.915722524140041
4894000000.0 0.49374890711492747 -0.9083774651101973
4897000000.0 0.5201170780765045 -0.8877272783153107
4900000000.0 0.5121265360257605 -0.8903765490078271
4903000000.0 0.5100887680637324 -0.8896621136991553
4906000000.0 0.5104883962111261 -0.9327558066194541
4909000000.0 0.5054981317008663 -0.9120030242829946
4912000000.0 0.5192132556133864 -0.9377883030075184
4916000000.0 0.5235329084094733 -0.9297447930905592
4919000000.0 0.5399319512669791 -0.9247099590998461
4922000000.0 0.5007061994935912 -0.9052152656791905
4925000000.0 0.48399095560909405 -0.8890090577174574
4928000000.0 0.5480830149874593 -0.8769249924339716
4931000000.0 0.5511102220867413 -0.9137969098210494
4934000000.0 0.4857239513779005 -0.8833177909788147
4938000000.0 0.4458655689596082 -0.9303723591247293
4941000000.0 0.5084060425204684 -0.880883169544279
4944000000.0 0.48817075131032595 -0.8533296174832622
4947000000.0 0.5064990056621408 -0.8657428066995311
4950000000.0 0.4948549390002121 -0.8705272576130954
4953000000.0 0.48653660121059894 -0.9580329694610521
4956000000.0 0.4713715694395777 -0.9016243299998509
4959000000.0 0.4681194948769595 -0.9030145384962931
4962000000.0 0.500551078455912 -0.9297388718566688
4966000000.0 0.5416735500822639 -0.9335073404130834
4969000000.0 0.5354130786916679 -0.9340593488538219
4972000000.0 0.5109825558278339 -0.9353227900142623
4975000000.0 0.5279447674698874 -0.8863130772239177
4978000000.0 0.49268820801460256 -0.9141026444108865
4981000000.0 0.5216123654676783 -0.9114656273572862
4984000000.0 0.5061132926450432 -0.8823610918689481
4988000000.0 0.49514116213876475 -0.8901216309966619
4991000000.0 0.5373856670168535 -0.913971990466223
4994000000.0 0.546945651494209 -0.8846647599163007
4997000000.0 0.47256392828629623 -0.9376538506575975
5000000000.0 0.5459976204924722 -0.9221962513364814
5003000000.0 0.5526044064207088 -0.9317854644770993
5006000000.0 0.5380808463208528 -0.9545973209811904
5009000000.0 0.511557437407934 -0.9091446031339141
5012000000.0 0.5055153495744926 -0.9007798389307868
5016000000.0 0.5718601180629452 -0.9170058216423744
5019000000.0 0.4983066722688061 -0.9036872594087522
5022000000.0 0.5348655335187256 -0.904689857998557
5025000000.0 0.5474383171410643 -0.9295371822458952
5028000000.0 0.521415784318867 -0.9129799493617081
5031000000.0 0.49026136201841836 -0.909861763023494
5034000000.0 0.4983704164522448 -0.9438636807844252
5038000000.0 0.4625551351492473 -0.8577094233779579
5041000000.0 0.5777323598754631 -0.8616112528517703
5044000000.0 0.5112234994292381 -0.8549043407580029
5047000000.0 0.5503385724002199 -0.9160161865457105
5050000000.0 0.5577962729877733 -0.8513453469390937
5053000000.0 0.5259298417099485 -0.9532139344826589
5056000000.0 0.5390261983686682 -0.8771812854734441
5059000000.0 0.5961484609783579 -0.8749132790895723
5062000000.0 0.5192292051297269 -0.9424491443882731
5066000000.0 0.5389674609730414 -0.8497313099358496
5069000000.0 0.5145491964503967 -0.9259873297919057
5072000000.0 0.5327541748141482 -0.8801715115136874
5075000000.0 0.5343609603213612 -0.8707368359706874
5078000000.0 0.5122766278807129 -0.9462706095610134
5081000000.0 0.4830808692523783 -0.8906070760540425
5084000000.0 0.5526337097676295 -0.8934975852682254
5088000000.0 0.5398328158210883 -0.9061588532374789
5091000000.0 0.4810008058489001 -0.9206269836472181
5094000000.0 0.48887111800588245 -0.9235066016575249
5097000000.0 0.5505950697593754 -0.9002395460916056
5100000000.0 0.5270284737314594 -0.9113086419166272
5103000000.0 0.5379174027560403 -0.9428484520370461
5106000000.0 0.528765406882755 -0.9209350461159403
5109000000.0 0.5807046731229719 -0.8796629983710231
5112000000.0 0.4987377353011527 -0.8646150059149034
5116000000.0 0.5057456550002299 -0.8559938535130728
5119000000.0 0.6019571035395945 -0.9039171938343187
5122000000.0 0.5395237638523521 -0.8946867660530552
5125000000.0 0.5529231768247836 -0.8659444224379891
5128000000.0 0.4991091732201734 -0.9006768832113543
5131000000.0 0.5223565906442871 -0.8521317895573268
5134000000.0 0.5477223302009024 -0.9058455744831386
5138000000.0 0.5768254462036833 -0.8592559354449854
5141000000.0 0.5754861091205368 -0.8476371754850549
5144000000.0 0.5272976438492053 -0.8793454331228969
5147000000.0 0.5471629297362748 -0.9188337409163103
5150000000.0 0.539404915490507 -0.8998065524818807
5153000000.0 0.5620070177080214 -0.8643115931013969
5156000000.0 0.5733129490347626 -0.8914900253999144
5159000000.0 0.5662533823440572 -0.8944204894159546
5162000000.0 0.4995232801533436 -0.8868518255685389
5166000000.0 0.5696332615825266 -0.8969092933557272
5169000000.0 0.5904139987122287 -0.9063712387944995
5172000000.0 0.571003779005054 -0.8648658686360231
5175000000.0 0.5531390935318542 -0.8941671412163508
5178000000.0 0.5536619084593251 -0.8843176932449281
