! Created with skrf 1.8.0 (http://scikit-rf.org).
# Hz S RI R 50.0 
!freq ReS11 ImS11
4000000000.0 0.5216434828497248 -0.8613775238801319
4003000000.0 0.5566436384569273 -0.9353831456023072
4006000000.0 0.4926800861655125 -0.8893543810479547
4009000000.0000005 0.5332907744928694 -0.8756231273410391
4011999999.9999995 0.5790929628549146 -0.8816032965882601
4016000000.0 0.5171421305532887 -0.9093400034973951
4019000000.0 0.5102649513542509 -0.8903962786792454
4022000000.0000005 0.6220453300964159 -0.893956957705361
4025000000.0000005 0.47228318865102725 -0.9650201393548767
4027999999.9999995 0.5034386272407616 -0.8967012470113812
4030999999.9999995 0.4885328221461792 -0.8630204961925882
4034000000.0 0.4774658618705941 -0.8653862021907376
4038000000.0000005 0.4789780985393518 -0.9234600463358775
4041000000.0000005 0.5095788332298401 -0.9115414506517958
4043999999.9999995 0.5629767179428667 -0.9435556655085374
4046999999.9999995 0.5315544474189053 -0.9092320835896435
4050000000.0 0.5075150975921552 -0.8827374699932241
4053000000.0 0.5037856495028399 -0.8737309542082091
4056000000.0 0.5361823488750113 -0.9044550055913874
4059000000.0 0.514766063746149 -0.8572642972416142
4062000000.0000005 0.504087714747731 -0.924883503714319
4066000000.0 0.4804808332488072 -0.8479060931209472
4069000000.0 0.5241161591701713 -0.975027224911606
4072000000.0 0.5715112397529781 -0.8929079092480168
4075000000.0 0.5843888174021818 -0.9046128682531496
4078000000.0000005 0.4937790760198788 -0.9185967390179026
4081000000.0000005 0.5800135720710824 -0.8798737096941207
4083999999.9999995 0.5157747325969463 -0.9276564416375649
4088000000.0 0.5414486029475886 -0.9247051661408133
4091000000.0 0.5333898551662023 -0.9355078055518923
4094000000.0000005 0.5343390799884021 -0.8857551876587487
4097000000.0000005 0.5181497558290411 -0.8977112488151591
4099999999.9999995 0.4721515878522715 -0.8904828534543515
4102999999.9999995 0.5410080776767081 -0.8714662256822122
4106000000.0 0.5164495297250964 -0.896230254155
4109000000.0 0.4963430022965839 -0.8846383692584492
4112000000.0 0.4902286067012137 -0.8927864341207934
4115999999.9999995 0.5376288496612263 -0.8619325147715129
4119000000.0 0.48975188949481785 -0.907130848342011
4122000000.0 0.4811348320943149 -0.9187405654630255
4125000000.0 0.5359760937026397 -0.9362693706624826
4128000000.0 0.5217082915421163 -0.8688797734847269
4131000000.0 0.506049192528617 -0.8729140960671402
4134000000.0000005 0.5501247857995014 -0.9160002197791266
4138000000.0 0.4986702210988977 -0.9080279960937939
4141000000.0 0.5474971691763713 -0.8882659043841326
4144000000.0 0.5276772847234807 -0.909003013626923
4147000000.0000005 0.48569459459525743 -0.9009273217699129
4150000000.0000005 0.5255241830242594 -0.9180182815729523
4152999999.9999995 0.4970100244242717 -0.8666078004039974
4155999999.9999995 0.532157788382801 -0.9234968853551349
4159000000.0 0.5174680346202296 -0.8435102930125016
4162000000.0 0.5311451998446565 -0.8647414018726235
4166000000.0000005 0.5021547989546892 -0.9161842142370372
4168999999.9999995 0.5030423137408113 -0.8676207437891993
4171999999.9999995 0.532168489129939 -0.87805042264526
4175000000.0 0.5572449061099185 -0.8643228870875503
4178000000.0 0.5433983013603749 -0.9126789824284469
4181000000.0 0.5052002262481783 -0.8735345826430431
4184000000.0 0.5145337671525501 -0.8715260708576819
4187999999.9999995 0.4952772566561941 -0.8679263328935741
4191000000.0 0.5534426298303435 -0.8395456766456064
4194000000.0 0.5017676721974285 -0.864292316110676
4197000000.0 0.5255178061580668 -0.9007317015973647
4200000000.0 0.5079341648629871 -0.8669784562445951
4203000000.0000005 0.5339028674006006 -0.8889003280218466
4206000000.0000005 0.5348084865509467 -0.8766118908442515
4208999999.9999995 0.5163213530997952 -0.8591572908520122
4211999999.9999995 0.4931918454517329 -0.8953047259177958
4216000000.0 0.5187495018359439 -0.872101425981818
4219000000.0000005 0.5393102504223471 -0.8933352837539916
4222000000.0000005 0.5024877980080951 -0.8904285780938004
4224999999.9999995 0.532007462330586 -0.869627925605316
4227999999.9999995 0.5294684902045181 -0.8814965002709709
4231000000.0 0.5052839278229111 -0.8785249099916989
4234000000.0 0.505365151864868 -0.8999215919283375
4238000000.0000005 0.49901443663577794 -0.8821917968889628
4240999999.9999995 0.4979824876184378 -0.8797787606358427
4244000000.0 0.5191574054412279 -0.8742675926993713
4247000000.0 0.53127688360795 -0.8600719994846422
4250000000.0 0.4982075152150407 -0.8796336383435132
4253000000.0 0.5045985143303179 -0.8673618887536396
4256000000.0 0.5432921076095367 -0.9072282772664452
4259000000.0000005 0.49718170430907727 -0.8498407534180819
4261999999.9999995 0.47926466277979374 -0.8854528397310176
4266000000.0 0.5230866217642767 -0.8897142527224344
4269000000.0 0.513145758707988 -0.8961139434453372
4272000000.0000005 0.49867727561477804 -0.8834484227180261
4275000000.0000005 0.5317898851224321 -0.8867319356762106
4277999999.9999995 0.5184321700315087 -0.8884612630161036
4280999999.9999995 0.5154677215271145 -0.8709228046644588
4284000000.0 0.48133474408200894 -0.9007868682267163
4288000000.0000005 0.5457717524559427 -0.8444211821196038
4291000000.0000005 0.49657314528934887 -0.8727801272584079
4293999999.9999995 0.5133343016787307 -0.8756465711362406
4297000000.0 0.5414147373112725 -0.8625930565143608
4300000000.0 0.5213865084187245 -0.8702037400018745
4303000000.0 0.4933840512270005 -0.9097147487416616
4306000000.0 0.5557168072807734 -0.8704342260644976
4309000000.0 0.5331386441782575 -0.865517423016463
4312000000.0 0.5553250636267353 -0.8605630116943737
4316000000.0 0.5215381585384237 -0.8909270005960449
4319000000.0 0.540897088722346 -0.8776127087610361
4322000000.0 0.512679900855738 -0.8738769747627378
4325000000.0 0.524361445369939 -0.8673477184763925
4328000000.0 0.5113942621192842 -0.8794652064753409
4331000000.0 0.47923654722469394 -0.8782637053276613
4334000000.0 0.5073386385104186 -0.8821542542253006
4338000000.0 0.524928765804178 -0.8694983997745297
4341000000.0 0.5445709016261658 -0.8710317282242587
4344000000.0 0.512153655457665 -0.9021306873892327
4347000000.0 0.5005436429049056 -0.9060894819250029
4350000000.0 0.46047636157187993 -0.8541658199270419
4353000000.0 0.5138327542951808 -0.8566901456021297
4356000000.0 0.4856994017358653 -0.8868970033438331
4359000000.0 0.4724396128881302 -0.8379146827021584
4362000000.0 0.46835943206799774 -0.9216515906173173
4366000000.0 0.5060378452925938 -0.895753555936538
4369000000.0 0.4683144218045384 -0.8512794884939489
4372000000.0 0.4590695675063444 -0.873295131036909
4375000000.0 0.5109680541460853 -0.8596206267005209
4378000000.0 0.4896335981310799 -0.8612877624773355
4381000000.0 0.5034807977546459 -0.8608265408903382
4384000000.0 0.5162489051045972 -0.9422097318040453
4388000000.0 0.49945549775834563 -0.8513528080371298
4391000000.0 0.5113905644650517 -0.8668465838464431
4394000000.0 0.4896310587056014 -0.8539052160100612
4397000000.0 0.4889395439822293 -0.8787407302986106
4400000000.0 0.5036961707140806 -0.9122046621523869
4403000000.0 0.50519909351413 -0.8811842021513526
4406000000.0 0.4897348247293021 -0.892985868047645
4409000000.0 0.5141516462384181 -0.917997626663128
4412000000.0 0.44030378511239066 -0.9153129879603678
4416000000.0 0.47742933851458536 -0.8842577370279521
4419000000.0 0.4822596086957702 -0.8982220081348374
4422000000.0 0.5015956581025688 -0.8619292822101514
4425000000.0 0.524964422735897 -0.883618445171656
4428000000.0 0.4857272611318774 -0.906629307965526
4431000000.0 0.5089101099031152 -0.9085206468899851
4434000000.0 0.4857581610301046 -0.881664002199233
4438000000.0 0.5116986556166901 -0.8972298227999737
4441000000.0 0.5021698607706834 -0.8977867528029517
4444000000.0 0.48533252601043636 -0.8616115442925629
4447000000.0 0.4778622572320521 -0.8880259755845463
4450000000.0 0.4927876562889415 -0.8686471379378307
4453000000.0 0.5045845133931393 -0.9036521763704406
4456000000.0 0.4818310321551831 -0.8713094339051348
4459000000.0 0.4604195971347861 -0.8545990832233713
4462000000.0 0.5160440692557354 -0.9375485616640755
4466000000.0 0.4974852504275093 -0.9144803922653717
4469000000.0 0.5042557939897051 -0.8874116406871184
4472000000.0 0.49369744771104707 -0.9226225517030915
4475000000.0 0.4780560650031579 -0.8735109789145266
4478000000.0 0.49818776241791507 -0.9381941724756768
4481000000.0 0.46073044586966505 -0.8822320753425799
4484000000.0 0.4373511795256343 -0.8982738036713453
4488000000.0 0.46962426651891065 -0.8754792241685037
4491000000.0 0.4802726954386072 -0.8958695117657991
4494000000.0 0.4853515940845039 -0.8692946205431283
4497000000.0 0.4868511339762453 -0.878599393269681
4500000000.0 0.4912887113609096 -0.8811896360539758
4503000000.0 0.4995045585912537 -0.9033609958850412
4506000000.0 0.47739304601001936 -0.8926143087042759
4509000000.0 0.46975319223824785 -0.8801808732646513
4512000000.0 0.44563043713574046 -0.8758596240817906
4516000000.0 0.49936540479320835 -0.9066125552038141
4519000000.0 0.47391920227006085 -0.8740616535321915
4522000000.0 0.4649096102617057 -0.8960117828665392
4525000000.0 0.5074493181929876 -0.8572092434748717
4528000000.0 0.48763084671956275 -0.9238774192800694
4531000000.0 0.4855183937006933 -0.8641870980802175
4534000000.0 0.46246488708429806 -0.9082987412512564
4538000000.0 0.45390802649586864 -0.8841508553115524
4541000000.0 0.43709885072778143 -0.9097269318298328
4544000000.0 0.459358331795097 -0.8812461293750737
4547000000.0 0.48168504796116207 -0.863560548028552
4550000000.0 0.45729302758786045 -0.9107537120713016
4553000000.0 0.46245330364074294 -0.9031300056270903
4556000000.0 0.45060866714534986 -0.8855631821922949
4559000000.0 0.45329368172058765 -0.8940630543662319
4562000000.0 0.47927910899812015 -0.9040294254175096
4566000000.0 0.4825472607367398 -0.8959192944799012
4569000000.0 0.46646890603115376 -0.8820194623628987
4572000000.0 0.4660637695960968 -0.9055438219520184
4575000000.0 0.45608288345930037 -0.9134658755616489
4578000000.0 0.4967129869162538 -0.920999751083789
4581000000.0 0.44544217276574727 -0.9123541042089656
4584000000.0 0.4589149290544413 -0.8968355162151099
4588000000.0 0.48456812280854433 -0.8912501564103331
4591000000.0 0.45577876436387404 -0.8963641265798465
4594000000.0 0.4637929030884601 -0.8957332719448692
4597000000.0 0.463927813467632 -0.9166221714173194
4600000000.0 0.43424723118936903 -0.8945494087307078
4603000000.0 0.45796542378300786 -0.9181784969136706
4606000000.0 0.46490113289434 -0.9110945009657834
4609000000.0 0.4779501356993753 -0.894841818133537
4612000000.0 0.44178288340238814 -0.9180110606666094
4616000000.0 0.44244124204474533 -0.8931242605885944
4619000000.0 0.4532682187064003 -0.890619449023728
4622000000.0 0.4598442878388555 -0.9009100115059793
4625000000.0 0.43380152022688084 -0.8691570875157
4628000000.0 0.47994075590521235 -0.8831396926365572
4631000000.0 0.43625296255402324 -0.885261286972741
4634000000.0 0.4536206539945202 -0.8951648177912042
4638000000.0 0.45128352809018407 -0.9066455556795282
4641000000.0 0.47100122824743584 -0.9072341303338027
4644000000.0 0.4519510837194266 -0.9064927345886207
4647000000.0 0.4644610272333868 -0.9149455740832354
4650000000.0 0.4417481195261393 -0.8959869412361017
4653000000.0 0.46851772016578896 -0.9251157051434132
4656000000.0 0.44854321248132045 -0.906280624674655
4659000000.0 0.4310995519361082 -0.8986304726916027
4662000000.0 0.4335015176105267 -0.9324813147253733
4666000000.0 0.4395164910154866 -0.9020939035840398
4669000000.0 0.44875823443241813 -0.9229333723927764
4672000000.0 0.43460290140859775 -0.924599938291163
4675000000.0 0.4383306682858404 -0.9171742451001951
4678000000.0 0.4293168578995383 -0.9147622926780479
4681000000.0 0.4340583136905566 -0.9332012373083234
4684000000.0 0.4449002656667578 -0.9339816132259804
4688000000.0 0.4071200978729878 -0.9322531586257844
4691000000.0 0.45462032126909363 -0.9215486785859792
4694000000.0 0.46344908599872636 -0.9233282108452963
4697000000.0 0.38924452604233745 -0.8638676751089209
4700000000.0 0.44597717571264917 -0.8923284387766418
4703000000.0 0.45652401481680654 -0.8737667877032623
4706000000.0 0.4573951642072165 -0.9312203094740507
4709000000.0 0.42973016322059676 -0.9142179633067735
4712000000.0 0.43758491489515405 -0.9074412509104856
4716000000.0 0.4325989479325892 -0.8982134699822959
4719000000.0 0.47069200586473553 -0.9063891482692292
4722000000.0 0.45946500487910874 -0.8998453287074254
4725000000.0 0.46005545222311284 -0.9304581261873385
4728000000.0 0.43472732021221805 -0.9209311111677212
4731000000.0 0.4840752390683915 -0.9525674071697816
4734000000.0 0.4563521865152852 -0.9212192593353347
4738000000.0 0.4758595677686051 -0.9632368978828278
4741000000.0 0.43077175629864983 -0.9662316463074264
4744000000.0 0.40852002429011336 -0.9053895702739233
4747000000.0 0.42755110624747095 -0.9194071238745961
4750000000.0 0.4428036721362589 -0.9267910746529533
4753000000.0 0.45161595511521846 -0.9382921683259938
4756000000.0 0.4724334250817678 -0.933418058899522
4759000000.0 0.4573216473230628 -0.9390702091375565
4762000000.0 0.42384468427238975 -0.9351198917782902
4766000000.0 0.44807691667993477 -0.9288455232028098
4769000000.0 0.4636774801072237 -0.9143201395684311
4772000000.0 0.4359812914810708 -0.9448784207532568
4775000000.0 0.40475089686614885 -0.9953326175166819
4778000000.0 0.4349250746581058 -0.9142701646697804
4781000000.0 0.4347759412959815 -0.9118168390320016
4784000000.0 0.4385755302851683 -0.9242979921872133
4788000000.0 0.4380182045218995 -0.9329678542491441
4791000000.0 0.4345713293540938 -0.9044942334224659
4794000000.0 0.4736614148327989 -0.9671940025127282
4797000000.0 0.4437043398253977 -0.9091669088885822
4800000000.0 0.4464815409524224 -0.917898925075033
4803000000.0 0.40084544570730857 -0.9274899960309892
4806000000.0 0.4341461757223368 -0.9580208716358775
4809000000.0 0.4064240993945807 -0.948719033709532
4812000000.0 0.39356842059916797 -0.922752050040488
4816000000.0 0.44180775142005313 -0.9116516102232111
4819000000.0 0.4614258918389207 -0.9557020421346369
4822000000.0 0.4746281029861692 -0.9675913904157062
4825000000.0 0.47312039704422476 -0.9345252011111205
4828000000.0 0.4283148577636316 -0.9080321231622851
4831000000.0 0.4016545375818587 -0.9712379456926024
4834000000.0 0.4528634986018337 -0.9219317373909859
4838000000.0 0.43109774206419416 -0.960736406101721
4841000000.0 0.42921115536359644 -0.9167675185028146
4844000000.0 0.4580063434681749 -0.941854491974593
4847000000.0 0.45757068501922954 -0.8863657165109037
4850000000.0 0.4285354866488147 -0.9545153931881408
4853000000.0 0.4307860908984585 -0.9062724269139162
4856000000.0 0.4291589542883357 -0.920311450293124
4859000000.0 0.4541588250576907 -0.9698889384363822
4862000000.0 0.45675513738930723 -0.9117417122843878
4866000000.0 0.41098126861530115 -0.9299604842045373
4869000000.0 0.4271224696826898 -0.9289766620637671
4872000000.0 0.436134757466285 -0.942526793735049
4875000000.0 0.5084777640104015 -0.9697496925388337
4878000000.0 0.42811740090153066 -0.938183773576185
4881000000.0 0.44523157420946513 -1.0101491933707671
4884000000.0 0.43404198399688343 -0.9242039924168899
4888000000.0 0.45382900691422323 -0.9154547783247042
4891000000.0 0.47752325632010223 -0.9631596755446133
4894000000.0 0.44511216621970623 -0.9344097851878526
4897000000.0 0.4531272618507111 -0.9219287141697232
4900000000.0 0.46813051474128814 -0.9308502625225689
4903000000.0 0.45495471889501676 -0.9376421597953721
4906000000.0 0.4491218472833039 -0.9558003859580394
4909000000.0 0.4327111897182434 -0.9353441865525601
4912000000.0 0.4351587384700978 -0.9788909427251169
4916000000.0 0.45166236911536095 -0.9600966297144078
4919000000.0 0.47998666871255197 -0.9281097898349874
4922000000.0 0.48963304268441066 -0.9579247536575749
4925000000.0 0.4130381308710307 -0.9561172645116094
4928000000.0 0.4993014339340737 -0.9341474660453372
4931000000.0 0.42961017277912117 -0.9233709277923698
4934000000.0 0.44222164044446055 -0.9138139621462599
4938000000.0 0.4220781751395425 -0.9335292759439294
4941000000.0 0.4190516871330231 -0.9168069540795898
4944000000.0 0.42276605327606265 -0.87766938947584
4947000000.0 0.4516376676804714 -0.9365356674195789
4950000000.0 0.4479955633629982 -0.8975555542781177
4953000000.0 0.406582976727457 -1.0025448683216536
4956000000.0 0.42021731515669997 -0.9317715966702091
4959000000.0 0.3838900069089949 -0.9471923010048077
4962000000.0 0.4535676078494205 -0.9685802092643211
4966000000.0 0.45892270850014294 -0.9445116807837327
4969000000.0 0.46587150222083173 -0.9558972806258018
4972000000.0 0.42651511012815957 -0.9478118105087474
4975000000.0 0.4595254346362001 -0.913668894661561
4978000000.0 0.41494936799685156 -0.9495994882743064
4981000000.0 0.4289294952699261 -0.9551124937041056
4984000000.0 0.4476404729891316 -0.902803769943572
4988000000.0 0.46532319886420986 -0.950144194153117
4991000000.0 0.5224502785160825 -0.9296966372550555
4994000000.0 0.46005795970320107 -0.9087862007749619
4997000000.0 0.41410110093433394 -0.9650297696140857
5000000000.0 0.4741890111893178 -0.9847222344264801
5003000000.0 0.47263628316684403 -0.954752704458784
5006000000.0 0.4845899951196051 -0.993706999071967
5009000000.0 0.4828686483656368 -0.9384413215722202
5012000000.0 0.42983158557524553 -0.9503879268104303
5016000000.0 0.5039208837235584 -0.9274421760728593
5019000000.0 0.4482522618877944 -0.9439317745827134
5022000000.0 0.47492645559871083 -0.9137758211237668
5025000000.0 0.46558350210653787 -0.9925617639149473
5028000000.0 0.4241183593491847 -0.9738486322722395
5031000000.0 0.4329596715383625 -0.9340058737474968
5034000000.0 0.45243120489337607 -0.9960287970872558
5038000000.0 0.416707668279059 -0.9187909441816902
5041000000.0 0.5137986609726028 -0.9364020306675209
5044000000.0 0.44849101741489417 -0.9015285074496389
5047000000.0 0.4394045852242692 -0.9316424709485638
5050000000.0 0.5347317661296014 -0.9022536230725611
5053000000.0 0.46445471801559124 -0.9633587216134383
5056000000.0 0.4912339095337379 -0.9219937665152356
5059000000.0 0.49249666375030626 -0.8982293084607851
5062000000.0 0.4510584533248367 -0.964713665250793
5066000000.0 0.5122928829515907 -0.9261660739613613
5069000000.0 0.4767591633505889 -0.9491917550758804
5072000000.0 0.468635671705596 -0.9353793599498958
5075000000.0 0.5022515652366375 -0.9419946230862121
5078000000.0 0.4166592422051019 -0.9010461851200726
5081000000.0 0.45486443159926193 -0.8716095207031567
5084000000.0 0.48021251598777004 -0.9692366113923297
5088000000.0 0.4576049501596086 -0.9075769355919876
5091000000.0 0.4541292527139907 -0.954470157487379
5094000000.0 0.42208995672475025 -0.929101252560633
5097000000.0 0.5068872389265783 -0.8860647169279352
5100000000.0 0.4166002292772993 -0.9343049794648353
5103000000.0 0.47348023494839975 -0.9631792068544617
5106000000.0 0.4850758850630222 -0.8921286056527911
5109000000.0 0.4875484105184808 -0.9167621300238755
5112000000.0 0.43015016934347655 -0.9271822024546196
5116000000.0 0.43668700586703435 -0.8996309751288976
5119000000.0 0.48111574091834414 -0.961961165094106
5122000000.0 0.47472358218862204 -0.9486651969991848
5125000000.0 0.4839946172136852 -0.9151821824964599
5128000000.0 0.48754140100947446 -0.9654750639350592
5131000000.0 0.47585113367782483 -0.9244376872658796
5134000000.0 0.4856628369876056 -0.9246200062922593
5138000000.0 0.5207115817393696 -0.8816513510930848
5141000000.0 0.5084509222348944 -0.8910819670050202
5144000000.0 0.4539180451477144 -0.8694562036653439
5147000000.0 0.45107969593857544 -0.9249279405361313
5150000000.0 0.47230424117617315 -0.9199570895837368
5153000000.0 0.4686924597927537 -0.9626451663770418
5156000000.0 0.5047922225736323 -0.9070709399525547
5159000000.0 0.5226659767584894 -0.9764572855176972
5162000000.0 0.5010903991010516 -0.9133020411544206
5166000000.0 0.4717925952215702 -0.9678324149998965
5169000000.0 0.49134200064729905 -0.9756339492682079
5172000000.0 0.47943105724206947 -0.9222997007611919
