! Created with skrf 1.8.0 (http://scikit-rf.org).
# Hz S RI R 50.0 
!freq ReS11 ImS11
4000000000.0 0.9139832244587698 0.408383118376985
4003000000.0 0.9690389671469306 0.4636025742588303
4006000000.0 0.9850421291074621 0.347547229177119
4009000000.0000005 0.9985121036486488 0.3587645603014314
4011999999.9999995 0.9481726891752292 0.4520898228309594
4016000000.0 1.0087340869551789 0.33406992433556865
4019000000.0 1.0229464299332431 0.30977912716944633
4022000000.0000005 0.9689918376179975 0.3949636653290674
4025000000.0000005 1.070114914255376 0.23766883615814582
4027999999.9999995 1.0033540330524453 0.3038920929392731
4030999999.9999995 0.9399854207907512 0.3370597959218259
4034000000.0 0.9894769924388936 0.30732693228167784
4038000000.0000005 1.0061800497124467 0.23836549495548964
4041000000.0000005 1.0162632167392398 0.28633369343620835
4043999999.9999995 1.081579387048399 0.26653196622355735
4046999999.9999995 0.98966181043978 0.3405256985601093
4050000000.0 1.0679022904167328 0.1967898947937544
4053000000.0 0.9845330957904059 0.17671921415324543
4056000000.0 0.9914658708973354 0.2404243060650709
4059000000.0 1.035323634163153 0.2773133560843176
4062000000.0000005 1.0241017288921281 0.13283177224711434
4066000000.0 0.9184484512884189 0.1503015650208039
4069000000.0 1.1046959809128616 0.1680435827033945
4072000000.0 0.9748918726157227 0.28070010619766395
4075000000.0 1.0530542756101098 0.23272539415436203
4078000000.0000005 1.0801254047833826 0.20493590866211334
4081000000.0000005 1.0477118753730492 0.2959312791023994
4083999999.9999995 1.0450759836831645 0.16409458146308892
4088000000.0 1.0489154242262773 0.22425945967109207
4091000000.0 1.1449226626531226 0.16369879985604147
4094000000.0000005 1.0222642144935512 0.17969608694188732
4097000000.0000005 1.0152643855718269 0.17195965810832733
4099999999.9999995 1.0834838539423481 0.1088042436470644
4102999999.9999995 1.121439764225847 0.14530029905431346
4106000000.0 1.0204219672188946 0.14316464783970206
4109000000.0 1.0174716381004223 0.06579513126407703
4112000000.0 1.0655872534394064 0.10653382386652635
4115999999.9999995 1.0157795923298427 0.190562086373924
4119000000.0 1.055659493620111 0.06779438861976489
4122000000.0 1.0453164699151865 0.11960561824218299
4125000000.0 1.144715244035955 0.023005724435844546
4128000000.0 0.9699759348954579 0.08762135473394685
4131000000.0 1.034472191336145 0.11703256640150261
4134000000.0000005 1.0395362668865686 0.09619245251418367
4138000000.0 0.984410944269391 0.0549056009134679
4141000000.0 0.9962787494241429 0.05047249622611494
4144000000.0 1.016774182159351 0.06900943765262418
4147000000.0000005 0.9790783968178511 0.06546886701690745
4150000000.0000005 1.065280232558346 0.0669650952682739
4152999999.9999995 1.074840408624496 0.029256094449514283
4155999999.9999995 1.0727449760174737 0.025826317738128643
4159000000.0 1.0216888587071244 0.06476585083440832
4162000000.0 1.0435728104792221 -0.024439604730020353
4166000000.0000005 0.9902832009610433 -0.001404983667220125
4168999999.9999995 1.0231106637936154 -0.046959770792769806
4171999999.9999995 1.0905634100899408 0.027050056732753708
4175000000.0 0.9777635718242407 0.003082136720359674
4178000000.0 1.0505735064080612 -0.030414263635367533
4181000000.0 1.113713728258352 -0.007472825619216555
4184000000.0 1.094158271392798 -0.05865387368223421
4187999999.9999995 1.028021305247073 0.004774756258232343
4191000000.0 1.0160648426786552 -0.007398459476481212
4194000000.0 0.9810173168202952 -0.030005355615145002
4197000000.0 0.9982969696818842 -0.024748300784199456
4200000000.0 1.0194810260409095 -0.05866040854423757
4203000000.0000005 0.9992821619404602 -0.011926278257887057
4206000000.0000005 1.0439249038160745 -0.03608315720838873
4208999999.9999995 1.0231209304793067 -0.010102728212848161
4211999999.9999995 1.0064650260126997 -0.06765496678687943
4216000000.0 1.0031942273349939 -0.05510966607166262
4219000000.0000005 1.0028471326334767 -0.04410333162356628
4222000000.0000005 1.0590143255840212 -0.08613664306355809
4224999999.9999995 1.0398046883223426 -0.04765422616082654
4227999999.9999995 1.0376875547100657 -0.040834879591328865
4231000000.0 0.9968742676168271 -0.037546167748085724
4234000000.0 1.0693341240354468 -0.060695408653644645
4238000000.0000005 1.0188986867249736 -0.06515081587135485
4240999999.9999995 1.071516183976647 -0.07378745970674316
4244000000.0 1.0365491869050159 -0.07794961453158622
4247000000.0 1.0462052925941976 -0.0682104473823466
4250000000.0 1.0551591171269947 -0.10721445768211785
4253000000.0 1.0176159948187902 -0.08248190094336677
4256000000.0 0.9722089677317032 -0.10441836668271154
4259000000.0000005 1.0190077038068222 -0.11820120050907273
4261999999.9999995 1.0332515505245818 -0.09554091080961263
4266000000.0 1.024076765683911 -0.08439578740846532
4269000000.0 1.0686770102873147 -0.07514489488081078
4272000000.0000005 1.012999901860909 -0.13672494324028034
4275000000.0000005 1.017862739529968 -0.12573802554981772
4277999999.9999995 1.0094078931097796 -0.08835604654900076
4280999999.9999995 0.9944569006881264 -0.12151610976090582
4284000000.0 1.0298222563565103 -0.1361894486823838
4288000000.0000005 1.0280712260257672 -0.14248284694003327
4291000000.0000005 1.0348455789311526 -0.12897887993598078
4293999999.9999995 1.0037377399309455 -0.12376691036667808
4297000000.0 0.9977095325681309 -0.13953010959621354
4300000000.0 1.0115243361984265 -0.14787521126597375
4303000000.0 1.0143493426318368 -0.12474335220773247
4306000000.0 1.0452389027320161 -0.10983832041825087
4309000000.0 1.009055219666313 -0.13445739072461577
4312000000.0 1.0148595345236846 -0.12194430000601958
4316000000.0 1.019734222416048 -0.1623525075470355
4319000000.0 1.0059408922364432 -0.130534851092807
4322000000.0 0.9758146168790374 -0.1850068665679352
4325000000.0 0.9914543240299312 -0.14073712445426745
4328000000.0 1.02055726730569 -0.209898116833154
4331000000.0 1.003199627643849 -0.2062077218368224
4334000000.0 1.0329511957563242 -0.15105718280526587
4338000000.0 1.0126489587181382 -0.16708148977068638
4341000000.0 1.0331072427185581 -0.17644310811247138
4344000000.0 1.0059598013543254 -0.18378078971309736
4347000000.0 1.0277969063904195 -0.17518613966903301
4350000000.0 0.9988803222841327 -0.18053952246897292
4353000000.0 1.0094430877475262 -0.1925477547890887
4356000000.0 1.0446713564287868 -0.15471145280895998
4359000000.0 1.0125761692457895 -0.19941682793481058
4362000000.0 0.9784305834753393 -0.23921545875771238
4366000000.0 0.9571164611676328 -0.21518779939033922
4369000000.0 0.9745782736382148 -0.19070835407747466
4372000000.0 0.9765593523723743 -0.25454012875485643
4375000000.0 0.9642136361648485 -0.1987043977906076
4378000000.0 1.0375196385821357 -0.2021259940901738
4381000000.0 1.010552149435304 -0.16811706136372467
4384000000.0 1.007379242362023 -0.1997729533834977
4388000000.0 0.9857098504928536 -0.18109190731736202
4391000000.0 0.9930633502317558 -0.20910284861242778
4394000000.0 0.9599444461717526 -0.20952560128039188
4397000000.0 1.004519474191298 -0.1901072502650326
4400000000.0 1.0337511303773081 -0.2301537719985146
4403000000.0 0.9970001497262784 -0.21116482574644563
4406000000.0 0.985279782285677 -0.27203627567636335
4409000000.0 1.0172342496636968 -0.2281122347608892
4412000000.0 0.9621008614095103 -0.27599779460840085
4416000000.0 0.9856991627927038 -0.2424398447267121
4419000000.0 0.9865130382353573 -0.23791083703275406
4422000000.0 0.9707531378536898 -0.2252234155138516
4425000000.0 1.0020614047860823 -0.21444849517783043
4428000000.0 0.9886653139258703 -0.24862201346512586
4431000000.0 0.9888607721169361 -0.23726940528292373
4434000000.0 0.9999718722428386 -0.2437587950306927
4438000000.0 0.990145277450031 -0.23420310449466747
4441000000.0 0.9919259288611935 -0.22680968281394115
4444000000.0 0.9575293179198374 -0.2392603929033108
4447000000.0 0.9789967937160193 -0.26251622911720224
4450000000.0 0.9648101525534776 -0.2384081308287575
4453000000.0 1.0103611166137132 -0.27306902305116426
4456000000.0 0.9627147231705547 -0.25725521780110105
4459000000.0 0.9337955477135393 -0.26541654354338906
4462000000.0 1.0311972423589078 -0.2942171654384669
4466000000.0 1.0024323031418094 -0.2636255560888961
4469000000.0 0.969482492353261 -0.2558336303748007
4472000000.0 0.9903472354206193 -0.2935826704881315
4475000000.0 0.9544281261207241 -0.26206285190988976
4478000000.0 1.0016635227255088 -0.30491152936199173
4481000000.0 0.9610797175701999 -0.2808481219480503
4484000000.0 0.9402732343477412 -0.3203141803120635
4488000000.0 0.9457631218150346 -0.2955349468655928
4491000000.0 0.9825000977788876 -0.2998234055465836
4494000000.0 0.946436938411839 -0.28524321910185724
4497000000.0 0.9796818704406917 -0.2764763121839481
4500000000.0 0.9843257435263095 -0.26610954405552195
4503000000.0 0.9900724182781738 -0.29112378409491757
4506000000.0 0.9571694363591187 -0.2867414925527101
4509000000.0 0.9446377197667482 -0.30163389357466186
4512000000.0 0.9484028452150775 -0.30503645339167074
4516000000.0 0.9650829147442108 -0.28910631707432166
4519000000.0 0.9236735184794527 -0.28796518531239246
4522000000.0 0.9508838834868246 -0.320740912723499
4525000000.0 0.9556273878743781 -0.268264908124918
4528000000.0 0.9988865880765906 -0.3275804863440063
4531000000.0 0.9598650859742969 -0.3022777177934062
4534000000.0 0.9417543732429421 -0.28469434826537204
4538000000.0 0.9418312458350906 -0.3277670341750829
4541000000.0 0.9561510625965038 -0.3619188640764351
4544000000.0 0.9441280636726666 -0.3193829177988996
4547000000.0 0.9573166225299008 -0.2864934251525999
4550000000.0 0.9367688506109177 -0.3409719173315757
4553000000.0 0.9448329792648094 -0.3263179251336982
4556000000.0 0.9181152759403435 -0.32774953120420114
4559000000.0 0.9455945715620293 -0.3425481334650156
4562000000.0 0.9496917400089043 -0.3348836830232307
4566000000.0 0.9491390567156046 -0.3473108818154471
4569000000.0 0.934455296244551 -0.3178637786357033
4572000000.0 0.9483330302868356 -0.337008266560803
4575000000.0 0.9400801906618677 -0.3660661673834137
4578000000.0 0.9901465632347678 -0.33169433989905367
4581000000.0 0.9666828597932962 -0.38221220698178826
4584000000.0 0.9359929570828845 -0.3250679049608613
4588000000.0 0.967477743181249 -0.3142782161831407
4591000000.0 0.9493840193539059 -0.31456599655450224
4594000000.0 0.9335341374076391 -0.3536035323269515
4597000000.0 0.9461554632631551 -0.36436197779128743
4600000000.0 0.8922657419671799 -0.4016005280658127
4603000000.0 0.9680465792217987 -0.3824513440049326
4606000000.0 0.9482328152077439 -0.3352792307626528
4609000000.0 0.9354196779546871 -0.3701958123095961
4612000000.0 0.9841983673968161 -0.38683581517013116
4616000000.0 0.9355649793611367 -0.3588687516520812
4619000000.0 0.9413270916824792 -0.3375016588434625
4622000000.0 0.960168344095774 -0.3285547354818639
4625000000.0 0.8754122319406383 -0.3626628672784711
4628000000.0 0.8947481707081593 -0.3272857798979049
4631000000.0 0.8829415652533973 -0.3988039286397286
4634000000.0 0.9310349976390738 -0.37162832101666043
4638000000.0 0.9419318321036277 -0.37950365899990257
4641000000.0 0.9523560131181469 -0.3624537306875533
4644000000.0 0.9356082114543715 -0.3730818060258545
4647000000.0 0.9570058872416302 -0.38462920374251064
4650000000.0 0.9098079859585472 -0.41389328226893324
4653000000.0 0.9460198674185872 -0.38669055176993733
4656000000.0 0.9028296950615396 -0.4319098206660881
4659000000.0 0.9176247100171602 -0.3808232061786786
4662000000.0 0.9176722034516481 -0.3798130730740373
4666000000.0 0.9152443456691516 -0.378728179673112
4669000000.0 0.9211328585480391 -0.38224828675836187
4672000000.0 0.9145779238616116 -0.41385797542788294
4675000000.0 0.8755261186322849 -0.4247624494290358
4678000000.0 0.9193200951453382 -0.38785714100154556
4681000000.0 0.9252731263901187 -0.4442322725665492
4684000000.0 0.8772601714289122 -0.3947116311409733
4688000000.0 0.8955167580543526 -0.38498126946990385
4691000000.0 0.8973801982569937 -0.3784934277566611
4694000000.0 0.9318946822070701 -0.40498102267159
4697000000.0 0.9099010552998832 -0.41328498794986845
4700000000.0 0.9359229625137248 -0.40874498784157015
4703000000.0 0.92972748888604 -0.44013152670172484
4706000000.0 0.9166528095734241 -0.41438248653448234
4709000000.0 0.9035915120875486 -0.4232362366558024
4712000000.0 0.9214530347792916 -0.43127843323385495
4716000000.0 0.909903299034533 -0.42203558486174186
4719000000.0 0.929832096485982 -0.4267301101265936
4722000000.0 0.9258408210377377 -0.4331427266845474
4725000000.0 0.9259365196224874 -0.4501767759395946
4728000000.0 0.8860785238423673 -0.44028187661689555
4731000000.0 0.922171313660283 -0.41469838440031204
4734000000.0 0.8936472351333258 -0.4166607904261501
4738000000.0 0.9109446990421454 -0.4178575521292706
4741000000.0 0.9111019237199465 -0.428664727512373
4744000000.0 0.9056902099184259 -0.46767860245051107
4747000000.0 0.8907769644239356 -0.4426837097123096
4750000000.0 0.8953188834673803 -0.44763980877636533
4753000000.0 0.9000227866283984 -0.4683067565976251
4756000000.0 0.9101141144074508 -0.4727199867366313
4759000000.0 0.9172923357048991 -0.4655027590685685
4762000000.0 0.9257710820040714 -0.4580510896980435
4766000000.0 0.8672453209300997 -0.4523902443214113
4769000000.0 0.9410202162033098 -0.4817330372432102
4772000000.0 0.8966247421938981 -0.46330306602119736
4775000000.0 0.8869822120751516 -0.4805074899731495
4778000000.0 0.9094518358093163 -0.4385848826728576
4781000000.0 0.922903801508465 -0.4532329319328977
4784000000.0 0.8931559449372494 -0.4314786927979105
4788000000.0 0.9159423995089382 -0.4552650792445188
4791000000.0 0.8936982328675039 -0.47934426663815694
4794000000.0 0.9075723316161539 -0.46990163039376387
4797000000.0 0.8940497341395569 -0.48556677082837946
4800000000.0 0.9047925257797198 -0.47586755893040783
4803000000.0 0.8785370355453878 -0.46942861082395004
4806000000.0 0.9002032893951823 -0.47563222488041235
4809000000.0 0.8860054932493047 -0.4772225060193015
4812000000.0 0.8783212126755654 -0.5100249436497349
4816000000.0 0.890701711470725 -0.4623277607271941
4819000000.0 0.8947256365068359 -0.4839077975106092
4822000000.0 0.9038215072548945 -0.4848462316839085
4825000000.0 0.9199569090391084 -0.46126338172948006
4828000000.0 0.874140773769309 -0.451755787625399
4831000000.0 0.8942485089182953 -0.49896384123237864
4834000000.0 0.8893936381728149 -0.4645855134955021
4838000000.0 0.8816538217716287 -0.4892014760469837
4841000000.0 0.8623149488595934 -0.4806141746630346
4844000000.0 0.8997370441368088 -0.47780131900318035
4847000000.0 0.8885382123108376 -0.46641349785934694
4850000000.0 0.8799476965815098 -0.48693087164829507
4853000000.0 0.8930681473339437 -0.4988600656389696
4856000000.0 0.888332048813077 -0.4865186501403291
4859000000.0 0.9045639217414008 -0.4966520420377276
4862000000.0 0.8678178825611296 -0.4880717083151261
4866000000.0 0.9042923877936202 -0.5174753482453827
4869000000.0 0.8797106241710066 -0.5105165981718125
4872000000.0 0.8851882596216408 -0.5261206998197259
4875000000.0 0.9201235602000661 -0.491707210617442
4878000000.0 0.8945355401686579 -0.5128941699247126
4881000000.0 0.9014712204512321 -0.531259208642503
4884000000.0 0.8853902500054738 -0.49705428417834774
4888000000.0 0.9118549979926969 -0.4614197706890536
4891000000.0 0.9158813947596101 -0.4984519691365727
4894000000.0 0.8604638487438645 -0.5144156243446978
4897000000.0 0.8988462698343377 -0.47829007184269645
4900000000.0 0.8915093115735795 -0.5107960846571884
4903000000.0 0.8826317537970219 -0.49505430241153126
4906000000.0 0.8916105536446493 -0.5019683357345983
4909000000.0 0.862130393592603 -0.5502313687878194
4912000000.0 0.9001265263882938 -0.5398328897714737
4916000000.0 0.9036145144080722 -0.515698231877558
4919000000.0 0.9283977155387404 -0.507273007076845
4922000000.0 0.8994325969093446 -0.4887175758926012
4925000000.0 0.8768723319336603 -0.5247858146800068
4928000000.0 0.901036521647514 -0.45239937968984034
4931000000.0 0.9041463822551836 -0.49573131328400827
4934000000.0 0.8497291069825229 -0.48729710029758755
4938000000.0 0.8805402562185685 -0.5222185383788883
4941000000.0 0.8571848001283462 -0.5107626812087132
4944000000.0 0.8355448955663445 -0.4866146778861914
4947000000.0 0.8717597943478914 -0.47564621386041583
4950000000.0 0.8709471801425225 -0.518530435884073
4953000000.0 0.8833974803153946 -0.579037074515101
4956000000.0 0.8701512195177687 -0.5603357360983868
4959000000.0 0.8364227485269446 -0.553921558380644
4962000000.0 0.9200291681689323 -0.5463665358499917
4966000000.0 0.909802960394275 -0.5036936647995374
4969000000.0 0.9197479461646532 -0.5187402215334803
4972000000.0 0.8734445864956952 -0.5607498075861451
4975000000.0 0.8869111291076515 -0.5012164819114153
4978000000.0 0.8884520340549188 -0.5482638633504638
4981000000.0 0.8699367671717698 -0.5235840977585372
4984000000.0 0.8494781696791462 -0.5381672473660093
4988000000.0 0.8559526749671179 -0.4915725251633679
4991000000.0 0.9129811940845589 -0.5060210671995505
4994000000.0 0.8982550642564904 -0.5008170487317755
4997000000.0 0.8549590759046435 -0.553857584066534
5000000000.0 0.9039890813947222 -0.5392722787385177
5003000000.0 0.921078111443942 -0.514287958164036
5006000000.0 0.9284278978324155 -0.5663266401044817
5009000000.0 0.8881158940233748 -0.5144831432686516
5012000000.0 0.862091678781179 -0.5210507851410504
5016000000.0 0.9054300171018769 -0.5265156255365878
5019000000.0 0.8646091981651789 -0.5174425273292964
5022000000.0 0.89322973439965 -0.5327553722551344
5025000000.0 0.9169558692994397 -0.566378073656745
5028000000.0 0.8720805259342723 -0.558850263911465
5031000000.0 0.8634880662760552 -0.5461610038266583
5034000000.0 0.8774224618894985 -0.6062863872103473
5038000000.0 0.8480981853625877 -0.5363135107231539
5041000000.0 0.9132582864217996 -0.49722932892280625
5044000000.0 0.877896854199641 -0.5099055912480065
5047000000.0 0.9159926029829216 -0.5207267979610256
5050000000.0 0.9095862728791331 -0.44688440140077873
5053000000.0 0.9001577444990398 -0.5558040788316034
5056000000.0 0.8994538647938777 -0.48951034401710813
5059000000.0 0.9512175758211034 -0.4602593035885121
5062000000.0 0.8853672196945477 -0.558711196270428
5066000000.0 0.8665308685730361 -0.4688841667212772
5069000000.0 0.8852147380235122 -0.5377701616319909
5072000000.0 0.8254882088986861 -0.5210485772943706
5075000000.0 0.8743371870527498 -0.5033827776086656
5078000000.0 0.8412606033989232 -0.5596230974275229
5081000000.0 0.8415191687910307 -0.5225716993512942
5084000000.0 0.890308551318176 -0.5614781733782656
5088000000.0 0.8581461277558731 -0.5087616161826793
5091000000.0 0.8970414981540417 -0.5919733998420548
5094000000.0 0.9209144459518638 -0.5707033620515922
5097000000.0 0.9268450370844119 -0.5349639846575324
5100000000.0 0.8944233953149806 -0.5286348278088585
5103000000.0 0.9023564271235379 -0.5362183552799168
5106000000.0 0.9499993240935595 -0.537163030800704
5109000000.0 0.892772533371806 -0.5192496120300031
5112000000.0 0.8203193315943266 -0.5366049407459305
5116000000.0 0.8497692181142384 -0.555877028053342
5119000000.0 0.8949171008204995 -0.5425494999577476
5122000000.0 0.939534695094205 -0.5117073910382123
5125000000.0 0.8800992087834584 -0.5480507563445886
5128000000.0 0.8873215593084942 -0.5531175923491766
5131000000.0 0.8746555230452348 -0.5323915023386093
5134000000.0 0.8813924513163379 -0.5212201537731076
5138000000.0 0.8948622952622121 -0.5423872524189675
5141000000.0 0.9740577287674712 -0.4619750330737342
5144000000.0 0.9398485706142261 -0.4887843559904556
5147000000.0 0.8769664826259391 -0.5129483404076277
5150000000.0 0.8987294266050727 -0.4869973173453355
5153000000.0 0.8428670313946108 -0.5341675862621811
5156000000.0 0.9192303720066284 -0.5676133541216359
5159000000.0 0.915782694721401 -0.5498235556561748
5162000000.0 0.8356100376179214 -0.523189130374506
5166000000.0 0.8956293670433902 -0.5762736089799584
5169000000.0 0.8887432976029676 -0.5622956965500252
5172000000.0 0.8461885615119273 -0.5105316315996283
