! Created with skrf 1.8.0 (http://scikit-rf.org).
# Hz S RI R 50.0 
!freq ReS11 ImS11
4000000000.0 0.5475791164723387 -0.7956191322108388
4003000000.0 0.587293669876319 -0.8820333096971289
4006000000.0 0.4868204194222386 -0.8787397878090032
4009000000.0000005 0.5382768073518698 -0.8673429004558421
4011999999.9999995 0.6333277761137814 -0.8855651442913803
4016000000.0 0.5169782884080032 -0.8906395029793397
4019000000.0 0.5492892816923776 -0.8784332951922486
4022000000.0000005 0.6206909553174318 -0.7926607754106033
4025000000.0000005 0.5205205383228093 -0.9192994224548465
4027999999.9999995 0.5366690284583675 -0.9094593385858373
4030999999.9999995 0.5260981462032006 -0.8525378094506834
4034000000.0 0.5383523473578442 -0.8589826240827573
4038000000.0000005 0.564641776107752 -0.8939454147657215
4041000000.0000005 0.5894640745363251 -0.8553053485706437
4043999999.9999995 0.6228776925415329 -0.8889782461015134
4046999999.9999995 0.5950350629906274 -0.891597536212835
4050000000.0 0.554171298378924 -0.8762938619993371
4053000000.0 0.5277619380837193 -0.8745328128505996
4056000000.0 0.5734481157722988 -0.9021281294276041
4059000000.0 0.5565988941771315 -0.8138027905493793
4062000000.0000005 0.5177833113498986 -0.8845484201859856
4066000000.0 0.4870902598138148 -0.8321564631655374
4069000000.0 0.5265864295508382 -0.9232437634338586
4072000000.0 0.5733232204325378 -0.8540504808369527
4075000000.0 0.5957413366764459 -0.8556280088840267
4078000000.0000005 0.569003519064271 -0.8782340451692479
4081000000.0000005 0.5845535638308036 -0.8586410615721249
4083999999.9999995 0.5762490088763028 -0.8916382332964374
4088000000.0 0.581057785044207 -0.8393013296091787
4091000000.0 0.5726782595251989 -0.9000686911234662
4094000000.0000005 0.5495235683778349 -0.8890408817146516
4097000000.0000005 0.5145662314430065 -0.8627063296099464
4099999999.9999995 0.5173627742788064 -0.8629376939657063
4102999999.9999995 0.5839430655223099 -0.8448665184866393
4106000000.0 0.523529913358427 -0.8623343994670969
4109000000.0 0.5508964955966315 -0.8643841558683224
4112000000.0 0.5422204291710633 -0.84161744432798
4115999999.9999995 0.5820633168001389 -0.8680942985095997
4119000000.0 0.5600754102906098 -0.8730761821194992
4122000000.0 0.5397111987965953 -0.9176646676402872
4125000000.0 0.5292185214935735 -0.8960050698485593
4128000000.0 0.6003726206031645 -0.8442547623170609
4131000000.0 0.5741250229509172 -0.8427286424967831
4134000000.0000005 0.5415474069030181 -0.8528555097254555
4138000000.0 0.5181016259944731 -0.855708824394733
4141000000.0 0.5142424906122612 -0.8720186419024168
4144000000.0 0.5562316362162185 -0.8606322283605878
4147000000.0000005 0.5117036673202682 -0.8743711872632626
4150000000.0000005 0.5632783840408109 -0.8870551866704113
4152999999.9999995 0.5585767550970677 -0.8771144070914185
4155999999.9999995 0.566958995753218 -0.8920711130683799
4159000000.0 0.572074211001142 -0.8224868037173709
4162000000.0 0.540197642149424 -0.8503684432061851
4166000000.0000005 0.5585115949014683 -0.8517585906266794
4168999999.9999995 0.5413034755235802 -0.8651897777954703
4171999999.9999995 0.5659856210503488 -0.8629212620956629
4175000000.0 0.5601908863330166 -0.8589643772699666
4178000000.0 0.5374654078399792 -0.8683743974380517
4181000000.0 0.5587677321073593 -0.8627215585001392
4184000000.0 0.5618637037634729 -0.8754969486519733
4187999999.9999995 0.5379025942262611 -0.8553511523758698
4191000000.0 0.584743791005756 -0.8294014959037401
4194000000.0 0.5297154765666343 -0.8611297022165594
4197000000.0 0.5551861226640885 -0.8595328799598614
4200000000.0 0.5534512795432567 -0.8422132816265748
4203000000.0000005 0.5569479017930561 -0.8230249933050047
4206000000.0000005 0.5695017417994317 -0.8716181662267241
4208999999.9999995 0.5486348442234158 -0.8429008701831139
4211999999.9999995 0.5319431603507888 -0.8664799440112302
4216000000.0 0.5718357772344358 -0.8446411785365151
4219000000.0000005 0.5659279974221105 -0.8764667737933196
4222000000.0000005 0.5527218736596525 -0.8585811244547259
4224999999.9999995 0.5397334359645537 -0.8428891624283148
4227999999.9999995 0.5601250940323325 -0.8664257788087221
4231000000.0 0.5498764427816563 -0.8574670428851693
4234000000.0 0.543737040054427 -0.8713316513924478
4238000000.0000005 0.53044395242963 -0.8519158986508298
4240999999.9999995 0.5446530523315705 -0.8641992087704725
4244000000.0 0.5541012620469876 -0.8645244126082479
4247000000.0 0.5605127871561261 -0.8450037764015867
4250000000.0 0.528145064618382 -0.8530910902916856
4253000000.0 0.5458424828140619 -0.8297441234699522
4256000000.0 0.5629120939621797 -0.8744399341472145
4259000000.0000005 0.51512279651814 -0.8344478071667571
4261999999.9999995 0.5323546834719578 -0.8496197915328317
4266000000.0 0.5456255508305538 -0.8879674540245142
4269000000.0 0.5527402903435545 -0.8360933507922539
4272000000.0000005 0.5488523300872995 -0.8461010449631814
4275000000.0000005 0.5399326384443406 -0.8681014819522709
4277999999.9999995 0.5592896937624509 -0.8788546089911132
4280999999.9999995 0.5617144356765914 -0.8571980150278048
4284000000.0 0.5099469872124917 -0.8807691342042658
4288000000.0000005 0.5539052524526946 -0.8349417526334786
4291000000.0000005 0.5394564511830158 -0.806179957535041
4293999999.9999995 0.5233549313814577 -0.8413562125089425
4297000000.0 0.5659639651815795 -0.8174527217535112
4300000000.0 0.5577998677898914 -0.8519277823030484
4303000000.0 0.5057603340077205 -0.8503227482421932
4306000000.0 0.5937569922478688 -0.8383712682132082
4309000000.0 0.539112305695335 -0.8541535462905999
4312000000.0 0.5822923733183679 -0.8498194812900683
4316000000.0 0.558570806580588 -0.8237573307903255
4319000000.0 0.5597014256177415 -0.819499041530326
4322000000.0 0.5140156420508202 -0.8389279996937323
4325000000.0 0.555380941043504 -0.8209125798577549
4328000000.0 0.5227008679592473 -0.8424492239514626
4331000000.0 0.5565844914545126 -0.8712942223039795
4334000000.0 0.5459103108892361 -0.8447514104425828
4338000000.0 0.5695907854903789 -0.81253336765387
4341000000.0 0.5785110183069444 -0.8359960851218342
4344000000.0 0.5728104467114608 -0.8838870066935279
4347000000.0 0.5492671383305956 -0.8526724437871871
4350000000.0 0.5125774609648129 -0.8042435843052603
4353000000.0 0.546510881939147 -0.8368922872042018
4356000000.0 0.5234071918931098 -0.8695046271874611
4359000000.0 0.5323408247233552 -0.8232032210477523
4362000000.0 0.5024272466385268 -0.8818218372231429
4366000000.0 0.5467530790888835 -0.8717611921689695
4369000000.0 0.5160820018253962 -0.8494509339943094
4372000000.0 0.5061741031408965 -0.875220836287076
4375000000.0 0.5618677521950184 -0.8271045989774869
4378000000.0 0.5295658231094287 -0.8201974283086334
4381000000.0 0.5373655221509598 -0.8315119801968697
4384000000.0 0.5672442498000533 -0.9060320449009881
4388000000.0 0.5534293823410454 -0.829510516163048
4391000000.0 0.5316896824364631 -0.8446413642276154
4394000000.0 0.5200993718380555 -0.8227532334485181
4397000000.0 0.5352202434891078 -0.8469538003730382
4400000000.0 0.5410564337579465 -0.8760352580919378
4403000000.0 0.5492437405128192 -0.8666912760489154
4406000000.0 0.5218598838326158 -0.8617096936917796
4409000000.0 0.5509973046536861 -0.8812086489154665
4412000000.0 0.4964540915841654 -0.868742320398455
4416000000.0 0.5291079555334903 -0.8451107810648043
4419000000.0 0.5114496462294787 -0.8657970716423514
4422000000.0 0.5541379539814738 -0.8448010992092224
4425000000.0 0.576138847388681 -0.8663592220617784
4428000000.0 0.5281167966405675 -0.8550679609639081
4431000000.0 0.5571531876471131 -0.8730078425641505
4434000000.0 0.5223598429260854 -0.8575416600183967
4438000000.0 0.5472243713446654 -0.8652587751828559
4441000000.0 0.5556396081313184 -0.862513435410183
4444000000.0 0.5351956347323243 -0.840747253978511
4447000000.0 0.5178219979621886 -0.862895230701788
4450000000.0 0.5364837545313315 -0.8333642668914805
4453000000.0 0.554771294857668 -0.8718309984199452
4456000000.0 0.5091980004537093 -0.8449604432191877
4459000000.0 0.4884083953299555 -0.8346941435890005
4462000000.0 0.5567873679697337 -0.8972835945581232
4466000000.0 0.5463716363599571 -0.8958463325828597
4469000000.0 0.5423055361325868 -0.843519041323878
4472000000.0 0.5257058502149019 -0.897652325820683
4475000000.0 0.5211331688384098 -0.8256553954288236
4478000000.0 0.546791984740534 -0.9083771523479314
4481000000.0 0.5022525683245869 -0.8427758058843352
4484000000.0 0.4868783632419317 -0.8717025283693105
4488000000.0 0.5079814529684877 -0.8583418989145626
4491000000.0 0.5233398658701525 -0.8758410480575947
4494000000.0 0.5260795251273603 -0.852535032727539
4497000000.0 0.5280612496273726 -0.8556678450542688
4500000000.0 0.5310042696335788 -0.8597549909549356
4503000000.0 0.5303184553617909 -0.8734105996319477
4506000000.0 0.5186908732200786 -0.8551048749205062
4509000000.0 0.5387784128035272 -0.8556157411804004
4512000000.0 0.5072696656376067 -0.8637443616279075
4516000000.0 0.5467572202824911 -0.8557028303786892
4519000000.0 0.518422940083472 -0.8367099975476447
4522000000.0 0.5143941968681465 -0.855069025053476
4525000000.0 0.5563401254955969 -0.8376610035598052
4528000000.0 0.5478497009102121 -0.8737820148240314
4531000000.0 0.5281061047229425 -0.8581797660040754
4534000000.0 0.4996561385369444 -0.8468488203630571
4538000000.0 0.5328402175952963 -0.8674851249110576
4541000000.0 0.4896803548985751 -0.8759656968990746
4544000000.0 0.513874628160885 -0.843724922296252
4547000000.0 0.5324188264076517 -0.8421370337790526
4550000000.0 0.5083600978317075 -0.871259221007039
4553000000.0 0.5250845437383659 -0.858129908106257
4556000000.0 0.49999651603761747 -0.8489832369922699
4559000000.0 0.5124450743731204 -0.8568827330559391
4562000000.0 0.5215013623757794 -0.8612498601522488
4566000000.0 0.5070339050247191 -0.8743993184087201
4569000000.0 0.512528219162098 -0.8615623634566418
4572000000.0 0.5168046023452013 -0.856471219689585
4575000000.0 0.5085501970571018 -0.8698512764014423
4578000000.0 0.5487791524289689 -0.8886592628014456
4581000000.0 0.5036328075290928 -0.8690841723535985
4584000000.0 0.5171122773308174 -0.8656668481153698
4588000000.0 0.5298492376642239 -0.8759896097277178
4591000000.0 0.5369791893118053 -0.8501442798180149
4594000000.0 0.49080499436821584 -0.8697120879781876
4597000000.0 0.5184331237919186 -0.8872725848212488
4600000000.0 0.4893153114336926 -0.8635463484730441
4603000000.0 0.4923497478538321 -0.8750541269536476
4606000000.0 0.5115162057678427 -0.8861615491932213
4609000000.0 0.5106661395955747 -0.8653654065745263
4612000000.0 0.5078601444733719 -0.8769707641754935
4616000000.0 0.5021994143843558 -0.8760667754467525
4619000000.0 0.519612794079268 -0.869919962827403
4622000000.0 0.49955113916012295 -0.868569910696247
4625000000.0 0.47151677225664457 -0.8557143634316505
4628000000.0 0.517076876028999 -0.8534110884386553
4631000000.0 0.4773297449467321 -0.8703391380899393
4634000000.0 0.5033473321682431 -0.8666806866374605
4638000000.0 0.49741298364218844 -0.864108262804828
4641000000.0 0.5035817776315501 -0.883375901846317
4644000000.0 0.4948231942577984 -0.8770526850770911
4647000000.0 0.5259263406602424 -0.8893834782153448
4650000000.0 0.49263803470675016 -0.8802678346728247
4653000000.0 0.5047252759342568 -0.8831339680926343
4656000000.0 0.48958685611474817 -0.8729855271240328
4659000000.0 0.49111195802611474 -0.8721583891441994
4662000000.0 0.5015836732377242 -0.8844042391424838
4666000000.0 0.4769461637816709 -0.8845979767175094
4669000000.0 0.5055568347937576 -0.8855111985411868
4672000000.0 0.4896164799005258 -0.90343408400955
4675000000.0 0.48028323353852986 -0.9036275114623945
4678000000.0 0.4977663411521455 -0.8639363408941567
4681000000.0 0.4780137676995895 -0.8855478559716332
4684000000.0 0.47396367806879897 -0.914100566055364
4688000000.0 0.498756049657937 -0.8846539847417062
4691000000.0 0.5187980102394636 -0.8751769150964985
4694000000.0 0.5246176503951133 -0.853525116810945
4697000000.0 0.4819378755210315 -0.8384041958135956
4700000000.0 0.5093536351999508 -0.8733640462607656
4703000000.0 0.5054461362551963 -0.8365244668089422
4706000000.0 0.4832168700293498 -0.8973083668085816
4709000000.0 0.4713654835147956 -0.8747135279093403
4712000000.0 0.4940566199045241 -0.9027218293340568
4716000000.0 0.48960207196532834 -0.8733053024685585
4719000000.0 0.5136444585284005 -0.8937324489217234
4722000000.0 0.49983350615416683 -0.8591501250742275
4725000000.0 0.5223881707461786 -0.8612470844413606
4728000000.0 0.48577092289707957 -0.8714953974622678
4731000000.0 0.5235177920153489 -0.9022168930879045
4734000000.0 0.5178074446644132 -0.8767259466167105
4738000000.0 0.5316653367929911 -0.9058801753220608
4741000000.0 0.5079677806712248 -0.9023582021426219
4744000000.0 0.49618126070005497 -0.9260632718479871
4747000000.0 0.5003222751904075 -0.8515639372644108
4750000000.0 0.4981576085199076 -0.8961187083275017
4753000000.0 0.49182502465719663 -0.8840768700304503
4756000000.0 0.49570307476641373 -0.8968709242430019
4759000000.0 0.5168370449641628 -0.9064951290769548
4762000000.0 0.4817839654160942 -0.9239936353299258
4766000000.0 0.4764850578184391 -0.8868272033007131
4769000000.0 0.505381305592088 -0.8582862179443127
4772000000.0 0.48064496542226653 -0.906314553946773
4775000000.0 0.48685920591716036 -0.937754379880263
4778000000.0 0.4832351787424376 -0.9150261321268515
4781000000.0 0.5033405565266256 -0.8770376995161709
4784000000.0 0.5134015212813232 -0.8524374074140019
4788000000.0 0.4929198659398819 -0.9005514074487481
4791000000.0 0.501337370170378 -0.897327237618804
4794000000.0 0.5401454963649617 -0.8992718151569599
4797000000.0 0.4864387564962229 -0.8421754295686513
4800000000.0 0.47364465454075666 -0.85648442272094
4803000000.0 0.4687164290633631 -0.900324513348445
4806000000.0 0.5112129876959628 -0.905080753274628
4809000000.0 0.4515424944496724 -0.9014354585356859
4812000000.0 0.4515008261230208 -0.8942582581907651
4816000000.0 0.4977997172008847 -0.8491914545252491
4819000000.0 0.5409474896701093 -0.901871615629849
4822000000.0 0.550727419328755 -0.9112537540969974
4825000000.0 0.5441195441479314 -0.8948838117017321
4828000000.0 0.49694869618591814 -0.872984448719145
4831000000.0 0.465964695567999 -0.9372832894715751
4834000000.0 0.5016243301315675 -0.8786073218227205
4838000000.0 0.5222126462772021 -0.9099544438342889
4841000000.0 0.4705710989764609 -0.8866376393758852
4844000000.0 0.5156714530591818 -0.8852929843944186
4847000000.0 0.4905584411390467 -0.8432975815209465
4850000000.0 0.48891402687331986 -0.9120765717415175
4853000000.0 0.49725590726443536 -0.8679941080659521
4856000000.0 0.468930154651047 -0.8786822213416913
4859000000.0 0.515090961177918 -0.9246211138188338
4862000000.0 0.526154029565794 -0.8742871106788774
4866000000.0 0.49861486631398483 -0.935088307793118
4869000000.0 0.49028865188746673 -0.899218583184267
4872000000.0 0.5040360500570588 -0.9174260114911945
4875000000.0 0.5613189431173518 -0.9000088700134862
4878000000.0 0.5026326804166497 -0.8815287148567543
4881000000.0 0.48719536178391 -0.9630463392060858
4884000000.0 0.5159939266426846 -0.8872391232984703
4888000000.0 0.5233047786387183 -0.885348626795216
4891000000.0 0.5404742159897261 -0.9078428456755858
4894000000.0 0.48619186332077946 -0.8911677476893677
4897000000.0 0.5204602578943798 -0.8652569723155097
4900000000.0 0.5285238841251889 -0.8954063316692231
4903000000.0 0.5188646809456612 -0.9079298232942309
4906000000.0 0.4830825459838423 -0.9150141576702843
4909000000.0 0.48091331638139034 -0.9309583118156628
4912000000.0 0.5191927263986936 -0.9407559856223019
4916000000.0 0.5504295669071346 -0.9155281880378381
4919000000.0 0.5519639687659936 -0.9056524201954338
4922000000.0 0.5068110160379677 -0.8964207823085365
4925000000.0 0.4642440247308143 -0.917641062493447
4928000000.0 0.5625980831772825 -0.8458530790235818
4931000000.0 0.5381061394178127 -0.8957834281615206
4934000000.0 0.47254771589225003 -0.8260888014165588
4938000000.0 0.45943184430310074 -0.9264058414305545
4941000000.0 0.5109593603927208 -0.8707055031498373
4944000000.0 0.4946901976289868 -0.8537672854345664
4947000000.0 0.49796677500053177 -0.8653713491094405
4950000000.0 0.47557972250565905 -0.8806322489858603
4953000000.0 0.4480916838697748 -0.9625409499838228
4956000000.0 0.5197263476097673 -0.912041579048373
4959000000.0 0.44283702467013036 -0.876887109558165
4962000000.0 0.5252894937002249 -0.9009493261236289
4966000000.0 0.5562839306512333 -0.9311641509575791
4969000000.0 0.5648563576190881 -0.9011980299026122
4972000000.0 0.5167044541078931 -0.9034949853647556
4975000000.0 0.5232605699649826 -0.8478441475055423
4978000000.0 0.5289133741332719 -0.9155621527658262
4981000000.0 0.49896805483551326 -0.868434107918874
4984000000.0 0.49530005558620427 -0.8824039644611038
4988000000.0 0.542445870605665 -0.8801755252869959
4991000000.0 0.6038542792135837 -0.880134877302057
4994000000.0 0.521954110494764 -0.8649886475428563
4997000000.0 0.4854796151383758 -0.9334119311191589
5000000000.0 0.5436214622111154 -0.9054874995566333
5003000000.0 0.5547274373104588 -0.9237314964392614
5006000000.0 0.53819281545204 -0.9364344411849009
5009000000.0 0.5377501794793539 -0.8979451679753329
5012000000.0 0.5025884496372859 -0.894251890688308
5016000000.0 0.5403094425438032 -0.8926593669198677
5019000000.0 0.5061666551335541 -0.8829589751558117
5022000000.0 0.5451265417086903 -0.8874363190032806
5025000000.0 0.5582141631423801 -0.9379754393404345
5028000000.0 0.5092332284281238 -0.9064904839963295
5031000000.0 0.5127512823154803 -0.8740031997767905
5034000000.0 0.4952696618856063 -0.9451818765446054
5038000000.0 0.47190103451259563 -0.8817302579599708
5041000000.0 0.5427819749266731 -0.868120768167717
5044000000.0 0.5389920822402198 -0.8500051481214234
5047000000.0 0.5289935770258427 -0.8949007476739828
5050000000.0 0.5984368036863248 -0.8434099641444559
5053000000.0 0.5350705298831284 -0.8970544056755154
5056000000.0 0.5802926036217434 -0.8689800595671935
5059000000.0 0.5768131078683423 -0.8656698430146401
5062000000.0 0.49186568569787303 -0.9463805967851795
5066000000.0 0.5479248960685454 -0.8665196604050036
5069000000.0 0.5436442488698299 -0.9145731451677837
5072000000.0 0.5221804208024179 -0.8557032171251329
5075000000.0 0.5708760811919787 -0.8639501612800493
5078000000.0 0.5121800163042514 -0.918857305906828
5081000000.0 0.507444902223381 -0.9051918147784462
5084000000.0 0.53218437850562 -0.905990309064931
5088000000.0 0.5684661163428147 -0.8467156150457591
5091000000.0 0.4875199414750092 -0.9084836495863798
5094000000.0 0.5504315874686205 -0.8804172005044466
5097000000.0 0.5412711590838867 -0.863053496851834
5100000000.0 0.5201829859756472 -0.8724619764804873
5103000000.0 0.5339102670858021 -0.9077071302237882
5106000000.0 0.5497022461747687 -0.9061294119864041
5109000000.0 0.597634642673222 -0.8897210197497536
5112000000.0 0.5191318179744716 -0.8683520280661765
5116000000.0 0.4830442452190179 -0.8285079679326239
5119000000.0 0.5569881180572224 -0.9207093936023081
5122000000.0 0.5952794338995179 -0.8609268333368187
5125000000.0 0.5755227452292764 -0.8345465677794781
5128000000.0 0.5083853166878431 -0.8832402561393434
5131000000.0 0.5823093059579811 -0.8881175368129084
5134000000.0 0.5563877216424216 -0.869751260600441
5138000000.0 0.565677328636446 -0.8396403273158515
5141000000.0 0.6002331573122572 -0.8671216381619946
5144000000.0 0.5607048589690458 -0.8516418043548494
5147000000.0 0.5151519602636638 -0.8910503468765506
5150000000.0 0.6225871672512361 -0.8923443315714269
5153000000.0 0.5430526563111404 -0.8953068120572805
5156000000.0 0.561092495747733 -0.9291270533537742
5159000000.0 0.6002346967003308 -0.8728448992234672
5162000000.0 0.531158567731207 -0.8787257125011607
5166000000.0 0.5285408068348076 -0.922111386411399
5169000000.0 0.5643923383551087 -0.9199039910012718
5172000000.0 0.5782665889000349 -0.8127207050514
5175000000.0 0.5947645115305 -0.915410331627621
5178000000.0 0.5551480040359511 -0.9026228817114366
