! Created with skrf 1.8.0 (http://scikit-rf.org).
# Hz S RI R 50.0 
!freq ReS11 ImS11
4000000000.0 0.11046330266293225 -1.0037644422593877
4003000000.0 0.10706360721582003 -1.0471193800218546
4006000000.0 0.09924609535046902 -1.0240820496012317
4009000000.0000005 0.10151055627496725 -1.0349978159637099
4011999999.9999995 0.19801663122405982 -1.0366760238073314
4016000000.0 0.05091533263209658 -1.0376585725034442
4019000000.0 0.10497495547817154 -0.98914775063642
4022000000.0000005 0.1384298138414134 -1.0698831916063043
4025000000.0000005 0.0638464968601134 -1.007731464300771
4027999999.9999995 0.06373623931821581 -1.0581656785685367
4030999999.9999995 0.07497410033865418 -0.9651880506351145
4034000000.0 0.07747939370090323 -0.9893361852010156
4038000000.0000005 0.08289398599658074 -1.0217341965027082
4041000000.0000005 0.1108907475587235 -1.0048577773736769
4043999999.9999995 0.10190104346596066 -1.0580170885291822
4046999999.9999995 0.08136217069809706 -1.05421597615649
4050000000.0 0.09311363192221908 -1.035913519906009
4053000000.0 0.07051184485273787 -0.9932745870691119
4056000000.0 0.10110478129042252 -1.0292549213244981
4059000000.0 0.0649938636223753 -1.0106906165156468
4062000000.0000005 0.032171515765600206 -1.0302108347503187
4066000000.0 0.053689274536748016 -0.9812613732739313
4069000000.0 0.0503950643494942 -1.0514975309764052
4072000000.0 0.04949046692197781 -1.001693642643578
4075000000.0 0.03860249380979763 -1.0588648129774891
4078000000.0000005 0.04034872187727437 -1.0218079903531994
4081000000.0000005 0.05777810978637268 -1.0285609072573119
4083999999.9999995 0.008349515859692666 -1.0040909993425655
4088000000.0 0.08199925337952026 -1.0416710140483059
4091000000.0 0.07248163193433488 -1.0471312887204358
4094000000.0000005 0.07414582344135207 -1.0000434627722294
4097000000.0000005 0.060860255444754444 -1.0463578501672004
4099999999.9999995 0.016399086983513125 -1.0039156004822996
4102999999.9999995 0.03701036626961522 -1.016762665366606
4106000000.0 0.0033076314002854212 -1.0271325500389261
4109000000.0 0.0034549198876703408 -1.0420706605899357
4112000000.0 0.010925292702924236 -1.028103933520901
4115999999.9999995 0.026804924273351814 -1.0170893716704914
4119000000.0 0.030816116631711427 -1.031021732720389
4122000000.0 -0.02516797311480512 -1.0000484945347072
4125000000.0 -0.01518852931763456 -1.0137904747416857
4128000000.0 0.003655160441942923 -0.9803304721248561
4131000000.0 -0.014643206296016703 -1.0070224990035743
4134000000.0000005 -0.007320793550590865 -1.014543964621284
4138000000.0 -0.0165702005917431 -1.0019088602830784
4141000000.0 -0.01819778711260958 -0.9984105772947893
4144000000.0 -0.012793077155374928 -1.0328542988168832
4147000000.0000005 -0.06933322227489105 -1.0430225156940711
4150000000.0000005 -0.07611899528352917 -1.0329735696925946
4152999999.9999995 -0.0330361644677894 -1.0058687301209641
4155999999.9999995 -0.0107450415898898 -1.0239039748178624
4159000000.0 -0.037528876777346454 -0.9799442078453827
4162000000.0 -0.047613629875799326 -1.010535161017397
4166000000.0000005 -0.06398307698066844 -1.0498742663076948
4168999999.9999995 -0.08374119585745006 -0.9963056078593759
4171999999.9999995 -0.07415200887447865 -1.0099750169048582
4175000000.0 -0.06672317821179619 -1.030987495595481
4178000000.0 -0.06169340946853674 -1.0196958960428166
4181000000.0 -0.10875503863045813 -0.98095962262625
4184000000.0 -0.05828017626909751 -0.970973625781829
4187999999.9999995 -0.0886489154473111 -0.9945213439118968
4191000000.0 -0.06732411273491853 -1.0103369081111977
4194000000.0 -0.08872925535168871 -1.0037658649808414
4197000000.0 -0.10094570451616969 -1.0281375430776716
4200000000.0 -0.0787250260494051 -1.0158128896020564
4203000000.0000005 -0.08765234138808967 -1.0453840951366487
4206000000.0000005 -0.087157405833619 -1.0273836638373064
4208999999.9999995 -0.12695998691465293 -0.9804209675576006
4211999999.9999995 -0.15783266478594207 -1.0086785101505473
4216000000.0 -0.09412883508813596 -1.0293407217227302
4219000000.0000005 -0.1192707637379134 -1.024980294998214
4222000000.0000005 -0.12962272231258415 -0.9779178013478247
4224999999.9999995 -0.1489137552274697 -0.995158521367318
4227999999.9999995 -0.16253559232217504 -1.00233280982479
4231000000.0 -0.17107816422271727 -1.0141451271470356
4234000000.0 -0.183214701579563 -1.0059476597119452
4238000000.0000005 -0.19340515111313894 -0.9883501242537682
4240999999.9999995 -0.19640874435853745 -0.9705863655655573
4244000000.0 -0.19144136598267986 -0.9701230072455553
4247000000.0 -0.18355490580169304 -0.9962145005999865
4250000000.0 -0.20287657931906394 -0.9595027418668824
4253000000.0 -0.1960198733899749 -0.9632747146053573
4256000000.0 -0.2094674396506369 -1.0347238595846289
4259000000.0000005 -0.20467634015647423 -0.9565761785535891
4261999999.9999995 -0.21515192134347533 -0.9762367759906371
4266000000.0 -0.2567403739860696 -1.0081478225539982
4269000000.0 -0.21503647807524257 -0.963365350840621
4272000000.0000005 -0.20585547542578642 -0.9538776694002868
4275000000.0000005 -0.22173780686280725 -0.9930154352388406
4277999999.9999995 -0.257361247775806 -0.9957485645388571
4280999999.9999995 -0.25100012495849755 -0.991775158303375
4284000000.0 -0.30297561000200646 -0.9472176680691478
4288000000.0000005 -0.23316770789086627 -0.9619790070396391
4291000000.0000005 -0.25884479448131426 -0.9468114657241808
4293999999.9999995 -0.28186694169065857 -0.9622870544254034
4297000000.0 -0.2601594587740666 -0.9605440316462985
4300000000.0 -0.24414370016913733 -0.9487357722192764
4303000000.0 -0.28808398292356463 -0.9566958314727187
4306000000.0 -0.2871809566631312 -0.9740756980282501
4309000000.0 -0.2864503266899957 -0.9612641920477194
4312000000.0 -0.3086436992856662 -0.9877339475135054
4316000000.0 -0.29888873989023756 -0.9590269605710835
4319000000.0 -0.29114348380969685 -0.9415395624736431
4322000000.0 -0.35331673270454894 -0.9406136667456166
4325000000.0 -0.3440995637626161 -0.9528447489464463
4328000000.0 -0.32664827038096317 -0.9217010163680048
4331000000.0 -0.3789268148656412 -0.941736615480774
4334000000.0 -0.36826763716616995 -0.9333137749234884
4338000000.0 -0.37101272087248327 -0.9350928924879711
4341000000.0 -0.36674340528207783 -0.9622251895063381
4344000000.0 -0.37597747564224887 -0.9409189247783698
4347000000.0 -0.430314479132307 -0.9272230529853982
4350000000.0 -0.4060038927396554 -0.8878031906669241
4353000000.0 -0.3874351147816801 -0.9240190965511759
4356000000.0 -0.43432528020250133 -0.8980904671038386
4359000000.0 -0.42534035690878313 -0.8892553206275885
4362000000.0 -0.4713709422108655 -0.8924640425884449
4366000000.0 -0.4641932160559394 -0.9225281695542475
4369000000.0 -0.43965954173960514 -0.8805326365670206
4372000000.0 -0.47274637989684054 -0.8860023555616559
4375000000.0 -0.4528792941302765 -0.8921626560936428
4378000000.0 -0.4775124463431861 -0.8624746286695177
4381000000.0 -0.4869964014186643 -0.8612594933313971
4384000000.0 -0.5253988918914461 -0.9087585147830338
4388000000.0 -0.5009410006961368 -0.8786786732053111
4391000000.0 -0.5153133066598741 -0.8787497874102673
4394000000.0 -0.5364322848796271 -0.8621320684574523
4397000000.0 -0.5417495077388501 -0.8596986279589423
4400000000.0 -0.5616965618696267 -0.851645609731628
4403000000.0 -0.5544693601129443 -0.8547319193001612
4406000000.0 -0.5619665308753596 -0.8379921438887291
4409000000.0 -0.5802499650801369 -0.8381774146659656
4412000000.0 -0.5962176621595626 -0.8181644402297086
4416000000.0 -0.5789104707563328 -0.837585411671677
4419000000.0 -0.6005179895940304 -0.841720450746578
4422000000.0 -0.6012695666120723 -0.8367175067562778
4425000000.0 -0.6070800648195036 -0.8079929678019092
4428000000.0 -0.6393129249656159 -0.7944191476168876
4431000000.0 -0.6458955150845038 -0.8039204142679899
4434000000.0 -0.6559129048981264 -0.7926929881626474
4438000000.0 -0.6387861052909178 -0.776245806264519
4441000000.0 -0.686218180194788 -0.7680367731671536
4444000000.0 -0.6652714510641765 -0.7714176796488067
4447000000.0 -0.6879583247609047 -0.7695445855539618
4450000000.0 -0.6951431500722756 -0.7439411052961138
4453000000.0 -0.6797716978514866 -0.7317443290295476
4456000000.0 -0.7061942547484484 -0.7525810461273506
4459000000.0 -0.7416906177187512 -0.7735831690288462
4462000000.0 -0.7288094162861148 -0.6983883853822285
4466000000.0 -0.7319803753721682 -0.7425785961089857
4469000000.0 -0.7632378565280405 -0.7028410967419946
4472000000.0 -0.7410451446765998 -0.6507166449070628
4475000000.0 -0.7987942037317334 -0.6866118626433667
4478000000.0 -0.7203309065108219 -0.6562099438054444
4481000000.0 -0.7799599080972262 -0.6833818835523925
4484000000.0 -0.7960279594844841 -0.650844266253145
4488000000.0 -0.8493621803091831 -0.6324769551320006
4491000000.0 -0.8354448609503345 -0.6609266016910648
4494000000.0 -0.7891578616718131 -0.6193719486916849
4497000000.0 -0.839037282836089 -0.6279022541056607
4500000000.0 -0.8562225116350175 -0.5888801769556773
4503000000.0 -0.8626837536359746 -0.5640200765035439
4506000000.0 -0.868695392438879 -0.5662110371197171
4509000000.0 -0.8700189801909224 -0.5127640706166483
4512000000.0 -0.8610461391119448 -0.523999669682055
4516000000.0 -0.9239616158298466 -0.5120674346508203
4519000000.0 -0.8784131835667499 -0.4982361743853448
4522000000.0 -0.8735933705211935 -0.5206706281692346
4525000000.0 -0.9588797187369478 -0.48198002623099323
4528000000.0 -0.9131116063826357 -0.4769091214767261
4531000000.0 -0.9377949407350864 -0.4181575985226753
4534000000.0 -0.9830710604003917 -0.4151242714568209
4538000000.0 -0.9684593507974582 -0.4043294107683889
4541000000.0 -0.9355752409283824 -0.3919594433884785
4544000000.0 -0.9689736394472364 -0.4034844997103301
4547000000.0 -0.9703064392097818 -0.35997918981821503
4550000000.0 -0.9725773606380688 -0.3781124480006023
4553000000.0 -0.975811248783588 -0.3059822380343651
4556000000.0 -1.0179892187275172 -0.33582198734308844
4559000000.0 -0.9599144743375532 -0.3344195513116595
4562000000.0 -0.9814048041450592 -0.25663635870998686
4566000000.0 -0.99820833593897 -0.27405618120388475
4569000000.0 -1.0481621126943172 -0.26075427917143723
4572000000.0 -0.9994959419216399 -0.19771820981551969
4575000000.0 -0.9563408681637848 -0.2096854196328829
4578000000.0 -0.980714764382473 -0.20094023995874022
4581000000.0 -0.9987058366852423 -0.16631472684058662
4584000000.0 -1.0663260188988277 -0.12343178048133402
4588000000.0 -0.995705585623685 -0.09357888412187809
4591000000.0 -1.04714105919959 -0.058658357488369006
4594000000.0 -1.0270827849674908 -0.09291525805515155
4597000000.0 -1.0404630606145386 -0.061280225608440486
4600000000.0 -1.086501097334489 -0.08506020294246669
4603000000.0 -0.999816635113391 -0.03310142962482576
4606000000.0 -1.0758862647112373 -0.014996023626803745
4609000000.0 -1.0204312422871014 -0.009882629489573302
4612000000.0 -0.9782045888374262 0.04915637669480269
4616000000.0 -1.0039475790165986 0.07071831649432905
4619000000.0 -1.0252641041751036 0.12424997804175997
4622000000.0 -1.0253761735788014 0.210129370998519
4625000000.0 -1.0989057995973819 0.15297480679170095
4628000000.0 -1.1628240416805906 0.19020631924039422
4631000000.0 -1.0747673797598252 0.16188037167125977
4634000000.0 -1.0321668297940716 0.23705383849024983
4638000000.0 -1.040004589937048 0.2558687318413859
4641000000.0 -0.9910631761055569 0.2607574241490334
4644000000.0 -1.0093895299904563 0.2619833590506089
4647000000.0 -0.9731474104231164 0.26177267378500757
4650000000.0 -0.9408075343036119 0.3136250133488828
4653000000.0 -0.9393806150508996 0.3715659748040337
4656000000.0 -1.0411457540822027 0.35493757415341554
4659000000.0 -0.9588956953664148 0.4085792513965284
4662000000.0 -0.9543689474013978 0.3926995985941038
4666000000.0 -0.957843102096094 0.5340117845878972
4669000000.0 -0.9316391130028011 0.46684171645494515
4672000000.0 -0.9750585855914748 0.5368347597585932
4675000000.0 -0.9395732714264006 0.5068199825478668
4678000000.0 -0.8833998211205295 0.4841216057662823
4681000000.0 -0.8567750201741233 0.5706728165073854
4684000000.0 -0.8612874766097176 0.6071229645334512
4688000000.0 -0.8993088790133269 0.597106292986243
4691000000.0 -0.8251683375056178 0.5927156361163238
4694000000.0 -0.7970597449222792 0.6053451374303493
4697000000.0 -0.7729123146832814 0.6186720138256674
4700000000.0 -0.7932149425794273 0.6674805648488122
4703000000.0 -0.7618485902739377 0.6685608758468465
4706000000.0 -0.7800901705587604 0.6455641312769874
4709000000.0 -0.7421494816585955 0.7240404699226081
4712000000.0 -0.7274131306340015 0.6875445504135542
4716000000.0 -0.6952162064173133 0.782201163579929
4719000000.0 -0.7453308660640746 0.7644317025630631
4722000000.0 -0.6560953840616722 0.8429114645429315
4725000000.0 -0.6006065006889616 0.8274437113606563
4728000000.0 -0.619946389104917 0.8957487334478992
4731000000.0 -0.5924034161136363 0.8591744668307726
4734000000.0 -0.595390046241057 0.8691477877439967
4738000000.0 -0.554128566095554 0.8597972521049506
4741000000.0 -0.540838188687548 0.8671646938400169
4744000000.0 -0.4884587620817905 0.8761813393291782
4747000000.0 -0.49215328529051594 0.9389193164989842
4750000000.0 -0.42661052283162515 0.8805343867241893
4753000000.0 -0.43803118094041466 0.9477360494312591
4756000000.0 -0.3853036777038295 0.9374176397638352
4759000000.0 -0.38841826478276964 0.9741652025366301
4762000000.0 -0.40915918631136405 0.955980273284717
4766000000.0 -0.3012269401100514 0.9485288047921481
4769000000.0 -0.32228102147665294 1.0134150983063777
4772000000.0 -0.26055149268639916 0.9968621701753003
4775000000.0 -0.2692519132201396 0.9719576039750014
4778000000.0 -0.2622131736497846 0.9579950395792542
4781000000.0 -0.2161412272624761 1.0225464408155573
4784000000.0 -0.18354356400624758 1.0159895879987295
4788000000.0 -0.20161865111866067 0.9810350478606106
4791000000.0 -0.12408803856758899 1.0457526496207923
4794000000.0 -0.10461264587479355 0.9594960657357336
4797000000.0 -0.09122819532551317 1.0452379660279771
4800000000.0 -0.03667243366485609 1.0524442768348892
4803000000.0 -0.09660964437248251 1.0126542988100653
4806000000.0 -0.006261518125251608 1.0115392895598452
4809000000.0 -0.027580189460391008 1.0086406717454304
4812000000.0 -0.004142809100031203 1.0374039630012675
4816000000.0 0.0917550796666447 1.0139425895262606
4819000000.0 0.14259792578798278 0.9689942361592659
4822000000.0 0.12989844872566042 0.9995754965975587
4825000000.0 0.1438005664366196 0.9818241233995242
4828000000.0 0.1813970257600634 1.0209140542649522
4831000000.0 0.14705498281658952 0.9869452356821039
4834000000.0 0.25060345737386164 0.9517570354786387
4838000000.0 0.23819681183520058 0.9842502352844326
4841000000.0 0.26209216078994585 0.9985466709424506
4844000000.0 0.31176491712473153 0.9701181437691728
4847000000.0 0.3312814597313035 1.0172460432828898
4850000000.0 0.30699325075377426 0.9749977069302751
4853000000.0 0.3750301516076666 0.9698381887455003
4856000000.0 0.36614781135959235 0.9754395583265958
4859000000.0 0.3710895663907301 0.8947015644604556
4862000000.0 0.41111046805651114 0.9540154139684902
4866000000.0 0.37062167099502724 0.9292550562960865
4869000000.0 0.4019634195291008 0.9370580444214776
4872000000.0 0.40238420461596336 0.8833674244932007
4875000000.0 0.49680369034036653 0.8795923091642142
4878000000.0 0.5084968048873572 0.8866977564767048
4881000000.0 0.4303584398950895 0.8336475581851023
4884000000.0 0.5062413581498599 0.8705182856238249
4888000000.0 0.5467264471801179 0.8644827552237744
4891000000.0 0.5413108393219923 0.8191453724514433
4894000000.0 0.5600127242666157 0.8255282107402615
4897000000.0 0.5803800795798941 0.8273876773999713
4900000000.0 0.6166742065716523 0.7733986122461676
4903000000.0 0.6230016306273836 0.8156184269569652
4906000000.0 0.6119062926325145 0.8035904962305467
4909000000.0 0.6329685003342262 0.776225485473212
4912000000.0 0.6464795187382393 0.7333165358818272
4916000000.0 0.6600578788787751 0.7497881074592516
4919000000.0 0.6832198523986293 0.7277087247509766
4922000000.0 0.6738544452596116 0.727376088878398
4925000000.0 0.6758303853051566 0.7320133232760622
4928000000.0 0.7181284743924276 0.7117454960246703
4931000000.0 0.7166715268179 0.7187401729435577
4934000000.0 0.7233321335315582 0.6889193593754038
4938000000.0 0.7439224093684436 0.7008123425887083
4941000000.0 0.7564113351911322 0.6604575064089783
4944000000.0 0.7801529654445689 0.6788536158573999
4947000000.0 0.7546289912446236 0.6585135263932361
4950000000.0 0.7978278078793128 0.6317838588246237
4953000000.0 0.7801399908640316 0.6249171211638859
4956000000.0 0.8089062096204824 0.6189091698517992
4959000000.0 0.8298209657373016 0.6131651275412832
4962000000.0 0.8203528507218874 0.5795293079103931
4966000000.0 0.8283377276528723 0.5738244306060685
4969000000.0 0.8286028522627956 0.5669190876923133
4972000000.0 0.8716045986076137 0.5594862873062769
4975000000.0 0.8363563439675658 0.5353768797078532
4978000000.0 0.8339893260006416 0.5515743880987943
4981000000.0 0.8250825650288056 0.5248027524326836
4984000000.0 0.8634838030497249 0.5183111151161468
4988000000.0 0.8641076850714556 0.5027963872625678
4991000000.0 0.8844552482224033 0.533924407800911
4994000000.0 0.8763023221769987 0.4964206223195598
4997000000.0 0.8880379695857595 0.48867662078087604
5000000000.0 0.9087294691265916 0.46553891183238777
5003000000.0 0.9009826197074295 0.4758002501413134
5006000000.0 0.9242468842284881 0.425203181264082
5009000000.0 0.9088359749310662 0.45310992405098116
5012000000.0 0.9028982267431437 0.4146592933656253
5016000000.0 0.9428323283816198 0.4379872944456014
5019000000.0 0.9200022633656132 0.38654368071375955
5022000000.0 0.9330870012745367 0.41409491294186085
5025000000.0 0.9703158566459701 0.43692846920588285
5028000000.0 0.9766569602980304 0.34278506016743626
5031000000.0 0.9274952598810913 0.35521968392270553
5034000000.0 0.9849210384206017 0.33641605674310626
5038000000.0 0.9340168210450078 0.3261065419695257
5041000000.0 0.9344973450134786 0.3800009114149606
5044000000.0 0.9158505484506902 0.3463010294326527
5047000000.0 0.9789160077823815 0.3610114113082349
5050000000.0 0.9418286688392306 0.39844982244465604
5053000000.0 0.9739679139719255 0.3163951827460502
5056000000.0 0.9409571272216218 0.33426212408525374
5059000000.0 0.9614056855392282 0.3684515495475747
5062000000.0 0.9997237592334105 0.3231157210289028
5066000000.0 0.9421859093584879 0.3068922347119971
5069000000.0 1.001876436634848 0.27395996706333037
5072000000.0 0.9656449545456129 0.24196589042086547
5075000000.0 1.015740563751253 0.2436350373889793
5078000000.0 1.0210284138480992 0.19045860271812287
5081000000.0 0.9389077604323772 0.25395643189318556
5084000000.0 1.0123749666398285 0.2520250506595392
5088000000.0 0.9722930575842946 0.23438371759103604
5091000000.0 1.0075778095431034 0.19255932099713646
5094000000.0 1.014869913137104 0.21605101175196484
5097000000.0 1.0196715813869397 0.25091910875170453
5100000000.0 0.9909050055440389 0.22845299968136723
5103000000.0 0.9805433906333725 0.19946402793195384
5106000000.0 1.0615068573816722 0.20515083335609235
5109000000.0 1.0051863398481173 0.22486042921124288
5112000000.0 0.9937059623604187 0.19415765545834934
5116000000.0 0.9305060958042457 0.1859295403376779
5119000000.0 0.9939228553323589 0.17315450351191625
5122000000.0 0.9910354916861507 0.2013379495942078
5125000000.0 1.0119527583203012 0.12812534814027493
5128000000.0 1.04752127001357 0.13292438512055726
5131000000.0 0.9939736013005238 0.1351289524880721
5134000000.0 1.0345658103217317 0.10798768276261828
5138000000.0 1.0602222123208858 0.13026820491001695
5141000000.0 0.998218880803442 0.20357419960756767
5144000000.0 1.040690007696325 0.12141543662358106
5147000000.0 1.0297847860823752 0.15378859395061828
5150000000.0 0.9911497448122937 0.161513414711001
5153000000.0 1.0100244997885153 0.06507923543026395
5156000000.0 1.0549513969542543 0.09987463526245016
5159000000.0 1.0550678672630414 0.09035811743278882
5162000000.0 0.9763833982642249 0.0806062152805504
5166000000.0 1.0955513742372707 0.027878654273112202
