! Created with skrf 1.8.0 (http://scikit-rf.org).
# Hz S RI R 50.0 
!freq ReS11 ImS11
4000000000.0 0.5682224046236566 -0.8803169672252105
4003000000.0 0.627908449366343 -0.9690993997884119
4006000000.0 0.5263083534737341 -0.9027888177942583
4009000000.0000005 0.5390644338977331 -0.8681355614004114
4011999999.9999995 0.6249077286205317 -0.8608955194872676
4016000000.0 0.5377336728316622 -0.9166647219320865
4019000000.0 0.5496424342658363 -0.8703837302662376
4022000000.0000005 0.6453219556697296 -0.8548617244575357
4025000000.0000005 0.5045799549476142 -0.9303148440162953
4027999999.9999995 0.5629197023717958 -0.9070550848163544
4030999999.9999995 0.5401280652466502 -0.8379500243193919
4034000000.0 0.541529489200243 -0.9013055673119421
4038000000.0000005 0.5009822071891196 -0.9043701941643774
4041000000.0000005 0.5357250355741112 -0.8971709405924511
4043999999.9999995 0.5574542080833719 -0.9141850658607908
4046999999.9999995 0.5846146510603695 -0.91502819340271
4050000000.0 0.5144257393088504 -0.9218820861757442
4053000000.0 0.5043830943690715 -0.8855265583730068
4056000000.0 0.5348064197876675 -0.8826985080695748
4059000000.0 0.5845616603000174 -0.8726537614292338
4062000000.0000005 0.5206311713960321 -0.908214301050552
4066000000.0 0.4831845329268505 -0.8280101511865827
4069000000.0 0.5512049518993425 -0.9333006960154554
4072000000.0 0.5679398112315107 -0.8587420482038403
4075000000.0 0.6277216679047738 -0.8668430160690271
4078000000.0000005 0.5480563603895271 -0.9547803057747148
4081000000.0000005 0.6254914745000304 -0.9030879748278037
4083999999.9999995 0.5617204228704631 -0.9015415720258966
4088000000.0 0.5777066723885196 -0.8716741366458497
4091000000.0 0.6009908127078214 -0.9442931112184962
4094000000.0000005 0.5805523133416763 -0.8965438656870792
4097000000.0000005 0.509525825444067 -0.9045726399526501
4099999999.9999995 0.568800952129078 -0.8865053785336634
4102999999.9999995 0.5722555515675387 -0.8477168856434162
4106000000.0 0.5603863172806396 -0.8664203371050776
4109000000.0 0.544471938020247 -0.885136025458831
4112000000.0 0.5301737025983349 -0.8676274911067324
4115999999.9999995 0.5531835806450797 -0.880961800275583
4119000000.0 0.519911679986922 -0.8719294778812298
4122000000.0 0.5379779514201388 -0.8770209569515472
4125000000.0 0.5582735663155555 -0.950121093568426
4128000000.0 0.5424620176980485 -0.8541772761833124
4131000000.0 0.5324900694320895 -0.880517612395192
4134000000.0000005 0.5585277475823998 -0.8709254974571895
4138000000.0 0.5168666149937631 -0.8538316681339969
4141000000.0 0.5563383427330967 -0.8626235277215407
4144000000.0 0.5852825524371045 -0.8495870094868975
4147000000.0000005 0.5428663688891026 -0.8745492082642345
4150000000.0000005 0.5635213219851798 -0.8976325126722156
4152999999.9999995 0.5579609115958026 -0.8918201958066856
4155999999.9999995 0.5804236573993842 -0.8939020341271612
4159000000.0 0.5268553861387257 -0.8494754057948687
4162000000.0 0.5419341279686254 -0.8594099936019739
4166000000.0000005 0.556383816224797 -0.8779891784571663
4168999999.9999995 0.5340843257104129 -0.915545845289764
4171999999.9999995 0.5604917831748307 -0.8805810123431178
4175000000.0 0.5419236637162512 -0.8659768034006506
4178000000.0 0.5524092083496326 -0.8986409601192025
4181000000.0 0.563886580080463 -0.8873875213162989
4184000000.0 0.5706432658674461 -0.8635423004350218
4187999999.9999995 0.5407691740576075 -0.8548592197462898
4191000000.0 0.5880998437524183 -0.8486111691646351
4194000000.0 0.5468535845805764 -0.8498867395389867
4197000000.0 0.5429648371272328 -0.8705186205382196
4200000000.0 0.5700898680712169 -0.8478055800964408
4203000000.0000005 0.5598621988666069 -0.8443438956461974
4206000000.0000005 0.5479210531103074 -0.8658240535293922
4208999999.9999995 0.5651629342169415 -0.843361210758409
4211999999.9999995 0.5249155313395527 -0.888641148146868
4216000000.0 0.5670703963401215 -0.8613278380279236
4219000000.0000005 0.5624352083268148 -0.8548032221808761
4222000000.0000005 0.5435716173045735 -0.8898007671311863
4224999999.9999995 0.5582742615445869 -0.8400875455687258
4227999999.9999995 0.5509529199286306 -0.8784574190065164
4231000000.0 0.548797393483147 -0.8658571457106443
4234000000.0 0.5495449613793888 -0.8838288254328215
4238000000.0000005 0.5415249730457082 -0.8766405602971922
4240999999.9999995 0.5279062724007053 -0.8579671949352126
4244000000.0 0.5623797368737029 -0.8545671734110791
4247000000.0 0.5591398044424412 -0.8509166731680103
4250000000.0 0.540659133883461 -0.8540094845319017
4253000000.0 0.5263258167869675 -0.8409203123399782
4256000000.0 0.5574381963401561 -0.8676756954577722
4259000000.0000005 0.5211877476089175 -0.832598963578755
4261999999.9999995 0.5274926679549818 -0.8583769902323111
4266000000.0 0.5487211312660097 -0.8921340419538224
4269000000.0 0.5534755820863675 -0.8611152614827898
4272000000.0000005 0.5625088392621798 -0.8511444475915777
4275000000.0000005 0.5591669139255049 -0.85853168130573
4277999999.9999995 0.5633830556995286 -0.8599077668923663
4280999999.9999995 0.5529541510289614 -0.8520922846593936
4284000000.0 0.5266057063271721 -0.877326415833394
4288000000.0000005 0.5737713039299509 -0.8378262184997248
4291000000.0000005 0.5440066453483361 -0.8397439005064627
4293999999.9999995 0.5361608863676401 -0.8507402781614012
4297000000.0 0.5433299423847433 -0.845874737685971
4300000000.0 0.5465525641463258 -0.8482247533208441
4303000000.0 0.5433020343987853 -0.8491883978324067
4306000000.0 0.5436836499151566 -0.8468562010692368
4309000000.0 0.558424293048674 -0.8442137546138077
4312000000.0 0.6073968124369149 -0.8487769899650284
4316000000.0 0.5705285549027562 -0.8585372164787514
4319000000.0 0.5599000584066887 -0.8555241409614514
4322000000.0 0.5445657149189821 -0.8550528519858159
4325000000.0 0.5415176571497 -0.8629282877205744
4328000000.0 0.5308175005695852 -0.834841041854416
4331000000.0 0.5347577292703845 -0.8989524829770494
4334000000.0 0.5512958331121272 -0.8738577719786138
4338000000.0 0.5625793688153551 -0.8384896613057757
4341000000.0 0.5828330516472111 -0.8701039608911645
4344000000.0 0.5695486486067683 -0.8717860587437655
4347000000.0 0.529883388031548 -0.87799267756549
4350000000.0 0.5291235806483139 -0.8348575234027126
4353000000.0 0.5520140867180863 -0.8228615906901119
4356000000.0 0.5193271631846759 -0.8573206633384637
4359000000.0 0.5330421010150989 -0.8217296290712975
4362000000.0 0.4715039756163825 -0.896884644462669
4366000000.0 0.542098800716484 -0.8681084720031697
4369000000.0 0.5102392894781077 -0.833736994634651
4372000000.0 0.5087944331753114 -0.8606702450781274
4375000000.0 0.5488480526341091 -0.852941232578079
4378000000.0 0.5313328620112294 -0.8247138387036024
4381000000.0 0.5545494132590691 -0.8402126278061609
4384000000.0 0.5598524746455523 -0.9119586959331674
4388000000.0 0.5327100118214215 -0.8188784534029194
4391000000.0 0.5480363852852503 -0.8643617861129218
4394000000.0 0.5169185988910053 -0.8512794186381809
4397000000.0 0.5482069394342072 -0.8510856929754512
4400000000.0 0.5471279072508664 -0.8731805304643442
4403000000.0 0.5510628210304671 -0.865845248320315
4406000000.0 0.5216256106655468 -0.8752662224847355
4409000000.0 0.548243008247916 -0.8916991431156728
4412000000.0 0.482688944174984 -0.8716625156275319
4416000000.0 0.5094155358540771 -0.8526770832573204
4419000000.0 0.509963544188317 -0.8715293260424524
4422000000.0 0.5503374946272331 -0.8361892265864674
4425000000.0 0.5669234245767416 -0.862897133488916
4428000000.0 0.5266814101983135 -0.8699180877599912
4431000000.0 0.5474852333591342 -0.8693845234099271
4434000000.0 0.5305045893210665 -0.856537337921943
4438000000.0 0.5510488131400185 -0.875759410392712
4441000000.0 0.5513429698419163 -0.8727108484281823
4444000000.0 0.514033315055679 -0.8467540856501246
4447000000.0 0.5230636553989844 -0.8702529296365551
4450000000.0 0.5400835808303963 -0.8503989591234564
4453000000.0 0.5388272879657879 -0.8840565975603596
4456000000.0 0.5181051312843318 -0.847853631612203
4459000000.0 0.4980861130673786 -0.8400020408688919
4462000000.0 0.5436782293768734 -0.9136237324914898
4466000000.0 0.5341032916522135 -0.8926393835559749
4469000000.0 0.5497608191402181 -0.8689257468906244
4472000000.0 0.5344214722141885 -0.8909088582481941
4475000000.0 0.5052092784751134 -0.856920007139474
4478000000.0 0.5277244585789971 -0.910045742765383
4481000000.0 0.5000497990456123 -0.8416324982708576
4484000000.0 0.4864009106043454 -0.8851671590387737
4488000000.0 0.5201991230640548 -0.8732106802997985
4491000000.0 0.5272606163213563 -0.8882511124893714
4494000000.0 0.5273375501575165 -0.8630447475847043
4497000000.0 0.5339800862562224 -0.8615991823569207
4500000000.0 0.522831592531817 -0.8545491263693322
4503000000.0 0.5578435868822492 -0.89960082757583
4506000000.0 0.5202145856951816 -0.8623200865107962
4509000000.0 0.503615465044031 -0.8442522871000283
4512000000.0 0.500619704319373 -0.8315677331924263
4516000000.0 0.531251018210451 -0.8807100041442684
4519000000.0 0.5020696126718833 -0.8313428611134759
4522000000.0 0.5159656464267425 -0.8734210562306857
4525000000.0 0.553642123043976 -0.8516426146615593
4528000000.0 0.5218186961691009 -0.8878660324047531
4531000000.0 0.5516437469975025 -0.8692516117635307
4534000000.0 0.4989487637214572 -0.8484036432076459
4538000000.0 0.5130012106272117 -0.853574568689836
4541000000.0 0.48904899691305076 -0.8727108806810775
4544000000.0 0.514402572888029 -0.8507416232705625
4547000000.0 0.5392946428601614 -0.8422557979793964
4550000000.0 0.5030333892045686 -0.9031714950384466
4553000000.0 0.5144077681652836 -0.867180539359141
4556000000.0 0.5071362729831627 -0.8608057337250226
4559000000.0 0.5013845080599459 -0.867312437109542
4562000000.0 0.535036525249712 -0.8790749083807229
4566000000.0 0.5114682172143958 -0.8760190400703047
4569000000.0 0.5108189046711589 -0.8550561984441483
4572000000.0 0.5123469543195805 -0.8678854636073912
4575000000.0 0.4741549263876498 -0.8778477448878543
4578000000.0 0.5355877657147547 -0.8856046734548705
4581000000.0 0.5052171361647853 -0.8684517774488927
4584000000.0 0.49621086832452543 -0.8645512776252249
4588000000.0 0.5326554234819618 -0.8703530464335341
4591000000.0 0.5175888534872253 -0.8685245339045575
4594000000.0 0.47693013208584856 -0.8728758064071178
4597000000.0 0.5209416139664159 -0.8747856302478114
4600000000.0 0.47830980450104227 -0.8756825476057578
4603000000.0 0.5073242773312853 -0.8725244988298012
4606000000.0 0.5232584684289476 -0.8909665264573638
4609000000.0 0.4987097160730274 -0.882850522127099
4612000000.0 0.5061433873487928 -0.8749916513579927
4616000000.0 0.48304032093825316 -0.8730472731560608
4619000000.0 0.5196788403947066 -0.8548396720941801
4622000000.0 0.4985263256676512 -0.8618690718467827
4625000000.0 0.48989639345999225 -0.8504479422165386
4628000000.0 0.5090569392270115 -0.8619629826546945
4631000000.0 0.4945761402263425 -0.8720556545914792
4634000000.0 0.5071418147496346 -0.8816520890176605
4638000000.0 0.5005724637324054 -0.8900923340391936
4641000000.0 0.5167492456367158 -0.8684766188864669
4644000000.0 0.49658153450196413 -0.8686635962145925
4647000000.0 0.5205135289472931 -0.8804799784283821
4650000000.0 0.4703769523790733 -0.8683423457626279
4653000000.0 0.514609241304836 -0.8762776356657519
4656000000.0 0.4985510173280734 -0.8898172767882734
4659000000.0 0.4863687841703768 -0.8773794795873661
4662000000.0 0.4921860710883442 -0.8906253788032552
4666000000.0 0.482906008635406 -0.8827486084117129
4669000000.0 0.5117641663998604 -0.8734447545171803
4672000000.0 0.4747034764097297 -0.8879529977001045
4675000000.0 0.4731541578411408 -0.9031227856574057
4678000000.0 0.48447335283488446 -0.8755636588304845
4681000000.0 0.4701420361416679 -0.8872007849274457
4684000000.0 0.4568074190206249 -0.9065215356185621
4688000000.0 0.4907784628400578 -0.875215313600433
4691000000.0 0.5017641535662515 -0.8887741281591958
4694000000.0 0.49302326076124947 -0.8744480994244905
4697000000.0 0.45836782743165205 -0.87722045811194
4700000000.0 0.5236249719863073 -0.8718214580787851
4703000000.0 0.5335668465351538 -0.8542674100552164
4706000000.0 0.48977239732530164 -0.9011294186819112
4709000000.0 0.4598342315774709 -0.8867025189355888
4712000000.0 0.48831496522730383 -0.8769611795054286
4716000000.0 0.5044791705100528 -0.8975205818549844
4719000000.0 0.5064334398879529 -0.9079969723871637
4722000000.0 0.4903732983840948 -0.8943587168420482
4725000000.0 0.4809376997506585 -0.8900470066409178
4728000000.0 0.4694249881340863 -0.8844848172571944
4731000000.0 0.5016830641823051 -0.9049434100479813
4734000000.0 0.5162429888558708 -0.8480549674591102
4738000000.0 0.5178525034776573 -0.9195409116792339
4741000000.0 0.4848141383917665 -0.8928261504121968
4744000000.0 0.4633324998714 -0.925981839321583
4747000000.0 0.48532319321988243 -0.8703058211151661
4750000000.0 0.5053724596139432 -0.8858241571379204
4753000000.0 0.4851099452054052 -0.8958983131863174
4756000000.0 0.4853208000029787 -0.9185371381821197
4759000000.0 0.5186024092535624 -0.9033044142115387
4762000000.0 0.4487669917631971 -0.9137510926142779
4766000000.0 0.4737388102059202 -0.8892433762402008
4769000000.0 0.5142673940392001 -0.9044695033099053
4772000000.0 0.49729743986114794 -0.894725811931838
4775000000.0 0.5186212030276932 -0.9575439504319397
4778000000.0 0.5112590632118833 -0.8877580641865268
4781000000.0 0.5066887735143847 -0.9012102056773305
4784000000.0 0.5063192919057944 -0.9039427492750237
4788000000.0 0.48749008603583155 -0.9190615518233433
4791000000.0 0.4703200995908585 -0.8959473384814975
4794000000.0 0.5192946994756171 -0.8797987016022839
4797000000.0 0.46508620261866696 -0.8698847019593902
4800000000.0 0.4812747502148972 -0.8885820003598803
4803000000.0 0.4607058858155779 -0.8785341142646761
4806000000.0 0.4926943700432078 -0.9071397828288368
4809000000.0 0.46512566299472785 -0.9166654162663834
4812000000.0 0.45712284246871115 -0.8978189389095448
4816000000.0 0.4972702978210821 -0.8609584951825809
4819000000.0 0.5183509946927088 -0.900254216959836
4822000000.0 0.5123990889953971 -0.9430046052301875
4825000000.0 0.5332679559756588 -0.9225680893359737
4828000000.0 0.4913151086573318 -0.8911916404924308
4831000000.0 0.4663866050597078 -0.9467250949492704
4834000000.0 0.5067745378382621 -0.8951997965836559
4838000000.0 0.485347686894975 -0.9201246337181347
4841000000.0 0.47885228121663403 -0.8989457140402002
4844000000.0 0.5267790551134968 -0.8851085064086273
4847000000.0 0.4850013009832418 -0.8669791356958986
4850000000.0 0.5057342058597614 -0.917355282509108
4853000000.0 0.458939771814681 -0.8884512252542195
4856000000.0 0.49104392829754173 -0.90201675802211
4859000000.0 0.497574839739866 -0.9292971656862634
4862000000.0 0.5150135205414434 -0.8763867334500178
4866000000.0 0.513935509308958 -0.9126730214990156
4869000000.0 0.478996710174698 -0.9094181147662489
4872000000.0 0.4871061069870233 -0.9294560331697591
4875000000.0 0.562772188563425 -0.9061800823282716
4878000000.0 0.5061602915274727 -0.923984354531895
4881000000.0 0.49417766961835585 -0.9535962697049847
4884000000.0 0.4974946115725191 -0.891441102134622
4888000000.0 0.5248297778788134 -0.8978672248505485
4891000000.0 0.5308728760525072 -0.915914583767858
4894000000.0 0.49828843335266904 -0.8999660984480968
4897000000.0 0.5029635370133116 -0.8879388068875844
4900000000.0 0.5072115633500306 -0.9061170912487206
4903000000.0 0.5075207859420429 -0.8997294804859675
4906000000.0 0.5105620061779166 -0.9456395085267547
4909000000.0 0.4945883960008198 -0.9031832865071979
4912000000.0 0.5138434168780323 -0.9731348333382419
4916000000.0 0.5100517449524424 -0.9044620809548596
4919000000.0 0.5405959014135516 -0.9160768366049847
4922000000.0 0.5281782002725524 -0.875806670934323
4925000000.0 0.4738392803927514 -0.921689559976075
4928000000.0 0.5375203337296106 -0.8931233051803529
4931000000.0 0.5324895823322938 -0.8992916130302043
4934000000.0 0.5044708017982148 -0.8552404339410232
4938000000.0 0.4398253553456176 -0.9397229794082574
4941000000.0 0.4862604937024092 -0.9018426714006724
4944000000.0 0.4934438058497851 -0.8231560227738287
4947000000.0 0.4793577898221658 -0.9041154337136205
4950000000.0 0.484614735459571 -0.8950776630936499
4953000000.0 0.4563557907103487 -0.9669573114184074
4956000000.0 0.4963701731629233 -0.8882295443954887
4959000000.0 0.4592274418337011 -0.8901931641111762
4962000000.0 0.491926786378857 -0.9347067309210627
4966000000.0 0.5602840483071332 -0.9158808907402904
4969000000.0 0.5599640741413984 -0.9228129033238613
4972000000.0 0.489155272217776 -0.907291310924864
4975000000.0 0.520248738629007 -0.8793005787838292
4978000000.0 0.5015476801352091 -0.9011737018365921
4981000000.0 0.4814959853079527 -0.9266864798697294
4984000000.0 0.4997223607832577 -0.8952085942861664
4988000000.0 0.5288888291132183 -0.893312346288072
4991000000.0 0.5318734806630491 -0.876908903422252
4994000000.0 0.5119974915374759 -0.8936784512032883
4997000000.0 0.46007885452689323 -0.9332616768510775
5000000000.0 0.5500157806599386 -0.916128955864886
5003000000.0 0.5509963606018604 -0.9225350550778431
5006000000.0 0.5454132883191564 -0.9243006584974409
5009000000.0 0.5201902046644294 -0.9046883097065798
5012000000.0 0.49460492997635735 -0.9054770139316342
5016000000.0 0.5492391737223737 -0.9068355159346051
5019000000.0 0.5164349276892009 -0.9079228323023313
5022000000.0 0.5232223983088805 -0.8888771161155009
5025000000.0 0.5952220844109293 -0.9611593964246452
5028000000.0 0.5033712395796035 -0.9403700186583567
5031000000.0 0.5072346048720031 -0.910368795826284
5034000000.0 0.48386650628862216 -0.9511115835112909
5038000000.0 0.4808815389110149 -0.9028118772264493
5041000000.0 0.5517914412533567 -0.8894834577658888
5044000000.0 0.5353236593295772 -0.8857391253864143
5047000000.0 0.5443508573724272 -0.9310277769626728
5050000000.0 0.57034997824747 -0.8532218512724943
5053000000.0 0.542634389317652 -0.9870229316024177
5056000000.0 0.5689395313756054 -0.8910224198706003
5059000000.0 0.5893053416560603 -0.8686730629567162
5062000000.0 0.4866432983852378 -0.9180192965834422
5066000000.0 0.5445714606031734 -0.8779784219941373
5069000000.0 0.5475000314523729 -0.9002322946328244
5072000000.0 0.5347012705257271 -0.8886191582931011
5075000000.0 0.5750776622074993 -0.8804791836304005
5078000000.0 0.4524377045889366 -0.9635258877145495
5081000000.0 0.5110758151722223 -0.8696362375128648
5084000000.0 0.5599655898671476 -0.9193087860523772
5088000000.0 0.5444589202871314 -0.8888959730060414
5091000000.0 0.501918870281115 -0.9220938630039015
5094000000.0 0.5295286239942063 -0.9073549610054423
5097000000.0 0.567226261014374 -0.8371948201019592
5100000000.0 0.5245865871693342 -0.8915835770471519
5103000000.0 0.528305830926745 -0.8973540747407873
5106000000.0 0.5748400044292432 -0.9515288528938584
5109000000.0 0.5629639763596993 -0.875357338168428
5112000000.0 0.552590404817726 -0.8790796876342447
5116000000.0 0.5128519854336411 -0.8286211448216187
5119000000.0 0.5511991306974116 -0.9136661477230734
5122000000.0 0.5471802295737308 -0.8590187267669284
5125000000.0 0.5385595419108912 -0.8621289280278941
5128000000.0 0.5250824035846906 -0.9065842520420597
5131000000.0 0.5884169956413297 -0.8734478507796334
5134000000.0 0.527619687215547 -0.8613195382271308
5138000000.0 0.5405178334810459 -0.9061605046507366
5141000000.0 0.5747780098937302 -0.874793753232283
5144000000.0 0.5922006209559048 -0.8647418694022498
5147000000.0 0.5499670784307886 -0.9090669223731749
5150000000.0 0.5585557436313908 -0.8248806284027672
5153000000.0 0.536943472335318 -0.8824745732915823
5156000000.0 0.5512765533190194 -0.917364329064809
5159000000.0 0.6163998014897176 -0.9128838276558409
5162000000.0 0.5494615002775518 -0.8727067720261072
5166000000.0 0.5694197866348423 -0.8750995830638006
5169000000.0 0.6179090596704622 -0.8637044855712649
5172000000.0 0.5592774070523676 -0.87384069389486
5175000000.0 0.599871266141134 -0.9307035784054174
5178000000.0 0.5281706747548295 -0.8855478989425335
5181000000.0 0.5758886337361402 -0.9159077180999049
