! Created with skrf 1.8.0 (http://scikit-rf.org).
# Hz S RI R 50.0 
!freq ReS11 ImS11
4000000000.0 0.5500397321607622 -0.8426667914440067
4003000000.0 0.5875669281117394 -0.8859507734922435
4006000000.0 0.5473464619937288 -0.8944442429260194
4009000000.0000005 0.5396590625063407 -0.8978056267097406
4011999999.9999995 0.588201900577185 -0.8684311060003466
4016000000.0 0.5322416832871081 -0.9203587574505148
4019000000.0 0.5156554784545371 -0.8835123462419971
4022000000.0000005 0.6215012636964207 -0.870940536071894
4025000000.0000005 0.4964282027798923 -0.9486410830558485
4027999999.9999995 0.534940041990566 -0.8892508868211841
4030999999.9999995 0.4920059312835976 -0.8514570052704749
4034000000.0 0.5118852176306273 -0.8831065467271049
4038000000.0000005 0.5681943653707058 -0.9187245209034295
4041000000.0000005 0.5349128200192739 -0.887963023872656
4043999999.9999995 0.5494642750132606 -0.9263494151680091
4046999999.9999995 0.6010700275482561 -0.917714253028246
4050000000.0 0.5230895339498013 -0.9057960488148584
4053000000.0 0.5067776557720605 -0.8885356567504678
4056000000.0 0.5288166961546313 -0.8766519528491059
4059000000.0 0.5401585925158569 -0.8452826640208422
4062000000.0000005 0.5255956625025836 -0.8871175900758359
4066000000.0 0.4944813360609462 -0.8241535047534049
4069000000.0 0.5422434197194876 -0.946039399554693
4072000000.0 0.5853047579967361 -0.8535849493719114
4075000000.0 0.533009859456696 -0.8943929468311216
4078000000.0000005 0.5529298032710268 -0.9534188478036262
4081000000.0000005 0.6377326957553601 -0.8611635524844743
4083999999.9999995 0.5708876429679745 -0.9289649462812907
4088000000.0 0.5775214008057354 -0.8255901332734427
4091000000.0 0.593494351403526 -0.9070998839826471
4094000000.0000005 0.5640110616749201 -0.879239346809395
4097000000.0000005 0.5371786343606701 -0.8726182730162089
4099999999.9999995 0.5147574046562762 -0.8561289248707266
4102999999.9999995 0.5777566308029647 -0.8782201909880747
4106000000.0 0.5710789882477934 -0.9206816043567777
4109000000.0 0.5202776477663618 -0.8751516695681666
4112000000.0 0.5634933160403783 -0.857992708354333
4115999999.9999995 0.5593433944137068 -0.8939203674328532
4119000000.0 0.5427387555235709 -0.9192935960990869
4122000000.0 0.509327127571824 -0.8460888027317355
4125000000.0 0.5071472587588666 -0.8776346560779426
4128000000.0 0.5355045249793244 -0.843265609194054
4131000000.0 0.5274502290317804 -0.859889014250748
4134000000.0000005 0.5718796960050112 -0.8552230274942904
4138000000.0 0.5257825060615519 -0.8723112112098745
4141000000.0 0.5546459171185093 -0.8799263505655986
4144000000.0 0.5420514600690621 -0.8539225585605413
4147000000.0000005 0.5120427093807606 -0.8525492432725538
4150000000.0000005 0.5758989894389085 -0.8876457737679813
4152999999.9999995 0.5563701744240185 -0.85683532833238
4155999999.9999995 0.5537779588975523 -0.8668662678042983
4159000000.0 0.5586469892198418 -0.8536908726548108
4162000000.0 0.535495428553414 -0.8680138132294397
4166000000.0000005 0.5447937957954812 -0.8924875547255897
4168999999.9999995 0.5221074412061357 -0.8784489610056176
4171999999.9999995 0.5490184687867716 -0.875662823945524
4175000000.0 0.5530265890211992 -0.8941432328118614
4178000000.0 0.5789718284721512 -0.8946878998168609
4181000000.0 0.5388365952557437 -0.8737012551578954
4184000000.0 0.5291786008927835 -0.853791749099045
4187999999.9999995 0.5533516502029588 -0.8491471949276546
4191000000.0 0.5676076177871744 -0.8687505633867725
4194000000.0 0.5692756638922023 -0.8519225580402473
4197000000.0 0.5698590306312896 -0.86857647711093
4200000000.0 0.5631762319627454 -0.8653652171797266
4203000000.0000005 0.5797510611887773 -0.8637887239285711
4206000000.0000005 0.562181573605444 -0.8638524233998064
4208999999.9999995 0.547025005243974 -0.8636368615974225
4211999999.9999995 0.5125036672699594 -0.8775300483346056
4216000000.0 0.5674788287254595 -0.8582071015440285
4219000000.0000005 0.5570601054930804 -0.86785634067546
4222000000.0000005 0.5393223411921181 -0.8627328773297782
4224999999.9999995 0.550280623600256 -0.856931414277217
4227999999.9999995 0.5529457662099737 -0.8546963591089226
4231000000.0 0.5492894205416126 -0.8625963871632135
4234000000.0 0.5549279690597149 -0.8752084561102291
4238000000.0000005 0.5217309464633719 -0.8887342786267035
4240999999.9999995 0.530794233266632 -0.8542544978267301
4244000000.0 0.5488418080315867 -0.8598320469347929
4247000000.0 0.555430681922304 -0.8511026132507564
4250000000.0 0.5214584061977073 -0.8619320106125145
4253000000.0 0.5387709293218373 -0.8430638722654178
4256000000.0 0.5578497618766632 -0.8781298849706166
4259000000.0000005 0.5231072898103288 -0.8502630142432593
4261999999.9999995 0.5255603686132452 -0.8723578663017468
4266000000.0 0.5202930484110423 -0.8942229611482598
4269000000.0 0.5519876505863889 -0.8376659737405238
4272000000.0000005 0.5477433979651039 -0.8565843188390727
4275000000.0000005 0.5611828314741905 -0.8803918631486918
4277999999.9999995 0.5559821681270755 -0.8712522025299051
4280999999.9999995 0.5604562004202784 -0.84941996516398
4284000000.0 0.5240884866761472 -0.8812842415730875
4288000000.0000005 0.5909982989656022 -0.8481268002877138
4291000000.0000005 0.5306367920437653 -0.8585894752482741
4293999999.9999995 0.5278913535149585 -0.8556305780193268
4297000000.0 0.5762464041156714 -0.8561535103524714
4300000000.0 0.5486312315212826 -0.8512721988833037
4303000000.0 0.5218878769503357 -0.8407690099937296
4306000000.0 0.563826754711941 -0.8291474094129093
4309000000.0 0.5697038127382599 -0.8335724519569543
4312000000.0 0.5751769524262184 -0.8494593296354578
4316000000.0 0.5592004805660753 -0.8646120612011892
4319000000.0 0.5379123045653895 -0.833304491574069
4322000000.0 0.5403437619383045 -0.8500847404579417
4325000000.0 0.5415082814651457 -0.8495522513015011
4328000000.0 0.5338293173496129 -0.8405613890613394
4331000000.0 0.49398807667616323 -0.8782952456332003
4334000000.0 0.527018289695693 -0.8597960177912795
4338000000.0 0.5729922165281618 -0.8549379843537472
4341000000.0 0.5658466991581538 -0.8533957881107032
4344000000.0 0.5689612854286316 -0.9004910951402951
4347000000.0 0.519129076875905 -0.8732809402683515
4350000000.0 0.5235886977616105 -0.846098373991686
4353000000.0 0.5499136760168527 -0.8219194035222647
4356000000.0 0.5174906872525346 -0.8622395757009148
4359000000.0 0.5199879935471807 -0.8180728331077355
4362000000.0 0.5000272339448991 -0.8916901436740363
4366000000.0 0.5431991510094724 -0.89698819144501
4369000000.0 0.5253950689340978 -0.8521545746400092
4372000000.0 0.5114251820626693 -0.8755473010753829
4375000000.0 0.5487496607330972 -0.8491511416702529
4378000000.0 0.5359235482990319 -0.838124904172204
4381000000.0 0.5324728692750911 -0.8351165813453428
4384000000.0 0.5544431269753414 -0.9025137799658238
4388000000.0 0.5401437866534018 -0.8155088175449449
4391000000.0 0.5458378380767023 -0.863274766172008
4394000000.0 0.5052385324492921 -0.835110656949977
4397000000.0 0.5261749308549059 -0.8489605585347136
4400000000.0 0.5459218943427637 -0.8919197893855946
4403000000.0 0.5448411488748375 -0.8591831057631012
4406000000.0 0.5090357393790009 -0.8739336649287326
4409000000.0 0.5474808510802875 -0.8916073666630122
4412000000.0 0.4809218637343649 -0.8825019968875838
4416000000.0 0.5067073890207586 -0.8487725951182191
4419000000.0 0.5074328164835313 -0.8729290400134209
4422000000.0 0.5323664628278532 -0.8448156621842708
4425000000.0 0.5714809930099483 -0.8797029897829578
4428000000.0 0.5223317386544877 -0.8694116462133248
4431000000.0 0.547790809777948 -0.8735834444046284
4434000000.0 0.5319519555439551 -0.8695590243204177
4438000000.0 0.5466966661077457 -0.8918850912950121
4441000000.0 0.541802217303287 -0.876463221246603
4444000000.0 0.5243780799379141 -0.8498467466334452
4447000000.0 0.5116862596603202 -0.8563526710963911
4450000000.0 0.5318134265045321 -0.8646577137449367
4453000000.0 0.55933976246604 -0.8851821444915516
4456000000.0 0.5008042980535052 -0.8349995833395716
4459000000.0 0.49176003332462825 -0.836298007772393
4462000000.0 0.5383183320627782 -0.9107770536442983
4466000000.0 0.5328510554544463 -0.9177752378625103
4469000000.0 0.5406097210403015 -0.8598685695321242
4472000000.0 0.5271872474875883 -0.8907504822276522
4475000000.0 0.5218733508153176 -0.8295207605424209
4478000000.0 0.5227597070717949 -0.9282260905096236
4481000000.0 0.5035962938753646 -0.8553106436724183
4484000000.0 0.4876775544530208 -0.8773619212942119
4488000000.0 0.4894934212494423 -0.8783744852724729
4491000000.0 0.5123354106063276 -0.8877217102548767
4494000000.0 0.5087064818673137 -0.8651084145022578
4497000000.0 0.5298184698353425 -0.8673456117429053
4500000000.0 0.5319327647496982 -0.8707615370255859
4503000000.0 0.5421585503770553 -0.8794798192567147
4506000000.0 0.5067303695721197 -0.8598306781220924
4509000000.0 0.4963220094606612 -0.853476676955079
4512000000.0 0.49527280262031304 -0.8603651996554591
4516000000.0 0.5608567562376902 -0.8774652801137952
4519000000.0 0.518687098977761 -0.8418129631671438
4522000000.0 0.5198644982470791 -0.8731620113557295
4525000000.0 0.5251747697567939 -0.8542643214241035
4528000000.0 0.5435881832991937 -0.8832083905292202
4531000000.0 0.5065501666919034 -0.8588140278169842
4534000000.0 0.5050788089835477 -0.8399827732676386
4538000000.0 0.5112017451453131 -0.8662888539475513
4541000000.0 0.48858918786086136 -0.8665898161548635
4544000000.0 0.5211865667585457 -0.854523611894499
4547000000.0 0.5249442170236721 -0.8491716111913327
4550000000.0 0.49009646051015326 -0.8930302809433417
4553000000.0 0.5053009512930853 -0.8786004728849309
4556000000.0 0.4825885013966019 -0.8598556477819022
4559000000.0 0.4973036027709465 -0.8897138416172267
4562000000.0 0.5140540324214147 -0.8971073181917415
4566000000.0 0.49180757854259777 -0.889859927195443
4569000000.0 0.49551390086227276 -0.862747896929615
4572000000.0 0.5172497641727202 -0.8629747161784316
4575000000.0 0.4836547829430811 -0.8910057590049353
4578000000.0 0.5194252704926327 -0.8850520070132488
4581000000.0 0.5036276980768899 -0.8839291042360058
4584000000.0 0.5146365411687164 -0.8710143364545914
4588000000.0 0.5274767827106981 -0.8785354516860608
4591000000.0 0.5232844561193364 -0.8530184923013879
4594000000.0 0.4924303269893257 -0.8706981708364331
4597000000.0 0.5125953350739202 -0.8842406728360116
4600000000.0 0.4780834366783261 -0.881906818079847
4603000000.0 0.5217166958111105 -0.9022407265144685
4606000000.0 0.5153066906718212 -0.8869880867371477
4609000000.0 0.4941531782132774 -0.8863571597108733
4612000000.0 0.5062712984861476 -0.8916038261926749
4616000000.0 0.49517067215524224 -0.872824200267784
4619000000.0 0.5017737102965508 -0.8597906931800177
4622000000.0 0.5041232893447625 -0.879969004896505
4625000000.0 0.463848055778583 -0.8750909218527858
4628000000.0 0.5021102177560809 -0.8709754912038058
4631000000.0 0.4884117285521851 -0.8846859391863682
4634000000.0 0.49840128395392636 -0.8686957592199388
4638000000.0 0.5003263636775641 -0.8788738592007066
4641000000.0 0.5176948530345062 -0.8849313674819584
4644000000.0 0.5034655811762805 -0.8940628854345565
4647000000.0 0.5232955362427408 -0.8925433647674285
4650000000.0 0.49051707596638083 -0.8761832201415288
4653000000.0 0.5025330878676993 -0.8924601760700276
4656000000.0 0.4668572717074033 -0.8893483191743248
4659000000.0 0.49264427345656936 -0.8779907726417389
4662000000.0 0.49619000547393066 -0.8907058278811253
4666000000.0 0.4759157179661565 -0.8848652701531634
4669000000.0 0.4993421465112231 -0.8826788470833383
4672000000.0 0.4824527591127291 -0.8933174252421987
4675000000.0 0.4682134033255795 -0.903504658482311
4678000000.0 0.5124853118507577 -0.8751572075409075
4681000000.0 0.46956997945430035 -0.8987214093463488
4684000000.0 0.46169223097336476 -0.9109659609631239
4688000000.0 0.4802796936323126 -0.9024698734833339
4691000000.0 0.5059355071934305 -0.8859605944965531
4694000000.0 0.4965743854831085 -0.8794293557075505
4697000000.0 0.4684695230528796 -0.8570953089845684
4700000000.0 0.4788184994429535 -0.8813465096629907
4703000000.0 0.5024564134874598 -0.8371673583239784
4706000000.0 0.4701078802572717 -0.8920793724376507
4709000000.0 0.48025160234452036 -0.8891758324826374
4712000000.0 0.505525611292669 -0.9037440135702408
4716000000.0 0.4874463010485062 -0.898553346365365
4719000000.0 0.5152248629695183 -0.8921623867103858
4722000000.0 0.5030949615499567 -0.8806732987271199
4725000000.0 0.5032812210789833 -0.9055289401714156
4728000000.0 0.4850527088690169 -0.8977994641458542
4731000000.0 0.5048244014836782 -0.9114598135642199
4734000000.0 0.4988942956675021 -0.8737416005681375
4738000000.0 0.5266975288872802 -0.9190071539253829
4741000000.0 0.48967419905301446 -0.9109518476748559
4744000000.0 0.4562267111355178 -0.9109527403682851
4747000000.0 0.5005820537363207 -0.8431955005609142
4750000000.0 0.49292235989712563 -0.9190741220608162
4753000000.0 0.49565499164541843 -0.8900723252019463
4756000000.0 0.5073766603154337 -0.8966316467023655
4759000000.0 0.5070180879025219 -0.9086182619241319
4762000000.0 0.4991503725826357 -0.9117116019321813
4766000000.0 0.49698708221734844 -0.9053259240384626
4769000000.0 0.5132798116389022 -0.8902189960292061
4772000000.0 0.4874498560133439 -0.8913645582557457
4775000000.0 0.49564160530812007 -0.938014396709558
4778000000.0 0.49805641405331025 -0.9178011366965726
4781000000.0 0.5277440371709936 -0.875110048527725
4784000000.0 0.49756758933982215 -0.8762294955679136
4788000000.0 0.4757930645567897 -0.9262317496276223
4791000000.0 0.470436332918016 -0.8596172838126207
4794000000.0 0.5113916501046796 -0.887204270624847
4797000000.0 0.4692785856033713 -0.8801889583017342
4800000000.0 0.47232842650115525 -0.8919924781161869
4803000000.0 0.4423316620664594 -0.9010510094808665
4806000000.0 0.47106075954250015 -0.9060959095676381
4809000000.0 0.48157418869075413 -0.9245403865015158
4812000000.0 0.4720606002417004 -0.9146709327053916
4816000000.0 0.511835878746276 -0.8866340929578267
4819000000.0 0.5074708864473194 -0.902721920549781
4822000000.0 0.5184212826441339 -0.942522901253364
4825000000.0 0.5141133356868791 -0.9163234067372446
4828000000.0 0.4787061656845213 -0.9055273617298994
4831000000.0 0.4607866823630095 -0.9321271764113889
4834000000.0 0.5001909616930379 -0.9017784965618809
4838000000.0 0.4859490037492097 -0.9177729267487719
4841000000.0 0.4705924625699257 -0.8761668997574619
4844000000.0 0.5159701206224274 -0.9075136522958918
4847000000.0 0.497180908840934 -0.8653152098317263
4850000000.0 0.459392512427151 -0.911679859724489
4853000000.0 0.4900171926578319 -0.8913917233292938
4856000000.0 0.478100633174824 -0.8985232563164955
4859000000.0 0.5035572403595308 -0.9337793984037591
4862000000.0 0.4947367194394384 -0.8763473568885582
4866000000.0 0.46991469381514217 -0.9185802656984119
4869000000.0 0.47746493525904316 -0.9255582375707333
4872000000.0 0.5139565685715621 -0.939003270291135
4875000000.0 0.543920456636846 -0.9197794577864177
4878000000.0 0.5018106824306998 -0.8901503161227013
4881000000.0 0.49669918159982074 -0.9508019229749766
4884000000.0 0.4971029438790287 -0.8897266023845039
4888000000.0 0.508874954148808 -0.9018088977842258
4891000000.0 0.5151566319341331 -0.9179450102308607
4894000000.0 0.49345970721014504 -0.9236541689408154
4897000000.0 0.5024105753739055 -0.8851061211294438
4900000000.0 0.5090780927273747 -0.9023623781303874
4903000000.0 0.5338643452712751 -0.8791973336557793
4906000000.0 0.5053235690954844 -0.9471238078932226
4909000000.0 0.46199363184562464 -0.9219579833989517
4912000000.0 0.4814780942763233 -0.9381414939360195
4916000000.0 0.509125167912245 -0.9022589519935841
4919000000.0 0.5122260926051277 -0.9213399221306234
4922000000.0 0.524265875758779 -0.8970128256347907
4925000000.0 0.47053334643824446 -0.9200570075890516
4928000000.0 0.5516054689359899 -0.857914055731393
4931000000.0 0.5087259569579488 -0.8940922597610501
4934000000.0 0.5048419599183035 -0.8524320455255697
4938000000.0 0.46496421475996075 -0.9191048053287156
4941000000.0 0.4606336583187617 -0.8672569536867187
4944000000.0 0.4555032868309643 -0.8291898739359488
4947000000.0 0.5228780176403185 -0.870133544606189
4950000000.0 0.4989509874961601 -0.9045898705272342
4953000000.0 0.4745853419395444 -0.9774347318806869
4956000000.0 0.47856808607219015 -0.9279914339913321
4959000000.0 0.49146616423983824 -0.8935631502884414
4962000000.0 0.5016666039963071 -0.9160387855112326
4966000000.0 0.5324049946716384 -0.9363299342048327
4969000000.0 0.5519476998008288 -0.9272260080119142
4972000000.0 0.4584751302100976 -0.9003324466739213
4975000000.0 0.5319112231241592 -0.8919429015966628
4978000000.0 0.4682458249321255 -0.9094725250754065
4981000000.0 0.504369322204725 -0.9333933429673262
4984000000.0 0.48026439810372346 -0.9078547483126769
4988000000.0 0.5495303798718554 -0.8881387895510248
4991000000.0 0.5831887153866159 -0.9050550414060905
4994000000.0 0.5290762246915476 -0.8874351284283799
4997000000.0 0.47030901567518457 -0.90209853143655
5000000000.0 0.520628503097113 -0.9021312266408328
5003000000.0 0.5350694137516055 -0.9051433937844198
5006000000.0 0.5312689411393152 -0.931514194815684
5009000000.0 0.5113632982003137 -0.9249797454911444
5012000000.0 0.4735496725175773 -0.9213713647594545
5016000000.0 0.5530505917713244 -0.926480686416346
5019000000.0 0.5022520604460223 -0.9223609181061321
5022000000.0 0.5108825184931451 -0.9051543002768276
5025000000.0 0.5369658332753282 -0.9662665437866009
5028000000.0 0.5089352086894419 -0.9144724449187035
5031000000.0 0.4953098367792449 -0.8966470946306813
5034000000.0 0.5060164259433498 -0.9721446069164843
5038000000.0 0.4706002491828553 -0.8757477570232004
5041000000.0 0.5475970316768457 -0.8824585340026696
5044000000.0 0.5212512014996604 -0.8481302300532476
5047000000.0 0.5260499260751657 -0.8888307694172437
5050000000.0 0.5738432805744469 -0.8501580012431029
5053000000.0 0.5259796861125517 -0.9634138571134852
5056000000.0 0.5492721276983765 -0.881690776345736
5059000000.0 0.5658150537249251 -0.8945254135794791
5062000000.0 0.5199850244562498 -0.9273526304475197
5066000000.0 0.567491096836391 -0.9242401378442726
5069000000.0 0.5157748773884403 -0.899738716979307
5072000000.0 0.5144243690766328 -0.8854788208076527
5075000000.0 0.547549421658998 -0.8882691048637807
5078000000.0 0.5091133195072031 -0.9029569419858878
5081000000.0 0.46559260847677036 -0.8782970186965814
5084000000.0 0.526335950504729 -0.9529211728883702
5088000000.0 0.5315772731036683 -0.9032172337678708
5091000000.0 0.4847976520769966 -0.9357628475144009
5094000000.0 0.5318693425647227 -0.8964217370864073
5097000000.0 0.5284628422637044 -0.9001283275171774
5100000000.0 0.5111992121696229 -0.9118607904724072
5103000000.0 0.49806905844644045 -0.9135780024816709
5106000000.0 0.5742434242565746 -0.9152671691586018
5109000000.0 0.5567038671014838 -0.8213080782999403
5112000000.0 0.5056896301123979 -0.8857436229866249
5116000000.0 0.48964070668896453 -0.825973577039078
5119000000.0 0.5233538299570293 -0.8919957855519464
5122000000.0 0.5624023493983388 -0.8787263906432446
5125000000.0 0.5886285622144732 -0.9003351387086533
5128000000.0 0.5578919848057308 -0.8995590843591277
5131000000.0 0.5742381573034453 -0.8717632282643553
5134000000.0 0.5456500097328747 -0.8963829441328615
5138000000.0 0.5351439746779558 -0.9214464462663786
5141000000.0 0.5440872801708044 -0.8894805611122258
5144000000.0 0.6083706019401052 -0.8780378512820648
5147000000.0 0.5741356482176585 -0.8943989484094781
5150000000.0 0.5818173184733935 -0.8474262436217399
5153000000.0 0.5095656527674562 -0.9205378910779032
5156000000.0 0.5564712461762285 -0.9096503000616638
5159000000.0 0.5546365775817099 -0.9601935387531586
5162000000.0 0.49456524960286696 -0.9190515813791793
5166000000.0 0.5410554543976338 -0.9240903522160724
5169000000.0 0.565627819097613 -0.9366683767126129
5172000000.0 0.584934411379465 -0.9030153819219504
5175000000.0 0.5645314966863408 -0.8732469117250483
5178000000.0 0.5332917954452275 -0.927816088451848
