! Created with skrf 1.8.0 (http://scikit-rf.org).
# Hz S RI R 50.0 
!freq ReS11 ImS11
4000000000.0 0.8579172245232276 -0.5623577891110456
4003000000.0 0.9080561776340282 -0.5943574325744536
4006000000.0 0.811025942633741 -0.6719592379143229
4009000000.0000005 0.809749021952538 -0.6069874800499374
4011999999.9999995 0.9019497033770689 -0.5572857080016211
4016000000.0 0.8256317622547261 -0.6651176489280539
4019000000.0 0.8220406193322055 -0.6196611667038867
4022000000.0000005 0.8779189626298424 -0.5518195239964543
4025000000.0000005 0.7958293614656511 -0.7251263351606552
4027999999.9999995 0.8233996478297829 -0.6413441233543393
4030999999.9999995 0.8222406479236679 -0.5816577364728526
4034000000.0 0.8452888977613271 -0.6521513144307465
4038000000.0000005 0.7778109775660328 -0.6671204460250159
4041000000.0000005 0.8082094795393608 -0.6126006706609628
4043999999.9999995 0.9109185841715787 -0.6460954647853294
4046999999.9999995 0.8841604090652042 -0.5972352144680729
4050000000.0 0.8420503044552455 -0.6839671130182472
4053000000.0 0.7619215797829265 -0.6518996678055045
4056000000.0 0.8308894367928621 -0.645515527899174
4059000000.0 0.8455582444061895 -0.5803093308289149
4062000000.0000005 0.782428320958318 -0.6551606127816433
4066000000.0 0.7135197168485611 -0.614952298778525
4069000000.0 0.8009334892200081 -0.7263855874956426
4072000000.0 0.8413367315354049 -0.5950254221374448
4075000000.0 0.8559066481391047 -0.6484120337722634
4078000000.0000005 0.8702934066570632 -0.6260127069442332
4081000000.0000005 0.9362843925278368 -0.5388499750740922
4083999999.9999995 0.8098577883678935 -0.5966117882290981
4088000000.0 0.8265492420075373 -0.6365807850813303
4091000000.0 0.912111053371268 -0.6814603711130629
4094000000.0000005 0.8579602255016139 -0.6197318303209867
4097000000.0000005 0.8342538252064023 -0.6110547644363193
4099999999.9999995 0.8007474492251722 -0.6784973611111761
4102999999.9999995 0.8908734481449428 -0.5922877945081129
4106000000.0 0.8156961598264649 -0.6646697949179657
4109000000.0 0.8036878202228653 -0.6655708349842798
4112000000.0 0.8214282233876783 -0.6480781920346905
4115999999.9999995 0.8386113390457145 -0.5801222290154578
4119000000.0 0.8104093508113598 -0.6429132240555964
4122000000.0 0.8324404155241159 -0.7094716601969882
4125000000.0 0.8429997547384852 -0.677874224659924
4128000000.0 0.8349921059733185 -0.5761937112550556
4131000000.0 0.8224611795500214 -0.6020163918279343
4134000000.0000005 0.8125699522875095 -0.5983496346534287
4138000000.0 0.7708399327400091 -0.6099434359937801
4141000000.0 0.8278445672574445 -0.6360907939216341
4144000000.0 0.8243870140745729 -0.6039402654982724
4147000000.0000005 0.759944981240799 -0.6821787637685619
4150000000.0000005 0.865970870002918 -0.6441143116833672
4152999999.9999995 0.8547016202377696 -0.6173594224188722
4155999999.9999995 0.9003789119335505 -0.6004253976441618
4159000000.0 0.8281719192882069 -0.57989835939523
4162000000.0 0.8195009676127368 -0.6339966353755329
4166000000.0000005 0.8422646537460459 -0.6482622973904477
4168999999.9999995 0.8268791637305709 -0.65259907661344
4171999999.9999995 0.88314241649763 -0.6072440609739186
4175000000.0 0.8715607872898995 -0.6021308684394429
4178000000.0 0.8292226291899295 -0.6422593267320259
4181000000.0 0.8094546719534322 -0.6212368410959866
4184000000.0 0.847781370601813 -0.6384803629096026
4187999999.9999995 0.8496917134033218 -0.6130637010614612
4191000000.0 0.880133899034715 -0.5679071990637982
4194000000.0 0.8021927486613172 -0.5968700513536492
4197000000.0 0.8426967468014637 -0.6013631654200342
4200000000.0 0.8155816745072921 -0.6120493027916758
4203000000.0000005 0.8307430400551425 -0.5954763415955221
4206000000.0000005 0.8474475323772546 -0.591331752440394
4208999999.9999995 0.8459571220532633 -0.5957926781927168
4211999999.9999995 0.8377028796216192 -0.6152680972371192
4216000000.0 0.831869546930042 -0.618652578423347
4219000000.0000005 0.838795809855136 -0.5949624959290342
4222000000.0000005 0.8278847795646818 -0.6502494725169758
4224999999.9999995 0.8158559220090223 -0.6126232279035688
4227999999.9999995 0.8380665667893108 -0.6445552639625658
4231000000.0 0.8273250816077973 -0.5933226047887153
4234000000.0 0.860670384006129 -0.5900794655877658
4238000000.0000005 0.820705129458708 -0.615299193838026
4240999999.9999995 0.8382233419350642 -0.6132265968534282
4244000000.0 0.8324422202988533 -0.5928408107199218
4247000000.0 0.8611863745996465 -0.5926174580633907
4250000000.0 0.81751394907878 -0.6173773623691174
4253000000.0 0.8028727845003425 -0.6126208307390213
4256000000.0 0.7986169535528018 -0.6225825942370226
4259000000.0000005 0.822798139053477 -0.6020679220693204
4261999999.9999995 0.8348960505477178 -0.6077658035037456
4266000000.0 0.8307868208739733 -0.600202249250091
4269000000.0 0.8627306689717532 -0.6051259347431964
4272000000.0000005 0.8312173704875268 -0.5993766769503258
4275000000.0000005 0.8240032731626048 -0.5895766046100244
4277999999.9999995 0.826993320182424 -0.6102302840577019
4280999999.9999995 0.8539510854453907 -0.6014311584362094
4284000000.0 0.8066423999665462 -0.6302630270370925
4288000000.0000005 0.8552004405494368 -0.5949044486928897
4291000000.0000005 0.8159695247586476 -0.5685323558250277
4293999999.9999995 0.8164203291345191 -0.6015559747362234
4297000000.0 0.8387398245320916 -0.5835044719561798
4300000000.0 0.8156707367301361 -0.5837922413835067
4303000000.0 0.8059235854098993 -0.6374296812064565
4306000000.0 0.836886502019712 -0.594238833401139
4309000000.0 0.8484438192876295 -0.5927576636912598
4312000000.0 0.8650560741037402 -0.5841269076412805
4316000000.0 0.8410542312857903 -0.5849409005819968
4319000000.0 0.8135121716841771 -0.5779539704055568
4322000000.0 0.798704754889689 -0.6048202372802703
4325000000.0 0.8055749881408985 -0.5711282185626918
4328000000.0 0.7924861076388008 -0.6272898350418661
4331000000.0 0.8215159257219218 -0.6001466740466154
4334000000.0 0.8223818281435321 -0.6057575720306161
4338000000.0 0.8359154039547166 -0.5860058773448509
4341000000.0 0.8274007067867615 -0.571130984307519
4344000000.0 0.8211955253517733 -0.5810505704483526
4347000000.0 0.8058899875708584 -0.6066951434506147
4350000000.0 0.807224463604356 -0.5796216684036306
4353000000.0 0.7948318946803616 -0.584652358162872
4356000000.0 0.8010155392396306 -0.6459450322962814
4359000000.0 0.7929980774453949 -0.5819089830303306
4362000000.0 0.7992171864111348 -0.6417360917382209
4366000000.0 0.7867958403758042 -0.615666789329503
4369000000.0 0.8143012342136887 -0.5746441296057802
4372000000.0 0.8000539090933667 -0.614396222811247
4375000000.0 0.8249112322597526 -0.5595892493195023
4378000000.0 0.7934739410362869 -0.5893741985244216
4381000000.0 0.8536840764827103 -0.57308501819578
4384000000.0 0.8352532305729171 -0.609062763351743
4388000000.0 0.794391824476073 -0.574265244939477
4391000000.0 0.8106667562207414 -0.6191769955317398
4394000000.0 0.7860146080494155 -0.5810957691195817
4397000000.0 0.780660878234134 -0.6312422900338203
4400000000.0 0.8590986086709362 -0.6310745447223951
4403000000.0 0.8243140603479708 -0.618120986031289
4406000000.0 0.8025174716383553 -0.611501774834989
4409000000.0 0.842743427986665 -0.6327248182491279
4412000000.0 0.7879670491727713 -0.6436751573506329
4416000000.0 0.7956698279266619 -0.5965991335188294
4419000000.0 0.8006370812547604 -0.6146757019651011
4422000000.0 0.8064207981753765 -0.6263181365440204
4425000000.0 0.8470655363265217 -0.5929066897239554
4428000000.0 0.8107598309423797 -0.6075291647594576
4431000000.0 0.8287600597616458 -0.6090443346384056
4434000000.0 0.808349379511076 -0.5975257683215282
4438000000.0 0.8448143136590631 -0.611359294554292
4441000000.0 0.8392304543371103 -0.6075923340425042
4444000000.0 0.7987211303373163 -0.5798037131844859
4447000000.0 0.7808033374234663 -0.632376812801402
4450000000.0 0.7978932703108387 -0.5920293410077182
4453000000.0 0.8179498397063986 -0.6541961846007196
4456000000.0 0.7658083310321885 -0.6241816899840171
4459000000.0 0.7602790071289574 -0.6147313120154061
4462000000.0 0.8474837288486461 -0.670617224639712
4466000000.0 0.8365391784437477 -0.6483397270189977
4469000000.0 0.8337801674680209 -0.5840861778383271
4472000000.0 0.8133709355160677 -0.6441540517237611
4475000000.0 0.7935032186580887 -0.5940876557664749
4478000000.0 0.8214739522807327 -0.6633154949296342
4481000000.0 0.7858404565311503 -0.5951748870051857
4484000000.0 0.7629685987988121 -0.6269767737095245
4488000000.0 0.7876416463620987 -0.609599077738914
4491000000.0 0.8005198074065838 -0.6236768170049457
4494000000.0 0.8053419720087824 -0.6023381907464744
4497000000.0 0.8132320740539145 -0.6036210602537762
4500000000.0 0.822683374109439 -0.5989391601767813
4503000000.0 0.8334491449613449 -0.6072420452957107
4506000000.0 0.7958650861508092 -0.5876138856092192
4509000000.0 0.7850465744349387 -0.597868543258214
4512000000.0 0.7728291676836513 -0.6163635904150128
4516000000.0 0.8435932260978144 -0.61172877492347
4519000000.0 0.7942379993465564 -0.5782209897736541
4522000000.0 0.803381934534278 -0.6221810195714397
4525000000.0 0.8166383372057784 -0.5633211259799794
4528000000.0 0.8156514305174974 -0.6474214710413779
4531000000.0 0.790518882550164 -0.6081705766365176
4534000000.0 0.7636946224584092 -0.6282574417594103
4538000000.0 0.7975683108781519 -0.6170864381406744
4541000000.0 0.754410797518763 -0.6657580315105636
4544000000.0 0.7933340806287357 -0.5930638045351682
4547000000.0 0.7954251928497696 -0.5954071354109551
4550000000.0 0.7869184476257163 -0.6321442801499233
4553000000.0 0.7881637705201967 -0.621350204048993
4556000000.0 0.7640653441760521 -0.6060439154879801
4559000000.0 0.779595419944649 -0.6632798570188188
4562000000.0 0.7893633977159166 -0.62797017260339
4566000000.0 0.8010795595173628 -0.6184846853683463
4569000000.0 0.7792794993847583 -0.6076337137471062
4572000000.0 0.7834302593156884 -0.6024080462152326
4575000000.0 0.7707200774685313 -0.6779208972925723
4578000000.0 0.80740887652579 -0.6499015075798478
4581000000.0 0.7996535092809018 -0.6433783180944033
4584000000.0 0.7813234959857402 -0.6224989915079755
4588000000.0 0.8108150506359127 -0.6178496490963212
4591000000.0 0.7921833257462476 -0.6126834923674602
4594000000.0 0.7789729324475435 -0.6265627505997695
4597000000.0 0.801534912911815 -0.6484334346572209
4600000000.0 0.7375015637885685 -0.6304344759564411
4603000000.0 0.8019727945908293 -0.6310702167541402
4606000000.0 0.7907955861696377 -0.6175378866616006
4609000000.0 0.7803306303169741 -0.6361071232260609
4612000000.0 0.8100714680787102 -0.6349855710477856
4616000000.0 0.7794138905354213 -0.6259799310115994
4619000000.0 0.7747221854493855 -0.646026456241465
4622000000.0 0.8090641375785035 -0.5964080784164064
4625000000.0 0.7317901854010073 -0.6283460674224134
4628000000.0 0.7901405439021402 -0.5984946528124347
4631000000.0 0.7431558573300395 -0.6351236152335478
4634000000.0 0.8047805592323379 -0.6501731238439311
4638000000.0 0.780551835428897 -0.6442605477470128
4641000000.0 0.8016362377072614 -0.6290976739804937
4644000000.0 0.7805051237676116 -0.6315849342763132
4647000000.0 0.7817917255153741 -0.6611564312120055
4650000000.0 0.7560622739154851 -0.6759855920171046
4653000000.0 0.8003313754739037 -0.6481889288249647
4656000000.0 0.7497920310414953 -0.6496549509161327
4659000000.0 0.7826359800833782 -0.6422457682402076
4662000000.0 0.7867146603817042 -0.6114441064588653
4666000000.0 0.7811357212983694 -0.6152808828134277
4669000000.0 0.7782236907654861 -0.6257790680666764
4672000000.0 0.7773629474939169 -0.635097406039981
4675000000.0 0.7559078227660511 -0.6607096524995658
4678000000.0 0.7874748244827974 -0.6297513787693618
4681000000.0 0.7626537422863234 -0.676139087028663
4684000000.0 0.7580226338008919 -0.6377875845763206
4688000000.0 0.7559516433455977 -0.6606109312766848
4691000000.0 0.793706846198656 -0.6208333472424252
4694000000.0 0.770830422252145 -0.6753818896597653
4697000000.0 0.7633127323855116 -0.6478089261395193
4700000000.0 0.802261416396956 -0.6350819378168376
4703000000.0 0.7747091175411615 -0.6476026330440664
4706000000.0 0.7964218360805444 -0.6475863050165623
4709000000.0 0.7615432340128481 -0.6423201408506222
4712000000.0 0.7663675279918405 -0.6385919421729089
4716000000.0 0.7719085321460559 -0.6877352099142786
4719000000.0 0.7882855613093063 -0.6307690986104427
4722000000.0 0.7915267768080391 -0.6342942822011565
4725000000.0 0.7742732395051446 -0.6319045094574607
4728000000.0 0.7789821602978451 -0.6350587885690591
4731000000.0 0.8195822592718371 -0.6307139180033954
4734000000.0 0.7769561773727658 -0.6263810690429655
4738000000.0 0.7769862233053273 -0.669547860230607
4741000000.0 0.7680972895310969 -0.6720836860184767
4744000000.0 0.7746207908514905 -0.6589562917101623
4747000000.0 0.7719037667500461 -0.635320903397667
4750000000.0 0.7731545899465511 -0.68216838580519
4753000000.0 0.7865941278688571 -0.659285170382364
4756000000.0 0.7698268479388118 -0.6699488668451461
4759000000.0 0.7969232492292273 -0.6627570840776031
4762000000.0 0.7218499212506094 -0.7084924277931313
4766000000.0 0.755194461076268 -0.6637042363259462
4769000000.0 0.7913906335751237 -0.6684288285656523
4772000000.0 0.7559009979314316 -0.669504673449372
4775000000.0 0.7743454979641918 -0.6928004860419096
4778000000.0 0.7988872930002475 -0.6420742241336185
4781000000.0 0.7966414258187097 -0.6447184920787359
4784000000.0 0.7724902351454155 -0.6168307874939913
4788000000.0 0.7600903131979696 -0.6516020125071015
4791000000.0 0.7815264567271661 -0.648796365722897
4794000000.0 0.7931766710926713 -0.6647142112480738
4797000000.0 0.7432300579627634 -0.6735615747254409
4800000000.0 0.7280380461821894 -0.6726302313066738
4803000000.0 0.7640296052791804 -0.6619665231870716
4806000000.0 0.7706059139725532 -0.6799900712413706
4809000000.0 0.7643401966480751 -0.6691968891773303
4812000000.0 0.7281908515425838 -0.7086772295471362
4816000000.0 0.7751630241228679 -0.6461817321735666
4819000000.0 0.7982697600186994 -0.6781482379509783
4822000000.0 0.7818468545691639 -0.6601073186723185
4825000000.0 0.7953444121996373 -0.660638072485333
4828000000.0 0.7695561072916561 -0.656979811950319
4831000000.0 0.7421006780007149 -0.7230819867344858
4834000000.0 0.7658631686262805 -0.6542486526667506
4838000000.0 0.7712092153385869 -0.6836997341034803
4841000000.0 0.7550588927049839 -0.6657687065115644
4844000000.0 0.7806184157150156 -0.6245775886306641
4847000000.0 0.7743127074275612 -0.6500858890877852
4850000000.0 0.7759402416994166 -0.6779414971511011
4853000000.0 0.7530777981707233 -0.658903914480635
4856000000.0 0.7497358834283002 -0.661203474654556
4859000000.0 0.7767674954886957 -0.7299724011465233
4862000000.0 0.7646807027309209 -0.6427603469043996
4866000000.0 0.7545089690402906 -0.7209384821854109
4869000000.0 0.755013631199865 -0.6967003825609154
4872000000.0 0.7582729898733568 -0.6922283945031469
4875000000.0 0.8162832818224188 -0.6835971162413003
4878000000.0 0.7776834729829987 -0.6835221878881601
4881000000.0 0.7941384981944395 -0.7241360087221342
4884000000.0 0.7817546349626177 -0.6571980609296568
4888000000.0 0.7919193871494103 -0.6543685943112376
4891000000.0 0.7956831501792517 -0.6698294503382077
4894000000.0 0.7630080211615916 -0.6797963410439414
4897000000.0 0.7850870170257241 -0.642188776238654
4900000000.0 0.7668799625335754 -0.6960239951294698
4903000000.0 0.7921630972645182 -0.6707234254888079
4906000000.0 0.7716244034513777 -0.6730279021385265
4909000000.0 0.766502966743827 -0.680213284036274
4912000000.0 0.7771600630505989 -0.7204630899367213
4916000000.0 0.831218419811385 -0.6688261861578475
4919000000.0 0.8222945671176057 -0.6659240229516622
4922000000.0 0.7877060331554223 -0.6926901844448328
4925000000.0 0.7529233013017913 -0.6852793181291734
4928000000.0 0.7888914725411056 -0.6192908993624553
4931000000.0 0.7964377363816959 -0.6532292729825913
4934000000.0 0.7429387868898395 -0.6414403037278512
4938000000.0 0.738955875696957 -0.6854135535994179
4941000000.0 0.7603431219904953 -0.679203741092497
4944000000.0 0.7459737984311334 -0.6486577970584421
4947000000.0 0.7846732794454024 -0.644023310001774
4950000000.0 0.7682095724527302 -0.6544973870884936
4953000000.0 0.793898665905312 -0.7391675147705317
4956000000.0 0.7679021277506913 -0.7376153594541702
4959000000.0 0.7344761453363362 -0.6773686421842366
4962000000.0 0.7503618909980748 -0.7168578364374957
4966000000.0 0.8002116279150294 -0.6792173153627571
4969000000.0 0.8236224046774752 -0.6743065627160816
4972000000.0 0.7719412733900267 -0.6898260406365592
4975000000.0 0.7804029185947741 -0.6322898938212173
4978000000.0 0.7514533813004018 -0.6782063065022879
4981000000.0 0.7710359737480359 -0.6790849550464247
4984000000.0 0.78287664334886 -0.6644795600747148
4988000000.0 0.7696206989543333 -0.654281398860388
4991000000.0 0.8268418498360038 -0.6491506809332576
4994000000.0 0.784214008731584 -0.6686642360089564
4997000000.0 0.76600720313955 -0.7093471218782678
5000000000.0 0.8447285474707034 -0.6741792743644052
5003000000.0 0.8242432247348234 -0.6582841355376269
5006000000.0 0.7980666590482716 -0.711882398984749
5009000000.0 0.7938602324706574 -0.6450161505003241
5012000000.0 0.7380326490805209 -0.6643788238752498
5016000000.0 0.8404835132220133 -0.6518029228085813
5019000000.0 0.753104883407095 -0.6971987080515644
5022000000.0 0.776753325683172 -0.7026911899766978
5025000000.0 0.8386353855266069 -0.7033800841739457
5028000000.0 0.7821210132730272 -0.7092676102367944
5031000000.0 0.7742744132776143 -0.6538645225983054
5034000000.0 0.7697283179854294 -0.7267392873746874
5038000000.0 0.7404418397493783 -0.6752766773946329
5041000000.0 0.8259741452317297 -0.6444490238619115
5044000000.0 0.8293222447681429 -0.6412904784239872
5047000000.0 0.7977783445822431 -0.6755707696613866
5050000000.0 0.8114515413232295 -0.5958401889827742
5053000000.0 0.8029518047799115 -0.7182136989782232
5056000000.0 0.8078770182232506 -0.6519656933720209
5059000000.0 0.8306748006980713 -0.6091820781478363
5062000000.0 0.7994990636626986 -0.7089381764443504
5066000000.0 0.8175877040301222 -0.6030367271826327
5069000000.0 0.7711508982970815 -0.6812330441953315
5072000000.0 0.7622784468870777 -0.6245184891529141
5075000000.0 0.7950713653151512 -0.6799998436075796
5078000000.0 0.7734271832669829 -0.7528291570905863
5081000000.0 0.7746018622156463 -0.6508733552476524
5084000000.0 0.7988434476685692 -0.67689599035452
5088000000.0 0.7908303322017924 -0.6462808516666586
5091000000.0 0.7616228856974057 -0.7128915620778397
5094000000.0 0.800179250645818 -0.6830665671290989
5097000000.0 0.8514383221578292 -0.640214137723101
5100000000.0 0.7974357116635706 -0.6824776260032701
5103000000.0 0.7885454898335066 -0.6642855791724954
5106000000.0 0.8637188083724406 -0.6817392633401463
5109000000.0 0.830203574198655 -0.6183574911665322
5112000000.0 0.7969917804920699 -0.6481507135331449
5116000000.0 0.7561205948267582 -0.6274681253691377
5119000000.0 0.8676827229313948 -0.6446438517635755
5122000000.0 0.8161855420381701 -0.6792059978585887
5125000000.0 0.805383435017928 -0.6626964809876412
5128000000.0 0.7845130971597964 -0.7039213716968921
5131000000.0 0.759085253518674 -0.6445867823854028
5134000000.0 0.8173077963977065 -0.6567062942349948
5138000000.0 0.8026007881047322 -0.6491477488780826
5141000000.0 0.8510566517046607 -0.6219050344305171
5144000000.0 0.8174396091703965 -0.6375375074045004
5147000000.0 0.8395286332816898 -0.6744490200638613
5150000000.0 0.842706379095235 -0.651737919715579
5153000000.0 0.7964107915526969 -0.6603171498794421
5156000000.0 0.8446104632062437 -0.685813498962281
5159000000.0 0.8514671706417931 -0.6624862317532321
5162000000.0 0.8178178657986291 -0.6396577847308298
5166000000.0 0.8310490871642566 -0.7147807489181859
5169000000.0 0.8243083734841581 -0.6628102442953712
5172000000.0 0.7855020599225537 -0.644621303991104
5175000000.0 0.854863870223738 -0.660147835421214
5178000000.0 0.7978756944722021 -0.6746109905443853
5181000000.0 0.85893006568522 -0.6429844236669626
