! Created with skrf 1.8.0 (http://scikit-rf.org).
# Hz S RI R 50.0 
!freq ReS11 ImS11
4000000000.0 0.5221519824845802 -0.837410225700545
4003000000.0 0.6036930139930057 -0.9447752772258871
4006000000.0 0.5259746050090213 -0.895185379750187
4009000000.0000005 0.5498448005500898 -0.9148614262538064
4011999999.9999995 0.6125559665465787 -0.900414578480675
4016000000.0 0.5149120476321036 -0.8875902310939892
4019000000.0 0.5547823793275664 -0.8759879841314686
4022000000.0000005 0.5739205423184424 -0.8872914618481178
4025000000.0000005 0.4817453970796167 -0.9314558418641024
4027999999.9999995 0.5342648282717167 -0.9206666896821001
4030999999.9999995 0.5331351413727702 -0.8111251438282058
4034000000.0 0.5203637766346723 -0.8600646939664688
4038000000.0000005 0.5191280465646833 -0.9171723436474604
4041000000.0000005 0.5228894790416165 -0.8779551853847729
4043999999.9999995 0.5821429481463041 -0.9609097059785319
4046999999.9999995 0.579633066563576 -0.870205404214623
4050000000.0 0.5566229923153606 -0.9579668830854438
4053000000.0 0.5104061820073362 -0.9033266127250869
4056000000.0 0.5596963816404517 -0.8666721345999152
4059000000.0 0.5219353970442664 -0.8633132483215022
4062000000.0000005 0.5665805322571029 -0.8923681065009299
4066000000.0 0.4945992451755058 -0.8296116321118443
4069000000.0 0.5603521960061173 -0.9158287939927869
4072000000.0 0.5631833530485588 -0.8554199695328847
4075000000.0 0.6171417882939254 -0.896106495612731
4078000000.0000005 0.567898218151481 -0.8977435130131679
4081000000.0000005 0.5890828915209819 -0.8585769194204722
4083999999.9999995 0.5586821909604899 -0.9188462659724234
4088000000.0 0.6090121303012205 -0.8351153601211875
4091000000.0 0.6099377053373166 -0.9004527097375501
4094000000.0000005 0.5586558252866677 -0.8817403034955051
4097000000.0000005 0.5361694185055387 -0.8631072096761193
4099999999.9999995 0.5953108554534589 -0.8953504158307743
4102999999.9999995 0.5960528411935905 -0.8939045448101911
4106000000.0 0.52286593367701 -0.9123845337670946
4109000000.0 0.524500053052751 -0.8944064720637002
4112000000.0 0.5551119685355218 -0.8986558120412924
4115999999.9999995 0.5998833576420768 -0.8545988038094304
4119000000.0 0.552907140499782 -0.8585838363395506
4122000000.0 0.5583131543538037 -0.8850839979626196
4125000000.0 0.5362225415357893 -0.8927422057438665
4128000000.0 0.5640923585678509 -0.8383232892532327
4131000000.0 0.5068349920927235 -0.8555240862520518
4134000000.0000005 0.557827983878292 -0.8822888145852108
4138000000.0 0.5343787160142262 -0.8899423154614855
4141000000.0 0.5547154348920238 -0.8213806427523633
4144000000.0 0.5948461417611487 -0.8695633412156931
4147000000.0000005 0.5444705050269742 -0.8609458066231318
4150000000.0000005 0.5544766814889348 -0.8904474750472305
4152999999.9999995 0.5200348093255113 -0.8535951563585185
4155999999.9999995 0.5593167952778868 -0.8462172495204332
4159000000.0 0.538352191829877 -0.8612699884690393
4162000000.0 0.5791851012862639 -0.8576546586931026
4166000000.0000005 0.5565256672361173 -0.8853372362332539
4168999999.9999995 0.5216150174264108 -0.8670051785801126
4171999999.9999995 0.5702116608439429 -0.8502122076737005
4175000000.0 0.574787322410209 -0.8621648485003343
4178000000.0 0.5800000364970532 -0.8886665798679626
4181000000.0 0.5524426084484646 -0.8662155290870155
4184000000.0 0.5725528861309963 -0.8650997201060616
4187999999.9999995 0.5469222248054919 -0.8393239297143714
4191000000.0 0.5672170060887715 -0.8326632059413039
4194000000.0 0.5647267137294162 -0.8531834526692186
4197000000.0 0.5628440694110948 -0.8856587550349331
4200000000.0 0.5655306877524123 -0.857349064233982
4203000000.0000005 0.5764204653308648 -0.8661675666897554
4206000000.0000005 0.5721734504523698 -0.8801234848348604
4208999999.9999995 0.5741998418417784 -0.840571183154908
4211999999.9999995 0.5523670739221 -0.8593224842510183
4216000000.0 0.5779966869982736 -0.8655201587951964
4219000000.0000005 0.5655806953658551 -0.8647309609720913
4222000000.0000005 0.5464537511309837 -0.8665851121458558
4224999999.9999995 0.5586432638266072 -0.8522742669175712
4227999999.9999995 0.5569993554085955 -0.8568906264491056
4231000000.0 0.5673460814003247 -0.8655442837977444
4234000000.0 0.5650315979291507 -0.8815032623244172
4238000000.0000005 0.5620322529709185 -0.879298426263901
4240999999.9999995 0.544991781402139 -0.8670863459922306
4244000000.0 0.5706704958321029 -0.8512533978885553
4247000000.0 0.549716212573731 -0.8469959669603082
4250000000.0 0.5401047293426459 -0.8425221830941331
4253000000.0 0.522975293469668 -0.8562961063388267
4256000000.0 0.5681104776612246 -0.8742405801021153
4259000000.0000005 0.5402651218910217 -0.830380873101647
4261999999.9999995 0.5353405141077546 -0.877904541535355
4266000000.0 0.5520374137767453 -0.8790180404531891
4269000000.0 0.5484691084686686 -0.8449983277867786
4272000000.0000005 0.5391172315375721 -0.8504780531631346
4275000000.0000005 0.562067162496466 -0.8773668129564575
4277999999.9999995 0.5744796736484689 -0.8809160762845364
4280999999.9999995 0.5678845295299603 -0.8481226111889851
4284000000.0 0.5469534981825882 -0.8784545575422755
4288000000.0000005 0.5858843680922717 -0.8416631717827348
4291000000.0000005 0.5227640783969002 -0.8363263448772074
4293999999.9999995 0.5440560895985399 -0.8582306729447635
4297000000.0 0.558539478886266 -0.8195299082306999
4300000000.0 0.5486531709853603 -0.8285304646564474
4303000000.0 0.5058455978140506 -0.8643335994540127
4306000000.0 0.5759343098340703 -0.846868049908801
4309000000.0 0.5654285857779562 -0.847265702228562
4312000000.0 0.6019572364744517 -0.861920080763395
4316000000.0 0.5850283260613748 -0.8791938549803289
4319000000.0 0.5518472881670818 -0.8346752755620817
4322000000.0 0.5288764582181922 -0.8305366539791551
4325000000.0 0.5674742167152745 -0.8577717147899185
4328000000.0 0.5388884314478117 -0.8676487785373981
4331000000.0 0.5350349785804324 -0.8655689503611743
4334000000.0 0.5534047081079475 -0.8690627882856408
4338000000.0 0.5773982196630365 -0.8651476920989384
4341000000.0 0.5866839670167652 -0.8382377664078432
4344000000.0 0.5666921921065884 -0.8748715807321711
4347000000.0 0.5416209659046571 -0.8936727161811711
4350000000.0 0.5123683395055953 -0.8286317954994876
4353000000.0 0.5414093895384454 -0.8476311850126974
4356000000.0 0.5146605987359507 -0.8629382040862106
4359000000.0 0.5315604166835575 -0.805005022870256
4362000000.0 0.5324015178967003 -0.9061171589270612
4366000000.0 0.5402639872745153 -0.8808377481695466
4369000000.0 0.533683066733004 -0.8148431862632741
4372000000.0 0.48884736152607133 -0.8678981823547676
4375000000.0 0.5600431855690874 -0.8408603784762958
4378000000.0 0.5399580570232156 -0.8383316143890336
4381000000.0 0.5481887161844974 -0.8487918410802214
4384000000.0 0.5764451770616592 -0.9083495460618333
4388000000.0 0.546304135412598 -0.8352814552129515
4391000000.0 0.5596523545937402 -0.8474207236578594
4394000000.0 0.5246252921889707 -0.8262856285747068
4397000000.0 0.5543880878482477 -0.8595437148971762
4400000000.0 0.5559275430258589 -0.8825442258106366
4403000000.0 0.5561983766061176 -0.8607069848454236
4406000000.0 0.5154757101715495 -0.8700557454160831
4409000000.0 0.5606694701020569 -0.8912120970229211
4412000000.0 0.4948380020920109 -0.8817701989285569
4416000000.0 0.5256697307500464 -0.8402409713713541
4419000000.0 0.5225706350167103 -0.8722209609790124
4422000000.0 0.5617148260462784 -0.8356301350103957
4425000000.0 0.561855465350362 -0.8639616323202177
4428000000.0 0.5475158529528796 -0.857904679114061
4431000000.0 0.5673498184491441 -0.8748254699620308
4434000000.0 0.5255130454626079 -0.8644304057314449
4438000000.0 0.5532490247409415 -0.8701658157618092
4441000000.0 0.5495672438595816 -0.8620757270932998
4444000000.0 0.5359544742680167 -0.8354932292038688
4447000000.0 0.52777431371936 -0.8688944096806992
4450000000.0 0.5376324047924816 -0.8385412600969677
4453000000.0 0.5547859755893392 -0.8862158595886952
4456000000.0 0.5076337632644897 -0.845856042227503
4459000000.0 0.5068932245229245 -0.8203320102324224
4462000000.0 0.5693207193879677 -0.9160354087201378
4466000000.0 0.5447570822251253 -0.8986539681915883
4469000000.0 0.5463554830525157 -0.8715872646362413
4472000000.0 0.5423302401039203 -0.8888982869754991
4475000000.0 0.5280186977555283 -0.8347339699114258
4478000000.0 0.5350850716971445 -0.9133735807124248
4481000000.0 0.497269602218257 -0.857513236215945
4484000000.0 0.5074349469840166 -0.8938474176286952
4488000000.0 0.5104573184937101 -0.834522681659472
4491000000.0 0.522861578951782 -0.8597799155394915
4494000000.0 0.5245830744060249 -0.8545709987537392
4497000000.0 0.5378955539033137 -0.8604577009055536
4500000000.0 0.5369983452645924 -0.8664649197355647
4503000000.0 0.5572390997618877 -0.8876966965349826
4506000000.0 0.5268340590247751 -0.8542350881772116
4509000000.0 0.5178198852405277 -0.8531263189491017
4512000000.0 0.4848828673585857 -0.8629343064846902
4516000000.0 0.5486797247902246 -0.8927521305683918
4519000000.0 0.5207720701125492 -0.8314429817132618
4522000000.0 0.5253080452327488 -0.892508238834835
4525000000.0 0.5608608040598084 -0.8471216826045658
4528000000.0 0.5225945939961645 -0.8891751861405272
4531000000.0 0.5346992718985095 -0.860736504174155
4534000000.0 0.5123746836290636 -0.8642178691080644
4538000000.0 0.5407511140655372 -0.8786724023356438
4541000000.0 0.48609566656536213 -0.870337727148491
4544000000.0 0.5191578358051703 -0.8323864000273737
4547000000.0 0.5446368615417095 -0.840120836828627
4550000000.0 0.5103474452120326 -0.8674067505061281
4553000000.0 0.5010152489620687 -0.8778894900001283
4556000000.0 0.5012814478180511 -0.8514962304313861
4559000000.0 0.5078159231968757 -0.8844044885838944
4562000000.0 0.5254999201763242 -0.8517340322806718
4566000000.0 0.5346118649807959 -0.8835413545916135
4569000000.0 0.5187335580526038 -0.8496386071809878
4572000000.0 0.5140049884958905 -0.8614496621939532
4575000000.0 0.5205360952056426 -0.8914383831981192
4578000000.0 0.5563714073232704 -0.8697786122188672
4581000000.0 0.5078576882079306 -0.884256268184801
4584000000.0 0.5103848208397241 -0.8677747953830323
4588000000.0 0.5493318051070896 -0.8825700369649601
4591000000.0 0.5319833695248425 -0.8626605732994896
4594000000.0 0.5011380009661494 -0.8763987981051854
4597000000.0 0.5250629900981567 -0.8773951469612695
4600000000.0 0.4950779040187498 -0.8808739926727197
4603000000.0 0.5099269409689808 -0.9006096321899557
4606000000.0 0.5302937600428324 -0.8738744633509552
4609000000.0 0.5322578314127936 -0.8754302872337036
4612000000.0 0.503383418985031 -0.8869514107259144
4616000000.0 0.49771902518840905 -0.8710833301445827
4619000000.0 0.5106999294532157 -0.8701095699352779
4622000000.0 0.5440594091957012 -0.8715013675828021
4625000000.0 0.47755498682803493 -0.8552741402556856
4628000000.0 0.5221369678294309 -0.8594509789499323
4631000000.0 0.48804341671911344 -0.8695640032590626
4634000000.0 0.5111956870484988 -0.8810359436556857
4638000000.0 0.5122373782520211 -0.8811635617599802
4641000000.0 0.5302845532417407 -0.8723509438352675
4644000000.0 0.49997908939642105 -0.8805937258969997
4647000000.0 0.531782764154846 -0.8665890111394601
4650000000.0 0.49335778601286734 -0.8854691497758365
4653000000.0 0.5153950087920732 -0.891924132609942
4656000000.0 0.5178064341454768 -0.8750355504387257
4659000000.0 0.5161763118530966 -0.871032941520355
4662000000.0 0.5158656803281825 -0.8872377884610096
4666000000.0 0.4907234143485414 -0.8897912935323331
4669000000.0 0.5294354483404158 -0.8664338456063653
4672000000.0 0.4745698770178034 -0.8957067045347464
4675000000.0 0.49906010923191046 -0.8892567349482646
4678000000.0 0.5021962890737552 -0.8762614989252953
4681000000.0 0.47034333766421565 -0.9043713254194253
4684000000.0 0.47545214377533784 -0.9013924705659485
4688000000.0 0.4948855466965821 -0.8841269702621811
4691000000.0 0.5250519336217704 -0.8937382833547598
4694000000.0 0.50373330983045 -0.8770295190981864
4697000000.0 0.49449011292377043 -0.8718800210672527
4700000000.0 0.5089310010297952 -0.8663823609426883
4703000000.0 0.5115280050194346 -0.8345410413413691
4706000000.0 0.4893797887850912 -0.8938805597669142
4709000000.0 0.4940532853763344 -0.9013046520586997
4712000000.0 0.5012564588268755 -0.8979961943236615
4716000000.0 0.5107257676958852 -0.912695943605887
4719000000.0 0.5376212162110194 -0.8755970027812544
4722000000.0 0.5197390173580339 -0.8598355444861657
4725000000.0 0.5038239256053864 -0.8834738452471844
4728000000.0 0.4926918698317077 -0.8977367036981695
4731000000.0 0.5202807257111407 -0.9186633895205101
4734000000.0 0.5153020807181075 -0.8743972577395298
4738000000.0 0.5334612232041636 -0.9229765429489684
4741000000.0 0.5056194942196297 -0.9231616007898934
4744000000.0 0.48496609922340395 -0.8969362554984931
4747000000.0 0.5062719508752851 -0.8607710738684655
4750000000.0 0.5065464974304787 -0.91159925922197
4753000000.0 0.5433304379602604 -0.9117147096419833
4756000000.0 0.5221433926224075 -0.9028959880685843
4759000000.0 0.5282552571947007 -0.8950069095485166
4762000000.0 0.5021730413059573 -0.9074727731052472
4766000000.0 0.496051788302145 -0.8903679708582833
4769000000.0 0.5128626840834555 -0.8943553472443161
4772000000.0 0.5143815318791679 -0.8822440081950457
4775000000.0 0.48452024459019744 -0.952634087871729
4778000000.0 0.5168750253129306 -0.8905089314474156
4781000000.0 0.48904337927667296 -0.8671186456692912
4784000000.0 0.5208755635232423 -0.8886288398421285
4788000000.0 0.5068966895878089 -0.9295833367742485
4791000000.0 0.500092349729012 -0.8877002350443574
4794000000.0 0.53271665364569 -0.9388272978594215
4797000000.0 0.4947835025283817 -0.8798924194033425
4800000000.0 0.5163870639031296 -0.8879127034046369
4803000000.0 0.46468738110095875 -0.9120215395811306
4806000000.0 0.48801632636229253 -0.9137392280509875
4809000000.0 0.47394316958267646 -0.9455137804783974
4812000000.0 0.4712988514474961 -0.9149360530075801
4816000000.0 0.5156938881474058 -0.8716736201150371
4819000000.0 0.5340893533289883 -0.8995061165674555
4822000000.0 0.5362354183307059 -0.9120018693855411
4825000000.0 0.534515484409773 -0.9019664719037888
4828000000.0 0.5183407771874529 -0.9116260434283088
4831000000.0 0.4648844867980375 -0.924520664900158
4834000000.0 0.5107676199446994 -0.8944697629311389
4838000000.0 0.5012432161228976 -0.9313188408839158
4841000000.0 0.4909043790994667 -0.8871960573124684
4844000000.0 0.510604004671413 -0.8843006647040518
4847000000.0 0.5149478101440541 -0.8617961749730336
4850000000.0 0.5081432401810948 -0.9223749814437873
4853000000.0 0.5042200394759269 -0.8731887490980513
4856000000.0 0.5038726278072512 -0.8823654959163202
4859000000.0 0.5010592012875336 -0.9284474692907606
4862000000.0 0.5048772241614543 -0.8562305295699797
4866000000.0 0.48456025535205227 -0.9119980497754147
4869000000.0 0.4978531012178423 -0.9150926203561033
4872000000.0 0.49841557577259155 -0.9190928653315178
4875000000.0 0.5759060345841117 -0.9145903874975694
4878000000.0 0.4902914129967272 -0.9042241619111555
4881000000.0 0.5174744670683549 -0.9834031609768611
4884000000.0 0.5556639116205353 -0.8765264865041184
4888000000.0 0.5334740575265969 -0.8985966805189876
4891000000.0 0.5358969978715584 -0.9109114680046396
4894000000.0 0.476386859264319 -0.9022043652653402
4897000000.0 0.5222953313549374 -0.8791417868688866
4900000000.0 0.5378184396455423 -0.9074305231143814
4903000000.0 0.5656260334642735 -0.9322670927847927
4906000000.0 0.532420412322964 -0.9098360561774869
4909000000.0 0.5182359815569173 -0.9238435505396874
4912000000.0 0.47863306144164885 -0.9395461254858025
4916000000.0 0.5509642936771196 -0.9006575616484008
4919000000.0 0.5398696302184457 -0.9116158025004517
4922000000.0 0.5582030239996709 -0.8832608892326725
4925000000.0 0.5027101244615524 -0.8830361606420944
4928000000.0 0.5807033244889531 -0.8730558964038817
4931000000.0 0.5423647778179517 -0.9157719888143249
4934000000.0 0.4847304822101455 -0.8384777880775913
4938000000.0 0.5022367840719137 -0.9133049369881007
4941000000.0 0.5275406552354726 -0.8529883619880502
4944000000.0 0.48378934130151585 -0.8162968562041304
4947000000.0 0.5216670237427952 -0.8764342819080277
4950000000.0 0.5090614401516202 -0.8705733048886629
4953000000.0 0.510994163213359 -0.939475975482555
4956000000.0 0.4968139024410698 -0.9290583623028772
4959000000.0 0.46081517291959806 -0.9009070288895796
4962000000.0 0.5195910099844634 -0.9017311312998492
4966000000.0 0.5464023364215791 -0.8984464349709249
4969000000.0 0.5594991999560257 -0.9481033227497476
4972000000.0 0.4791599251720548 -0.9165499529952856
4975000000.0 0.5541358958780382 -0.8867980999109594
4978000000.0 0.4874262318241943 -0.9368917209378724
4981000000.0 0.5086527406739543 -0.9422707122123986
4984000000.0 0.49496108382026804 -0.8899744337284042
4988000000.0 0.5337955301264663 -0.9155620777966724
4991000000.0 0.6060719129413302 -0.8930423408900781
4994000000.0 0.5640989580370158 -0.8605187058601521
4997000000.0 0.5016660279590823 -0.9276411666299886
5000000000.0 0.5545828510770416 -0.9100074279724166
5003000000.0 0.5758646725533494 -0.8922285850632681
5006000000.0 0.5301797757463635 -0.9419866321866277
5009000000.0 0.5244224701126261 -0.8868607903068412
5012000000.0 0.5012048554851468 -0.8776656643670407
5016000000.0 0.562783988356871 -0.8996706208447276
5019000000.0 0.505539441791165 -0.9015281643216327
5022000000.0 0.5281452608579662 -0.899809827254683
5025000000.0 0.5600454866206234 -0.9455948531241412
5028000000.0 0.5169306671737073 -0.9247734243426787
5031000000.0 0.5165613098730399 -0.9011182489966849
5034000000.0 0.5288653345065972 -0.9601971155642748
5038000000.0 0.5095313239852983 -0.8767808583347939
5041000000.0 0.5746835137227309 -0.862818043308293
5044000000.0 0.5450455351321492 -0.8470911581815175
5047000000.0 0.568335984597433 -0.8742621691024666
5050000000.0 0.5881754285628303 -0.8631158704582913
5053000000.0 0.535350564332111 -0.9456118032591457
5056000000.0 0.5871381373558943 -0.8636530746055149
5059000000.0 0.627796029340906 -0.8821880432780156
5062000000.0 0.5295761161502031 -0.9492746212311771
5066000000.0 0.5626780385828083 -0.8729016533592842
5069000000.0 0.546579001493837 -0.927690187017058
5072000000.0 0.5135342254251237 -0.899395354391104
5075000000.0 0.5609173982663243 -0.9036725953529485
5078000000.0 0.5010052516239933 -0.8980615865585131
5081000000.0 0.4966431959344513 -0.8986205188760498
5084000000.0 0.5484360699479442 -0.935710574525094
5088000000.0 0.5411668032423387 -0.8703327310770692
5091000000.0 0.5100608708277545 -0.9590639107545462
5094000000.0 0.5273814965909238 -0.9023404837414676
5097000000.0 0.5917664336172226 -0.8373516448765415
5100000000.0 0.5560915620661577 -0.8772374005312851
5103000000.0 0.5404185141106852 -0.946039544042256
5106000000.0 0.5873793437861471 -0.9587747844709015
5109000000.0 0.5433579232461294 -0.9339278781389024
5112000000.0 0.4963904412548855 -0.8647219853373986
5116000000.0 0.5367427920080537 -0.8517241402874308
5119000000.0 0.5730016224120345 -0.8709432451612307
5122000000.0 0.5417241181795738 -0.8454077409424221
5125000000.0 0.5761904266017329 -0.8258450140285468
5128000000.0 0.4971746875854893 -0.8370517282061587
5131000000.0 0.5405540736477494 -0.8771931262084228
5134000000.0 0.5798686407731044 -0.8765467371190138
5138000000.0 0.5524641586768193 -0.8618123312045121
5141000000.0 0.582909164552539 -0.8879128691578051
5144000000.0 0.598662442671329 -0.8855011620149909
5147000000.0 0.5520614925544971 -0.9431757118599002
5150000000.0 0.6165616151965223 -0.8824388203689866
5153000000.0 0.5471383074299838 -0.9285847607296305
5156000000.0 0.5861769974037246 -0.9191186965920559
5159000000.0 0.6157980341608044 -0.9349551900261727
5162000000.0 0.5736239474397768 -0.8862913235542069
5166000000.0 0.529499823927577 -0.9285569703145374
5169000000.0 0.6247831624622147 -0.9238024351814749
5172000000.0 0.5550839256835544 -0.871670884570507
5175000000.0 0.5816719219092142 -0.9176392748523867
5178000000.0 0.5726695190800483 -0.8994207966461236
