! Created with skrf 1.8.0 (http://scikit-rf.org).
# Hz S RI R 50.0 
!freq ReS11 ImS11
4000000000.0 0.5233085765617591 -0.8741217481886889
4003000000.0 0.5238374702652022 -0.9440897031289692
4006000000.0 0.4990383943243195 -0.9190640418183798
4009000000.0000005 0.5060952591539027 -0.9445668068366313
4011999999.9999995 0.5690703849164903 -0.944258336766889
4016000000.0 0.5059971081979784 -0.9614989882931748
4019000000.0 0.5383798354255203 -0.8570693796149116
4022000000.0000005 0.5543242680595263 -0.9007187227844103
4025000000.0000005 0.49451619629503385 -0.9232788690227813
4027999999.9999995 0.5128981741037095 -0.9019263166591452
4030999999.9999995 0.4873738876236725 -0.898264785541059
4034000000.0 0.49338821751976525 -0.8849114250680571
4038000000.0000005 0.48883469645142624 -0.9416538608021463
4041000000.0000005 0.518123788732268 -0.899050806965314
4043999999.9999995 0.5310000959646348 -0.9265678317560792
4046999999.9999995 0.5358160878147614 -0.9275732689971659
4050000000.0 0.4705479961491992 -0.9621805909525796
4053000000.0 0.4654851632516152 -0.8778135637278832
4056000000.0 0.5293420995646865 -0.9304995864496292
4059000000.0 0.48213386739653075 -0.9049439091197465
4062000000.0000005 0.5141342679310468 -0.8927591358887934
4066000000.0 0.4511085821386783 -0.8439457210127755
4069000000.0 0.5044816638131815 -0.9715123525331401
4072000000.0 0.5347408109177706 -0.8689064136417788
4075000000.0 0.5304127301593028 -0.9113190771979822
4078000000.0000005 0.5017888526831552 -0.9350603092750698
4081000000.0000005 0.5972212963222061 -0.9063679371647676
4083999999.9999995 0.4990882897406078 -0.9393972168081779
4088000000.0 0.5401394516574465 -0.9041268430542654
4091000000.0 0.5163053432383329 -0.9552732686055405
4094000000.0000005 0.4969849450989809 -0.9346951900308119
4097000000.0000005 0.5064637853529932 -0.9382111650915248
4099999999.9999995 0.471834354876553 -0.9105440313334467
4102999999.9999995 0.5148449610630655 -0.9295447322321397
4106000000.0 0.4746806150857361 -0.921853129610669
4109000000.0 0.482126706804044 -0.916258001933454
4112000000.0 0.5058310526680485 -0.9102701201947504
4115999999.9999995 0.5115199135824108 -0.9134392864564124
4119000000.0 0.4845931933599721 -0.9372181478246393
4122000000.0 0.49292413729757395 -0.9229885150723134
4125000000.0 0.5122990723161693 -0.9494387345964587
4128000000.0 0.5094769695082367 -0.8692225907397269
4131000000.0 0.48028934016857194 -0.9147439366910798
4134000000.0000005 0.5156361971176824 -0.9264905937601015
4138000000.0 0.4983654425857495 -0.903878276357776
4141000000.0 0.4969455292685884 -0.9113987419890942
4144000000.0 0.5345546162713476 -0.8990670839443818
4147000000.0000005 0.5059505129202002 -0.8989362001535023
4150000000.0000005 0.4966082456009858 -0.9536399694792838
4152999999.9999995 0.5174371499724266 -0.893502306319024
4155999999.9999995 0.4952414794416984 -0.9174330189448134
4159000000.0 0.5081763100844109 -0.8894086763368702
4162000000.0 0.5022172166080903 -0.9019297152407316
4166000000.0000005 0.4834576457209623 -0.894952611695466
4168999999.9999995 0.49495506999679767 -0.9297061907713062
4171999999.9999995 0.5027682212223535 -0.9050153801187589
4175000000.0 0.5228445051235785 -0.9102203492617132
4178000000.0 0.5288952061568837 -0.9192326201846666
4181000000.0 0.5304336106368464 -0.931257752289431
4184000000.0 0.5239417186478588 -0.8947440653220252
4187999999.9999995 0.4781125611875857 -0.909135846267337
4191000000.0 0.5268402220256261 -0.8715216541235864
4194000000.0 0.4829734286411793 -0.8809470080793076
4197000000.0 0.5077991449383004 -0.8918883344156505
4200000000.0 0.506958422164455 -0.8831461739842494
4203000000.0000005 0.5107998088803419 -0.9180982814735263
4206000000.0000005 0.5147026657301901 -0.9118729944150715
4208999999.9999995 0.4966496017343832 -0.8749604570934334
4211999999.9999995 0.48530447933023024 -0.9235861157860822
4216000000.0 0.5203046567838554 -0.8817021270669954
4219000000.0000005 0.5143461781800718 -0.9042391913664103
4222000000.0000005 0.5052810509686091 -0.908451754335897
4224999999.9999995 0.5085211881595079 -0.8884225991823732
4227999999.9999995 0.5069434177190133 -0.9076609292400504
4231000000.0 0.48451413017248723 -0.905722507787214
4234000000.0 0.4894685351151884 -0.9005664148170198
4238000000.0000005 0.48320321335877836 -0.9046907328393055
4240999999.9999995 0.48547315065330554 -0.9064475731751294
4244000000.0 0.5008651403361061 -0.8877872883108904
4247000000.0 0.506111578190534 -0.8927355076531331
4250000000.0 0.48485523559406196 -0.872014337855125
4253000000.0 0.4770114500527204 -0.8891388788145684
4256000000.0 0.4975657734990966 -0.9327344930226737
4259000000.0000005 0.49104251674608246 -0.8667729000752812
4261999999.9999995 0.49231518016069004 -0.9047246854024457
4266000000.0 0.4825159952939827 -0.9311254272663136
4269000000.0 0.5025521525222441 -0.9043069831601854
4272000000.0000005 0.49929893424463134 -0.8951407457800582
4275000000.0000005 0.5021358560816348 -0.8873370321128222
4277999999.9999995 0.4841508093393184 -0.9071275429591659
4280999999.9999995 0.52278896588542 -0.9097481843933266
4284000000.0 0.4684384465209191 -0.9242793324969014
4288000000.0000005 0.5355921079659806 -0.8721768365483187
4291000000.0000005 0.47222232797687325 -0.8629928101942576
4293999999.9999995 0.48297466948963275 -0.9003223741318268
4297000000.0 0.5132184077834834 -0.8673077077892383
4300000000.0 0.47808180782626397 -0.8586956993710644
4303000000.0 0.47111587659386306 -0.8850469230495487
4306000000.0 0.5338138022050045 -0.8964149856650822
4309000000.0 0.48394026351664304 -0.8790187665073975
4312000000.0 0.528902386115617 -0.9074187999509267
4316000000.0 0.4901311662985616 -0.9001929491584525
4319000000.0 0.5130238809213689 -0.8887907935553686
4322000000.0 0.45742369061654997 -0.893980124147705
4325000000.0 0.5289156882109045 -0.8842785646977683
4328000000.0 0.4772972244953494 -0.8855332990808545
4331000000.0 0.4738191495270438 -0.928943594189756
4334000000.0 0.48833751953211446 -0.9132268624852233
4338000000.0 0.49316609308718823 -0.8727458796639661
4341000000.0 0.5255319436458966 -0.8963905334760514
4344000000.0 0.5063381598194489 -0.9108541815366286
4347000000.0 0.47636865224085434 -0.9234326492275402
4350000000.0 0.47839106106968066 -0.8902209434690647
4353000000.0 0.491766601496726 -0.8552637759902441
4356000000.0 0.46003636298140554 -0.8934133093099529
4359000000.0 0.4676469011868311 -0.8425164576994005
4362000000.0 0.44749385232064776 -0.9415898820665993
4366000000.0 0.49104655243079076 -0.9287625359114862
4369000000.0 0.47096651097775977 -0.878011029784929
4372000000.0 0.44600447514107555 -0.9213967752005355
4375000000.0 0.48528648950479325 -0.8892892104271476
4378000000.0 0.4553858260795136 -0.8824282343779526
4381000000.0 0.4817360470573187 -0.8812318340574787
4384000000.0 0.5006684879222387 -0.9558845461007774
4388000000.0 0.47750261941739697 -0.8764080144792528
4391000000.0 0.487451746551082 -0.8967835941570208
4394000000.0 0.4643916166845248 -0.8765198568055353
4397000000.0 0.4690622624861902 -0.8966211988824646
4400000000.0 0.48773444004754163 -0.9179658319586989
4403000000.0 0.4790024497739359 -0.913811727242381
4406000000.0 0.4592372073948531 -0.9193469097716149
4409000000.0 0.48685145698700827 -0.933019309128817
4412000000.0 0.42763305124450657 -0.9163604844625701
4416000000.0 0.45459180121134724 -0.8999190148067311
4419000000.0 0.4623336846201653 -0.9114254809271
4422000000.0 0.4904869231245456 -0.8967474015039016
4425000000.0 0.4885505006578214 -0.8917153606242427
4428000000.0 0.46677097118702726 -0.9015655760008543
4431000000.0 0.4933418872261518 -0.9139170512822858
4434000000.0 0.4573682362707241 -0.8940836989410847
4438000000.0 0.47017084922515756 -0.9300845029865441
4441000000.0 0.4786906709273728 -0.8958003056063277
4444000000.0 0.4648815794669416 -0.8746168933993912
4447000000.0 0.4430870965210494 -0.9032962228607605
4450000000.0 0.46847197486282605 -0.8901883052617523
4453000000.0 0.49083092749289653 -0.921932197421818
4456000000.0 0.4601219025265167 -0.901617242952883
4459000000.0 0.44600346193042545 -0.8712259800321629
4462000000.0 0.4882659975606175 -0.9513631288773731
4466000000.0 0.46377198080024046 -0.9370287156113695
4469000000.0 0.48138466976410205 -0.9060291076338787
4472000000.0 0.45539010992291246 -0.941859643160764
4475000000.0 0.4479762531237357 -0.8749236666570852
4478000000.0 0.4697933742761602 -0.9382954256110907
4481000000.0 0.44265217602356044 -0.8807344493655322
4484000000.0 0.4197821694684704 -0.9165541268007817
4488000000.0 0.44163088729662187 -0.8947032690414598
4491000000.0 0.46559751950847744 -0.9083093691330035
4494000000.0 0.463200000325138 -0.8804681053454368
4497000000.0 0.4629529842280529 -0.8875811165163705
4500000000.0 0.47050321889050856 -0.9148662994917345
4503000000.0 0.49179360603104066 -0.9245233350114996
4506000000.0 0.4370387907377825 -0.8938578062237785
4509000000.0 0.4529245259005834 -0.8937790530200631
4512000000.0 0.4306744606321551 -0.8722975765692785
4516000000.0 0.47875800759670634 -0.930403218323318
4519000000.0 0.4384464804073584 -0.8892435160543553
4522000000.0 0.4514519806786703 -0.9104167042832896
4525000000.0 0.47955331130272333 -0.9016711392260874
4528000000.0 0.4804466058387024 -0.9495977623855161
4531000000.0 0.4371065102766646 -0.9098413983649944
4534000000.0 0.43379222162214864 -0.8952179525959707
4538000000.0 0.4372299786400431 -0.8922222468986909
4541000000.0 0.39193095704381276 -0.9073562879587074
4544000000.0 0.4541456031205447 -0.9007624219659568
4547000000.0 0.46522724306965085 -0.8832830582844723
4550000000.0 0.41881590965471127 -0.9485896639005691
4553000000.0 0.4269057002381765 -0.9220631190850886
4556000000.0 0.4386591512498682 -0.9126009941438351
4559000000.0 0.44343386717976047 -0.9291499762930489
4562000000.0 0.47134424596208596 -0.9351510398114464
4566000000.0 0.44466360974421587 -0.9359974779099063
4569000000.0 0.43326300563417613 -0.9135201730011345
4572000000.0 0.4376623040684234 -0.9225858999911131
4575000000.0 0.4255543066347634 -0.9234385727290628
4578000000.0 0.45575793736146514 -0.925808849358974
4581000000.0 0.42997896174387773 -0.9215338797080062
4584000000.0 0.4315239545969953 -0.9173342917489937
4588000000.0 0.4627078243630012 -0.9320672768681415
4591000000.0 0.44641768303515333 -0.9148917829518617
4594000000.0 0.4279971275086144 -0.9214993756437809
4597000000.0 0.4377621519613259 -0.9291132334981498
4600000000.0 0.403154310300069 -0.9257813445900052
4603000000.0 0.43006943597329594 -0.9216445935353994
4606000000.0 0.4374976770169303 -0.9357226145160327
4609000000.0 0.43110962382643675 -0.9240998932103891
4612000000.0 0.4222334276146934 -0.924526784443208
4616000000.0 0.4324595002833316 -0.9079274211247849
4619000000.0 0.4435433572657409 -0.9088918776057271
4622000000.0 0.4169491323911424 -0.9170123574128541
4625000000.0 0.38820095954529144 -0.9033495272983526
4628000000.0 0.4351662780677791 -0.9300033258384068
4631000000.0 0.41822229215978995 -0.9265075957649886
4634000000.0 0.4115677505877442 -0.937520683492367
4638000000.0 0.44161596363056244 -0.930533035979292
4641000000.0 0.42906541536662446 -0.9240278923545616
4644000000.0 0.4266727206640072 -0.9114163844004898
4647000000.0 0.43050394276092 -0.9215793909093412
4650000000.0 0.40542337398943273 -0.9187579868466847
4653000000.0 0.44483143258895425 -0.930611947028515
4656000000.0 0.4182389005753018 -0.9145067476793287
4659000000.0 0.42651793674788635 -0.94394618152485
4662000000.0 0.41482842513068774 -0.9576136653973321
4666000000.0 0.408399995621396 -0.93433915978197
4669000000.0 0.41690096944672556 -0.9036902841009575
4672000000.0 0.4012135978949328 -0.958634671466176
4675000000.0 0.3995305516531862 -0.9412911237203834
4678000000.0 0.42155223867245695 -0.9190943786141984
4681000000.0 0.4101226157105257 -0.9548158479484151
4684000000.0 0.4008243616617818 -0.9547045726729787
4688000000.0 0.39890154006434275 -0.9466809052930854
4691000000.0 0.4477175007319253 -0.9633023230191331
4694000000.0 0.44451318309803634 -0.9163070683181337
4697000000.0 0.3790353504857079 -0.9096649759692909
4700000000.0 0.41224817772551614 -0.9090081328895311
4703000000.0 0.42078175294112846 -0.9127742298453516
4706000000.0 0.4099311678836418 -0.9550684221184115
4709000000.0 0.4113014489316268 -0.9450421266967025
4712000000.0 0.4257197634390925 -0.9305411646751508
4716000000.0 0.4430718387991321 -0.9680210323306383
4719000000.0 0.4167928971225376 -0.9523564130947215
4722000000.0 0.4655744164325003 -0.9269284489724937
4725000000.0 0.4087435265950126 -0.9246757681236395
4728000000.0 0.39856887754860865 -0.9608653327804427
4731000000.0 0.44978058178869473 -0.9873209893170303
4734000000.0 0.42767022599994037 -0.9377392716846518
4738000000.0 0.42914746293716055 -0.9670934575552124
4741000000.0 0.4352043714916571 -0.9754055985989919
4744000000.0 0.3676387269073556 -0.9437461280122836
4747000000.0 0.42118482690629994 -0.895260176983783
4750000000.0 0.41942784922841014 -0.9492371422064204
4753000000.0 0.4069286111565993 -0.943885266451725
4756000000.0 0.41263623255898324 -0.9354539144931229
4759000000.0 0.4371891143204531 -0.9421154416395089
4762000000.0 0.3810444882297539 -0.9746086148996704
4766000000.0 0.4111210438214023 -0.9408390790222918
4769000000.0 0.423555873446389 -0.960419353985745
4772000000.0 0.41484878231193734 -0.9426863983919926
4775000000.0 0.4072046099974052 -1.000229608413073
4778000000.0 0.4184048099597212 -0.9542687182254204
4781000000.0 0.4121089221066412 -0.9176987067852628
4784000000.0 0.4101269111289413 -0.9463798701241334
4788000000.0 0.39370383403971165 -0.9445970500700176
4791000000.0 0.38774590075228 -0.9582066784349869
4794000000.0 0.4585921707379767 -0.9647471834299131
4797000000.0 0.4092246109550661 -0.924776497721045
4800000000.0 0.39086352654257633 -0.929807915702542
4803000000.0 0.37872966762704713 -0.976910596023611
4806000000.0 0.41225871262534924 -0.9749374816223224
4809000000.0 0.3479369033942351 -0.9550389165580379
4812000000.0 0.35477160017061904 -0.9622110122816243
4816000000.0 0.4107014274831522 -0.9435180875494003
4819000000.0 0.4357121046603625 -0.9614625637787105
4822000000.0 0.4269433424951975 -0.9793285218236656
4825000000.0 0.4423909806972224 -0.9706679960427701
4828000000.0 0.3976409855550921 -0.9378603538568998
4831000000.0 0.3762624746853258 -0.9868701230907491
4834000000.0 0.430248365868947 -0.9350356421623585
4838000000.0 0.3869103800975718 -0.9753789760057103
4841000000.0 0.388587534386042 -0.9559949015562729
4844000000.0 0.43263860561884593 -0.9433823498492644
4847000000.0 0.44334226639496166 -0.9451741397339444
4850000000.0 0.3968827479949871 -0.9887096253332033
4853000000.0 0.3872613154509005 -0.9244945621065453
4856000000.0 0.4016468908410191 -0.9411153181699021
4859000000.0 0.3999768925437664 -0.9910858959608282
4862000000.0 0.4099536509593012 -0.9230994825198799
4866000000.0 0.38329574176201303 -0.983990547035149
4869000000.0 0.37200421162629016 -0.9698488262313897
4872000000.0 0.402612892517523 -1.0132285455428778
4875000000.0 0.4774119770972257 -0.987804446162727
4878000000.0 0.4028054890698289 -0.9704030643900344
4881000000.0 0.40633119970090487 -0.998677036877005
4884000000.0 0.44191108384915684 -0.9514899545489324
4888000000.0 0.4429272017050968 -0.9446422627636901
4891000000.0 0.45470042527426047 -0.9710313819697427
4894000000.0 0.37076056411999075 -0.9701973323443773
4897000000.0 0.4401273733444109 -0.9412811783596955
4900000000.0 0.4170705157643533 -0.9612701338893659
4903000000.0 0.42880555917184365 -0.9634312439248224
4906000000.0 0.4223864519621739 -0.9932438450397869
4909000000.0 0.4197359526131639 -0.9659066734266167
4912000000.0 0.4162144724465194 -0.9812972069775017
4916000000.0 0.45063199203699394 -0.991792570235517
4919000000.0 0.47343637277123823 -1.00885714129562
4922000000.0 0.4233898171002006 -0.9319339732771033
4925000000.0 0.41665663049744983 -0.967255834237006
4928000000.0 0.47305776078955475 -0.9352055099265996
4931000000.0 0.4473721507413263 -0.9540986090810952
4934000000.0 0.40042282684352837 -0.9215235458398685
4938000000.0 0.3849795203312931 -0.9642264120459113
4941000000.0 0.4107395079147764 -0.9533696847764312
4944000000.0 0.3995781268188509 -0.9256456000795201
4947000000.0 0.4275302210756391 -0.9411323277100863
4950000000.0 0.4072833588522769 -0.9350455566000223
4953000000.0 0.4031810182029829 -0.9832439738943535
4956000000.0 0.37640935607125564 -0.9812628613887386
4959000000.0 0.35499128341248265 -0.9406253806932592
4962000000.0 0.4020499155265198 -1.0108979244160785
4966000000.0 0.40444836136329065 -0.9796012738115796
4969000000.0 0.4637741479655159 -0.985096756230081
4972000000.0 0.39564308943422327 -0.973934619517296
4975000000.0 0.439341882601728 -0.9422504802641446
4978000000.0 0.3889837071996374 -0.9471967380067718
4981000000.0 0.42910026232882525 -0.9606593356974055
4984000000.0 0.41650841124502835 -0.9626668581611886
4988000000.0 0.4264978333146888 -0.9771831968391813
4991000000.0 0.47522256616987296 -0.9504832115564603
4994000000.0 0.4511417772362597 -0.9586677147238922
4997000000.0 0.4005767961887651 -0.9636558803570301
5000000000.0 0.4392571885254842 -0.9967931721417871
5003000000.0 0.41730311935093506 -0.9996827802400179
5006000000.0 0.43642185021431945 -1.0195858726405969
5009000000.0 0.42594682469776857 -0.9455925335663666
5012000000.0 0.4125221748943676 -0.9723294567961411
5016000000.0 0.4470180263969398 -1.001281884247651
5019000000.0 0.3984434594322108 -0.9693928231636946
5022000000.0 0.4191001001793725 -0.9598961111657558
5025000000.0 0.42197982389983946 -1.0296103387780577
5028000000.0 0.3832467724850861 -0.991710066570883
5031000000.0 0.3851697636470652 -0.988236803159874
5034000000.0 0.3964126336268164 -1.0262374934980896
5038000000.0 0.36454493593443615 -0.9674945575463149
5041000000.0 0.44956372180304044 -0.9635670279239541
5044000000.0 0.4112189629467144 -0.9298573996512403
5047000000.0 0.4469312466106292 -0.9723698429994709
5050000000.0 0.47338444156807963 -0.9273703354751869
5053000000.0 0.3941851555488133 -1.0211982813059177
5056000000.0 0.4641128435032236 -0.945229322420279
5059000000.0 0.4417911531997447 -0.9700763841921576
5062000000.0 0.39406636378986426 -1.0100897957328914
5066000000.0 0.4570222066645585 -0.9511126417176103
5069000000.0 0.4406219323060431 -0.9822742103323165
5072000000.0 0.42616297395286357 -0.9461558235252201
5075000000.0 0.4396883997725357 -0.9516775991488168
5078000000.0 0.3688264717991037 -0.9874605225579114
5081000000.0 0.3807383187451215 -0.9254684068877671
5084000000.0 0.4636770269887351 -1.0020905219290923
5088000000.0 0.46078707713133327 -0.9651603196726197
5091000000.0 0.36820901970876496 -0.9681349593468802
5094000000.0 0.4118122909663838 -1.0017291516948341
5097000000.0 0.43243354768037684 -0.9522393666577513
5100000000.0 0.43770517155511984 -0.9509724398416016
5103000000.0 0.41112334842175086 -1.0139562233007844
5106000000.0 0.4626761584063876 -0.9739170370934358
5109000000.0 0.5095458275705527 -0.9520342643908366
5112000000.0 0.42190153810965925 -0.9668657649771881
5116000000.0 0.4588802613558003 -0.9552663444741196
5119000000.0 0.4499340770095739 -0.9834656548502758
5122000000.0 0.4254820687018861 -0.9071602495642819
5125000000.0 0.4430567115297652 -0.965982192079269
5128000000.0 0.3743493191474019 -0.9691961476062234
5131000000.0 0.42563318469641104 -0.9554173041149074
5134000000.0 0.43780533483414513 -0.9430344911807464
5138000000.0 0.4113010550711334 -0.9798746425310726
5141000000.0 0.5113077770051687 -0.9509693736292895
5144000000.0 0.4370929062768842 -0.931395614985485
5147000000.0 0.43492869918109645 -0.970722248799314
5150000000.0 0.43338734957330893 -0.9850524167927304
5153000000.0 0.455134988668182 -0.9657666662855451
5156000000.0 0.44437222195294995 -0.9704213520369487
5159000000.0 0.42473372454138825 -1.0377071285680355
5162000000.0 0.38907643452015744 -0.975997381462871
5166000000.0 0.4165320772921863 -0.975634445653562
5169000000.0 0.4360963821393466 -0.9822500856395384
5172000000.0 0.4390176339325573 -0.931457684051417
