! Created with skrf 1.8.0 (http://scikit-rf.org).
# Hz S RI R 50.0 
!freq ReS11 ImS11
4000000000.0 0.5333475652200145 -0.9071967340873803
4003000000.0 0.5255422807758504 -0.9800291312623353
4006000000.0 0.4744435794648677 -0.9245282294271042
4009000000.0000005 0.535502173159019 -0.9273349373191933
4011999999.9999995 0.5403235167192655 -0.9045127831024213
4016000000.0 0.42497714515662977 -0.9711255271134408
4019000000.0 0.47894535118418413 -0.8994551038904128
4022000000.0000005 0.5402127292545339 -0.9122047745776313
4025000000.0000005 0.4653138287095814 -0.9610106999074819
4027999999.9999995 0.5257952196279386 -0.9087427287856429
4030999999.9999995 0.4332564183705814 -0.9070462647749579
4034000000.0 0.47638383279253804 -0.9681376336110941
4038000000.0000005 0.4727750748275794 -0.8895338668976193
4041000000.0000005 0.47959631669217695 -0.9310015908304559
4043999999.9999995 0.5114773352524048 -0.9609778437938044
4046999999.9999995 0.4988186159755168 -0.9276617581461459
4050000000.0 0.45962151463017703 -0.9474028570596025
4053000000.0 0.47474441477908225 -0.8647050996033558
4056000000.0 0.4561912455046093 -0.905788338684833
4059000000.0 0.49536997109353786 -0.892398458117751
4062000000.0000005 0.4535341790100955 -0.9151458783768539
4066000000.0 0.5012311724769913 -0.8625389886189565
4069000000.0 0.4595770776761188 -0.990500921783678
4072000000.0 0.5076117830054813 -0.8641359743333131
4075000000.0 0.5229819483833219 -0.9339137577665811
4078000000.0000005 0.4849551796004843 -0.9058002716354933
4081000000.0000005 0.5075029214766229 -0.8909787515002547
4083999999.9999995 0.4883140296197592 -0.9050366566505109
4088000000.0 0.5397599731958426 -0.8992571394846041
4091000000.0 0.49499587126876265 -0.9752312701732183
4094000000.0000005 0.48958584027608226 -0.9022144246164672
4097000000.0000005 0.519816053233624 -0.9261706164044855
4099999999.9999995 0.4631428852832573 -0.9347570213220538
4102999999.9999995 0.5018315272224655 -0.9636067095319345
4106000000.0 0.4953129587360515 -0.9268719476475387
4109000000.0 0.4632354200670912 -0.9197420708743133
4112000000.0 0.5010573554143489 -0.9133809178063372
4115999999.9999995 0.5472970909392284 -0.9001550538821452
4119000000.0 0.4635038606454226 -0.9229217903166961
4122000000.0 0.4873545325901247 -0.931368996386917
4125000000.0 0.5015003159915158 -0.951768874913112
4128000000.0 0.4842219866847218 -0.8979616608128488
4131000000.0 0.4695850959414273 -0.9096113051852385
4134000000.0000005 0.5020838891158459 -0.8984422703408027
4138000000.0 0.458633122752674 -0.888126694251207
4141000000.0 0.4828201607920546 -0.90649080889314
4144000000.0 0.5166300872075735 -0.9223927354727958
4147000000.0000005 0.5147593299989578 -0.8774146079514487
4150000000.0000005 0.5026043083146159 -0.9259195913585044
4152999999.9999995 0.47329278319234874 -0.9024957540075008
4155999999.9999995 0.5128080663612508 -0.9297804799889229
4159000000.0 0.494057620419172 -0.8582695973374646
4162000000.0 0.49758464533421454 -0.9120729521524015
4166000000.0000005 0.47490478110571166 -0.9197251252409488
4168999999.9999995 0.43014800150964455 -0.932147026895888
4171999999.9999995 0.49261459554126413 -0.9008656502627613
4175000000.0 0.4780455209471161 -0.9110979838547214
4178000000.0 0.4609261916779746 -0.9099062928356386
4181000000.0 0.47347913806020636 -0.9362981915213447
4184000000.0 0.459892636992449 -0.9076627848018056
4187999999.9999995 0.4801485743560825 -0.8905896150451692
4191000000.0 0.5216499428986477 -0.892667570363307
4194000000.0 0.48965423238099703 -0.8985144843506452
4197000000.0 0.49425004056511046 -0.9355859192330217
4200000000.0 0.5089085248196347 -0.8955318828851753
4203000000.0000005 0.49230800330975144 -0.9113007359391412
4206000000.0000005 0.5009729126905732 -0.9265904691852991
4208999999.9999995 0.4915524735844562 -0.9018149601582452
4211999999.9999995 0.46077749797494927 -0.911587569306895
4216000000.0 0.4924185927999275 -0.896307982365795
4219000000.0000005 0.4958471922163692 -0.9036829143122048
4222000000.0000005 0.4677673921912744 -0.9111747391828277
4224999999.9999995 0.47676562921237425 -0.8979449704232724
4227999999.9999995 0.4802309529778418 -0.9119993158487248
4231000000.0 0.46950652439807494 -0.9105134296967068
4234000000.0 0.4856926658083318 -0.9258195585065006
4238000000.0000005 0.47251503132566697 -0.919206015967085
4240999999.9999995 0.4607869905886842 -0.907563703557556
4244000000.0 0.47221293308524104 -0.9009413844136671
4247000000.0 0.4839006493047623 -0.8994255373096984
4250000000.0 0.46828179706713036 -0.9072810288845542
4253000000.0 0.4469989538365021 -0.8876225656272726
4256000000.0 0.47647947521576683 -0.9318597064812262
4259000000.0000005 0.43739059211440345 -0.8852622962744762
4261999999.9999995 0.45390680098720076 -0.9053921070325249
4266000000.0 0.4591583133142602 -0.9252722078063021
4269000000.0 0.4928060542670805 -0.8968591048557847
4272000000.0000005 0.47110949717110834 -0.9089669394106584
4275000000.0000005 0.46823075034346634 -0.8934927090594779
4277999999.9999995 0.4723185544738085 -0.9183645575813915
4280999999.9999995 0.47430549385652626 -0.8792130891701181
4284000000.0 0.44892621179440007 -0.9233414634740507
4288000000.0000005 0.49703508925173506 -0.8926557423483579
4291000000.0000005 0.45278078217026446 -0.8929680462307366
4293999999.9999995 0.4674641934795044 -0.900346554679476
4297000000.0 0.4700314532338425 -0.8654869270057965
4300000000.0 0.4843861783562823 -0.8902539436645989
4303000000.0 0.4388331562699684 -0.9018312647327138
4306000000.0 0.5016135349749375 -0.8831763314416402
4309000000.0 0.46482565606062065 -0.9029085570940317
4312000000.0 0.5207647062307321 -0.8751947063967874
4316000000.0 0.4836910779279276 -0.9229851304455132
4319000000.0 0.4802426270414507 -0.8711722883850148
4322000000.0 0.44966171326104226 -0.8943755561593606
4325000000.0 0.4644522287964225 -0.8922480623269509
4328000000.0 0.4756339913004968 -0.8919173603403806
4331000000.0 0.44636720271300573 -0.9195177964596626
4334000000.0 0.4602084159628547 -0.9168843018318815
4338000000.0 0.47060615336642925 -0.896973080591924
4341000000.0 0.49309120973368475 -0.9145748174967763
4344000000.0 0.49978084893781416 -0.91014120858564
4347000000.0 0.4380720878289733 -0.9260859068257039
4350000000.0 0.4415232230082365 -0.8833629180436146
4353000000.0 0.49709099766864223 -0.8781129928060957
4356000000.0 0.4341091092058657 -0.9107480962188349
4359000000.0 0.43308440016932004 -0.8591862961780636
4362000000.0 0.4290201907503626 -0.9396947138867198
4366000000.0 0.47159238553859695 -0.9231752736952812
4369000000.0 0.46241015206811886 -0.8706948262941984
4372000000.0 0.4124755488863784 -0.8943671486673864
4375000000.0 0.4825122138867335 -0.8883523232438009
4378000000.0 0.44659556275551265 -0.8838612451304932
4381000000.0 0.4659389226982065 -0.8866012862421107
4384000000.0 0.46079319754312326 -0.9726925459497873
4388000000.0 0.45618116691999056 -0.8909780525050304
4391000000.0 0.47342608926658447 -0.9095656122898026
4394000000.0 0.4250210273702374 -0.8802897029895478
4397000000.0 0.45488031530761497 -0.900694222332712
4400000000.0 0.4615344190231343 -0.9351312794942265
4403000000.0 0.47322858113119015 -0.9149818005038591
4406000000.0 0.4330398219548474 -0.9147878798564555
4409000000.0 0.4658227864265515 -0.9436918675227991
4412000000.0 0.4126380048652772 -0.9151532573522402
4416000000.0 0.43729484112151984 -0.9069445588674513
4419000000.0 0.43258459393251114 -0.9166546650815923
4422000000.0 0.46196667751838366 -0.8853705900734347
4425000000.0 0.48118811318203636 -0.9136673055293061
4428000000.0 0.4458584226350214 -0.917630233762884
4431000000.0 0.4583088739681201 -0.9338333734887446
4434000000.0 0.4320101298294305 -0.9095219851973617
4438000000.0 0.4547789452616474 -0.9299033378384909
4441000000.0 0.4579533281691962 -0.9271804838904616
4444000000.0 0.42877866220379857 -0.8731266714436309
4447000000.0 0.43567147476601614 -0.9192685924149206
4450000000.0 0.44682044146042055 -0.9000555889484072
4453000000.0 0.4357027808056419 -0.9345119544627212
4456000000.0 0.4372474979982699 -0.901213716769915
4459000000.0 0.40566854572255695 -0.8753968956564985
4462000000.0 0.44944466618830603 -0.9569289153621487
4466000000.0 0.4554791756792864 -0.9579029653616542
4469000000.0 0.44627815163763535 -0.9075900457604754
4472000000.0 0.43605711849852347 -0.9367397512856228
4475000000.0 0.43073978364001336 -0.8982253079612236
4478000000.0 0.4316693990741316 -0.9530290552244428
4481000000.0 0.41231265740736 -0.8846194607302527
4484000000.0 0.3814774567622207 -0.9250190552231174
4488000000.0 0.4284263245551716 -0.9072651487689317
4491000000.0 0.439609797696944 -0.9110226656258427
4494000000.0 0.4297626077631626 -0.895778016504412
4497000000.0 0.44991203670088087 -0.9046185269019624
4500000000.0 0.4272570973727066 -0.9203879509223125
4503000000.0 0.4368346511240118 -0.9327655309121294
4506000000.0 0.42012994583120145 -0.9250697791477884
4509000000.0 0.43016717051409264 -0.8927846954164981
4512000000.0 0.4074497551666343 -0.8867214792784611
4516000000.0 0.46078467436038834 -0.9257941345683133
4519000000.0 0.41208197552536635 -0.894570412517473
4522000000.0 0.4139757510140835 -0.9368770167332857
4525000000.0 0.4549486498908123 -0.8905437710238595
4528000000.0 0.4319323556911095 -0.935226868564874
4531000000.0 0.4310721974951578 -0.9253805200505425
4534000000.0 0.4055001890313466 -0.9043289881671888
4538000000.0 0.4348278030814777 -0.9164687058703329
4541000000.0 0.39601087254823814 -0.9283670235583856
4544000000.0 0.4154784085134496 -0.9095741332047742
4547000000.0 0.430959108972334 -0.9061544626776417
4550000000.0 0.3979382623166688 -0.9264814888620885
4553000000.0 0.41764655149108393 -0.9214015540122495
4556000000.0 0.4063747260318573 -0.9197290915308745
4559000000.0 0.41405709135995394 -0.920696157380093
4562000000.0 0.4121155578152484 -0.9307688159168134
4566000000.0 0.4139484329945284 -0.9222641864700121
4569000000.0 0.4000461033262237 -0.9148098182810673
4572000000.0 0.41735982265911253 -0.9205666728275326
4575000000.0 0.38613205650179183 -0.9407796696755862
4578000000.0 0.4268580345797623 -0.9476385551203959
4581000000.0 0.3879247576740989 -0.9302019049120658
4584000000.0 0.39366867855647636 -0.9221359310835864
4588000000.0 0.4133349705533467 -0.9309214657660281
4591000000.0 0.41668727318380483 -0.9232513858238476
4594000000.0 0.40074136854884174 -0.9318683180545647
4597000000.0 0.3943084724292375 -0.9588579921596122
4600000000.0 0.3799519377822832 -0.9326536784044968
4603000000.0 0.3963656288717827 -0.9387409562287552
4606000000.0 0.40445349125653485 -0.9264620104836889
4609000000.0 0.4071641013603374 -0.935329123270752
4612000000.0 0.3939015417047593 -0.9409445972185955
4616000000.0 0.39635145888870404 -0.9117024134793211
4619000000.0 0.4024795173650103 -0.9318506466739345
4622000000.0 0.3942735994466885 -0.9285039100580847
4625000000.0 0.37938075808476623 -0.9253892430139979
4628000000.0 0.4209482236255036 -0.9305973160015554
4631000000.0 0.3835951976500799 -0.937803564427504
4634000000.0 0.3731479041972977 -0.9315413600862656
4638000000.0 0.4020471460752293 -0.9360435103128162
4641000000.0 0.3932308042068837 -0.9492641802275394
4644000000.0 0.3687952346097572 -0.9159776417453395
4647000000.0 0.39567408730435283 -0.9309430643729227
4650000000.0 0.36684634737579613 -0.9203686866370402
4653000000.0 0.4030723707617626 -0.9454664943181013
4656000000.0 0.40274354714444804 -0.939975052505936
4659000000.0 0.3844499982385453 -0.9189614252912462
4662000000.0 0.39256571442459587 -0.9557316109271716
4666000000.0 0.4001378593445966 -0.966790356612632
4669000000.0 0.4079982551824639 -0.9506685436510967
4672000000.0 0.37876962688328764 -0.9708341133296351
4675000000.0 0.37706220530452106 -0.9451096735345567
4678000000.0 0.3790425900880705 -0.9183460161897385
4681000000.0 0.3591150449042806 -0.9672763787363586
4684000000.0 0.3683326061025994 -0.9561158297550444
4688000000.0 0.37630508783915617 -0.9637119615167167
4691000000.0 0.41327598177623726 -0.9489760364709523
4694000000.0 0.4070836480384103 -0.9124460199082118
4697000000.0 0.317231732576385 -0.9168604967627622
4700000000.0 0.37514339448762873 -0.9402254551725127
4703000000.0 0.39129352109348925 -0.9048994280177705
4706000000.0 0.388666640640919 -0.9419034148281379
4709000000.0 0.37788565845100236 -0.9268541520387293
4712000000.0 0.3879129449140444 -0.9548195986527324
4716000000.0 0.3935510043572474 -0.9517496201140887
4719000000.0 0.4046332692788063 -0.9788894505689858
4722000000.0 0.3903175189922429 -0.9283680721952264
4725000000.0 0.370404606440127 -0.9311685496652635
4728000000.0 0.3537115052843963 -0.9394846842817248
4731000000.0 0.3861246351600473 -0.9704729247674893
4734000000.0 0.3866031753547714 -0.9313715189352701
4738000000.0 0.4152787932107288 -1.0097446376911858
4741000000.0 0.3754354894862998 -0.9587980857222651
4744000000.0 0.3643252107065487 -0.9719127083585277
4747000000.0 0.38789326761402876 -0.9095866609402651
4750000000.0 0.37335907195774937 -0.9494463900145095
4753000000.0 0.38863661281498696 -0.9500293368702014
4756000000.0 0.37407001710284105 -0.9376719871162856
4759000000.0 0.3729280338685636 -0.9281210922865468
4762000000.0 0.3557648117856701 -0.9760471525392582
4766000000.0 0.3583408507106365 -0.9639963013550884
4769000000.0 0.347080066002586 -0.980729011727145
4772000000.0 0.35993312087996565 -0.9420593884991708
4775000000.0 0.35631899720755045 -1.001129516167187
4778000000.0 0.34886179436539233 -0.9530389572240294
4781000000.0 0.38890415134414025 -0.9301564166999785
4784000000.0 0.37236601516246515 -0.9413515531074357
4788000000.0 0.334145678251076 -0.9622269508143771
4791000000.0 0.35443092430793127 -0.9735988266947324
4794000000.0 0.4213264787267804 -0.9916974140652158
4797000000.0 0.3769808820438606 -0.9373512463965251
4800000000.0 0.3739237577250104 -0.9551120472473664
4803000000.0 0.2904717936618564 -0.9599893181073451
4806000000.0 0.37825577603244886 -0.976495075012684
4809000000.0 0.34531638685773847 -0.9729032010388282
4812000000.0 0.32655599085002673 -0.9555424512738026
4816000000.0 0.39588342972215085 -0.9203783705117558
4819000000.0 0.39810020375645294 -0.9735713126986074
4822000000.0 0.3659419748429692 -0.9745000500336454
4825000000.0 0.3970511248473288 -0.9805819982106312
4828000000.0 0.3711057276988359 -0.9617112207003103
4831000000.0 0.340946490291684 -0.9958511799106047
4834000000.0 0.3942532040907635 -0.9636561768918447
4838000000.0 0.35908002253991855 -0.9565986003635044
4841000000.0 0.34596635877879767 -0.9541274889672554
4844000000.0 0.42547444309311794 -0.9582868301032533
4847000000.0 0.3514447341239059 -0.940119539133121
4850000000.0 0.35500909009638887 -0.9767020894909203
4853000000.0 0.37559316214528754 -0.9376711739057978
4856000000.0 0.3528706147722059 -0.9591551258236405
4859000000.0 0.35777061065603555 -1.0013860173181859
4862000000.0 0.36789681858401135 -0.9412255474404659
4866000000.0 0.3531089083148288 -0.9824949603594725
4869000000.0 0.34513576801605866 -0.9761605942461073
4872000000.0 0.33054759072641227 -0.9996964745980068
4875000000.0 0.44132335805392364 -0.9855204241834545
4878000000.0 0.37191354140825866 -0.9792786926610978
4881000000.0 0.35300449591640437 -1.046789917570082
4884000000.0 0.38874916026898404 -0.9609240670290264
4888000000.0 0.40087938258577505 -0.9726348289208957
4891000000.0 0.3953862501329258 -0.9902023075863157
4894000000.0 0.34340070912250265 -0.9483716602314202
4897000000.0 0.37869973753183805 -0.9501709226051058
4900000000.0 0.3906995403988941 -0.9908640372178468
4903000000.0 0.3752525966375275 -0.9590209148884508
4906000000.0 0.34561573105205423 -1.0000908065113499
4909000000.0 0.3525261048774364 -0.9748754271573872
4912000000.0 0.38653966228719894 -1.0138576866690943
4916000000.0 0.35815441046740437 -0.9766127454146998
4919000000.0 0.42265367560554157 -0.9975383000910598
4922000000.0 0.40625005419672017 -0.9647292389069794
4925000000.0 0.3120300272935209 -0.9814491554167357
4928000000.0 0.45383881367963547 -0.9325186528663657
4931000000.0 0.35727009174181507 -0.9594183600506094
4934000000.0 0.3453167498583569 -0.9084449274728673
4938000000.0 0.34428153943956585 -0.9980373498844873
4941000000.0 0.371535132806783 -0.9493655412959322
4944000000.0 0.4022013576693589 -0.9094796862946424
4947000000.0 0.36021792260174357 -0.9500912816720566
4950000000.0 0.35763216514372065 -0.940297762875453
4953000000.0 0.31522425544708194 -0.9960072330668392
4956000000.0 0.3066292599119508 -0.9484097727149591
4959000000.0 0.3174177595473212 -0.9647125523413069
4962000000.0 0.35081295670343027 -1.0015098961675701
4966000000.0 0.40167850051295106 -0.9838630124722207
4969000000.0 0.40138746627870237 -1.0201744994423698
4972000000.0 0.35487114967221217 -0.9769101638494722
4975000000.0 0.3737871676298947 -0.9697339838538613
4978000000.0 0.3467784157552514 -0.9732815364430374
4981000000.0 0.3502704583763103 -0.9874553223123066
4984000000.0 0.3769617467172539 -0.9426006103002968
4988000000.0 0.39817975514862436 -0.9586588211621839
4991000000.0 0.3925417422613845 -1.0078297808041392
4994000000.0 0.3568700002102677 -0.9755474187584581
4997000000.0 0.3308965070391653 -1.002004034137681
5000000000.0 0.393842350502117 -0.9876380947639638
5003000000.0 0.4150261970193171 -0.9863677208235837
5006000000.0 0.3771197503877587 -1.0260999106815758
5009000000.0 0.3495058470824882 -1.0110018277334245
5012000000.0 0.36368746979244776 -0.9745642081392658
5016000000.0 0.41729845794350456 -1.0139921521239708
5019000000.0 0.35411198590737175 -0.9926242237752909
5022000000.0 0.3827627645308585 -0.9571192030575619
5025000000.0 0.33971815500193964 -1.0423213325227265
5028000000.0 0.3544391101372949 -1.0142067487937727
5031000000.0 0.3654302322044448 -0.9782885732411124
5034000000.0 0.34451333430251985 -1.0293565054134695
5038000000.0 0.3486428648855755 -0.9713474067546806
5041000000.0 0.4022873568266815 -0.9817519798149454
5044000000.0 0.3846100510400015 -0.9218724045563123
5047000000.0 0.4108015478935281 -0.983404395490486
5050000000.0 0.4371266512071695 -0.9521252288283688
5053000000.0 0.3827274709221502 -1.007210591541005
5056000000.0 0.41832282444209556 -0.9718344613208862
5059000000.0 0.4003876849648688 -0.9600213767238375
5062000000.0 0.3439853223830563 -1.0051395604363267
5066000000.0 0.3850021245572258 -0.9635328503446722
5069000000.0 0.3557342521928532 -1.0008702868695813
5072000000.0 0.36710130509026195 -0.9607706444387913
5075000000.0 0.4428288642684184 -0.9447693994799593
5078000000.0 0.33844661083629435 -1.0006790313500915
5081000000.0 0.34988757910932794 -0.9695298856988539
5084000000.0 0.37620847914909433 -0.973834641187036
5088000000.0 0.3841502527976972 -0.9608596111773049
5091000000.0 0.3565827158694201 -0.9589181339909205
5094000000.0 0.3610830339133038 -0.9811275465962075
5097000000.0 0.39544414485797746 -0.9431672380286937
5100000000.0 0.39656320673700207 -0.9523823415032457
5103000000.0 0.36509174113663506 -0.9989803965648553
5106000000.0 0.34937395324166454 -1.012119078314735
5109000000.0 0.4507542934473528 -0.9328016965185767
5112000000.0 0.3616162139147202 -0.9598253412230453
5116000000.0 0.36532440125468557 -0.9755053248505896
5119000000.0 0.34681000475890933 -1.0234363456486766
5122000000.0 0.337937427220229 -0.9723623728878609
5125000000.0 0.41272922580350785 -0.9961289817242114
5128000000.0 0.3662428750230276 -0.9831798716233913
5131000000.0 0.36256236264550334 -0.9804156552607903
5134000000.0 0.3422940842000236 -0.9609923939511105
5138000000.0 0.42584882313034883 -0.9284943483205312
5141000000.0 0.415891225298472 -0.9689113864063357
5144000000.0 0.3695450138491566 -0.9773057923733999
5147000000.0 0.3528028957343014 -0.9735242804633814
5150000000.0 0.34874265478747396 -0.9985597805621977
5153000000.0 0.38320980296653 -1.0140771026157829
5156000000.0 0.3850004788848464 -0.985059459663236
5159000000.0 0.3830773569710634 -1.0063113503563892
5162000000.0 0.3468503690827 -0.9875551614586673
5166000000.0 0.37906874701862187 -1.0018879233584186
5169000000.0 0.3947289538469605 -1.0015083109380734
