! Created with skrf 1.8.0 (http://scikit-rf.org).
# Hz S RI R 50.0 
!freq ReS11 ImS11
4000000000.0 0.4994618042825002 -0.8746612308548937
4003000000.0 0.510827062798594 -0.9355730120996248
4006000000.0 0.45173432199041996 -0.8961588472994899
4009000000.0000005 0.49158200173736294 -0.92456767465052
4011999999.9999995 0.5574788345548856 -0.9039568585881936
4016000000.0 0.47588863990047775 -0.9485336520840998
4019000000.0 0.5227731817151535 -0.8998443602660671
4022000000.0000005 0.5462835460490637 -0.8453164208704247
4025000000.0000005 0.48251921378277196 -0.9564782865411026
4027999999.9999995 0.4362982539652432 -0.8880354035142047
4030999999.9999995 0.47325813016092727 -0.8844699286278483
4034000000.0 0.4850822072392408 -0.898989253440124
4038000000.0000005 0.49449525249243 -0.9244251581785741
4041000000.0000005 0.4744377290817817 -0.9201141619358784
4043999999.9999995 0.5184832208453078 -0.9284622794502376
4046999999.9999995 0.5341551846726977 -0.8899141263361328
4050000000.0 0.5087741424410168 -0.9309927584792045
4053000000.0 0.4811690176756913 -0.9033967593448478
4056000000.0 0.5249080390391939 -0.8987652862436497
4059000000.0 0.523175384548445 -0.8954807264332489
4062000000.0000005 0.5013154570124024 -0.954066705266223
4066000000.0 0.48055837036101434 -0.8249578446333152
4069000000.0 0.4945479718464968 -0.9567163409657766
4072000000.0 0.5328361099312201 -0.8705402932021804
4075000000.0 0.5718428042470188 -0.9267616155029516
4078000000.0000005 0.4922356547798209 -0.9230356833343326
4081000000.0000005 0.5678361246065771 -0.8615662297434026
4083999999.9999995 0.49059502338411276 -0.9195499318487896
4088000000.0 0.5293784664291112 -0.8828309118471428
4091000000.0 0.5406791025717677 -0.9431044400988984
4094000000.0000005 0.5018865311840203 -0.8697322824494543
4097000000.0000005 0.4649967896310499 -0.8972786741000425
4099999999.9999995 0.4696415095682308 -0.9153399935417155
4102999999.9999995 0.5407987452388047 -0.9294185968973839
4106000000.0 0.5076383299504127 -0.9080437869028946
4109000000.0 0.4850345314913681 -0.938644966717087
4112000000.0 0.47898306823617576 -0.9103811477178944
4115999999.9999995 0.5141713722525536 -0.8828897944813374
4119000000.0 0.504029806482998 -0.9204831851899848
4122000000.0 0.4699647176798539 -0.9179477402635744
4125000000.0 0.4801841910430911 -0.9201810435387447
4128000000.0 0.5320404212243606 -0.8482524387085842
4131000000.0 0.4593291781364168 -0.894971035184965
4134000000.0000005 0.49403847642306653 -0.8818816653790917
4138000000.0 0.4779265022059134 -0.8918532456248323
4141000000.0 0.49964396660415544 -0.8678042223909284
4144000000.0 0.4622811756679329 -0.9228299411580116
4147000000.0000005 0.4781919813423315 -0.885164886471204
4150000000.0000005 0.4696172615514852 -0.9141194313498313
4152999999.9999995 0.502445669281486 -0.8840821901898703
4155999999.9999995 0.5085992615833956 -0.9166025366728342
4159000000.0 0.4888748325473914 -0.8726506432301722
4162000000.0 0.4994004798020975 -0.8774771717456483
4166000000.0000005 0.47784590323947795 -0.8913912002309827
4168999999.9999995 0.4732755088123198 -0.8859659377509329
4171999999.9999995 0.4855866865435641 -0.9047255350632084
4175000000.0 0.5113935725800445 -0.9315353112155904
4178000000.0 0.508039552794648 -0.9120042746944814
4181000000.0 0.49561204428516525 -0.8919935357333669
4184000000.0 0.49019531998891697 -0.88732455455351
4187999999.9999995 0.49888695731235666 -0.8932606992622043
4191000000.0 0.5254996081656469 -0.87612513608127
4194000000.0 0.49669398437304946 -0.869710488083748
4197000000.0 0.48721061103996544 -0.9001920447524215
4200000000.0 0.5012599542396299 -0.8872151990197824
4203000000.0000005 0.5162871653131933 -0.8793253871603445
4206000000.0000005 0.5057000359308061 -0.9044864845640307
4208999999.9999995 0.48238036229834014 -0.8798311172595493
4211999999.9999995 0.46205673291916904 -0.9103343795824764
4216000000.0 0.5210022932462206 -0.8919050904620618
4219000000.0000005 0.5133864571026227 -0.8758089576672988
4222000000.0000005 0.478375171462582 -0.8954849886103604
4224999999.9999995 0.49706131407726606 -0.8840289120175118
4227999999.9999995 0.4998106036947358 -0.9199656005541084
4231000000.0 0.47033893677664496 -0.9037859497557288
4234000000.0 0.5032984443808067 -0.8988415301280887
4238000000.0000005 0.4752211886437825 -0.9065917924566944
4240999999.9999995 0.469199191719171 -0.8790165520292992
4244000000.0 0.4876160849160177 -0.9011754765247115
4247000000.0 0.5021487872295003 -0.8880575775862081
4250000000.0 0.47297880143717397 -0.8846558811622811
4253000000.0 0.46181106486528123 -0.8717337618360804
4256000000.0 0.5011274498313953 -0.9014257698196246
4259000000.0000005 0.480192708329514 -0.8644196171305587
4261999999.9999995 0.4670163382243244 -0.8821616121871405
4266000000.0 0.4744859609667818 -0.9252490959308877
4269000000.0 0.48759800329588077 -0.8875934737738628
4272000000.0000005 0.47165874701312577 -0.8971826755274181
4275000000.0000005 0.5021175626383472 -0.884036917182604
4277999999.9999995 0.4789812964807262 -0.8978321844939293
4280999999.9999995 0.49469201839550186 -0.8906863399441086
4284000000.0 0.4464814707814977 -0.930072517861458
4288000000.0000005 0.5070718032733851 -0.8575295144572698
4291000000.0000005 0.47614618909815176 -0.843965629246221
4293999999.9999995 0.4800253659385663 -0.892603805311013
4297000000.0 0.5098341578484898 -0.8708497135461571
4300000000.0 0.48582210494969746 -0.844776893318775
4303000000.0 0.4533000077099478 -0.8988521704390553
4306000000.0 0.49870609188941023 -0.8985900534539036
4309000000.0 0.47534328922950586 -0.8771586160271124
4312000000.0 0.5017756156573783 -0.9144857582083907
4316000000.0 0.5021152423318737 -0.8838799810393878
4319000000.0 0.48166955118870863 -0.8528951981482895
4322000000.0 0.4601904991388369 -0.8802621326992386
4325000000.0 0.4810246126683254 -0.8617429171488457
4328000000.0 0.4651885557965958 -0.9031292448295494
4331000000.0 0.45964471799492856 -0.8753966049998247
4334000000.0 0.46069146505466346 -0.8943491294801218
4338000000.0 0.5125291762974007 -0.8738073709705302
4341000000.0 0.5261544371405387 -0.8875629668315406
4344000000.0 0.5053262349489845 -0.904964280107735
4347000000.0 0.46731176035282684 -0.9169689186512889
4350000000.0 0.4363882149291988 -0.8641475058117021
4353000000.0 0.47693295104991085 -0.8406667603788452
4356000000.0 0.4471949265696255 -0.8969488551690734
4359000000.0 0.4418603836019194 -0.8742970194700518
4362000000.0 0.4367882099180127 -0.9102693070980055
4366000000.0 0.4832193601380911 -0.8999371087851835
4369000000.0 0.4601824845690636 -0.8630449158711953
4372000000.0 0.44799953623128885 -0.8888118888132817
4375000000.0 0.4862548840914595 -0.881475138589867
4378000000.0 0.4664453127617116 -0.8590288096148015
4381000000.0 0.4705958504520167 -0.8672098646383889
4384000000.0 0.4900307548240205 -0.9449370233718476
4388000000.0 0.4652953055380328 -0.8570264540726908
4391000000.0 0.4762678591628735 -0.9050608128695785
4394000000.0 0.4540189364609932 -0.8764747198824242
4397000000.0 0.45910677593729593 -0.8928860922662223
4400000000.0 0.4652510429246747 -0.9162586780501266
4403000000.0 0.4664321092415235 -0.9043952351958269
4406000000.0 0.45031353156959464 -0.9172443804041698
4409000000.0 0.468927006978483 -0.921964444878785
4412000000.0 0.39914690577527856 -0.9218584216852648
4416000000.0 0.4428262859847091 -0.8876045434674334
4419000000.0 0.4414892395765586 -0.8937233895176446
4422000000.0 0.475810674551746 -0.8866325397653622
4425000000.0 0.48803867963034775 -0.902999382846301
4428000000.0 0.44448460045830007 -0.8978909399874038
4431000000.0 0.4828522192167452 -0.9216100786366384
4434000000.0 0.4533555594275329 -0.8971992288800218
4438000000.0 0.4844547848649171 -0.9073728030605992
4441000000.0 0.45784577502157486 -0.9090302852514687
4444000000.0 0.46701086615355925 -0.8768001152382412
4447000000.0 0.4437307668715045 -0.8977698361858162
4450000000.0 0.4592158997436181 -0.8782883065474817
4453000000.0 0.4741582243146466 -0.9150874651100493
4456000000.0 0.4257347839327402 -0.8764383494788552
4459000000.0 0.414258493263406 -0.8715814987590672
4462000000.0 0.48558942053645726 -0.9592112929638679
4466000000.0 0.46635710371496825 -0.9404690044660566
4469000000.0 0.4716686703931124 -0.8896832997878819
4472000000.0 0.4366725414390273 -0.9291230705545597
4475000000.0 0.44006879973504337 -0.8783079724844256
4478000000.0 0.4471592017207222 -0.9297652770068308
4481000000.0 0.42226948922028323 -0.8813968833018839
4484000000.0 0.40947497531703647 -0.9290276240482046
4488000000.0 0.42948112851193476 -0.9078205913380951
4491000000.0 0.4405323045050327 -0.9086118935893817
4494000000.0 0.44430486272565783 -0.9048689468165605
4497000000.0 0.4561875087908585 -0.8714805192867545
4500000000.0 0.4605440878535927 -0.9008169259811765
4503000000.0 0.4662741677874384 -0.9331837325445493
4506000000.0 0.4367764843228478 -0.8913486128146049
4509000000.0 0.4300476332535365 -0.8788453867379238
4512000000.0 0.42948242752971677 -0.8934634223593019
4516000000.0 0.46035763154778325 -0.9104892019879067
4519000000.0 0.4444602550929018 -0.8790077715093817
4522000000.0 0.44102037190622845 -0.9168475197554782
4525000000.0 0.4686539080921686 -0.8868741657184902
4528000000.0 0.43358588877288023 -0.9385153170787847
4531000000.0 0.45127902720248364 -0.8953733577425208
4534000000.0 0.42526473597263603 -0.8905481712060785
4538000000.0 0.42260086002172537 -0.8984653825434709
4541000000.0 0.39430214066899927 -0.9049767722411866
4544000000.0 0.44907679243329746 -0.906478717051322
4547000000.0 0.42850502843791655 -0.8847404488568782
4550000000.0 0.42429056913172064 -0.9267053667538594
4553000000.0 0.43109199481667126 -0.898666887358059
4556000000.0 0.4300348936901257 -0.9109617189901174
4559000000.0 0.41287683056359437 -0.9175020528150184
4562000000.0 0.4484378643663509 -0.9179456445067107
4566000000.0 0.4375901904359332 -0.9245145423164056
4569000000.0 0.413411981116169 -0.8798541517967452
4572000000.0 0.41477605955200325 -0.9069942550138081
4575000000.0 0.41621934544112305 -0.9346107996835554
4578000000.0 0.44580911641151877 -0.926584881279944
4581000000.0 0.4069949665512509 -0.9197348794401952
4584000000.0 0.4160904069575886 -0.9039331521688833
4588000000.0 0.4437506259261881 -0.9074571273954042
4591000000.0 0.4405061441776505 -0.8954841551616713
4594000000.0 0.42003576889703975 -0.9121134535382137
4597000000.0 0.4169161199190565 -0.9217421913889223
4600000000.0 0.4058390616269095 -0.9260477144007238
4603000000.0 0.40810509921749494 -0.9263700337354446
4606000000.0 0.4379466697398991 -0.9125270340413779
4609000000.0 0.4217641412473891 -0.9130286337608097
4612000000.0 0.4152287507637554 -0.9360404741740593
4616000000.0 0.42106900094190824 -0.9053751436136314
4619000000.0 0.4291478615983232 -0.9132640892567967
4622000000.0 0.4109002904475715 -0.9245638187482946
4625000000.0 0.38438584344899046 -0.9065151306037302
4628000000.0 0.4141335396615628 -0.9115289873050292
4631000000.0 0.3965844909742714 -0.920309239746747
4634000000.0 0.4223969914150747 -0.9443346343848329
4638000000.0 0.4187439731187755 -0.9313477446010408
4641000000.0 0.42029464233555586 -0.9129249944191452
4644000000.0 0.4118800883433023 -0.9079741741266258
4647000000.0 0.4116361600951902 -0.9209468274647475
4650000000.0 0.3924011204237007 -0.915264316290598
4653000000.0 0.4259915344076197 -0.9117256842454182
4656000000.0 0.388462288449663 -0.9341627288932633
4659000000.0 0.40241694450344856 -0.9094631823404928
4662000000.0 0.4092102048084292 -0.9303512989470991
4666000000.0 0.38204301465110946 -0.9250943474474902
4669000000.0 0.4053758313341039 -0.9219277321331436
4672000000.0 0.3824728497180226 -0.9518305982155983
4675000000.0 0.40743658339744027 -0.9260858236634935
4678000000.0 0.39457890294997067 -0.9156161515277332
4681000000.0 0.39284519142835983 -0.9327205559767031
4684000000.0 0.378702123051502 -0.98813030025203
4688000000.0 0.37539093898015263 -0.9434745679585386
4691000000.0 0.4207938689436802 -0.9182172827602798
4694000000.0 0.40507491818198826 -0.936830560518297
4697000000.0 0.373152378273081 -0.9065482932497376
4700000000.0 0.40370890721971764 -0.9276264084473166
4703000000.0 0.41588254438478284 -0.8711469984012564
4706000000.0 0.37741455022977755 -0.9368703348286416
4709000000.0 0.3706029829775361 -0.9487901252746749
4712000000.0 0.41236957979281763 -0.9307749997828999
4716000000.0 0.39393146076567426 -0.9452740688258218
4719000000.0 0.43375658029050956 -0.9379333649409536
4722000000.0 0.423089474500511 -0.9140871583168191
4725000000.0 0.4088391181351142 -0.9288602839435308
4728000000.0 0.3642682208885542 -0.9402543347688518
4731000000.0 0.3936082912687565 -0.9474940392200084
4734000000.0 0.40477765361589313 -0.9053614730938793
4738000000.0 0.4242113465083846 -0.9785822085006272
4741000000.0 0.39302848446669786 -0.9730803876543388
4744000000.0 0.39225612532598503 -0.9345167978363571
4747000000.0 0.41773677201943066 -0.8916003364102907
4750000000.0 0.39837343718485796 -0.9401982759001524
4753000000.0 0.4136661889036891 -0.9422865062901502
4756000000.0 0.39448074024028923 -0.9392158567141188
4759000000.0 0.40336086238106816 -0.9409299862896477
4762000000.0 0.3946991401138454 -0.9708265086742878
4766000000.0 0.3971297199226256 -0.9274291958485481
4769000000.0 0.4027066061586837 -0.9360909994833366
4772000000.0 0.40890597258338157 -0.948480421118046
4775000000.0 0.3856856011797002 -0.9846113383905557
4778000000.0 0.3840677593824388 -0.930766179775669
4781000000.0 0.4156201762325496 -0.9248910453138268
4784000000.0 0.42416044492311245 -0.8976069995884138
4788000000.0 0.36567841526886646 -0.9472394846110237
4791000000.0 0.37386338596408936 -0.931684016481833
4794000000.0 0.4120977856590945 -0.9365516189033622
4797000000.0 0.37614045165561183 -0.9241963596596192
4800000000.0 0.37802634824222225 -0.9139748893279092
4803000000.0 0.3690761747824358 -0.9229163912706564
4806000000.0 0.3981743156335962 -0.9637736477331206
4809000000.0 0.3335394479382034 -0.9763330029162963
4812000000.0 0.3606346193003391 -0.957375185999285
4816000000.0 0.4124158723212277 -0.9063883855614975
4819000000.0 0.41247027790596497 -0.9289841939774284
4822000000.0 0.4204383579500507 -0.9781502468707726
4825000000.0 0.4052655960968303 -0.9488467209968581
4828000000.0 0.380295837829706 -0.937816043898586
4831000000.0 0.3671010649681209 -0.9627093087913733
4834000000.0 0.40427987575302604 -0.940550181113428
4838000000.0 0.3689848664805199 -0.963364067566897
4841000000.0 0.37222288369005124 -0.9254592583309305
4844000000.0 0.4315923813137826 -0.9546613877311113
4847000000.0 0.389987935815692 -0.9156354046670675
4850000000.0 0.38523457622491053 -0.9606265689444942
4853000000.0 0.38241893867386917 -0.9179995965345267
4856000000.0 0.38117966485698934 -0.9367320857033173
4859000000.0 0.3933119069111536 -0.9874514055421041
4862000000.0 0.37901532807487304 -0.9294699022384696
4866000000.0 0.375561483735188 -0.9859718594106153
4869000000.0 0.3610895034370747 -0.9494269241962411
4872000000.0 0.3730562358074291 -0.9789829091788422
4875000000.0 0.47240027761836867 -0.9706127027906447
4878000000.0 0.39266382968782454 -0.9540026754690524
4881000000.0 0.3741109202381762 -1.0164850584619085
4884000000.0 0.4046854565777113 -0.9493572645272352
4888000000.0 0.4213565167323927 -0.9424170236661498
4891000000.0 0.44243722470779095 -0.9494585301182676
4894000000.0 0.3754203683109709 -0.9559978191382278
4897000000.0 0.38550709872713895 -0.9245689144810267
4900000000.0 0.41011591008530524 -0.9664958569952661
4903000000.0 0.423068230493171 -0.9532748610208286
4906000000.0 0.4084522385411986 -0.9837649826122368
4909000000.0 0.36547547437680017 -0.9827931356467475
4912000000.0 0.38315986813080727 -1.014154657379857
4916000000.0 0.4035176339086989 -0.9782314286494953
4919000000.0 0.41619453019465896 -0.9612778651502351
4922000000.0 0.42618034284355455 -0.9584432788906072
4925000000.0 0.35145027010675167 -0.9647543596317681
4928000000.0 0.46548060783342604 -0.9066783651283052
4931000000.0 0.4139433498107713 -0.9490134349708482
4934000000.0 0.38223576405272114 -0.9150745141133088
4938000000.0 0.3801548641146266 -0.9703389443545646
4941000000.0 0.3767917150271566 -0.9233925195392416
4944000000.0 0.393715790045275 -0.8724612569885131
4947000000.0 0.3642191036178052 -0.9100821612043652
4950000000.0 0.3445250630927359 -0.9269154607814266
4953000000.0 0.3360187551766228 -1.0019527936995822
4956000000.0 0.39314772044181645 -0.9408857519655651
4959000000.0 0.3361219440394315 -0.9592960389897113
4962000000.0 0.42186670861861064 -0.9844290815591619
4966000000.0 0.4121589285104679 -0.9827484206014359
4969000000.0 0.42411755611183727 -1.015949045211352
4972000000.0 0.3762169434663889 -0.9559074240633397
4975000000.0 0.43056211538052924 -0.926261567622474
4978000000.0 0.36548109158500397 -0.958421267462525
4981000000.0 0.38289662915126177 -0.9692421727518217
4984000000.0 0.372396881079834 -0.9420895711646102
4988000000.0 0.4169690965633141 -0.9416271634343398
4991000000.0 0.4311432618475489 -0.9353450441428633
4994000000.0 0.4118094314608737 -0.9375755129970037
4997000000.0 0.366589650164779 -0.9838816082887542
5000000000.0 0.4194187671334994 -0.9709270237951468
5003000000.0 0.42978457585764157 -0.9818349761484434
5006000000.0 0.40680283340505685 -0.9940070306007118
5009000000.0 0.3933625922267609 -0.97617433283918
5012000000.0 0.38422824261371386 -0.9755147748823767
5016000000.0 0.4391065311992416 -0.9602812505302274
5019000000.0 0.3983809035232634 -0.9707380680449371
5022000000.0 0.3988744603207916 -0.9681855049569594
5025000000.0 0.4221058296778007 -0.9877338405423532
5028000000.0 0.3793180267169688 -0.9774922371607961
5031000000.0 0.374592263471258 -0.9695689956990912
5034000000.0 0.37987665214166766 -1.0178623456229243
5038000000.0 0.36720464796734664 -0.9454779816792773
5041000000.0 0.44564663867353965 -0.9127783248432005
5044000000.0 0.4303703233202183 -0.9210665377000435
5047000000.0 0.4108822140148101 -0.9024803554981186
5050000000.0 0.44991617711090026 -0.8936578455792611
5053000000.0 0.3841062123946759 -0.9807193403049201
5056000000.0 0.4400088425877496 -0.9223864107131934
5059000000.0 0.4562105951197592 -0.9491591560633086
5062000000.0 0.3589309301182147 -0.9922997160368853
5066000000.0 0.4065600602723812 -0.9359274885562177
5069000000.0 0.40781218064659047 -0.9508101955027396
5072000000.0 0.39884002339843616 -0.927955033621576
5075000000.0 0.4293650958969431 -0.9406645490149288
5078000000.0 0.35102321624873023 -0.9691076396271774
5081000000.0 0.39727972428979286 -0.9558780025973512
5084000000.0 0.38636651791213955 -0.9723559836599919
5088000000.0 0.4075891295512382 -0.9479706239923904
5091000000.0 0.401931593665421 -0.982691585182512
5094000000.0 0.39546341911600036 -0.9477687843744376
5097000000.0 0.44552000665791347 -0.9888237782220122
5100000000.0 0.3847361782644866 -0.9297352616807113
5103000000.0 0.3723083779807611 -0.9834912834700241
5106000000.0 0.4436123396199023 -0.9472512470530551
5109000000.0 0.4781178297195348 -0.9115124922900237
5112000000.0 0.3739720317873159 -0.9665538397539201
5116000000.0 0.35783319965901345 -0.9553139842865781
5119000000.0 0.39462878358867975 -0.960647997514335
5122000000.0 0.39026666543312655 -0.9328963909858716
5125000000.0 0.45055459683348054 -0.9344281927248366
5128000000.0 0.3754010107991031 -0.9314428428844133
5131000000.0 0.3936875769305701 -0.9660356482676381
5134000000.0 0.3623771110641501 -0.9714013684791172
5138000000.0 0.4223707058367728 -0.9366160085337858
5141000000.0 0.4596690488550919 -0.9610269973151151
5144000000.0 0.41943028004019206 -0.9483857611792171
5147000000.0 0.37355279615576975 -0.9592931028764198
5150000000.0 0.428417750897768 -0.9398979611560905
5153000000.0 0.42304591122385765 -0.9528584125446904
5156000000.0 0.4481632023669441 -0.9424223606774182
5159000000.0 0.41799951641375993 -0.9771022920964818
5162000000.0 0.3694012277835636 -0.9500672907969303
5166000000.0 0.429775429874522 -0.9692501000157576
5169000000.0 0.44689534927504077 -0.9714855426391957
5172000000.0 0.417759380953393 -0.9377950797181169
