! Created with skrf 1.8.0 (http://scikit-rf.org).
# Hz S RI R 50.0 
!freq ReS11 ImS11
4000000000.0 0.5113900965946812 -0.902347436700068
4003000000.0 0.4789762418950908 -0.9944076262678005
4006000000.0 0.4608342496798362 -0.9209934581220927
4009000000.0000005 0.46999086054223627 -0.8904694085461535
4011999999.9999995 0.5270435590813967 -0.922666490924313
4016000000.0 0.4720538641989299 -0.9543095255637112
4019000000.0 0.43141898478521956 -0.916422806101116
4022000000.0000005 0.5190596040462766 -0.9118555442327607
4025000000.0000005 0.4232403294866002 -0.9340419965376863
4027999999.9999995 0.47137740549796076 -0.922397551019133
4030999999.9999995 0.43171618577561577 -0.9118681265050433
4034000000.0 0.4298367946350147 -0.9113664908054636
4038000000.0000005 0.45546066593304957 -0.9458761031904651
4041000000.0000005 0.5051389262146055 -0.8693198964370639
4043999999.9999995 0.4764159880510809 -0.9479430402746969
4046999999.9999995 0.5044499903829868 -0.94251237182455
4050000000.0 0.4428798862118637 -0.9241457871308438
4053000000.0 0.45975887670106724 -0.9108151176049548
4056000000.0 0.47219469987217644 -0.9541707092440815
4059000000.0 0.4810454711451286 -0.8883413373962585
4062000000.0000005 0.43384652026051185 -0.9141085469234606
4066000000.0 0.41703883615002685 -0.8599790763229588
4069000000.0 0.4612559566868477 -0.9532697778739696
4072000000.0 0.50665785981167 -0.9108162263422835
4075000000.0 0.49785870139035204 -0.921056142781729
4078000000.0000005 0.4637908917016324 -0.9443460729118591
4081000000.0000005 0.530037344671916 -0.8979759785716606
4083999999.9999995 0.4507798203099795 -0.9439941649412606
4088000000.0 0.5163420162967743 -0.9027588472224972
4091000000.0 0.47310935980868724 -0.9729398591457906
4094000000.0000005 0.49532386785781224 -0.9401392710968097
4097000000.0000005 0.45375839446640875 -0.9304961471973353
4099999999.9999995 0.4671094425532043 -0.9334915937456776
4102999999.9999995 0.4955403021810389 -0.914129536042579
4106000000.0 0.45850546577069545 -0.933609629519824
4109000000.0 0.4468062689734233 -0.9264513455515889
4112000000.0 0.46950339148342723 -0.8872206456721621
4115999999.9999995 0.47244525954720135 -0.9291513954343714
4119000000.0 0.4708678319656278 -0.9375133742211446
4122000000.0 0.4279803937573867 -0.9122731525971646
4125000000.0 0.4637650682412512 -0.9173806542415476
4128000000.0 0.4839175347037277 -0.9180428602824064
4131000000.0 0.41461153984798804 -0.9127013505171059
4134000000.0000005 0.46490231816940386 -0.8889563096536808
4138000000.0 0.44032078556421994 -0.8904266444756187
4141000000.0 0.44672594718108594 -0.8956526300949551
4144000000.0 0.4645304857572648 -0.9096649729554696
4147000000.0000005 0.4460082416004229 -0.9097555646238289
4150000000.0000005 0.4904571367901592 -0.9002180873492496
4152999999.9999995 0.4594196443105005 -0.9092740204476331
4155999999.9999995 0.49589584573401546 -0.9342843174340313
4159000000.0 0.4555404282667469 -0.9119904681632006
4162000000.0 0.47440572779422874 -0.9036370650036805
4166000000.0000005 0.44789058641952334 -0.929239251688326
4168999999.9999995 0.448089080299227 -0.9093686004073691
4171999999.9999995 0.4469805743079653 -0.9212652676606683
4175000000.0 0.4366603264896279 -0.9220589843164934
4178000000.0 0.4827183397061709 -0.9262877257241329
4181000000.0 0.45565696796482885 -0.9133618393692831
4184000000.0 0.4513411924797436 -0.9189513169863778
4187999999.9999995 0.44406552530978394 -0.8992289830283963
4191000000.0 0.48356692478869134 -0.8685404726866324
4194000000.0 0.4597289498499807 -0.9267918167118173
4197000000.0 0.4764226013285058 -0.9246901695393643
4200000000.0 0.4642192342111756 -0.9059792831329583
4203000000.0000005 0.48300084688493894 -0.9205183089551866
4206000000.0000005 0.4664745721190482 -0.91637664518032
4208999999.9999995 0.4644917971765067 -0.9117098372961794
4211999999.9999995 0.4245365935016816 -0.9283687429443505
4216000000.0 0.4624117068398308 -0.9025235929930425
4219000000.0000005 0.4781726172440733 -0.9197027418675839
4222000000.0000005 0.44171851795343153 -0.9166702683092791
4224999999.9999995 0.45988439202666 -0.9190813847120771
4227999999.9999995 0.47740754595040236 -0.9266382982975493
4231000000.0 0.43845423821870966 -0.9178964120630119
4234000000.0 0.4599629024520302 -0.9110692234536246
4238000000.0000005 0.44485225243124804 -0.9219429866768949
4240999999.9999995 0.43693744820642405 -0.9097297019549171
4244000000.0 0.4543631375219458 -0.9010458698291645
4247000000.0 0.4581978961802028 -0.882139558392914
4250000000.0 0.43397742733833605 -0.8974579346432318
4253000000.0 0.43255253516543424 -0.892734265126752
4256000000.0 0.4517679521656883 -0.9499915022810229
4259000000.0000005 0.419582600129695 -0.8884696527028234
4261999999.9999995 0.40256218064485283 -0.9230890105085924
4266000000.0 0.40894003966212594 -0.9366878381995671
4269000000.0 0.45606580080982906 -0.9040076391226854
4272000000.0000005 0.4759623737647258 -0.9115416528595347
4275000000.0000005 0.45747723039791205 -0.9094076290632361
4277999999.9999995 0.44897588047938386 -0.9347677359682309
4280999999.9999995 0.46063798982944903 -0.9303451448162464
4284000000.0 0.4085482582321449 -0.9303266370413106
4288000000.0000005 0.46962727476138355 -0.9261321573505831
4291000000.0000005 0.43063411793618595 -0.8886911349312834
4293999999.9999995 0.4386137992539631 -0.883514143927725
4297000000.0 0.4322700873532161 -0.8745823913628221
4300000000.0 0.46017464925604173 -0.9124650242006417
4303000000.0 0.42108413652126253 -0.9300035163097418
4306000000.0 0.4628058493751074 -0.8966831813128839
4309000000.0 0.42158486763666797 -0.9145427429954155
4312000000.0 0.474204224141576 -0.9137277976398849
4316000000.0 0.44887037406932623 -0.9097467542756363
4319000000.0 0.44918363017690344 -0.8741524659110192
4322000000.0 0.43409180868585423 -0.9089043619590657
4325000000.0 0.45730019719115317 -0.9265366337520259
4328000000.0 0.4539903081662603 -0.89426162010845
4331000000.0 0.40931855376428106 -0.9343651974784636
4334000000.0 0.430679475831154 -0.9245914513756837
4338000000.0 0.4485455764763958 -0.8931414538607177
4341000000.0 0.47738830904926505 -0.9081619579486776
4344000000.0 0.45606908120256184 -0.9247094646333422
4347000000.0 0.4177621317455906 -0.921750039770449
4350000000.0 0.41794779397464554 -0.8885322366264178
4353000000.0 0.4355002952684863 -0.8803074713667058
4356000000.0 0.4074717774510938 -0.911491049193426
4359000000.0 0.39547389894695506 -0.8694625492303207
4362000000.0 0.38596591224503063 -0.9436030388007551
4366000000.0 0.44113592188635575 -0.9360214828593798
4369000000.0 0.40240365754887136 -0.8837646461371341
4372000000.0 0.38251141757935325 -0.9272867694979061
4375000000.0 0.4461980950091914 -0.9113287955912993
4378000000.0 0.42976197601787813 -0.8995765020067851
4381000000.0 0.4255869165206001 -0.9057421991130941
4384000000.0 0.41769983072331107 -0.9686523432572798
4388000000.0 0.432782924558057 -0.897815761602054
4391000000.0 0.43722591041238223 -0.9207723034857536
4394000000.0 0.3980353274466434 -0.887826846710623
4397000000.0 0.41503176719721147 -0.9143883703433962
4400000000.0 0.43268457304636665 -0.9464670084443383
4403000000.0 0.43183156032086645 -0.9336781209459394
4406000000.0 0.4046196202652015 -0.926363983434101
4409000000.0 0.4193539719436978 -0.9579131420347683
4412000000.0 0.3536712913319388 -0.9357191337059225
4416000000.0 0.39378291389657283 -0.9117902190448252
4419000000.0 0.38273544048572194 -0.9170471921682468
4422000000.0 0.42000045825141213 -0.9028605160895581
4425000000.0 0.4409224519335041 -0.9246259069431136
4428000000.0 0.40336644980109215 -0.9353831905843155
4431000000.0 0.4220577824929904 -0.9360990264670632
4434000000.0 0.4090101751828418 -0.9196337707200861
4438000000.0 0.41712934935310597 -0.9367123369149046
4441000000.0 0.40621741288670615 -0.9437267411142909
4444000000.0 0.41177605223387626 -0.905053238665635
4447000000.0 0.39137668360131667 -0.9186000354229058
4450000000.0 0.4067321097384022 -0.9152631420251282
4453000000.0 0.40993117362375026 -0.9511568060951523
4456000000.0 0.37961582371358515 -0.903716739657366
4459000000.0 0.38195321340464705 -0.8879303161897452
4462000000.0 0.4178320669947074 -0.9702413962123764
4466000000.0 0.41194689652572924 -0.9623924555005898
4469000000.0 0.4224575770033359 -0.9107291096282384
4472000000.0 0.38943583837647605 -0.9484229737721708
4475000000.0 0.40098063019379043 -0.8974266604474692
4478000000.0 0.40831987312199464 -0.968733276594582
4481000000.0 0.37969740727889745 -0.9098474273936558
4484000000.0 0.3561486676054908 -0.9438292407778084
4488000000.0 0.38556208232329536 -0.9296800002020591
4491000000.0 0.414235519161308 -0.9306806694417347
4494000000.0 0.40494946816802474 -0.9199671526609949
4497000000.0 0.39762729790777007 -0.9244843427112788
4500000000.0 0.413230881209688 -0.9420583340763697
4503000000.0 0.4072530506715052 -0.9572222560894769
4506000000.0 0.3708556405329041 -0.9204203756295193
4509000000.0 0.3895042938094095 -0.915445881957659
4512000000.0 0.3656739821103727 -0.9177381386926352
4516000000.0 0.39211938356821235 -0.9576133135290986
4519000000.0 0.3772774441160365 -0.9112809838398521
4522000000.0 0.3857396991035672 -0.9367959873369156
4525000000.0 0.41793988660057385 -0.9180387127256776
4528000000.0 0.38894072542980784 -0.9755632464784196
4531000000.0 0.40373600496448814 -0.925515573985362
4534000000.0 0.3654621091198769 -0.9183046898318118
4538000000.0 0.3955906762706026 -0.9203002127857602
4541000000.0 0.3736548979920656 -0.9276087153767112
4544000000.0 0.3829561134068472 -0.9320229983679309
4547000000.0 0.3847016222560084 -0.927224830109751
4550000000.0 0.37131429515220876 -0.9461346013624128
4553000000.0 0.37378970102816045 -0.9205858690370883
4556000000.0 0.3594901127673311 -0.9390207469572129
4559000000.0 0.37462821355314313 -0.940731823693157
4562000000.0 0.3773172031420748 -0.9498887872970286
4566000000.0 0.3621594848477494 -0.9570088194236244
4569000000.0 0.35042794648573694 -0.9442675610093614
4572000000.0 0.36367103906802306 -0.9561432402240179
4575000000.0 0.3668915783039116 -0.9473532598364152
4578000000.0 0.4013457248143519 -0.958447711031137
4581000000.0 0.3651880935382489 -0.9581888767097793
4584000000.0 0.3712138676603333 -0.9373577461753843
4588000000.0 0.38158199093365364 -0.9668799943102916
4591000000.0 0.3745515451672063 -0.9397390697952201
4594000000.0 0.3688668089123961 -0.9497173550864143
4597000000.0 0.3672482059993124 -0.9471549155257064
4600000000.0 0.3493978189868296 -0.9375029203357269
4603000000.0 0.33774354402691487 -0.9558717083763248
4606000000.0 0.37297229101591955 -0.9454086324553541
4609000000.0 0.34479672781006765 -0.9552037163055711
4612000000.0 0.35699206223671986 -0.9664196851198413
4616000000.0 0.3403114323406674 -0.9261834431122803
4619000000.0 0.3432455022103132 -0.9314914073289017
4622000000.0 0.3636606780800595 -0.9489298464515553
4625000000.0 0.3206550691693402 -0.94334199623042
4628000000.0 0.3529038367274192 -0.9497970269157769
4631000000.0 0.3444079180061045 -0.9708981101451016
4634000000.0 0.3434732356607355 -0.9602558594973171
4638000000.0 0.3545856955239194 -0.9630929996234424
4641000000.0 0.34730551620175354 -0.9349887858698724
4644000000.0 0.3457789641832594 -0.9445476140005213
4647000000.0 0.37197994564560233 -0.9444427264240471
4650000000.0 0.3307085101196931 -0.9595284606075113
4653000000.0 0.3720442872399462 -0.9418535780927574
4656000000.0 0.3362144830681218 -0.9708154560182163
4659000000.0 0.31883296355481816 -0.957206963369083
4662000000.0 0.324928836268698 -0.9737722223405074
4666000000.0 0.32751230952066535 -0.9390749628386197
4669000000.0 0.36838561133586584 -0.9760656711460789
4672000000.0 0.3401728314319332 -0.9851318725832087
4675000000.0 0.35205680863116984 -0.9574118158692707
4678000000.0 0.33443944169968864 -0.9474819110929731
4681000000.0 0.32434890814930817 -0.9682287020619379
4684000000.0 0.3149287257469806 -0.9630965519712348
4688000000.0 0.2967056175157352 -0.965368885611047
4691000000.0 0.34625823696415337 -0.9605829396789387
4694000000.0 0.3569701735272067 -0.9290364599604778
4697000000.0 0.30768181712312126 -0.9214014310275801
4700000000.0 0.33530815918804313 -0.9506109086447562
4703000000.0 0.3599275806522773 -0.8988537451076102
4706000000.0 0.3252440023343822 -0.9565165073795133
4709000000.0 0.32835454471400766 -0.972821217267642
4712000000.0 0.3137079371151738 -0.9658293525238884
4716000000.0 0.3054233497866313 -0.9537665693895374
4719000000.0 0.34319130472532594 -0.9684360276197022
4722000000.0 0.3307123746289604 -0.9654230927179375
4725000000.0 0.3329255234437988 -0.9533194161014871
4728000000.0 0.32865678495816086 -0.9715603501067668
4731000000.0 0.35649992866552227 -0.9858145935302615
4734000000.0 0.3369627832437371 -0.9418936764672479
4738000000.0 0.3476990902049488 -1.018027017470983
4741000000.0 0.3114732838173962 -1.014641092900124
4744000000.0 0.3152073240561167 -0.9443601679621553
4747000000.0 0.33600678204118034 -0.9155719310179328
4750000000.0 0.33344605081230827 -0.9861037095955989
4753000000.0 0.3489077722434255 -0.9609803881074072
4756000000.0 0.3130521475428881 -0.9781015396194679
4759000000.0 0.348093232429613 -0.9890916058074041
4762000000.0 0.27215599513671934 -1.0231133370872572
4766000000.0 0.32318356915013824 -0.9460935754757576
4769000000.0 0.3187648516967635 -0.9665118335873978
4772000000.0 0.29866726804849947 -0.9629820513826369
4775000000.0 0.3065641445359645 -1.033637053233235
4778000000.0 0.30864610117526614 -0.9803233416618204
4781000000.0 0.34121002808669515 -0.9720673655228791
4784000000.0 0.3396032074592462 -0.9484773118513042
4788000000.0 0.29246790852467763 -0.996902556603314
4791000000.0 0.3185461644320129 -0.9597423425713523
4794000000.0 0.35291879113999275 -0.9805502896389836
4797000000.0 0.3029875322530162 -0.9330435732005087
4800000000.0 0.30078373283205634 -0.9794118909460886
4803000000.0 0.28364951302029157 -0.9483923491309703
4806000000.0 0.27967106688575366 -1.0019866385471847
4809000000.0 0.25021756105780957 -0.9745179016728474
4812000000.0 0.26458709859077245 -0.9765670159248943
4816000000.0 0.3235777214108113 -0.9605209075729623
4819000000.0 0.3383064825704319 -0.9973204737166292
4822000000.0 0.34140094681372063 -1.003871084068416
4825000000.0 0.3567945570932589 -0.9970600601918652
4828000000.0 0.3133884074431542 -0.9870825191894833
4831000000.0 0.2675330144996577 -1.0085411432753721
4834000000.0 0.34431505743295543 -0.9843870811591164
4838000000.0 0.2911089566954559 -1.015997716070764
4841000000.0 0.28481072795390805 -0.9699681606109671
4844000000.0 0.34019958960154967 -1.0035882068186441
4847000000.0 0.32681508736458575 -0.9566812404543924
4850000000.0 0.31037434250544327 -1.0092398845444344
4853000000.0 0.2990330950407579 -0.9760493462712571
4856000000.0 0.2872026829311858 -0.9584404776474684
4859000000.0 0.30147886832461696 -1.0246705244300989
4862000000.0 0.30388096758867533 -0.9517611192379636
4866000000.0 0.26281636468846736 -1.0098626929402328
4869000000.0 0.29938969840291485 -0.9936465854149189
4872000000.0 0.28188262369412564 -1.0287418403646165
4875000000.0 0.35553671324289504 -1.0107418295578678
4878000000.0 0.2948374069139816 -0.9922505643351146
4881000000.0 0.2783668022616488 -1.045128792199081
4884000000.0 0.32752329194304053 -1.0013203057977098
4888000000.0 0.3397192544400919 -0.973729581397275
4891000000.0 0.3471923863856885 -0.9876616187737469
4894000000.0 0.2887407594482502 -1.0073921640474972
4897000000.0 0.34425793261192456 -0.993740079138845
4900000000.0 0.2703794660988895 -0.9957325600229268
4903000000.0 0.3094693163331489 -0.9977501329733296
4906000000.0 0.27032124131154955 -1.0135262571924362
4909000000.0 0.29184792974036144 -0.9896302037117932
4912000000.0 0.29166402420258564 -1.051706769057597
4916000000.0 0.30005393801046887 -1.0112719110711412
4919000000.0 0.32701893581404484 -1.0354445070428624
4922000000.0 0.35960474428170053 -0.9722301748013491
4925000000.0 0.271015609327399 -0.986923521027915
4928000000.0 0.37498861548302054 -0.9516695731172178
4931000000.0 0.35304361483056923 -1.0061100843023962
4934000000.0 0.2834860811051372 -0.9685031361344578
4938000000.0 0.2503338863388171 -0.9744817816123363
4941000000.0 0.26774797508964077 -0.9573901581048272
4944000000.0 0.3097477976268593 -0.9151348717970988
4947000000.0 0.2949449737508594 -0.9623283589876916
4950000000.0 0.2676153597342909 -0.9735380873242794
4953000000.0 0.25673129569342656 -1.0270777619130091
4956000000.0 0.3227026545373472 -0.9966874568998672
4959000000.0 0.24870542519661615 -0.9691208508150427
4962000000.0 0.2735757957178788 -1.0099830659676168
4966000000.0 0.33712245316199674 -0.9741007524707265
4969000000.0 0.3254745473608515 -1.0126633071233548
4972000000.0 0.2763869060165808 -1.01233645264942
4975000000.0 0.332029842255505 -0.9660209140919257
4978000000.0 0.270777026609299 -1.0324553295373602
4981000000.0 0.2717961694884571 -1.0018719948963188
4984000000.0 0.3065067117867099 -0.9725041110040169
4988000000.0 0.3181188506031119 -0.9701810597027258
4991000000.0 0.3436282372356965 -0.9899222668760134
4994000000.0 0.3110187826712417 -0.9686949015929516
4997000000.0 0.26000144454191093 -1.0225223034794
5000000000.0 0.32073123243785073 -1.0278183594482244
5003000000.0 0.29767151989477936 -1.0314915123149442
5006000000.0 0.2815139648674877 -1.0255135923886833
5009000000.0 0.27512981255548224 -1.0134945361000232
5012000000.0 0.26170026665981977 -1.0012038806845487
5016000000.0 0.3399450368140518 -1.0378639649767434
5019000000.0 0.26881042327452237 -0.994174101621889
5022000000.0 0.29516073923824654 -1.0010325188633729
5025000000.0 0.2819302982446115 -1.0466012786116998
5028000000.0 0.26979697568358557 -1.0240635025377531
5031000000.0 0.2753621312393576 -1.018777728458077
5034000000.0 0.27372387278552984 -1.0268960283810067
5038000000.0 0.26493875586450855 -0.9875565745881185
5041000000.0 0.312106475761366 -0.9619785266748735
5044000000.0 0.29195069060397155 -0.9795378313222736
5047000000.0 0.2827721088143889 -0.9823145752501499
5050000000.0 0.36687589204920357 -0.9746606533181311
5053000000.0 0.3033328437935577 -1.0372307875815236
5056000000.0 0.32970897951855777 -0.9904752476199413
5059000000.0 0.35956301628994425 -1.0100146317883167
5062000000.0 0.26547464080981226 -1.068978417045808
5066000000.0 0.33978409427288253 -0.9906208952548613
5069000000.0 0.30044618911327103 -1.0164197995784796
5072000000.0 0.30443652053464043 -0.9420516411085205
5075000000.0 0.3054783919542809 -0.9805416834108782
5078000000.0 0.2534188183687513 -0.974390917932189
5081000000.0 0.27269631048818954 -0.9566602049193611
5084000000.0 0.2900600999803149 -1.0186155627432145
5088000000.0 0.28153448389667896 -0.9834299339457928
5091000000.0 0.19027403372117074 -0.9657413491802228
5094000000.0 0.277116291971803 -1.0189906803297202
5097000000.0 0.30861608646501315 -0.9940259234004836
5100000000.0 0.2617747432921898 -0.9944303651214823
5103000000.0 0.22590339134482723 -1.0291123530725146
5106000000.0 0.30567646681304866 -0.980931082311109
5109000000.0 0.31408858660715505 -1.0263985828038054
5112000000.0 0.259725902628524 -0.9765726491155413
5116000000.0 0.2709128348994217 -0.999069617414615
5119000000.0 0.2550194450397691 -1.0395184102935897
5122000000.0 0.29675100425888673 -0.9758943649781375
5125000000.0 0.321086909443242 -0.9740038884311419
5128000000.0 0.27880390739230243 -0.9409634320926512
5131000000.0 0.28078414895802334 -0.9850416813228879
5134000000.0 0.2806444895108076 -0.9749027320764654
5138000000.0 0.3077226865696449 -1.0009329287528779
5141000000.0 0.35305335751399136 -0.9988649675848116
5144000000.0 0.3054982355421565 -0.9901567650699631
5147000000.0 0.2613155456129769 -1.018812484773925
5150000000.0 0.24455591989189834 -1.0186799643067277
5153000000.0 0.28866681401039773 -1.0172002437529006
5156000000.0 0.2831183768792246 -1.010368339648724
5159000000.0 0.2741931368949064 -1.0276666667108159
5162000000.0 0.28971091970884616 -1.0244811647665935
5166000000.0 0.2897899850765828 -1.0211387537988232
5169000000.0 0.2626683148843647 -1.042345406699285
