! Created with skrf 1.8.0 (http://scikit-rf.org).
# Hz S RI R 50.0 
!freq ReS11 ImS11
4000000000.0 0.5851844383574341 -0.8067096820463358
4003000000.0 0.6088884396232764 -0.9073137741868088
4006000000.0 0.5174110440740594 -0.8740198529549171
4009000000.0000005 0.5375721700348879 -0.898142729027368
4011999999.9999995 0.6174529329621078 -0.8751688434660072
4016000000.0 0.4695654361805277 -0.9211035982672331
4019000000.0 0.554730852093806 -0.849606915223285
4022000000.0000005 0.5833459027448794 -0.8524949802361509
4025000000.0000005 0.5404429439953651 -0.9317293918052403
4027999999.9999995 0.5110408893950905 -0.8546248016511585
4030999999.9999995 0.5744515690139502 -0.8231922141408523
4034000000.0 0.5346927871530073 -0.8881803171030049
4038000000.0000005 0.5393866161790524 -0.9397901832157569
4041000000.0000005 0.530691772672585 -0.8483315455426922
4043999999.9999995 0.5857326944550565 -0.9115607736432956
4046999999.9999995 0.5947464153121401 -0.8824920806621585
4050000000.0 0.5518641929394505 -0.9024472161990655
4053000000.0 0.5243778402660313 -0.896988648284379
4056000000.0 0.5629551372748249 -0.8754398870765254
4059000000.0 0.5808252995171818 -0.8469667198640262
4062000000.0000005 0.5302630674189454 -0.868385928438926
4066000000.0 0.4933636446387913 -0.8220443912046342
4069000000.0 0.5450679410393304 -0.9017016581631244
4072000000.0 0.5691671222032619 -0.8713541705296083
4075000000.0 0.5824436784768566 -0.8694406128612289
4078000000.0000005 0.5666288277997508 -0.9186802572460682
4081000000.0000005 0.628311981468989 -0.8490932162241303
4083999999.9999995 0.5354854273741402 -0.8831816214018445
4088000000.0 0.6325227967797696 -0.854024394678951
4091000000.0 0.5675169835937521 -0.9093618589551006
4094000000.0000005 0.5789388687327714 -0.873615381580937
4097000000.0000005 0.5761651957669476 -0.870277773357173
4099999999.9999995 0.552171422579312 -0.8747036206283948
4102999999.9999995 0.5508526988392519 -0.8830626661647886
4106000000.0 0.5331897060724237 -0.8505192254377836
4109000000.0 0.5353972805943692 -0.8662372061035208
4112000000.0 0.5538561884960855 -0.8753991122168736
4115999999.9999995 0.5835676440724201 -0.8482904833800715
4119000000.0 0.5296554984126003 -0.8667369562025684
4122000000.0 0.5818745315809593 -0.9020390571979827
4125000000.0 0.5354928158412247 -0.8687979855836014
4128000000.0 0.5835162613088846 -0.7917559911745756
4131000000.0 0.500582520329487 -0.8461297542134077
4134000000.0000005 0.5325508654608537 -0.8559701067240214
4138000000.0 0.535339276808906 -0.8500234139331444
4141000000.0 0.5391619281728853 -0.8704993789321389
4144000000.0 0.5863701239827235 -0.8794042617126216
4147000000.0000005 0.5117798436088754 -0.8623374798181376
4150000000.0000005 0.5768215863756292 -0.8859637275603255
4152999999.9999995 0.5392380182046498 -0.871554209909907
4155999999.9999995 0.567779337606551 -0.8278295232153376
4159000000.0 0.5456389364863541 -0.836038540483083
4162000000.0 0.5478274768531477 -0.8554943552384788
4166000000.0000005 0.5427044327084866 -0.9018829408246687
4168999999.9999995 0.5288062255017753 -0.8781621198579359
4171999999.9999995 0.5782732074221348 -0.8485838514722736
4175000000.0 0.5733366216795922 -0.8511567560027005
4178000000.0 0.5771805141628689 -0.8723154879578295
4181000000.0 0.5653428261223603 -0.8646232284534837
4184000000.0 0.5602257430970844 -0.8572989240912535
4187999999.9999995 0.5336871547702018 -0.8557174840067454
4191000000.0 0.5810683864149436 -0.8146884264270182
4194000000.0 0.548998676670909 -0.8300209634832737
4197000000.0 0.5480349515091029 -0.8623240473472602
4200000000.0 0.5708688207370085 -0.8342807581507723
4203000000.0000005 0.5860423804766288 -0.8477432597709387
4206000000.0000005 0.5726551682483636 -0.8670267432558768
4208999999.9999995 0.5493724981565455 -0.8503849198259954
4211999999.9999995 0.5361847908606105 -0.8579398427847826
4216000000.0 0.5712397084505081 -0.8524364816817519
4219000000.0000005 0.5455630701984069 -0.8502330457086872
4222000000.0000005 0.5450316889214114 -0.8757265885217334
4224999999.9999995 0.5578378200306344 -0.8457953581649974
4227999999.9999995 0.5563670591145384 -0.8415997432935416
4231000000.0 0.5376392234017238 -0.8668847790469122
4234000000.0 0.5606819035465918 -0.8827440250778872
4238000000.0000005 0.5448351522023396 -0.8741621109800772
4240999999.9999995 0.5483978753851626 -0.8646920337783986
4244000000.0 0.5534275326698039 -0.8523060384832898
4247000000.0 0.5647401030223491 -0.8383595732223761
4250000000.0 0.5394394517457601 -0.8466250854627972
4253000000.0 0.5451728009948988 -0.8370150540722482
4256000000.0 0.5628220007682988 -0.8695887316956689
4259000000.0000005 0.5315103515958163 -0.8334261622101821
4261999999.9999995 0.536408660519893 -0.8682169328966954
4266000000.0 0.5458295089984769 -0.8795694946113162
4269000000.0 0.5662462686349907 -0.8519150106913015
4272000000.0000005 0.5595140294964769 -0.8182807444696621
4275000000.0000005 0.5470011057440453 -0.8514522736128493
4277999999.9999995 0.5727708733438394 -0.8721433450670534
4280999999.9999995 0.5566085677673484 -0.8557538510145976
4284000000.0 0.528412924582334 -0.867191874171865
4288000000.0000005 0.566482552650855 -0.8391272284720458
4291000000.0000005 0.5434940205592318 -0.8391518198564692
4293999999.9999995 0.5119121430063053 -0.8485031588449204
4297000000.0 0.5557078142779494 -0.8099064158242211
4300000000.0 0.5475646431139278 -0.8320711490278996
4303000000.0 0.5457808657989263 -0.8422292286552354
4306000000.0 0.5733913934354814 -0.8381101586111519
4309000000.0 0.5586953949733912 -0.8499153648187784
4312000000.0 0.5899590408477161 -0.8477069548987037
4316000000.0 0.5594350549621906 -0.856554714089544
4319000000.0 0.5493998576115445 -0.8339653706573761
4322000000.0 0.538918950535323 -0.8484489699826357
4325000000.0 0.5552934419818842 -0.8396687421617012
4328000000.0 0.5429004274585778 -0.8406764777685484
4331000000.0 0.5138548847148979 -0.8643627190376298
4334000000.0 0.5607173058600607 -0.8522923004595075
4338000000.0 0.569347915212219 -0.8364384306086896
4341000000.0 0.5911879707688132 -0.8547458616893776
4344000000.0 0.5630268118498776 -0.8587239251934929
4347000000.0 0.5440628174732365 -0.8775836801761911
4350000000.0 0.5115516537514649 -0.8239695171279953
4353000000.0 0.546268250188402 -0.8306572737659972
4356000000.0 0.5106511066320498 -0.8597041217309523
4359000000.0 0.5090476258409223 -0.7935526045361386
4362000000.0 0.5015840586373853 -0.8667861835237517
4366000000.0 0.5808904171297102 -0.8671488610502432
4369000000.0 0.5186292893373675 -0.813384105707403
4372000000.0 0.5179737963374473 -0.8616391285763383
4375000000.0 0.5630243924596587 -0.8446654227528883
4378000000.0 0.5442978983220108 -0.8178305912221452
4381000000.0 0.5384889288844992 -0.8232189565251171
4384000000.0 0.5791979524578388 -0.9157987218164654
4388000000.0 0.5339446766881863 -0.8311887695079903
4391000000.0 0.5468310031691154 -0.8595510614321363
4394000000.0 0.5298314067251813 -0.8327366545061152
4397000000.0 0.5334997801888075 -0.8391478173366818
4400000000.0 0.547327048927371 -0.8701436834379617
4403000000.0 0.541911800689797 -0.854007864078622
4406000000.0 0.5171645475558693 -0.8551953374819891
4409000000.0 0.5490093543299349 -0.8681873851191869
4412000000.0 0.46581920864499554 -0.8685884437566226
4416000000.0 0.5152468868202462 -0.8394380284347054
4419000000.0 0.526516607874087 -0.8631439462376422
4422000000.0 0.56219053373692 -0.8392412975670256
4425000000.0 0.5696535367210903 -0.8549075502658691
4428000000.0 0.5372084677888752 -0.8476585517042722
4431000000.0 0.5682195759777023 -0.8679727711601295
4434000000.0 0.5396265420317545 -0.8517334247678171
4438000000.0 0.5459679946844477 -0.8890281181573818
4441000000.0 0.5491352006794412 -0.8710683087774937
4444000000.0 0.5385997881827693 -0.8382143733451853
4447000000.0 0.5180013777972102 -0.8442584769579629
4450000000.0 0.5436425257724972 -0.8468362953882098
4453000000.0 0.5652648940326364 -0.873698518029156
4456000000.0 0.5042031863231637 -0.8521972052350799
4459000000.0 0.49235813270989426 -0.8390260444026689
4462000000.0 0.5762902451033856 -0.9078785809593057
4466000000.0 0.5503243615969948 -0.8909725172090653
4469000000.0 0.5507524519221474 -0.8661388119437602
4472000000.0 0.5249371691905043 -0.8905858148574411
4475000000.0 0.5322458792796448 -0.8371904426268026
4478000000.0 0.5397066760207566 -0.8993701220370348
4481000000.0 0.5062501923485365 -0.835487244326554
4484000000.0 0.48603511060256666 -0.8703214454865258
4488000000.0 0.5165129195115178 -0.8667784815759301
4491000000.0 0.5110530664536916 -0.858629922763038
4494000000.0 0.5277649590679031 -0.829629095268003
4497000000.0 0.5205905710856851 -0.8334275289785172
4500000000.0 0.5449913470217014 -0.8470585953452949
4503000000.0 0.5566461666300639 -0.8738734939629983
4506000000.0 0.5233181130328919 -0.864238115879121
4509000000.0 0.5105527967340083 -0.8354825559750172
4512000000.0 0.5170792498440955 -0.8477597045756469
4516000000.0 0.5475547988113443 -0.879874576371778
4519000000.0 0.5178852948427846 -0.8506205711918498
4522000000.0 0.5091348954901668 -0.8712533621110415
4525000000.0 0.5568517592640387 -0.8455688367416756
4528000000.0 0.5395071449662365 -0.8846570180260089
4531000000.0 0.5339293106903954 -0.8306767549539336
4534000000.0 0.5136786865910283 -0.8337156958760341
4538000000.0 0.5170058355612478 -0.8543595666089449
4541000000.0 0.4781514361315726 -0.8586441321856734
4544000000.0 0.5173237154195967 -0.8377467365743485
4547000000.0 0.5427771681501723 -0.8305657463293535
4550000000.0 0.4860105342505905 -0.8661119945571286
4553000000.0 0.5258604213747473 -0.8583521820943324
4556000000.0 0.49505778119739663 -0.8461473355470333
4559000000.0 0.4995601442506561 -0.8697832933619819
4562000000.0 0.5371636183430737 -0.8658253774475353
4566000000.0 0.5203292509022828 -0.8746492435656661
4569000000.0 0.4851751176800243 -0.839075662097045
4572000000.0 0.5201155124710831 -0.8511420517588038
4575000000.0 0.49749506679532696 -0.8748032013328731
4578000000.0 0.5437702231988717 -0.874812998126959
4581000000.0 0.5003100090762553 -0.873124000899612
4584000000.0 0.4877574330978106 -0.8637660657912889
4588000000.0 0.5401360149638801 -0.8682189096685567
4591000000.0 0.537062767997991 -0.8407067225119363
4594000000.0 0.4830986093644011 -0.8698659771510975
4597000000.0 0.5203643623287275 -0.877881890771856
4600000000.0 0.5019331672063234 -0.8585480071948857
4603000000.0 0.49752851619391064 -0.8815978898820303
4606000000.0 0.5189071030871968 -0.8825341040425373
4609000000.0 0.5245431633103392 -0.8653096218069538
4612000000.0 0.5216311254809507 -0.8588800930005881
4616000000.0 0.49880476007225194 -0.8545058075888702
4619000000.0 0.527771863091108 -0.8721011101308046
4622000000.0 0.5024625960286321 -0.881467901689928
4625000000.0 0.49201398548301756 -0.8514495270283502
4628000000.0 0.515790224805415 -0.8569939863103619
4631000000.0 0.493311477833071 -0.8656436177314919
4634000000.0 0.5153541114173822 -0.8746843193698045
4638000000.0 0.5107334997277514 -0.876192601203948
4641000000.0 0.5161694087312168 -0.8700549479058003
4644000000.0 0.504669181273308 -0.8699111408125091
4647000000.0 0.519512360586864 -0.8762733722375945
4650000000.0 0.4938932805685844 -0.8801969895195805
4653000000.0 0.5073210340248819 -0.8911949039625829
4656000000.0 0.49363209364524524 -0.8904333776995108
4659000000.0 0.49686096090419385 -0.8915017758801431
4662000000.0 0.5041800291104218 -0.8867828281033535
4666000000.0 0.4887880946899289 -0.8783749721752985
4669000000.0 0.5001039021655374 -0.8546551263713439
4672000000.0 0.49394378300787256 -0.9009984914168291
4675000000.0 0.4759186228228637 -0.892089070240838
4678000000.0 0.4877975986921632 -0.8680360965301661
4681000000.0 0.4810803473992676 -0.8899118294841717
4684000000.0 0.4845603985269084 -0.8966572574853022
4688000000.0 0.47192445843635944 -0.8757914636375819
4691000000.0 0.5211406692573006 -0.85686927056496
4694000000.0 0.5105243915868766 -0.867420111394183
4697000000.0 0.4812572770985736 -0.8853133598254462
4700000000.0 0.5204176963239345 -0.8600854923127884
4703000000.0 0.5042035124391929 -0.8416928125417681
4706000000.0 0.4764968257108925 -0.8761198121494964
4709000000.0 0.4903555572631867 -0.8711388294439811
4712000000.0 0.476326668770384 -0.880053273302338
4716000000.0 0.5016925738660627 -0.9208112235960678
4719000000.0 0.5169702237426723 -0.9033166495896593
4722000000.0 0.4964280831919912 -0.8767519401117742
4725000000.0 0.5126413368344346 -0.8590087081629314
4728000000.0 0.5063601958338569 -0.8742933840721047
4731000000.0 0.546118353245832 -0.8815545850018021
4734000000.0 0.5191105529241684 -0.8716566559251623
4738000000.0 0.5138198529160803 -0.9129554156710354
4741000000.0 0.5087447227566809 -0.9078884058054796
4744000000.0 0.47461711925088595 -0.8995418705566588
4747000000.0 0.5170362085626813 -0.8461179730948769
4750000000.0 0.48484335448476074 -0.8624145525388607
4753000000.0 0.4956123877987325 -0.8841303196197808
4756000000.0 0.48747297204807677 -0.8826002884723726
4759000000.0 0.4972692135285475 -0.9074226703021977
4762000000.0 0.4875236519049121 -0.896195396348646
4766000000.0 0.5186956665174769 -0.873762703327801
4769000000.0 0.5313119209398682 -0.8996031958970352
4772000000.0 0.5046036758662843 -0.8825666654145253
4775000000.0 0.5042249513987904 -0.9222857150518287
4778000000.0 0.5020027798934875 -0.884802274700002
4781000000.0 0.4966178121209118 -0.874344893815419
4784000000.0 0.5024695208039989 -0.8509794295662854
4788000000.0 0.48153421986823075 -0.8788443963867941
4791000000.0 0.4807598893051187 -0.8752852598967209
4794000000.0 0.5377037628798582 -0.8944634750177741
4797000000.0 0.48039247004156704 -0.872237719778072
4800000000.0 0.47159024116510717 -0.8737874851609779
4803000000.0 0.45687820389780687 -0.8970227476508718
4806000000.0 0.5113720413229709 -0.8873283845834979
4809000000.0 0.4626074293284621 -0.9181413601243448
4812000000.0 0.4560425907156682 -0.9055467968272292
4816000000.0 0.49974759422106824 -0.8497883974662723
4819000000.0 0.5224769309931069 -0.9004470849785386
4822000000.0 0.5229925108294843 -0.907009525631699
4825000000.0 0.530329083839866 -0.9126342591970045
4828000000.0 0.47526114603092806 -0.8716549718355796
4831000000.0 0.47588512172594966 -0.9309798694757446
4834000000.0 0.5118190016117622 -0.8892304745000928
4838000000.0 0.4935976839620049 -0.8917663787956249
4841000000.0 0.4941180295789406 -0.892159126945015
4844000000.0 0.537758145035478 -0.8782980687545576
4847000000.0 0.4976958513572919 -0.8398629613400584
4850000000.0 0.4966738984658225 -0.9178891708251402
4853000000.0 0.506488197135973 -0.862456067732507
4856000000.0 0.48973481535941116 -0.886240768293234
4859000000.0 0.5132078221653154 -0.91455391855365
4862000000.0 0.4887082321025862 -0.8610302428680171
4866000000.0 0.4983195234163362 -0.9084594215308348
4869000000.0 0.49083558923331927 -0.8997183869228071
4872000000.0 0.4940539054838228 -0.9469867608577612
4875000000.0 0.5516851305671168 -0.8912713525403283
4878000000.0 0.4988790145002723 -0.9038546397971255
4881000000.0 0.5194404819726116 -0.9630294320065326
4884000000.0 0.5054941369060475 -0.8973601442951947
4888000000.0 0.5231333362249713 -0.8764683428417249
4891000000.0 0.5438960917504911 -0.8953819165745168
4894000000.0 0.5029291047662047 -0.8991272154861136
4897000000.0 0.5340755681737754 -0.866253549159375
4900000000.0 0.49813921092083346 -0.8976479662354763
4903000000.0 0.5431212974712009 -0.9169512808367551
4906000000.0 0.5194544408205641 -0.8983934499939619
4909000000.0 0.49061306458665277 -0.9131520077462937
4912000000.0 0.5048179801749481 -0.9188857824313458
4916000000.0 0.5260629586416453 -0.8957742535428798
4919000000.0 0.5351654030990358 -0.9101130195046189
4922000000.0 0.5402075124019442 -0.8862720747921995
4925000000.0 0.4846358145082624 -0.8850633240283681
4928000000.0 0.5753138305382701 -0.8530882750326296
4931000000.0 0.5460644808543176 -0.8866984696910166
4934000000.0 0.5019083892293611 -0.8449084883102623
4938000000.0 0.47362271317632537 -0.8625893195856709
4941000000.0 0.4926068917995781 -0.8958729173427098
4944000000.0 0.49046277603067256 -0.8118882126405045
4947000000.0 0.5148735991942555 -0.8956958739523927
4950000000.0 0.4842646835333662 -0.8698626390719598
4953000000.0 0.5216345663555854 -0.950005278901684
4956000000.0 0.4919484595151772 -0.8809524912471962
4959000000.0 0.46000562093867403 -0.8866980927891975
4962000000.0 0.5052735469965782 -0.9008538947758407
4966000000.0 0.5072178561156921 -0.8951609413480642
4969000000.0 0.5312135558242856 -0.9254870597788272
4972000000.0 0.5164621931091311 -0.9031656426345387
4975000000.0 0.5056937080342809 -0.8673986374610853
4978000000.0 0.5016739272273812 -0.9058913498868356
4981000000.0 0.5171712315056389 -0.9022070600027263
4984000000.0 0.499714680645185 -0.8379753174778709
4988000000.0 0.5353755267804668 -0.8368554461569221
4991000000.0 0.5778096050292609 -0.890209458763399
4994000000.0 0.5229089496714756 -0.8459825641860821
4997000000.0 0.47837817904270835 -0.9293882915993142
5000000000.0 0.5571296976892803 -0.9040983993514472
5003000000.0 0.5506012943695288 -0.9221330419056901
5006000000.0 0.5260293857132496 -0.9476275967325783
5009000000.0 0.525601451908517 -0.8633720445433083
5012000000.0 0.5198369831956419 -0.8919141376803803
5016000000.0 0.5858064301822874 -0.8909321110488826
5019000000.0 0.4882091808408351 -0.8811709251639824
5022000000.0 0.5359395858637445 -0.8886285428611453
5025000000.0 0.5417733779872201 -0.9655052198817501
5028000000.0 0.4872027290076962 -0.9148062026355609
5031000000.0 0.5422861892459857 -0.8951567841856095
5034000000.0 0.536644895848949 -0.948168815606699
5038000000.0 0.4974588750982186 -0.9050367547754734
5041000000.0 0.5560186711503515 -0.8612007836848845
5044000000.0 0.5364078844833992 -0.8886337548272063
5047000000.0 0.5400029963068131 -0.8915747592443144
5050000000.0 0.5844656167499267 -0.8461997425595816
5053000000.0 0.5603330809276594 -0.932265217477019
5056000000.0 0.5642764305804387 -0.8897145965679216
5059000000.0 0.6023155833798398 -0.8575648309092619
5062000000.0 0.5172862995526221 -0.9011559989727316
5066000000.0 0.5469910211583292 -0.8488045098410721
5069000000.0 0.5790194684687309 -0.8845656322074298
5072000000.0 0.5049055235469333 -0.8480040116519809
5075000000.0 0.5506653585388587 -0.8657238665355913
5078000000.0 0.4829771310150907 -0.9003487010797036
5081000000.0 0.4579052303478318 -0.8753282204260937
5084000000.0 0.5146301153699666 -0.9006692165118629
5088000000.0 0.5419550426250048 -0.840777687673063
5091000000.0 0.5187092673818203 -0.9422376060316944
5094000000.0 0.5581663081688087 -0.8845884052005186
5097000000.0 0.57514183110652 -0.8495593551745582
5100000000.0 0.547086159999644 -0.8618138323837297
5103000000.0 0.5127865919193254 -0.9116172716080996
5106000000.0 0.5615748371459178 -0.8961213154544032
5109000000.0 0.5833932034072372 -0.8430725613935054
5112000000.0 0.5139030831110872 -0.8932464437995704
5116000000.0 0.5191638047373189 -0.8707762032663682
5119000000.0 0.5683530274374345 -0.909686058665794
5122000000.0 0.5565281022659272 -0.8913367497269051
5125000000.0 0.5658968548597638 -0.8421328514318372
5128000000.0 0.5343323976958557 -0.8832130919880927
5131000000.0 0.546333277528418 -0.90304272314502
5134000000.0 0.515541583457232 -0.8485465829194014
5138000000.0 0.5969487363398018 -0.8511777648222985
5141000000.0 0.5912983611671424 -0.8640809888285242
5144000000.0 0.5757454031594127 -0.8460071787545175
5147000000.0 0.5868368987992085 -0.8915006935137582
5150000000.0 0.5667105792777689 -0.8901658757361239
5153000000.0 0.5737994475844669 -0.8557823787340908
5156000000.0 0.5658133674345299 -0.8625669631403741
5159000000.0 0.5775920218498741 -0.9117229724246889
5162000000.0 0.5307581033210649 -0.8665503014678646
5166000000.0 0.5753291168948025 -0.9142756436191848
5169000000.0 0.5626413369705194 -0.886519576827578
5172000000.0 0.5458587403045969 -0.8638619365228625
5175000000.0 0.5432393534582484 -0.9239784983937153
5178000000.0 0.5594449467939188 -0.8383113226742128
