! Created with skrf 1.8.0 (http://scikit-rf.org).
# Hz S RI R 50.0 
!freq ReS11 ImS11
4000000000.0 0.4328743641996141 -0.9175545990442895
4003000000.0 0.42145447081230547 -0.9870231376615024
4006000000.0 0.3936329377147606 -0.9470424278199305
4009000000.0000005 0.41548260091123207 -0.9590596799346275
4011999999.9999995 0.4808995685165116 -0.9445685151547744
4016000000.0 0.3987587553682614 -0.9600258740294674
4019000000.0 0.39924554249026634 -0.8937662375118016
4022000000.0000005 0.481097085353835 -0.9136823317909548
4025000000.0000005 0.3666416181894394 -0.9681469287514016
4027999999.9999995 0.39605280570497003 -0.9462425833297472
4030999999.9999995 0.4089860690732634 -0.9192027700084562
4034000000.0 0.37530984023699276 -0.9223113677250859
4038000000.0000005 0.44831524729192085 -0.928877787156277
4041000000.0000005 0.4217359183428485 -0.9485369434400392
4043999999.9999995 0.4287479859290498 -0.9643370843130049
4046999999.9999995 0.4432307344168782 -0.9932616034835785
4050000000.0 0.40660669364091695 -0.9640150407943431
4053000000.0 0.40004787655432505 -0.9224141728151409
4056000000.0 0.42764355894919837 -0.948062604587538
4059000000.0 0.41439787632605496 -0.9394683194391368
4062000000.0000005 0.39449245372127906 -0.9430386588730321
4066000000.0 0.3954979548682912 -0.9042150604099639
4069000000.0 0.3982346728287987 -1.018332963849677
4072000000.0 0.43568967166285716 -0.9159360377917947
4075000000.0 0.4416247267003904 -0.9323700657735691
4078000000.0000005 0.4148240921528278 -0.9619458850529865
4081000000.0000005 0.4792970375454798 -0.9378917106115403
4083999999.9999995 0.39341717973071094 -0.9497286683698318
4088000000.0 0.421014235058322 -0.9595160032135192
4091000000.0 0.42519938217289804 -0.9957056121248674
4094000000.0000005 0.39939487294160814 -0.9270981921172335
4097000000.0000005 0.39965584442711916 -0.9125923140650799
4099999999.9999995 0.41000905420122724 -0.9374511137188614
4102999999.9999995 0.4454146776223571 -0.9808269491582745
4106000000.0 0.43608812276708775 -0.9664766113267844
4109000000.0 0.3827910397747554 -0.9461575012743053
4112000000.0 0.4151332614895693 -0.9339930458738327
4115999999.9999995 0.3997055797144845 -0.9520134651674713
4119000000.0 0.40975605446554164 -0.9131032525736398
4122000000.0 0.3659466110548997 -0.9530822312292501
4125000000.0 0.3877940385677092 -0.9338207702102332
4128000000.0 0.40592373465915543 -0.8970762676431216
4131000000.0 0.3693853103122848 -0.9406254743964817
4134000000.0000005 0.4111013728949911 -0.907714974979121
4138000000.0 0.41372621029060863 -0.9011859555563648
4141000000.0 0.38579301150221335 -0.9366958848681226
4144000000.0 0.44776561825528777 -0.9133439473960446
4147000000.0000005 0.39491597174971843 -0.9422925582624074
4150000000.0000005 0.4219918075083331 -0.9535705225123481
4152999999.9999995 0.4104667694721938 -0.9114913437671702
4155999999.9999995 0.42540168125695227 -0.9504688635734427
4159000000.0 0.39479484523968966 -0.9118017913582843
4162000000.0 0.3989679159911188 -0.9419978500629493
4166000000.0000005 0.38028358241390675 -0.9583104430053893
4168999999.9999995 0.3560813098620027 -0.9132485444415059
4171999999.9999995 0.4088745991275882 -0.9397937720503189
4175000000.0 0.39432510428083484 -0.9566698813960458
4178000000.0 0.41262950041264435 -0.9452329870222929
4181000000.0 0.3863355943723209 -0.9423811301445874
4184000000.0 0.40397802096124713 -0.9068146848147048
4187999999.9999995 0.3954788414105509 -0.9597779959240339
4191000000.0 0.4219664081693202 -0.9033092710933925
4194000000.0 0.3876181093523643 -0.9241474830963169
4197000000.0 0.4053616259354578 -0.934621867386235
4200000000.0 0.43334970860185423 -0.9425561317828135
4203000000.0000005 0.41496336269687234 -0.931073189336321
4206000000.0000005 0.408396860899914 -0.9350831289686745
4208999999.9999995 0.39159638248826056 -0.9391401800579255
4211999999.9999995 0.37623765957712574 -0.9512348259469761
4216000000.0 0.4139680196702653 -0.9410861757749903
4219000000.0000005 0.4074699236680913 -0.9600065016143813
4222000000.0000005 0.3875246892049034 -0.9545567462716784
4224999999.9999995 0.39086647199378644 -0.9245264838230979
4227999999.9999995 0.3736842091669766 -0.9445022320138112
4231000000.0 0.39346144486367896 -0.9413744226160667
4234000000.0 0.3796824087628511 -0.9672607910810053
4238000000.0000005 0.36388089174952487 -0.9357519623145828
4240999999.9999995 0.3633768307751939 -0.9320064831920923
4244000000.0 0.38008846637873056 -0.9312734117238297
4247000000.0 0.3870504635393145 -0.9369665616550185
4250000000.0 0.36338368685461 -0.9271865309669123
4253000000.0 0.3739171134181497 -0.9335580421237103
4256000000.0 0.3880405472512581 -0.9533087657912559
4259000000.0000005 0.36602204622020895 -0.9258003444063676
4261999999.9999995 0.34687548750567954 -0.9458784291782336
4266000000.0 0.3542479508147961 -0.9710402166254739
4269000000.0 0.3838910589470403 -0.9446480870738524
4272000000.0000005 0.38493003913751345 -0.9382050566604148
4275000000.0000005 0.3749068549661864 -0.9300919094665342
4277999999.9999995 0.3942718326792103 -0.9573189470429759
4280999999.9999995 0.3883654937002239 -0.9386302978575916
4284000000.0 0.3430898510683423 -0.9501177697653064
4288000000.0000005 0.3810249262105269 -0.9197292396549681
4291000000.0000005 0.34040882109601406 -0.9079288925213753
4293999999.9999995 0.3711357534975003 -0.9182478162326233
4297000000.0 0.3795906727094539 -0.8934729245517127
4300000000.0 0.39077473750313807 -0.8868700909096386
4303000000.0 0.33863485437497887 -0.9266487435451041
4306000000.0 0.40386963629428124 -0.930097584937519
4309000000.0 0.35529304445064674 -0.9391307151131582
4312000000.0 0.4035992289273393 -0.9366433961680977
4316000000.0 0.40308882585919315 -0.9301845706818203
4319000000.0 0.370656873997262 -0.9348152536665566
4322000000.0 0.34419290547221415 -0.9431392146864265
4325000000.0 0.3657546571103927 -0.9465829537184532
4328000000.0 0.3771047095956313 -0.9296315604361746
4331000000.0 0.33715588110360345 -0.9436455113269886
4334000000.0 0.3351650591372105 -0.9543880091029083
4338000000.0 0.367299514417207 -0.9445673461237869
4341000000.0 0.3881465122457577 -0.9525678093850098
4344000000.0 0.3679126444803365 -0.963653767634461
4347000000.0 0.35325511710526797 -0.9569383692301916
4350000000.0 0.34552320734720704 -0.928853683923058
4353000000.0 0.3712074190026313 -0.916743537812942
4356000000.0 0.32116895799335954 -0.964231080520856
4359000000.0 0.3185599937302172 -0.8935842667907979
4362000000.0 0.3025050756823161 -0.9744712631413102
4366000000.0 0.3645502457561999 -0.9522508829738339
4369000000.0 0.3369956689925334 -0.9055325971245098
4372000000.0 0.31739053114054233 -0.948882008304403
4375000000.0 0.355379508020391 -0.9523533355295597
4378000000.0 0.3311264206850145 -0.9236718609529679
4381000000.0 0.340979515421333 -0.9432997202399892
4384000000.0 0.334168351939739 -1.0190816685872
4388000000.0 0.348971082550732 -0.9177990084880651
4391000000.0 0.33908125705975684 -0.9513215829795892
4394000000.0 0.3220270799521692 -0.9282587509047954
4397000000.0 0.3046978600729613 -0.9501974080427611
4400000000.0 0.334332232911906 -0.9739650492466445
4403000000.0 0.3371980830369804 -0.9510275534100315
4406000000.0 0.308247618665468 -0.957159077389186
4409000000.0 0.3190874438789931 -1.0008880108186673
4412000000.0 0.283080525288496 -0.9515141409444621
4416000000.0 0.306484289230072 -0.9291437291759199
4419000000.0 0.3197671488359063 -0.962289406973305
4422000000.0 0.33228978435374956 -0.9473217826372545
4425000000.0 0.34541747314524945 -0.9610203430641631
4428000000.0 0.3075807385960655 -0.9500112217066308
4431000000.0 0.3261106899675439 -0.9586571208068191
4434000000.0 0.3105260483242852 -0.9405109019569451
4438000000.0 0.32468553103798853 -0.9880942018176906
4441000000.0 0.32756906203491326 -0.974200065533378
4444000000.0 0.3217034210129514 -0.9365148373316275
4447000000.0 0.2875400413302927 -0.9649128636127933
4450000000.0 0.31718261488733857 -0.9406779501825552
4453000000.0 0.3066283827741851 -0.9764646099114236
4456000000.0 0.2878168942339854 -0.948764248212409
4459000000.0 0.27677464457506734 -0.9401383206749211
4462000000.0 0.31832792335096877 -1.016654123210702
4466000000.0 0.3061294684046996 -0.9962643281854038
4469000000.0 0.30126533624864144 -0.9669649982292647
4472000000.0 0.27928516627733396 -0.994396618841711
4475000000.0 0.2976176008669582 -0.9319667483614762
4478000000.0 0.3066775914920173 -1.0067564461890957
4481000000.0 0.2665441960694366 -0.9407446712427001
4484000000.0 0.24625296988798 -0.966599935443522
4488000000.0 0.28663761128558857 -0.9484829796371638
4491000000.0 0.2978777355721949 -0.9639942950315601
4494000000.0 0.2821681073155827 -0.9755190152762777
4497000000.0 0.2918792937123701 -0.9496497391210431
4500000000.0 0.30349516150259354 -0.9499308134164498
4503000000.0 0.28095929026364036 -0.993122489174557
4506000000.0 0.2778864278829488 -0.9629748085498284
4509000000.0 0.26766148207841123 -0.9491175994603962
4512000000.0 0.25749151415143673 -0.9363356591217087
4516000000.0 0.25851054027608306 -0.9794592446415471
4519000000.0 0.2750590765951372 -0.9484728302596761
4522000000.0 0.27108257826820586 -0.9702447568054464
4525000000.0 0.2902831759107135 -0.960625494648514
4528000000.0 0.27919849744079644 -0.9853747959939216
4531000000.0 0.27237041855993743 -0.9667669316452783
4534000000.0 0.26898775398188696 -0.9477683938296848
4538000000.0 0.2809963686400338 -0.9686217745526684
4541000000.0 0.2204372499062769 -0.9582173361798811
4544000000.0 0.2705394961609972 -0.9869497804549678
4547000000.0 0.27893944027403467 -0.9678144140508409
4550000000.0 0.25516822054768645 -0.9838074080789103
4553000000.0 0.2552063865217639 -0.9767861840692078
4556000000.0 0.2429597289904598 -0.9602414524405456
4559000000.0 0.24265378720206005 -0.9679597274192464
4562000000.0 0.26058200809634186 -1.0014828709280563
4566000000.0 0.270632308368038 -0.9793748463227796
4569000000.0 0.24073915691331 -0.9750088753748328
4572000000.0 0.258839175179619 -0.9651936162858235
4575000000.0 0.23803603111267008 -0.9932814190010985
4578000000.0 0.2566468579567917 -0.9832024369734447
4581000000.0 0.22355276062427565 -0.9964691478663613
4584000000.0 0.22310950709642158 -0.9624762635028344
4588000000.0 0.25295526287901626 -0.9932077161444991
4591000000.0 0.2563996199185076 -0.994754578392647
4594000000.0 0.22716722946086804 -0.9816405622302271
4597000000.0 0.23458061950748066 -0.9841680282911757
4600000000.0 0.21546344041452004 -0.9814040667776373
4603000000.0 0.23028672863615068 -0.977134925499998
4606000000.0 0.23052557337568497 -1.0121738920486159
4609000000.0 0.2417964910341998 -0.9918779451652424
4612000000.0 0.222284816602458 -0.9902482576520807
4616000000.0 0.22494071689130452 -0.9824523010470166
4619000000.0 0.22285705942137546 -0.9866637898928362
4622000000.0 0.22584769554016126 -1.0027397329450627
4625000000.0 0.1972004018038965 -0.9716878956709436
4628000000.0 0.21361802565990642 -1.0081227100520167
4631000000.0 0.2194469034476592 -0.997424449176307
4634000000.0 0.22288030137949585 -0.9928418503970277
4638000000.0 0.22305996408536896 -0.993539823370889
4641000000.0 0.2199839100280424 -0.9906165167446297
4644000000.0 0.20319454868458572 -0.9683629215887763
4647000000.0 0.21193109187997128 -0.9881511848859783
4650000000.0 0.19171795613978446 -0.9796679230787009
4653000000.0 0.2337529783982084 -0.9922533313326736
4656000000.0 0.23542387697798095 -0.9982675793060383
4659000000.0 0.1659431416635516 -0.9769751375071749
4662000000.0 0.20413427853965507 -1.005571036802636
4666000000.0 0.1721866279251289 -1.0136476668824455
4669000000.0 0.20473490829388763 -1.005967429870528
4672000000.0 0.1779676674944034 -1.015374083765154
4675000000.0 0.17917654932038224 -1.028609516306417
4678000000.0 0.1956125013298629 -0.976711674359036
4681000000.0 0.1768589340868068 -1.0119471963173385
4684000000.0 0.18415310617767922 -1.026170140792449
4688000000.0 0.1627866234340904 -1.0388949730429813
4691000000.0 0.20871138227519948 -1.032389649243108
4694000000.0 0.18934246496875645 -0.9570457444304811
4697000000.0 0.1591944306395946 -0.9682241304793164
4700000000.0 0.18698171421023527 -0.9830867885702592
4703000000.0 0.2466871030332965 -0.9430988073516774
4706000000.0 0.18602678756690436 -1.0338540561345035
4709000000.0 0.18938417064027285 -1.021905107869327
4712000000.0 0.20409974457367802 -0.9885339137425005
4716000000.0 0.19508855693234842 -1.0242298419549325
4719000000.0 0.19116252793235292 -1.0079753025212044
4722000000.0 0.20656595308577175 -0.9877854657277892
4725000000.0 0.18813550348157773 -1.004957109622519
4728000000.0 0.14944266507023865 -0.9852240603235617
4731000000.0 0.1674873918133552 -1.0031368307224677
4734000000.0 0.20549359852819826 -0.9795626248600384
4738000000.0 0.19519727531232645 -1.0569277362065534
4741000000.0 0.15589545501390306 -1.014546398803216
4744000000.0 0.13313474538561765 -1.0167588234905265
4747000000.0 0.2046079962727726 -0.9518257256585384
4750000000.0 0.1885357042120513 -0.9919769037906793
4753000000.0 0.1858715627630362 -1.0261163262173023
4756000000.0 0.15826271644900733 -1.0143576501688911
4759000000.0 0.21240059215686968 -1.0310828522961935
4762000000.0 0.12403394704031777 -1.0291206348252901
4766000000.0 0.1620802552241132 -0.9892973142011338
4769000000.0 0.1307124247837823 -1.0172487650146365
4772000000.0 0.153952890787511 -1.004398266586449
4775000000.0 0.12295194062785703 -1.0856412401460895
4778000000.0 0.16819944717105442 -1.0473169983694388
4781000000.0 0.16535273834911707 -0.9937665200946277
4784000000.0 0.1670709793170151 -0.9997933774076301
4788000000.0 0.09986249117168695 -1.0219483382928576
4791000000.0 0.13013691098687963 -1.0064836969533002
4794000000.0 0.19345839697894593 -1.0573649441045512
4797000000.0 0.13778652287663656 -0.9978648308312709
4800000000.0 0.10418379719615663 -0.993000764784014
4803000000.0 0.08024424493085863 -1.014239406377348
4806000000.0 0.12719793592161466 -1.0305981174063619
4809000000.0 0.08461671265063933 -1.0090920053419918
4812000000.0 0.08753194367769712 -0.9914990017244774
4816000000.0 0.15677637570528294 -0.9834239796342863
4819000000.0 0.15205913795918902 -1.0306395224930527
4822000000.0 0.1668840238200247 -1.051518124355304
4825000000.0 0.1736299036818731 -1.0322446889838763
4828000000.0 0.13265546188595762 -1.0141883265502463
4831000000.0 0.06858631565392095 -1.0536567141921303
4834000000.0 0.129504404317189 -1.0075309437165885
4838000000.0 0.07911115681291914 -1.0394195084186884
4841000000.0 0.1343036600872965 -0.9941419683808124
4844000000.0 0.1515049389699589 -1.0427089729969459
4847000000.0 0.1420091273601839 -0.9769586168452511
4850000000.0 0.08299759123646777 -1.0539245563989736
4853000000.0 0.11218061209786304 -0.960127552772982
4856000000.0 0.11482769231844547 -0.9941381305476077
4859000000.0 0.11071293730076803 -1.0746309401330394
4862000000.0 0.129496113437908 -1.0118182662634698
4866000000.0 0.08049648979218971 -1.0406670838962282
4869000000.0 0.09006344602484817 -1.0241141312006363
4872000000.0 0.10332591898977922 -1.0384476543392707
4875000000.0 0.16087180280074365 -1.0438608372756368
4878000000.0 0.11011877207183746 -1.0276692641595193
4881000000.0 0.06966111416669118 -1.0940420006708462
4884000000.0 0.09906806884653613 -1.0172474514553274
4888000000.0 0.11429994942407745 -1.0083321247848605
4891000000.0 0.09583744026773289 -1.038954730094242
4894000000.0 0.059082797528275666 -0.998950180498324
4897000000.0 0.11164932146586998 -1.0139620846517805
4900000000.0 0.10833503173803688 -1.0544833750349205
4903000000.0 0.08492604817633614 -1.0579594077261054
4906000000.0 0.07962470513702824 -1.0209975902962671
4909000000.0 0.07641219766760388 -1.0360918198246307
4912000000.0 0.036834751031065815 -1.039692717638906
4916000000.0 0.08901136598414022 -1.0480484842175657
4919000000.0 0.13699355928825957 -1.0643603482117132
4922000000.0 0.09556966204378203 -1.0480472483203211
4925000000.0 0.028754656302788673 -1.0059490732810223
4928000000.0 0.10353378281105069 -1.0063396178173518
4931000000.0 0.09658418327495799 -1.0573030192973967
4934000000.0 0.07972710056025567 -0.9929361673892314
4938000000.0 0.01145905644217049 -0.9965428074195188
4941000000.0 0.06176051142012573 -0.9725305255665968
4944000000.0 0.11224166196707425 -1.0052660781978195
4947000000.0 0.07560187162544785 -0.9755672863126872
4950000000.0 0.04362669521387258 -1.0328570437565485
4953000000.0 0.032324518040963646 -1.0505027136494034
4956000000.0 0.033367748455550905 -1.0361247479926037
4959000000.0 0.056459034344941095 -0.9995505838257823
4962000000.0 0.07284956107875629 -1.0522656828919585
4966000000.0 0.0698427902027643 -1.0543892552774765
4969000000.0 0.09227251578345086 -1.0679078621630107
4972000000.0 0.008061112468822573 -1.0366886824313153
4975000000.0 0.09595034101225369 -1.063921436205221
4978000000.0 0.0671604312584132 -1.0487992118884053
4981000000.0 0.007636341522235912 -1.0283952346323755
4984000000.0 0.07171910000877879 -1.0062409799987546
4988000000.0 0.054834525463795414 -1.0329225226815508
4991000000.0 0.11433910985076351 -1.0521229368025384
4994000000.0 0.08584726954829042 -1.0135572106910145
4997000000.0 0.007066553713921786 -1.00795234711933
5000000000.0 0.0399483808328539 -1.032438122027416
5003000000.0 0.046391609175809645 -1.0597036431048377
5006000000.0 0.05185674406355867 -1.0550353605144915
5009000000.0 0.005881168463341302 -1.0304602116196024
5012000000.0 0.01619558982134639 -1.0583110680094467
5016000000.0 0.04975467544632861 -1.0828195129796092
5019000000.0 0.012862591303190785 -1.0389490917794513
5022000000.0 0.008116691004044552 -1.056692151006536
5025000000.0 0.004050573937981472 -1.0833397353392438
5028000000.0 0.013146225125392652 -1.0450186207338334
5031000000.0 -0.013330686856881324 -1.0271821321638128
5034000000.0 -0.0006182093875883865 -1.0645338934384099
5038000000.0 -0.008961982985345174 -0.9869217109868014
5041000000.0 0.028696044176235946 -1.0221386198809526
5044000000.0 0.036718180341351325 -1.02030055966041
5047000000.0 0.016844560199240743 -1.0143561496627858
5050000000.0 0.05111411858908588 -1.0107964729219527
5053000000.0 -0.0025982934687116543 -1.0527595429116325
5056000000.0 -0.025903598558063234 -1.0415496345763822
5059000000.0 -0.030796639564571737 -1.030778446382915
5062000000.0 -0.042799509695769566 -1.0518663604400336
5066000000.0 0.01257031071741721 -1.0877874979454467
5069000000.0 -0.009189016634472025 -1.0437763763622059
5072000000.0 -0.013596714687694522 -1.0248683036920285
5075000000.0 0.003903398440491479 -1.0430493254176374
5078000000.0 -0.025632568379432286 -1.0045296099030483
5081000000.0 -0.052159066777033525 -1.0400090843386733
5084000000.0 -0.03817925470482625 -1.0052237562482813
5088000000.0 -0.07496685399401098 -1.030076003360802
5091000000.0 -0.09711092357599466 -1.0043185156051704
5094000000.0 -0.08448152207281423 -1.0244100616251766
5097000000.0 -0.020741664333870813 -1.0024601586392952
5100000000.0 -0.04315840289167522 -1.0263996138261557
5103000000.0 -0.12696705662023938 -1.0169086967359173
5106000000.0 -0.006582495063400751 -1.0170295597208323
5109000000.0 -0.04246076470555932 -1.0379644675057207
5112000000.0 -0.06709036776339805 -1.023024426001358
5116000000.0 -0.05600373238154793 -1.0345207811823227
5119000000.0 -0.08867352395964523 -1.06539658360126
5122000000.0 -0.07396908591092227 -1.0308909074421104
5125000000.0 -0.015760232314324774 -0.9814747478213448
5128000000.0 -0.09533416883548002 -1.0317795724842973
5131000000.0 -0.06126267043854794 -1.053124969752834
5134000000.0 -0.09107312057192207 -1.013979684932792
5138000000.0 -0.01809633169577879 -0.9951475946841384
5141000000.0 -0.0631002093332435 -1.0822669809004968
5144000000.0 -0.08417175659048987 -1.022027550633386
5147000000.0 -0.12419049367472001 -1.046413384815242
5150000000.0 -0.09008204486958099 -1.0212643040844434
5153000000.0 -0.12358832424912841 -1.0624492898664095
5156000000.0 -0.09048716376099852 -1.0497666863010955
5159000000.0 -0.0536276463410616 -1.0788855028092044
5162000000.0 -0.16982981999826255 -0.9911491471476224
