! Created with skrf 1.8.0 (http://scikit-rf.org).
# Hz S RI R 50.0 
!freq ReS11 ImS11
4000000000.0 0.531289669881339 -0.8864944782443889
4003000000.0 0.5759523437187841 -0.9207296574088049
4006000000.0 0.49747409214783045 -0.9103098821245954
4009000000.0000005 0.5683117401768834 -0.9383644872018683
4011999999.9999995 0.5273993446672074 -0.9032350878605542
4016000000.0 0.5069444287742031 -0.9332272149719741
4019000000.0 0.5126306141161782 -0.9138830586456875
4022000000.0000005 0.587933076996707 -0.8802051491162813
4025000000.0000005 0.5149806170971956 -0.9930386617471463
4027999999.9999995 0.5308988500329652 -0.9405492724848769
4030999999.9999995 0.5468455360995754 -0.8837104110327412
4034000000.0 0.5324004923193535 -0.8913233614237088
4038000000.0000005 0.5623050205865973 -0.9646738357613824
4041000000.0000005 0.5080170271551642 -0.9197526336552065
4043999999.9999995 0.5383286034586845 -0.9710594155367781
4046999999.9999995 0.590475619267365 -0.9229385676299282
4050000000.0 0.49777234843993745 -0.943521302192665
4053000000.0 0.47896989956882996 -0.9074286386169297
4056000000.0 0.5242448268469414 -0.8849239773690523
4059000000.0 0.505376280628349 -0.9156289941102352
4062000000.0000005 0.5393561970347523 -0.9711356534129997
4066000000.0 0.49631551227865145 -0.8699241528901922
4069000000.0 0.4977767163209054 -0.9585153787401579
4072000000.0 0.5507270853082104 -0.9067806883027489
4075000000.0 0.553159635298034 -0.9147211786632488
4078000000.0000005 0.49726155079912226 -0.9159787926069066
4081000000.0000005 0.56740271251466 -0.8917806178704032
4083999999.9999995 0.5179196954156027 -0.9462090288904307
4088000000.0 0.566651686061969 -0.8666133605939318
4091000000.0 0.5716934479992641 -0.9521997469425855
4094000000.0000005 0.5371395140533967 -0.8827457205320753
4097000000.0000005 0.5051107046283649 -0.9183137878232824
4099999999.9999995 0.5024923551118157 -0.9064005941952763
4102999999.9999995 0.585243701660701 -0.9218490246362782
4106000000.0 0.559331913025756 -0.9274359755634766
4109000000.0 0.4942780949934529 -0.8822256188528836
4112000000.0 0.5422209885517839 -0.9122920685844847
4115999999.9999995 0.5769802906763655 -0.9436333654187788
4119000000.0 0.5238904745477319 -0.9409070766397757
4122000000.0 0.5081121397745822 -0.9214453927508006
4125000000.0 0.5338491931215233 -0.9315329331859417
4128000000.0 0.5357532517719336 -0.8741873956862496
4131000000.0 0.5403673485358147 -0.9100448320448925
4134000000.0000005 0.5790106277087443 -0.8795771126362489
4138000000.0 0.5095352806708145 -0.916701672346337
4141000000.0 0.5351391039130993 -0.9267129020326178
4144000000.0 0.5247237391783667 -0.8788453392448862
4147000000.0000005 0.5239196945773079 -0.9065281350579334
4150000000.0000005 0.5519637011910355 -0.9503263230921558
4152999999.9999995 0.5171274644417838 -0.9137218070401835
4155999999.9999995 0.5471420820103754 -0.9300673068528696
4159000000.0 0.5340570881612614 -0.8403622048506055
4162000000.0 0.5447295591944088 -0.890224932331061
4166000000.0000005 0.5139016483198814 -0.9271306753276243
4168999999.9999995 0.5404537728805698 -0.9026598322667582
4171999999.9999995 0.5464869432277188 -0.9124347958804011
4175000000.0 0.5426638908096749 -0.887838401597745
4178000000.0 0.5505877098712678 -0.9255808891732195
4181000000.0 0.5107642469375567 -0.8982348618553853
4184000000.0 0.5304463623187962 -0.9100186302865135
4187999999.9999995 0.5337126201410154 -0.8995073949968693
4191000000.0 0.5635386159058781 -0.8657791039273218
4194000000.0 0.5128418581466766 -0.8816311170096668
4197000000.0 0.5366284214318457 -0.8757850831309056
4200000000.0 0.5320422324084034 -0.8793529412193082
4203000000.0000005 0.5382882003419747 -0.890866480212049
4206000000.0000005 0.5516342943748278 -0.8916239648470944
4208999999.9999995 0.5464134530205887 -0.8680519711329796
4211999999.9999995 0.5003134424348974 -0.9080508855779558
4216000000.0 0.5494134284737957 -0.8781019161033314
4219000000.0000005 0.555547458622775 -0.8819704426006874
4222000000.0000005 0.5272875381516868 -0.8870411782334044
4224999999.9999995 0.5359631366847745 -0.8766991812635048
4227999999.9999995 0.5267076626177924 -0.893799099316079
4231000000.0 0.5237114032252983 -0.910288692662501
4234000000.0 0.5363125285467865 -0.9014144794619071
4238000000.0000005 0.5170331529739982 -0.9034441939776044
4240999999.9999995 0.5142576615625339 -0.8799353564676927
4244000000.0 0.5306189476970087 -0.8778186216209574
4247000000.0 0.5212442193900416 -0.8944210179372126
4250000000.0 0.5087376157558146 -0.8648463027551387
4253000000.0 0.5144342492329528 -0.864255154985798
4256000000.0 0.5388295747053776 -0.9057413684279452
4259000000.0000005 0.5050727518333563 -0.8696671379558303
4261999999.9999995 0.5156757339266445 -0.8792646278139267
4266000000.0 0.4940598470434161 -0.895994918878925
4269000000.0 0.5279598501328822 -0.8613228756723007
4272000000.0000005 0.5087865057101976 -0.8791255357032285
4275000000.0000005 0.5469549897023381 -0.8905010693141604
4277999999.9999995 0.5336607641282176 -0.8955969929150361
4280999999.9999995 0.5417274988413615 -0.8722499960668644
4284000000.0 0.4811338799818138 -0.9019508650169217
4288000000.0000005 0.5502004653587094 -0.8702348091300783
4291000000.0000005 0.5137265993018161 -0.8519723346491013
4293999999.9999995 0.48695768667581885 -0.8679313163919696
4297000000.0 0.5414848298130811 -0.8838740638203693
4300000000.0 0.5154236385659435 -0.857782755092651
4303000000.0 0.5097518370927362 -0.8575755398350304
4306000000.0 0.5618776020200431 -0.867244245376279
4309000000.0 0.5306633012876625 -0.8579356257876237
4312000000.0 0.5767692863343103 -0.8752333128148414
4316000000.0 0.5516239615787704 -0.8829916777372822
4319000000.0 0.5332599304690897 -0.8633291327782572
4322000000.0 0.5011539134443419 -0.8396405487776273
4325000000.0 0.5195301647873205 -0.8792227420473644
4328000000.0 0.5200925257149703 -0.8851062465129494
4331000000.0 0.5224217668585324 -0.8943113632457628
4334000000.0 0.5234420628712527 -0.9032770536514622
4338000000.0 0.5495831280500139 -0.8880832562983327
4341000000.0 0.5515414168946163 -0.8904897109191221
4344000000.0 0.5353793374058902 -0.9017191003114156
4347000000.0 0.5237118699865517 -0.8984105988063439
4350000000.0 0.4802662048958075 -0.8626322309018574
4353000000.0 0.5285474905436549 -0.8686431472708583
4356000000.0 0.5310991376957128 -0.8897204954693668
4359000000.0 0.4996369323176685 -0.8442574408009178
4362000000.0 0.494985431759569 -0.9086730622771294
4366000000.0 0.5368986945775038 -0.9024166604612757
4369000000.0 0.48582744544156087 -0.8457946549267172
4372000000.0 0.4641353313026414 -0.8969383811478004
4375000000.0 0.5331035193852474 -0.8835680231999604
4378000000.0 0.5000195418650515 -0.8608683702517792
4381000000.0 0.519371935832073 -0.8477310900887648
4384000000.0 0.5262428745243193 -0.9466811845623564
4388000000.0 0.5091137123403489 -0.8645784671236161
4391000000.0 0.5161499424653934 -0.8792216099165753
4394000000.0 0.49970001537685715 -0.8552047673659864
4397000000.0 0.5011753422933648 -0.8923908942594314
4400000000.0 0.5238862067462027 -0.9216018983989945
4403000000.0 0.5025531159575227 -0.8932680601605563
4406000000.0 0.49135310338318056 -0.8904454210960053
4409000000.0 0.5239949088958354 -0.9061295490971271
4412000000.0 0.46923275786140195 -0.9059831706314702
4416000000.0 0.4874256052180478 -0.8894158634024913
4419000000.0 0.48409418684085986 -0.9019512235018359
4422000000.0 0.5181991898952729 -0.880631663665617
4425000000.0 0.5379028812379114 -0.8812897893395862
4428000000.0 0.49749120066074903 -0.8730786530640924
4431000000.0 0.511749190004133 -0.8984616591708087
4434000000.0 0.49961748384323773 -0.8837001892319845
4438000000.0 0.518990077690167 -0.8947212616825808
4441000000.0 0.5204464884113931 -0.8974788004839485
4444000000.0 0.5100832682861227 -0.8720212586002773
4447000000.0 0.4809514052136552 -0.8996608057892799
4450000000.0 0.49552384784363157 -0.8679887270775685
4453000000.0 0.4988945312164911 -0.9058726379165851
4456000000.0 0.4754921949326128 -0.8672413252146267
4459000000.0 0.46007450559574814 -0.8543763130021736
4462000000.0 0.5016844749909745 -0.9331461605222917
4466000000.0 0.5183297770669488 -0.9233830141234675
4469000000.0 0.5161045445273916 -0.8630363681574087
4472000000.0 0.48298617369430447 -0.9161412767254712
4475000000.0 0.47959573183917326 -0.8658013765564482
4478000000.0 0.49983089916701146 -0.937072347000221
4481000000.0 0.4678925790083352 -0.8627519011095365
4484000000.0 0.4467040341979498 -0.9026482955545732
4488000000.0 0.48815943015459656 -0.8925173921423917
4491000000.0 0.4944051896402583 -0.8888062993913204
4494000000.0 0.49572351336296877 -0.8905091967220058
4497000000.0 0.4883067973155716 -0.8765761492758084
4500000000.0 0.4962576167207083 -0.8888081298721839
4503000000.0 0.5205373359655185 -0.8996587067121877
4506000000.0 0.49236964316673 -0.8952792597045343
4509000000.0 0.5007202551479135 -0.8757394872929973
4512000000.0 0.47797683607955577 -0.8740822392550173
4516000000.0 0.4964171370382709 -0.9174411159804509
4519000000.0 0.503313105029822 -0.8790554558377055
4522000000.0 0.46779505633078255 -0.9106330517588339
4525000000.0 0.4912024513619798 -0.8807363852844734
4528000000.0 0.49373597260801627 -0.9196102824290826
4531000000.0 0.5022448832699036 -0.8888865595070862
4534000000.0 0.4722985068229537 -0.8766449886822326
4538000000.0 0.4821548740863299 -0.9141103388406862
4541000000.0 0.4569041971773319 -0.8935062223495355
4544000000.0 0.4824936056150503 -0.8799264249556031
4547000000.0 0.494338193263379 -0.8670722581278196
4550000000.0 0.4765332328267389 -0.9078952009329915
4553000000.0 0.4801159129361455 -0.9072784680604284
4556000000.0 0.4603304419138369 -0.88584078724231
4559000000.0 0.48083949346934146 -0.8919393000837931
4562000000.0 0.4811678261565264 -0.9113228875919985
4566000000.0 0.47887056633951525 -0.9184315199377366
4569000000.0 0.48812291052799334 -0.8679700718118524
4572000000.0 0.4961642316072167 -0.9047862668667077
4575000000.0 0.47451698605823145 -0.9134559043902322
4578000000.0 0.4921832585675997 -0.9026151365883512
4581000000.0 0.4748044385325713 -0.9221548626163802
4584000000.0 0.4859319643390508 -0.8905160739965163
4588000000.0 0.512081346750988 -0.9188427647956752
4591000000.0 0.4961308197807843 -0.8844776954300491
4594000000.0 0.4526286418791566 -0.9006864494839685
4597000000.0 0.48090247994789626 -0.9215158468672349
4600000000.0 0.4500168299476566 -0.9201452630610073
4603000000.0 0.47391079935479086 -0.9081543271010301
4606000000.0 0.4707644702154774 -0.9210499409778904
4609000000.0 0.47882717398448227 -0.9051971803185586
4612000000.0 0.48111322713342686 -0.9202466221417354
4616000000.0 0.4541304735419054 -0.8937855015451107
4619000000.0 0.46841174806700414 -0.9085945045632653
4622000000.0 0.47797946450349194 -0.8965025923897821
4625000000.0 0.446045197712421 -0.8825096656019336
4628000000.0 0.48765845714062916 -0.9011839339890676
4631000000.0 0.44358729481203696 -0.9001661247061961
4634000000.0 0.4628709587775672 -0.91434029349167
4638000000.0 0.4858716617015215 -0.8996247190123063
4641000000.0 0.47931266101172953 -0.9062087180938377
4644000000.0 0.4723625287105645 -0.9060632201296775
4647000000.0 0.4645356559787833 -0.9057090147426895
4650000000.0 0.44777673204821833 -0.9093414844065932
4653000000.0 0.48385159170846204 -0.9163181351327712
4656000000.0 0.4649072736646006 -0.920991049588357
4659000000.0 0.4540940312385777 -0.9167023530359054
4662000000.0 0.4760284934215373 -0.9007865777757121
4666000000.0 0.4648939613769501 -0.906533521541128
4669000000.0 0.4814050922887606 -0.8982433180839609
4672000000.0 0.4570806086909429 -0.929668959532549
4675000000.0 0.4442740816795977 -0.9200873180952989
4678000000.0 0.41959395329275095 -0.8887451563892753
4681000000.0 0.4417063995295386 -0.9230032054666636
4684000000.0 0.4210403729031954 -0.927753360049833
4688000000.0 0.445791063168558 -0.9242751738577045
4691000000.0 0.4810004967665015 -0.9266343456971305
4694000000.0 0.43767356721777795 -0.8786089889026308
4697000000.0 0.43212085130286926 -0.8959248618725694
4700000000.0 0.4643556020651127 -0.8982492168245937
4703000000.0 0.47040880887548736 -0.8854018734804125
4706000000.0 0.4269598091596121 -0.9151738511168291
4709000000.0 0.4554393458085176 -0.8871695454703492
4712000000.0 0.45525289437925104 -0.9341415389561869
4716000000.0 0.4608508528390203 -0.9298711341486805
4719000000.0 0.4746456956597495 -0.9118003056099903
4722000000.0 0.4816071596362855 -0.8820691022857593
4725000000.0 0.4655949065191924 -0.8992364078741473
4728000000.0 0.42217815366861067 -0.934367800653366
4731000000.0 0.4788711873363487 -0.9396476386021955
4734000000.0 0.4577812504985401 -0.884168532407084
4738000000.0 0.5259830658002033 -0.9552099231644697
4741000000.0 0.4511459361197138 -0.9588084905038413
4744000000.0 0.4563247386884462 -0.9172717868827489
4747000000.0 0.49795484748589736 -0.8759948751202417
4750000000.0 0.44123810113880824 -0.9243406292128765
4753000000.0 0.4799658128493776 -0.9112133199259936
4756000000.0 0.4773964759100269 -0.9251194759278051
4759000000.0 0.48459499099854086 -0.9412219356037954
4762000000.0 0.41479646953717797 -0.9454177110608373
4766000000.0 0.4650236954635261 -0.9301427413739981
4769000000.0 0.46427728105877236 -0.9163346503134204
4772000000.0 0.48116978362588636 -0.9423859987238296
4775000000.0 0.4291269615841849 -0.9616394848537076
4778000000.0 0.4865959925380459 -0.9517156501051165
4781000000.0 0.47596275528771614 -0.9349251490914372
4784000000.0 0.4705039170599099 -0.9282826546548927
4788000000.0 0.4551952356848523 -0.9585624509703199
4791000000.0 0.47163379975197484 -0.9347396033304363
4794000000.0 0.5027584683379147 -0.9239338969661662
4797000000.0 0.41999432451267305 -0.9240084806882103
4800000000.0 0.4569339564814211 -0.9136035654977369
4803000000.0 0.4089602533161065 -0.9450314405918853
4806000000.0 0.4552098208474967 -0.9441347074485309
4809000000.0 0.41004243248952743 -0.9530008453100116
4812000000.0 0.3959650581592995 -0.9495554648245421
4816000000.0 0.4785692005185087 -0.9335644306437233
4819000000.0 0.5028270618581708 -0.9419396498275091
4822000000.0 0.5038495105228866 -0.9783435036092708
4825000000.0 0.4960956652317021 -0.9523618033182966
4828000000.0 0.45236782330348213 -0.9456860486946034
4831000000.0 0.42868143499483075 -1.0012839219943523
4834000000.0 0.47329089782530787 -0.950468110871157
4838000000.0 0.45507566283073264 -0.9533976544776649
4841000000.0 0.43042195407100575 -0.9406748993460062
4844000000.0 0.482019447589837 -0.907566642647737
4847000000.0 0.47314125014085295 -0.8956911609038417
4850000000.0 0.47363632429384983 -0.957565781362832
4853000000.0 0.44797278019887354 -0.9261867427825942
4856000000.0 0.43652648188923215 -0.9220893212423064
4859000000.0 0.43718816715865694 -0.9918022149079062
4862000000.0 0.48604953966767406 -0.8892427649795771
4866000000.0 0.4390989654885327 -0.957386814257294
4869000000.0 0.4161738191367498 -0.9390311491782545
4872000000.0 0.4441216944102291 -0.9823871462456585
4875000000.0 0.5202425449420692 -0.9443513876098997
4878000000.0 0.4532646782954531 -0.9415582305293524
4881000000.0 0.4587483533721853 -1.0118441893590562
4884000000.0 0.45399666861803006 -0.949180496094462
4888000000.0 0.4741207070417482 -0.9177074987581744
4891000000.0 0.49129909038998204 -0.9681741825309492
4894000000.0 0.4618242604330113 -0.9312993196270877
4897000000.0 0.4738637187381205 -0.9463098055890529
4900000000.0 0.4742865873306481 -0.9369179908798756
4903000000.0 0.5082096250034722 -0.9343085232617321
4906000000.0 0.47385094788255083 -0.9570500555178728
4909000000.0 0.4755551669180076 -0.952173003063474
4912000000.0 0.4708563336054744 -0.9533196752676582
4916000000.0 0.47835096539183236 -0.9480786883941166
4919000000.0 0.4946344872122812 -0.9546967401121894
4922000000.0 0.48603200985920414 -0.932235538954118
4925000000.0 0.4138771913183289 -0.933396829546838
4928000000.0 0.522843770684069 -0.8927669274515262
4931000000.0 0.5100320200602373 -0.9094130927275723
4934000000.0 0.45470322081725867 -0.9142976906195044
4938000000.0 0.4465365920147929 -0.9527415806476727
4941000000.0 0.4613867903656419 -0.898758681241977
4944000000.0 0.4404204305246319 -0.8942345197355491
4947000000.0 0.445940582949891 -0.8922037493926439
4950000000.0 0.4263447395905411 -0.9444722658389798
4953000000.0 0.442811485454351 -1.019432148086738
4956000000.0 0.45111897677770885 -0.9806759664971799
4959000000.0 0.42023156776485976 -0.9174980484833315
4962000000.0 0.45004447912297973 -0.9688942137374261
4966000000.0 0.48111098451898415 -0.9622981209258685
4969000000.0 0.49694480182837864 -0.9681885766567353
4972000000.0 0.4784694117081017 -0.9742606029495591
4975000000.0 0.4674906913785881 -0.906511139854141
4978000000.0 0.4438253987962022 -0.9475658859759764
4981000000.0 0.45819265395487174 -0.9474423775463149
4984000000.0 0.4811866634619911 -0.9161238578844393
4988000000.0 0.4929429512034823 -0.9126342634513509
4991000000.0 0.5371490274222676 -0.9317037412903251
4994000000.0 0.48273190813402217 -0.9267097198092824
4997000000.0 0.44446714877951676 -0.9495450700302872
5000000000.0 0.5286915758265396 -0.9511623709223752
5003000000.0 0.5257933515546726 -0.9988503009586707
5006000000.0 0.4960727586794753 -1.007814298511864
5009000000.0 0.4686911858792853 -0.9299184876984736
5012000000.0 0.4315726374107857 -0.9459795876000066
5016000000.0 0.5222766183603805 -0.955055759019752
5019000000.0 0.45892292717404715 -0.9351051646395655
5022000000.0 0.48817865675683814 -0.930698099498147
5025000000.0 0.4932381239340062 -1.0237836355963048
5028000000.0 0.4571144965115552 -0.9693966317430229
5031000000.0 0.4377287128449518 -0.982569928993809
5034000000.0 0.45381339279713645 -0.9878067561643398
5038000000.0 0.46052184909468047 -0.9015619856009238
5041000000.0 0.5345100383628493 -0.9128499186576708
5044000000.0 0.5096767543053443 -0.9082015368235281
5047000000.0 0.45784333816902195 -0.9168917045144664
5050000000.0 0.5461343929206633 -0.8842086535983127
5053000000.0 0.47314972765810004 -0.9796315669381177
5056000000.0 0.5380192469265523 -0.9230383194144702
5059000000.0 0.5331449130082455 -0.9189600186642546
5062000000.0 0.47308915090642656 -0.9643427957275249
5066000000.0 0.49127421871373866 -0.9312595216195896
5069000000.0 0.4438102933476166 -0.9596699577418737
5072000000.0 0.513066763554453 -0.9122797544093857
5075000000.0 0.5108752075182057 -0.9143693319844494
5078000000.0 0.43721734434347936 -0.9394268199711793
5081000000.0 0.46295303079652 -0.901124370229736
5084000000.0 0.5023681852739111 -0.9647749034625877
5088000000.0 0.5358830607124143 -0.920043030185799
5091000000.0 0.46709904379273887 -0.9736980905584753
5094000000.0 0.5180740082174365 -0.9638160859415821
5097000000.0 0.5227028058908534 -0.9454448608051008
5100000000.0 0.4928832191369768 -0.9322583883453481
5103000000.0 0.4818255235375569 -0.9420195122925237
5106000000.0 0.526138969591792 -0.9881649676355573
5109000000.0 0.4958472071076736 -0.9211775938816306
5112000000.0 0.4509921063690363 -0.9599376136886434
5116000000.0 0.4891050588686101 -0.8973479416443809
5119000000.0 0.4575388696291496 -0.9658242774118155
5122000000.0 0.4852642680474901 -0.9118575546267353
5125000000.0 0.485021166109623 -0.9093845866685395
5128000000.0 0.49216864384237213 -0.9221145693046113
5131000000.0 0.5193476957109 -0.9569268323230995
5134000000.0 0.4817272052642425 -0.934157094614142
5138000000.0 0.5054019730639383 -0.902098908312841
5141000000.0 0.5660683241382598 -0.9180947694078473
5144000000.0 0.5483621648542718 -0.9426704277078037
5147000000.0 0.4779431669361149 -0.9741442645210602
5150000000.0 0.5146268150895974 -0.912932553151774
5153000000.0 0.5167166044518579 -0.9338282156610791
5156000000.0 0.48625408299077655 -0.9143920133859722
5159000000.0 0.5313001032202149 -0.9444789484226239
5162000000.0 0.46734223265006947 -0.9101529864992791
5166000000.0 0.4832657260789644 -0.9340006538717007
5169000000.0 0.4948040789302977 -0.922028716034351
5172000000.0 0.5389728248400498 -0.9027647076860337
5175000000.0 0.5126234119400941 -0.9303676550516171
