! Created with skrf 1.8.0 (http://scikit-rf.org).
# Hz S RI R 50.0 
!freq ReS11 ImS11
4000000000.0 0.5537551055142051 -0.8275696732219029
4003000000.0 0.5646138909509676 -0.9124005101252834
4006000000.0 0.4830275336044898 -0.8763615600931128
4009000000.0000005 0.5636324668303123 -0.8581942873939461
4011999999.9999995 0.5972715500507872 -0.8851873975467682
4016000000.0 0.5438252035048077 -0.9070647564087914
4019000000.0 0.5554916162471087 -0.9000292085780611
4022000000.0000005 0.5749571336975381 -0.8150598479104838
4025000000.0000005 0.5447943778386903 -0.8919907025603862
4027999999.9999995 0.49371769208389993 -0.8646683693553523
4030999999.9999995 0.4782540096349296 -0.8123645343183143
4034000000.0 0.48254935752744366 -0.8568837914429766
4038000000.0000005 0.5420434841718241 -0.8881776226913888
4041000000.0000005 0.5106947323438664 -0.8776134148641921
4043999999.9999995 0.5580367217485958 -0.9030577263153129
4046999999.9999995 0.604088235319443 -0.8788411647276718
4050000000.0 0.5112195899965705 -0.8913515204819893
4053000000.0 0.5212177074313191 -0.8567010681136746
4056000000.0 0.5269623137176362 -0.8779159462245107
4059000000.0 0.5400872308806371 -0.8407503926578559
4062000000.0000005 0.5106463062587896 -0.8805004484450676
4066000000.0 0.5258686025386884 -0.8186879161940034
4069000000.0 0.5189464612304575 -0.9166453289658972
4072000000.0 0.5309088538944324 -0.8880605482157918
4075000000.0 0.5845017821204894 -0.8712731422998987
4078000000.0000005 0.4863585050504847 -0.8675832320348237
4081000000.0000005 0.5619860748103014 -0.8419175953338623
4083999999.9999995 0.5196527741895346 -0.9015244423768112
4088000000.0 0.5755106842966828 -0.8634838710510863
4091000000.0 0.5822748072194205 -0.9103678445518131
4094000000.0000005 0.5372924352154494 -0.8578696286217651
4097000000.0000005 0.5406911212482727 -0.8520429757353574
4099999999.9999995 0.5462372981131578 -0.8753508274269537
4102999999.9999995 0.5161556899670221 -0.878945256821914
4106000000.0 0.5405054222075969 -0.9337412724864534
4109000000.0 0.49172255158117795 -0.9256028016323538
4112000000.0 0.5251576307951729 -0.8895655955380807
4115999999.9999995 0.5292025334327402 -0.8565715060499164
4119000000.0 0.5360711547757658 -0.883525056882715
4122000000.0 0.5186094220194951 -0.888008902253619
4125000000.0 0.5260337030884835 -0.9106600397665572
4128000000.0 0.5363331211260991 -0.8454147145059996
4131000000.0 0.4975540593925005 -0.8538524829087665
4134000000.0000005 0.5383575034689948 -0.8430341533256304
4138000000.0 0.4854841281866639 -0.844481681224821
4141000000.0 0.5286105762916397 -0.8668165096359496
4144000000.0 0.5444276018455415 -0.8781632019439835
4147000000.0000005 0.5074681822900269 -0.8805002683660194
4150000000.0000005 0.5421203674107068 -0.8980013875127378
4152999999.9999995 0.5171429010560787 -0.8664316347637754
4155999999.9999995 0.5589558435548589 -0.8873071222071278
4159000000.0 0.5344291475750982 -0.8319006153770505
4162000000.0 0.5436409162228071 -0.8422533183042887
4166000000.0000005 0.512396651784402 -0.8853840082418315
4168999999.9999995 0.5163522782950369 -0.8804673593686434
4171999999.9999995 0.5446430353617157 -0.8537135582049783
4175000000.0 0.5516781126228549 -0.8545882024380825
4178000000.0 0.535554528461855 -0.8683967035411987
4181000000.0 0.5340039766212221 -0.8722981784147337
4184000000.0 0.533363844874176 -0.8781553550444222
4187999999.9999995 0.519266649949768 -0.8754049315945838
4191000000.0 0.568161958974786 -0.8304971097000775
4194000000.0 0.5226265933812054 -0.8304695997701885
4197000000.0 0.5627621047931325 -0.8548596675104215
4200000000.0 0.5605842567529121 -0.8394963367401579
4203000000.0000005 0.5451364411143227 -0.8510458292791296
4206000000.0000005 0.5507437182370883 -0.9072458915069816
4208999999.9999995 0.5227984917764699 -0.8465500505783605
4211999999.9999995 0.513450950244801 -0.8721629082113285
4216000000.0 0.5527117632409598 -0.8512716317528226
4219000000.0000005 0.5424338927020269 -0.8657406256577493
4222000000.0000005 0.5283808264059857 -0.8660237222212036
4224999999.9999995 0.5416826188543221 -0.836601907487112
4227999999.9999995 0.5330688592795945 -0.8659896409137886
4231000000.0 0.536699798833194 -0.8673963481177911
4234000000.0 0.542428587671631 -0.8639285862879234
4238000000.0000005 0.519248528029858 -0.8786538135243296
4240999999.9999995 0.5298248011458926 -0.8555071459839714
4244000000.0 0.5452987077992799 -0.8539558460175938
4247000000.0 0.544952474180368 -0.8558947800737088
4250000000.0 0.5325210729995923 -0.8623348985903937
4253000000.0 0.5247802692877644 -0.8374472908456074
4256000000.0 0.5550317438368217 -0.8711190018445543
4259000000.0000005 0.5211711977277546 -0.8413969803417379
4261999999.9999995 0.5154591788270473 -0.8486990652950339
4266000000.0 0.5233387636080384 -0.8812288886918987
4269000000.0 0.5335529762284484 -0.8630739031550876
4272000000.0000005 0.5420596659591181 -0.8604221491376821
4275000000.0000005 0.5385688790502531 -0.8657957812924598
4277999999.9999995 0.5442077148734596 -0.876456049061209
4280999999.9999995 0.5347396904913502 -0.8594824982830247
4284000000.0 0.5090610458197254 -0.9038368948633915
4288000000.0000005 0.5574052262784739 -0.8364597884871305
4291000000.0000005 0.5194406931852812 -0.831576740719205
4293999999.9999995 0.5253702848241277 -0.8483085879229462
4297000000.0 0.5557428155177273 -0.8281169660386
4300000000.0 0.5550398114638013 -0.8417111025547785
4303000000.0 0.5270313301923437 -0.8616850037277868
4306000000.0 0.5475415846846321 -0.8570287334285971
4309000000.0 0.54281666318095 -0.8417056923533582
4312000000.0 0.5625538318485553 -0.8523702220755268
4316000000.0 0.5645188255354562 -0.8882802877644143
4319000000.0 0.5284692619902969 -0.8476482705268644
4322000000.0 0.5248327047456242 -0.8547246602216122
4325000000.0 0.5566646456934186 -0.8513923918245032
4328000000.0 0.5189800460498888 -0.8522182699881041
4331000000.0 0.5082086978864526 -0.878541574510543
4334000000.0 0.5019822236693463 -0.882130239793119
4338000000.0 0.5387653971440217 -0.8497130013772233
4341000000.0 0.5714021911726719 -0.8523385619266418
4344000000.0 0.5303081527929456 -0.8648446761062651
4347000000.0 0.5295180787826328 -0.8752689144748305
4350000000.0 0.5056071465514465 -0.8376397400674765
4353000000.0 0.534304025029442 -0.8331100333576952
4356000000.0 0.513255726408352 -0.851351414209495
4359000000.0 0.5077287718714738 -0.8299867713382079
4362000000.0 0.49660701775311605 -0.9021924674042535
4366000000.0 0.5096779706510702 -0.8725862184019285
4369000000.0 0.5021714920206495 -0.8423770737435607
4372000000.0 0.5068083578299065 -0.8768415561433743
4375000000.0 0.5537801476376703 -0.8474654576234479
4378000000.0 0.5272540930623772 -0.8449269715854539
4381000000.0 0.5417204459511156 -0.84088158679567
4384000000.0 0.5444940864974488 -0.9286290915586238
4388000000.0 0.5320866189743246 -0.8352205757168878
4391000000.0 0.5413570113493982 -0.8670510549531488
4394000000.0 0.502244339830918 -0.821259241950171
4397000000.0 0.5189123704850176 -0.8564604832004072
4400000000.0 0.5338635544252832 -0.8921133265890311
4403000000.0 0.5290908593499156 -0.8484415688554744
4406000000.0 0.5214086470137561 -0.8794089192510359
4409000000.0 0.5324270238983787 -0.8950363144384745
4412000000.0 0.4707643854990004 -0.8887875855006355
4416000000.0 0.49614084528548585 -0.8531794774441973
4419000000.0 0.5088954220711739 -0.8676021748955469
4422000000.0 0.528993253433675 -0.8497556704103524
4425000000.0 0.5596934735871655 -0.8751962998391519
4428000000.0 0.5068950154314138 -0.8785578004580226
4431000000.0 0.5416447407554861 -0.8856928937742228
4434000000.0 0.5083507419952109 -0.8610320949896211
4438000000.0 0.5327414701659009 -0.8870973759804228
4441000000.0 0.531246313769613 -0.8664665937644238
4444000000.0 0.5208627127060889 -0.8348127549818077
4447000000.0 0.5119672858757682 -0.8747484512812831
4450000000.0 0.5140791259881946 -0.8333788386344572
4453000000.0 0.533845874461162 -0.8843593099916307
4456000000.0 0.49610078478627806 -0.8509862335513116
4459000000.0 0.48831138278405684 -0.8333893423729631
4462000000.0 0.561195830683811 -0.900437588507186
4466000000.0 0.5292716036801931 -0.9011410912731634
4469000000.0 0.5282580211449615 -0.8681208866139558
4472000000.0 0.5071431335673192 -0.8893201299724252
4475000000.0 0.4919067727939598 -0.8446848772634685
4478000000.0 0.5129247801667538 -0.9049256042526493
4481000000.0 0.4973762241554964 -0.8454051138040513
4484000000.0 0.47101070873669354 -0.8914948505725333
4488000000.0 0.49806276067278643 -0.8776889767678723
4491000000.0 0.5096404220210198 -0.8751778607005443
4494000000.0 0.5069365955562419 -0.8466465941517534
4497000000.0 0.5055115344181863 -0.8579669333946094
4500000000.0 0.529726809961465 -0.8632761473360937
4503000000.0 0.5148236985419712 -0.8862171390555448
4506000000.0 0.4993234664273534 -0.8756800314192531
4509000000.0 0.507093409888187 -0.8485682544212423
4512000000.0 0.48219484269663615 -0.868542799249266
4516000000.0 0.5289061129601041 -0.86833303678648
4519000000.0 0.51121139086802 -0.8428548133445297
4522000000.0 0.4746739928119284 -0.8751947917926857
4525000000.0 0.5306016736459772 -0.8373870287035571
4528000000.0 0.5144533853524993 -0.9154542449458032
4531000000.0 0.5243406678040032 -0.8501241939919296
4534000000.0 0.5022489083805408 -0.848943930074273
4538000000.0 0.5002530749184675 -0.8735507030946758
4541000000.0 0.4519407072939591 -0.8877172090560239
4544000000.0 0.509086414341745 -0.8624092799349388
4547000000.0 0.52290690405256 -0.8472706175081897
4550000000.0 0.49126338909625905 -0.8755160638478194
4553000000.0 0.5052370586479865 -0.8548806361181489
4556000000.0 0.4737122415857887 -0.8547866825348431
4559000000.0 0.48846255342940975 -0.8634349812290365
4562000000.0 0.5082014494649862 -0.8795095581791537
4566000000.0 0.4984266809766055 -0.8789740198132323
4569000000.0 0.48610007681955936 -0.8652986798039384
4572000000.0 0.49643906385091624 -0.8830149217075498
4575000000.0 0.49101436568309326 -0.8806551874704724
4578000000.0 0.522836462280806 -0.8826149516058132
4581000000.0 0.4802229515490547 -0.889784525024975
4584000000.0 0.48388824670864816 -0.8731391784515701
4588000000.0 0.5054701632839707 -0.8673774815354576
4591000000.0 0.5005086010886838 -0.8767974994364437
4594000000.0 0.4805812721159406 -0.8808503148650184
4597000000.0 0.5065339720165262 -0.8952451713509201
4600000000.0 0.45192338564615453 -0.8537897752712239
4603000000.0 0.49866442383197096 -0.8915472711329774
4606000000.0 0.4915524258950865 -0.8797985629606984
4609000000.0 0.4884426876578979 -0.8751683657530509
4612000000.0 0.5014535728597243 -0.8838449062122582
4616000000.0 0.480531541524998 -0.8689795053419189
4619000000.0 0.47976743398339694 -0.8697895778062216
4622000000.0 0.4783379751627094 -0.8776188068663013
4625000000.0 0.4501720744425959 -0.8662684705756112
4628000000.0 0.5013119813916167 -0.8676935886889384
4631000000.0 0.466516716914226 -0.8834969850122412
4634000000.0 0.47225435587131365 -0.8735875203258827
4638000000.0 0.5018092776639433 -0.8751375155918169
4641000000.0 0.5067807476793844 -0.879050762782392
4644000000.0 0.4785614941582592 -0.8831623621200858
4647000000.0 0.5043710821472617 -0.8732538867868949
4650000000.0 0.45207239131538146 -0.8705665738214355
4653000000.0 0.5015831305011351 -0.8868807242359443
4656000000.0 0.47924085970878094 -0.8994468582938304
4659000000.0 0.4712659403712176 -0.8871368490303195
4662000000.0 0.48401330962365374 -0.871264002757515
4666000000.0 0.48445715669987355 -0.8957989777962139
4669000000.0 0.4964702141505058 -0.8831998366441824
4672000000.0 0.4762880578730867 -0.9245277880629332
4675000000.0 0.47299491916792447 -0.8780596897224158
4678000000.0 0.48324267262248605 -0.8785482581063431
4681000000.0 0.4708921600685987 -0.9053703832894059
4684000000.0 0.4505856753351175 -0.9148169027166766
4688000000.0 0.45506743826618395 -0.8936044855265892
4691000000.0 0.4871339451561231 -0.8744316631707227
4694000000.0 0.4875269369578477 -0.8744039893477064
4697000000.0 0.43747349523019674 -0.8663135544636396
4700000000.0 0.4983872824047766 -0.8824661868256889
4703000000.0 0.4851847834239439 -0.8688582752441495
4706000000.0 0.4534169583597517 -0.9122778806271078
4709000000.0 0.45040253833635835 -0.9141645772434931
4712000000.0 0.49867043331764394 -0.8945655797729151
4716000000.0 0.4689482800603792 -0.8863542834106081
4719000000.0 0.500478183056989 -0.8973078584430445
4722000000.0 0.499740462307066 -0.8759226774617225
4725000000.0 0.4887461351477799 -0.8883837632808342
4728000000.0 0.4734379910913482 -0.8952146441946599
4731000000.0 0.49634487765500945 -0.9192723711933268
4734000000.0 0.5106555232553819 -0.8902100439063148
4738000000.0 0.49396791157287256 -0.8973850670212165
4741000000.0 0.48813190111991284 -0.9059114485597487
4744000000.0 0.4716139952656841 -0.9005689618878184
4747000000.0 0.4907323342325167 -0.859957868392559
4750000000.0 0.4657863797313346 -0.8896287045321674
4753000000.0 0.4799009337021468 -0.9252258684040386
4756000000.0 0.4693306034051217 -0.8955375867636086
4759000000.0 0.4830821262142129 -0.9092149134674193
4762000000.0 0.47823792056226333 -0.9066726310101413
4766000000.0 0.5044235197972962 -0.8914577853940899
4769000000.0 0.44923150286040464 -0.9191660633750168
4772000000.0 0.4917554502422472 -0.9050268074791349
4775000000.0 0.4956543851016607 -0.9681219462072927
4778000000.0 0.5038152955055898 -0.8844033400753839
4781000000.0 0.4589625500495251 -0.8778032680063186
4784000000.0 0.46022392396159906 -0.8715683263203384
4788000000.0 0.4928776396090916 -0.9116250693171496
4791000000.0 0.47170511851001296 -0.8774987402132509
4794000000.0 0.5047791650034169 -0.9121910898564373
4797000000.0 0.4691768405807321 -0.8894348346191373
4800000000.0 0.4493263550871327 -0.8927077940382424
4803000000.0 0.43241473191719504 -0.9180876458282885
4806000000.0 0.4710989995645417 -0.9098312671244871
4809000000.0 0.4305862533654627 -0.9236591343666894
4812000000.0 0.4428851869758432 -0.8944953874517924
4816000000.0 0.4899892433517977 -0.8664089301307344
4819000000.0 0.5045724709992793 -0.9067972099586451
4822000000.0 0.5051941887514022 -0.9309130443644661
4825000000.0 0.5273684557413851 -0.8967266901905465
4828000000.0 0.4670288657177959 -0.8990365906423362
4831000000.0 0.43977583933001824 -0.9422123558619763
4834000000.0 0.49872228938794105 -0.8902232725193995
4838000000.0 0.47913824999575727 -0.9198728967465284
4841000000.0 0.4660029245732315 -0.8824712560833529
4844000000.0 0.5079510488565867 -0.8915933402604775
4847000000.0 0.4837307844024189 -0.8704466245775212
4850000000.0 0.4593739725532216 -0.9341915203374651
4853000000.0 0.4584048433924974 -0.87789867348349
4856000000.0 0.4629471713644662 -0.8935091552046954
4859000000.0 0.4896417406408504 -0.9513250547760127
4862000000.0 0.5058447253233223 -0.8680340347090407
4866000000.0 0.45059983713378693 -0.9164159252831732
4869000000.0 0.4726736865985342 -0.9275624181565377
4872000000.0 0.4659466630027577 -0.9462398523568303
4875000000.0 0.5352227733006618 -0.9356054967831905
4878000000.0 0.47832671178664615 -0.9077125826966244
4881000000.0 0.48613135168212723 -0.9798562400104394
4884000000.0 0.47848617194952475 -0.8979833383360013
4888000000.0 0.5123390656579121 -0.9068249097660551
4891000000.0 0.5077608923832224 -0.9203886019142973
4894000000.0 0.4524958129868478 -0.9150010353627832
4897000000.0 0.4933978469360391 -0.8701755369319729
4900000000.0 0.4998777866411563 -0.9250646367175772
4903000000.0 0.5250301841311857 -0.9294015311689313
4906000000.0 0.49457590128235235 -0.9173336115908418
4909000000.0 0.48802239490030896 -0.9279131207217315
4912000000.0 0.46375792782210873 -0.9471647606804388
4916000000.0 0.5226436912166672 -0.9411764826114783
4919000000.0 0.5437114146978499 -0.9320923254950925
4922000000.0 0.5105542194052988 -0.8788044729876268
4925000000.0 0.4533900314398436 -0.9134416681169425
4928000000.0 0.5150523045636661 -0.8616275965066145
4931000000.0 0.5186579133655278 -0.9026098085248843
4934000000.0 0.43477424669422604 -0.8640220916128126
4938000000.0 0.42327842437752716 -0.9382753047461935
4941000000.0 0.4575022146562001 -0.8970871073297395
4944000000.0 0.4950350299543026 -0.8399507403400036
4947000000.0 0.46314393482766336 -0.8817643792474384
4950000000.0 0.47042455999337807 -0.9021117668436136
4953000000.0 0.4712873367630842 -0.9406558817394852
4956000000.0 0.480696374750319 -0.9156306722422347
4959000000.0 0.44900132547069127 -0.895321904261879
4962000000.0 0.4665388350754719 -0.9168709756158218
4966000000.0 0.5202737483347455 -0.9481084629142529
4969000000.0 0.5198299279452829 -0.945099118482808
4972000000.0 0.48143602726388024 -0.9135041893399225
4975000000.0 0.5071935335008781 -0.8770549122337729
4978000000.0 0.4787014971929116 -0.9104584030216268
4981000000.0 0.494805810812699 -0.9188755449947597
4984000000.0 0.5037150866714091 -0.8797631224376307
4988000000.0 0.47649385267417 -0.8738499894479412
4991000000.0 0.53425816664035 -0.9046910575910279
4994000000.0 0.49607071615308973 -0.8732802557872645
4997000000.0 0.4612032223622301 -0.9188338029003751
5000000000.0 0.527226681835674 -0.8936068060935389
5003000000.0 0.5388864712434049 -0.9140238010486453
5006000000.0 0.4982715963839436 -0.9459329174331912
5009000000.0 0.47512424452118585 -0.8897713322209531
5012000000.0 0.45963949109110913 -0.9218194575536439
5016000000.0 0.526729056648341 -0.9155980304294153
5019000000.0 0.48132958251303704 -0.8984657052969088
5022000000.0 0.5173925809195546 -0.9201086953910127
5025000000.0 0.5160392703403135 -0.9745075252217406
5028000000.0 0.49167829179619144 -0.9168971095715402
5031000000.0 0.4940158858949148 -0.8823144812162886
5034000000.0 0.491475539401376 -0.9120709116731338
5038000000.0 0.49331264236511857 -0.8840495136192623
5041000000.0 0.5294558778696938 -0.893381218917846
5044000000.0 0.5111807030417175 -0.877151134704425
5047000000.0 0.521241188881031 -0.8691720866621107
5050000000.0 0.5868538227745606 -0.8655959624932368
5053000000.0 0.4883770660639419 -0.9320137136206332
5056000000.0 0.5564464968891103 -0.8785037146922703
5059000000.0 0.5430952719246914 -0.9052188641871213
5062000000.0 0.4921347340841691 -0.9328019396782905
5066000000.0 0.5500629749900263 -0.8443785705465112
5069000000.0 0.5103400826929396 -0.9244986435522178
5072000000.0 0.4915943633447339 -0.8748489565963548
5075000000.0 0.5336922912258388 -0.8951222782690567
5078000000.0 0.4659949468032216 -0.9381953024008127
5081000000.0 0.4625628346634502 -0.8623581421508189
5084000000.0 0.4996191126608596 -0.8852726007019742
5088000000.0 0.5282297876655777 -0.9120981883572714
5091000000.0 0.47345614259988783 -0.9294020745539333
5094000000.0 0.5103155788035298 -0.9230531219593215
5097000000.0 0.5355155466568595 -0.8911354691877236
5100000000.0 0.5135287818815919 -0.8968664913603108
5103000000.0 0.47148265216566854 -0.911859221690522
5106000000.0 0.5175711146543858 -0.8732537659045752
5109000000.0 0.5446002480296661 -0.8908220194987198
5112000000.0 0.4664639139651692 -0.9169154787190086
5116000000.0 0.4797558354192147 -0.8479515613606592
5119000000.0 0.5200263443693568 -0.9129728535658872
5122000000.0 0.5565207111427533 -0.9156145784465207
5125000000.0 0.4974713988269083 -0.8898871177812566
5128000000.0 0.48079232254393495 -0.8630273558855249
5131000000.0 0.5155485161339913 -0.8426364443761322
5134000000.0 0.511950937405032 -0.9101875828940809
5138000000.0 0.5772832801246448 -0.8369451238086745
5141000000.0 0.5095408834084496 -0.8721730952501565
5144000000.0 0.5791573479338854 -0.891183277689324
5147000000.0 0.5332963402644882 -0.8989109941023119
5150000000.0 0.5294943162932289 -0.8935127667151603
5153000000.0 0.512985442655383 -0.9013411069338234
5156000000.0 0.5384174494439042 -0.916243469228532
5159000000.0 0.5880460916643193 -0.9193448171444369
5162000000.0 0.5208493830465456 -0.880323223150977
5166000000.0 0.5389408450893364 -0.9048776335818787
5169000000.0 0.5614422291384408 -0.9226788873769489
5172000000.0 0.4974219508764717 -0.8774640732615797
5175000000.0 0.5573664006843888 -0.9074302295040622
