! Created with skrf 1.8.0 (http://scikit-rf.org).
# Hz S RI R 50.0 
!freq ReS11 ImS11
4000000000.0 0.472158916211865 -0.9202468220571797
4003000000.0 0.5100988219624945 -0.9364848487961673
4006000000.0 0.44363775218321166 -0.9402946317860306
4009000000.0000005 0.5093332782594303 -0.8814620055914242
4011999999.9999995 0.5692137675936451 -0.87254224079725
4016000000.0 0.4864875624166397 -0.9073258647655251
4019000000.0 0.51357623419316 -0.902516003423418
4022000000.0000005 0.5929027093083847 -0.8972664258466965
4025000000.0000005 0.4496696339883024 -0.9199933134611077
4027999999.9999995 0.4974133298654232 -0.9064926216686203
4030999999.9999995 0.4615368187688933 -0.9006148076804714
4034000000.0 0.48561288203454567 -0.8872906592829573
4038000000.0000005 0.46927529716870087 -0.950655143634662
4041000000.0000005 0.5310989536462832 -0.9372395132793413
4043999999.9999995 0.5111795762547796 -0.9362172349565325
4046999999.9999995 0.5208806032912 -0.9240526833698687
4050000000.0 0.5151281262173733 -0.970175600938896
4053000000.0 0.44518569794472873 -0.8714020968041147
4056000000.0 0.5208845385096621 -0.889884482750863
4059000000.0 0.5178782232450706 -0.8617756995710916
4062000000.0000005 0.4887151160798714 -0.9116414406553334
4066000000.0 0.4460312834299036 -0.8523167519383701
4069000000.0 0.45810726629058 -0.9469259796972581
4072000000.0 0.5064460813077447 -0.9001653394541898
4075000000.0 0.5643459330875984 -0.9154782249882026
4078000000.0000005 0.49342002940231927 -0.9364319007191386
4081000000.0000005 0.5313013774959408 -0.8937360339653516
4083999999.9999995 0.47300038843692754 -0.9090888349291699
4088000000.0 0.5077993308580474 -0.8946182005310142
4091000000.0 0.5173116665267563 -0.938732472908675
4094000000.0000005 0.5024146318780827 -0.8893116483246426
4097000000.0000005 0.4984114648648742 -0.9074348281514741
4099999999.9999995 0.45858631766342556 -0.8712673628069143
4102999999.9999995 0.5387767119394912 -0.8817545419304937
4106000000.0 0.48142330181728843 -0.9224897762365792
4109000000.0 0.4494665859915229 -0.9187270962748608
4112000000.0 0.4662262074743252 -0.9188533152152054
4115999999.9999995 0.5178334576980885 -0.9248698143760826
4119000000.0 0.44133737375548937 -0.8788400487369846
4122000000.0 0.44846669007492557 -0.9442896603239836
4125000000.0 0.49066497212371063 -0.9476186220238674
4128000000.0 0.5045182203785252 -0.884208328629538
4131000000.0 0.48429768177237964 -0.8738407269570887
4134000000.0000005 0.5126967313149339 -0.928413878294376
4138000000.0 0.4392168470366115 -0.9079181016777509
4141000000.0 0.49024768764656906 -0.916847960134311
4144000000.0 0.5204310834076621 -0.8890026310745149
4147000000.0000005 0.45659840865680723 -0.9055723165922202
4150000000.0000005 0.4889937081826754 -0.9111550499681168
4152999999.9999995 0.47329278319234874 -0.9024957540075008
4155999999.9999995 0.5240560980259967 -0.8964418932583358
4159000000.0 0.4779247040638083 -0.8874772558784509
4162000000.0 0.5203697140327957 -0.903271763446403
4166000000.0000005 0.4854598868145559 -0.9157237869826471
4168999999.9999995 0.4794514684099959 -0.9063595382618994
4171999999.9999995 0.4625556131219577 -0.9123926351527888
4175000000.0 0.5086600136296414 -0.9119640918147778
4178000000.0 0.5160052337552488 -0.9259197136363176
4181000000.0 0.5098236276247304 -0.9150604690734663
4184000000.0 0.5093305030479991 -0.8933978927725769
4187999999.9999995 0.47592378882284336 -0.8966618924080421
4191000000.0 0.49756839045774715 -0.8617934513646769
4194000000.0 0.47999111915408976 -0.8899194738835563
4197000000.0 0.513410930654914 -0.9044176297677912
4200000000.0 0.5004601862953286 -0.9024219911292668
4203000000.0000005 0.5046585094488947 -0.9022604683583691
4206000000.0000005 0.5047675482130407 -0.8894432508595719
4208999999.9999995 0.4930094737353792 -0.8945009415106582
4211999999.9999995 0.4756517155756026 -0.9006558772687774
4216000000.0 0.5077612919666671 -0.890647896471809
4219000000.0000005 0.5135272937292166 -0.8923830022797684
4222000000.0000005 0.4807055515113098 -0.9115717307504698
4224999999.9999995 0.5027598180781264 -0.8935593059724436
4227999999.9999995 0.5116169915477381 -0.8878825389047295
4231000000.0 0.481370620288187 -0.896602055876337
4234000000.0 0.48572108778119316 -0.9182291872900901
4238000000.0000005 0.4847938063084077 -0.9125359198580238
4240999999.9999995 0.4530702469051935 -0.8834540837485533
4244000000.0 0.5043116807496028 -0.8919066837757165
4247000000.0 0.5047603705501366 -0.8976021917566459
4250000000.0 0.4646173059459015 -0.882948711399633
4253000000.0 0.46854580566443527 -0.8865015180903989
4256000000.0 0.4923213448622302 -0.9211808557446196
4259000000.0000005 0.44867769813013725 -0.8633017486783118
4261999999.9999995 0.4637580876498824 -0.8998148105991565
4266000000.0 0.4592411383695634 -0.9175684754213487
4269000000.0 0.4929119978817782 -0.9139674060473775
4272000000.0000005 0.48474121755204763 -0.8999764829811073
4275000000.0000005 0.4801296126329523 -0.8970843276662709
4277999999.9999995 0.5065639463663568 -0.9154672982651135
4280999999.9999995 0.4939226340753189 -0.8924967060366453
4284000000.0 0.46097773606454556 -0.9134538145961868
4288000000.0000005 0.5036987290760939 -0.8632801369685382
4291000000.0000005 0.4850833524199953 -0.8908441727991934
4293999999.9999995 0.45891315741349303 -0.8950407872319458
4297000000.0 0.48727708952448406 -0.8785719022632719
4300000000.0 0.47967869446689476 -0.874048438067111
4303000000.0 0.4623474932223071 -0.8908029959094375
4306000000.0 0.5024003709014154 -0.889353782063866
4309000000.0 0.47512105444850594 -0.8970898174798612
4312000000.0 0.5148880967075191 -0.8888528327225691
4316000000.0 0.5066933727265251 -0.9010338563598661
4319000000.0 0.502549461555189 -0.8746459151011151
4322000000.0 0.4655058360069389 -0.885854071280315
4325000000.0 0.5039483347614057 -0.8942902491755548
4328000000.0 0.47858065974837904 -0.8758999477656465
4331000000.0 0.4423823434475225 -0.9042593238144759
4334000000.0 0.4906693417132909 -0.9045200771726538
4338000000.0 0.48921367414342515 -0.8915607383006349
4341000000.0 0.48998809926689907 -0.8929744559852515
4344000000.0 0.499778447989646 -0.9051378896984938
4347000000.0 0.4438765654523439 -0.892333445184835
4350000000.0 0.4605624042020394 -0.8576641679324055
4353000000.0 0.46597616984581813 -0.8757696385971018
4356000000.0 0.42974556668926833 -0.8845174247668053
4359000000.0 0.46018802415170856 -0.8691489791566219
4362000000.0 0.4322941138379761 -0.9366666963707887
4366000000.0 0.5046321345409851 -0.9079673790331253
4369000000.0 0.4413999619973712 -0.856680425439578
4372000000.0 0.4306772405997824 -0.9090648486343113
4375000000.0 0.5003554973898406 -0.8862363579749521
4378000000.0 0.4599352681251875 -0.8695693508627942
4381000000.0 0.47609509327479915 -0.8721821341559691
4384000000.0 0.4760990874252752 -0.9525222152213745
4388000000.0 0.47088030134082925 -0.8832147503135628
4391000000.0 0.4795281290295333 -0.9006311731208232
4394000000.0 0.4409806962159585 -0.8628858963340429
4397000000.0 0.45490769217840044 -0.889954538399497
4400000000.0 0.469210563569443 -0.9259753954163343
4403000000.0 0.46704927744063957 -0.9180115570638249
4406000000.0 0.45539797161603024 -0.9062736400113474
4409000000.0 0.47149462432537737 -0.9304700511292986
4412000000.0 0.40972266338969543 -0.9209315295771857
4416000000.0 0.4428178773954779 -0.8870662443012787
4419000000.0 0.44325706657146663 -0.9009944495663889
4422000000.0 0.4707153391207741 -0.8807580455921024
4425000000.0 0.48184250782126425 -0.9058803530942364
4428000000.0 0.44458455314367684 -0.9025926666923993
4431000000.0 0.4825615643882785 -0.9238505624542702
4434000000.0 0.449731039549873 -0.8968218047068204
4438000000.0 0.4673135024552395 -0.9271934119016809
4441000000.0 0.4668770448340641 -0.9060042640734121
4444000000.0 0.4408612204537956 -0.8834333641985789
4447000000.0 0.43720083545172866 -0.9132230780310442
4450000000.0 0.4603201631783257 -0.8918590858104243
4453000000.0 0.4658366151755299 -0.9217131135317767
4456000000.0 0.42807101573416567 -0.8934897925798296
4459000000.0 0.4135869592075183 -0.8825258662443918
4462000000.0 0.47592276273806433 -0.9559587658631907
4466000000.0 0.4507739636774407 -0.9433883495406212
4469000000.0 0.4764189943616784 -0.9174220801356163
4472000000.0 0.4411462348671253 -0.9525611249734328
4475000000.0 0.44893999414434 -0.8795191862312517
4478000000.0 0.4530912727445269 -0.9482920199772223
4481000000.0 0.4290360953363297 -0.898904861091046
4484000000.0 0.4074523558683999 -0.9280018522237214
4488000000.0 0.42680154185935654 -0.9027812982758519
4491000000.0 0.4441404066912599 -0.9298297290404741
4494000000.0 0.4353564023461685 -0.9085543599413399
4497000000.0 0.45365103056191414 -0.8928181223212313
4500000000.0 0.4429823927113139 -0.9006545175839672
4503000000.0 0.4652563318368653 -0.925778139588978
4506000000.0 0.4276925703974804 -0.9169985437187745
4509000000.0 0.41840688581834545 -0.8846464263896054
4512000000.0 0.4332642428731379 -0.9019818079384363
4516000000.0 0.43773281271511405 -0.914217174578375
4519000000.0 0.4383286619988514 -0.8792294801999692
4522000000.0 0.4107358620541442 -0.9228045234722376
4525000000.0 0.4657886172754621 -0.9241160644624373
4528000000.0 0.45325882804183626 -0.9233993135290395
4531000000.0 0.445089421421609 -0.9276016520490958
4534000000.0 0.42687808560523627 -0.8901126591282389
4538000000.0 0.43494963630628003 -0.9184199365202537
4541000000.0 0.40361397674126576 -0.9295118653793764
4544000000.0 0.41456233331996895 -0.9016763322713299
4547000000.0 0.43778439309037936 -0.8907451166715974
4550000000.0 0.4151408260793546 -0.9218278954315053
4553000000.0 0.4461893585247356 -0.9255330539125712
4556000000.0 0.4173031637940033 -0.9071685120772024
4559000000.0 0.42232350324639706 -0.9264293729856407
4562000000.0 0.4360250724544146 -0.9319840700841404
4566000000.0 0.42947152361683666 -0.9295511904875908
4569000000.0 0.41238014723493155 -0.8984365238367302
4572000000.0 0.4232430077863029 -0.9198886523789491
4575000000.0 0.41931266630095304 -0.9387234231048198
4578000000.0 0.44304256231493966 -0.9257627148556403
4581000000.0 0.4112314112361933 -0.9234831750945759
4584000000.0 0.40683811032864886 -0.917447471709359
4588000000.0 0.4384611794856872 -0.9376363541246959
4591000000.0 0.43602543842899943 -0.9169338637534744
4594000000.0 0.3973144619140797 -0.9223278394281544
4597000000.0 0.4226962121168102 -0.9260760946087988
4600000000.0 0.3791768730224476 -0.9229472827151037
4603000000.0 0.4109240140305854 -0.934193236211958
4606000000.0 0.42950677178842844 -0.9284630885330909
4609000000.0 0.41356968838750613 -0.938690710839224
4612000000.0 0.4120391375893766 -0.929166914079382
4616000000.0 0.3932155917062279 -0.9324687423096453
4619000000.0 0.41215131962599005 -0.9253557115774727
4622000000.0 0.41534380433549 -0.9156203723124388
4625000000.0 0.38464983922813656 -0.9150321787605143
4628000000.0 0.4197121394999298 -0.9168468071765231
4631000000.0 0.39565721660030184 -0.9228572114198468
4634000000.0 0.39996410337473914 -0.9261531264422452
4638000000.0 0.4178379955567354 -0.9443644305148933
4641000000.0 0.4198277831217603 -0.9297474567264213
4644000000.0 0.4034273891458271 -0.9196612357478403
4647000000.0 0.412718099366451 -0.9333515159601858
4650000000.0 0.395468462347508 -0.9301351806493419
4653000000.0 0.42171659743040457 -0.9230741771052057
4656000000.0 0.4069861603956514 -0.9388031594625803
4659000000.0 0.39614253855463694 -0.9251008421108978
4662000000.0 0.39557227883092716 -0.9387583481326727
4666000000.0 0.37705321888669113 -0.9248507042404795
4669000000.0 0.4101644163464718 -0.93065260877654
4672000000.0 0.37818998052920366 -0.9539602370639326
4675000000.0 0.3688833153389063 -0.9400985882719075
4678000000.0 0.378973804264052 -0.9210865711586388
4681000000.0 0.39468807681760393 -0.9377837156031558
4684000000.0 0.35577440317832076 -0.9697078145719498
4688000000.0 0.3673864887985328 -0.9272600176115491
4691000000.0 0.43144253660733545 -0.9216033794568703
4694000000.0 0.4250505606012789 -0.9151488983877962
4697000000.0 0.3785954489306005 -0.9130176451530436
4700000000.0 0.4017844533921661 -0.9426782793964799
4703000000.0 0.40572500618260915 -0.8971731284730179
4706000000.0 0.3761822283560459 -0.9437134918698393
4709000000.0 0.3716359057552889 -0.9365765653265565
4712000000.0 0.40262075437711004 -0.9234673022757199
4716000000.0 0.3875464445361732 -0.9643011374893707
4719000000.0 0.4156890890720451 -0.946111178619351
4722000000.0 0.39953742431920136 -0.9100134044142538
4725000000.0 0.3993402508674843 -0.9316019386208735
4728000000.0 0.3683160712113907 -0.938351287526991
4731000000.0 0.40952949198688143 -0.9882899052235044
4734000000.0 0.3952591477807295 -0.9164660783787432
4738000000.0 0.40372943923794763 -0.9649685041857312
4741000000.0 0.40583509536237933 -0.9727109355975444
4744000000.0 0.3786664999550807 -0.963825086573374
4747000000.0 0.39308082064902156 -0.9121052969420824
4750000000.0 0.4179029842885821 -0.9457777213773221
4753000000.0 0.3896564436452325 -0.9484689994449911
4756000000.0 0.398949992904249 -0.9455051648460218
4759000000.0 0.4002808956551925 -0.9459088213921233
4762000000.0 0.3700312079802367 -0.9802474292931653
4766000000.0 0.39234895474046694 -0.9400924416837936
4769000000.0 0.3817714672069448 -0.9705815849513398
4772000000.0 0.3969048944001118 -0.9384511897079008
4775000000.0 0.36877215060571855 -1.007497187144056
4778000000.0 0.383501148102747 -0.9420761797070173
4781000000.0 0.4084048231290379 -0.9258411238111066
4784000000.0 0.38779296401087293 -0.9463490771665672
4788000000.0 0.3568354830699931 -0.9914144143871838
4791000000.0 0.37049961991881786 -0.9336493953811308
4794000000.0 0.42256032409696176 -0.9834057099196433
4797000000.0 0.3643958464567909 -0.9534370170403124
4800000000.0 0.3563453864889977 -0.931335362994847
4803000000.0 0.3279321516559194 -0.9618475987064312
4806000000.0 0.39423799419223676 -0.9825566539457143
4809000000.0 0.3334353530462724 -0.9891340717478999
4812000000.0 0.3429681870702929 -0.9580652562934887
4816000000.0 0.38152089740623546 -0.9376248429662729
4819000000.0 0.4066494116491946 -0.9685390196349332
4822000000.0 0.40937150980423875 -0.9657691049411211
4825000000.0 0.3990353852247227 -0.9733269279716342
4828000000.0 0.4011339306144198 -0.9808254168421943
4831000000.0 0.3534946465362613 -1.0015227971402152
4834000000.0 0.4033915255857605 -0.9483448592228961
4838000000.0 0.35527612887355386 -0.9888009251722268
4841000000.0 0.3375520150175264 -0.9424730381093817
4844000000.0 0.4348676808236113 -0.9562471328389667
4847000000.0 0.4001398775066123 -0.9139525753180496
4850000000.0 0.3771317645239377 -0.9896679145624555
4853000000.0 0.3708614468984021 -0.9293944530101664
4856000000.0 0.3727220227538992 -0.9297323787398494
4859000000.0 0.36874396251054364 -0.9967709516862499
4862000000.0 0.391332552535713 -0.9388109692635772
4866000000.0 0.37748556541374034 -0.9837024761619542
4869000000.0 0.36097177658888274 -0.967266969931272
4872000000.0 0.35019423438028396 -1.005954242095591
4875000000.0 0.45535106355578364 -0.9733826740333245
4878000000.0 0.3583347896829432 -0.9650609890438263
4881000000.0 0.3722610046082254 -1.0606635653961871
4884000000.0 0.4158537136814953 -0.9596122416070951
4888000000.0 0.4123241022680914 -0.9296820278655259
4891000000.0 0.4279049679147067 -0.9822699476216132
4894000000.0 0.36446565057744257 -0.9597793932653431
4897000000.0 0.42155499482793124 -0.9346172824032306
4900000000.0 0.3952893007652533 -0.977405556631429
4903000000.0 0.4021705938257091 -0.9617954596105835
4906000000.0 0.4213892941334253 -0.996415385259019
4909000000.0 0.36902828229996515 -0.9627910555718342
4912000000.0 0.3635449890294961 -1.0041563106465239
4916000000.0 0.4040865101722857 -0.986630708206907
4919000000.0 0.4449507629387866 -0.9820722365100822
4922000000.0 0.44548470008834024 -0.9879449894578176
4925000000.0 0.34709845358652913 -0.9521937609807172
4928000000.0 0.42538976771717363 -0.948150820694058
4931000000.0 0.4197391122649825 -0.9574795816395292
4934000000.0 0.34807885649716763 -0.9342553823655778
4938000000.0 0.3457388765335111 -1.0016729014130796
4941000000.0 0.3772801138996773 -0.9531505527081295
4944000000.0 0.3817233445208012 -0.9088126660736094
4947000000.0 0.3741224162902853 -0.9224107501373603
4950000000.0 0.37788943534942365 -0.9577032269912864
4953000000.0 0.3306629556452273 -0.9864225405934275
4956000000.0 0.3815329501828295 -1.0062741034825393
4959000000.0 0.33470693287521425 -0.9409892854615617
4962000000.0 0.37391049389852143 -0.9880926392747496
4966000000.0 0.40059674729303607 -1.0008917668064559
4969000000.0 0.3918234108321096 -1.0033903516309974
4972000000.0 0.355713832575016 -0.9674272690232101
4975000000.0 0.41872924586068394 -0.9617432860019005
4978000000.0 0.3711211995010309 -0.9763379890923698
4981000000.0 0.3649108862386718 -0.9670206408692525
4984000000.0 0.36500532490965915 -0.9427894280102337
4988000000.0 0.38050933430161743 -0.9633599753044554
4991000000.0 0.42043754179074244 -0.9687754476117912
4994000000.0 0.39165836910420665 -0.9670771518064116
4997000000.0 0.3565690588011155 -0.955676360693436
5000000000.0 0.390014213120035 -0.9981989186420939
5003000000.0 0.4154248024345907 -1.0028790068924982
5006000000.0 0.39507742566075765 -1.0070480636773569
5009000000.0 0.3526219974332429 -0.9804692211345659
5012000000.0 0.371652469458898 -0.9809111924762479
5016000000.0 0.43494194843547723 -1.002264149107515
5019000000.0 0.34436476329323706 -0.9514747381038019
5022000000.0 0.3803169218562939 -0.9551017306780969
5025000000.0 0.36885383149900675 -1.041590336136624
5028000000.0 0.35219487911288433 -0.9746650056090649
5031000000.0 0.34642511863285375 -0.9693185685588596
5034000000.0 0.3616732880024918 -1.0036066666395822
5038000000.0 0.3556200415144078 -0.9444802976611947
5041000000.0 0.4201188522560977 -0.9846615830461102
5044000000.0 0.4166934771127555 -0.9534683527967618
5047000000.0 0.3997383295731628 -0.9704690217296271
5050000000.0 0.47815722472462047 -0.9347380396734107
5053000000.0 0.3793546508795492 -1.0268840678648086
5056000000.0 0.4357483556737353 -0.9253435549241122
5059000000.0 0.45197441430073315 -0.9608194771852469
5062000000.0 0.36587077536359613 -1.038712643180171
5066000000.0 0.4156147811398978 -0.9448308858806327
5069000000.0 0.35458334828569554 -0.9487290200951792
5072000000.0 0.3881209327045316 -0.9147595699749607
5075000000.0 0.37513284095459004 -0.9398440702451389
5078000000.0 0.4073838781393529 -0.9728128431139615
5081000000.0 0.3575662696814545 -0.9146263265905149
5084000000.0 0.406724014333008 -1.0120792781954489
5088000000.0 0.4070846425461095 -0.9510582795470033
5091000000.0 0.3543583855438709 -0.9870895655464342
5094000000.0 0.389703376489484 -0.952352966464273
5097000000.0 0.45626165215523873 -0.966137387790627
5100000000.0 0.3719289730742673 -0.9544807380985649
5103000000.0 0.368664089927725 -1.0164181370992362
5106000000.0 0.40709695499150916 -0.9535299966631143
5109000000.0 0.4579401805600194 -0.9456991053858386
5112000000.0 0.3637127541993714 -0.9571105396704278
5116000000.0 0.38136806725311 -0.9342842211624542
5119000000.0 0.4081366598257899 -0.9873597218588374
5122000000.0 0.35493699705886195 -0.9544248657287417
5125000000.0 0.44629444046031597 -0.9479168042793501
5128000000.0 0.3984333598165629 -0.9693294394605634
5131000000.0 0.35908644610357315 -0.9428716539367226
5134000000.0 0.3598994732003437 -0.9817693047312317
5138000000.0 0.4182692550587325 -0.9634066194209758
5141000000.0 0.43769255016453096 -0.9594282951502549
5144000000.0 0.37817773480151584 -0.9754767647779279
5147000000.0 0.43666013756789973 -0.9845584751577334
5150000000.0 0.4148503068069749 -0.9558413387720969
5153000000.0 0.396759961342093 -0.9625848820442517
5156000000.0 0.39216895954044695 -1.0036215348996576
5159000000.0 0.42870424059537016 -1.0201674578241984
5162000000.0 0.40468027526794803 -0.9579081984530704
5166000000.0 0.41185798801023965 -0.986167119130249
5169000000.0 0.4158238982799414 -0.9955787784427214
5172000000.0 0.4166486856205428 -0.9434666162214062
