! Created with skrf 1.8.0 (http://scikit-rf.org).
# Hz S RI R 50.0 
!freq ReS11 ImS11
4000000000.0 0.2587335543183997 -0.9776985061796438
4003000000.0 0.2898777785603276 -0.9771930824700722
4006000000.0 0.26349916195846307 -1.0257855997418979
4009000000.0000005 0.24372125986702153 -1.0237997789499917
4011999999.9999995 0.3616676843336768 -1.0183511333774633
4016000000.0 0.2801179851972187 -1.0346277225026075
4019000000.0 0.2788880867281832 -0.9875512101177681
4022000000.0000005 0.3415056581704914 -0.9752717332539677
4025000000.0000005 0.2107561559293075 -1.01005889361431
4027999999.9999995 0.23905248165981186 -0.9863627480070745
4030999999.9999995 0.24670253508844459 -0.9337359011970874
4034000000.0 0.2061362681811736 -0.9610651168037491
4038000000.0000005 0.2612779037628659 -0.9984369685645393
4041000000.0000005 0.23618438261375768 -0.9935035739845691
4043999999.9999995 0.24309458159692526 -1.027906908570175
4046999999.9999995 0.28190722397892176 -1.0281073565292882
4050000000.0 0.24343702067823642 -1.0428198721675557
4053000000.0 0.19176825845927412 -0.975429412402347
4056000000.0 0.23599913568094033 -0.9888754434860573
4059000000.0 0.253600030698507 -1.00803407764605
4062000000.0000005 0.21872797932763083 -0.9760882406131465
4066000000.0 0.24770887134731573 -0.9777061266504682
4069000000.0 0.22031302794508273 -1.015154019960952
4072000000.0 0.24468136281161892 -0.9708989867747837
4075000000.0 0.2395221259559175 -1.011073407484802
4078000000.0000005 0.2553457810615928 -0.982340711030541
4081000000.0000005 0.2559391304279766 -0.9933408675925341
4083999999.9999995 0.2541917674328685 -1.0253815487412121
4088000000.0 0.2363805421203936 -0.9669869939366643
4091000000.0 0.23726062847168167 -1.0151177373974414
4094000000.0000005 0.244033268530605 -0.9848370454446446
4097000000.0000005 0.21635745646598317 -1.0150671331265724
4099999999.9999995 0.1985455015895483 -1.0112089285413899
4102999999.9999995 0.21765207293703276 -0.9925727948496955
4106000000.0 0.2259692144896414 -1.0093071730823324
4109000000.0 0.17995355907737048 -0.9929075250519278
4112000000.0 0.20973626228819037 -0.9883432371475963
4115999999.9999995 0.23081093851912313 -1.0002425137558222
4119000000.0 0.18880597361157148 -1.0099827072774048
4122000000.0 0.1877931863636018 -0.97820292554407
4125000000.0 0.18433854025845908 -1.0101915461583475
4128000000.0 0.19706963265118949 -0.9600592163359001
4131000000.0 0.18066594979341477 -0.9921341187323981
4134000000.0000005 0.2213890706908194 -0.9441955351645114
4138000000.0 0.15396563634640698 -0.9823114317458627
4141000000.0 0.2056369789642388 -0.9898148849769676
4144000000.0 0.20711635702790807 -1.0033947090348834
4147000000.0000005 0.19310082774945891 -1.010092757177252
4150000000.0000005 0.20014224526133972 -1.0110443283054238
4152999999.9999995 0.20241662994824788 -0.9826531390020631
4155999999.9999995 0.18779938075606062 -1.025506227901011
4159000000.0 0.17970410024044015 -0.9664097241907371
4162000000.0 0.21423159344117426 -0.9918301872278686
4166000000.0000005 0.17206693791858613 -1.0228140062827211
4168999999.9999995 0.14363901033375376 -0.9841657495289278
4171999999.9999995 0.18901271791585111 -1.000925691453836
4175000000.0 0.1983074163266878 -1.0168790498036289
4178000000.0 0.2046221575997612 -1.0131554973133559
4181000000.0 0.1479369736494003 -1.0255065392094909
4184000000.0 0.17310604845304875 -0.9787711208888489
4187999999.9999995 0.15678175837410305 -1.0105031355089367
4191000000.0 0.198569453399364 -0.9975223244883796
4194000000.0 0.16819298622818243 -0.9791775509552948
4197000000.0 0.17845666084412792 -1.0107571430291113
4200000000.0 0.1904943173266058 -0.9889694505867027
4203000000.0000005 0.17485877343150036 -1.03520252804442
4206000000.0000005 0.15788009966684127 -1.0178090452674908
4208999999.9999995 0.15626144763211458 -0.9940212565987685
4211999999.9999995 0.12701621833001775 -1.0043895353603847
4216000000.0 0.18082287855491308 -1.0245172643086604
4219000000.0000005 0.16510121868982788 -1.0228819588908165
4222000000.0000005 0.14124591856649793 -1.0050116494800063
4224999999.9999995 0.14567968638803674 -0.9964038613290102
4227999999.9999995 0.1425511099405542 -1.002637736731776
4231000000.0 0.13492175951178714 -1.0089250396725666
4234000000.0 0.1232787209233975 -1.0266055344855691
4238000000.0000005 0.12366370886813138 -1.007046519479792
4240999999.9999995 0.10136714736617472 -0.9825106755313262
4244000000.0 0.12002933401677557 -0.9759367346066029
4247000000.0 0.12284189959252956 -0.9880536232857573
4250000000.0 0.10788839160708469 -0.9954470152146718
4253000000.0 0.10250351235492883 -0.9864546243237435
4256000000.0 0.11791537556896481 -1.069289486088224
4259000000.0000005 0.09444154872519331 -0.9830397883624636
4261999999.9999995 0.07236409514623077 -1.0090789066744756
4266000000.0 0.07778661844121193 -1.0133776182163219
4269000000.0 0.10225375904370748 -1.005120159994907
4272000000.0000005 0.11335590802103274 -1.0083165162403982
4275000000.0000005 0.11523103154475994 -1.020424611674627
4277999999.9999995 0.11877750371848889 -1.048096184517037
4280999999.9999995 0.10181193476525208 -1.0067285895213833
4284000000.0 0.04145061201483646 -1.002498281749605
4288000000.0000005 0.1326835509747401 -1.0028731801343012
4291000000.0000005 0.06093227023965775 -0.9633709170170413
4293999999.9999995 0.053687754264565735 -1.0205329573173159
4297000000.0 0.09337835773045744 -1.0073016714820808
4300000000.0 0.08245227099168079 -0.9907190652274902
4303000000.0 0.07186384156435921 -0.9735531914191796
4306000000.0 0.07589230723304025 -0.9903339643325069
4309000000.0 0.0916295471778878 -1.0090620051512325
4312000000.0 0.1151262314067365 -1.0134184853670016
4316000000.0 0.05724384059886939 -1.0133924666226595
4319000000.0 0.05630618258315595 -0.9800544714483004
4322000000.0 0.02130989628263369 -1.0032966668925312
4325000000.0 0.039366650097343525 -1.0039392855989626
4328000000.0 0.05443157708005303 -0.9999370099955137
4331000000.0 0.0381629458953352 -1.0173765382252975
4334000000.0 0.03351917231235285 -1.0015426587610734
4338000000.0 0.060872445689587995 -0.9952511601115958
4341000000.0 0.07765255504969737 -1.0280478266307473
4344000000.0 0.03905181425746118 -1.031821576068496
4347000000.0 -0.004538812081319954 -1.004969288629596
4350000000.0 0.0046185025468969965 -0.9761062442822321
4353000000.0 0.04521911644515486 -0.9855384039312771
4356000000.0 -0.016022018209582323 -1.0045907998027093
4359000000.0 0.006375651782117131 -0.9685352104640367
4362000000.0 -0.03792599484805609 -1.0149799231032886
4366000000.0 0.004739845664459008 -1.036877807680384
4369000000.0 -0.004124538868098326 -0.9806217793738723
4372000000.0 -0.044186764720755445 -1.0016269168744543
4375000000.0 0.004410718518292167 -1.0029589584483145
4378000000.0 -0.005843320025635312 -0.9772438497941975
4381000000.0 -0.018800411394761574 -0.9813831767103516
4384000000.0 -0.01983080999038922 -1.0556785086392497
4388000000.0 -0.00697821599164028 -1.0018641474259007
4391000000.0 -0.016966865897220462 -1.0178328443495792
4394000000.0 -0.048359024560145736 -0.996186541255359
4397000000.0 -0.04116025850865834 -1.007368588467807
4400000000.0 -0.04689851536733042 -1.027313724437801
4403000000.0 -0.048502696133438494 -1.0122878349288926
4406000000.0 -0.057087815785442086 -1.0185321665080806
4409000000.0 -0.06401103172207556 -1.0395606335659124
4412000000.0 -0.08906202151148734 -0.9946988368904688
4416000000.0 -0.06101926997241325 -1.0095682017941692
4419000000.0 -0.07726115625329133 -1.0101564793209212
4422000000.0 -0.0396605485205786 -1.0184853017031332
4425000000.0 -0.07064295331847914 -1.0242627845835188
4428000000.0 -0.08760485686632913 -1.019186302021661
4431000000.0 -0.0874016090211675 -1.0189462706905954
4434000000.0 -0.08002370228412314 -0.9847777280082941
4438000000.0 -0.09934444155888456 -1.0220868343939697
4441000000.0 -0.11662715638989868 -1.009998803908066
4444000000.0 -0.09369127412566075 -0.9882180416922088
4447000000.0 -0.11562776620573056 -0.9927526578315047
4450000000.0 -0.11055368859374826 -0.9889614417991341
4453000000.0 -0.11717452403689099 -1.0076647397827578
4456000000.0 -0.11981937760333428 -0.9857463966802236
4459000000.0 -0.14312285261151425 -0.9967374703056373
4462000000.0 -0.14370909457734993 -1.0237684028041367
4466000000.0 -0.155616401166092 -1.049123879815963
4469000000.0 -0.10707050221716796 -1.0117798708956212
4472000000.0 -0.1780918433595997 -1.0012859174674367
4475000000.0 -0.14511908452429645 -0.983774194986367
4478000000.0 -0.17563473240870747 -1.0100264470055944
4481000000.0 -0.18147365695849532 -0.9751569589464597
4484000000.0 -0.20167374667724497 -0.9726257432199314
4488000000.0 -0.18430767857717129 -0.9959576482178385
4491000000.0 -0.16662357118107024 -1.005641115528902
4494000000.0 -0.1936193610956239 -1.0011835199556527
4497000000.0 -0.16918136450739008 -0.995425451143484
4500000000.0 -0.2089747115349122 -0.9962599995368115
4503000000.0 -0.20840027529967403 -1.0026026993547466
4506000000.0 -0.2386657115335114 -0.9966050068993825
4509000000.0 -0.22121704765431632 -0.9842477931343949
4512000000.0 -0.2028328368308665 -0.9764525479269945
4516000000.0 -0.23934517443173942 -1.0088507682821999
4519000000.0 -0.23208837403201027 -0.9561915797367906
4522000000.0 -0.23211879161725762 -0.99850298046836
4525000000.0 -0.24971384335558092 -0.9907547824555224
4528000000.0 -0.23793618914166906 -0.9955604394734747
4531000000.0 -0.2691526254395974 -0.9849193694230215
4534000000.0 -0.27387006108557166 -0.9748601041878094
4538000000.0 -0.26460098641148555 -0.9974044282698404
4541000000.0 -0.2800837983417559 -0.9448851038319489
4544000000.0 -0.27983655407518165 -1.0035423528106766
4547000000.0 -0.2777917699775581 -0.9719081178341026
4550000000.0 -0.3080921768699469 -0.9842008352647308
4553000000.0 -0.2775063083461825 -0.9529555246586946
4556000000.0 -0.3002732654963112 -0.986935453165505
4559000000.0 -0.310391343624138 -0.9727449069830807
4562000000.0 -0.31218909643033343 -0.959023660142589
4566000000.0 -0.3239033568973441 -0.9932022740944356
4569000000.0 -0.33124519193101093 -0.9489294453181063
4572000000.0 -0.32880872324158716 -0.9501067731266116
4575000000.0 -0.3348538434148607 -0.946410845515402
4578000000.0 -0.3491977881800217 -0.9564015564167612
4581000000.0 -0.3536423991139952 -0.9390208787355312
4584000000.0 -0.3552056222786237 -0.9783976379006258
4588000000.0 -0.3701474309993003 -0.957859871592143
4591000000.0 -0.40050602098142374 -0.9598067191811266
4594000000.0 -0.37241704400718467 -0.9451440434516106
4597000000.0 -0.4078780229128109 -0.9329763449068076
4600000000.0 -0.3657928051832314 -0.9688080069753627
4603000000.0 -0.4036685714683452 -0.9200845623617087
4606000000.0 -0.4147713545797865 -0.966281708592885
4609000000.0 -0.38260221048242815 -0.9364639547544026
4612000000.0 -0.4264525086364031 -0.9143175094414685
4616000000.0 -0.42739798893655895 -0.921369440314421
4619000000.0 -0.4602763979812865 -0.9090282941097082
4622000000.0 -0.4728337664574393 -0.8950751511751613
4625000000.0 -0.49022409586084115 -0.9277389320363184
4628000000.0 -0.5013027644503228 -0.9837394975931301
4631000000.0 -0.4578554201073458 -0.923012441506134
4634000000.0 -0.4891424813482344 -0.9205077620082573
4638000000.0 -0.49099842291314133 -0.9190710595538812
4641000000.0 -0.49804457889095477 -0.8851581240196849
4644000000.0 -0.4932262946351924 -0.9074714434991977
4647000000.0 -0.4860068288084981 -0.8657618902890902
4650000000.0 -0.47851572829657185 -0.8892361674397906
4653000000.0 -0.5369749973263728 -0.894871032441102
4656000000.0 -0.49264788739096854 -0.9348314136633351
4659000000.0 -0.5657607052777063 -0.8550230790704556
4662000000.0 -0.5442530708987467 -0.8797749739264925
4666000000.0 -0.6044615711274377 -0.8707938852338933
4669000000.0 -0.5620451783530414 -0.878376847551245
4672000000.0 -0.5616578114657773 -0.9181468775429311
4675000000.0 -0.6081991073587061 -0.8813007723711588
4678000000.0 -0.5403839363062655 -0.8346529698937609
4681000000.0 -0.5838648466039167 -0.8106612260039042
4684000000.0 -0.6389602810507727 -0.8884599711991702
4688000000.0 -0.6441448602809416 -0.8283592904352068
4691000000.0 -0.6090427776787141 -0.8908387284969767
4694000000.0 -0.5406782431591004 -0.7946882414725006
4697000000.0 -0.6077407256349269 -0.7480449696277481
4700000000.0 -0.5869604135757639 -0.7908134259214012
4703000000.0 -0.5255109512917476 -0.7907898946324656
4706000000.0 -0.6246819323249163 -0.7567014534099836
4709000000.0 -0.6574634637141625 -0.7506717706187355
4712000000.0 -0.6813762006109222 -0.8377190145599033
4716000000.0 -0.7225119824406991 -0.7573573071744372
4719000000.0 -0.6108855704483217 -0.831990435387075
4722000000.0 -0.6563838324585978 -0.7811723390102749
4725000000.0 -0.6406003682577063 -0.7778742907983276
4728000000.0 -0.7005539182202465 -0.7286959443652969
4731000000.0 -0.7729740040673906 -0.8131614790198219
4734000000.0 -0.6764527934984583 -0.751284646580175
4738000000.0 -0.7353123086180796 -0.8620316353404728
4741000000.0 -0.7741712491252084 -0.7533712981366175
4744000000.0 -0.7350658679528637 -0.6835239175427621
4747000000.0 -0.6811163447678081 -0.7109702698713276
4750000000.0 -0.758139085133967 -0.7330277821965943
4753000000.0 -0.7257325300395016 -0.7308161573685812
4756000000.0 -0.7647103529901881 -0.715113879287616
4759000000.0 -0.7516788353687884 -0.7270414263879048
4762000000.0 -0.8459057453997961 -0.6589593421472921
4766000000.0 -0.8112173135826276 -0.6529674130471557
4769000000.0 -0.8112587335852249 -0.6350661099437798
4772000000.0 -0.8325891360213291 -0.6603404465744593
4775000000.0 -0.878990550730393 -0.6870686771378236
4778000000.0 -0.8709644180623941 -0.5978426785197557
4781000000.0 -0.8187972833557224 -0.6074412527792626
4784000000.0 -0.840448752590927 -0.6183588817656582
4788000000.0 -0.8601083901989606 -0.5610131204680318
4791000000.0 -0.8285111805828907 -0.5841988477585989
4794000000.0 -0.8402436782425694 -0.6314966983489549
4797000000.0 -0.8535169430040026 -0.5513350860130255
4800000000.0 -0.8447146041694026 -0.5625544612437172
4803000000.0 -0.9136846723713782 -0.5017111503041913
4806000000.0 -0.9188033821532721 -0.5020031360798969
4809000000.0 -0.9399631653575964 -0.47214701010183696
4812000000.0 -0.9345246562542092 -0.46777206964353013
4816000000.0 -0.8790948131958796 -0.46776683071012237
4819000000.0 -0.9325173149436201 -0.4582109237136319
4822000000.0 -0.9550961576950864 -0.4808281667973111
4825000000.0 -0.942405532337533 -0.4598984656376533
4828000000.0 -0.9644579100754465 -0.419016179648738
4831000000.0 -0.9713027078257443 -0.41371420816321663
4834000000.0 -0.9655973433837792 -0.3991952529993312
4838000000.0 -0.9676730691819786 -0.3453979126646447
4841000000.0 -0.9702452053484838 -0.3419255042856987
4844000000.0 -0.975606200025449 -0.3617459649285704
4847000000.0 -0.9955945747058975 -0.34398541262909826
4850000000.0 -1.0266699558222803 -0.27616499494908964
4853000000.0 -0.9732980922513035 -0.26423399874671305
4856000000.0 -0.9852970529343738 -0.2625082424203194
4859000000.0 -1.0499611883951128 -0.2116968496089628
4862000000.0 -1.0045634142477098 -0.2329391210866117
4866000000.0 -1.0163532095115633 -0.21050330057048974
4869000000.0 -1.0264636033071843 -0.206098937194007
4872000000.0 -1.0192422103109484 -0.1786712313660745
4875000000.0 -1.0874185677530614 -0.19572729808599285
4878000000.0 -1.0057290462501887 -0.1688342269954082
4881000000.0 -1.0091687120320654 -0.11823346716913613
4884000000.0 -1.0133861942183415 -0.13459464748162708
4888000000.0 -1.0678982397355783 -0.052468184686729424
4891000000.0 -1.0028152637420138 -0.030860416005513425
4894000000.0 -1.0013527895616112 -0.060806322533812185
4897000000.0 -1.0154392094784854 0.01797390321962017
4900000000.0 -1.020144320470559 -0.0005593390797438702
4903000000.0 -1.04589213640958 0.05365487362110549
4906000000.0 -1.0566791818308663 0.020086762270383196
4909000000.0 -0.9999119428609311 0.05413833159557335
4912000000.0 -0.9805751668766862 0.16926254549216047
4916000000.0 -1.0170692715608625 0.15244751137713292
4919000000.0 -0.9864958154163139 0.15275656702602713
4922000000.0 -0.9947183259977328 0.18348172624002612
4925000000.0 -0.9702999947674028 0.19707847394476863
4928000000.0 -1.0023107748254794 0.25092896863792485
4931000000.0 -0.9907826419863508 0.253951280430369
4934000000.0 -1.0052828511847542 0.24699191924022812
4938000000.0 -0.9839375542767889 0.27119911596665397
4941000000.0 -0.9556541304685047 0.3215675608030568
4944000000.0 -0.9912763496392567 0.36541359262959094
4947000000.0 -0.9815263075272755 0.3406012190642164
4950000000.0 -0.9861765642073059 0.38649877657032694
4953000000.0 -0.9172224655508321 0.37393113575591774
4956000000.0 -0.9430333537151236 0.4103852805998543
4959000000.0 -0.9633729122662533 0.47095257849991357
4962000000.0 -0.8779433829116425 0.48160735563348345
4966000000.0 -0.8466558063722829 0.47598951339279205
4969000000.0 -0.8005517442727674 0.5242575668828886
4972000000.0 -0.8383443391600055 0.5249081585607482
4975000000.0 -0.8195479361144086 0.6425643981380796
4978000000.0 -0.8459815276278465 0.6040487307859033
4981000000.0 -0.7913197770903735 0.5927078594940057
4984000000.0 -0.7799800799279986 0.6563132001562253
4988000000.0 -0.7840652636307984 0.6969540380724017
4991000000.0 -0.7352970521188488 0.7204852671928338
4994000000.0 -0.6890183379289889 0.6984880877557302
4997000000.0 -0.7170567142091547 0.7073604853602902
5000000000.0 -0.6317360771767128 0.733222472578722
5003000000.0 -0.6553135810244017 0.7493922532518754
5006000000.0 -0.604343153643741 0.724686572249886
5009000000.0 -0.5828828393464931 0.8150328766803062
5012000000.0 -0.6005637774218267 0.8580091611610677
5016000000.0 -0.5522395724547451 0.8216666054431807
5019000000.0 -0.578189846723759 0.8434371043625017
5022000000.0 -0.516058458298248 0.8673507583400994
5025000000.0 -0.4982539769828168 0.8365040134779627
5028000000.0 -0.47592061652924944 0.8638471781221444
5031000000.0 -0.4530044708972778 0.8895901513997675
5034000000.0 -0.46480471657824385 0.9130964535473105
5038000000.0 -0.41719985903136164 0.9031364189302173
5041000000.0 -0.4040216601457942 0.9222667222049215
5044000000.0 -0.36580657845108977 0.8921973804386196
5047000000.0 -0.33985642914176056 0.9193906875924502
5050000000.0 -0.30262104528043415 0.9804123841283665
5053000000.0 -0.25000890338826504 0.9477074391737148
5056000000.0 -0.23784808821717357 0.9525460258297636
5059000000.0 -0.18365118681618564 1.008788756205035
5062000000.0 -0.22007974488635307 1.0055505401978784
5066000000.0 -0.16060532077619766 0.9920363724157641
5069000000.0 -0.155585833418738 0.9793443824799318
5072000000.0 -0.17678269306031064 1.0522860603064377
5075000000.0 -0.06709525585064596 0.9918329842090677
5078000000.0 -0.08132447901002543 1.0107903429814211
5081000000.0 -0.03932640062893905 1.0050994118275944
5084000000.0 -0.0030909526500595974 0.9919547075584392
5088000000.0 0.0008034126301907363 0.9733136610953506
5091000000.0 0.07292004943984726 0.9886657065421425
5094000000.0 0.05432878132934438 0.9871037861169176
5097000000.0 0.081862518539212 1.0101966044038226
5100000000.0 0.10816588783955755 0.9991010237661415
5103000000.0 0.11641384753863182 0.9747284359028107
5106000000.0 0.18106481083611753 0.9937246714406978
5109000000.0 0.16795159833093448 0.9786857108807102
5112000000.0 0.2015890995136243 0.9828391466888261
5116000000.0 0.20366622043794325 0.9714817004777139
5119000000.0 0.21721396694830583 0.9452478946028833
5122000000.0 0.2702065670621753 0.9656377521080056
5125000000.0 0.2820096777202319 0.9326384175238205
5128000000.0 0.3163479266502862 0.9813451409957878
5131000000.0 0.3225934780532777 0.9343092723478327
5134000000.0 0.3617256194034675 0.9361509650773308
5138000000.0 0.3691133546784302 0.9455577043800336
5141000000.0 0.34854044621024605 0.9548052204541868
5144000000.0 0.4122022079598333 0.9289812512618115
5147000000.0 0.3818025329924417 0.924113443831944
5150000000.0 0.429509941969868 0.8747764493516191
5153000000.0 0.42879262097207416 0.9181502024628783
5156000000.0 0.4850983634882784 0.9151235349110383
