! Created with skrf 1.8.0 (http://scikit-rf.org).
# Hz S RI R 50.0 
!freq ReS11 ImS11
4000000000.0 0.8215053548295289 -0.522509766499334
4003000000.0 0.9109671050073895 -0.5532979311352464
4006000000.0 0.7930019231235638 -0.5665301569980952
4009000000.0000005 0.8506970878132335 -0.5804978873867812
4011999999.9999995 0.9111754247854459 -0.4705759550402138
4016000000.0 0.8687572836925177 -0.6255727112755296
4019000000.0 0.8601862742224381 -0.5793816087273391
4022000000.0000005 0.8612819775869821 -0.48878676704461377
4025000000.0000005 0.8227947424915711 -0.6199120571838248
4027999999.9999995 0.8583473006354932 -0.5723729605387693
4030999999.9999995 0.8105374825100985 -0.5823691682269552
4034000000.0 0.8535277315937219 -0.600336421612685
4038000000.0000005 0.8260324575328188 -0.6216563761015468
4041000000.0000005 0.8338620601048385 -0.6081739204956589
4043999999.9999995 0.8945514319802711 -0.5612198643485997
4046999999.9999995 0.9223412487643615 -0.5550287219990168
4050000000.0 0.8556216254349704 -0.6171603595280535
4053000000.0 0.7670310526538442 -0.5525295360459989
4056000000.0 0.8644468127478512 -0.5515185839569156
4059000000.0 0.8972105478134235 -0.5495697692585203
4062000000.0000005 0.8465637821198604 -0.5902290049922333
4066000000.0 0.8065622900213216 -0.5532969989570408
4069000000.0 0.8717898315476535 -0.6010544923833085
4072000000.0 0.8438634606045432 -0.5204838444577335
4075000000.0 0.8993484012711723 -0.5432148357218669
4078000000.0000005 0.8987592006047833 -0.5642819225966428
4081000000.0000005 0.9364231474575163 -0.4918461933197558
4083999999.9999995 0.845630980531314 -0.6071558319880754
4088000000.0 0.9245258183614876 -0.5204309061504047
4091000000.0 0.9362256226964106 -0.6258391661108733
4094000000.0000005 0.8801900487682567 -0.5657767714741915
4097000000.0000005 0.8719299159394671 -0.5703488682263899
4099999999.9999995 0.8918119839502067 -0.613558385454998
4102999999.9999995 0.8920133393020805 -0.552986918439293
4106000000.0 0.8645004038928548 -0.6347938775646274
4109000000.0 0.840912436703687 -0.5904855750297033
4112000000.0 0.8793841730667127 -0.5778495759815255
4115999999.9999995 0.8750889047951609 -0.5491861702387016
4119000000.0 0.8416037143379768 -0.64498761495097
4122000000.0 0.8303962878185042 -0.6235396337261959
4125000000.0 0.8230589952506543 -0.6315611157261221
4128000000.0 0.8183247563356584 -0.5385231049581123
4131000000.0 0.8595257295729191 -0.5475810710436987
4134000000.0000005 0.8590925642752365 -0.5670742614721459
4138000000.0 0.8417511294477263 -0.5441240470313968
4141000000.0 0.858214502604936 -0.5696061285824183
4144000000.0 0.8483846591467966 -0.5533030389722274
4147000000.0000005 0.8153363237483536 -0.6032197035892318
4150000000.0000005 0.9249367868790991 -0.5754400280068692
4152999999.9999995 0.8481568020104375 -0.6124703381141858
4155999999.9999995 0.8883860343618754 -0.5523286744540067
4159000000.0 0.8402048482424942 -0.5503955852246332
4162000000.0 0.8686985688186625 -0.5673483373858126
4166000000.0000005 0.8403249998733396 -0.5630067370160222
4168999999.9999995 0.8198916788274644 -0.6013444588597698
4171999999.9999995 0.83804445642371 -0.5668433669258415
4175000000.0 0.8440288154951502 -0.5705187362262395
4178000000.0 0.8590891313429647 -0.5975804244430107
4181000000.0 0.8461069857986523 -0.5502726420516579
4184000000.0 0.8751400285633478 -0.5521504151861905
4187999999.9999995 0.8762424321629237 -0.5636086777241395
4191000000.0 0.8472075973780009 -0.5622325178134092
4194000000.0 0.8130804271122181 -0.5587791966698176
4197000000.0 0.8374188952855993 -0.595005905455313
4200000000.0 0.8810188911020934 -0.557705821237113
4203000000.0000005 0.8666050752861144 -0.5580834870641419
4206000000.0000005 0.8470323277998487 -0.5862167703288436
4208999999.9999995 0.8472327708801974 -0.5117381225352906
4211999999.9999995 0.8461549091359231 -0.5706883621021994
4216000000.0 0.8418873729247683 -0.5596237977972276
4219000000.0000005 0.8735304531148513 -0.5553253091936032
4222000000.0000005 0.8699943444007807 -0.5961797064150548
4224999999.9999995 0.8344642865359676 -0.5607180292181504
4227999999.9999995 0.8787724023551661 -0.5670055222399013
4231000000.0 0.8513260836193972 -0.5782864238224654
4234000000.0 0.8695180770803241 -0.5631358420774873
4238000000.0000005 0.8443658695032873 -0.590281646880663
4240999999.9999995 0.839758104485504 -0.5853614328336685
4244000000.0 0.8546494180217772 -0.5519247870878542
4247000000.0 0.8751275732714285 -0.5603584291000805
4250000000.0 0.8517577763692779 -0.5610340125202801
4253000000.0 0.8032598956681385 -0.6047206522634274
4256000000.0 0.8047519588456078 -0.6134581603048861
4259000000.0000005 0.8455904057799137 -0.5611217441094984
4261999999.9999995 0.8413324434277746 -0.5971665757523139
4266000000.0 0.8735721947584381 -0.5775171908432862
4269000000.0 0.8711540107923953 -0.5581578931657346
4272000000.0000005 0.8163698827846635 -0.5620185073555883
4275000000.0000005 0.7996564848766757 -0.6420129488636321
4277999999.9999995 0.8449100338562159 -0.5760981535184826
4280999999.9999995 0.8677929970411896 -0.5754418984848756
4284000000.0 0.8604188071786607 -0.5835815631073619
4288000000.0000005 0.8515487058643749 -0.5524762229048291
4291000000.0000005 0.8322407299834973 -0.5646263078231321
4293999999.9999995 0.7656328313597721 -0.6314899567833964
4297000000.0 0.8343878374819738 -0.5587176237889399
4300000000.0 0.833299069032589 -0.5640269680462138
4303000000.0 0.835027182878572 -0.5784608070753998
4306000000.0 0.8520037720028599 -0.5487597516341142
4309000000.0 0.8525617131033284 -0.5393259208704421
4312000000.0 0.87406474150385 -0.5687095923074938
4316000000.0 0.8147210058345674 -0.6168180148114836
4319000000.0 0.8418086371691679 -0.5582620964096379
4322000000.0 0.7925358938580793 -0.5697411724821301
4325000000.0 0.820454211980652 -0.5529068018375488
4328000000.0 0.8096633650814822 -0.5677864699182334
4331000000.0 0.826699598760321 -0.594903000715308
4334000000.0 0.8463739352401276 -0.561475992459056
4338000000.0 0.8315324606227231 -0.5502683908676896
4341000000.0 0.8775185383793309 -0.554286046564403
4344000000.0 0.8553470181086994 -0.5592178623121645
4347000000.0 0.8436636334268848 -0.6030427660663576
4350000000.0 0.8207640256985711 -0.5350992615289094
4353000000.0 0.8131814546962307 -0.5535805032201808
4356000000.0 0.8347068527165321 -0.5819246497158486
4359000000.0 0.8320074618649915 -0.5356591957882704
4362000000.0 0.8047324097238264 -0.5915113496448635
4366000000.0 0.8372689112908579 -0.5628291645527825
4369000000.0 0.8068802002909463 -0.5500646094900323
4372000000.0 0.8213125592518704 -0.5800801305571948
4375000000.0 0.8436229318778803 -0.5652449013664584
4378000000.0 0.8398110551276748 -0.5576232058671874
4381000000.0 0.8595004628684884 -0.5529296027289553
4384000000.0 0.8534676504201664 -0.6273695032818597
4388000000.0 0.8323300061185989 -0.5335315851651765
4391000000.0 0.8390747749827172 -0.5817987148507888
4394000000.0 0.8157380642698723 -0.5509084723683548
4397000000.0 0.8255081098040418 -0.5655247722720682
4400000000.0 0.8661316678948587 -0.5675241343045314
4403000000.0 0.8379867006933923 -0.5804439158854697
4406000000.0 0.8295684116541409 -0.6094984591431623
4409000000.0 0.8520165853020798 -0.5904288772076882
4412000000.0 0.8065787315395309 -0.612996472548301
4416000000.0 0.8292168268592157 -0.5857638797211466
4419000000.0 0.8247436480409296 -0.5845649153082573
4422000000.0 0.847676065199926 -0.5516495939955282
4425000000.0 0.8768713223591115 -0.5592374454942176
4428000000.0 0.8161527110383616 -0.5827837196934587
4431000000.0 0.7912798777735448 -0.6441029576042645
4434000000.0 0.8344841280880293 -0.5902738884683076
4438000000.0 0.8515367459573132 -0.5830630089607497
4441000000.0 0.8549111838515568 -0.5795941384405888
4444000000.0 0.8112957328850834 -0.5591089062328641
4447000000.0 0.8254038212462654 -0.5812422300643753
4450000000.0 0.8304136077308865 -0.5516710944509682
4453000000.0 0.8450619129318734 -0.6100973270250686
4456000000.0 0.7939881814523362 -0.5757475650886029
4459000000.0 0.7768897478598521 -0.5832101753169808
4462000000.0 0.8741643197207578 -0.6171468157677056
4466000000.0 0.8558227046764839 -0.6038472772305257
4469000000.0 0.8353289151051149 -0.5727337344566422
4472000000.0 0.8309973977438678 -0.6196319461660633
4475000000.0 0.8188208133262659 -0.5537281894591178
4478000000.0 0.870047346038802 -0.623720200673491
4481000000.0 0.8113778968155388 -0.5964087543901738
4484000000.0 0.7874691426207571 -0.6120356463073962
4488000000.0 0.7949908192911218 -0.5879644489809264
4491000000.0 0.8343024613923837 -0.5935737759786309
4494000000.0 0.8211912017122959 -0.5858919633345535
4497000000.0 0.8221774278158446 -0.5668959225989024
4500000000.0 0.8466107612942332 -0.571392141281119
4503000000.0 0.8449460780494699 -0.6045623666157357
4506000000.0 0.7984976824063392 -0.5786607544737681
4509000000.0 0.7923672286625478 -0.5878856654676667
4512000000.0 0.8061090236877705 -0.5886856022428518
4516000000.0 0.8343395918845291 -0.5874162398602294
4519000000.0 0.8025250794751255 -0.5570294607913938
4522000000.0 0.808996322589148 -0.5914937977530926
4525000000.0 0.8331117192159752 -0.5504121130856732
4528000000.0 0.8399992708932883 -0.6165298901770705
4531000000.0 0.8293523222567147 -0.5795663842739186
4534000000.0 0.8140820717985106 -0.5674222776630807
4538000000.0 0.797690899759347 -0.5681547169004456
4541000000.0 0.8101681376973022 -0.6119309909118813
4544000000.0 0.78349207477288 -0.5620573307227926
4547000000.0 0.8227620810969157 -0.5630549502711117
4550000000.0 0.8143949791201455 -0.6058382755980976
4553000000.0 0.8226444840009575 -0.59666692774206
4556000000.0 0.7762622187114242 -0.5953752257356726
4559000000.0 0.804992939347158 -0.610680152352395
4562000000.0 0.8358880142588865 -0.5890569983803068
4566000000.0 0.8098004238615382 -0.6010425480254536
4569000000.0 0.783281595032107 -0.5636354215954443
4572000000.0 0.8186505694738984 -0.5739092996878481
4575000000.0 0.80437607774646 -0.6162396161745971
4578000000.0 0.8467314952583296 -0.5890045053913631
4581000000.0 0.8061628099838545 -0.6298267117616784
4584000000.0 0.7936782724408428 -0.5806753039294644
4588000000.0 0.8280916850747547 -0.5954061728796788
4591000000.0 0.8384372761256349 -0.5652007994450635
4594000000.0 0.8125366153213845 -0.6124495459437896
4597000000.0 0.8308302529045843 -0.6181788036853715
4600000000.0 0.7674729228311438 -0.6143160257349105
4603000000.0 0.8166694886522459 -0.6087296054161833
4606000000.0 0.79207352778803 -0.5941495502699149
4609000000.0 0.8017340702390678 -0.6057426315287231
4612000000.0 0.8243186604564994 -0.6147195714390148
4616000000.0 0.811624963074452 -0.5964917356362385
4619000000.0 0.8237540555429687 -0.5845026819981953
4622000000.0 0.8190983495838059 -0.5889789828957404
4625000000.0 0.7517512672580342 -0.5847898724623818
4628000000.0 0.7979076276703692 -0.5491033075758834
4631000000.0 0.7641603170158516 -0.6217095682669562
4634000000.0 0.7921224948872705 -0.5897377133277315
4638000000.0 0.8042249787012905 -0.6014779892337432
4641000000.0 0.8250561831042653 -0.5960664335249467
4644000000.0 0.7991572877885507 -0.6014924077504747
4647000000.0 0.808598521251628 -0.5961108067948788
4650000000.0 0.7917326329479248 -0.6184686880784552
4653000000.0 0.8275912064949105 -0.6068232536973484
4656000000.0 0.7833439513618865 -0.6341504827598845
4659000000.0 0.7997534535722595 -0.6005899145395391
4662000000.0 0.8000589140232187 -0.6112295349485175
4666000000.0 0.8042571715293965 -0.613571712148515
4669000000.0 0.8069254088068929 -0.5928940232094896
4672000000.0 0.7659233802418234 -0.6278539126787757
4675000000.0 0.7614194258762127 -0.6250297771033125
4678000000.0 0.7975816799018912 -0.5991833693671302
4681000000.0 0.7799984490675714 -0.6481743291299463
4684000000.0 0.7689479419005194 -0.6081002995322954
4688000000.0 0.7828978001180885 -0.6147657498012089
4691000000.0 0.8013973749615653 -0.6030813797627134
4694000000.0 0.7952241647557686 -0.6188864388341606
4697000000.0 0.7679077295347784 -0.6069532614207981
4700000000.0 0.7800055912812855 -0.6102652276075993
4703000000.0 0.7922537994987899 -0.6348683608219788
4706000000.0 0.7838036222212905 -0.628440772337721
4709000000.0 0.7618916505981511 -0.6274445567302239
4712000000.0 0.8074784330397436 -0.6175177309040392
4716000000.0 0.782010761831213 -0.6227607908636343
4719000000.0 0.8108603576648362 -0.6468671613820328
4722000000.0 0.8098710191761649 -0.6210179082262975
4725000000.0 0.802209538690486 -0.6338901292916536
4728000000.0 0.7735781394165724 -0.627555705545476
4731000000.0 0.8082160364196725 -0.6127816426741941
4734000000.0 0.7953329611682335 -0.6040566538728427
4738000000.0 0.7912962202422261 -0.6433464195230976
4741000000.0 0.8116054929675413 -0.6276713631819153
4744000000.0 0.7544279461675827 -0.6410910506522053
4747000000.0 0.7853325478509781 -0.6059257563882988
4750000000.0 0.7745481478253764 -0.6194321516918726
4753000000.0 0.7961232469271253 -0.6357942034314175
4756000000.0 0.7927955405725555 -0.6230098181333443
4759000000.0 0.7884929391523436 -0.6509930040176714
4762000000.0 0.8169028307924558 -0.6350550195461839
4766000000.0 0.7564056649222591 -0.6399107562087378
4769000000.0 0.7965123722644043 -0.6056680657979985
4772000000.0 0.7924860240909926 -0.643399111086773
4775000000.0 0.803906644836928 -0.644930017280447
4778000000.0 0.7999107547492346 -0.6171156069905606
4781000000.0 0.800700015630547 -0.615918117547894
4784000000.0 0.8245449079683037 -0.6064649062494373
4788000000.0 0.7798136297794548 -0.6715505823458239
4791000000.0 0.7604194332094769 -0.6572615004203927
4794000000.0 0.7911374276266399 -0.6282319725049232
4797000000.0 0.776749110740514 -0.6418635321025523
4800000000.0 0.7641028269029448 -0.6472429435496703
4803000000.0 0.7404276617200021 -0.6616285139188716
4806000000.0 0.764119412141191 -0.6470237415807609
4809000000.0 0.7677643608244149 -0.6491549869999572
4812000000.0 0.7684796290169057 -0.6626215084355269
4816000000.0 0.7801228695127002 -0.6271011833456821
4819000000.0 0.7870661136467854 -0.6525292390982058
4822000000.0 0.7995662058356554 -0.6524438551087535
4825000000.0 0.796804417123017 -0.6217283768640255
4828000000.0 0.7704751601929467 -0.638356528465172
4831000000.0 0.7702684752513969 -0.6806162608181674
4834000000.0 0.792904699420625 -0.6383980068585351
4838000000.0 0.7951834460635332 -0.6549826357091235
4841000000.0 0.7584423080661753 -0.6559229116664639
4844000000.0 0.8025017177254423 -0.6155888309558795
4847000000.0 0.7668812903257305 -0.6332250300560716
4850000000.0 0.7793528445345361 -0.683912311934599
4853000000.0 0.7931703015518499 -0.6548157218996403
4856000000.0 0.7700544801854614 -0.6373179638347564
4859000000.0 0.8115955581694254 -0.6807347092416727
4862000000.0 0.7755662858548942 -0.6355801072147991
4866000000.0 0.78635832107971 -0.6450837756173202
4869000000.0 0.7708127091935983 -0.6603630239667415
4872000000.0 0.7609064519178096 -0.6869077105353556
4875000000.0 0.8301941567065845 -0.6627181699877251
4878000000.0 0.789533618173063 -0.6519180624327998
4881000000.0 0.8222797264045842 -0.6962496783448562
4884000000.0 0.768903049583254 -0.6532140064835311
4888000000.0 0.8021481680607373 -0.6260949809652511
4891000000.0 0.7872212110057029 -0.6397744610701515
4894000000.0 0.7707378961570786 -0.6495069612657478
4897000000.0 0.8036425286545763 -0.6348401544706319
4900000000.0 0.7906323406886504 -0.6444356193569408
4903000000.0 0.7954304607658249 -0.6466316006542782
4906000000.0 0.792567613089898 -0.675261126321881
4909000000.0 0.776475183230575 -0.660324065623805
4912000000.0 0.799334278429321 -0.6952050413986572
4916000000.0 0.813061761057303 -0.630898572442887
4919000000.0 0.8100808275659169 -0.6463891692078225
4922000000.0 0.8207865965818937 -0.6538998622504009
4925000000.0 0.7701853925100755 -0.6559227720931465
4928000000.0 0.8095728339096503 -0.6212091559032228
4931000000.0 0.812940266202022 -0.6441391968644856
4934000000.0 0.7222625733477275 -0.666378001012713
4938000000.0 0.7702312665939643 -0.6917553752006886
4941000000.0 0.7629356359880827 -0.654906497104454
4944000000.0 0.7605898922316545 -0.6071330687319348
4947000000.0 0.7486876138400547 -0.6283142859197484
4950000000.0 0.7515337205385341 -0.6278242453367064
4953000000.0 0.7700323844900387 -0.6979968481022151
4956000000.0 0.756716809397048 -0.676406501006963
4959000000.0 0.7172588836103405 -0.6613785046283329
4962000000.0 0.7888083023232045 -0.6700749218049815
4966000000.0 0.8206361662650872 -0.6592008945512808
4969000000.0 0.8438297524579763 -0.6816952383348579
4972000000.0 0.7886279899939709 -0.704887687382786
4975000000.0 0.8175797907844206 -0.6423671898948401
4978000000.0 0.8219532987433348 -0.6736537300457145
4981000000.0 0.782959825303604 -0.6568863340389731
4984000000.0 0.773887565250577 -0.6510621058078989
4988000000.0 0.8017529682682865 -0.6366944141992329
4991000000.0 0.8408793430097264 -0.6370338185298892
4994000000.0 0.7645652863764325 -0.6716825200692076
4997000000.0 0.7796331130802661 -0.6800561112271839
5000000000.0 0.8139523013111921 -0.642592711244127
5003000000.0 0.8347874002389845 -0.6304698397679721
5006000000.0 0.8138296792007185 -0.7033751215195119
5009000000.0 0.8073505933849991 -0.6425833085401352
5012000000.0 0.741974317675313 -0.6621611612282272
5016000000.0 0.8450293180733118 -0.6704870958468406
5019000000.0 0.7599458770027934 -0.6874285483803899
5022000000.0 0.8015805968125796 -0.6594777569784226
5025000000.0 0.8662392036869954 -0.7266677090322506
5028000000.0 0.7728042440268288 -0.6743811464632847
5031000000.0 0.7837081368065157 -0.644970648540994
5034000000.0 0.777324654359424 -0.6893822828492155
5038000000.0 0.7575271622861356 -0.645178745234423
5041000000.0 0.8171230798448741 -0.5965067488669253
5044000000.0 0.8050343859691226 -0.625510396130683
5047000000.0 0.8209301858394309 -0.6875879126672508
5050000000.0 0.8546092660013546 -0.6022583277150648
5053000000.0 0.8484211946321984 -0.6941001664904504
5056000000.0 0.8109966470209603 -0.6184147088624682
5059000000.0 0.8328243922979616 -0.630490306160867
5062000000.0 0.8040419968175503 -0.6837853603580073
5066000000.0 0.7815389838519704 -0.6136261588240953
5069000000.0 0.8080144183936645 -0.6513488862827876
5072000000.0 0.7705197045595618 -0.6345062273716963
5075000000.0 0.8025229005448887 -0.6087271452869554
5078000000.0 0.7979772001365147 -0.6794211364461621
5081000000.0 0.7760117983696648 -0.6096180837536319
5084000000.0 0.8084729521537676 -0.6578972673942519
5088000000.0 0.7980053405192853 -0.6586956857969513
5091000000.0 0.7248965433360927 -0.6721313465385073
5094000000.0 0.7693981483981988 -0.6606684847605043
5097000000.0 0.8258950771911998 -0.6445873949813393
5100000000.0 0.8203052872016472 -0.6392523186858636
5103000000.0 0.7982613630774994 -0.6168100595444289
5106000000.0 0.8586704433530448 -0.6868473101433201
5109000000.0 0.8305944327068425 -0.6395224975826546
5112000000.0 0.7660916522893962 -0.6625577578275073
5116000000.0 0.7381262978147983 -0.633536241114029
5119000000.0 0.811534432395291 -0.6352686176460215
5122000000.0 0.8267134583895313 -0.6065826539568091
5125000000.0 0.783177184086762 -0.6523173845149555
5128000000.0 0.8150789795812842 -0.6404123061377583
5131000000.0 0.779791009386906 -0.6149983890745079
5134000000.0 0.7577662864345697 -0.6766341745731761
5138000000.0 0.7936507760042362 -0.654643614146511
5141000000.0 0.8465722363527436 -0.5896305524359797
5144000000.0 0.8515562620293635 -0.668644518306134
5147000000.0 0.816479280660245 -0.6705884502070092
5150000000.0 0.8411891262252457 -0.6262692113553123
5153000000.0 0.8013462190979661 -0.6061015934519243
5156000000.0 0.8749821513768542 -0.6658465266691406
5159000000.0 0.8491251987955931 -0.6661752619281944
5162000000.0 0.7973513155811852 -0.64798699388239
5166000000.0 0.7865798614604735 -0.667383626491932
5169000000.0 0.8201501607354316 -0.6820887343597828
5172000000.0 0.7994818021721719 -0.6153891516939769
5175000000.0 0.8536320565570433 -0.6584774468584449
5178000000.0 0.8073914828829741 -0.6532389313821574
5181000000.0 0.861798900185182 -0.6235829204890228
