! Created with skrf 1.8.0 (http://scikit-rf.org).
# Hz S RI R 50.0 
!freq ReS11 ImS11
4000000000.0 0.537796038932348 -0.858764775713507
4003000000.0 0.5606509398611145 -0.9005679960942781
4006000000.0 0.5205013466358175 -0.9130515082470599
4009000000.0000005 0.5187405930052447 -0.8716115137616486
4011999999.9999995 0.5916564916620292 -0.8477729497360894
4016000000.0 0.526778986200487 -0.8731717603369069
4019000000.0 0.5717122662860418 -0.8843287061796239
4022000000.0000005 0.6036865246940617 -0.8519134862788194
4025000000.0000005 0.5111070655701575 -0.8940691888909913
4027999999.9999995 0.5123599871746001 -0.9046604432441888
4030999999.9999995 0.5251240247434816 -0.8445451177191078
4034000000.0 0.4849920985620202 -0.8674005951445634
4038000000.0000005 0.5098894217710895 -0.9019843124981777
4041000000.0000005 0.531843072721679 -0.8522877004925695
4043999999.9999995 0.5826603659688158 -0.9635886062721302
4046999999.9999995 0.5868814132133442 -0.9225417685682014
4050000000.0 0.5005479289575273 -0.8737861355064345
4053000000.0 0.5127708524361749 -0.8976599939635376
4056000000.0 0.5122256179087373 -0.8730227276893964
4059000000.0 0.5555578394438418 -0.8891724539238947
4062000000.0000005 0.5206023578166157 -0.8822191317659089
4066000000.0 0.4713893276716712 -0.8348959504016814
4069000000.0 0.5474689494486508 -0.9295173077263137
4072000000.0 0.554418349680701 -0.9110354742097888
4075000000.0 0.6097345707806434 -0.8665641932776078
4078000000.0000005 0.5912597877562176 -0.8915330250052855
4081000000.0000005 0.622325867795176 -0.8505622344148166
4083999999.9999995 0.5535510322122975 -0.8936126617454409
4088000000.0 0.5843038267057534 -0.8737237942950243
4091000000.0 0.565439570062834 -0.9327884311381296
4094000000.0000005 0.5648424789207511 -0.8535890697300107
4097000000.0000005 0.543825891483975 -0.9024818883902597
4099999999.9999995 0.5521579919862525 -0.9062699870538685
4102999999.9999995 0.5840640207623574 -0.8762888203444812
4106000000.0 0.5459362154447495 -0.9085183518012906
4109000000.0 0.5246936793401897 -0.8953760027303215
4112000000.0 0.5527895937388247 -0.8778839854334917
4115999999.9999995 0.5829903126875673 -0.8991498566813712
4119000000.0 0.5198917305336108 -0.9088759101055691
4122000000.0 0.5081014705765297 -0.8830327670166398
4125000000.0 0.543999602392901 -0.9092022374917815
4128000000.0 0.5330801097913755 -0.8486940985096453
4131000000.0 0.5347429820711112 -0.865005944716649
4134000000.0000005 0.5009249148141969 -0.844077279865146
4138000000.0 0.5160461222683924 -0.8710123804141932
4141000000.0 0.545926361603675 -0.8543714288723732
4144000000.0 0.5557806512980819 -0.8783937076690297
4147000000.0000005 0.5431738795034362 -0.8646902940512033
4150000000.0000005 0.5746505868714614 -0.8930876833846361
4152999999.9999995 0.5486644505594044 -0.8560849018508471
4155999999.9999995 0.5802915450896214 -0.8865941084412636
4159000000.0 0.5337494700418849 -0.8648049053193854
4162000000.0 0.5200254793194907 -0.8664141942056096
4166000000.0000005 0.5387990655281474 -0.897866015538151
4168999999.9999995 0.5171668122984138 -0.8793300884624431
4171999999.9999995 0.5616470812196706 -0.8689779816106448
4175000000.0 0.5679502983757273 -0.8678487899686341
4178000000.0 0.5440845016844422 -0.858670527986542
4181000000.0 0.550968439198076 -0.886100982113182
4184000000.0 0.543309697462355 -0.8781281286462597
4187999999.9999995 0.550991515593818 -0.8658230251890726
4191000000.0 0.5889369590899765 -0.8368115235569165
4194000000.0 0.5641140442093222 -0.8567597655364236
4197000000.0 0.5403944227883989 -0.8868720788372924
4200000000.0 0.5572539773527906 -0.843395332852677
4203000000.0000005 0.5553928423198021 -0.87619357327422
4206000000.0000005 0.5493661723287105 -0.8870225097593014
4208999999.9999995 0.5483593395566864 -0.86212944835356
4211999999.9999995 0.528454678963879 -0.8660422841149841
4216000000.0 0.5631595485397951 -0.8610145074948167
4219000000.0000005 0.5504837161318379 -0.8664462158523764
4222000000.0000005 0.548499488268946 -0.8814594729136226
4224999999.9999995 0.5446082030970028 -0.8526794224263055
4227999999.9999995 0.5647916275564502 -0.8894124235183113
4231000000.0 0.5342924874722674 -0.8721247765628384
4234000000.0 0.5380284034755574 -0.8729691627944836
4238000000.0000005 0.5392419505189022 -0.8802196406376885
4240999999.9999995 0.5370978138385449 -0.855788612287738
4244000000.0 0.5494498065504996 -0.850018404763233
4247000000.0 0.5718887209429611 -0.858848157063695
4250000000.0 0.5266356222354676 -0.8688885917571885
4253000000.0 0.5312732455422923 -0.8644156084969045
4256000000.0 0.5419310111982921 -0.8939064588175636
4259000000.0000005 0.503747347034428 -0.8533606444568375
4261999999.9999995 0.5300295313774182 -0.8747897979049586
4266000000.0 0.5387901817992734 -0.8794795509085942
4269000000.0 0.5442923016544263 -0.8564344749474865
4272000000.0000005 0.537260522964404 -0.8683258948991921
4275000000.0000005 0.533801680366088 -0.8657128930424268
4277999999.9999995 0.5645892264007135 -0.8823054457573076
4280999999.9999995 0.5660241950472427 -0.8676729832542784
4284000000.0 0.5326145026782328 -0.8875792818583337
4288000000.0000005 0.590898820968946 -0.8401213122327853
4291000000.0000005 0.5496049416170895 -0.8535946504112529
4293999999.9999995 0.5251679266096221 -0.8636815842195669
4297000000.0 0.5680618739337784 -0.8298767184090775
4300000000.0 0.5452271810298017 -0.8451292786285951
4303000000.0 0.4929315089356022 -0.8688402356694033
4306000000.0 0.5833281241679227 -0.829036588315716
4309000000.0 0.5518419036418414 -0.8434221252602587
4312000000.0 0.5692700083549107 -0.878042751702364
4316000000.0 0.5767550139630452 -0.8785804448806255
4319000000.0 0.533832571227067 -0.8526309741317937
4322000000.0 0.5176344380919976 -0.8661284429604282
4325000000.0 0.5365990928698047 -0.8741362464387861
4328000000.0 0.5378228769533719 -0.8795156851140116
4331000000.0 0.550953182012265 -0.8877827056753588
4334000000.0 0.5399747793117667 -0.8800417163067045
4338000000.0 0.5456303039999285 -0.8670137027652514
4341000000.0 0.5846494564113965 -0.8591412553601391
4344000000.0 0.5643331127139947 -0.8620314034266914
4347000000.0 0.5211625254871713 -0.9049112513328726
4350000000.0 0.5162896039886025 -0.840066523954172
4353000000.0 0.5515330412316826 -0.8442964155579593
4356000000.0 0.5155703789834212 -0.8638810469306856
4359000000.0 0.5109906594825919 -0.8289918141553914
4362000000.0 0.47712262287587115 -0.8856130300690545
4366000000.0 0.5374254949536256 -0.881026994090858
4369000000.0 0.5166595487441201 -0.8380248370721954
4372000000.0 0.4984061582042063 -0.8684148279394968
4375000000.0 0.5355651846911476 -0.8525982153740227
4378000000.0 0.502744249464736 -0.843906950512792
4381000000.0 0.53003436789068 -0.837183901434343
4384000000.0 0.5701385497890576 -0.9132591955574445
4388000000.0 0.5307226042255913 -0.8511414981287863
4391000000.0 0.5312136786432204 -0.8505152917297675
4394000000.0 0.517496811636333 -0.8452238754220852
4397000000.0 0.5333563914255821 -0.8685296712880428
4400000000.0 0.5387998699385673 -0.8835619456010146
4403000000.0 0.5479447443233562 -0.8598312895142962
4406000000.0 0.5056111223656845 -0.8810933012235536
4409000000.0 0.5465206733045067 -0.8901834116170199
4412000000.0 0.4668570116354562 -0.8878923347440634
4416000000.0 0.5047469410093577 -0.8669583898413693
4419000000.0 0.5216681921027945 -0.8706820657282034
4422000000.0 0.534428799772821 -0.8527033324155866
4425000000.0 0.5586742772226927 -0.8651878463876281
4428000000.0 0.5170297431030437 -0.8826512971431532
4431000000.0 0.549387567364969 -0.8807739508942103
4434000000.0 0.5239702355441774 -0.8725257831787852
4438000000.0 0.5438689212597142 -0.8827956674173777
4441000000.0 0.5460053438467213 -0.8759671171233393
4444000000.0 0.5176259859509342 -0.8408297768529139
4447000000.0 0.5086533709619837 -0.8723223675166529
4450000000.0 0.5150088926356453 -0.8431184806074536
4453000000.0 0.538969363259274 -0.8867397252274994
4456000000.0 0.5139138032948638 -0.8484443566769309
4459000000.0 0.48973001644535247 -0.8378216638949079
4462000000.0 0.5354016969679588 -0.915047431495309
4466000000.0 0.5389614391445511 -0.8968640298849856
4469000000.0 0.5329182423071612 -0.8530974823125097
4472000000.0 0.5135392881652983 -0.8906892287603232
4475000000.0 0.4998313700528463 -0.8355846013073249
4478000000.0 0.5201920769716811 -0.9149688792682986
4481000000.0 0.49166437110171746 -0.8586902096900286
4484000000.0 0.4666300425701482 -0.8835624397324451
4488000000.0 0.4897970970084645 -0.8623338783758143
4491000000.0 0.5090413214846401 -0.8803605719934742
4494000000.0 0.5127346698220722 -0.8483671040160595
4497000000.0 0.5220898854955681 -0.8739881132710234
4500000000.0 0.5283672545242775 -0.8602906133796591
4503000000.0 0.531931356675192 -0.8829354404932118
4506000000.0 0.5019822896589495 -0.8525509555660411
4509000000.0 0.48953259777660596 -0.8591198735235063
4512000000.0 0.4978287125286929 -0.8424018736547954
4516000000.0 0.5179367912910046 -0.8775960575990179
4519000000.0 0.5133733845976575 -0.8490107883595426
4522000000.0 0.49996507979283267 -0.8891937925806984
4525000000.0 0.5311852009871919 -0.8462375049103994
4528000000.0 0.5155298443073657 -0.8954145206337594
4531000000.0 0.5199615597551867 -0.8540827517325491
4534000000.0 0.515266283337151 -0.8792276290339078
4538000000.0 0.5194059243359386 -0.8726689762009874
4541000000.0 0.4668621623593602 -0.8685827272144481
4544000000.0 0.5039834160183544 -0.8679629949859546
4547000000.0 0.543341855155896 -0.8452279250529287
4550000000.0 0.49893255942846215 -0.874302363373993
4553000000.0 0.5021384579489536 -0.8796834026191429
4556000000.0 0.46998123384703655 -0.8558162595574871
4559000000.0 0.5054775394801718 -0.8909373792599596
4562000000.0 0.5294946639727603 -0.8945806144477022
4566000000.0 0.5127848555589785 -0.875761592351647
4569000000.0 0.49089723336748875 -0.869518007269718
4572000000.0 0.503716769716458 -0.8807510924394806
4575000000.0 0.48543452504338114 -0.8804687096186983
4578000000.0 0.5198117762864473 -0.8870982741223572
4581000000.0 0.4802535988140805 -0.8853671151280379
4584000000.0 0.4894476506423969 -0.8881509568066159
4588000000.0 0.5125234852273987 -0.8817093960353031
4591000000.0 0.5035967068782969 -0.8796952649989929
4594000000.0 0.4783176963560442 -0.897261917790316
4597000000.0 0.4973139604373823 -0.8934352350270279
4600000000.0 0.47134246604041946 -0.8569943815427175
4603000000.0 0.5000875590501149 -0.8926707985724754
4606000000.0 0.49414330991769095 -0.9002462042970909
4609000000.0 0.4894947301181283 -0.8842698154598929
4612000000.0 0.49514394523176564 -0.8936841402394033
4616000000.0 0.48709224435764675 -0.8734299025936523
4619000000.0 0.48637356531427134 -0.876088857590261
4622000000.0 0.4959570391622235 -0.8756829377380773
4625000000.0 0.44770044745802384 -0.8510821899810808
4628000000.0 0.4952491754001983 -0.8760460176003847
4631000000.0 0.46431360622318285 -0.8792355268115157
4634000000.0 0.49162600974700554 -0.8839672603313536
4638000000.0 0.49786290449551773 -0.8881038952204442
4641000000.0 0.5071796890193556 -0.8819881230476242
4644000000.0 0.49256784073370935 -0.886424958193238
4647000000.0 0.49831400025168093 -0.8863004701432133
4650000000.0 0.48251629809708296 -0.8850766420346419
4653000000.0 0.5221075464096155 -0.8946668271438161
4656000000.0 0.4819970519590262 -0.9029042900208852
4659000000.0 0.4858469736392187 -0.8893951280377457
4662000000.0 0.4953480260871197 -0.8871544914210102
4666000000.0 0.47520274174057975 -0.8941648064338468
4669000000.0 0.4952651194177381 -0.8783382406452578
4672000000.0 0.48444711241528626 -0.9178267511426924
4675000000.0 0.45842636857383057 -0.8905129479100141
4678000000.0 0.46183407692861883 -0.870787448719643
4681000000.0 0.4643210348756601 -0.9029640634753091
4684000000.0 0.4762799916457875 -0.8892204735062575
4688000000.0 0.4612114219764361 -0.8816824078522771
4691000000.0 0.5135506856636881 -0.8801903523236952
4694000000.0 0.4889409009344162 -0.881826484863868
4697000000.0 0.4291389685101423 -0.8670699856493219
4700000000.0 0.5003275466467257 -0.8704223734282912
4703000000.0 0.49650709266374227 -0.8446500109442858
4706000000.0 0.4801883989085327 -0.9148703830698957
4709000000.0 0.470270987384717 -0.8966681715403256
4712000000.0 0.47763016931329755 -0.8944351439398588
4716000000.0 0.4816709405691113 -0.8955149446627493
4719000000.0 0.5122886594113482 -0.8603942834194755
4722000000.0 0.5012326090960587 -0.8995901792270069
4725000000.0 0.48384435756258865 -0.8932472142945682
4728000000.0 0.46993029073445053 -0.8806522357098086
4731000000.0 0.5049656037625115 -0.923896508878796
4734000000.0 0.47185805215529975 -0.8666277924951838
4738000000.0 0.5162553263440659 -0.9015676093074207
4741000000.0 0.4766670493469165 -0.9134010592818408
4744000000.0 0.4596040170710808 -0.9055779038409686
4747000000.0 0.4948348625294282 -0.8556012660313695
4750000000.0 0.48254699572240384 -0.9134116287637855
4753000000.0 0.498117935300022 -0.9151163888178002
4756000000.0 0.4702604058680309 -0.9111762100790398
4759000000.0 0.5077535946469419 -0.9047421787211808
4762000000.0 0.46819666498352774 -0.9407910145651004
4766000000.0 0.49961070568023636 -0.8936104776535688
4769000000.0 0.4934902662013818 -0.912509019632605
4772000000.0 0.4970160425040462 -0.8709020188870082
4775000000.0 0.4780201534533399 -0.9464602624254296
4778000000.0 0.4723952707197331 -0.9416661217832732
4781000000.0 0.46663797335056045 -0.8869185857605423
4784000000.0 0.49088551636813627 -0.8851085681668271
4788000000.0 0.4874637111530905 -0.9528779806360955
4791000000.0 0.4644974277406589 -0.9045786029728133
4794000000.0 0.5271138879370854 -0.9098609261166724
4797000000.0 0.46945129904185223 -0.9006734541922274
4800000000.0 0.44425039306500536 -0.8978868531151443
4803000000.0 0.4566433055869355 -0.9198746404865232
4806000000.0 0.49266339432324635 -0.9043433490885993
4809000000.0 0.42146435547716393 -0.919869559231754
4812000000.0 0.42896005664624326 -0.9241857083740391
4816000000.0 0.4887028707689402 -0.8804960240631575
4819000000.0 0.49871314167129605 -0.9211700186510114
4822000000.0 0.5373757772054807 -0.9203807035567845
4825000000.0 0.5068223570738074 -0.9172479560742562
4828000000.0 0.5010478723444889 -0.8907751822800213
4831000000.0 0.4503828787396275 -0.9261806157218877
4834000000.0 0.4921609347398389 -0.9065117270256389
4838000000.0 0.4850356988747655 -0.9433458302710198
4841000000.0 0.47688144187832004 -0.9079938492041513
4844000000.0 0.5087616138099716 -0.9064608429028906
4847000000.0 0.47473379097125645 -0.8644615329353185
4850000000.0 0.509185956980883 -0.9237566210772344
4853000000.0 0.4596423602607806 -0.8930006801713354
4856000000.0 0.47615724900027806 -0.9070773104351584
4859000000.0 0.49009505556156885 -0.9525874820507862
4862000000.0 0.490896514095796 -0.8864706621738326
4866000000.0 0.47414263862409484 -0.9395628918875673
4869000000.0 0.4666139771954942 -0.9287468353621023
4872000000.0 0.4655963815786587 -0.9502258949811784
4875000000.0 0.5572287041202453 -0.9052944959291388
4878000000.0 0.4903805880029038 -0.9075244939151268
4881000000.0 0.4816284066568992 -0.9705588438600239
4884000000.0 0.5000293297381035 -0.9066630954150083
4888000000.0 0.5258851222480636 -0.870266441949882
4891000000.0 0.5295062279070768 -0.9176504542361438
4894000000.0 0.47562897143178123 -0.9031877894375793
4897000000.0 0.516316854592328 -0.8679777672100824
4900000000.0 0.5139167572407676 -0.9370743570378208
4903000000.0 0.5080481237623926 -0.9067676496700066
4906000000.0 0.4752006056429204 -0.9112498032191978
4909000000.0 0.4756053715456292 -0.9171585505414708
4912000000.0 0.49992966365640196 -0.9547580770822606
4916000000.0 0.5124923372890813 -0.9330318488377942
4919000000.0 0.5355369576241195 -0.9554402628670338
4922000000.0 0.5423177595133833 -0.8981785056699937
4925000000.0 0.47106674568429097 -0.9324798556488645
4928000000.0 0.5214508337337144 -0.875787043875192
4931000000.0 0.5409734449706339 -0.8858181636859852
4934000000.0 0.4463553029070111 -0.873771319243254
4938000000.0 0.4323985960002318 -0.9532386090520093
4941000000.0 0.5070868526367944 -0.9070606295207262
4944000000.0 0.47942208094665756 -0.8449063791591804
4947000000.0 0.4907200600137042 -0.8918784744800772
4950000000.0 0.4763157342896397 -0.8775758230551151
4953000000.0 0.4592274530602088 -0.934046362942323
4956000000.0 0.4655082281174183 -0.9226914734280885
4959000000.0 0.4625142682269644 -0.8945335879938149
4962000000.0 0.48219049021854676 -0.9197693607407267
4966000000.0 0.5204341737172763 -0.9142550016647796
4969000000.0 0.5460139484658426 -0.9175218701300653
4972000000.0 0.47845370011400723 -0.9342670346591414
4975000000.0 0.5215497743150509 -0.864563863556012
4978000000.0 0.5069091581701572 -0.9021864520150464
4981000000.0 0.48592083913549666 -0.9117095930440784
4984000000.0 0.4825496929960124 -0.8919516142131598
4988000000.0 0.48845752867516723 -0.8690108281402962
4991000000.0 0.5318990143746904 -0.8977580105468096
4994000000.0 0.5184897061474095 -0.9065633166907987
4997000000.0 0.4450751017570205 -0.9455728743002549
5000000000.0 0.570657515207149 -0.9230226488926961
5003000000.0 0.5009441369895159 -0.9449927017724431
5006000000.0 0.5141871829265614 -0.9553114776320307
5009000000.0 0.5061821494097539 -0.9352882107292511
5012000000.0 0.48262779773090425 -0.9350974631390756
5016000000.0 0.5588330567978299 -0.9074221179483617
5019000000.0 0.5136526433655738 -0.8973350901964189
5022000000.0 0.5015132408153085 -0.9435786862045921
5025000000.0 0.5382093881102659 -0.9827372703334054
5028000000.0 0.47284974575275573 -0.9275443395780623
5031000000.0 0.4711121593738079 -0.9025427922741905
5034000000.0 0.46038450738156594 -0.9360583729435461
5038000000.0 0.43937703261444094 -0.8795613069648315
5041000000.0 0.5747328355770441 -0.9020400593237532
5044000000.0 0.54699161064759 -0.868276147962526
5047000000.0 0.5261373559819071 -0.9045645804095441
5050000000.0 0.5520931278512687 -0.8423178257082558
5053000000.0 0.5337089168016806 -0.9545402017577718
5056000000.0 0.5648690107134335 -0.9087376732633857
5059000000.0 0.5466413079635624 -0.9175914751336207
5062000000.0 0.49451478347183614 -0.9349540879102161
5066000000.0 0.5628927472181894 -0.8927470604599108
5069000000.0 0.5139970354967085 -0.9206749690345846
5072000000.0 0.502250911807432 -0.8985129284996838
5075000000.0 0.5419932103061735 -0.8836399300796391
5078000000.0 0.47539087684082576 -0.932176582067096
5081000000.0 0.4711485352812558 -0.8872696325951648
5084000000.0 0.5147290073511066 -0.9479922773869857
5088000000.0 0.5518876775010298 -0.8614584018830883
5091000000.0 0.5152865826338561 -0.9478109234937642
5094000000.0 0.497590853471758 -0.8681805819037295
5097000000.0 0.5658730312040106 -0.8729330990017528
5100000000.0 0.5176881310242734 -0.8683537179405201
5103000000.0 0.450718129135165 -0.9241554395022635
5106000000.0 0.5370511895224397 -0.9473523484228831
5109000000.0 0.5584726378500249 -0.9051054280216155
5112000000.0 0.5073402729101613 -0.9436917716690922
5116000000.0 0.514966877223152 -0.8850001019197047
5119000000.0 0.5223789026446908 -0.8592880097903972
5122000000.0 0.5207918153611721 -0.877397955708308
5125000000.0 0.5309943101983694 -0.8740649717709896
5128000000.0 0.4818619735747799 -0.9088683231554937
5131000000.0 0.5455136510327698 -0.8879522509465722
5134000000.0 0.523825839577122 -0.9046383511363727
5138000000.0 0.5429917240664222 -0.8912161229475704
5141000000.0 0.5633376466240363 -0.874203387103841
5144000000.0 0.551582253409462 -0.8711215769435501
5147000000.0 0.5579641469552749 -0.8920643640366887
5150000000.0 0.5819512936936744 -0.921865926077964
5153000000.0 0.5558407099227534 -0.8991543210441235
5156000000.0 0.5350784357052056 -0.9148748485449971
5159000000.0 0.5555287135399456 -0.9389532508748526
5162000000.0 0.4935190349300229 -0.8924613827696197
5166000000.0 0.4948971316092678 -0.9443737712296804
5169000000.0 0.5434465243043017 -0.9341581909412071
5172000000.0 0.5260105704377989 -0.8875438512488585
5175000000.0 0.5484064172023253 -0.9280689814394829
5178000000.0 0.5345716329291865 -0.900831030253459
