! Created with skrf 1.8.0 (http://scikit-rf.org).
# Hz S RI R 50.0 
!freq ReS11 ImS11
4000000000.0 0.5204666131809 -0.9009979857598174
4003000000.0 0.5453553215478407 -0.9619963168778123
4006000000.0 0.45994542823610485 -0.9027277517548157
4009000000.0000005 0.5241971027014305 -0.8975053011425639
4011999999.9999995 0.5845360478341679 -0.9126522976912299
4016000000.0 0.47819894630317944 -0.9432132880294681
4019000000.0 0.47321638811137 -0.9417791305625858
4022000000.0000005 0.5518403182489061 -0.855899878455693
4025000000.0000005 0.40550558926924907 -0.9375600172027556
4027999999.9999995 0.4618696652612624 -0.9074506255933927
4030999999.9999995 0.4874538427675683 -0.8830916756936661
4034000000.0 0.4885695455349477 -0.9052082240739956
4038000000.0000005 0.49016423743826953 -0.9728168400629145
4041000000.0000005 0.4589718077510376 -0.8696778778952461
4043999999.9999995 0.5167521744584592 -0.954389339966213
4046999999.9999995 0.5631277468680559 -0.9244154695093114
4050000000.0 0.47726758330350866 -0.9187424373952016
4053000000.0 0.4510499509899054 -0.9236703435716163
4056000000.0 0.5051148779418623 -0.914384071366839
4059000000.0 0.46741371770658835 -0.9062702241007969
4062000000.0000005 0.4754883508737158 -0.8977140962706579
4066000000.0 0.450577399059208 -0.8297179183662718
4069000000.0 0.4737480445659587 -0.9143981989846202
4072000000.0 0.5169313635773056 -0.8913637229290696
4075000000.0 0.5192057035485156 -0.9208368011771423
4078000000.0000005 0.5061859007740042 -0.9193114978988985
4081000000.0000005 0.5507175911591015 -0.9164575249452941
4083999999.9999995 0.4933691059065258 -0.9012770956658722
4088000000.0 0.5237796990602075 -0.8883939737483385
4091000000.0 0.5176989774833307 -0.991797590533
4094000000.0000005 0.4849345133613086 -0.8910205794979754
4097000000.0000005 0.5119926210121042 -0.9113566270158827
4099999999.9999995 0.48330145084496534 -0.933349178370809
4102999999.9999995 0.5083820669948443 -0.9105703917130362
4106000000.0 0.501968475288335 -0.95674425153123
4109000000.0 0.4609665978350724 -0.8973856107509958
4112000000.0 0.4928840959008546 -0.8893024373709681
4115999999.9999995 0.48269422992033323 -0.9061975626395197
4119000000.0 0.5141151880022252 -0.9338885630497685
4122000000.0 0.47230891153615123 -0.9440017470616655
4125000000.0 0.5111425907892174 -0.9254680302854794
4128000000.0 0.5000246866647917 -0.8581761059669749
4131000000.0 0.4535380595864517 -0.8792840416276854
4134000000.0000005 0.5252124647536189 -0.8996458794247598
4138000000.0 0.4792533229888145 -0.8749593277729928
4141000000.0 0.49812436899698415 -0.9055950044949187
4144000000.0 0.5022335136079725 -0.8933526831255831
4147000000.0000005 0.4931119747868493 -0.9407658406998336
4150000000.0000005 0.49490174236481926 -0.9070453566939695
4152999999.9999995 0.511292098600845 -0.9064211922607732
4155999999.9999995 0.518478853028792 -0.905513140137212
4159000000.0 0.5025323709139636 -0.8853584123431774
4162000000.0 0.49578598310706884 -0.8788595182458725
4166000000.0000005 0.49060525760969587 -0.8956783654249059
4168999999.9999995 0.48368595267621967 -0.8933350402210262
4171999999.9999995 0.5039418012981343 -0.9225354509831899
4175000000.0 0.5105976300126818 -0.9312931553154541
4178000000.0 0.5031603591219397 -0.9046079607287001
4181000000.0 0.519777907507036 -0.9346256945848148
4184000000.0 0.49422122409020064 -0.9046420728914983
4187999999.9999995 0.48167940402963716 -0.8718562204110111
4191000000.0 0.5216872658340238 -0.871009948086706
4194000000.0 0.48094782406689074 -0.8858441658688283
4197000000.0 0.4992999953293882 -0.8972529090798494
4200000000.0 0.5168241442963679 -0.895699172341741
4203000000.0000005 0.5189061611581669 -0.9096230422295971
4206000000.0000005 0.5026277755877975 -0.8868625666421618
4208999999.9999995 0.47408385458270963 -0.8719750440188192
4211999999.9999995 0.4548737465125827 -0.9180851077647996
4216000000.0 0.518596348565124 -0.8913986982559251
4219000000.0000005 0.5107513080673546 -0.8977046749300389
4222000000.0000005 0.4835963223044756 -0.9055230112100879
4224999999.9999995 0.4735230474464606 -0.8759107616774118
4227999999.9999995 0.504493818085881 -0.9143475627520012
4231000000.0 0.48600244763567035 -0.9082760255226475
4234000000.0 0.48151124304097304 -0.9078344070240989
4238000000.0000005 0.4711553286992195 -0.9117877564160146
4240999999.9999995 0.47057775383703104 -0.8941227946855318
4244000000.0 0.48957016733770437 -0.8959236675029083
4247000000.0 0.5042005903329864 -0.8845475499202108
4250000000.0 0.4659725215341449 -0.8847695689867033
4253000000.0 0.47840653181609727 -0.8780661674122642
4256000000.0 0.4927978629590081 -0.9171502768656254
4259000000.0000005 0.4683982656024893 -0.8796137555401145
4261999999.9999995 0.4552195450267974 -0.9144403579634471
4266000000.0 0.45239548142193675 -0.9230981646397702
4269000000.0 0.4954183599259356 -0.8703315910557706
4272000000.0000005 0.489763460407498 -0.8977945955396439
4275000000.0000005 0.49627257165088656 -0.904185881505434
4277999999.9999995 0.4818610120786846 -0.9213425672147202
4280999999.9999995 0.4952540843130694 -0.9002269029576097
4284000000.0 0.4565945778451849 -0.9234477712490055
4288000000.0000005 0.5120609961018426 -0.8722586081029682
4291000000.0000005 0.46939724372448444 -0.8975932460302047
4293999999.9999995 0.4613753825557689 -0.900212181074941
4297000000.0 0.5016094494196592 -0.8680267663493318
4300000000.0 0.4805955886956417 -0.8835775532149726
4303000000.0 0.45125363573424054 -0.9025924734923361
4306000000.0 0.5008551574063952 -0.8990746967740804
4309000000.0 0.49055604999333735 -0.9069098855165661
4312000000.0 0.52540455832062 -0.8870826600742717
4316000000.0 0.5190001687832069 -0.9056694492920384
4319000000.0 0.4680469341565369 -0.8977480661351069
4322000000.0 0.44848138220443334 -0.8883454684493441
4325000000.0 0.4898632391809611 -0.9104343431418723
4328000000.0 0.46757090206317176 -0.8969208972655335
4331000000.0 0.44944168272733376 -0.8835156363534657
4334000000.0 0.46328532693013746 -0.9107239581026233
4338000000.0 0.5234333363171133 -0.8718317781774697
4341000000.0 0.49970370855864155 -0.9043340917520369
4344000000.0 0.5088082316115113 -0.9064216740914914
4347000000.0 0.47199396661708026 -0.9179264660502608
4350000000.0 0.4652827809364671 -0.873122947476105
4353000000.0 0.48458782717959215 -0.8733896497151858
4356000000.0 0.44912318559880493 -0.8897225644762692
4359000000.0 0.4514449587957117 -0.8778521211625905
4362000000.0 0.4439758331116671 -0.9263839947175533
4366000000.0 0.4816916982212225 -0.9280294144420775
4369000000.0 0.4618789026565849 -0.8705867195203898
4372000000.0 0.43313668449851334 -0.9178763593930777
4375000000.0 0.47493705774346995 -0.8994357146695887
4378000000.0 0.4641410746221222 -0.8627115088578349
4381000000.0 0.4762477352120452 -0.8808465223039483
4384000000.0 0.48281008287404853 -0.963146252367078
4388000000.0 0.4656837384677432 -0.8785988196134901
4391000000.0 0.47123025407016184 -0.9137308225444565
4394000000.0 0.4389573214194511 -0.8725281136075221
4397000000.0 0.44883917644856286 -0.893548984890044
4400000000.0 0.46990774173435906 -0.9130971559490907
4403000000.0 0.4687287123321676 -0.9028701671662354
4406000000.0 0.4449030406455901 -0.912842465864231
4409000000.0 0.4657281257512675 -0.9343090143542012
4412000000.0 0.4069987703086467 -0.9121868388711587
4416000000.0 0.44425077871178253 -0.8948518416027996
4419000000.0 0.42714387507350265 -0.9225451936292791
4422000000.0 0.4677696759065837 -0.8898725581310222
4425000000.0 0.49116699982624784 -0.9168783473424984
4428000000.0 0.4469571040178808 -0.911173750513545
4431000000.0 0.46076300776772394 -0.9138638169251486
4434000000.0 0.43522172933517345 -0.9071215427458459
4438000000.0 0.4701711743334503 -0.9260650154871738
4441000000.0 0.4617712964321088 -0.9165606772598185
4444000000.0 0.45130123575149766 -0.8830008824077178
4447000000.0 0.44285602152455084 -0.9099859276371092
4450000000.0 0.464296205457436 -0.8831926156835856
4453000000.0 0.4583107865086213 -0.9276803111250472
4456000000.0 0.4343742951618289 -0.8898359353483456
4459000000.0 0.4099594751858676 -0.8920429852597043
4462000000.0 0.4735633091086235 -0.9687570433264643
4466000000.0 0.46396789265493 -0.9351368907917315
4469000000.0 0.48008289477846466 -0.9069119870477493
4472000000.0 0.43873949232372117 -0.9425994050227976
4475000000.0 0.4422589001841613 -0.8738899701908723
4478000000.0 0.456374208902021 -0.9694695325472773
4481000000.0 0.41568055831689493 -0.8920595933159732
4484000000.0 0.4031139235795188 -0.9469793804464381
4488000000.0 0.4326674665581444 -0.9044145743622038
4491000000.0 0.42949162892053655 -0.9231126122286506
4494000000.0 0.4433892946799967 -0.8776017024924168
4497000000.0 0.45672216672253774 -0.8885479723075562
4500000000.0 0.4411514478106591 -0.9019045423406512
4503000000.0 0.4496634441229211 -0.9300905598870839
4506000000.0 0.4378098833007842 -0.9154658256739092
4509000000.0 0.42547037148897393 -0.896360728820226
4512000000.0 0.412696073384107 -0.9155293500946848
4516000000.0 0.4488792400601065 -0.9232191544138565
4519000000.0 0.4326712421815446 -0.8931353206065353
4522000000.0 0.4353984615646987 -0.9161285650556683
4525000000.0 0.4707076151586246 -0.9071286322351999
4528000000.0 0.4470587743791419 -0.9411943370560567
4531000000.0 0.4534692205005 -0.9097044111590891
4534000000.0 0.4102983465273624 -0.9009105348687267
4538000000.0 0.42319317652492927 -0.9232306153291054
4541000000.0 0.4016510004096655 -0.9126343776521357
4544000000.0 0.42193283524523134 -0.9152848780541056
4547000000.0 0.4282075145551595 -0.90132429379763
4550000000.0 0.43015309908786625 -0.9279024942419934
4553000000.0 0.4193542578024074 -0.9342637520871175
4556000000.0 0.4122448685781272 -0.9024685939458428
4559000000.0 0.4186613721874696 -0.9121856809924319
4562000000.0 0.4414103493906034 -0.9404405170990583
4566000000.0 0.4235900924678492 -0.9332646352942852
4569000000.0 0.4142677526332597 -0.9026830373378167
4572000000.0 0.4332933852853452 -0.9249613944880467
4575000000.0 0.4044326362360154 -0.9113665321044238
4578000000.0 0.4475510457588845 -0.9313645690506227
4581000000.0 0.40504229287806853 -0.9199248909235608
4584000000.0 0.41945855494183604 -0.9236412475279678
4588000000.0 0.42917395452144014 -0.9331706151150846
4591000000.0 0.4348528520199937 -0.9194301765097515
4594000000.0 0.40229683128513577 -0.9438732878591811
4597000000.0 0.41644728279011717 -0.9312351274654312
4600000000.0 0.406022871786218 -0.9373340874329807
4603000000.0 0.4028636820296333 -0.925547660127142
4606000000.0 0.44009333756516933 -0.9448298504819287
4609000000.0 0.4118753347199017 -0.924005320247484
4612000000.0 0.4140633189967681 -0.9399482999390844
4616000000.0 0.401808864358511 -0.9125448000586266
4619000000.0 0.4242996451602319 -0.9107341693814416
4622000000.0 0.4022488631856128 -0.9353745977702288
4625000000.0 0.3965328536056809 -0.9209158124138596
4628000000.0 0.41600733870063655 -0.9351279538062033
4631000000.0 0.4049124193828802 -0.9199242321148765
4634000000.0 0.3998286157176911 -0.9220231158264341
4638000000.0 0.4181895563575394 -0.921549166423756
4641000000.0 0.4094598178123652 -0.9256064439658552
4644000000.0 0.40635255974260076 -0.9254782762641213
4647000000.0 0.41154361781700377 -0.9305812383887752
4650000000.0 0.4048419565877868 -0.9269244405068404
4653000000.0 0.42852567959463284 -0.9501099770251041
4656000000.0 0.41405819282463646 -0.9248711169458789
4659000000.0 0.39093348553531404 -0.934376390321172
4662000000.0 0.39597689461167296 -0.9311092543870298
4666000000.0 0.3865985642424309 -0.9474246644814842
4669000000.0 0.3901749117941258 -0.945022601036147
4672000000.0 0.3744360578392457 -0.9623028984870491
4675000000.0 0.4005137096781882 -0.94476656107474
4678000000.0 0.40584782604425873 -0.9078944291982205
4681000000.0 0.3845475815343985 -0.9711883666903216
4684000000.0 0.37541513442490165 -0.9652011396121193
4688000000.0 0.3627141685555057 -0.9322792992355535
4691000000.0 0.3959003547680406 -0.9548337630272837
4694000000.0 0.40552586169453086 -0.9468498291747405
4697000000.0 0.3680558969175003 -0.9012383709391361
4700000000.0 0.3890635664217718 -0.9195474641580684
4703000000.0 0.4092551401763409 -0.8866107086497739
4706000000.0 0.36340219239839666 -0.9491905266177958
4709000000.0 0.3605244951467087 -0.9352196031361468
4712000000.0 0.3923862901499549 -0.9319212343472656
4716000000.0 0.3940328307680697 -0.9492976301785774
4719000000.0 0.43165776840384706 -0.9285713518372205
4722000000.0 0.4037336884558223 -0.9181903748643985
4725000000.0 0.4200790633657369 -0.9132724534654019
4728000000.0 0.3847780781232571 -0.9353241999649644
4731000000.0 0.4331573223750241 -0.9727648944068004
4734000000.0 0.40789353039467435 -0.9023192049231762
4738000000.0 0.4261405820224776 -0.968462410245292
4741000000.0 0.3661776335411048 -0.9558868488478953
4744000000.0 0.39228073325481044 -0.9799811075953098
4747000000.0 0.37755038912633315 -0.9313635622621577
4750000000.0 0.3848347536369423 -0.9358756079427903
4753000000.0 0.36352129435926583 -0.9573152729864631
4756000000.0 0.4019342897302891 -0.9514111425514961
4759000000.0 0.3682984789163666 -0.9614805752642317
4762000000.0 0.37349463446010905 -0.9522651769738085
4766000000.0 0.37106708398274724 -0.9254909593073849
4769000000.0 0.39501267136235313 -0.9644078760225764
4772000000.0 0.4001733188724538 -0.9524772181647259
4775000000.0 0.3815067150620288 -0.9896267999269608
4778000000.0 0.40719016473229663 -0.9525274907166408
4781000000.0 0.4069285169169892 -0.9497010261200528
4784000000.0 0.3910183417659693 -0.9419361777703961
4788000000.0 0.36859467496751736 -1.0029437327045942
4791000000.0 0.36307905531841894 -0.9432388802104357
4794000000.0 0.4049102309170231 -0.9768649932749803
4797000000.0 0.3900406793508385 -0.939346634089197
4800000000.0 0.378066053746121 -0.9498723227414262
4803000000.0 0.32753875000089144 -0.950845646425282
4806000000.0 0.375148504324075 -0.9762067442720315
4809000000.0 0.33961441380758484 -0.9877383358605887
4812000000.0 0.3304386862552093 -0.9615646791734044
4816000000.0 0.403604438169579 -0.9209248017441289
4819000000.0 0.3871927938342643 -0.9729549394854442
4822000000.0 0.4341476667754298 -0.9864257203944892
4825000000.0 0.4099375700880326 -0.9670333134662932
4828000000.0 0.3722735856436177 -0.9550836592295091
4831000000.0 0.3486714828738862 -1.000140333717937
4834000000.0 0.4286130194115796 -0.9554054138176813
4838000000.0 0.36870777102602875 -0.9991899651363192
4841000000.0 0.3494992514066116 -0.9428176631671144
4844000000.0 0.4277109918472256 -0.9530586218964994
4847000000.0 0.3866132355032722 -0.9227973890293857
4850000000.0 0.3792009347253434 -0.9821917166837031
4853000000.0 0.3974057377755047 -0.9320946224393242
4856000000.0 0.3636153543569609 -0.9513529105099495
4859000000.0 0.39896769821353745 -0.9997823464367149
4862000000.0 0.396812212934593 -0.9468491974834274
4866000000.0 0.3757996172367108 -0.9875597687580026
4869000000.0 0.3816538995401015 -0.9551935811340788
4872000000.0 0.3637840714429187 -0.9903961893728312
4875000000.0 0.45870446932782905 -0.9614666141907889
4878000000.0 0.36424422852596366 -0.9694824652219151
4881000000.0 0.38509545023882613 -1.0110000485779325
4884000000.0 0.3816483931584398 -0.9644241070320652
4888000000.0 0.4015757171520051 -0.9247077014222888
4891000000.0 0.39155090565184736 -0.9344555169851511
4894000000.0 0.3521498223439582 -0.9334678246202281
4897000000.0 0.3744141521321772 -0.9481193266550547
4900000000.0 0.3904366888708226 -0.9775813448553621
4903000000.0 0.39277621612974334 -0.9349541816362665
4906000000.0 0.3892757671319239 -0.9560570252276354
4909000000.0 0.368364884133249 -0.9905885280901121
4912000000.0 0.35730262441074245 -1.0367101411459412
4916000000.0 0.4058847241661262 -0.9625322747828013
4919000000.0 0.40610151589772736 -0.9744254693362236
4922000000.0 0.42079442529526623 -0.9595053635577376
4925000000.0 0.314244430712489 -0.9661121431790539
4928000000.0 0.42856316105908515 -0.9264601649511369
4931000000.0 0.42390611596958006 -0.9313189278535139
4934000000.0 0.38440902384681774 -0.8981225107794428
4938000000.0 0.3317256694757345 -0.9844180337544093
4941000000.0 0.3705865127459075 -0.9563954802680419
4944000000.0 0.3517131344352554 -0.8830549199009853
4947000000.0 0.3891368878398217 -0.9559396785744521
4950000000.0 0.3677835213935784 -0.965361851959311
4953000000.0 0.37521689071446457 -1.0030718446183537
4956000000.0 0.3544349676403966 -0.9843541278898609
4959000000.0 0.35333526789760583 -0.9329440824924737
4962000000.0 0.37126761547955867 -0.9950469010167171
4966000000.0 0.4352484178990149 -0.9826955242693378
4969000000.0 0.4113874950989081 -0.9832596668813216
4972000000.0 0.38037126244459174 -0.9647195384318357
4975000000.0 0.4062419149761865 -0.922466695998009
4978000000.0 0.38442133346779095 -0.9733602305066557
4981000000.0 0.37815759372342767 -1.00071425533156
4984000000.0 0.37116004759336757 -0.9513180047495132
4988000000.0 0.3750971880524014 -0.9672792786749678
4991000000.0 0.44583329447185593 -0.9692269305672228
4994000000.0 0.41385990323686234 -0.9740824945991702
4997000000.0 0.3528894789582255 -0.9747452554564194
5000000000.0 0.41406806135694774 -0.9907331766491727
5003000000.0 0.41099939393216955 -0.9988766262884985
5006000000.0 0.398894825912158 -1.021994862052648
5009000000.0 0.3616764777788227 -0.9928763895094137
5012000000.0 0.36708178947315956 -0.9669778255585988
5016000000.0 0.39490043847158524 -0.986140171180298
5019000000.0 0.34236551032599233 -0.9711355782225751
5022000000.0 0.38887302643014154 -0.9428907773303459
5025000000.0 0.38483200420374214 -1.0220097344447685
5028000000.0 0.3742609715401185 -0.9714758298596797
5031000000.0 0.3408853816191679 -0.9425704815710308
5034000000.0 0.33221458751981925 -1.000558161920711
5038000000.0 0.3665124110009902 -0.9749061083735302
5041000000.0 0.4108253059745775 -0.9577460121199441
5044000000.0 0.41839065894691435 -0.9288923339842939
5047000000.0 0.4060523044652704 -0.971256435689845
5050000000.0 0.4521406450094757 -0.9308218835164743
5053000000.0 0.3865571947036239 -1.0356142337290506
5056000000.0 0.42327297881784953 -0.9455453632585851
5059000000.0 0.414312131081057 -0.9865649982538791
5062000000.0 0.3112828286349774 -0.9818863685834527
5066000000.0 0.4320522880904485 -0.944153136439499
5069000000.0 0.40983258376892384 -0.9738953530691226
5072000000.0 0.39081570522578485 -0.9474746652879085
5075000000.0 0.4130826753368871 -0.9564547128241856
5078000000.0 0.3428714241747512 -1.004763600303032
5081000000.0 0.3406180896905082 -0.9756188413721067
5084000000.0 0.3833076942976597 -0.9801991609111678
5088000000.0 0.42103226955024026 -0.9119331498126313
5091000000.0 0.3552093511189234 -0.9585739626306675
5094000000.0 0.380913416359222 -0.9720777186646151
5097000000.0 0.43191921547298934 -0.936089813829189
5100000000.0 0.3733657755347998 -0.9638729718324066
5103000000.0 0.4018765189231802 -0.9326056595101011
5106000000.0 0.43634946004187514 -0.9793819847555445
5109000000.0 0.447907732761007 -0.9308534774728796
5112000000.0 0.3940188184053696 -0.9613120322549051
5116000000.0 0.3451768377281743 -0.9368267871205764
5119000000.0 0.3887213835998408 -1.0045590795614263
5122000000.0 0.40513229987498733 -0.9559904648547222
5125000000.0 0.3916157060429347 -0.971180854453921
5128000000.0 0.3856964716669169 -0.9602876386717245
5131000000.0 0.42176040500357487 -0.9543209497410592
5134000000.0 0.39924064613799426 -0.9415126702666383
5138000000.0 0.39504148473393164 -0.985714455046738
5141000000.0 0.43114056612550367 -0.9485618363798614
5144000000.0 0.4027023960464081 -0.974603510541818
5147000000.0 0.4129819262823391 -0.9950810005755326
5150000000.0 0.4269514616370032 -0.9646592324084633
5153000000.0 0.39646501850955873 -0.9898947616077912
5156000000.0 0.4425317038551313 -0.9340605064250178
5159000000.0 0.45342899529652664 -1.0059753111039953
5162000000.0 0.37237245032942684 -0.9830191090667538
5166000000.0 0.378844669450874 -0.95438463502073
5169000000.0 0.4207520179663812 -0.9988295562064868
5172000000.0 0.4166830775574859 -0.9228547458640632
