! Created with skrf 1.8.0 (http://scikit-rf.org).
# Hz S RI R 50.0 
!freq ReS11 ImS11
4000000000.0 0.5730852552403659 -0.8086436903046087
4003000000.0 0.6437906343638867 -0.9346042899201397
4006000000.0 0.5038814844467521 -0.9099474935705286
4009000000.0000005 0.5408915800873408 -0.8799125422865453
4011999999.9999995 0.6117899330568074 -0.8555770760808963
4016000000.0 0.5298984941510898 -0.8824661480508824
4019000000.0 0.5322729363949942 -0.8755166875120821
4022000000.0000005 0.6149857246533589 -0.8700810865277829
4025000000.0000005 0.4999754819928165 -0.8944629383964897
4027999999.9999995 0.5561692238415459 -0.887592132649791
4030999999.9999995 0.5536389880118431 -0.8396501410912208
4034000000.0 0.5391143923639459 -0.883505799401018
4038000000.0000005 0.520322816707413 -0.8831542179154048
4041000000.0000005 0.5272294544971551 -0.8849509760423201
4043999999.9999995 0.5493809564207591 -0.9312742242489178
4046999999.9999995 0.5765552443792583 -0.897879690894905
4050000000.0 0.5142250633550397 -0.9081123640096147
4053000000.0 0.5101563495873358 -0.8709380129928393
4056000000.0 0.5459853638996026 -0.9005081237337257
4059000000.0 0.5856591021284975 -0.8483023773041762
4062000000.0000005 0.501065616809306 -0.8860572944686098
4066000000.0 0.5056228306638196 -0.8092723489319171
4069000000.0 0.5167667238456162 -0.9142358036489656
4072000000.0 0.5533635361965683 -0.8366811342203504
4075000000.0 0.6045229836854739 -0.8763296689438779
4078000000.0000005 0.5183066462735748 -0.895872329641791
4081000000.0000005 0.568271405128848 -0.8694924103470276
4083999999.9999995 0.5080330637449989 -0.9004064801208276
4088000000.0 0.5567988920281014 -0.8335466087310421
4091000000.0 0.5657555146918627 -0.9027440833328852
4094000000.0000005 0.5893675795402206 -0.8675952725987229
4097000000.0000005 0.5404204426729997 -0.8501394492334398
4099999999.9999995 0.5459435707330441 -0.8452984656125354
4102999999.9999995 0.5921704198397523 -0.8761167425718295
4106000000.0 0.565755071741524 -0.904167515782179
4109000000.0 0.5290320894516893 -0.9228928718349216
4112000000.0 0.5058095880278832 -0.8927977544958541
4115999999.9999995 0.5555107063860307 -0.8672731167967904
4119000000.0 0.5516082074958377 -0.8979992087885953
4122000000.0 0.5342309657562161 -0.8963549763749811
4125000000.0 0.5025992367158862 -0.9057930262914343
4128000000.0 0.5486462182414817 -0.8494587529895208
4131000000.0 0.5584396404103295 -0.8671224319894463
4134000000.0000005 0.5527253219147527 -0.8503959350260498
4138000000.0 0.5203568057729226 -0.8829490931963812
4141000000.0 0.537254848959917 -0.8657344922537986
4144000000.0 0.5862869835895591 -0.8850136727688259
4147000000.0000005 0.5517363843379756 -0.8880489980909175
4150000000.0000005 0.5751850325172582 -0.9119176918553528
4152999999.9999995 0.5321236754971571 -0.851426997858377
4155999999.9999995 0.5557147795935277 -0.8788423995092084
4159000000.0 0.5481358469401721 -0.8351727811921025
4162000000.0 0.5647125870557548 -0.8571929684563722
4166000000.0000005 0.5665850811254487 -0.8820545060372769
4168999999.9999995 0.5267064333633186 -0.9004680439882736
4171999999.9999995 0.5627879515112137 -0.8723859714239116
4175000000.0 0.5556394429893383 -0.8805076778241254
4178000000.0 0.55767353466483 -0.8815682900898718
4181000000.0 0.5378878639488304 -0.8944072640873922
4184000000.0 0.573818202482076 -0.8485039803721224
4187999999.9999995 0.5257984442167645 -0.8738249296278251
4191000000.0 0.5685515217758944 -0.8442229786272426
4194000000.0 0.524705360316928 -0.846723342926121
4197000000.0 0.5555702454038385 -0.8836365575182036
4200000000.0 0.5597645509631416 -0.8581619193280385
4203000000.0000005 0.574544461933338 -0.8618407493227189
4206000000.0000005 0.5719000586548547 -0.8836316904289477
4208999999.9999995 0.5478168324273966 -0.826231448026259
4211999999.9999995 0.5212983622943292 -0.873595244801201
4216000000.0 0.5499353624569707 -0.8689913551245194
4219000000.0000005 0.5645929024534976 -0.8716974509523596
4222000000.0000005 0.5525931009159908 -0.8784234141805394
4224999999.9999995 0.5614500445653009 -0.86212509080832
4227999999.9999995 0.5450423613153179 -0.8742561568692401
4231000000.0 0.5366349985725305 -0.853062019571219
4234000000.0 0.5460262022678647 -0.8696657365596681
4238000000.0000005 0.5322485272817673 -0.8753346016955861
4240999999.9999995 0.5399266874083929 -0.8535781445540476
4244000000.0 0.5575308967124204 -0.8556139184075586
4247000000.0 0.5556196282261223 -0.8548070627013744
4250000000.0 0.5511928420422987 -0.8391257231556085
4253000000.0 0.5346436892847878 -0.8386996598038908
4256000000.0 0.5438842368607149 -0.8759972988909559
4259000000.0000005 0.5321473543821684 -0.8460058306612018
4261999999.9999995 0.5219429813154198 -0.8537568544946526
4266000000.0 0.5458972016048029 -0.8623224996529071
4269000000.0 0.553070638086017 -0.8483757619063448
4272000000.0000005 0.5526790905943568 -0.8316781075025472
4275000000.0000005 0.5471829747419286 -0.8591167879890876
4277999999.9999995 0.5552289455421554 -0.8734712954154338
4280999999.9999995 0.5455783606551459 -0.8474411332106997
4284000000.0 0.5309125420401497 -0.8768884945491452
4288000000.0000005 0.5653620624442197 -0.8556393791430972
4291000000.0000005 0.5378192999934333 -0.8259016561184295
4293999999.9999995 0.5468036542434539 -0.8533955091233626
4297000000.0 0.5666532772434997 -0.8283190792183276
4300000000.0 0.5248906443199153 -0.8349875923002706
4303000000.0 0.5495520831230039 -0.8377199908260294
4306000000.0 0.5773130759793177 -0.8446482518443387
4309000000.0 0.5439472084917479 -0.8434906972439755
4312000000.0 0.5961772424634395 -0.8541407758813705
4316000000.0 0.5632855353466442 -0.8264608856282388
4319000000.0 0.548455900846961 -0.8318128786414651
4322000000.0 0.5372344685344519 -0.8546960543081533
4325000000.0 0.5716194125489281 -0.8548230974959387
4328000000.0 0.5274776441703225 -0.8647597510842097
4331000000.0 0.5287183702711864 -0.8599832335629589
4334000000.0 0.5352879130574133 -0.8853672090341033
4338000000.0 0.5633235768431126 -0.8443770454963587
4341000000.0 0.5822744579880492 -0.8494684130031829
4344000000.0 0.5551714899514448 -0.8726818291340912
4347000000.0 0.5304531066112076 -0.8733013344438539
4350000000.0 0.5251503648720987 -0.8316782326923413
4353000000.0 0.5429022448968513 -0.8242586482217786
4356000000.0 0.5445056412847532 -0.8586694798304024
4359000000.0 0.5182014330370082 -0.8053101771964091
4362000000.0 0.4795750120130454 -0.8937179126489967
4366000000.0 0.5507983560975462 -0.8867531000681935
4369000000.0 0.5347762880612947 -0.841536867400644
4372000000.0 0.4969839385201161 -0.8729688536534319
4375000000.0 0.5463167398023389 -0.8361332272741568
4378000000.0 0.5181504724297544 -0.8328748889980593
4381000000.0 0.5475721261636612 -0.8290844453911898
4384000000.0 0.5804664169199893 -0.9054524576711681
4388000000.0 0.5381651514820481 -0.8362185108630523
4391000000.0 0.55831704632552 -0.8596587714838565
4394000000.0 0.5160757895323619 -0.8423229553363987
4397000000.0 0.523903166407727 -0.8529728141077753
4400000000.0 0.5463714139719562 -0.8810331532433533
4403000000.0 0.5508656220960086 -0.8515381553119095
4406000000.0 0.5179309512010183 -0.8790658337598072
4409000000.0 0.5478292726451626 -0.892862028628419
4412000000.0 0.481671343083201 -0.8689006835945554
4416000000.0 0.5094892188701803 -0.8557824543776043
4419000000.0 0.520050140258635 -0.8715919067669633
4422000000.0 0.5454040966365176 -0.8538673049154447
4425000000.0 0.558894124123823 -0.8624896793434589
4428000000.0 0.5237048441435297 -0.8545717503169519
4431000000.0 0.5458781461900478 -0.8909934901126776
4434000000.0 0.5375405129290813 -0.8551093199677591
4438000000.0 0.5567407136821021 -0.8846132406432943
4441000000.0 0.5464214752274414 -0.8652887533646464
4444000000.0 0.518646491111565 -0.8301068177652037
4447000000.0 0.5183862257265983 -0.8639750118524543
4450000000.0 0.5405710189609254 -0.8385374482576798
4453000000.0 0.5501454857398118 -0.8695420526096785
4456000000.0 0.5137728692445019 -0.8480407733002564
4459000000.0 0.4922313128663092 -0.8348916621380384
4462000000.0 0.5455919700545081 -0.9047899874245895
4466000000.0 0.5644464940687871 -0.9140430928372554
4469000000.0 0.5394470018575862 -0.8594927176527771
4472000000.0 0.5096185799250216 -0.9089634794140211
4475000000.0 0.5195738454147909 -0.833679942758413
4478000000.0 0.5275065826563603 -0.9151947603045318
4481000000.0 0.49822710291164474 -0.8493143899496802
4484000000.0 0.4884647921532602 -0.8744872155940734
4488000000.0 0.5037804824256443 -0.8626917748104634
4491000000.0 0.5226224149749829 -0.8707803468144892
4494000000.0 0.5274318323697113 -0.8552817738017505
4497000000.0 0.5099438878115626 -0.8416403865991757
4500000000.0 0.5410814574798926 -0.8648719512315267
4503000000.0 0.5346613499982243 -0.8855343062001931
4506000000.0 0.49779677308256953 -0.8627691141155516
4509000000.0 0.5109496173666487 -0.8597780423530481
4512000000.0 0.49905719702576956 -0.849148477931774
4516000000.0 0.5535202219985674 -0.8778128152971423
4519000000.0 0.5262737370203172 -0.8279337561538724
4522000000.0 0.524722945027038 -0.8639175374745263
4525000000.0 0.5421638300556268 -0.8379234737200034
4528000000.0 0.543563654628026 -0.8891905177294954
4531000000.0 0.5571332991351184 -0.8662374358544089
4534000000.0 0.5084444117667001 -0.8700224332394778
4538000000.0 0.5304176577092116 -0.8618615133321295
4541000000.0 0.4829453611067085 -0.869438182476123
4544000000.0 0.516465633378649 -0.8598805133363642
4547000000.0 0.5276760070791545 -0.8530924784544331
4550000000.0 0.5043031929178259 -0.8823431499001475
4553000000.0 0.5090414060288507 -0.8665231447979443
4556000000.0 0.5006113450740497 -0.8830440234799086
4559000000.0 0.4760399899279453 -0.8747342816350956
4562000000.0 0.5528654642824324 -0.8985511770689651
4566000000.0 0.5031523512689006 -0.8798293277780533
4569000000.0 0.5090443479804462 -0.8655168997098441
4572000000.0 0.5020302946403206 -0.8679882534366778
4575000000.0 0.487229534453663 -0.8878439767062944
4578000000.0 0.5292825536020261 -0.8925099923987102
4581000000.0 0.5086383114029354 -0.8922060614874059
4584000000.0 0.4982803632070885 -0.8649136769758641
4588000000.0 0.5387084770122688 -0.8848830199444551
4591000000.0 0.5189797948583814 -0.8498515182714013
4594000000.0 0.4857723232059227 -0.8676105548153548
4597000000.0 0.5179168325308989 -0.8743559204758555
4600000000.0 0.4845871509858762 -0.8702901731180999
4603000000.0 0.5099131943620618 -0.8967524811011431
4606000000.0 0.5019145122699307 -0.8894391137389935
4609000000.0 0.49257794194153004 -0.8674645918879377
4612000000.0 0.5053932743393232 -0.8763604594345896
4616000000.0 0.4899610882363893 -0.8680779931636085
4619000000.0 0.5188757322151121 -0.8683531477417487
4622000000.0 0.5131504792848348 -0.8820463473384972
4625000000.0 0.4653121330546719 -0.8412114813995257
4628000000.0 0.4920128348528549 -0.8577380014188271
4631000000.0 0.48574028774098044 -0.8701362292158169
4634000000.0 0.49838468662454694 -0.8853947683361741
4638000000.0 0.5048599515380962 -0.8850948065169052
4641000000.0 0.5003755037300062 -0.8750314723209194
4644000000.0 0.4944629144753583 -0.8904969000247255
4647000000.0 0.5146496750137345 -0.880005081521392
4650000000.0 0.4908302512141366 -0.8861433036571696
4653000000.0 0.5232228968172331 -0.8900305590332767
4656000000.0 0.5092096660911656 -0.8888719215733487
4659000000.0 0.48718993797053955 -0.881904363632276
4662000000.0 0.49714954203999456 -0.8709282668262671
4666000000.0 0.49954348249179 -0.8810046826402221
4669000000.0 0.49415817184586786 -0.8848731490846717
4672000000.0 0.4908807627944378 -0.9073552167759512
4675000000.0 0.4736665586880187 -0.8973264376586926
4678000000.0 0.481790030226078 -0.8771541404537332
4681000000.0 0.4891055439325552 -0.8892674926855609
4684000000.0 0.46080210376862757 -0.898270460642899
4688000000.0 0.45060558158887526 -0.8863823765888836
4691000000.0 0.5164791480955905 -0.8817898111413112
4694000000.0 0.5044358300418732 -0.8741182765216242
4697000000.0 0.46883559895146587 -0.8720710956156289
4700000000.0 0.5250138795907933 -0.8636381686417469
4703000000.0 0.5070046564036147 -0.8463345247909324
4706000000.0 0.4903837951003643 -0.8966376945680081
4709000000.0 0.44826742986373563 -0.8887616135047881
4712000000.0 0.49643438117567595 -0.8937163527776814
4716000000.0 0.4904259024432276 -0.9009778756130913
4719000000.0 0.5002381713269336 -0.8889482734943148
4722000000.0 0.517675471090864 -0.8706314630863268
4725000000.0 0.5134687771816528 -0.8727369029764122
4728000000.0 0.4971533292600986 -0.8839761239194199
4731000000.0 0.5236869351435259 -0.9085293023650005
4734000000.0 0.5088534166366031 -0.8697278381481125
4738000000.0 0.5457330864115082 -0.9064760002689837
4741000000.0 0.503922582087666 -0.901744391553636
4744000000.0 0.497308044117174 -0.9050932727775991
4747000000.0 0.5158408028640317 -0.8346361377382109
4750000000.0 0.47933488169167104 -0.8945508759726226
4753000000.0 0.49575983605367285 -0.8850091837044962
4756000000.0 0.48453226419918194 -0.898839659844895
4759000000.0 0.5256831823863463 -0.8898346415401643
4762000000.0 0.49431647061727013 -0.9194218858323542
4766000000.0 0.48640066036561036 -0.8974478595066008
4769000000.0 0.5355883550465059 -0.9008813103708249
4772000000.0 0.5090185945975116 -0.9117716617467264
4775000000.0 0.5110300482853166 -0.9580039435932092
4778000000.0 0.5123606258797695 -0.8855130515335274
4781000000.0 0.5169225062053775 -0.8921412879529629
4784000000.0 0.49767894724450346 -0.8570080407023841
4788000000.0 0.4630561241037473 -0.910344727216296
4791000000.0 0.47088421118908547 -0.8924998143783373
4794000000.0 0.5173327053044461 -0.899717513796114
4797000000.0 0.4896544598812977 -0.8898226011933766
4800000000.0 0.4738663339207234 -0.9128132659724816
4803000000.0 0.4610801491753933 -0.9204147844358912
4806000000.0 0.5111961740740881 -0.9181531494324692
4809000000.0 0.4370017560069844 -0.9119760035104918
4812000000.0 0.4698899938063883 -0.9154264516248557
4816000000.0 0.5032697464205472 -0.8882928479489661
4819000000.0 0.5122949961236558 -0.9003813064974405
4822000000.0 0.511162531749337 -0.9204353565781017
4825000000.0 0.5396093496442653 -0.8974999220026719
4828000000.0 0.5156253974967674 -0.8969042441084825
4831000000.0 0.44929174524947413 -0.9538344801788303
4834000000.0 0.5059313609300116 -0.8955245128376975
4838000000.0 0.4762552732015833 -0.9369013263148944
4841000000.0 0.4766056546415036 -0.910775461652451
4844000000.0 0.5281047612714558 -0.8866524038911833
4847000000.0 0.49683420274795015 -0.8584117628288827
4850000000.0 0.4884813846047801 -0.9375573334000631
4853000000.0 0.49648882517560844 -0.8819040670983355
4856000000.0 0.48345595477390957 -0.8661323014803871
4859000000.0 0.5183259962878315 -0.932886218635848
4862000000.0 0.5095886733946231 -0.8474149950016017
4866000000.0 0.48406696853274556 -0.9295271357199598
4869000000.0 0.4822496947942406 -0.9113625376019697
4872000000.0 0.4965300863501313 -0.933361989323633
4875000000.0 0.5681217338095594 -0.8980939062017095
4878000000.0 0.514379653098132 -0.9245146868164359
4881000000.0 0.5023747807806949 -0.9618718532224619
4884000000.0 0.5077200963238608 -0.9301089966065801
4888000000.0 0.5311095575623435 -0.87823924859507
4891000000.0 0.5371232292723926 -0.931371255126667
4894000000.0 0.4881674239235284 -0.880718623546825
4897000000.0 0.5147469224626386 -0.879134954449661
4900000000.0 0.521591076789249 -0.91982647367705
4903000000.0 0.4904137179830722 -0.910989687954368
4906000000.0 0.49833186462159984 -0.9263283565869717
4909000000.0 0.503714188957836 -0.9017151412799225
4912000000.0 0.48106870449205286 -0.9429721290280277
4916000000.0 0.5373394673652636 -0.9240141240470694
4919000000.0 0.541352317156539 -0.9019189922591907
4922000000.0 0.5067464482672241 -0.9174074065385489
4925000000.0 0.47926469645593045 -0.9189285631896534
4928000000.0 0.5301057915235242 -0.8493631329575996
4931000000.0 0.5610585346968645 -0.9097570430529027
4934000000.0 0.49733140354098343 -0.8735620933340869
4938000000.0 0.46758648617334136 -0.9281411292633448
4941000000.0 0.495393509456615 -0.8989222638233632
4944000000.0 0.49724281465836784 -0.8144946626410621
4947000000.0 0.5076131498052648 -0.8600368173919819
4950000000.0 0.5046467627813778 -0.8792697490599264
4953000000.0 0.48144021815623783 -0.9374808781886735
4956000000.0 0.48952565197928316 -0.9070841944192319
4959000000.0 0.4797471910620861 -0.8867138259292181
4962000000.0 0.5158777600802898 -0.9413294750374072
4966000000.0 0.556351408590742 -0.9039456889754001
4969000000.0 0.5355248205114624 -0.9397680754570902
4972000000.0 0.5012638550621928 -0.9247830260056199
4975000000.0 0.536233313387184 -0.9008172460534606
4978000000.0 0.507242512666324 -0.9390679346461684
4981000000.0 0.49002115448505384 -0.9179400360632666
4984000000.0 0.4916075701863925 -0.8508768861403249
4988000000.0 0.5329548869792782 -0.893500563365123
4991000000.0 0.5479700252247633 -0.8942354232090488
4994000000.0 0.5112963083990112 -0.9093002876104558
4997000000.0 0.46810990072381514 -0.9325698622268964
5000000000.0 0.5389307260149045 -0.9048333283412522
5003000000.0 0.5217418889356127 -0.929871120781342
5006000000.0 0.5489377229971097 -0.9278649284865008
5009000000.0 0.497874625121009 -0.9130489460186892
5012000000.0 0.5058262104827803 -0.935424622862582
5016000000.0 0.5611272199450259 -0.9162452776096688
5019000000.0 0.5092564701732845 -0.9126317807684292
5022000000.0 0.5365915533529908 -0.9056572940038567
5025000000.0 0.5264560570189494 -0.9460859150657502
5028000000.0 0.5015875396317223 -0.9198933948255971
5031000000.0 0.4993893185222291 -0.9001797151422124
5034000000.0 0.5237258871790258 -0.9428330529974052
5038000000.0 0.4822346447039514 -0.8595433054757008
5041000000.0 0.5564120730740986 -0.8804548566852002
5044000000.0 0.5043110576743457 -0.8800793928982014
5047000000.0 0.5243070709267377 -0.8987683754006118
5050000000.0 0.5722363181470889 -0.8558763383809097
5053000000.0 0.5411877641702248 -0.937848828393619
5056000000.0 0.5773227713913585 -0.8872555460931435
5059000000.0 0.573841147809194 -0.8784133837362735
5062000000.0 0.4902841106229242 -0.9218050236120909
5066000000.0 0.5585314622606681 -0.8697451713644568
5069000000.0 0.5377152575876183 -0.9237653702341553
5072000000.0 0.5554511529861652 -0.8798851785901206
5075000000.0 0.5694778673560269 -0.8876940688411807
5078000000.0 0.525403479807914 -0.9327058432355131
5081000000.0 0.5197543486745116 -0.8509452080047911
5084000000.0 0.5113232804910562 -0.9435883298530738
5088000000.0 0.5245295843710917 -0.8709371728465998
5091000000.0 0.45959041138637124 -0.9459607657891613
5094000000.0 0.5490256138642271 -0.9174447393411973
5097000000.0 0.5735008831117475 -0.901137516651193
5100000000.0 0.546052464606098 -0.9110389436378823
5103000000.0 0.5121845341888509 -0.8995546494714253
5106000000.0 0.5410722453256721 -0.8668529966219639
5109000000.0 0.5492707735632889 -0.8468407984988249
5112000000.0 0.46953610090248693 -0.9077778270646739
5116000000.0 0.5273473718762889 -0.8392407433354186
5119000000.0 0.5328432747571876 -0.8936393803212692
5122000000.0 0.5190902734473413 -0.8716635159406148
5125000000.0 0.5493068510641299 -0.8418984555703541
5128000000.0 0.5632291373084036 -0.8983597077242059
5131000000.0 0.5346568292732572 -0.8943046289967405
5134000000.0 0.5169604991027187 -0.8912675628692995
5138000000.0 0.5316892908659488 -0.871019093737046
5141000000.0 0.5814143101065147 -0.8461453770804652
5144000000.0 0.5748454703340944 -0.8640451659121507
5147000000.0 0.5649797813516263 -0.8910177280692304
5150000000.0 0.5345604227521481 -0.8973370194732827
5153000000.0 0.5705185186239976 -0.904094101191502
5156000000.0 0.5802752052931193 -0.8891276729073527
5159000000.0 0.5715167375293382 -0.9438322869602804
5162000000.0 0.5246762228599999 -0.9029892650745819
5166000000.0 0.5158956085059346 -0.9562717333025431
5169000000.0 0.5379198666827127 -0.9019870211445951
5172000000.0 0.5637967824218628 -0.8753289011358396
5175000000.0 0.5623124347703109 -0.8974673942360343
5178000000.0 0.5417842377319854 -0.8867358318114111
