! Created with skrf 1.8.0 (http://scikit-rf.org).
# Hz S RI R 50.0 
!freq ReS11 ImS11
4000000000.0 0.5833777010462624 -0.8338691768177645
4003000000.0 0.5611398785952322 -0.9073841150663666
4006000000.0 0.540323784729097 -0.878011899894168
4009000000.0000005 0.5156698606709432 -0.8887147394259107
4011999999.9999995 0.6079777027001555 -0.8608805045005796
4016000000.0 0.5190106678674054 -0.9349861084493409
4019000000.0 0.5187373885906392 -0.8802110777805563
4022000000.0000005 0.5714455677183428 -0.8604478888731176
4025000000.0000005 0.5232646055504968 -0.9265661164623706
4027999999.9999995 0.5357201885225725 -0.9034419241808274
4030999999.9999995 0.5569731109201352 -0.831064059727811
4034000000.0 0.5479092020966166 -0.8612959167378951
4038000000.0000005 0.5248464191236505 -0.8793646983951156
4041000000.0000005 0.5491195177318388 -0.8971244186159568
4043999999.9999995 0.5781080452584179 -0.9226489802863518
4046999999.9999995 0.6156473287402864 -0.8680659055426422
4050000000.0 0.5175901851590873 -0.9180876381427441
4053000000.0 0.5152289035671752 -0.8595063883872568
4056000000.0 0.5612625643665926 -0.8459962311864664
4059000000.0 0.5352335435468163 -0.8585518358496074
4062000000.0000005 0.48465653341601933 -0.8770405133883864
4066000000.0 0.4925478851914664 -0.8298896269342552
4069000000.0 0.5306702785283306 -0.9542589683880266
4072000000.0 0.5302048632498209 -0.8384645422554272
4075000000.0 0.6273872133861845 -0.8967756079744865
4078000000.0000005 0.5415996102116307 -0.8991269134068162
4081000000.0000005 0.6124992949043339 -0.8437870513804393
4083999999.9999995 0.5654850331730892 -0.9138946359501179
4088000000.0 0.5730928267529296 -0.8492634309074425
4091000000.0 0.5590505963094244 -0.916489013603603
4094000000.0000005 0.5788818499466283 -0.8873873777858708
4097000000.0000005 0.5584818640937393 -0.8949653198905009
4099999999.9999995 0.511560065777776 -0.9053142964664079
4102999999.9999995 0.6010531644198137 -0.9034258333688857
4106000000.0 0.5280313635301426 -0.8741780580780649
4109000000.0 0.5565714034528346 -0.8865621986429677
4112000000.0 0.5387186501166699 -0.8738685960184818
4115999999.9999995 0.5818602419727869 -0.8871374700286956
4119000000.0 0.5328202436405659 -0.9123355790665834
4122000000.0 0.5524092480208462 -0.9098466162763237
4125000000.0 0.5811280347594198 -0.9029110934146592
4128000000.0 0.5434571468012253 -0.8231062889631484
4131000000.0 0.5218859684526207 -0.8645514981849591
4134000000.0000005 0.5800046734059119 -0.878296451369851
4138000000.0 0.5238379712865859 -0.8705552136422611
4141000000.0 0.5452745511763174 -0.8940776846190968
4144000000.0 0.5547720088940654 -0.8699794201478401
4147000000.0000005 0.5156644463713462 -0.8893369747429567
4150000000.0000005 0.5581487725062518 -0.91455028592318
4152999999.9999995 0.5493524601799631 -0.8906722350194005
4155999999.9999995 0.5648571978508541 -0.8912588809595852
4159000000.0 0.5321681506087124 -0.8525127749437912
4162000000.0 0.5405903385975903 -0.8485366578349253
4166000000.0000005 0.5477402361620336 -0.8810940475275678
4168999999.9999995 0.5314228759535207 -0.862253283578253
4171999999.9999995 0.5750309319861648 -0.867689634510986
4175000000.0 0.5707798511981121 -0.8797536463293254
4178000000.0 0.5627607370426602 -0.8726878680536984
4181000000.0 0.5531263478661892 -0.8699514906117158
4184000000.0 0.545324963204495 -0.8777548377391398
4187999999.9999995 0.548867693008036 -0.8517996249445429
4191000000.0 0.5909813450629192 -0.8519512353687678
4194000000.0 0.5462904290263491 -0.8416058079433135
4197000000.0 0.563367657605679 -0.8449685004662123
4200000000.0 0.5590171382296129 -0.8713965209509168
4203000000.0000005 0.5510469176799181 -0.8696677210155153
4206000000.0000005 0.5551191053810385 -0.88090601811986
4208999999.9999995 0.5699952063147722 -0.8417206543645396
4211999999.9999995 0.5429119715304849 -0.871877760290782
4216000000.0 0.577839627559398 -0.842532644343805
4219000000.0000005 0.5617663366562096 -0.8432886522588493
4222000000.0000005 0.543517947173105 -0.8883261683216069
4224999999.9999995 0.5587450294583042 -0.844083058928605
4227999999.9999995 0.5544543789725499 -0.886325626696517
4231000000.0 0.5416902393334893 -0.8597391916968689
4234000000.0 0.5415262499224214 -0.8813057946859225
4238000000.0000005 0.5546313134639419 -0.8528383097998788
4240999999.9999995 0.54413047208701 -0.8529398109108323
4244000000.0 0.5526409196342734 -0.8622138621743509
4247000000.0 0.5634468482817493 -0.854940412862763
4250000000.0 0.5482914029499526 -0.8469832010222462
4253000000.0 0.5170748398086452 -0.8405286991058012
4256000000.0 0.5674619420776879 -0.898521111968284
4259000000.0000005 0.5226375688845692 -0.8391534343220302
4261999999.9999995 0.5529556198448469 -0.8405818009333115
4266000000.0 0.5232805553175139 -0.8861032214362586
4269000000.0 0.5508251956760553 -0.8779930719335503
4272000000.0000005 0.5599739743543084 -0.85391438031074
4275000000.0000005 0.5664779120795072 -0.8655226315042487
4277999999.9999995 0.5864217129759655 -0.8770087603623017
4280999999.9999995 0.5554242368871916 -0.8696422172529442
4284000000.0 0.5250049303807909 -0.9030779566484551
4288000000.0000005 0.5810309071964397 -0.8527846577373267
4291000000.0000005 0.5138026497850375 -0.8244822683367558
4293999999.9999995 0.5498669705974815 -0.8599648958139556
4297000000.0 0.5544528023724163 -0.8265286332171674
4300000000.0 0.5397547278296104 -0.8273308222792072
4303000000.0 0.5387147767552001 -0.859951297462942
4306000000.0 0.5548949753159982 -0.8356594052268336
4309000000.0 0.5388581194899664 -0.8266300345274481
4312000000.0 0.6011109748377801 -0.8561766301464275
4316000000.0 0.5632586200410319 -0.8570993821346179
4319000000.0 0.559617704367778 -0.8324901386358545
4322000000.0 0.5376758354137756 -0.8660693224460632
4325000000.0 0.5672090748501051 -0.8846932613617273
4328000000.0 0.5275110094655912 -0.8426849810302894
4331000000.0 0.5288411094143693 -0.871078111483073
4334000000.0 0.5388080492149083 -0.8720494951468052
4338000000.0 0.571462497715825 -0.8281924916646055
4341000000.0 0.5775390923319542 -0.8739864363791661
4344000000.0 0.5629617050514495 -0.8605107323730368
4347000000.0 0.549362605051087 -0.8833952122022015
4350000000.0 0.5299834598913847 -0.831203856796371
4353000000.0 0.5720985940097655 -0.8268663722164834
4356000000.0 0.5051859947037091 -0.8517720609700352
4359000000.0 0.5311836991095699 -0.814040697177417
4362000000.0 0.5115937400649712 -0.8991606350654657
4366000000.0 0.548049225369696 -0.8820727518345515
4369000000.0 0.5254257033488838 -0.838815273034314
4372000000.0 0.49871359942434385 -0.8709823775119511
4375000000.0 0.5597195660802591 -0.865306490702
4378000000.0 0.5283278476308648 -0.838833550914393
4381000000.0 0.5454681256689624 -0.8391358985958106
4384000000.0 0.5588090543054711 -0.8999647799639705
4388000000.0 0.5431779064117075 -0.8350610751460582
4391000000.0 0.5613621709234562 -0.8504184839677212
4394000000.0 0.5248618920799859 -0.8403520037457466
4397000000.0 0.5206616317138778 -0.8676930444059194
4400000000.0 0.5510040691468416 -0.8784779843342079
4403000000.0 0.545822392200566 -0.8571669539038878
4406000000.0 0.519579005163165 -0.8578572378690787
4409000000.0 0.5521187562732537 -0.8849651271226148
4412000000.0 0.4956284311007819 -0.8802995490652845
4416000000.0 0.5304856790897741 -0.8370699424330716
4419000000.0 0.5276702206302197 -0.8622670545159642
4422000000.0 0.5509629672426933 -0.8514076605038078
4425000000.0 0.5703997125469042 -0.8537559992053406
4428000000.0 0.5250972973274575 -0.861930678052223
4431000000.0 0.5451709210363934 -0.8704954887979329
4434000000.0 0.5189616835987928 -0.8588968006912479
4438000000.0 0.5411525382234708 -0.8822243599165915
4441000000.0 0.5429948004475655 -0.86517114632982
4444000000.0 0.5218637376544527 -0.8420914669791434
4447000000.0 0.5286684477568173 -0.8550524656836642
4450000000.0 0.5445676907283857 -0.8395747721034079
4453000000.0 0.5455301450372465 -0.8817527817801963
4456000000.0 0.5084727946120778 -0.8388066871408575
4459000000.0 0.4919122955342139 -0.8534023930843612
4462000000.0 0.55763119848304 -0.919327930635699
4466000000.0 0.5503195742369171 -0.8959721035597099
4469000000.0 0.5418729578893471 -0.8552622904574643
4472000000.0 0.5116647596554716 -0.8894316665915334
4475000000.0 0.5209958984093058 -0.8257857889418442
4478000000.0 0.5565012655179981 -0.901465039537902
4481000000.0 0.4979804386535002 -0.8326517182842773
4484000000.0 0.4958199675945021 -0.8730915872321288
4488000000.0 0.5167683315486048 -0.8504610535832704
4491000000.0 0.505541142536193 -0.86211324864251
4494000000.0 0.5173759263193575 -0.8490897008309634
4497000000.0 0.5313537350126415 -0.8433950299585882
4500000000.0 0.5349421572967427 -0.8413462059180661
4503000000.0 0.5518189943757472 -0.8883621728716047
4506000000.0 0.5081086983490278 -0.86082698983624
4509000000.0 0.5353722048363719 -0.8542278306914346
4512000000.0 0.5080412812570652 -0.8601983421492352
4516000000.0 0.5349070173816715 -0.8660602579357539
4519000000.0 0.5369658013902221 -0.8323659938164276
4522000000.0 0.5047986868407633 -0.8569824916571422
4525000000.0 0.5604895960720229 -0.8531175337775894
4528000000.0 0.5130223179265687 -0.8981710345467449
4531000000.0 0.5182230981169 -0.8616230492737147
4534000000.0 0.5020355694318287 -0.866177039253204
4538000000.0 0.5198901811210083 -0.8550379570201652
4541000000.0 0.4919876784381477 -0.8519983344792377
4544000000.0 0.5026734951737065 -0.8611736573428883
4547000000.0 0.5481204339379145 -0.849343965086361
4550000000.0 0.5138714504674433 -0.8995974148856705
4553000000.0 0.5128944779771445 -0.8686016728020425
4556000000.0 0.49451009125028816 -0.86199552573322
4559000000.0 0.49153659660835447 -0.87166984801923
4562000000.0 0.527813751812001 -0.8717025047683349
4566000000.0 0.5169609442596741 -0.8834395214486003
4569000000.0 0.5027501002884411 -0.8428557739091588
4572000000.0 0.5212250605168667 -0.8653763679913089
4575000000.0 0.5063997772520118 -0.879813243349598
4578000000.0 0.5227038675955323 -0.8879854429791765
4581000000.0 0.48883720329934954 -0.8735878890483648
4584000000.0 0.5156598460418617 -0.8721433386576161
4588000000.0 0.5356427121500987 -0.8788959905633213
4591000000.0 0.5275291058333604 -0.8609042129864566
4594000000.0 0.49323639730417973 -0.871286779889811
4597000000.0 0.48977969891810286 -0.8941795373530643
4600000000.0 0.47239777094694657 -0.8760153518390291
4603000000.0 0.5054876558635621 -0.8787505523491339
4606000000.0 0.5167864342198453 -0.884495045261886
4609000000.0 0.5136671385111491 -0.8669346617797827
4612000000.0 0.5124930888801437 -0.8865771670610939
4616000000.0 0.5028674873513068 -0.8675100705521632
4619000000.0 0.5119970924933936 -0.8694134082058802
4622000000.0 0.5087142224646237 -0.8789548597555805
4625000000.0 0.4760125075148952 -0.8552273601604161
4628000000.0 0.506669306542768 -0.8736592501504788
4631000000.0 0.48569886878246593 -0.8794266343228125
4634000000.0 0.5182948158996941 -0.8749803163899827
4638000000.0 0.5156680350533008 -0.8885665648536657
4641000000.0 0.5022002817847875 -0.8866877422758196
4644000000.0 0.5088333810835313 -0.8847331911479546
4647000000.0 0.5120126511098191 -0.8780208374193175
4650000000.0 0.48520817350569156 -0.8817527680143527
4653000000.0 0.5140269554885839 -0.8920045792235283
4656000000.0 0.4915173596296505 -0.8706614372746158
4659000000.0 0.4807400465369132 -0.874809712521719
4662000000.0 0.5019343463841001 -0.8780395027250438
4666000000.0 0.5200127516585902 -0.8884712231146199
4669000000.0 0.5168077101535727 -0.8879916694036712
4672000000.0 0.49589485736728833 -0.9100824789400214
4675000000.0 0.49074745985198853 -0.8837917273442515
4678000000.0 0.5043535650201975 -0.8616659571893308
4681000000.0 0.4903179158454695 -0.8898698025388337
4684000000.0 0.48492686199965374 -0.8894865154649907
4688000000.0 0.49316513425799535 -0.8909479716876018
4691000000.0 0.5105710753232056 -0.8707194097863625
4694000000.0 0.5029071136291566 -0.8842029661241326
4697000000.0 0.48450994603535896 -0.8469524500350691
4700000000.0 0.5018331598750723 -0.8706771332570473
4703000000.0 0.5042683983931759 -0.8461376902356198
4706000000.0 0.49320785380581406 -0.8901011707589013
4709000000.0 0.4704467846793717 -0.896916040984648
4712000000.0 0.5053191471332079 -0.8932754468915708
4716000000.0 0.5006908849101598 -0.8847485525093639
4719000000.0 0.509551604369738 -0.889878869054042
4722000000.0 0.48525454109715366 -0.8859897248257328
4725000000.0 0.4973971009906606 -0.8798158138312513
4728000000.0 0.4891913646542978 -0.8841705412922968
4731000000.0 0.49787188317769954 -0.9212305103417027
4734000000.0 0.5037954170748523 -0.8847643291149292
4738000000.0 0.5433446648303247 -0.9290947629007118
4741000000.0 0.5020515034504575 -0.8955040955441926
4744000000.0 0.4535071882662516 -0.8902465936238811
4747000000.0 0.4966704491897657 -0.8503848941035362
4750000000.0 0.5052347333008275 -0.9279103958673269
4753000000.0 0.5076047359228945 -0.8828123549799459
4756000000.0 0.5222553724154769 -0.9158057048535818
4759000000.0 0.5070251925459954 -0.9142334676305873
4762000000.0 0.4874752321551258 -0.880250490531528
4766000000.0 0.49239102306780524 -0.8963774306471938
4769000000.0 0.5095176998995797 -0.9162178682078277
4772000000.0 0.4820062312120974 -0.8998172008866543
4775000000.0 0.47959277247343224 -0.9070294861660961
4778000000.0 0.5099343336397205 -0.8930576943303177
4781000000.0 0.5284373604960957 -0.8865735282380204
4784000000.0 0.506921419706993 -0.9036868400711506
4788000000.0 0.4835877361002463 -0.9035511336671808
4791000000.0 0.4715348601459455 -0.9087433714999762
4794000000.0 0.5355664360757066 -0.9225982137046589
4797000000.0 0.4786317867323362 -0.8931405316797127
4800000000.0 0.4733699951067265 -0.8789994907327742
4803000000.0 0.4670140179668246 -0.8938225295345512
4806000000.0 0.4930483867486295 -0.91454170083012
4809000000.0 0.4603553834866163 -0.9318834480121408
4812000000.0 0.4293933047310435 -0.8909091374294493
4816000000.0 0.5068489387324808 -0.8638792337361181
4819000000.0 0.5213102697374378 -0.8992142002178702
4822000000.0 0.5506667004414634 -0.9095910960261218
4825000000.0 0.5295181640377863 -0.9123385208489483
4828000000.0 0.5099215250730772 -0.90078895705814
4831000000.0 0.47603235553944956 -0.9422475914772707
4834000000.0 0.5378203619459595 -0.8977501361477722
4838000000.0 0.5119214368375656 -0.9246128215791278
4841000000.0 0.47977773206662655 -0.901852357153302
4844000000.0 0.5334438102837069 -0.8935551139891411
4847000000.0 0.4978221031089147 -0.8594300752779118
4850000000.0 0.5051985108808241 -0.9189660939037697
4853000000.0 0.4923777342550215 -0.8691042118624811
4856000000.0 0.4885966955481014 -0.8859033477616266
4859000000.0 0.5132180041756652 -0.9366447051278599
4862000000.0 0.49408441431421446 -0.8849608641752476
4866000000.0 0.48498454646669387 -0.9273006138914532
4869000000.0 0.4684689376130632 -0.9077172542383135
4872000000.0 0.49483425804630243 -0.936748199614563
4875000000.0 0.5686985772439102 -0.900555502672253
4878000000.0 0.49833690752907017 -0.9349717015376083
4881000000.0 0.506608682630673 -0.981746627161936
4884000000.0 0.5095026702887797 -0.8832202617798854
4888000000.0 0.515436121414023 -0.8985073652936982
4891000000.0 0.5419221715298784 -0.9073717345560083
4894000000.0 0.47913209583878985 -0.886488558498613
4897000000.0 0.5143298794530664 -0.8701397317023272
4900000000.0 0.5271471695926362 -0.9308104899095748
4903000000.0 0.5333733179252195 -0.9184220030195949
4906000000.0 0.5170719289713738 -0.9163060861912484
4909000000.0 0.5079948921971326 -0.9196670348267819
4912000000.0 0.5040387044994561 -0.9357609033792583
4916000000.0 0.5595458201707145 -0.916042933621801
4919000000.0 0.5433752916619885 -0.8965846933355631
4922000000.0 0.5171692119026494 -0.8877643793513946
4925000000.0 0.45886851829241015 -0.9181450063648444
4928000000.0 0.5331068235117895 -0.857703118554935
4931000000.0 0.5109465632432898 -0.8813775934430661
4934000000.0 0.49225608717613833 -0.8536526694510895
4938000000.0 0.4778317378668943 -0.8995528911889563
4941000000.0 0.4800093641410466 -0.8645876488398736
4944000000.0 0.5148131046086061 -0.8572198925819127
4947000000.0 0.49297624460611544 -0.8709855663883871
4950000000.0 0.4828149089233985 -0.8464762285541219
4953000000.0 0.46603020882034896 -0.9475790051706007
4956000000.0 0.4673641910485701 -0.9399177009307987
4959000000.0 0.47078910646604744 -0.899060282546594
4962000000.0 0.498702226318009 -0.9108099089046637
4966000000.0 0.5363042192753583 -0.9207833835955547
4969000000.0 0.5383960473496967 -0.9346403823165371
4972000000.0 0.5070778995696702 -0.9375575456956085
4975000000.0 0.5389739055908153 -0.8507785804980693
4978000000.0 0.5167781948382725 -0.9258616334332515
4981000000.0 0.4768136985601648 -0.9053069117765851
4984000000.0 0.5191182971555204 -0.889936952420601
4988000000.0 0.5303352423715951 -0.8962920108391468
4991000000.0 0.5859058198396725 -0.8912278837595159
4994000000.0 0.5331523843633632 -0.8867716273883487
4997000000.0 0.46054323205202385 -0.9303073600167329
5000000000.0 0.5507863442962491 -0.9115289719870607
5003000000.0 0.5532082604407118 -0.9145569004984961
5006000000.0 0.541528241870376 -0.9411946165714216
5009000000.0 0.508991255548578 -0.8912601314924125
5012000000.0 0.5077506784037895 -0.9053683221824794
5016000000.0 0.556106570167124 -0.8974806496394129
5019000000.0 0.5020366815418074 -0.8928418074753252
5022000000.0 0.51371186929259 -0.9061071851161799
5025000000.0 0.5733629342654324 -0.9527034485456042
5028000000.0 0.5072195506673939 -0.9148129322105132
5031000000.0 0.5016120941974863 -0.9297877514742511
5034000000.0 0.48675303482837573 -0.9683783294155353
5038000000.0 0.46441039214769814 -0.9054755917498795
5041000000.0 0.5663868457055191 -0.8774820909535335
5044000000.0 0.5155134987167014 -0.8703615637332001
5047000000.0 0.5486782487735116 -0.8941177986410749
5050000000.0 0.5771150600807611 -0.8366223191738331
5053000000.0 0.547050547527333 -0.9341367794521974
5056000000.0 0.5455625721247338 -0.8720372013188924
5059000000.0 0.5747530619975574 -0.8876763076242278
5062000000.0 0.5294497731050054 -0.9371557872843004
5066000000.0 0.5102889689022445 -0.8649256233480683
5069000000.0 0.5461036708627324 -0.9208159936360021
5072000000.0 0.5170052995975469 -0.8840280067021908
5075000000.0 0.5562113146675296 -0.8722586401009813
5078000000.0 0.5037456351183733 -0.9298771975996365
5081000000.0 0.49717984277969984 -0.8876967879173664
5084000000.0 0.5209273799575733 -0.9609169042672188
5088000000.0 0.5618145720165376 -0.8900021154712255
5091000000.0 0.4836830402197787 -0.8920907726960328
5094000000.0 0.5445877050102179 -0.8909271387972535
5097000000.0 0.5584003721616476 -0.8504679098749455
5100000000.0 0.5250502633274696 -0.8783347563171908
5103000000.0 0.49365618323444815 -0.8983982951039263
5106000000.0 0.5681980217699407 -0.8868221252319153
5109000000.0 0.5801318710111556 -0.8650103663858393
5112000000.0 0.5156477910891855 -0.8906658343343067
5116000000.0 0.5350702929311665 -0.892521999213336
5119000000.0 0.5137769905170289 -0.9028489019179096
5122000000.0 0.5183958932714485 -0.9486828544406052
5125000000.0 0.5515822210591188 -0.9184340941252502
5128000000.0 0.5549142245244848 -0.9188166054000085
5131000000.0 0.5362615685135044 -0.886327753644895
5134000000.0 0.5439879609515018 -0.8594526746188924
5138000000.0 0.5322369917895003 -0.8561295648160706
5141000000.0 0.6007876372993943 -0.8552227753829964
5144000000.0 0.5576724029906721 -0.9029328532566976
5147000000.0 0.5653885034104709 -0.9081086781999972
5150000000.0 0.5880097835942301 -0.8882844382800271
5153000000.0 0.5814798757058564 -0.8989093183734049
5156000000.0 0.5451647903968635 -0.8520029415477808
5159000000.0 0.5953618715976211 -0.9322828855396152
5162000000.0 0.5135369016756107 -0.8794998832106586
5166000000.0 0.553549499590418 -0.9441835023242537
5169000000.0 0.5636918188046951 -0.9002527994294943
5172000000.0 0.524190478397373 -0.8629638735856189
5175000000.0 0.607004870403062 -0.9205264845168727
5178000000.0 0.540219983776711 -0.9085285487013832
