! Created with skrf 1.8.0 (http://scikit-rf.org).
# Hz S RI R 50.0 
!freq ReS11 ImS11
4000000000.0 0.47011361002450086 -0.8819136656792631
4003000000.0 0.5117421753968108 -0.9731430777710577
4006000000.0 0.46711415598615214 -0.9168935681953523
4009000000.0000005 0.5173765850445674 -0.9124463859945223
4011999999.9999995 0.5649637484784321 -0.8824392438432085
4016000000.0 0.4600544408238829 -0.9277924603623979
4019000000.0 0.45418451056844045 -0.8860818975030642
4022000000.0000005 0.5437715706191145 -0.9005569147121495
4025000000.0000005 0.43648811345087896 -0.9645032996329977
4027999999.9999995 0.439033921602055 -0.9064342302187682
4030999999.9999995 0.5255536770316953 -0.8542179772149826
4034000000.0 0.44126621726251125 -0.8973438825491897
4038000000.0000005 0.4564572866882296 -0.9079292391839578
4041000000.0000005 0.45090043189394446 -0.9009965863216749
4043999999.9999995 0.5358351785212541 -0.9511051450077967
4046999999.9999995 0.5387050849416617 -0.9091266363816282
4050000000.0 0.4720091311279512 -0.9295744352653783
4053000000.0 0.4679050040287963 -0.9337209144298821
4056000000.0 0.47773012505785617 -0.9263754667319155
4059000000.0 0.4641329131289948 -0.8824003776944818
4062000000.0000005 0.45521217478347564 -0.9441156617890352
4066000000.0 0.42978971869660454 -0.8418279797736995
4069000000.0 0.4651631219913682 -0.9122124384192312
4072000000.0 0.5005396004223599 -0.9038924305624778
4075000000.0 0.5048480917315685 -0.9349663833627158
4078000000.0000005 0.474896950676965 -0.9319244604111692
4081000000.0000005 0.510693985325158 -0.9050605358621138
4083999999.9999995 0.4411688083460798 -0.9377284562429749
4088000000.0 0.5630437560458152 -0.8825582535979245
4091000000.0 0.4864961919335301 -0.9365619102274064
4094000000.0000005 0.48824184739276166 -0.918436378297039
4097000000.0000005 0.4534342498870983 -0.9230722906812135
4099999999.9999995 0.4748402041700151 -0.8890893487581463
4102999999.9999995 0.4641746445441704 -0.9072388668287787
4106000000.0 0.5043454205548381 -0.8964715174302639
4109000000.0 0.4416696100588431 -0.8892137151203409
4112000000.0 0.5070769542244435 -0.8974955548095692
4115999999.9999995 0.4977821148622196 -0.9130613795036948
4119000000.0 0.4931969305731899 -0.9291042663721301
4122000000.0 0.45642226391573454 -0.926046795486422
4125000000.0 0.4562449269169055 -0.9465509457629611
4128000000.0 0.4883964482095905 -0.8653174304189585
4131000000.0 0.4476068723411315 -0.8995088617373237
4134000000.0000005 0.49409410672755866 -0.9198801136781377
4138000000.0 0.4323284281883708 -0.8928768509167175
4141000000.0 0.48513952683068867 -0.906399244073095
4144000000.0 0.5094367172157009 -0.8971848084283884
4147000000.0000005 0.4730243644694605 -0.8711919905459304
4150000000.0000005 0.47044481689181683 -0.9248574264535373
4152999999.9999995 0.4766113402776217 -0.9005066559586026
4155999999.9999995 0.5212474823853851 -0.9351642476192983
4159000000.0 0.4711804802644466 -0.8672122014511647
4162000000.0 0.4537179826035358 -0.8891964533299608
4166000000.0000005 0.44694324026986787 -0.9387279644645374
4168999999.9999995 0.4388887366177759 -0.9176890882861439
4171999999.9999995 0.48191754324828595 -0.9075760941096461
4175000000.0 0.46708040645437887 -0.8734133920880666
4178000000.0 0.46867557723126696 -0.9165088826317535
4181000000.0 0.453135428363245 -0.8995077902090518
4184000000.0 0.4557301982678196 -0.9010653474759426
4187999999.9999995 0.4644870773500258 -0.9005147230728408
4191000000.0 0.49633740721970676 -0.869457199377029
4194000000.0 0.455150256357139 -0.8765044165004314
4197000000.0 0.4762932218643975 -0.9037904233675084
4200000000.0 0.48894694494541624 -0.8776531825575885
4203000000.0000005 0.48728542295061056 -0.8996169194463411
4206000000.0000005 0.5021414302008462 -0.9258823295002979
4208999999.9999995 0.47101589919941445 -0.8855465495633801
4211999999.9999995 0.44037840317755916 -0.921025060410132
4216000000.0 0.4834515285927815 -0.8992198250662802
4219000000.0000005 0.4874461867071189 -0.8929217342568304
4222000000.0000005 0.46614892053793155 -0.9089585733117016
4224999999.9999995 0.47316551973980314 -0.8867813752209406
4227999999.9999995 0.47329682720404537 -0.8949336380216736
4231000000.0 0.4602613048211525 -0.9029259650708632
4234000000.0 0.46717836301683835 -0.9175874044126169
4238000000.0000005 0.46229142472572815 -0.9056635601737115
4240999999.9999995 0.4470321797484619 -0.8903441663096374
4244000000.0 0.46771111441503527 -0.8943537173410875
4247000000.0 0.4716483724407847 -0.9003756880117748
4250000000.0 0.4494357427496249 -0.8860832425393094
4253000000.0 0.4445555859459154 -0.8816823365371218
4256000000.0 0.4597848233560313 -0.9312189092635346
4259000000.0000005 0.4316060380661817 -0.8737690943930776
4261999999.9999995 0.45211050104135675 -0.923641004132756
4266000000.0 0.447637061351535 -0.9246600865173817
4269000000.0 0.4909580755947797 -0.9010153191881607
4272000000.0000005 0.4641339860269528 -0.8931708927398345
4275000000.0000005 0.439505256147 -0.8847815608604841
4277999999.9999995 0.4747577314711371 -0.9180448540747786
4280999999.9999995 0.45925945678686375 -0.9028127783270387
4284000000.0 0.41577100672849415 -0.9202242603798044
4288000000.0000005 0.4901190323150999 -0.8839415351229526
4291000000.0000005 0.45566028529168556 -0.8988500350190995
4293999999.9999995 0.45006450744279713 -0.906280380014405
4297000000.0 0.47617850755398594 -0.8682255072691465
4300000000.0 0.45696497174443157 -0.8777990348528454
4303000000.0 0.4394405285019612 -0.9204242749961306
4306000000.0 0.46573779501246876 -0.8759549572222846
4309000000.0 0.47282825201053685 -0.9051398218911446
4312000000.0 0.4935641917284663 -0.8966201738217219
4316000000.0 0.4997892573276928 -0.9252072010164112
4319000000.0 0.4515139822108696 -0.8699590029934452
4322000000.0 0.4477027679174881 -0.9070855931919682
4325000000.0 0.47623272533102395 -0.9133832318397967
4328000000.0 0.46244245537888046 -0.9197994896702111
4331000000.0 0.412528521425802 -0.9264171611615555
4334000000.0 0.450957729795743 -0.9215775507497665
4338000000.0 0.4828888965993281 -0.8737417369903326
4341000000.0 0.47954344397770443 -0.8808915625273771
4344000000.0 0.4611818572258272 -0.9165503470950316
4347000000.0 0.4296220811434235 -0.9287661895396688
4350000000.0 0.4183144933114929 -0.8916208542745767
4353000000.0 0.4576012414651174 -0.8543568764460104
4356000000.0 0.43056052717791116 -0.9159400126874018
4359000000.0 0.42142696290445336 -0.8660284162064458
4362000000.0 0.41893249960447326 -0.9199405058014816
4366000000.0 0.4385682952829726 -0.9146201921271945
4369000000.0 0.4266037519686767 -0.8741513374199864
4372000000.0 0.4047273975349345 -0.9134157419013145
4375000000.0 0.4422803614299854 -0.8887478411060448
4378000000.0 0.4337322520589154 -0.884988074028589
4381000000.0 0.44471576244012806 -0.9097667351481358
4384000000.0 0.4622325131405211 -0.9650308796037427
4388000000.0 0.4395327181539562 -0.8887392430320773
4391000000.0 0.4433994631151694 -0.9128624212120579
4394000000.0 0.4331849096095607 -0.8682799814706068
4397000000.0 0.42611540987615837 -0.9071295839530165
4400000000.0 0.44895567915422163 -0.926896471270132
4403000000.0 0.45278221310694977 -0.9135764524359395
4406000000.0 0.4166865998114674 -0.920962027429141
4409000000.0 0.4363284926443812 -0.954835639745775
4412000000.0 0.3783945242599946 -0.9248346043647587
4416000000.0 0.41020210209444175 -0.9063497715299513
4419000000.0 0.4220770073040402 -0.9279987096321116
4422000000.0 0.4555495141498842 -0.8982875547839079
4425000000.0 0.45665064304582015 -0.9131307876058141
4428000000.0 0.4314875556785157 -0.9203246147196652
4431000000.0 0.43318195789876157 -0.9296215303077852
4434000000.0 0.4140697650050635 -0.9170854782153167
4438000000.0 0.43545151880580013 -0.9261872072752158
4441000000.0 0.4290679648102962 -0.9265214935763484
4444000000.0 0.4263967747309434 -0.8866060747601756
4447000000.0 0.4082120323796801 -0.9020922257997742
4450000000.0 0.4312988821697438 -0.8973054048379718
4453000000.0 0.4337862669016152 -0.9308886949130017
4456000000.0 0.3889986422260987 -0.8903269087177352
4459000000.0 0.4011596131975482 -0.9024387513265615
4462000000.0 0.43570529465781055 -0.966344333372813
4466000000.0 0.4317521020924479 -0.9603421672605374
4469000000.0 0.4345924977419124 -0.9057476929308709
4472000000.0 0.413200866875808 -0.9451928185062645
4475000000.0 0.4132601174117636 -0.913802331806187
4478000000.0 0.42246430790316347 -0.9664443565444134
4481000000.0 0.4022757545664441 -0.8884602328436866
4484000000.0 0.3704583198863299 -0.9329928399424017
4488000000.0 0.3845148139392529 -0.9127368277840482
4491000000.0 0.41011485121990043 -0.9119896388494583
4494000000.0 0.4195789030198611 -0.9094523290578046
4497000000.0 0.4266696484254072 -0.9125980181694935
4500000000.0 0.42116561166216615 -0.9054802706344802
4503000000.0 0.42677089364799886 -0.9450439223283245
4506000000.0 0.3894053306833917 -0.927351388854383
4509000000.0 0.3846410972263763 -0.9012362358451861
4512000000.0 0.410540774307015 -0.8942377694464334
4516000000.0 0.4188156642980434 -0.9370584306883987
4519000000.0 0.4011860555407597 -0.9122261695086156
4522000000.0 0.4097302544971151 -0.9161533383563829
4525000000.0 0.42645544456974444 -0.9158705353952721
4528000000.0 0.4267143913307602 -0.9361715111209766
4531000000.0 0.41265052313792216 -0.9296910602069183
4534000000.0 0.39211424164785885 -0.912243003322444
4538000000.0 0.40788498294254877 -0.9156487943891516
4541000000.0 0.3698376284591146 -0.918514090150981
4544000000.0 0.3889399411763293 -0.8906812840589012
4547000000.0 0.41203470137207177 -0.9151914885186458
4550000000.0 0.38704362833187245 -0.9255795154600499
4553000000.0 0.3889384471560399 -0.9427650881397361
4556000000.0 0.3870815791733558 -0.9015164628148158
4559000000.0 0.38055567667239587 -0.9169612623969733
4562000000.0 0.4223402862519549 -0.9336249027399184
4566000000.0 0.40567588361122925 -0.9294889400609243
4569000000.0 0.3935595609507502 -0.91756046033007
4572000000.0 0.3882539897893237 -0.9316461546903505
4575000000.0 0.36506078946922066 -0.9486624086656703
4578000000.0 0.4035778049627544 -0.9398466510490133
4581000000.0 0.364207216349809 -0.9239966894398003
4584000000.0 0.38028637305160184 -0.9326257550750484
4588000000.0 0.4091243568219206 -0.9304666167119451
4591000000.0 0.4044927212991283 -0.9227004184835276
4594000000.0 0.3811837348638144 -0.928656406012214
4597000000.0 0.3900407867941838 -0.9480031324350706
4600000000.0 0.3543701999608632 -0.9356165489780843
4603000000.0 0.3769533050155459 -0.9285049262678818
4606000000.0 0.39438789359426063 -0.941026549472691
4609000000.0 0.38461977016389154 -0.9302569575535256
4612000000.0 0.3957749125254696 -0.9386032614306943
4616000000.0 0.3726483910681228 -0.9262314881749122
4619000000.0 0.3772308631654494 -0.9268351484925749
4622000000.0 0.3569065282495867 -0.9374972806836199
4625000000.0 0.36307321585596497 -0.9217480855887137
4628000000.0 0.39652406897655307 -0.9398958142415704
4631000000.0 0.37255492159893544 -0.9345026573238309
4634000000.0 0.3508431784120664 -0.9306350812831884
4638000000.0 0.3762981866142683 -0.9315993176074163
4641000000.0 0.3797008795667116 -0.9391428614562046
4644000000.0 0.37060862531599476 -0.935611612121038
4647000000.0 0.3741808069457544 -0.9535797655365121
4650000000.0 0.3663557125687771 -0.9325315401941877
4653000000.0 0.39335311613760005 -0.9485629471567077
4656000000.0 0.36156014130289726 -0.9431871606848116
4659000000.0 0.34433942125210965 -0.9544095851108875
4662000000.0 0.36125142854176334 -0.9386375446647668
4666000000.0 0.33229963809197627 -0.9644162289159384
4669000000.0 0.3860621234539561 -0.9451169260259276
4672000000.0 0.3484939144463764 -0.9659255796292019
4675000000.0 0.3640644838781013 -0.9477831141372657
4678000000.0 0.3424821117548733 -0.9184801767098046
4681000000.0 0.35850584861455936 -0.951191175865469
4684000000.0 0.3255009750128264 -0.9769653481058808
4688000000.0 0.32846109909862164 -0.9602819131869529
4691000000.0 0.3757931979876556 -0.9171180289364851
4694000000.0 0.3627369107547652 -0.9242265625482474
4697000000.0 0.32145447732282717 -0.8992483697395369
4700000000.0 0.35269248723232366 -0.9563918592724644
4703000000.0 0.37026427442634463 -0.9093269151215869
4706000000.0 0.35101268090205257 -0.9606912300085414
4709000000.0 0.3374148150215978 -0.9564530356181769
4712000000.0 0.3636856246247507 -0.9295530591390682
4716000000.0 0.33648401211280266 -0.9619774304969215
4719000000.0 0.38493933803893493 -0.9253558853851781
4722000000.0 0.38859910995925295 -0.9662700184610462
4725000000.0 0.3471897801207108 -0.9481664329547638
4728000000.0 0.33614001559594525 -0.9457692235900954
4731000000.0 0.38897097745402026 -0.9760550110616909
4734000000.0 0.3596729479813102 -0.9549303369036698
4738000000.0 0.38031972961055716 -0.977611675576434
4741000000.0 0.33106661813130145 -0.9823375742826022
4744000000.0 0.3321131440864507 -0.9486241738362948
4747000000.0 0.36885974455148324 -0.9528442206210721
4750000000.0 0.3514952674738208 -0.9637511061753895
4753000000.0 0.3598441473861802 -0.9506375012012933
4756000000.0 0.3633194198162689 -0.942237763281551
4759000000.0 0.3604882870736029 -0.965483947504412
4762000000.0 0.3306771640483958 -0.9677321665654675
4766000000.0 0.33966924959276373 -0.9428384766345682
4769000000.0 0.3552440943641426 -0.9542872091372381
4772000000.0 0.370534936358365 -0.9797360768708144
4775000000.0 0.3149843156492016 -1.01258458480014
4778000000.0 0.3397590178880062 -0.9949314574124132
4781000000.0 0.35651589943723827 -0.9474490739008574
4784000000.0 0.3458647569398997 -0.9366709565284116
4788000000.0 0.3397025333138074 -0.9579058330263022
4791000000.0 0.32108554362423813 -0.9350707194844791
4794000000.0 0.37668917812682257 -0.9690984762792908
4797000000.0 0.319819430227039 -0.9436221207648192
4800000000.0 0.33398916078003427 -0.9513912436671127
4803000000.0 0.30309773108636295 -0.9792781110596473
4806000000.0 0.3360677262760998 -0.9578971349588161
4809000000.0 0.30254037942946416 -0.9899998042323516
4812000000.0 0.29347983285260293 -0.9598358277433248
4816000000.0 0.3650534599660207 -0.9328560379973745
4819000000.0 0.37145035063925946 -0.9642230431239688
4822000000.0 0.35155849574477793 -0.9975536837132886
4825000000.0 0.3946937143202485 -0.9758263622825118
4828000000.0 0.3291638963198459 -0.9636360446395394
4831000000.0 0.2999238453564823 -1.0123612764487568
4834000000.0 0.3369646683090177 -0.9581144232186332
4838000000.0 0.3279694894925369 -0.9820753079690556
4841000000.0 0.33736563382467427 -0.9642760602623474
4844000000.0 0.3678351752969098 -0.9670341744438479
4847000000.0 0.34683340825231634 -0.9129365160498605
4850000000.0 0.3235647096885386 -0.9852161729864045
4853000000.0 0.3167941179640491 -0.9230994866129181
4856000000.0 0.3069894859009822 -0.9400219812297799
4859000000.0 0.3502849740719471 -1.0086502040342649
4862000000.0 0.3343925591685054 -0.9448170113933742
4866000000.0 0.3251807309801482 -0.9931233729442724
4869000000.0 0.31130314954690713 -0.9868941496201826
4872000000.0 0.3095160438691179 -1.0018772549420891
4875000000.0 0.3979950165386026 -1.0010286599113745
4878000000.0 0.35433312514742327 -0.9838078289605477
4881000000.0 0.32765197018786074 -1.0238972869603893
4884000000.0 0.3382495323002078 -0.9478379699120226
4888000000.0 0.3601490450333531 -0.9551152960396521
4891000000.0 0.3751899271185499 -0.9864173275644001
4894000000.0 0.3075068943922683 -0.9992550553806048
4897000000.0 0.35800943797315854 -0.9414116567688521
4900000000.0 0.34499873533752273 -0.96191285228804
4903000000.0 0.3548227226856706 -0.9954454367313885
4906000000.0 0.3260114355921193 -1.003880278122664
4909000000.0 0.30905543556210957 -0.9833825580689022
4912000000.0 0.3379365491910511 -1.0140800015319822
4916000000.0 0.34336070176205935 -0.9905759608898389
4919000000.0 0.3865916066366252 -0.9697701057884397
4922000000.0 0.39865634374125997 -0.9418973834821835
4925000000.0 0.33492554658874835 -0.97477375593556
4928000000.0 0.38900895487955056 -0.928892425830159
4931000000.0 0.3569217262510762 -0.9700980284969902
4934000000.0 0.3272673664028257 -0.9464627475447909
4938000000.0 0.2864278674095011 -0.9556084615129974
4941000000.0 0.3350662847988987 -0.9494656351626009
4944000000.0 0.3426118629666868 -0.9125322025758893
4947000000.0 0.2845096403584635 -0.9469370775663675
4950000000.0 0.3018065231969411 -0.926493006601963
4953000000.0 0.2830449199827285 -1.0503361437193266
4956000000.0 0.3362436905066546 -0.9782927289237787
4959000000.0 0.30569644192048656 -0.9948074719343372
4962000000.0 0.3452184848466089 -0.9848429467416309
4966000000.0 0.31495584463422016 -1.0006024475802235
4969000000.0 0.36903260521119063 -0.9972418638250881
4972000000.0 0.34690028938430545 -0.9787070897509386
4975000000.0 0.31909167241143316 -0.9423522634530535
4978000000.0 0.31670024684716175 -0.977287298850391
4981000000.0 0.321879160567484 -0.9740883352169443
4984000000.0 0.3006184559509661 -0.962523328983969
4988000000.0 0.35050522301869014 -0.9400718880145784
4991000000.0 0.37978909206798867 -0.9858780494887208
4994000000.0 0.3232706484853978 -0.9645718008704172
4997000000.0 0.3120775592749289 -1.0064145712901367
5000000000.0 0.32304694680736185 -0.9944519293278444
5003000000.0 0.36334655107546726 -0.9858578481519206
5006000000.0 0.35215953350220025 -1.0105035112683662
5009000000.0 0.3280806200044709 -0.9918585131080645
5012000000.0 0.3442085287474211 -0.9706810099374252
5016000000.0 0.3745893238936468 -1.0079901360558596
5019000000.0 0.346976410308083 -0.9570872630950339
5022000000.0 0.34531354421990634 -0.9786037418599474
5025000000.0 0.3228411223963153 -1.0472783427599217
5028000000.0 0.32871400479998963 -0.9960684348996045
5031000000.0 0.32810416400361075 -0.9999475417032353
5034000000.0 0.30037725968741585 -1.0137272856885142
5038000000.0 0.3039934029098289 -0.9439973643198223
5041000000.0 0.3587685067665136 -0.9608919457125761
5044000000.0 0.35976383515849547 -0.9137985419468011
5047000000.0 0.3591912826295248 -0.9844777014820925
5050000000.0 0.36912732182667646 -0.9314285886869772
5053000000.0 0.3407162308030904 -1.0125361469523246
5056000000.0 0.3439062652121346 -0.982296106291553
5059000000.0 0.3660398057748444 -0.9829078392729171
5062000000.0 0.2812908934054978 -1.0631502584209969
5066000000.0 0.3794544104706262 -0.9459260168078406
5069000000.0 0.340861348427114 -0.9595595897262611
5072000000.0 0.3657591091604057 -0.9357198674593934
5075000000.0 0.33388653594451057 -0.9109671294564843
5078000000.0 0.30866605299809324 -0.9974856981511395
5081000000.0 0.28660266126927175 -0.942830519160977
5084000000.0 0.3096529683343226 -1.0088490362662834
5088000000.0 0.34402806937821256 -0.96384518327837
5091000000.0 0.2751506593305681 -0.9839604709981218
5094000000.0 0.3102096148842323 -0.9740389787426929
5097000000.0 0.34590527233783785 -0.9596963976180669
5100000000.0 0.31456916707735333 -0.9515093526512624
5103000000.0 0.27198599731320955 -1.0017345555037032
5106000000.0 0.3244194958242062 -0.9483086535625325
5109000000.0 0.3482261456833017 -0.9280299785490436
5112000000.0 0.29196884008346824 -0.9718318332539477
5116000000.0 0.27993491349325816 -1.0038849567821495
5119000000.0 0.3189007972938483 -1.0157746292886094
5122000000.0 0.3222180355648527 -0.9680035139476271
5125000000.0 0.33422830457829245 -0.9767141617103845
5128000000.0 0.29560044575280614 -0.9776628914840959
5131000000.0 0.2892892537412039 -0.919980111574355
5134000000.0 0.34077892982970637 -1.009929549211955
5138000000.0 0.3136964632561517 -0.9656201537434743
5141000000.0 0.3964795229885396 -0.9908984011085118
5144000000.0 0.351560223675927 -0.9313719205762654
5147000000.0 0.34303434928886917 -0.9907402674809325
5150000000.0 0.35283047704725484 -1.0063503376447727
5153000000.0 0.37203130548969365 -1.0103324083533232
5156000000.0 0.34979562850959883 -1.0244469657083524
5159000000.0 0.34677402753675957 -1.0208698810833887
5162000000.0 0.32356966885308547 -0.9995204817278304
5166000000.0 0.30404390997679037 -0.987092138878219
5169000000.0 0.33187147609756096 -1.0004963098564947
