! Created with skrf 1.8.0 (http://scikit-rf.org).
# Hz S RI R 50.0 
!freq ReS11 ImS11
4000000000.0 0.9211523891407645 -0.41841966550041265
4003000000.0 0.9824670795441977 -0.4812418944304928
4006000000.0 0.874480685006879 -0.42919195227415596
4009000000.0000005 0.9767250694921737 -0.4702873593775285
4011999999.9999995 0.9422361835777591 -0.4417903075739611
4016000000.0 0.9390483120882938 -0.450813576912221
4019000000.0 0.9818529398298351 -0.45983110988071685
4022000000.0000005 0.9516020162595304 -0.3445973482417461
4025000000.0000005 0.9119041741046082 -0.5256949237669488
4027999999.9999995 0.920234985846699 -0.47200145276808975
4030999999.9999995 0.8979725953526019 -0.41744367066014704
4034000000.0 0.9259013921168662 -0.42312703184267
4038000000.0000005 0.9467668331248521 -0.5391007073342565
4041000000.0000005 0.9575694162243557 -0.41803440179224566
4043999999.9999995 1.0077939985319926 -0.5285910232503755
4046999999.9999995 0.9661164138811216 -0.42956613979775565
4050000000.0 0.9530663303344586 -0.5653401346185507
4053000000.0 0.9036128070237389 -0.4754792783843964
4056000000.0 0.9247424459710484 -0.47918579827780805
4059000000.0 0.9856062528277931 -0.43497550228836984
4062000000.0000005 0.9248150050807602 -0.49438592820285937
4066000000.0 0.8441793442638528 -0.4443265136723926
4069000000.0 0.9765847789187625 -0.5159293802470354
4072000000.0 0.9655122484776494 -0.3994825484321392
4075000000.0 1.000295661606798 -0.424036886935875
4078000000.0000005 0.9380241609054237 -0.4958371438027386
4081000000.0000005 0.9731704715268912 -0.3843562064713768
4083999999.9999995 0.9491063466876164 -0.5012468929091121
4088000000.0 0.93120754167971 -0.40963986344042425
4091000000.0 1.0017932615361655 -0.5341855785306115
4094000000.0000005 0.9668156432138308 -0.47307900749601717
4097000000.0000005 0.8765850952558851 -0.4639759227628562
4099999999.9999995 0.9374807442666339 -0.48667318326701314
4102999999.9999995 1.0067042608821544 -0.477647262806383
4106000000.0 0.9862192731687263 -0.4839577027795091
4109000000.0 0.926406317887349 -0.5556739021609872
4112000000.0 0.9674742608565667 -0.48971661347697143
4115999999.9999995 0.9462805439644512 -0.44298202821792826
4119000000.0 0.9177141437019954 -0.5127529170190998
4122000000.0 0.9703631394419483 -0.48261170658132485
4125000000.0 0.9896940659579446 -0.5775817021718835
4128000000.0 0.8961208904145893 -0.4389012527267212
4131000000.0 0.913073739202563 -0.4474558454351824
4134000000.0000005 0.9393190248547004 -0.4625288597961283
4138000000.0 0.8927685245522476 -0.5010799762914694
4141000000.0 0.9182015501488632 -0.48830393185849374
4144000000.0 0.9481587301748456 -0.4289308196314805
4147000000.0000005 0.8693607199661331 -0.4818009371497889
4150000000.0000005 0.9783922883225223 -0.46081950622204854
4152999999.9999995 0.9378079367126341 -0.5311960528204331
4155999999.9999995 0.9183530341061941 -0.5101298374931399
4159000000.0 0.9527197191946247 -0.45468677376796623
4162000000.0 0.8911324795875187 -0.4586122871146915
4166000000.0000005 0.9279238196708086 -0.5094935757782116
4168999999.9999995 0.9548401482648455 -0.5365482820313239
4171999999.9999995 0.9376535819679681 -0.4702996048506154
4175000000.0 0.9064398517402283 -0.4650672991081431
4178000000.0 0.9283430205451932 -0.5220327970226962
4181000000.0 0.9367467970964173 -0.4638519049651422
4184000000.0 0.9443216438440547 -0.43491751148635177
4187999999.9999995 0.920483231655128 -0.4947093099422372
4191000000.0 0.9142797457055606 -0.4333199332621102
4194000000.0 0.893941724411459 -0.47228055866846597
4197000000.0 0.8973819156117182 -0.48344859628290104
4200000000.0 0.921707360045765 -0.4953611076570321
4203000000.0000005 0.9272798881110388 -0.4366340419742434
4206000000.0000005 0.9233712081451875 -0.5158667801154024
4208999999.9999995 0.9047413783389839 -0.48209969347088033
4211999999.9999995 0.891084775860622 -0.5039448817579173
4216000000.0 0.9087110921561858 -0.47796695025130764
4219000000.0000005 0.9228958313421337 -0.47084821571004665
4222000000.0000005 0.9312794269900057 -0.5152170260172324
4224999999.9999995 0.9103152938188988 -0.46412196068406175
4227999999.9999995 0.9351955033237085 -0.4850870696717449
4231000000.0 0.9036480431402139 -0.4821670245057172
4234000000.0 0.937307858870746 -0.4636686241351734
4238000000.0000005 0.9025857499468366 -0.48677080940619605
4240999999.9999995 0.942431612627187 -0.5066593476746394
4244000000.0 0.9234997894857814 -0.47514292156624954
4247000000.0 0.9241906116198882 -0.47745075080837107
4250000000.0 0.9189093314531017 -0.49620652632625095
4253000000.0 0.8950538719781003 -0.478280240909814
4256000000.0 0.8975901041604926 -0.4744288787738024
4259000000.0000005 0.9019741912535489 -0.46283628650663544
4261999999.9999995 0.9087954462705712 -0.5003704992731298
4266000000.0 0.9033535246979998 -0.47923549976230767
4269000000.0 0.9384181395066515 -0.4813367087468891
4272000000.0000005 0.894756150525148 -0.49919222689795256
4275000000.0000005 0.8914600808497185 -0.47522990901382245
4277999999.9999995 0.9206049101643412 -0.4951799385662847
4280999999.9999995 0.9126251589868402 -0.4697037219102293
4284000000.0 0.9066822484037514 -0.5175706359337969
4288000000.0000005 0.9312094172815044 -0.48265282266473863
4291000000.0000005 0.8952242827438065 -0.48377559828017513
4293999999.9999995 0.8980126953816471 -0.47396180444290253
4297000000.0 0.8711110233892615 -0.48672732374242234
4300000000.0 0.9217329909323349 -0.5067246012394717
4303000000.0 0.9004206118620562 -0.49647246536723005
4306000000.0 0.9374217179832545 -0.4684993206954069
4309000000.0 0.894260732052226 -0.4849644717183905
4312000000.0 0.9166765884097996 -0.502276877737988
4316000000.0 0.9233726121378498 -0.48849129169026684
4319000000.0 0.8985767664774927 -0.4823195244791576
4322000000.0 0.883620922735505 -0.4891477393112071
4325000000.0 0.9023424306171667 -0.46564166747839886
4328000000.0 0.8930081695588674 -0.49816589401349465
4331000000.0 0.8694719333602432 -0.507943460322656
4334000000.0 0.9335366180981298 -0.5175781953774432
4338000000.0 0.9117094545106008 -0.4447898641267566
4341000000.0 0.9103171132039944 -0.4570927822564401
4344000000.0 0.9001124099427984 -0.5007181611807289
4347000000.0 0.894675380569358 -0.49726078510251454
4350000000.0 0.8747654994948393 -0.49616094332938937
4353000000.0 0.8824627919405026 -0.46951060158868685
4356000000.0 0.898120186078359 -0.5181725670175307
4359000000.0 0.8358708245200206 -0.4919459919410486
4362000000.0 0.8584700718446096 -0.5380607957538751
4366000000.0 0.8949581960931984 -0.5323971760358425
4369000000.0 0.8620950760784752 -0.49196525028645083
4372000000.0 0.8363331354901191 -0.5067535461617639
4375000000.0 0.8866699419276591 -0.49740427929099584
4378000000.0 0.8794911407864174 -0.4847179759482564
4381000000.0 0.898530936498136 -0.4855074564531609
4384000000.0 0.9283243313075351 -0.5374007972480526
4388000000.0 0.8747756030395579 -0.4710177429804936
4391000000.0 0.8764689778987107 -0.48131692985203856
4394000000.0 0.8709475146627816 -0.4967621036050081
4397000000.0 0.868009972780347 -0.4941694335333119
4400000000.0 0.9149516677339118 -0.5055326209094582
4403000000.0 0.8987000404939962 -0.4961195939280564
4406000000.0 0.8687359529037204 -0.5363089059041561
4409000000.0 0.9090535097610782 -0.5248701943452432
4412000000.0 0.8469776901091577 -0.5306318378160539
4416000000.0 0.8773120204584163 -0.5092008004766179
4419000000.0 0.8810575339768763 -0.5077060629990289
4422000000.0 0.8939937296356479 -0.5021122900734372
4425000000.0 0.9109116073524055 -0.4948060252899289
4428000000.0 0.8857201842540534 -0.5141961348830707
4431000000.0 0.8989327614684983 -0.5158843448321218
4434000000.0 0.882897551411616 -0.5011880641996134
4438000000.0 0.8904501208618179 -0.5091528034783388
4441000000.0 0.890170330955139 -0.5055142332515568
4444000000.0 0.8613841847183685 -0.4815832131359389
4447000000.0 0.8745222187607437 -0.513604914123494
4450000000.0 0.8735314955949927 -0.4793306176445504
4453000000.0 0.8882606848772334 -0.5324277540378026
4456000000.0 0.848306491949817 -0.5077301943045233
4459000000.0 0.8171102985872145 -0.5090916037113367
4462000000.0 0.9382722536946695 -0.5448668015269518
4466000000.0 0.8999618733644887 -0.5504377568023013
4469000000.0 0.8838096327557851 -0.4994615115865467
4472000000.0 0.8802662445139164 -0.5432239636001873
4475000000.0 0.8638712538201909 -0.5018567232822442
4478000000.0 0.9129112096769344 -0.5625402897744644
4481000000.0 0.8395114117576141 -0.5320912376134497
4484000000.0 0.8436414680881563 -0.5553596286574816
4488000000.0 0.8324965193122439 -0.5310640495296289
4491000000.0 0.8687890265262386 -0.5406327463989844
4494000000.0 0.8568672347107325 -0.5118060909833174
4497000000.0 0.8610504408832869 -0.5122065793016763
4500000000.0 0.8697006076038654 -0.5113267159044391
4503000000.0 0.8938288637430032 -0.5198221928515927
4506000000.0 0.8670407829741306 -0.5307870471747008
4509000000.0 0.8501230015970923 -0.5157377993774388
4512000000.0 0.8480081546810333 -0.5185801423737901
4516000000.0 0.909358991329367 -0.5051462867980837
4519000000.0 0.8391488177351758 -0.5030351300966679
4522000000.0 0.849470446120732 -0.5188558824564591
4525000000.0 0.8831565231712921 -0.48973431154483443
4528000000.0 0.8914639167065257 -0.5485249340967093
4531000000.0 0.8642191775533797 -0.5093519035391229
4534000000.0 0.859777626097739 -0.514524872484962
4538000000.0 0.8488878569987923 -0.5368529380904608
4541000000.0 0.8349456854023348 -0.5601621344220962
4544000000.0 0.8417672691281399 -0.5057143698894787
4547000000.0 0.8511404229330016 -0.5009018200091285
4550000000.0 0.84572768874388 -0.5443099107980801
4553000000.0 0.8544783958003805 -0.527960163788116
4556000000.0 0.8340193370321649 -0.5467530836744057
4559000000.0 0.8582325286535619 -0.5506988408578283
4562000000.0 0.859690713001406 -0.5368170560641814
4566000000.0 0.8511363731171961 -0.5552558507800509
4569000000.0 0.8207581962051437 -0.5321414240835389
4572000000.0 0.8522624556935158 -0.5311114526953853
4575000000.0 0.8491145789308107 -0.5574513277971208
4578000000.0 0.8889149177001155 -0.538209151231061
4581000000.0 0.8647390875668867 -0.5714994023431423
4584000000.0 0.846322903126334 -0.540580917122385
4588000000.0 0.8853440645183729 -0.5316257375693947
4591000000.0 0.874192933306918 -0.5230511674800605
4594000000.0 0.838612074181566 -0.5735330974663114
4597000000.0 0.8608023407075748 -0.5624474229650277
4600000000.0 0.8124505382151996 -0.5646920420999295
4603000000.0 0.8529713015457958 -0.5479550355160787
4606000000.0 0.8421410950276822 -0.5429726673564131
4609000000.0 0.8470742034030294 -0.5688931053370743
4612000000.0 0.8670956584748338 -0.5586944133429426
4616000000.0 0.8476755323647018 -0.5486367397898884
4619000000.0 0.8571637334327866 -0.540044250879451
4622000000.0 0.8443754036850835 -0.5340183077873935
4625000000.0 0.7918793464724244 -0.5389527677544288
4628000000.0 0.8284790200133584 -0.5068080717574787
4631000000.0 0.8009847930285583 -0.5741908831214094
4634000000.0 0.8552825877441583 -0.5358116786377896
4638000000.0 0.8438684717736817 -0.5524464104257865
4641000000.0 0.8711920134706506 -0.5487992025984291
4644000000.0 0.8536975583979232 -0.5481305655567549
4647000000.0 0.8536248842696079 -0.5519362877994703
4650000000.0 0.8285237675370991 -0.5709948538284693
4653000000.0 0.874742431932801 -0.565364523062029
4656000000.0 0.7986878450862709 -0.5751689454116873
4659000000.0 0.8067702054050626 -0.5613667939424003
4662000000.0 0.82822048899638 -0.5744752424904136
4666000000.0 0.8357234645542904 -0.5541626851522582
4669000000.0 0.8464005602706867 -0.5459400479156991
4672000000.0 0.8167189976049649 -0.5794182955671047
4675000000.0 0.8127221820477811 -0.5609225398743016
4678000000.0 0.8340246965964982 -0.5617267188084752
4681000000.0 0.8075143747876297 -0.5822608827153087
4684000000.0 0.806279802944806 -0.5700533785665641
4688000000.0 0.8218198660758194 -0.5662649184972275
4691000000.0 0.8134844157483324 -0.5293121427329935
4694000000.0 0.8236698348687208 -0.5855948478901094
4697000000.0 0.8201678741265208 -0.5622069017721034
4700000000.0 0.8484006886164883 -0.5707151204065289
4703000000.0 0.8393053391123865 -0.5692781321685018
4706000000.0 0.8305276164951286 -0.5684743329111476
4709000000.0 0.8424206350677279 -0.5811599749557825
4712000000.0 0.8333056272766567 -0.5802225098766902
4716000000.0 0.8168903255894272 -0.5891310703623212
4719000000.0 0.8405614112511293 -0.6036541141889976
4722000000.0 0.8546719192648918 -0.5753293677182381
4725000000.0 0.8378208254421969 -0.5847617845440655
4728000000.0 0.8234230330882667 -0.5839571165228168
4731000000.0 0.835111175796385 -0.5704116096752198
4734000000.0 0.815282984873227 -0.5653438578939344
4738000000.0 0.826967741132683 -0.5870569736744565
4741000000.0 0.8477070973686064 -0.5909335651362266
4744000000.0 0.838161356960516 -0.5993131535283748
4747000000.0 0.8457878239696166 -0.5603517551429349
4750000000.0 0.8271588904100591 -0.5892607078367587
4753000000.0 0.8410103922694586 -0.5927230805816145
4756000000.0 0.8235370190667423 -0.6101219473548315
4759000000.0 0.8170711496985195 -0.6165010161652148
4762000000.0 0.8153225273129507 -0.5858329246878771
4766000000.0 0.8199212588967252 -0.5795995086463643
4769000000.0 0.8594098077113752 -0.5979320243273446
4772000000.0 0.8371689389693745 -0.6016382827092203
4775000000.0 0.844842189468203 -0.5745064546646657
4778000000.0 0.8267191341083215 -0.6003565336552619
4781000000.0 0.8251650337404184 -0.5737846057195167
4784000000.0 0.8194936228945839 -0.5793845559065618
4788000000.0 0.82740754655373 -0.587601261444038
4791000000.0 0.8289015279297279 -0.5963969101929514
4794000000.0 0.8476270578080914 -0.6085248258136604
4797000000.0 0.8265171282776352 -0.60256443009458
4800000000.0 0.8115218493127508 -0.6089725012249556
4803000000.0 0.7967122360163734 -0.6086533409086057
4806000000.0 0.8314815646218117 -0.6111136520575282
4809000000.0 0.7954404302409582 -0.6136615554047791
4812000000.0 0.8027875617948725 -0.6340958805012249
4816000000.0 0.8160428648038712 -0.5803712528800159
4819000000.0 0.849757908772945 -0.6129484104704475
4822000000.0 0.8230990009905468 -0.6010875550271297
4825000000.0 0.8393110674262039 -0.6110266422729621
4828000000.0 0.829174564287302 -0.5940535852917924
4831000000.0 0.8082334816161261 -0.6545455350546636
4834000000.0 0.8138115658852394 -0.6268356244310589
4838000000.0 0.8322127251664582 -0.63640487158724
4841000000.0 0.8079020926733251 -0.6309614443518781
4844000000.0 0.835200604057784 -0.5911252760448699
4847000000.0 0.7948426954367023 -0.5781868939462391
4850000000.0 0.8191499229986215 -0.6243695150457486
4853000000.0 0.7964222400152114 -0.6030051255622388
4856000000.0 0.8003595691530003 -0.5951761373429977
4859000000.0 0.833321022708513 -0.6231436953817848
4862000000.0 0.8180853338499715 -0.5598330699329648
4866000000.0 0.8039243351191945 -0.613767608216176
4869000000.0 0.8126611539961401 -0.6323319012005896
4872000000.0 0.8232418177085863 -0.653426709862947
4875000000.0 0.868813138968218 -0.6012429629858964
4878000000.0 0.8221362121118385 -0.6115766495034791
4881000000.0 0.8338450260918608 -0.6586211674745155
4884000000.0 0.8271044128127327 -0.5917126768131987
4888000000.0 0.8377435198952612 -0.5767570104215456
4891000000.0 0.8647516818934919 -0.6036908931690526
4894000000.0 0.7980000795475355 -0.6231805385846969
4897000000.0 0.8330523921828864 -0.5859368050718289
4900000000.0 0.8212677587619623 -0.6196403902394373
4903000000.0 0.8365007521179455 -0.6314171315556815
4906000000.0 0.8316948069488621 -0.6199686839223193
4909000000.0 0.8198146387983178 -0.6298504092194983
4912000000.0 0.8382266436548048 -0.6332131604672968
4916000000.0 0.8471824210277262 -0.5963890337023481
4919000000.0 0.8385999332109535 -0.6462018642185786
4922000000.0 0.8573798275517841 -0.6112655154207494
4925000000.0 0.7970418863959767 -0.6541751404493141
4928000000.0 0.8342035225852333 -0.5928365655995371
4931000000.0 0.8609875969669347 -0.6221854146552339
4934000000.0 0.7842434686210078 -0.6219563149377076
4938000000.0 0.8206773616977092 -0.6263504397598494
4941000000.0 0.8360212653372661 -0.6209048514169324
4944000000.0 0.8174176563051123 -0.5762170205296868
4947000000.0 0.8016308584324283 -0.612471353709247
4950000000.0 0.7846784600521528 -0.6386931942976589
4953000000.0 0.8054464551497797 -0.6870182078088072
4956000000.0 0.7977605807620182 -0.6440422491846293
4959000000.0 0.7657115110637078 -0.6247940306953983
4962000000.0 0.8143303591894818 -0.6385330995777101
4966000000.0 0.8417087227304908 -0.623997164496573
4969000000.0 0.8648308723762854 -0.627847915667146
4972000000.0 0.8238746691823741 -0.6339272332228726
4975000000.0 0.8243350142930009 -0.6142554482858709
4978000000.0 0.7935022656045678 -0.6390557624252708
4981000000.0 0.8056481010253983 -0.6440933126576297
4984000000.0 0.7921390667118997 -0.5946693989157223
4988000000.0 0.8015163838779442 -0.5849297403499111
4991000000.0 0.8817744577021178 -0.6027443358588088
4994000000.0 0.8344694913066962 -0.620940107607065
4997000000.0 0.8142241131426727 -0.6428969666228891
5000000000.0 0.8383902758976819 -0.6273781023166102
5003000000.0 0.8485827678992786 -0.6299899325928665
5006000000.0 0.8616105450887036 -0.6439260512252689
5009000000.0 0.8353861708847237 -0.6128190749566653
5012000000.0 0.8249313607826425 -0.6375199271424368
5016000000.0 0.8922912527175064 -0.6172291680068406
5019000000.0 0.7984821639934727 -0.6334938183484436
5022000000.0 0.8196426589245529 -0.6356321396727725
5025000000.0 0.8785984937696748 -0.6769973297194205
5028000000.0 0.7994202209788807 -0.6542426929096603
5031000000.0 0.8308392645697757 -0.653188982947207
5034000000.0 0.7948376423042252 -0.7189211915533177
5038000000.0 0.8029047583564835 -0.6253358291834437
5041000000.0 0.8319322710447686 -0.5939925365873333
5044000000.0 0.8393773144774709 -0.6009541648152097
5047000000.0 0.8423632739897177 -0.6167632754997788
5050000000.0 0.8684128322077073 -0.5552726047403085
5053000000.0 0.8548558594702751 -0.6660556402846477
5056000000.0 0.8620048225299582 -0.5995457871481951
5059000000.0 0.8731952128175403 -0.5767459207044561
5062000000.0 0.8184603975099275 -0.6453031814351429
5066000000.0 0.8437732989703908 -0.5807836580810392
5069000000.0 0.8660236033920347 -0.6454983768076248
5072000000.0 0.7646219364747231 -0.6211238518582892
5075000000.0 0.8437945190955308 -0.6039093178580603
5078000000.0 0.8088654393554382 -0.6499695917499149
5081000000.0 0.8178930301704039 -0.6146757968106618
5084000000.0 0.88806428472424 -0.6533188059196549
5088000000.0 0.8468222026104523 -0.5874441307623346
5091000000.0 0.7997896560995577 -0.6673866878390521
5094000000.0 0.8177920689533198 -0.6646437077510794
5097000000.0 0.8444146378273921 -0.5905601101044755
5100000000.0 0.8413498221784339 -0.635018514801038
5103000000.0 0.8029647597308105 -0.6710905163455578
5106000000.0 0.9041244832137735 -0.6219216459057245
5109000000.0 0.8327562486723953 -0.5710421394530889
5112000000.0 0.7953801902602965 -0.656405727561068
5116000000.0 0.8005674760090123 -0.5973765669065063
5119000000.0 0.8641530971283864 -0.6283391383039156
5122000000.0 0.785811982150862 -0.571078551937744
5125000000.0 0.8623332957113712 -0.6333148574707408
5128000000.0 0.8485916804950997 -0.612623190379403
5131000000.0 0.823566328031829 -0.6062699956288062
5134000000.0 0.8537394338228563 -0.5832171428281266
5138000000.0 0.815478143617598 -0.5817061574806501
5141000000.0 0.8719760441080054 -0.5941837054876682
5144000000.0 0.8511138252263178 -0.584082267641947
5147000000.0 0.8371293891312626 -0.651601551902454
5150000000.0 0.8580591025451276 -0.5809896058474465
5153000000.0 0.8444489283471072 -0.5989978721032799
5156000000.0 0.8757100140908437 -0.5854270855993267
5159000000.0 0.8882657779291352 -0.6127474561858262
5162000000.0 0.8142942240046721 -0.6254059493656832
5166000000.0 0.8939227231255822 -0.6744688042936876
5169000000.0 0.8758101416138279 -0.6305276621160141
5172000000.0 0.7958292556802142 -0.6084654551845439
5175000000.0 0.8894022327933815 -0.5873424685793941
5178000000.0 0.8201179344186413 -0.630857964296661
