! Created with skrf 1.8.0 (http://scikit-rf.org).
# Hz S RI R 50.0 
!freq ReS11 ImS11
4000000000.0 0.5520353640822363 -0.8815620043841301
4003000000.0 0.6072121134793337 -0.9479414955802208
4006000000.0 0.45937070654081624 -0.9314645837286373
4009000000.0000005 0.5776844628834609 -0.8726218879072378
4011999999.9999995 0.6129551530453907 -0.9234133925570436
4016000000.0 0.5013452372393296 -0.9340787247302699
4019000000.0 0.5106203182180679 -0.9076524798174758
4022000000.0000005 0.5844565199214444 -0.8423803609658247
4025000000.0000005 0.5182294678883971 -0.8853889760836517
4027999999.9999995 0.530163198865168 -0.9219563666072299
4030999999.9999995 0.495944358672771 -0.849422130940771
4034000000.0 0.5132037757665864 -0.8658522528739712
4038000000.0000005 0.5407204637879492 -0.9080819583563546
4041000000.0000005 0.48807509013457273 -0.8993828390104363
4043999999.9999995 0.5552787433332566 -0.9251672850099326
4046999999.9999995 0.5660801948655274 -0.9238458705915431
4050000000.0 0.5102021389476109 -0.8997856849226166
4053000000.0 0.474781874709142 -0.8709551675498675
4056000000.0 0.5404998491977803 -0.8847269954881802
4059000000.0 0.5556547471398691 -0.8973639958509173
4062000000.0000005 0.4887783247589841 -0.9232335921696686
4066000000.0 0.46608539992197934 -0.83524548177638
4069000000.0 0.5272202640490258 -0.949591414067865
4072000000.0 0.556549744805013 -0.8797198613967229
4075000000.0 0.5562400035585755 -0.8863221075145256
4078000000.0000005 0.49477976291684345 -0.8795286936543629
4081000000.0000005 0.5866607307857149 -0.8793591812135083
4083999999.9999995 0.5142556011887012 -0.9191499701287555
4088000000.0 0.5546021798361312 -0.8457968017041513
4091000000.0 0.5575365429231419 -0.9380592981305449
4094000000.0000005 0.5734588033739795 -0.8579119906340659
4097000000.0000005 0.5393352573940218 -0.9002461618615986
4099999999.9999995 0.5026538091068852 -0.8955529845234705
4102999999.9999995 0.5371063375077944 -0.9079072953863089
4106000000.0 0.5341339604408071 -0.8796810707846138
4109000000.0 0.528941360590166 -0.8693264099885893
4112000000.0 0.5423339699680446 -0.9094976898342604
4115999999.9999995 0.5441112827895763 -0.8596970205452431
4119000000.0 0.5420447355420072 -0.8976577108432079
4122000000.0 0.517688612358674 -0.9117722809980414
4125000000.0 0.4872967100910286 -0.933116194502942
4128000000.0 0.5264442495763733 -0.8686185583969355
4131000000.0 0.48779165947975706 -0.8565109299500953
4134000000.0000005 0.5648498395635765 -0.8626901276697126
4138000000.0 0.5062767419570126 -0.8633949755450817
4141000000.0 0.5119126798761356 -0.8938439281199766
4144000000.0 0.5432614439737374 -0.868771605835196
4147000000.0000005 0.522336891729997 -0.855639687865753
4150000000.0000005 0.5304148160992994 -0.8853384953035429
4152999999.9999995 0.49375271140436083 -0.8725068225746182
4155999999.9999995 0.5719160019238586 -0.8943493428463729
4159000000.0 0.544407833311865 -0.8359972326039828
4162000000.0 0.5260723958509073 -0.8744703551296844
4166000000.0000005 0.5475067680476771 -0.903066459646859
4168999999.9999995 0.49261847625132243 -0.8867945288945497
4171999999.9999995 0.5498815783934872 -0.889330695577368
4175000000.0 0.5574405587548579 -0.8782537762258282
4178000000.0 0.5384038483611941 -0.9005990755379177
4181000000.0 0.5009819599887648 -0.8910374237176527
4184000000.0 0.5480660216097847 -0.8696823039889989
4187999999.9999995 0.5136527384850137 -0.8606662215229246
4191000000.0 0.556281794908892 -0.8471441361757092
4194000000.0 0.5099806426901639 -0.8705651810077819
4197000000.0 0.5347473545883309 -0.8824782570947194
4200000000.0 0.5358522468542863 -0.8753913693501281
4203000000.0000005 0.5488506486220214 -0.870650100299869
4206000000.0000005 0.542803384539108 -0.8803628517788489
4208999999.9999995 0.5024379304757143 -0.861972541395914
4211999999.9999995 0.5049684920365853 -0.8920704671720985
4216000000.0 0.5367790424519086 -0.8714914297911747
4219000000.0000005 0.5439182800503993 -0.8879105520323295
4222000000.0000005 0.521517370270304 -0.8626873936078813
4224999999.9999995 0.5328048676375983 -0.8622551451713162
4227999999.9999995 0.5472867358073716 -0.8813734705862194
4231000000.0 0.521352736807387 -0.8733435923807891
4234000000.0 0.5399079062196215 -0.8878568708786668
4238000000.0000005 0.5239257057348123 -0.8922605008234559
4240999999.9999995 0.5229185698435198 -0.8685293112724608
4244000000.0 0.5229541332083913 -0.8705042686917898
4247000000.0 0.5351969859675108 -0.86991378407713
4250000000.0 0.5062334638845328 -0.8506706232342356
4253000000.0 0.5016338170020728 -0.8482085836628943
4256000000.0 0.5454780895635591 -0.8887523566287612
4259000000.0000005 0.5015066959954337 -0.8425580279339923
4261999999.9999995 0.5122474035745155 -0.8594725696388122
4266000000.0 0.5122712656957641 -0.8964501412463616
4269000000.0 0.5549920663524174 -0.870201275092556
4272000000.0000005 0.5329611374642788 -0.8728537646159487
4275000000.0000005 0.5263654038040053 -0.8670720524644867
4277999999.9999995 0.549986320075702 -0.881997256836804
4280999999.9999995 0.5256682419625898 -0.8618643223544835
4284000000.0 0.49119793054679284 -0.8988977035268542
4288000000.0000005 0.5591436290072104 -0.8453691512093412
4291000000.0000005 0.519971906552148 -0.8468283815342323
4293999999.9999995 0.5089373417664778 -0.8644867736429745
4297000000.0 0.5502223457856095 -0.8575442383725094
4300000000.0 0.5320034814463488 -0.8381867073109587
4303000000.0 0.501078542126941 -0.8633170868201536
4306000000.0 0.5415599272784846 -0.8638984878668248
4309000000.0 0.5149200864335536 -0.8455890402392268
4312000000.0 0.5579924580974225 -0.8533525277669693
4316000000.0 0.5403737233569238 -0.873400000034223
4319000000.0 0.5264260243054147 -0.861187417747837
4322000000.0 0.504545960469701 -0.862738191349314
4325000000.0 0.5338510690075988 -0.8627592598897206
4328000000.0 0.5268912636221511 -0.8410513973492542
4331000000.0 0.5038951024500024 -0.8643606317893698
4334000000.0 0.536050907031342 -0.8694455574838857
4338000000.0 0.5409069820357998 -0.8438819819759437
4341000000.0 0.5634885906891636 -0.8831141811734469
4344000000.0 0.5292449559904914 -0.8887409309191137
4347000000.0 0.4994044872786635 -0.9053498646521335
4350000000.0 0.5055194811287748 -0.8441092093576498
4353000000.0 0.5467600578080684 -0.8318389206368627
4356000000.0 0.5004021759061719 -0.8644615901640781
4359000000.0 0.4931479985839844 -0.8276397725294012
4362000000.0 0.4837555874162709 -0.9038224302119622
4366000000.0 0.529674724286452 -0.910353736357874
4369000000.0 0.5116508507768731 -0.8392423820159564
4372000000.0 0.4849793054856545 -0.8812454684945902
4375000000.0 0.5381754659421988 -0.8573956380980726
4378000000.0 0.5071094914776364 -0.8572682870957655
4381000000.0 0.5199384026881986 -0.8465641893756016
4384000000.0 0.5449256525046975 -0.9335132313581073
4388000000.0 0.5213312686077206 -0.839577559364727
4391000000.0 0.5109949635059878 -0.8764926976215713
4394000000.0 0.5008495720357143 -0.8526432529283174
4397000000.0 0.5081824390266858 -0.8687691963291775
4400000000.0 0.5238877757052076 -0.8801439878814589
4403000000.0 0.5141816490991923 -0.8713855392277262
4406000000.0 0.4848100020162617 -0.881378269125932
4409000000.0 0.5160117925975563 -0.8912390924398997
4412000000.0 0.45947896105177677 -0.895243400997914
4416000000.0 0.4928673944427385 -0.8695501565474921
4419000000.0 0.4950736295967191 -0.8791759455961843
4422000000.0 0.5255756926458527 -0.8639759318267742
4425000000.0 0.5382211849155656 -0.8789838858985799
4428000000.0 0.504459035052447 -0.8840872194077093
4431000000.0 0.5257753603757698 -0.8950748792457318
4434000000.0 0.4908000110892183 -0.8681094409986958
4438000000.0 0.5277405350971759 -0.8791483268539183
4441000000.0 0.5203158210638665 -0.8911568985688489
4444000000.0 0.49835632842232463 -0.8595035523758927
4447000000.0 0.48777441161430435 -0.8737032223673618
4450000000.0 0.5192816799052539 -0.8523326433861214
4453000000.0 0.5244912570932021 -0.8833245921435597
4456000000.0 0.4826860521307398 -0.8683608323794071
4459000000.0 0.4805649805409673 -0.8492280823726901
4462000000.0 0.5234162353412607 -0.9308644195666149
4466000000.0 0.5153221671351034 -0.9061227823975364
4469000000.0 0.5102688559231076 -0.8885258885372924
4472000000.0 0.4964098405680152 -0.8980393014712897
4475000000.0 0.4955677602621314 -0.8652090015664895
4478000000.0 0.50149644167005 -0.9209568327570761
4481000000.0 0.4846351377221982 -0.8550036302209707
4484000000.0 0.4532273236061774 -0.8932142853224823
4488000000.0 0.4807318831115235 -0.8770321771366765
4491000000.0 0.4968606987065786 -0.86912329127556
4494000000.0 0.5114892737709825 -0.8623502516787347
4497000000.0 0.4978073290158125 -0.861614378387685
4500000000.0 0.4988623213157033 -0.8763554981284609
4503000000.0 0.49994801990446147 -0.8901510945106299
4506000000.0 0.480184214378194 -0.8692962099395216
4509000000.0 0.4956852153177369 -0.8623679678352755
4512000000.0 0.4842833339744754 -0.8677563863624064
4516000000.0 0.5062873540391258 -0.8855666220163205
4519000000.0 0.47889526350399764 -0.8463128301258077
4522000000.0 0.47704348396666196 -0.8726774237907833
4525000000.0 0.5031164481943751 -0.8607094034618279
4528000000.0 0.4942451232640272 -0.9055456304371592
4531000000.0 0.4972875042147113 -0.8746488029549744
4534000000.0 0.5041098455772174 -0.876627086422661
4538000000.0 0.48316019452695963 -0.8795209963633615
4541000000.0 0.454027047349279 -0.886903356709601
4544000000.0 0.4881406337819102 -0.8682945565074791
4547000000.0 0.5115197335847377 -0.865588607320378
4550000000.0 0.47064403061483867 -0.9127252872599185
4553000000.0 0.4743991251114307 -0.9117927874903687
4556000000.0 0.4795761483019285 -0.8673982776935502
4559000000.0 0.47990916713657417 -0.892085722053437
4562000000.0 0.5063094523827664 -0.8955663258273276
4566000000.0 0.44752396284675267 -0.8963067779446378
4569000000.0 0.4879199583044189 -0.8702913931160805
4572000000.0 0.4976066653961597 -0.8792032094905051
4575000000.0 0.4778996458811914 -0.8870588330880711
4578000000.0 0.5063806825740932 -0.8867958728226284
4581000000.0 0.46005430074521614 -0.897975321160666
4584000000.0 0.4753643313529063 -0.8837785616043574
4588000000.0 0.5096082049871884 -0.9070461633878643
4591000000.0 0.5011830762431363 -0.8778948643722464
4594000000.0 0.4629038826754101 -0.8933797952506592
4597000000.0 0.48742423717839467 -0.9003949152102281
4600000000.0 0.45243887509451797 -0.8944670116581678
4603000000.0 0.48826728474748515 -0.9004391203843781
4606000000.0 0.489523711405784 -0.8983612775939952
4609000000.0 0.47292459499091466 -0.8932951174843748
4612000000.0 0.4725907171450069 -0.9010543424204343
4616000000.0 0.47050970324432073 -0.8698596446168466
4619000000.0 0.48009967217601845 -0.882859376928924
4622000000.0 0.4746963694303056 -0.9042626486062296
4625000000.0 0.4557930367065079 -0.877574794551647
4628000000.0 0.47815016300874896 -0.8748499998508696
4631000000.0 0.4726655521474846 -0.9043927302389116
4634000000.0 0.47915404718674126 -0.8900723902803677
4638000000.0 0.477588488825582 -0.9124223607027613
4641000000.0 0.49357041499729537 -0.8896806170534721
4644000000.0 0.4756845552423378 -0.8914086535257517
4647000000.0 0.4956889650636762 -0.9201029005697301
4650000000.0 0.4457579202299104 -0.8892453324636189
4653000000.0 0.48730671517616486 -0.9067920218320511
4656000000.0 0.4681423901381221 -0.8905734523495088
4659000000.0 0.464762134552461 -0.9016179593476785
4662000000.0 0.4750561800081547 -0.8938010200060653
4666000000.0 0.4646955367614882 -0.9068159157764388
4669000000.0 0.4727327096299771 -0.907186486094019
4672000000.0 0.45620147852730336 -0.9250212777256268
4675000000.0 0.444656398332753 -0.8955268348657082
4678000000.0 0.44392468071659186 -0.875248320326729
4681000000.0 0.44814579764393225 -0.9293080976968959
4684000000.0 0.4454442281344484 -0.9192352547415192
4688000000.0 0.46360385426531125 -0.8891071817462979
4691000000.0 0.4994642996166875 -0.9025772715052902
4694000000.0 0.4831243580879242 -0.8840786122478308
4697000000.0 0.45473128532523005 -0.8810080772810591
4700000000.0 0.4987648614788866 -0.8809160178123552
4703000000.0 0.46378623782451306 -0.8702396089726965
4706000000.0 0.4881051595323449 -0.915401729968146
4709000000.0 0.47616372835247206 -0.8961461716573146
4712000000.0 0.4752638454590322 -0.9242458552119255
4716000000.0 0.4650521699964656 -0.9144969205690425
4719000000.0 0.4870037519995142 -0.8956219237638398
4722000000.0 0.485968040431193 -0.8769544794654
4725000000.0 0.47096297934257286 -0.9022969936635458
4728000000.0 0.4684746074567922 -0.9139091074383674
4731000000.0 0.4914226329474129 -0.9347771161286994
4734000000.0 0.4626918192472736 -0.893307664759332
4738000000.0 0.5142790685699883 -0.926520342479774
4741000000.0 0.503423561823653 -0.94015249633365
4744000000.0 0.47887884732279196 -0.9613379804611024
4747000000.0 0.4863863540407636 -0.8830965416021097
4750000000.0 0.4739467149374425 -0.9270552057255069
4753000000.0 0.4738583553906792 -0.9237751839759044
4756000000.0 0.46912541165106403 -0.9298418144526908
4759000000.0 0.4737091525843104 -0.9212565981694338
4762000000.0 0.46101302553481305 -0.9152684752231756
4766000000.0 0.4867710237141312 -0.9002848462521487
4769000000.0 0.4500329129940179 -0.9184767575502002
4772000000.0 0.45734938439282147 -0.9218561914788934
4775000000.0 0.43932941100496903 -0.9689070276759245
4778000000.0 0.4648766106469767 -0.9240676952438012
4781000000.0 0.4785996678020431 -0.912116950566908
4784000000.0 0.4781270396513829 -0.9158808746641918
4788000000.0 0.4417327925773075 -0.9182987113173486
4791000000.0 0.4550891759302865 -0.9195084474972044
4794000000.0 0.5053226201944819 -0.9131649786359934
4797000000.0 0.44977203973027824 -0.8881312563439452
4800000000.0 0.438064996361266 -0.8995839114411227
4803000000.0 0.4256024463754309 -0.9174417269680073
4806000000.0 0.45850995618414714 -0.9415546011043584
4809000000.0 0.42015512903747865 -0.9097950862943869
4812000000.0 0.4293269599797724 -0.9286577257487975
4816000000.0 0.47729969839028946 -0.9017498544748809
4819000000.0 0.5113901124637326 -0.919471651962172
4822000000.0 0.49039295685906975 -0.9442332524015143
4825000000.0 0.49665494174320246 -0.9335119667035002
4828000000.0 0.45370445762752376 -0.9079383985345534
4831000000.0 0.42595770550308526 -0.9719551517359492
4834000000.0 0.46966154670205873 -0.9071702139415214
4838000000.0 0.45886030927781657 -0.9315164295743023
4841000000.0 0.4557341252715832 -0.9089264518669187
4844000000.0 0.5034486172106744 -0.9203223900058681
4847000000.0 0.4809760233196716 -0.8681931870074227
4850000000.0 0.4475154788124446 -0.9476557943610139
4853000000.0 0.46550694944684534 -0.8859055421982672
4856000000.0 0.4375565686524971 -0.9011302435099278
4859000000.0 0.4801314173806193 -0.9476544806236883
4862000000.0 0.47308385116154816 -0.894571563920134
4866000000.0 0.4423652104576768 -0.9444410716372895
4869000000.0 0.44075378597428005 -0.9352371956760638
4872000000.0 0.44036169418342175 -0.9544999838760568
4875000000.0 0.5189222777154885 -0.941449474828721
4878000000.0 0.45663037421956354 -0.9443169223671376
4881000000.0 0.46969343815922604 -1.0086022302398556
4884000000.0 0.4771090286801217 -0.9153845212102241
4888000000.0 0.49688945899630726 -0.9040201477626124
4891000000.0 0.49368781183078264 -0.9284531761282883
4894000000.0 0.45667086530627626 -0.9271083879859277
4897000000.0 0.5066945572016323 -0.8900907566187021
4900000000.0 0.47918600391094845 -0.9554666571457863
4903000000.0 0.5007330541182644 -0.9453682708985838
4906000000.0 0.49053975620185825 -0.9639272381041766
4909000000.0 0.45267683283775895 -0.9135498600377995
4912000000.0 0.4555221972901884 -0.9823558924451389
4916000000.0 0.4762945355196905 -0.9366869993724641
4919000000.0 0.512608985578915 -0.9088481694499585
4922000000.0 0.4869990343024894 -0.9409632380564326
4925000000.0 0.4273932764640613 -0.923880386802327
4928000000.0 0.5216977958039585 -0.9290660487473474
4931000000.0 0.4940690741933223 -0.9387218412888858
4934000000.0 0.4556647355432607 -0.8753299477975394
4938000000.0 0.41855771954810683 -0.9189767357824007
4941000000.0 0.4500370839561462 -0.8976976846240083
4944000000.0 0.47098371985352955 -0.8257178674006433
4947000000.0 0.4562591311381026 -0.9144694848881774
4950000000.0 0.48350047541784286 -0.9262225883678888
4953000000.0 0.47672062173892815 -0.9822398205151625
4956000000.0 0.4681921406195523 -0.9507419667627217
4959000000.0 0.42925841757665517 -0.8824854342057693
4962000000.0 0.45024836402867574 -0.9101012522642348
4966000000.0 0.5220733934491052 -0.8957184895092544
4969000000.0 0.49559678307566835 -0.9392051773042623
4972000000.0 0.4686921840813499 -0.9396577570222426
4975000000.0 0.5054866810017076 -0.8621858689689731
4978000000.0 0.43803291209626954 -0.9091761769581672
4981000000.0 0.42264574303831814 -0.9379051634338992
4984000000.0 0.4915445369374869 -0.8977323651549607
4988000000.0 0.49781668168491067 -0.9179930093634174
4991000000.0 0.5306551937891162 -0.914714145479964
4994000000.0 0.49840488982714964 -0.9079239299680796
4997000000.0 0.45304296366974006 -0.9522844841328706
5000000000.0 0.5390504956033348 -0.9217668378699294
5003000000.0 0.5232647630450391 -0.9505534118743142
5006000000.0 0.4892456383160858 -0.995914565701228
5009000000.0 0.49783725447259586 -0.9343776124938593
5012000000.0 0.4668333368806191 -0.9272725197271608
5016000000.0 0.5120535924722196 -0.9299397288790022
5019000000.0 0.4758542865412947 -0.9171952526977427
5022000000.0 0.4526942724518012 -0.9241422047904073
5025000000.0 0.48900487559761346 -0.981647830904959
5028000000.0 0.4637198807245167 -0.9422422979169337
5031000000.0 0.47480486244664205 -0.9140384799881146
5034000000.0 0.45441314740969924 -0.9527052783998746
5038000000.0 0.4109162287056105 -0.915349920493411
5041000000.0 0.5162930319526843 -0.8818845951419219
5044000000.0 0.5192238154331525 -0.9120245684118579
5047000000.0 0.5131208550303417 -0.8990890591975818
5050000000.0 0.5728945846701188 -0.8779304400115452
5053000000.0 0.5056054351273662 -0.9523399540981747
5056000000.0 0.5092518441587182 -0.9061408341732247
5059000000.0 0.535934314282334 -0.8970035224869969
5062000000.0 0.48810747444885866 -0.935339273166057
5066000000.0 0.5209435926430585 -0.8976860220290722
5069000000.0 0.4839776934925783 -0.8961471197362465
5072000000.0 0.4996416951635548 -0.8802933786850757
5075000000.0 0.5145968159871541 -0.916193951418439
5078000000.0 0.44568598104841184 -0.9337132348754724
5081000000.0 0.4748248984438142 -0.9047649054304943
5084000000.0 0.45793150589388615 -0.9112526221147758
5088000000.0 0.4975010813851946 -0.8730370185792378
5091000000.0 0.46256565142991596 -0.9226804241427048
5094000000.0 0.4996927071264792 -0.9431699254105232
5097000000.0 0.5221011955159314 -0.8780797934380086
5100000000.0 0.4801109313185107 -0.9138414820646663
5103000000.0 0.4591087426014209 -0.9692532796025829
5106000000.0 0.5086628250381442 -0.951447671575583
5109000000.0 0.5440395689730432 -0.8962505765624429
5112000000.0 0.5020195081959228 -0.9384903852598316
5116000000.0 0.4867919702998736 -0.8547704862599729
5119000000.0 0.5083850680339971 -0.9150549084838202
5122000000.0 0.47615309538891626 -0.8887281585493607
5125000000.0 0.5061362019224582 -0.8616366237585986
5128000000.0 0.4726083992870863 -0.8779021229329955
5131000000.0 0.49993362585943846 -0.8722985524194626
5134000000.0 0.5298937141388488 -0.9318311113635118
5138000000.0 0.5110738918933462 -0.905245201542908
5141000000.0 0.5590151698689314 -0.8920992873384725
5144000000.0 0.502481844859082 -0.9036154611072547
5147000000.0 0.47371220788565493 -0.8824555995320429
5150000000.0 0.5105357599063682 -0.9383682596670821
5153000000.0 0.49931003121729184 -0.9096167051050603
5156000000.0 0.526886931249793 -0.918737618759712
5159000000.0 0.5155424032435916 -0.9224970251080222
5162000000.0 0.47689709710871564 -0.890939704248856
5166000000.0 0.492650449123413 -0.9235987057746418
5169000000.0 0.4975405651863077 -0.9434359492378022
5172000000.0 0.5331773856256362 -0.8782142157642733
5175000000.0 0.5515136294890131 -0.8859089567367935
