! Created with skrf 1.8.0 (http://scikit-rf.org).
# Hz S RI R 50.0 
!freq ReS11 ImS11
4000000000.0 0.5278109639211691 -0.9174270558411821
4003000000.0 0.5649243718655501 -0.9075477030010302
4006000000.0 0.5098608804548135 -0.9362224420514225
4009000000.0000005 0.5347706383773531 -0.8883716086012019
4011999999.9999995 0.5820421651762216 -0.8721167725818523
4016000000.0 0.49987530784789563 -0.9122184731050805
4019000000.0 0.5253517197937625 -0.8863895166109914
4022000000.0000005 0.5640957996673788 -0.9071752244834925
4025000000.0000005 0.4976423615215283 -0.9388932715440311
4027999999.9999995 0.5456722427553357 -0.8715452579967056
4030999999.9999995 0.5152002784970049 -0.8505073716081313
4034000000.0 0.5180912895335208 -0.8885389959175233
4038000000.0000005 0.540818503820623 -0.9394272378973297
4041000000.0000005 0.5410070537497655 -0.8814628181931025
4043999999.9999995 0.55939244845875 -0.9522947683133898
4046999999.9999995 0.6137971502822742 -0.8733698231020456
4050000000.0 0.5258006278193031 -0.9131502219071332
4053000000.0 0.4709731148320302 -0.8610637537648471
4056000000.0 0.5214500558990882 -0.92287179253984
4059000000.0 0.5738060878068553 -0.8941332458184861
4062000000.0000005 0.4933204506916117 -0.9288796714540293
4066000000.0 0.49459531319727207 -0.825008250404527
4069000000.0 0.5311221933514133 -0.934691122622336
4072000000.0 0.575380256218372 -0.8609935165747132
4075000000.0 0.5535316965054844 -0.8675482355921809
4078000000.0000005 0.5433610164759254 -0.9039883591008433
4081000000.0000005 0.6312039239447715 -0.8596669627408159
4083999999.9999995 0.49964224540124424 -0.8837926694191462
4088000000.0 0.5581741205150929 -0.83492559685139
4091000000.0 0.560638444059985 -0.9060135736468582
4094000000.0000005 0.5235561430093457 -0.8918650150723308
4097000000.0000005 0.5342688870449981 -0.8554474225841712
4099999999.9999995 0.518090381540005 -0.8906386403217746
4102999999.9999995 0.5468398423709154 -0.8946299789506487
4106000000.0 0.5203230743854981 -0.9070034419053483
4109000000.0 0.5175785572734882 -0.8770251428542454
4112000000.0 0.5429151730016583 -0.8719545776768712
4115999999.9999995 0.547194515335187 -0.8865858484706733
4119000000.0 0.4926435553205344 -0.8677431524737296
4122000000.0 0.5264231977206711 -0.8947495286545182
4125000000.0 0.5203973449321806 -0.917310999387668
4128000000.0 0.4963892518255048 -0.892040337928878
4131000000.0 0.5149576724237198 -0.8888767565612599
4134000000.0000005 0.5727853836969364 -0.8717595519037614
4138000000.0 0.4677327227844989 -0.8574824299680783
4141000000.0 0.5197809229529624 -0.9058411373856478
4144000000.0 0.5589114489352102 -0.9046717858840438
4147000000.0000005 0.5373135679682333 -0.8871530969237323
4150000000.0000005 0.5277920554515634 -0.9399301948591283
4152999999.9999995 0.5245974347684172 -0.8758932492066833
4155999999.9999995 0.5542611813467715 -0.9199661749143369
4159000000.0 0.524903271457477 -0.8362976736110546
4162000000.0 0.5322671246475044 -0.886406439664056
4166000000.0000005 0.5351856239837913 -0.9019827665893847
4168999999.9999995 0.5213282043108948 -0.8704588618134206
4171999999.9999995 0.5590214460364705 -0.8641535515732123
4175000000.0 0.5515533406473253 -0.8838884685976116
4178000000.0 0.530771555919652 -0.8780168521842775
4181000000.0 0.5337755405177794 -0.8992489385050066
4184000000.0 0.5186248987182243 -0.8598767557104032
4187999999.9999995 0.5055730458283935 -0.9042914749585962
4191000000.0 0.5542176747668255 -0.8397514814162371
4194000000.0 0.5288739116347514 -0.8742061360457877
4197000000.0 0.512562693286819 -0.870599090283231
4200000000.0 0.5550471869280321 -0.8951728087683799
4203000000.0000005 0.572956910684794 -0.8949515510128591
4206000000.0000005 0.5381587160224885 -0.8798768705304288
4208999999.9999995 0.5479894812596028 -0.8479341929095657
4211999999.9999995 0.5020784466537145 -0.8955457382457739
4216000000.0 0.542495385227524 -0.8813716158547245
4219000000.0000005 0.5555972661921789 -0.8940507101580314
4222000000.0000005 0.541672643702589 -0.8895164822166609
4224999999.9999995 0.5526613200680043 -0.8666035732383763
4227999999.9999995 0.5431668442543804 -0.8846612049709315
4231000000.0 0.5192283571693501 -0.8730207574508845
4234000000.0 0.5383680886198281 -0.882583703088873
4238000000.0000005 0.5012071229879491 -0.8800088256419671
4240999999.9999995 0.5070999483991199 -0.8561169656096681
4244000000.0 0.5220858717934389 -0.8700080421909188
4247000000.0 0.5415658456629814 -0.8584264450094008
4250000000.0 0.5181909370432443 -0.8608886770070386
4253000000.0 0.5118959599921511 -0.8535033374519485
4256000000.0 0.5258273717093603 -0.9054632061919337
4259000000.0000005 0.49319534132691645 -0.8492032869382652
4261999999.9999995 0.5183107093086642 -0.8857574689929931
4266000000.0 0.5193183019280277 -0.8923256656875441
4269000000.0 0.5360693283428446 -0.8593807175479333
4272000000.0000005 0.5233609598135112 -0.8789819171251112
4275000000.0000005 0.5420737856585635 -0.8811410826594822
4277999999.9999995 0.5336658936345909 -0.9060920253341775
4280999999.9999995 0.5313997998465375 -0.8655314018663942
4284000000.0 0.49788384075618414 -0.8801645317528559
4288000000.0000005 0.561305430732478 -0.8514187463164549
4291000000.0000005 0.5091225710655515 -0.8442464707012317
4293999999.9999995 0.5150081980370008 -0.8539532948027352
4297000000.0 0.5380935534611143 -0.8615842600940479
4300000000.0 0.5289097936296794 -0.854159529808809
4303000000.0 0.4978395544047369 -0.8756816981289943
4306000000.0 0.5470373302958661 -0.8723722270242723
4309000000.0 0.5028599197053493 -0.8874782436631823
4312000000.0 0.5607224568039239 -0.8598155393690767
4316000000.0 0.5494798234930257 -0.8712270338169414
4319000000.0 0.518908650318449 -0.8448408313452039
4322000000.0 0.5011093588391426 -0.8773427830938284
4325000000.0 0.5172424107791381 -0.8796088549870247
4328000000.0 0.5103807027817757 -0.8733870947008012
4331000000.0 0.5066062562185805 -0.8628182732548765
4334000000.0 0.5165651899591056 -0.8768529321456209
4338000000.0 0.545438173675026 -0.8601387666528727
4341000000.0 0.5570880146763889 -0.8950923005805287
4344000000.0 0.5433238659628615 -0.8870784378067947
4347000000.0 0.5119299173804813 -0.8929158910975302
4350000000.0 0.5066620030282203 -0.8510644906796833
4353000000.0 0.5200447541047344 -0.8434043518498637
4356000000.0 0.49805962722375063 -0.8622416350325928
4359000000.0 0.4875121530334916 -0.823813689336058
4362000000.0 0.5027366886966682 -0.9138217545018518
4366000000.0 0.5267083360945255 -0.8903499725275467
4369000000.0 0.5037686025572132 -0.855307954120567
4372000000.0 0.4736064213999399 -0.88429120649415
4375000000.0 0.5378494181056345 -0.8691836118407449
4378000000.0 0.5065453418817036 -0.84504665918945
4381000000.0 0.5182498930777559 -0.8558464183879206
4384000000.0 0.5369584044976883 -0.944187532773629
4388000000.0 0.5261404302866364 -0.8521446871718962
4391000000.0 0.505907790867793 -0.8611367640983252
4394000000.0 0.49712797993497937 -0.8699961594967288
4397000000.0 0.47904100927680615 -0.8659990021702783
4400000000.0 0.5132970334670877 -0.9012733915214418
4403000000.0 0.5089062233968389 -0.8890293445004693
4406000000.0 0.4931081861852945 -0.8943266875802158
4409000000.0 0.5251677207854366 -0.901227727070273
4412000000.0 0.4535861359898854 -0.8980220329616434
4416000000.0 0.49037842450355257 -0.8808566261936925
4419000000.0 0.48160416084568636 -0.8788898759638148
4422000000.0 0.5219544511578058 -0.8572199969583079
4425000000.0 0.5309927847500128 -0.894126899836529
4428000000.0 0.4976928020019841 -0.889361328457095
4431000000.0 0.5159265342085894 -0.8789248204546874
4434000000.0 0.5006346283882687 -0.8751778217753188
4438000000.0 0.5306277295672105 -0.8807864896135816
4441000000.0 0.5250886169427001 -0.8900176415434358
4444000000.0 0.5031724188888372 -0.8603555866806165
4447000000.0 0.48414088612187345 -0.8723488819961929
4450000000.0 0.5009582630634339 -0.8621148148986799
4453000000.0 0.5023475925282344 -0.8952574389400095
4456000000.0 0.4791317276793886 -0.8748108943987855
4459000000.0 0.45916843103809496 -0.830095347177924
4462000000.0 0.5318101096201264 -0.9346751008477812
4466000000.0 0.5093990564367528 -0.9138732713708414
4469000000.0 0.5191347047768265 -0.8566849446922269
4472000000.0 0.48514505611689296 -0.9157457991951539
4475000000.0 0.4959959797776829 -0.8600800790159189
4478000000.0 0.5016222193304987 -0.9225044948173909
4481000000.0 0.46648700631797596 -0.8604105699142985
4484000000.0 0.4592482480964391 -0.8963820686333852
4488000000.0 0.47684191120082614 -0.8791448687369597
4491000000.0 0.5029726398349204 -0.8878644760797723
4494000000.0 0.49263424755335633 -0.8681948174231077
4497000000.0 0.5093095103198189 -0.8502897046600131
4500000000.0 0.504821836953568 -0.8851362759555397
4503000000.0 0.5062380343066528 -0.9073884512128922
4506000000.0 0.4837376222236491 -0.8761895601415675
4509000000.0 0.48240721449760376 -0.8626171235523206
4512000000.0 0.476827262703681 -0.8791246270614925
4516000000.0 0.5212009543943348 -0.8969820734642158
4519000000.0 0.4828202963691808 -0.8628395983224051
4522000000.0 0.47892232028393067 -0.8859666215393465
4525000000.0 0.5308492499332843 -0.8778700950933019
4528000000.0 0.5006581230735194 -0.8999513798047947
4531000000.0 0.5001836326897257 -0.8546168620419696
4534000000.0 0.4828454323864084 -0.8718212812158548
4538000000.0 0.47533730437734795 -0.8746198573809295
4541000000.0 0.4527941751038065 -0.8958143313707012
4544000000.0 0.48589188431018265 -0.8714072602242517
4547000000.0 0.49137299987336397 -0.858211330264449
4550000000.0 0.47070969258926154 -0.8842472830494337
4553000000.0 0.4835418788843449 -0.8887284104047408
4556000000.0 0.466085289980863 -0.8753536891039961
4559000000.0 0.46852613491256473 -0.9043840855477139
4562000000.0 0.49351340969161794 -0.8953419009878849
4566000000.0 0.49476783379709627 -0.8911238151304267
4569000000.0 0.46059930171752816 -0.8709259192532744
4572000000.0 0.4761913684034926 -0.8655873996375104
4575000000.0 0.46262405232842874 -0.9074732832329955
4578000000.0 0.5072862117070251 -0.8996272133258435
4581000000.0 0.4680699327299882 -0.8945506239459124
4584000000.0 0.4737480325314126 -0.8789493190942672
4588000000.0 0.5004740254105216 -0.8937267684272783
4591000000.0 0.47785651922538186 -0.8567905301249388
4594000000.0 0.46029706134111503 -0.8891211700737486
4597000000.0 0.48863219915678757 -0.9143343509894621
4600000000.0 0.4409902785136408 -0.8862384248855472
4603000000.0 0.46276749980938015 -0.8942775433441242
4606000000.0 0.4812235390743965 -0.9075043411616192
4609000000.0 0.47191699730785885 -0.8957124313624628
4612000000.0 0.46678160984149714 -0.8917829740911121
4616000000.0 0.46906669737218887 -0.8864546201053587
4619000000.0 0.49572665167941715 -0.901846922860405
4622000000.0 0.46229519875849645 -0.8763378417889345
4625000000.0 0.43457460503790735 -0.8853663045168524
4628000000.0 0.48351503144770414 -0.8819663315890792
4631000000.0 0.4401255642682956 -0.8899960591358116
4634000000.0 0.4725635427807694 -0.8944327924864341
4638000000.0 0.4744559185313949 -0.9052960626784895
4641000000.0 0.4808851550286179 -0.8956894761428031
4644000000.0 0.4644197761159162 -0.8815649375707748
4647000000.0 0.46778660893098234 -0.8926634025853912
4650000000.0 0.46435103781667814 -0.8846840193983664
4653000000.0 0.48720711399385924 -0.9223564196246908
4656000000.0 0.4575907195575257 -0.9119357241817782
4659000000.0 0.46091082678467865 -0.8970652593502721
4662000000.0 0.48010010941614034 -0.9049652830693272
4666000000.0 0.46218220354749134 -0.912158395474862
4669000000.0 0.47525700909174706 -0.8817511313137023
4672000000.0 0.4633827836410273 -0.9249680713591901
4675000000.0 0.45847371157750116 -0.8977792800395721
4678000000.0 0.4484890494501771 -0.8833558529722343
4681000000.0 0.44118172033177905 -0.938840856365871
4684000000.0 0.4301388522301376 -0.925297789067496
4688000000.0 0.4419462257262517 -0.9041040937934548
4691000000.0 0.4975239144702412 -0.8987579294365636
4694000000.0 0.4677149649744058 -0.9332125478236887
4697000000.0 0.4163651102704258 -0.8818506348572653
4700000000.0 0.46913584767968897 -0.8705574076638298
4703000000.0 0.4809252293951197 -0.8726238778569574
4706000000.0 0.4510150543982716 -0.9263539914732425
4709000000.0 0.4474410132517743 -0.9089725812129859
4712000000.0 0.4727482539297644 -0.8940147665784478
4716000000.0 0.46306330544415913 -0.9222418283885454
4719000000.0 0.4733265611091142 -0.9189513771661367
4722000000.0 0.4731905816490689 -0.9012172822459923
4725000000.0 0.4738335730310371 -0.8914506235694342
4728000000.0 0.46196398494467317 -0.8924928300539582
4731000000.0 0.4618534426409838 -0.9271364839676779
4734000000.0 0.4979405624668013 -0.8869036051256864
4738000000.0 0.5001286581082585 -0.9418037110039411
4741000000.0 0.46927765605089966 -0.9351611986340819
4744000000.0 0.44839629566607236 -0.9357779574477416
4747000000.0 0.47573476686450267 -0.8694188866428705
4750000000.0 0.4494884670274213 -0.9469963469611993
4753000000.0 0.47394502028025565 -0.8890023347824614
4756000000.0 0.4664002002136394 -0.9078554255229287
4759000000.0 0.47063966378107247 -0.9172801073860398
4762000000.0 0.4537926932231673 -0.9255966827662631
4766000000.0 0.4606225417071664 -0.9061233125924533
4769000000.0 0.446971852421507 -0.9211093752083546
4772000000.0 0.47198691207327387 -0.926947500017248
4775000000.0 0.471002002340272 -0.966383860053006
4778000000.0 0.431275120635621 -0.9150322727911389
4781000000.0 0.462148969822599 -0.89979670061469
4784000000.0 0.48322652295951474 -0.8994871101198086
4788000000.0 0.4619421674723344 -0.9463375978315204
4791000000.0 0.44065909586077445 -0.9228134080175777
4794000000.0 0.48742139354324077 -0.9352764201633683
4797000000.0 0.4414118253114515 -0.9030061455453442
4800000000.0 0.43752423911220584 -0.8795806304902299
4803000000.0 0.41137661959222394 -0.9323607875532458
4806000000.0 0.45707306379183044 -0.9418603623343373
4809000000.0 0.4300399241190611 -0.9420775220939333
4812000000.0 0.4144684907029715 -0.8850555353563472
4816000000.0 0.4705722040892748 -0.8886661889971325
4819000000.0 0.483593281948235 -0.9153043123892479
4822000000.0 0.495356611625106 -0.9378411828965557
4825000000.0 0.5026554247228323 -0.9328132789976802
4828000000.0 0.46367402640252603 -0.9170354976992016
4831000000.0 0.4318416356349552 -0.9673322517123206
4834000000.0 0.47476402423166136 -0.9084280839728716
4838000000.0 0.4430801962791688 -0.9317112523589804
4841000000.0 0.45447701647420086 -0.9202148982859117
4844000000.0 0.5018942447558442 -0.9202617841123428
4847000000.0 0.47020728325398253 -0.8756915732364257
4850000000.0 0.4513030564038283 -0.9439613492909932
4853000000.0 0.46628601978656425 -0.9003460952449697
4856000000.0 0.45033898393866073 -0.903955306576915
4859000000.0 0.46685639381439353 -0.9513832065534276
4862000000.0 0.46036638339806407 -0.9034156940603486
4866000000.0 0.456187570141392 -0.9430062874709009
4869000000.0 0.45448301833242044 -0.937876104435737
4872000000.0 0.46105723506106167 -0.9572893950285015
4875000000.0 0.5097867279610181 -0.9307763536987632
4878000000.0 0.44218941713519944 -0.9259787762086481
4881000000.0 0.4350946350731546 -0.9675065755849172
4884000000.0 0.46841588519737765 -0.9460046159359426
4888000000.0 0.4936865723088359 -0.9198779275444886
4891000000.0 0.47904745364475265 -0.902533580679213
4894000000.0 0.44830737655620323 -0.9381283771717702
4897000000.0 0.46630192963964767 -0.8903116678547054
4900000000.0 0.4902557797621657 -0.9452886631258008
4903000000.0 0.48664210178546846 -0.9098363429152292
4906000000.0 0.45541546687575796 -0.9572559050096534
4909000000.0 0.4694442573368944 -0.9224773411298377
4912000000.0 0.4612422277924645 -0.9630556758701317
4916000000.0 0.4861559056791215 -0.9403298775640812
4919000000.0 0.5101567916721876 -0.9200721667317
4922000000.0 0.5067768784510309 -0.9426509019730079
4925000000.0 0.44748576086802305 -0.9065990456323862
4928000000.0 0.4829096147771471 -0.8652874479990534
4931000000.0 0.495454443233727 -0.932538213616467
4934000000.0 0.4377213022905294 -0.8726283662103542
4938000000.0 0.44563116015218396 -0.9491917025570811
4941000000.0 0.4687140975607498 -0.9117732071552531
4944000000.0 0.4778541779528831 -0.8686195249441582
4947000000.0 0.4480010389060495 -0.9010154765615093
4950000000.0 0.4674213930670361 -0.8904874532926125
4953000000.0 0.44602139308352096 -0.9793201767288464
4956000000.0 0.4531254018959574 -0.9394161992252186
4959000000.0 0.40579143000547685 -0.9255181022139591
4962000000.0 0.4620394274677331 -0.9355710072714125
4966000000.0 0.5090351103185898 -0.9175189718919745
4969000000.0 0.5214463345827823 -0.9283074579247506
4972000000.0 0.43965222026494266 -0.9496408931227098
4975000000.0 0.4804713017403879 -0.89499298086675
4978000000.0 0.4746080226115579 -0.9364911784860526
4981000000.0 0.4697973354958277 -0.9725236439189088
4984000000.0 0.4657505488778894 -0.9418380258305947
4988000000.0 0.46086681956532005 -0.8967794598899473
4991000000.0 0.5218672647841117 -0.9242944261185589
4994000000.0 0.507443180402483 -0.9312248574491955
4997000000.0 0.43163851202985903 -0.9332299772427488
5000000000.0 0.5038843372987021 -0.9206506163588779
5003000000.0 0.4965485569467172 -0.972387416091728
5006000000.0 0.49121949781630236 -0.9783536256646905
5009000000.0 0.450331069738438 -0.9363684331276123
5012000000.0 0.47516484895322264 -0.9472341439435706
5016000000.0 0.508207759959072 -0.9271434223358399
5019000000.0 0.46922061143734484 -0.9149537576046263
5022000000.0 0.5206204443639768 -0.9553169305181999
5025000000.0 0.5173115361210939 -0.960034735863924
5028000000.0 0.47310904460067355 -0.9354334458853393
5031000000.0 0.4896640369540686 -0.9225306559172419
5034000000.0 0.4422907073796074 -0.9665250815099715
5038000000.0 0.44917225911787595 -0.9035629644960209
5041000000.0 0.5213388423684583 -0.9131276824079142
5044000000.0 0.5052618598670591 -0.8732945117221762
5047000000.0 0.5028043808674763 -0.8983762579673537
5050000000.0 0.5621320161659806 -0.8649817041613673
5053000000.0 0.5073256995781711 -0.9782065042685875
5056000000.0 0.5375212477590005 -0.930109971449463
5059000000.0 0.5195949020746656 -0.9019944466643344
5062000000.0 0.45546834068596453 -0.9411827433520767
5066000000.0 0.5285834963733621 -0.8925048536442012
5069000000.0 0.5005528186135106 -0.9509931438856345
5072000000.0 0.4687411990594083 -0.906565745652923
5075000000.0 0.4801953461427739 -0.9069873991652484
5078000000.0 0.4711142256755696 -0.9578475725356089
5081000000.0 0.4950400533643549 -0.9349085062681821
5084000000.0 0.5040759306212623 -0.9387756416766229
5088000000.0 0.5091077400618496 -0.9363627585424086
5091000000.0 0.45305413167260356 -0.9609243509619059
5094000000.0 0.46318206308356835 -0.9409902804341259
5097000000.0 0.5515114475043463 -0.8744200049437363
5100000000.0 0.49118726617729186 -0.8918526100290363
5103000000.0 0.5116358859942336 -0.937787080095714
5106000000.0 0.5511471474878193 -0.9136090766875493
5109000000.0 0.5681613206442194 -0.8766992498550916
5112000000.0 0.4498859803862427 -0.9261022564083505
5116000000.0 0.5053989515140174 -0.8916220927297118
5119000000.0 0.4695798376478109 -0.9352243800873584
5122000000.0 0.5299597030742109 -0.909901616448241
5125000000.0 0.5311158221322934 -0.9114798524859683
5128000000.0 0.5109417182790468 -0.9144982219168041
5131000000.0 0.5349280753955605 -0.9088071990356508
5134000000.0 0.5269678944572054 -0.9073335579744908
5138000000.0 0.5084047038750479 -0.8986922337970925
5141000000.0 0.5273136122777942 -0.8906668794386807
5144000000.0 0.5130115877093988 -0.9013881351429938
5147000000.0 0.5057024682113318 -0.9584945852231419
5150000000.0 0.5417185898396558 -0.9254189688919312
5153000000.0 0.5158776959712182 -0.9199633922050765
5156000000.0 0.4892878187951099 -0.9450754719384049
5159000000.0 0.5451624861159071 -0.9594109479988211
5162000000.0 0.46713770174766606 -0.918645714928823
5166000000.0 0.5069035644110715 -0.9198905712639273
5169000000.0 0.4826119988596023 -0.944969326074349
5172000000.0 0.4721821148073312 -0.884362354957569
5175000000.0 0.5205298092818575 -0.9470299429880917
