! Created with skrf 1.8.0 (http://scikit-rf.org).
# Hz S RI R 50.0 
!freq ReS11 ImS11
4000000000.0 0.48461146167774694 -0.888798207072943
4003000000.0 0.540744837572301 -0.9412725026887889
4006000000.0 0.458250500175934 -0.9313674869849851
4009000000.0000005 0.49216652007782175 -0.9409820122741466
4011999999.9999995 0.5245304452932305 -0.8932971262774415
4016000000.0 0.4652548917898863 -0.9563824435799737
4019000000.0 0.48213708275182565 -0.9419306134339156
4022000000.0000005 0.5600428927208971 -0.8930686443312512
4025000000.0000005 0.4333237674906474 -0.925609055780918
4027999999.9999995 0.46163262932467614 -0.9504187923695953
4030999999.9999995 0.47333496650247153 -0.8662000069671665
4034000000.0 0.48557626208081334 -0.8942096568052184
4038000000.0000005 0.4477181397208023 -0.9126898351785331
4041000000.0000005 0.44320574355720943 -0.9324728339301052
4043999999.9999995 0.5136884198666718 -0.9531192143561549
4046999999.9999995 0.5512756807309829 -0.957287615038506
4050000000.0 0.4587846074315339 -0.9626394146881311
4053000000.0 0.4422030077283399 -0.9125381716214584
4056000000.0 0.4744334772143916 -0.9181897126822055
4059000000.0 0.4972064101293665 -0.8874160942339966
4062000000.0000005 0.4557724720295785 -0.9276107812190538
4066000000.0 0.451611652914221 -0.8181830066373543
4069000000.0 0.4737129199440363 -0.985263315507073
4072000000.0 0.5079718122004224 -0.9157358495637257
4075000000.0 0.5126778399134957 -0.9330514662842342
4078000000.0000005 0.45029403395937595 -0.9133164112216491
4081000000.0000005 0.5269258858864172 -0.8996361293740622
4083999999.9999995 0.4569335715598541 -0.9510819832187198
4088000000.0 0.5127300905986907 -0.912353889765209
4091000000.0 0.5257320087186933 -0.9918320409143624
4094000000.0000005 0.4810795800969152 -0.9056079744462713
4097000000.0000005 0.4795737073620845 -0.9170603397765151
4099999999.9999995 0.4854339917093601 -0.9246854963042439
4102999999.9999995 0.5050893801977848 -0.9198497518557007
4106000000.0 0.4674881152718959 -0.9147270572396352
4109000000.0 0.4453130905594173 -0.9477288644416093
4112000000.0 0.48786794084351465 -0.9153210155251891
4115999999.9999995 0.4884418309764963 -0.9153119534719792
4119000000.0 0.4569451455072215 -0.9314738293997293
4122000000.0 0.43319494878054077 -0.9164911115772614
4125000000.0 0.47483897949840426 -0.9489568918921149
4128000000.0 0.4582950353104889 -0.8916268783886133
4131000000.0 0.46527169598328566 -0.8948023250386995
4134000000.0000005 0.4899781378950541 -0.8969938289437948
4138000000.0 0.46588674028644084 -0.9105430588014803
4141000000.0 0.4807784687130109 -0.909913011443833
4144000000.0 0.5184642678801412 -0.8961349733465874
4147000000.0000005 0.4541011691474165 -0.9333565989744288
4150000000.0000005 0.4857256428232627 -0.9330360457792289
4152999999.9999995 0.4957253532664996 -0.9110468242730689
4155999999.9999995 0.4797915858653872 -0.9348186160524014
4159000000.0 0.5058025427888776 -0.8984784935244723
4162000000.0 0.47881372870275407 -0.9001356575342819
4166000000.0000005 0.4859340619546494 -0.9392549023586513
4168999999.9999995 0.4427415799317676 -0.9166390435026159
4171999999.9999995 0.5014025513031249 -0.8937654185953984
4175000000.0 0.49970046905339083 -0.8963041013663203
4178000000.0 0.5140387257409123 -0.9268036386212417
4181000000.0 0.46334574476554724 -0.9132284882049684
4184000000.0 0.4701999221069991 -0.9271766106904603
4187999999.9999995 0.46618179381033065 -0.9014018949507604
4191000000.0 0.5023716680326787 -0.8636099033301613
4194000000.0 0.4708819658995221 -0.9009339761365411
4197000000.0 0.4757902636679495 -0.9175784264988526
4200000000.0 0.48461809051389637 -0.894904933361057
4203000000.0000005 0.47936480718075775 -0.9021597220003544
4206000000.0000005 0.4796027607013098 -0.9295896884103173
4208999999.9999995 0.46822668946045753 -0.9053307957229874
4211999999.9999995 0.4328495967223446 -0.926394387520704
4216000000.0 0.48496957923221484 -0.8959807430994041
4219000000.0000005 0.5074671337759615 -0.9101442240632904
4222000000.0000005 0.46705790794807445 -0.9172603942073903
4224999999.9999995 0.46793138565077447 -0.8925237544105876
4227999999.9999995 0.4841399423497834 -0.9232430039059908
4231000000.0 0.4697386670486834 -0.906060117303298
4234000000.0 0.473270522052893 -0.9198868467098531
4238000000.0000005 0.4482870029595992 -0.9061902980779734
4240999999.9999995 0.45746000906537787 -0.9064240984553665
4244000000.0 0.4629676329855126 -0.9100078569406782
4247000000.0 0.47775786317630153 -0.8772162034034835
4250000000.0 0.4580850618003156 -0.8908113423683122
4253000000.0 0.447605047588958 -0.8926085430424912
4256000000.0 0.4795532483932334 -0.9246884369704576
4259000000.0000005 0.4434381555417122 -0.8826215936994697
4261999999.9999995 0.43370547311327157 -0.913109660480231
4266000000.0 0.4384855156822467 -0.9212054587996708
4269000000.0 0.4750989010980976 -0.8985631807435966
4272000000.0000005 0.48641042525750244 -0.8847425317081886
4275000000.0000005 0.45577226365302115 -0.9050441454877564
4277999999.9999995 0.4939195620512569 -0.9183854771203419
4280999999.9999995 0.46585011297599427 -0.9045220794676032
4284000000.0 0.43457931510369646 -0.9161777159374311
4288000000.0000005 0.4851886216674278 -0.8920516235150042
4291000000.0000005 0.46822498477608276 -0.8867878618618099
4293999999.9999995 0.45740870758837626 -0.898208460556645
4297000000.0 0.4553629759334616 -0.888420673443491
4300000000.0 0.4499795700180053 -0.8817308538830229
4303000000.0 0.4529394400335772 -0.890986554792015
4306000000.0 0.48451084027496355 -0.8982467373486125
4309000000.0 0.4565169402066415 -0.9090871350820234
4312000000.0 0.4978891363774486 -0.9055712478636966
4316000000.0 0.4587340578950254 -0.9172119633846965
4319000000.0 0.47104258563536777 -0.8977529771931658
4322000000.0 0.4484396046003418 -0.8968159771619654
4325000000.0 0.49088599481160494 -0.9073650079217013
4328000000.0 0.46952095577027564 -0.8963982713571925
4331000000.0 0.423142263633383 -0.933227262952501
4334000000.0 0.4441179220226577 -0.9102392466285945
4338000000.0 0.4700769389951429 -0.888990414513612
4341000000.0 0.49952488576763876 -0.8974984856244455
4344000000.0 0.46902188471306266 -0.9317132154023909
4347000000.0 0.4402562970065862 -0.9453646076675211
4350000000.0 0.4391248391265427 -0.8937669044520581
4353000000.0 0.4589538831862621 -0.8649514692935676
4356000000.0 0.4336657084926385 -0.9167509170368305
4359000000.0 0.4338825196296429 -0.8685023312045757
4362000000.0 0.3914076710485398 -0.96520086078119
4366000000.0 0.4691347758755839 -0.9252258624511961
4369000000.0 0.42194290136438617 -0.8792342052698578
4372000000.0 0.4273452762038077 -0.9136672813405322
4375000000.0 0.45665030423156217 -0.8971444301230869
4378000000.0 0.4282563157961753 -0.8783535808832795
4381000000.0 0.4351639937891153 -0.8900287751327772
4384000000.0 0.46590668265339535 -0.9561500013766039
4388000000.0 0.43837518393661973 -0.9055193082246278
4391000000.0 0.44757135486758853 -0.9169344480499702
4394000000.0 0.434029820703612 -0.902277160855259
4397000000.0 0.43351581034533165 -0.91275465489496
4400000000.0 0.4334590914957974 -0.9254355204069016
4403000000.0 0.4263268064272998 -0.9153131288879055
4406000000.0 0.4392936075384252 -0.9025584783290385
4409000000.0 0.44557953148528245 -0.9472828298926043
4412000000.0 0.37830075976340094 -0.9252086148684504
4416000000.0 0.4265178495047148 -0.9156202781391096
4419000000.0 0.41150654360152017 -0.9200281826406187
4422000000.0 0.4587670617969592 -0.9053514587375133
4425000000.0 0.46831102487988746 -0.9255391194927782
4428000000.0 0.4217036424140393 -0.927280144966262
4431000000.0 0.4419018063546602 -0.9315873196481566
4434000000.0 0.4258777524699064 -0.9085120978811182
4438000000.0 0.4358372960815026 -0.9389470715695909
4441000000.0 0.45727944051709346 -0.9303961585523831
4444000000.0 0.4313001376980839 -0.9048345283638293
4447000000.0 0.4243694649064023 -0.9164495676269121
4450000000.0 0.43976404742151365 -0.8968359963451856
4453000000.0 0.4304155067423736 -0.931143922342424
4456000000.0 0.40360133878946136 -0.9050139831106541
4459000000.0 0.4039520701060152 -0.8983497234738858
4462000000.0 0.4398059392933896 -0.9567272764170179
4466000000.0 0.434532282716137 -0.9525926845408106
4469000000.0 0.44158168957933386 -0.9108639053466201
4472000000.0 0.40585573313390155 -0.9473016367880223
4475000000.0 0.40131230225044895 -0.8977942780881909
4478000000.0 0.4312254837327279 -0.9646602565431728
4481000000.0 0.404660088742179 -0.9036748425827177
4484000000.0 0.3809588570959887 -0.9313160086704082
4488000000.0 0.4265986657763528 -0.9261519450142432
4491000000.0 0.4189377247421053 -0.9362194246087283
4494000000.0 0.42200385697252785 -0.8899102605750102
4497000000.0 0.41521797329989796 -0.9058862384935364
4500000000.0 0.42530304982602607 -0.9083794741983072
4503000000.0 0.42364719948800067 -0.9494610172278914
4506000000.0 0.4001528066052696 -0.9275471647211923
4509000000.0 0.4195714305553113 -0.8950370847019263
4512000000.0 0.3998679417004966 -0.9227334944561869
4516000000.0 0.4277223209004976 -0.9565563020365847
4519000000.0 0.40653140047687714 -0.9093465021278182
4522000000.0 0.4039771668622494 -0.9252417186286802
4525000000.0 0.44836518429956873 -0.9073187646023211
4528000000.0 0.40077422432753224 -0.934847895799003
4531000000.0 0.4073469308917292 -0.916111296531547
4534000000.0 0.4007171613471486 -0.9231771632730407
4538000000.0 0.40575988702747595 -0.9145316564852529
4541000000.0 0.3768708334247463 -0.9376386399336751
4544000000.0 0.39364523610223107 -0.9226083591498375
4547000000.0 0.41201784473354225 -0.9048262087593038
4550000000.0 0.409857009351673 -0.9505506186346395
4553000000.0 0.39997023323917924 -0.9212002334600091
4556000000.0 0.3864968872948153 -0.9155605013487177
4559000000.0 0.3870563247657386 -0.9384467338850784
4562000000.0 0.40338916555093063 -0.9631103220496451
4566000000.0 0.38524157146583343 -0.9299606909278693
4569000000.0 0.40696552947895187 -0.9320796954131589
4572000000.0 0.3946115516456705 -0.9276274955948765
4575000000.0 0.38264904673831857 -0.9400908911618961
4578000000.0 0.41165342589585835 -0.9502419039225571
4581000000.0 0.3875096514090751 -0.9494361607744013
4584000000.0 0.37405238332609686 -0.9412992674745382
4588000000.0 0.4137867601246641 -0.949197274839139
4591000000.0 0.39766119810106215 -0.9343401557674323
4594000000.0 0.3852589264041894 -0.9491625734528062
4597000000.0 0.40711412777309464 -0.9496087147510007
4600000000.0 0.3778112659583424 -0.9364239763692463
4603000000.0 0.37860940967741974 -0.9374884627216076
4606000000.0 0.3865976247118308 -0.9564806571278491
4609000000.0 0.38896602073960185 -0.9307093726275516
4612000000.0 0.3783981894454722 -0.9431030275666851
4616000000.0 0.37530322415925804 -0.9307310553670278
4619000000.0 0.39021221681003726 -0.9332050206056677
4622000000.0 0.37397881408432787 -0.9369235186927024
4625000000.0 0.34721932784532195 -0.9290231623984393
4628000000.0 0.40249875029049637 -0.922139852653939
4631000000.0 0.3736715622094382 -0.9484206165354541
4634000000.0 0.3705368425919485 -0.9415490923499041
4638000000.0 0.3775314646255198 -0.9475076105732053
4641000000.0 0.3800394105106988 -0.9328398145534275
4644000000.0 0.3665610033710265 -0.9374528830402822
4647000000.0 0.3784018544835693 -0.9335673695072323
4650000000.0 0.374434123025285 -0.9457299889657826
4653000000.0 0.37713678748170143 -0.9549327061398089
4656000000.0 0.3842412372353713 -0.9294124633924783
4659000000.0 0.35703781792464295 -0.9524338090338049
4662000000.0 0.35593398807771365 -0.9577066592189772
4666000000.0 0.3531650582976091 -0.951203411987025
4669000000.0 0.3947022944881756 -0.9424602513535997
4672000000.0 0.37884071270200675 -0.9670433331385261
4675000000.0 0.34634512233929415 -0.9592439216658192
4678000000.0 0.366703107579197 -0.9417122217721245
4681000000.0 0.35048316154151754 -0.9591543513837724
4684000000.0 0.33722772901730774 -0.9638344538695207
4688000000.0 0.3187223050302877 -0.9517868150768143
4691000000.0 0.3880101626189749 -0.9544987754828197
4694000000.0 0.39867920473416385 -0.944358523812628
4697000000.0 0.3425923205190358 -0.9290739088830825
4700000000.0 0.3810547739748947 -0.945139274768041
4703000000.0 0.3706684962262648 -0.8993788106572258
4706000000.0 0.34840015446443856 -0.9452461454514256
4709000000.0 0.33614041810746864 -0.9407074487138166
4712000000.0 0.3600555642776707 -0.9480966026253931
4716000000.0 0.3684246724252863 -0.9836743817553103
4719000000.0 0.4056783631420551 -0.9667486567507574
4722000000.0 0.37769244898129406 -0.9358700549580646
4725000000.0 0.3880326906020321 -0.9390633400390668
4728000000.0 0.37392303198617693 -0.9290954898003468
4731000000.0 0.37019228836019225 -0.9820833149398005
4734000000.0 0.3770937141551345 -0.9381233720076836
4738000000.0 0.3993797149180463 -0.9980182550371878
4741000000.0 0.33993565599197517 -0.9915320717448861
4744000000.0 0.34463801058874266 -0.9463695188266817
4747000000.0 0.33584631794853853 -0.9278115816607391
4750000000.0 0.37618789148043935 -0.985972674960596
4753000000.0 0.37870777273818296 -0.9409713395476739
4756000000.0 0.36522565513793454 -0.9631946631333528
4759000000.0 0.35807017519758505 -1.0061613204063495
4762000000.0 0.34783025579063637 -0.986817558780853
4766000000.0 0.3505297097362049 -0.9618822361922782
4769000000.0 0.3800868779701915 -0.9823365872834168
4772000000.0 0.37783667756812345 -0.9928397732457006
4775000000.0 0.3189778786117111 -1.0194843398921094
4778000000.0 0.3346275138989522 -0.9732603248433711
4781000000.0 0.35933725993199345 -0.9612608604535544
4784000000.0 0.38113728804923486 -0.9532063034774033
4788000000.0 0.3132626602058182 -0.9916995086249043
4791000000.0 0.33745926902823 -0.975109300678283
4794000000.0 0.40591015475070963 -0.9797812229405362
4797000000.0 0.33653510705656375 -0.9623739794074634
4800000000.0 0.3412088569500646 -0.9250758640972657
4803000000.0 0.2815255085221169 -0.9628106089901907
4806000000.0 0.3496437432215362 -0.9806447081395168
4809000000.0 0.2987034818717252 -0.9641119692743386
4812000000.0 0.29371648159154223 -0.9782642875203046
4816000000.0 0.35814352852545844 -0.9694891064027498
4819000000.0 0.3626437364776275 -0.9683767459133679
4822000000.0 0.38038460681011166 -1.0099376666226028
4825000000.0 0.3901671815082517 -0.9847726147360598
4828000000.0 0.35223357758620255 -0.9846326709879495
4831000000.0 0.308224808929538 -0.9933244575439267
4834000000.0 0.3628283890800543 -0.9766485709472968
4838000000.0 0.32497177803912436 -0.9827429343963149
4841000000.0 0.33359185357578836 -0.9685684710849336
4844000000.0 0.37462402654561283 -0.9908228022082837
4847000000.0 0.3530191683645383 -0.9315504028483629
4850000000.0 0.33321349594512206 -1.0116140512974892
4853000000.0 0.34806172403624147 -0.9288472834879821
4856000000.0 0.3586900182208315 -0.9753994190326594
4859000000.0 0.35439791008418964 -1.008056615607018
4862000000.0 0.3650138083294665 -0.942571930303839
4866000000.0 0.34614172145682714 -0.9726015883975618
4869000000.0 0.3316678734492744 -0.9835221784122664
4872000000.0 0.32837900768583983 -1.005869096990314
4875000000.0 0.3984742194705989 -1.010733744513556
4878000000.0 0.33975980620207624 -0.9905371656821801
4881000000.0 0.3190197384436199 -1.0836503863176254
4884000000.0 0.35734779789007837 -0.9621039063532032
4888000000.0 0.38396545826872086 -0.9608927917891048
4891000000.0 0.35834812857056986 -0.9987963195754348
4894000000.0 0.32170858114432976 -0.9584789673109222
4897000000.0 0.37116879493244176 -0.9751065992467705
4900000000.0 0.3592424125126522 -1.0159805411708929
4903000000.0 0.3599375478853354 -0.987252473000911
4906000000.0 0.33731844433798897 -0.9860856303246094
4909000000.0 0.34666192065733636 -1.0167795406267504
4912000000.0 0.3674463257999084 -0.9995879699154848
4916000000.0 0.3758916127158408 -0.974707190479407
4919000000.0 0.37664541053924855 -0.9834807910656775
4922000000.0 0.37009848800219375 -0.9741556669491785
4925000000.0 0.3384634859171393 -0.9804373583067487
4928000000.0 0.3792241746793318 -0.9620401435156861
4931000000.0 0.3988601647547163 -0.9778473168310704
4934000000.0 0.3443727476211176 -0.9060958414797247
4938000000.0 0.30929682296023686 -0.9731899291103216
4941000000.0 0.31628756915541145 -0.9391107014240361
4944000000.0 0.3352418341350428 -0.908011052731859
4947000000.0 0.3354075772378915 -0.9722833666781039
4950000000.0 0.33704632822798997 -0.9817089248620454
4953000000.0 0.3237509926352244 -1.0050667681994168
4956000000.0 0.2965852435138129 -0.9822437705018319
4959000000.0 0.2911595402737263 -0.9532860152262509
4962000000.0 0.3331329343979035 -0.9732397483117182
4966000000.0 0.36756130531751224 -0.988519161363841
4969000000.0 0.3829882247274066 -1.012762310402962
4972000000.0 0.31201915921744966 -1.0008613987498551
4975000000.0 0.34444674700676814 -0.9573759050645282
4978000000.0 0.34612345975981723 -0.9806204061788789
4981000000.0 0.31176366155328905 -1.0099230181284666
4984000000.0 0.33686636151540805 -0.9498218409154748
4988000000.0 0.34237910819384115 -0.9569119510304467
4991000000.0 0.41768753473099074 -1.020525855089402
4994000000.0 0.34339055494687926 -0.9841767476506831
4997000000.0 0.29862823359906054 -0.9679640188172027
5000000000.0 0.368132885954156 -1.0099969870503938
5003000000.0 0.3593388903748747 -1.0199252264306131
5006000000.0 0.34627297013541003 -1.048123738504232
5009000000.0 0.3402424244564963 -0.9713424043953521
5012000000.0 0.32036556748101547 -0.9992916430430117
5016000000.0 0.39811237438559877 -1.0221919622060516
5019000000.0 0.3167780450048816 -0.9544360799763986
5022000000.0 0.3441978364573028 -0.9816628214069192
5025000000.0 0.3359287199641338 -1.0181332492519763
5028000000.0 0.33791009859325516 -0.9903401360641476
5031000000.0 0.31241185925560816 -0.9802188613718721
5034000000.0 0.31106781214171514 -1.0125933922693755
5038000000.0 0.33758077175391243 -0.9704993697796214
5041000000.0 0.37382424909779616 -0.9925511759449684
5044000000.0 0.38266482942285673 -0.957354496311952
5047000000.0 0.379584968175804 -0.9885524865533951
5050000000.0 0.40998138299094045 -0.9515782100962118
5053000000.0 0.365495209115153 -0.9944889176536333
5056000000.0 0.3688982564916712 -0.9892777122765728
5059000000.0 0.37846369435723715 -0.9818883865726673
5062000000.0 0.28814719402467626 -0.9994924133887391
5066000000.0 0.3862976163346776 -0.9602997967995441
5069000000.0 0.3342924442148485 -1.0047115454117044
5072000000.0 0.3594695783989389 -0.9692225316026954
5075000000.0 0.34698907129232825 -0.9869595605820465
5078000000.0 0.31958769627054784 -1.0061770499618958
5081000000.0 0.32648779233071085 -0.9879959127578013
5084000000.0 0.34634944508182897 -1.0003924195760197
5088000000.0 0.36898542137443757 -0.9864655529225649
5091000000.0 0.3002604608624468 -1.007021654691633
5094000000.0 0.31679878110292614 -0.9859791562526559
5097000000.0 0.38238472174115457 -0.9311780889728591
5100000000.0 0.3492137832313398 -0.9938338354443548
5103000000.0 0.29385720194426823 -1.0032193623340062
5106000000.0 0.36928508367509816 -1.0040790458909887
5109000000.0 0.400579867951809 -0.9494437511445555
5112000000.0 0.3102146831543616 -0.9952486329832388
5116000000.0 0.34361474131382774 -0.9096256288950976
5119000000.0 0.30981467168417703 -1.0217205116189836
5122000000.0 0.34904870428285895 -0.9487390579226715
5125000000.0 0.36350608535704654 -0.9773205628076265
5128000000.0 0.3912661253251191 -0.9857495845163748
5131000000.0 0.34661182007541513 -1.0000502410059915
5134000000.0 0.31807296597775886 -0.9828854858820346
5138000000.0 0.37908556805363686 -0.988405442387568
5141000000.0 0.37754612653273095 -0.9383930703343466
5144000000.0 0.36982357397479326 -0.9606022630977458
5147000000.0 0.35263423672472693 -0.9880927958975061
5150000000.0 0.37502431209461967 -1.0321960871185105
5153000000.0 0.36244594687233544 -1.0173603022932776
5156000000.0 0.36909246780680943 -0.9606217620229613
5159000000.0 0.3219681408745751 -1.0221630907386805
5162000000.0 0.34056385916942705 -0.9532726902253137
5166000000.0 0.32946666359163307 -1.0081001659296
5169000000.0 0.3175397472742722 -0.9794940936896033
