! Created with skrf 1.8.0 (http://scikit-rf.org).
# Hz S RI R 50.0 
!freq ReS11 ImS11
4000000000.0 0.5359259220754825 -0.848453616223612
4003000000.0 0.5792989337036745 -0.9091282662164941
4006000000.0 0.4989404540023591 -0.873269326084174
4009000000.0000005 0.5524484030517183 -0.857396555675604
4011999999.9999995 0.5873145598231122 -0.8760751551634448
4016000000.0 0.5171401329002725 -0.8708788021899181
4019000000.0 0.5119972697055298 -0.8267440428202757
4022000000.0000005 0.6149915123854417 -0.848997301262664
4025000000.0000005 0.481602178834007 -0.9091247032584439
4027999999.9999995 0.5414806118425068 -0.8428264761855899
4030999999.9999995 0.5534798814321478 -0.8855067294622274
4034000000.0 0.505296912607702 -0.8684470747323989
4038000000.0000005 0.5332759299095466 -0.8838004787660569
4041000000.0000005 0.5315233134419554 -0.831941250694731
4043999999.9999995 0.5770905927880933 -0.9093588094060971
4046999999.9999995 0.5824546891237128 -0.9247755381882526
4050000000.0 0.5379691720975739 -0.887344291557047
4053000000.0 0.47011516437617223 -0.8689290689883377
4056000000.0 0.5706213256592212 -0.8547901275653922
4059000000.0 0.5143368069950207 -0.8474673388168026
4062000000.0000005 0.5405357480676184 -0.8425536836378534
4066000000.0 0.4928091357934904 -0.802061659198698
4069000000.0 0.5327179792019507 -0.8949398815225741
4072000000.0 0.5792372397651835 -0.8513786607357887
4075000000.0 0.5917725369765657 -0.8614979437118065
4078000000.0000005 0.5294181276053757 -0.9063223538786871
4081000000.0000005 0.6079411923299566 -0.8581301872499485
4083999999.9999995 0.5394233528354996 -0.8756551212851273
4088000000.0 0.5665055028704642 -0.8135147575649656
4091000000.0 0.5789934621685108 -0.9629671744232632
4094000000.0000005 0.5478125654700585 -0.8619392463271442
4097000000.0000005 0.5426668489271995 -0.901444314370931
4099999999.9999995 0.512717023634394 -0.8812801038773214
4102999999.9999995 0.5688132401432908 -0.8361641221145288
4106000000.0 0.5413434946326863 -0.877737470994502
4109000000.0 0.5356537707686162 -0.8961474655797605
4112000000.0 0.5386370795629537 -0.8740584947127638
4115999999.9999995 0.5557152719189621 -0.8359258098448261
4119000000.0 0.5152725117858454 -0.873615222977052
4122000000.0 0.5168781122208514 -0.9006967440140351
4125000000.0 0.5186646023071121 -0.8965300893581086
4128000000.0 0.5283578021449193 -0.8161046413588804
4131000000.0 0.5104455893276393 -0.8792459224506144
4134000000.0000005 0.5552617528268025 -0.8611517763381671
4138000000.0 0.5110319568563663 -0.8507789980884594
4141000000.0 0.5323456871955596 -0.8540407699599586
4144000000.0 0.5389156819795266 -0.8638450712176988
4147000000.0000005 0.5141171877756983 -0.890745617535539
4150000000.0000005 0.5678827799856021 -0.8762724125253155
4152999999.9999995 0.5448052945002891 -0.8728616120355248
4155999999.9999995 0.5482123771249005 -0.8614974960034089
4159000000.0 0.5409402068217538 -0.8349360240160432
4162000000.0 0.5310009079823637 -0.8248457496765124
4166000000.0000005 0.5220284773990446 -0.8677024370334168
4168999999.9999995 0.5543161298326866 -0.8823229192102293
4171999999.9999995 0.5454233908378825 -0.8646706238375105
4175000000.0 0.5193403510683153 -0.848519925948326
4178000000.0 0.5702056823706397 -0.8709803517842527
4181000000.0 0.5498293508542622 -0.8504593621258277
4184000000.0 0.5259789784722928 -0.8775082612491246
4187999999.9999995 0.5314017449655747 -0.8661018630711816
4191000000.0 0.5682896853041538 -0.8584693061320352
4194000000.0 0.5262248897864924 -0.836844512083875
4197000000.0 0.569790403295399 -0.883405490762505
4200000000.0 0.5530717107624311 -0.8560893630142898
4203000000.0000005 0.5636556140045752 -0.8679795033618625
4206000000.0000005 0.5401506721302607 -0.8753170751100618
4208999999.9999995 0.5499303976881563 -0.8504583825406652
4211999999.9999995 0.5250324554665002 -0.8863322639192333
4216000000.0 0.5600372478719918 -0.8605681018448642
4219000000.0000005 0.5672740569106862 -0.870961020562216
4222000000.0000005 0.5331113742978507 -0.8717448801211383
4224999999.9999995 0.5333796659936888 -0.8370979897824932
4227999999.9999995 0.5433442276485521 -0.8600274561057493
4231000000.0 0.5391893496072719 -0.8709439602438966
4234000000.0 0.5430040776264475 -0.8707173140688156
4238000000.0000005 0.5248151075860215 -0.8639013892852963
4240999999.9999995 0.52483903529805 -0.8711562334827747
4244000000.0 0.5344434066411228 -0.8724348355371536
4247000000.0 0.5403898688512367 -0.8482179009958912
4250000000.0 0.527090672822052 -0.857640042659439
4253000000.0 0.5117716147174665 -0.8321591727690193
4256000000.0 0.5539397089100329 -0.8776898666926508
4259000000.0000005 0.5028102996334476 -0.8553610664602835
4261999999.9999995 0.5095190457179705 -0.855662350731859
4266000000.0 0.5268678073190892 -0.896715085107327
4269000000.0 0.5680756587384879 -0.8477568618766365
4272000000.0000005 0.5374560426352021 -0.8537958296857158
4275000000.0000005 0.5483031359352234 -0.8576490310413003
4277999999.9999995 0.5621587677636637 -0.8738826623192848
4280999999.9999995 0.5460987298713667 -0.8378682176160093
4284000000.0 0.5183580158611281 -0.8829791304211936
4288000000.0000005 0.565225408071317 -0.8273084038862509
4291000000.0000005 0.5260345111247928 -0.8355764032595925
4293999999.9999995 0.5248148641627407 -0.8577048132387957
4297000000.0 0.553211633095503 -0.857357756066375
4300000000.0 0.5348911340061959 -0.8339735083019305
4303000000.0 0.5130679387986666 -0.8480800232519851
4306000000.0 0.5564903945866063 -0.8496998129016917
4309000000.0 0.5611767626632087 -0.8458005872492917
4312000000.0 0.563851705540408 -0.8400335769754721
4316000000.0 0.553121642492491 -0.8533142988722002
4319000000.0 0.5110511341669782 -0.8399155216580184
4322000000.0 0.5166234602906947 -0.8489506222672452
4325000000.0 0.5404178983256344 -0.8370830005597671
4328000000.0 0.5524278414742091 -0.8388249092962167
4331000000.0 0.518060998840512 -0.8999401924792435
4334000000.0 0.5179845226238845 -0.8574049979345476
4338000000.0 0.5660728307553627 -0.8358285702076608
4341000000.0 0.5565682416326282 -0.839013801703923
4344000000.0 0.5607376764243112 -0.8837866290188461
4347000000.0 0.5363393693370123 -0.8892326211739141
4350000000.0 0.4987992562947394 -0.8439397022668347
4353000000.0 0.5385556429942474 -0.8217929837761516
4356000000.0 0.4992132407124338 -0.8661954425973024
4359000000.0 0.512083899022841 -0.8299113958623062
4362000000.0 0.5053822514011221 -0.8933741500353778
4366000000.0 0.5279186415780566 -0.8821768850075316
4369000000.0 0.49647666659836776 -0.8331499744019831
4372000000.0 0.4943782198232616 -0.860907113299006
4375000000.0 0.5415016164166087 -0.85303687000453
4378000000.0 0.517354597431394 -0.8297187980536406
4381000000.0 0.5403617180641138 -0.8448594699670022
4384000000.0 0.5356952761541115 -0.9025523469558935
4388000000.0 0.524088277484454 -0.8255196336503672
4391000000.0 0.5261289517724349 -0.8763796066099436
4394000000.0 0.5046243608874251 -0.838435239429393
4397000000.0 0.5203298953517375 -0.8573910149816214
4400000000.0 0.5405111890088299 -0.8892063805254188
4403000000.0 0.5275382474881479 -0.8649981591633016
4406000000.0 0.5075960131790829 -0.8863723494101938
4409000000.0 0.5306190034203293 -0.8978899162866435
4412000000.0 0.46864216793163127 -0.870895167390258
4416000000.0 0.5105550900140445 -0.8674142473300287
4419000000.0 0.5152754105590893 -0.8719298881379449
4422000000.0 0.5350428670652929 -0.8478986082780329
4425000000.0 0.5552062194392552 -0.8652289985385122
4428000000.0 0.5112076487688642 -0.8614550298683745
4431000000.0 0.5499286852939216 -0.8627916813160529
4434000000.0 0.5020702446490619 -0.8563530784760089
4438000000.0 0.5413136554499558 -0.8708055040631792
4441000000.0 0.5251100732928284 -0.8699950304860207
4444000000.0 0.5128636821965398 -0.8387690930924097
4447000000.0 0.5139030702350381 -0.8652389735151635
4450000000.0 0.5196269531431751 -0.837859042330374
4453000000.0 0.5072663592154054 -0.8822533673960274
4456000000.0 0.487597268249631 -0.8643055562914155
4459000000.0 0.48324528277399226 -0.8313624975855612
4462000000.0 0.5429862871924078 -0.9045526825909685
4466000000.0 0.5371795438200809 -0.9078061964442734
4469000000.0 0.5407627326853917 -0.8384353719075643
4472000000.0 0.5137473537936599 -0.9085925785954838
4475000000.0 0.5053131293382063 -0.8561518957479748
4478000000.0 0.5099900880623482 -0.9014097440755873
4481000000.0 0.48166515057915743 -0.8437062922419634
4484000000.0 0.47742801733456486 -0.8843821474309557
4488000000.0 0.4994352001202164 -0.8525825676259051
4491000000.0 0.504162171287799 -0.8640550099950317
4494000000.0 0.5155662811202956 -0.8475198808920283
4497000000.0 0.5100635219411797 -0.8688610884513293
4500000000.0 0.5211641863499599 -0.8646669707818095
4503000000.0 0.5247923213287585 -0.8764917927807487
4506000000.0 0.5143122028857428 -0.8534088795790089
4509000000.0 0.49123473075170837 -0.8381055834809846
4512000000.0 0.5000601022776304 -0.867082277234453
4516000000.0 0.5281105964962847 -0.8821933859232047
4519000000.0 0.5067990956467 -0.8509996698181312
4522000000.0 0.5107589703087096 -0.8812817690857688
4525000000.0 0.5390730423576802 -0.8438796659985408
4528000000.0 0.5294077195721831 -0.8809610386020725
4531000000.0 0.5229065830291197 -0.8701515310970545
4534000000.0 0.5056684871663898 -0.8693634255379492
4538000000.0 0.5066436788263893 -0.8636419513852537
4541000000.0 0.46231905456039835 -0.8647056151849358
4544000000.0 0.4934545558639649 -0.8635329565348777
4547000000.0 0.521206884866217 -0.8501742262661849
4550000000.0 0.4962119828291882 -0.8896076163136106
4553000000.0 0.5094688977805465 -0.8832205154406554
4556000000.0 0.47664633074539436 -0.8755904698732804
4559000000.0 0.490718651311395 -0.8840603240864814
4562000000.0 0.5178606705835179 -0.8890701921075435
4566000000.0 0.4942815140950314 -0.8857667021913675
4569000000.0 0.47958796073970067 -0.8597173954034656
4572000000.0 0.5082257418777372 -0.8620218113666738
4575000000.0 0.4986527877768435 -0.9081786178840962
4578000000.0 0.5290038879074064 -0.8864434217201058
4581000000.0 0.5056115344288956 -0.8776811537412581
4584000000.0 0.49891352928194 -0.8566097943951541
4588000000.0 0.5193943008043604 -0.882896259127494
4591000000.0 0.5151593421153327 -0.8788083358321097
4594000000.0 0.45580162266497426 -0.8662073268607745
4597000000.0 0.5052451822691895 -0.8806486008714269
4600000000.0 0.47004664504334215 -0.885938609884676
4603000000.0 0.4834967917906493 -0.8873336047877217
4606000000.0 0.49038127119334873 -0.8751599419130587
4609000000.0 0.4868161765947251 -0.8735972451051557
4612000000.0 0.49185028212815407 -0.8795960337605586
4616000000.0 0.48988992597322845 -0.8725065769716391
4619000000.0 0.4972815483166839 -0.8694695038817007
4622000000.0 0.49964495864171976 -0.8662127106397459
4625000000.0 0.45576891338863085 -0.8654395361066765
4628000000.0 0.4963870543564176 -0.8667585444225642
4631000000.0 0.4552340095273228 -0.8862138209393491
4634000000.0 0.4952223490802121 -0.889792053936474
4638000000.0 0.49537759342379906 -0.8736380735136247
4641000000.0 0.500401841229343 -0.8813630769125484
4644000000.0 0.49071239154196306 -0.878015190880459
4647000000.0 0.49210631988584164 -0.8719678402042697
4650000000.0 0.4712338304841811 -0.8821001688608643
4653000000.0 0.5196732714312134 -0.8874663590935377
4656000000.0 0.4915769561772023 -0.8955835612923732
4659000000.0 0.4848621625349004 -0.8870663579662642
4662000000.0 0.4815974156395013 -0.8831981188406858
4666000000.0 0.48012255404777365 -0.8883010254855788
4669000000.0 0.4942123896987979 -0.8937013369374303
4672000000.0 0.47833540562568344 -0.8903810678262769
4675000000.0 0.47308192899114593 -0.8911058307385421
4678000000.0 0.46151637980806404 -0.8702555608292195
4681000000.0 0.4499170965048386 -0.896658776831997
4684000000.0 0.4895616821230816 -0.9101526325454888
4688000000.0 0.48130160386418136 -0.8755584445427901
4691000000.0 0.4984342010047082 -0.8825753654224068
4694000000.0 0.5033334761644124 -0.8818820720903364
4697000000.0 0.45835329202196834 -0.8508267858010126
4700000000.0 0.4759825642070262 -0.8735409372247154
4703000000.0 0.487124306705323 -0.8473076798877421
4706000000.0 0.4504610388651381 -0.8802649683985074
4709000000.0 0.4884627839969952 -0.9055640719493153
4712000000.0 0.47991903033155536 -0.9099797794469576
4716000000.0 0.45960053126811334 -0.9051963122307478
4719000000.0 0.5193071759379146 -0.8679474326775296
4722000000.0 0.5055685565070946 -0.8872390167328937
4725000000.0 0.4701332941427394 -0.8931773679863254
4728000000.0 0.47521560354064324 -0.8692471135769777
4731000000.0 0.5042215535635837 -0.9043708650492586
4734000000.0 0.4843129914512473 -0.8862523441028932
4738000000.0 0.5007352955811579 -0.9425360103660322
4741000000.0 0.4939899528752592 -0.9274033068929086
4744000000.0 0.4869155094604006 -0.8906057175083422
4747000000.0 0.4494123752227897 -0.8658727774157339
4750000000.0 0.493070695575873 -0.9133951309441806
4753000000.0 0.4822646267308679 -0.8959421184286112
4756000000.0 0.49139201851757575 -0.8818715640323583
4759000000.0 0.49109995016938346 -0.895894088211578
4762000000.0 0.4590488909144725 -0.89239424696079
4766000000.0 0.4814717617070367 -0.9023784929466041
4769000000.0 0.5044204776467276 -0.9017185609855618
4772000000.0 0.5105758237557344 -0.883286112363557
4775000000.0 0.4588400924315932 -0.9415171590308048
4778000000.0 0.4791597955937624 -0.9139014131114818
4781000000.0 0.48835475172196147 -0.8946775549043304
4784000000.0 0.5044278144622962 -0.8804198434720111
4788000000.0 0.5022227819612755 -0.9030722174933535
4791000000.0 0.47216012794345924 -0.8865603274107399
4794000000.0 0.5320050466219635 -0.9048582310927986
4797000000.0 0.460319369292706 -0.8772140660067643
4800000000.0 0.4624416694301552 -0.8797841525748119
4803000000.0 0.4482533313704603 -0.9069401214668749
4806000000.0 0.4607446742136665 -0.8979673456224406
4809000000.0 0.4302572445844213 -0.9147843782023086
4812000000.0 0.4252548294670183 -0.911676705002683
4816000000.0 0.5035141332416084 -0.8824201375305346
4819000000.0 0.5053345448371932 -0.9247468286704998
4822000000.0 0.5070925172711405 -0.9201866216403517
4825000000.0 0.5071902518067082 -0.909594677235046
4828000000.0 0.4679932594757794 -0.8997123735031634
4831000000.0 0.45552573878982094 -0.9314097024806548
4834000000.0 0.4940838882864238 -0.9033368321706962
4838000000.0 0.4768536502485502 -0.9354594686370425
4841000000.0 0.470741836555149 -0.884789702233685
4844000000.0 0.5126214101286178 -0.8947789102853408
4847000000.0 0.4823552363060979 -0.8635608925308369
4850000000.0 0.47077043577384303 -0.920103265799074
4853000000.0 0.4736677382559157 -0.8934961634711208
4856000000.0 0.4679012897714713 -0.9165929283565313
4859000000.0 0.5005152004312383 -0.9443800739035317
4862000000.0 0.4821001254469898 -0.8668544686082286
4866000000.0 0.46518696701297263 -0.9128600870591856
4869000000.0 0.461489539136239 -0.9120854554545559
4872000000.0 0.4509459012031568 -0.9369234057767326
4875000000.0 0.5410999685182276 -0.9184371578953557
4878000000.0 0.48035980818715396 -0.8875998271954565
4881000000.0 0.4877523374838596 -0.9902039895884605
4884000000.0 0.4854699876202969 -0.8926079849274912
4888000000.0 0.5102130378749238 -0.9058690876009159
4891000000.0 0.5228101484173926 -0.8933344011230504
4894000000.0 0.4507249384458705 -0.8896515058264649
4897000000.0 0.4996786132848334 -0.8690324256913684
4900000000.0 0.47915076797204553 -0.9326939154868104
4903000000.0 0.48947636661432364 -0.9123967194236506
4906000000.0 0.48460457117548805 -0.9127672729557471
4909000000.0 0.4698855351292497 -0.9125136975404001
4912000000.0 0.49641831099481154 -0.9494741429039653
4916000000.0 0.49726144019653423 -0.8862567322604794
4919000000.0 0.5360068719006515 -0.9153867028979094
4922000000.0 0.5185639820565913 -0.9155014315841908
4925000000.0 0.45610175267021996 -0.9311378424299949
4928000000.0 0.5245821212672008 -0.8869063086309396
4931000000.0 0.5509205641593403 -0.9235900227846934
4934000000.0 0.4958080560736319 -0.8667812002284858
4938000000.0 0.45257071053734543 -0.9188455802971803
4941000000.0 0.4989941467870158 -0.8658793992872066
4944000000.0 0.4665314142647994 -0.8290272807303769
4947000000.0 0.49005477163435895 -0.8890983394424727
4950000000.0 0.4779597225742882 -0.9099557508962297
4953000000.0 0.4368190735753995 -0.9511359248476984
4956000000.0 0.4781819151609957 -0.9158088865194298
4959000000.0 0.438859483416301 -0.8864824073913065
4962000000.0 0.5014532477845509 -0.9526009512204815
4966000000.0 0.5347199806009469 -0.9080357666741756
4969000000.0 0.532324337026799 -0.9502035941199607
4972000000.0 0.483351815359964 -0.9041097669281986
4975000000.0 0.4906399085257881 -0.8626190209432203
4978000000.0 0.46323556208041117 -0.8919817939505982
4981000000.0 0.4785215132049906 -0.9186827417985943
4984000000.0 0.5164388438636444 -0.8701697188174907
4988000000.0 0.5276572613849344 -0.8988418977906323
4991000000.0 0.5828714468972943 -0.8644424742677818
4994000000.0 0.5122598930967439 -0.8843152066278755
4997000000.0 0.4726293812226571 -0.9154886358962425
5000000000.0 0.5484440135537105 -0.914029189045195
5003000000.0 0.5340187249073501 -0.9088301192236214
5006000000.0 0.5309524911016208 -0.9644594685110666
5009000000.0 0.49614808097755075 -0.9015492567694807
5012000000.0 0.5292041891600332 -0.9251133880653403
5016000000.0 0.5648178705537634 -0.9305935051991644
5019000000.0 0.4887782260342941 -0.9116201005686768
5022000000.0 0.5467758806843132 -0.9034317905605769
5025000000.0 0.5369781023115585 -0.9776585936065123
5028000000.0 0.47914803447406734 -0.9282909308071045
5031000000.0 0.49363732597650456 -0.8908940744189983
5034000000.0 0.49428980294013103 -0.9629947693403231
5038000000.0 0.4659939106288713 -0.8980708224988709
5041000000.0 0.5245767459790369 -0.888205768075309
5044000000.0 0.5247349441880782 -0.8780624990237083
5047000000.0 0.5097393435256262 -0.8919367922139517
5050000000.0 0.5543165094771249 -0.8332867428936929
5053000000.0 0.49699505434586283 -0.9380764993507699
5056000000.0 0.5369632305614198 -0.8645492477301276
5059000000.0 0.545659706597377 -0.8790882649936025
5062000000.0 0.46646712211228675 -0.973418857819998
5066000000.0 0.5183992267219152 -0.8755575214094755
5069000000.0 0.5105896478047649 -0.9227654056344725
5072000000.0 0.5040508471892198 -0.8520638202328947
5075000000.0 0.5124151196281204 -0.8885454061302807
5078000000.0 0.4572457430565913 -0.9260142222894213
5081000000.0 0.5160886427326407 -0.895878126084577
5084000000.0 0.5285052924990807 -0.9067619588401462
5088000000.0 0.5250345475088972 -0.8965985933569578
5091000000.0 0.48148569057741736 -0.9286132758823672
5094000000.0 0.5086307459999291 -0.9077675364881272
5097000000.0 0.5339166376403354 -0.9197175030405369
5100000000.0 0.5006582418934762 -0.8882371336929666
5103000000.0 0.47614572550778095 -0.897832039068373
5106000000.0 0.516013640172873 -0.9258089484850962
5109000000.0 0.5393254876031182 -0.9051879596874257
5112000000.0 0.45529420731019293 -0.8628557267982484
5116000000.0 0.5125523345836968 -0.8692261526802968
5119000000.0 0.5567930226751161 -0.879541309118572
5122000000.0 0.4968178598153379 -0.8632462801409014
5125000000.0 0.556423985162944 -0.8347523147987279
5128000000.0 0.5153957628746677 -0.9461002981628603
5131000000.0 0.5396819182933088 -0.8768205562503778
5134000000.0 0.540390136789225 -0.923286761258372
5138000000.0 0.5053928961334488 -0.8811771892635274
5141000000.0 0.5937849516306198 -0.8741355963128462
5144000000.0 0.5258810275107082 -0.8956602358296948
5147000000.0 0.5721638141577037 -0.9071510438321528
5150000000.0 0.5266061357855456 -0.8921017775147075
5153000000.0 0.49753966673817085 -0.8737172066295611
5156000000.0 0.5516573845468402 -0.8914008240226499
5159000000.0 0.5476545656542371 -0.8992265457418085
5162000000.0 0.520438372343289 -0.8889414241844863
5166000000.0 0.5309953527198052 -0.8888622946870048
5169000000.0 0.5668532045903906 -0.8832428039017286
5172000000.0 0.5233967016306476 -0.8780238957120224
5175000000.0 0.5586823200799699 -0.9108178658351989
5178000000.0 0.5148351498054495 -0.8469906716344773
