! Created with skrf 1.8.0 (http://scikit-rf.org).
# Hz S RI R 50.0 
!freq ReS11 ImS11
4000000000.0 0.5380636465229208 -0.8526156502646334
4003000000.0 0.6206834278674542 -0.9376224542447893
4006000000.0 0.5577187311672983 -0.8829661680991399
4009000000.0000005 0.5535683492412702 -0.9292881366283974
4011999999.9999995 0.5832100975666288 -0.8539510107351669
4016000000.0 0.5221587399733694 -0.9001604446549798
4019000000.0 0.5593094196713917 -0.8832078795569236
4022000000.0000005 0.5759819524682182 -0.8408409583530698
4025000000.0000005 0.5262581681149197 -0.9221219267726752
4027999999.9999995 0.5591860102524158 -0.8999519341225595
4030999999.9999995 0.544172113722875 -0.8741887182644691
4034000000.0 0.5184826096346071 -0.8921871137804565
4038000000.0000005 0.5227875172196861 -0.8942917342210562
4041000000.0000005 0.5524704200598554 -0.8886139133300525
4043999999.9999995 0.5403124080752777 -0.8981258912053481
4046999999.9999995 0.5845219899159793 -0.8986986155221489
4050000000.0 0.5437879735135419 -0.9386637806672986
4053000000.0 0.5148717484012693 -0.905449915255785
4056000000.0 0.5667566031459081 -0.8909273431199325
4059000000.0 0.5894574974551379 -0.8267806079135808
4062000000.0000005 0.5175303524430073 -0.8951696274024413
4066000000.0 0.5114671355718712 -0.8095242847616485
4069000000.0 0.5430773962036607 -0.9246376311531724
4072000000.0 0.5987628875509475 -0.8568909462076089
4075000000.0 0.6138108286753614 -0.9010123599568307
4078000000.0000005 0.5633525003036212 -0.9016299499268963
4081000000.0000005 0.6322230379107121 -0.865580284457531
4083999999.9999995 0.550332357573064 -0.8841181394806421
4088000000.0 0.5891231759374553 -0.8436676492497162
4091000000.0 0.5585584547975617 -0.903305296139023
4094000000.0000005 0.5885395932464825 -0.8647109022583953
4097000000.0000005 0.5256045643016338 -0.8586970514410841
4099999999.9999995 0.5168499098105497 -0.8716176895034836
4102999999.9999995 0.604896959612172 -0.8650262750831245
4106000000.0 0.5241988225245343 -0.8915975918860168
4109000000.0 0.5439330615720362 -0.9019011581238474
4112000000.0 0.5446480710021995 -0.8862441069687123
4115999999.9999995 0.5718998499406949 -0.8823327305725386
4119000000.0 0.5536022650579606 -0.8860532574941563
4122000000.0 0.5440513804445114 -0.9019545260404883
4125000000.0 0.54411159863786 -0.924533812406051
4128000000.0 0.5383654181855545 -0.8538093068290269
4131000000.0 0.5361706897400096 -0.86493385505308
4134000000.0000005 0.5735692907449577 -0.8654369262933068
4138000000.0 0.5248441229797434 -0.8746293222600344
4141000000.0 0.5584237758055396 -0.8568297706215399
4144000000.0 0.6035840165637515 -0.8730867180300709
4147000000.0000005 0.5508580096284142 -0.8514836127863994
4150000000.0000005 0.5514069452676653 -0.9307886794854416
4152999999.9999995 0.519467118390934 -0.8688947242866539
4155999999.9999995 0.5560781607636374 -0.8810056280911999
4159000000.0 0.5609885554640676 -0.8547553562935312
4162000000.0 0.5528902397291813 -0.8525159295220077
4166000000.0000005 0.5648680897212033 -0.8618918078648045
4168999999.9999995 0.529175306315291 -0.8866879455425394
4171999999.9999995 0.5582359727140829 -0.852158767841015
4175000000.0 0.55202223172372 -0.8610631015488414
4178000000.0 0.5566824326196865 -0.8966694146850751
4181000000.0 0.584952245083811 -0.8713165605590101
4184000000.0 0.5586117507032786 -0.8748097030528073
4187999999.9999995 0.5560529509987887 -0.8694369002533088
4191000000.0 0.5672951782587063 -0.8182332635023679
4194000000.0 0.5346410460713196 -0.841848927794072
4197000000.0 0.5678182163744584 -0.8730186565532816
4200000000.0 0.5747843802870154 -0.8605315542736236
4203000000.0000005 0.571031799302121 -0.8543746191523929
4206000000.0000005 0.5618308832858613 -0.8681273663976967
4208999999.9999995 0.5433145158280954 -0.849033985746855
4211999999.9999995 0.530997846226588 -0.8643756520928183
4216000000.0 0.5720039449478952 -0.8558744968353726
4219000000.0000005 0.5723567006121667 -0.8628058039602182
4222000000.0000005 0.5588036695352278 -0.8690318926360837
4224999999.9999995 0.5526984349474415 -0.8430861961275681
4227999999.9999995 0.5487808633620341 -0.8766232063237693
4231000000.0 0.5671927983185945 -0.8613703280729298
4234000000.0 0.5662927765886648 -0.8730748137955134
4238000000.0000005 0.5401629455321406 -0.8808757375350224
4240999999.9999995 0.5380852073701939 -0.8570573407325224
4244000000.0 0.5448581458675675 -0.8636447754487578
4247000000.0 0.5710495054018376 -0.8578570586650777
4250000000.0 0.5442478073671442 -0.845371736489338
4253000000.0 0.5403106921268207 -0.8318231312167051
4256000000.0 0.5658833619168309 -0.9049681078840371
4259000000.0000005 0.5320048120789509 -0.8176434008769793
4261999999.9999995 0.5540227829971659 -0.8721379534137148
4266000000.0 0.5498822665047316 -0.8822428150592704
4269000000.0 0.5576912450327708 -0.8512435270820681
4272000000.0000005 0.5633444632919308 -0.8455333972958874
4275000000.0000005 0.5632054847170248 -0.857229392699445
4277999999.9999995 0.5690046221357781 -0.8641895749412475
4280999999.9999995 0.5713932121892368 -0.8682938260671803
4284000000.0 0.5210748646330413 -0.8744700574066405
4288000000.0000005 0.5808643358897649 -0.8472709596588889
4291000000.0000005 0.5487238959512122 -0.8193253234991112
4293999999.9999995 0.5565485966377827 -0.8540697486067489
4297000000.0 0.5731091425632384 -0.8323730911623715
4300000000.0 0.5402521120091732 -0.8434429561414705
4303000000.0 0.5560631719189182 -0.8447954422457512
4306000000.0 0.5603590286118948 -0.8391283925872605
4309000000.0 0.5433322030290473 -0.852267945320682
4312000000.0 0.5926484985209575 -0.8525444235323716
4316000000.0 0.5573808376869663 -0.853462728762652
4319000000.0 0.5495310169899217 -0.8310887228213035
4322000000.0 0.5231492702126861 -0.8544796096390636
4325000000.0 0.5658089912226224 -0.8625397327836926
4328000000.0 0.5427754433737363 -0.8421793584385682
4331000000.0 0.5417963831172169 -0.8784830043718431
4334000000.0 0.5332243785934365 -0.8470733708058221
4338000000.0 0.5591914466112137 -0.8245488305528834
4341000000.0 0.5751575345448228 -0.8466959697231958
4344000000.0 0.5797670475704331 -0.8724877515464837
4347000000.0 0.5261407293114339 -0.8925489124488722
4350000000.0 0.5433822188300356 -0.8301105972517846
4353000000.0 0.5479781909828689 -0.8241073143244328
4356000000.0 0.5255156246790992 -0.8540525396933767
4359000000.0 0.5177602991063163 -0.8244245147966345
4362000000.0 0.5057854620646238 -0.8788905640799345
4366000000.0 0.5567554632206703 -0.8634879447430125
4369000000.0 0.5194033740383278 -0.8368899981683479
4372000000.0 0.5143139288281032 -0.862220567651263
4375000000.0 0.546257192665072 -0.8491838520331952
4378000000.0 0.5321217605168955 -0.8457299948999342
4381000000.0 0.5615324475644274 -0.8118797873820686
4384000000.0 0.5598684931665423 -0.8955656073387864
4388000000.0 0.5373492751091833 -0.8124428176407317
4391000000.0 0.5612351593995719 -0.8689857998387504
4394000000.0 0.5331663300583825 -0.8382478765932876
4397000000.0 0.521634141563211 -0.8474937285364182
4400000000.0 0.550614519727544 -0.887914407352983
4403000000.0 0.541751348013508 -0.8639108030042972
4406000000.0 0.5282746142713395 -0.8674342368774715
4409000000.0 0.5478351521518618 -0.8789543952762984
4412000000.0 0.4958496992498542 -0.8957216183494782
4416000000.0 0.518663412278397 -0.855926049247534
4419000000.0 0.5437106123475592 -0.8686166565847322
4422000000.0 0.5458221057820749 -0.8375761135574642
4425000000.0 0.5828412129249382 -0.8569862288238305
4428000000.0 0.5313933915111044 -0.8552127333924597
4431000000.0 0.553807487861746 -0.8830610458213467
4434000000.0 0.528289094537376 -0.8555881409728181
4438000000.0 0.5469812647609781 -0.8760961549838666
4441000000.0 0.5550887559205046 -0.8655895056067305
4444000000.0 0.5285812374418252 -0.8259890175302992
4447000000.0 0.521621005014946 -0.8543205390225401
4450000000.0 0.5407219747719696 -0.8445512001488391
4453000000.0 0.5587662513052596 -0.8812476191335206
4456000000.0 0.507680093693385 -0.8347029151336153
4459000000.0 0.4923748887574677 -0.8274966179333423
4462000000.0 0.5538365866208836 -0.9107265346234695
4466000000.0 0.5478036286980758 -0.9060847865595998
4469000000.0 0.537553612880192 -0.8551823825449455
4472000000.0 0.5274431550124933 -0.8904090140487491
4475000000.0 0.5167114979887737 -0.8298702073545858
4478000000.0 0.5441895934955012 -0.9018032654812862
4481000000.0 0.4956832887193867 -0.844389417226924
4484000000.0 0.48642877455015665 -0.8718206642135402
4488000000.0 0.5288716131068417 -0.862106934422467
4491000000.0 0.5233366758089533 -0.8631589090406018
4494000000.0 0.5162593136001091 -0.8511524225784723
4497000000.0 0.5404888948355827 -0.8488118482234343
4500000000.0 0.5401351259124306 -0.8604355940555718
4503000000.0 0.5446718000778139 -0.8706464518091257
4506000000.0 0.5210680429881602 -0.8534183709279817
4509000000.0 0.4979510921125857 -0.8502272253342968
4512000000.0 0.49446206028402895 -0.84429224832025
4516000000.0 0.5574701841410798 -0.8983210554650849
4519000000.0 0.527323441706161 -0.8505467784687186
4522000000.0 0.5340056047552809 -0.8516302642590542
4525000000.0 0.5511202302376139 -0.8448174303599949
4528000000.0 0.5513744485624316 -0.8929414508393329
4531000000.0 0.5382393164869114 -0.8490607616478796
4534000000.0 0.5174415665872739 -0.8588194909014638
4538000000.0 0.519081976282533 -0.8460842556397556
4541000000.0 0.48891585424608963 -0.8797509683838687
4544000000.0 0.5202653784799864 -0.8588577045887923
4547000000.0 0.5232665888157582 -0.84448949339753
4550000000.0 0.5216738243075394 -0.879509378143451
4553000000.0 0.5128336040189928 -0.8705576739894061
4556000000.0 0.5085183116107007 -0.867886433446842
4559000000.0 0.5129381515802998 -0.8763590045506677
4562000000.0 0.5163777265246094 -0.8667972923236915
4566000000.0 0.5186391457869497 -0.8787457674987909
4569000000.0 0.5083369660568893 -0.8504004615527456
4572000000.0 0.5146606920483299 -0.8842235426319454
4575000000.0 0.5247508995002073 -0.8987076485716576
4578000000.0 0.5534506392427521 -0.8708843681797824
4581000000.0 0.5119278529663245 -0.8821308754361206
4584000000.0 0.5129170999691095 -0.8831723138288498
4588000000.0 0.5320405952906618 -0.8701161412604634
4591000000.0 0.519564519479125 -0.8516628201152847
4594000000.0 0.496751461684664 -0.8665074160401592
4597000000.0 0.513002347142371 -0.8756640730933845
4600000000.0 0.4684341602248643 -0.8669135544858897
4603000000.0 0.495212931308298 -0.8757494070269092
4606000000.0 0.512697052017142 -0.8706825312021448
4609000000.0 0.5108830028335828 -0.8698046220347332
4612000000.0 0.5411874028081138 -0.8835610937777878
4616000000.0 0.5062148406306743 -0.8625600453252233
4619000000.0 0.504508100429836 -0.8570035862754248
4622000000.0 0.5072936595188782 -0.8704494552193964
4625000000.0 0.496912763302684 -0.8690834964026255
4628000000.0 0.5195069887139232 -0.8637859113332924
4631000000.0 0.4959310936983569 -0.891139474582253
4634000000.0 0.5080146900961917 -0.8859733635879173
4638000000.0 0.5108433280771476 -0.8628911347326209
4641000000.0 0.5327385013689605 -0.8791197588029123
4644000000.0 0.5103929134754732 -0.8611953351844922
4647000000.0 0.5153677751751602 -0.8756716806375302
4650000000.0 0.4969286039797785 -0.8977846443655384
4653000000.0 0.5204519747623503 -0.8735165807514149
4656000000.0 0.4963517626901659 -0.878985052579809
4659000000.0 0.4845777352162649 -0.8985377187763264
4662000000.0 0.5158076474879891 -0.8920099627384017
4666000000.0 0.5073648255860146 -0.8678674471474552
4669000000.0 0.5139373872123276 -0.8606718826664638
4672000000.0 0.48869703840961354 -0.897095022655285
4675000000.0 0.512206969342248 -0.8791276413052815
4678000000.0 0.4976538082292696 -0.8778667112921409
4681000000.0 0.4793620680770686 -0.8950572078834975
4684000000.0 0.4923658421356919 -0.9043462690809209
4688000000.0 0.48750297712029744 -0.8831786290439407
4691000000.0 0.5246862209556464 -0.8724020887007504
4694000000.0 0.5049861773404503 -0.8661561222735101
4697000000.0 0.4358966041810686 -0.8647077769158705
4700000000.0 0.498283559845378 -0.8660432091211846
4703000000.0 0.5231886923416215 -0.8295177599469096
4706000000.0 0.5121237811077447 -0.8993374444428911
4709000000.0 0.48589528400409354 -0.8828682351183762
4712000000.0 0.5106683992958307 -0.8950945113058051
4716000000.0 0.4906274855270856 -0.8914064883213101
4719000000.0 0.5039290906864712 -0.8682260795572545
4722000000.0 0.5147792897657214 -0.8618470355522908
4725000000.0 0.5179385490639596 -0.8821936546800285
4728000000.0 0.5008442780973673 -0.8974033987586684
4731000000.0 0.5323667712385876 -0.9064079992258202
4734000000.0 0.5134375844380231 -0.8788447151762746
4738000000.0 0.5279066942009077 -0.8953211053060159
4741000000.0 0.4998201711524303 -0.9026263787284629
4744000000.0 0.4939079743836676 -0.915445286108899
4747000000.0 0.5012687894380284 -0.8582509251968607
4750000000.0 0.5024198286802328 -0.8893957229786943
4753000000.0 0.48548361249717503 -0.8981060222581541
4756000000.0 0.5470618391058965 -0.9043875057834194
4759000000.0 0.5249298864614738 -0.8931097866167171
4762000000.0 0.5081968123534284 -0.9093393144369346
4766000000.0 0.5020202427269087 -0.8635561119583083
4769000000.0 0.52117223889966 -0.8896149373922763
4772000000.0 0.4978949183129452 -0.881862852352752
4775000000.0 0.5113183803192543 -0.9414294653339687
4778000000.0 0.48219546969754695 -0.916261793562147
4781000000.0 0.5157261233615908 -0.9032895210720956
4784000000.0 0.5350508525618477 -0.8755197868802802
4788000000.0 0.5155192244742862 -0.9148003306275037
4791000000.0 0.48894999525370053 -0.8746068246093943
4794000000.0 0.5621697960167298 -0.896874706596893
4797000000.0 0.46048012317560194 -0.8587799732118457
4800000000.0 0.48802816699571433 -0.888622987553109
4803000000.0 0.4610365530756749 -0.8964700857943619
4806000000.0 0.5080286252242137 -0.9225661295933661
4809000000.0 0.4568476666850627 -0.8906025864399051
4812000000.0 0.4780489131916915 -0.9079972242797898
4816000000.0 0.5194498845766874 -0.8668732086555402
4819000000.0 0.5124212669822485 -0.911568115229198
4822000000.0 0.510970547452653 -0.9154221924525243
4825000000.0 0.5211802813980846 -0.9084240378473049
4828000000.0 0.5077788884760577 -0.9089947605839053
4831000000.0 0.462202413831897 -0.9487242109681691
4834000000.0 0.5100506837534621 -0.8907145984075682
4838000000.0 0.49768948748936825 -0.908030044459592
4841000000.0 0.4962752327828359 -0.9046876499245453
4844000000.0 0.534801500603272 -0.8914111229807226
4847000000.0 0.5122668810424177 -0.8636317377159493
4850000000.0 0.5122782542257993 -0.9148880276440711
4853000000.0 0.49208027473538773 -0.8695996011300705
4856000000.0 0.47800512957821056 -0.8822087750046883
4859000000.0 0.5199712766082 -0.9134885464505115
4862000000.0 0.5344725741336427 -0.8460318769141183
4866000000.0 0.5113681406211616 -0.9208106730691521
4869000000.0 0.507423807805878 -0.9023655329863527
4872000000.0 0.4886687313762742 -0.9533523882072147
4875000000.0 0.55041573697312 -0.8996528932579533
4878000000.0 0.504359787267095 -0.9097961574957611
4881000000.0 0.5211459482380578 -0.982635148072358
4884000000.0 0.5321804254124124 -0.9127449850166991
4888000000.0 0.5245880835614696 -0.8816318732208488
4891000000.0 0.5483198947649641 -0.9238628743580946
4894000000.0 0.5064799352897411 -0.9102434794939802
4897000000.0 0.5263501315461309 -0.8884937734861066
4900000000.0 0.506380854497656 -0.9249736423015021
4903000000.0 0.5531243182746336 -0.9218586109153892
4906000000.0 0.5326182635114532 -0.9411362256863393
4909000000.0 0.48152908653600657 -0.9086534957027013
4912000000.0 0.5370347520694589 -0.923716410373675
4916000000.0 0.5471774990979766 -0.9205441205978159
4919000000.0 0.5299535322635702 -0.9158853575201686
4922000000.0 0.5653143693003271 -0.9005522925093258
4925000000.0 0.4946381970496647 -0.8840285205710291
4928000000.0 0.5383838886950779 -0.8830457071519822
4931000000.0 0.5555506187596068 -0.9074601619989405
4934000000.0 0.47603402417818863 -0.8765009618479732
4938000000.0 0.49839292341594177 -0.9294691329778904
4941000000.0 0.5029233775757403 -0.8804664020753032
4944000000.0 0.5028397229077303 -0.8358790100961204
4947000000.0 0.519514019744129 -0.8490371906368005
4950000000.0 0.4898893415911296 -0.8813035324783118
4953000000.0 0.541261960804179 -0.9446225568069849
4956000000.0 0.47884932116129164 -0.9226318017547359
4959000000.0 0.4694331177345075 -0.8861077833566472
4962000000.0 0.5386627726806064 -0.8843981101774689
4966000000.0 0.5303163462414847 -0.9061724607130313
4969000000.0 0.5452826733881657 -0.9333187448362111
4972000000.0 0.5030792797527617 -0.9139928970663755
4975000000.0 0.5153639397894962 -0.8631795663761828
4978000000.0 0.5144249876035236 -0.9264661747630083
4981000000.0 0.48132193234202747 -0.9057436145097596
4984000000.0 0.5213406370380421 -0.875294940432735
4988000000.0 0.5384974037955643 -0.893242871336551
4991000000.0 0.5536902372421457 -0.8753339972167943
4994000000.0 0.5303139649141655 -0.8886562803992396
4997000000.0 0.48658817037144386 -0.8993514256765068
5000000000.0 0.5277075073215989 -0.9364887082879012
5003000000.0 0.5750893790354908 -0.9178787409673914
5006000000.0 0.5686698999794827 -0.9383245717857988
5009000000.0 0.5483775253029063 -0.9185950064670685
5012000000.0 0.5333221299507686 -0.9333460690669064
5016000000.0 0.561879459709923 -0.9279831491893304
5019000000.0 0.5261859586078843 -0.8907223287297018
5022000000.0 0.5511446893509904 -0.9103560170671052
5025000000.0 0.5387451310589484 -0.9576637701302189
5028000000.0 0.5097841680200403 -0.9212401419534088
5031000000.0 0.5047087722424036 -0.8993847150819367
5034000000.0 0.5111902816187205 -0.9373217666505389
5038000000.0 0.5043281485831116 -0.8620659379290174
5041000000.0 0.5705880373452202 -0.8897238686559659
5044000000.0 0.531931838501681 -0.8673959844994579
5047000000.0 0.5411937739650047 -0.8775372331812166
5050000000.0 0.5920414434734536 -0.8304547227865481
5053000000.0 0.5500975152449364 -0.929002127598596
5056000000.0 0.5928951305508878 -0.8621882610990659
5059000000.0 0.5550442266454569 -0.8761543645139522
5062000000.0 0.4909946461174471 -0.9383930542876046
5066000000.0 0.5476457855422201 -0.8633878477570386
5069000000.0 0.5593390579941281 -0.8994964860950143
5072000000.0 0.5273387850114085 -0.8479623290202999
5075000000.0 0.549131482847329 -0.872084493978603
5078000000.0 0.5060136647692266 -0.9207445291961169
5081000000.0 0.4830797440185681 -0.8968316161835594
5084000000.0 0.5439257539981776 -0.9020256906229437
5088000000.0 0.5779880890418803 -0.8895133588006106
5091000000.0 0.48495945990268796 -0.8994001202854047
5094000000.0 0.5724093023844897 -0.9233303783961989
5097000000.0 0.5757016839637707 -0.8906288867816377
5100000000.0 0.5355933364149018 -0.8767518599028717
5103000000.0 0.5276957680685535 -0.8932333210874244
5106000000.0 0.5469308187865194 -0.9300387750367756
5109000000.0 0.5439410681490126 -0.8628738938609828
5112000000.0 0.4962638507169389 -0.8918982561783155
5116000000.0 0.5142755910809385 -0.8540986160995419
5119000000.0 0.5396764548686823 -0.9193386685438698
5122000000.0 0.5550208840305482 -0.8893166552414611
5125000000.0 0.5406536082735911 -0.8578942110239484
5128000000.0 0.5616728661263137 -0.9352399301975052
5131000000.0 0.5372554537559644 -0.9316539363731504
5134000000.0 0.5324389355664564 -0.8845102880383973
5138000000.0 0.5827612988269075 -0.8554067706552813
5141000000.0 0.5973732837275905 -0.8554739293442153
5144000000.0 0.599223357962182 -0.8777371325673157
5147000000.0 0.562118667806025 -0.9575547633518904
5150000000.0 0.5831597821220388 -0.862647247205619
5153000000.0 0.5633195966853267 -0.9007966024971175
5156000000.0 0.5912659354090384 -0.8915301322119604
5159000000.0 0.5794363890458366 -0.9092563667784035
5162000000.0 0.5228331330174752 -0.8838196931562782
5166000000.0 0.5274302162834462 -0.8874145358141285
5169000000.0 0.5359884442529355 -0.8814331406376344
5172000000.0 0.5803147452250796 -0.8759014361477007
5175000000.0 0.5877785789768228 -0.9086665818993487
5178000000.0 0.5731694984177431 -0.8679388934669141
