! Created with skrf 1.8.0 (http://scikit-rf.org).
# Hz S RI R 50.0 
!freq ReS11 ImS11
4000000000.0 0.5027632406467134 -0.8440482132757183
4003000000.0 0.4591105720659483 -0.9509244089564401
4006000000.0 0.4336771776023349 -0.9355538581662033
4009000000.0000005 0.4602906351410894 -0.9371490642280564
4011999999.9999995 0.5117925465616056 -0.8729624043401079
4016000000.0 0.4163408645997446 -0.9063623682575985
4019000000.0 0.47075583528943044 -0.9175179183399679
4022000000.0000005 0.5072503703561224 -0.9203768527951619
4025000000.0000005 0.40163743144807384 -0.9720866902048232
4027999999.9999995 0.45867468870091543 -0.9550740136532427
4030999999.9999995 0.46342309577273333 -0.9130990834293932
4034000000.0 0.45410503892168874 -0.9216130027933847
4038000000.0000005 0.47465925803733977 -0.9353055719661331
4041000000.0000005 0.45865545860096246 -0.8989214114635823
4043999999.9999995 0.48399517603534226 -0.9562729413469182
4046999999.9999995 0.5474419572864615 -0.9262283033899942
4050000000.0 0.43982644936686316 -0.9392110337891107
4053000000.0 0.4342190724675527 -0.8968007332663486
4056000000.0 0.4685639964605315 -0.9493825749042882
4059000000.0 0.48780756073928816 -0.9051834964283316
4062000000.0000005 0.4586417032655753 -0.9174653483840789
4066000000.0 0.4606700037333995 -0.8338409931699005
4069000000.0 0.43839887178408926 -0.9653141417014218
4072000000.0 0.4776609191815374 -0.9251575458135811
4075000000.0 0.5115117055356835 -0.9424059766749678
4078000000.0000005 0.46530807085603887 -0.9281178314041423
4081000000.0000005 0.49343788070142786 -0.9311963568949043
4083999999.9999995 0.46543505554965453 -0.9137477060980312
4088000000.0 0.5051418119613307 -0.91073783011172
4091000000.0 0.4896685659547414 -0.9762060653790845
4094000000.0000005 0.4725882604832806 -0.9383020254748946
4097000000.0000005 0.48035874637096443 -0.9488821226294818
4099999999.9999995 0.46554694385733564 -0.9180777566316879
4102999999.9999995 0.47369532075489285 -0.9372182625278745
4106000000.0 0.45604713349110293 -0.928393790074381
4109000000.0 0.44316711101707473 -0.9453434537267509
4112000000.0 0.4692351038431871 -0.9243504551602417
4115999999.9999995 0.46606079428234287 -0.932250936871606
4119000000.0 0.45475332510406913 -0.9391619241284915
4122000000.0 0.44889897839058834 -0.9563158803034781
4125000000.0 0.47263543130241126 -0.9836960457578661
4128000000.0 0.4938991230766441 -0.8887022741544055
4131000000.0 0.44786677746131903 -0.94387316969671
4134000000.0000005 0.4704172302106902 -0.919525309741044
4138000000.0 0.4136921193779061 -0.9232421938686957
4141000000.0 0.4421857392271003 -0.8996063192941839
4144000000.0 0.4769138955152514 -0.9272647018688633
4147000000.0000005 0.4336161913672219 -0.9082222816299728
4150000000.0000005 0.47845646185643975 -0.9231474367723215
4152999999.9999995 0.43891090785192427 -0.9316872841491597
4155999999.9999995 0.4953231731702197 -0.9381598823622811
4159000000.0 0.44578887645928295 -0.8952864435123477
4162000000.0 0.4374853597040714 -0.8906427150367354
4166000000.0000005 0.45142154798221346 -0.9356234521196773
4168999999.9999995 0.4300407095997841 -0.9116964919724183
4171999999.9999995 0.45148187146484375 -0.9104581670849461
4175000000.0 0.4702880910804341 -0.9326026033521464
4178000000.0 0.45805857585372234 -0.9350519391623586
4181000000.0 0.47537090945053667 -0.8894415833200349
4184000000.0 0.45445255606944557 -0.9178186547658678
4187999999.9999995 0.4318587140255892 -0.9148100901055819
4191000000.0 0.4710999490303678 -0.8777478453678439
4194000000.0 0.43113062370323235 -0.9127719022809527
4197000000.0 0.47217656358410853 -0.9291696688653938
4200000000.0 0.47543108204893714 -0.9210189340386058
4203000000.0000005 0.47637121922084125 -0.9042975187546476
4206000000.0000005 0.46712012720559115 -0.9361039020115962
4208999999.9999995 0.4712968288474384 -0.8898281252514523
4211999999.9999995 0.44159849754582936 -0.9304018846186363
4216000000.0 0.4655755271131913 -0.9089850359336362
4219000000.0000005 0.4767736342211059 -0.9141818169416226
4222000000.0000005 0.43701647623158335 -0.9158815955086046
4224999999.9999995 0.46364794242780216 -0.8844374957213818
4227999999.9999995 0.4532672244193588 -0.9277862891816298
4231000000.0 0.4477312836390174 -0.9265826745330267
4234000000.0 0.45324318578040074 -0.9244426685004679
4238000000.0000005 0.44795001032365006 -0.9258757439840157
4240999999.9999995 0.4272822125627858 -0.9111868050600406
4244000000.0 0.44637386886323016 -0.9109731913169399
4247000000.0 0.44385031940319986 -0.9082537199402757
4250000000.0 0.44067572294188684 -0.8933505589699843
4253000000.0 0.4350318930298911 -0.9028125571809548
4256000000.0 0.43953758141879856 -0.9453078920266769
4259000000.0000005 0.44006426606800764 -0.8926393683261923
4261999999.9999995 0.4408666431616088 -0.9104343486318537
4266000000.0 0.4396643714046127 -0.947914733899443
4269000000.0 0.4492495546166896 -0.896960137684914
4272000000.0000005 0.46356911538293694 -0.8995382554732999
4275000000.0000005 0.45679656668209606 -0.9118526569408634
4277999999.9999995 0.45881413045587716 -0.9512823944274509
4280999999.9999995 0.4593240720489986 -0.9001206515703887
4284000000.0 0.4433301770958263 -0.9194227320512509
4288000000.0000005 0.4729816208533732 -0.8959091249202257
4291000000.0000005 0.42770711107759085 -0.8924596460449586
4293999999.9999995 0.4442819005775161 -0.9196850988784641
4297000000.0 0.4623587205580314 -0.8806008597441697
4300000000.0 0.44489664724401373 -0.8790389475679646
4303000000.0 0.4218183855491342 -0.9145602914470834
4306000000.0 0.4484818550795813 -0.8898912582372195
4309000000.0 0.4644532049328031 -0.8850604507796042
4312000000.0 0.4844600863144002 -0.9176174638974363
4316000000.0 0.46716559235146976 -0.9212250535059094
4319000000.0 0.4168756265738394 -0.8971846347088851
4322000000.0 0.406178252833642 -0.896893893501741
4325000000.0 0.4676387076842017 -0.8880835696985566
4328000000.0 0.4522972985845768 -0.9081694126371472
4331000000.0 0.3992354716607605 -0.9155444817297081
4334000000.0 0.43037796605310547 -0.926975135546048
4338000000.0 0.4519432780874362 -0.9039881187871519
4341000000.0 0.47463356947005586 -0.9116721100891858
4344000000.0 0.46062334270332195 -0.917817073443172
4347000000.0 0.40119505981508174 -0.9434928292039741
4350000000.0 0.4123355699826069 -0.8928483246871597
4353000000.0 0.4540088505437664 -0.8860730173166258
4356000000.0 0.4155668284076657 -0.9133913175319162
4359000000.0 0.41621993760496473 -0.8671669781129856
4362000000.0 0.38059344902644765 -0.9363714244170236
4366000000.0 0.4279967431120098 -0.9319865087058636
4369000000.0 0.4005061453927027 -0.9056192276322882
4372000000.0 0.3839982412056973 -0.9280649660905127
4375000000.0 0.44088390781095366 -0.9050545247487264
4378000000.0 0.40513950867861925 -0.8876297007858186
4381000000.0 0.4261084619165412 -0.9031434711481077
4384000000.0 0.4557142230274085 -0.9763575351576506
4388000000.0 0.4278917178155683 -0.9053998706113503
4391000000.0 0.4317661127218049 -0.9260485975008106
4394000000.0 0.41183765553741497 -0.8982927034915326
4397000000.0 0.41148216893740097 -0.9023448049064786
4400000000.0 0.41880769745388424 -0.9461859410448183
4403000000.0 0.4162902949808507 -0.9335806483375068
4406000000.0 0.40879268114233286 -0.9382696189214785
4409000000.0 0.423495530876306 -0.9472018785461321
4412000000.0 0.3658424281434002 -0.9384517450720959
4416000000.0 0.38483472136508157 -0.9043670679503812
4419000000.0 0.3909378146769414 -0.9237205264147318
4422000000.0 0.4288635194125596 -0.9115691894175801
4425000000.0 0.4440671806284354 -0.9328024173205144
4428000000.0 0.4147485664479176 -0.9317338367444559
4431000000.0 0.44246896231954075 -0.9352575859557362
4434000000.0 0.396599332324908 -0.9163494596239694
4438000000.0 0.41394706742088194 -0.9514190673216505
4441000000.0 0.4203214829497144 -0.9407445043425448
4444000000.0 0.40410477153618746 -0.9051585450401005
4447000000.0 0.3948275739708621 -0.9198693445222803
4450000000.0 0.41996434638516195 -0.9001281862314976
4453000000.0 0.43263950174165205 -0.9314054669427638
4456000000.0 0.3959699389372836 -0.9039374297482727
4459000000.0 0.3690241815097289 -0.894651225420501
4462000000.0 0.40996603754391703 -0.985020255726463
4466000000.0 0.4289003580836707 -0.9686078851844944
4469000000.0 0.41250148122692054 -0.9196257941396828
4472000000.0 0.40292875890480806 -0.9613476296872349
4475000000.0 0.3864323796165648 -0.9166407107702288
4478000000.0 0.3938322861453967 -0.960979614133981
4481000000.0 0.37670208165769403 -0.9287172437840441
4484000000.0 0.34904882431566925 -0.9569142138322824
4488000000.0 0.37736314821656275 -0.9258260013930075
4491000000.0 0.37717687824186363 -0.9449037104686446
4494000000.0 0.39851476782702966 -0.9124462722515818
4497000000.0 0.39189655091811204 -0.9115565569802206
4500000000.0 0.4190841390800063 -0.9249007500633482
4503000000.0 0.39904993403051736 -0.9485759109755652
4506000000.0 0.38603079836250737 -0.9294090744947009
4509000000.0 0.3903996559504479 -0.9144198448598024
4512000000.0 0.38170043369628326 -0.9288115151932121
4516000000.0 0.40048416488373684 -0.9689908645441595
4519000000.0 0.40470001868981736 -0.9263518562204411
4522000000.0 0.3773401523829417 -0.9207282559206913
4525000000.0 0.4118230893488168 -0.9256177209634432
4528000000.0 0.39299044902635644 -0.9610783956725407
4531000000.0 0.3955313915646744 -0.9288336984054779
4534000000.0 0.3761704111282621 -0.9082383725540002
4538000000.0 0.3979306113019396 -0.9481484471335557
4541000000.0 0.3511902035468969 -0.9404997410883802
4544000000.0 0.3783345321038175 -0.9113598086598201
4547000000.0 0.39101284855029483 -0.9111226243586331
4550000000.0 0.3800793997151941 -0.9393270004952929
4553000000.0 0.38213465292315474 -0.9602313799186861
4556000000.0 0.3659264337457322 -0.9268488402023178
4559000000.0 0.3677650066669497 -0.9389353544733646
4562000000.0 0.3864381790261704 -0.952274273153888
4566000000.0 0.3848890615024491 -0.9538539419573954
4569000000.0 0.363107709799752 -0.9342039344242183
4572000000.0 0.36363953278928146 -0.9425406402963543
4575000000.0 0.35269245299553587 -0.9377174294214253
4578000000.0 0.3784803452261033 -0.9615079932790642
4581000000.0 0.3593379813743773 -0.9525822552095313
4584000000.0 0.3504474531006921 -0.9486525966884545
4588000000.0 0.3764854568600458 -0.9662517355611897
4591000000.0 0.3820673082200673 -0.9496183655977524
4594000000.0 0.35713724315225687 -0.9652137185736231
4597000000.0 0.3660795637386068 -0.964334564796745
4600000000.0 0.35098530179770715 -0.9579809938459889
4603000000.0 0.3503359406706052 -0.9405420573921035
4606000000.0 0.344661660502543 -0.9613225361567701
4609000000.0 0.3650398379568398 -0.9604781996112783
4612000000.0 0.3530847690544928 -0.9766272420380311
4616000000.0 0.3698242433173007 -0.9458818452241666
4619000000.0 0.37077921497640826 -0.9308182327390777
4622000000.0 0.33668020623815675 -0.9612050762180862
4625000000.0 0.334985138734462 -0.9565417465038314
4628000000.0 0.3727708030365905 -0.9440063638168619
4631000000.0 0.32617887775249665 -0.9417216682283347
4634000000.0 0.35056405474043245 -0.9459761874932225
4638000000.0 0.34710730698492887 -0.9468279635448722
4641000000.0 0.35254380322928663 -0.9363655592297003
4644000000.0 0.3623635397148116 -0.9558793278801222
4647000000.0 0.3679864476897983 -0.9511734522083137
4650000000.0 0.32886865050333003 -0.9520191905294775
4653000000.0 0.3650424521111145 -0.9681510982319419
4656000000.0 0.338257020621899 -0.9589082921294433
4659000000.0 0.3115432039984447 -0.9630615727046874
4662000000.0 0.3591193564013575 -0.9787920142065532
4666000000.0 0.3219142897274915 -0.9673586537080914
4669000000.0 0.3491117303186687 -0.9475297246290068
4672000000.0 0.33384726399967823 -0.956183105392853
4675000000.0 0.3175465408947361 -0.9680533119331856
4678000000.0 0.32264436092178567 -0.9341927296640958
4681000000.0 0.331567786878619 -0.9792192604211416
4684000000.0 0.33240422123868385 -0.9804449684213478
4688000000.0 0.2994628769937331 -0.9551009816541131
4691000000.0 0.35695082339464657 -0.9737358911251418
4694000000.0 0.3264570192479732 -0.938326344010355
4697000000.0 0.2948571934282222 -0.9002594238381363
4700000000.0 0.3173079898803966 -0.9543842410749682
4703000000.0 0.36146868787324427 -0.9218868681601023
4706000000.0 0.3014847457994749 -0.9690806212527275
4709000000.0 0.3434898499949769 -0.9523680048530414
4712000000.0 0.35172538392427277 -0.9906476584106623
4716000000.0 0.32947621894311624 -0.9865687267581418
4719000000.0 0.37117399700797205 -0.9640103799134626
4722000000.0 0.35719781258972627 -0.9601341530344029
4725000000.0 0.3391537534738542 -0.9712528428903158
4728000000.0 0.31796348682523534 -0.9786215573971455
4731000000.0 0.3522050324335551 -0.9974764890853675
4734000000.0 0.3323072451516003 -0.9513675914815882
4738000000.0 0.34874278619712573 -1.0065471357810134
4741000000.0 0.3350865507955615 -1.0030068810663246
4744000000.0 0.2852819821551095 -0.9650647001832646
4747000000.0 0.3341296785294832 -0.9119071559558507
4750000000.0 0.3081925094365013 -1.001463512970696
4753000000.0 0.35008054301450575 -0.9656247433127949
4756000000.0 0.33037753250863083 -0.9802273138222883
4759000000.0 0.33815614206137234 -0.9820368148815934
4762000000.0 0.27962554332816997 -0.994748983699361
4766000000.0 0.32253092193674593 -0.9634893426730741
4769000000.0 0.3125212813480484 -0.9758467442376118
4772000000.0 0.33045081975861373 -0.9606141672882131
4775000000.0 0.302498642612849 -1.0313005480636475
4778000000.0 0.30641285936596313 -0.9941823672746902
4781000000.0 0.3473851107057315 -0.9567787236597323
4784000000.0 0.2861066195527846 -0.9626773448694537
4788000000.0 0.31076976337149637 -1.0109772996235973
4791000000.0 0.32143836116327906 -0.9728537702031158
4794000000.0 0.3415426446490359 -1.010465783070454
4797000000.0 0.30473960727818666 -0.9489764238783861
4800000000.0 0.3072710426677904 -0.9441612998047313
4803000000.0 0.25307709812528545 -0.9965493538886145
4806000000.0 0.3427311170606367 -0.9868440806519474
4809000000.0 0.2738422440686213 -0.9539169347498757
4812000000.0 0.2631452508302129 -0.9678103806280245
4816000000.0 0.3438492332765699 -0.9594098606794771
4819000000.0 0.32892443737613025 -0.9807862964531587
4822000000.0 0.3634862713206978 -1.02779558608833
4825000000.0 0.34386232514033854 -0.9994767987246134
4828000000.0 0.3132850673925791 -0.9618553027316104
4831000000.0 0.27887039269091146 -1.0245640331722419
4834000000.0 0.3181927271364157 -0.9751899723752027
4838000000.0 0.2866539789471661 -1.0136899374915105
4841000000.0 0.28564942554971845 -0.9804037412527227
4844000000.0 0.33775597899111875 -0.9580750803575012
4847000000.0 0.30668092431795846 -0.9245203142939555
4850000000.0 0.3043945142716199 -1.001426178098334
4853000000.0 0.3005781142345572 -0.9540839993291863
4856000000.0 0.29839148993025294 -0.9602700371221944
4859000000.0 0.28647945033809796 -1.0370502675667272
4862000000.0 0.3202541873267787 -0.9483771898837018
4866000000.0 0.2814084619870977 -0.9951844030336687
4869000000.0 0.29393863290500183 -0.9756300180011985
4872000000.0 0.2919249111487615 -1.0017517241161669
4875000000.0 0.37431065122888924 -1.0141664096083327
4878000000.0 0.3056985565030492 -0.9981809152796868
4881000000.0 0.28754857154365343 -1.0574704903837213
4884000000.0 0.3293705156330968 -0.9777401940320554
4888000000.0 0.3293327742000356 -0.9747523636830429
4891000000.0 0.28851002640746626 -1.0038979417416452
4894000000.0 0.2714453465434188 -0.9709057510745585
4897000000.0 0.31788051469813483 -0.9340854528005713
4900000000.0 0.2883268881693879 -1.0177671684339273
4903000000.0 0.3438683249192083 -0.9686233299917586
4906000000.0 0.32047790478372074 -1.0052464359290454
4909000000.0 0.26615868288550704 -0.9970953674078211
4912000000.0 0.3152137305860543 -1.018160833842429
4916000000.0 0.34058575625414733 -0.9976772854871483
4919000000.0 0.35428912975578786 -1.0256715454873722
4922000000.0 0.32117504057906093 -0.9942575523701883
4925000000.0 0.2914791530959033 -0.976461280600842
4928000000.0 0.3577520952315348 -0.9514782222220108
4931000000.0 0.3123543788022636 -0.9990105389530362
4934000000.0 0.3006955418183428 -0.9692595545284254
4938000000.0 0.29311361572647654 -0.9786840564698689
4941000000.0 0.2841711779120649 -0.9620635428844125
4944000000.0 0.3127681888154696 -0.9325634438876567
4947000000.0 0.2900606046989474 -0.9796801818886618
4950000000.0 0.28282684112768147 -0.9850789520470373
4953000000.0 0.2746052663434997 -1.0330883380332432
4956000000.0 0.29168365929745993 -1.0098914763269164
4959000000.0 0.2263907304828987 -0.9653631141464925
4962000000.0 0.29865718529655816 -1.0083126043185762
4966000000.0 0.33489051204976183 -1.0279948126335356
4969000000.0 0.31641973764633946 -1.027900066016393
4972000000.0 0.2898527599618238 -0.9891457625377453
4975000000.0 0.31004969557905443 -0.9741585459725997
4978000000.0 0.302482274749727 -0.9730540596312353
4981000000.0 0.27879152132197793 -0.996251755824584
4984000000.0 0.29130361121482645 -0.9676188974278505
4988000000.0 0.3385618514941317 -0.9889722039446166
4991000000.0 0.3398125903191239 -1.0095644149639416
4994000000.0 0.2885180580834978 -0.9657349683296598
4997000000.0 0.23248636434522663 -0.9981435861823733
5000000000.0 0.3042296126465524 -1.0229760247225212
5003000000.0 0.29452793308886743 -1.029693990054842
5006000000.0 0.28600782537374847 -1.0188813289716305
5009000000.0 0.3091812531589056 -0.9879063236238057
5012000000.0 0.2465788566901338 -1.019352440642281
5016000000.0 0.327153416667674 -1.0094077345097978
5019000000.0 0.27755082461094044 -1.0207611906438148
5022000000.0 0.2857258988875588 -0.982589469470645
5025000000.0 0.28193584865967986 -1.0675807892496443
5028000000.0 0.27884890515527216 -0.9963495169009686
5031000000.0 0.2845483505561362 -0.9871481793726452
5034000000.0 0.2854664010652655 -1.0516633688159414
5038000000.0 0.27381665289233176 -0.9679436602715963
5041000000.0 0.3475816168917438 -0.9908532444711189
5044000000.0 0.318732761063778 -0.9837793706102259
5047000000.0 0.2890430519262708 -0.9991808294637707
5050000000.0 0.34857006916688377 -0.9617030785274391
5053000000.0 0.2664464300435147 -1.0239696730829497
5056000000.0 0.3147441722358249 -1.0047675059114936
5059000000.0 0.33531451885532554 -1.0005940450504869
5062000000.0 0.23398652458167196 -1.0368056267356136
5066000000.0 0.29682415066135176 -0.9922759686238789
5069000000.0 0.2914572205536112 -1.0374134484433053
5072000000.0 0.29975733571009405 -0.9909446229048583
5075000000.0 0.2834548497190928 -0.9809880790536435
5078000000.0 0.26226291119719386 -1.0324416639523686
5081000000.0 0.2592278244664048 -0.9925023731524372
5084000000.0 0.24559066939103652 -1.0040150935315828
5088000000.0 0.3029999239439436 -1.0304716257683428
5091000000.0 0.29059726763970556 -1.0352664394558997
5094000000.0 0.26245890539687233 -1.0422579401292569
5097000000.0 0.29756480858194606 -1.021486623896478
5100000000.0 0.25436763925177724 -0.9726917687742953
5103000000.0 0.20774906600508752 -1.0352449501591297
5106000000.0 0.3145181694172057 -1.0316587016012815
5109000000.0 0.3226927241290934 -1.016485012373804
5112000000.0 0.26852254272620857 -0.9885000918989542
5116000000.0 0.3201163351786278 -0.9933628731974995
5119000000.0 0.2516287876782019 -1.0099296376629154
5122000000.0 0.3178238302530464 -0.9989646904311146
5125000000.0 0.29680061299177535 -0.9871665648269934
5128000000.0 0.23233882970946212 -1.0022028907331268
5131000000.0 0.277768366144556 -1.0248648499017743
5134000000.0 0.25877931000443016 -0.9785977837201412
5138000000.0 0.33052858052242257 -1.0129414655690032
5141000000.0 0.33106366536035053 -1.0082612143094374
5144000000.0 0.2880668092540014 -1.0148554200981061
5147000000.0 0.31012397439720785 -1.0416832794073492
5150000000.0 0.2923574798048155 -0.970523188378761
5153000000.0 0.2924351698956102 -1.022016641869289
5156000000.0 0.29085692429705357 -1.0125955506820161
5159000000.0 0.27436152192015545 -1.0594426512303643
5162000000.0 0.23707598742110575 -1.0288960237094869
5166000000.0 0.28699795764915387 -1.0185707302028426
5169000000.0 0.2667811770078375 -0.9913644321020807
