! Created with skrf 1.8.0 (http://scikit-rf.org).
# Hz S RI R 50.0 
!freq ReS11 ImS11
4000000000.0 0.5705363208152026 -0.8796245103803246
4003000000.0 0.6162527311627398 -0.956405536307737
4006000000.0 0.49655715180626675 -0.8877412733954999
4009000000.0000005 0.5399093142247227 -0.8959023069781278
4011999999.9999995 0.6133749551425806 -0.8788687411049317
4016000000.0 0.5109422687787099 -0.9599794397545902
4019000000.0 0.5349224060957418 -0.8566725983197017
4022000000.0000005 0.6233046431892675 -0.8307328976820239
4025000000.0000005 0.48164864068115903 -0.8762025910974697
4027999999.9999995 0.5384081772373666 -0.8792505543570572
4030999999.9999995 0.5006882582120251 -0.8480940884017025
4034000000.0 0.5079287104598106 -0.8927028200576537
4038000000.0000005 0.5444496333243992 -0.9410497925793379
4041000000.0000005 0.552149337045789 -0.861755011884866
4043999999.9999995 0.5791790553854352 -0.9012723448040749
4046999999.9999995 0.5850423066361046 -0.9332460574809389
4050000000.0 0.5352322609410392 -0.9179517334260274
4053000000.0 0.49421415274569624 -0.8767219557999473
4056000000.0 0.5021337253025916 -0.8687531548916373
4059000000.0 0.5381191903444483 -0.8522545934332129
4062000000.0000005 0.5328397611947229 -0.8849472362946009
4066000000.0 0.48645698677668836 -0.8132104977749302
4069000000.0 0.5319167070429555 -0.9705759540963415
4072000000.0 0.5655296526305714 -0.8806813441107583
4075000000.0 0.6105852833615568 -0.9193809495143871
4078000000.0000005 0.5667955842695862 -0.9392022265698468
4081000000.0000005 0.5918434387755991 -0.8548857104019776
4083999999.9999995 0.5269382152823733 -0.8955065456403439
4088000000.0 0.5956145864762783 -0.8684279693616382
4091000000.0 0.5783045616181179 -0.9160750465648986
4094000000.0000005 0.5501038285905462 -0.8694289751489047
4097000000.0000005 0.5469974960330335 -0.9046237071105212
4099999999.9999995 0.5133998344414694 -0.8980919174130629
4102999999.9999995 0.5492009698400601 -0.886297944953774
4106000000.0 0.5376173284057577 -0.8645367342437714
4109000000.0 0.5417657740218405 -0.8807952413710833
4112000000.0 0.5739000624921343 -0.9079769950615749
4115999999.9999995 0.5596890448672913 -0.8687847267481484
4119000000.0 0.5012681607840159 -0.8708398859524006
4122000000.0 0.5127028122232417 -0.9148213743082046
4125000000.0 0.5421598479181421 -0.934060531003692
4128000000.0 0.5522099402377894 -0.8443535214114771
4131000000.0 0.5109091381701224 -0.9097268234124236
4134000000.0000005 0.5761584954450477 -0.8832413125077787
4138000000.0 0.5324986655842829 -0.8645643539232539
4141000000.0 0.5020404394256439 -0.8715361994948534
4144000000.0 0.5829871809613588 -0.8817512915966877
4147000000.0000005 0.5295944820595921 -0.8939862998507145
4150000000.0000005 0.529265836974517 -0.8952638633427727
4152999999.9999995 0.5206044801819271 -0.8884829918845574
4155999999.9999995 0.5533991466141829 -0.8940815507142055
4159000000.0 0.5227135436162591 -0.8698458322743207
4162000000.0 0.5384282820574652 -0.8578872638979975
4166000000.0000005 0.5421244681513364 -0.8955915014847395
4168999999.9999995 0.5209731185765495 -0.8709605993719002
4171999999.9999995 0.5605696037238032 -0.8861647208106689
4175000000.0 0.5372850458251307 -0.8805414345429646
4178000000.0 0.5718881350953412 -0.8887193175424963
4181000000.0 0.5361067147783459 -0.8973533346408049
4184000000.0 0.5254895713133277 -0.8831620734538839
4187999999.9999995 0.5374570400010763 -0.8720195899698077
4191000000.0 0.5509089641627843 -0.8326438331912527
4194000000.0 0.5233743181426241 -0.8742198594927489
4197000000.0 0.5495114836923976 -0.883417106015315
4200000000.0 0.5485187369018123 -0.8847825114057293
4203000000.0000005 0.5634473090614349 -0.8809294771293587
4206000000.0000005 0.549155836000216 -0.8924407240361547
4208999999.9999995 0.5376112879999878 -0.866847894877315
4211999999.9999995 0.5265507526719403 -0.9002295503817894
4216000000.0 0.5654301158748511 -0.8712226662101189
4219000000.0000005 0.5551567867890213 -0.876525571884683
4222000000.0000005 0.5218630539459345 -0.8791830959256082
4224999999.9999995 0.534432062948816 -0.867372014882162
4227999999.9999995 0.5463501068653069 -0.8773752351687555
4231000000.0 0.545298799525696 -0.877525941313795
4234000000.0 0.5550728572977488 -0.895708646162764
4238000000.0000005 0.5387754803640545 -0.8940739739509709
4240999999.9999995 0.5231605545241804 -0.867890980470062
4244000000.0 0.5376236244624062 -0.8680470565751806
4247000000.0 0.5546693739868412 -0.8551980450971879
4250000000.0 0.515833950010852 -0.8669269289897894
4253000000.0 0.5094393092133547 -0.8620585795027566
4256000000.0 0.5400347688171899 -0.8935700921616292
4259000000.0000005 0.524797674271731 -0.854595165901475
4261999999.9999995 0.5319550441326655 -0.88215536723508
4266000000.0 0.5355461344674355 -0.8973807961649687
4269000000.0 0.5608958815948781 -0.8729934212079804
4272000000.0000005 0.5292540783039041 -0.8809800844918585
4275000000.0000005 0.5478866995949974 -0.873745010046739
4277999999.9999995 0.5687877127709778 -0.883795747487612
4280999999.9999995 0.5378381198730335 -0.8871711199015719
4284000000.0 0.5133435400532285 -0.8734658668037316
4288000000.0000005 0.56823447842849 -0.8406978915374097
4291000000.0000005 0.5194846187365681 -0.8468489633274634
4293999999.9999995 0.5260253589057795 -0.8625036883212877
4297000000.0 0.5362978542692253 -0.822542540697998
4300000000.0 0.5388799402349742 -0.8361646534777252
4303000000.0 0.5110854954841877 -0.8732819629843348
4306000000.0 0.5562742716312976 -0.8544266220013658
4309000000.0 0.5431214824966433 -0.8423473402061306
4312000000.0 0.5680659912458146 -0.8301276693173306
4316000000.0 0.5563976324064951 -0.8435086819254962
4319000000.0 0.5361736397547292 -0.8447667124384696
4322000000.0 0.5040676528622535 -0.8395323401116291
4325000000.0 0.549313228030582 -0.8734918123761795
4328000000.0 0.5520779879809059 -0.880679426743715
4331000000.0 0.5202571067618962 -0.8897787179672703
4334000000.0 0.5284053205624079 -0.8903941328354593
4338000000.0 0.5546023488498762 -0.8412005440850546
4341000000.0 0.566468495030412 -0.8633606130315822
4344000000.0 0.5549121179438999 -0.8771799015028656
4347000000.0 0.5081442688906735 -0.8706347931661265
4350000000.0 0.5115943173683205 -0.8266921865173492
4353000000.0 0.5314716791533439 -0.848475788012084
4356000000.0 0.523562469583015 -0.8759825310052463
4359000000.0 0.5044429744930886 -0.8266191179289042
4362000000.0 0.4924101768234289 -0.9054702547882927
4366000000.0 0.5447971298995269 -0.8879494942076673
4369000000.0 0.5066921084349081 -0.8214029713870983
4372000000.0 0.4779583919312222 -0.8663825351537603
4375000000.0 0.5376418271527853 -0.8750467662023034
4378000000.0 0.5270192089921026 -0.8427818334946291
4381000000.0 0.5162011180786924 -0.8520371299000867
4384000000.0 0.5352029379301011 -0.9258463317769429
4388000000.0 0.5283251850765572 -0.8427446055101877
4391000000.0 0.5450453526693833 -0.875458026565642
4394000000.0 0.5012697799854673 -0.8455397915940087
4397000000.0 0.5323205929194499 -0.8581745423279761
4400000000.0 0.5200305875064306 -0.8959783036643212
4403000000.0 0.5433384087376011 -0.86934379426728
4406000000.0 0.5001180555510386 -0.879347958866836
4409000000.0 0.526834851100983 -0.8960503131526042
4412000000.0 0.4702223994124921 -0.8857795623428285
4416000000.0 0.5097124074600332 -0.8655666115998197
4419000000.0 0.5126615089809422 -0.8765149197352808
4422000000.0 0.5372953541087364 -0.8628906154598267
4425000000.0 0.5572170156830938 -0.871833672795491
4428000000.0 0.5207201980648992 -0.8811858438819571
4431000000.0 0.5337323519247161 -0.886400459968127
4434000000.0 0.5110931624660142 -0.8662954451772255
4438000000.0 0.5275219728522859 -0.8869980096668255
4441000000.0 0.5345441661231947 -0.8861242909326066
4444000000.0 0.5069402346402992 -0.8479562163048527
4447000000.0 0.4998754302449191 -0.8520531487321477
4450000000.0 0.5273793869758441 -0.8539396041483562
4453000000.0 0.5349515952990186 -0.9030858919824185
4456000000.0 0.4856198872051284 -0.850358941678266
4459000000.0 0.4782926255839915 -0.8349978298790945
4462000000.0 0.533891506777392 -0.9194030842555265
4466000000.0 0.5258211104415779 -0.9114157439885961
4469000000.0 0.5412004304518518 -0.8622377961663741
4472000000.0 0.5092105981997139 -0.9082168101961597
4475000000.0 0.5024263005555196 -0.8436968707279252
4478000000.0 0.525991191655736 -0.9234696595116039
4481000000.0 0.49246828176363316 -0.8687294188074517
4484000000.0 0.4566873063667486 -0.8846779869928534
4488000000.0 0.5021141985653849 -0.8659796051011838
4491000000.0 0.5054613702690577 -0.8767816113702533
4494000000.0 0.4956144118014988 -0.8597569647658063
4497000000.0 0.5183771125987335 -0.8573045216146824
4500000000.0 0.4991720728437155 -0.8775344053446749
4503000000.0 0.5410375545788442 -0.891565762025014
4506000000.0 0.49856860058436664 -0.8808526869224311
4509000000.0 0.49096336886591746 -0.854196662831934
4512000000.0 0.486833578342892 -0.8694223876481635
4516000000.0 0.5229736847307858 -0.8837957895240245
4519000000.0 0.49395141067957005 -0.85784036610128
4522000000.0 0.4854214271994096 -0.8707680659482478
4525000000.0 0.5381371085466262 -0.8722405727036446
4528000000.0 0.5338967830054562 -0.9087640733686212
4531000000.0 0.5244078543908942 -0.8645303336761525
4534000000.0 0.5066177781275216 -0.8759789916176313
4538000000.0 0.49870411752870936 -0.8640392926888008
4541000000.0 0.4746655697494567 -0.8719038161464612
4544000000.0 0.4871707780164535 -0.8619977217549921
4547000000.0 0.5108230795098485 -0.8399419189954649
4550000000.0 0.4977039774475821 -0.8992363661444832
4553000000.0 0.49796324583216256 -0.8855346828333033
4556000000.0 0.4868787158941065 -0.8653628267678484
4559000000.0 0.49069314365843963 -0.8829677290265852
4562000000.0 0.48808850906269036 -0.8981734277790883
4566000000.0 0.5003718616715721 -0.8947663911464
4569000000.0 0.4836992782762304 -0.859111579849096
4572000000.0 0.51020970123683 -0.8885525445077758
4575000000.0 0.48008180245283605 -0.9019518798328775
4578000000.0 0.503345324230528 -0.8926343212106462
4581000000.0 0.49422067990613205 -0.8876868472104678
4584000000.0 0.48385506134467593 -0.8775651168764435
4588000000.0 0.5224543660326498 -0.908260823811576
4591000000.0 0.527255630284886 -0.8790971036322378
4594000000.0 0.4801584074308891 -0.8973474096610213
4597000000.0 0.5041077708312042 -0.9028456938278764
4600000000.0 0.452196274806151 -0.8773572932079454
4603000000.0 0.4850627297602057 -0.8922542969291084
4606000000.0 0.5024240984550211 -0.8994113043003924
4609000000.0 0.48883342755032955 -0.8900055851289436
4612000000.0 0.49695215143440924 -0.9033202075908479
4616000000.0 0.4825963065291611 -0.8898893529191357
4619000000.0 0.4929927303461262 -0.888267893210565
4622000000.0 0.5007192760765565 -0.885313126247802
4625000000.0 0.4704023709844676 -0.8657971415909776
4628000000.0 0.4965245039672814 -0.8701528799721296
4631000000.0 0.4708053484018531 -0.8883876747613004
4634000000.0 0.47583034904428023 -0.8852958523424106
4638000000.0 0.49009258803277034 -0.9007120141007403
4641000000.0 0.5013004560049661 -0.8821255767305565
4644000000.0 0.4959026050783035 -0.8847944383488832
4647000000.0 0.49201010742075746 -0.9131737142766864
4650000000.0 0.45532375509497075 -0.8842550365528481
4653000000.0 0.5031893479152266 -0.8944723368742759
4656000000.0 0.4807886491870111 -0.89833070297032
4659000000.0 0.4717354439370015 -0.8946775988146419
4662000000.0 0.49677610486631407 -0.9067680473379953
4666000000.0 0.46917741809907426 -0.9047123802857783
4669000000.0 0.47069469712799283 -0.8832283609601099
4672000000.0 0.47751337584439807 -0.8982227850214213
4675000000.0 0.4739851101121251 -0.9163598922984286
4678000000.0 0.4768964527111183 -0.8859351992887405
4681000000.0 0.4560731390388335 -0.9151448706675519
4684000000.0 0.4625281184725574 -0.9041138963282805
4688000000.0 0.4665891294906632 -0.8647964488557807
4691000000.0 0.4952144673743748 -0.8872857464072726
4694000000.0 0.4993615810729856 -0.8938658821518443
4697000000.0 0.44738102181072414 -0.8887321815570071
4700000000.0 0.48232241156958505 -0.8874850079872495
4703000000.0 0.49417035835338247 -0.8628274575919845
4706000000.0 0.44742726102804853 -0.8819095872836308
4709000000.0 0.45519903663201966 -0.9003757268250067
4712000000.0 0.49362643192351346 -0.8885437587852533
4716000000.0 0.47788066676389984 -0.9188535693556965
4719000000.0 0.5033674886714704 -0.9026457793375747
4722000000.0 0.4903654401795498 -0.8710491773838297
4725000000.0 0.4947982167684103 -0.8991768930149702
4728000000.0 0.4422987873859732 -0.9081345829679001
4731000000.0 0.4785294765834721 -0.9081414849123488
4734000000.0 0.49241953759823565 -0.8940261150647002
4738000000.0 0.5097013894857869 -0.9377733042904894
4741000000.0 0.5080161929625724 -0.9394004097681802
4744000000.0 0.42987980848023855 -0.906570327636548
4747000000.0 0.49129795091897055 -0.8885450517499479
4750000000.0 0.49819340058506123 -0.9279822369996082
4753000000.0 0.5111364418619031 -0.8829327161257878
4756000000.0 0.45378286824481706 -0.8953017907627776
4759000000.0 0.4849776738515245 -0.9191559671818663
4762000000.0 0.47168254626902745 -0.9560268218402588
4766000000.0 0.4715200181878181 -0.9029196576371664
4769000000.0 0.4830088244213514 -0.9432733875685521
4772000000.0 0.45772119931613375 -0.8996064078061344
4775000000.0 0.4937651725008094 -0.9444707413864817
4778000000.0 0.47245462586014314 -0.9173770693413992
4781000000.0 0.49517431544580537 -0.9133113277215462
4784000000.0 0.48888426061888357 -0.8657231599123336
4788000000.0 0.468586720470599 -0.9176980313587615
4791000000.0 0.47116296470261276 -0.9068827813676337
4794000000.0 0.5067380116387624 -0.8949620740126042
4797000000.0 0.450544957850856 -0.9012629944002923
4800000000.0 0.4495573024677431 -0.8970533206637025
4803000000.0 0.43700602359574314 -0.9198710664018285
4806000000.0 0.4870446007197418 -0.9298513235583481
4809000000.0 0.43335134407367787 -0.9319468105189211
4812000000.0 0.44948339651243224 -0.9206995813506814
4816000000.0 0.48847751365140446 -0.8761713439682641
4819000000.0 0.5191126277461158 -0.930471289887292
4822000000.0 0.5118723231699535 -0.9321446682559063
4825000000.0 0.5091445954120357 -0.932770877473682
4828000000.0 0.45655401452970723 -0.8939747944658147
4831000000.0 0.4576634311178874 -0.9599259993458701
4834000000.0 0.4908815647017505 -0.901341424052425
4838000000.0 0.4597338793020722 -0.9334886528803911
4841000000.0 0.4760940740292122 -0.9145744453921607
4844000000.0 0.49950477286575823 -0.9060633888016889
4847000000.0 0.4980690205484364 -0.871639949283981
4850000000.0 0.4665306669031255 -0.9191738222013662
4853000000.0 0.4793598971060503 -0.8909681095407647
4856000000.0 0.4791570511972483 -0.9012250119968799
4859000000.0 0.49543810890572104 -0.9566019266461157
4862000000.0 0.4888280841768965 -0.8627425285659623
4866000000.0 0.477853014012307 -0.9222134015926537
4869000000.0 0.4681845199103322 -0.9303492263416296
4872000000.0 0.4919561049366091 -0.969159925530453
4875000000.0 0.531353325761548 -0.9268722613797085
4878000000.0 0.46726628444691654 -0.9378649906552252
4881000000.0 0.475131455898323 -0.9946788988306888
4884000000.0 0.4821559753514176 -0.9002350281768824
4888000000.0 0.5082852347557942 -0.8990445179499412
4891000000.0 0.48397443711821425 -0.9323511877475842
4894000000.0 0.4463240773786901 -0.9212645010791839
4897000000.0 0.489046424262317 -0.8851005196382092
4900000000.0 0.4750931277788879 -0.9514235984391627
4903000000.0 0.5127308298101031 -0.9568843539435967
4906000000.0 0.4760741789474614 -0.9329169624285762
4909000000.0 0.47690697156394907 -0.9363857202312877
4912000000.0 0.48317020280054856 -0.9218073003278269
4916000000.0 0.5123280563926349 -0.9088126275027797
4919000000.0 0.5308111911820057 -0.9399712057255686
4922000000.0 0.5236213657495639 -0.9226601768581119
4925000000.0 0.47998099842352704 -0.918660651321709
4928000000.0 0.5604259606774133 -0.8741716074297424
4931000000.0 0.5188199515867639 -0.9118369845987674
4934000000.0 0.4872803390819591 -0.884045552696765
4938000000.0 0.4774668780326574 -0.9332099020080187
4941000000.0 0.49187339423840226 -0.9101776779984322
4944000000.0 0.4710248970250668 -0.8697433635306159
4947000000.0 0.4685591639156702 -0.8906655594219798
4950000000.0 0.44881043005355786 -0.8779628976181011
4953000000.0 0.45010465602662664 -0.975860110140431
4956000000.0 0.4726537440792804 -0.918109821884926
4959000000.0 0.4497165089319077 -0.9101433897822447
4962000000.0 0.4888302876483261 -0.9218477073765439
4966000000.0 0.5157849329184496 -0.9110629437813331
4969000000.0 0.5266701041662478 -0.9471423264671692
4972000000.0 0.489015816844599 -0.9466859278233068
4975000000.0 0.5132450024759183 -0.8768373876894917
4978000000.0 0.4665084125432436 -0.917026648689889
4981000000.0 0.47812268853496487 -0.9625161291198608
4984000000.0 0.4900334735841487 -0.9058636057302369
4988000000.0 0.49602636579600323 -0.903066348528659
4991000000.0 0.56556541477759 -0.9304609230523679
4994000000.0 0.5285854172957304 -0.8786895906473855
4997000000.0 0.4755903243089523 -0.9319189687452085
5000000000.0 0.5257781029199029 -0.9446250660190652
5003000000.0 0.5219604749476681 -0.9405024193179643
5006000000.0 0.5073075776119383 -0.9673327991594605
5009000000.0 0.506112893872785 -0.9257311099261849
5012000000.0 0.47839039497677754 -0.9443442853441121
5016000000.0 0.5427935890102619 -0.9173288849243754
5019000000.0 0.4675080508803131 -0.9499884007521603
5022000000.0 0.49892103762785817 -0.9618103579410989
5025000000.0 0.49546873518629714 -0.9450494067302156
5028000000.0 0.4801949573915444 -0.9688254140918746
5031000000.0 0.47484853413906936 -0.9260556951187597
5034000000.0 0.4768599475890049 -0.9584338422005267
5038000000.0 0.4519122851831688 -0.8866790132489685
5041000000.0 0.5368526379229577 -0.9161846044113326
5044000000.0 0.5181721630924082 -0.8819651116209621
5047000000.0 0.5077671313736708 -0.9100488872452411
5050000000.0 0.5813325471411622 -0.8819581324049538
5053000000.0 0.537396693399683 -0.9524510313035364
5056000000.0 0.534652533167679 -0.8949602982259568
5059000000.0 0.5358574097638572 -0.8843421131328563
5062000000.0 0.4726435550440197 -0.9462851004856013
5066000000.0 0.5132955378938943 -0.9018160822104049
5069000000.0 0.47565131862455345 -0.9444299750320557
5072000000.0 0.505680903211442 -0.8978857054922685
5075000000.0 0.529618367625605 -0.8958581754091546
5078000000.0 0.46818220685900724 -0.9544945831826405
5081000000.0 0.5101506029207801 -0.8785247400741882
5084000000.0 0.5192161712030083 -0.9118350715649557
5088000000.0 0.5523250071110097 -0.8856640934061875
5091000000.0 0.4813751358212027 -0.937087766984946
5094000000.0 0.5443150394230223 -0.9234128036959397
5097000000.0 0.5201133737128847 -0.8899949611811137
5100000000.0 0.4951255494862835 -0.9208329109340385
5103000000.0 0.4970914111164323 -0.9101886551820133
5106000000.0 0.5441231339731198 -0.9311297745374189
5109000000.0 0.5752549851831771 -0.8981469653032734
5112000000.0 0.4737848243435988 -0.8907554292157677
5116000000.0 0.5314959190031852 -0.883746800372859
5119000000.0 0.5328405393309995 -0.9151002871933516
5122000000.0 0.5425053933323598 -0.9003686179590831
5125000000.0 0.5532168652404413 -0.8515795915299083
5128000000.0 0.523184829868294 -0.9339025475436722
5131000000.0 0.5093363410579893 -0.8804052267134724
5134000000.0 0.5587591553686471 -0.8907109677508697
5138000000.0 0.5263276838501318 -0.8805314079957121
5141000000.0 0.6031745927129772 -0.8634425955618727
5144000000.0 0.558150895581566 -0.8682919115547936
5147000000.0 0.5467105546875722 -0.9007613262690037
5150000000.0 0.5664517350949123 -0.9191259337159672
5153000000.0 0.5507050764801155 -0.9505967552440053
5156000000.0 0.5705633695787733 -0.8947133169881514
5159000000.0 0.5966112701039084 -0.9432486798198011
5162000000.0 0.4574160511103657 -0.9074308992979145
5166000000.0 0.5018456648266586 -0.9497422031821378
5169000000.0 0.5277984165654592 -0.952874380334519
5172000000.0 0.5219334978352352 -0.8934563973192433
5175000000.0 0.5330511191036194 -0.9109713058767941
5178000000.0 0.5127745246349127 -0.9351149058725068
