! Created with skrf 1.8.0 (http://scikit-rf.org).
# Hz S RI R 50.0 
!freq ReS11 ImS11
4000000000.0 0.5580440821396497 -0.8479536929884606
4003000000.0 0.5494178903135297 -0.8721606353301701
4006000000.0 0.5223549925495409 -0.8792007010667243
4009000000.0000005 0.5827505865049246 -0.841490073191207
4011999999.9999995 0.6356725239687242 -0.8210554105518189
4016000000.0 0.5542778697596883 -0.8778176647590428
4019000000.0 0.5142811786505072 -0.8543009352785913
4022000000.0000005 0.612213525042289 -0.8511538570404119
4025000000.0000005 0.5115624420297488 -0.9116737675312516
4027999999.9999995 0.5532408483613676 -0.8959842869805077
4030999999.9999995 0.5378980405294564 -0.8300677263562115
4034000000.0 0.5489296198810607 -0.8883758742757257
4038000000.0000005 0.552161057774048 -0.8828245362394165
4041000000.0000005 0.5425069399562794 -0.8776026642179771
4043999999.9999995 0.5912822960640965 -0.9353325177706594
4046999999.9999995 0.5863856559199128 -0.8491726405007959
4050000000.0 0.5316105923193952 -0.8907631002394145
4053000000.0 0.4938518356291514 -0.8712407645272812
4056000000.0 0.5455555895648929 -0.8545594924793112
4059000000.0 0.5490481274466161 -0.8399023157343377
4062000000.0000005 0.5707324851942496 -0.8685993164278798
4066000000.0 0.49585609233192074 -0.7854159649594161
4069000000.0 0.5683336575904074 -0.879161379388552
4072000000.0 0.533400271249225 -0.8134315966914561
4075000000.0 0.6049943613819668 -0.870568166167008
4078000000.0000005 0.5236959131596711 -0.8675281473268301
4081000000.0000005 0.620586675572949 -0.8888341833246802
4083999999.9999995 0.5513010400155258 -0.8822683391198984
4088000000.0 0.5835369141822673 -0.8535376536871366
4091000000.0 0.579200487311313 -0.9396565766470562
4094000000.0000005 0.5416345940394842 -0.8548767191133116
4097000000.0000005 0.5310953698493396 -0.8627963654022541
4099999999.9999995 0.5363177779956834 -0.8705453519420321
4102999999.9999995 0.5704981327652197 -0.8429499432814157
4106000000.0 0.5809000614749998 -0.8781584775796898
4109000000.0 0.5331321016110917 -0.8876255910641286
4112000000.0 0.5839112137789096 -0.8607461998591878
4115999999.9999995 0.5825445856559777 -0.8450509308363549
4119000000.0 0.5370968133100226 -0.8579585962960188
4122000000.0 0.5505830482426254 -0.9083581163916763
4125000000.0 0.5350901126210468 -0.8979970430991562
4128000000.0 0.5449698795510599 -0.8245713289886216
4131000000.0 0.5416173708659738 -0.8657613004801821
4134000000.0000005 0.5765626696161218 -0.840029822327961
4138000000.0 0.5350137870877174 -0.8318003775468382
4141000000.0 0.528128276056509 -0.8493058285444113
4144000000.0 0.5711371329879849 -0.8605502490959924
4147000000.0000005 0.5292232207226868 -0.8506231951925198
4150000000.0000005 0.5927663055190118 -0.9258585145086362
4152999999.9999995 0.5244027061463953 -0.8642329877937233
4155999999.9999995 0.6037069942779986 -0.8502941705418623
4159000000.0 0.5768444024472729 -0.8487392118978678
4162000000.0 0.5692920104203476 -0.8308428153702386
4166000000.0000005 0.5501533279252834 -0.8935726420560612
4168999999.9999995 0.5355353685143616 -0.8610216440328329
4171999999.9999995 0.5689356349169147 -0.8515710921876664
4175000000.0 0.5857326998853337 -0.865426524629667
4178000000.0 0.5588065111887454 -0.9165560465367144
4181000000.0 0.55116114248909 -0.8941083734496218
4184000000.0 0.5624457680599783 -0.8641567013146021
4187999999.9999995 0.5659243241780949 -0.8464786325364194
4191000000.0 0.5840235657457941 -0.8400680308118076
4194000000.0 0.5584923132768314 -0.8123480463676194
4197000000.0 0.5753944514380642 -0.864832535858583
4200000000.0 0.5726771616625068 -0.8619404161803903
4203000000.0000005 0.5870957687897029 -0.8631236198975043
4206000000.0000005 0.5617223528282312 -0.8614164528618522
4208999999.9999995 0.5406657135724873 -0.8520856167289834
4211999999.9999995 0.5219100416621082 -0.8572514246943199
4216000000.0 0.582669389063939 -0.8540215155601949
4219000000.0000005 0.5732066069913982 -0.853970068013208
4222000000.0000005 0.5601485721447497 -0.8562743197070655
4224999999.9999995 0.5478738763370822 -0.8390263561797312
4227999999.9999995 0.5636734764064333 -0.8600250361608851
4231000000.0 0.5676288154870575 -0.852026725490696
4234000000.0 0.5532149711192398 -0.8608567042873916
4238000000.0000005 0.5471532665113814 -0.8571298156190719
4240999999.9999995 0.5477266323872908 -0.847551551395626
4244000000.0 0.5584350409217393 -0.8350264751409846
4247000000.0 0.563066757523806 -0.841950454720465
4250000000.0 0.5583426578650366 -0.8327139000526089
4253000000.0 0.532468602668946 -0.8296329084519793
4256000000.0 0.551760177318291 -0.8600547814178443
4259000000.0000005 0.517279660049428 -0.8245895940168946
4261999999.9999995 0.5173159888576047 -0.8543022183930031
4266000000.0 0.5360662790779865 -0.8735867546148978
4269000000.0 0.5749256711462557 -0.8699033620396814
4272000000.0000005 0.5453047899609111 -0.857469443218578
4275000000.0000005 0.5701432277212533 -0.8439853937779921
4277999999.9999995 0.5980666538640177 -0.8723097610102697
4280999999.9999995 0.5632235740022405 -0.8516589995073757
4284000000.0 0.5419647618822266 -0.889271374665769
4288000000.0000005 0.585039226050807 -0.827858344490419
4291000000.0000005 0.5591092182257876 -0.8096933314435036
4293999999.9999995 0.5491287283131782 -0.8502145453023076
4297000000.0 0.5643592269545886 -0.806826197860047
4300000000.0 0.5651666765680778 -0.8320633061235871
4303000000.0 0.5398933397110074 -0.8453548363313996
4306000000.0 0.5484477895798516 -0.8257467037152155
4309000000.0 0.5510698027185627 -0.8481157890120259
4312000000.0 0.6067157381632994 -0.8462371372696225
4316000000.0 0.5549381485203244 -0.8388938488384874
4319000000.0 0.5524671513440497 -0.8281956788720296
4322000000.0 0.5293721169573166 -0.8101995348928381
4325000000.0 0.5422262821300308 -0.8330280294348996
4328000000.0 0.5522002031587868 -0.8391812807970529
4331000000.0 0.5067816806267309 -0.8862919079890798
4334000000.0 0.5550103197184583 -0.849120518099901
4338000000.0 0.5798113661391419 -0.8149401572799987
4341000000.0 0.5895983735826256 -0.8295268359798637
4344000000.0 0.5562759223219447 -0.8675071692813922
4347000000.0 0.5000539259914586 -0.8681934854970523
4350000000.0 0.5273103840546637 -0.8155238869109583
4353000000.0 0.5615107292783378 -0.8061734827380214
4356000000.0 0.523695914979187 -0.8532677644134669
4359000000.0 0.5195034349818288 -0.8144266010851706
4362000000.0 0.4999436973283323 -0.8627251423841028
4366000000.0 0.5536233964027808 -0.8519453228000073
4369000000.0 0.5192602706636931 -0.8176192141372174
4372000000.0 0.5201688975205987 -0.8663639946660706
4375000000.0 0.5568061007957418 -0.8277293304003075
4378000000.0 0.5355244334918883 -0.8255606001977457
4381000000.0 0.5437851133571017 -0.8458421386757924
4384000000.0 0.5630919013443649 -0.8976077504996923
4388000000.0 0.5521302774174002 -0.8348690329665782
4391000000.0 0.5597349145601721 -0.843387876696355
4394000000.0 0.5287660300975177 -0.8374906532187977
4397000000.0 0.5302371733140218 -0.8363116093320531
4400000000.0 0.5452992954648744 -0.8773970678139668
4403000000.0 0.5554078126089733 -0.846921135475198
4406000000.0 0.5291777141867604 -0.87208664158771
4409000000.0 0.5575050058172734 -0.8731272971720057
4412000000.0 0.48763638343779414 -0.8720229601786511
4416000000.0 0.521044840443512 -0.8406329934933401
4419000000.0 0.5298520884885739 -0.8657540728553109
4422000000.0 0.5429918008888617 -0.8459503317768235
4425000000.0 0.5677273551359593 -0.8490740027782443
4428000000.0 0.5338008133734531 -0.8694470128751011
4431000000.0 0.5657743249486111 -0.8715409180061442
4434000000.0 0.5354304972179549 -0.8494180942759837
4438000000.0 0.5504391512058453 -0.864700513307817
4441000000.0 0.5717596821944022 -0.8597216149919328
4444000000.0 0.538437099450666 -0.8285306462476937
4447000000.0 0.531405761097311 -0.848392318700099
4450000000.0 0.5318450220075438 -0.8379929764823375
4453000000.0 0.5450208937200371 -0.8777145718262191
4456000000.0 0.5134983205183337 -0.8332340406197144
4459000000.0 0.49462203465992616 -0.8221235805957384
4462000000.0 0.5539264039108353 -0.9107011675154244
4466000000.0 0.5347864705950501 -0.8896387081927177
4469000000.0 0.5632767238613942 -0.8460832179804136
4472000000.0 0.5343874692066765 -0.899591200996549
4475000000.0 0.5451314065731834 -0.8256604366183729
4478000000.0 0.545243359053226 -0.8828263673506442
4481000000.0 0.5062735547875481 -0.84051655189246
4484000000.0 0.47939313404629286 -0.8849205527591686
4488000000.0 0.5055719513077547 -0.8653949497588034
4491000000.0 0.5175301007875416 -0.8746599115943317
4494000000.0 0.5457198952647682 -0.8524372132379312
4497000000.0 0.5567744572859749 -0.8337892372445845
4500000000.0 0.535274844974776 -0.8569929429530558
4503000000.0 0.5319009073588108 -0.8654686681848398
4506000000.0 0.4979996339745578 -0.831052936914142
4509000000.0 0.5277819395617471 -0.840528142011199
4512000000.0 0.5019890709165667 -0.8264925232066431
4516000000.0 0.5437577395925303 -0.8747209334296744
4519000000.0 0.5349071881875003 -0.8419175504188141
4522000000.0 0.5380596538036385 -0.869597912983476
4525000000.0 0.546033973498021 -0.8368276235456318
4528000000.0 0.5435125835268606 -0.8805508222914873
4531000000.0 0.5223867009678291 -0.843455999281251
4534000000.0 0.5211849001177419 -0.8619768512980788
4538000000.0 0.514085710771081 -0.850006221943775
4541000000.0 0.4852943825087067 -0.869943060293374
4544000000.0 0.5407232546247126 -0.8474001762036869
4547000000.0 0.527073942336985 -0.8392414707317666
4550000000.0 0.5143088906668846 -0.861737905133741
4553000000.0 0.5304123619176416 -0.8597810521123854
4556000000.0 0.5105092573333989 -0.8467099842888716
4559000000.0 0.5080206455434335 -0.8718051245511406
4562000000.0 0.5210741198064861 -0.864902205884684
4566000000.0 0.5148560295583388 -0.8734848382609093
4569000000.0 0.5098713596712698 -0.8496340628292387
4572000000.0 0.5303028320422027 -0.8537370866948858
4575000000.0 0.5065625250503598 -0.8649315506744681
4578000000.0 0.5567303343647126 -0.8751945766322144
4581000000.0 0.5201235644717177 -0.8613310691291849
4584000000.0 0.5107917142745554 -0.8595227811326739
4588000000.0 0.5283440366016516 -0.863867965658495
4591000000.0 0.547788827060568 -0.854362969796326
4594000000.0 0.48913668892673506 -0.8630163546462163
4597000000.0 0.5164963980372278 -0.8931925227041817
4600000000.0 0.48604548309849 -0.8544878515600941
4603000000.0 0.5242084567918551 -0.8770071060800038
4606000000.0 0.5162621577966806 -0.8721398750628055
4609000000.0 0.5250704058347879 -0.8627200987256791
4612000000.0 0.5167382614454558 -0.8677558488575604
4616000000.0 0.5123380989162243 -0.8596055772733171
4619000000.0 0.5268452798329977 -0.8654288669755983
4622000000.0 0.5089376637248432 -0.8854707966543508
4625000000.0 0.494037003358158 -0.8591996624086222
4628000000.0 0.5217990238020661 -0.8617551504556786
4631000000.0 0.500881657383538 -0.8730173698259668
4634000000.0 0.5133806010647239 -0.8637994085861357
4638000000.0 0.519120727175829 -0.8770665547232106
4641000000.0 0.5249210458285309 -0.8564789101328708
4644000000.0 0.5071093307489343 -0.8551317064582425
4647000000.0 0.5203834645287204 -0.8747447261473448
4650000000.0 0.47500362928328754 -0.8616884303967287
4653000000.0 0.5350266976577563 -0.8744770580747857
4656000000.0 0.5113865229833896 -0.8821081336175232
4659000000.0 0.507043307338936 -0.8653476823389755
4662000000.0 0.4979784933595397 -0.8772158503930205
4666000000.0 0.5104941713816993 -0.8795674024098907
4669000000.0 0.5145076243611555 -0.8540131727897542
4672000000.0 0.5043286215119156 -0.8953271176313461
4675000000.0 0.48622233481194843 -0.8953714451145915
4678000000.0 0.4957614763193478 -0.8519968913138674
4681000000.0 0.47539382990722134 -0.8921454102781107
4684000000.0 0.46085972210074405 -0.8935473289824579
4688000000.0 0.48748309283413016 -0.8923311394728417
4691000000.0 0.5176550974953715 -0.8578432053603079
4694000000.0 0.4977276503578473 -0.8333581904335916
4697000000.0 0.457387877933226 -0.8618201362755489
4700000000.0 0.515945444926065 -0.8585993039558181
4703000000.0 0.5159253297460812 -0.8238133711204478
4706000000.0 0.481362217170317 -0.8842241180631274
4709000000.0 0.4978613192342116 -0.8918270229348731
4712000000.0 0.5081015536183373 -0.8801473201157893
4716000000.0 0.5070502112220022 -0.8871964582159066
4719000000.0 0.5483816675370752 -0.8871878969515795
4722000000.0 0.5402233134320635 -0.8806778951595942
4725000000.0 0.5222574471433526 -0.8827805111308327
4728000000.0 0.4977452584103814 -0.8819133606973416
4731000000.0 0.5402696925794268 -0.8981547253965705
4734000000.0 0.5201972392182945 -0.8843147807760499
4738000000.0 0.5357010256807728 -0.9057437228316622
4741000000.0 0.5177227900419988 -0.8904500132125711
4744000000.0 0.48815649433385766 -0.8944728278140212
4747000000.0 0.5085888332655594 -0.8384350272902454
4750000000.0 0.5228754740111677 -0.8885426438326843
4753000000.0 0.5221423940023159 -0.8797232204390676
4756000000.0 0.4918784947623491 -0.8530236906839627
4759000000.0 0.5066662570416961 -0.8699113507040417
4762000000.0 0.48484478911463996 -0.8603503812748392
4766000000.0 0.49218960573692205 -0.9233261329560983
4769000000.0 0.5204577563924175 -0.8952700729704859
4772000000.0 0.5240788941161225 -0.8800840334633416
4775000000.0 0.4859727501542629 -0.9331892113818652
4778000000.0 0.5088365464586625 -0.904334251818917
4781000000.0 0.5116612589925409 -0.8445840171650663
4784000000.0 0.5277706810323556 -0.8624834277694189
4788000000.0 0.4906238061780105 -0.8985436181656278
4791000000.0 0.4879009768764038 -0.8721208133690792
4794000000.0 0.5562414434990308 -0.9054115618732336
4797000000.0 0.49519818476245114 -0.8909963102034864
4800000000.0 0.48874978186278195 -0.8713220628807369
4803000000.0 0.4757741155264751 -0.8795151759916948
4806000000.0 0.523490566220262 -0.8838386326480634
4809000000.0 0.44187233788050906 -0.9017131426136994
4812000000.0 0.44030438668311506 -0.9027508822008748
4816000000.0 0.520276775981022 -0.8514057358238334
4819000000.0 0.543382084075613 -0.887934881032574
4822000000.0 0.5284016230721345 -0.8940382027167426
4825000000.0 0.5289131007553249 -0.8926130594106267
4828000000.0 0.5023383135849335 -0.892204503026369
4831000000.0 0.47579594897905864 -0.9296782864185789
4834000000.0 0.5392398912760348 -0.900410051565081
4838000000.0 0.5049668486938486 -0.9210181131127851
4841000000.0 0.4799495710983787 -0.9052238148375088
4844000000.0 0.528767616935527 -0.8866856508124453
4847000000.0 0.500662781739232 -0.8646880137801056
4850000000.0 0.48595878946992643 -0.9140413152075915
4853000000.0 0.4834228288976057 -0.86575052583147
4856000000.0 0.4846786715250163 -0.8656697137014819
4859000000.0 0.5391769599445315 -0.9301010727504909
4862000000.0 0.5161380477361278 -0.8701894032064639
4866000000.0 0.49650823346523043 -0.9174538225213488
4869000000.0 0.5001282121473721 -0.9059907966278087
4872000000.0 0.49410416031126797 -0.9360913866654267
4875000000.0 0.5716860243210349 -0.9127114339422013
4878000000.0 0.5071001437634259 -0.8738798982840666
4881000000.0 0.5080418793863593 -0.9570653744867685
4884000000.0 0.5378338313913698 -0.8853404301706543
4888000000.0 0.5465254942359279 -0.8830044363674279
4891000000.0 0.5405519718216785 -0.8928228653296199
4894000000.0 0.5154087063784542 -0.9027185905713228
4897000000.0 0.519965102906336 -0.870204883324821
4900000000.0 0.5204734228655402 -0.8933219076591179
4903000000.0 0.5395351891047971 -0.8870493482563648
4906000000.0 0.5091498590308412 -0.8827200080683396
4909000000.0 0.5099013433713668 -0.8936184961535842
4912000000.0 0.4908056214639163 -0.9243267131905974
4916000000.0 0.5157852258192287 -0.9085555093881775
4919000000.0 0.5660935177030892 -0.8889451604114504
4922000000.0 0.5489162663065051 -0.8728032389130363
4925000000.0 0.48143152163301245 -0.8659218632190607
4928000000.0 0.549430114549265 -0.8428122772497422
4931000000.0 0.5481179302423117 -0.9093563193139007
4934000000.0 0.5037344342832781 -0.8592598134285793
4938000000.0 0.46035416183388933 -0.9001138500020794
4941000000.0 0.5248146389802267 -0.8510856499949195
4944000000.0 0.53786925902216 -0.8238246116634468
4947000000.0 0.4979178931467065 -0.8570828260354876
4950000000.0 0.5180577424053512 -0.8787850274004058
4953000000.0 0.5022877777803939 -0.9162911640285146
4956000000.0 0.4596244864768352 -0.9022505877167138
4959000000.0 0.46390282577841013 -0.9051865086588344
4962000000.0 0.5122490379869951 -0.930781505471836
4966000000.0 0.49154649671012374 -0.9150453707341175
4969000000.0 0.5658177762134928 -0.8908393115549975
4972000000.0 0.5131687167227299 -0.9231154033885854
4975000000.0 0.5287512760535876 -0.8890386138871721
4978000000.0 0.5194700436053574 -0.8552652034800171
4981000000.0 0.51194535878702 -0.9056577688967545
4984000000.0 0.5194951475738157 -0.8810976520800392
4988000000.0 0.5470838275675386 -0.8562027679674309
4991000000.0 0.5672885465113551 -0.8837658544515619
4994000000.0 0.5369141120627196 -0.8548035858196352
4997000000.0 0.5030069401211703 -0.8784888437033116
5000000000.0 0.5267363425606468 -0.9173338422131195
5003000000.0 0.5493594238870139 -0.892371982428687
5006000000.0 0.5593532081327652 -0.9204955408258867
5009000000.0 0.5449550263138284 -0.8867405464147041
5012000000.0 0.5320017549951872 -0.893443353850815
5016000000.0 0.5616750305238865 -0.8753162487381125
5019000000.0 0.5187633249273347 -0.8724486793792312
5022000000.0 0.552245380067673 -0.8742814141210965
5025000000.0 0.5654175685886809 -0.9392394018988232
5028000000.0 0.5325561166755708 -0.9067951601184766
5031000000.0 0.5086914035473435 -0.9062585003725989
5034000000.0 0.5011427441015854 -0.9568133309993179
5038000000.0 0.5108871838845515 -0.8587832913252704
5041000000.0 0.5627903480522695 -0.8909131495252727
5044000000.0 0.5676674672035035 -0.8364042115607653
5047000000.0 0.5576636051100881 -0.8662214070013745
5050000000.0 0.582416427477562 -0.8309766290789337
5053000000.0 0.5376049307171479 -0.941821860734042
5056000000.0 0.5567169799928369 -0.8412446922240332
5059000000.0 0.5763111714322595 -0.8249735270545213
5062000000.0 0.550708577801907 -0.9174951462628367
5066000000.0 0.5697231840825471 -0.8373613106787033
5069000000.0 0.5287957899273601 -0.905190649082463
5072000000.0 0.525843328091526 -0.843357209889315
5075000000.0 0.5680901192745358 -0.8723843930963422
5078000000.0 0.5048678885976884 -0.9010942246134412
5081000000.0 0.5394132629219218 -0.8594781724953131
5084000000.0 0.5420214073683961 -0.91053712023517
5088000000.0 0.5398241035820671 -0.8768388922518247
5091000000.0 0.48216486665315966 -0.909955449040168
5094000000.0 0.5223457810179375 -0.863014990592166
5097000000.0 0.5929393840939601 -0.8719429489520609
5100000000.0 0.5505185156682606 -0.8906690306510472
5103000000.0 0.5119907507586847 -0.9184644702146464
5106000000.0 0.6037911417811318 -0.9236602367706803
5109000000.0 0.5710413326701134 -0.8569172364161501
5112000000.0 0.5095547517457434 -0.8589708067812808
5116000000.0 0.5170441406354648 -0.8444852715435596
5119000000.0 0.5639920411340738 -0.9139244441305621
5122000000.0 0.558306437878681 -0.8642238413334612
5125000000.0 0.5446636747100224 -0.8601028433062765
5128000000.0 0.5527237840507658 -0.8461105337640966
5131000000.0 0.5479170348758182 -0.8535905359636292
5134000000.0 0.5220546976125124 -0.8984673785668705
5138000000.0 0.5930155903686032 -0.8436817703730435
5141000000.0 0.605661796079043 -0.8260335353091429
5144000000.0 0.5890489795516887 -0.8515040666063761
5147000000.0 0.5868070384642352 -0.8708763103327755
5150000000.0 0.5720075281573238 -0.8743323479562815
5153000000.0 0.5722385009146248 -0.8661935541928167
5156000000.0 0.5752878149363583 -0.9115263343711049
5159000000.0 0.5874229847246903 -0.8691489853261076
5162000000.0 0.538392334479997 -0.8718535882904973
5166000000.0 0.562335992723385 -0.9299494956565049
5169000000.0 0.6048035805794301 -0.8649505786833989
5172000000.0 0.5600211470239245 -0.865409398862613
5175000000.0 0.5973660427524781 -0.8975054719427462
5178000000.0 0.5767731059450834 -0.8786394447840155
5181000000.0 0.556483685820717 -0.8817711368144073
