! Created with skrf 1.8.0 (http://scikit-rf.org).
# Hz S RI R 50.0 
!freq ReS11 ImS11
4000000000.0 0.4481711588185987 -0.9092308664350542
4003000000.0 0.45064528583937674 -0.9775649106069494
4006000000.0 0.46831857799202636 -0.9309933311570802
4009000000.0000005 0.4654049302702389 -0.8785302802729383
4011999999.9999995 0.5007979629139796 -0.915312474177244
4016000000.0 0.45084245655103694 -0.9388872190788282
4019000000.0 0.454123876230864 -0.9169287140350748
4022000000.0000005 0.5306276706662518 -0.889922824394074
4025000000.0000005 0.4581922557368107 -0.9660350396401702
4027999999.9999995 0.46156154192224064 -0.8944564868585405
4030999999.9999995 0.4440688334024387 -0.85820815424503
4034000000.0 0.44397537517601526 -0.8990506785708132
4038000000.0000005 0.4105079554778082 -0.9360324332413539
4041000000.0000005 0.4568857940277147 -0.9225040355809244
4043999999.9999995 0.47280002101654584 -0.9280982805114473
4046999999.9999995 0.5131358390544086 -0.9498168097031465
4050000000.0 0.4496910271127046 -0.9224780507530892
4053000000.0 0.4566953563118386 -0.897793097669203
4056000000.0 0.476883092838867 -0.9232857449866481
4059000000.0 0.4525311177221868 -0.8706452829372695
4062000000.0000005 0.45186762133917635 -0.909119689952325
4066000000.0 0.43389016113721834 -0.8610992414094958
4069000000.0 0.43207473021756404 -0.9608407658416397
4072000000.0 0.48795497084366957 -0.8964176704086128
4075000000.0 0.4998851712171606 -0.9191780384723356
4078000000.0000005 0.4503224847848745 -0.9079863394474039
4081000000.0000005 0.5302123844248251 -0.8810901562194888
4083999999.9999995 0.43162621368704035 -0.9493881383116778
4088000000.0 0.47110819047169283 -0.8942321706194916
4091000000.0 0.5161466683486575 -0.9502385321242142
4094000000.0000005 0.4885572688480743 -0.9039878407124151
4097000000.0000005 0.4635634486536952 -0.8897763693416314
4099999999.9999995 0.46186094412938467 -0.9191023798689963
4102999999.9999995 0.4965048849148051 -0.9287451016147903
4106000000.0 0.4575277963153785 -0.9279564873490816
4109000000.0 0.4437963924741118 -0.9084430612771754
4112000000.0 0.45670228538768065 -0.910720988209423
4115999999.9999995 0.5146511629371927 -0.9458613496158326
4119000000.0 0.4581470232238126 -0.9235059153177576
4122000000.0 0.4266981502920215 -0.9325359131099341
4125000000.0 0.45436342445166145 -0.9504089392034079
4128000000.0 0.4852341575878111 -0.8884588428336544
4131000000.0 0.4325498054433369 -0.897775157090663
4134000000.0000005 0.45262629316077396 -0.8994342609790923
4138000000.0 0.40421749448447897 -0.8988329104147342
4141000000.0 0.42611352337375963 -0.897045419074527
4144000000.0 0.4680429468648009 -0.8897451217199851
4147000000.0000005 0.4455037042222762 -0.8866039513341971
4150000000.0000005 0.45966080326766745 -0.9190730946662558
4152999999.9999995 0.44367959080433417 -0.9283538237749276
4155999999.9999995 0.4784797981249568 -0.8989910833702954
4159000000.0 0.4602831814645315 -0.8729612017108958
4162000000.0 0.4605239216181028 -0.8854929039937203
4166000000.0000005 0.43483514247713567 -0.9402029574413185
4168999999.9999995 0.43143290566817083 -0.9181054895689766
4171999999.9999995 0.4766959721273605 -0.9135053642883724
4175000000.0 0.47594355592990634 -0.9251265717345754
4178000000.0 0.47915147893817356 -0.9330588116846112
4181000000.0 0.44083836289260825 -0.9356696540239278
4184000000.0 0.4538356291932354 -0.9081797745591871
4187999999.9999995 0.4562352613194943 -0.907488318061447
4191000000.0 0.47614327735623263 -0.8688370832361941
4194000000.0 0.44714784379007355 -0.8835786409480989
4197000000.0 0.46532342852365516 -0.8944691777388127
4200000000.0 0.48588642097050716 -0.9048729527563669
4203000000.0000005 0.4478321309562072 -0.9006070027076748
4206000000.0000005 0.4682653262747151 -0.921569554021764
4208999999.9999995 0.45109062456827 -0.907593338225421
4211999999.9999995 0.42512309117253705 -0.9389817293551541
4216000000.0 0.47575933789171954 -0.9071780838555601
4219000000.0000005 0.47288516615530307 -0.9041176532961356
4222000000.0000005 0.45012691958221795 -0.9206546207226278
4224999999.9999995 0.44058611162778094 -0.8971484219895722
4227999999.9999995 0.4484099223928299 -0.9079870774547578
4231000000.0 0.4321403589940761 -0.9251244685735595
4234000000.0 0.44364790856409975 -0.9253635527009639
4238000000.0000005 0.435732804209192 -0.9142479271519727
4240999999.9999995 0.4317381144676471 -0.9002036122405006
4244000000.0 0.4467027425474657 -0.896876622444923
4247000000.0 0.45095799014559057 -0.9016973522874769
4250000000.0 0.43009555829379364 -0.8980998660538929
4253000000.0 0.43556947545413227 -0.8966196819267012
4256000000.0 0.4596230676423102 -0.9174856065021947
4259000000.0000005 0.42166044128934715 -0.883203492765154
4261999999.9999995 0.4266907246775887 -0.9216761984100417
4266000000.0 0.4382208615140665 -0.9402312037307475
4269000000.0 0.4353884186022915 -0.8940356967143043
4272000000.0000005 0.45700523618821537 -0.911499944312442
4275000000.0000005 0.4603273397508738 -0.9232628759871974
4277999999.9999995 0.4466342071669114 -0.9165316518034015
4280999999.9999995 0.45735203963228993 -0.9205865083631641
4284000000.0 0.4149816043787902 -0.9319681515915228
4288000000.0000005 0.4718057203822125 -0.8741505617024555
4291000000.0000005 0.4251065579525322 -0.8877864844703269
4293999999.9999995 0.4297731085335575 -0.9002178399240812
4297000000.0 0.48198748288247945 -0.8794450291174714
4300000000.0 0.43969788010741884 -0.8780097312231275
4303000000.0 0.4201335533820059 -0.9116349998248207
4306000000.0 0.4292035316215169 -0.8909472869787692
4309000000.0 0.4473590385637733 -0.8838440834610055
4312000000.0 0.48514043651390326 -0.9028417174627897
4316000000.0 0.46648586814943954 -0.9094751609593166
4319000000.0 0.45024217227055546 -0.8762301210859501
4322000000.0 0.3988922979072919 -0.9010932805118684
4325000000.0 0.4316844550589354 -0.9214679402613163
4328000000.0 0.4540515673910583 -0.9079354246813605
4331000000.0 0.3996210014327758 -0.9294577068763107
4334000000.0 0.4169207904790896 -0.9020081653313092
4338000000.0 0.46110318795007016 -0.8915789823440827
4341000000.0 0.47265281523380875 -0.8971766112292429
4344000000.0 0.45230389750273636 -0.9260525880415372
4347000000.0 0.4070508857134559 -0.9375635371048556
4350000000.0 0.4134392725272953 -0.8838048926596496
4353000000.0 0.4322392060574797 -0.9055374185303542
4356000000.0 0.40874724500370896 -0.8998250529354843
4359000000.0 0.4254608354792503 -0.8753991487762716
4362000000.0 0.3817025579028589 -0.9516851416972972
4366000000.0 0.43257715323739965 -0.9480694558389167
4369000000.0 0.40180689809891756 -0.8910874523526546
4372000000.0 0.37752081366569323 -0.9174257986463535
4375000000.0 0.4339078059782851 -0.8923173271629801
4378000000.0 0.40683128935733615 -0.8950596787451724
4381000000.0 0.4196519451501438 -0.8902776719160124
4384000000.0 0.43181424051038286 -0.9793939601443943
4388000000.0 0.4247961524129844 -0.9039995721101808
4391000000.0 0.42693286807982234 -0.9264594345885326
4394000000.0 0.3922657743892513 -0.892950554893007
4397000000.0 0.4094122883824949 -0.9121659646184017
4400000000.0 0.41487118512697985 -0.9328912768262863
4403000000.0 0.4122403654702853 -0.9327926418279593
4406000000.0 0.39692798462352463 -0.9247498336792785
4409000000.0 0.41384100142345215 -0.9437826021564888
4412000000.0 0.3664069884986245 -0.9446229513879387
4416000000.0 0.40175711510166956 -0.9162752489495622
4419000000.0 0.3942078188997904 -0.9274031039128556
4422000000.0 0.4103751660683528 -0.9058592050752701
4425000000.0 0.4540032437095909 -0.9312963663409646
4428000000.0 0.3963268296332508 -0.9227091074439822
4431000000.0 0.4236023152313086 -0.9299936878305313
4434000000.0 0.39483941634175745 -0.9014725743618122
4438000000.0 0.4194267372892626 -0.9426816887690102
4441000000.0 0.4208603389778552 -0.9322375460394475
4444000000.0 0.39203330365958206 -0.901511811867293
4447000000.0 0.38883084691498926 -0.9235887991415979
4450000000.0 0.4161515765609459 -0.9040687507155316
4453000000.0 0.39950087478561686 -0.946162070971442
4456000000.0 0.37602004012402124 -0.8930083550004961
4459000000.0 0.3759939640075956 -0.8873091966502873
4462000000.0 0.4157631033126622 -0.9642913185355371
4466000000.0 0.3911453197573284 -0.9645690959577875
4469000000.0 0.4235388726308625 -0.9176944099611959
4472000000.0 0.3765995276447435 -0.9595563721437885
4475000000.0 0.3893359050445523 -0.8948159159513778
4478000000.0 0.39609202652377035 -0.9687799511447244
4481000000.0 0.37989582625199314 -0.9058420529952145
4484000000.0 0.3567789052517391 -0.9323499514026204
4488000000.0 0.38788952733821563 -0.9276017865456092
4491000000.0 0.37614509825508263 -0.9168970132843574
4494000000.0 0.38381800573385744 -0.9215122507854097
4497000000.0 0.39906344165699675 -0.9199784358175687
4500000000.0 0.39483541878296324 -0.9239858053317369
4503000000.0 0.39084807611390426 -0.9466503131302311
4506000000.0 0.38223664812218006 -0.9054974222610355
4509000000.0 0.3658265776353114 -0.9093192503335747
4512000000.0 0.37308911520989746 -0.9079083360074656
4516000000.0 0.3732317741970277 -0.9357013443980094
4519000000.0 0.3704481486340412 -0.9000864273451269
4522000000.0 0.37612674298232857 -0.9389573580487878
4525000000.0 0.4178351315526628 -0.9191474642417958
4528000000.0 0.4042588589496337 -0.9414401389721962
4531000000.0 0.38755214232225244 -0.933160196132212
4534000000.0 0.36832373719821715 -0.9372651415491016
4538000000.0 0.37379146278095887 -0.9196829078496346
4541000000.0 0.3341562644139979 -0.9412391513536992
4544000000.0 0.3773283106077388 -0.9181375758073792
4547000000.0 0.40192983687612505 -0.9297656529172349
4550000000.0 0.3446042557749139 -0.9421002029940111
4553000000.0 0.37491632245345724 -0.9498096055158046
4556000000.0 0.35819499735693033 -0.9451822237490239
4559000000.0 0.3732039683734131 -0.9267742018089578
4562000000.0 0.3818265042707846 -0.9307206895528124
4566000000.0 0.37302475444956407 -0.9537337573124007
4569000000.0 0.35051898102892526 -0.9449753214223405
4572000000.0 0.36361494770237374 -0.9261674448094508
4575000000.0 0.367085688528092 -0.9456333549030546
4578000000.0 0.38648372667659225 -0.9664883787211396
4581000000.0 0.3404902610554232 -0.9560942986992154
4584000000.0 0.37064292591274467 -0.9507499610707784
4588000000.0 0.37680113444016544 -0.9513593567937323
4591000000.0 0.38217543380697266 -0.9386391800173519
4594000000.0 0.3335801353190586 -0.955340423149295
4597000000.0 0.363998703710149 -0.9434512600172615
4600000000.0 0.3323211370968892 -0.9595161684604048
4603000000.0 0.3408199876650162 -0.95864315122171
4606000000.0 0.3508576856332237 -0.9386272282050266
4609000000.0 0.35813964291272143 -0.9323987703955683
4612000000.0 0.3541485226611109 -0.9546711840404418
4616000000.0 0.3526699473760171 -0.9304530187144342
4619000000.0 0.3491817452985866 -0.9360576519154606
4622000000.0 0.33725858536930514 -0.9511047956380217
4625000000.0 0.31869522728058297 -0.9430152746528704
4628000000.0 0.36279811992916977 -0.9534563856375153
4631000000.0 0.32464051478745903 -0.9455873650435346
4634000000.0 0.31977648110316265 -0.9510772108693969
4638000000.0 0.3467366143396088 -0.9700707640837096
4641000000.0 0.36122203002041675 -0.9443729265963997
4644000000.0 0.3428201093167781 -0.9292050682216075
4647000000.0 0.3382690655291932 -0.9575776897421052
4650000000.0 0.32528799697641336 -0.9408199066141626
4653000000.0 0.35442704018507004 -0.9505078643664862
4656000000.0 0.3358752620115466 -0.9538749645574347
4659000000.0 0.33779431462852083 -0.9565368195497663
4662000000.0 0.32943698452793324 -0.9602511602649916
4666000000.0 0.2895989664999794 -0.9462736825014832
4669000000.0 0.35362966836901927 -0.9530624711623186
4672000000.0 0.3196708678825326 -0.9716191897127391
4675000000.0 0.32300000262699624 -0.9604039483323689
4678000000.0 0.3258860232167689 -0.9272629715064634
4681000000.0 0.3091246629207859 -0.9807591013280113
4684000000.0 0.30731390575134776 -0.9714112240463686
4688000000.0 0.30588624127198405 -0.9759979513092752
4691000000.0 0.3544131158964617 -0.9757612809367585
4694000000.0 0.3266642406438279 -0.9383004483451467
4697000000.0 0.2629100478264626 -0.9293683832281966
4700000000.0 0.36164969883696996 -0.9300902703434613
4703000000.0 0.35115951885868163 -0.9087109984210403
4706000000.0 0.3218207309414235 -0.967482507455801
4709000000.0 0.32565053126156296 -0.951544758108964
4712000000.0 0.3348766960069564 -0.9464926664938759
4716000000.0 0.3045193276270837 -0.9874690152874032
4719000000.0 0.3596378759814376 -0.9479241303033542
4722000000.0 0.3469667483642691 -0.9429290149014611
4725000000.0 0.3636526291805124 -0.968690670945619
4728000000.0 0.31659005724126693 -0.9802588268839084
4731000000.0 0.3379649183635473 -0.971504381287952
4734000000.0 0.31393022206175575 -0.9494376743301061
4738000000.0 0.35143412694189424 -1.001873955376402
4741000000.0 0.2847650202020445 -0.9971173113556466
4744000000.0 0.3038501320853637 -0.9960946872222254
4747000000.0 0.32268915000934756 -0.9140744415512587
4750000000.0 0.31225130088188846 -0.9964298992503712
4753000000.0 0.3249565500391192 -0.9794274454998856
4756000000.0 0.3110805606633497 -0.9621065207949655
4759000000.0 0.31144356772924453 -0.9707015683566059
4762000000.0 0.28550662913733516 -0.992439641090001
4766000000.0 0.30450855700840807 -0.957758936183891
4769000000.0 0.303832098871646 -0.9895704953912705
4772000000.0 0.34097407344468106 -0.9632844399319449
4775000000.0 0.2973578841367934 -1.0074640798127728
4778000000.0 0.3035168521910896 -0.9802649977774072
4781000000.0 0.3357197935440016 -0.9645576808938475
4784000000.0 0.3177562493361044 -0.9686748913414271
4788000000.0 0.3052796129097464 -0.9856267728446868
4791000000.0 0.3111563900259103 -0.9619310201459955
4794000000.0 0.3488214581274114 -0.9800871449792906
4797000000.0 0.28812996822506104 -0.9578843862607721
4800000000.0 0.294432216726772 -0.9299425652154061
4803000000.0 0.26657018389577164 -0.9773990369026628
4806000000.0 0.3079047011340581 -1.0055918220929978
4809000000.0 0.2683315891267853 -0.960667205799203
4812000000.0 0.27240904135723937 -0.9654498423906458
4816000000.0 0.3250007965465256 -0.9359362407554389
4819000000.0 0.358271312011931 -1.0041213979723336
4822000000.0 0.3334267239226105 -1.0052000808025083
4825000000.0 0.34268213388343516 -0.9618622184875332
4828000000.0 0.28666335991096276 -0.9926946585311411
4831000000.0 0.25647022989942936 -1.0113958087370793
4834000000.0 0.31075563890068325 -0.9867573205880823
4838000000.0 0.2815981777535922 -1.0196019300085755
4841000000.0 0.28339964405051177 -0.9837461123833171
4844000000.0 0.32951836126658623 -0.9973677449505373
4847000000.0 0.32510583533943904 -0.9450382722070211
4850000000.0 0.30252042639269533 -1.0162917751487792
4853000000.0 0.28551242938251375 -0.9515906426899912
4856000000.0 0.3020882813235801 -0.9561902158357092
4859000000.0 0.29047557897284426 -1.0295125659986109
4862000000.0 0.30378910107321766 -0.9737767109191916
4866000000.0 0.30274882571326295 -0.983231379266527
4869000000.0 0.27017006828695855 -1.0087122899973557
4872000000.0 0.28096824125050646 -1.02303847374584
4875000000.0 0.33364708585453584 -1.0470793728117003
4878000000.0 0.2885676323544657 -0.9823267070488716
4881000000.0 0.26964693544925733 -1.0800198939070345
4884000000.0 0.30618564693007455 -0.9652384732357052
4888000000.0 0.34369085215770434 -0.9605115682910395
4891000000.0 0.2881345299767647 -1.007365635904148
4894000000.0 0.257234443964051 -0.9863304720392181
4897000000.0 0.3059691520857023 -0.961932234019141
4900000000.0 0.30913472471967907 -0.9840080072284475
4903000000.0 0.29816549491124306 -0.9980901638772834
4906000000.0 0.31025501154495516 -0.988664837957413
4909000000.0 0.2863741603227633 -0.9744184418071311
4912000000.0 0.2648252861639171 -1.0257959665677738
4916000000.0 0.30491119454895854 -1.0019451333008655
4919000000.0 0.31370390653051244 -0.9979913842514424
4922000000.0 0.31753839116713317 -0.988557170425606
4925000000.0 0.2488549565705338 -1.0127499996686233
4928000000.0 0.29051921090131955 -0.9677599093236611
4931000000.0 0.31599688748953264 -0.9888851395598145
4934000000.0 0.2932922292268484 -0.9621882448550454
4938000000.0 0.24230028057432434 -1.0038059370636465
4941000000.0 0.2687230885712787 -0.9510848818980552
4944000000.0 0.3098079512753703 -0.9317647255116478
4947000000.0 0.2629554201229887 -0.9482565043322472
4950000000.0 0.2630332284362765 -0.958769845094211
4953000000.0 0.2803211794423284 -1.0028352216933472
4956000000.0 0.26471698424992557 -1.010565633804101
4959000000.0 0.24323749622860297 -0.9584246167728809
4962000000.0 0.25097062319978847 -1.0046093575279058
4966000000.0 0.3130784346240938 -1.0124422135484958
4969000000.0 0.31030028638359053 -1.0167016847174222
4972000000.0 0.27546570243862406 -0.9759168882894009
4975000000.0 0.30841752740781536 -0.9689741656356048
4978000000.0 0.25048858207935004 -1.0050463905464826
4981000000.0 0.2824999910371974 -1.0337252061299218
4984000000.0 0.2814928067235361 -0.9791177798194677
4988000000.0 0.3054137619368106 -0.986418240226391
4991000000.0 0.34354612817247876 -0.9774032981091368
4994000000.0 0.3056141545171067 -0.9839628210530944
4997000000.0 0.23569770266375029 -1.000087018949299
5000000000.0 0.3029224244404371 -1.0184537931406603
5003000000.0 0.3238152309093919 -1.025367639396318
5006000000.0 0.2946877211605562 -1.0542157983357874
5009000000.0 0.30922015005780484 -0.9832163120245832
5012000000.0 0.2748369569842565 -0.9875566755551868
5016000000.0 0.32145572746537693 -1.0071861872663692
5019000000.0 0.273629507150076 -0.9671604132567861
5022000000.0 0.29684792578675445 -0.9857012041482804
5025000000.0 0.27967955805836486 -1.049861564816653
5028000000.0 0.26529326872707454 -1.0008446693576565
5031000000.0 0.26875860357376713 -0.9961680126585863
5034000000.0 0.25884231673450725 -1.0253372638803215
5038000000.0 0.27295290603312616 -0.9517950757322802
5041000000.0 0.2765126138037092 -0.947582856044193
5044000000.0 0.3298099292636164 -0.9669565720522462
5047000000.0 0.28497766149364107 -1.0052750227898204
5050000000.0 0.33270191986743225 -0.9601498416861864
5053000000.0 0.27398512307030987 -1.0365934452691798
5056000000.0 0.32801958240917944 -1.001633237606879
5059000000.0 0.34317401950509513 -0.9889537740776959
5062000000.0 0.23962541057935477 -1.0210560943344211
5066000000.0 0.29899812183161384 -1.026955984349814
5069000000.0 0.2726275496634971 -0.978780648901643
5072000000.0 0.3047585380368858 -0.970599387947777
5075000000.0 0.3034440489475877 -0.9894037741963713
5078000000.0 0.2873099778870779 -1.024163485025758
5081000000.0 0.23489909594240932 -1.004864656568277
5084000000.0 0.25006877623828194 -1.039571580396378
5088000000.0 0.24707884432147453 -1.0059389906556477
5091000000.0 0.21519379010531198 -1.025178181451242
5094000000.0 0.252650119695883 -0.9461640175357819
5097000000.0 0.29712870496182386 -0.9562806819384768
5100000000.0 0.28932652843940565 -0.9849674054009682
5103000000.0 0.26165758641210124 -1.0163005174695832
5106000000.0 0.28226096664047895 -1.0311978378713487
5109000000.0 0.32020593983188794 -0.9849817520952852
5112000000.0 0.21323662356900608 -0.9750522662223442
5116000000.0 0.2651389766487875 -0.9712559868388588
5119000000.0 0.24956992168273345 -1.02948182679373
5122000000.0 0.2944822791282149 -0.9779267499368243
5125000000.0 0.29285033915965974 -0.9494136314793548
5128000000.0 0.22954702553367629 -0.9870608054827203
5131000000.0 0.28078748568106676 -0.9794988305426764
5134000000.0 0.25969974955376285 -0.9723215527883072
5138000000.0 0.29368098556484645 -0.9891847949148961
5141000000.0 0.3226333148890599 -1.0108119838009222
5144000000.0 0.27330355167772213 -0.9807468345248229
5147000000.0 0.23120931166558523 -1.0240258927240284
5150000000.0 0.3147402102147857 -1.0445937134376877
5153000000.0 0.25111467976370105 -1.0209494872168834
5156000000.0 0.2705359974902847 -1.0154137755206802
5159000000.0 0.29354519337416635 -1.043940182826864
5162000000.0 0.2117595996492636 -1.010885605667629
5166000000.0 0.2827462596605127 -0.9987443491967516
5169000000.0 0.27765941158757546 -1.0018940805307164
