! Created with skrf 1.8.0 (http://scikit-rf.org).
# Hz S RI R 50.0 
!freq ReS11 ImS11
4000000000.0 0.5068223141051242 -0.8896868289435822
4003000000.0 0.5922368412797695 -0.8988403589861071
4006000000.0 0.5043685947352156 -0.914657997499626
4009000000.0000005 0.4933622018784809 -0.8740088432896904
4011999999.9999995 0.6010347027280136 -0.8356479632772631
4016000000.0 0.5154288993075502 -0.861153372098463
4019000000.0 0.49203068213415146 -0.875234795920905
4022000000.0000005 0.5593363058993371 -0.8444605646347849
4025000000.0000005 0.4579925439127552 -0.9192213056724183
4027999999.9999995 0.4741359878518898 -0.888927173481054
4030999999.9999995 0.49763713889484507 -0.862861152066732
4034000000.0 0.5135036652441652 -0.8498641659969192
4038000000.0000005 0.5259146136172206 -0.9103275349879865
4041000000.0000005 0.5173645603768299 -0.9031716584496693
4043999999.9999995 0.6035641231303748 -0.9356925298042846
4046999999.9999995 0.5762105026219508 -0.8879135974496054
4050000000.0 0.5143408247359765 -0.9347733860738724
4053000000.0 0.49586925085156286 -0.8829081180910738
4056000000.0 0.4938863202728446 -0.8721681003199272
4059000000.0 0.5065512669665727 -0.8479538995983599
4062000000.0000005 0.5433633166177798 -0.8896218124751027
4066000000.0 0.4909621726072831 -0.8418411710360922
4069000000.0 0.5009318417488997 -0.9361528701162175
4072000000.0 0.5558162301593845 -0.8914346851118946
4075000000.0 0.5486110354737209 -0.8987622158139814
4078000000.0000005 0.5390351965198689 -0.8896694581475812
4081000000.0000005 0.568032503642721 -0.8745662552427007
4083999999.9999995 0.5090894137838972 -0.9135974149459927
4088000000.0 0.5077762683869644 -0.810690532234426
4091000000.0 0.5605563398217089 -0.9633764093062493
4094000000.0000005 0.5500862249010294 -0.8524314487728235
4097000000.0000005 0.5194805317023142 -0.862077194224165
4099999999.9999995 0.5037609986523599 -0.9104628647311046
4102999999.9999995 0.5607377249965325 -0.887703407156265
4106000000.0 0.5195836572622247 -0.9062853931119553
4109000000.0 0.5043367556690812 -0.8984917440539927
4112000000.0 0.5290485823192228 -0.8650223107836706
4115999999.9999995 0.5457111283549289 -0.8762097420589295
4119000000.0 0.5060502384306088 -0.8809617725798695
4122000000.0 0.4684210456656911 -0.863644230333717
4125000000.0 0.5125537886888603 -0.9052493686152655
4128000000.0 0.5257720000779037 -0.8307638476393924
4131000000.0 0.5265117263970663 -0.8719942496718387
4134000000.0000005 0.5165615945287688 -0.8579007209058788
4138000000.0 0.5035345854751782 -0.8417486694665074
4141000000.0 0.5280198258481154 -0.8453773912929206
4144000000.0 0.5054697598709409 -0.8890111583468242
4147000000.0000005 0.49304853710461655 -0.8748753602223741
4150000000.0000005 0.5412387028464211 -0.8878946008018521
4152999999.9999995 0.5290417101905507 -0.8565650903273564
4155999999.9999995 0.5318515205347347 -0.9023411829141742
4159000000.0 0.5042273488655925 -0.8374975382878135
4162000000.0 0.5233704944593028 -0.8393694360844507
4166000000.0000005 0.5249910669563836 -0.891646693122
4168999999.9999995 0.4929118750144555 -0.877500077947208
4171999999.9999995 0.5250690193830676 -0.8738127099532798
4175000000.0 0.5425728975313644 -0.897319586625379
4178000000.0 0.5328697711913132 -0.884256214565091
4181000000.0 0.532185842921183 -0.8987568951687701
4184000000.0 0.5078943325620281 -0.8535212209234125
4187999999.9999995 0.5321597408131742 -0.8993165212763234
4191000000.0 0.5360296761576854 -0.8356027221280482
4194000000.0 0.5233595089890031 -0.8626615590786206
4197000000.0 0.517515085613024 -0.8772789780430994
4200000000.0 0.5474482760941989 -0.8768740320131969
4203000000.0000005 0.5509325036823747 -0.8551525973884451
4206000000.0000005 0.5474543622783992 -0.8701541046388682
4208999999.9999995 0.5221197704041919 -0.8475906139528399
4211999999.9999995 0.5157887962174315 -0.8825306883920556
4216000000.0 0.5522260448726283 -0.8770898213341313
4219000000.0000005 0.5554260744711464 -0.8739686644559048
4222000000.0000005 0.5164011711803767 -0.8688054409880992
4224999999.9999995 0.5102369302154504 -0.8683837735086037
4227999999.9999995 0.5270627513783079 -0.8757144348743681
4231000000.0 0.5034161213566098 -0.8741087032607185
4234000000.0 0.5195622898137914 -0.8758700565708981
4238000000.0000005 0.519560823293685 -0.8804513289266709
4240999999.9999995 0.5027921858592725 -0.8692273370941295
4244000000.0 0.5301826294096875 -0.870431444909082
4247000000.0 0.5195696582042882 -0.8571157136332803
4250000000.0 0.49403612724321655 -0.8558107505572476
4253000000.0 0.5044596975513704 -0.8753589254345239
4256000000.0 0.5244658427783537 -0.8773509251993583
4259000000.0000005 0.49130646532117417 -0.8578857903929311
4261999999.9999995 0.5051747155118964 -0.8870509104674036
4266000000.0 0.49548005579466947 -0.9023357231768385
4269000000.0 0.5255560086038024 -0.8650159362525385
4272000000.0000005 0.5160477168624296 -0.8701169976597309
4275000000.0000005 0.5216967853844983 -0.8719351700480907
4277999999.9999995 0.537027719060601 -0.8838051549980835
4280999999.9999995 0.5275135323080656 -0.8844394899688829
4284000000.0 0.4721799203599145 -0.8824204817654443
4288000000.0000005 0.5477031650106545 -0.8572105969027778
4291000000.0000005 0.51574138314625 -0.8549331424416459
4293999999.9999995 0.519476656603472 -0.8358813428987564
4297000000.0 0.509576496221628 -0.8599446023188725
4300000000.0 0.5012334982091572 -0.8414915078263366
4303000000.0 0.5015679523210071 -0.8601654739023478
4306000000.0 0.5445358447127583 -0.842900450091754
4309000000.0 0.508817188193396 -0.8579028930740283
4312000000.0 0.5557050123618196 -0.8575102044269189
4316000000.0 0.5185799810991016 -0.8683427763615367
4319000000.0 0.5211974792493772 -0.8469647765606094
4322000000.0 0.4663587606070209 -0.8356302806412551
4325000000.0 0.5056397532424137 -0.8676411497063726
4328000000.0 0.5137175962965348 -0.8604785094284954
4331000000.0 0.5011787172387276 -0.8930207906817621
4334000000.0 0.5137952956790013 -0.8725715159804
4338000000.0 0.5434239958756216 -0.8518839103699037
4341000000.0 0.5387952975332326 -0.876869745282743
4344000000.0 0.5378693298546272 -0.8656975134755986
4347000000.0 0.479943480964719 -0.8823893751779299
4350000000.0 0.4827909251692844 -0.8491689224252656
4353000000.0 0.500139494645614 -0.8514721918017906
4356000000.0 0.4981690432901863 -0.8677169509755231
4359000000.0 0.4932629198764217 -0.8387822819919105
4362000000.0 0.46402116230497303 -0.9033256567161895
4366000000.0 0.5171561512948198 -0.8840876064659408
4369000000.0 0.4784148386482794 -0.8340880368530832
4372000000.0 0.4642937383656092 -0.8741111534433549
4375000000.0 0.5285892342903227 -0.853279488624958
4378000000.0 0.5087374659621479 -0.8601420187242002
4381000000.0 0.4996655771100272 -0.832667542121348
4384000000.0 0.5224649171555523 -0.922927354506917
4388000000.0 0.5012346806433194 -0.8499860842712501
4391000000.0 0.5259445386609223 -0.8635654174751781
4394000000.0 0.5015801990380016 -0.859388242299814
4397000000.0 0.4908198150148835 -0.8615181002593066
4400000000.0 0.5264817724392816 -0.8987213848575699
4403000000.0 0.5199723813251146 -0.8721729488594819
4406000000.0 0.4941833963521972 -0.8717400804263775
4409000000.0 0.5183196011164123 -0.8976940129095118
4412000000.0 0.44676402262055886 -0.8957615178240285
4416000000.0 0.5037389676785287 -0.8694583010191977
4419000000.0 0.4952606453967311 -0.8803535344147582
4422000000.0 0.5120839709546341 -0.8581803194974109
4425000000.0 0.5328838237344122 -0.8772507486284266
4428000000.0 0.4978839618772998 -0.8717201967255829
4431000000.0 0.5139596494570937 -0.8918504651945058
4434000000.0 0.4964419926737983 -0.8659728601878595
4438000000.0 0.5194194904707223 -0.8922909945370368
4441000000.0 0.5015973023769446 -0.8906595865893261
4444000000.0 0.4941103870333414 -0.8583099208117891
4447000000.0 0.49557238783684665 -0.8920187067899791
4450000000.0 0.5035326211998704 -0.8578830341772617
4453000000.0 0.514544267236085 -0.879935707376738
4456000000.0 0.4742502522376418 -0.8694082162760834
4459000000.0 0.45526640253358597 -0.8534823070304427
4462000000.0 0.5236239336730195 -0.9224570860799797
4466000000.0 0.5140192477960498 -0.9002962229530309
4469000000.0 0.5209119776314858 -0.8644488965375814
4472000000.0 0.4917154970136001 -0.90097598037936
4475000000.0 0.486274113348766 -0.8495941043382884
4478000000.0 0.49705941051481456 -0.9159789119525883
4481000000.0 0.4771297487549016 -0.8562957440026894
4484000000.0 0.44508339479265924 -0.8966034512394387
4488000000.0 0.4723380102815612 -0.8800633822164843
4491000000.0 0.47768883812266666 -0.8762771542105956
4494000000.0 0.48949594765037663 -0.8780539390884983
4497000000.0 0.49297346696401423 -0.8620559634709073
4500000000.0 0.5002577835365267 -0.8792942084150972
4503000000.0 0.5108206557594371 -0.9003903494478989
4506000000.0 0.4889305335114131 -0.8840016585206625
4509000000.0 0.4702742527740338 -0.8627775242327659
4512000000.0 0.4793194193966921 -0.8716005136463569
4516000000.0 0.48813704697551485 -0.8995840938699405
4519000000.0 0.48693789120988623 -0.845662667389854
4522000000.0 0.4924405782821439 -0.8808973724274403
4525000000.0 0.515683615998771 -0.8573364367698431
4528000000.0 0.49660701122643364 -0.9007708262083269
4531000000.0 0.49461934117311407 -0.8645006320927675
4534000000.0 0.45651169089539223 -0.8516562002482668
4538000000.0 0.4814507584685493 -0.8826486445656574
4541000000.0 0.45934257669183387 -0.8890471127701349
4544000000.0 0.4962366737559428 -0.872227400123208
4547000000.0 0.48698058118382626 -0.8512204645461361
4550000000.0 0.47683066405291785 -0.8848741552751749
4553000000.0 0.47572263397126624 -0.8741656302206526
4556000000.0 0.46653407457727764 -0.8726701072307156
4559000000.0 0.46037848280260996 -0.9008877432710842
4562000000.0 0.5033957441714172 -0.8779055503872248
4566000000.0 0.4787494914629045 -0.8976797930346039
4569000000.0 0.45405880537504667 -0.85938810284224
4572000000.0 0.4646311832287392 -0.8647754390456914
4575000000.0 0.4604073706108529 -0.9003896361029986
4578000000.0 0.5118193569703319 -0.8804544716417313
4581000000.0 0.4627336831648585 -0.9094310939671139
4584000000.0 0.45562077729297246 -0.8694501561813006
4588000000.0 0.49720687541192743 -0.9038905203708817
4591000000.0 0.4865616694463149 -0.8765791148945457
4594000000.0 0.4575237430202093 -0.8937363927452039
4597000000.0 0.4846591276456841 -0.9047512656796308
4600000000.0 0.4320906923885496 -0.8765892266663147
4603000000.0 0.4744822522034118 -0.8825269120040543
4606000000.0 0.483299989555897 -0.8936859324234632
4609000000.0 0.47688617465532745 -0.8982993891016726
4612000000.0 0.4838852304451395 -0.9136418735097518
4616000000.0 0.4652264640386522 -0.873884322266816
4619000000.0 0.4684630546667137 -0.8853688077788273
4622000000.0 0.4693146444280487 -0.8869124980328718
4625000000.0 0.4353595659490111 -0.8776523625553798
4628000000.0 0.4619887535571034 -0.8816232194226539
4631000000.0 0.4559581179475063 -0.8917968820381195
4634000000.0 0.4547050926024025 -0.889550159881261
4638000000.0 0.4798930978661774 -0.9077921750229588
4641000000.0 0.46843638832779977 -0.8900513635209928
4644000000.0 0.4535622726062663 -0.8947368163189375
4647000000.0 0.4619377158950182 -0.9059444125581095
4650000000.0 0.4455469194719518 -0.903146599654476
4653000000.0 0.4777725288214558 -0.8959761122639828
4656000000.0 0.4606863271830447 -0.9051309873359651
4659000000.0 0.4500347018393445 -0.9064473260516888
4662000000.0 0.47414481665406266 -0.8930245301699377
4666000000.0 0.4343372011387723 -0.9101099654697925
4669000000.0 0.46979336911231273 -0.8914613514674617
4672000000.0 0.45074057413042834 -0.9121160664920683
4675000000.0 0.4427836145632849 -0.9344392724540616
4678000000.0 0.46963733587326745 -0.8853604193087027
4681000000.0 0.45328902019380685 -0.9277107548972101
4684000000.0 0.4467683232376476 -0.9222738982002665
4688000000.0 0.45239197200441955 -0.8977248910752381
4691000000.0 0.4817786353735344 -0.9142576798953926
4694000000.0 0.4547893681723033 -0.8949605986697814
4697000000.0 0.4415827780920468 -0.8818797406573303
4700000000.0 0.45787185867103414 -0.8885972791610114
4703000000.0 0.47577223065336716 -0.8697733035060166
4706000000.0 0.4306025448656932 -0.9233955918854166
4709000000.0 0.42637180731447744 -0.9072691595337132
4712000000.0 0.45959888451002096 -0.9130367302834248
4716000000.0 0.4679846679539648 -0.9370022085149285
4719000000.0 0.4851755532084658 -0.9033720199540959
4722000000.0 0.465707557041452 -0.8974370548078331
4725000000.0 0.4524929084859299 -0.8921065954408902
4728000000.0 0.42145746226153796 -0.8976920449998402
4731000000.0 0.4969106858706041 -0.9412947301561012
4734000000.0 0.4712448291815975 -0.8704906160904886
4738000000.0 0.5042665953336254 -0.9344146957292847
4741000000.0 0.45504248787253937 -0.9181585782345681
4744000000.0 0.4516613081535912 -0.9356180264600104
4747000000.0 0.44667886801150086 -0.8718405044675461
4750000000.0 0.4793880077122587 -0.9170852937551939
4753000000.0 0.47128015182734717 -0.9101980343598444
4756000000.0 0.46936584145644744 -0.9236676800080648
4759000000.0 0.46867542176969923 -0.9138158539992429
4762000000.0 0.42966878340194514 -0.9477608319744996
4766000000.0 0.465121273349374 -0.9095366727756075
4769000000.0 0.4661065797713572 -0.9287089197209656
4772000000.0 0.47550171767322985 -0.924047910140214
4775000000.0 0.4515351459202067 -0.9626516685385108
4778000000.0 0.44655554574671286 -0.9108165984844341
4781000000.0 0.4495377884877996 -0.9137046311011973
4784000000.0 0.48942506895698223 -0.8705466618609334
4788000000.0 0.4398612611413194 -0.9285242106774979
4791000000.0 0.4509539175206727 -0.9063186120925761
4794000000.0 0.5100852705855603 -0.9541273931910934
4797000000.0 0.42636826806995753 -0.8980938313102911
4800000000.0 0.44360227364806715 -0.9039685288580105
4803000000.0 0.4053696175673329 -0.9166585004327826
4806000000.0 0.4497622839758224 -0.9405972628196748
4809000000.0 0.39441731771956456 -0.930054996133934
4812000000.0 0.40949512966169793 -0.9116547441156613
4816000000.0 0.4616545229587541 -0.8817237804111915
4819000000.0 0.4603946104905827 -0.9419318690844807
4822000000.0 0.4845817895779637 -0.9363753200679029
4825000000.0 0.48193262850494095 -0.9355369161066194
4828000000.0 0.4448506975955696 -0.9050809137405198
4831000000.0 0.4162618457323214 -0.9707603988693336
4834000000.0 0.4649747384789109 -0.9008596986919523
4838000000.0 0.4453261207065206 -0.9424855044851421
4841000000.0 0.4306555618165523 -0.9185008168928765
4844000000.0 0.47394047723572696 -0.9154622805420133
4847000000.0 0.46329942609004826 -0.8758430486699801
4850000000.0 0.4472011806589228 -0.953152287126025
4853000000.0 0.4307700738075456 -0.8873414760748457
4856000000.0 0.4355653113560479 -0.9058711833995311
4859000000.0 0.45454049518766 -0.9559179206723002
4862000000.0 0.468429442743314 -0.883501071743248
4866000000.0 0.4409100676327166 -0.9358398520225948
4869000000.0 0.43221335187925203 -0.9380486822451354
4872000000.0 0.44815465484637607 -0.9523875386250074
4875000000.0 0.512706855237472 -0.9679166977250487
4878000000.0 0.4539268689363843 -0.9301900040928902
4881000000.0 0.43848390134334275 -0.9700618632967692
4884000000.0 0.4740483177092717 -0.9332267826481523
4888000000.0 0.4960233076839513 -0.8795011889949834
4891000000.0 0.4901176045825027 -0.9399617198153125
4894000000.0 0.4473435392582312 -0.9296866823105825
4897000000.0 0.4501475504599692 -0.9036187889723053
4900000000.0 0.4437123908874736 -0.9420222582708608
4903000000.0 0.47035554217966435 -0.9771728760065965
4906000000.0 0.45629596908055814 -0.9435097736571593
4909000000.0 0.4634828986334004 -0.9422870650581643
4912000000.0 0.4373528036410278 -0.9842075006959484
4916000000.0 0.49396912744338484 -0.9266092336907495
4919000000.0 0.482682570332268 -0.9598709741257082
4922000000.0 0.48122400518056235 -0.914852255576917
4925000000.0 0.4341527854254023 -0.9280371107260807
4928000000.0 0.4853159027194731 -0.8798420837072016
4931000000.0 0.4796240767867989 -0.9294089157785874
4934000000.0 0.4606485972129794 -0.8981629491585278
4938000000.0 0.41465331749978823 -0.9258866303686942
4941000000.0 0.4300187072069265 -0.8810042834758618
4944000000.0 0.45655392462113686 -0.849722360892816
4947000000.0 0.47350905152897454 -0.9085713466092832
4950000000.0 0.4533078813082494 -0.9107607634897503
4953000000.0 0.46084142203240697 -0.9778133977422878
4956000000.0 0.4387580836815971 -0.9437913233658484
4959000000.0 0.4077477941546573 -0.9461032735262429
4962000000.0 0.4615959789008498 -0.9588278888102422
4966000000.0 0.49029906492088393 -0.9081356833022403
4969000000.0 0.514515176801862 -0.9575966251735571
4972000000.0 0.44741896181301677 -0.9292547015994042
4975000000.0 0.4802570985932456 -0.8856892162842764
4978000000.0 0.42913263020066966 -0.9558481346424174
4981000000.0 0.44578982624973534 -0.9250987876127915
4984000000.0 0.44030060899518825 -0.9159918060434828
4988000000.0 0.4434136396763643 -0.9151884414854458
4991000000.0 0.529973938218776 -0.9094016981802664
4994000000.0 0.4468209387781821 -0.9175765105459563
4997000000.0 0.4538944066409346 -0.9165067658032876
5000000000.0 0.5194057300878363 -0.9634543771630726
5003000000.0 0.5022081763166097 -0.9361623959781193
5006000000.0 0.48296801001193773 -0.9804944827446962
5009000000.0 0.45431777117511335 -0.9126415214660494
5012000000.0 0.46355923306790575 -0.917417143138099
5016000000.0 0.5076951273101614 -0.9408239828745644
5019000000.0 0.438894483874284 -0.9052171831280021
5022000000.0 0.4791769298486368 -0.9288237715143823
5025000000.0 0.5019936701468748 -0.9503771458904
5028000000.0 0.43911533592313406 -0.9301555481619312
5031000000.0 0.43797690550708485 -0.9125011709853452
5034000000.0 0.4296335911766483 -0.964235502961292
5038000000.0 0.45410860587555507 -0.9106788671497459
5041000000.0 0.5074109260706945 -0.9100537506701358
5044000000.0 0.4867655807009199 -0.8888552469378819
5047000000.0 0.4735060721279892 -0.9258410505305397
5050000000.0 0.5650017523665704 -0.8801062262355166
5053000000.0 0.4482659017981781 -0.9533763330357566
5056000000.0 0.5142471991615727 -0.9050866558706785
5059000000.0 0.49367152558327915 -0.9156751516054364
5062000000.0 0.4384504794763373 -0.9444660924094092
5066000000.0 0.47380708338613736 -0.9000990202945268
5069000000.0 0.4717836169307487 -0.9543682429172102
5072000000.0 0.48832965115612986 -0.890196650651523
5075000000.0 0.5040315108992834 -0.9039158994747366
5078000000.0 0.43741933471470335 -0.9680674630529772
5081000000.0 0.43947789589704944 -0.8869060249365472
5084000000.0 0.4895978844410263 -0.8956044478633258
5088000000.0 0.4932711251807069 -0.9033356543045665
5091000000.0 0.479355341382729 -0.9569199604667525
5094000000.0 0.47914734923570945 -0.9179234747057929
5097000000.0 0.5204680161559977 -0.8726506810121178
5100000000.0 0.4799868589405675 -0.9271128366262207
5103000000.0 0.4161639351658906 -0.9333025149958134
5106000000.0 0.4953341323210393 -0.9349544729874797
5109000000.0 0.5348512821066329 -0.8646507403888659
5112000000.0 0.44075277134766205 -0.9176031582864086
5116000000.0 0.4519181410596241 -0.91034254226951
5119000000.0 0.4831257158738076 -0.928011383676274
5122000000.0 0.47337143306605073 -0.9223224377919087
5125000000.0 0.515855148877561 -0.865672774550019
5128000000.0 0.4682738438897461 -0.9331684139981029
5131000000.0 0.4721580046182947 -0.9360481715910424
5134000000.0 0.5044371844843303 -0.9106820132381366
5138000000.0 0.49001811143306623 -0.8882552245178721
5141000000.0 0.5210747487162569 -0.886469358379472
5144000000.0 0.5035915768012172 -0.8920901650482688
5147000000.0 0.45198597692373615 -0.9358394928798408
5150000000.0 0.5150069777553412 -0.9175602579759337
5153000000.0 0.45713951667120883 -0.9393269618161769
5156000000.0 0.4681862308566923 -0.9068567018907591
5159000000.0 0.5248403935401117 -0.938030612962311
5162000000.0 0.4364013049507152 -0.8815279051485563
5166000000.0 0.48679809794043055 -0.9381755611865811
5169000000.0 0.5066833898661707 -0.9266294814269189
5172000000.0 0.5087684904384745 -0.9194626101309431
5175000000.0 0.5396962767715096 -0.9158962226619192
