! Created with skrf 1.8.0 (http://scikit-rf.org).
# Hz S RI R 50.0 
!freq ReS11 ImS11
4000000000.0 0.48933786208251345 -0.8376269148805127
4003000000.0 0.5280582252647918 -0.9125804763264938
4006000000.0 0.47078364220557634 -0.8923317375474474
4009000000.0000005 0.4885147472368827 -0.9003392088020966
4011999999.9999995 0.546527924492044 -0.8797281700078884
4016000000.0 0.4578217150237275 -0.9102238903748949
4019000000.0 0.4789252565380471 -0.8905553683707811
4022000000.0000005 0.5465809238022125 -0.8564750604666673
4025000000.0000005 0.4929367665731464 -0.952898097403679
4027999999.9999995 0.4796105306074159 -0.9219438494242077
4030999999.9999995 0.46658898915107383 -0.8676892678459487
4034000000.0 0.5250664370396179 -0.8943525211155698
4038000000.0000005 0.4637536543753042 -0.9059945206092459
4041000000.0000005 0.46131280451057355 -0.8835378737957585
4043999999.9999995 0.5483926446991716 -0.9464136185232975
4046999999.9999995 0.5554771411946933 -0.9235498118249938
4050000000.0 0.5099846554662333 -0.9182127312395234
4053000000.0 0.4764707334682911 -0.8559799846832853
4056000000.0 0.49715940349200805 -0.8776465333551572
4059000000.0 0.5225419232968874 -0.8685616006930428
4062000000.0000005 0.42689167032957054 -0.9005141064497532
4066000000.0 0.4615695823602459 -0.8814448801944034
4069000000.0 0.50498564955212 -0.9168185545950535
4072000000.0 0.5235559360910843 -0.8821181401181012
4075000000.0 0.5262816855734749 -0.9254429914439857
4078000000.0000005 0.49211808399188023 -0.9124147240954529
4081000000.0000005 0.5099296275332154 -0.9042365599583682
4083999999.9999995 0.4659130585669397 -0.9276265420414693
4088000000.0 0.5273797850054877 -0.8947896985347552
4091000000.0 0.47552917245390286 -0.9316438782216513
4094000000.0000005 0.4650755226358189 -0.8638026338876822
4097000000.0000005 0.506795626926918 -0.8912206090600798
4099999999.9999995 0.4804907150840186 -0.8593751387303475
4102999999.9999995 0.5165233967147627 -0.8709913462490559
4106000000.0 0.46736802733159827 -0.9058818233258251
4109000000.0 0.4634401127579081 -0.864561397226144
4112000000.0 0.5031808662707256 -0.8785003945548607
4115999999.9999995 0.500586575246859 -0.8777956023546508
4119000000.0 0.4480359719693917 -0.9299880201978497
4122000000.0 0.4694708175272689 -0.9144957279011535
4125000000.0 0.4814026957250226 -0.9013155477956416
4128000000.0 0.46314618019662146 -0.8386279317236324
4131000000.0 0.48159499962331936 -0.910420744062843
4134000000.0000005 0.4940735942100554 -0.8650074787441464
4138000000.0 0.47402473100865417 -0.8852977326325453
4141000000.0 0.46040635330146196 -0.877823254404688
4144000000.0 0.48107537951385415 -0.906038566529731
4147000000.0000005 0.4873305461474893 -0.8766293498736395
4150000000.0000005 0.5226828453138516 -0.927481516067539
4152999999.9999995 0.47240950770298074 -0.9022740878677279
4155999999.9999995 0.5117329358563049 -0.9165639011758993
4159000000.0 0.4872553533384789 -0.883505048428052
4162000000.0 0.4850321560166 -0.8578222983638941
4166000000.0000005 0.4651025172379446 -0.9063008791612444
4168999999.9999995 0.45786247561297483 -0.9001964557189734
4171999999.9999995 0.4950672304730143 -0.891198090369723
4175000000.0 0.5127567332759048 -0.901689105122095
4178000000.0 0.49625104317205365 -0.8911517994117746
4181000000.0 0.45122519032564024 -0.9152931998682556
4184000000.0 0.4704129531899022 -0.8759925185016462
4187999999.9999995 0.4840146239995005 -0.8946053044444697
4191000000.0 0.5107226525720419 -0.8603644510843673
4194000000.0 0.4766641697509293 -0.8778824370317395
4197000000.0 0.49156865924086157 -0.8990526734790488
4200000000.0 0.5109870697819049 -0.8613142046459178
4203000000.0000005 0.5036245944898659 -0.8806099323133808
4206000000.0000005 0.4876742025254763 -0.9150600773731512
4208999999.9999995 0.49281338397734487 -0.8804747362921449
4211999999.9999995 0.45328634058924666 -0.9189305234058356
4216000000.0 0.4897783711583542 -0.9079908462339045
4219000000.0000005 0.5151441372944697 -0.9057958329675119
4222000000.0000005 0.47394914295311963 -0.8983397108705928
4224999999.9999995 0.4842643162699326 -0.8881607080300665
4227999999.9999995 0.4885131748416599 -0.8847524527695804
4231000000.0 0.48599221566610923 -0.9087212857195854
4234000000.0 0.4834294056441665 -0.9192503663029671
4238000000.0000005 0.4654766757886724 -0.9002717549101229
4240999999.9999995 0.45078456299982267 -0.9083332547055661
4244000000.0 0.4934682976812569 -0.8969417073460018
4247000000.0 0.4740434364115295 -0.8807178500523262
4250000000.0 0.45268689888822444 -0.8828169989230844
4253000000.0 0.4733534968654032 -0.879267585148634
4256000000.0 0.47944525384284936 -0.9069580307190294
4259000000.0000005 0.4533376783426843 -0.8872982312688085
4261999999.9999995 0.44957116280018145 -0.888379261802492
4266000000.0 0.4496556358063584 -0.9297608486322634
4269000000.0 0.4970793711153206 -0.8732800222570312
4272000000.0000005 0.47761944971291925 -0.894459943016642
4275000000.0000005 0.47708190495765934 -0.8887581459108334
4277999999.9999995 0.4874764652998653 -0.9184416746374275
4280999999.9999995 0.48913304007574177 -0.9094026870091215
4284000000.0 0.4541563458245443 -0.8943669661820686
4288000000.0000005 0.4868418593503907 -0.8626180588804132
4291000000.0000005 0.4435079326646467 -0.8813799387175187
4293999999.9999995 0.45459428851962985 -0.9010498408166107
4297000000.0 0.48299631337977994 -0.8843067097242953
4300000000.0 0.4676319385998884 -0.873706577101266
4303000000.0 0.45423344996886295 -0.8977450897175748
4306000000.0 0.4889223880268576 -0.8874508521053626
4309000000.0 0.48712507843270797 -0.8835695147340858
4312000000.0 0.5029737026543145 -0.8655967848163681
4316000000.0 0.5085973147724616 -0.895521578209217
4319000000.0 0.47209553119526787 -0.8907798445465331
4322000000.0 0.43843138906223555 -0.890341244829136
4325000000.0 0.48626337594517927 -0.8790521531181549
4328000000.0 0.45134548590330875 -0.8667100488123942
4331000000.0 0.4480226051320017 -0.8961585840559378
4334000000.0 0.4859348921477387 -0.9014500164594212
4338000000.0 0.4849956368352814 -0.8983259465448235
4341000000.0 0.48426813518848455 -0.9006989056481579
4344000000.0 0.4895953161228044 -0.9114733177588109
4347000000.0 0.4587155207314972 -0.9080049189771894
4350000000.0 0.43065272861691106 -0.8694959657637384
4353000000.0 0.4635165578414934 -0.8460591515996464
4356000000.0 0.4240322800121923 -0.899701283425456
4359000000.0 0.4525991710105479 -0.8154299955216584
4362000000.0 0.4178544360759773 -0.9258527335593534
4366000000.0 0.45315246431161993 -0.9152981015867137
4369000000.0 0.4439570554611173 -0.8670526715641768
4372000000.0 0.4129324881465854 -0.8946805351985864
4375000000.0 0.4682182593526824 -0.8848087433218719
4378000000.0 0.4369579058879589 -0.8671073210546398
4381000000.0 0.4523704607345035 -0.8703026493268741
4384000000.0 0.4715913837934467 -0.9583654387715971
4388000000.0 0.43515344324016497 -0.8579447242190547
4391000000.0 0.45758779656735027 -0.8939712240024883
4394000000.0 0.441516925639974 -0.8732276851430196
4397000000.0 0.4461350013854193 -0.8936244035871994
4400000000.0 0.4634244946411067 -0.9157809688331123
4403000000.0 0.46264869362646294 -0.8932893996298287
4406000000.0 0.4346019828572386 -0.9234519383802455
4409000000.0 0.45427587767313077 -0.9248897022461822
4412000000.0 0.40176400975933757 -0.9195571612421856
4416000000.0 0.442766169888955 -0.8854771070560171
4419000000.0 0.4326418585771785 -0.911566640667029
4422000000.0 0.4548856755657191 -0.8893608502288234
4425000000.0 0.491603776520647 -0.8991593086262701
4428000000.0 0.44026857755034177 -0.8987933826079995
4431000000.0 0.4603910980213075 -0.9141665104912675
4434000000.0 0.4417279912222276 -0.8968856704884247
4438000000.0 0.45454114251561983 -0.9137996640314594
4441000000.0 0.46329508486885207 -0.9078919777045366
4444000000.0 0.4472264824985641 -0.886953200870648
4447000000.0 0.42065398570140394 -0.912940799404455
4450000000.0 0.4651250662113635 -0.8822378653103328
4453000000.0 0.45483655260935485 -0.9238026652846804
4456000000.0 0.4368631529221401 -0.8899811525544148
4459000000.0 0.41460798361850626 -0.8701824691552951
4462000000.0 0.47035236539887176 -0.9618480027217182
4466000000.0 0.44122545277204406 -0.9436455906373552
4469000000.0 0.4663994493457631 -0.8897694789088055
4472000000.0 0.4290283890590253 -0.9365184464083459
4475000000.0 0.4252711417413461 -0.8855158546119177
4478000000.0 0.44718731726989 -0.9508115608001462
4481000000.0 0.41620403868584727 -0.8874277320836816
4484000000.0 0.3834586903908095 -0.940540107056725
4488000000.0 0.4069442904234919 -0.9092580317037445
4491000000.0 0.4215540039529007 -0.9162547806773387
4494000000.0 0.43577427991228485 -0.8791201894845226
4497000000.0 0.43985875506716443 -0.9083311317817062
4500000000.0 0.4470378241378783 -0.8945472667825476
4503000000.0 0.452717352059569 -0.9344705261222266
4506000000.0 0.4356253594445765 -0.8941507006899141
4509000000.0 0.426223199277551 -0.9022283259085075
4512000000.0 0.43162193128122806 -0.9052986379792071
4516000000.0 0.41716819294841007 -0.9179085138808352
4519000000.0 0.42808810364821465 -0.8728609845390207
4522000000.0 0.42907737944678936 -0.9101169575058679
4525000000.0 0.4578542776601213 -0.9060806952669178
4528000000.0 0.4390632256230541 -0.9335164377440307
4531000000.0 0.43180759381573997 -0.903046333330682
4534000000.0 0.419405685751166 -0.8753522760464039
4538000000.0 0.40150932649390714 -0.9206463708419712
4541000000.0 0.3792826737941678 -0.929551229531018
4544000000.0 0.4111286346101933 -0.9120346168001633
4547000000.0 0.43877825728640657 -0.9089052034020673
4550000000.0 0.40704877579184456 -0.9354034281509869
4553000000.0 0.3972499892290755 -0.922893655152631
4556000000.0 0.4106848054719724 -0.9066297231571592
4559000000.0 0.4137437744135264 -0.9355234678194451
4562000000.0 0.4198431035204054 -0.9264846711348108
4566000000.0 0.42629695613911417 -0.9319988074118241
4569000000.0 0.40619881334517194 -0.9167540482763616
4572000000.0 0.40918513347089314 -0.8974776460618193
4575000000.0 0.40488590924661094 -0.9378121302812306
4578000000.0 0.4537474955280857 -0.9270316451015881
4581000000.0 0.40269284533937527 -0.9205186073751253
4584000000.0 0.3918060706959606 -0.9135596942406545
4588000000.0 0.4089958484584577 -0.9446884836098821
4591000000.0 0.41499206006642564 -0.908935479474432
4594000000.0 0.3863929915078894 -0.9151792811186807
4597000000.0 0.41191415526879693 -0.9282938427776759
4600000000.0 0.3855393543254714 -0.9150071543296266
4603000000.0 0.4052191223267963 -0.9338112803104457
4606000000.0 0.4108061960515042 -0.9434548270025659
4609000000.0 0.40154116119845823 -0.9235347207218692
4612000000.0 0.3976934238726738 -0.9344514895681854
4616000000.0 0.3938235873906347 -0.9101690983685393
4619000000.0 0.4019632556333844 -0.925391560795191
4622000000.0 0.39586724406129903 -0.9280965752596191
4625000000.0 0.3678773202476312 -0.9328200370783093
4628000000.0 0.42381095456590834 -0.9131059701143137
4631000000.0 0.38337325529324867 -0.9246539772932453
4634000000.0 0.3921100096746199 -0.9301266599283409
4638000000.0 0.40403140347702315 -0.917060238352313
4641000000.0 0.4121089649571816 -0.9193027453396364
4644000000.0 0.3994872581402905 -0.928575539952259
4647000000.0 0.4032531780772929 -0.9311317559200022
4650000000.0 0.37485121612214767 -0.9298391783637528
4653000000.0 0.40529875922023606 -0.9372064804900329
4656000000.0 0.3925775680243675 -0.9189043084608507
4659000000.0 0.3829691699897913 -0.9380212983399301
4662000000.0 0.39052678030475896 -0.9402306097253686
4666000000.0 0.37474144580758867 -0.940810221878352
4669000000.0 0.3950757880798109 -0.9332346528895068
4672000000.0 0.3683567021075079 -0.9610523515638146
4675000000.0 0.35465699525146854 -0.9581385362341162
4678000000.0 0.39099306261419337 -0.9129804042143992
4681000000.0 0.3737612028188033 -0.9458869729846978
4684000000.0 0.3511221290139569 -0.9663490051167837
4688000000.0 0.3526177011172935 -0.9462650958433491
4691000000.0 0.40221479400207233 -0.9570637552080709
4694000000.0 0.39630459469238605 -0.9230652406181505
4697000000.0 0.35590916043733734 -0.9228908841380575
4700000000.0 0.3852293701566681 -0.921562564037839
4703000000.0 0.41068727240199215 -0.9156637184328543
4706000000.0 0.3642345244791166 -0.9425310359649783
4709000000.0 0.3694058277734698 -0.9418719074290218
4712000000.0 0.38696738306560086 -0.9308618047409504
4716000000.0 0.37483151920009233 -0.9383577920196027
4719000000.0 0.42605308441968026 -0.9223124108727838
4722000000.0 0.42110050780840713 -0.9154292596296632
4725000000.0 0.39032224365015306 -0.9394115277450695
4728000000.0 0.35692991511181354 -0.9542298416914309
4731000000.0 0.380661253914249 -0.9624571594865187
4734000000.0 0.3907253890393922 -0.9058482030803865
4738000000.0 0.4266808258925925 -0.9714416736883162
4741000000.0 0.3626364555103487 -0.9726299025676158
4744000000.0 0.35403936351695203 -0.9385933280684213
4747000000.0 0.34573495277458854 -0.8981439772901931
4750000000.0 0.40654468391658927 -0.9671785879114927
4753000000.0 0.4267878802615175 -0.9602720442633934
4756000000.0 0.3664456494881709 -0.9306053021705125
4759000000.0 0.3893543726789411 -0.9497125027512494
4762000000.0 0.3500877680222487 -0.9665592869249628
4766000000.0 0.3447774396865687 -0.9397591955083139
4769000000.0 0.37916172997017383 -0.9405031538435448
4772000000.0 0.38043355675720736 -0.9425913107817503
4775000000.0 0.3746297802120514 -1.0079140067261787
4778000000.0 0.3656103058498119 -0.9804896186421274
4781000000.0 0.37826525844693737 -0.935807963894867
4784000000.0 0.3936381525827032 -0.9295626912709875
4788000000.0 0.37210045963893024 -0.9789025702532527
4791000000.0 0.36299849756854885 -0.9243857796096396
4794000000.0 0.41755152512694127 -0.985689877089543
4797000000.0 0.35408395684816685 -0.9433842476854793
4800000000.0 0.35779354023595283 -0.9252065400869782
4803000000.0 0.3353147337823364 -0.9254673478748124
4806000000.0 0.3688959924880053 -0.9614447691054434
4809000000.0 0.3451951890742887 -0.958510053084466
4812000000.0 0.3482512595933155 -0.9497383399938897
4816000000.0 0.39783964612927103 -0.9046616983504665
4819000000.0 0.4061840864301691 -0.9479950058945591
4822000000.0 0.37629215096767565 -0.9860412803661862
4825000000.0 0.3959846176050571 -0.9581948779379108
4828000000.0 0.3600111245887951 -0.9454764272163024
4831000000.0 0.3368553945225138 -0.9858819683222931
4834000000.0 0.38352390249304014 -0.9531321141477378
4838000000.0 0.3549884220737624 -0.9677723629282772
4841000000.0 0.36058743168339974 -0.9338404881735634
4844000000.0 0.41143882338279414 -0.9359873687493949
4847000000.0 0.3992931239039347 -0.912725415894291
4850000000.0 0.3650781821810982 -0.9925091106904984
4853000000.0 0.34973414392519275 -0.9289251564956637
4856000000.0 0.3762046450419855 -0.9323345697221022
4859000000.0 0.3761873518356109 -1.0046190088003821
4862000000.0 0.3629234473445297 -0.9239618152902132
4866000000.0 0.365284986874477 -0.9649030318791328
4869000000.0 0.33462321196758016 -0.9573154359695859
4872000000.0 0.32536406693350034 -1.0105575677301293
4875000000.0 0.41596336956239455 -0.9799269450917653
4878000000.0 0.37440096498369596 -0.9604621850573918
4881000000.0 0.3754642684079199 -1.0172195836352917
4884000000.0 0.3752986922199694 -0.9479664234803789
4888000000.0 0.403911131020223 -0.942614615483989
4891000000.0 0.3993205765978081 -0.9576795051719887
4894000000.0 0.34507239440325765 -0.9436075359219513
4897000000.0 0.4039347930424014 -0.9442772927075471
4900000000.0 0.3702086914587107 -0.9497583996073482
4903000000.0 0.3893303900931927 -0.9806382345110662
4906000000.0 0.3695635447727291 -0.9722370323113818
4909000000.0 0.3636245075959812 -0.9806917484356069
4912000000.0 0.34849175643508173 -0.9713074265550549
4916000000.0 0.36693462146955513 -0.9684003217223579
4919000000.0 0.41647414228411106 -0.956771737718631
4922000000.0 0.3898669299023857 -0.9731623667269385
4925000000.0 0.3273608348724265 -0.9872785318429758
4928000000.0 0.41443207270682847 -0.9134616153416463
4931000000.0 0.3997800280810683 -0.9449645811480387
4934000000.0 0.3452610969748331 -0.9396906540469389
4938000000.0 0.33642251886174984 -0.9489362725409192
4941000000.0 0.36330826395164906 -0.9634113972784952
4944000000.0 0.3641921728338557 -0.8755545906801186
4947000000.0 0.37208068348062445 -0.9531659688262375
4950000000.0 0.3527399041892863 -0.9649650277359143
4953000000.0 0.3572252736613296 -1.025655995316807
4956000000.0 0.3667822751921077 -0.9653372115378505
4959000000.0 0.35039632799718545 -0.9500049639558092
4962000000.0 0.35952791602455364 -0.9579909583396751
4966000000.0 0.3742670510348125 -0.9811231371906157
4969000000.0 0.39152522108054655 -0.9808436985372222
4972000000.0 0.36736200306651956 -0.9564765941912199
4975000000.0 0.40549346071868386 -0.9790871466927776
4978000000.0 0.3513000496326981 -0.962723442072086
4981000000.0 0.34359254865719707 -0.9638580567287254
4984000000.0 0.3616112536558529 -0.9554260004688173
4988000000.0 0.3694967014403425 -0.9530751559941881
4991000000.0 0.424491090742383 -0.9629299198205845
4994000000.0 0.3918566233815201 -0.9602831810540777
4997000000.0 0.3209458669903769 -0.9676357165962697
5000000000.0 0.4275967682927948 -0.9589182296642561
5003000000.0 0.4193856656308749 -0.9697554241387994
5006000000.0 0.38815448934116603 -1.0064582727353006
5009000000.0 0.361293007826284 -0.9501467245045577
5012000000.0 0.36304088207565155 -0.9562819666022926
5016000000.0 0.4330462941836665 -1.0072734884128773
5019000000.0 0.32267810089681076 -0.9638391615599617
5022000000.0 0.3691941709012157 -0.9663232143733396
5025000000.0 0.39558557278559486 -1.041880978903073
5028000000.0 0.3607937205664841 -0.9770279351461122
5031000000.0 0.3628800303618956 -0.9836141943327643
5034000000.0 0.35604139955154607 -0.9753896182385333
5038000000.0 0.34543088543658734 -0.9418586037315775
5041000000.0 0.3734834824286211 -0.9545244948113436
5044000000.0 0.38932780579328036 -0.9071593211059595
5047000000.0 0.3918202841666114 -0.9667179842040832
5050000000.0 0.436764059101881 -0.9153651626511362
5053000000.0 0.37250660907933575 -0.959342516418933
5056000000.0 0.39248105397780403 -0.927562659081246
5059000000.0 0.4145070846312821 -0.9891464007883518
5062000000.0 0.35669260080403453 -1.020825992042765
5066000000.0 0.3822060170440131 -0.9732816728602947
5069000000.0 0.3655010242712561 -0.9746187125807917
5072000000.0 0.37873798432832717 -0.9516317324860715
5075000000.0 0.3655618932947897 -0.9545527752490022
5078000000.0 0.3588151423748812 -0.9668376990400938
5081000000.0 0.3390402339266784 -0.9491112467355611
5084000000.0 0.3908130489104331 -0.9575603824731708
5088000000.0 0.3622129458448744 -0.9406137732192832
5091000000.0 0.3441979319687959 -1.0158539476009647
5094000000.0 0.37772593958574374 -0.9661841418594286
5097000000.0 0.38192627802787016 -0.9097579432424641
5100000000.0 0.39825390342242006 -0.9374509011958467
5103000000.0 0.33026125762237885 -1.000812934006834
5106000000.0 0.360823891957049 -0.9921583375360679
5109000000.0 0.40771661941334775 -0.9416574271255949
5112000000.0 0.3960681802260081 -0.9772987681255318
5116000000.0 0.3234801062604749 -0.9392486642943312
5119000000.0 0.36071181453632023 -0.9833809047546094
5122000000.0 0.35730133042070217 -0.9462030887421561
5125000000.0 0.37479919556890556 -0.9381450584563398
5128000000.0 0.34949199494595723 -0.9788064917917068
5131000000.0 0.3855355671524232 -0.9448522719095643
5134000000.0 0.3904930790919649 -0.9128972857907615
5138000000.0 0.3431619362680124 -0.9671953551837715
5141000000.0 0.4119012962087415 -0.9661206391384491
5144000000.0 0.3801730200320212 -0.9250601741641135
5147000000.0 0.3685305808251596 -0.9955311127502334
5150000000.0 0.3765988258014096 -0.9521676779630015
5153000000.0 0.41400171908848504 -0.965922755289288
5156000000.0 0.3711803897035752 -0.9902416511950859
5159000000.0 0.4178463442812665 -0.9701906082970222
5162000000.0 0.3341933325729411 -0.9053063449433942
5166000000.0 0.4032351588792595 -0.990236902822716
5169000000.0 0.39749400722652234 -0.981782503637782
