! Created with skrf 1.8.0 (http://scikit-rf.org).
# Hz S RI R 50.0 
!freq ReS11 ImS11
4000000000.0 0.8299246749768926 -0.5466681850422705
4003000000.0 0.9138301518981173 -0.6328441533858551
4006000000.0 0.805076434773233 -0.6487070642797286
4009000000.0000005 0.8276957993454312 -0.618993371853537
4011999999.9999995 0.8479141608434941 -0.5780037445783555
4016000000.0 0.7827828499975946 -0.6531038337980923
4019000000.0 0.792623888631079 -0.625672424498801
4022000000.0000005 0.8584041113198606 -0.5426471649012479
4025000000.0000005 0.7883344144752851 -0.672296589191661
4027999999.9999995 0.7871603586021924 -0.6450319969372244
4030999999.9999995 0.7974835712491846 -0.5824701723937598
4034000000.0 0.8034761684565631 -0.6434197280566505
4038000000.0000005 0.8023328308479691 -0.6444319295093761
4041000000.0000005 0.8255476780274489 -0.6075331799713827
4043999999.9999995 0.8992613505616143 -0.6705503615460866
4046999999.9999995 0.9096987891839454 -0.6017086438549393
4050000000.0 0.8317452780927573 -0.6853589498937279
4053000000.0 0.7637893480670951 -0.6368660162846169
4056000000.0 0.7956733002919978 -0.6207417496466552
4059000000.0 0.812672923529826 -0.6048069951091389
4062000000.0000005 0.7648702664416933 -0.656667400194092
4066000000.0 0.7381406336681047 -0.6159677855562105
4069000000.0 0.8135387272666199 -0.7109072261091353
4072000000.0 0.875769877861978 -0.5542431497398782
4075000000.0 0.8801658815892439 -0.5999057666814741
4078000000.0000005 0.8436087303756301 -0.6452298951234451
4081000000.0000005 0.935642269054936 -0.5505418043661681
4083999999.9999995 0.7929131155778513 -0.6310945100675524
4088000000.0 0.8475333090885027 -0.562426008104446
4091000000.0 0.8958125576953 -0.642755367962562
4094000000.0000005 0.825800024180483 -0.6245939596912635
4097000000.0000005 0.8135512947294017 -0.6264936492150504
4099999999.9999995 0.8082763449871367 -0.638804553243417
4102999999.9999995 0.8769241055614442 -0.620129749482613
4106000000.0 0.8180801397069133 -0.6210336871974148
4109000000.0 0.830377781667178 -0.6539732262763335
4112000000.0 0.817086257727959 -0.5798405000786409
4115999999.9999995 0.8501324365475923 -0.6303824287600914
4119000000.0 0.7640624231193474 -0.5690275061912302
4122000000.0 0.8403579593482188 -0.7015125239655381
4125000000.0 0.865123026018157 -0.6835044524968596
4128000000.0 0.8028243355680251 -0.6110100201985336
4131000000.0 0.8053298768000122 -0.6244111227157919
4134000000.0000005 0.8296611138453367 -0.5775930044852622
4138000000.0 0.798383560156908 -0.6002661598816433
4141000000.0 0.7881777043983453 -0.6291084755162906
4144000000.0 0.8080930662874887 -0.5924835677705033
4147000000.0000005 0.7604929041216417 -0.6152183675425932
4150000000.0000005 0.8191061604118156 -0.5968519666217387
4152999999.9999995 0.8056618709072018 -0.5964668613742613
4155999999.9999995 0.8578305976388583 -0.5901522328846525
4159000000.0 0.8304812133124652 -0.6058931927407967
4162000000.0 0.8293336052765259 -0.6297809462479235
4166000000.0000005 0.812259962972038 -0.6523162996054949
4168999999.9999995 0.8015008164219497 -0.6549522586793635
4171999999.9999995 0.8307576911652346 -0.6092141561373714
4175000000.0 0.7991375014714577 -0.5949389758798788
4178000000.0 0.8183742564911249 -0.6317516483035698
4181000000.0 0.8318506290557163 -0.6174677243417355
4184000000.0 0.8390197880801449 -0.6337829306307027
4187999999.9999995 0.8030860500642697 -0.6306937242743996
4191000000.0 0.8548066434146211 -0.5617050620394024
4194000000.0 0.7784185146897074 -0.5976864980892601
4197000000.0 0.8459298737979865 -0.5992544131988615
4200000000.0 0.8253218794909446 -0.587271372353479
4203000000.0000005 0.8346510660596164 -0.579224962536307
4206000000.0000005 0.8023786218669187 -0.6161920906802326
4208999999.9999995 0.8549869780809792 -0.5810103758720359
4211999999.9999995 0.83491329226034 -0.6403746892347497
4216000000.0 0.8086646354630678 -0.6213221579024488
4219000000.0000005 0.8329009669913514 -0.5959225077413028
4222000000.0000005 0.8276985998128401 -0.6131828229527219
4224999999.9999995 0.8233852058932416 -0.5575990769431954
4227999999.9999995 0.8478711462164984 -0.6139243372658737
4231000000.0 0.7996377343426236 -0.6267195628661386
4234000000.0 0.8344954133386109 -0.5944572565103148
4238000000.0000005 0.8084179090168817 -0.6075784895772969
4240999999.9999995 0.8317721032739344 -0.5991841118321969
4244000000.0 0.8445664725287947 -0.5915712505393987
4247000000.0 0.8546987959009213 -0.6145152470433772
4250000000.0 0.8015327425154488 -0.6055545012148984
4253000000.0 0.8163445121163426 -0.5770534277397024
4256000000.0 0.8111139956629727 -0.6135750326916319
4259000000.0000005 0.8195991511126357 -0.5971083875312635
4261999999.9999995 0.8159345413662749 -0.630842381169325
4266000000.0 0.7987870265614132 -0.6301439135436038
4269000000.0 0.8249462227102973 -0.6132530513344956
4272000000.0000005 0.7887898607177648 -0.6224849687867499
4275000000.0000005 0.8229351025077718 -0.6153505343900606
4277999999.9999995 0.7925614420633904 -0.6159704773666881
4280999999.9999995 0.8232879092317709 -0.5943478962130725
4284000000.0 0.8084505645805264 -0.6339150690879544
4288000000.0000005 0.8242608626260222 -0.6061326729860025
4291000000.0000005 0.796499699171158 -0.5734404891683106
4293999999.9999995 0.8053774120802075 -0.5872344397563376
4297000000.0 0.7936082212589748 -0.5891937163079554
4300000000.0 0.8075300607776653 -0.5946615061503255
4303000000.0 0.792406795572272 -0.6132269827001939
4306000000.0 0.8353868540647589 -0.5940467054871507
4309000000.0 0.8200638954644517 -0.629643624113319
4312000000.0 0.8315382948406291 -0.625003145978291
4316000000.0 0.8341021977458404 -0.5882800158893388
4319000000.0 0.8222932916696534 -0.6050452758704575
4322000000.0 0.7805577832783053 -0.5994078924789039
4325000000.0 0.7968939774250767 -0.5997747740169743
4328000000.0 0.8142789340565135 -0.586617298794712
4331000000.0 0.7940844763859745 -0.6283582716272151
4334000000.0 0.8119898299226405 -0.6027396369598295
4338000000.0 0.8281487501602307 -0.5578955174485892
4341000000.0 0.8544598633452936 -0.6115695375477757
4344000000.0 0.8407160504074407 -0.5908349539381889
4347000000.0 0.8041558762799936 -0.6110334212852206
4350000000.0 0.7738572657224131 -0.6008151822510424
4353000000.0 0.8051739682540734 -0.5875897784285393
4356000000.0 0.801850570722344 -0.5902159831173963
4359000000.0 0.7911778329505712 -0.5839930791518626
4362000000.0 0.7707882201855483 -0.6423575558794657
4366000000.0 0.8305490799637415 -0.624368902184494
4369000000.0 0.7540966708160654 -0.6099257618164908
4372000000.0 0.7549486376708855 -0.627266937194713
4375000000.0 0.8151376783707848 -0.582802061662915
4378000000.0 0.7907038642277154 -0.5815095900799211
4381000000.0 0.8110452843637411 -0.5945094116457555
4384000000.0 0.8331244988727202 -0.6358550870847632
4388000000.0 0.8140347622873253 -0.6173655420943125
4391000000.0 0.8036914137802476 -0.6081527103453015
4394000000.0 0.7992336402923478 -0.5899601361722601
4397000000.0 0.810258211113567 -0.6075435203013116
4400000000.0 0.8275803065158908 -0.641901250253688
4403000000.0 0.8158711336781778 -0.6152945257436552
4406000000.0 0.7653860746000976 -0.6300203213659943
4409000000.0 0.8075845015026097 -0.6349947798683822
4412000000.0 0.7603283729581511 -0.6301743932952496
4416000000.0 0.7912372243177049 -0.6084683891979906
4419000000.0 0.8014923888506804 -0.6125586397524967
4422000000.0 0.809471382470209 -0.5877033118561041
4425000000.0 0.8360183816135278 -0.5854641330817049
4428000000.0 0.7901770172358715 -0.6155375216459353
4431000000.0 0.8348896710584347 -0.596017781506833
4434000000.0 0.7898046696491533 -0.6020861712047133
4438000000.0 0.8302096244763426 -0.6214776313698013
4441000000.0 0.7942759114546812 -0.6113047856616126
4444000000.0 0.7817003407349251 -0.6048047604581511
4447000000.0 0.7687504170702332 -0.6268815006483814
4450000000.0 0.8054477842656471 -0.600686211483803
4453000000.0 0.828391217821819 -0.6213102671420502
4456000000.0 0.7725585302842229 -0.6033908683934788
4459000000.0 0.7545291589751763 -0.5911159220573639
4462000000.0 0.8569284424609745 -0.6396179146381774
4466000000.0 0.8331889574360577 -0.6380070056763036
4469000000.0 0.8205460428089014 -0.6128657283498746
4472000000.0 0.8002811390140312 -0.672396834509847
4475000000.0 0.7931858820025982 -0.5979454791812027
4478000000.0 0.8351802243716487 -0.6444221801817605
4481000000.0 0.7688194590581356 -0.6152158031375786
4484000000.0 0.7686507622262755 -0.6350717977554197
4488000000.0 0.7692436878658762 -0.6299051126676402
4491000000.0 0.7834834914439206 -0.6391444983543627
4494000000.0 0.7959756329769634 -0.6040655543290637
4497000000.0 0.8124748749006734 -0.6065525377390638
4500000000.0 0.7845697909065849 -0.6174379009906807
4503000000.0 0.8078744290058638 -0.6331858124388483
4506000000.0 0.7874922854284967 -0.6192849218029005
4509000000.0 0.7890455561331898 -0.6032579599272598
4512000000.0 0.778765866512752 -0.6290314860255486
4516000000.0 0.8198651022307921 -0.6129292179417621
4519000000.0 0.771677416868263 -0.5877939150252685
4522000000.0 0.7940093739234602 -0.6284376645734253
4525000000.0 0.8023763673682294 -0.5703756491055428
4528000000.0 0.8262487707846373 -0.6221764214467086
4531000000.0 0.8163798673217557 -0.6036877781622622
4534000000.0 0.775932912934635 -0.6019221715216562
4538000000.0 0.7979565098355564 -0.6001500900615362
4541000000.0 0.7530390780839975 -0.6387780714244312
4544000000.0 0.7965631181661313 -0.5938410596577659
4547000000.0 0.8079067311581254 -0.5838382356942547
4550000000.0 0.7821912170654333 -0.6341357283396645
4553000000.0 0.7854374699062596 -0.6018877997424217
4556000000.0 0.754562908936111 -0.6193130837345737
4559000000.0 0.7847093266515539 -0.6212803672091661
4562000000.0 0.812677564743321 -0.6166376948471017
4566000000.0 0.7909706248188251 -0.6329757844023385
4569000000.0 0.7492314595237521 -0.6116624599484388
4572000000.0 0.7865264347585293 -0.614328352747985
4575000000.0 0.7788602773011917 -0.6356014978666409
4578000000.0 0.8178763918710894 -0.631927882680811
4581000000.0 0.7886219530020101 -0.6384857156790573
4584000000.0 0.7822814401866198 -0.6295213139492449
4588000000.0 0.8122509600400205 -0.6192866810343727
4591000000.0 0.799751135186495 -0.5946862276028366
4594000000.0 0.7790917133443803 -0.6250207907599943
4597000000.0 0.7831904057450659 -0.6414807407734302
4600000000.0 0.7497944017817553 -0.6429143239589501
4603000000.0 0.7580966296815782 -0.6383227892062682
4606000000.0 0.775109773616157 -0.6394198289725953
4609000000.0 0.7739465413111385 -0.6549950227225145
4612000000.0 0.8003932121232812 -0.6419852006135247
4616000000.0 0.767181890091702 -0.6291886647138122
4619000000.0 0.7888874844276983 -0.5952364895697323
4622000000.0 0.7984887229167548 -0.6037550088824934
4625000000.0 0.7426566551792646 -0.6205626746939583
4628000000.0 0.7726881847237931 -0.612964522468761
4631000000.0 0.7544576659055932 -0.6228956861459707
4634000000.0 0.7844137000700744 -0.6097131547612549
4638000000.0 0.7655051548267808 -0.6348295770708546
4641000000.0 0.796982249778276 -0.6277780241047948
4644000000.0 0.7826973004775678 -0.615726930537527
4647000000.0 0.7793332227571576 -0.6359915583376524
4650000000.0 0.7568004244806279 -0.6561766892718097
4653000000.0 0.8038547752012455 -0.6475874449955169
4656000000.0 0.7477590168045639 -0.6642157002400969
4659000000.0 0.7624619571291397 -0.6307854591123039
4662000000.0 0.7788710620061602 -0.6276068607288227
4666000000.0 0.7775145920934112 -0.6257304418512943
4669000000.0 0.7999239574279579 -0.6188372427448875
4672000000.0 0.7499459261715121 -0.6627489003358739
4675000000.0 0.7352320414524594 -0.6500952586647524
4678000000.0 0.7696850219073373 -0.6401874659149402
4681000000.0 0.7799713683290714 -0.6753965900774069
4684000000.0 0.7326680493094224 -0.6566095248731986
4688000000.0 0.7525768252678667 -0.6330420968496161
4691000000.0 0.7478604835612929 -0.6209063882459305
4694000000.0 0.7578455760421882 -0.6604717105394933
4697000000.0 0.7299865135643044 -0.6441600613947888
4700000000.0 0.7778729241091177 -0.6204035432729668
4703000000.0 0.7618505668626113 -0.6370539885624307
4706000000.0 0.7921911715926785 -0.6614740627493908
4709000000.0 0.7604888143619579 -0.6508941499945683
4712000000.0 0.7625001879450517 -0.660343672456666
4716000000.0 0.764410976637525 -0.6244430993358341
4719000000.0 0.7795741245260605 -0.6540610737832369
4722000000.0 0.7773383313632292 -0.6493405650484277
4725000000.0 0.7556262903253516 -0.6799661923650497
4728000000.0 0.7579336883839402 -0.6580190157027186
4731000000.0 0.7791619305521483 -0.6520044038761614
4734000000.0 0.790765416621162 -0.6236404527086915
4738000000.0 0.7747794079429878 -0.6518995615498078
4741000000.0 0.7670748164569443 -0.6754133245699757
4744000000.0 0.7370752950265846 -0.6859013495126904
4747000000.0 0.7718419714275614 -0.6473030677575162
4750000000.0 0.7487838634392956 -0.6396557014770539
4753000000.0 0.7755695868412452 -0.6741262815698116
4756000000.0 0.7592883777675686 -0.6538272756964962
4759000000.0 0.7918745446469195 -0.6503673273120844
4762000000.0 0.7517469343937007 -0.6600668795914004
4766000000.0 0.7546957589780667 -0.6341891129160663
4769000000.0 0.7534910546752207 -0.6941215222645193
4772000000.0 0.767279129867652 -0.6821010684909392
4775000000.0 0.7811811572921438 -0.6879365181647272
4778000000.0 0.7591638007831609 -0.6496709030262602
4781000000.0 0.7487233104598269 -0.6329569896215358
4784000000.0 0.7817111031357358 -0.6271105283202729
4788000000.0 0.7779611528849535 -0.658479434193553
4791000000.0 0.7557441995039546 -0.6491280284845387
4794000000.0 0.7795789960267705 -0.6582338114001617
4797000000.0 0.7486098804024284 -0.6847765865785634
4800000000.0 0.7497352121780384 -0.6548671713839068
4803000000.0 0.7365395287720009 -0.6689264447304524
4806000000.0 0.7817210317952388 -0.6524450458792788
4809000000.0 0.7380674022773359 -0.6846509476567741
4812000000.0 0.7370960287259392 -0.6830005603806217
4816000000.0 0.7699525588297486 -0.6442061112461206
4819000000.0 0.7958666879298137 -0.6806923923496895
4822000000.0 0.7878385259156807 -0.6689822254407746
4825000000.0 0.7678109796289376 -0.6720002623723961
4828000000.0 0.747837067826751 -0.663307798580132
4831000000.0 0.735377165131168 -0.6974884957948848
4834000000.0 0.7772674188488186 -0.6750929647859744
4838000000.0 0.7641365492447001 -0.6694317530585506
4841000000.0 0.7624767208488946 -0.6660089534966379
4844000000.0 0.7838092296610122 -0.6523295854869179
4847000000.0 0.7703531066399583 -0.6436755655355337
4850000000.0 0.7576779040275654 -0.6846323051157637
4853000000.0 0.7477845442628022 -0.6510566985040807
4856000000.0 0.7446778784934611 -0.6817591259098364
4859000000.0 0.7689833211036271 -0.6912574594126988
4862000000.0 0.7582574216746722 -0.6504152110880066
4866000000.0 0.7780053569930077 -0.687209942829501
4869000000.0 0.7589076240225512 -0.6875932182301164
4872000000.0 0.7683136947004934 -0.7157872827154875
4875000000.0 0.8199898856398263 -0.6685117543827116
4878000000.0 0.7422186520397116 -0.7181650422931883
4881000000.0 0.7637122105180835 -0.7365453504711416
4884000000.0 0.775884020085162 -0.6502557896527597
4888000000.0 0.8020143541648153 -0.6491144491317875
4891000000.0 0.7882748825019719 -0.6539602744061802
4894000000.0 0.7351036809356645 -0.6779088011556474
4897000000.0 0.775635786811496 -0.6445183871851764
4900000000.0 0.7575421836359035 -0.6940485066636093
4903000000.0 0.7919404691589269 -0.6902759476684899
4906000000.0 0.776502674392245 -0.7095655421368458
4909000000.0 0.7583700994544135 -0.6879360096625051
4912000000.0 0.7727936129778563 -0.6992342091549116
4916000000.0 0.7884785730447667 -0.7041638514330679
4919000000.0 0.7852622834448523 -0.6963710134306018
4922000000.0 0.7790170615081315 -0.656296532538021
4925000000.0 0.7509922875837881 -0.6974058060506465
4928000000.0 0.7808457919358485 -0.6284053208375205
4931000000.0 0.8066668672340738 -0.6573283199919684
4934000000.0 0.7564561770497551 -0.6390924496328915
4938000000.0 0.7323791264569535 -0.672336116701927
4941000000.0 0.7575450971832719 -0.6564676969163438
4944000000.0 0.74867185866408 -0.6502112692454578
4947000000.0 0.7288552160756706 -0.6670583655828571
4950000000.0 0.7471158851097427 -0.6682152115732701
4953000000.0 0.7899022306718684 -0.7251097933125844
4956000000.0 0.7598261209058753 -0.6717136485948864
4959000000.0 0.7178763130642967 -0.678648068919669
4962000000.0 0.7694603920115738 -0.7157891830521491
4966000000.0 0.8115659109374265 -0.6604499360616506
4969000000.0 0.7784901843515712 -0.6838269940976128
4972000000.0 0.7676683368369299 -0.7117226823260394
4975000000.0 0.7533430251700957 -0.6443429865713538
4978000000.0 0.7615247085755987 -0.693354805921782
4981000000.0 0.7765473958275093 -0.6834390202487851
4984000000.0 0.746718325444693 -0.6248380133756284
4988000000.0 0.7815716065911273 -0.6413827932247517
4991000000.0 0.8484695140199118 -0.6635766782198027
4994000000.0 0.7920539714805289 -0.6671779599601103
4997000000.0 0.7557192486327403 -0.7028423111657497
5000000000.0 0.8016438133273041 -0.6765555430595893
5003000000.0 0.7923267640859153 -0.6822428265016107
5006000000.0 0.801181488046964 -0.6974743613761082
5009000000.0 0.7994131831127317 -0.6519550188484532
5012000000.0 0.7763290201663579 -0.6777442267358718
5016000000.0 0.8194521139063333 -0.6485212731514731
5019000000.0 0.7548095993832876 -0.6626178075343525
5022000000.0 0.776192428827084 -0.6580168143151512
5025000000.0 0.8399503292210405 -0.7318667180565853
5028000000.0 0.7697254647553983 -0.7089802281763031
5031000000.0 0.7646944148642367 -0.6807212579144984
5034000000.0 0.783814647010194 -0.733349545566414
5038000000.0 0.7378600288055932 -0.6632140520496211
5041000000.0 0.8011946845967608 -0.6200336896336872
5044000000.0 0.785764211502544 -0.6101277948521445
5047000000.0 0.7965317538502392 -0.6647511613257165
5050000000.0 0.8436968837152374 -0.6063864294720067
5053000000.0 0.8223841750931746 -0.683495120611113
5056000000.0 0.819706974262882 -0.6260412295345451
5059000000.0 0.829740941851768 -0.6132025486891755
5062000000.0 0.7880959276935725 -0.7305561628164489
5066000000.0 0.8046168093637767 -0.6425250690482064
5069000000.0 0.7736978219178055 -0.674293645565023
5072000000.0 0.7268411952892415 -0.6548016685218407
5075000000.0 0.7948587882169904 -0.649938599198743
5078000000.0 0.7579660514652452 -0.7324830830429657
5081000000.0 0.7419364683140212 -0.6619486268453677
5084000000.0 0.8041282580134484 -0.6989900201669905
5088000000.0 0.783919425424982 -0.6443573151921282
5091000000.0 0.7924656073407567 -0.7301196551555209
5094000000.0 0.7827667360760319 -0.6263125533409868
5097000000.0 0.7861457624368003 -0.6479832545817278
5100000000.0 0.7521193103002063 -0.6738855640169089
5103000000.0 0.7743778391518037 -0.648588831406964
5106000000.0 0.8111850195449481 -0.6701564843360421
5109000000.0 0.8060052873788257 -0.5919532643554062
5112000000.0 0.8112844545291418 -0.6742693737501445
5116000000.0 0.7536111036032676 -0.6417430003470831
5119000000.0 0.8015409588546476 -0.6866872748323993
5122000000.0 0.7903003470337165 -0.6362644436914882
5125000000.0 0.7641217510641733 -0.6591932549041721
5128000000.0 0.7831157048668159 -0.6607265553243017
5131000000.0 0.7548272070460819 -0.6208403947539428
5134000000.0 0.7959110265099891 -0.643934518558171
5138000000.0 0.8252576411303504 -0.6494343860751302
5141000000.0 0.8434798982525212 -0.6139642889336381
5144000000.0 0.8713951820848301 -0.6476506736327107
5147000000.0 0.8462293609957251 -0.6609885054279141
5150000000.0 0.8100268740019043 -0.6291751970167522
5153000000.0 0.7880682381389151 -0.6733570611493602
5156000000.0 0.8340233997688902 -0.7250943134385479
5159000000.0 0.797558823999572 -0.633261765747444
5162000000.0 0.7563147445510388 -0.6352490034647568
5166000000.0 0.7936100095426555 -0.7292323820511664
5169000000.0 0.8075768796778133 -0.6617496658607909
5172000000.0 0.765098535717912 -0.6363442947120668
5175000000.0 0.8685956116212151 -0.6499947495993561
5178000000.0 0.7939872862781541 -0.6542621980875141
5181000000.0 0.8193129747614487 -0.6642181968851453
