! Created with skrf 1.8.0 (http://scikit-rf.org).
# Hz S RI R 50.0 
!freq ReS11 ImS11
4000000000.0 0.5388484831614978 -0.8198475480625933
4003000000.0 0.5711139819949561 -0.8854240572561161
4006000000.0 0.5338848550251218 -0.8864890812576804
4009000000.0000005 0.5507142278527113 -0.853975497311563
4011999999.9999995 0.5836964223120527 -0.8247212794307982
4016000000.0 0.5378849978172167 -0.9128316873001772
4019000000.0 0.520302616482613 -0.8808179062029238
4022000000.0000005 0.6040530696860466 -0.7966221331767396
4025000000.0000005 0.5431250356617752 -0.9161822687228832
4027999999.9999995 0.5510251397501635 -0.8910286517064718
4030999999.9999995 0.5013330156287462 -0.831964987029102
4034000000.0 0.5521946206325763 -0.8552550589201228
4038000000.0000005 0.540582912871279 -0.9318638501514779
4041000000.0000005 0.5544891014512237 -0.9261953312103327
4043999999.9999995 0.5790596807558607 -0.9280607007187711
4046999999.9999995 0.5775387191129976 -0.8484119756938555
4050000000.0 0.5309511644007543 -0.9032777278878312
4053000000.0 0.4973720092383418 -0.8906827723619823
4056000000.0 0.5425536450957553 -0.848463923786624
4059000000.0 0.520428541129713 -0.837531904786371
4062000000.0000005 0.5387107821118066 -0.8530596960994261
4066000000.0 0.5055653964074696 -0.8278128379115347
4069000000.0 0.5651796016785947 -0.9558693108450752
4072000000.0 0.6112723333161058 -0.8420724011213457
4075000000.0 0.6221796129476653 -0.8680184600729973
4078000000.0000005 0.5708982053490872 -0.8448407067511265
4081000000.0000005 0.6070929781839574 -0.8613860177369651
4083999999.9999995 0.5389355057447447 -0.8510065736500636
4088000000.0 0.5826788638580381 -0.8416083592779513
4091000000.0 0.5936131281495256 -0.9478123503733712
4094000000.0000005 0.5694088126127809 -0.8652861414610092
4097000000.0000005 0.5324921781291289 -0.8874317716091442
4099999999.9999995 0.540190657293817 -0.8856953031934838
4102999999.9999995 0.5559932668912113 -0.8402125182090512
4106000000.0 0.5645144647240377 -0.8597141339825654
4109000000.0 0.5444234911432354 -0.8809991691461945
4112000000.0 0.5565063276214021 -0.8876570342763769
4115999999.9999995 0.5507219862017111 -0.8548905469798471
4119000000.0 0.5662322943462255 -0.9039673320436773
4122000000.0 0.5311766092677563 -0.8591579496044512
4125000000.0 0.5571886358534581 -0.8926414830472555
4128000000.0 0.5552557793066771 -0.8336919045335682
4131000000.0 0.5657963488435177 -0.856677559726424
4134000000.0000005 0.5603803691328487 -0.8561913530180916
4138000000.0 0.5260751893925764 -0.8508701820969871
4141000000.0 0.5166818126025132 -0.8371331604760003
4144000000.0 0.561744801586285 -0.8629730840018298
4147000000.0000005 0.5237261717924402 -0.8755109796721706
4150000000.0000005 0.5557521190380409 -0.8671993900511663
4152999999.9999995 0.5593607865109363 -0.8387388585781377
4155999999.9999995 0.5985127531540794 -0.8860359807508166
4159000000.0 0.5529945898182133 -0.821989401916771
4162000000.0 0.5390837746922843 -0.853018904754684
4166000000.0000005 0.5445677280708496 -0.8733198450775201
4168999999.9999995 0.5336622654260774 -0.8145675132039761
4171999999.9999995 0.5540678015883639 -0.8544373950865398
4175000000.0 0.5568487281910444 -0.860480408796457
4178000000.0 0.5671934237428011 -0.8954841081642625
4181000000.0 0.550067886476099 -0.8743557764116171
4184000000.0 0.5473464655952451 -0.8527892318596938
4187999999.9999995 0.5638542420222089 -0.8509396536510461
4191000000.0 0.5625604265743078 -0.8114495440562333
4194000000.0 0.5463871840444603 -0.8353030915995903
4197000000.0 0.5578953114895021 -0.8664350033061573
4200000000.0 0.5672111866176882 -0.843601097450157
4203000000.0000005 0.5554469368088568 -0.8440825236848445
4206000000.0000005 0.5669827782049544 -0.8677220814351801
4208999999.9999995 0.5571519720774383 -0.8639282603190084
4211999999.9999995 0.5317463754362795 -0.8606537221220618
4216000000.0 0.5639759535479553 -0.8435193836992515
4219000000.0000005 0.5694650134422083 -0.8545058991255577
4222000000.0000005 0.5539448596467416 -0.8570900973543356
4224999999.9999995 0.5580569062234011 -0.8429442432680343
4227999999.9999995 0.5725595897764504 -0.8536380437250154
4231000000.0 0.5580232670809147 -0.8631285473924922
4234000000.0 0.5717814723631363 -0.8594010266933656
4238000000.0000005 0.5209528474764211 -0.863265921236993
4240999999.9999995 0.5545620021028139 -0.8503979393991523
4244000000.0 0.5636343611942534 -0.8459939739795139
4247000000.0 0.5508226441571217 -0.8377970730034606
4250000000.0 0.5359084499688557 -0.8370113235329311
4253000000.0 0.5378714333958832 -0.8370816075505545
4256000000.0 0.5627561213358024 -0.8735581516618378
4259000000.0000005 0.529389257365049 -0.8328703003448186
4261999999.9999995 0.5260376322373093 -0.8724576812521269
4266000000.0 0.5477783768276385 -0.8826862733909806
4269000000.0 0.5638905876130611 -0.8479220899031098
4272000000.0000005 0.5605521154417828 -0.8513166633904093
4275000000.0000005 0.5485266673704393 -0.8564734224097336
4277999999.9999995 0.5786977734986751 -0.8548735757498706
4280999999.9999995 0.5690764402084134 -0.8473875169922716
4284000000.0 0.5242313671841669 -0.8737019576934961
4288000000.0000005 0.58268013701812 -0.8366105456988951
4291000000.0000005 0.5366093008641037 -0.8277902190134917
4293999999.9999995 0.5458337252504843 -0.8320570887921231
4297000000.0 0.570494437817039 -0.8161884814428922
4300000000.0 0.5501460584624296 -0.8199169338002206
4303000000.0 0.5320863303001329 -0.8462845120370357
4306000000.0 0.581804991611315 -0.8292509818746362
4309000000.0 0.5651270899855236 -0.837368337344262
4312000000.0 0.5880342817243847 -0.8380986941269487
4316000000.0 0.5695728103477892 -0.8475602040394667
4319000000.0 0.5533719313292402 -0.8000423889556503
4322000000.0 0.5248843157765422 -0.8329495176194434
4325000000.0 0.5726981260417707 -0.8501389428383243
4328000000.0 0.5343791547815757 -0.835765395722552
4331000000.0 0.521501102138686 -0.8695110769253254
4334000000.0 0.5415473446731003 -0.8439875475007739
4338000000.0 0.5814074607048088 -0.8268118179470707
4341000000.0 0.5915800224450274 -0.8341758511792561
4344000000.0 0.5688425560762981 -0.8636892301507068
4347000000.0 0.5207778898558092 -0.8727069607688122
4350000000.0 0.5293803161873836 -0.8123892277344754
4353000000.0 0.5634002010875718 -0.8122565488206677
4356000000.0 0.5380225956848051 -0.850857819386428
4359000000.0 0.5294545890666362 -0.8050117015733289
4362000000.0 0.5138066135123763 -0.8823668057920304
4366000000.0 0.5396713249219178 -0.8653027368986465
4369000000.0 0.5408778985291809 -0.7961817230199497
4372000000.0 0.5151924495174461 -0.8748883667681867
4375000000.0 0.5567999388239186 -0.8348719708423337
4378000000.0 0.53119951330287 -0.8273325103636182
4381000000.0 0.5454974439853106 -0.8348425022973063
4384000000.0 0.5730819725285294 -0.9042782156393325
4388000000.0 0.546340258617174 -0.8181350631882649
4391000000.0 0.572369239693519 -0.8651242766096731
4394000000.0 0.5189365371159971 -0.8184245502626543
4397000000.0 0.5428247722114432 -0.8504082017742598
4400000000.0 0.5546945791517871 -0.8707604448542436
4403000000.0 0.5557965146529653 -0.8518075287387584
4406000000.0 0.5154122648453988 -0.8568954154015419
4409000000.0 0.5608000564901289 -0.8882911209456068
4412000000.0 0.4894260282075968 -0.8749798429443075
4416000000.0 0.5242193940480655 -0.8378189110232994
4419000000.0 0.5174575065550125 -0.8637469248368302
4422000000.0 0.5551501482633491 -0.8358292103545608
4425000000.0 0.5750193333246801 -0.8511668648976134
4428000000.0 0.5338080479841957 -0.8452774868837005
4431000000.0 0.5605267127702254 -0.8609834089525101
4434000000.0 0.5228323131078114 -0.8552066361632942
4438000000.0 0.5488345540589412 -0.8659070568407536
4441000000.0 0.5532231658358719 -0.8659768639252994
4444000000.0 0.5442903925706917 -0.829223631028921
4447000000.0 0.5312822754345932 -0.8592025638452376
4450000000.0 0.5504664622353621 -0.8437295516917764
4453000000.0 0.541369500321251 -0.8667682640730953
4456000000.0 0.5095502530173347 -0.8408244261688878
4459000000.0 0.49467525958607195 -0.8270531234527777
4462000000.0 0.5721853189714718 -0.8955223482065635
4466000000.0 0.5432220139428435 -0.8924383355270558
4469000000.0 0.5381745095264514 -0.849319107916001
4472000000.0 0.5298851251000771 -0.9048596078849427
4475000000.0 0.5228540493637117 -0.8318486363769692
4478000000.0 0.5382148392085437 -0.8921113529837073
4481000000.0 0.505282947884765 -0.8225197839480904
4484000000.0 0.49299204834424587 -0.8823416334932768
4488000000.0 0.5107848780709418 -0.8401351150837342
4491000000.0 0.5275535298337224 -0.8664017993927946
4494000000.0 0.5210282172880091 -0.85405839069123
4497000000.0 0.5321965439466116 -0.849247028064583
4500000000.0 0.5631161396663644 -0.8451566388169494
4503000000.0 0.5400405638608292 -0.8771357482044763
4506000000.0 0.5170201349643708 -0.8466540794308186
4509000000.0 0.5123937867190806 -0.8450963252834587
4512000000.0 0.5063843190261136 -0.8562456505273686
4516000000.0 0.5284828853414983 -0.8590881292729389
4519000000.0 0.5381562951278492 -0.8323558774744423
4522000000.0 0.5218972059769305 -0.8545335488263144
4525000000.0 0.5558138009265462 -0.834450793183237
4528000000.0 0.5310867371234278 -0.8648995340036296
4531000000.0 0.5327256857395983 -0.8407032960009866
4534000000.0 0.5123331088689155 -0.8621723503802827
4538000000.0 0.5355888649568552 -0.8643897347432025
4541000000.0 0.49515139260241187 -0.8836552422277741
4544000000.0 0.5163000913533858 -0.8374073256418841
4547000000.0 0.5396623447376456 -0.8327798237526669
4550000000.0 0.5122257744051145 -0.8737206583229643
4553000000.0 0.5223120127199361 -0.8664070927988297
4556000000.0 0.49507974496866347 -0.8658832017849469
4559000000.0 0.5193986159211421 -0.8587314491532906
4562000000.0 0.5309163289861026 -0.8461258949091333
4566000000.0 0.5210174715661842 -0.8690914958976137
4569000000.0 0.49820179717238866 -0.8547440094741896
4572000000.0 0.5195944984786312 -0.8436372414484927
4575000000.0 0.5225888722339618 -0.8769528854249511
4578000000.0 0.5419491822392317 -0.8706251816719478
4581000000.0 0.5092063768654143 -0.882104413121118
4584000000.0 0.503618622075714 -0.8503085452331607
4588000000.0 0.5333889625574407 -0.8547150126382529
4591000000.0 0.5438336701380873 -0.8564298707434648
4594000000.0 0.4906125327804632 -0.875182755836708
4597000000.0 0.5233757485839732 -0.8776227848785323
4600000000.0 0.4841158168647196 -0.8736420762038646
4603000000.0 0.5059373534983854 -0.8619796970385506
4606000000.0 0.5272003872523591 -0.87767561745479
4609000000.0 0.5006723713803707 -0.8867857211211816
4612000000.0 0.5138254712585224 -0.8731953944470854
4616000000.0 0.5029210623631853 -0.870183981932603
4619000000.0 0.5182247326835194 -0.8706603892591996
4622000000.0 0.5133836957190404 -0.8614139873559907
4625000000.0 0.47942342162038415 -0.853518903115785
4628000000.0 0.5210954773213582 -0.8522653600980845
4631000000.0 0.4949927087548204 -0.8604977888341818
4634000000.0 0.5061877920283434 -0.8554949467324147
4638000000.0 0.511861641198504 -0.8748372205699382
4641000000.0 0.5080279712160806 -0.8701348975477843
4644000000.0 0.514991412353412 -0.8630841289577841
4647000000.0 0.5036029968763299 -0.8658190217531139
4650000000.0 0.49287900274278984 -0.8639412385666064
4653000000.0 0.5430292416638975 -0.8705093548183284
4656000000.0 0.48852282199683295 -0.8872394548658143
4659000000.0 0.5040466871949179 -0.8671742374121902
4662000000.0 0.5035203610938419 -0.8865365804759009
4666000000.0 0.49485384761722717 -0.8733417883993507
4669000000.0 0.5130929070616662 -0.8615788376547088
4672000000.0 0.5095715431703117 -0.9003686530655706
4675000000.0 0.5027981586990858 -0.8757015652452724
4678000000.0 0.4980911244339567 -0.8606692611054582
4681000000.0 0.4913502374812478 -0.8955196372589734
4684000000.0 0.4818005893083027 -0.8916195328921125
4688000000.0 0.49319650482807137 -0.8856329791434671
4691000000.0 0.5212521957742788 -0.8704165940623275
4694000000.0 0.49589680091540284 -0.8619827126745924
4697000000.0 0.4605027811959635 -0.8676663569292261
4700000000.0 0.5260655744895125 -0.8689577902227392
4703000000.0 0.5162660693590816 -0.8408951398472763
4706000000.0 0.4881787683191729 -0.8722477516008792
4709000000.0 0.4874736336717155 -0.8498933606254354
4712000000.0 0.5202942724291703 -0.855888954829606
4716000000.0 0.521593707248629 -0.8828067037861469
4719000000.0 0.491501726298264 -0.8865233579275744
4722000000.0 0.5401789620355154 -0.8657589576705086
4725000000.0 0.48501085730198373 -0.8616441811922452
4728000000.0 0.46465705763436344 -0.880405800660911
4731000000.0 0.5128298593935492 -0.9106953072983647
4734000000.0 0.5073731824497943 -0.8391950794338199
4738000000.0 0.5194429951908694 -0.8941236176158686
4741000000.0 0.5310927046492504 -0.9109930958019725
4744000000.0 0.5060228025399311 -0.8809714418068082
4747000000.0 0.49829973753230256 -0.8571717439988371
4750000000.0 0.535303631320779 -0.8768768532227481
4753000000.0 0.5118167780572295 -0.8901653201295924
4756000000.0 0.4961438834438939 -0.8867252034124017
4759000000.0 0.5059218632181965 -0.8865518896017739
4762000000.0 0.5100854158107642 -0.87842051151553
4766000000.0 0.4859718104349315 -0.8805039681575851
4769000000.0 0.5244613866001516 -0.8767119604617117
4772000000.0 0.5221233195206876 -0.8892859633113849
4775000000.0 0.5192220446784261 -0.930645716274671
4778000000.0 0.5015515946620472 -0.9099771166255545
4781000000.0 0.5261956250680389 -0.8766915187882803
4784000000.0 0.5181851340392853 -0.8837017349544914
4788000000.0 0.5045418669361862 -0.9111319743469749
4791000000.0 0.5092995815745855 -0.8812181896534954
4794000000.0 0.5338157790549862 -0.8958996240391321
4797000000.0 0.4858990432417686 -0.8574502478467028
4800000000.0 0.5029577495534511 -0.8558787285322316
4803000000.0 0.47277295042261824 -0.8759267634901713
4806000000.0 0.5335532284380405 -0.9105762458938309
4809000000.0 0.47433640793121 -0.8997370957571861
4812000000.0 0.4584053251465259 -0.8826690540293445
4816000000.0 0.5447040119830546 -0.8597594596626269
4819000000.0 0.5346267475448248 -0.9195793608365469
4822000000.0 0.5285766260385776 -0.9081942519391313
4825000000.0 0.5320226986228962 -0.8879664065051406
4828000000.0 0.5045318894883579 -0.8672903817622601
4831000000.0 0.47938316335153813 -0.9429467929557471
4834000000.0 0.5136018850663168 -0.8780756061579084
4838000000.0 0.5005604045724001 -0.9156154179076152
4841000000.0 0.47530422559897856 -0.8889515956479006
4844000000.0 0.5295434908888237 -0.8830333064334639
4847000000.0 0.5150106844473116 -0.857605329034584
4850000000.0 0.5165222476663195 -0.9135200506429036
4853000000.0 0.5035569454966724 -0.8603450576625878
4856000000.0 0.4936099981518918 -0.866945234881812
4859000000.0 0.5054450475403874 -0.9384416885150307
4862000000.0 0.5197125016201164 -0.859524386183623
4866000000.0 0.49078358774588027 -0.9124617745531048
4869000000.0 0.5006556239727185 -0.8944703623173903
4872000000.0 0.48096066687828276 -0.9242128703176883
4875000000.0 0.5587266725615795 -0.8963663528650083
4878000000.0 0.49970501245392973 -0.8910453234362128
4881000000.0 0.4874346232450824 -0.949533733450873
4884000000.0 0.5283962214129364 -0.9036615676363051
4888000000.0 0.5423167262044298 -0.8889564594428538
4891000000.0 0.531277170933049 -0.8909072401360405
4894000000.0 0.47370302639449713 -0.8941996698725724
4897000000.0 0.5451188259890363 -0.8764429408092367
4900000000.0 0.5317145881546755 -0.8910754910831667
4903000000.0 0.5131644807466966 -0.9206034518722266
4906000000.0 0.5244689821406866 -0.9225743679906124
4909000000.0 0.5405791952070034 -0.9188633481769385
4912000000.0 0.5392503640314484 -0.915590550143432
4916000000.0 0.5562868046789059 -0.9083535518526189
4919000000.0 0.5481211185914767 -0.9029764864877462
4922000000.0 0.5398934624438999 -0.8649968371884951
4925000000.0 0.5090683300415905 -0.8678555584428915
4928000000.0 0.5596603816950579 -0.836496477219625
4931000000.0 0.5329762795868028 -0.9255098181503844
4934000000.0 0.4818378465743741 -0.8841906057800573
4938000000.0 0.46899553912519454 -0.9208777133034031
4941000000.0 0.49920485336388215 -0.8752515992540904
4944000000.0 0.5133365212413735 -0.8135265441396289
4947000000.0 0.4898540991125211 -0.8933258547801505
4950000000.0 0.5142085351156671 -0.865248825056982
4953000000.0 0.49409865307276934 -0.9320507983169843
4956000000.0 0.5195926736034495 -0.9002878997413533
4959000000.0 0.4555020610985629 -0.8915658232161678
4962000000.0 0.514367858791765 -0.908411585467028
4966000000.0 0.5528261783202052 -0.923769298169572
4969000000.0 0.5678515227932921 -0.8795783777057783
4972000000.0 0.4886271037712719 -0.9283876529557227
4975000000.0 0.5274622747530409 -0.8581207132136761
4978000000.0 0.5085615743742882 -0.8914480031489862
4981000000.0 0.4875599081255433 -0.9044735189405244
4984000000.0 0.5045575113766899 -0.8486085926083762
4988000000.0 0.528839868387128 -0.8664118102757733
4991000000.0 0.5776875663299565 -0.8525140735017418
4994000000.0 0.5394786915525134 -0.8505780112639685
4997000000.0 0.48974030344182035 -0.9090217218204119
5000000000.0 0.5516927121779963 -0.8799020919993136
5003000000.0 0.5709021397748125 -0.9094690478137828
5006000000.0 0.5548259410554205 -0.9466559835687801
5009000000.0 0.5363456380804239 -0.9080746701083992
5012000000.0 0.522746117676167 -0.8799436177508162
5016000000.0 0.5706635090561707 -0.8841883222370928
5019000000.0 0.4903303671042732 -0.8704140150691558
5022000000.0 0.5228727976451676 -0.8808715526706528
5025000000.0 0.5343131091963063 -0.9677520912341406
5028000000.0 0.5209490448853491 -0.9011939934568695
5031000000.0 0.5040192431246501 -0.8681903684363337
5034000000.0 0.5262155942407158 -0.9309148096444888
5038000000.0 0.5068580181589991 -0.8628055791315751
5041000000.0 0.5708214684039958 -0.8842927313250872
5044000000.0 0.5470576168993976 -0.8451577718156493
5047000000.0 0.5558243994639276 -0.8920947191172584
5050000000.0 0.5888167921115839 -0.8313351386227772
5053000000.0 0.5285652241482437 -0.9590706707609984
5056000000.0 0.5893855044312947 -0.8626425913699096
5059000000.0 0.5756766224150306 -0.8552881093427709
5062000000.0 0.5176907076059065 -0.9178708917951699
5066000000.0 0.5530030631572896 -0.8592786939101529
5069000000.0 0.5399829210052599 -0.9199025089903836
5072000000.0 0.5153073051568786 -0.8784533613588963
5075000000.0 0.5666903005808509 -0.8902985082570499
5078000000.0 0.5226096884831455 -0.8873015540984105
5081000000.0 0.4582293035923271 -0.8683359812155925
5084000000.0 0.5424520661258422 -0.9115449104012161
5088000000.0 0.5445844754411294 -0.8813746725331701
5091000000.0 0.5176168538124695 -0.9487458149484692
5094000000.0 0.5165081850605037 -0.8956218711102986
5097000000.0 0.5931142672439678 -0.8621755557414961
5100000000.0 0.5452252685289112 -0.8445435956035167
5103000000.0 0.5007333473200175 -0.934900307272673
5106000000.0 0.578961131030749 -0.9417538682441974
5109000000.0 0.5572572222835728 -0.8556770151656857
5112000000.0 0.5658325950752954 -0.8932321389862925
5116000000.0 0.549352213179162 -0.8162333656622625
5119000000.0 0.571584073872566 -0.9228488915584238
5122000000.0 0.526804090221634 -0.8454785944827543
5125000000.0 0.5741250172108225 -0.8442742256198342
5128000000.0 0.5551225736438631 -0.8587542106215249
5131000000.0 0.5755224825767559 -0.8766672820245491
5134000000.0 0.5697624648537992 -0.8797675325812674
5138000000.0 0.565624861322274 -0.8498167687830966
5141000000.0 0.5982232614590899 -0.8541445814397234
5144000000.0 0.5845020298898925 -0.8458055019412287
5147000000.0 0.5881154632121289 -0.8649640107968211
5150000000.0 0.575021309008453 -0.8735470047724566
5153000000.0 0.5642569541037121 -0.8763140534793725
5156000000.0 0.6167161073117712 -0.8259290094878657
5159000000.0 0.6181750306924954 -0.8905739949434555
5162000000.0 0.5403254911848436 -0.8396286196546585
5166000000.0 0.5595009545361047 -0.9218499323080533
5169000000.0 0.585003995188678 -0.8848411190508004
5172000000.0 0.5526365692705895 -0.8665510951449953
5175000000.0 0.5906370873202774 -0.8944907805667877
5178000000.0 0.5577117274848833 -0.8968062299105186
