! Created with skrf 1.8.0 (http://scikit-rf.org).
# Hz S RI R 50.0 
!freq ReS11 ImS11
4000000000.0 0.5152815238579279 -0.8231054159887681
4003000000.0 0.5297361608158084 -0.9261332775648997
4006000000.0 0.515997274839823 -0.8835621326616987
4009000000.0000005 0.5812109018192324 -0.8946985747079224
4011999999.9999995 0.5990325508356864 -0.8818834748821589
4016000000.0 0.5593132592829587 -0.9285750697855348
4019000000.0 0.5562232870000421 -0.8674272799555193
4022000000.0000005 0.6446344692289663 -0.8743603025393885
4025000000.0000005 0.49689889487970884 -0.884773414243645
4027999999.9999995 0.5593706374619704 -0.8905264026703611
4030999999.9999995 0.5369348566795147 -0.8301823657766125
4034000000.0 0.5263466521257321 -0.8601797899381682
4038000000.0000005 0.5704192126603336 -0.9164227692569196
4041000000.0000005 0.5279184552209039 -0.8763758130824375
4043999999.9999995 0.5704506360300363 -0.948409136233934
4046999999.9999995 0.5961101738547717 -0.8989756192064133
4050000000.0 0.5677941584382398 -0.895095057127872
4053000000.0 0.5447366517100383 -0.8341980854577586
4056000000.0 0.514171480013231 -0.8879414176014596
4059000000.0 0.5665430158878565 -0.8383323575759705
4062000000.0000005 0.5340024490316959 -0.8944541412160356
4066000000.0 0.5616714849243443 -0.85100895852692
4069000000.0 0.5467962219901937 -0.8946364926057363
4072000000.0 0.5548354006752005 -0.8663756378125748
4075000000.0 0.5945768357680973 -0.9072470653089485
4078000000.0000005 0.5718216271214802 -0.9238211637165963
4081000000.0000005 0.6304654874307114 -0.8536908817731401
4083999999.9999995 0.5538839669048683 -0.8832099682640302
4088000000.0 0.567471595275977 -0.8355701860721155
4091000000.0 0.60759665877273 -0.9312661891129257
4094000000.0000005 0.5632632343278741 -0.8501165422948552
4097000000.0000005 0.5872394023554116 -0.8613151602897452
4099999999.9999995 0.5902186214861282 -0.8908197045743604
4102999999.9999995 0.5585370854780578 -0.8729380951803789
4106000000.0 0.5431033722882762 -0.8498267536664958
4109000000.0 0.5405057508719391 -0.8614907774127529
4112000000.0 0.5749760577834032 -0.902931533837265
4115999999.9999995 0.5771021592958816 -0.8795762414605449
4119000000.0 0.5847855083814355 -0.8909461649732953
4122000000.0 0.5391214332329329 -0.8815259794988722
4125000000.0 0.5578735401138253 -0.9136234375777832
4128000000.0 0.5547095041898037 -0.8493589033958326
4131000000.0 0.5671734206202121 -0.8342375218715371
4134000000.0000005 0.5263255737354265 -0.8467676846929607
4138000000.0 0.5451750333567706 -0.8501359146073052
4141000000.0 0.5646764661617321 -0.8476524214496851
4144000000.0 0.5901874901653604 -0.8981161288760467
4147000000.0000005 0.5364803833558381 -0.8506884886349334
4150000000.0000005 0.5252010173842053 -0.9066248308268724
4152999999.9999995 0.547629555683782 -0.8519282609854041
4155999999.9999995 0.5886072394923911 -0.8925005604185784
4159000000.0 0.5244224810469013 -0.84470073697869
4162000000.0 0.5656094474473258 -0.8672706134179116
4166000000.0000005 0.5668351540575185 -0.8931270529131453
4168999999.9999995 0.5474919673088873 -0.8703486001368149
4171999999.9999995 0.5596948498608803 -0.8901537527532136
4175000000.0 0.573510576746344 -0.88466032173533
4178000000.0 0.5419141806139167 -0.8726133365056514
4181000000.0 0.5414934874540345 -0.8736004531813472
4184000000.0 0.5472812329285891 -0.859251631457054
4187999999.9999995 0.5547422328183482 -0.8585289979572384
4191000000.0 0.5931855664923656 -0.8581691648152633
4194000000.0 0.5565512730977917 -0.8549002981765725
4197000000.0 0.5586750544663269 -0.8738615291998241
4200000000.0 0.565492526593383 -0.8547487871898882
4203000000.0000005 0.5704957091706879 -0.8645144785074609
4206000000.0000005 0.5735285928306133 -0.877310003980683
4208999999.9999995 0.57384767039197 -0.8347279696683788
4211999999.9999995 0.5392062802255096 -0.8730957423787994
4216000000.0 0.5472436090699799 -0.8624502983783385
4219000000.0000005 0.5748803172002749 -0.8561577745493231
4222000000.0000005 0.5556590961350105 -0.8732441768905425
4224999999.9999995 0.5504726188017601 -0.8502589979445775
4227999999.9999995 0.564749010463955 -0.8615791171851921
4231000000.0 0.5520044496811556 -0.8652456816764329
4234000000.0 0.5656420312582253 -0.8748340462417765
4238000000.0000005 0.5474983346731264 -0.8623136185425612
4240999999.9999995 0.5589499502423642 -0.8605493974325098
4244000000.0 0.560609020257358 -0.8502338067246265
4247000000.0 0.5467842695675171 -0.8560197259280076
4250000000.0 0.5453762394084978 -0.8575166728131238
4253000000.0 0.5377689506511518 -0.8352012932205748
4256000000.0 0.5755601930854297 -0.9010348594392681
4259000000.0000005 0.5387208048156533 -0.8388275492387217
4261999999.9999995 0.54473050594997 -0.8528322441295788
4266000000.0 0.5439539458854252 -0.880503469396499
4269000000.0 0.5731582409652483 -0.8552204827782429
4272000000.0000005 0.5562505988030301 -0.8531087307345269
4275000000.0000005 0.5746441587860374 -0.8629069561595837
4277999999.9999995 0.5746515682458103 -0.866654500152763
4280999999.9999995 0.5744286255081975 -0.8618314147844235
4284000000.0 0.5217226848728017 -0.8742226624906603
4288000000.0000005 0.5892762862999802 -0.8473399384259387
4291000000.0000005 0.554806140845157 -0.8338190111950299
4293999999.9999995 0.5323151853087682 -0.8473911586168218
4297000000.0 0.5694955405774618 -0.8119074568896372
4300000000.0 0.5399931306072443 -0.8297197025347021
4303000000.0 0.5196927990739351 -0.8594643276037828
4306000000.0 0.5826656910093408 -0.8512505675595645
4309000000.0 0.5467963332619943 -0.8265097895583312
4312000000.0 0.5857930125780084 -0.845256836461148
4316000000.0 0.5687411714202455 -0.8561816530515819
4319000000.0 0.5647307772588096 -0.8288661835936743
4322000000.0 0.5338102224650669 -0.8725680925796124
4325000000.0 0.5754190769158424 -0.8586816284963295
4328000000.0 0.546040115745538 -0.8291684999442325
4331000000.0 0.5489987247697077 -0.8674901292172387
4334000000.0 0.5564640597274498 -0.8584680218028582
4338000000.0 0.6074056475319317 -0.8463996058072232
4341000000.0 0.5941735520767124 -0.8787752714659245
4344000000.0 0.5770913505223773 -0.8606990157059344
4347000000.0 0.5560120636953703 -0.8578846238505463
4350000000.0 0.5312939462417979 -0.8426524848284416
4353000000.0 0.54318132029914 -0.8191776341864191
4356000000.0 0.5393785822082015 -0.8443187556433993
4359000000.0 0.5185945364779806 -0.8172354034551834
4362000000.0 0.4909975257983893 -0.8891897257900074
4366000000.0 0.5379912473645183 -0.8606888597678168
4369000000.0 0.5161504984766663 -0.8286266401488248
4372000000.0 0.5041595419548632 -0.8435444667264794
4375000000.0 0.5466244408389525 -0.8524262829679604
4378000000.0 0.5447492357904865 -0.8328416420751301
4381000000.0 0.548690386301668 -0.8245575667807012
4384000000.0 0.5661225532339706 -0.918500923302559
4388000000.0 0.544436460469303 -0.8162846392827999
4391000000.0 0.5569528334799312 -0.8627929280209021
4394000000.0 0.5400344220933524 -0.8321517955696944
4397000000.0 0.5388041854762881 -0.8498029608521294
4400000000.0 0.5625992028701684 -0.8763655223820397
4403000000.0 0.5636191799337964 -0.8555358077113644
4406000000.0 0.5257449763813252 -0.8622855382764811
4409000000.0 0.5625098902232055 -0.8841069744190342
4412000000.0 0.4960922025781874 -0.8866717319179988
4416000000.0 0.5275257349852677 -0.8475472520368242
4419000000.0 0.5268481146460271 -0.8607055187373478
4422000000.0 0.54169296777112 -0.8345985017417616
4425000000.0 0.5763499836288755 -0.8654184232735603
4428000000.0 0.5395838373416313 -0.856821197146051
4431000000.0 0.5592453546391287 -0.8725567269866903
4434000000.0 0.5262488000901835 -0.8455417081311153
4438000000.0 0.5541883194559268 -0.874027234563389
4441000000.0 0.5564481454393675 -0.8686870591390964
4444000000.0 0.5436277828708549 -0.8377937379302819
4447000000.0 0.5330690810870912 -0.8628285004070437
4450000000.0 0.5443601538975117 -0.8474672417338572
4453000000.0 0.5401178733507798 -0.8767955032114456
4456000000.0 0.5166852979669755 -0.8442262355777397
4459000000.0 0.5061089282378101 -0.8327058310880676
4462000000.0 0.5723784492326839 -0.9046201661742317
4466000000.0 0.5508203675682494 -0.8984677420536995
4469000000.0 0.5614956039919219 -0.8433747519938153
4472000000.0 0.5346973042838212 -0.8800564392870548
4475000000.0 0.5264389732037729 -0.8401521130307518
4478000000.0 0.5477229759397472 -0.9103913760580558
4481000000.0 0.495375389238784 -0.8456789425184523
4484000000.0 0.48974290678507226 -0.8746838488556948
4488000000.0 0.5033136945259347 -0.8495063388407971
4491000000.0 0.531194384367274 -0.859100190977389
4494000000.0 0.5241285731118646 -0.8494469993814393
4497000000.0 0.5370754178140044 -0.8422347618273716
4500000000.0 0.5298936739362713 -0.8608134704357149
4503000000.0 0.5542555473866151 -0.8844728974957874
4506000000.0 0.5227999897954165 -0.8543498038807674
4509000000.0 0.5006062787525519 -0.8321734650307385
4512000000.0 0.5111723748067802 -0.8577379457283906
4516000000.0 0.5317224903511727 -0.8828889451954646
4519000000.0 0.5138559948847579 -0.8403969664524109
4522000000.0 0.5272162478524773 -0.8721362695190217
4525000000.0 0.5520443785964587 -0.8354452672497032
4528000000.0 0.5459454635101703 -0.8771582253634245
4531000000.0 0.5392757947718919 -0.8411832047829525
4534000000.0 0.5336368993809832 -0.8506424010746361
4538000000.0 0.510411717962509 -0.859040608768161
4541000000.0 0.4956033732814731 -0.8534375034136248
4544000000.0 0.5171927157354699 -0.8488318094898073
4547000000.0 0.5214947137276073 -0.8508087296282462
4550000000.0 0.5165056919635623 -0.8809663669394334
4553000000.0 0.5164235781319813 -0.8975261170625535
4556000000.0 0.5092869468170385 -0.8599506781496926
4559000000.0 0.5035805215381514 -0.8755690607403992
4562000000.0 0.5500890871996938 -0.8597960496892765
4566000000.0 0.5226537610512293 -0.8787583988981762
4569000000.0 0.5067415110773189 -0.8423408415403346
4572000000.0 0.5249141843725652 -0.8704456538401
4575000000.0 0.4989183634536027 -0.8793099737672943
4578000000.0 0.5369104817327951 -0.869550935284024
4581000000.0 0.5144747855103908 -0.8771093597371524
4584000000.0 0.5085153474620858 -0.8534889703022002
4588000000.0 0.5524431155367464 -0.8753147191830668
4591000000.0 0.5375596556096761 -0.8640160562987005
4594000000.0 0.5138661167701848 -0.8678554289511908
4597000000.0 0.5095987558060765 -0.8803287528012662
4600000000.0 0.49353769002112713 -0.8789529575268917
4603000000.0 0.5141594672846641 -0.8838742772138088
4606000000.0 0.5268402395442014 -0.8700363715978682
4609000000.0 0.5258010844495231 -0.8636068888038303
4612000000.0 0.527348350722761 -0.8878673118481077
4616000000.0 0.49765943883503383 -0.8684072859727006
4619000000.0 0.5217038485275786 -0.8720685424730883
4622000000.0 0.5097822283957879 -0.8637629742367268
4625000000.0 0.49542112608178424 -0.8645668027151971
4628000000.0 0.5150925620855096 -0.8599253082070868
4631000000.0 0.5075054420306299 -0.8852554901749558
4634000000.0 0.5144945848856471 -0.8634824930628722
4638000000.0 0.5056475859245818 -0.880167337448904
4641000000.0 0.5174498673988048 -0.8699796579585548
4644000000.0 0.5143753268899324 -0.8782406475734683
4647000000.0 0.5319861829894671 -0.8801932263573287
4650000000.0 0.4836894525607508 -0.8765718351598358
4653000000.0 0.5432150612891891 -0.8798615462326114
4656000000.0 0.4951865338705531 -0.8937547756783141
4659000000.0 0.4943752807563919 -0.8678573405642698
4662000000.0 0.5090096041098192 -0.8870014596260848
4666000000.0 0.5150319387955309 -0.8820907036094642
4669000000.0 0.5251274092690068 -0.879723000689399
4672000000.0 0.5095572975024001 -0.8916426714576636
4675000000.0 0.4997902086853183 -0.9022121726757502
4678000000.0 0.5022900976437209 -0.8793784015081415
4681000000.0 0.48804360975654065 -0.9125210437804624
4684000000.0 0.49051085317527476 -0.885690885210842
4688000000.0 0.4944810206300988 -0.8897879882437046
4691000000.0 0.5175701216974727 -0.8795459259124501
4694000000.0 0.5251508323785101 -0.872576458489127
4697000000.0 0.4605216155340895 -0.8456847948173689
4700000000.0 0.5193166350556008 -0.8604159716948732
4703000000.0 0.5190626056949185 -0.8379137466652599
4706000000.0 0.5177326707001835 -0.8814523145916153
4709000000.0 0.48152022442444214 -0.8766119728157551
4712000000.0 0.512697422008295 -0.8970766036070578
4716000000.0 0.5050512348800261 -0.9064616338768915
4719000000.0 0.5332985862444396 -0.8883742887723036
4722000000.0 0.5454714680197149 -0.8714703489512067
4725000000.0 0.5000051656152641 -0.8718566298307279
4728000000.0 0.47379444217208905 -0.8654385405393977
4731000000.0 0.5532515862753931 -0.8944024065327028
4734000000.0 0.51105958974392 -0.8517141128342699
4738000000.0 0.5264933583073488 -0.882230908449853
4741000000.0 0.48007174181985307 -0.9093022741813496
4744000000.0 0.5059090460211073 -0.9317702147818557
4747000000.0 0.5292794013514537 -0.8272581399854224
4750000000.0 0.5207727427430545 -0.8651304323625584
4753000000.0 0.5288910303658243 -0.8853549049377323
4756000000.0 0.4944294917035049 -0.8745929108001397
4759000000.0 0.5479366861021628 -0.8699486107592451
4762000000.0 0.4852601012509862 -0.8770963695630194
4766000000.0 0.507234269033488 -0.8854469345076612
4769000000.0 0.4849952822230571 -0.8733202301533913
4772000000.0 0.5058510000125939 -0.8871048635733207
4775000000.0 0.48580716768822774 -0.951422326684808
4778000000.0 0.49382693784991993 -0.8885968323761224
4781000000.0 0.5431950621352652 -0.8760759407585631
4784000000.0 0.5243645170325506 -0.8820879218595638
4788000000.0 0.48995089728507296 -0.9120762551622731
4791000000.0 0.4922172824499773 -0.8996197564112276
4794000000.0 0.5380031988654127 -0.9182576358730595
4797000000.0 0.48428830540483725 -0.8919361020521848
4800000000.0 0.46630658702573063 -0.8633456482402445
4803000000.0 0.4627708321064643 -0.9071703765893047
4806000000.0 0.502213445658247 -0.9088586830434173
4809000000.0 0.4543344310852479 -0.9258157033673511
4812000000.0 0.4639240555671823 -0.8936181165246607
4816000000.0 0.49251144448555323 -0.8927008447720963
4819000000.0 0.5288641489469259 -0.9031510956046812
4822000000.0 0.5237002341388242 -0.903724337337634
4825000000.0 0.536488463350212 -0.9213653372822729
4828000000.0 0.5005425887546704 -0.9051441859761199
4831000000.0 0.4739405672100067 -0.92672229670995
4834000000.0 0.5125991594918857 -0.8986000385610262
4838000000.0 0.5054653251485975 -0.9264852323338802
4841000000.0 0.4851581697885019 -0.8898509716578352
4844000000.0 0.5284730296182223 -0.8866708717228975
4847000000.0 0.5007705321129192 -0.8562726070777658
4850000000.0 0.4973762614349866 -0.9200937504305053
4853000000.0 0.496145775845496 -0.8656413549815335
4856000000.0 0.49212069973431366 -0.8791255155561624
4859000000.0 0.5261601996874345 -0.9252758450554479
4862000000.0 0.5297856708534766 -0.869802971387435
4866000000.0 0.5054543103867648 -0.9219001951377744
4869000000.0 0.48223680881997444 -0.8904290137093002
4872000000.0 0.5108989691738378 -0.9387387908966487
4875000000.0 0.5801417133143184 -0.9240275517244635
4878000000.0 0.5137232578699247 -0.9198226147470386
4881000000.0 0.5062305319711865 -0.9637059483327828
4884000000.0 0.5193422150739004 -0.9087451212875336
4888000000.0 0.5257950168629402 -0.8755832095354937
4891000000.0 0.5104393861816828 -0.8992127278258445
4894000000.0 0.4620038869448712 -0.906463261454637
4897000000.0 0.5234607800777815 -0.853241678181505
4900000000.0 0.5200245363394099 -0.9195878223508231
4903000000.0 0.5467533686912032 -0.9124228833940836
4906000000.0 0.5267311272804094 -0.9302526643585024
4909000000.0 0.48655424248984824 -0.8914665863997742
4912000000.0 0.5119250572176323 -0.9482868442011393
4916000000.0 0.5472588492556256 -0.9010898180503193
4919000000.0 0.5553135688799041 -0.9087482982667031
4922000000.0 0.5455486376091908 -0.8822014598479568
4925000000.0 0.4741405133345671 -0.909094255720044
4928000000.0 0.5690316662595473 -0.8697416481892366
4931000000.0 0.5240263034843302 -0.8879372244975584
4934000000.0 0.5125567152649615 -0.837001758678909
4938000000.0 0.46131364716766815 -0.8828097965424541
4941000000.0 0.5079501136605598 -0.8649662655652117
4944000000.0 0.4890206125924251 -0.8388971383166883
4947000000.0 0.49490912084544364 -0.8701585591144148
4950000000.0 0.48976024729997464 -0.8611700890308708
4953000000.0 0.49028808453386097 -0.9635365532989497
4956000000.0 0.5013326192363781 -0.9303915901948335
4959000000.0 0.46764665687583723 -0.9019249437724473
4962000000.0 0.5234545698296604 -0.9584366048009764
4966000000.0 0.5492313444838988 -0.937824417558479
4969000000.0 0.5615818427467159 -0.9163544747328795
4972000000.0 0.5202107738754711 -0.9152674642626992
4975000000.0 0.5276067003295272 -0.8886949140588568
4978000000.0 0.4866377805329264 -0.9490634794549604
4981000000.0 0.5373094597055175 -0.919616332532503
4984000000.0 0.5281357483459598 -0.8585605855155038
4988000000.0 0.5152460746271997 -0.8795818333137042
4991000000.0 0.5701520262011421 -0.8641284109138464
4994000000.0 0.5244733843662723 -0.9021459855936004
4997000000.0 0.49572607077133574 -0.9375761538615455
5000000000.0 0.5409327601247362 -0.8967429306080658
5003000000.0 0.5754308535411936 -0.9094587833444823
5006000000.0 0.5409269856735092 -0.9436231541254869
5009000000.0 0.514377240249049 -0.8818073923179853
5012000000.0 0.5275048871004546 -0.892403131684897
5016000000.0 0.5851232374257745 -0.9202808452085159
5019000000.0 0.5101752993744422 -0.8937892043690525
5022000000.0 0.5360584244688664 -0.9137000643034321
5025000000.0 0.5481156589255467 -0.9368696826390466
5028000000.0 0.5056745188159305 -0.9289973182423229
5031000000.0 0.5335919800609463 -0.9131077149226735
5034000000.0 0.522843513034895 -0.9649509610506934
5038000000.0 0.506520202777308 -0.885635407024305
5041000000.0 0.5199620556359361 -0.8854303788064872
5044000000.0 0.5295304457877348 -0.8432926351612117
5047000000.0 0.5470579423505888 -0.902361851629991
5050000000.0 0.571987167336387 -0.8580580779870843
5053000000.0 0.5491751442507854 -0.95112845614838
5056000000.0 0.5499707272007401 -0.8746017998236508
5059000000.0 0.5651021160654646 -0.8396995683944595
5062000000.0 0.533099354021551 -0.9250917101406329
5066000000.0 0.5576223266640515 -0.8801733998836545
5069000000.0 0.5565865254310812 -0.8979988126803787
5072000000.0 0.5273426641309089 -0.8880179423584047
5075000000.0 0.5600328458387744 -0.8777213554928949
5078000000.0 0.49729387089007115 -0.9139187515933365
5081000000.0 0.5062954858233155 -0.8523837478985634
5084000000.0 0.5461597776504908 -0.892105809956292
5088000000.0 0.5472674759099719 -0.8744595199339502
5091000000.0 0.5028227414919073 -0.924165617067881
5094000000.0 0.5541562942099448 -0.9050444630156702
5097000000.0 0.5684880927801755 -0.8733411003179425
5100000000.0 0.5000665980346961 -0.8728913429298037
5103000000.0 0.5208238447157356 -0.9226009461864663
5106000000.0 0.6050155053760173 -0.9639577925996544
5109000000.0 0.6017608075801476 -0.8165762705113342
5112000000.0 0.48343803136049285 -0.8717064001086612
5116000000.0 0.5118404175587784 -0.8695298932328973
5119000000.0 0.5646207133247235 -0.9060884954327593
5122000000.0 0.5888227221422132 -0.8363075676444247
5125000000.0 0.6017078079729254 -0.8564272171920784
5128000000.0 0.5692908573041523 -0.8468430020125958
5131000000.0 0.5471278710429238 -0.9072671094619166
5134000000.0 0.5347492086294552 -0.897242388422065
5138000000.0 0.5962410198755753 -0.8877139641636038
5141000000.0 0.5953561677995738 -0.8325764948186638
5144000000.0 0.5820858519679826 -0.8328058222638505
5147000000.0 0.510473063756476 -0.9072854657097222
5150000000.0 0.5806447998647887 -0.8725471962471814
5153000000.0 0.5720169416325197 -0.8999127715339181
5156000000.0 0.5691419643554696 -0.8805413311775794
5159000000.0 0.5775448529980227 -0.918594020121603
5162000000.0 0.5398629560638204 -0.8979888304467377
5166000000.0 0.5506277140136169 -0.9095352949805826
5169000000.0 0.5639662321160649 -0.9208129230242746
5172000000.0 0.5482935815953249 -0.8418594277468925
5175000000.0 0.6089065346949045 -0.9309437167234584
5178000000.0 0.5497541941480071 -0.8879620402707417
