! Created with skrf 1.8.0 (http://scikit-rf.org).
# Hz S RI R 50.0 
!freq ReS11 ImS11
4000000000.0 0.5886806199150605 -0.8670776217137661
4003000000.0 0.5649353139192419 -0.9299712753935014
4006000000.0 0.535448674112203 -0.8834214267536533
4009000000.0000005 0.5557012871592937 -0.8970596911512525
4011999999.9999995 0.6279802540425239 -0.8238266404225523
4016000000.0 0.5235702605398836 -0.9015677571281964
4019000000.0 0.5978780722156918 -0.8415484692788404
4022000000.0000005 0.6116440191076638 -0.786977950175393
4025000000.0000005 0.5489845422773181 -0.9139416760378054
4027999999.9999995 0.5390636282947024 -0.8924659535583572
4030999999.9999995 0.5011607174373396 -0.8311822793146052
4034000000.0 0.5274508732982128 -0.861472361946028
4038000000.0000005 0.5656579835843761 -0.8842220893449676
4041000000.0000005 0.5577260925876467 -0.8469757575046544
4043999999.9999995 0.6047950860240833 -0.9130738474367914
4046999999.9999995 0.6214063455907188 -0.890539782262612
4050000000.0 0.5287184540510297 -0.8889586068168549
4053000000.0 0.5211514851472491 -0.8336637444420556
4056000000.0 0.5661933388576166 -0.8706040728980488
4059000000.0 0.5560482982982597 -0.8084671146718717
4062000000.0000005 0.5465942575521788 -0.8884431258244234
4066000000.0 0.4960647745544462 -0.8259906323853333
4069000000.0 0.5652364092099758 -0.9151630539106684
4072000000.0 0.5600161200692324 -0.8532104087303642
4075000000.0 0.6042614227429778 -0.892628734832971
4078000000.0000005 0.5358872138249368 -0.8836586128978309
4081000000.0000005 0.6302821888767418 -0.8660472748138746
4083999999.9999995 0.5897642974103023 -0.8955230294127968
4088000000.0 0.6034794352058297 -0.8294960505947462
4091000000.0 0.5945725282001963 -0.9247165652556933
4094000000.0000005 0.5786910925292212 -0.8772208354733345
4097000000.0000005 0.5706122926845821 -0.8967742364231532
4099999999.9999995 0.554261038881132 -0.8918047101816509
4102999999.9999995 0.6038412679418287 -0.8897353978028418
4106000000.0 0.5784407396354594 -0.8782090042356061
4109000000.0 0.553349064074768 -0.9281631313868637
4112000000.0 0.5586413293709798 -0.877450974351075
4115999999.9999995 0.5935591558066641 -0.8567866538423784
4119000000.0 0.536343512052706 -0.8610635143076262
4122000000.0 0.511668886273839 -0.9013545240383896
4125000000.0 0.5632362694816921 -0.9266396072791716
4128000000.0 0.5424632500070029 -0.8571596653117779
4131000000.0 0.5431051125293265 -0.8690025623750784
4134000000.0000005 0.5441801408567033 -0.8703457180249994
4138000000.0 0.5409713694551448 -0.8596354732320428
4141000000.0 0.5177101917172791 -0.8659055519319896
4144000000.0 0.5945307330444558 -0.8775404218816808
4147000000.0000005 0.5344377582966792 -0.883498179252128
4150000000.0000005 0.5708866232811182 -0.9259290669766229
4152999999.9999995 0.5367830839369145 -0.8778115657597175
4155999999.9999995 0.5894092798419699 -0.868166394251183
4159000000.0 0.5687165621863102 -0.8493476590320016
4162000000.0 0.5605040676670587 -0.8494204677012803
4166000000.0000005 0.5160790840722306 -0.8866355816955744
4168999999.9999995 0.5291113103317511 -0.8792493467319693
4171999999.9999995 0.5632128093613944 -0.8619007813710249
4175000000.0 0.5641036551702207 -0.8777918084603121
4178000000.0 0.5474251358625473 -0.8570121266205034
4181000000.0 0.5132022811712836 -0.866379602388694
4184000000.0 0.5711294489135604 -0.8530403947785935
4187999999.9999995 0.5576870664786324 -0.8956990474498852
4191000000.0 0.5830089578848576 -0.810219757418067
4194000000.0 0.5443410379572191 -0.844660968201492
4197000000.0 0.5693845332211572 -0.8655994682389796
4200000000.0 0.570897063985034 -0.8684341295669349
4203000000.0000005 0.5842057933447935 -0.8452211943235239
4206000000.0000005 0.5497057924687833 -0.8848271243211109
4208999999.9999995 0.5386129146016334 -0.8365571820324856
4211999999.9999995 0.532062492509023 -0.886392700706391
4216000000.0 0.5664813904730422 -0.8700307103736009
4219000000.0000005 0.5629176743809925 -0.865435290954988
4222000000.0000005 0.5610043897214563 -0.8727808595410934
4224999999.9999995 0.5515645773948479 -0.84377760914852
4227999999.9999995 0.5552777199487998 -0.8702643676276671
4231000000.0 0.5511258213853814 -0.858335659437348
4234000000.0 0.5623342459932668 -0.8603229533530252
4238000000.0000005 0.5513727421316488 -0.8668492547722195
4240999999.9999995 0.5482433241002245 -0.8600924299000738
4244000000.0 0.560994593069811 -0.8516329202387591
4247000000.0 0.5654559387076645 -0.8351532899204058
4250000000.0 0.541111029784678 -0.8427622830971221
4253000000.0 0.5145272439128228 -0.8538727960795394
4256000000.0 0.5776675660912403 -0.8808966750246123
4259000000.0000005 0.5108626479697769 -0.8416661162133565
4261999999.9999995 0.5377514859843328 -0.8759310777863101
4266000000.0 0.5386657057270704 -0.8898802838234218
4269000000.0 0.5956679545149085 -0.828881277152558
4272000000.0000005 0.5494969518951129 -0.853151481456864
4275000000.0000005 0.5635203477582054 -0.8604290524279503
4277999999.9999995 0.5646481258723884 -0.8734935258028764
4280999999.9999995 0.5724951220687976 -0.8603974054617345
4284000000.0 0.5243931608780225 -0.8591552761873233
4288000000.0000005 0.5853115552120537 -0.8340963697772213
4291000000.0000005 0.555219758221313 -0.8466647294567959
4293999999.9999995 0.5246868658473689 -0.8460086356903598
4297000000.0 0.5503415936482879 -0.8250824162412539
4300000000.0 0.5691342156902527 -0.8470459554134221
4303000000.0 0.5360680003301339 -0.8498768167998866
4306000000.0 0.5813899056436278 -0.8629738679581817
4309000000.0 0.5891030143402735 -0.8278242474862657
4312000000.0 0.5923261747012155 -0.8429502967606146
4316000000.0 0.5677280123671086 -0.8442646974054692
4319000000.0 0.5528195977857366 -0.8267534549311709
4322000000.0 0.5136119523539248 -0.8339527247532666
4325000000.0 0.5557942368687198 -0.8515425184937032
4328000000.0 0.5274740170131794 -0.8621915576811789
4331000000.0 0.5300907044770311 -0.8588360041497581
4334000000.0 0.5399224763268579 -0.8694969339560799
4338000000.0 0.567806152785039 -0.8529719198970942
4341000000.0 0.5981078624646228 -0.856108660552978
4344000000.0 0.5674475523905322 -0.8777263724388824
4347000000.0 0.5282037342481375 -0.87788424577957
4350000000.0 0.5302635375702908 -0.833666366296352
4353000000.0 0.5639558771975044 -0.7904187688066281
4356000000.0 0.5125268983241867 -0.858109589069288
4359000000.0 0.5261456007443883 -0.8079409698000163
4362000000.0 0.5007463845163003 -0.8945956957736756
4366000000.0 0.5428817238002821 -0.8690584682904794
4369000000.0 0.5436400298627012 -0.8306721719303864
4372000000.0 0.5052383469124305 -0.8745172143896132
4375000000.0 0.5642144650333981 -0.8424704422943492
4378000000.0 0.545759908472538 -0.8413699468282264
4381000000.0 0.5521734622496665 -0.8163140884301511
4384000000.0 0.5629997633000585 -0.9001307434226763
4388000000.0 0.5547489509677339 -0.8453844203526033
4391000000.0 0.5719675754956255 -0.8665193622428955
4394000000.0 0.523144591687652 -0.8181699287039599
4397000000.0 0.541980185358687 -0.8499209512079001
4400000000.0 0.5484844221495786 -0.8695053611716629
4403000000.0 0.5537773138063311 -0.8571979793285236
4406000000.0 0.5324768327252903 -0.8719470846496331
4409000000.0 0.5545309264754108 -0.8890177980093452
4412000000.0 0.5062149411264859 -0.8830412833384198
4416000000.0 0.5304036862919749 -0.8507706274554984
4419000000.0 0.5262726637434512 -0.8675786324184439
4422000000.0 0.5579423902891287 -0.8335747850138687
4425000000.0 0.5776170522602331 -0.8480301721664478
4428000000.0 0.5181471404172047 -0.845762370661616
4431000000.0 0.5596190430076782 -0.863546801399993
4434000000.0 0.5361634421450678 -0.8546064943565569
4438000000.0 0.5546475299137615 -0.8753501496334278
4441000000.0 0.5649852263417435 -0.8707263468524957
4444000000.0 0.5264102272451965 -0.8370654439476606
4447000000.0 0.5156636022097509 -0.8589680347377672
4450000000.0 0.5565915521155067 -0.8486650414275396
4453000000.0 0.5509225054884911 -0.8739062444950403
4456000000.0 0.505822491392692 -0.8475896967129246
4459000000.0 0.49228159511025776 -0.8276311132944629
4462000000.0 0.5657421758725485 -0.8958090633173359
4466000000.0 0.5502880631977701 -0.8860929070539405
4469000000.0 0.5599458215510507 -0.8486211230019128
4472000000.0 0.5430410594734878 -0.8892244869241761
4475000000.0 0.5137225491806864 -0.8333941877704373
4478000000.0 0.5324079231086299 -0.9026813038479167
4481000000.0 0.4961913386125161 -0.8428183489232497
4484000000.0 0.5015283020130009 -0.8758499675511698
4488000000.0 0.5124571825871843 -0.8557019406425042
4491000000.0 0.5204040740642186 -0.8640772252433369
4494000000.0 0.5372336146749572 -0.8513823533404952
4497000000.0 0.5450224780848648 -0.8566009619382282
4500000000.0 0.5372219611539767 -0.863833417214228
4503000000.0 0.5458414341953686 -0.8789758157403336
4506000000.0 0.5171066843307299 -0.8522694174915002
4509000000.0 0.5205923943560009 -0.8475293136710248
4512000000.0 0.5049171423407411 -0.8456891661347374
4516000000.0 0.5377876960390996 -0.8801383680132003
4519000000.0 0.5471184345196985 -0.8415800504448268
4522000000.0 0.5224632822800134 -0.8856207271040255
4525000000.0 0.5394915636180592 -0.8255902519497678
4528000000.0 0.531420788433951 -0.8922241909557502
4531000000.0 0.5418922660883272 -0.8610869182410852
4534000000.0 0.5129483560033271 -0.8537901304285711
4538000000.0 0.5191740216119923 -0.8599465829453636
4541000000.0 0.5129360894836182 -0.8567199264322912
4544000000.0 0.5272798078543508 -0.8611681218494767
4547000000.0 0.5324355944295684 -0.8438032395738989
4550000000.0 0.5221491730217911 -0.8849709514001581
4553000000.0 0.5326097878454155 -0.8756894654470648
4556000000.0 0.49420279911556964 -0.8580795007118485
4559000000.0 0.5135439538517022 -0.8643585254580513
4562000000.0 0.5311066117892516 -0.8701682569199808
4566000000.0 0.5436308103316514 -0.8700081830141426
4569000000.0 0.5122403165127558 -0.8469783089117509
4572000000.0 0.5298066371643093 -0.8606126211207055
4575000000.0 0.5147039902681562 -0.8689241656803051
4578000000.0 0.5582672893530086 -0.8753220200995107
4581000000.0 0.5068018089742418 -0.8748048914465916
4584000000.0 0.5097815753580599 -0.8684816851842491
4588000000.0 0.530430161328706 -0.8702429559338595
4591000000.0 0.5435701046686635 -0.8645512141167435
4594000000.0 0.49202716082162967 -0.8704038681959849
4597000000.0 0.5208282832984679 -0.888035465244913
4600000000.0 0.47858924631184274 -0.859728578751294
4603000000.0 0.5153328944775709 -0.8766814298475025
4606000000.0 0.5329793597498889 -0.8777704042663547
4609000000.0 0.5122671670213645 -0.8707441007595838
4612000000.0 0.5166700645261808 -0.8861931488017344
4616000000.0 0.4994289163872625 -0.8558677151841162
4619000000.0 0.5279869852886049 -0.858305092157459
4622000000.0 0.5188894951368437 -0.8741754134573609
4625000000.0 0.47581024463223764 -0.8636638787571402
4628000000.0 0.5222142262231068 -0.86113051019625
4631000000.0 0.4951857723962636 -0.880321947091778
4634000000.0 0.5124796234847133 -0.8680702988461128
4638000000.0 0.5079182053935027 -0.878856465211179
4641000000.0 0.5191187868832978 -0.867176092772234
4644000000.0 0.5010568855971964 -0.8592507940951248
4647000000.0 0.5109189419590082 -0.8694526860159807
4650000000.0 0.5083741796840201 -0.8861902646677106
4653000000.0 0.5337367256122183 -0.8997748890634094
4656000000.0 0.48694084813350347 -0.887795039022409
4659000000.0 0.4837860931925587 -0.8867646445541527
4662000000.0 0.5160391465483561 -0.8729421443733596
4666000000.0 0.5060331540013966 -0.8761070799585617
4669000000.0 0.5092485133954313 -0.8779387797418896
4672000000.0 0.4912649997295875 -0.8825719236689022
4675000000.0 0.48933686491038414 -0.8827171562164973
4678000000.0 0.5063444537403328 -0.884230764511529
4681000000.0 0.4959128991990481 -0.8955741838202907
4684000000.0 0.47271257913854 -0.895526543448472
4688000000.0 0.4761648447466753 -0.8868541523191941
4691000000.0 0.5156145402281805 -0.8758479097496478
4694000000.0 0.506771735206295 -0.8589926482512575
4697000000.0 0.4727318699811056 -0.8635558385044891
4700000000.0 0.5149667126830191 -0.8759008286866585
4703000000.0 0.513645951419621 -0.8508230878749738
4706000000.0 0.5026507867438382 -0.908816361937908
4709000000.0 0.4697311497586458 -0.893451335237791
4712000000.0 0.5030271432381102 -0.8761398795569584
4716000000.0 0.5100519269094125 -0.9095490970909278
4719000000.0 0.5363112067576429 -0.9041544369597907
4722000000.0 0.5242707064769018 -0.872928124688158
4725000000.0 0.5271231748826992 -0.8597048771214237
4728000000.0 0.4882150542519672 -0.8864211392255174
4731000000.0 0.5301351964454841 -0.8829507353810511
4734000000.0 0.5253168271448156 -0.8487738975470966
4738000000.0 0.515894082976287 -0.9228450170094293
4741000000.0 0.5196969510336564 -0.8994339140985006
4744000000.0 0.509706378690902 -0.8970045851421841
4747000000.0 0.511879186506899 -0.873874485535677
4750000000.0 0.4975182475576429 -0.9159413342054444
4753000000.0 0.5189561895765161 -0.8859460007781812
4756000000.0 0.5003087710374334 -0.8968091809690099
4759000000.0 0.483477262734312 -0.8932609412916619
4762000000.0 0.5051567757872254 -0.9101486164221102
4766000000.0 0.5304733665451041 -0.8807758811194614
4769000000.0 0.5248387101879575 -0.8889225008943799
4772000000.0 0.48480499387531617 -0.8730791915675845
4775000000.0 0.5140014552431531 -0.9340477226677398
4778000000.0 0.5114743288924692 -0.879713914399954
4781000000.0 0.5268196760776243 -0.8762895273260416
4784000000.0 0.509773878349514 -0.8640315678135744
4788000000.0 0.4688912727302281 -0.9183173984006702
4791000000.0 0.5037377569757301 -0.8917579713507184
4794000000.0 0.5416407650726528 -0.9222712385356734
4797000000.0 0.4923894816339829 -0.8818556669645433
4800000000.0 0.47934639933579704 -0.8790427425292798
4803000000.0 0.4312564454750412 -0.9250677533847866
4806000000.0 0.5099375799680066 -0.9436594892638945
4809000000.0 0.46314976267998664 -0.9122938656555026
4812000000.0 0.4780506577711571 -0.8896341856747757
4816000000.0 0.5366087319970942 -0.8704152981474349
4819000000.0 0.5294104183768451 -0.9058377288332348
4822000000.0 0.5384274349419916 -0.9262586852815174
4825000000.0 0.5271066344127862 -0.8982173673198581
4828000000.0 0.4931575951058547 -0.8758364258171173
4831000000.0 0.44925154742628776 -0.9105740872088353
4834000000.0 0.5177169162090779 -0.8918018853874036
4838000000.0 0.5045388865022733 -0.896776980245254
4841000000.0 0.4617427974400531 -0.9025647025607841
4844000000.0 0.5463030389074734 -0.8809605427265127
4847000000.0 0.520863597921992 -0.8534359484541769
4850000000.0 0.5119873649502258 -0.9256479869547506
4853000000.0 0.5072265926543178 -0.8933896208629521
4856000000.0 0.5018862061309977 -0.8661428350144159
4859000000.0 0.4926807103875081 -0.9350111563945084
4862000000.0 0.5170493856967384 -0.8650551523089183
4866000000.0 0.5066828447483067 -0.9227466405405764
4869000000.0 0.4950799265102817 -0.9181635822384787
4872000000.0 0.48914789353058624 -0.925234512274819
4875000000.0 0.5662553032208109 -0.9230514059828945
4878000000.0 0.5189940316446646 -0.9150251554373067
4881000000.0 0.5056257066051671 -0.959536797523598
4884000000.0 0.5379055710756271 -0.9012243823450585
4888000000.0 0.5423045554192215 -0.8871123768057121
4891000000.0 0.5379149294454095 -0.9206874007443386
4894000000.0 0.4913033635723512 -0.8995382730471859
4897000000.0 0.5235086250635954 -0.8965768113083565
4900000000.0 0.5345049594073662 -0.9244169817925838
4903000000.0 0.546020712864185 -0.9127208278087634
4906000000.0 0.5057253534139367 -0.9291841454291139
4909000000.0 0.4855219290271008 -0.9214358247962419
4912000000.0 0.5217929525154352 -0.93218194627262
4916000000.0 0.5554995167151578 -0.9065852150875626
4919000000.0 0.5624680769066703 -0.9260504763844672
4922000000.0 0.5219342939480733 -0.9009033560892168
4925000000.0 0.5020408367259478 -0.940894900824477
4928000000.0 0.565845974893806 -0.8682912388539381
4931000000.0 0.5417545703192185 -0.9029196365995188
4934000000.0 0.4643828296982748 -0.8088778618174983
4938000000.0 0.5018625507151897 -0.9051573060797747
4941000000.0 0.5124403946033762 -0.8846712489224172
4944000000.0 0.5071579970115425 -0.8625553113182114
4947000000.0 0.5017085391028776 -0.8789402400361043
4950000000.0 0.49358644262206564 -0.8691297141814878
4953000000.0 0.5055395492404993 -0.9312686527146921
4956000000.0 0.5081483160268516 -0.9038094207672681
4959000000.0 0.46007344537475414 -0.8825091781852044
4962000000.0 0.5412220123650631 -0.9285846669367986
4966000000.0 0.5356769472916715 -0.8972759541137376
4969000000.0 0.544567843663479 -0.9041765617505101
4972000000.0 0.5146247221212699 -0.9051803304528908
4975000000.0 0.526326066662723 -0.8686882592912687
4978000000.0 0.521732213568738 -0.8846363275062229
4981000000.0 0.5275694607937718 -0.9149619684858796
4984000000.0 0.5095807955154973 -0.8795214355043104
4988000000.0 0.5375922139383401 -0.8842426651143183
4991000000.0 0.5793622341047298 -0.8948494510305319
4994000000.0 0.5402523623272292 -0.9105308553951715
4997000000.0 0.500439813023051 -0.9287631337953296
5000000000.0 0.5388196445505766 -0.9059724352979548
5003000000.0 0.573814967685286 -0.9081057410407378
5006000000.0 0.5618162636912967 -0.9356707543357157
5009000000.0 0.5481147718953645 -0.8778396524071174
5012000000.0 0.47571599495574984 -0.9028389931374293
5016000000.0 0.5564422990515985 -0.9165028261473109
5019000000.0 0.5118554274811806 -0.9001271546094682
5022000000.0 0.5275426491671537 -0.9098585161349478
5025000000.0 0.5503383429752853 -0.9603148890770125
5028000000.0 0.5013069046949257 -0.9169757668629437
5031000000.0 0.5161897010404568 -0.8991867703808486
5034000000.0 0.4985036283226875 -0.9427207667104187
5038000000.0 0.507982606808449 -0.9096187812968433
5041000000.0 0.5878188524014029 -0.8872666358063559
5044000000.0 0.5276662664247164 -0.8635522142205625
5047000000.0 0.5347538219611003 -0.8724067275941763
5050000000.0 0.5993068487093155 -0.8075326747439151
5053000000.0 0.5410900974912527 -0.9359608194846658
5056000000.0 0.5884019547567783 -0.8664632120426815
5059000000.0 0.616431866052525 -0.8621201329867626
5062000000.0 0.5139128033757797 -0.9166202376297814
5066000000.0 0.5482506934393758 -0.8561023427656171
5069000000.0 0.5247670323647582 -0.9108762026686126
5072000000.0 0.5465063547130606 -0.8805695648613131
5075000000.0 0.5615381714076975 -0.900691856163822
5078000000.0 0.5150952058263638 -0.9358900180975399
5081000000.0 0.497184151149899 -0.897064562349138
5084000000.0 0.5602751658304083 -0.9016907433000458
5088000000.0 0.5312392744986222 -0.8754865670007338
5091000000.0 0.5039860865154483 -0.9372345027283221
5094000000.0 0.5414561742296957 -0.8885858405514738
5097000000.0 0.6023115966294957 -0.8558215086780576
5100000000.0 0.5138264186536879 -0.8598540477304093
5103000000.0 0.5396983267212734 -0.9474603947259973
5106000000.0 0.5602152795834952 -0.8913083364951393
5109000000.0 0.575544756715589 -0.8810576703374512
5112000000.0 0.5440225238147485 -0.8604434595365247
5116000000.0 0.5431778179874722 -0.8412847795154823
5119000000.0 0.5366803955319008 -0.93661837415146
5122000000.0 0.5627540359159148 -0.8693792165941021
5125000000.0 0.5844022845283211 -0.8572143828001106
5128000000.0 0.5434879409883433 -0.8618631065759477
5131000000.0 0.542156436945848 -0.8553680247943334
5134000000.0 0.5544275574841928 -0.8845001165480466
5138000000.0 0.5856518203175294 -0.8986018364911312
5141000000.0 0.5989045483423752 -0.8192547911791189
5144000000.0 0.5998304580307842 -0.8551580021551075
5147000000.0 0.5775054548656795 -0.89519255598886
5150000000.0 0.5898399276947864 -0.9246613180219572
5153000000.0 0.551851492130573 -0.9124397966783102
5156000000.0 0.588446164142729 -0.875097907208398
5159000000.0 0.5727834561085563 -0.8798152078526141
5162000000.0 0.5278867448983958 -0.8999116775594709
5166000000.0 0.5274235296002793 -0.9352466592898309
5169000000.0 0.5561397358701693 -0.8975540859765174
5172000000.0 0.5261281014879047 -0.8727030926486884
5175000000.0 0.5860728378007599 -0.8636081712126913
5178000000.0 0.5358765806660692 -0.8740368605953067
5181000000.0 0.581158364937775 -0.947438555154779
