! Created with skrf 1.8.0 (http://scikit-rf.org).
# Hz S RI R 50.0 
!freq ReS11 ImS11
4000000000.0 0.42259671903348356 -0.9153232414528323
4003000000.0 0.47150317545231346 -0.9518806180240066
4006000000.0 0.4029375239831568 -0.9756161934105594
4009000000.0000005 0.4094798208394431 -0.9331346367892752
4011999999.9999995 0.46582641797862434 -0.9630851593765992
4016000000.0 0.4034616600094565 -0.974691960456651
4019000000.0 0.4124268766141933 -0.953208711751569
4022000000.0000005 0.4804111040332543 -0.9185732879871865
4025000000.0000005 0.4179359810248162 -0.9693044233951786
4027999999.9999995 0.3796542922486674 -0.936742670444679
4030999999.9999995 0.444956478457708 -0.9193775506309414
4034000000.0 0.4299866177066233 -0.8938595982135347
4038000000.0000005 0.42238386984081766 -0.9209116543886978
4041000000.0000005 0.42118975991420293 -0.9293484707817554
4043999999.9999995 0.4048444507505131 -0.9765733041506424
4046999999.9999995 0.48940084949117924 -0.9530067281317235
4050000000.0 0.4264303324265673 -0.9576940178023899
4053000000.0 0.38744474749459523 -0.929873652837319
4056000000.0 0.4410773633914438 -0.9360567061300848
4059000000.0 0.38833878363895913 -0.909982999013539
4062000000.0000005 0.4174039022150499 -0.9423636704754254
4066000000.0 0.3993326834115307 -0.8790024534306567
4069000000.0 0.43138854649380237 -0.981591026069288
4072000000.0 0.44552423539524993 -0.9382943733995706
4075000000.0 0.46701189964348316 -0.9535408579265289
4078000000.0000005 0.4251435424679668 -0.9259446174713823
4081000000.0000005 0.4337081882594338 -0.8976329331696898
4083999999.9999995 0.4070065987287136 -0.9183047331094821
4088000000.0 0.46012105578858464 -0.9157428050904287
4091000000.0 0.43687805224951515 -0.9496607111575243
4094000000.0000005 0.4090503869572577 -0.897678733412397
4097000000.0000005 0.4596783866663265 -0.9153173532960702
4099999999.9999995 0.414085304759195 -0.967622028702494
4102999999.9999995 0.41917742119649526 -0.9621475017043423
4106000000.0 0.390014608611412 -0.9592656714991159
4109000000.0 0.3998187471375075 -0.9395850673918933
4112000000.0 0.41789017757262925 -0.9396814803783708
4115999999.9999995 0.4573639347557659 -0.9446928399121329
4119000000.0 0.40699193212760915 -0.9265326891162605
4122000000.0 0.3968352733329015 -0.9485865773214297
4125000000.0 0.3861078430958129 -0.9538310314010228
4128000000.0 0.3813517068562377 -0.89989565714344
4131000000.0 0.3994736291357728 -0.9087930779654514
4134000000.0000005 0.42577772335825687 -0.9415137739975478
4138000000.0 0.3747158070580483 -0.9274195642495061
4141000000.0 0.39825961400965415 -0.9055314633892801
4144000000.0 0.42728512910478067 -0.9142070690534986
4147000000.0000005 0.4354073619541658 -0.9650184507677764
4150000000.0000005 0.4183143475901532 -0.9542216189251729
4152999999.9999995 0.4023809704613567 -0.9202158217946237
4155999999.9999995 0.4285614311903258 -0.9492430768548306
4159000000.0 0.42718318850429404 -0.9291117653326403
4162000000.0 0.41523674779905884 -0.9345152644222936
4166000000.0000005 0.409797596511553 -0.9590223750790215
4168999999.9999995 0.3805005658728036 -0.9235783156544382
4171999999.9999995 0.40710515376663003 -0.9601969532655156
4175000000.0 0.44550073281043434 -0.946687585559081
4178000000.0 0.42716595684377057 -0.9335092214208158
4181000000.0 0.3900560230891418 -0.9202016854765946
4184000000.0 0.3835582423887604 -0.9195745898213183
4187999999.9999995 0.3933942115322388 -0.9307578521383957
4191000000.0 0.436939977376818 -0.894913044281783
4194000000.0 0.40021078992727466 -0.9067582292215045
4197000000.0 0.41084371011334975 -0.9402488475021361
4200000000.0 0.41186879866793696 -0.9254189861880295
4203000000.0000005 0.4313147477718037 -0.9440739766509202
4206000000.0000005 0.42996622913029914 -0.9497675543573488
4208999999.9999995 0.396919370733797 -0.932203134947458
4211999999.9999995 0.3644983157575404 -0.9531758999048077
4216000000.0 0.434518661631752 -0.9434724927480422
4219000000.0000005 0.41317134207036793 -0.9351082202012013
4222000000.0000005 0.3986602397403443 -0.9344167023034735
4224999999.9999995 0.39586859890512016 -0.920590121305235
4227999999.9999995 0.39245044687288316 -0.9458973384170525
4231000000.0 0.3834008685060343 -0.931103309405163
4234000000.0 0.3941184180203603 -0.9474675968021455
4238000000.0000005 0.3874938118858471 -0.9432656919834961
4240999999.9999995 0.3576007776844028 -0.912609803134273
4244000000.0 0.399009367748179 -0.9153129981858688
4247000000.0 0.393501942926876 -0.92988414553379
4250000000.0 0.39084166776674173 -0.9207587536361149
4253000000.0 0.3747250141292051 -0.9054211279279651
4256000000.0 0.3963007956338346 -0.9659612709069368
4259000000.0000005 0.38810638326358693 -0.9113194874430132
4261999999.9999995 0.36460647500596716 -0.9178343549200182
4266000000.0 0.342496307616141 -0.9774771349144683
4269000000.0 0.4024706338776162 -0.9292747068476863
4272000000.0000005 0.379561805468148 -0.9250962951970535
4275000000.0000005 0.39750508827888226 -0.9161194295709728
4277999999.9999995 0.4003905426060788 -0.9674911281136966
4280999999.9999995 0.4061527443416787 -0.9560492825281964
4284000000.0 0.36004851140957445 -0.9503802036195435
4288000000.0000005 0.41388675930259494 -0.9178622245689677
4291000000.0000005 0.37128787478964576 -0.9071257444188018
4293999999.9999995 0.3632592204669631 -0.9326588212405192
4297000000.0 0.39618919107703143 -0.896842564740772
4300000000.0 0.38978637336756605 -0.919184667145865
4303000000.0 0.34146882420914937 -0.908319407962821
4306000000.0 0.4005659543029665 -0.9249477930283094
4309000000.0 0.3797613150402718 -0.9158339174881948
4312000000.0 0.41054370847779453 -0.942215649597897
4316000000.0 0.3879765530782813 -0.9341168065084007
4319000000.0 0.39437701267543834 -0.9429251878673621
4322000000.0 0.3538648509471364 -0.9361748508732479
4325000000.0 0.38779021311825335 -0.9393996217917039
4328000000.0 0.37266351139916254 -0.9354160353621171
4331000000.0 0.36387435565945014 -0.9502227495591983
4334000000.0 0.3655803917734445 -0.9324749709597271
4338000000.0 0.38396086053008677 -0.9254013688251446
4341000000.0 0.3985262485176644 -0.9680926286822593
4344000000.0 0.4046476969479692 -0.954930798754672
4347000000.0 0.3628456457617341 -0.9568242240326612
4350000000.0 0.3470654268967204 -0.909355231398882
4353000000.0 0.37174573380029835 -0.8989346313445883
4356000000.0 0.33256046624575836 -0.9447527532134454
4359000000.0 0.3568699713066163 -0.9161790466391422
4362000000.0 0.3141974218778918 -0.9751287589179083
4366000000.0 0.3581379812236082 -0.9744290715353303
4369000000.0 0.34052661665203876 -0.9181999509607595
4372000000.0 0.32328800781417577 -0.9412236556031371
4375000000.0 0.38307413001303936 -0.9356169925908877
4378000000.0 0.34887504397561164 -0.9072118241463207
4381000000.0 0.3428924253350658 -0.9251540880233925
4384000000.0 0.36171089979243526 -1.006602115465962
4388000000.0 0.3530784184530964 -0.9238777182377775
4391000000.0 0.3597897701690305 -0.9559560572612035
4394000000.0 0.3315289766319869 -0.9234793678358885
4397000000.0 0.33837902700171235 -0.9375112041023735
4400000000.0 0.3509420913894816 -0.9698148924922523
4403000000.0 0.34132728470900914 -0.9570109665808477
4406000000.0 0.3332444051859593 -0.9515021505612391
4409000000.0 0.34825538145763646 -0.9706196923435078
4412000000.0 0.27762241849069885 -0.9637870412135616
4416000000.0 0.33477855142848983 -0.9358647220051034
4419000000.0 0.32347336526599135 -0.950440608414943
4422000000.0 0.3563084771460866 -0.9443205231536596
4425000000.0 0.3699088401249334 -0.9608569795746298
4428000000.0 0.3387915614134016 -0.9477605345587251
4431000000.0 0.347940633077683 -0.9526609332766158
4434000000.0 0.3210184130067731 -0.9526361398059786
4438000000.0 0.35377457491010367 -0.9708514521272968
4441000000.0 0.3373461067770964 -0.9706768423779759
4444000000.0 0.3450647961306298 -0.936601692637843
4447000000.0 0.3203851011823794 -0.9407471243115236
4450000000.0 0.33934193513716615 -0.9318727455272817
4453000000.0 0.348747648227714 -0.9680300431667905
4456000000.0 0.3116158681588071 -0.9418962571870405
4459000000.0 0.3011115882752266 -0.9138750025456692
4462000000.0 0.32832791127027905 -1.016154280242049
4466000000.0 0.32721251106164934 -0.9831313704690157
4469000000.0 0.33063523489030966 -0.9551860945006041
4472000000.0 0.2905118170283532 -0.9848046028562396
4475000000.0 0.3094559777676114 -0.9255111494702688
4478000000.0 0.31920531522971596 -0.9958911404630946
4481000000.0 0.30409324343651317 -0.9308491348439341
4484000000.0 0.27582104681313924 -0.9786784521860061
4488000000.0 0.3168106528023352 -0.9545008803547872
4491000000.0 0.3074386738379059 -0.9572884017443108
4494000000.0 0.31735475774629235 -0.9611043735137232
4497000000.0 0.3149154290957425 -0.9376398255929888
4500000000.0 0.3104843304489207 -0.9495416117218782
4503000000.0 0.320551378837141 -0.9863608028920211
4506000000.0 0.28548057255025966 -0.9422720899472435
4509000000.0 0.31195532560349026 -0.9262388526942507
4512000000.0 0.29836150338459505 -0.9314028803371341
4516000000.0 0.31265678559939164 -0.9861280472971725
4519000000.0 0.2995320790968366 -0.9465330712656178
4522000000.0 0.277737411937041 -0.9682147264420682
4525000000.0 0.30970795374891935 -0.9622925052497047
4528000000.0 0.3003934104976226 -0.9789331700730028
4531000000.0 0.2870541033904201 -0.9673110488282702
4534000000.0 0.2864237046876799 -0.9547998563178125
4538000000.0 0.29325642686712927 -0.9488040297134359
4541000000.0 0.26510817936469616 -0.9645399726422204
4544000000.0 0.28661473898652906 -0.9465504476509443
4547000000.0 0.3057395774894666 -0.9512053196695924
4550000000.0 0.2876067492160085 -0.9759936156521831
4553000000.0 0.27005339453771154 -0.9838888393147049
4556000000.0 0.2821170054085339 -0.9473819218908093
4559000000.0 0.27078183785610904 -0.9786465601540627
4562000000.0 0.2727798165985313 -0.9651603065821472
4566000000.0 0.29374265216909606 -0.9736932319099812
4569000000.0 0.2869807984898845 -0.9703747160805253
4572000000.0 0.27681315151311525 -0.9612269605645355
4575000000.0 0.2717852671502752 -0.9595634316986533
4578000000.0 0.2926018625202425 -0.9990744848797346
4581000000.0 0.2666413271978405 -0.9631824511677967
4584000000.0 0.24887316065724802 -0.9724303765281908
4588000000.0 0.28109286628675284 -0.9775743871487783
4591000000.0 0.2906094135183206 -0.9626020798243021
4594000000.0 0.25739062114503575 -0.9775152665762785
4597000000.0 0.2710821032861424 -0.9872415826776852
4600000000.0 0.23757702124460994 -0.9898725405201048
4603000000.0 0.2571733743626485 -0.9825838367040713
4606000000.0 0.2668363693792146 -0.9991332559556441
4609000000.0 0.26456532720917747 -0.9703189722792814
4612000000.0 0.23883284723212522 -0.9674963441435827
4616000000.0 0.250388631853672 -0.9773979330231853
4619000000.0 0.26023290573771285 -0.9764065567850317
4622000000.0 0.23775307365776108 -0.9681545154264473
4625000000.0 0.22052030337448586 -0.9686413663128647
4628000000.0 0.26577675331291434 -0.9743025463418593
4631000000.0 0.24579707865523007 -0.9815581245264815
4634000000.0 0.24956697593660612 -0.9913327701128699
4638000000.0 0.2364476483144498 -0.9788711866744404
4641000000.0 0.24512937776548027 -0.9721458290373017
4644000000.0 0.24763151447392895 -0.9628714738500352
4647000000.0 0.22918242704230732 -0.973926422147099
4650000000.0 0.2198166651249546 -0.968189265969187
4653000000.0 0.2647253743940541 -0.9919306935219315
4656000000.0 0.22978689497471905 -0.9913335323023938
4659000000.0 0.2206010283182986 -0.9952127666006824
4662000000.0 0.20094603835445046 -0.9829781507251233
4666000000.0 0.21711178295064498 -0.988788550682338
4669000000.0 0.22865110138868777 -0.9789669981244981
4672000000.0 0.2190605349862638 -0.9893032605669633
4675000000.0 0.19618784169549544 -1.0050299694055327
4678000000.0 0.20854576761509264 -0.9618915670665913
4681000000.0 0.19767387453426508 -1.0050703696685102
4684000000.0 0.20417280636407353 -1.0179459546082028
4688000000.0 0.19560416723532725 -0.9892974724123754
4691000000.0 0.24718372119256876 -1.0162275155791984
4694000000.0 0.24513762329747202 -0.9678629875167951
4697000000.0 0.19520068107795402 -0.9433542561287517
4700000000.0 0.20412332367717737 -0.9812971266488478
4703000000.0 0.24812603463934893 -0.929894278177611
4706000000.0 0.21997569836223835 -0.9780711697294152
4709000000.0 0.18510716596857502 -0.9853232285369293
4712000000.0 0.19919178234243387 -0.9855860872913891
4716000000.0 0.21024556578891854 -1.0214533541281585
4719000000.0 0.256294550840803 -0.9863663843486316
4722000000.0 0.25185071540798876 -0.9870579620284213
4725000000.0 0.2314908679820493 -0.9772337785420729
4728000000.0 0.2308531768023847 -0.9796762150927326
4731000000.0 0.23236651123533067 -1.0211797864426435
4734000000.0 0.24143608183408277 -0.9781500561227037
4738000000.0 0.2521103462237678 -1.05905282257323
4741000000.0 0.1552303717114093 -1.0382928680949353
4744000000.0 0.17827932899070198 -1.0310832905323692
4747000000.0 0.20894532582032255 -0.9636505676740452
4750000000.0 0.19552214151702876 -1.0234790112672039
4753000000.0 0.20236789263785043 -1.007431801166556
4756000000.0 0.20679280763820068 -1.0385132011295464
4759000000.0 0.21002541543972444 -1.0051113467002448
4762000000.0 0.15098374461357808 -1.0491455234866844
4766000000.0 0.19924061803135196 -1.0220467827766548
4769000000.0 0.18214194774821132 -0.9809865431441936
4772000000.0 0.1839931594758143 -1.032985226749251
4775000000.0 0.18913211736550606 -1.065848306718904
4778000000.0 0.15441501871765081 -1.0317057623517774
4781000000.0 0.1928613093401095 -0.986872380111066
4784000000.0 0.1922169462823209 -1.0047904858299417
4788000000.0 0.1775921091779075 -1.024911993973176
4791000000.0 0.19430130110160423 -0.992284366157163
4794000000.0 0.22039736570669416 -1.031674300565038
4797000000.0 0.19117989306150118 -0.9786188816402374
4800000000.0 0.17373211496699784 -1.015126422225487
4803000000.0 0.1257896660687135 -1.0142265072925034
4806000000.0 0.1656990641713162 -1.0025179794760009
4809000000.0 0.11569840879553328 -1.0144243672552202
4812000000.0 0.10207081235554055 -0.989071377170506
4816000000.0 0.18210840890318575 -0.982512633897381
4819000000.0 0.19411638128630576 -1.0327065160259512
4822000000.0 0.19347875343356635 -1.045592766931462
4825000000.0 0.18444300176860665 -1.0377252436501085
4828000000.0 0.14715760286757565 -1.0051940104258732
4831000000.0 0.12958160047957848 -1.0486211704933788
4834000000.0 0.1803238273127958 -1.0174205582019755
4838000000.0 0.1496467309204188 -1.033128020038145
4841000000.0 0.14600587426282483 -1.0116894786001087
4844000000.0 0.2005256656808032 -1.0331243785471953
4847000000.0 0.17529490774723042 -0.9685461334208274
4850000000.0 0.13794254925990038 -1.039678231275012
4853000000.0 0.148190395904028 -0.9939518396635527
4856000000.0 0.15386453323542776 -0.9903052542590831
4859000000.0 0.1464005865488431 -1.0637408361572027
4862000000.0 0.18197128709389007 -0.9957399243662287
4866000000.0 0.12804326870372346 -1.047062769383703
4869000000.0 0.1315954237954735 -1.0225416115813477
4872000000.0 0.14471807224401034 -1.0446972414412277
4875000000.0 0.20380244474431394 -1.0495535435279608
4878000000.0 0.13889969644671973 -1.0249956712554513
4881000000.0 0.13303631222945272 -1.0651383582683074
4884000000.0 0.16360133749496214 -1.0091618249199834
4888000000.0 0.19360875625650614 -1.0089636827294726
4891000000.0 0.15293733285188787 -1.0204019745778585
4894000000.0 0.11592964461979255 -1.0056414201388384
4897000000.0 0.17321196013045553 -1.0155259833382977
4900000000.0 0.16685010419426338 -1.0251188420099024
4903000000.0 0.150265512760482 -1.0388022487127233
4906000000.0 0.15623740176458123 -1.0390674490127045
4909000000.0 0.125064036428243 -1.0323347957440487
4912000000.0 0.11336074224362935 -1.0553312886705881
4916000000.0 0.14221009641828947 -1.043357595782635
4919000000.0 0.14963992441738605 -1.0823934172938579
4922000000.0 0.12858847862151213 -1.026085874649729
4925000000.0 0.07649080410674736 -1.039612337061879
4928000000.0 0.17950373199005343 -1.0170653841837178
4931000000.0 0.1371699915036083 -1.024476667500686
4934000000.0 0.10774662880633123 -0.9946863362372145
4938000000.0 0.08810568385958367 -1.0249792023842355
4941000000.0 0.10702538435653869 -0.9987586782316258
4944000000.0 0.14026729831896795 -0.9830665760289397
4947000000.0 0.12186079006156869 -1.0412333859308105
4950000000.0 0.12392518796282537 -1.0363582768139463
4953000000.0 0.10265417210051131 -1.0621224005084469
4956000000.0 0.0767552969135129 -1.0312818229493215
4959000000.0 0.04846323650992895 -0.9950911639852908
4962000000.0 0.12380683872767101 -1.0466747630922149
4966000000.0 0.1294524012032413 -1.0446913056725011
4969000000.0 0.10283956720025983 -1.0710910607404318
4972000000.0 0.1283332097545684 -1.0165614220390067
4975000000.0 0.16346182088415057 -1.025786449807576
4978000000.0 0.11745054434673635 -1.0408726177068015
4981000000.0 0.08597065272715099 -1.027483589582072
4984000000.0 0.09690163286127174 -0.9975239746590228
4988000000.0 0.10485714360301879 -1.0631352128662028
4991000000.0 0.16099898322768041 -1.0397043394306942
4994000000.0 0.10654402609890978 -1.0021364228769183
4997000000.0 0.09284728291769201 -1.0119266632515798
5000000000.0 0.09352375617924613 -1.0378394173278636
5003000000.0 0.1161994634675369 -1.034902365720232
5006000000.0 0.0642341203099488 -1.0762719723292518
5009000000.0 0.09176532962190936 -1.0279380121265538
5012000000.0 0.0329273065890352 -1.053880720792472
5016000000.0 0.09926552294387098 -1.0515479197323438
5019000000.0 0.09793766033384865 -1.024184231807726
5022000000.0 0.08263969399284499 -1.0453764809041952
5025000000.0 0.02614352618428939 -1.0811656792400197
5028000000.0 0.06726515229088986 -1.0187770047310307
5031000000.0 0.06887394899421251 -1.0410356929506015
5034000000.0 0.052771305485084796 -1.0897794433515409
5038000000.0 0.0163107902098637 -0.9948969127923091
5041000000.0 0.14057608713003505 -1.0421434742505307
5044000000.0 0.08938312179731123 -1.020931833387833
5047000000.0 0.046554889656230614 -1.039600462559817
5050000000.0 0.12916851081219832 -1.0178121974477046
5053000000.0 0.04187611749023251 -1.0460791736353854
5056000000.0 0.06709828181284383 -1.0106395204556833
5059000000.0 0.05390245454519238 -1.02669756355458
5062000000.0 0.05255435095712363 -1.071152684912565
5066000000.0 0.04336687573629039 -1.0855786729117771
5069000000.0 0.06271866232816464 -1.0242108805730146
5072000000.0 0.07396300328431904 -1.0183513353654334
5075000000.0 0.10843277716914845 -1.019670943107362
5078000000.0 0.03639801046917879 -1.017401749449841
5081000000.0 0.0009472267272000456 -1.0313935086093806
5084000000.0 0.051714816742190306 -1.0463467256744612
5088000000.0 0.075558636450897 -1.0246841695705533
5091000000.0 0.014572069016431766 -0.9960377085833175
5094000000.0 0.04413513882279374 -1.0095723410422737
5097000000.0 0.06493412163987439 -0.9696520520263079
5100000000.0 0.03673772254231994 -1.0393492825725335
5103000000.0 -0.014713973629642663 -1.0509694014697812
5106000000.0 0.018075581061478663 -1.03077196071668
5109000000.0 0.05468837786377667 -1.0725336438837352
5112000000.0 -0.01199024770847007 -1.0206338879537982
5116000000.0 0.016792724823800675 -1.066979738151345
5119000000.0 -0.010978871087593656 -1.023043584878779
5122000000.0 0.03780605063525816 -1.0221266623959762
5125000000.0 0.06938297971394175 -1.0368432642156598
5128000000.0 0.0022522958848206764 -1.0170728196900451
5131000000.0 0.017875768957056726 -1.0435807037503486
5134000000.0 -0.0215635019792072 -1.0065919226954325
5138000000.0 0.011127597510288467 -1.0376974031180919
5141000000.0 0.07363545296201346 -1.064827405599406
5144000000.0 0.01233310412053823 -1.0078666047154679
5147000000.0 0.012826985179710981 -1.0883144838184335
5150000000.0 0.011460737308475188 -1.0625254176332775
5153000000.0 -0.01784584079268825 -1.073976508614395
5156000000.0 0.003210953659886051 -0.9897326515879881
5159000000.0 -0.006035960285711184 -1.063846101010505
5162000000.0 -0.04536186250551638 -1.066282110573574
5166000000.0 -0.01873329350023839 -1.0189968933722415
