! Created with skrf 1.8.0 (http://scikit-rf.org).
# Hz S RI R 50.0 
!freq ReS11 ImS11
4000000000.0 -0.1665 -1.529
4003000000.0 -1.28 -0.7846
4006000000.0 -1.407 0.5525
4009000000.0 -0.5192 1.398
4012000000.0 0.8037 1.302
4016000000.0 1.494 0.2083
4019000000.0 1.095 -1.058
4022000000.0 -0.1288 -1.538
4025000000.0 -1.335 -0.8966
4028000000.0 -1.53 0.4719
4031000000.0 -0.5356 1.458
4034000000.0 0.8405 1.4
4038000000.0 1.647 0.2471
4041000000.0 1.185 -1.077
4044000000.0 -0.1165 -1.618
4047000000.0 -1.344 -0.9411
4050000000.0 -1.593 0.4711
4053000000.0 -0.6006 1.499
4056000000.0 0.7636 1.469
4059000000.0 1.579 0.3278
4062000000.0 1.257 -0.9859
4066000000.0 0.004327 -1.615
4069000000.0 -1.207 -1.067
4072000000.0 -1.63 0.2888
4075000000.0 -0.8213 1.426
4078000000.0 0.5733 1.542
4081000000.0 1.564 0.5185
4084000000.0 1.396 -0.8607
4088000000.0 0.2656 -1.621
4091000000.0 -1.116 -1.212
4094000000.0 -1.655 0.05775
4097000000.0 -0.998 1.311
4100000000.0 0.3755 1.581
4103000000.0 1.45 0.6993
4106000000.0 1.439 -0.627
4109000000.0 0.4478 -1.534
4112000000.0 -0.8393 -1.264
4116000000.0 -1.482 -0.1944
4119000000.0 -1.111 1.009
4122000000.0 0.01064 1.529
4125000000.0 1.169 0.9307
4128000000.0 1.447 -0.2323
4131000000.0 0.7598 -1.261
4134000000.0 -0.4702 -1.43
4138000000.0 -1.329 -0.5773
4141000000.0 -1.346 0.6556
4144000000.0 -0.3804 1.457
4147000000.0 0.8625 1.23
4150000000.0 1.52 0.1406
4153000000.0 1.064 -1.076
4156000000.0 -0.1271 -1.522
4159000000.0 -1.252 -0.886
4162000000.0 -1.448 0.3777
4166000000.0 -0.6533 1.36
4169000000.0 0.6053 1.387
4172000000.0 1.449 0.4179
4175000000.0 1.231 -0.86
4178000000.0 0.1497 -1.491
4181000000.0 -1.059 -1.066
4184000000.0 -1.513 0.0984
4188000000.0 -0.8889 1.25
4191000000.0 0.3755 1.443
4194000000.0 1.407 0.6653
4197000000.0 1.414 -0.694
4200000000.0 0.3754 -1.54
4203000000.0 -0.9486 -1.276
4206000000.0 -1.611 -0.05134
4209000000.0 -1.057 1.282
4212000000.0 0.3576 1.631
4216000000.0 1.521 0.7192
4219000000.0 1.513 -0.8031
4222000000.0 0.3363 -1.635
4225000000.0 -1.151 -1.245
4228000000.0 -1.678 0.1518
4231000000.0 -0.8939 1.424
4234000000.0 0.5749 1.533
4238000000.0 1.589 0.5114
4241000000.0 1.319 -0.9591
4244000000.0 0.021 -1.616
4247000000.0 -1.239 -1.0
4250000000.0 -1.551 0.3414
4253000000.0 -0.6434 1.413
4256000000.0 0.7213 1.358
4259000000.0 1.521 0.2941
4262000000.0 1.132 -1.035
4266000000.0 -0.08255 -1.499
4269000000.0 -1.241 -0.8519
4272000000.0 -1.44 0.4644
4275000000.0 -0.4907 1.356
4278000000.0 0.765 1.213
4281000000.0 1.427 0.1598
4284000000.0 0.9989 -1.002
4288000000.0 -0.1532 -1.414
4291000000.0 -1.192 -0.7204
4294000000.0 -1.261 0.4367
4297000000.0 -0.4493 1.228
4300000000.0 0.6626 1.151
4303000000.0 1.296 0.2204
4306000000.0 0.9853 -0.8465
4309000000.0 -0.02577 -1.266
4312000000.0 -0.9798 -0.8404
4316000000.0 -1.252 0.2187
4319000000.0 -0.68 1.118
4322000000.0 0.4319 1.256
4325000000.0 1.257 0.4743
4328000000.0 1.162 -0.6212
4331000000.0 0.2806 -1.318
4334000000.0 -0.8656 -1.035
4338000000.0 -1.364 -0.05901
4341000000.0 -0.9121 1.056
4344000000.0 0.2208 1.364
4347000000.0 1.262 0.7746
4350000000.0 1.347 -0.5097
4353000000.0 0.5295 -1.373
4356000000.0 -0.7426 -1.241
4359000000.0 -1.433 -0.2218
4362000000.0 -1.075 0.9941
4366000000.0 0.03642 1.484
4369000000.0 1.163 0.9521
4372000000.0 1.436 -0.2969
4375000000.0 0.6782 -1.281
4378000000.0 -0.5966 -1.387
4381000000.0 -1.436 -0.4431
4384000000.0 -1.3 0.8511
4388000000.0 -0.1425 1.544
4391000000.0 1.14 1.078
4394000000.0 1.592 -0.1618
4397000000.0 0.8253 -1.344
4400000000.0 -0.5603 -1.501
4403000000.0 -1.502 -0.5192
4406000000.0 -1.324 0.8658
4409000000.0 -0.123 1.57
4412000000.0 1.142 1.072
4416000000.0 1.542 -0.2009
4419000000.0 0.7558 -1.347
4422000000.0 -0.5902 -1.417
4425000000.0 -1.446 -0.4046
4428000000.0 -1.21 0.8733
4431000000.0 -0.04912 1.439
4434000000.0 1.09 0.936
4438000000.0 1.401 -0.2729
4441000000.0 0.6093 -1.236
4444000000.0 -0.6182 -1.225
4447000000.0 -1.313 -0.3042
4450000000.0 -1.034 0.899
4453000000.0 0.07665 1.311
4456000000.0 1.057 0.7662
4459000000.0 1.231 -0.392
4462000000.0 0.4199 -1.168
4466000000.0 -0.6778 -1.063
4469000000.0 -1.253 -0.1354
4472000000.0 -0.8095 0.8978
4475000000.0 0.195 1.176
4478000000.0 1.038 0.5731
4481000000.0 1.08 -0.429
4484000000.0 0.2949 -1.14
4488000000.0 -0.6895 -0.9094
4491000000.0 -1.143 -0.04366
4494000000.0 -0.7443 0.8766
4497000000.0 0.2298 1.101
4500000000.0 0.9982 0.5782
4503000000.0 1.031 -0.4177
4506000000.0 0.3037 -1.065
4509000000.0 -0.6076 -0.9146
4512000000.0 -1.116 -0.06097
4516000000.0 -0.7493 0.8203
4519000000.0 0.1548 1.122
4522000000.0 0.9754 0.5852
4525000000.0 1.086 -0.3748
4528000000.0 0.4053 -1.106
4531000000.0 -0.6204 -1.001
4534000000.0 -1.151 -0.2037
4538000000.0 -0.8816 0.7935
4541000000.0 0.05144 1.2
4544000000.0 0.9444 0.7227
4547000000.0 1.169 -0.2771
4550000000.0 0.559 -1.071
4553000000.0 -0.4891 -1.113
4556000000.0 -1.175 -0.3383
4559000000.0 -1.013 0.6948
4562000000.0 -0.1435 1.258
4566000000.0 0.879 0.9094
4569000000.0 1.248 -0.07324
4572000000.0 0.7687 -1.019
4575000000.0 -0.3003 -1.261
4578000000.0 -1.182 -0.5934
4581000000.0 -1.207 0.528
4584000000.0 -0.3713 1.309
4588000000.0 0.7573 1.124
4591000000.0 1.333 0.1247
4594000000.0 0.9621 -0.9768
4597000000.0 -0.1765 -1.386
4600000000.0 -1.147 -0.767
4603000000.0 -1.326 0.4179
4606000000.0 -0.5174 1.307
4609000000.0 0.6579 1.238
4612000000.0 1.401 0.2896
4616000000.0 1.083 -0.9036
4619000000.0 -0.01589 -1.423
4622000000.0 -1.093 -0.8592
4625000000.0 -1.339 0.2644
4628000000.0 -0.6249 1.268
4631000000.0 0.5705 1.272
4634000000.0 1.342 0.3652
4638000000.0 1.059 -0.8013
4641000000.0 0.04225 -1.367
4644000000.0 -1.02 -0.9035
4647000000.0 -1.321 0.2501
4650000000.0 -0.6345 1.17
4653000000.0 0.5132 1.229
4656000000.0 1.258 0.337
4659000000.0 1.024 -0.7762
4662000000.0 0.02278 -1.261
4666000000.0 -0.951 -0.7938
4669000000.0 -1.221 0.2647
4672000000.0 -0.5587 1.099
4675000000.0 0.4539 1.077
4678000000.0 1.118 0.295
4681000000.0 0.8924 -0.688
4684000000.0 0.007432 -1.142
4688000000.0 -0.8495 -0.7158
4691000000.0 -1.096 0.2084
4694000000.0 -0.4929 0.9708
4697000000.0 0.4508 1.015
4700000000.0 1.057 0.2439
4703000000.0 0.8673 -0.6972
4706000000.0 0.007066 -1.101
4709000000.0 -0.8553 -0.6775
4712000000.0 -1.055 0.2682
4716000000.0 -0.4694 0.9844
4719000000.0 0.4923 0.9743
4722000000.0 1.023 0.229
4725000000.0 0.8124 -0.6481
4728000000.0 0.03276 -1.07
4731000000.0 -0.8037 -0.6884
4734000000.0 -1.025 0.192
4738000000.0 -0.5045 0.9061
4741000000.0 0.3969 1.004
4744000000.0 1.023 0.2821
4747000000.0 0.8879 -0.5632
4750000000.0 0.1333 -1.054
4753000000.0 -0.7209 -0.7782
4756000000.0 -1.111 0.08412
4759000000.0 -0.6509 0.8829
4762000000.0 0.2779 1.093
4766000000.0 0.9995 0.5717
4769000000.0 1.016 -0.4735
4772000000.0 0.3133 -1.101
4775000000.0 -0.6765 -0.9751
4778000000.0 -1.173 -0.1242
4781000000.0 -0.8494 0.8439
4784000000.0 0.1019 1.193
4788000000.0 0.9946 0.6919
4791000000.0 1.176 -0.282
4794000000.0 0.5488 -1.1
4797000000.0 -0.4989 -1.145
4800000000.0 -1.184 -0.3598
4803000000.0 -1.037 0.6593
4806000000.0 -0.1338 1.24
4809000000.0 0.8823 0.9104
4812000000.0 1.304 -0.06353
4816000000.0 0.791 -1.059
4819000000.0 -0.2888 -1.257
4822000000.0 -1.215 -0.603
4825000000.0 -1.239 0.5072
4828000000.0 -0.3986 1.307
4831000000.0 0.8129 1.155
4834000000.0 1.4 0.112
4838000000.0 0.9724 -1.014
4841000000.0 -0.1667 -1.38
4844000000.0 -1.16 -0.7613
4847000000.0 -1.317 0.4448
4850000000.0 -0.4813 1.301
4853000000.0 0.706 1.199
4856000000.0 1.365 0.2271
4859000000.0 1.021 -0.8844
4862000000.0 -0.06486 -1.353
4866000000.0 -1.075 -0.7944
4869000000.0 -1.288 0.3181
4872000000.0 -0.5373 1.206
4875000000.0 0.5637 1.178
4878000000.0 1.274 0.3239
4881000000.0 0.9917 -0.7667
4884000000.0 -0.000376 -1.248
4888000000.0 -0.9475 -0.7911
4891000000.0 -1.209 0.2309
4894000000.0 -0.5298 1.059
4897000000.0 0.477 1.052
4900000000.0 1.112 0.3047
4903000000.0 0.9285 -0.6326
4906000000.0 0.08067 -1.112
4909000000.0 -0.7981 -0.7105
4912000000.0 -1.035 0.1605
4916000000.0 -0.5246 0.8964
4919000000.0 0.3517 0.9524
4922000000.0 0.9111 0.3249
4925000000.0 0.8162 -0.5282
4928000000.0 0.09834 -0.9814
4931000000.0 -0.6433 -0.6975
4934000000.0 -0.9354 0.0688
4938000000.0 -0.5453 0.7825
4941000000.0 0.2644 0.9169
4944000000.0 0.8764 0.3944
4947000000.0 0.8388 -0.4171
4950000000.0 0.2161 -0.9273
4953000000.0 -0.5687 -0.7711
4956000000.0 -0.9496 -0.03865
4959000000.0 -0.6143 0.7351
4962000000.0 0.198 0.955
4966000000.0 0.8661 0.4462
4969000000.0 0.9252 -0.3599
4972000000.0 0.293 -0.9518
4975000000.0 -0.5454 -0.8506
4978000000.0 -1.008 -0.09392
4981000000.0 -0.7495 0.712
4984000000.0 0.1062 1.02
4988000000.0 0.8674 0.5975
4991000000.0 1.036 -0.3007
4994000000.0 0.4418 -0.9693
4997000000.0 -0.4751 -1.008
5000000000.0 -1.102 -0.264
5003000000.0 -0.9353 0.697
5006000000.0 -0.05112 1.179
5009000000.0 0.8815 0.8128
5012000000.0 1.211 -0.1478
5016000000.0 0.6454 -1.047
5019000000.0 -0.3887 -1.164
5022000000.0 -1.16 -0.4464
5025000000.0 -1.083 0.6335
5028000000.0 -0.1894 1.276
5031000000.0 0.8196 0.9818
5034000000.0 1.292 -0.03686
5038000000.0 0.7954 -1.029
5041000000.0 -0.2665 -1.302
5044000000.0 -1.151 -0.6139
5047000000.0 -1.212 0.4739
5050000000.0 -0.4245 1.23
5053000000.0 0.681 1.093
5056000000.0 1.267 0.1572
5059000000.0 0.975 -0.8669
5062000000.0 -0.06354 -1.286
5066000000.0 -1.006 -0.7896
5069000000.0 -1.278 0.3151
5072000000.0 -0.587 1.154
5075000000.0 0.5273 1.193
5078000000.0 1.247 0.3592
5081000000.0 1.023 -0.7287
5084000000.0 0.07687 -1.234
5088000000.0 -0.8836 -0.8749
5091000000.0 -1.215 0.1422
5094000000.0 -0.656 0.9785
5097000000.0 0.3049 1.131
5100000000.0 1.062 0.4479
5103000000.0 1.031 -0.4953
5106000000.0 0.3004 -1.071
5109000000.0 -0.6395 -0.8792
5112000000.0 -1.076 -0.07284
5116000000.0 -0.7801 0.758
5119000000.0 0.09871 1.054
5122000000.0 0.8845 0.573
5125000000.0 1.009 -0.2766
5128000000.0 0.4553 -0.9323
5131000000.0 -0.4636 -0.9202
5134000000.0 -0.977 -0.2403
5138000000.0 -0.8194 0.6014
5141000000.0 -0.0386 0.9846
5144000000.0 0.7285 0.6323
5147000000.0 0.923 -0.1468
5150000000.0 0.4803 -0.8359
5153000000.0 -0.3642 -0.878
5156000000.0 -0.8855 -0.3086
5159000000.0 -0.7638 0.5057
5162000000.0 -0.1435 0.9341
5166000000.0 0.6122 0.671
5169000000.0 0.9009 -0.06072
5172000000.0 0.5075 -0.7359
5175000000.0 -0.2654 -0.8395
5178000000.0 -0.8225 -0.3295
5181000000.0 -0.8204 0.4466
5184000000.0 -0.1696 0.8859
5188000000.0 0.6392 0.6693
5191000000.0 0.9116 -0.044
5194000000.0 0.5133 -0.7618
5197000000.0 -0.2578 -0.9159
5200000000.0 -0.8753 -0.3953
5203000000.0 -0.8542 0.4684
5206000000.0 -0.1696 0.9493
5209000000.0 0.6339 0.7306
5212000000.0 0.9699 -0.0313
5216000000.0 0.5686 -0.8097
5219000000.0 -0.238 -0.9476
5222000000.0 -0.8977 -0.4244
5225000000.0 -0.903 0.4412
5228000000.0 -0.2325 0.9901
5231000000.0 0.5934 0.8141
5234000000.0 1.031 0.02541
5238000000.0 0.6941 -0.778
5241000000.0 -0.1787 -1.016
5244000000.0 -0.9117 -0.5466
5247000000.0 -1.001 0.3544
5250000000.0 -0.3451 1.023
5253000000.0 0.5843 0.936
5256000000.0 1.033 0.1883
5259000000.0 0.8319 -0.7175
5262000000.0 -0.01864 -1.088
5266000000.0 -0.8347 -0.7
5269000000.0 -1.065 0.2211
5272000000.0 -0.5197 0.9392
5275000000.0 0.3779 1.034
5278000000.0 1.026 0.3727
5281000000.0 0.9561 -0.5596
5284000000.0 0.2183 -1.107
5288000000.0 -0.6999 -0.8798
5291000000.0 -1.153 -0.0307
5294000000.0 -0.7375 0.8134
5297000000.0 0.1713 1.1
5300000000.0 0.9525 0.6191
5303000000.0 1.061 -0.3575
5306000000.0 0.4354 -1.068
5309000000.0 -0.516 -1.04
5312000000.0 -1.117 -0.2445
5316000000.0 -0.9407 0.6822
5319000000.0 -0.05772 1.142
5322000000.0 0.8394 0.788
5325000000.0 1.151 -0.1678
5328000000.0 0.6536 -0.9655
5331000000.0 -0.3249 -1.099
5334000000.0 -1.075 -0.4058
5338000000.0 -0.9998 0.5041
5341000000.0 -0.2372 1.129
5344000000.0 0.6817 0.9037
5347000000.0 1.109 0.01393
5350000000.0 0.7369 -0.83
5353000000.0 -0.1948 -1.082
5356000000.0 -0.9522 -0.5346
5359000000.0 -1.011 0.4151
5362000000.0 -0.3402 1.001
5366000000.0 0.5943 0.8947
5369000000.0 1.047 0.09991
5372000000.0 0.7091 -0.7583
5375000000.0 -0.129 -1.035
5378000000.0 -0.9019 -0.5183
5381000000.0 -0.9438 0.3369
5384000000.0 -0.317 0.9914
5388000000.0 0.5785 0.8268
5391000000.0 0.9514 0.06904
5394000000.0 0.6467 -0.7324
5397000000.0 -0.1638 -0.946
5400000000.0 -0.7833 -0.4534
5403000000.0 -0.8566 0.3747
5406000000.0 -0.2436 0.8586
5409000000.0 0.4973 0.7042
5412000000.0 0.8984 0.02921
5416000000.0 0.5747 -0.662
5419000000.0 -0.1337 -0.8682
5422000000.0 -0.7733 -0.4242
5425000000.0 -0.8371 0.3408
5428000000.0 -0.2321 0.8235
5431000000.0 0.4996 0.7196
5434000000.0 0.8876 0.0188
5438000000.0 0.5914 -0.6625
5441000000.0 -0.1471 -0.8841
5444000000.0 -0.7521 -0.4123
5447000000.0 -0.8092 0.3409
5450000000.0 -0.2526 0.8313
5453000000.0 0.4943 0.7463
5456000000.0 0.9092 0.08026
5459000000.0 0.6166 -0.6303
5462000000.0 -0.1148 -0.9303
5466000000.0 -0.758 -0.5054
5469000000.0 -0.8599 0.2819
5472000000.0 -0.3476 0.856
5475000000.0 0.4321 0.7958
5478000000.0 0.9116 0.1804
5481000000.0 0.7577 -0.5612
5484000000.0 0.04936 -0.9502
5488000000.0 -0.721 -0.6312
5491000000.0 -0.9844 0.1238
5494000000.0 -0.5266 0.8546
5497000000.0 0.3289 0.961
5500000000.0 0.8969 0.3712
5503000000.0 0.9001 -0.499
5506000000.0 0.1956 -0.9954
5509000000.0 -0.6387 -0.7949
5512000000.0 -1.046 -0.02843
5516000000.0 -0.6958 0.7474
5519000000.0 0.1197 1.041
5522000000.0 0.8734 0.5635
5525000000.0 0.9864 -0.3289
5528000000.0 0.4128 -0.9641
5531000000.0 -0.5179 -0.923
5534000000.0 -1.032 -0.2664
5538000000.0 -0.8815 0.6127
5541000000.0 -0.0673 1.08
5544000000.0 0.7817 0.7166
5547000000.0 1.055 -0.1342
5550000000.0 0.5755 -0.9048
5553000000.0 -0.3163 -1.023
5556000000.0 -0.9918 -0.4058
5559000000.0 -0.9374 0.513
5562000000.0 -0.1905 1.052
5566000000.0 0.6468 0.7991
5569000000.0 1.034 0.03465
5572000000.0 0.6734 -0.7463
5575000000.0 -0.1583 -1.004
5578000000.0 -0.8681 -0.4956
5581000000.0 -0.9009 0.3469
5584000000.0 -0.3412 0.926
5588000000.0 0.5211 0.807
5591000000.0 0.9306 0.1099
5594000000.0 0.7062 -0.6323
5597000000.0 -0.06789 -0.9333
5600000000.0 -0.7534 -0.5689
5603000000.0 -0.8726 0.2239
5606000000.0 -0.3795 0.8475
5609000000.0 0.4004 0.8122
5612000000.0 0.8683 0.1744
5616000000.0 0.6773 -0.5644
5619000000.0 0.005569 -0.8529
5622000000.0 -0.6439 -0.5334
5625000000.0 -0.8354 0.1703
5628000000.0 -0.3865 0.7386
5631000000.0 0.3531 0.7669
5634000000.0 0.8181 0.2214
5638000000.0 0.6892 -0.511
5641000000.0 0.02831 -0.8597
5644000000.0 -0.6454 -0.5516
5647000000.0 -0.8153 0.1566
5650000000.0 -0.4445 0.7621
5653000000.0 0.3155 0.7613
5656000000.0 0.8307 0.2328
5659000000.0 0.7131 -0.4875
5662000000.0 0.0508 -0.8679
5666000000.0 -0.6601 -0.5652
5669000000.0 -0.868 0.134
5672000000.0 -0.4338 0.7842
5675000000.0 0.3336 0.8182
5678000000.0 0.8762 0.2527
5681000000.0 0.7439 -0.5126
5684000000.0 0.07409 -0.9332
5688000000.0 -0.6773 -0.6408
5691000000.0 -0.9643 0.1368
5694000000.0 -0.5183 0.8465
5697000000.0 0.3399 0.9425
5700000000.0 0.9128 0.3201
5703000000.0 0.8488 -0.5348
5706000000.0 0.1079 -1.028
5709000000.0 -0.7236 -0.7709
5712000000.0 -1.015 0.0702
5716000000.0 -0.6108 0.8278
5719000000.0 0.2662 1.021
5722000000.0 0.9617 0.4296
5725000000.0 0.9525 -0.4907
5728000000.0 0.2752 -1.048
5731000000.0 -0.6458 -0.8762
5734000000.0 -1.1 -0.06107
5738000000.0 -0.6968 0.8126
5741000000.0 0.1497 1.07
5744000000.0 0.9446 0.6238
5747000000.0 1.067 -0.3167
5750000000.0 0.4018 -1.007
5753000000.0 -0.5302 -0.9801
5756000000.0 -1.098 -0.2164
5759000000.0 -0.8861 0.6965
5762000000.0 -0.008303 1.113
5766000000.0 0.8249 0.7182
5769000000.0 1.102 -0.1874
5772000000.0 0.5821 -0.9288
5775000000.0 -0.3862 -1.015
5778000000.0 -1.046 -0.3547
5781000000.0 -0.9604 0.5533
5784000000.0 -0.2116 1.078
5788000000.0 0.6896 0.8341
5791000000.0 1.103 -0.01682
5794000000.0 0.7117 -0.8596
5797000000.0 -0.2012 -1.062
5800000000.0 -0.9404 -0.5165
5803000000.0 -0.9925 0.4095
5806000000.0 -0.3063 0.9949
5809000000.0 0.5535 0.8682
5812000000.0 1.064 0.1316
5816000000.0 0.767 -0.6991
5819000000.0 -0.08228 -1.019
5822000000.0 -0.8113 -0.5981
5825000000.0 -0.9735 0.2718
5828000000.0 -0.4231 0.8952
5831000000.0 0.4434 0.8863
5834000000.0 0.9924 0.2133
5838000000.0 0.7747 -0.6025
5841000000.0 0.006165 -0.9887
5844000000.0 -0.7423 -0.6127
5847000000.0 -0.9283 0.1676
5850000000.0 -0.4485 0.787
5853000000.0 0.359 0.8805
5856000000.0 0.93 0.2417
5859000000.0 0.7584 -0.5594
5862000000.0 0.04772 -0.9143
5866000000.0 -0.6993 -0.5954
5869000000.0 -0.9104 0.1722
5872000000.0 -0.4155 0.7768
5875000000.0 0.3554 0.8132
5878000000.0 0.8758 0.2507
5881000000.0 0.7338 -0.4993
5884000000.0 0.06558 -0.8683
5888000000.0 -0.6293 -0.6149
5891000000.0 -0.8289 0.1136
5894000000.0 -0.4684 0.7469
5897000000.0 0.2734 0.81
5900000000.0 0.8285 0.2988
5903000000.0 0.693 -0.4518
5906000000.0 0.1251 -0.883
5909000000.0 -0.5905 -0.6138
5912000000.0 -0.8487 0.04568
5916000000.0 -0.5261 0.707
5919000000.0 0.1937 0.8461
5922000000.0 0.8033 0.3568
5925000000.0 0.7862 -0.3972
5928000000.0 0.1587 -0.8732
5931000000.0 -0.5104 -0.7196
5934000000.0 -0.8826 -0.02553
5938000000.0 -0.608 0.6294
5941000000.0 0.1228 0.9029
5944000000.0 0.7683 0.4655
5947000000.0 0.8316 -0.2975
5950000000.0 0.3147 -0.8678
5953000000.0 -0.4641 -0.8133
5956000000.0 -0.8915 -0.1811
5959000000.0 -0.7052 0.599
5962000000.0 -0.008584 0.9179
5966000000.0 0.7349 0.5809
5969000000.0 0.9325 -0.176
5972000000.0 0.48 -0.834
5975000000.0 -0.341 -0.9079
5978000000.0 -0.9155 -0.3342
5981000000.0 -0.8704 0.4782
5984000000.0 -0.1911 0.9748
5988000000.0 0.6456 0.7385
5991000000.0 0.9845 -0.006865
5994000000.0 0.6484 -0.8167
5997000000.0 -0.1688 -0.9762
6000000000.0 -0.8954 -0.4997
6003000000.0 -0.9186 0.3865
6006000000.0 -0.3155 0.9512
6009000000.0 0.5446 0.8345
6012000000.0 0.9909 0.1098
6016000000.0 0.6865 -0.7019
6019000000.0 -0.07282 -0.9772
6022000000.0 -0.8013 -0.566
6025000000.0 -0.9583 0.2644
6028000000.0 -0.3856 0.9152
6031000000.0 0.4414 0.8878
6034000000.0 0.938 0.191
6038000000.0 0.7524 -0.6094
6041000000.0 0.01479 -0.9872
6044000000.0 -0.741 -0.6115
6047000000.0 -0.9383 0.1777
6050000000.0 -0.412 0.8675
6053000000.0 0.3736 0.8451
6056000000.0 0.8893 0.2629
6059000000.0 0.7795 -0.555
6062000000.0 0.04874 -0.9398
6066000000.0 -0.6725 -0.5937
6069000000.0 -0.8972 0.1447
6072000000.0 -0.4413 0.7675
6075000000.0 0.3074 0.8476
6078000000.0 0.8359 0.2523
6081000000.0 0.7274 -0.4814
6084000000.0 0.09293 -0.8787
6088000000.0 -0.6357 -0.6335
6091000000.0 -0.8911 0.1104
6094000000.0 -0.4735 0.6918
6097000000.0 0.2742 0.8241
6100000000.0 0.8155 0.3193
6103000000.0 0.7335 -0.4014
6106000000.0 0.1315 -0.8569
6109000000.0 -0.5726 -0.632
6112000000.0 -0.8543 0.07481
6116000000.0 -0.5068 0.7076
6119000000.0 0.2424 0.8444
6122000000.0 0.7989 0.3588
6125000000.0 0.7789 -0.3941
6128000000.0 0.145 -0.8657
6131000000.0 -0.5558 -0.6508
6134000000.0 -0.886 0.01373
6138000000.0 -0.5833 0.6574
6141000000.0 0.195 0.8625
6144000000.0 0.7719 0.4141
6147000000.0 0.8172 -0.3263
6150000000.0 0.2546 -0.853
6153000000.0 -0.5263 -0.7095
6156000000.0 -0.9442 -0.06179
6159000000.0 -0.6438 0.6444
6162000000.0 0.1362 0.8922
6166000000.0 0.817 0.4686
6169000000.0 0.8982 -0.2805
6172000000.0 0.3273 -0.8824
6175000000.0 -0.5177 -0.8136
6178000000.0 -0.9458 -0.1499
6181000000.0 -0.6785 0.635
6184000000.0 0.05472 0.9602
6188000000.0 0.7363 0.5674
6191000000.0 0.9051 -0.2114
6194000000.0 0.3996 -0.8511
6197000000.0 -0.3925 -0.8337
6200000000.0 -0.9231 -0.2447
6203000000.0 -0.7823 0.5128
6206000000.0 -0.05009 0.9605
6209000000.0 0.7342 0.641
6212000000.0 0.8868 -0.134
6216000000.0 0.5138 -0.7953
6219000000.0 -0.3062 -0.8748
6222000000.0 -0.8257 -0.3254
6225000000.0 -0.8115 0.4525
6228000000.0 -0.1789 0.9129
6231000000.0 0.6095 0.695
6234000000.0 0.9102 -0.01334
6238000000.0 0.5437 -0.6862
6241000000.0 -0.1529 -0.8647
6244000000.0 -0.7728 -0.4241
6247000000.0 -0.8104 0.3323
6250000000.0 -0.2721 0.804
6253000000.0 0.425 0.7153
6256000000.0 0.8396 0.09338
6259000000.0 0.6358 -0.5899
6262000000.0 -0.03449 -0.8348
6266000000.0 -0.631 -0.5067
6269000000.0 -0.7989 0.1947
