! Created with skrf 1.8.0 (http://scikit-rf.org).
# Hz S RI R 50.0 
!freq ReS11 ImS11
4000000000.0 -0.1583 -1.47
4003000000.0 -1.272 -0.8173
4006000000.0 -1.384 0.4641
4009000000.0 -0.5213 1.45
4012000000.0 0.7735 1.31
4016000000.0 1.544 0.1773
4019000000.0 1.161 -1.071
4022000000.0 -0.0881 -1.577
4025000000.0 -1.276 -0.9197
4028000000.0 -1.519 0.4394
4031000000.0 -0.6014 1.505
4034000000.0 0.7971 1.398
4038000000.0 1.591 0.2562
4041000000.0 1.189 -1.108
4044000000.0 -0.1263 -1.596
4047000000.0 -1.358 -0.8919
4050000000.0 -1.599 0.462
4053000000.0 -0.6527 1.485
4056000000.0 0.7829 1.426
4059000000.0 1.604 0.3292
4062000000.0 1.281 -1.033
4066000000.0 -0.01625 -1.599
4069000000.0 -1.251 -1.072
4072000000.0 -1.563 0.2909
4075000000.0 -0.8239 1.424
4078000000.0 0.5601 1.537
4081000000.0 1.528 0.5358
4084000000.0 1.385 -0.8586
4088000000.0 0.2278 -1.649
4091000000.0 -1.105 -1.219
4094000000.0 -1.63 0.06299
4097000000.0 -0.963 1.329
4100000000.0 0.3863 1.567
4103000000.0 1.456 0.6601
4106000000.0 1.469 -0.6553
4109000000.0 0.468 -1.496
4112000000.0 -0.8544 -1.293
4116000000.0 -1.513 -0.204
4119000000.0 -1.084 1.008
4122000000.0 -0.0002115 1.487
4125000000.0 1.125 0.9338
4128000000.0 1.497 -0.2478
4131000000.0 0.7796 -1.26
4134000000.0 -0.4321 -1.415
4138000000.0 -1.382 -0.5696
4141000000.0 -1.347 0.6338
4144000000.0 -0.393 1.448
4147000000.0 0.8525 1.252
4150000000.0 1.498 0.1366
4153000000.0 1.089 -1.07
4156000000.0 -0.1354 -1.536
4159000000.0 -1.269 -0.9131
4162000000.0 -1.454 0.4049
4166000000.0 -0.6304 1.349
4169000000.0 0.6562 1.37
4172000000.0 1.462 0.3793
4175000000.0 1.246 -0.8521
4178000000.0 0.1257 -1.484
4181000000.0 -1.072 -1.11
4184000000.0 -1.528 0.1225
4188000000.0 -0.9034 1.228
4191000000.0 0.3874 1.483
4194000000.0 1.389 0.6465
4197000000.0 1.394 -0.6896
4200000000.0 0.3498 -1.51
4203000000.0 -0.9858 -1.313
4206000000.0 -1.621 -0.04245
4209000000.0 -1.038 1.278
4212000000.0 0.3197 1.634
4216000000.0 1.531 0.7691
4219000000.0 1.521 -0.759
4222000000.0 0.3198 -1.707
4225000000.0 -1.115 -1.253
4228000000.0 -1.683 0.1063
4231000000.0 -0.9036 1.413
4234000000.0 0.5518 1.591
4238000000.0 1.559 0.4686
4241000000.0 1.314 -0.9144
4244000000.0 0.1201 -1.572
4247000000.0 -1.232 -1.048
4250000000.0 -1.55 0.2725
4253000000.0 -0.649 1.436
4256000000.0 0.6864 1.407
4259000000.0 1.523 0.2944
4262000000.0 1.156 -1.018
4266000000.0 -0.08487 -1.499
4269000000.0 -1.233 -0.853
4272000000.0 -1.433 0.4506
4275000000.0 -0.4756 1.389
4278000000.0 0.7892 1.256
4281000000.0 1.418 0.1513
4284000000.0 1.018 -0.9879
4288000000.0 -0.1554 -1.383
4291000000.0 -1.185 -0.7502
4294000000.0 -1.27 0.4265
4297000000.0 -0.5196 1.276
4300000000.0 0.6577 1.152
4303000000.0 1.309 0.2069
4306000000.0 0.9913 -0.828
4309000000.0 0.02086 -1.31
4312000000.0 -0.988 -0.803
4316000000.0 -1.273 0.201
4319000000.0 -0.6737 1.103
4322000000.0 0.4354 1.256
4325000000.0 1.235 0.4649
4328000000.0 1.171 -0.6563
4331000000.0 0.2782 -1.31
4334000000.0 -0.8727 -1.069
4338000000.0 -1.388 -0.01427
4341000000.0 -0.8978 1.041
4344000000.0 0.1965 1.406
4347000000.0 1.209 0.7156
4350000000.0 1.357 -0.4987
4353000000.0 0.5035 -1.367
4356000000.0 -0.7545 -1.249
4359000000.0 -1.447 -0.2726
4362000000.0 -1.111 0.9194
4366000000.0 0.02835 1.471
4369000000.0 1.131 0.925
4372000000.0 1.454 -0.3084
4375000000.0 0.6765 -1.325
4378000000.0 -0.5641 -1.382
4381000000.0 -1.468 -0.4587
4384000000.0 -1.298 0.8304
4388000000.0 -0.164 1.505
4391000000.0 1.094 1.09
4394000000.0 1.581 -0.1609
4397000000.0 0.8869 -1.328
4400000000.0 -0.5207 -1.504
4403000000.0 -1.504 -0.534
4406000000.0 -1.355 0.8245
4409000000.0 -0.1766 1.596
4412000000.0 1.114 1.089
4416000000.0 1.546 -0.2244
4419000000.0 0.7879 -1.324
4422000000.0 -0.5432 -1.419
4425000000.0 -1.437 -0.4169
4428000000.0 -1.185 0.8555
4431000000.0 -0.09277 1.452
4434000000.0 1.113 0.9389
4438000000.0 1.383 -0.2769
4441000000.0 0.6591 -1.258
4444000000.0 -0.5923 -1.288
4447000000.0 -1.353 -0.2916
4450000000.0 -1.042 0.8691
4453000000.0 0.01677 1.319
4456000000.0 1.05 0.7517
4459000000.0 1.246 -0.3873
4462000000.0 0.4553 -1.165
4466000000.0 -0.646 -1.083
4469000000.0 -1.24 -0.1396
4472000000.0 -0.8241 0.8944
4475000000.0 0.1506 1.187
4478000000.0 1.059 0.5977
4481000000.0 1.102 -0.4354
4484000000.0 0.3213 -1.121
4488000000.0 -0.6647 -0.8997
4491000000.0 -1.124 -0.07758
4494000000.0 -0.77 0.8405
4497000000.0 0.216 1.113
4500000000.0 0.9958 0.5458
4503000000.0 0.9914 -0.4539
4506000000.0 0.2954 -1.048
4509000000.0 -0.6011 -0.9162
4512000000.0 -1.121 -0.09489
4516000000.0 -0.7895 0.8182
4519000000.0 0.156 1.133
4522000000.0 0.9547 0.5963
4525000000.0 1.078 -0.4034
4528000000.0 0.428 -1.078
4531000000.0 -0.5754 -1.008
4534000000.0 -1.138 -0.1806
4538000000.0 -0.8946 0.7836
4541000000.0 0.05105 1.206
4544000000.0 0.9345 0.7291
4547000000.0 1.185 -0.2501
4550000000.0 0.5435 -1.078
4553000000.0 -0.477 -1.129
4556000000.0 -1.154 -0.3506
4559000000.0 -1.03 0.69
4562000000.0 -0.1562 1.264
4566000000.0 0.8497 0.9311
4569000000.0 1.291 -0.07949
4572000000.0 0.7427 -1.017
4575000000.0 -0.3125 -1.266
4578000000.0 -1.196 -0.614
4581000000.0 -1.206 0.5145
4584000000.0 -0.3954 1.267
4588000000.0 0.7604 1.142
4591000000.0 1.346 0.1262
4594000000.0 0.9769 -0.9607
4597000000.0 -0.1385 -1.382
4600000000.0 -1.136 -0.7622
4603000000.0 -1.34 0.3815
4606000000.0 -0.5563 1.271
4609000000.0 0.6429 1.258
4612000000.0 1.366 0.3096
4616000000.0 1.106 -0.8776
4619000000.0 0.003671 -1.403
4622000000.0 -1.051 -0.8958
4625000000.0 -1.357 0.2785
4628000000.0 -0.6359 1.208
4631000000.0 0.5387 1.244
4634000000.0 1.352 0.3698
4638000000.0 1.107 -0.7603
4641000000.0 0.09664 -1.373
4644000000.0 -0.9997 -0.8813
4647000000.0 -1.335 0.1885
4650000000.0 -0.6506 1.181
4653000000.0 0.5117 1.246
4656000000.0 1.274 0.3481
4659000000.0 1.057 -0.7392
4662000000.0 0.0346 -1.275
4666000000.0 -0.9477 -0.8309
4669000000.0 -1.189 0.2242
4672000000.0 -0.6023 1.056
4675000000.0 0.4497 1.082
4678000000.0 1.112 0.3355
4681000000.0 0.9431 -0.6669
4684000000.0 0.03187 -1.11
4688000000.0 -0.8736 -0.7237
4691000000.0 -1.093 0.213
4694000000.0 -0.5136 0.9764
4697000000.0 0.4612 1.008
4700000000.0 1.078 0.2531
4703000000.0 0.859 -0.6596
4706000000.0 0.01205 -1.095
4709000000.0 -0.8738 -0.6956
4712000000.0 -1.05 0.2233
4716000000.0 -0.47 0.9544
4719000000.0 0.4547 0.9501
4722000000.0 1.035 0.2117
4725000000.0 0.8656 -0.6712
4728000000.0 -0.01109 -1.066
4731000000.0 -0.7993 -0.6766
4734000000.0 -1.006 0.1729
4738000000.0 -0.5009 0.9422
4741000000.0 0.4002 0.9795
4744000000.0 0.9893 0.3381
4747000000.0 0.8885 -0.5847
4750000000.0 0.1274 -1.072
4753000000.0 -0.7474 -0.7778
4756000000.0 -1.077 0.05863
4759000000.0 -0.6747 0.8965
4762000000.0 0.2623 1.096
4766000000.0 0.9948 0.4835
4769000000.0 1.073 -0.447
4772000000.0 0.3182 -1.116
4775000000.0 -0.6562 -0.9901
4778000000.0 -1.129 -0.1391
4781000000.0 -0.8541 0.8496
4784000000.0 0.09948 1.194
4788000000.0 0.9751 0.7319
4791000000.0 1.204 -0.2586
4794000000.0 0.5567 -1.096
4797000000.0 -0.5054 -1.145
4800000000.0 -1.206 -0.3627
4803000000.0 -1.06 0.6685
4806000000.0 -0.1672 1.219
4809000000.0 0.8605 0.9717
4812000000.0 1.297 -0.04756
4816000000.0 0.7939 -1.055
4819000000.0 -0.2876 -1.282
4822000000.0 -1.204 -0.605
4825000000.0 -1.257 0.5516
4828000000.0 -0.3854 1.334
4831000000.0 0.7881 1.109
4834000000.0 1.398 0.1263
4838000000.0 0.9774 -1.005
4841000000.0 -0.166 -1.387
4844000000.0 -1.141 -0.7466
4847000000.0 -1.343 0.4023
4850000000.0 -0.5058 1.306
4853000000.0 0.6764 1.223
4856000000.0 1.371 0.2533
4859000000.0 1.042 -0.8957
4862000000.0 -0.04946 -1.36
4866000000.0 -1.071 -0.8306
4869000000.0 -1.31 0.314
4872000000.0 -0.5991 1.189
4875000000.0 0.5669 1.187
4878000000.0 1.285 0.3017
4881000000.0 1.005 -0.792
4884000000.0 0.03166 -1.234
4888000000.0 -0.9541 -0.7852
4891000000.0 -1.183 0.2377
4894000000.0 -0.5504 1.04
4897000000.0 0.4329 1.073
4900000000.0 1.109 0.3058
4903000000.0 0.9041 -0.6451
4906000000.0 0.08236 -1.077
4909000000.0 -0.7934 -0.7301
4912000000.0 -1.06 0.1561
4916000000.0 -0.5442 0.8607
4919000000.0 0.3498 0.9566
4922000000.0 0.9199 0.3602
4925000000.0 0.8322 -0.5195
4928000000.0 0.1357 -0.9438
4931000000.0 -0.6384 -0.7049
4934000000.0 -0.9328 0.08548
4938000000.0 -0.5705 0.7529
4941000000.0 0.2295 0.9122
4944000000.0 0.8758 0.4076
4947000000.0 0.8571 -0.3941
4950000000.0 0.2297 -0.9295
4953000000.0 -0.585 -0.7651
4956000000.0 -0.9638 0.0001995
4959000000.0 -0.622 0.7319
4962000000.0 0.1752 0.9692
4966000000.0 0.8572 0.4911
4969000000.0 0.9048 -0.3737
4972000000.0 0.3151 -0.9545
4975000000.0 -0.5523 -0.8345
4978000000.0 -1.024 -0.1237
4981000000.0 -0.7274 0.7007
4984000000.0 0.05608 1.057
4988000000.0 0.8332 0.6023
4991000000.0 1.038 -0.2576
4994000000.0 0.4385 -0.9866
4997000000.0 -0.4546 -0.9806
5000000000.0 -1.059 -0.2725
5003000000.0 -0.9291 0.6449
5006000000.0 -0.06692 1.18
5009000000.0 0.835 0.8147
5012000000.0 1.177 -0.1652
5016000000.0 0.6616 -1.026
5019000000.0 -0.3813 -1.162
5022000000.0 -1.153 -0.4763
5025000000.0 -1.117 0.6113
5028000000.0 -0.2154 1.245
5031000000.0 0.8334 1.011
5034000000.0 1.284 -0.02479
5038000000.0 0.7902 -1.015
5041000000.0 -0.2516 -1.242
5044000000.0 -1.117 -0.6402
5047000000.0 -1.206 0.4685
5050000000.0 -0.4049 1.238
5053000000.0 0.6947 1.116
5056000000.0 1.303 0.1887
5059000000.0 1.014 -0.8922
5062000000.0 -0.0313 -1.344
5066000000.0 -1.049 -0.7739
5069000000.0 -1.297 0.2894
5072000000.0 -0.5815 1.147
5075000000.0 0.5074 1.163
5078000000.0 1.241 0.377
5081000000.0 1.069 -0.688
5084000000.0 0.1383 -1.223
5088000000.0 -0.8521 -0.8792
5091000000.0 -1.226 0.08839
5094000000.0 -0.6961 0.9575
5097000000.0 0.2681 1.136
5100000000.0 1.072 0.4577
5103000000.0 1.024 -0.4947
5106000000.0 0.2809 -1.065
5109000000.0 -0.5961 -0.8862
5112000000.0 -1.109 -0.1225
5116000000.0 -0.7809 0.7586
5119000000.0 0.07722 1.075
5122000000.0 0.8456 0.6244
5125000000.0 1.017 -0.2597
5128000000.0 0.4213 -0.923
5131000000.0 -0.4372 -0.9447
5134000000.0 -0.9689 -0.2304
5138000000.0 -0.8041 0.582
5141000000.0 -0.0147 0.9657
5144000000.0 0.71 0.6381
5147000000.0 0.9484 -0.1271
5150000000.0 0.4764 -0.8134
5153000000.0 -0.3284 -0.8729
5156000000.0 -0.8478 -0.2943
5159000000.0 -0.7791 0.5066
5162000000.0 -0.1321 0.8857
5166000000.0 0.6293 0.6477
5169000000.0 0.9421 -0.06592
5172000000.0 0.5376 -0.7712
5175000000.0 -0.2436 -0.8455
5178000000.0 -0.8309 -0.3625
5181000000.0 -0.8081 0.4055
5184000000.0 -0.1773 0.8803
5188000000.0 0.5824 0.7038
5191000000.0 0.8999 -0.06135
5194000000.0 0.566 -0.7659
5197000000.0 -0.248 -0.8988
5200000000.0 -0.882 -0.3725
5203000000.0 -0.8344 0.448
5206000000.0 -0.1738 0.9373
5209000000.0 0.6189 0.7387
5212000000.0 0.9591 -0.02779
5216000000.0 0.6179 -0.7798
5219000000.0 -0.2374 -0.963
5222000000.0 -0.8979 -0.4341
5225000000.0 -0.8963 0.4325
5228000000.0 -0.2423 0.9794
5231000000.0 0.5661 0.8538
5234000000.0 1.012 0.04629
5238000000.0 0.7145 -0.7627
5241000000.0 -0.1516 -1.046
5244000000.0 -0.9205 -0.5277
5247000000.0 -0.9755 0.365
5250000000.0 -0.3786 1.021
5253000000.0 0.5355 0.9187
5256000000.0 1.097 0.1962
5259000000.0 0.8279 -0.6941
5262000000.0 0.02119 -1.09
5266000000.0 -0.8455 -0.7201
5269000000.0 -1.059 0.1948
5272000000.0 -0.5482 0.9532
5275000000.0 0.354 1.024
5278000000.0 1.01 0.3751
5281000000.0 0.9458 -0.5293
5284000000.0 0.2028 -1.084
5288000000.0 -0.7022 -0.8545
5291000000.0 -1.121 -0.05286
5294000000.0 -0.7326 0.8134
5297000000.0 0.1475 1.106
5300000000.0 0.9552 0.6126
5303000000.0 1.087 -0.3226
5306000000.0 0.4872 -1.028
5309000000.0 -0.5091 -1.021
5312000000.0 -1.093 -0.2891
5316000000.0 -0.9408 0.7035
5319000000.0 -0.07551 1.175
5322000000.0 0.8265 0.8133
5325000000.0 1.135 -0.1275
5328000000.0 0.6476 -0.9364
5331000000.0 -0.2933 -1.099
5334000000.0 -1.037 -0.4842
5338000000.0 -1.021 0.5301
5341000000.0 -0.2682 1.126
5344000000.0 0.696 0.8802
5347000000.0 1.126 0.03433
5350000000.0 0.7437 -0.8549
5353000000.0 -0.1853 -1.119
5356000000.0 -0.9853 -0.5481
5359000000.0 -1.006 0.4047
5362000000.0 -0.3539 1.008
5366000000.0 0.577 0.9051
5369000000.0 1.078 0.106
5372000000.0 0.7371 -0.7399
5375000000.0 -0.118 -1.034
5378000000.0 -0.8813 -0.5414
5381000000.0 -0.9648 0.355
5384000000.0 -0.3202 0.9373
5388000000.0 0.5485 0.8221
5391000000.0 0.9563 0.07748
5394000000.0 0.6385 -0.697
5397000000.0 -0.1472 -0.8934
5400000000.0 -0.8192 -0.4769
5403000000.0 -0.8395 0.3361
5406000000.0 -0.2486 0.8421
5409000000.0 0.4985 0.7326
5412000000.0 0.8738 0.06161
5416000000.0 0.5875 -0.6151
5419000000.0 -0.108 -0.8634
5422000000.0 -0.7355 -0.4476
5425000000.0 -0.8121 0.3263
5428000000.0 -0.2505 0.8202
5431000000.0 0.5071 0.7113
5434000000.0 0.8688 0.05893
5438000000.0 0.6068 -0.6392
5441000000.0 -0.108 -0.8588
5444000000.0 -0.7563 -0.4446
5447000000.0 -0.8328 0.3219
5450000000.0 -0.2546 0.8541
5453000000.0 0.4958 0.7291
5456000000.0 0.8864 0.09249
5459000000.0 0.6469 -0.6201
5462000000.0 -0.0965 -0.9037
5466000000.0 -0.7482 -0.5061
5469000000.0 -0.8788 0.2788
5472000000.0 -0.3714 0.8555
5475000000.0 0.4232 0.84
5478000000.0 0.9168 0.2322
5481000000.0 0.7674 -0.5834
5484000000.0 0.06522 -0.9859
5488000000.0 -0.6958 -0.6626
5491000000.0 -0.9885 0.1461
5494000000.0 -0.5427 0.8572
5497000000.0 0.2814 0.9518
5500000000.0 0.959 0.4135
5503000000.0 0.9007 -0.4891
5506000000.0 0.2087 -1.012
5509000000.0 -0.6508 -0.8145
5512000000.0 -1.027 -0.05983
5516000000.0 -0.7117 0.7874
5519000000.0 0.1071 1.055
5522000000.0 0.8518 0.5557
5525000000.0 1.015 -0.2885
5528000000.0 0.4386 -0.961
5531000000.0 -0.4655 -0.99
5534000000.0 -1.019 -0.2645
5538000000.0 -0.8346 0.6229
5541000000.0 -0.08958 1.083
5544000000.0 0.7522 0.7143
5547000000.0 1.059 -0.1143
5550000000.0 0.5758 -0.909
5553000000.0 -0.3253 -1.003
5556000000.0 -1.008 -0.3997
5559000000.0 -0.9552 0.4666
5562000000.0 -0.2497 1.046
5566000000.0 0.6193 0.8294
5569000000.0 1.047 0.02178
5572000000.0 0.6486 -0.7922
5575000000.0 -0.1662 -0.979
5578000000.0 -0.8538 -0.5477
5581000000.0 -0.9335 0.3505
5584000000.0 -0.2939 0.9119
5588000000.0 0.4938 0.8488
5591000000.0 0.9326 0.1355
5594000000.0 0.7009 -0.6516
5597000000.0 -0.04773 -0.9507
5600000000.0 -0.7389 -0.5372
5603000000.0 -0.8808 0.2063
5606000000.0 -0.3746 0.8219
5609000000.0 0.3926 0.8071
5612000000.0 0.8482 0.1773
5616000000.0 0.6937 -0.5558
5619000000.0 0.03404 -0.8599
5622000000.0 -0.6644 -0.5768
5625000000.0 -0.8336 0.1581
5628000000.0 -0.4046 0.7282
5631000000.0 0.3503 0.764
5634000000.0 0.814 0.2658
5638000000.0 0.6835 -0.4811
5641000000.0 0.07052 -0.8282
5644000000.0 -0.6437 -0.5975
5647000000.0 -0.8335 0.1421
5650000000.0 -0.4291 0.7024
5653000000.0 0.3176 0.7958
5656000000.0 0.8109 0.237
5659000000.0 0.71 -0.4847
5662000000.0 0.07136 -0.8703
5666000000.0 -0.6259 -0.594
5669000000.0 -0.8735 0.09615
5672000000.0 -0.465 0.7795
5675000000.0 0.3339 0.8319
5678000000.0 0.8829 0.2598
5681000000.0 0.7767 -0.5397
5684000000.0 0.1026 -0.9344
5688000000.0 -0.6925 -0.6697
5691000000.0 -0.9574 0.1438
5694000000.0 -0.5323 0.835
5697000000.0 0.3056 0.9401
5700000000.0 0.9565 0.3474
5703000000.0 0.8791 -0.51
5706000000.0 0.1633 -0.9753
5709000000.0 -0.7252 -0.7484
5712000000.0 -1.026 0.06491
5716000000.0 -0.6277 0.8532
5719000000.0 0.2633 1.028
5722000000.0 0.9185 0.4609
5725000000.0 0.9534 -0.4578
5728000000.0 0.2984 -1.041
5731000000.0 -0.6288 -0.8849
5734000000.0 -1.092 -0.09074
5738000000.0 -0.7591 0.7774
5741000000.0 0.1458 1.095
5744000000.0 0.9078 0.5894
5747000000.0 1.061 -0.332
5750000000.0 0.4285 -1.052
5753000000.0 -0.5035 -0.9952
5756000000.0 -1.1 -0.209
5759000000.0 -0.8881 0.68
5762000000.0 -0.06793 1.11
5766000000.0 0.8286 0.7356
5769000000.0 1.1 -0.1352
5772000000.0 0.6051 -0.952
5775000000.0 -0.3412 -1.063
5778000000.0 -1.042 -0.3974
5781000000.0 -0.9965 0.4864
5784000000.0 -0.2314 1.088
5788000000.0 0.6754 0.8554
5791000000.0 1.103 0.02256
5794000000.0 0.7324 -0.8238
5797000000.0 -0.179 -1.069
5800000000.0 -0.9275 -0.554
5803000000.0 -1.0 0.3546
5806000000.0 -0.3536 1.006
5809000000.0 0.5431 0.9088
5812000000.0 1.062 0.1638
5816000000.0 0.7562 -0.6954
5819000000.0 -0.04086 -1.03
5822000000.0 -0.7922 -0.6159
5825000000.0 -0.9614 0.2478
5828000000.0 -0.3898 0.9197
5831000000.0 0.3949 0.9206
5834000000.0 0.9624 0.2411
5838000000.0 0.793 -0.6023
5841000000.0 0.02865 -0.9756
5844000000.0 -0.7213 -0.6708
5847000000.0 -0.9256 0.1635
5850000000.0 -0.4942 0.8022
5853000000.0 0.3386 0.8916
5856000000.0 0.9029 0.2634
5859000000.0 0.7781 -0.5182
5862000000.0 0.09467 -0.8994
5866000000.0 -0.6683 -0.613
5869000000.0 -0.8899 0.139
5872000000.0 -0.483 0.7566
5875000000.0 0.3273 0.8466
5878000000.0 0.8421 0.2588
5881000000.0 0.7152 -0.4678
5884000000.0 0.07292 -0.8727
5888000000.0 -0.5937 -0.6055
5891000000.0 -0.8765 0.0856
5894000000.0 -0.4648 0.7106
5897000000.0 0.2702 0.8227
5900000000.0 0.7895 0.2932
5903000000.0 0.7469 -0.4211
5906000000.0 0.1451 -0.842
5909000000.0 -0.5599 -0.6214
5912000000.0 -0.8865 0.0407
5916000000.0 -0.5367 0.6963
5919000000.0 0.2165 0.8584
5922000000.0 0.8012 0.399
5925000000.0 0.7921 -0.3656
5928000000.0 0.2013 -0.8418
5931000000.0 -0.5249 -0.7101
5934000000.0 -0.8898 -0.07874
5938000000.0 -0.613 0.6271
5941000000.0 0.08021 0.8878
5944000000.0 0.7339 0.4784
5947000000.0 0.852 -0.285
5950000000.0 0.3529 -0.8335
5953000000.0 -0.409 -0.8149
5956000000.0 -0.941 -0.2164
5959000000.0 -0.7704 0.5721
5962000000.0 -0.0455 0.9286
5966000000.0 0.7098 0.6516
5969000000.0 0.9259 -0.1378
5972000000.0 0.487 -0.8376
5975000000.0 -0.3128 -0.9184
5978000000.0 -0.8877 -0.3573
5981000000.0 -0.8635 0.4877
5984000000.0 -0.2058 0.9714
5988000000.0 0.6537 0.7622
5991000000.0 1.007 0.01431
5994000000.0 0.6659 -0.777
5997000000.0 -0.156 -0.9797
6000000000.0 -0.8548 -0.5209
6003000000.0 -0.9315 0.3371
6006000000.0 -0.3138 0.9366
6009000000.0 0.5071 0.8552
6012000000.0 0.9867 0.1322
6016000000.0 0.7262 -0.671
6019000000.0 -0.06848 -0.9738
6022000000.0 -0.7923 -0.5776
6025000000.0 -0.9554 0.2424
6028000000.0 -0.4219 0.8917
6031000000.0 0.4222 0.8979
6034000000.0 0.9398 0.2199
6038000000.0 0.7503 -0.5916
6041000000.0 0.04717 -0.9645
6044000000.0 -0.7216 -0.6159
6047000000.0 -0.9381 0.1393
6050000000.0 -0.4992 0.8178
6053000000.0 0.3511 0.8718
6056000000.0 0.863 0.2647
6059000000.0 0.7787 -0.5102
6062000000.0 0.09139 -0.9143
6066000000.0 -0.6758 -0.6409
6069000000.0 -0.9159 0.1208
6072000000.0 -0.481 0.7407
6075000000.0 0.3081 0.84
6078000000.0 0.8294 0.3068
6081000000.0 0.7681 -0.4732
6084000000.0 0.1527 -0.8478
6088000000.0 -0.6095 -0.6377
6091000000.0 -0.8816 0.03775
6094000000.0 -0.4907 0.7177
6097000000.0 0.238 0.8432
6100000000.0 0.7906 0.3683
6103000000.0 0.7451 -0.41
6106000000.0 0.1797 -0.8409
6109000000.0 -0.5626 -0.662
6112000000.0 -0.8537 0.005168
6116000000.0 -0.5338 0.677
6119000000.0 0.1896 0.8297
6122000000.0 0.7969 0.3832
6125000000.0 0.7796 -0.3709
6128000000.0 0.1926 -0.8484
6131000000.0 -0.5499 -0.7042
6134000000.0 -0.8943 0.00747
6138000000.0 -0.5571 0.6486
6141000000.0 0.1627 0.871
6144000000.0 0.7583 0.4213
6147000000.0 0.8327 -0.3434
6150000000.0 0.2793 -0.8422
6153000000.0 -0.4722 -0.7529
6156000000.0 -0.9259 -0.08953
6159000000.0 -0.6721 0.6442
6162000000.0 0.06391 0.9173
6166000000.0 0.8032 0.4951
6169000000.0 0.8766 -0.2851
6172000000.0 0.3405 -0.8816
6175000000.0 -0.4418 -0.8211
6178000000.0 -0.9118 -0.2027
6181000000.0 -0.7297 0.6381
6184000000.0 0.01535 0.9128
6188000000.0 0.7405 0.6271
6191000000.0 0.9295 -0.1929
6194000000.0 0.4648 -0.845
6197000000.0 -0.3521 -0.8693
6200000000.0 -0.9274 -0.2356
6203000000.0 -0.8289 0.5283
6206000000.0 -0.04607 0.9534
6209000000.0 0.6633 0.6552
6212000000.0 0.9293 -0.08375
6216000000.0 0.505 -0.7895
6219000000.0 -0.2386 -0.8859
6222000000.0 -0.8499 -0.3771
6225000000.0 -0.8061 0.4241
6228000000.0 -0.1885 0.8877
6231000000.0 0.5534 0.7362
6234000000.0 0.8888 -0.005053
6238000000.0 0.5725 -0.6834
6241000000.0 -0.1257 -0.8931
6244000000.0 -0.7537 -0.4489
6247000000.0 -0.7994 0.281
6250000000.0 -0.256 0.7966
6253000000.0 0.4263 0.7267
6256000000.0 0.8259 0.167
6259000000.0 0.6442 -0.5071
6262000000.0 -0.01248 -0.8567
6266000000.0 -0.6257 -0.5475
