! Created with skrf 1.8.0 (http://scikit-rf.org).
# Hz S RI R 50.0 
!freq ReS11 ImS11
4000000000.0 -0.2877 -1.514
4003000000.0 -1.298 -0.7793
4006000000.0 -1.392 0.5319
4009000000.0 -0.4674 1.449
4012000000.0 0.8338 1.242
4016000000.0 1.527 0.1871
4019000000.0 1.12 -1.134
4022000000.0 -0.2541 -1.55
4025000000.0 -1.326 -0.8978
4028000000.0 -1.515 0.5415
4031000000.0 -0.5222 1.547
4034000000.0 0.8706 1.364
4038000000.0 1.645 0.1948
4041000000.0 1.154 -1.218
4044000000.0 -0.1645 -1.648
4047000000.0 -1.373 -0.8669
4050000000.0 -1.56 0.5705
4053000000.0 -0.5557 1.569
4056000000.0 0.8207 1.399
4059000000.0 1.604 0.2417
4062000000.0 1.239 -1.053
4066000000.0 -0.08216 -1.639
4069000000.0 -1.271 -1.018
4072000000.0 -1.611 0.3857
4075000000.0 -0.7344 1.457
4078000000.0 0.6701 1.513
4081000000.0 1.563 0.4847
4084000000.0 1.362 -0.8783
4088000000.0 0.2139 -1.663
4091000000.0 -1.142 -1.206
4094000000.0 -1.662 0.1403
4097000000.0 -0.8934 1.382
4100000000.0 0.4491 1.593
4103000000.0 1.478 0.6133
4106000000.0 1.428 -0.7113
4109000000.0 0.3821 -1.468
4112000000.0 -0.8652 -1.282
4116000000.0 -1.536 -0.1466
4119000000.0 -1.113 1.059
4122000000.0 0.1079 1.505
4125000000.0 1.181 0.9177
4128000000.0 1.466 -0.2926
4131000000.0 0.7228 -1.312
4134000000.0 -0.4786 -1.429
4138000000.0 -1.405 -0.5697
4141000000.0 -1.304 0.6907
4144000000.0 -0.3197 1.477
4147000000.0 0.9226 1.202
4150000000.0 1.522 0.03401
4153000000.0 1.015 -1.118
4156000000.0 -0.1819 -1.488
4159000000.0 -1.292 -0.8354
4162000000.0 -1.459 0.4445
4166000000.0 -0.5977 1.407
4169000000.0 0.6846 1.358
4172000000.0 1.493 0.3792
4175000000.0 1.201 -0.9165
4178000000.0 0.09789 -1.506
4181000000.0 -1.108 -1.042
4184000000.0 -1.477 0.2151
4188000000.0 -0.8197 1.268
4191000000.0 0.4427 1.508
4194000000.0 1.435 0.5785
4197000000.0 1.372 -0.748
4200000000.0 0.3124 -1.546
4203000000.0 -1.016 -1.204
4206000000.0 -1.634 0.08068
4209000000.0 -0.9459 1.342
4212000000.0 0.4773 1.611
4216000000.0 1.592 0.6232
4219000000.0 1.466 -0.8712
4222000000.0 0.1976 -1.667
4225000000.0 -1.215 -1.19
4228000000.0 -1.645 0.2969
4231000000.0 -0.814 1.471
4234000000.0 0.6614 1.477
4238000000.0 1.58 0.3273
4241000000.0 1.258 -1.033
4244000000.0 -0.07677 -1.603
4247000000.0 -1.337 -0.8885
4250000000.0 -1.515 0.4522
4253000000.0 -0.5238 1.466
4256000000.0 0.8169 1.307
4259000000.0 1.523 0.1844
4262000000.0 1.062 -1.107
4266000000.0 -0.2198 -1.525
4269000000.0 -1.3 -0.7449
4272000000.0 -1.381 0.5599
4275000000.0 -0.3884 1.437
4278000000.0 0.8926 1.174
4281000000.0 1.418 0.04411
4284000000.0 0.8977 -1.091
4288000000.0 -0.295 -1.383
4291000000.0 -1.222 -0.6398
4294000000.0 -1.231 0.5587
4297000000.0 -0.3667 1.292
4300000000.0 0.7556 1.056
4303000000.0 1.328 0.1125
4306000000.0 0.9443 -0.9036
4309000000.0 -0.07914 -1.293
4312000000.0 -1.078 -0.7648
4316000000.0 -1.25 0.3057
4319000000.0 -0.5921 1.156
4322000000.0 0.484 1.225
4325000000.0 1.28 0.3881
4328000000.0 1.145 -0.7444
4331000000.0 0.1542 -1.338
4334000000.0 -0.9481 -0.9926
4338000000.0 -1.427 0.05815
4341000000.0 -0.8818 1.139
4344000000.0 0.3327 1.431
4347000000.0 1.319 0.6182
4350000000.0 1.33 -0.6395
4353000000.0 0.3808 -1.412
4356000000.0 -0.823 -1.201
4359000000.0 -1.448 -0.1112
4362000000.0 -0.9999 1.088
4366000000.0 0.1775 1.464
4369000000.0 1.235 0.8383
4372000000.0 1.442 -0.4358
4375000000.0 0.5924 -1.406
4378000000.0 -0.6952 -1.322
4381000000.0 -1.515 -0.3087
4384000000.0 -1.225 0.9716
4388000000.0 0.02067 1.582
4391000000.0 1.205 0.9726
4394000000.0 1.543 -0.3284
4397000000.0 0.7043 -1.444
4400000000.0 -0.6932 -1.451
4403000000.0 -1.576 -0.3373
4406000000.0 -1.232 1.019
4409000000.0 0.04565 1.537
4412000000.0 1.273 0.9416
4416000000.0 1.506 -0.3932
4419000000.0 0.57 -1.421
4422000000.0 -0.7422 -1.315
4425000000.0 -1.45 -0.2629
4428000000.0 -1.046 1.023
4431000000.0 0.1596 1.444
4434000000.0 1.188 0.7679
4438000000.0 1.319 -0.4576
4441000000.0 0.4174 -1.349
4444000000.0 -0.7326 -1.121
4447000000.0 -1.339 -0.09535
4450000000.0 -0.8619 0.9978
4453000000.0 0.2421 1.276
4456000000.0 1.157 0.5856
4459000000.0 1.171 -0.5203
4462000000.0 0.2729 -1.216
4466000000.0 -0.7808 -0.9179
4469000000.0 -1.235 0.04035
4472000000.0 -0.6951 1.01
4475000000.0 0.3379 1.138
4478000000.0 1.085 0.4132
4481000000.0 1.009 -0.601
4484000000.0 0.1622 -1.166
4488000000.0 -0.8053 -0.8547
4491000000.0 -1.134 0.1099
4494000000.0 -0.6397 0.9468
4497000000.0 0.337 1.084
4500000000.0 1.05 0.3961
4503000000.0 0.9709 -0.554
4506000000.0 0.1733 -1.093
4509000000.0 -0.753 -0.8398
4512000000.0 -1.121 0.02337
4516000000.0 -0.6839 0.9218
4519000000.0 0.2875 1.121
4522000000.0 1.08 0.4826
4525000000.0 1.049 -0.479
4528000000.0 0.2464 -1.15
4531000000.0 -0.7131 -0.9632
4534000000.0 -1.178 -0.03142
4538000000.0 -0.8139 0.8985
4541000000.0 0.1914 1.189
4544000000.0 1.016 0.6262
4547000000.0 1.171 -0.4006
4550000000.0 0.4386 -1.172
4553000000.0 -0.6074 -1.085
4556000000.0 -1.213 -0.2527
4559000000.0 -1.009 0.7779
4562000000.0 -0.03403 1.276
4566000000.0 0.9707 0.8355
4569000000.0 1.269 -0.2045
4572000000.0 0.6516 -1.119
4575000000.0 -0.4632 -1.256
4578000000.0 -1.267 -0.4777
4581000000.0 -1.16 0.6632
4584000000.0 -0.2399 1.296
4588000000.0 0.8924 1.056
4591000000.0 1.386 -0.03482
4594000000.0 0.8809 -1.093
4597000000.0 -0.2779 -1.355
4600000000.0 -1.266 -0.6204
4603000000.0 -1.3 0.5702
4606000000.0 -0.3918 1.341
4609000000.0 0.8159 1.161
4612000000.0 1.407 0.139
4616000000.0 0.9841 -1.011
4619000000.0 -0.1578 -1.383
4622000000.0 -1.205 -0.7161
4625000000.0 -1.296 0.4486
4628000000.0 -0.4709 1.29
4631000000.0 0.6998 1.202
4634000000.0 1.368 0.2079
4638000000.0 1.019 -0.9244
4641000000.0 -0.1086 -1.341
4644000000.0 -1.099 -0.7703
4647000000.0 -1.292 0.4072
4650000000.0 -0.4798 1.243
4653000000.0 0.6964 1.131
4656000000.0 1.257 0.1528
4659000000.0 0.9115 -0.8564
4662000000.0 -0.127 -1.235
4666000000.0 -1.044 -0.6815
4669000000.0 -1.14 0.4075
4672000000.0 -0.387 1.111
4675000000.0 0.6078 0.9948
4678000000.0 1.134 0.1347
4681000000.0 0.7958 -0.7971
4684000000.0 -0.1393 -1.095
4688000000.0 -0.9314 -0.611
4691000000.0 -1.053 0.3767
4694000000.0 -0.3838 1.035
4697000000.0 0.5591 0.93
4700000000.0 1.085 0.138
4703000000.0 0.7926 -0.7506
4706000000.0 -0.1442 -1.111
4709000000.0 -0.9444 -0.5898
4712000000.0 -0.9895 0.3684
4716000000.0 -0.3312 1.028
4719000000.0 0.5592 0.8939
4722000000.0 1.079 0.09083
4725000000.0 0.7665 -0.7416
4728000000.0 -0.1206 -1.062
4731000000.0 -0.8879 -0.5802
4734000000.0 -1.033 0.3212
4738000000.0 -0.4147 0.9733
4741000000.0 0.5042 0.9285
4744000000.0 1.025 0.2232
4747000000.0 0.8473 -0.7108
4750000000.0 0.0314 -1.063
4753000000.0 -0.8208 -0.7395
4756000000.0 -1.092 0.1708
4759000000.0 -0.5829 0.9682
4762000000.0 0.3681 1.105
4766000000.0 1.114 0.4326
4769000000.0 1.022 -0.5765
4772000000.0 0.2059 -1.131
4775000000.0 -0.7447 -0.917
4778000000.0 -1.201 -0.003234
4781000000.0 -0.7972 0.9488
4784000000.0 0.1907 1.203
4788000000.0 1.062 0.6387
4791000000.0 1.186 -0.4228
4794000000.0 0.4738 -1.196
4797000000.0 -0.6018 -1.124
4800000000.0 -1.264 -0.2445
4803000000.0 -1.009 0.7847
4806000000.0 -0.03946 1.27
4809000000.0 0.9778 0.8784
4812000000.0 1.32 -0.1941
4816000000.0 0.7271 -1.146
4819000000.0 -0.4318 -1.272
4822000000.0 -1.269 -0.4759
4825000000.0 -1.199 0.6804
4828000000.0 -0.2258 1.369
4831000000.0 0.9258 1.065
4834000000.0 1.399 -0.0277
4838000000.0 0.8933 -1.111
4841000000.0 -0.338 -1.386
4844000000.0 -1.241 -0.6243
4847000000.0 -1.249 0.5901
4850000000.0 -0.3556 1.341
4853000000.0 0.8179 1.105
4856000000.0 1.369 0.0908
4859000000.0 0.9407 -1.012
4862000000.0 -0.2134 -1.318
4866000000.0 -1.163 -0.6735
4869000000.0 -1.243 0.4393
4872000000.0 -0.4136 1.251
4875000000.0 0.6909 1.09
4878000000.0 1.31 0.17
4881000000.0 0.9127 -0.8689
4884000000.0 -0.1191 -1.231
4888000000.0 -1.011 -0.6812
4891000000.0 -1.139 0.3647
4894000000.0 -0.4131 1.087
4897000000.0 0.5565 1.001
4900000000.0 1.09 0.1992
4903000000.0 0.8101 -0.7483
4906000000.0 -0.07041 -1.057
4909000000.0 -0.8593 -0.5779
4912000000.0 -0.9945 0.2646
4916000000.0 -0.4045 0.9496
4919000000.0 0.4455 0.8849
4922000000.0 0.9695 0.2139
4925000000.0 0.7743 -0.5857
4928000000.0 0.02159 -0.9855
4931000000.0 -0.7205 -0.641
4934000000.0 -0.9374 0.1658
4938000000.0 -0.4582 0.8038
4941000000.0 0.3364 0.868
4944000000.0 0.8949 0.2987
4947000000.0 0.7993 -0.5085
4950000000.0 0.09113 -0.9461
4953000000.0 -0.6672 -0.6927
4956000000.0 -0.9661 0.06066
4959000000.0 -0.5663 0.8327
4962000000.0 0.3027 0.9401
4966000000.0 0.9182 0.3962
4969000000.0 0.8961 -0.4877
4972000000.0 0.2081 -1.007
4975000000.0 -0.6587 -0.8111
4978000000.0 -1.032 0.003816
4981000000.0 -0.6796 0.8109
4984000000.0 0.2059 1.026
4988000000.0 0.9667 0.5366
4991000000.0 1.02 -0.4009
4994000000.0 0.3526 -1.049
4997000000.0 -0.5803 -0.9606
5000000000.0 -1.136 -0.1525
5003000000.0 -0.861 0.7742
5006000000.0 0.05547 1.156
5009000000.0 0.9787 0.7645
5012000000.0 1.169 -0.2816
5016000000.0 0.5416 -1.115
5019000000.0 -0.5183 -1.154
5022000000.0 -1.223 -0.324
5025000000.0 -1.043 0.7338
5028000000.0 -0.0921 1.299
5031000000.0 0.9455 0.8775
5034000000.0 1.299 -0.1828
5038000000.0 0.6951 -1.09
5041000000.0 -0.3801 -1.241
5044000000.0 -1.225 -0.4952
5047000000.0 -1.149 0.5788
5050000000.0 -0.2757 1.257
5053000000.0 0.8049 1.047
5056000000.0 1.307 0.06139
5059000000.0 0.8914 -0.9731
5062000000.0 -0.175 -1.32
5066000000.0 -1.115 -0.6758
5069000000.0 -1.221 0.3882
5072000000.0 -0.46 1.213
5075000000.0 0.6435 1.126
5078000000.0 1.248 0.2394
5081000000.0 0.9413 -0.8325
5084000000.0 0.01603 -1.223
5088000000.0 -0.9308 -0.7568
5091000000.0 -1.186 0.2031
5094000000.0 -0.5577 1.048
5097000000.0 0.4085 1.063
5100000000.0 1.088 0.3529
5103000000.0 0.9467 -0.5398
5106000000.0 0.1705 -1.081
5109000000.0 -0.7335 -0.8493
5112000000.0 -1.036 0.03099
5116000000.0 -0.6825 0.7933
5119000000.0 0.2285 1.039
5122000000.0 0.9122 0.4937
5125000000.0 0.9318 -0.3937
5128000000.0 0.3228 -0.966
5131000000.0 -0.5487 -0.8474
5134000000.0 -0.9847 -0.109
5138000000.0 -0.6964 0.6934
5141000000.0 0.1081 0.9464
5144000000.0 0.8052 0.5182
5147000000.0 0.9258 -0.2869
5150000000.0 0.3661 -0.858
5153000000.0 -0.4561 -0.8216
5156000000.0 -0.8971 -0.1673
5159000000.0 -0.6867 0.5686
5162000000.0 0.004282 0.9158
5166000000.0 0.7291 0.5076
5169000000.0 0.8828 -0.1826
5172000000.0 0.3892 -0.8114
5175000000.0 -0.3721 -0.83
5178000000.0 -0.8774 -0.2042
5181000000.0 -0.746 0.5473
5184000000.0 -0.0299 0.9258
5188000000.0 0.7278 0.599
5191000000.0 0.9043 -0.1876
5194000000.0 0.4314 -0.85
5197000000.0 -0.3876 -0.8445
5200000000.0 -0.8998 -0.227
5203000000.0 -0.7769 0.5847
5206000000.0 -0.01927 0.9764
5209000000.0 0.7399 0.631
5212000000.0 0.9777 -0.1531
5216000000.0 0.4893 -0.8864
5219000000.0 -0.3787 -0.9276
5222000000.0 -0.9684 -0.3054
5225000000.0 -0.8321 0.57
5228000000.0 -0.1095 1.028
5231000000.0 0.7186 0.719
5234000000.0 1.039 -0.1186
5238000000.0 0.5975 -0.874
5241000000.0 -0.3187 -0.9938
5244000000.0 -0.9945 -0.4075
5247000000.0 -0.9754 0.4694
5250000000.0 -0.2543 1.061
5253000000.0 0.6489 0.8571
5256000000.0 1.079 0.02491
5259000000.0 0.7311 -0.8148
5262000000.0 -0.1423 -1.098
5266000000.0 -0.9227 -0.5892
5269000000.0 -1.064 0.3537
5272000000.0 -0.4306 1.048
5275000000.0 0.531 0.9667
5278000000.0 1.066 0.233
5281000000.0 0.8739 -0.6688
5284000000.0 0.08085 -1.116
5288000000.0 -0.7851 -0.789
5291000000.0 -1.111 0.1133
5294000000.0 -0.6357 0.9512
5297000000.0 0.2861 1.08
5300000000.0 1.025 0.4996
5303000000.0 1.034 -0.4915
5306000000.0 0.3245 -1.085
5309000000.0 -0.6518 -0.9536
5312000000.0 -1.133 -0.1194
5316000000.0 -0.7959 0.7779
5319000000.0 0.08233 1.137
5322000000.0 0.9629 0.6362
5325000000.0 1.101 -0.3035
5328000000.0 0.4825 -1.024
5331000000.0 -0.4568 -1.027
5334000000.0 -1.099 -0.263
5338000000.0 -0.8659 0.6637
5341000000.0 -0.04522 1.111
5344000000.0 0.8045 0.7395
5347000000.0 1.086 -0.1749
5350000000.0 0.5826 -0.9325
5353000000.0 -0.3861 -1.054
5356000000.0 -1.04 -0.3322
5359000000.0 -0.9032 0.5649
5362000000.0 -0.1395 1.034
5366000000.0 0.7206 0.7414
5369000000.0 1.025 -0.1357
5372000000.0 0.5294 -0.874
5375000000.0 -0.3192 -0.9722
5378000000.0 -0.924 -0.3372
5381000000.0 -0.811 0.5067
5384000000.0 -0.06469 0.9546
5388000000.0 0.6795 0.6579
5391000000.0 0.9281 -0.1267
5394000000.0 0.4719 -0.8053
5397000000.0 -0.3302 -0.8479
5400000000.0 -0.8839 -0.2447
5403000000.0 -0.737 0.5061
5406000000.0 -0.04642 0.8871
5409000000.0 0.653 0.5795
5412000000.0 0.8546 -0.1502
5416000000.0 0.4277 -0.7769
5419000000.0 -0.3254 -0.7922
5422000000.0 -0.8339 -0.2502
5425000000.0 -0.7174 0.5003
5428000000.0 -0.0575 0.8751
5431000000.0 0.6654 0.5761
5434000000.0 0.8609 -0.1416
5438000000.0 0.4208 -0.78
5441000000.0 -0.3086 -0.8294
5444000000.0 -0.8772 -0.243
5447000000.0 -0.759 0.4878
5450000000.0 -0.07001 0.8899
5453000000.0 0.6573 0.6396
5456000000.0 0.91 -0.09274
5459000000.0 0.4812 -0.7801
5462000000.0 -0.2555 -0.8861
5466000000.0 -0.8649 -0.3331
5469000000.0 -0.8676 0.4217
5472000000.0 -0.1901 0.8808
5475000000.0 0.5886 0.7537
5478000000.0 0.9647 0.02969
5481000000.0 0.6567 -0.7387
5484000000.0 -0.1799 -0.9893
5488000000.0 -0.8428 -0.5454
5491000000.0 -0.9566 0.2976
5494000000.0 -0.3684 0.9583
5497000000.0 0.5186 0.9172
5500000000.0 1.014 0.2163
5503000000.0 0.8161 -0.6502
5506000000.0 0.05168 -1.047
5509000000.0 -0.7821 -0.6844
5512000000.0 -1.039 0.1571
5516000000.0 -0.5636 0.9103
5519000000.0 0.3413 1.033
5522000000.0 1.014 0.4216
5525000000.0 0.9356 -0.542
5528000000.0 0.2302 -1.036
5531000000.0 -0.6832 -0.8821
5534000000.0 -1.051 -0.03117
5538000000.0 -0.7516 0.7893
5541000000.0 0.1349 1.066
5544000000.0 0.9154 0.5308
5547000000.0 0.9941 -0.3595
5550000000.0 0.3671 -0.9775
5553000000.0 -0.49 -0.8975
5556000000.0 -1.039 -0.1769
5559000000.0 -0.8233 0.6889
5562000000.0 -0.005587 1.058
5566000000.0 0.8313 0.6594
5569000000.0 0.9705 -0.2281
5572000000.0 0.4503 -0.8947
5575000000.0 -0.3571 -0.9217
5578000000.0 -0.9514 -0.2734
5581000000.0 -0.801 0.537
5584000000.0 -0.0779 0.9477
5588000000.0 0.6764 0.6304
5591000000.0 0.8947 -0.1117
5594000000.0 0.4694 -0.7675
5597000000.0 -0.2959 -0.8583
5600000000.0 -0.812 -0.3358
5603000000.0 -0.7659 0.4144
5606000000.0 -0.1201 0.8836
5609000000.0 0.58 0.6136
5612000000.0 0.8442 -0.06206
5616000000.0 0.4899 -0.7154
5619000000.0 -0.2362 -0.8089
5622000000.0 -0.7654 -0.3278
5625000000.0 -0.7224 0.3836
5628000000.0 -0.1537 0.8001
5631000000.0 0.549 0.649
5634000000.0 0.8221 -0.01615
5638000000.0 0.504 -0.6727
5641000000.0 -0.2096 -0.8032
5644000000.0 -0.768 -0.3502
5647000000.0 -0.7637 0.3999
5650000000.0 -0.1673 0.8366
5653000000.0 0.5519 0.6301
5656000000.0 0.8573 -0.04807
5659000000.0 0.5416 -0.6819
5662000000.0 -0.2127 -0.8497
5666000000.0 -0.7905 -0.36
5669000000.0 -0.7966 0.4127
5672000000.0 -0.1944 0.8943
5675000000.0 0.6136 0.7242
5678000000.0 0.9237 0.01143
5681000000.0 0.5975 -0.7368
5684000000.0 -0.1928 -0.9352
5688000000.0 -0.872 -0.4408
5691000000.0 -0.8998 0.3909
5694000000.0 -0.2473 0.9925
5697000000.0 0.6061 0.8402
5700000000.0 1.021 0.04472
5703000000.0 0.7135 -0.7643
5706000000.0 -0.1539 -1.046
5709000000.0 -0.9357 -0.5195
5712000000.0 -0.997 0.3397
5716000000.0 -0.3701 0.9974
5719000000.0 0.5576 0.9316
5722000000.0 1.081 0.1838
5725000000.0 0.7839 -0.7604
5728000000.0 -0.04683 -1.087
5731000000.0 -0.8294 -0.6917
5734000000.0 -1.093 0.2323
5738000000.0 -0.5133 0.9986
5741000000.0 0.4551 1.053
5744000000.0 1.066 0.332
5747000000.0 0.9416 -0.6091
5750000000.0 0.1304 -1.122
5753000000.0 -0.7687 -0.8083
5756000000.0 -1.11 0.05761
5759000000.0 -0.6527 0.9021
5762000000.0 0.2759 1.085
5766000000.0 1.007 0.5031
5769000000.0 1.043 -0.4587
5772000000.0 0.3313 -1.079
5775000000.0 -0.6669 -0.9269
5778000000.0 -1.13 -0.1058
5781000000.0 -0.7781 0.7674
5784000000.0 0.1011 1.07
5788000000.0 0.9119 0.6176
5791000000.0 1.02 -0.3055
5794000000.0 0.4228 -1.009
5797000000.0 -0.4983 -0.9714
5800000000.0 -0.9924 -0.2001
5803000000.0 -0.8181 0.6594
5806000000.0 0.02781 1.037
5809000000.0 0.787 0.6421
5812000000.0 0.9996 -0.1999
5816000000.0 0.4932 -0.9129
5819000000.0 -0.3754 -0.9324
5822000000.0 -0.9417 -0.2821
5825000000.0 -0.7792 0.5931
5828000000.0 -0.07266 0.9629
5831000000.0 0.704 0.645
5834000000.0 0.936 -0.1613
5838000000.0 0.5006 -0.8082
5841000000.0 -0.3379 -0.8741
5844000000.0 -0.8862 -0.2856
5847000000.0 -0.7942 0.4886
5850000000.0 -0.09765 0.9266
5853000000.0 0.677 0.624
5856000000.0 0.9008 -0.1358
5859000000.0 0.4586 -0.8019
5862000000.0 -0.331 -0.8126
5866000000.0 -0.8412 -0.2863
5869000000.0 -0.7635 0.501
5872000000.0 -0.07536 0.8754
5875000000.0 0.6278 0.6116
5878000000.0 0.9064 -0.09628
5881000000.0 0.4572 -0.7536
5884000000.0 -0.2947 -0.8048
5888000000.0 -0.8252 -0.2967
5891000000.0 -0.7515 0.4483
5894000000.0 -0.0918 0.8583
5897000000.0 0.6119 0.6385
5900000000.0 0.8558 -0.05944
5903000000.0 0.5113 -0.7409
5906000000.0 -0.2333 -0.8588
5909000000.0 -0.8413 -0.359
5912000000.0 -0.8181 0.3923
5916000000.0 -0.1802 0.8846
5919000000.0 0.5527 0.711
5922000000.0 0.9139 0.006288
5925000000.0 0.6045 -0.7055
5928000000.0 -0.1432 -0.927
5931000000.0 -0.7872 -0.4194
5934000000.0 -0.8469 0.3126
5938000000.0 -0.3097 0.8595
5941000000.0 0.4804 0.8297
5944000000.0 0.9489 0.1469
5947000000.0 0.6795 -0.6374
5950000000.0 -0.02637 -0.9586
5953000000.0 -0.7688 -0.5746
5956000000.0 -0.9637 0.1897
5959000000.0 -0.4715 0.8648
5962000000.0 0.3821 0.9078
5966000000.0 0.998 0.2776
5969000000.0 0.8142 -0.5587
5972000000.0 0.1046 -0.9919
5975000000.0 -0.7253 -0.7576
5978000000.0 -1.004 0.09065
5981000000.0 -0.5882 0.8403
5984000000.0 0.3103 0.9671
5988000000.0 0.9565 0.4031
5991000000.0 0.9236 -0.4545
5994000000.0 0.2204 -0.9844
5997000000.0 -0.6519 -0.782
6000000000.0 -1.035 0.0004894
6003000000.0 -0.6646 0.7496
6006000000.0 0.209 0.9693
6009000000.0 0.8683 0.4679
6012000000.0 0.9031 -0.3911
6016000000.0 0.2743 -0.9307
6019000000.0 -0.5506 -0.8068
6022000000.0 -0.9924 -0.06653
6025000000.0 -0.6694 0.7218
6028000000.0 0.1303 0.9486
6031000000.0 0.8187 0.4923
6034000000.0 0.8718 -0.3459
6038000000.0 0.2992 -0.8912
6041000000.0 -0.5067 -0.7759
6044000000.0 -0.9325 -0.1011
6047000000.0 -0.6443 0.6246
6050000000.0 0.1048 0.895
6053000000.0 0.7675 0.4853
6056000000.0 0.8471 -0.2746
6059000000.0 0.2996 -0.8279
6062000000.0 -0.4196 -0.7711
6066000000.0 -0.851 -0.1282
6069000000.0 -0.6011 0.6075
6072000000.0 0.06353 0.8454
6075000000.0 0.7418 0.4821
6078000000.0 0.8165 -0.267
6081000000.0 0.2994 -0.7788
6084000000.0 -0.4276 -0.7432
6088000000.0 -0.8414 -0.09798
6091000000.0 -0.6398 0.5867
6094000000.0 0.06126 0.8492
6097000000.0 0.6979 0.4806
6100000000.0 0.8428 -0.2452
6103000000.0 0.3507 -0.7839
6106000000.0 -0.4078 -0.7924
6109000000.0 -0.8887 -0.1703
6112000000.0 -0.699 0.5643
6116000000.0 0.02209 0.8991
6119000000.0 0.7145 0.5363
6122000000.0 0.8935 -0.2552
6125000000.0 0.3509 -0.842
6128000000.0 -0.4276 -0.8427
6131000000.0 -0.8999 -0.2155
6134000000.0 -0.7251 0.5678
6138000000.0 -0.01574 0.953
6141000000.0 0.7413 0.5954
6144000000.0 0.9417 -0.1875
6147000000.0 0.4174 -0.8712
6150000000.0 -0.366 -0.8713
6153000000.0 -0.9484 -0.2534
6156000000.0 -0.7905 0.5511
6159000000.0 -0.1024 0.9654
6162000000.0 0.7039 0.6711
6166000000.0 0.9635 -0.1499
6169000000.0 0.558 -0.8482
6172000000.0 -0.3385 -0.9
6175000000.0 -0.9432 -0.3448
6178000000.0 -0.832 0.5537
6181000000.0 -0.1174 0.9861
6184000000.0 0.6797 0.7017
6188000000.0 0.9758 -0.09819
6191000000.0 0.527 -0.828
6194000000.0 -0.2748 -0.9479
6197000000.0 -0.8917 -0.358
6200000000.0 -0.8554 0.4825
6203000000.0 -0.1781 0.9432
6206000000.0 0.6027 0.7276
6209000000.0 0.9412 -0.01991
6212000000.0 0.5892 -0.7393
6216000000.0 -0.1876 -0.9024
6219000000.0 -0.8242 -0.421
6222000000.0 -0.8515 0.3679
6225000000.0 -0.2618 0.8498
6228000000.0 0.5489 0.7405
6231000000.0 0.9276 0.04782
6234000000.0 0.6417 -0.667
6238000000.0 -0.1118 -0.8861
6241000000.0 -0.7445 -0.4172
6244000000.0 -0.7986 0.2764
6247000000.0 -0.2913 0.8057
6250000000.0 0.4191 0.7426
6253000000.0 0.8286 0.1346
6256000000.0 0.6011 -0.5456
6259000000.0 -0.03019 -0.8261
6262000000.0 -0.656 -0.4719
6266000000.0 -0.7973 0.1967
