! Created with skrf 1.8.0 (http://scikit-rf.org).
# Hz S RI R 50.0 
!freq ReS11 ImS11
4000000000.0 -0.1733 -1.498
4003000000.0 -1.25 -0.8198
4006000000.0 -1.433 0.4843
4009000000.0 -0.4936 1.435
4012000000.0 0.7924 1.306
4016000000.0 1.569 0.1789
4019000000.0 1.136 -1.1
4022000000.0 -0.1465 -1.544
4025000000.0 -1.315 -0.8122
4028000000.0 -1.523 0.4929
4031000000.0 -0.5148 1.522
4034000000.0 0.8734 1.397
4038000000.0 1.648 0.2407
4041000000.0 1.242 -1.119
4044000000.0 -0.1346 -1.659
4047000000.0 -1.333 -0.8975
4050000000.0 -1.528 0.4683
4053000000.0 -0.6155 1.541
4056000000.0 0.747 1.396
4059000000.0 1.608 0.28
4062000000.0 1.241 -1.022
4066000000.0 -0.0212 -1.597
4069000000.0 -1.26 -1.061
4072000000.0 -1.599 0.3042
4075000000.0 -0.8091 1.444
4078000000.0 0.5945 1.513
4081000000.0 1.557 0.5173
4084000000.0 1.428 -0.8613
4088000000.0 0.2032 -1.633
4091000000.0 -1.124 -1.209
4094000000.0 -1.678 0.07331
4097000000.0 -0.9648 1.346
4100000000.0 0.4413 1.576
4103000000.0 1.456 0.7389
4106000000.0 1.441 -0.6828
4109000000.0 0.4029 -1.511
4112000000.0 -0.9001 -1.301
4116000000.0 -1.488 -0.1742
4119000000.0 -1.111 1.036
4122000000.0 0.07 1.498
4125000000.0 1.176 0.9289
4128000000.0 1.485 -0.2399
4131000000.0 0.7641 -1.246
4134000000.0 -0.4697 -1.42
4138000000.0 -1.354 -0.5808
4141000000.0 -1.317 0.6318
4144000000.0 -0.3602 1.482
4147000000.0 0.8973 1.239
4150000000.0 1.492 0.1429
4153000000.0 1.078 -1.104
4156000000.0 -0.1273 -1.521
4159000000.0 -1.271 -0.8808
4162000000.0 -1.487 0.3714
4166000000.0 -0.6577 1.38
4169000000.0 0.6423 1.351
4172000000.0 1.502 0.3967
4175000000.0 1.235 -0.8718
4178000000.0 0.1287 -1.487
4181000000.0 -1.057 -1.066
4184000000.0 -1.515 0.1222
4188000000.0 -0.9124 1.225
4191000000.0 0.3996 1.499
4194000000.0 1.439 0.6211
4197000000.0 1.452 -0.7073
4200000000.0 0.3789 -1.588
4203000000.0 -0.9515 -1.257
4206000000.0 -1.655 0.006562
4209000000.0 -1.04 1.275
4212000000.0 0.3653 1.631
4216000000.0 1.541 0.7025
4219000000.0 1.5 -0.8035
4222000000.0 0.2619 -1.691
4225000000.0 -1.153 -1.235
4228000000.0 -1.682 0.1695
4231000000.0 -0.9292 1.457
4234000000.0 0.5976 1.587
4238000000.0 1.616 0.4635
4241000000.0 1.34 -0.9815
4244000000.0 0.0375 -1.639
4247000000.0 -1.253 -0.9751
4250000000.0 -1.538 0.3935
4253000000.0 -0.6404 1.455
4256000000.0 0.7386 1.349
4259000000.0 1.537 0.2773
4262000000.0 1.13 -1.054
4266000000.0 -0.1013 -1.502
4269000000.0 -1.266 -0.8127
4272000000.0 -1.406 0.4816
4275000000.0 -0.4902 1.43
4278000000.0 0.7992 1.245
4281000000.0 1.417 0.1208
4284000000.0 0.9915 -1.01
4288000000.0 -0.1745 -1.395
4291000000.0 -1.177 -0.7029
4294000000.0 -1.312 0.4915
4297000000.0 -0.4428 1.264
4300000000.0 0.6672 1.111
4303000000.0 1.296 0.217
4306000000.0 0.9899 -0.8729
4309000000.0 -0.003177 -1.302
4312000000.0 -1.004 -0.8405
4316000000.0 -1.291 0.2285
4319000000.0 -0.6509 1.12
4322000000.0 0.4574 1.223
4325000000.0 1.229 0.4583
4328000000.0 1.173 -0.6456
4331000000.0 0.256 -1.305
4334000000.0 -0.904 -1.051
4338000000.0 -1.401 -0.05806
4341000000.0 -0.8997 1.062
4344000000.0 0.2482 1.383
4347000000.0 1.285 0.6894
4350000000.0 1.331 -0.5533
4353000000.0 0.5163 -1.397
4356000000.0 -0.7539 -1.246
4359000000.0 -1.425 -0.1772
4362000000.0 -1.097 1.011
4366000000.0 0.05579 1.471
4369000000.0 1.187 0.92
4372000000.0 1.449 -0.3254
4375000000.0 0.6737 -1.29
4378000000.0 -0.6037 -1.357
4381000000.0 -1.474 -0.4446
4384000000.0 -1.268 0.8769
4388000000.0 -0.1372 1.549
4391000000.0 1.162 1.096
4394000000.0 1.568 -0.2226
4397000000.0 0.8025 -1.368
4400000000.0 -0.5577 -1.492
4403000000.0 -1.531 -0.4903
4406000000.0 -1.333 0.8934
4409000000.0 -0.1023 1.596
4412000000.0 1.153 1.075
4416000000.0 1.546 -0.2613
4419000000.0 0.7564 -1.384
4422000000.0 -0.6265 -1.401
4425000000.0 -1.439 -0.4078
4428000000.0 -1.171 0.8871
4431000000.0 -0.02154 1.467
4434000000.0 1.111 0.8691
4438000000.0 1.394 -0.3572
4441000000.0 0.5962 -1.28
4444000000.0 -0.6493 -1.233
4447000000.0 -1.365 -0.2111
4450000000.0 -1.008 0.8845
4453000000.0 0.1014 1.337
4456000000.0 1.104 0.7187
4459000000.0 1.223 -0.4229
4462000000.0 0.4191 -1.216
4466000000.0 -0.69 -1.028
4469000000.0 -1.242 -0.09431
4472000000.0 -0.845 0.9146
4475000000.0 0.2112 1.154
4478000000.0 1.056 0.5298
4481000000.0 1.048 -0.476
4484000000.0 0.329 -1.117
4488000000.0 -0.7062 -0.9014
4491000000.0 -1.173 -0.01333
4494000000.0 -0.7302 0.8753
4497000000.0 0.2101 1.102
4500000000.0 1.03 0.4998
4503000000.0 1.029 -0.4555
4506000000.0 0.2806 -1.061
4509000000.0 -0.6707 -0.9041
4512000000.0 -1.099 -0.07401
4516000000.0 -0.7608 0.8624
4519000000.0 0.1797 1.118
4522000000.0 0.9877 0.555
4525000000.0 1.07 -0.4186
4528000000.0 0.3705 -1.106
4531000000.0 -0.5999 -1.007
4534000000.0 -1.172 -0.1281
4538000000.0 -0.8625 0.7995
4541000000.0 0.09373 1.193
4544000000.0 0.9599 0.6997
4547000000.0 1.183 -0.301
4550000000.0 0.5223 -1.119
4553000000.0 -0.5257 -1.133
4556000000.0 -1.191 -0.3399
4559000000.0 -1.025 0.7165
4562000000.0 -0.1117 1.25
4566000000.0 0.8871 0.9196
4569000000.0 1.294 -0.1153
4572000000.0 0.75 -1.064
4575000000.0 -0.3401 -1.268
4578000000.0 -1.205 -0.5694
4581000000.0 -1.222 0.5461
4584000000.0 -0.3439 1.283
4588000000.0 0.8029 1.133
4591000000.0 1.38 0.09597
4594000000.0 0.9549 -1.01
4597000000.0 -0.1593 -1.379
4600000000.0 -1.187 -0.7531
4603000000.0 -1.366 0.4061
4606000000.0 -0.5295 1.327
4609000000.0 0.6932 1.228
4612000000.0 1.409 0.2659
4616000000.0 1.078 -0.9518
4619000000.0 -0.03877 -1.409
4622000000.0 -1.123 -0.884
4625000000.0 -1.356 0.3118
4628000000.0 -0.6137 1.251
4631000000.0 0.6015 1.236
4634000000.0 1.335 0.3452
4638000000.0 1.094 -0.8504
4641000000.0 0.01603 -1.361
4644000000.0 -1.055 -0.8962
4647000000.0 -1.319 0.2747
4650000000.0 -0.5984 1.182
4653000000.0 0.5419 1.183
4656000000.0 1.262 0.3202
4659000000.0 1.053 -0.7811
4662000000.0 0.04116 -1.273
4666000000.0 -0.9685 -0.7858
4669000000.0 -1.212 0.249
4672000000.0 -0.5429 1.075
4675000000.0 0.526 1.083
4678000000.0 1.153 0.2658
4681000000.0 0.9111 -0.7015
4684000000.0 -0.006691 -1.186
4688000000.0 -0.8922 -0.7243
4691000000.0 -1.101 0.2511
4694000000.0 -0.467 0.9926
4697000000.0 0.4416 1.009
4700000000.0 1.068 0.2399
4703000000.0 0.8385 -0.6859
4706000000.0 -0.01898 -1.085
4709000000.0 -0.877 -0.6847
4712000000.0 -1.05 0.2877
4716000000.0 -0.4213 0.976
4719000000.0 0.4894 0.9689
4722000000.0 1.063 0.213
4725000000.0 0.825 -0.6794
4728000000.0 -0.003763 -1.075
4731000000.0 -0.8087 -0.6551
4734000000.0 -1.04 0.2028
4738000000.0 -0.4877 0.9439
4741000000.0 0.3943 0.9616
4744000000.0 0.998 0.3022
4747000000.0 0.8943 -0.5729
4750000000.0 0.1134 -1.085
4753000000.0 -0.7743 -0.8085
4756000000.0 -1.109 0.07613
4759000000.0 -0.644 0.9064
4762000000.0 0.2803 1.073
4766000000.0 1.008 0.4735
4769000000.0 1.068 -0.4903
4772000000.0 0.3057 -1.117
4775000000.0 -0.6781 -0.9461
4778000000.0 -1.187 -0.09434
4781000000.0 -0.8215 0.8256
4784000000.0 0.09449 1.215
4788000000.0 0.988 0.712
4791000000.0 1.205 -0.3232
4794000000.0 0.5341 -1.118
4797000000.0 -0.5001 -1.139
4800000000.0 -1.231 -0.3562
4803000000.0 -1.016 0.6965
4806000000.0 -0.1131 1.26
4809000000.0 0.9011 0.902
4812000000.0 1.288 -0.0804
4816000000.0 0.7739 -1.054
4819000000.0 -0.3131 -1.332
4822000000.0 -1.241 -0.604
4825000000.0 -1.244 0.5904
4828000000.0 -0.3466 1.343
4831000000.0 0.81 1.121
4834000000.0 1.364 0.09868
4838000000.0 0.939 -1.022
4841000000.0 -0.1904 -1.381
4844000000.0 -1.208 -0.731
4847000000.0 -1.358 0.48
4850000000.0 -0.481 1.337
4853000000.0 0.7291 1.18
4856000000.0 1.377 0.2018
4859000000.0 1.003 -0.9363
4862000000.0 -0.07123 -1.375
4866000000.0 -1.105 -0.7794
4869000000.0 -1.274 0.3235
4872000000.0 -0.5428 1.212
4875000000.0 0.6273 1.163
4878000000.0 1.264 0.2787
4881000000.0 1.007 -0.7892
4884000000.0 -0.001239 -1.256
4888000000.0 -0.9561 -0.7738
4891000000.0 -1.197 0.2734
4894000000.0 -0.5176 1.063
4897000000.0 0.5144 1.067
4900000000.0 1.113 0.2627
4903000000.0 0.8892 -0.6748
4906000000.0 0.05174 -1.107
4909000000.0 -0.8105 -0.6993
4912000000.0 -1.043 0.1971
4916000000.0 -0.5018 0.8839
4919000000.0 0.3557 0.9452
4922000000.0 0.9344 0.3073
4925000000.0 0.8173 -0.5463
4928000000.0 0.1003 -0.9516
4931000000.0 -0.6842 -0.6757
4934000000.0 -0.9429 0.08998
4938000000.0 -0.5152 0.7611
4941000000.0 0.2517 0.9164
4944000000.0 0.8995 0.3703
4947000000.0 0.8469 -0.453
4950000000.0 0.1985 -0.9395
4953000000.0 -0.604 -0.7694
4956000000.0 -0.9614 -0.01405
4959000000.0 -0.6138 0.7498
4962000000.0 0.2103 0.9662
4966000000.0 0.8574 0.4721
4969000000.0 0.9125 -0.3633
4972000000.0 0.2821 -0.9663
4975000000.0 -0.5817 -0.8202
4978000000.0 -1.024 -0.08535
4981000000.0 -0.7278 0.765
4984000000.0 0.1111 1.022
4988000000.0 0.8628 0.6134
4991000000.0 1.045 -0.2974
4994000000.0 0.4464 -1.025
4997000000.0 -0.5041 -1.017
5000000000.0 -1.089 -0.256
5003000000.0 -0.916 0.6872
5006000000.0 -0.03593 1.175
5009000000.0 0.8926 0.7926
5012000000.0 1.185 -0.1843
5016000000.0 0.6224 -1.048
5019000000.0 -0.4169 -1.172
5022000000.0 -1.183 -0.4247
5025000000.0 -1.084 0.6645
5028000000.0 -0.1756 1.274
5031000000.0 0.8747 0.9453
5034000000.0 1.319 -0.03964
5038000000.0 0.7886 -1.05
5041000000.0 -0.2834 -1.252
5044000000.0 -1.179 -0.595
5047000000.0 -1.228 0.5184
5050000000.0 -0.3686 1.251
5053000000.0 0.7186 1.093
5056000000.0 1.28 0.1692
5059000000.0 0.9461 -0.8687
5062000000.0 -0.08903 -1.339
5066000000.0 -1.071 -0.7723
5069000000.0 -1.29 0.3385
5072000000.0 -0.5512 1.14
5075000000.0 0.5411 1.153
5078000000.0 1.243 0.3075
5081000000.0 1.033 -0.7278
5084000000.0 0.1117 -1.227
5088000000.0 -0.8709 -0.8577
5091000000.0 -1.177 0.1121
5094000000.0 -0.6919 0.9926
5097000000.0 0.3291 1.165
5100000000.0 1.101 0.4704
5103000000.0 1.01 -0.5004
5106000000.0 0.274 -1.062
5109000000.0 -0.6293 -0.9057
5112000000.0 -1.057 -0.06633
5116000000.0 -0.7398 0.7777
5119000000.0 0.1206 1.056
5122000000.0 0.8785 0.5994
5125000000.0 0.9632 -0.2957
5128000000.0 0.4224 -0.9471
5131000000.0 -0.4809 -0.9171
5134000000.0 -0.9734 -0.2006
5138000000.0 -0.7985 0.5749
5141000000.0 -0.04254 0.9764
5144000000.0 0.7278 0.6325
5147000000.0 0.9585 -0.1752
5150000000.0 0.4575 -0.8095
5153000000.0 -0.341 -0.8461
5156000000.0 -0.9201 -0.2905
5159000000.0 -0.7399 0.5189
5162000000.0 -0.09479 0.9247
5166000000.0 0.649 0.667
5169000000.0 0.8979 -0.08883
5172000000.0 0.4903 -0.7427
5175000000.0 -0.2832 -0.8619
5178000000.0 -0.8656 -0.3115
5181000000.0 -0.7908 0.4623
5184000000.0 -0.1392 0.9221
5188000000.0 0.6256 0.6447
5191000000.0 0.917 -0.05429
5194000000.0 0.5395 -0.7809
5197000000.0 -0.2924 -0.9044
5200000000.0 -0.8928 -0.3341
5203000000.0 -0.8459 0.4979
5206000000.0 -0.1521 0.9512
5209000000.0 0.6632 0.7255
5212000000.0 0.9985 -0.04439
5216000000.0 0.5556 -0.7793
5219000000.0 -0.2705 -0.9683
5222000000.0 -0.8648 -0.4111
5225000000.0 -0.9051 0.4574
5228000000.0 -0.2402 1.015
5231000000.0 0.6304 0.807
5234000000.0 1.028 0.0267
5238000000.0 0.6867 -0.7886
5241000000.0 -0.1656 -1.03
5244000000.0 -0.8999 -0.5514
5247000000.0 -1.014 0.3868
5250000000.0 -0.3307 1.017
5253000000.0 0.5542 0.9163
5256000000.0 1.082 0.1822
5259000000.0 0.8161 -0.7263
5262000000.0 -0.0193 -1.091
5266000000.0 -0.8709 -0.6813
5269000000.0 -1.082 0.2025
5272000000.0 -0.5308 0.9545
5275000000.0 0.3893 1.055
5278000000.0 1.062 0.3471
5281000000.0 0.9279 -0.5507
5284000000.0 0.1915 -1.076
5288000000.0 -0.7187 -0.8683
5291000000.0 -1.136 -0.01295
5294000000.0 -0.7505 0.8607
5297000000.0 0.1826 1.116
5300000000.0 0.9446 0.6001
5303000000.0 1.068 -0.3594
5306000000.0 0.4309 -1.037
5309000000.0 -0.5584 -1.017
5312000000.0 -1.135 -0.2468
5316000000.0 -0.9472 0.6783
5319000000.0 -0.07072 1.179
5322000000.0 0.833 0.7906
5325000000.0 1.138 -0.1769
5328000000.0 0.6149 -0.976
5331000000.0 -0.3822 -1.065
5334000000.0 -1.076 -0.4435
5338000000.0 -0.9892 0.5705
5341000000.0 -0.2114 1.132
5344000000.0 0.7171 0.8638
5347000000.0 1.112 -0.003495
5350000000.0 0.6762 -0.8557
5353000000.0 -0.2157 -1.076
5356000000.0 -0.9869 -0.4973
5359000000.0 -1.018 0.4202
5362000000.0 -0.2763 1.041
5366000000.0 0.6051 0.8545
5369000000.0 1.054 0.03882
5372000000.0 0.6887 -0.7965
5375000000.0 -0.1788 -1.046
5378000000.0 -0.8992 -0.462
5381000000.0 -0.9392 0.3864
5384000000.0 -0.2517 0.9605
5388000000.0 0.5746 0.7813
5391000000.0 0.9485 0.02308
5394000000.0 0.644 -0.7241
5397000000.0 -0.1919 -0.925
5400000000.0 -0.8087 -0.4136
5403000000.0 -0.815 0.368
5406000000.0 -0.2067 0.8641
5409000000.0 0.5647 0.7055
5412000000.0 0.9128 0.02068
5416000000.0 0.571 -0.6461
5419000000.0 -0.1624 -0.8453
5422000000.0 -0.7953 -0.3997
5425000000.0 -0.7867 0.3414
5428000000.0 -0.2144 0.8336
5431000000.0 0.5252 0.6701
5434000000.0 0.8805 0.02444
5438000000.0 0.5702 -0.6857
5441000000.0 -0.1461 -0.8391
5444000000.0 -0.825 -0.3808
5447000000.0 -0.8284 0.3914
5450000000.0 -0.2505 0.8654
5453000000.0 0.5605 0.7378
5456000000.0 0.8957 0.03416
5459000000.0 0.6058 -0.661
5462000000.0 -0.1447 -0.8905
5466000000.0 -0.8172 -0.4937
5469000000.0 -0.8769 0.2859
5472000000.0 -0.3419 0.8552
5475000000.0 0.4434 0.834
5478000000.0 0.9136 0.1977
5481000000.0 0.7604 -0.5904
5484000000.0 -0.01598 -0.9594
5488000000.0 -0.7466 -0.6467
5491000000.0 -0.9849 0.1239
5494000000.0 -0.5124 0.8493
5497000000.0 0.354 0.952
5500000000.0 0.9595 0.351
5503000000.0 0.9152 -0.4916
5506000000.0 0.1793 -1.007
5509000000.0 -0.6775 -0.7936
5512000000.0 -1.064 -0.0003145
5516000000.0 -0.6901 0.8112
5519000000.0 0.155 0.9783
5522000000.0 0.8882 0.552
5525000000.0 1.02 -0.3249
5528000000.0 0.3747 -0.9659
5531000000.0 -0.5012 -0.945
5534000000.0 -1.037 -0.1811
5538000000.0 -0.8104 0.6626
5541000000.0 -0.04092 1.059
5544000000.0 0.804 0.7369
5547000000.0 1.036 -0.1807
5550000000.0 0.5593 -0.9557
5553000000.0 -0.3869 -1.006
5556000000.0 -0.9963 -0.3457
5559000000.0 -0.9037 0.5312
5562000000.0 -0.1958 1.041
5566000000.0 0.6534 0.7792
5569000000.0 1.052 -0.03332
5572000000.0 0.6315 -0.8235
5575000000.0 -0.1828 -0.9818
5578000000.0 -0.9106 -0.4836
5581000000.0 -0.9305 0.408
5584000000.0 -0.301 0.9351
5588000000.0 0.5155 0.8175
5591000000.0 0.9652 0.1006
5594000000.0 0.6911 -0.645
5597000000.0 -0.0975 -0.9323
5600000000.0 -0.7881 -0.5302
5603000000.0 -0.8873 0.2475
5606000000.0 -0.3457 0.8197
5609000000.0 0.4584 0.7993
5612000000.0 0.8753 0.1962
5616000000.0 0.6783 -0.5689
5619000000.0 -0.03605 -0.8744
5622000000.0 -0.6823 -0.537
5625000000.0 -0.8399 0.2014
5628000000.0 -0.3645 0.772
5631000000.0 0.3923 0.7443
5634000000.0 0.8207 0.1856
5638000000.0 0.6499 -0.5199
5641000000.0 0.02125 -0.8606
5644000000.0 -0.6516 -0.5197
5647000000.0 -0.8269 0.1601
5650000000.0 -0.3852 0.7734
5653000000.0 0.3438 0.8041
5656000000.0 0.842 0.2049
5659000000.0 0.6796 -0.5571
5662000000.0 0.02272 -0.8832
5666000000.0 -0.6718 -0.5458
5669000000.0 -0.883 0.2054
5672000000.0 -0.4186 0.8124
5675000000.0 0.3572 0.8313
5678000000.0 0.8994 0.2285
5681000000.0 0.7933 -0.5567
5684000000.0 1.29e-05 -0.9471
5688000000.0 -0.7203 -0.6037
5691000000.0 -0.9652 0.1584
5694000000.0 -0.4714 0.8233
5697000000.0 0.3625 0.9128
5700000000.0 0.953 0.3113
5703000000.0 0.8502 -0.5716
5706000000.0 0.0904 -1.008
5709000000.0 -0.7393 -0.732
5712000000.0 -1.041 0.1175
5716000000.0 -0.5623 0.8687
5719000000.0 0.3192 0.9964
5722000000.0 0.9908 0.3951
5725000000.0 0.9414 -0.5089
5728000000.0 0.2254 -1.07
5731000000.0 -0.7102 -0.8684
5734000000.0 -1.127 -0.01289
5738000000.0 -0.7314 0.8426
5741000000.0 0.1571 1.062
5744000000.0 0.9305 0.5617
5747000000.0 1.072 -0.3727
5750000000.0 0.368 -1.072
5753000000.0 -0.5667 -0.9789
5756000000.0 -1.106 -0.1595
5759000000.0 -0.8542 0.7516
5762000000.0 0.002697 1.117
5766000000.0 0.8599 0.7092
5769000000.0 1.136 -0.195
5772000000.0 0.5217 -0.9635
5775000000.0 -0.3803 -1.033
5778000000.0 -1.026 -0.3707
5781000000.0 -0.942 0.5953
5784000000.0 -0.1588 1.088
5788000000.0 0.7035 0.8211
5791000000.0 1.072 -0.01722
5794000000.0 0.6557 -0.8394
5797000000.0 -0.251 -1.076
5800000000.0 -0.9576 -0.4764
5803000000.0 -0.9952 0.4377
5806000000.0 -0.3143 1.04
5809000000.0 0.6026 0.8697
5812000000.0 1.049 0.09937
5816000000.0 0.7074 -0.7245
5819000000.0 -0.1093 -1.021
5822000000.0 -0.8718 -0.5436
5825000000.0 -0.9551 0.2969
5828000000.0 -0.3639 0.9352
5831000000.0 0.4751 0.8739
5834000000.0 0.9479 0.1735
5838000000.0 0.7195 -0.6369
5841000000.0 -0.004626 -0.9794
5844000000.0 -0.8207 -0.5994
5847000000.0 -0.9179 0.2406
5850000000.0 -0.4113 0.8404
5853000000.0 0.3785 0.8476
5856000000.0 0.9126 0.2191
5859000000.0 0.7503 -0.5999
5862000000.0 0.003394 -0.9013
5866000000.0 -0.7118 -0.5824
5869000000.0 -0.9009 0.2178
5872000000.0 -0.4124 0.8255
5875000000.0 0.3659 0.8198
5878000000.0 0.8676 0.2344
5881000000.0 0.6984 -0.5547
5884000000.0 0.03073 -0.8623
5888000000.0 -0.66 -0.5688
5891000000.0 -0.8849 0.1445
5894000000.0 -0.3924 0.771
5897000000.0 0.3144 0.8081
5900000000.0 0.8052 0.2486
5903000000.0 0.6952 -0.481
5906000000.0 0.09551 -0.8753
5909000000.0 -0.6141 -0.6022
5912000000.0 -0.8604 0.1049
5916000000.0 -0.4827 0.7462
5919000000.0 0.2772 0.839
5922000000.0 0.8151 0.3383
5925000000.0 0.789 -0.4226
5928000000.0 0.1813 -0.8768
5931000000.0 -0.5536 -0.7061
5934000000.0 -0.905 0.007347
5938000000.0 -0.5887 0.6891
5941000000.0 0.1801 0.8677
5944000000.0 0.8041 0.4499
5947000000.0 0.8638 -0.3372
5950000000.0 0.2886 -0.8759
5953000000.0 -0.4868 -0.8021
5956000000.0 -0.9442 -0.1217
5959000000.0 -0.7444 0.6695
5962000000.0 0.02059 0.9655
5966000000.0 0.7561 0.5989
5969000000.0 0.9466 -0.1908
5972000000.0 0.4336 -0.8545
5975000000.0 -0.3731 -0.8861
5978000000.0 -0.9289 -0.2972
5981000000.0 -0.8277 0.5381
5984000000.0 -0.1586 0.9944
5988000000.0 0.676 0.7749
5991000000.0 1.029 -0.08496
5994000000.0 0.6155 -0.797
5997000000.0 -0.2281 -0.9666
6000000000.0 -0.9176 -0.461
6003000000.0 -0.8745 0.4136
6006000000.0 -0.2427 0.9493
6009000000.0 0.6189 0.8034
6012000000.0 1.015 0.08922
6016000000.0 0.6703 -0.7531
6019000000.0 -0.1299 -1.0
6022000000.0 -0.8428 -0.5322
6025000000.0 -0.9401 0.3455
6028000000.0 -0.3539 0.9136
6031000000.0 0.5045 0.8413
6034000000.0 0.9826 0.1366
6038000000.0 0.7285 -0.644
6041000000.0 -0.04014 -0.9671
6044000000.0 -0.7755 -0.5677
6047000000.0 -0.937 0.237
6050000000.0 -0.401 0.8564
6053000000.0 0.4086 0.8351
6056000000.0 0.9256 0.2134
6059000000.0 0.7412 -0.5745
6062000000.0 0.0013 -0.9379
6066000000.0 -0.6985 -0.5875
6069000000.0 -0.8822 0.1615
6072000000.0 -0.4015 0.7945
6075000000.0 0.3702 0.8034
6078000000.0 0.8641 0.2316
6081000000.0 0.7154 -0.5301
6084000000.0 0.03738 -0.8607
6088000000.0 -0.6511 -0.5821
6091000000.0 -0.8504 0.1223
6094000000.0 -0.435 0.7551
6097000000.0 0.3194 0.7943
6100000000.0 0.8102 0.2569
6103000000.0 0.7229 -0.4377
6106000000.0 0.07294 -0.8857
6109000000.0 -0.6193 -0.6052
6112000000.0 -0.8971 0.08263
6116000000.0 -0.4611 0.7309
6119000000.0 0.2758 0.8274
6122000000.0 0.8247 0.2986
6125000000.0 0.7458 -0.4471
6128000000.0 0.1192 -0.8515
6131000000.0 -0.6327 -0.6247
6134000000.0 -0.8998 0.06988
6138000000.0 -0.5104 0.7308
6141000000.0 0.2379 0.8596
6144000000.0 0.8212 0.3648
6147000000.0 0.795 -0.4318
6150000000.0 0.1838 -0.8967
6153000000.0 -0.5599 -0.707
6156000000.0 -0.9264 -0.03898
6159000000.0 -0.5985 0.6827
6162000000.0 0.1744 0.9429
6166000000.0 0.8464 0.4275
6169000000.0 0.8638 -0.3778
6172000000.0 0.2813 -0.8895
6175000000.0 -0.5254 -0.7939
6178000000.0 -0.9462 -0.05377
6181000000.0 -0.6889 0.6869
6184000000.0 0.1134 0.9739
6188000000.0 0.8001 0.5184
6191000000.0 0.9776 -0.2816
6194000000.0 0.3472 -0.8878
6197000000.0 -0.4498 -0.8382
6200000000.0 -0.965 -0.1985
6203000000.0 -0.7264 0.5903
6206000000.0 0.02558 0.9422
6209000000.0 0.7243 0.5928
6212000000.0 0.9292 -0.1972
6216000000.0 0.4249 -0.8226
6219000000.0 -0.3229 -0.844
6222000000.0 -0.8871 -0.2951
6225000000.0 -0.8013 0.4973
6228000000.0 -0.09326 0.8867
6231000000.0 0.6248 0.6451
6234000000.0 0.8998 -0.05574
6238000000.0 0.5062 -0.7259
6241000000.0 -0.2069 -0.8529
6244000000.0 -0.8012 -0.3563
6247000000.0 -0.8101 0.3557
6250000000.0 -0.2078 0.8178
6253000000.0 0.5092 0.689
6256000000.0 0.8434 0.04629
6259000000.0 0.5843 -0.5951
6262000000.0 -0.07661 -0.8317
6266000000.0 -0.6844 -0.4629
