! Created with skrf 1.8.0 (http://scikit-rf.org).
# Hz S RI R 50.0 
!freq ReS11 ImS11
4000000000.0 -0.2025 -1.473
4003000000.0 -1.24 -0.7912
4006000000.0 -1.415 0.5403
4009000000.0 -0.4909 1.452
4012000000.0 0.8242 1.263
4016000000.0 1.5 0.2283
4019000000.0 1.092 -1.089
4022000000.0 -0.1183 -1.567
4025000000.0 -1.324 -0.8093
4028000000.0 -1.495 0.4957
4031000000.0 -0.5597 1.502
4034000000.0 0.8254 1.375
4038000000.0 1.592 0.1912
4041000000.0 1.16 -1.13
4044000000.0 -0.1007 -1.617
4047000000.0 -1.357 -0.8875
4050000000.0 -1.522 0.5211
4053000000.0 -0.5683 1.498
4056000000.0 0.735 1.44
4059000000.0 1.566 0.2737
4062000000.0 1.267 -1.045
4066000000.0 0.03104 -1.61
4069000000.0 -1.236 -1.032
4072000000.0 -1.623 0.3144
4075000000.0 -0.7665 1.395
4078000000.0 0.6321 1.516
4081000000.0 1.571 0.5217
4084000000.0 1.42 -0.8506
4088000000.0 0.2004 -1.629
4091000000.0 -1.136 -1.188
4094000000.0 -1.627 0.09266
4097000000.0 -0.9434 1.291
4100000000.0 0.3855 1.557
4103000000.0 1.437 0.6985
4106000000.0 1.417 -0.6942
4109000000.0 0.4091 -1.499
4112000000.0 -0.8185 -1.301
4116000000.0 -1.497 -0.1919
4119000000.0 -1.078 1.025
4122000000.0 0.06085 1.501
4125000000.0 1.139 0.9247
4128000000.0 1.437 -0.276
4131000000.0 0.7342 -1.232
4134000000.0 -0.4773 -1.378
4138000000.0 -1.347 -0.5618
4141000000.0 -1.339 0.6506
4144000000.0 -0.3346 1.46
4147000000.0 0.8982 1.219
4150000000.0 1.514 0.09654
4153000000.0 1.067 -1.101
4156000000.0 -0.1563 -1.493
4159000000.0 -1.223 -0.8444
4162000000.0 -1.467 0.4065
4166000000.0 -0.6203 1.369
4169000000.0 0.6577 1.34
4172000000.0 1.457 0.3779
4175000000.0 1.196 -0.8785
4178000000.0 0.1114 -1.495
4181000000.0 -1.074 -1.054
4184000000.0 -1.467 0.1451
4188000000.0 -0.8474 1.23
4191000000.0 0.4256 1.469
4194000000.0 1.416 0.6269
4197000000.0 1.378 -0.7229
4200000000.0 0.314 -1.539
4203000000.0 -0.9802 -1.247
4206000000.0 -1.607 0.01155
4209000000.0 -1.008 1.293
4212000000.0 0.3982 1.607
4216000000.0 1.517 0.6686
4219000000.0 1.434 -0.8243
4222000000.0 0.2616 -1.63
4225000000.0 -1.148 -1.209
4228000000.0 -1.662 0.1926
4231000000.0 -0.8228 1.437
4234000000.0 0.6197 1.539
4238000000.0 1.593 0.4263
4241000000.0 1.269 -0.9948
4244000000.0 0.008345 -1.598
4247000000.0 -1.258 -1.017
4250000000.0 -1.519 0.3791
4253000000.0 -0.5609 1.439
4256000000.0 0.7569 1.338
4259000000.0 1.518 0.2016
4262000000.0 1.094 -1.027
4266000000.0 -0.1955 -1.472
4269000000.0 -1.286 -0.7812
4272000000.0 -1.419 0.5013
4275000000.0 -0.4357 1.397
4278000000.0 0.7931 1.193
4281000000.0 1.415 0.09408
4284000000.0 0.9499 -1.035
4288000000.0 -0.2061 -1.346
4291000000.0 -1.157 -0.6854
4294000000.0 -1.245 0.4724
4297000000.0 -0.4475 1.272
4300000000.0 0.7139 1.099
4303000000.0 1.257 0.1879
4306000000.0 0.9549 -0.8615
4309000000.0 -0.01052 -1.325
4312000000.0 -1.023 -0.7907
4316000000.0 -1.292 0.2676
4319000000.0 -0.6417 1.119
4322000000.0 0.4408 1.232
4325000000.0 1.263 0.3898
4328000000.0 1.163 -0.6404
4331000000.0 0.2336 -1.327
4334000000.0 -0.8678 -1.016
4338000000.0 -1.387 0.04344
4341000000.0 -0.8905 1.078
4344000000.0 0.3056 1.367
4347000000.0 1.256 0.6693
4350000000.0 1.32 -0.5621
4353000000.0 0.4154 -1.345
4356000000.0 -0.7787 -1.186
4359000000.0 -1.43 -0.1509
4362000000.0 -1.063 0.9855
4366000000.0 0.1012 1.433
4369000000.0 1.184 0.8653
4372000000.0 1.415 -0.362
4375000000.0 0.6631 -1.318
4378000000.0 -0.6425 -1.348
4381000000.0 -1.466 -0.3808
4384000000.0 -1.2 0.8671
4388000000.0 -0.05158 1.524
4391000000.0 1.177 1.021
4394000000.0 1.553 -0.2604
4397000000.0 0.8047 -1.372
4400000000.0 -0.6347 -1.47
4403000000.0 -1.508 -0.4198
4406000000.0 -1.273 0.9092
4409000000.0 -0.07897 1.548
4412000000.0 1.2 1.035
4416000000.0 1.501 -0.2988
4419000000.0 0.6856 -1.37
4422000000.0 -0.6672 -1.373
4425000000.0 -1.426 -0.3483
4428000000.0 -1.134 0.9266
4431000000.0 0.04954 1.459
4434000000.0 1.125 0.8008
4438000000.0 1.351 -0.3563
4441000000.0 0.5247 -1.266
4444000000.0 -0.6673 -1.198
4447000000.0 -1.302 -0.202
4450000000.0 -0.9535 0.8851
4453000000.0 0.1454 1.302
4456000000.0 1.134 0.6709
4459000000.0 1.198 -0.4129
4462000000.0 0.3572 -1.174
4466000000.0 -0.6829 -0.9814
4469000000.0 -1.225 -0.05168
4472000000.0 -0.7572 0.9104
4475000000.0 0.2566 1.131
4478000000.0 1.048 0.4873
4481000000.0 1.042 -0.4877
4484000000.0 0.2537 -1.121
4488000000.0 -0.723 -0.881
4491000000.0 -1.144 0.01402
4494000000.0 -0.6602 0.8946
4497000000.0 0.2798 1.102
4500000000.0 1.021 0.4749
4503000000.0 1.005 -0.4796
4506000000.0 0.2457 -1.069
4509000000.0 -0.673 -0.869
4512000000.0 -1.12 -0.03122
4516000000.0 -0.7289 0.8417
4519000000.0 0.175 1.09
4522000000.0 0.9969 0.5253
4525000000.0 1.054 -0.4326
4528000000.0 0.2943 -1.096
4531000000.0 -0.6598 -0.9479
4534000000.0 -1.141 -0.1458
4538000000.0 -0.8446 0.8207
4541000000.0 0.1147 1.171
4544000000.0 1.009 0.6875
4547000000.0 1.159 -0.3153
4550000000.0 0.5258 -1.074
4553000000.0 -0.5482 -1.099
4556000000.0 -1.193 -0.2848
4559000000.0 -0.9958 0.7166
4562000000.0 -0.1051 1.239
4566000000.0 0.8822 0.865
4569000000.0 1.275 -0.1055
4572000000.0 0.7276 -1.044
4575000000.0 -0.3466 -1.274
4578000000.0 -1.214 -0.5271
4581000000.0 -1.144 0.567
4584000000.0 -0.318 1.3
4588000000.0 0.8433 1.072
4591000000.0 1.377 0.09782
4594000000.0 0.9318 -1.001
4597000000.0 -0.2107 -1.376
4600000000.0 -1.187 -0.6996
4603000000.0 -1.299 0.4824
4606000000.0 -0.4707 1.33
4609000000.0 0.7037 1.213
4612000000.0 1.407 0.2121
4616000000.0 1.036 -0.9458
4619000000.0 -0.09274 -1.399
4622000000.0 -1.123 -0.7926
4625000000.0 -1.331 0.3407
4628000000.0 -0.5795 1.243
4631000000.0 0.6146 1.231
4634000000.0 1.338 0.2584
4638000000.0 1.06 -0.8509
4641000000.0 -7.475e-05 -1.345
4644000000.0 -1.06 -0.8554
4647000000.0 -1.298 0.3197
4650000000.0 -0.59 1.199
4653000000.0 0.5842 1.177
4656000000.0 1.264 0.2671
4659000000.0 0.9782 -0.7919
4662000000.0 -0.04234 -1.246
4666000000.0 -0.9715 -0.7274
4669000000.0 -1.169 0.2815
4672000000.0 -0.4846 1.092
4675000000.0 0.5264 1.046
4678000000.0 1.118 0.1951
4681000000.0 0.8619 -0.7443
4684000000.0 -0.04619 -1.119
4688000000.0 -0.8691 -0.658
4691000000.0 -1.06 0.2653
4694000000.0 -0.4273 0.9757
4697000000.0 0.5326 0.9487
4700000000.0 1.065 0.2101
4703000000.0 0.8165 -0.7315
4706000000.0 -0.0554 -1.069
4709000000.0 -0.8709 -0.6091
4712000000.0 -1.045 0.2835
4716000000.0 -0.4021 0.9944
4719000000.0 0.5059 0.9149
4722000000.0 1.056 0.2159
4725000000.0 0.7753 -0.6922
4728000000.0 -0.0716 -1.065
4731000000.0 -0.8194 -0.6228
4734000000.0 -1.022 0.252
4738000000.0 -0.4263 0.9455
4741000000.0 0.4178 0.918
4744000000.0 1.015 0.2743
4747000000.0 0.8765 -0.6006
4750000000.0 0.06983 -1.05
4753000000.0 -0.7741 -0.775
4756000000.0 -1.067 0.1101
4759000000.0 -0.6418 0.9147
4762000000.0 0.3288 1.083
4766000000.0 1.054 0.4652
4769000000.0 1.038 -0.5141
4772000000.0 0.2784 -1.126
4775000000.0 -0.7089 -0.9223
4778000000.0 -1.178 -0.1002
4781000000.0 -0.8157 0.8754
4784000000.0 0.1247 1.2
4788000000.0 0.9731 0.6776
4791000000.0 1.162 -0.342
4794000000.0 0.5044 -1.109
4797000000.0 -0.5219 -1.118
4800000000.0 -1.199 -0.2947
4803000000.0 -1.032 0.7222
4806000000.0 -0.1185 1.246
4809000000.0 0.909 0.8809
4812000000.0 1.29 -0.1022
4816000000.0 0.7514 -1.092
4819000000.0 -0.344 -1.257
4822000000.0 -1.212 -0.5362
4825000000.0 -1.208 0.6034
4828000000.0 -0.3355 1.309
4831000000.0 0.8298 1.104
4834000000.0 1.37 0.05013
4838000000.0 0.9147 -1.058
4841000000.0 -0.196 -1.368
4844000000.0 -1.211 -0.7082
4847000000.0 -1.286 0.4737
4850000000.0 -0.4499 1.307
4853000000.0 0.7458 1.144
4856000000.0 1.353 0.1809
4859000000.0 0.9754 -0.9633
4862000000.0 -0.1121 -1.316
4866000000.0 -1.093 -0.7563
4869000000.0 -1.281 0.3822
4872000000.0 -0.5238 1.189
4875000000.0 0.6041 1.152
4878000000.0 1.24 0.2262
4881000000.0 0.9443 -0.8199
4884000000.0 -0.03902 -1.235
4888000000.0 -0.9559 -0.7305
4891000000.0 -1.181 0.2843
4894000000.0 -0.4807 1.05
4897000000.0 0.5122 1.022
4900000000.0 1.075 0.2245
4903000000.0 0.8687 -0.7153
4906000000.0 0.002329 -1.115
4909000000.0 -0.7783 -0.665
4912000000.0 -1.026 0.1956
4916000000.0 -0.4729 0.8775
4919000000.0 0.3855 0.9219
4922000000.0 0.9315 0.257
4925000000.0 0.8064 -0.5244
4928000000.0 0.07984 -0.9587
4931000000.0 -0.6769 -0.6726
4934000000.0 -0.9351 0.09231
4938000000.0 -0.5078 0.7758
4941000000.0 0.2907 0.8781
4944000000.0 0.8691 0.3672
4947000000.0 0.7989 -0.4239
4950000000.0 0.1851 -0.9321
4953000000.0 -0.6255 -0.7476
4956000000.0 -0.9558 0.03518
4959000000.0 -0.5949 0.7445
4962000000.0 0.2308 0.9374
4966000000.0 0.873 0.4194
4969000000.0 0.874 -0.4143
4972000000.0 0.2439 -0.9753
4975000000.0 -0.6059 -0.7953
4978000000.0 -1.022 -0.04317
4981000000.0 -0.7129 0.7531
4984000000.0 0.1242 1.024
4988000000.0 0.9015 0.5458
4991000000.0 1.014 -0.3195
4994000000.0 0.4079 -0.9967
4997000000.0 -0.5254 -0.9608
5000000000.0 -1.108 -0.2282
5003000000.0 -0.8874 0.7221
5006000000.0 -0.02545 1.144
5009000000.0 0.9109 0.7788
5012000000.0 1.2 -0.2267
5016000000.0 0.5759 -1.067
5019000000.0 -0.4756 -1.183
5022000000.0 -1.21 -0.3857
5025000000.0 -1.055 0.6751
5028000000.0 -0.1673 1.27
5031000000.0 0.8736 0.9221
5034000000.0 1.276 -0.07759
5038000000.0 0.7449 -1.043
5041000000.0 -0.3356 -1.251
5044000000.0 -1.15 -0.5609
5047000000.0 -1.185 0.5359
5050000000.0 -0.3619 1.215
5053000000.0 0.7199 1.054
5056000000.0 1.318 0.1366
5059000000.0 0.937 -0.8837
5062000000.0 -0.1063 -1.268
5066000000.0 -1.081 -0.7306
5069000000.0 -1.226 0.3321
5072000000.0 -0.5194 1.147
5075000000.0 0.5731 1.148
5078000000.0 1.227 0.3102
5081000000.0 1.008 -0.7332
5084000000.0 0.1038 -1.244
5088000000.0 -0.8584 -0.8479
5091000000.0 -1.204 0.1569
5094000000.0 -0.6366 0.9853
5097000000.0 0.347 1.116
5100000000.0 1.02 0.424
5103000000.0 0.9577 -0.5009
5106000000.0 0.2527 -1.074
5109000000.0 -0.6769 -0.8529
5112000000.0 -1.066 -0.07365
5116000000.0 -0.7191 0.8059
5119000000.0 0.1083 1.046
5122000000.0 0.8885 0.5842
5125000000.0 0.9686 -0.3223
5128000000.0 0.3569 -0.9332
5131000000.0 -0.5002 -0.8803
5134000000.0 -0.9633 -0.2131
5138000000.0 -0.7514 0.6279
5141000000.0 0.01032 0.9586
5144000000.0 0.7641 0.619
5147000000.0 0.9101 -0.1791
5150000000.0 0.4272 -0.8191
5153000000.0 -0.3539 -0.8218
5156000000.0 -0.8526 -0.2202
5159000000.0 -0.729 0.5066
5162000000.0 -0.05158 0.8995
5166000000.0 0.6388 0.6125
5169000000.0 0.8851 -0.108
5172000000.0 0.4572 -0.7556
5175000000.0 -0.2808 -0.8568
5178000000.0 -0.8423 -0.3158
5181000000.0 -0.7653 0.4886
5184000000.0 -0.1254 0.9092
5188000000.0 0.6366 0.6493
5191000000.0 0.9227 -0.08177
5194000000.0 0.5124 -0.7644
5197000000.0 -0.2891 -0.8826
5200000000.0 -0.889 -0.3069
5203000000.0 -0.7848 0.4897
5206000000.0 -0.1059 0.9317
5209000000.0 0.6639 0.6941
5212000000.0 0.9746 -0.08643
5216000000.0 0.5339 -0.798
5219000000.0 -0.2594 -0.944
5222000000.0 -0.909 -0.3974
5225000000.0 -0.8754 0.4974
5228000000.0 -0.1747 1.013
5231000000.0 0.6359 0.7801
5234000000.0 1.022 -0.009467
5238000000.0 0.6418 -0.8122
5241000000.0 -0.2227 -1.041
5244000000.0 -0.9439 -0.4771
5247000000.0 -0.9635 0.3837
5250000000.0 -0.3315 0.9794
5253000000.0 0.5829 0.8797
5256000000.0 1.056 0.1258
5259000000.0 0.7759 -0.7441
5262000000.0 -0.06704 -1.069
5266000000.0 -0.885 -0.65
5269000000.0 -1.055 0.2294
5272000000.0 -0.513 0.9961
5275000000.0 0.4206 0.9889
5278000000.0 1.05 0.3285
5281000000.0 0.9238 -0.5743
5284000000.0 0.1503 -1.087
5288000000.0 -0.7557 -0.8617
5291000000.0 -1.136 0.02229
5294000000.0 -0.6819 0.8413
5297000000.0 0.1681 1.107
5300000000.0 0.9805 0.5608
5303000000.0 1.062 -0.3875
5306000000.0 0.3871 -1.057
5309000000.0 -0.5638 -0.9891
5312000000.0 -1.095 -0.1752
5316000000.0 -0.8929 0.733
5319000000.0 -0.009502 1.156
5322000000.0 0.8786 0.7117
5325000000.0 1.132 -0.1657
5328000000.0 0.5647 -1.01
5331000000.0 -0.4193 -1.093
5334000000.0 -1.073 -0.3918
5338000000.0 -0.983 0.5831
5341000000.0 -0.1942 1.154
5344000000.0 0.7431 0.8361
5347000000.0 1.105 -0.07726
5350000000.0 0.6315 -0.8898
5353000000.0 -0.2834 -1.05
5356000000.0 -0.9521 -0.465
5359000000.0 -0.9659 0.4602
5362000000.0 -0.2321 1.036
5366000000.0 0.6445 0.8252
5369000000.0 1.069 0.02045
5372000000.0 0.6712 -0.8002
5375000000.0 -0.2084 -0.994
5378000000.0 -0.8873 -0.4623
5381000000.0 -0.9084 0.4337
5384000000.0 -0.2126 0.9579
5388000000.0 0.5889 0.7868
5391000000.0 0.9287 -0.00108
5394000000.0 0.5544 -0.7258
5397000000.0 -0.2288 -0.8867
5400000000.0 -0.8375 -0.3704
5403000000.0 -0.7956 0.4044
5406000000.0 -0.1825 0.8638
5409000000.0 0.5665 0.6762
5412000000.0 0.855 -0.04183
5416000000.0 0.5147 -0.6779
5419000000.0 -0.2137 -0.8335
5422000000.0 -0.7754 -0.3495
5425000000.0 -0.768 0.3961
5428000000.0 -0.1747 0.8317
5431000000.0 0.5454 0.6692
5434000000.0 0.8758 -0.05244
5438000000.0 0.5049 -0.6975
5441000000.0 -0.2054 -0.8158
5444000000.0 -0.8091 -0.3455
5447000000.0 -0.777 0.4002
5450000000.0 -0.2002 0.862
5453000000.0 0.58 0.6814
5456000000.0 0.8901 -0.021
5459000000.0 0.5793 -0.6599
5462000000.0 -0.1874 -0.9213
5466000000.0 -0.8009 -0.4354
5469000000.0 -0.8445 0.3499
5472000000.0 -0.2963 0.8898
5475000000.0 0.4917 0.7476
5478000000.0 0.9277 0.1355
5481000000.0 0.7308 -0.6403
5484000000.0 -0.002134 -0.9881
5488000000.0 -0.7821 -0.5822
5491000000.0 -0.9385 0.168
5494000000.0 -0.4864 0.8902
5497000000.0 0.3932 0.9554
5500000000.0 0.9436 0.2817
5503000000.0 0.8714 -0.543
5506000000.0 0.1263 -1.028
5509000000.0 -0.6877 -0.7712
5512000000.0 -1.038 0.02371
5516000000.0 -0.6264 0.8316
5519000000.0 0.21 1.022
5522000000.0 0.9156 0.4944
5525000000.0 0.991 -0.355
5528000000.0 0.3327 -1.001
5531000000.0 -0.5556 -0.8813
5534000000.0 -1.067 -0.1622
5538000000.0 -0.8533 0.6915
5541000000.0 -0.004925 1.091
5544000000.0 0.818 0.6486
5547000000.0 1.046 -0.1981
5550000000.0 0.5133 -0.9234
5553000000.0 -0.4031 -1.009
5556000000.0 -0.9934 -0.3121
5559000000.0 -0.8733 0.5747
5562000000.0 -0.1195 1.054
5566000000.0 0.7371 0.7072
5569000000.0 1.007 -0.07955
5572000000.0 0.5799 -0.8306
5575000000.0 -0.2525 -0.9709
5578000000.0 -0.8865 -0.4134
5581000000.0 -0.8732 0.443
5584000000.0 -0.2339 0.9687
5588000000.0 0.6229 0.7938
5591000000.0 0.9255 0.04853
5594000000.0 0.6287 -0.6866
5597000000.0 -0.1239 -0.9351
5600000000.0 -0.7815 -0.4515
5603000000.0 -0.8545 0.2949
5606000000.0 -0.2675 0.8267
5609000000.0 0.4566 0.7444
5612000000.0 0.8409 0.1069
5616000000.0 0.6103 -0.5913
5619000000.0 -0.04551 -0.843
5622000000.0 -0.731 -0.4679
5625000000.0 -0.8051 0.2541
5628000000.0 -0.2951 0.778
5631000000.0 0.413 0.7261
5634000000.0 0.8044 0.1197
5638000000.0 0.5976 -0.5566
5641000000.0 -0.06062 -0.8059
5644000000.0 -0.6938 -0.4761
5647000000.0 -0.7851 0.2234
5650000000.0 -0.3125 0.795
5653000000.0 0.3862 0.7233
5656000000.0 0.8505 0.1643
5659000000.0 0.6579 -0.587
5662000000.0 -0.02926 -0.8725
5666000000.0 -0.6827 -0.5258
5669000000.0 -0.8535 0.2351
5672000000.0 -0.3565 0.8224
5675000000.0 0.4301 0.7867
5678000000.0 0.9036 0.1567
5681000000.0 0.6922 -0.6003
5684000000.0 -0.01424 -0.9562
5688000000.0 -0.7544 -0.5793
5691000000.0 -0.9549 0.2387
5694000000.0 -0.4169 0.9017
5697000000.0 0.3986 0.9058
5700000000.0 0.977 0.2537
5703000000.0 0.7941 -0.6088
5706000000.0 0.0427 -0.9978
5709000000.0 -0.7662 -0.6998
5712000000.0 -1.04 0.147
5716000000.0 -0.5276 0.8974
5719000000.0 0.3937 1.011
5722000000.0 1.002 0.3815
5725000000.0 0.9269 -0.5428
5728000000.0 0.1636 -1.057
5731000000.0 -0.7412 -0.8044
5734000000.0 -1.115 0.02808
5738000000.0 -0.653 0.8749
5741000000.0 0.239 1.057
5744000000.0 0.9952 0.5161
5747000000.0 1.005 -0.412
5750000000.0 0.3646 -1.078
5753000000.0 -0.6155 -0.8998
5756000000.0 -1.118 -0.1146
5759000000.0 -0.8411 0.7374
5762000000.0 0.08086 1.082
5766000000.0 0.8809 0.641
5769000000.0 1.098 -0.2751
5772000000.0 0.4746 -0.9895
5775000000.0 -0.465 -0.9943
5778000000.0 -1.073 -0.277
5781000000.0 -0.8567 0.6143
5784000000.0 -0.1177 1.098
5788000000.0 0.7742 0.7617
5791000000.0 1.054 -0.0914
5794000000.0 0.5925 -0.912
5797000000.0 -0.2399 -1.031
5800000000.0 -0.9795 -0.4364
5803000000.0 -0.9574 0.4458
5806000000.0 -0.2167 1.028
5809000000.0 0.6463 0.8206
5812000000.0 1.036 0.004326
5816000000.0 0.7003 -0.7736
5819000000.0 -0.1923 -0.9902
5822000000.0 -0.8732 -0.5014
5825000000.0 -0.9031 0.351
5828000000.0 -0.2641 0.9706
5831000000.0 0.5166 0.826
5834000000.0 0.9679 0.1209
5838000000.0 0.6693 -0.6653
5841000000.0 -0.1069 -0.9595
5844000000.0 -0.7961 -0.503
5847000000.0 -0.8935 0.2766
5850000000.0 -0.3474 0.8602
5853000000.0 0.4801 0.807
5856000000.0 0.8999 0.1437
5859000000.0 0.6448 -0.6218
5862000000.0 -0.0542 -0.922
5866000000.0 -0.7354 -0.5062
5869000000.0 -0.8445 0.2623
5872000000.0 -0.2825 0.8164
5875000000.0 0.4381 0.8005
5878000000.0 0.8777 0.1636
5881000000.0 0.6414 -0.5582
5884000000.0 -0.04682 -0.8661
5888000000.0 -0.7064 -0.5391
5891000000.0 -0.8204 0.2278
5894000000.0 -0.3623 0.7968
5897000000.0 0.3547 0.7834
5900000000.0 0.8401 0.184
5903000000.0 0.6621 -0.5521
5906000000.0 0.02118 -0.8673
5909000000.0 -0.6712 -0.5599
5912000000.0 -0.903 0.1732
5916000000.0 -0.4296 0.7409
5919000000.0 0.3165 0.8493
5922000000.0 0.8394 0.2393
5925000000.0 0.7251 -0.4968
5928000000.0 0.09505 -0.9353
5931000000.0 -0.6093 -0.6356
5934000000.0 -0.89 0.06283
5938000000.0 -0.5161 0.7305
5941000000.0 0.245 0.8921
5944000000.0 0.777 0.3631
5947000000.0 0.8271 -0.4056
5950000000.0 0.2283 -0.8533
5953000000.0 -0.525 -0.7579
5956000000.0 -0.9338 -0.08306
5959000000.0 -0.6741 0.6637
5962000000.0 0.07089 0.9142
5966000000.0 0.7905 0.5268
5969000000.0 0.9043 -0.2618
5972000000.0 0.3611 -0.8896
5975000000.0 -0.4418 -0.875
5978000000.0 -0.9563 -0.25
5981000000.0 -0.8103 0.5962
5984000000.0 -0.02758 1.007
5988000000.0 0.7102 0.6852
5991000000.0 0.9673 -0.1461
5994000000.0 0.5016 -0.8572
5997000000.0 -0.3462 -0.9705
6000000000.0 -0.947 -0.3907
6003000000.0 -0.883 0.5003
6006000000.0 -0.1846 0.9837
6009000000.0 0.6376 0.7304
6012000000.0 0.9779 -0.04233
6016000000.0 0.5967 -0.7873
6019000000.0 -0.2403 -0.96
6022000000.0 -0.8717 -0.4337
6025000000.0 -0.8871 0.3972
6028000000.0 -0.2632 0.9231
6031000000.0 0.5712 0.794
6034000000.0 0.9474 0.04628
6038000000.0 0.6369 -0.7153
6041000000.0 -0.1419 -0.9253
6044000000.0 -0.8127 -0.4571
6047000000.0 -0.8818 0.2999
6050000000.0 -0.2726 0.8881
6053000000.0 0.4867 0.7753
6056000000.0 0.9374 0.1003
6059000000.0 0.6405 -0.6709
6062000000.0 -0.09716 -0.8912
6066000000.0 -0.7477 -0.4679
6069000000.0 -0.857 0.2812
6072000000.0 -0.3265 0.8276
6075000000.0 0.4432 0.7427
6078000000.0 0.852 0.1269
6081000000.0 0.6523 -0.5557
6084000000.0 -0.0493 -0.8605
6088000000.0 -0.7014 -0.4698
6091000000.0 -0.8273 0.2002
6094000000.0 -0.3459 0.7964
6097000000.0 0.3908 0.7404
6100000000.0 0.8576 0.1425
6103000000.0 0.6464 -0.5629
6106000000.0 -0.007426 -0.8789
6109000000.0 -0.684 -0.5257
6112000000.0 -0.808 0.2076
6116000000.0 -0.385 0.756
6119000000.0 0.3588 0.7969
6122000000.0 0.8622 0.199
6125000000.0 0.7104 -0.5131
6128000000.0 0.04187 -0.8927
6131000000.0 -0.6836 -0.5814
6134000000.0 -0.855 0.1515
6138000000.0 -0.4581 0.7718
6141000000.0 0.3642 0.828
6144000000.0 0.8962 0.261
6147000000.0 0.7024 -0.4822
6150000000.0 0.1235 -0.8866
6153000000.0 -0.6247 -0.6269
6156000000.0 -0.9151 0.126
6159000000.0 -0.4877 0.7759
6162000000.0 0.2979 0.9292
6166000000.0 0.8591 0.3796
6169000000.0 0.8442 -0.4632
6172000000.0 0.1737 -0.9269
6175000000.0 -0.6353 -0.7271
6178000000.0 -0.9621 0.0319
6181000000.0 -0.57 0.7928
6184000000.0 0.2035 0.9071
6188000000.0 0.8387 0.4327
6191000000.0 0.8939 -0.4221
6194000000.0 0.2307 -0.9362
6197000000.0 -0.5595 -0.7893
6200000000.0 -0.9367 -0.03498
6203000000.0 -0.6684 0.694
6206000000.0 0.08452 0.9237
6209000000.0 0.7765 0.498
6212000000.0 0.8586 -0.2993
6216000000.0 0.3581 -0.8208
6219000000.0 -0.4352 -0.8334
6222000000.0 -0.8915 -0.1779
6225000000.0 -0.7273 0.6134
6228000000.0 0.04135 0.9138
6231000000.0 0.7079 0.5612
6234000000.0 0.8534 -0.1634
6238000000.0 0.4244 -0.771
6241000000.0 -0.3015 -0.8103
6244000000.0 -0.8172 -0.2426
6247000000.0 -0.7049 0.4633
6250000000.0 -0.1237 0.853
6253000000.0 0.5691 0.6243
6256000000.0 0.8331 -0.0322
6259000000.0 0.5015 -0.6389
6262000000.0 -0.1741 -0.7841
6266000000.0 -0.6959 -0.3564
