! Created with skrf 1.8.0 (http://scikit-rf.org).
# Hz S RI R 50.0 
!freq ReS11 ImS11
4000000000.0 0.289 -1.499
4003000000.0 -0.9583 -1.15
4006000000.0 -1.478 -0.0387
4009000000.0 -0.9352 1.178
4012000000.0 0.2842 1.504
4016000000.0 1.374 0.709
4019000000.0 1.401 -0.6458
4022000000.0 0.379 -1.455
4025000000.0 -0.9359 -1.263
4028000000.0 -1.501 -0.01616
4031000000.0 -1.019 1.219
4034000000.0 0.2554 1.555
4038000000.0 1.415 0.7016
4041000000.0 1.392 -0.6311
4044000000.0 0.3692 -1.565
4047000000.0 -0.9283 -1.243
4050000000.0 -1.587 -0.05657
4053000000.0 -1.038 1.197
4056000000.0 0.2682 1.525
4059000000.0 1.375 0.7796
4062000000.0 1.522 -0.5115
4066000000.0 0.5059 -1.485
4069000000.0 -0.8246 -1.335
4072000000.0 -1.558 -0.211
4075000000.0 -1.195 1.105
4078000000.0 0.06316 1.652
4081000000.0 1.32 0.9737
4084000000.0 1.6 -0.4175
4088000000.0 0.6688 -1.508
4091000000.0 -0.7113 -1.497
4094000000.0 -1.594 -0.4073
4097000000.0 -1.296 0.9829
4100000000.0 -0.09716 1.631
4103000000.0 1.194 1.094
4106000000.0 1.58 -0.2026
4109000000.0 0.8437 -1.348
4112000000.0 -0.4935 -1.47
4116000000.0 -1.431 -0.6069
4119000000.0 -1.361 0.7087
4122000000.0 -0.3875 1.429
4125000000.0 0.8581 1.18
4128000000.0 1.469 0.1313
4131000000.0 1.089 -0.9974
4134000000.0 -0.06924 -1.525
4138000000.0 -1.184 -0.9393
4141000000.0 -1.47 0.3181
4144000000.0 -0.7576 1.336
4147000000.0 0.5317 1.454
4150000000.0 1.424 0.526
4153000000.0 1.321 -0.738
4156000000.0 0.2737 -1.503
4159000000.0 -0.9669 -1.19
4162000000.0 -1.549 -0.02973
4166000000.0 -0.9912 1.118
4169000000.0 0.2124 1.492
4172000000.0 1.259 0.8416
4175000000.0 1.432 -0.4364
4178000000.0 0.5752 -1.349
4181000000.0 -0.618 -1.369
4184000000.0 -1.456 -0.4179
4188000000.0 -1.226 0.8752
4191000000.0 -0.132 1.509
4194000000.0 1.055 1.128
4197000000.0 1.562 -0.1187
4200000000.0 0.9193 -1.286
4203000000.0 -0.4137 -1.563
4206000000.0 -1.451 -0.6621
4209000000.0 -1.467 0.7096
4212000000.0 -0.3831 1.576
4216000000.0 1.053 1.299
4219000000.0 1.66 -0.005716
4222000000.0 1.026 -1.328
4225000000.0 -0.372 -1.667
4228000000.0 -1.524 -0.7074
4231000000.0 -1.495 0.7717
4234000000.0 -0.3368 1.669
4238000000.0 1.121 1.265
4241000000.0 1.672 -0.1477
4244000000.0 0.9237 -1.404
4247000000.0 -0.5028 -1.556
4250000000.0 -1.564 -0.5609
4253000000.0 -1.371 0.8598
4256000000.0 -0.1409 1.646
4259000000.0 1.206 1.091
4262000000.0 1.57 -0.2867
4266000000.0 0.7574 -1.434
4269000000.0 -0.6509 -1.474
4272000000.0 -1.566 -0.3887
4275000000.0 -1.222 1.013
4278000000.0 0.04164 1.537
4281000000.0 1.187 0.8913
4284000000.0 1.465 -0.3949
4288000000.0 0.5564 -1.372
4291000000.0 -0.7145 -1.195
4294000000.0 -1.386 -0.248
4297000000.0 -1.033 0.9315
4300000000.0 0.07166 1.329
4303000000.0 1.073 0.7997
4306000000.0 1.269 -0.3245
4309000000.0 0.5802 -1.155
4312000000.0 -0.5093 -1.191
4316000000.0 -1.269 -0.3666
4319000000.0 -1.065 0.7563
4322000000.0 -0.1295 1.279
4325000000.0 0.9308 0.9111
4328000000.0 1.297 -0.1242
4331000000.0 0.751 -1.083
4334000000.0 -0.3329 -1.289
4338000000.0 -1.211 -0.6138
4341000000.0 -1.225 0.575
4344000000.0 -0.3815 1.366
4347000000.0 0.7976 1.124
4350000000.0 1.4 0.1053
4353000000.0 0.9816 -1.004
4356000000.0 -0.1415 -1.366
4359000000.0 -1.148 -0.7913
4362000000.0 -1.355 0.3625
4366000000.0 -0.5481 1.287
4369000000.0 0.5701 1.235
4372000000.0 1.358 0.3453
4375000000.0 1.173 -0.8517
4378000000.0 0.1185 -1.413
4381000000.0 -1.004 -1.056
4384000000.0 -1.455 0.1209
4388000000.0 -0.8352 1.227
4391000000.0 0.4045 1.456
4394000000.0 1.379 0.5946
4397000000.0 1.367 -0.6874
4400000000.0 0.3478 -1.52
4403000000.0 -1.0 -1.245
4406000000.0 -1.57 -0.04851
4409000000.0 -1.018 1.196
4412000000.0 0.4175 1.521
4416000000.0 1.42 0.612
4419000000.0 1.453 -0.6318
4422000000.0 0.4429 -1.494
4425000000.0 -0.9127 -1.249
4428000000.0 -1.541 -0.06034
4431000000.0 -1.018 1.161
4434000000.0 0.2606 1.512
4438000000.0 1.319 0.742
4441000000.0 1.38 -0.5824
4444000000.0 0.4037 -1.458
4447000000.0 -0.9052 -1.193
4450000000.0 -1.475 0.06455
4453000000.0 -0.9308 1.105
4456000000.0 0.3189 1.377
4459000000.0 1.291 0.6268
4462000000.0 1.261 -0.6524
4466000000.0 0.2765 -1.379
4469000000.0 -0.905 -1.017
4472000000.0 -1.303 0.08955
4475000000.0 -0.7508 1.093
4478000000.0 0.4081 1.239
4481000000.0 1.182 0.3841
4484000000.0 1.044 -0.6511
4488000000.0 0.1001 -1.207
4491000000.0 -0.8482 -0.8194
4494000000.0 -1.155 0.1788
4497000000.0 -0.5636 0.9966
4500000000.0 0.4308 1.067
4503000000.0 1.04 0.2586
4506000000.0 0.8556 -0.6081
4509000000.0 0.06754 -1.052
4512000000.0 -0.8189 -0.6895
4516000000.0 -1.072 0.1983
4519000000.0 -0.529 0.9347
4522000000.0 0.3968 0.9826
4525000000.0 1.033 0.2777
4528000000.0 0.8633 -0.6189
4531000000.0 0.07242 -1.1
4534000000.0 -0.8261 -0.7285
4538000000.0 -1.041 0.1841
4541000000.0 -0.543 0.9431
4544000000.0 0.3951 1.043
4547000000.0 1.03 0.3493
4550000000.0 0.9578 -0.5709
4553000000.0 0.1367 -1.101
4556000000.0 -0.7592 -0.8035
4559000000.0 -1.133 0.04914
4562000000.0 -0.6869 0.9082
4566000000.0 0.2556 1.111
4569000000.0 1.045 0.5393
4572000000.0 1.053 -0.4602
4575000000.0 0.3433 -1.139
4578000000.0 -0.6747 -0.9914
4581000000.0 -1.218 -0.1341
4584000000.0 -0.882 0.8709
4588000000.0 0.1115 1.258
4591000000.0 1.06 0.7418
4594000000.0 1.253 -0.3307
4597000000.0 0.5375 -1.201
4600000000.0 -0.5889 -1.158
4603000000.0 -1.298 -0.3089
4606000000.0 -1.101 0.801
4609000000.0 -0.07689 1.333
4612000000.0 0.9731 0.8782
4616000000.0 1.344 -0.1622
4619000000.0 0.6978 -1.163
4622000000.0 -0.4607 -1.323
4625000000.0 -1.289 -0.4876
4628000000.0 -1.169 0.6653
4631000000.0 -0.1944 1.331
4634000000.0 0.9154 1.016
4638000000.0 1.383 -0.03452
4641000000.0 0.8141 -1.125
4644000000.0 -0.3149 -1.314
4647000000.0 -1.25 -0.5762
4650000000.0 -1.234 0.6157
4653000000.0 -0.2829 1.321
4656000000.0 0.8422 1.025
4659000000.0 1.366 -0.02572
4662000000.0 0.8159 -1.047
4666000000.0 -0.2904 -1.267
4669000000.0 -1.154 -0.5593
4672000000.0 -1.134 0.5604
4675000000.0 -0.2631 1.256
4678000000.0 0.7742 0.9239
4681000000.0 1.198 -0.01836
4684000000.0 0.7113 -0.9539
4688000000.0 -0.2271 -1.153
4691000000.0 -1.077 -0.4708
4694000000.0 -1.028 0.5195
4697000000.0 -0.2081 1.178
4700000000.0 0.7766 0.8806
4703000000.0 1.113 -0.06424
4706000000.0 0.6657 -0.9065
4709000000.0 -0.3345 -1.044
4712000000.0 -1.024 -0.397
4716000000.0 -0.9176 0.5613
4719000000.0 -0.139 1.041
4722000000.0 0.7247 0.786
4725000000.0 1.005 -0.1738
4728000000.0 0.5436 -0.8532
4731000000.0 -0.3461 -0.9746
4734000000.0 -0.9365 -0.3434
4738000000.0 -0.8439 0.5284
4741000000.0 -0.1163 0.9952
4744000000.0 0.6893 0.7064
4747000000.0 1.001 -0.08332
4750000000.0 0.5795 -0.8146
4753000000.0 -0.2798 -0.96
4756000000.0 -0.9286 -0.397
4759000000.0 -0.894 0.51
4762000000.0 -0.2192 1.045
4766000000.0 0.6638 0.8066
4769000000.0 1.066 0.0007926
4772000000.0 0.6679 -0.8157
4775000000.0 -0.1887 -1.064
4778000000.0 -0.9509 -0.5342
4781000000.0 -1.001 0.4638
4784000000.0 -0.3434 1.07
4788000000.0 0.6097 0.9105
4791000000.0 1.097 0.1605
4794000000.0 0.8452 -0.7512
4797000000.0 -0.05078 -1.118
4800000000.0 -0.9244 -0.7428
4803000000.0 -1.123 0.2332
4806000000.0 -0.5715 1.019
4809000000.0 0.4118 1.096
4812000000.0 1.129 0.4158
4816000000.0 1.036 -0.6108
4819000000.0 0.2177 -1.235
4822000000.0 -0.8069 -0.9387
4825000000.0 -1.255 0.0307
4828000000.0 -0.8376 1.025
4831000000.0 0.2905 1.287
4834000000.0 1.186 0.6102
4838000000.0 1.234 -0.5275
4841000000.0 0.3847 -1.284
4844000000.0 -0.7469 -1.112
4847000000.0 -1.339 -0.1145
4850000000.0 -0.9431 0.9758
4853000000.0 0.1425 1.349
4856000000.0 1.173 0.7416
4859000000.0 1.293 -0.401
4862000000.0 0.5099 -1.312
4866000000.0 -0.6769 -1.195
4869000000.0 -1.354 -0.2287
4872000000.0 -1.013 0.8744
4875000000.0 0.05282 1.35
4878000000.0 1.067 0.785
4881000000.0 1.295 -0.317
4884000000.0 0.5218 -1.221
4888000000.0 -0.5657 -1.182
4891000000.0 -1.237 -0.2783
4894000000.0 -0.959 0.8094
4897000000.0 -0.006012 1.272
4900000000.0 0.9691 0.7744
4903000000.0 1.193 -0.2462
4906000000.0 0.5152 -1.029
4909000000.0 -0.4566 -1.013
4912000000.0 -1.078 -0.2986
4916000000.0 -0.8904 0.6664
4919000000.0 -0.07735 1.065
4922000000.0 0.7944 0.6893
4925000000.0 1.017 -0.1618
4928000000.0 0.5161 -0.8746
4931000000.0 -0.3261 -0.9304
4934000000.0 -0.9043 -0.3078
4938000000.0 -0.818 0.4989
4941000000.0 -0.1527 0.9659
4944000000.0 0.6621 0.665
4947000000.0 0.9389 -0.1025
4950000000.0 0.5494 -0.7536
4953000000.0 -0.2511 -0.8981
4956000000.0 -0.8693 -0.3695
4959000000.0 -0.8383 0.4407
4962000000.0 -0.1757 0.9443
4966000000.0 0.612 0.7325
4969000000.0 0.9435 -0.01336
4972000000.0 0.5639 -0.7646
4975000000.0 -0.2172 -0.9409
4978000000.0 -0.8591 -0.4368
4981000000.0 -0.8924 0.3915
4984000000.0 -0.2465 0.9375
4988000000.0 0.5867 0.8107
4991000000.0 0.9857 0.08029
4994000000.0 0.6995 -0.7218
4997000000.0 -0.1124 -1.017
5000000000.0 -0.8647 -0.5709
5003000000.0 -1.009 0.31
5006000000.0 -0.4047 1.014
5009000000.0 0.5111 0.9938
5012000000.0 1.093 0.2384
5016000000.0 0.8991 -0.7605
5019000000.0 -0.01303 -1.186
5022000000.0 -0.9111 -0.7413
5025000000.0 -1.207 0.2267
5028000000.0 -0.5586 1.04
5031000000.0 0.4964 1.098
5034000000.0 1.16 0.3421
5038000000.0 1.018 -0.6927
5041000000.0 0.136 -1.226
5044000000.0 -0.884 -0.9207
5047000000.0 -1.258 0.09175
5050000000.0 -0.7517 1.066
5053000000.0 0.3036 1.216
5056000000.0 1.139 0.5717
5059000000.0 1.18 -0.5044
5062000000.0 0.3508 -1.212
5066000000.0 -0.7706 -1.078
5069000000.0 -1.299 -0.1206
5072000000.0 -0.9269 0.9373
5075000000.0 0.1572 1.311
5078000000.0 1.095 0.735
5081000000.0 1.198 -0.4186
5084000000.0 0.483 -1.169
5088000000.0 -0.5799 -1.087
5091000000.0 -1.208 -0.2819
5094000000.0 -0.9793 0.7563
5097000000.0 -0.08579 1.237
5100000000.0 0.8808 0.788
5103000000.0 1.179 -0.1585
5106000000.0 0.6122 -1.002
5109000000.0 -0.3622 -1.073
5112000000.0 -0.9971 -0.4327
5116000000.0 -0.9835 0.5322
5119000000.0 -0.2411 1.074
5122000000.0 0.6596 0.8991
5125000000.0 1.075 0.04386
5128000000.0 0.7259 -0.7652
5131000000.0 -0.153 -1.041
5134000000.0 -0.9391 -0.5881
5138000000.0 -0.9571 0.2729
5141000000.0 -0.3386 0.9216
5144000000.0 0.494 0.8814
5147000000.0 0.9701 0.1501
5150000000.0 0.7451 -0.6216
5153000000.0 -0.01179 -0.989
5156000000.0 -0.7409 -0.5837
5159000000.0 -0.9149 0.1874
5162000000.0 -0.4232 0.795
5166000000.0 0.3461 0.8058
5169000000.0 0.8806 0.2812
5172000000.0 0.7493 -0.5092
5175000000.0 0.0505 -0.8769
5178000000.0 -0.6398 -0.6636
5181000000.0 -0.9087 0.1147
5184000000.0 -0.4524 0.7641
5188000000.0 0.3069 0.8778
5191000000.0 0.918 0.2852
5194000000.0 0.7943 -0.4948
5197000000.0 0.09811 -0.9277
5200000000.0 -0.6464 -0.6587
5203000000.0 -0.9252 0.1088
5206000000.0 -0.5051 0.7983
5209000000.0 0.2943 0.8761
5212000000.0 0.8865 0.3011
5216000000.0 0.8035 -0.5043
5219000000.0 0.1012 -0.9281
5222000000.0 -0.6601 -0.6823
5225000000.0 -0.9645 0.1008
5228000000.0 -0.5368 0.8164
5231000000.0 0.3251 0.9341
5234000000.0 0.9109 0.386
5238000000.0 0.875 -0.4723
5241000000.0 0.2088 -0.9812
5244000000.0 -0.6639 -0.7835
5247000000.0 -1.022 0.03335
5250000000.0 -0.6224 0.8074
5253000000.0 0.2341 1.014
5256000000.0 0.9381 0.4612
5259000000.0 0.9781 -0.4094
5262000000.0 0.2989 -1.009
5266000000.0 -0.6039 -0.891
5269000000.0 -1.062 -0.1223
5272000000.0 -0.7702 0.7387
5275000000.0 0.06238 1.05
5278000000.0 0.8702 0.6487
5281000000.0 1.031 -0.2664
5284000000.0 0.4886 -0.9435
5288000000.0 -0.4293 -0.9995
5291000000.0 -1.048 -0.3095
5294000000.0 -0.9097 0.5804
5297000000.0 -0.1518 1.075
5300000000.0 0.763 0.8389
5303000000.0 1.1 -0.02589
5306000000.0 0.7176 -0.8731
5309000000.0 -0.192 -1.103
5312000000.0 -0.9641 -0.5644
5316000000.0 -1.042 0.3767
5319000000.0 -0.4037 1.063
5322000000.0 0.5463 1.006
5325000000.0 1.111 0.2318
5328000000.0 0.8975 -0.7642
5331000000.0 0.03467 -1.168
5334000000.0 -0.8991 -0.7332
5338000000.0 -1.121 0.1748
5341000000.0 -0.5517 0.9931
5344000000.0 0.3974 1.075
5347000000.0 1.067 0.3696
5350000000.0 0.9727 -0.5561
5353000000.0 0.185 -1.133
5356000000.0 -0.7312 -0.8499
5359000000.0 -1.095 0.03339
5362000000.0 -0.6928 0.8961
5366000000.0 0.2218 1.081
5369000000.0 0.992 0.505
5372000000.0 0.992 -0.4378
5375000000.0 0.2901 -1.045
5378000000.0 -0.6269 -0.8583
5381000000.0 -1.066 -0.04947
5384000000.0 -0.6585 0.8213
5388000000.0 0.2088 0.9902
5391000000.0 0.9061 0.4745
5394000000.0 0.9096 -0.3855
5397000000.0 0.2414 -0.9524
5400000000.0 -0.559 -0.8086
5403000000.0 -0.947 -0.04896
5406000000.0 -0.6052 0.7176
5409000000.0 0.1726 0.8982
5412000000.0 0.7946 0.4443
5416000000.0 0.8261 -0.3744
5419000000.0 0.2322 -0.8669
5422000000.0 -0.553 -0.7317
5425000000.0 -0.9092 -0.05245
5428000000.0 -0.593 0.6678
5431000000.0 0.2027 0.8664
5434000000.0 0.7863 0.4305
5438000000.0 0.7843 -0.3737
5441000000.0 0.2004 -0.8642
5444000000.0 -0.5366 -0.691
5447000000.0 -0.8733 -0.02094
5450000000.0 -0.5392 0.6684
5453000000.0 0.1622 0.8342
5456000000.0 0.8092 0.3838
5459000000.0 0.7907 -0.3599
5462000000.0 0.1982 -0.8401
5466000000.0 -0.5065 -0.6951
5469000000.0 -0.8888 -0.06598
5472000000.0 -0.5792 0.6194
5475000000.0 0.1426 0.8731
5478000000.0 0.7544 0.4889
5481000000.0 0.8417 -0.2669
5484000000.0 0.3224 -0.8469
5488000000.0 -0.4621 -0.787
5491000000.0 -0.9382 -0.1625
5494000000.0 -0.6818 0.6257
5497000000.0 -0.01414 0.9689
5500000000.0 0.7645 0.6091
5503000000.0 0.9882 -0.1767
5506000000.0 0.4882 -0.8196
5509000000.0 -0.3418 -0.8769
5512000000.0 -0.9044 -0.3269
5516000000.0 -0.8477 0.4775
5519000000.0 -0.1555 0.9685
5522000000.0 0.6436 0.7751
5525000000.0 1.027 -0.01079
5528000000.0 0.6658 -0.7591
5531000000.0 -0.1395 -1.002
5534000000.0 -0.8724 -0.5503
5538000000.0 -0.9862 0.3388
5541000000.0 -0.387 0.9458
5544000000.0 0.4913 0.8947
5547000000.0 1.017 0.2222
5550000000.0 0.8113 -0.6677
5553000000.0 0.02724 -1.055
5556000000.0 -0.7972 -0.6848
5559000000.0 -1.015 0.151
5562000000.0 -0.5403 0.9187
5566000000.0 0.388 0.9945
5569000000.0 0.9897 0.3727
5572000000.0 0.8776 -0.5159
5575000000.0 0.2106 -0.9911
5578000000.0 -0.659 -0.7794
5581000000.0 -1.022 0.01024
5584000000.0 -0.656 0.7614
5588000000.0 0.1862 0.9638
5591000000.0 0.8931 0.4768
5594000000.0 0.9313 -0.3474
5597000000.0 0.2969 -0.923
5600000000.0 -0.5034 -0.8275
5603000000.0 -0.9579 -0.1119
5606000000.0 -0.6947 0.6439
5609000000.0 0.06732 0.9648
5612000000.0 0.7278 0.5338
5616000000.0 0.856 -0.2341
5619000000.0 0.3659 -0.8211
5622000000.0 -0.4134 -0.7923
5625000000.0 -0.8696 -0.2238
5628000000.0 -0.7055 0.5484
5631000000.0 -0.005007 0.8953
5634000000.0 0.6891 0.5537
5638000000.0 0.8524 -0.1598
5641000000.0 0.3831 -0.7612
5644000000.0 -0.3741 -0.7755
5647000000.0 -0.8134 -0.2065
5650000000.0 -0.6628 0.5078
5653000000.0 -0.01276 0.8665
5656000000.0 0.6484 0.5494
5659000000.0 0.8445 -0.1617
5662000000.0 0.3681 -0.793
5666000000.0 -0.3659 -0.7634
5669000000.0 -0.8272 -0.2209
5672000000.0 -0.6999 0.538
5675000000.0 -0.008533 0.8654
5678000000.0 0.7027 0.5573
5681000000.0 0.8755 -0.1783
5684000000.0 0.4029 -0.7983
5688000000.0 -0.3906 -0.8271
5691000000.0 -0.8927 -0.2452
5694000000.0 -0.7393 0.581
5697000000.0 -0.02224 0.9365
5700000000.0 0.7014 0.6288
5703000000.0 0.9643 -0.1688
5706000000.0 0.4655 -0.8417
5709000000.0 -0.3691 -0.9447
5712000000.0 -0.929 -0.2848
5716000000.0 -0.8187 0.5408
5719000000.0 -0.08241 0.9989
5722000000.0 0.7283 0.6912
5725000000.0 1.05 -0.1135
5728000000.0 0.5323 -0.8772
5731000000.0 -0.3352 -1.007
5734000000.0 -0.9452 -0.3925
5738000000.0 -0.9433 0.458
5741000000.0 -0.2332 1.064
5744000000.0 0.6421 0.812
5747000000.0 1.061 0.02009
5750000000.0 0.7054 -0.8192
5753000000.0 -0.1671 -1.069
5756000000.0 -0.9373 -0.5573
5759000000.0 -1.053 0.3682
5762000000.0 -0.3278 1.0
5766000000.0 0.5154 0.9588
5769000000.0 1.102 0.1909
5772000000.0 0.8475 -0.7011
5775000000.0 -0.02148 -1.099
5778000000.0 -0.8247 -0.6791
5781000000.0 -1.091 0.1905
5784000000.0 -0.5246 0.9653
5788000000.0 0.3596 1.034
5791000000.0 1.004 0.3628
5794000000.0 0.9389 -0.5515
5797000000.0 0.1908 -1.072
5800000000.0 -0.7022 -0.8075
5803000000.0 -1.062 0.03605
5806000000.0 -0.6651 0.8121
5809000000.0 0.2298 1.046
5812000000.0 0.9223 0.5039
5816000000.0 0.9446 -0.4105
5819000000.0 0.3148 -0.9906
5822000000.0 -0.5703 -0.872
5825000000.0 -1.035 -0.1216
5828000000.0 -0.7247 0.7113
5831000000.0 0.08905 1.017
5834000000.0 0.8136 0.5791
5838000000.0 0.98 -0.3031
5841000000.0 0.3781 -0.9233
5844000000.0 -0.4705 -0.8985
5847000000.0 -0.9737 -0.1995
5850000000.0 -0.7652 0.6257
5853000000.0 0.005374 0.9478
5856000000.0 0.7636 0.6214
5859000000.0 0.923 -0.2187
5862000000.0 0.4159 -0.8807
5866000000.0 -0.3883 -0.8571
5869000000.0 -0.8944 -0.2124
5872000000.0 -0.7358 0.5353
5875000000.0 0.0003771 0.9046
5878000000.0 0.7092 0.5553
5881000000.0 0.8877 -0.1746
5884000000.0 0.4214 -0.7682
5888000000.0 -0.3637 -0.8181
5891000000.0 -0.8461 -0.2317
5894000000.0 -0.7232 0.488
5897000000.0 -0.05943 0.8516
5900000000.0 0.6343 0.5894
5903000000.0 0.8316 -0.07604
5906000000.0 0.4423 -0.7514
5909000000.0 -0.3332 -0.8017
5912000000.0 -0.7921 -0.2923
5916000000.0 -0.7337 0.4451
5919000000.0 -0.09203 0.8584
5922000000.0 0.6118 0.6241
5925000000.0 0.8295 -0.096
5928000000.0 0.4828 -0.6877
5931000000.0 -0.2199 -0.8123
5934000000.0 -0.7779 -0.3369
5938000000.0 -0.7644 0.3408
5941000000.0 -0.206 0.8052
5944000000.0 0.5504 0.6933
5947000000.0 0.8687 0.01283
5950000000.0 0.5778 -0.6798
5953000000.0 -0.128 -0.8543
5956000000.0 -0.7358 -0.4501
5959000000.0 -0.8178 0.296
5962000000.0 -0.3293 0.8603
5966000000.0 0.4375 0.7873
5969000000.0 0.8529 0.2095
5972000000.0 0.7417 -0.5616
5975000000.0 0.02124 -0.9224
5978000000.0 -0.683 -0.632
5981000000.0 -0.9446 0.1655
5984000000.0 -0.4784 0.81
5988000000.0 0.3091 0.8807
5991000000.0 0.8981 0.3449
5994000000.0 0.8271 -0.466
5997000000.0 0.1744 -0.9783
6000000000.0 -0.6305 -0.7824
6003000000.0 -0.9845 0.02695
6006000000.0 -0.6315 0.7607
6009000000.0 0.1864 0.9708
6012000000.0 0.8747 0.4523
6016000000.0 0.8973 -0.3492
6019000000.0 0.3125 -0.9261
6022000000.0 -0.5017 -0.8025
6025000000.0 -0.974 -0.11
6028000000.0 -0.6729 0.6775
6031000000.0 0.08811 0.9786
6034000000.0 0.7958 0.5695
6038000000.0 0.9727 -0.2541
6041000000.0 0.4042 -0.9015
6044000000.0 -0.4543 -0.8789
6047000000.0 -0.9677 -0.2092
6050000000.0 -0.7651 0.6096
6053000000.0 -0.02078 0.956
6056000000.0 0.7462 0.6325
6059000000.0 0.9493 -0.1812
6062000000.0 0.4301 -0.861
6066000000.0 -0.3527 -0.8755
6069000000.0 -0.9166 -0.2509
6072000000.0 -0.7515 0.5135
6075000000.0 -0.05746 0.9186
6078000000.0 0.6565 0.6178
6081000000.0 0.8911 -0.1424
6084000000.0 0.4515 -0.7829
6088000000.0 -0.3169 -0.8377
6091000000.0 -0.829 -0.2703
6094000000.0 -0.734 0.4642
6097000000.0 -0.1075 0.8656
6100000000.0 0.6305 0.613
6103000000.0 0.8715 -0.05922
6106000000.0 0.4704 -0.7054
6109000000.0 -0.205 -0.8149
6112000000.0 -0.8051 -0.2774
6116000000.0 -0.7255 0.4536
6119000000.0 -0.1079 0.8494
6122000000.0 0.5789 0.6398
6125000000.0 0.8659 -0.04679
6128000000.0 0.484 -0.7069
6131000000.0 -0.2388 -0.8382
6134000000.0 -0.7561 -0.3398
6138000000.0 -0.7663 0.3902
6141000000.0 -0.1841 0.8284
6144000000.0 0.5204 0.6727
6147000000.0 0.8257 -0.01184
6150000000.0 0.5523 -0.682
6153000000.0 -0.2077 -0.8614
6156000000.0 -0.7912 -0.4234
6159000000.0 -0.8266 0.2947
6162000000.0 -0.2521 0.8552
6166000000.0 0.5018 0.7079
6169000000.0 0.8572 0.05836
6172000000.0 0.5675 -0.6577
6175000000.0 -0.07538 -0.892
6178000000.0 -0.7693 -0.4563
6181000000.0 -0.8649 0.2916
6184000000.0 -0.3349 0.844
6188000000.0 0.454 0.7724
6191000000.0 0.9005 0.1412
6194000000.0 0.6865 -0.5813
6197000000.0 -0.06477 -0.8963
6200000000.0 -0.7341 -0.5153
6203000000.0 -0.8991 0.2431
6206000000.0 -0.3776 0.8545
6209000000.0 0.3818 0.8205
6212000000.0 0.885 0.2336
6216000000.0 0.7103 -0.5719
6219000000.0 0.04568 -0.9229
6222000000.0 -0.6702 -0.6315
6225000000.0 -0.895 0.1187
6228000000.0 -0.5053 0.7543
6231000000.0 0.2866 0.853
6234000000.0 0.8474 0.3036
6238000000.0 0.7761 -0.4408
6241000000.0 0.1531 -0.8713
6244000000.0 -0.5846 -0.6713
6247000000.0 -0.8417 0.01176
6250000000.0 -0.5156 0.6457
6253000000.0 0.1624 0.8336
6256000000.0 0.7361 0.4184
6259000000.0 0.7736 -0.2683
6262000000.0 0.2855 -0.7629
