! Created with skrf 1.8.0 (http://scikit-rf.org).
# Hz S RI R 50.0 
!freq ReS11 ImS11
4000000000.0 -0.1786 -1.509
4003000000.0 -1.287 -0.7978
4006000000.0 -1.419 0.4893
4009000000.0 -0.5369 1.393
4012000000.0 0.7742 1.257
4016000000.0 1.541 0.2582
4019000000.0 1.126 -1.087
4022000000.0 -0.1423 -1.58
4025000000.0 -1.324 -0.8814
4028000000.0 -1.499 0.4239
4031000000.0 -0.5707 1.524
4034000000.0 0.8422 1.348
4038000000.0 1.584 0.2399
4041000000.0 1.18 -1.104
4044000000.0 -0.1266 -1.553
4047000000.0 -1.305 -0.9182
4050000000.0 -1.49 0.4142
4053000000.0 -0.6401 1.519
4056000000.0 0.7506 1.454
4059000000.0 1.561 0.3263
4062000000.0 1.245 -1.049
4066000000.0 0.002464 -1.589
4069000000.0 -1.238 -1.051
4072000000.0 -1.625 0.2707
4075000000.0 -0.8187 1.419
4078000000.0 0.5155 1.503
4081000000.0 1.57 0.569
4084000000.0 1.412 -0.8113
4088000000.0 0.2195 -1.62
4091000000.0 -1.127 -1.224
4094000000.0 -1.628 0.07918
4097000000.0 -0.957 1.282
4100000000.0 0.3724 1.598
4103000000.0 1.422 0.7363
4106000000.0 1.439 -0.6029
4109000000.0 0.4435 -1.434
4112000000.0 -0.8229 -1.289
4116000000.0 -1.504 -0.188
4119000000.0 -1.138 0.985
4122000000.0 0.03337 1.485
4125000000.0 1.137 0.9603
4128000000.0 1.471 -0.2184
4131000000.0 0.7788 -1.242
4134000000.0 -0.4363 -1.382
4138000000.0 -1.354 -0.6304
4141000000.0 -1.361 0.6613
4144000000.0 -0.3825 1.487
4147000000.0 0.8652 1.246
4150000000.0 1.499 0.103
4153000000.0 1.109 -1.057
4156000000.0 -0.1061 -1.521
4159000000.0 -1.227 -0.8963
4162000000.0 -1.482 0.4135
4166000000.0 -0.6947 1.375
4169000000.0 0.6254 1.383
4172000000.0 1.417 0.419
4175000000.0 1.228 -0.8486
4178000000.0 0.1784 -1.463
4181000000.0 -1.057 -1.092
4184000000.0 -1.508 0.08712
4188000000.0 -0.911 1.219
4191000000.0 0.3689 1.468
4194000000.0 1.403 0.6871
4197000000.0 1.425 -0.6546
4200000000.0 0.4228 -1.503
4203000000.0 -0.961 -1.263
4206000000.0 -1.596 -0.07881
4209000000.0 -1.062 1.253
4212000000.0 0.3364 1.632
4216000000.0 1.498 0.7262
4219000000.0 1.507 -0.7609
4222000000.0 0.3309 -1.648
4225000000.0 -1.124 -1.292
4228000000.0 -1.645 0.1656
4231000000.0 -0.9387 1.414
4234000000.0 0.5648 1.558
4238000000.0 1.591 0.5041
4241000000.0 1.318 -0.9226
4244000000.0 0.07249 -1.621
4247000000.0 -1.221 -1.039
4250000000.0 -1.557 0.3388
4253000000.0 -0.6858 1.414
4256000000.0 0.6742 1.378
4259000000.0 1.497 0.3119
4262000000.0 1.16 -0.999
4266000000.0 -0.07249 -1.498
4269000000.0 -1.212 -0.8459
4272000000.0 -1.433 0.4228
4275000000.0 -0.5062 1.384
4278000000.0 0.7164 1.223
4281000000.0 1.375 0.2133
4284000000.0 1.038 -1.009
4288000000.0 -0.1582 -1.378
4291000000.0 -1.151 -0.7617
4294000000.0 -1.302 0.4278
4297000000.0 -0.4617 1.282
4300000000.0 0.6339 1.179
4303000000.0 1.284 0.2259
4306000000.0 1.01 -0.8481
4309000000.0 0.01049 -1.278
4312000000.0 -0.9677 -0.8277
4316000000.0 -1.286 0.1991
4319000000.0 -0.6951 1.099
4322000000.0 0.4282 1.222
4325000000.0 1.217 0.485
4328000000.0 1.169 -0.6168
4331000000.0 0.2618 -1.303
4334000000.0 -0.8579 -1.055
4338000000.0 -1.373 -0.01776
4341000000.0 -0.8875 1.042
4344000000.0 0.1974 1.378
4347000000.0 1.237 0.7255
4350000000.0 1.327 -0.4841
4353000000.0 0.5083 -1.373
4356000000.0 -0.743 -1.239
4359000000.0 -1.456 -0.2273
4362000000.0 -1.125 0.9499
4366000000.0 -0.00923 1.466
4369000000.0 1.139 0.9156
4372000000.0 1.452 -0.2691
4375000000.0 0.7324 -1.327
4378000000.0 -0.5599 -1.372
4381000000.0 -1.446 -0.4601
4384000000.0 -1.27 0.8179
4388000000.0 -0.1578 1.571
4391000000.0 1.084 1.109
4394000000.0 1.535 -0.1711
4397000000.0 0.8702 -1.318
4400000000.0 -0.5044 -1.542
4403000000.0 -1.46 -0.5309
4406000000.0 -1.333 0.8258
4409000000.0 -0.1548 1.56
4412000000.0 1.106 1.104
4416000000.0 1.538 -0.1638
4419000000.0 0.8007 -1.297
4422000000.0 -0.528 -1.472
4425000000.0 -1.448 -0.4417
4428000000.0 -1.219 0.8196
4431000000.0 -0.07409 1.47
4434000000.0 1.083 0.9589
4438000000.0 1.373 -0.2362
4441000000.0 0.6392 -1.231
4444000000.0 -0.548 -1.24
4447000000.0 -1.324 -0.3146
4450000000.0 -1.059 0.8256
4453000000.0 0.03702 1.329
4456000000.0 1.065 0.777
4459000000.0 1.219 -0.3816
4462000000.0 0.4388 -1.187
4466000000.0 -0.6367 -1.076
4469000000.0 -1.219 -0.201
4472000000.0 -0.8711 0.8681
4475000000.0 0.1611 1.212
4478000000.0 1.013 0.5695
4481000000.0 1.11 -0.4217
4484000000.0 0.3072 -1.115
4488000000.0 -0.6711 -0.9178
4491000000.0 -1.122 -0.09512
4494000000.0 -0.7573 0.8431
4497000000.0 0.1873 1.096
4500000000.0 0.9667 0.5941
4503000000.0 0.9976 -0.4069
4506000000.0 0.3271 -1.066
4509000000.0 -0.6161 -0.9139
4512000000.0 -1.099 -0.112
4516000000.0 -0.7892 0.7796
4519000000.0 0.1354 1.124
4522000000.0 0.9245 0.6017
4525000000.0 1.082 -0.3511
4528000000.0 0.392 -1.08
4531000000.0 -0.5656 -1.021
4534000000.0 -1.128 -0.2173
4538000000.0 -0.8497 0.7668
4541000000.0 0.03553 1.215
4544000000.0 0.9365 0.7088
4547000000.0 1.173 -0.2204
4550000000.0 0.5417 -1.055
4553000000.0 -0.4582 -1.142
4556000000.0 -1.172 -0.3696
4559000000.0 -1.027 0.6617
4562000000.0 -0.1789 1.212
4566000000.0 0.8314 0.9283
4569000000.0 1.265 -0.05156
4572000000.0 0.7815 -1.04
4575000000.0 -0.2777 -1.261
4578000000.0 -1.175 -0.6436
4581000000.0 -1.235 0.5175
4584000000.0 -0.3889 1.268
4588000000.0 0.7675 1.111
4591000000.0 1.353 0.1386
4594000000.0 0.9906 -0.9442
4597000000.0 -0.1109 -1.356
4600000000.0 -1.13 -0.7829
4603000000.0 -1.338 0.3798
4606000000.0 -0.5502 1.262
4609000000.0 0.6048 1.247
4612000000.0 1.348 0.2985
4616000000.0 1.097 -0.8743
4619000000.0 0.0417 -1.403
4622000000.0 -1.074 -0.8806
4625000000.0 -1.394 0.2666
4628000000.0 -0.6612 1.212
4631000000.0 0.5322 1.27
4634000000.0 1.31 0.3781
4638000000.0 1.113 -0.7928
4641000000.0 0.07221 -1.36
4644000000.0 -0.9916 -0.9071
4647000000.0 -1.315 0.2211
4650000000.0 -0.6692 1.158
4653000000.0 0.4961 1.195
4656000000.0 1.231 0.3952
4659000000.0 1.046 -0.7521
4662000000.0 0.04942 -1.242
4666000000.0 -0.9362 -0.8506
4669000000.0 -1.207 0.2276
4672000000.0 -0.5639 1.046
4675000000.0 0.49 1.129
4678000000.0 1.135 0.306
4681000000.0 0.9411 -0.6778
4684000000.0 0.08605 -1.155
4688000000.0 -0.8649 -0.7341
4691000000.0 -1.103 0.1815
4694000000.0 -0.4903 0.9664
4697000000.0 0.4435 1.008
4700000000.0 1.052 0.3028
4703000000.0 0.8629 -0.6818
4706000000.0 0.007864 -1.093
4709000000.0 -0.8369 -0.7032
4712000000.0 -1.073 0.2128
4716000000.0 -0.4814 0.9796
4719000000.0 0.4448 0.9775
4722000000.0 1.077 0.2408
4725000000.0 0.8025 -0.6444
4728000000.0 -0.0171 -1.032
4731000000.0 -0.7928 -0.6752
4734000000.0 -1.045 0.1818
4738000000.0 -0.5061 0.9149
4741000000.0 0.387 0.9718
4744000000.0 1.01 0.3189
4747000000.0 0.9048 -0.5577
4750000000.0 0.1422 -1.052
4753000000.0 -0.7193 -0.7991
4756000000.0 -1.095 0.06387
4759000000.0 -0.674 0.8949
4762000000.0 0.2612 1.105
4766000000.0 1.003 0.5475
4769000000.0 1.068 -0.4478
4772000000.0 0.3314 -1.109
4775000000.0 -0.6615 -0.9616
4778000000.0 -1.168 -0.1023
4781000000.0 -0.8478 0.8104
4784000000.0 0.0685 1.202
4788000000.0 0.9557 0.721
4791000000.0 1.223 -0.2755
4794000000.0 0.5492 -1.098
4797000000.0 -0.4734 -1.153
4800000000.0 -1.184 -0.3932
4803000000.0 -1.063 0.6618
4806000000.0 -0.1663 1.221
4809000000.0 0.8554 0.9337
4812000000.0 1.296 -0.02674
4816000000.0 0.8045 -1.055
4819000000.0 -0.2752 -1.29
4822000000.0 -1.21 -0.617
4825000000.0 -1.251 0.5261
4828000000.0 -0.3878 1.308
4831000000.0 0.7731 1.166
4834000000.0 1.381 0.1313
4838000000.0 0.992 -0.9958
4841000000.0 -0.1495 -1.387
4844000000.0 -1.148 -0.7657
4847000000.0 -1.335 0.3915
4850000000.0 -0.5286 1.315
4853000000.0 0.6532 1.208
4856000000.0 1.36 0.2209
4859000000.0 1.042 -0.8784
4862000000.0 -0.02156 -1.354
4866000000.0 -1.047 -0.8537
4869000000.0 -1.318 0.3061
4872000000.0 -0.5918 1.175
4875000000.0 0.5572 1.18
4878000000.0 1.263 0.3547
4881000000.0 1.046 -0.7722
4884000000.0 0.06209 -1.259
4888000000.0 -0.9305 -0.834
4891000000.0 -1.218 0.2302
4894000000.0 -0.5279 1.055
4897000000.0 0.4505 1.064
4900000000.0 1.121 0.299
4903000000.0 0.9315 -0.6427
4906000000.0 0.07363 -1.095
4909000000.0 -0.7868 -0.73
4912000000.0 -1.025 0.1279
4916000000.0 -0.5484 0.8757
4919000000.0 0.3133 0.957
4922000000.0 0.951 0.3304
4925000000.0 0.8321 -0.51
4928000000.0 0.1525 -0.9289
4931000000.0 -0.6382 -0.7449
4934000000.0 -0.9474 0.06076
4938000000.0 -0.5967 0.7513
4941000000.0 0.2305 0.9062
4944000000.0 0.8363 0.413
4947000000.0 0.8406 -0.4469
4950000000.0 0.2119 -0.9058
4953000000.0 -0.5774 -0.7696
4956000000.0 -0.9809 -0.05573
4959000000.0 -0.6548 0.7165
4962000000.0 0.1352 0.9529
4966000000.0 0.8706 0.4853
4969000000.0 0.9437 -0.3385
4972000000.0 0.3044 -0.9547
4975000000.0 -0.5358 -0.846
4978000000.0 -0.992 -0.09421
4981000000.0 -0.7326 0.7082
4984000000.0 0.0933 1.026
4988000000.0 0.8746 0.6276
4991000000.0 1.011 -0.2905
4994000000.0 0.4724 -0.9724
4997000000.0 -0.459 -1.005
5000000000.0 -1.097 -0.2695
5003000000.0 -0.9065 0.6933
5006000000.0 -0.0834 1.151
5009000000.0 0.8454 0.8098
5012000000.0 1.215 -0.1637
5016000000.0 0.658 -1.039
5019000000.0 -0.3909 -1.195
5022000000.0 -1.156 -0.4598
5025000000.0 -1.111 0.6102
5028000000.0 -0.2178 1.248
5031000000.0 0.8442 0.966
5034000000.0 1.281 -0.007299
5038000000.0 0.7923 -1.009
5041000000.0 -0.2244 -1.285
5044000000.0 -1.097 -0.6171
5047000000.0 -1.179 0.4798
5050000000.0 -0.4264 1.265
5053000000.0 0.6602 1.114
5056000000.0 1.314 0.1875
5059000000.0 0.981 -0.8865
5062000000.0 -0.04383 -1.29
5066000000.0 -1.042 -0.8053
5069000000.0 -1.276 0.2986
5072000000.0 -0.6174 1.151
5075000000.0 0.5143 1.189
5078000000.0 1.208 0.3707
5081000000.0 1.085 -0.6798
5084000000.0 0.1235 -1.228
5088000000.0 -0.8638 -0.8946
5091000000.0 -1.205 0.09139
5094000000.0 -0.7133 0.9728
5097000000.0 0.3246 1.13
5100000000.0 1.057 0.4704
5103000000.0 1.07 -0.4353
5106000000.0 0.3502 -1.056
5109000000.0 -0.6295 -0.9325
5112000000.0 -1.087 -0.1405
5116000000.0 -0.7725 0.7363
5119000000.0 0.1065 1.07
5122000000.0 0.8504 0.6368
5125000000.0 1.007 -0.2435
5128000000.0 0.4365 -0.9197
5131000000.0 -0.4174 -0.9364
5134000000.0 -0.9543 -0.2653
5138000000.0 -0.7624 0.5484
5141000000.0 -0.07566 1.005
5144000000.0 0.6961 0.6436
5147000000.0 0.9274 -0.1258
5150000000.0 0.4707 -0.8171
5153000000.0 -0.3106 -0.883
5156000000.0 -0.8765 -0.3244
5159000000.0 -0.7911 0.4733
5162000000.0 -0.1388 0.905
5166000000.0 0.6079 0.7029
5169000000.0 0.8993 -0.05623
5172000000.0 0.5408 -0.7216
5175000000.0 -0.2421 -0.879
5178000000.0 -0.802 -0.3517
5181000000.0 -0.8163 0.4302
5184000000.0 -0.1709 0.8919
5188000000.0 0.6025 0.7074
5191000000.0 0.9443 -0.01583
5194000000.0 0.548 -0.7159
5197000000.0 -0.2445 -0.9026
5200000000.0 -0.8753 -0.3718
5203000000.0 -0.8431 0.417
5206000000.0 -0.1583 0.945
5209000000.0 0.6358 0.7372
5212000000.0 0.9724 -0.01833
5216000000.0 0.6284 -0.7848
5219000000.0 -0.2153 -0.9517
5222000000.0 -0.8901 -0.4335
5225000000.0 -0.8946 0.4197
5228000000.0 -0.2603 0.9497
5231000000.0 0.5899 0.8224
5234000000.0 1.017 0.08385
5238000000.0 0.7227 -0.7732
5241000000.0 -0.1538 -1.041
5244000000.0 -0.8933 -0.5363
5247000000.0 -1.006 0.3073
5250000000.0 -0.3752 0.9957
5253000000.0 0.491 0.9406
5256000000.0 1.055 0.1951
5259000000.0 0.8378 -0.6906
5262000000.0 0.003997 -1.067
5266000000.0 -0.8182 -0.7312
5269000000.0 -1.073 0.18
5272000000.0 -0.5563 0.9364
5275000000.0 0.3498 1.038
5278000000.0 1.028 0.4124
5281000000.0 0.9637 -0.5292
5284000000.0 0.2394 -1.095
5288000000.0 -0.6486 -0.8913
5291000000.0 -1.116 -0.04487
5294000000.0 -0.7626 0.8088
5297000000.0 0.1016 1.126
5300000000.0 0.9448 0.6322
5303000000.0 1.102 -0.3098
5306000000.0 0.4557 -1.033
5309000000.0 -0.5157 -1.022
5312000000.0 -1.09 -0.2975
5316000000.0 -0.9513 0.6725
5319000000.0 -0.09245 1.153
5322000000.0 0.8044 0.8037
5325000000.0 1.142 -0.09516
5328000000.0 0.6291 -0.9346
5331000000.0 -0.3164 -1.116
5334000000.0 -1.025 -0.4424
5338000000.0 -1.023 0.5544
5341000000.0 -0.2737 1.078
5344000000.0 0.6947 0.918
5347000000.0 1.13 0.058
5350000000.0 0.7555 -0.848
5353000000.0 -0.1717 -1.091
5356000000.0 -0.9524 -0.5508
5359000000.0 -1.012 0.3896
5362000000.0 -0.3446 1.042
5366000000.0 0.5773 0.9306
5369000000.0 1.072 0.1317
5372000000.0 0.7438 -0.7335
5375000000.0 -0.1617 -1.049
5378000000.0 -0.8646 -0.541
5381000000.0 -1.014 0.3281
5384000000.0 -0.3339 0.9938
5388000000.0 0.5448 0.8511
5391000000.0 0.9422 0.1025
5394000000.0 0.6753 -0.6998
5397000000.0 -0.1305 -0.9509
5400000000.0 -0.8099 -0.4718
5403000000.0 -0.8687 0.3108
5406000000.0 -0.295 0.8696
5409000000.0 0.4927 0.7153
5412000000.0 0.9099 0.06737
5416000000.0 0.6088 -0.6424
5419000000.0 -0.1329 -0.8563
5422000000.0 -0.7512 -0.4421
5425000000.0 -0.8165 0.3091
5428000000.0 -0.2489 0.815
5431000000.0 0.4845 0.7323
5434000000.0 0.8764 0.05758
5438000000.0 0.564 -0.6533
5441000000.0 -0.1501 -0.8651
5444000000.0 -0.7192 -0.4368
5447000000.0 -0.8203 0.3139
5450000000.0 -0.2764 0.8503
5453000000.0 0.4729 0.7577
5456000000.0 0.8681 0.132
5459000000.0 0.6342 -0.635
5462000000.0 -0.09644 -0.8908
5466000000.0 -0.7417 -0.504
5469000000.0 -0.8784 0.2538
5472000000.0 -0.3904 0.8415
5475000000.0 0.4079 0.8166
5478000000.0 0.8736 0.2107
5481000000.0 0.7625 -0.5327
5484000000.0 0.03416 -0.9575
5488000000.0 -0.7095 -0.692
5491000000.0 -0.9571 0.1259
5494000000.0 -0.5225 0.8291
5497000000.0 0.2819 0.9867
5500000000.0 0.9094 0.3887
5503000000.0 0.8945 -0.4532
5506000000.0 0.2275 -0.9639
5509000000.0 -0.6153 -0.8232
5512000000.0 -1.029 -0.08702
5516000000.0 -0.7215 0.735
5519000000.0 0.1291 1.029
5522000000.0 0.8723 0.5905
5525000000.0 0.9997 -0.2833
5528000000.0 0.4414 -0.9272
5531000000.0 -0.4392 -0.9468
5534000000.0 -1.01 -0.3086
5538000000.0 -0.867 0.6292
5541000000.0 -0.07749 1.073
5544000000.0 0.7272 0.7469
5547000000.0 1.07 -0.08929
5550000000.0 0.6222 -0.8978
5553000000.0 -0.308 -1.001
5556000000.0 -0.9567 -0.399
5559000000.0 -0.9599 0.4662
5562000000.0 -0.2175 1.022
5566000000.0 0.6317 0.8182
5569000000.0 1.063 0.05278
5572000000.0 0.6676 -0.7512
5575000000.0 -0.1379 -1.011
5578000000.0 -0.8744 -0.5215
5581000000.0 -0.9454 0.3358
5584000000.0 -0.3451 0.9174
5588000000.0 0.4717 0.8585
5591000000.0 0.9389 0.1602
5594000000.0 0.7164 -0.624
5597000000.0 -0.03352 -0.9208
5600000000.0 -0.7808 -0.5776
5603000000.0 -0.9132 0.1782
5606000000.0 -0.3979 0.7976
5609000000.0 0.3704 0.8262
5612000000.0 0.8731 0.2152
5616000000.0 0.7031 -0.5252
5619000000.0 0.0409 -0.8387
5622000000.0 -0.6359 -0.5744
5625000000.0 -0.8737 0.1207
5628000000.0 -0.4111 0.7347
5631000000.0 0.3136 0.7657
5634000000.0 0.7966 0.25
5638000000.0 0.7066 -0.465
5641000000.0 0.09749 -0.8145
5644000000.0 -0.5904 -0.5757
5647000000.0 -0.8356 0.08764
5650000000.0 -0.4405 0.7413
5653000000.0 0.2922 0.7732
5656000000.0 0.8166 0.2877
5659000000.0 0.7463 -0.4882
5662000000.0 0.06204 -0.8766
5666000000.0 -0.62 -0.599
5669000000.0 -0.8858 0.1014
5672000000.0 -0.46 0.7732
5675000000.0 0.3209 0.8423
5678000000.0 0.8954 0.3103
5681000000.0 0.7802 -0.4932
5684000000.0 0.1082 -0.9333
5688000000.0 -0.6841 -0.6959
5691000000.0 -0.9532 0.1015
5694000000.0 -0.5141 0.8051
5697000000.0 0.2983 0.9305
5700000000.0 0.9219 0.3434
5703000000.0 0.8798 -0.5249
5706000000.0 0.1823 -0.9913
5709000000.0 -0.691 -0.7825
5712000000.0 -1.037 0.02998
5716000000.0 -0.6257 0.8188
5719000000.0 0.2586 1.015
5722000000.0 0.9338 0.4995
5725000000.0 0.946 -0.4411
5728000000.0 0.3109 -1.015
5731000000.0 -0.6062 -0.9026
5734000000.0 -1.093 -0.07987
5738000000.0 -0.7355 0.8102
5741000000.0 0.1034 1.12
5744000000.0 0.9329 0.6485
5747000000.0 1.066 -0.2789
5750000000.0 0.4503 -1.003
5753000000.0 -0.4745 -0.9778
5756000000.0 -1.092 -0.2771
5759000000.0 -0.8485 0.6709
5762000000.0 -0.02537 1.097
5766000000.0 0.8004 0.7614
5769000000.0 1.098 -0.1243
5772000000.0 0.6048 -0.9189
5775000000.0 -0.351 -1.066
5778000000.0 -1.026 -0.4361
5781000000.0 -0.9835 0.497
5784000000.0 -0.2158 1.058
5788000000.0 0.6771 0.9012
5791000000.0 1.107 0.0353
5794000000.0 0.7263 -0.7875
5797000000.0 -0.1807 -1.099
5800000000.0 -0.934 -0.5627
5803000000.0 -1.012 0.3547
5806000000.0 -0.3666 1.073
5809000000.0 0.5083 0.9001
5812000000.0 1.012 0.158
5816000000.0 0.7801 -0.6485
5819000000.0 -0.04212 -1.035
5822000000.0 -0.7967 -0.6501
5825000000.0 -1.021 0.1923
5828000000.0 -0.449 0.8753
5831000000.0 0.389 0.8915
5834000000.0 0.9824 0.2606
5838000000.0 0.8123 -0.5611
5841000000.0 0.06368 -0.9923
5844000000.0 -0.7119 -0.6552
5847000000.0 -0.9702 0.1732
5850000000.0 -0.5052 0.8203
5853000000.0 0.34 0.8897
5856000000.0 0.9012 0.2513
5859000000.0 0.7714 -0.5151
5862000000.0 0.07145 -0.9449
5866000000.0 -0.664 -0.6221
5869000000.0 -0.9044 0.1156
5872000000.0 -0.4814 0.7631
5875000000.0 0.3037 0.845
5878000000.0 0.8234 0.287
5881000000.0 0.7233 -0.4278
5884000000.0 0.1248 -0.8538
5888000000.0 -0.6167 -0.6049
5891000000.0 -0.8756 0.08411
5894000000.0 -0.4957 0.7409
5897000000.0 0.2572 0.8223
5900000000.0 0.8173 0.3162
5903000000.0 0.767 -0.4043
5906000000.0 0.1559 -0.8352
5909000000.0 -0.5664 -0.6507
5912000000.0 -0.8801 0.01251
5916000000.0 -0.5422 0.6839
5919000000.0 0.1842 0.8383
5922000000.0 0.7608 0.4103
5925000000.0 0.7855 -0.3728
5928000000.0 0.2358 -0.8522
5931000000.0 -0.5015 -0.7372
5934000000.0 -0.9016 -0.05574
5938000000.0 -0.6092 0.6177
5941000000.0 0.08682 0.8891
5944000000.0 0.7489 0.5044
5947000000.0 0.8706 -0.2504
5950000000.0 0.3716 -0.8407
5953000000.0 -0.418 -0.8378
5956000000.0 -0.8757 -0.1812
5959000000.0 -0.778 0.5858
5962000000.0 -0.04235 0.9402
5966000000.0 0.7159 0.6422
5969000000.0 0.9306 -0.0973
5972000000.0 0.5289 -0.8075
5975000000.0 -0.2824 -0.8922
5978000000.0 -0.8966 -0.3797
5981000000.0 -0.8716 0.4897
5984000000.0 -0.2056 0.9608
5988000000.0 0.6054 0.7673
5991000000.0 0.9791 0.03498
5994000000.0 0.6808 -0.7466
5997000000.0 -0.163 -1.002
6000000000.0 -0.8751 -0.5276
6003000000.0 -0.9769 0.3115
6006000000.0 -0.3308 0.951
6009000000.0 0.5134 0.8872
6012000000.0 0.9666 0.1451
6016000000.0 0.7629 -0.6536
6019000000.0 -0.03869 -1.016
6022000000.0 -0.7929 -0.6131
6025000000.0 -0.9947 0.2335
6028000000.0 -0.4334 0.8983
6031000000.0 0.4059 0.8893
6034000000.0 0.9595 0.2514
6038000000.0 0.7897 -0.5935
6041000000.0 0.04412 -0.9776
6044000000.0 -0.7122 -0.6541
6047000000.0 -0.9438 0.139
6050000000.0 -0.485 0.8323
6053000000.0 0.3294 0.9033
6056000000.0 0.9189 0.3025
6059000000.0 0.7909 -0.4938
6062000000.0 0.1026 -0.9165
6066000000.0 -0.654 -0.6482
6069000000.0 -0.898 0.09736
6072000000.0 -0.5041 0.7655
6075000000.0 0.264 0.846
6078000000.0 0.8283 0.3316
6081000000.0 0.7638 -0.4435
6084000000.0 0.1553 -0.8723
6088000000.0 -0.5673 -0.6308
6091000000.0 -0.8746 0.04212
6094000000.0 -0.5405 0.6914
6097000000.0 0.2404 0.8364
6100000000.0 0.782 0.3462
6103000000.0 0.7726 -0.4162
6106000000.0 0.1797 -0.8738
6109000000.0 -0.5496 -0.6909
6112000000.0 -0.8351 0.01019
6116000000.0 -0.5265 0.6598
6119000000.0 0.1783 0.8424
6122000000.0 0.773 0.3916
6125000000.0 0.7882 -0.3797
6128000000.0 0.2171 -0.8481
6131000000.0 -0.5166 -0.7042
6134000000.0 -0.8673 -0.0232
6138000000.0 -0.5903 0.6849
6141000000.0 0.1408 0.8733
6144000000.0 0.7735 0.4511
6147000000.0 0.8258 -0.3138
6150000000.0 0.2596 -0.8393
6153000000.0 -0.4654 -0.7463
6156000000.0 -0.903 -0.1071
6159000000.0 -0.6454 0.6306
6162000000.0 0.07839 0.9093
6166000000.0 0.7709 0.5331
6169000000.0 0.8858 -0.277
6172000000.0 0.3464 -0.8489
6175000000.0 -0.433 -0.8404
6178000000.0 -0.9422 -0.2035
6181000000.0 -0.7586 0.6122
6184000000.0 -0.02272 0.9283
6188000000.0 0.7512 0.6005
6191000000.0 0.9595 -0.2132
6194000000.0 0.4588 -0.8237
6197000000.0 -0.352 -0.8605
6200000000.0 -0.8873 -0.2889
6203000000.0 -0.7853 0.4878
6206000000.0 -0.1076 0.8982
6209000000.0 0.6399 0.6552
6212000000.0 0.9355 -0.08063
6216000000.0 0.5247 -0.7392
6219000000.0 -0.2082 -0.8895
6222000000.0 -0.8573 -0.3838
6225000000.0 -0.846 0.4401
6228000000.0 -0.2417 0.8704
6231000000.0 0.5502 0.6805
6234000000.0 0.9328 0.05537
6238000000.0 0.5849 -0.6379
6241000000.0 -0.1162 -0.8658
6244000000.0 -0.7325 -0.4614
6247000000.0 -0.8284 0.2906
6250000000.0 -0.3103 0.7887
6253000000.0 0.3994 0.7434
6256000000.0 0.8051 0.1472
6259000000.0 0.6629 -0.4885
6262000000.0 0.03235 -0.8383
6266000000.0 -0.5811 -0.5398
