! Created with skrf 1.8.0 (http://scikit-rf.org).
# Hz S RI R 50.0 
!freq ReS11 ImS11
4000000000.0 -0.3274 -1.5
4003000000.0 -1.37 -0.6075
4006000000.0 -1.355 0.6672
4009000000.0 -0.3595 1.469
4012000000.0 0.9604 1.205
4016000000.0 1.552 0.004788
4019000000.0 0.9617 -1.218
4022000000.0 -0.3366 -1.513
4025000000.0 -1.399 -0.7721
4028000000.0 -1.436 0.7031
4031000000.0 -0.3759 1.556
4034000000.0 1.03 1.289
4038000000.0 1.686 0.005059
4041000000.0 1.032 -1.255
4044000000.0 -0.3399 -1.624
4047000000.0 -1.493 -0.7665
4050000000.0 -1.468 0.6632
4053000000.0 -0.4518 1.572
4056000000.0 0.9488 1.324
4059000000.0 1.64 0.1023
4062000000.0 1.117 -1.192
4066000000.0 -0.2165 -1.577
4069000000.0 -1.364 -0.8771
4072000000.0 -1.522 0.4867
4075000000.0 -0.61 1.49
4078000000.0 0.7612 1.406
4081000000.0 1.601 0.3377
4084000000.0 1.251 -1.004
4088000000.0 0.04923 -1.632
4091000000.0 -1.248 -1.043
4094000000.0 -1.559 0.2952
4097000000.0 -0.7986 1.411
4100000000.0 0.5414 1.502
4103000000.0 1.522 0.5296
4106000000.0 1.367 -0.8098
4109000000.0 0.2317 -1.531
4112000000.0 -0.9487 -1.139
4116000000.0 -1.521 -0.01189
4119000000.0 -0.9754 1.127
4122000000.0 0.2094 1.461
4125000000.0 1.242 0.7988
4128000000.0 1.361 -0.4161
4131000000.0 0.5717 -1.324
4134000000.0 -0.6317 -1.321
4138000000.0 -1.404 -0.3836
4141000000.0 -1.238 0.821
4144000000.0 -0.1828 1.477
4147000000.0 1.031 1.124
4150000000.0 1.499 -0.08648
4153000000.0 0.8911 -1.2
4156000000.0 -0.3809 -1.453
4159000000.0 -1.377 -0.6714
4162000000.0 -1.353 0.6186
4166000000.0 -0.4089 1.445
4169000000.0 0.8273 1.279
4172000000.0 1.497 0.168
4175000000.0 1.037 -1.042
4178000000.0 -0.134 -1.496
4181000000.0 -1.206 -0.8698
4184000000.0 -1.414 0.3991
4188000000.0 -0.5833 1.394
4191000000.0 0.6602 1.352
4194000000.0 1.509 0.3161
4197000000.0 1.202 -0.9941
4200000000.0 -0.02016 -1.563
4203000000.0 -1.272 -0.9879
4206000000.0 -1.548 0.3828
4209000000.0 -0.6244 1.463
4212000000.0 0.7654 1.459
4216000000.0 1.631 0.2428
4219000000.0 1.191 -1.173
4222000000.0 -0.167 -1.641
4225000000.0 -1.429 -0.8541
4228000000.0 -1.521 0.6465
4231000000.0 -0.4003 1.567
4234000000.0 1.008 1.257
4238000000.0 1.599 -0.04751
4241000000.0 0.9059 -1.272
4244000000.0 -0.4754 -1.463
4247000000.0 -1.416 -0.5512
4250000000.0 -1.281 0.8235
4253000000.0 -0.1248 1.476
4256000000.0 1.088 0.9901
4259000000.0 1.482 -0.2213
4262000000.0 0.7133 -1.296
4266000000.0 -0.5875 -1.313
4269000000.0 -1.352 -0.3815
4272000000.0 -1.164 0.8364
4275000000.0 -0.02787 1.434
4278000000.0 1.082 0.8939
4281000000.0 1.375 -0.2925
4284000000.0 0.6536 -1.223
4288000000.0 -0.5551 -1.218
4291000000.0 -1.316 -0.3352
4294000000.0 -1.086 0.797
4297000000.0 -0.08166 1.323
4300000000.0 0.9661 0.8851
4303000000.0 1.287 -0.1294
4306000000.0 0.7184 -1.061
4309000000.0 -0.3687 -1.229
4312000000.0 -1.189 -0.5255
4316000000.0 -1.163 0.5388
4319000000.0 -0.2927 1.26
4322000000.0 0.7654 1.053
4325000000.0 1.316 0.08856
4328000000.0 0.9402 -0.9597
4331000000.0 -0.08948 -1.353
4334000000.0 -1.127 -0.7889
4338000000.0 -1.368 0.3613
4341000000.0 -0.5658 1.322
4344000000.0 0.6453 1.284
4347000000.0 1.405 0.3216
4350000000.0 1.127 -0.9155
4353000000.0 0.05577 -1.485
4356000000.0 -1.119 -1.007
4359000000.0 -1.471 0.2685
4362000000.0 -0.7237 1.28
4366000000.0 0.5728 1.381
4369000000.0 1.438 0.4679
4372000000.0 1.285 -0.7917
4375000000.0 0.1715 -1.49
4378000000.0 -1.059 -1.122
4381000000.0 -1.541 0.1652
4384000000.0 -0.8705 1.289
4388000000.0 0.4824 1.463
4391000000.0 1.473 0.5468
4394000000.0 1.338 -0.8017
4397000000.0 0.1762 -1.545
4400000000.0 -1.127 -1.113
4403000000.0 -1.564 0.2009
4406000000.0 -0.7477 1.339
4409000000.0 0.5774 1.402
4412000000.0 1.44 0.359
4416000000.0 1.184 -0.9221
4419000000.0 -0.01809 -1.449
4422000000.0 -1.157 -0.9062
4425000000.0 -1.358 0.3619
4428000000.0 -0.5429 1.296
4431000000.0 0.6594 1.19
4434000000.0 1.317 0.1796
4438000000.0 0.9325 -0.8802
4441000000.0 -0.1498 -1.284
4444000000.0 -1.091 -0.6645
4447000000.0 -1.179 0.4449
4450000000.0 -0.3748 1.212
4453000000.0 0.6885 0.9901
4456000000.0 1.208 0.02476
4459000000.0 0.7812 -0.9069
4462000000.0 -0.2348 -1.182
4466000000.0 -1.092 -0.5047
4469000000.0 -1.078 0.5077
4472000000.0 -0.2779 1.156
4475000000.0 0.751 0.8975
4478000000.0 1.156 -0.03464
4481000000.0 0.7041 -0.9266
4484000000.0 -0.2549 -1.123
4488000000.0 -1.048 -0.4884
4491000000.0 -1.037 0.5098
4494000000.0 -0.2859 1.155
4497000000.0 0.7424 0.9007
4500000000.0 1.144 -0.001767
4503000000.0 0.7132 -0.8524
4506000000.0 -0.2106 -1.164
4509000000.0 -1.023 -0.518
4512000000.0 -1.082 0.4304
4516000000.0 -0.3318 1.157
4519000000.0 0.6615 0.9883
4522000000.0 1.2 0.1135
4525000000.0 0.8569 -0.8596
4528000000.0 -0.1156 -1.225
4531000000.0 -1.052 -0.6614
4534000000.0 -1.203 0.3551
4538000000.0 -0.4745 1.149
4541000000.0 0.5687 1.129
4544000000.0 1.266 0.2927
4547000000.0 1.013 -0.7705
4550000000.0 0.06185 -1.261
4553000000.0 -0.9593 -0.8667
4556000000.0 -1.291 0.1642
4559000000.0 -0.6921 1.109
4562000000.0 0.4072 1.27
4566000000.0 1.221 0.5012
4569000000.0 1.178 -0.6217
4572000000.0 0.2892 -1.3
4575000000.0 -0.852 -1.067
4578000000.0 -1.374 -0.02609
4581000000.0 -0.9177 1.024
4584000000.0 0.2322 1.379
4588000000.0 1.213 0.706
4591000000.0 1.312 -0.5336
4594000000.0 0.4338 -1.346
4597000000.0 -0.7612 -1.205
4600000000.0 -1.413 -0.147
4603000000.0 -1.028 0.9693
4606000000.0 0.1314 1.4
4609000000.0 1.156 0.7979
4612000000.0 1.344 -0.3978
4616000000.0 0.5301 -1.279
4619000000.0 -0.6718 -1.208
4622000000.0 -1.356 -0.2229
4625000000.0 -1.002 0.9099
4628000000.0 0.07629 1.349
4631000000.0 1.097 0.7607
4634000000.0 1.295 -0.3447
4638000000.0 0.5308 -1.196
4641000000.0 -0.6234 -1.131
4644000000.0 -1.273 -0.2325
4647000000.0 -0.9509 0.8282
4650000000.0 0.06767 1.256
4653000000.0 1.021 0.6965
4656000000.0 1.162 -0.3555
4659000000.0 0.4577 -1.127
4662000000.0 -0.5862 -0.9784
4666000000.0 -1.157 -0.1355
4669000000.0 -0.8179 0.7999
4672000000.0 0.144 1.116
4675000000.0 0.9339 0.5885
4678000000.0 1.058 -0.3621
4681000000.0 0.3649 -0.9953
4684000000.0 -0.5704 -0.9383
4688000000.0 -1.063 -0.1416
4691000000.0 -0.7678 0.7655
4694000000.0 0.1174 1.1
4697000000.0 0.918 0.589
4700000000.0 1.036 -0.3295
4703000000.0 0.4003 -1.002
4706000000.0 -0.5906 -0.9329
4709000000.0 -1.082 -0.1781
4712000000.0 -0.7883 0.749
4716000000.0 0.06966 1.079
4719000000.0 0.897 0.6251
4722000000.0 1.075 -0.2972
4725000000.0 0.4026 -0.9942
4728000000.0 -0.5148 -0.9785
4731000000.0 -1.056 -0.2044
4734000000.0 -0.8705 0.6636
4738000000.0 -0.05342 1.109
4741000000.0 0.8398 0.7368
4744000000.0 1.116 -0.1714
4747000000.0 0.6067 -0.9779
4750000000.0 -0.3362 -1.097
4753000000.0 -1.108 -0.4629
4756000000.0 -1.039 0.5459
4759000000.0 -0.2647 1.172
4762000000.0 0.7593 0.9493
4766000000.0 1.243 0.05579
4769000000.0 0.8099 -0.9186
4772000000.0 -0.1863 -1.225
4775000000.0 -1.105 -0.6598
4778000000.0 -1.222 0.4222
4781000000.0 -0.4834 1.187
4784000000.0 0.623 1.13
4788000000.0 1.293 0.262
4791000000.0 1.046 -0.8179
4794000000.0 0.032 -1.301
4797000000.0 -0.9811 -0.8865
4800000000.0 -1.332 0.2031
4803000000.0 -0.6987 1.124
4806000000.0 0.4111 1.279
4809000000.0 1.234 0.4865
4812000000.0 1.194 -0.6732
4816000000.0 0.2456 -1.353
4819000000.0 -0.8693 -1.102
4822000000.0 -1.389 0.01634
4825000000.0 -0.887 1.105
4828000000.0 0.2953 1.358
4831000000.0 1.257 0.6193
4834000000.0 1.273 -0.5828
4838000000.0 0.3313 -1.344
4841000000.0 -0.8161 -1.106
4844000000.0 -1.378 -0.04897
4847000000.0 -0.8684 1.028
4850000000.0 0.2481 1.304
4853000000.0 1.163 0.6241
4856000000.0 1.205 -0.4963
4859000000.0 0.3908 -1.245
4862000000.0 -0.7281 -1.043
4866000000.0 -1.232 -0.1095
4869000000.0 -0.8403 0.8347
4872000000.0 0.1332 1.197
4875000000.0 1.024 0.6268
4878000000.0 1.132 -0.3966
4881000000.0 0.3774 -1.079
4884000000.0 -0.5923 -0.9763
4888000000.0 -1.103 -0.1218
4891000000.0 -0.7844 0.7542
4894000000.0 0.08478 1.062
4897000000.0 0.8681 0.5647
4900000000.0 0.9761 -0.3098
4903000000.0 0.3494 -0.9228
4906000000.0 -0.4987 -0.8533
4909000000.0 -0.9895 -0.135
4912000000.0 -0.724 0.6502
4916000000.0 0.05444 0.9606
4919000000.0 0.7623 0.5713
4922000000.0 0.8829 -0.2419
4925000000.0 0.3923 -0.857
4928000000.0 -0.4056 -0.8328
4931000000.0 -0.8878 -0.2157
4934000000.0 -0.7272 0.5594
4938000000.0 -0.06235 0.9283
4941000000.0 0.7113 0.6124
4944000000.0 0.9549 -0.1497
4947000000.0 0.4834 -0.833
4950000000.0 -0.3498 -0.9283
4953000000.0 -0.9752 -0.3103
4956000000.0 -0.8856 0.5144
4959000000.0 -0.1225 1.062
4962000000.0 0.7221 0.7335
4966000000.0 1.058 -0.09417
4969000000.0 0.634 -0.8848
4972000000.0 -0.305 -1.033
4975000000.0 -1.018 -0.4514
4978000000.0 -1.014 0.5265
4981000000.0 -0.2407 1.095
4984000000.0 0.7059 0.8762
4988000000.0 1.167 0.006251
4991000000.0 0.7888 -0.8645
4994000000.0 -0.1683 -1.176
4997000000.0 -1.085 -0.6085
5000000000.0 -1.14 0.4208
5003000000.0 -0.421 1.184
5006000000.0 0.6705 1.093
5009000000.0 1.297 0.181
5012000000.0 0.9665 -0.8897
5016000000.0 -0.07508 -1.306
5019000000.0 -1.078 -0.7597
5022000000.0 -1.272 0.3387
5025000000.0 -0.532 1.177
5028000000.0 0.5904 1.188
5031000000.0 1.282 0.2848
5034000000.0 1.031 -0.7931
5038000000.0 0.04071 -1.296
5041000000.0 -0.9693 -0.8481
5044000000.0 -1.251 0.2292
5047000000.0 -0.6675 1.067
5050000000.0 0.3849 1.173
5053000000.0 1.191 0.4459
5056000000.0 1.068 -0.6451
5059000000.0 0.1977 -1.192
5062000000.0 -0.7987 -0.8891
5066000000.0 -1.183 -0.001577
5069000000.0 -0.7776 0.9326
5072000000.0 0.2614 1.145
5075000000.0 1.041 0.5509
5078000000.0 1.057 -0.4609
5081000000.0 0.3145 -1.061
5084000000.0 -0.6329 -0.924
5088000000.0 -1.103 -0.06717
5091000000.0 -0.7525 0.7719
5094000000.0 0.1399 1.031
5097000000.0 0.8808 0.5613
5100000000.0 0.9645 -0.316
5103000000.0 0.3605 -0.9686
5106000000.0 -0.4562 -0.8787
5109000000.0 -0.9795 -0.1646
5112000000.0 -0.7413 0.6057
5116000000.0 0.06264 0.9521
5119000000.0 0.7644 0.5563
5122000000.0 0.8795 -0.2227
5125000000.0 0.3623 -0.8656
5128000000.0 -0.4632 -0.8019
5131000000.0 -0.9176 -0.1661
5134000000.0 -0.7048 0.5735
5138000000.0 0.06915 0.8804
5141000000.0 0.7832 0.5311
5144000000.0 0.8484 -0.2714
5147000000.0 0.2824 -0.8533
5150000000.0 -0.4614 -0.7482
5153000000.0 -0.865 -0.08045
5156000000.0 -0.629 0.6507
5159000000.0 0.08375 0.9086
5162000000.0 0.7541 0.5022
5166000000.0 0.8368 -0.276
5169000000.0 0.2796 -0.8489
5172000000.0 -0.5157 -0.7841
5175000000.0 -0.918 -0.08056
5178000000.0 -0.6542 0.6519
5181000000.0 0.1476 0.9371
5184000000.0 0.8378 0.4776
5188000000.0 0.9119 -0.3343
5191000000.0 0.3076 -0.9523
5194000000.0 -0.5645 -0.8355
5197000000.0 -0.9966 -0.09876
5200000000.0 -0.7182 0.7407
5203000000.0 0.1337 1.022
5206000000.0 0.8751 0.4963
5209000000.0 0.982 -0.3567
5212000000.0 0.3624 -0.9921
5216000000.0 -0.5671 -0.8988
5219000000.0 -1.038 -0.1241
5222000000.0 -0.7967 0.7064
5225000000.0 0.07742 1.05
5228000000.0 0.8828 0.6318
5231000000.0 1.043 -0.2686
5234000000.0 0.4521 -0.9876
5238000000.0 -0.4918 -0.9748
5241000000.0 -1.073 -0.2594
5244000000.0 -0.8771 0.6599
5247000000.0 -0.04361 1.093
5250000000.0 0.834 0.7021
5253000000.0 1.08 -0.1522
5256000000.0 0.5661 -0.9523
5259000000.0 -0.3799 -1.015
5262000000.0 -1.024 -0.3462
5266000000.0 -0.9187 0.591
5269000000.0 -0.1218 1.077
5272000000.0 0.7583 0.761
5275000000.0 1.071 -0.1107
5278000000.0 0.5996 -0.8842
5281000000.0 -0.3296 -1.017
5284000000.0 -0.9674 -0.3882
5288000000.0 -0.9 0.5583
5291000000.0 -0.1169 1.07
5294000000.0 0.7229 0.7825
5297000000.0 1.022 -0.1393
5300000000.0 0.5491 -0.8928
5303000000.0 -0.3489 -0.9603
5306000000.0 -0.9686 -0.2816
5309000000.0 -0.8204 0.5874
5312000000.0 -0.02888 0.9952
5316000000.0 0.7894 0.6066
5319000000.0 0.9677 -0.2186
5322000000.0 0.3559 -0.9118
5325000000.0 -0.5152 -0.8102
5328000000.0 -0.927 -0.09343
5331000000.0 -0.5994 0.7011
5334000000.0 0.2154 0.9104
5338000000.0 0.8567 0.3725
5341000000.0 0.7848 -0.4661
5344000000.0 0.1114 -0.8871
5347000000.0 -0.6392 -0.6085
5350000000.0 -0.864 0.1292
5353000000.0 -0.4133 0.8225
5356000000.0 0.3979 0.7901
5359000000.0 0.8794 0.1532
5362000000.0 0.6488 -0.6119
5366000000.0 -0.09408 -0.9058
5369000000.0 -0.7617 -0.4676
5372000000.0 -0.8774 0.313
5375000000.0 -0.288 0.8936
5378000000.0 0.542 0.793
5381000000.0 0.9332 0.09155
5384000000.0 0.6387 -0.7203
5388000000.0 -0.1436 -0.9636
5391000000.0 -0.8612 -0.4905
5394000000.0 -0.9249 0.359
5397000000.0 -0.2698 0.9481
5400000000.0 0.5776 0.842
5403000000.0 1.025 0.05548
5406000000.0 0.6936 -0.747
5409000000.0 -0.1728 -1.036
5412000000.0 -0.9181 -0.5495
5416000000.0 -1.036 0.376
5419000000.0 -0.3674 1.018
5422000000.0 0.5615 0.9537
5425000000.0 1.125 0.1451
5428000000.0 0.8126 -0.7757
5431000000.0 -0.09391 -1.148
5434000000.0 -0.9589 -0.6075
5438000000.0 -1.126 0.3704
5441000000.0 -0.3831 1.092
5444000000.0 0.642 0.9969
5447000000.0 1.183 0.1309
5450000000.0 0.802 -0.848
5453000000.0 -0.1999 -1.16
5456000000.0 -1.015 -0.5813
5459000000.0 -1.083 0.4377
5462000000.0 -0.3117 1.097
5466000000.0 0.6652 0.9378
5469000000.0 1.104 -0.01045
5472000000.0 0.6609 -0.8607
5475000000.0 -0.3111 -1.062
5478000000.0 -0.9638 -0.3803
5481000000.0 -0.8889 0.5306
5484000000.0 -0.1379 1.034
5488000000.0 0.7079 0.683
5491000000.0 0.952 -0.1464
5494000000.0 0.4394 -0.8595
5497000000.0 -0.4371 -0.8337
5500000000.0 -0.9146 -0.136
5503000000.0 -0.6521 0.6212
5506000000.0 0.08517 0.8749
5509000000.0 0.7768 0.4136
5512000000.0 0.7643 -0.3492
5516000000.0 0.2089 -0.8203
5519000000.0 -0.5195 -0.6456
5522000000.0 -0.8184 0.0292
5525000000.0 -0.4981 0.6883
5528000000.0 0.2253 0.8199
5531000000.0 0.7886 0.2833
5534000000.0 0.7022 -0.4273
5538000000.0 0.07985 -0.8113
5541000000.0 -0.603 -0.585
5544000000.0 -0.7989 0.1155
5547000000.0 -0.4202 0.7297
5550000000.0 0.346 0.7968
5553000000.0 0.876 0.2318
5556000000.0 0.7371 -0.537
5559000000.0 0.04582 -0.9243
5562000000.0 -0.6804 -0.6123
5566000000.0 -0.919 0.1076
5569000000.0 -0.4618 0.7938
5572000000.0 0.3619 0.8877
5575000000.0 0.9114 0.2647
5578000000.0 0.7796 -0.4982
5581000000.0 0.0786 -0.9582
5584000000.0 -0.715 -0.7001
5588000000.0 -0.978 0.1137
5591000000.0 -0.5463 0.8539
5594000000.0 0.3216 0.9583
5597000000.0 0.9293 0.3714
5600000000.0 0.8827 -0.517
5603000000.0 0.1773 -1.04
5606000000.0 -0.6877 -0.7925
5609000000.0 -1.029 0.00877
5612000000.0 -0.6326 0.852
5616000000.0 0.2307 1.022
5619000000.0 0.9403 0.4808
5622000000.0 0.9715 -0.4548
5625000000.0 0.2654 -1.035
5628000000.0 -0.6279 -0.8673
5631000000.0 -1.064 -0.04405
5634000000.0 -0.695 0.7968
5638000000.0 0.2007 1.016
5641000000.0 0.9164 0.4945
5644000000.0 0.9617 -0.4075
5647000000.0 0.2885 -0.996
5650000000.0 -0.5979 -0.813
5653000000.0 -1.006 -0.0577
5656000000.0 -0.6627 0.7682
5659000000.0 0.1789 0.9932
5662000000.0 0.8866 0.4775
5666000000.0 0.9085 -0.3724
5669000000.0 0.2705 -0.9242
5672000000.0 -0.5657 -0.7529
5675000000.0 -0.9772 -0.009765
5678000000.0 -0.5916 0.7195
5681000000.0 0.2267 0.936
5684000000.0 0.854 0.3811
5688000000.0 0.8218 -0.4543
5691000000.0 0.1483 -0.9158
5694000000.0 -0.6251 -0.6936
5697000000.0 -0.9152 0.08863
5700000000.0 -0.4758 0.7821
5703000000.0 0.3165 0.8555
5706000000.0 0.8873 0.2766
5709000000.0 0.7353 -0.527
5712000000.0 0.04494 -0.9134
5716000000.0 -0.7044 -0.6115
5719000000.0 -0.9026 0.1927
5722000000.0 -0.3677 0.8107
5725000000.0 0.4089 0.8417
5728000000.0 0.9207 0.1709
5731000000.0 0.7155 -0.6162
5734000000.0 -0.02529 -0.916
5738000000.0 -0.7656 -0.5743
5741000000.0 -0.9253 0.2474
5744000000.0 -0.3404 0.9065
5747000000.0 0.4922 0.8379
5750000000.0 0.9585 0.1777
5753000000.0 0.7338 -0.6496
5756000000.0 -0.06757 -0.9583
5759000000.0 -0.8067 -0.5914
5762000000.0 -0.972 0.2617
5766000000.0 -0.3913 0.8983
5769000000.0 0.4668 0.9419
5772000000.0 0.996 0.2041
5775000000.0 0.7828 -0.6568
5778000000.0 0.02246 -0.9668
5781000000.0 -0.7992 -0.6761
5784000000.0 -1.014 0.1849
5788000000.0 -0.5014 0.9102
5791000000.0 0.4184 0.9734
5794000000.0 1.0 0.3209
5797000000.0 0.8908 -0.527
5800000000.0 0.1318 -1.063
5803000000.0 -0.7732 -0.7981
5806000000.0 -1.034 0.1186
5809000000.0 -0.6089 0.8867
5812000000.0 0.2421 1.044
5816000000.0 0.9667 0.4606
5819000000.0 0.9613 -0.4981
5822000000.0 0.2341 -1.035
5825000000.0 -0.6331 -0.843
5828000000.0 -1.031 -0.07503
5831000000.0 -0.7031 0.7952
5834000000.0 0.1627 1.012
5838000000.0 0.9014 0.5657
5841000000.0 1.001 -0.3415
5844000000.0 0.3551 -0.9783
5847000000.0 -0.5294 -0.8889
5850000000.0 -1.036 -0.142
5853000000.0 -0.7748 0.7206
5856000000.0 0.09325 1.042
5859000000.0 0.8454 0.5979
5862000000.0 0.9847 -0.2754
5866000000.0 0.4052 -0.9143
5869000000.0 -0.4796 -0.8779
5872000000.0 -0.9354 -0.1884
5875000000.0 -0.7318 0.6451
5878000000.0 0.05444 0.9921
5881000000.0 0.7947 0.5951
5884000000.0 0.9263 -0.2504
5888000000.0 0.3777 -0.8611
5891000000.0 -0.4168 -0.8361
5894000000.0 -0.9248 -0.1511
5897000000.0 -0.6891 0.5742
5900000000.0 0.009319 0.9053
5903000000.0 0.7217 0.5496
5906000000.0 0.8551 -0.222
5909000000.0 0.3492 -0.819
5912000000.0 -0.3949 -0.7529
5916000000.0 -0.8419 -0.1472
5919000000.0 -0.6529 0.5403
5922000000.0 0.06486 0.8471
5925000000.0 0.7079 0.5224
5928000000.0 0.8045 -0.2618
5931000000.0 0.3584 -0.7599
5934000000.0 -0.3475 -0.7511
5938000000.0 -0.8445 -0.1814
5941000000.0 -0.6476 0.5496
5944000000.0 -0.009005 0.8237
5947000000.0 0.6761 0.5206
5950000000.0 0.8026 -0.1878
5953000000.0 0.3867 -0.7717
5956000000.0 -0.3063 -0.755
5959000000.0 -0.8316 -0.2867
5962000000.0 -0.6962 0.4659
5966000000.0 -0.07316 0.8271
5969000000.0 0.6033 0.6092
5972000000.0 0.875 -0.08303
5975000000.0 0.4861 -0.7204
5978000000.0 -0.2685 -0.8521
5981000000.0 -0.8337 -0.3553
5984000000.0 -0.8229 0.425
5988000000.0 -0.2056 0.8976
5991000000.0 0.5332 0.7106
5994000000.0 0.9332 0.05807
5997000000.0 0.6536 -0.7038
6000000000.0 -0.1302 -0.9627
6003000000.0 -0.7963 -0.4945
6006000000.0 -0.8803 0.2811
6009000000.0 -0.3394 0.9012
6012000000.0 0.4711 0.8285
6016000000.0 0.954 0.1395
6019000000.0 0.734 -0.623
6022000000.0 -0.05406 -0.9488
6025000000.0 -0.7752 -0.5833
6028000000.0 -0.9486 0.1926
6031000000.0 -0.4429 0.8693
6034000000.0 0.4003 0.907
6038000000.0 0.9415 0.2774
6041000000.0 0.8204 -0.5693
6044000000.0 0.08274 -0.9946
6047000000.0 -0.7087 -0.7132
6050000000.0 -1.015 0.1222
6053000000.0 -0.5348 0.835
6056000000.0 0.3211 0.9691
6059000000.0 0.9482 0.3452
6062000000.0 0.8813 -0.5011
6066000000.0 0.1412 -1.003
6069000000.0 -0.6707 -0.704
6072000000.0 -1.001 0.07926
6075000000.0 -0.5518 0.7862
6078000000.0 0.263 0.9317
6081000000.0 0.8925 0.3824
6084000000.0 0.819 -0.4611
6088000000.0 0.1976 -0.9377
6091000000.0 -0.5786 -0.725
6094000000.0 -0.9241 0.004701
6097000000.0 -0.5628 0.7096
6100000000.0 0.1965 0.8977
6103000000.0 0.8221 0.4037
6106000000.0 0.8207 -0.4052
6109000000.0 0.1791 -0.8401
6112000000.0 -0.5442 -0.6993
6116000000.0 -0.8914 0.006139
6119000000.0 -0.5282 0.6932
6122000000.0 0.2017 0.8419
6125000000.0 0.776 0.3632
6128000000.0 0.782 -0.376
6131000000.0 0.2195 -0.8465
6134000000.0 -0.5279 -0.6723
6138000000.0 -0.8196 0.03466
6141000000.0 -0.5417 0.6598
6144000000.0 0.1817 0.8342
6147000000.0 0.7527 0.3811
6150000000.0 0.753 -0.3449
6153000000.0 0.1989 -0.8224
6156000000.0 -0.5235 -0.7004
6159000000.0 -0.8294 -0.05607
6162000000.0 -0.5385 0.638
6166000000.0 0.1051 0.8471
6169000000.0 0.7335 0.4222
6172000000.0 0.8212 -0.3081
6175000000.0 0.2625 -0.8357
6178000000.0 -0.455 -0.7368
6181000000.0 -0.8893 -0.07068
6184000000.0 -0.6202 0.6119
6188000000.0 0.1044 0.8896
6191000000.0 0.7619 0.5064
6194000000.0 0.7928 -0.2823
6197000000.0 0.2814 -0.8244
6200000000.0 -0.4227 -0.7519
6203000000.0 -0.8656 -0.1507
6206000000.0 -0.663 0.5916
6209000000.0 0.001909 0.909
6212000000.0 0.7303 0.5625
6216000000.0 0.8573 -0.1733
6219000000.0 0.4092 -0.8111
6222000000.0 -0.3518 -0.8337
6225000000.0 -0.8377 -0.2342
6228000000.0 -0.7143 0.4982
6231000000.0 -0.03655 0.8999
6234000000.0 0.6482 0.5845
6238000000.0 0.8446 -0.1289
6241000000.0 0.4473 -0.7302
6244000000.0 -0.2549 -0.8283
6247000000.0 -0.8098 -0.3002
6250000000.0 -0.7633 0.4107
6253000000.0 -0.151 0.817
6256000000.0 0.5591 0.6433
6259000000.0 0.8265 -0.005772
6262000000.0 0.4805 -0.6336
