! Created with skrf 1.8.0 (http://scikit-rf.org).
# Hz S RI R 50.0 
!freq ReS11 ImS11
4000000000.0 -0.1375 -1.523
4003000000.0 -1.252 -0.8354
4006000000.0 -1.47 0.4445
4009000000.0 -0.5252 1.422
4012000000.0 0.7429 1.328
4016000000.0 1.52 0.2495
4019000000.0 1.103 -1.021
4022000000.0 -0.1328 -1.564
4025000000.0 -1.263 -0.9144
4028000000.0 -1.499 0.4632
4031000000.0 -0.5766 1.481
4034000000.0 0.8259 1.375
4038000000.0 1.621 0.1872
4041000000.0 1.18 -1.138
4044000000.0 -0.1212 -1.606
4047000000.0 -1.317 -0.8974
4050000000.0 -1.586 0.4779
4053000000.0 -0.6707 1.471
4056000000.0 0.7577 1.417
4059000000.0 1.575 0.3351
4062000000.0 1.281 -0.977
4066000000.0 0.02052 -1.592
4069000000.0 -1.232 -1.035
4072000000.0 -1.582 0.2749
4075000000.0 -0.8048 1.399
4078000000.0 0.5843 1.53
4081000000.0 1.541 0.5448
4084000000.0 1.429 -0.8419
4088000000.0 0.2104 -1.639
4091000000.0 -1.084 -1.206
4094000000.0 -1.587 0.1062
4097000000.0 -0.9805 1.309
4100000000.0 0.3647 1.589
4103000000.0 1.428 0.6776
4106000000.0 1.466 -0.6201
4109000000.0 0.4213 -1.523
4112000000.0 -0.8326 -1.261
4116000000.0 -1.504 -0.1913
4119000000.0 -1.102 0.9732
4122000000.0 0.03967 1.494
4125000000.0 1.165 0.9641
4128000000.0 1.434 -0.2279
4131000000.0 0.7829 -1.247
4134000000.0 -0.4167 -1.418
4138000000.0 -1.377 -0.5838
4141000000.0 -1.351 0.6427
4144000000.0 -0.3574 1.454
4147000000.0 0.8647 1.217
4150000000.0 1.525 0.144
4153000000.0 1.059 -1.053
4156000000.0 -0.1081 -1.508
4159000000.0 -1.227 -0.8833
4162000000.0 -1.458 0.3892
4166000000.0 -0.6319 1.356
4169000000.0 0.583 1.328
4172000000.0 1.435 0.4131
4175000000.0 1.232 -0.8438
4178000000.0 0.1421 -1.501
4181000000.0 -1.041 -1.055
4184000000.0 -1.49 0.07806
4188000000.0 -0.8792 1.213
4191000000.0 0.3341 1.493
4194000000.0 1.389 0.6464
4197000000.0 1.395 -0.6527
4200000000.0 0.3472 -1.535
4203000000.0 -0.9462 -1.234
4206000000.0 -1.631 -0.02742
4209000000.0 -1.066 1.273
4212000000.0 0.3556 1.618
4216000000.0 1.516 0.7466
4219000000.0 1.518 -0.7434
4222000000.0 0.3307 -1.655
4225000000.0 -1.112 -1.265
4228000000.0 -1.668 0.09055
4231000000.0 -0.9105 1.383
4234000000.0 0.5607 1.589
4238000000.0 1.571 0.5132
4241000000.0 1.324 -0.9244
4244000000.0 0.09652 -1.618
4247000000.0 -1.203 -1.021
4250000000.0 -1.549 0.3107
4253000000.0 -0.6711 1.352
4256000000.0 0.6655 1.368
4259000000.0 1.519 0.2949
4262000000.0 1.134 -0.9942
4266000000.0 -0.07141 -1.511
4269000000.0 -1.24 -0.8686
4272000000.0 -1.404 0.4538
4275000000.0 -0.5245 1.386
4278000000.0 0.7674 1.267
4281000000.0 1.425 0.1344
4284000000.0 1.001 -0.9865
4288000000.0 -0.1653 -1.39
4291000000.0 -1.14 -0.7039
4294000000.0 -1.266 0.4205
4297000000.0 -0.4925 1.234
4300000000.0 0.6238 1.167
4303000000.0 1.265 0.2398
4306000000.0 0.9916 -0.8416
4309000000.0 -0.0003564 -1.274
4312000000.0 -0.9832 -0.845
4316000000.0 -1.256 0.2011
4319000000.0 -0.67 1.085
4322000000.0 0.4737 1.224
4325000000.0 1.232 0.4976
4328000000.0 1.186 -0.6204
4331000000.0 0.2545 -1.322
4334000000.0 -0.834 -1.063
4338000000.0 -1.38 -0.07427
4341000000.0 -0.9171 1.064
4344000000.0 0.1818 1.353
4347000000.0 1.177 0.7376
4350000000.0 1.347 -0.4847
4353000000.0 0.5174 -1.349
4356000000.0 -0.7152 -1.253
4359000000.0 -1.44 -0.2527
4362000000.0 -1.13 0.9185
4366000000.0 0.03242 1.479
4369000000.0 1.113 0.9453
4372000000.0 1.428 -0.3156
4375000000.0 0.7406 -1.317
4378000000.0 -0.5334 -1.354
4381000000.0 -1.407 -0.4786
4384000000.0 -1.289 0.8444
4388000000.0 -0.165 1.533
4391000000.0 1.044 1.089
4394000000.0 1.581 -0.1684
4397000000.0 0.8186 -1.326
4400000000.0 -0.5243 -1.488
4403000000.0 -1.487 -0.52
4406000000.0 -1.338 0.8027
4409000000.0 -0.2073 1.573
4412000000.0 1.098 1.128
4416000000.0 1.536 -0.1968
4419000000.0 0.8034 -1.315
4422000000.0 -0.5314 -1.433
4425000000.0 -1.433 -0.4552
4428000000.0 -1.209 0.8403
4431000000.0 -0.1106 1.464
4434000000.0 1.092 0.9368
4438000000.0 1.369 -0.2586
4441000000.0 0.6243 -1.224
4444000000.0 -0.5732 -1.228
4447000000.0 -1.28 -0.3514
4450000000.0 -1.018 0.857
4453000000.0 0.0255 1.305
4456000000.0 1.021 0.7542
4459000000.0 1.229 -0.3727
4462000000.0 0.447 -1.182
4466000000.0 -0.6295 -1.1
4469000000.0 -1.191 -0.1731
4472000000.0 -0.8214 0.8568
4475000000.0 0.1602 1.162
4478000000.0 1.046 0.5698
4481000000.0 1.107 -0.4176
4484000000.0 0.3284 -1.075
4488000000.0 -0.6516 -0.9476
4491000000.0 -1.124 -0.07571
4494000000.0 -0.748 0.8323
4497000000.0 0.1627 1.119
4500000000.0 0.9796 0.5519
4503000000.0 0.9886 -0.3824
4506000000.0 0.3293 -1.028
4509000000.0 -0.6187 -0.9232
4512000000.0 -1.115 -0.08161
4516000000.0 -0.7826 0.7961
4519000000.0 0.1129 1.086
4522000000.0 0.968 0.5969
4525000000.0 1.087 -0.3699
4528000000.0 0.4392 -1.095
4531000000.0 -0.5682 -0.992
4534000000.0 -1.123 -0.1815
4538000000.0 -0.8944 0.7453
4541000000.0 0.03484 1.183
4544000000.0 0.9039 0.7317
4547000000.0 1.174 -0.2331
4550000000.0 0.5591 -1.067
4553000000.0 -0.47 -1.101
4556000000.0 -1.147 -0.3759
4559000000.0 -1.031 0.6376
4562000000.0 -0.1406 1.248
4566000000.0 0.8422 0.932
4569000000.0 1.261 -0.06462
4572000000.0 0.7948 -0.9937
4575000000.0 -0.2712 -1.265
4578000000.0 -1.126 -0.6055
4581000000.0 -1.212 0.5084
4584000000.0 -0.4152 1.273
4588000000.0 0.7403 1.12
4591000000.0 1.328 0.1463
4594000000.0 0.9994 -0.9329
4597000000.0 -0.09004 -1.346
4600000000.0 -1.144 -0.7476
4603000000.0 -1.347 0.3615
4606000000.0 -0.5426 1.232
4609000000.0 0.63 1.249
4612000000.0 1.357 0.3142
4616000000.0 1.096 -0.8484
4619000000.0 0.02968 -1.395
4622000000.0 -1.061 -0.8944
4625000000.0 -1.371 0.2287
4628000000.0 -0.6665 1.228
4631000000.0 0.5316 1.292
4634000000.0 1.331 0.3876
4638000000.0 1.089 -0.7846
4641000000.0 0.1185 -1.335
4644000000.0 -1.005 -0.9193
4647000000.0 -1.342 0.204
4650000000.0 -0.6955 1.16
4653000000.0 0.5259 1.205
4656000000.0 1.252 0.3602
4659000000.0 1.025 -0.7151
4662000000.0 0.0867 -1.24
4666000000.0 -0.916 -0.824
4669000000.0 -1.191 0.2187
4672000000.0 -0.5908 1.05
4675000000.0 0.4374 1.102
4678000000.0 1.093 0.3116
4681000000.0 0.9473 -0.6548
4684000000.0 0.05794 -1.091
4688000000.0 -0.8409 -0.7561
4691000000.0 -1.107 0.1931
4694000000.0 -0.521 0.9741
4697000000.0 0.4528 0.9731
4700000000.0 1.034 0.2881
4703000000.0 0.8751 -0.6358
4706000000.0 0.05318 -1.088
4709000000.0 -0.8378 -0.6939
4712000000.0 -1.027 0.2176
4716000000.0 -0.4663 0.9119
4719000000.0 0.4445 0.9712
4722000000.0 1.005 0.2492
4725000000.0 0.8645 -0.6445
4728000000.0 0.02472 -1.07
4731000000.0 -0.784 -0.6779
4734000000.0 -1.013 0.19
4738000000.0 -0.4955 0.8701
4741000000.0 0.3729 0.9692
4744000000.0 0.9991 0.3443
4747000000.0 0.8909 -0.5333
4750000000.0 0.1542 -1.067
4753000000.0 -0.722 -0.819
4756000000.0 -1.089 0.02834
4759000000.0 -0.6799 0.86
4762000000.0 0.2305 1.088
4766000000.0 1.04 0.5227
4769000000.0 1.027 -0.4429
4772000000.0 0.358 -1.088
4775000000.0 -0.6349 -0.965
4778000000.0 -1.147 -0.1458
4781000000.0 -0.8579 0.8056
4784000000.0 0.04716 1.199
4788000000.0 0.9806 0.7125
4791000000.0 1.191 -0.2811
4794000000.0 0.5655 -1.077
4797000000.0 -0.4848 -1.137
4800000000.0 -1.189 -0.3865
4803000000.0 -1.017 0.663
4806000000.0 -0.1996 1.223
4809000000.0 0.8445 0.9385
4812000000.0 1.309 -0.0376
4816000000.0 0.7996 -1.024
4819000000.0 -0.2509 -1.28
4822000000.0 -1.181 -0.6371
4825000000.0 -1.231 0.4963
4828000000.0 -0.3802 1.314
4831000000.0 0.7565 1.119
4834000000.0 1.355 0.1221
4838000000.0 0.9725 -0.9821
4841000000.0 -0.1347 -1.368
4844000000.0 -1.167 -0.746
4847000000.0 -1.33 0.3994
4850000000.0 -0.4984 1.267
4853000000.0 0.6498 1.221
4856000000.0 1.361 0.2578
4859000000.0 1.025 -0.8762
4862000000.0 -0.00822 -1.374
4866000000.0 -1.076 -0.8129
4869000000.0 -1.297 0.2782
4872000000.0 -0.6043 1.165
4875000000.0 0.5572 1.181
4878000000.0 1.248 0.3334
4881000000.0 1.03 -0.7734
4884000000.0 0.0248 -1.256
4888000000.0 -0.9422 -0.7919
4891000000.0 -1.199 0.1949
4894000000.0 -0.5764 1.065
4897000000.0 0.4533 1.049
4900000000.0 1.081 0.2925
4903000000.0 0.9176 -0.6526
4906000000.0 0.09876 -1.104
4909000000.0 -0.7829 -0.7262
4912000000.0 -1.018 0.1442
4916000000.0 -0.5308 0.8718
4919000000.0 0.3451 0.9408
4922000000.0 0.9244 0.3187
4925000000.0 0.8201 -0.4677
4928000000.0 0.1668 -0.9172
4931000000.0 -0.6241 -0.7081
4934000000.0 -0.9511 0.04822
4938000000.0 -0.5676 0.7783
4941000000.0 0.2346 0.9015
4944000000.0 0.8491 0.3995
4947000000.0 0.8415 -0.3832
4950000000.0 0.2285 -0.9128
4953000000.0 -0.5517 -0.777
4956000000.0 -0.9546 -0.05806
4959000000.0 -0.6406 0.7185
4962000000.0 0.1724 0.9684
4966000000.0 0.8548 0.5146
4969000000.0 0.9072 -0.3739
4972000000.0 0.3085 -0.947
4975000000.0 -0.5363 -0.8574
4978000000.0 -1.014 -0.1252
4981000000.0 -0.7404 0.6933
4984000000.0 0.06974 1.025
4988000000.0 0.8489 0.6293
4991000000.0 1.054 -0.2595
4994000000.0 0.4907 -0.9824
4997000000.0 -0.4428 -0.9759
5000000000.0 -1.099 -0.2832
5003000000.0 -0.9202 0.6719
5006000000.0 -0.08207 1.16
5009000000.0 0.8211 0.811
5012000000.0 1.183 -0.1421
5016000000.0 0.6407 -0.9935
5019000000.0 -0.3558 -1.185
5022000000.0 -1.163 -0.4561
5025000000.0 -1.111 0.617
5028000000.0 -0.2405 1.273
5031000000.0 0.8492 0.9675
5034000000.0 1.272 -0.02105
5038000000.0 0.804 -0.9914
5041000000.0 -0.2328 -1.259
5044000000.0 -1.118 -0.6458
5047000000.0 -1.216 0.462
5050000000.0 -0.3968 1.202
5053000000.0 0.6844 1.093
5056000000.0 1.269 0.19
5059000000.0 0.9874 -0.8245
5062000000.0 -0.06776 -1.267
5066000000.0 -1.015 -0.7972
5069000000.0 -1.276 0.2529
5072000000.0 -0.5918 1.164
5075000000.0 0.5062 1.181
5078000000.0 1.22 0.3382
5081000000.0 1.075 -0.6746
5084000000.0 0.1442 -1.23
5088000000.0 -0.8515 -0.8753
5091000000.0 -1.195 0.08214
5094000000.0 -0.6831 0.9536
5097000000.0 0.2776 1.104
5100000000.0 1.023 0.5032
5103000000.0 1.021 -0.4548
5106000000.0 0.2954 -1.073
5109000000.0 -0.6433 -0.9261
5112000000.0 -1.078 -0.1183
5116000000.0 -0.7591 0.7454
5119000000.0 0.07643 1.035
5122000000.0 0.8555 0.639
5125000000.0 1.003 -0.2602
5128000000.0 0.4366 -0.9006
5131000000.0 -0.4161 -0.9196
5134000000.0 -1.019 -0.2501
5138000000.0 -0.7929 0.5753
5141000000.0 -0.05196 0.992
5144000000.0 0.7013 0.6621
5147000000.0 0.9447 -0.1426
5150000000.0 0.4855 -0.7776
5153000000.0 -0.334 -0.9216
5156000000.0 -0.8378 -0.352
5159000000.0 -0.7836 0.4742
5162000000.0 -0.1163 0.8753
5166000000.0 0.6041 0.6775
5169000000.0 0.9027 -0.03345
5172000000.0 0.5349 -0.7454
5175000000.0 -0.2233 -0.9046
5178000000.0 -0.8225 -0.3668
5181000000.0 -0.8412 0.4096
5184000000.0 -0.1848 0.889
5188000000.0 0.5909 0.7177
5191000000.0 0.9239 -0.02569
5194000000.0 0.5302 -0.7411
5197000000.0 -0.2281 -0.9328
5200000000.0 -0.8319 -0.3851
5203000000.0 -0.856 0.4354
5206000000.0 -0.1888 0.9327
5209000000.0 0.6235 0.742
5212000000.0 0.9579 0.01471
5216000000.0 0.5893 -0.7414
5219000000.0 -0.217 -0.9696
5222000000.0 -0.8856 -0.4445
5225000000.0 -0.9204 0.4351
5228000000.0 -0.2567 0.946
5231000000.0 0.6111 0.8511
5234000000.0 1.008 0.07468
5238000000.0 0.7103 -0.7468
5241000000.0 -0.1303 -1.001
5244000000.0 -0.8816 -0.5398
5247000000.0 -0.969 0.3337
5250000000.0 -0.4145 0.9685
5253000000.0 0.5248 0.9247
5256000000.0 1.035 0.1934
5259000000.0 0.8152 -0.6561
5262000000.0 0.006884 -1.096
5266000000.0 -0.8176 -0.69
5269000000.0 -1.055 0.1568
5272000000.0 -0.581 0.938
5275000000.0 0.3513 0.994
5278000000.0 1.002 0.3968
5281000000.0 0.9653 -0.5475
5284000000.0 0.2169 -1.075
5288000000.0 -0.6886 -0.8999
5291000000.0 -1.126 -0.03028
5294000000.0 -0.7593 0.793
5297000000.0 0.1322 1.097
5300000000.0 0.9057 0.6433
5303000000.0 1.07 -0.3156
5306000000.0 0.4687 -1.045
5309000000.0 -0.4672 -1.022
5312000000.0 -1.108 -0.3126
5316000000.0 -0.9095 0.6776
5319000000.0 -0.07108 1.158
5322000000.0 0.8179 0.8137
5325000000.0 1.135 -0.1396
5328000000.0 0.6506 -0.9428
5331000000.0 -0.3093 -1.083
5334000000.0 -1.037 -0.4755
5338000000.0 -1.047 0.5184
5341000000.0 -0.2639 1.076
5344000000.0 0.6876 0.9236
5347000000.0 1.104 0.04722
5350000000.0 0.7399 -0.8543
5353000000.0 -0.1816 -1.098
5356000000.0 -0.9411 -0.5436
5359000000.0 -1.023 0.3627
5362000000.0 -0.3426 1.013
5366000000.0 0.5597 0.9152
5369000000.0 1.078 0.1533
5372000000.0 0.7523 -0.7378
5375000000.0 -0.1011 -1.051
5378000000.0 -0.8488 -0.5601
5381000000.0 -0.9663 0.2966
5384000000.0 -0.3236 0.9414
5388000000.0 0.522 0.8137
5391000000.0 0.9497 0.09964
5394000000.0 0.6613 -0.6864
5397000000.0 -0.1117 -0.9255
5400000000.0 -0.7605 -0.4694
5403000000.0 -0.8412 0.3169
5406000000.0 -0.296 0.8348
5409000000.0 0.4831 0.7026
5412000000.0 0.864 0.07045
5416000000.0 0.5894 -0.6483
5419000000.0 -0.1221 -0.8525
5422000000.0 -0.75 -0.4413
5425000000.0 -0.8197 0.3074
5428000000.0 -0.2501 0.8309
5431000000.0 0.5087 0.715
5434000000.0 0.8732 0.06661
5438000000.0 0.5763 -0.6467
5441000000.0 -0.115 -0.8546
5444000000.0 -0.7673 -0.4631
5447000000.0 -0.8258 0.3208
5450000000.0 -0.2763 0.8363
5453000000.0 0.5096 0.7364
5456000000.0 0.8596 0.1072
5459000000.0 0.627 -0.6086
5462000000.0 -0.0509 -0.8721
5466000000.0 -0.7324 -0.531
5469000000.0 -0.8767 0.2183
5472000000.0 -0.3732 0.8591
5475000000.0 0.4183 0.8101
5478000000.0 0.8669 0.2367
5481000000.0 0.7929 -0.5591
5484000000.0 0.06496 -0.9612
5488000000.0 -0.7027 -0.6472
5491000000.0 -0.9701 0.1224
5494000000.0 -0.5521 0.815
5497000000.0 0.2663 0.9618
5500000000.0 0.9222 0.4054
5503000000.0 0.8997 -0.4265
5506000000.0 0.2171 -0.9935
5509000000.0 -0.6236 -0.8049
5512000000.0 -1.04 -0.06414
5516000000.0 -0.679 0.7465
5519000000.0 0.1087 1.008
5522000000.0 0.8292 0.5875
5525000000.0 1.006 -0.2612
5528000000.0 0.4266 -0.947
5531000000.0 -0.4817 -0.91
5534000000.0 -0.9934 -0.2743
5538000000.0 -0.8603 0.608
5541000000.0 -0.09462 1.04
5544000000.0 0.7611 0.7394
5547000000.0 1.065 -0.08877
5550000000.0 0.6109 -0.9022
5553000000.0 -0.2964 -1.047
5556000000.0 -0.97 -0.4357
5559000000.0 -0.9338 0.4638
5562000000.0 -0.2548 1.025
5566000000.0 0.6555 0.8134
5569000000.0 1.047 0.02227
5572000000.0 0.6843 -0.7721
5575000000.0 -0.14 -1.004
5578000000.0 -0.8678 -0.5019
5581000000.0 -0.9412 0.3236
5584000000.0 -0.3441 0.9108
5588000000.0 0.4731 0.843
5591000000.0 0.9416 0.1403
5594000000.0 0.7225 -0.6137
5597000000.0 0.001007 -0.9381
5600000000.0 -0.7125 -0.5545
5603000000.0 -0.919 0.2103
5606000000.0 -0.4078 0.8108
5609000000.0 0.3631 0.8242
5612000000.0 0.861 0.2282
5616000000.0 0.6802 -0.5026
5619000000.0 0.02807 -0.8694
5622000000.0 -0.6397 -0.5816
5625000000.0 -0.8536 0.1393
5628000000.0 -0.3978 0.7298
5631000000.0 0.2988 0.7838
5634000000.0 0.7956 0.2401
5638000000.0 0.681 -0.4583
5641000000.0 0.06889 -0.8313
5644000000.0 -0.5945 -0.5592
5647000000.0 -0.8372 0.1059
5650000000.0 -0.4105 0.7174
5653000000.0 0.3082 0.8065
5656000000.0 0.8138 0.2502
5659000000.0 0.7159 -0.4798
5662000000.0 0.105 -0.8593
5666000000.0 -0.6212 -0.6199
5669000000.0 -0.8687 0.1273
5672000000.0 -0.4745 0.7548
5675000000.0 0.3225 0.8407
5678000000.0 0.8654 0.2903
5681000000.0 0.7808 -0.4776
5684000000.0 0.1215 -0.9117
5688000000.0 -0.6463 -0.6525
5691000000.0 -0.9688 0.1072
5694000000.0 -0.5259 0.831
5697000000.0 0.3204 0.9384
5700000000.0 0.9371 0.3688
5703000000.0 0.8807 -0.5156
5706000000.0 0.1688 -0.9719
5709000000.0 -0.6626 -0.7521
5712000000.0 -1.045 0.06559
5716000000.0 -0.6192 0.816
5719000000.0 0.2162 0.9963
5722000000.0 0.9244 0.4727
5725000000.0 0.9817 -0.4389
5728000000.0 0.2703 -1.004
5731000000.0 -0.6149 -0.8615
5734000000.0 -1.078 -0.03866
5738000000.0 -0.774 0.7898
5741000000.0 0.1137 1.055
5744000000.0 0.9087 0.5994
5747000000.0 1.091 -0.2878
5750000000.0 0.4462 -1.013
5753000000.0 -0.4911 -0.9777
5756000000.0 -1.092 -0.2596
5759000000.0 -0.8433 0.6839
5762000000.0 -0.07999 1.108
5766000000.0 0.8231 0.7533
5769000000.0 1.099 -0.1588
5772000000.0 0.6012 -0.9193
5775000000.0 -0.3169 -1.033
5778000000.0 -1.006 -0.4168
5781000000.0 -0.9778 0.4849
5784000000.0 -0.2627 1.07
5788000000.0 0.6454 0.8084
5791000000.0 1.097 0.03783
5794000000.0 0.7059 -0.7466
5797000000.0 -0.1645 -1.029
5800000000.0 -0.9376 -0.5367
5803000000.0 -1.012 0.3412
5806000000.0 -0.3627 0.9948
5809000000.0 0.5176 0.9231
5812000000.0 1.06 0.1422
5816000000.0 0.7595 -0.6689
5819000000.0 -0.04681 -1.002
5822000000.0 -0.8318 -0.6485
5825000000.0 -0.9586 0.1758
5828000000.0 -0.4387 0.8801
5831000000.0 0.424 0.8888
5834000000.0 0.9315 0.2674
5838000000.0 0.7767 -0.5741
5841000000.0 0.07414 -0.9491
5844000000.0 -0.7027 -0.6301
5847000000.0 -0.9547 0.1328
5850000000.0 -0.4719 0.8232
5853000000.0 0.3416 0.8796
5856000000.0 0.8702 0.2902
5859000000.0 0.7562 -0.5255
5862000000.0 0.07219 -0.8857
5866000000.0 -0.7029 -0.6355
5869000000.0 -0.8988 0.0897
5872000000.0 -0.4639 0.7473
5875000000.0 0.3242 0.8369
5878000000.0 0.8379 0.2955
5881000000.0 0.7318 -0.4557
5884000000.0 0.1162 -0.8793
5888000000.0 -0.6008 -0.6068
5891000000.0 -0.864 0.08252
5894000000.0 -0.4721 0.7204
5897000000.0 0.2512 0.7958
5900000000.0 0.7768 0.3337
5903000000.0 0.727 -0.4154
5906000000.0 0.1235 -0.8397
5909000000.0 -0.5414 -0.6665
5912000000.0 -0.8602 0.0132
5916000000.0 -0.5003 0.7145
5919000000.0 0.179 0.842
5922000000.0 0.7644 0.3904
5925000000.0 0.7767 -0.3445
5928000000.0 0.2569 -0.8223
5931000000.0 -0.4841 -0.7125
5934000000.0 -0.8869 -0.07968
5938000000.0 -0.5986 0.6293
5941000000.0 0.0863 0.8902
5944000000.0 0.7482 0.5151
5947000000.0 0.8544 -0.2534
5950000000.0 0.3857 -0.8304
5953000000.0 -0.4194 -0.821
5956000000.0 -0.9034 -0.18
5959000000.0 -0.7342 0.5595
5962000000.0 -0.05267 0.9041
5966000000.0 0.6628 0.6335
5969000000.0 0.9505 -0.1205
5972000000.0 0.4975 -0.8066
5975000000.0 -0.2709 -0.9482
5978000000.0 -0.8725 -0.3713
5981000000.0 -0.8596 0.4247
5984000000.0 -0.199 0.945
5988000000.0 0.6124 0.7726
5991000000.0 0.9588 0.03802
5994000000.0 0.6424 -0.727
5997000000.0 -0.1347 -0.9987
6000000000.0 -0.8696 -0.5133
6003000000.0 -0.9368 0.3351
6006000000.0 -0.3393 0.9084
6009000000.0 0.496 0.8605
6012000000.0 0.9792 0.201
6016000000.0 0.7524 -0.6438
6019000000.0 -0.03503 -0.9747
6022000000.0 -0.7721 -0.6035
6025000000.0 -0.9669 0.2078
6028000000.0 -0.4342 0.884
6031000000.0 0.3985 0.891
6034000000.0 0.9308 0.2253
6038000000.0 0.7868 -0.5544
6041000000.0 0.0469 -0.9447
6044000000.0 -0.6978 -0.6527
6047000000.0 -0.9418 0.1342
6050000000.0 -0.4584 0.8079
6053000000.0 0.3455 0.8766
6056000000.0 0.87 0.2754
6059000000.0 0.7912 -0.5044
6062000000.0 0.1182 -0.9029
6066000000.0 -0.6381 -0.6411
6069000000.0 -0.8995 0.05854
6072000000.0 -0.5154 0.7432
6075000000.0 0.2557 0.8296
6078000000.0 0.8218 0.331
6081000000.0 0.7595 -0.4267
6084000000.0 0.114 -0.8553
6088000000.0 -0.5683 -0.6344
6091000000.0 -0.8403 0.03191
6094000000.0 -0.4911 0.6871
6097000000.0 0.2254 0.8107
6100000000.0 0.7867 0.3801
6103000000.0 0.7622 -0.3853
6106000000.0 0.1843 -0.8288
6109000000.0 -0.5522 -0.6845
6112000000.0 -0.8746 6.313e-05
6116000000.0 -0.5376 0.6799
6119000000.0 0.1919 0.8337
6122000000.0 0.7855 0.3887
6125000000.0 0.7728 -0.3483
6128000000.0 0.2339 -0.8235
6131000000.0 -0.506 -0.685
6134000000.0 -0.9008 -0.02081
6138000000.0 -0.5751 0.6507
6141000000.0 0.1205 0.859
6144000000.0 0.7539 0.4239
6147000000.0 0.8494 -0.3213
6150000000.0 0.2806 -0.8558
6153000000.0 -0.4774 -0.7531
6156000000.0 -0.8968 -0.1115
6159000000.0 -0.637 0.6059
6162000000.0 0.07454 0.923
6166000000.0 0.7524 0.5122
6169000000.0 0.8595 -0.232
6172000000.0 0.3829 -0.8568
6175000000.0 -0.4106 -0.8549
6178000000.0 -0.922 -0.197
6181000000.0 -0.7239 0.5854
6184000000.0 -0.008282 0.9755
6188000000.0 0.7346 0.5892
6191000000.0 0.9197 -0.1625
6194000000.0 0.4207 -0.8223
6197000000.0 -0.3565 -0.8804
6200000000.0 -0.8993 -0.2884
6203000000.0 -0.7717 0.4965
6206000000.0 -0.07955 0.917
6209000000.0 0.6427 0.6803
6212000000.0 0.9525 -0.08582
6216000000.0 0.5498 -0.7603
6219000000.0 -0.2461 -0.9193
6222000000.0 -0.8479 -0.3581
6225000000.0 -0.8051 0.438
6228000000.0 -0.2207 0.8842
6231000000.0 0.5292 0.7225
6234000000.0 0.8752 0.01622
6238000000.0 0.5928 -0.6088
6241000000.0 -0.121 -0.8412
6244000000.0 -0.7581 -0.4683
6247000000.0 -0.7876 0.2521
6250000000.0 -0.3252 0.7941
6253000000.0 0.4131 0.7373
6256000000.0 0.8225 0.1407
6259000000.0 0.6661 -0.4798
6262000000.0 0.02836 -0.8216
6266000000.0 -0.605 -0.5216
