! Created with skrf 1.8.0 (http://scikit-rf.org).
# Hz S RI R 50.0 
!freq ReS11 ImS11
4000000000.0 -0.2269 -1.513
4003000000.0 -1.29 -0.7534
4006000000.0 -1.377 0.4946
4009000000.0 -0.4976 1.49
4012000000.0 0.8346 1.275
4016000000.0 1.543 0.1835
4019000000.0 1.046 -1.121
4022000000.0 -0.1893 -1.579
4025000000.0 -1.356 -0.8349
4028000000.0 -1.506 0.5532
4031000000.0 -0.5197 1.491
4034000000.0 0.837 1.384
4038000000.0 1.618 0.1567
4041000000.0 1.142 -1.172
4044000000.0 -0.1723 -1.605
4047000000.0 -1.38 -0.8589
4050000000.0 -1.555 0.5096
4053000000.0 -0.5709 1.53
4056000000.0 0.8105 1.434
4059000000.0 1.612 0.2589
4062000000.0 1.202 -1.018
4066000000.0 -0.03166 -1.616
4069000000.0 -1.264 -1.005
4072000000.0 -1.59 0.3734
4075000000.0 -0.7319 1.464
4078000000.0 0.6355 1.53
4081000000.0 1.567 0.4708
4084000000.0 1.313 -0.9218
4088000000.0 0.2011 -1.644
4091000000.0 -1.135 -1.155
4094000000.0 -1.671 0.1555
4097000000.0 -0.8904 1.368
4100000000.0 0.4212 1.571
4103000000.0 1.452 0.6297
4106000000.0 1.444 -0.7078
4109000000.0 0.3791 -1.515
4112000000.0 -0.8907 -1.257
4116000000.0 -1.515 -0.1287
4119000000.0 -1.075 1.031
4122000000.0 0.09026 1.484
4125000000.0 1.159 0.8831
4128000000.0 1.435 -0.2976
4131000000.0 0.6894 -1.279
4134000000.0 -0.4718 -1.386
4138000000.0 -1.405 -0.5298
4141000000.0 -1.333 0.727
4144000000.0 -0.3294 1.476
4147000000.0 0.8882 1.183
4150000000.0 1.498 0.05686
4153000000.0 1.029 -1.091
4156000000.0 -0.1717 -1.527
4159000000.0 -1.269 -0.8369
4162000000.0 -1.444 0.4456
4166000000.0 -0.5881 1.372
4169000000.0 0.6943 1.333
4172000000.0 1.466 0.3614
4175000000.0 1.209 -0.9285
4178000000.0 0.08399 -1.473
4181000000.0 -1.102 -1.046
4184000000.0 -1.462 0.1969
4188000000.0 -0.8046 1.273
4191000000.0 0.4813 1.443
4194000000.0 1.412 0.5582
4197000000.0 1.34 -0.7651
4200000000.0 0.2949 -1.545
4203000000.0 -1.043 -1.2
4206000000.0 -1.655 0.08323
4209000000.0 -0.9739 1.342
4212000000.0 0.4697 1.569
4216000000.0 1.576 0.6308
4219000000.0 1.369 -0.8818
4222000000.0 0.1591 -1.681
4225000000.0 -1.203 -1.158
4228000000.0 -1.667 0.2814
4231000000.0 -0.8015 1.477
4234000000.0 0.7151 1.499
4238000000.0 1.612 0.3522
4241000000.0 1.212 -1.046
4244000000.0 -0.07029 -1.63
4247000000.0 -1.319 -0.8865
4250000000.0 -1.487 0.466
4253000000.0 -0.541 1.467
4256000000.0 0.8392 1.343
4259000000.0 1.517 0.1316
4262000000.0 1.041 -1.085
4266000000.0 -0.2428 -1.481
4269000000.0 -1.303 -0.7641
4272000000.0 -1.356 0.5831
4275000000.0 -0.3806 1.415
4278000000.0 0.8908 1.143
4281000000.0 1.422 0.03018
4284000000.0 0.8779 -1.119
4288000000.0 -0.2684 -1.399
4291000000.0 -1.245 -0.6322
4294000000.0 -1.256 0.536
4297000000.0 -0.3435 1.28
4300000000.0 0.7466 1.085
4303000000.0 1.298 0.1592
4306000000.0 0.8847 -0.9145
4309000000.0 -0.1077 -1.276
4312000000.0 -1.061 -0.7212
4316000000.0 -1.278 0.3239
4319000000.0 -0.5937 1.132
4322000000.0 0.4807 1.212
4325000000.0 1.299 0.4088
4328000000.0 1.116 -0.7116
4331000000.0 0.1646 -1.362
4334000000.0 -0.962 -1.001
4338000000.0 -1.41 0.04548
4341000000.0 -0.8704 1.127
4344000000.0 0.3312 1.374
4347000000.0 1.294 0.6113
4350000000.0 1.291 -0.5976
4353000000.0 0.375 -1.37
4356000000.0 -0.8409 -1.194
4359000000.0 -1.44 -0.1022
4362000000.0 -1.007 1.044
4366000000.0 0.1545 1.489
4369000000.0 1.25 0.8158
4372000000.0 1.451 -0.4557
4375000000.0 0.5718 -1.378
4378000000.0 -0.7229 -1.347
4381000000.0 -1.52 -0.3003
4384000000.0 -1.209 1.006
4388000000.0 0.01093 1.578
4391000000.0 1.25 0.9602
4394000000.0 1.554 -0.3519
4397000000.0 0.6681 -1.405
4400000000.0 -0.6824 -1.448
4403000000.0 -1.546 -0.3494
4406000000.0 -1.216 0.9947
4409000000.0 0.07136 1.558
4412000000.0 1.267 0.9597
4416000000.0 1.482 -0.4409
4419000000.0 0.5869 -1.376
4422000000.0 -0.7803 -1.325
4425000000.0 -1.436 -0.2007
4428000000.0 -1.05 1.009
4431000000.0 0.1581 1.427
4434000000.0 1.178 0.7575
4438000000.0 1.313 -0.4764
4441000000.0 0.4568 -1.306
4444000000.0 -0.7516 -1.115
4447000000.0 -1.317 -0.08559
4450000000.0 -0.8997 0.9428
4453000000.0 0.263 1.296
4456000000.0 1.134 0.5775
4459000000.0 1.115 -0.5424
4462000000.0 0.26 -1.228
4466000000.0 -0.7927 -0.9168
4469000000.0 -1.207 0.03565
4472000000.0 -0.6959 0.956
4475000000.0 0.3436 1.133
4478000000.0 1.115 0.4245
4481000000.0 1.034 -0.5834
4484000000.0 0.1519 -1.13
4488000000.0 -0.7635 -0.8328
4491000000.0 -1.135 0.1089
4494000000.0 -0.6257 0.9342
4497000000.0 0.3542 1.072
4500000000.0 1.059 0.4171
4503000000.0 0.9481 -0.5625
4506000000.0 0.1843 -1.092
4509000000.0 -0.7351 -0.8367
4512000000.0 -1.136 0.05974
4516000000.0 -0.6505 0.9047
4519000000.0 0.3178 1.091
4522000000.0 1.031 0.4544
4525000000.0 1.039 -0.4911
4528000000.0 0.2693 -1.138
4531000000.0 -0.734 -0.9104
4534000000.0 -1.183 -0.04528
4538000000.0 -0.7841 0.8918
4541000000.0 0.1644 1.171
4544000000.0 1.042 0.631
4547000000.0 1.14 -0.3901
4550000000.0 0.4181 -1.15
4553000000.0 -0.6141 -1.102
4556000000.0 -1.255 -0.2461
4559000000.0 -0.9716 0.7971
4562000000.0 -0.005792 1.263
4566000000.0 0.9682 0.8128
4569000000.0 1.263 -0.1922
4572000000.0 0.6856 -1.101
4575000000.0 -0.4414 -1.242
4578000000.0 -1.241 -0.4679
4581000000.0 -1.162 0.6532
4584000000.0 -0.228 1.33
4588000000.0 0.8749 1.04
4591000000.0 1.4 0.001164
4594000000.0 0.8585 -1.074
4597000000.0 -0.3017 -1.351
4600000000.0 -1.223 -0.6471
4603000000.0 -1.308 0.5344
4606000000.0 -0.4037 1.363
4609000000.0 0.8124 1.148
4612000000.0 1.407 0.119
4616000000.0 0.9503 -0.9945
4619000000.0 -0.1595 -1.378
4622000000.0 -1.188 -0.7446
4625000000.0 -1.323 0.463
4628000000.0 -0.4884 1.312
4631000000.0 0.7085 1.189
4634000000.0 1.359 0.1782
4638000000.0 0.9929 -0.9161
4641000000.0 -0.1222 -1.353
4644000000.0 -1.1 -0.7609
4647000000.0 -1.257 0.4316
4650000000.0 -0.4698 1.221
4653000000.0 0.6877 1.107
4656000000.0 1.247 0.1894
4659000000.0 0.894 -0.8669
4662000000.0 -0.1279 -1.215
4666000000.0 -1.029 -0.6588
4669000000.0 -1.124 0.3642
4672000000.0 -0.3803 1.111
4675000000.0 0.6303 1.012
4678000000.0 1.147 0.1304
4681000000.0 0.807 -0.7919
4684000000.0 -0.1423 -1.1
4688000000.0 -0.9307 -0.5733
4691000000.0 -1.045 0.4009
4694000000.0 -0.3783 1.007
4697000000.0 0.5851 0.9162
4700000000.0 1.095 0.136
4703000000.0 0.78 -0.7671
4706000000.0 -0.1416 -1.083
4709000000.0 -0.938 -0.5507
4712000000.0 -0.9937 0.3751
4716000000.0 -0.3421 1.011
4719000000.0 0.6163 0.8908
4722000000.0 1.076 0.1238
4725000000.0 0.7359 -0.7565
4728000000.0 -0.08478 -1.057
4731000000.0 -0.8886 -0.5895
4734000000.0 -0.996 0.2928
4738000000.0 -0.4295 0.9572
4741000000.0 0.4839 0.9407
4744000000.0 1.02 0.204
4747000000.0 0.8663 -0.6574
4750000000.0 0.06608 -1.072
4753000000.0 -0.8062 -0.7228
4756000000.0 -1.083 0.1761
4759000000.0 -0.5878 0.9514
4762000000.0 0.3788 1.078
4766000000.0 1.077 0.4176
4769000000.0 1.007 -0.5563
4772000000.0 0.194 -1.16
4775000000.0 -0.7635 -0.8953
4778000000.0 -1.18 -0.01432
4781000000.0 -0.7926 0.9154
4784000000.0 0.2038 1.232
4788000000.0 1.067 0.6223
4791000000.0 1.148 -0.4436
4794000000.0 0.4633 -1.152
4797000000.0 -0.6067 -1.117
4800000000.0 -1.277 -0.2572
4803000000.0 -0.9902 0.7621
4806000000.0 -0.04593 1.274
4809000000.0 0.9741 0.8632
4812000000.0 1.302 -0.171
4816000000.0 0.6996 -1.127
4819000000.0 -0.421 -1.255
4822000000.0 -1.268 -0.4973
4825000000.0 -1.184 0.6782
4828000000.0 -0.2511 1.361
4831000000.0 0.9298 1.072
4834000000.0 1.398 -0.04621
4838000000.0 0.8515 -1.116
4841000000.0 -0.313 -1.358
4844000000.0 -1.252 -0.6295
4847000000.0 -1.26 0.5986
4850000000.0 -0.3455 1.36
4853000000.0 0.8029 1.115
4856000000.0 1.366 0.07606
4859000000.0 0.9175 -0.9883
4862000000.0 -0.1571 -1.296
4866000000.0 -1.143 -0.6819
4869000000.0 -1.246 0.4521
4872000000.0 -0.4174 1.221
4875000000.0 0.6808 1.08
4878000000.0 1.268 0.1638
4881000000.0 0.9021 -0.8873
4884000000.0 -0.1015 -1.233
4888000000.0 -1.009 -0.6784
4891000000.0 -1.112 0.3677
4894000000.0 -0.3961 1.08
4897000000.0 0.5718 0.9714
4900000000.0 1.098 0.1826
4903000000.0 0.8181 -0.7429
4906000000.0 -0.07181 -1.065
4909000000.0 -0.878 -0.6153
4912000000.0 -1.013 0.2685
4916000000.0 -0.3975 0.9276
4919000000.0 0.4354 0.8813
4922000000.0 0.9529 0.2056
4925000000.0 0.7482 -0.605
4928000000.0 0.01679 -0.9545
4931000000.0 -0.7004 -0.6179
4934000000.0 -0.9372 0.1464
4938000000.0 -0.4653 0.832
4941000000.0 0.3546 0.8924
4944000000.0 0.8833 0.289
4947000000.0 0.7848 -0.5211
4950000000.0 0.1001 -0.9203
4953000000.0 -0.6681 -0.714
4956000000.0 -0.9604 0.09912
4959000000.0 -0.5504 0.8223
4962000000.0 0.2694 0.9387
4966000000.0 0.9311 0.3829
4969000000.0 0.8963 -0.4766
4972000000.0 0.1958 -0.9888
4975000000.0 -0.679 -0.8019
4978000000.0 -1.029 -0.004977
4981000000.0 -0.6653 0.811
4984000000.0 0.196 1.019
4988000000.0 0.9545 0.5177
4991000000.0 1.002 -0.3994
4994000000.0 0.3334 -1.046
4997000000.0 -0.6043 -0.9495
5000000000.0 -1.146 -0.148
5003000000.0 -0.8441 0.7784
5006000000.0 0.06424 1.169
5009000000.0 0.9625 0.7277
5012000000.0 1.199 -0.2808
5016000000.0 0.5547 -1.105
5019000000.0 -0.5222 -1.125
5022000000.0 -1.241 -0.3294
5025000000.0 -1.038 0.7398
5028000000.0 -0.08333 1.292
5031000000.0 0.9244 0.8706
5034000000.0 1.281 -0.1918
5038000000.0 0.6848 -1.087
5041000000.0 -0.4012 -1.263
5044000000.0 -1.195 -0.4949
5047000000.0 -1.145 0.5848
5050000000.0 -0.268 1.257
5053000000.0 0.803 1.009
5056000000.0 1.286 0.02025
5059000000.0 0.8386 -0.9681
5062000000.0 -0.1856 -1.296
5066000000.0 -1.125 -0.6813
5069000000.0 -1.215 0.4199
5072000000.0 -0.4393 1.18
5075000000.0 0.6216 1.1
5078000000.0 1.263 0.2188
5081000000.0 0.9372 -0.8289
5084000000.0 0.03824 -1.2
5088000000.0 -0.9418 -0.7351
5091000000.0 -1.2 0.2471
5094000000.0 -0.5611 1.028
5097000000.0 0.396 1.09
5100000000.0 1.048 0.3478
5103000000.0 0.9751 -0.5941
5106000000.0 0.1723 -1.042
5109000000.0 -0.6868 -0.8214
5112000000.0 -1.023 0.006728
5116000000.0 -0.627 0.8319
5119000000.0 0.2378 1.036
5122000000.0 0.8959 0.4692
5125000000.0 0.9451 -0.3246
5128000000.0 0.3147 -0.9834
5131000000.0 -0.5559 -0.8546
5134000000.0 -1.003 -0.1098
5138000000.0 -0.6748 0.69
5141000000.0 0.0752 0.949
5144000000.0 0.7705 0.5445
5147000000.0 0.8947 -0.222
5150000000.0 0.3352 -0.858
5153000000.0 -0.4219 -0.8264
5156000000.0 -0.8864 -0.145
5159000000.0 -0.6749 0.6156
5162000000.0 0.003318 0.9067
5166000000.0 0.7093 0.5354
5169000000.0 0.9136 -0.2311
5172000000.0 0.4037 -0.8166
5175000000.0 -0.3967 -0.8341
5178000000.0 -0.8796 -0.2208
5181000000.0 -0.7068 0.559
5184000000.0 -0.01043 0.9057
5188000000.0 0.7049 0.5849
5191000000.0 0.8993 -0.1856
5194000000.0 0.4098 -0.8153
5197000000.0 -0.3992 -0.8392
5200000000.0 -0.9068 -0.2402
5203000000.0 -0.7759 0.5486
5206000000.0 -0.02117 0.9496
5209000000.0 0.737 0.6236
5212000000.0 0.972 -0.187
5216000000.0 0.4682 -0.8298
5219000000.0 -0.3784 -0.8929
5222000000.0 -0.9485 -0.294
5225000000.0 -0.838 0.5338
5228000000.0 -0.09259 1.029
5231000000.0 0.7359 0.7392
5234000000.0 1.034 -0.09699
5238000000.0 0.5981 -0.8987
5241000000.0 -0.3049 -0.998
5244000000.0 -0.9562 -0.4105
5247000000.0 -0.9429 0.4697
5250000000.0 -0.2141 1.052
5253000000.0 0.6639 0.8434
5256000000.0 1.087 0.04975
5259000000.0 0.7435 -0.837
5262000000.0 -0.1741 -1.085
5266000000.0 -0.938 -0.5797
5269000000.0 -1.034 0.3364
5272000000.0 -0.4125 1.014
5275000000.0 0.5265 0.965
5278000000.0 1.095 0.2238
5281000000.0 0.9034 -0.6672
5284000000.0 0.05742 -1.102
5288000000.0 -0.8255 -0.7676
5291000000.0 -1.104 0.1018
5294000000.0 -0.6409 0.925
5297000000.0 0.3003 1.061
5300000000.0 1.026 0.4906
5303000000.0 1.011 -0.4769
5306000000.0 0.3314 -1.106
5309000000.0 -0.6354 -0.9329
5312000000.0 -1.125 -0.1036
5316000000.0 -0.8178 0.7982
5319000000.0 0.09541 1.131
5322000000.0 0.9403 0.6606
5325000000.0 1.117 -0.2863
5328000000.0 0.4665 -1.025
5331000000.0 -0.5064 -1.016
5334000000.0 -1.095 -0.2646
5338000000.0 -0.9209 0.6411
5341000000.0 -0.02625 1.118
5344000000.0 0.8322 0.7624
5347000000.0 1.106 -0.1764
5350000000.0 0.5388 -0.9687
5353000000.0 -0.3942 -1.023
5356000000.0 -1.049 -0.3323
5359000000.0 -0.873 0.5831
5362000000.0 -0.1125 1.061
5366000000.0 0.7571 0.7342
5369000000.0 1.008 -0.1247
5372000000.0 0.5278 -0.8799
5375000000.0 -0.3456 -0.9687
5378000000.0 -0.9742 -0.3111
5381000000.0 -0.8405 0.5157
5384000000.0 -0.1018 0.9799
5388000000.0 0.7103 0.6381
5391000000.0 0.9058 -0.1318
5394000000.0 0.4592 -0.8114
5397000000.0 -0.3622 -0.86
5400000000.0 -0.8498 -0.2448
5403000000.0 -0.7171 0.5135
5406000000.0 -0.03106 0.8661
5409000000.0 0.6442 0.5665
5412000000.0 0.8446 -0.1568
5416000000.0 0.3883 -0.7614
5419000000.0 -0.3446 -0.7896
5422000000.0 -0.8515 -0.2224
5425000000.0 -0.6976 0.5195
5428000000.0 -0.04689 0.8765
5431000000.0 0.6199 0.5711
5434000000.0 0.8627 -0.1442
5438000000.0 0.4369 -0.8193
5441000000.0 -0.3284 -0.8363
5444000000.0 -0.8338 -0.2451
5447000000.0 -0.7489 0.5316
5450000000.0 -0.03792 0.9097
5453000000.0 0.6433 0.6237
5456000000.0 0.9093 -0.09858
5459000000.0 0.4986 -0.7712
5462000000.0 -0.2907 -0.8858
5466000000.0 -0.8761 -0.3466
5469000000.0 -0.8193 0.4567
5472000000.0 -0.1868 0.9166
5475000000.0 0.5652 0.7332
5478000000.0 0.952 0.03147
5481000000.0 0.6231 -0.7518
5484000000.0 -0.1471 -0.9881
5488000000.0 -0.8496 -0.4971
5491000000.0 -0.9476 0.3395
5494000000.0 -0.3611 0.942
5497000000.0 0.4857 0.8632
5500000000.0 0.983 0.1878
5503000000.0 0.8436 -0.6444
5506000000.0 0.02314 -1.032
5509000000.0 -0.804 -0.6929
5512000000.0 -1.008 0.1679
5516000000.0 -0.5381 0.8934
5519000000.0 0.3358 0.9843
5522000000.0 0.9715 0.379
5525000000.0 0.9493 -0.5225
5528000000.0 0.1685 -1.093
5531000000.0 -0.6728 -0.8269
5534000000.0 -1.031 -0.01485
5538000000.0 -0.6787 0.8029
5541000000.0 0.1632 1.063
5544000000.0 0.9049 0.5416
5547000000.0 0.9853 -0.321
5550000000.0 0.3678 -1.012
5553000000.0 -0.5223 -0.9141
5556000000.0 -1.075 -0.1769
5559000000.0 -0.7867 0.7014
5562000000.0 0.01255 1.02
5566000000.0 0.7947 0.6408
5569000000.0 0.9724 -0.2188
5572000000.0 0.4661 -0.8906
5575000000.0 -0.417 -0.8974
5578000000.0 -0.9435 -0.2598
5581000000.0 -0.8096 0.5334
5584000000.0 -0.09316 0.9248
5588000000.0 0.6677 0.6459
5591000000.0 0.9181 -0.1086
5594000000.0 0.505 -0.7685
5597000000.0 -0.2995 -0.8506
5600000000.0 -0.8257 -0.3233
5603000000.0 -0.7719 0.447
5606000000.0 -0.1214 0.8637
5609000000.0 0.577 0.6274
5612000000.0 0.8725 -0.04739
5616000000.0 0.4749 -0.6914
5619000000.0 -0.2145 -0.8158
5622000000.0 -0.7481 -0.3081
5625000000.0 -0.7071 0.4024
5628000000.0 -0.1563 0.832
5631000000.0 0.5413 0.6068
5634000000.0 0.8146 -0.0335
5638000000.0 0.4906 -0.668
5641000000.0 -0.231 -0.7864
5644000000.0 -0.7509 -0.2887
5647000000.0 -0.7528 0.4141
5650000000.0 -0.1588 0.8538
5653000000.0 0.5704 0.6455
5656000000.0 0.8415 -0.04695
5659000000.0 0.5128 -0.6848
5662000000.0 -0.225 -0.8234
5666000000.0 -0.8227 -0.3664
5669000000.0 -0.8197 0.4285
5672000000.0 -0.165 0.9073
5675000000.0 0.5935 0.726
5678000000.0 0.9258 -0.02064
5681000000.0 0.5761 -0.7391
5684000000.0 -0.2071 -0.9148
5688000000.0 -0.8731 -0.4177
5691000000.0 -0.8863 0.4236
5694000000.0 -0.2395 0.9617
5697000000.0 0.6078 0.8285
5700000000.0 1.039 0.04098
5703000000.0 0.7088 -0.7702
5706000000.0 -0.1512 -1.041
5709000000.0 -0.9241 -0.5524
5712000000.0 -0.9882 0.3668
5716000000.0 -0.3764 1.014
5719000000.0 0.5508 0.9366
5722000000.0 1.087 0.19
5725000000.0 0.7908 -0.7271
5728000000.0 -0.06494 -1.113
5731000000.0 -0.8879 -0.6569
5734000000.0 -1.083 0.2433
5738000000.0 -0.5138 0.9918
5741000000.0 0.4318 1.04
5744000000.0 1.059 0.3218
5747000000.0 0.9443 -0.6419
5750000000.0 0.1274 -1.119
5753000000.0 -0.765 -0.8216
5756000000.0 -1.09 0.09245
5759000000.0 -0.657 0.8821
5762000000.0 0.279 1.1
5766000000.0 1.02 0.4839
5769000000.0 1.033 -0.4766
5772000000.0 0.2724 -1.06
5775000000.0 -0.6424 -0.9095
5778000000.0 -1.089 -0.06871
5781000000.0 -0.7569 0.7729
5784000000.0 0.1453 1.061
5788000000.0 0.8964 0.6035
5791000000.0 0.9925 -0.3158
5794000000.0 0.3781 -0.978
5797000000.0 -0.5185 -0.9061
5800000000.0 -1.039 -0.2056
5803000000.0 -0.797 0.6676
5806000000.0 0.04344 1.015
5809000000.0 0.8359 0.6423
5812000000.0 1.009 -0.2068
5816000000.0 0.4698 -0.9149
5819000000.0 -0.4171 -0.8975
5822000000.0 -0.9411 -0.2231
5825000000.0 -0.7814 0.5674
5828000000.0 -0.05411 1.007
5831000000.0 0.74 0.6548
5834000000.0 0.9581 -0.1772
5838000000.0 0.4288 -0.8124
5841000000.0 -0.3536 -0.8549
5844000000.0 -0.9042 -0.2581
5847000000.0 -0.7513 0.5383
5850000000.0 -0.05174 0.9002
5853000000.0 0.6755 0.5884
5856000000.0 0.8951 -0.1232
5859000000.0 0.4226 -0.7671
5862000000.0 -0.3152 -0.8273
5866000000.0 -0.8449 -0.2857
5869000000.0 -0.7322 0.5027
5872000000.0 -0.07752 0.8794
5875000000.0 0.6251 0.5885
5878000000.0 0.8573 -0.1401
5881000000.0 0.4267 -0.7342
5884000000.0 -0.3154 -0.8178
5888000000.0 -0.8242 -0.2272
5891000000.0 -0.7231 0.4597
5894000000.0 -0.1101 0.8647
5897000000.0 0.6438 0.617
5900000000.0 0.8774 -0.06473
5903000000.0 0.47 -0.7556
5906000000.0 -0.2515 -0.8068
5909000000.0 -0.8272 -0.3267
5912000000.0 -0.7823 0.4481
5916000000.0 -0.1762 0.8922
5919000000.0 0.5881 0.6909
5922000000.0 0.912 -0.02989
5925000000.0 0.5781 -0.7074
5928000000.0 -0.1896 -0.8861
5931000000.0 -0.7823 -0.4581
5934000000.0 -0.8698 0.3413
5938000000.0 -0.2835 0.8842
5941000000.0 0.53 0.7988
5944000000.0 0.9465 0.1185
5947000000.0 0.6972 -0.5909
5950000000.0 -0.0298 -0.9842
5953000000.0 -0.7551 -0.5351
5956000000.0 -0.9289 0.2115
5959000000.0 -0.4056 0.89
5962000000.0 0.4235 0.9143
5966000000.0 0.9845 0.2288
5969000000.0 0.7942 -0.5696
5972000000.0 0.05776 -1.006
5975000000.0 -0.6959 -0.7119
5978000000.0 -0.9793 0.1088
5981000000.0 -0.5528 0.8831
5984000000.0 0.3282 0.9721
5988000000.0 0.9489 0.3677
5991000000.0 0.8985 -0.5066
5994000000.0 0.203 -0.9906
5997000000.0 -0.6687 -0.7972
6000000000.0 -1.035 0.04259
6003000000.0 -0.5991 0.8031
6006000000.0 0.2654 0.9678
6009000000.0 0.8812 0.416
6012000000.0 0.9158 -0.4274
6016000000.0 0.2707 -0.9588
6019000000.0 -0.6074 -0.7569
6022000000.0 -0.9578 -0.04135
6025000000.0 -0.6227 0.7535
6028000000.0 0.1574 0.9416
6031000000.0 0.8068 0.4547
6034000000.0 0.8664 -0.3432
6038000000.0 0.2874 -0.9036
6041000000.0 -0.5336 -0.7441
6044000000.0 -0.913 -0.03299
6047000000.0 -0.6294 0.6796
6050000000.0 0.1473 0.8759
6053000000.0 0.7641 0.4498
6056000000.0 0.8372 -0.335
6059000000.0 0.2747 -0.8274
6062000000.0 -0.4703 -0.7349
6066000000.0 -0.8507 -0.07698
6069000000.0 -0.5899 0.5903
6072000000.0 0.1237 0.8527
6075000000.0 0.7395 0.4395
6078000000.0 0.7948 -0.2741
6081000000.0 0.2489 -0.811
6084000000.0 -0.4319 -0.6967
6088000000.0 -0.843 -0.07888
6091000000.0 -0.5753 0.6193
6094000000.0 0.09501 0.8375
6097000000.0 0.6978 0.4434
6100000000.0 0.81 -0.2903
6103000000.0 0.3123 -0.8149
6106000000.0 -0.467 -0.7636
6109000000.0 -0.8796 -0.1134
6112000000.0 -0.6683 0.6001
6116000000.0 0.08236 0.872
6119000000.0 0.7243 0.5224
6122000000.0 0.8593 -0.2825
6125000000.0 0.344 -0.8595
6128000000.0 -0.4423 -0.822
6131000000.0 -0.9133 -0.1805
6134000000.0 -0.7143 0.6434
6138000000.0 0.03043 0.9658
6141000000.0 0.777 0.5537
6144000000.0 0.9339 -0.2497
6147000000.0 0.3831 -0.8974
6150000000.0 -0.4213 -0.862
6153000000.0 -0.9484 -0.2297
6156000000.0 -0.7648 0.629
6159000000.0 -0.02808 0.9617
6162000000.0 0.7493 0.6315
6166000000.0 0.9625 -0.2317
6169000000.0 0.4719 -0.8933
6172000000.0 -0.4064 -0.9128
6175000000.0 -0.9776 -0.2903
6178000000.0 -0.8059 0.5883
6181000000.0 -0.06872 1.001
6184000000.0 0.7608 0.6563
6188000000.0 0.9792 -0.1485
6191000000.0 0.4937 -0.8141
6194000000.0 -0.3631 -0.914
6197000000.0 -0.9054 -0.2861
6200000000.0 -0.8356 0.5161
6203000000.0 -0.1448 0.9292
6206000000.0 0.6323 0.6627
6209000000.0 0.9285 -0.06799
6212000000.0 0.5068 -0.7288
6216000000.0 -0.2316 -0.8961
6219000000.0 -0.8351 -0.3567
6222000000.0 -0.8011 0.4153
6225000000.0 -0.1942 0.8799
6228000000.0 0.5496 0.6796
6231000000.0 0.8952 0.04578
6234000000.0 0.576 -0.6693
6238000000.0 -0.1954 -0.8258
6241000000.0 -0.763 -0.409
6244000000.0 -0.7657 0.3477
6247000000.0 -0.2739 0.8229
6250000000.0 0.486 0.6752
6253000000.0 0.8687 0.0544
6256000000.0 0.5661 -0.5924
6259000000.0 -0.09616 -0.8051
6262000000.0 -0.6871 -0.4465
6266000000.0 -0.7555 0.2286
