! Created with skrf 1.8.0 (http://scikit-rf.org).
# Hz S RI R 50.0 
!freq ReS11 ImS11
4000000000.0 -0.147 -1.52
4003000000.0 -1.267 -0.8769
4006000000.0 -1.451 0.4868
4009000000.0 -0.5489 1.412
4012000000.0 0.7419 1.349
4016000000.0 1.516 0.1605
4019000000.0 1.134 -1.044
4022000000.0 -0.1139 -1.56
4025000000.0 -1.327 -0.8863
4028000000.0 -1.505 0.4274
4031000000.0 -0.6058 1.441
4034000000.0 0.8023 1.445
4038000000.0 1.621 0.2585
4041000000.0 1.191 -1.124
4044000000.0 -0.1208 -1.617
4047000000.0 -1.299 -0.924
4050000000.0 -1.541 0.4738
4053000000.0 -0.6308 1.508
4056000000.0 0.7481 1.439
4059000000.0 1.556 0.3511
4062000000.0 1.248 -1.022
4066000000.0 0.05646 -1.624
4069000000.0 -1.236 -1.072
4072000000.0 -1.581 0.2485
4075000000.0 -0.8031 1.44
4078000000.0 0.5448 1.541
4081000000.0 1.563 0.569
4084000000.0 1.388 -0.8947
4088000000.0 0.2778 -1.656
4091000000.0 -1.099 -1.211
4094000000.0 -1.605 0.1024
4097000000.0 -0.9736 1.322
4100000000.0 0.3762 1.57
4103000000.0 1.447 0.7232
4106000000.0 1.472 -0.6195
4109000000.0 0.4657 -1.499
4112000000.0 -0.8414 -1.288
4116000000.0 -1.499 -0.2296
4119000000.0 -1.114 1.005
4122000000.0 0.02532 1.495
4125000000.0 1.128 0.9615
4128000000.0 1.459 -0.2192
4131000000.0 0.8305 -1.266
4134000000.0 -0.4332 -1.413
4138000000.0 -1.356 -0.6102
4141000000.0 -1.333 0.665
4144000000.0 -0.3952 1.466
4147000000.0 0.8651 1.235
4150000000.0 1.509 0.1377
4153000000.0 1.084 -1.067
4156000000.0 -0.07945 -1.56
4159000000.0 -1.216 -0.8949
4162000000.0 -1.465 0.3586
4166000000.0 -0.6665 1.368
4169000000.0 0.6533 1.366
4172000000.0 1.463 0.4077
4175000000.0 1.24 -0.8097
4178000000.0 0.1559 -1.463
4181000000.0 -1.067 -1.07
4184000000.0 -1.528 0.09539
4188000000.0 -0.9192 1.203
4191000000.0 0.3526 1.518
4194000000.0 1.376 0.6574
4197000000.0 1.433 -0.6353
4200000000.0 0.3931 -1.546
4203000000.0 -0.9206 -1.292
4206000000.0 -1.626 -0.05405
4209000000.0 -1.081 1.275
4212000000.0 0.3241 1.612
4216000000.0 1.491 0.7673
4219000000.0 1.54 -0.7576
4222000000.0 0.3388 -1.65
4225000000.0 -1.095 -1.307
4228000000.0 -1.673 0.1233
4231000000.0 -0.9298 1.374
4234000000.0 0.5305 1.555
4238000000.0 1.527 0.5046
4241000000.0 1.355 -0.8963
4244000000.0 0.1331 -1.624
4247000000.0 -1.237 -1.067
4250000000.0 -1.527 0.3371
4253000000.0 -0.6843 1.393
4256000000.0 0.7312 1.423
4259000000.0 1.491 0.3248
4262000000.0 1.155 -0.9968
4266000000.0 -0.1001 -1.509
4269000000.0 -1.206 -0.8699
4272000000.0 -1.422 0.4039
4275000000.0 -0.5102 1.384
4278000000.0 0.7528 1.258
4281000000.0 1.459 0.1907
4284000000.0 1.009 -1.005
4288000000.0 -0.1383 -1.375
4291000000.0 -1.149 -0.7426
4294000000.0 -1.272 0.412
4297000000.0 -0.4944 1.252
4300000000.0 0.6364 1.154
4303000000.0 1.322 0.255
4306000000.0 0.9984 -0.8023
4309000000.0 0.02284 -1.304
4312000000.0 -0.9713 -0.858
4316000000.0 -1.281 0.1785
4319000000.0 -0.6897 1.081
4322000000.0 0.3967 1.254
4325000000.0 1.201 0.4981
4328000000.0 1.176 -0.6221
4331000000.0 0.3074 -1.325
4334000000.0 -0.8278 -1.074
4338000000.0 -1.368 -0.06156
4341000000.0 -0.9197 1.024
4344000000.0 0.216 1.418
4347000000.0 1.219 0.7631
4350000000.0 1.343 -0.478
4353000000.0 0.5208 -1.364
4356000000.0 -0.7507 -1.258
4359000000.0 -1.434 -0.2712
4362000000.0 -1.126 0.9387
4366000000.0 -0.002656 1.489
4369000000.0 1.122 0.9539
4372000000.0 1.477 -0.2768
4375000000.0 0.7292 -1.297
4378000000.0 -0.5669 -1.395
4381000000.0 -1.443 -0.4717
4384000000.0 -1.311 0.8145
4388000000.0 -0.169 1.512
4391000000.0 1.09 1.13
4394000000.0 1.548 -0.136
4397000000.0 0.8635 -1.332
4400000000.0 -0.5195 -1.5
4403000000.0 -1.464 -0.5628
4406000000.0 -1.348 0.8346
4409000000.0 -0.2387 1.588
4412000000.0 1.115 1.082
4416000000.0 1.546 -0.1652
4419000000.0 0.8238 -1.303
4422000000.0 -0.5589 -1.413
4425000000.0 -1.438 -0.4794
4428000000.0 -1.224 0.8234
4431000000.0 -0.08125 1.465
4434000000.0 1.044 0.9656
4438000000.0 1.371 -0.2294
4441000000.0 0.6317 -1.258
4444000000.0 -0.5527 -1.265
4447000000.0 -1.34 -0.2878
4450000000.0 -1.054 0.8251
4453000000.0 0.01596 1.348
4456000000.0 1.04 0.7776
4459000000.0 1.224 -0.3479
4462000000.0 0.4975 -1.173
4466000000.0 -0.6188 -1.047
4469000000.0 -1.205 -0.1424
4472000000.0 -0.8912 0.8584
4475000000.0 0.1256 1.2
4478000000.0 1.019 0.6296
4481000000.0 1.088 -0.4024
4484000000.0 0.3222 -1.115
4488000000.0 -0.6349 -0.9228
4491000000.0 -1.125 -0.07867
4494000000.0 -0.7533 0.83
4497000000.0 0.1731 1.119
4500000000.0 0.9793 0.5708
4503000000.0 1.021 -0.3934
4506000000.0 0.345 -1.039
4509000000.0 -0.6081 -0.9339
4512000000.0 -1.098 -0.08736
4516000000.0 -0.7797 0.788
4519000000.0 0.1024 1.114
4522000000.0 0.9487 0.6077
4525000000.0 1.071 -0.3659
4528000000.0 0.421 -1.06
4531000000.0 -0.5674 -1.012
4534000000.0 -1.145 -0.1911
4538000000.0 -0.8931 0.7833
4541000000.0 0.03528 1.194
4544000000.0 0.9379 0.7251
4547000000.0 1.188 -0.225
4550000000.0 0.556 -1.079
4553000000.0 -0.4501 -1.128
4556000000.0 -1.135 -0.3904
4559000000.0 -1.063 0.6731
4562000000.0 -0.1783 1.207
4566000000.0 0.8235 0.9398
4569000000.0 1.24 -0.05237
4572000000.0 0.7512 -1.006
4575000000.0 -0.2787 -1.252
4578000000.0 -1.142 -0.604
4581000000.0 -1.22 0.4867
4584000000.0 -0.4043 1.27
4588000000.0 0.7304 1.144
4591000000.0 1.342 0.1449
4594000000.0 0.9993 -0.9556
4597000000.0 -0.1018 -1.367
4600000000.0 -1.124 -0.8047
4603000000.0 -1.336 0.3728
4606000000.0 -0.5597 1.3
4609000000.0 0.624 1.241
4612000000.0 1.375 0.2952
4616000000.0 1.122 -0.871
4619000000.0 0.01361 -1.394
4622000000.0 -1.043 -0.9096
4625000000.0 -1.362 0.2192
4628000000.0 -0.656 1.23
4631000000.0 0.5332 1.268
4634000000.0 1.298 0.4008
4638000000.0 1.158 -0.7912
4641000000.0 0.1181 -1.336
4644000000.0 -1.007 -0.9215
4647000000.0 -1.325 0.1967
4650000000.0 -0.6725 1.143
4653000000.0 0.4622 1.25
4656000000.0 1.228 0.39
4659000000.0 1.07 -0.7519
4662000000.0 0.09233 -1.277
4666000000.0 -0.9489 -0.8482
4669000000.0 -1.194 0.2007
4672000000.0 -0.5971 1.07
4675000000.0 0.4795 1.09
4678000000.0 1.098 0.3064
4681000000.0 0.9803 -0.6589
4684000000.0 0.04838 -1.13
4688000000.0 -0.8558 -0.7106
4691000000.0 -1.077 0.1889
4694000000.0 -0.5172 0.9577
4697000000.0 0.4466 1.027
4700000000.0 1.078 0.2799
4703000000.0 0.8731 -0.6451
4706000000.0 0.0397 -1.105
4709000000.0 -0.8234 -0.7137
4712000000.0 -1.045 0.2278
4716000000.0 -0.4885 0.9363
4719000000.0 0.4668 0.9835
4722000000.0 1.06 0.2806
4725000000.0 0.8431 -0.6296
4728000000.0 0.02047 -1.044
4731000000.0 -0.802 -0.7231
4734000000.0 -1.003 0.1508
4738000000.0 -0.4767 0.9303
4741000000.0 0.3559 0.9684
4744000000.0 1.012 0.3387
4747000000.0 0.8726 -0.5394
4750000000.0 0.1832 -1.069
4753000000.0 -0.7506 -0.802
4756000000.0 -1.095 0.01253
4759000000.0 -0.6757 0.8737
4762000000.0 0.2547 1.09
4766000000.0 0.9792 0.5146
4769000000.0 1.063 -0.4405
4772000000.0 0.3266 -1.095
4775000000.0 -0.6276 -1.014
4778000000.0 -1.171 -0.1258
4781000000.0 -0.8685 0.8105
4784000000.0 0.07458 1.193
4788000000.0 0.9644 0.7361
4791000000.0 1.193 -0.2881
4794000000.0 0.5688 -1.109
4797000000.0 -0.435 -1.146
4800000000.0 -1.196 -0.339
4803000000.0 -1.064 0.6684
4806000000.0 -0.1944 1.228
4809000000.0 0.8584 0.9285
4812000000.0 1.286 -0.02975
4816000000.0 0.7957 -1.039
4819000000.0 -0.2785 -1.316
4822000000.0 -1.183 -0.621
4825000000.0 -1.25 0.5231
4828000000.0 -0.419 1.349
4831000000.0 0.7596 1.152
4834000000.0 1.386 0.1232
4838000000.0 0.9753 -0.9958
4841000000.0 -0.1114 -1.372
4844000000.0 -1.175 -0.7985
4847000000.0 -1.327 0.3938
4850000000.0 -0.5168 1.294
4853000000.0 0.6615 1.228
4856000000.0 1.347 0.2632
4859000000.0 1.065 -0.8769
4862000000.0 -0.006767 -1.337
4866000000.0 -1.04 -0.8376
4869000000.0 -1.309 0.3033
4872000000.0 -0.5881 1.17
4875000000.0 0.539 1.195
4878000000.0 1.223 0.3128
4881000000.0 1.042 -0.7633
4884000000.0 0.07017 -1.253
4888000000.0 -0.96 -0.8046
4891000000.0 -1.194 0.2133
4894000000.0 -0.5768 0.9977
4897000000.0 0.4339 1.093
4900000000.0 1.114 0.3235
4903000000.0 0.9301 -0.6239
4906000000.0 0.08611 -1.093
4909000000.0 -0.7932 -0.7468
4912000000.0 -1.018 0.145
4916000000.0 -0.5466 0.8885
4919000000.0 0.318 0.9694
4922000000.0 0.9345 0.3383
4925000000.0 0.8362 -0.4992
4928000000.0 0.1554 -0.9864
4931000000.0 -0.6385 -0.7176
4934000000.0 -0.9532 0.03521
4938000000.0 -0.6113 0.7637
4941000000.0 0.207 0.9319
4944000000.0 0.8549 0.3966
4947000000.0 0.8541 -0.4031
4950000000.0 0.2299 -0.922
4953000000.0 -0.5593 -0.7815
4956000000.0 -0.9477 -0.03524
4959000000.0 -0.6696 0.6941
4962000000.0 0.1499 0.9691
4966000000.0 0.8775 0.4948
4969000000.0 0.9293 -0.3336
4972000000.0 0.314 -0.945
4975000000.0 -0.5387 -0.854
4978000000.0 -1.005 -0.1134
4981000000.0 -0.7653 0.6898
4984000000.0 0.07389 1.039
4988000000.0 0.8505 0.5986
4991000000.0 1.025 -0.2709
4994000000.0 0.4739 -0.9672
4997000000.0 -0.4419 -1.018
5000000000.0 -1.089 -0.284
5003000000.0 -0.9464 0.6634
5006000000.0 -0.08487 1.187
5009000000.0 0.8207 0.8193
5012000000.0 1.193 -0.1153
5016000000.0 0.6416 -0.9972
5019000000.0 -0.3719 -1.179
5022000000.0 -1.172 -0.4659
5025000000.0 -1.136 0.5885
5028000000.0 -0.2203 1.281
5031000000.0 0.822 1.003
5034000000.0 1.304 -0.03558
5038000000.0 0.8176 -1.006
5041000000.0 -0.2427 -1.251
5044000000.0 -1.141 -0.6194
5047000000.0 -1.183 0.4461
5050000000.0 -0.4348 1.239
5053000000.0 0.6613 1.141
5056000000.0 1.277 0.2162
5059000000.0 0.9621 -0.8579
5062000000.0 -0.03736 -1.31
5066000000.0 -1.041 -0.7982
5069000000.0 -1.272 0.2501
5072000000.0 -0.6282 1.134
5075000000.0 0.5007 1.193
5078000000.0 1.238 0.3959
5081000000.0 1.068 -0.6972
5084000000.0 0.1091 -1.231
5088000000.0 -0.8645 -0.8711
5091000000.0 -1.21 0.09904
5094000000.0 -0.7081 0.9754
5097000000.0 0.2962 1.14
5100000000.0 1.012 0.5158
5103000000.0 1.054 -0.4732
5106000000.0 0.2867 -1.064
5109000000.0 -0.595 -0.9313
5112000000.0 -1.076 -0.1277
5116000000.0 -0.7707 0.7397
5119000000.0 0.04987 1.052
5122000000.0 0.8849 0.6427
5125000000.0 1.053 -0.2279
5128000000.0 0.4653 -0.9543
5131000000.0 -0.4376 -0.9272
5134000000.0 -1.004 -0.2591
5138000000.0 -0.8338 0.5871
5141000000.0 -0.04103 0.9665
5144000000.0 0.7081 0.6716
5147000000.0 0.9615 -0.1394
5150000000.0 0.4827 -0.7973
5153000000.0 -0.3105 -0.8902
5156000000.0 -0.8832 -0.2842
5159000000.0 -0.8015 0.4304
5162000000.0 -0.1296 0.8969
5166000000.0 0.5927 0.7014
5169000000.0 0.9102 -0.05001
5172000000.0 0.5553 -0.7334
5175000000.0 -0.2028 -0.8549
5178000000.0 -0.8726 -0.3777
5181000000.0 -0.8224 0.4272
5184000000.0 -0.1793 0.8892
5188000000.0 0.618 0.6863
5191000000.0 0.9275 0.003817
5194000000.0 0.5869 -0.7497
5197000000.0 -0.2224 -0.9053
5200000000.0 -0.8446 -0.3883
5203000000.0 -0.8685 0.4277
5206000000.0 -0.183 0.9365
5209000000.0 0.596 0.7544
5212000000.0 0.9563 -0.001198
5216000000.0 0.605 -0.7449
5219000000.0 -0.1949 -0.9835
5222000000.0 -0.863 -0.4249
5225000000.0 -0.9255 0.3959
5228000000.0 -0.2676 0.9686
5231000000.0 0.6 0.8335
5234000000.0 1.004 0.08072
5238000000.0 0.7111 -0.747
5241000000.0 -0.1415 -1.025
5244000000.0 -0.8909 -0.5902
5247000000.0 -1.009 0.323
5250000000.0 -0.4053 1.0
5253000000.0 0.5209 0.9421
5256000000.0 1.043 0.1976
5259000000.0 0.8498 -0.667
5262000000.0 0.0221 -1.078
5266000000.0 -0.8266 -0.7096
5269000000.0 -1.071 0.1427
5272000000.0 -0.5921 0.9452
5275000000.0 0.3403 1.037
5278000000.0 1.026 0.4327
5281000000.0 1.006 -0.5282
5284000000.0 0.2421 -1.094
5288000000.0 -0.701 -0.8828
5291000000.0 -1.131 -0.03753
5294000000.0 -0.7723 0.8118
5297000000.0 0.1425 1.11
5300000000.0 0.925 0.6459
5303000000.0 1.101 -0.3005
5306000000.0 0.4457 -1.031
5309000000.0 -0.5065 -1.02
5312000000.0 -1.123 -0.2981
5316000000.0 -0.9225 0.6923
5319000000.0 -0.1014 1.129
5322000000.0 0.8022 0.8127
5325000000.0 1.134 -0.08561
5328000000.0 0.6684 -0.9883
5331000000.0 -0.3303 -1.102
5334000000.0 -1.049 -0.4664
5338000000.0 -1.017 0.5255
5341000000.0 -0.271 1.106
5344000000.0 0.681 0.916
5347000000.0 1.131 0.04822
5350000000.0 0.7332 -0.8153
5353000000.0 -0.1815 -1.1
5356000000.0 -0.9396 -0.5744
5359000000.0 -1.022 0.369
5362000000.0 -0.3409 0.9995
5366000000.0 0.5591 0.914
5369000000.0 1.038 0.1392
5372000000.0 0.7737 -0.7145
5375000000.0 -0.1171 -1.053
5378000000.0 -0.8782 -0.567
5381000000.0 -0.9699 0.3383
5384000000.0 -0.3481 0.9608
5388000000.0 0.5141 0.8542
5391000000.0 0.9967 0.1032
5394000000.0 0.671 -0.6717
5397000000.0 -0.1246 -0.9452
5400000000.0 -0.8144 -0.5048
5403000000.0 -0.8716 0.3058
5406000000.0 -0.2748 0.8762
5409000000.0 0.5034 0.7756
5412000000.0 0.8949 0.09885
5416000000.0 0.63 -0.6341
5419000000.0 -0.1245 -0.8712
5422000000.0 -0.7467 -0.4605
5425000000.0 -0.8168 0.298
5428000000.0 -0.2729 0.8358
5431000000.0 0.4752 0.7005
5434000000.0 0.865 0.07879
5438000000.0 0.6286 -0.635
5441000000.0 -0.1175 -0.875
5444000000.0 -0.7874 -0.4597
5447000000.0 -0.8106 0.3089
5450000000.0 -0.2958 0.8525
5453000000.0 0.4773 0.7586
5456000000.0 0.8851 0.08916
5459000000.0 0.6584 -0.6191
5462000000.0 -0.06567 -0.8864
5466000000.0 -0.7274 -0.5131
5469000000.0 -0.8706 0.2619
5472000000.0 -0.3945 0.8329
5475000000.0 0.3817 0.8668
5478000000.0 0.952 0.2029
5481000000.0 0.7875 -0.5392
5484000000.0 0.0792 -0.9433
5488000000.0 -0.6925 -0.6689
5491000000.0 -0.9426 0.09473
5494000000.0 -0.5271 0.8138
5497000000.0 0.2752 0.9623
5500000000.0 0.9417 0.4039
5503000000.0 0.8907 -0.4764
5506000000.0 0.2353 -1.015
5509000000.0 -0.603 -0.8209
5512000000.0 -1.028 -0.08541
5516000000.0 -0.682 0.7463
5519000000.0 0.1018 1.028
5522000000.0 0.8425 0.5744
5525000000.0 1.01 -0.275
5528000000.0 0.4638 -0.9451
5531000000.0 -0.4409 -0.9565
5534000000.0 -1.01 -0.2763
5538000000.0 -0.8787 0.584
5541000000.0 -0.09517 1.04
5544000000.0 0.7602 0.7278
5547000000.0 1.065 -0.08132
5550000000.0 0.5821 -0.9011
5553000000.0 -0.2748 -1.033
5556000000.0 -0.966 -0.4534
5559000000.0 -0.9373 0.4449
5562000000.0 -0.2492 0.9987
5566000000.0 0.6449 0.8355
5569000000.0 1.043 0.05925
5572000000.0 0.7037 -0.7507
5575000000.0 -0.1114 -1.003
5578000000.0 -0.8695 -0.5307
5581000000.0 -0.9279 0.3144
5584000000.0 -0.381 0.9302
5588000000.0 0.4853 0.8217
5591000000.0 0.9383 0.1515
5594000000.0 0.7355 -0.6327
5597000000.0 -0.03924 -0.9062
5600000000.0 -0.7181 -0.5926
5603000000.0 -0.9068 0.1918
5606000000.0 -0.4027 0.8011
5609000000.0 0.3493 0.8358
5612000000.0 0.8687 0.222
5616000000.0 0.6881 -0.5044
5619000000.0 0.04426 -0.881
5622000000.0 -0.6483 -0.5923
5625000000.0 -0.8422 0.131
5628000000.0 -0.4228 0.74
5631000000.0 0.3009 0.7987
5634000000.0 0.8005 0.2876
5638000000.0 0.7012 -0.4637
5641000000.0 0.06065 -0.8366
5644000000.0 -0.5771 -0.6072
5647000000.0 -0.8232 0.1132
5650000000.0 -0.4418 0.7256
5653000000.0 0.2842 0.7794
5656000000.0 0.8185 0.27
5659000000.0 0.7222 -0.463
5662000000.0 0.08326 -0.8551
5666000000.0 -0.639 -0.5969
5669000000.0 -0.8741 0.1002
5672000000.0 -0.4482 0.7519
5675000000.0 0.3 0.8413
5678000000.0 0.8674 0.285
5681000000.0 0.8005 -0.4922
5684000000.0 0.1179 -0.9249
5688000000.0 -0.6636 -0.6721
5691000000.0 -0.954 0.08124
5694000000.0 -0.5484 0.7885
5697000000.0 0.299 0.9159
5700000000.0 0.9418 0.347
5703000000.0 0.8724 -0.4855
5706000000.0 0.1609 -1.007
5709000000.0 -0.6611 -0.7455
5712000000.0 -1.04 0.04407
5716000000.0 -0.6469 0.8269
5719000000.0 0.2317 1.016
5722000000.0 0.9393 0.4674
5725000000.0 0.9521 -0.417
5728000000.0 0.2736 -1.048
5731000000.0 -0.5951 -0.8932
5734000000.0 -1.056 -0.1222
5738000000.0 -0.7501 0.7667
5741000000.0 0.07828 1.086
5744000000.0 0.9075 0.6371
5747000000.0 1.034 -0.3182
5750000000.0 0.471 -1.02
5753000000.0 -0.5057 -0.9851
5756000000.0 -1.077 -0.263
5759000000.0 -0.9265 0.6399
5762000000.0 -0.06706 1.124
5766000000.0 0.802 0.7732
5769000000.0 1.095 -0.1677
5772000000.0 0.6197 -0.9491
5775000000.0 -0.3113 -1.061
5778000000.0 -1.009 -0.432
5781000000.0 -1.01 0.5085
5784000000.0 -0.255 1.071
5788000000.0 0.6431 0.8492
5791000000.0 1.104 0.02088
5794000000.0 0.7314 -0.7851
5797000000.0 -0.1619 -1.07
5800000000.0 -0.9209 -0.5752
5803000000.0 -1.029 0.3194
5806000000.0 -0.3964 0.9944
5809000000.0 0.5099 0.944
5812000000.0 1.045 0.1791
5816000000.0 0.7913 -0.6523
5819000000.0 -0.04574 -1.085
5822000000.0 -0.7997 -0.6486
5825000000.0 -0.9941 0.2365
5828000000.0 -0.4845 0.8995
5831000000.0 0.3988 0.918
5834000000.0 0.9427 0.2543
5838000000.0 0.7858 -0.5603
5841000000.0 0.05939 -1.001
5844000000.0 -0.7209 -0.645
5847000000.0 -0.9508 0.1441
5850000000.0 -0.5082 0.8175
5853000000.0 0.341 0.8687
5856000000.0 0.8817 0.2844
5859000000.0 0.7832 -0.5007
5862000000.0 0.1292 -0.8839
5866000000.0 -0.6526 -0.6456
5869000000.0 -0.9297 0.1008
5872000000.0 -0.4925 0.767
5875000000.0 0.2906 0.8559
5878000000.0 0.8294 0.2981
5881000000.0 0.7422 -0.4803
5884000000.0 0.1038 -0.8858
5888000000.0 -0.6099 -0.6511
5891000000.0 -0.8936 0.06002
5894000000.0 -0.4766 0.7044
5897000000.0 0.2538 0.8456
5900000000.0 0.8002 0.3481
5903000000.0 0.7517 -0.4074
5906000000.0 0.1608 -0.8161
5909000000.0 -0.5394 -0.6435
5912000000.0 -0.8597 0.006892
5916000000.0 -0.5533 0.6983
5919000000.0 0.1813 0.8542
5922000000.0 0.7785 0.3732
5925000000.0 0.8316 -0.3377
5928000000.0 0.2681 -0.831
5931000000.0 -0.4843 -0.6938
5934000000.0 -0.8669 -0.09839
5938000000.0 -0.6388 0.6152
5941000000.0 0.06809 0.8983
5944000000.0 0.7484 0.4895
5947000000.0 0.887 -0.2309
5950000000.0 0.3941 -0.8408
5953000000.0 -0.3636 -0.7924
5956000000.0 -0.9221 -0.2449
5959000000.0 -0.7519 0.5463
5962000000.0 -0.04776 0.9172
5966000000.0 0.6685 0.6311
5969000000.0 0.9657 -0.09018
5972000000.0 0.554 -0.7781
5975000000.0 -0.2778 -0.9409
5978000000.0 -0.8858 -0.3979
5981000000.0 -0.8433 0.4325
5984000000.0 -0.2314 0.9602
5988000000.0 0.6141 0.8044
5991000000.0 0.9705 0.04148
5994000000.0 0.6879 -0.7534
5997000000.0 -0.154 -0.9992
6000000000.0 -0.8673 -0.5435
6003000000.0 -0.916 0.316
6006000000.0 -0.3612 0.908
6009000000.0 0.4869 0.8879
6012000000.0 1.013 0.1926
6016000000.0 0.7783 -0.6597
6019000000.0 -0.01652 -0.9833
6022000000.0 -0.7618 -0.6228
6025000000.0 -0.9814 0.2104
6028000000.0 -0.4562 0.87
6031000000.0 0.3927 0.8869
6034000000.0 0.9422 0.2688
6038000000.0 0.8057 -0.5402
6041000000.0 0.06461 -0.9572
6044000000.0 -0.6945 -0.6491
6047000000.0 -0.9639 0.1293
6050000000.0 -0.505 0.8049
6053000000.0 0.3235 0.9129
6056000000.0 0.8843 0.3123
6059000000.0 0.7849 -0.4869
6062000000.0 0.1307 -0.949
6066000000.0 -0.6092 -0.6808
6069000000.0 -0.9425 0.08342
6072000000.0 -0.4835 0.7623
6075000000.0 0.2581 0.869
6078000000.0 0.825 0.3333
6081000000.0 0.7676 -0.437
6084000000.0 0.1592 -0.8703
6088000000.0 -0.5786 -0.6673
6091000000.0 -0.8485 0.03898
6094000000.0 -0.5301 0.6647
6097000000.0 0.2203 0.845
6100000000.0 0.7726 0.3549
6103000000.0 0.7564 -0.3942
6106000000.0 0.2092 -0.8514
6109000000.0 -0.522 -0.6744
6112000000.0 -0.8522 -0.02983
6116000000.0 -0.5479 0.6673
6119000000.0 0.1557 0.8927
6122000000.0 0.7504 0.3881
6125000000.0 0.806 -0.3453
6128000000.0 0.215 -0.8546
6131000000.0 -0.5 -0.7028
6134000000.0 -0.9024 -0.06662
6138000000.0 -0.5862 0.6279
6141000000.0 0.1146 0.8531
6144000000.0 0.7707 0.4605
6147000000.0 0.8321 -0.3003
6150000000.0 0.3032 -0.8423
6153000000.0 -0.4635 -0.7702
6156000000.0 -0.8823 -0.1281
6159000000.0 -0.6632 0.6127
6162000000.0 0.04505 0.9053
6166000000.0 0.7546 0.5736
6169000000.0 0.8952 -0.2355
6172000000.0 0.389 -0.8625
6175000000.0 -0.4119 -0.8055
6178000000.0 -0.9143 -0.2254
6181000000.0 -0.7211 0.571
6184000000.0 -0.03024 0.9781
6188000000.0 0.7547 0.6064
6191000000.0 0.9453 -0.173
6194000000.0 0.4411 -0.8355
6197000000.0 -0.3532 -0.8747
6200000000.0 -0.9084 -0.312
6203000000.0 -0.7753 0.5098
6206000000.0 -0.1112 0.9256
6209000000.0 0.6321 0.7216
6212000000.0 0.927 -0.04807
6216000000.0 0.5228 -0.7411
6219000000.0 -0.2207 -0.8948
6222000000.0 -0.8268 -0.3956
6225000000.0 -0.825 0.4225
6228000000.0 -0.2277 0.8841
6231000000.0 0.5138 0.718
6234000000.0 0.8548 0.05197
6238000000.0 0.6093 -0.6734
6241000000.0 -0.09804 -0.8707
6244000000.0 -0.7168 -0.4717
6247000000.0 -0.8419 0.2531
6250000000.0 -0.3257 0.7772
6253000000.0 0.4027 0.7244
6256000000.0 0.7902 0.1904
6259000000.0 0.6476 -0.5077
6262000000.0 0.03191 -0.8157
6266000000.0 -0.6372 -0.5627
6269000000.0 -0.8093 0.1183
6272000000.0 -0.4183 0.6787
