! Created with skrf 1.8.0 (http://scikit-rf.org).
# Hz S RI R 50.0 
!freq ReS11 ImS11
4000000000.0 -1.635 0.1636
4003000000.0 -0.8933 1.375
4006000000.0 0.5705 1.588
4009000000.0 1.624 0.466
4012000000.0 1.409 -1.001
4016000000.0 0.03975 -1.694
4019000000.0 -1.338 -1.074
4022000000.0 -1.712 0.4507
4025000000.0 -0.6552 1.588
4028000000.0 0.9215 1.541
4031000000.0 1.749 0.2136
4034000000.0 1.2 -1.223
4038000000.0 -0.3124 -1.715
4041000000.0 -1.526 -0.7894
4044000000.0 -1.514 0.6957
4047000000.0 -0.3516 1.589
4050000000.0 1.027 1.242
4053000000.0 1.55 -0.1052
4056000000.0 0.8305 -1.252
4059000000.0 -0.4393 -1.415
4062000000.0 -1.356 -0.4902
4066000000.0 -1.252 0.7375
4069000000.0 -0.1676 1.397
4072000000.0 0.9654 0.9842
4075000000.0 1.377 -0.2162
4078000000.0 0.6387 -1.134
4081000000.0 -0.5337 -1.233
4084000000.0 -1.304 -0.3454
4088000000.0 -1.054 0.8741
4091000000.0 0.08837 1.356
4094000000.0 1.145 0.7076
4097000000.0 1.203 -0.5273
4100000000.0 0.2544 -1.275
4103000000.0 -0.9241 -0.9454
4106000000.0 -1.309 0.1862
4109000000.0 -0.5589 1.174
4112000000.0 0.6185 1.163
4116000000.0 1.3 0.2244
4119000000.0 0.8883 -0.9839
4122000000.0 -0.265 -1.295
4125000000.0 -1.233 -0.5184
4128000000.0 -1.15 0.6809
4131000000.0 -0.07817 1.367
4134000000.0 1.075 0.9031
4138000000.0 1.353 -0.393
4141000000.0 0.5779 -1.349
4144000000.0 -0.7917 -1.223
4147000000.0 -1.477 -0.07327
4150000000.0 -0.9852 1.157
4153000000.0 0.3935 1.44
4156000000.0 1.392 0.572
4159000000.0 1.303 -0.8288
4162000000.0 0.1657 -1.491
4166000000.0 -1.063 -1.071
4169000000.0 -1.47 0.1697
4172000000.0 -0.758 1.29
4175000000.0 0.5232 1.379
4178000000.0 1.372 0.4335
4181000000.0 1.235 -0.7961
4184000000.0 0.2332 -1.473
4188000000.0 -1.003 -1.045
4191000000.0 -1.449 0.1214
4194000000.0 -0.873 1.19
4197000000.0 0.3564 1.467
4200000000.0 1.329 0.6818
4203000000.0 1.359 -0.5862
4206000000.0 0.3791 -1.487
4209000000.0 -0.9093 -1.241
4212000000.0 -1.548 -0.1369
4216000000.0 -1.099 1.131
4219000000.0 0.1677 1.588
4222000000.0 1.334 0.855
4225000000.0 1.511 -0.5068
4228000000.0 0.5552 -1.51
4231000000.0 -0.7892 -1.385
4234000000.0 -1.625 -0.273
4238000000.0 -1.237 1.11
4241000000.0 0.07497 1.633
4244000000.0 1.322 0.9867
4247000000.0 1.566 -0.4296
4250000000.0 0.7145 -1.469
4253000000.0 -0.7023 -1.497
4256000000.0 -1.617 -0.3622
4259000000.0 -1.31 1.042
4262000000.0 -0.008947 1.724
4266000000.0 1.415 1.067
4269000000.0 1.699 -0.423
4272000000.0 0.7239 -1.626
4275000000.0 -0.8951 -1.584
4278000000.0 -1.786 -0.2569
4281000000.0 -1.235 1.259
4284000000.0 0.2873 1.746
4288000000.0 1.537 0.8612
4291000000.0 1.582 -0.741
4294000000.0 0.4077 -1.647
4297000000.0 -1.064 -1.29
4300000000.0 -1.672 0.08267
4303000000.0 -0.9189 1.331
4306000000.0 0.4658 1.501
4309000000.0 1.47 0.5515
4312000000.0 1.308 -0.8058
4316000000.0 0.1946 -1.516
4319000000.0 -1.036 -1.065
4322000000.0 -1.444 0.1637
4325000000.0 -0.7747 1.226
4328000000.0 0.524 1.354
4331000000.0 1.36 0.4292
4334000000.0 1.181 -0.7993
4338000000.0 0.1033 -1.468
4341000000.0 -1.04 -0.9668
4344000000.0 -1.384 0.2161
4347000000.0 -0.6814 1.221
4350000000.0 0.5289 1.293
4353000000.0 1.336 0.4102
4356000000.0 1.128 -0.7564
4359000000.0 0.1235 -1.352
4362000000.0 -0.9466 -0.9509
4366000000.0 -1.337 0.1567
4369000000.0 -0.7399 1.144
4372000000.0 0.4016 1.325
4375000000.0 1.216 0.5127
4378000000.0 1.208 -0.6433
4381000000.0 0.292 -1.346
4384000000.0 -0.8076 -1.082
4388000000.0 -1.382 -0.05078
4391000000.0 -0.9327 1.049
4394000000.0 0.2001 1.384
4397000000.0 1.218 0.7381
4400000000.0 1.377 -0.4888
4403000000.0 0.5162 -1.369
4406000000.0 -0.7469 -1.309
4409000000.0 -1.486 -0.2624
4412000000.0 -1.148 0.9595
4416000000.0 0.02331 1.505
4419000000.0 1.185 0.9438
4422000000.0 1.491 -0.2683
4425000000.0 0.7411 -1.341
4428000000.0 -0.5667 -1.403
4431000000.0 -1.452 -0.4729
4434000000.0 -1.3 0.8351
4438000000.0 -0.2221 1.539
4441000000.0 1.046 1.178
4444000000.0 1.597 -0.09978
4447000000.0 0.9206 -1.298
4450000000.0 -0.4016 -1.554
4453000000.0 -1.471 -0.6549
4456000000.0 -1.423 0.7539
4459000000.0 -0.3044 1.636
4462000000.0 1.087 1.203
4466000000.0 1.61 -0.07234
4469000000.0 0.9604 -1.318
4472000000.0 -0.4499 -1.545
4475000000.0 -1.516 -0.618
4478000000.0 -1.385 0.7701
4481000000.0 -0.2329 1.548
4484000000.0 1.072 1.098
4488000000.0 1.51 -0.1371
4491000000.0 0.8106 -1.243
4494000000.0 -0.4957 -1.343
4497000000.0 -1.371 -0.4846
4500000000.0 -1.199 0.7738
4503000000.0 -0.09944 1.312
4506000000.0 0.9635 0.8734
4509000000.0 1.264 -0.1803
4512000000.0 0.5977 -1.126
4516000000.0 -0.4773 -1.164
4519000000.0 -1.185 -0.3208
4522000000.0 -0.9609 0.7441
4525000000.0 0.01226 1.175
4528000000.0 0.904 0.7058
4531000000.0 1.098 -0.2973
4534000000.0 0.4349 -1.049
4538000000.0 -0.5502 -0.9791
4541000000.0 -1.074 -0.1633
4544000000.0 -0.7975 0.7424
4547000000.0 0.07891 1.082
4550000000.0 0.8672 0.5726
4553000000.0 1.017 -0.3447
4556000000.0 0.3585 -0.9653
4559000000.0 -0.5371 -0.9054
4562000000.0 -1.049 -0.1473
4566000000.0 -0.7711 0.7416
4569000000.0 0.1021 1.063
4572000000.0 0.8923 0.5952
4575000000.0 1.03 -0.3371
4578000000.0 0.3964 -1.003
4581000000.0 -0.5546 -0.9632
4584000000.0 -1.068 -0.174
4588000000.0 -0.8554 0.7453
4591000000.0 0.05786 1.126
4594000000.0 0.9293 0.6818
4597000000.0 1.16 -0.2935
4600000000.0 0.4756 -1.07
4603000000.0 -0.5128 -1.07
4606000000.0 -1.159 -0.2746
4609000000.0 -0.9564 0.723
4612000000.0 -0.06123 1.249
4616000000.0 0.9149 0.8403
4619000000.0 1.257 -0.1829
4622000000.0 0.6299 -1.072
4625000000.0 -0.3947 -1.191
4628000000.0 -1.207 -0.4549
4631000000.0 -1.13 0.679
4634000000.0 -0.2231 1.305
4638000000.0 0.8586 0.9865
4641000000.0 1.343 -0.09106
4644000000.0 0.818 -1.025
4647000000.0 -0.3599 -1.326
4650000000.0 -1.239 -0.5814
4653000000.0 -1.219 0.5989
4656000000.0 -0.297 1.337
4659000000.0 0.862 1.074
4662000000.0 1.366 0.03066
4666000000.0 0.8962 -1.069
4669000000.0 -0.297 -1.326
4672000000.0 -1.197 -0.6238
4675000000.0 -1.224 0.5447
4678000000.0 -0.3401 1.304
4681000000.0 0.8166 1.062
4684000000.0 1.349 0.02329
4688000000.0 0.8371 -1.021
4691000000.0 -0.2226 -1.247
4694000000.0 -1.18 -0.6138
4697000000.0 -1.177 0.5203
4700000000.0 -0.3485 1.275
4703000000.0 0.7867 1.005
4706000000.0 1.292 0.003605
4709000000.0 0.7826 -1.009
4712000000.0 -0.319 -1.166
4716000000.0 -1.146 -0.4424
4719000000.0 -1.005 0.6177
4722000000.0 -0.1296 1.135
4725000000.0 0.8185 0.736
4728000000.0 1.104 -0.1298
4731000000.0 0.5277 -0.9313
4734000000.0 -0.4109 -0.9743
4738000000.0 -1.006 -0.2516
4741000000.0 -0.8455 0.6193
4744000000.0 -0.01886 1.003
4747000000.0 0.7325 0.6205
4750000000.0 0.9781 -0.1794
4753000000.0 0.444 -0.8508
4756000000.0 -0.4249 -0.8957
4759000000.0 -0.9958 -0.2178
4762000000.0 -0.7639 0.6051
4766000000.0 0.001936 1.001
4769000000.0 0.782 0.6
4772000000.0 0.9735 -0.2307
4775000000.0 0.4053 -0.9172
4778000000.0 -0.4428 -0.9138
4781000000.0 -0.9667 -0.2366
4784000000.0 -0.7709 0.6087
4788000000.0 -0.0335 0.9893
4791000000.0 0.773 0.6627
4794000000.0 0.9959 -0.1805
4797000000.0 0.486 -0.9049
4800000000.0 -0.3884 -0.9727
4803000000.0 -0.9846 -0.3155
4806000000.0 -0.8978 0.5533
4809000000.0 -0.1441 1.062
4812000000.0 0.7151 0.7906
4816000000.0 1.086 -0.05817
4819000000.0 0.6536 -0.8906
4822000000.0 -0.2566 -1.123
4825000000.0 -1.035 -0.5138
4828000000.0 -1.087 0.4897
4831000000.0 -0.3272 1.178
4834000000.0 0.6845 0.9868
4838000000.0 1.231 0.07618
4841000000.0 0.8549 -0.8876
4844000000.0 -0.151 -1.267
4847000000.0 -1.066 -0.7099
4850000000.0 -1.241 0.4222
4853000000.0 -0.4908 1.204
4856000000.0 0.6332 1.182
4859000000.0 1.297 0.2514
4862000000.0 1.027 -0.8757
4866000000.0 -0.01355 -1.344
4869000000.0 -1.061 -0.8425
4872000000.0 -1.34 0.2944
4875000000.0 -0.6141 1.23
4878000000.0 0.5999 1.251
4881000000.0 1.331 0.3329
4884000000.0 1.106 -0.8491
4888000000.0 0.03112 -1.374
4891000000.0 -1.042 -0.8735
4894000000.0 -1.285 0.286
4897000000.0 -0.6132 1.206
4900000000.0 0.5466 1.184
4903000000.0 1.247 0.2969
4906000000.0 1.008 -0.7657
4909000000.0 0.03289 -1.231
4912000000.0 -0.9538 -0.7566
4916000000.0 -1.158 0.2294
4919000000.0 -0.5291 1.02
4922000000.0 0.4756 1.034
4925000000.0 1.061 0.2804
4928000000.0 0.9043 -0.6232
4931000000.0 0.07548 -1.048
4934000000.0 -0.757 -0.7117
4938000000.0 -1.055 0.1522
4941000000.0 -0.5014 0.844
4944000000.0 0.3321 0.9322
4947000000.0 0.9213 0.3326
4950000000.0 0.8347 -0.5026
4953000000.0 0.1064 -0.956
4956000000.0 -0.7026 -0.7127
4959000000.0 -0.9444 0.1302
4962000000.0 -0.5163 0.7749
4966000000.0 0.3127 0.8891
4969000000.0 0.8689 0.324
4972000000.0 0.7679 -0.4966
4975000000.0 0.1564 -0.9512
4978000000.0 -0.6422 -0.6923
4981000000.0 -0.9423 0.05911
4984000000.0 -0.5542 0.7846
4988000000.0 0.244 0.8981
4991000000.0 0.8609 0.3656
4994000000.0 0.8681 -0.4344
4997000000.0 0.2105 -0.961
5000000000.0 -0.6154 -0.7822
5003000000.0 -0.9996 -0.01313
5006000000.0 -0.6821 0.7942
5009000000.0 0.1961 1.034
5012000000.0 0.9449 0.4668
5016000000.0 0.9799 -0.4265
5019000000.0 0.3204 -1.044
5022000000.0 -0.6126 -0.9443
5025000000.0 -1.139 -0.1147
5028000000.0 -0.8324 0.8325
5031000000.0 0.1333 1.198
5034000000.0 0.9832 0.6298
5038000000.0 1.133 -0.3689
5041000000.0 0.4778 -1.113
5044000000.0 -0.5875 -1.054
5047000000.0 -1.204 -0.2659
5050000000.0 -0.962 0.7971
5053000000.0 -0.02299 1.242
5056000000.0 0.9452 0.8133
5059000000.0 1.258 -0.1818
5062000000.0 0.6094 -1.113
5066000000.0 -0.4599 -1.222
5069000000.0 -1.222 -0.4275
5072000000.0 -1.102 0.686
5075000000.0 -0.1579 1.25
5078000000.0 0.848 0.9656
5081000000.0 1.307 -0.1116
5084000000.0 0.7605 -1.031
5088000000.0 -0.3288 -1.228
5091000000.0 -1.108 -0.5809
5094000000.0 -1.16 0.5188
5097000000.0 -0.361 1.189
5100000000.0 0.7073 0.9892
5103000000.0 1.186 0.1073
5106000000.0 0.8578 -0.8491
5109000000.0 -0.1131 -1.218
5112000000.0 -0.9525 -0.6777
5116000000.0 -1.119 0.2764
5119000000.0 -0.491 0.9886
5122000000.0 0.4893 1.022
5125000000.0 1.095 0.2793
5128000000.0 0.8946 -0.6501
5131000000.0 0.07371 -1.093
5134000000.0 -0.7371 -0.7516
5138000000.0 -1.054 0.1153
5141000000.0 -0.6027 0.8534
5144000000.0 0.2839 0.9871
5147000000.0 0.9459 0.4158
5150000000.0 0.8743 -0.4736
5153000000.0 0.239 -0.9636
5156000000.0 -0.6271 -0.7803
5159000000.0 -1.033 -0.04209
5162000000.0 -0.6429 0.6823
5166000000.0 0.157 0.9411
5169000000.0 0.8029 0.4836
5172000000.0 0.8616 -0.3132
5175000000.0 0.3178 -0.858
5178000000.0 -0.4655 -0.7924
5181000000.0 -0.9028 -0.1405
5184000000.0 -0.6935 0.6438
5188000000.0 0.05678 0.9322
5191000000.0 0.7705 0.5173
5194000000.0 0.8923 -0.2746
5197000000.0 0.3352 -0.8733
5200000000.0 -0.4537 -0.802
5203000000.0 -0.9092 -0.09865
5206000000.0 -0.6803 0.6481
5209000000.0 0.0611 0.9238
5212000000.0 0.7824 0.5453
5216000000.0 0.8773 -0.2866
5219000000.0 0.3292 -0.8925
5222000000.0 -0.4901 -0.8488
5225000000.0 -0.9529 -0.1468
5228000000.0 -0.7433 0.6457
5231000000.0 0.06931 0.9723
5234000000.0 0.822 0.548
5238000000.0 0.952 -0.2923
5241000000.0 0.4053 -0.9501
5244000000.0 -0.4781 -0.8905
5247000000.0 -1.009 -0.1815
5250000000.0 -0.7742 0.6743
5253000000.0 0.008355 1.035
5256000000.0 0.8004 0.6285
5259000000.0 1.011 -0.2269
5262000000.0 0.452 -0.9586
5266000000.0 -0.4161 -0.9658
5269000000.0 -1.017 -0.3213
5272000000.0 -0.8903 0.6144
5275000000.0 -0.1018 1.048
5278000000.0 0.7584 0.7814
5281000000.0 1.087 -0.07829
5284000000.0 0.6106 -0.8576
5288000000.0 -0.2395 -1.07
5291000000.0 -0.9761 -0.47
5294000000.0 -1.001 0.4243
5297000000.0 -0.3397 1.049
5300000000.0 0.5967 0.9274
5303000000.0 1.114 0.165
5306000000.0 0.8341 -0.7462
5309000000.0 -0.0454 -1.134
5312000000.0 -0.892 -0.7114
5316000000.0 -1.105 0.2023
5319000000.0 -0.5708 0.9788
5322000000.0 0.3936 1.068
5325000000.0 1.086 0.3689
5328000000.0 0.9942 -0.591
5331000000.0 0.2103 -1.117
5334000000.0 -0.7742 -0.8826
5338000000.0 -1.148 -0.02658
5341000000.0 -0.7218 0.8989
5344000000.0 0.2071 1.14
5347000000.0 1.003 0.6005
5350000000.0 1.057 -0.3873
5353000000.0 0.3845 -1.063
5356000000.0 -0.5774 -0.9851
5359000000.0 -1.112 -0.1976
5362000000.0 -0.8357 0.7469
5366000000.0 0.01653 1.13
5369000000.0 0.9104 0.6887
5372000000.0 1.1 -0.2906
5375000000.0 0.4817 -1.003
5378000000.0 -0.4975 -0.9971
5381000000.0 -1.059 -0.2466
5384000000.0 -0.8608 0.6657
5388000000.0 -0.004308 1.069
5391000000.0 0.8236 0.6762
5394000000.0 1.032 -0.22
5397000000.0 0.4568 -0.9116
5400000000.0 -0.4075 -0.9135
5403000000.0 -0.9314 -0.2491
5406000000.0 -0.7729 0.5937
5409000000.0 -0.04087 0.9701
5412000000.0 0.7176 0.6123
5416000000.0 0.9321 -0.2008
5419000000.0 0.433 -0.816
5422000000.0 -0.3657 -0.83
5425000000.0 -0.8774 -0.2254
5428000000.0 -0.6976 0.5391
5431000000.0 0.003285 0.8899
5434000000.0 0.697 0.5732
5438000000.0 0.8565 -0.2193
5441000000.0 0.3361 -0.8045
5444000000.0 -0.4202 -0.7788
5447000000.0 -0.8321 -0.1435
5450000000.0 -0.6616 0.5728
5453000000.0 0.02123 0.8412
5456000000.0 0.6971 0.5178
5459000000.0 0.8297 -0.204
5462000000.0 0.333 -0.7908
5466000000.0 -0.3585 -0.7533
5469000000.0 -0.8689 -0.203
5472000000.0 -0.675 0.5074
5475000000.0 -0.009673 0.8732
5478000000.0 0.6405 0.5884
5481000000.0 0.8697 -0.1488
5484000000.0 0.4879 -0.7819
5488000000.0 -0.3003 -0.8332
5491000000.0 -0.8945 -0.3048
5494000000.0 -0.7553 0.4635
5497000000.0 -0.1404 0.9756
5500000000.0 0.6131 0.7093
5503000000.0 0.9607 -0.02932
5506000000.0 0.589 -0.735
5509000000.0 -0.1714 -0.9404
5512000000.0 -0.8728 -0.4171
5516000000.0 -0.8853 0.3459
5519000000.0 -0.296 0.9462
5522000000.0 0.5254 0.8291
5525000000.0 1.003 0.1625
5528000000.0 0.7524 -0.6827
5531000000.0 -0.006917 -1.008
5534000000.0 -0.7854 -0.6362
5538000000.0 -1.0 0.1793
5541000000.0 -0.5062 0.9274
5544000000.0 0.3772 1.002
5547000000.0 0.9977 0.3369
5550000000.0 0.9122 -0.5553
5553000000.0 0.1828 -1.055
5556000000.0 -0.6873 -0.798
5559000000.0 -1.066 0.04936
5562000000.0 -0.6843 0.848
5566000000.0 0.2209 1.056
5569000000.0 0.9508 0.5098
5572000000.0 1.027 -0.3774
5575000000.0 0.3358 -1.013
5578000000.0 -0.5697 -0.8889
5581000000.0 -1.019 -0.138
5584000000.0 -0.7599 0.6881
5588000000.0 0.0464 1.033
5591000000.0 0.8057 0.6316
5594000000.0 0.9867 -0.2403
5597000000.0 0.4759 -0.9183
5600000000.0 -0.4099 -0.9114
5603000000.0 -0.9698 -0.2615
5606000000.0 -0.787 0.5812
5609000000.0 -0.09654 0.9653
5612000000.0 0.6576 0.6595
5616000000.0 0.9284 -0.1104
5619000000.0 0.5326 -0.7953
5622000000.0 -0.2748 -0.8955
5625000000.0 -0.849 -0.3478
5628000000.0 -0.7791 0.4461
5631000000.0 -0.1332 0.8856
5634000000.0 0.6003 0.6687
5638000000.0 0.8865 -0.05424
5641000000.0 0.5222 -0.699
5644000000.0 -0.208 -0.8485
5647000000.0 -0.7943 -0.3425
5650000000.0 -0.754 0.3872
5653000000.0 -0.1606 0.829
5656000000.0 0.5531 0.6558
5659000000.0 0.885 -0.02936
5662000000.0 0.5321 -0.7018
5666000000.0 -0.2069 -0.8174
5669000000.0 -0.7963 -0.3403
5672000000.0 -0.7676 0.4231
5675000000.0 -0.1516 0.912
5678000000.0 0.6079 0.6878
5681000000.0 0.8953 -0.04912
5684000000.0 0.5512 -0.7488
5688000000.0 -0.2475 -0.875
5691000000.0 -0.8306 -0.3407
5694000000.0 -0.7945 0.4592
5697000000.0 -0.1462 0.9222
5700000000.0 0.5967 0.7081
5703000000.0 0.9738 -0.04455
5706000000.0 0.559 -0.7744
5709000000.0 -0.249 -0.9603
5712000000.0 -0.9213 -0.3869
5716000000.0 -0.8928 0.4871
5719000000.0 -0.1975 0.9612
5722000000.0 0.606 0.7865
5725000000.0 0.9808 0.02285
5728000000.0 0.6426 -0.7828
5731000000.0 -0.1649 -0.9892
5734000000.0 -0.9053 -0.4853
5738000000.0 -0.96 0.3639
5741000000.0 -0.3173 0.9607
5744000000.0 0.5564 0.9093
5747000000.0 1.049 0.124
5750000000.0 0.7945 -0.7496
5753000000.0 -0.07046 -1.068
5756000000.0 -0.8582 -0.6533
5759000000.0 -1.05 0.25
5762000000.0 -0.4356 0.9643
5766000000.0 0.4509 0.9995
5769000000.0 1.061 0.2695
5772000000.0 0.8745 -0.6314
5775000000.0 0.1042 -1.084
5778000000.0 -0.7852 -0.7891
5781000000.0 -1.095 0.09919
5784000000.0 -0.6505 0.858
5788000000.0 0.2539 1.037
5791000000.0 0.9477 0.4599
5794000000.0 0.9816 -0.4608
5797000000.0 0.2609 -1.068
5800000000.0 -0.6083 -0.917
5803000000.0 -1.06 -0.09013
5806000000.0 -0.7501 0.7855
5809000000.0 0.119 1.078
5812000000.0 0.8885 0.592
5816000000.0 1.028 -0.2965
5819000000.0 0.4198 -0.9626
5822000000.0 -0.4544 -0.9388
5825000000.0 -0.9987 -0.2083
5828000000.0 -0.8298 0.659
5831000000.0 -0.05885 1.038
5834000000.0 0.765 0.6573
5838000000.0 0.9972 -0.1733
5841000000.0 0.4796 -0.8928
5844000000.0 -0.3475 -0.9256
5847000000.0 -0.9878 -0.3057
5850000000.0 -0.8164 0.5371
5853000000.0 -0.1202 0.995
5856000000.0 0.6847 0.6761
5859000000.0 0.9433 -0.09293
5862000000.0 0.5233 -0.8109
5866000000.0 -0.2897 -0.8852
5869000000.0 -0.8698 -0.3611
5872000000.0 -0.7953 0.4566
5875000000.0 -0.1293 0.8827
5878000000.0 0.6216 0.6943
5881000000.0 0.9031 -0.05354
5884000000.0 0.5277 -0.7667
5888000000.0 -0.2575 -0.8611
5891000000.0 -0.8311 -0.3257
5894000000.0 -0.7566 0.4173
5897000000.0 -0.1471 0.8508
5900000000.0 0.5397 0.6156
5903000000.0 0.8721 -0.03913
5906000000.0 0.5242 -0.6848
5909000000.0 -0.2052 -0.8384
5912000000.0 -0.7817 -0.3805
5916000000.0 -0.779 0.3866
5919000000.0 -0.1623 0.8586
5922000000.0 0.5061 0.6618
5925000000.0 0.8598 0.03168
5928000000.0 0.5895 -0.6365
5931000000.0 -0.1615 -0.8587
5934000000.0 -0.7625 -0.437
5938000000.0 -0.7655 0.2955
5941000000.0 -0.2738 0.8209
5944000000.0 0.4587 0.7384
5947000000.0 0.8455 0.1018
5950000000.0 0.6652 -0.5683
5953000000.0 -0.02698 -0.8569
5956000000.0 -0.7093 -0.5376
5959000000.0 -0.8793 0.1731
5962000000.0 -0.4004 0.7928
5966000000.0 0.3743 0.8508
5969000000.0 0.864 0.2709
5972000000.0 0.7571 -0.5233
5975000000.0 0.09331 -0.9042
5978000000.0 -0.634 -0.6834
5981000000.0 -0.9352 0.06286
5984000000.0 -0.5559 0.7758
5988000000.0 0.2261 0.9278
5991000000.0 0.8623 0.4243
5994000000.0 0.8753 -0.3852
5997000000.0 0.2547 -0.9466
6000000000.0 -0.575 -0.812
6003000000.0 -0.9759 -0.0757
6006000000.0 -0.6781 0.7101
6009000000.0 0.06557 0.9668
6012000000.0 0.8292 0.5388
6016000000.0 0.9326 -0.2738
6019000000.0 0.3998 -0.9292
6022000000.0 -0.4574 -0.8884
6025000000.0 -0.9679 -0.2297
6028000000.0 -0.7753 0.6179
6031000000.0 -0.01851 1.004
6034000000.0 0.7636 0.6295
6038000000.0 0.9873 -0.203
6041000000.0 0.4821 -0.8527
6044000000.0 -0.3572 -0.9363
6047000000.0 -0.9479 -0.306
6050000000.0 -0.8133 0.5502
6053000000.0 -0.1112 1.001
6056000000.0 0.6871 0.6662
6059000000.0 0.9604 -0.09743
6062000000.0 0.5349 -0.8041
6066000000.0 -0.2805 -0.9022
6069000000.0 -0.8905 -0.3465
6072000000.0 -0.804 0.4707
6075000000.0 -0.143 0.9263
6078000000.0 0.6276 0.6947
6081000000.0 0.9262 -0.05418
6084000000.0 0.5431 -0.7413
6088000000.0 -0.2105 -0.8847
6091000000.0 -0.8093 -0.3577
6094000000.0 -0.8106 0.4039
6097000000.0 -0.1894 0.8832
6100000000.0 0.5778 0.6858
6103000000.0 0.8547 0.006913
6106000000.0 0.5446 -0.6546
6109000000.0 -0.1652 -0.8527
6112000000.0 -0.7778 -0.4145
6116000000.0 -0.7652 0.3176
6119000000.0 -0.219 0.8425
6122000000.0 0.5431 0.6782
6125000000.0 0.8905 0.01117
6128000000.0 0.5472 -0.6674
6131000000.0 -0.1595 -0.8554
6134000000.0 -0.755 -0.4142
6138000000.0 -0.787 0.3348
6141000000.0 -0.2452 0.8091
6144000000.0 0.4525 0.7032
6147000000.0 0.9012 0.0787
6150000000.0 0.5834 -0.6046
6153000000.0 -0.08823 -0.8522
6156000000.0 -0.7624 -0.4721
6159000000.0 -0.837 0.2821
6162000000.0 -0.3148 0.8363
6166000000.0 0.4447 0.7298
6169000000.0 0.8882 0.1467
6172000000.0 0.6711 -0.6199
6175000000.0 -0.05411 -0.9232
6178000000.0 -0.7371 -0.5075
6181000000.0 -0.881 0.2281
6184000000.0 -0.4089 0.8153
6188000000.0 0.3807 0.8229
6191000000.0 0.886 0.2213
6194000000.0 0.7821 -0.5402
6197000000.0 0.03129 -0.8769
6200000000.0 -0.6849 -0.5956
6203000000.0 -0.8944 0.1603
6206000000.0 -0.4398 0.8114
6209000000.0 0.316 0.8379
6212000000.0 0.8568 0.2818
6216000000.0 0.7538 -0.4842
6219000000.0 0.1045 -0.9297
6222000000.0 -0.5978 -0.6691
6225000000.0 -0.9021 0.04824
6228000000.0 -0.5383 0.718
6231000000.0 0.2271 0.9174
6234000000.0 0.8038 0.3701
6238000000.0 0.7845 -0.4145
6241000000.0 0.2129 -0.8559
6244000000.0 -0.5035 -0.6932
6247000000.0 -0.8498 -0.03834
6250000000.0 -0.5741 0.6275
6253000000.0 0.1146 0.8397
6256000000.0 0.6689 0.4824
6259000000.0 0.7659 -0.2243
6262000000.0 0.2914 -0.735
