! Created with skrf 1.8.0 (http://scikit-rf.org).
# Hz S RI R 50.0 
!freq ReS11 ImS11
4000000000.0 -0.4817 -1.413
4003000000.0 -1.433 -0.5256
4006000000.0 -1.285 0.8479
4009000000.0 -0.1932 1.498
4012000000.0 1.087 1.127
4016000000.0 1.534 -0.183
4019000000.0 0.8648 -1.336
4022000000.0 -0.5175 -1.516
4025000000.0 -1.498 -0.6104
4028000000.0 -1.394 0.8409
4031000000.0 -0.2158 1.634
4034000000.0 1.157 1.181
4038000000.0 1.667 -0.2056
4041000000.0 0.8829 -1.413
4044000000.0 -0.5168 -1.536
4047000000.0 -1.572 -0.5873
4050000000.0 -1.412 0.8797
4053000000.0 -0.2063 1.617
4056000000.0 1.11 1.197
4059000000.0 1.591 -0.09606
4062000000.0 0.9446 -1.312
4066000000.0 -0.4078 -1.558
4069000000.0 -1.464 -0.7354
4072000000.0 -1.474 0.6526
4075000000.0 -0.4021 1.633
4078000000.0 0.9203 1.355
4081000000.0 1.616 0.1431
4084000000.0 1.143 -1.157
4088000000.0 -0.159 -1.62
4091000000.0 -1.371 -0.8804
4094000000.0 -1.547 0.4481
4097000000.0 -0.629 1.502
4100000000.0 0.7653 1.425
4103000000.0 1.554 0.2921
4106000000.0 1.231 -0.9154
4109000000.0 0.0462 -1.522
4112000000.0 -1.13 -1.007
4116000000.0 -1.468 0.1921
4119000000.0 -0.8024 1.212
4122000000.0 0.3677 1.414
4125000000.0 1.325 0.6029
4128000000.0 1.33 -0.5625
4131000000.0 0.4207 -1.399
4134000000.0 -0.7822 -1.22
4138000000.0 -1.447 -0.2078
4141000000.0 -1.088 0.9743
4144000000.0 0.01234 1.459
4147000000.0 1.134 0.9028
4150000000.0 1.481 -0.3081
4153000000.0 0.7059 -1.294
4156000000.0 -0.5736 -1.386
4159000000.0 -1.466 -0.4286
4162000000.0 -1.248 0.8182
4166000000.0 -0.1494 1.487
4169000000.0 1.024 1.062
4172000000.0 1.467 -0.09995
4175000000.0 0.8587 -1.2
4178000000.0 -0.4258 -1.405
4181000000.0 -1.377 -0.577
4184000000.0 -1.299 0.7299
4188000000.0 -0.2722 1.469
4191000000.0 0.9771 1.137
4194000000.0 1.494 -0.03607
4197000000.0 0.9003 -1.233
4200000000.0 -0.4262 -1.517
4203000000.0 -1.459 -0.5557
4206000000.0 -1.384 0.8296
4209000000.0 -0.1696 1.569
4212000000.0 1.137 1.124
4216000000.0 1.606 -0.2651
4219000000.0 0.7034 -1.459
4222000000.0 -0.713 -1.476
4225000000.0 -1.618 -0.3004
4228000000.0 -1.176 1.076
4231000000.0 0.1937 1.59
4234000000.0 1.342 0.7795
4238000000.0 1.424 -0.5638
4241000000.0 0.3925 -1.459
4244000000.0 -0.9124 -1.19
4247000000.0 -1.463 0.03759
4250000000.0 -0.8926 1.165
4253000000.0 0.3719 1.369
4256000000.0 1.295 0.6005
4259000000.0 1.259 -0.7187
4262000000.0 0.2269 -1.394
4266000000.0 -0.9264 -1.044
4269000000.0 -1.398 0.0925
4272000000.0 -0.8045 1.161
4275000000.0 0.4189 1.329
4278000000.0 1.265 0.5034
4281000000.0 1.184 -0.6861
4284000000.0 0.1962 -1.338
4288000000.0 -0.9093 -1.021
4291000000.0 -1.356 0.04575
4294000000.0 -0.7835 1.088
4297000000.0 0.3522 1.267
4300000000.0 1.178 0.5234
4303000000.0 1.159 -0.5536
4306000000.0 0.3559 -1.249
4309000000.0 -0.7676 -1.053
4312000000.0 -1.298 -0.1298
4316000000.0 -0.9902 0.9319
4319000000.0 0.09934 1.317
4322000000.0 1.074 0.785
4325000000.0 1.342 -0.3324
4328000000.0 0.6159 -1.248
4331000000.0 -0.597 -1.265
4334000000.0 -1.362 -0.375
4338000000.0 -1.191 0.8524
4341000000.0 -0.0873 1.443
4344000000.0 1.094 0.9975
4347000000.0 1.492 -0.1972
4350000000.0 0.7456 -1.268
4353000000.0 -0.5561 -1.426
4356000000.0 -1.468 -0.4485
4359000000.0 -1.269 0.8289
4362000000.0 -0.122 1.553
4366000000.0 1.124 1.067
4369000000.0 1.53 -0.2224
4372000000.0 0.8147 -1.321
4375000000.0 -0.5333 -1.442
4378000000.0 -1.488 -0.4424
4381000000.0 -1.312 0.9146
4384000000.0 -0.1092 1.545
4388000000.0 1.162 1.022
4391000000.0 1.508 -0.3141
4394000000.0 0.6906 -1.366
4397000000.0 -0.6765 -1.351
4400000000.0 -1.489 -0.2597
4403000000.0 -1.118 1.002
4406000000.0 0.1765 1.454
4409000000.0 1.27 0.7511
4412000000.0 1.303 -0.5292
4416000000.0 0.366 -1.338
4419000000.0 -0.8249 -1.094
4422000000.0 -1.332 0.01723
4425000000.0 -0.7958 1.043
4428000000.0 0.3282 1.268
4431000000.0 1.165 0.5062
4434000000.0 1.098 -0.6436
4438000000.0 0.1476 -1.255
4441000000.0 -0.8414 -0.8821
4444000000.0 -1.205 0.1312
4447000000.0 -0.6424 1.03
4450000000.0 0.4164 1.137
4453000000.0 1.17 0.3662
4456000000.0 1.006 -0.6829
4459000000.0 0.09907 -1.214
4462000000.0 -0.8666 -0.8462
4466000000.0 -1.189 0.1818
4469000000.0 -0.5928 1.015
4472000000.0 0.4459 1.118
4475000000.0 1.18 0.3147
4478000000.0 0.9861 -0.686
4481000000.0 0.09968 -1.237
4484000000.0 -0.8861 -0.8191
4488000000.0 -1.225 0.1583
4491000000.0 -0.6697 1.041
4494000000.0 0.413 1.17
4497000000.0 1.173 0.4561
4500000000.0 1.099 -0.6304
4503000000.0 0.1983 -1.234
4506000000.0 -0.8031 -0.9561
4509000000.0 -1.278 0.01566
4512000000.0 -0.7616 0.9981
4516000000.0 0.2625 1.229
4519000000.0 1.159 0.5894
4522000000.0 1.226 -0.5149
4525000000.0 0.3501 -1.273
4528000000.0 -0.7689 -1.118
4531000000.0 -1.344 -0.1237
4534000000.0 -0.9701 0.9791
4538000000.0 0.1391 1.382
4541000000.0 1.133 0.7402
4544000000.0 1.299 -0.3746
4547000000.0 0.5437 -1.274
4550000000.0 -0.6475 -1.225
4553000000.0 -1.35 -0.2636
4556000000.0 -1.1 0.8589
4559000000.0 -0.05645 1.402
4562000000.0 1.073 0.9213
4566000000.0 1.402 -0.2506
4569000000.0 0.6974 -1.218
4572000000.0 -0.496 -1.314
4575000000.0 -1.335 -0.4523
4578000000.0 -1.197 0.7515
4581000000.0 -0.1704 1.406
4584000000.0 1.006 1.041
4588000000.0 1.424 -0.1412
4591000000.0 0.7751 -1.186
4594000000.0 -0.4395 -1.329
4597000000.0 -1.337 -0.5174
4600000000.0 -1.227 0.7322
4603000000.0 -0.1759 1.372
4606000000.0 0.9652 0.9938
4609000000.0 1.368 -0.1252
4612000000.0 0.7295 -1.133
4616000000.0 -0.4368 -1.261
4619000000.0 -1.251 -0.4037
4622000000.0 -1.084 0.6796
4625000000.0 -0.1574 1.26
4628000000.0 0.9187 0.8802
4631000000.0 1.24 -0.1662
4634000000.0 0.6138 -1.046
4638000000.0 -0.4505 -1.139
4641000000.0 -1.168 -0.3421
4644000000.0 -0.9343 0.704
4647000000.0 -0.06918 1.189
4650000000.0 0.8677 0.8033
4653000000.0 1.144 -0.2189
4656000000.0 0.5112 -1.016
4659000000.0 -0.4467 -1.026
4662000000.0 -1.101 -0.2719
4666000000.0 -0.8882 0.6836
4669000000.0 -0.01056 1.113
4672000000.0 0.8356 0.6758
4675000000.0 1.031 -0.2223
4678000000.0 0.4907 -0.9783
4681000000.0 -0.4467 -0.9826
4684000000.0 -1.048 -0.2502
4688000000.0 -0.8829 0.6543
4691000000.0 -0.06372 1.066
4694000000.0 0.8421 0.7442
4697000000.0 1.1 -0.1778
4700000000.0 0.582 -1.01
4703000000.0 -0.4735 -1.072
4706000000.0 -1.097 -0.3648
4709000000.0 -0.9932 0.6195
4712000000.0 -0.1361 1.185
4716000000.0 0.8498 0.8603
4719000000.0 1.174 -0.1155
4722000000.0 0.6979 -1.022
4725000000.0 -0.349 -1.188
4728000000.0 -1.12 -0.4483
4731000000.0 -1.115 0.5405
4734000000.0 -0.277 1.2
4738000000.0 0.7537 0.9985
4741000000.0 1.235 0.06396
4744000000.0 0.844 -0.9216
4747000000.0 -0.1805 -1.296
4750000000.0 -1.088 -0.7023
4753000000.0 -1.265 0.3949
4756000000.0 -0.5051 1.25
4759000000.0 0.6452 1.161
4762000000.0 1.342 0.2794
4766000000.0 1.068 -0.8424
4769000000.0 0.007543 -1.394
4772000000.0 -1.056 -0.8877
4775000000.0 -1.397 0.2966
4778000000.0 -0.6729 1.239
4781000000.0 0.5469 1.315
4784000000.0 1.36 0.4022
4788000000.0 1.172 -0.8197
4791000000.0 0.09726 -1.409
4794000000.0 -1.037 -0.9824
4797000000.0 -1.405 0.1905
4800000000.0 -0.7231 1.218
4803000000.0 0.4294 1.27
4806000000.0 1.296 0.4331
4809000000.0 1.132 -0.7445
4812000000.0 0.1327 -1.344
4816000000.0 -0.9493 -0.9169
4819000000.0 -1.301 0.1579
4822000000.0 -0.6578 1.139
4825000000.0 0.4855 1.185
4828000000.0 1.192 0.3478
4831000000.0 1.018 -0.7213
4834000000.0 0.06794 -1.212
4838000000.0 -0.8955 -0.7839
4841000000.0 -1.106 0.2315
4844000000.0 -0.4725 1.02
4847000000.0 0.4366 1.007
4850000000.0 1.032 0.2611
4853000000.0 0.8393 -0.6699
4856000000.0 -0.01705 -1.038
4859000000.0 -0.7789 -0.6233
4862000000.0 -0.9331 0.2679
4866000000.0 -0.4003 0.8917
4869000000.0 0.4459 0.8223
4872000000.0 0.9562 0.1922
4875000000.0 0.7091 -0.6135
4878000000.0 -0.03683 -0.9699
4881000000.0 -0.7757 -0.5945
4884000000.0 -0.8846 0.2931
4888000000.0 -0.327 0.8811
4891000000.0 0.503 0.8111
4894000000.0 0.9542 0.08452
4897000000.0 0.6908 -0.6839
4900000000.0 -0.1255 -0.9485
4903000000.0 -0.8137 -0.4843
4906000000.0 -0.9027 0.364
4909000000.0 -0.2624 0.9396
4912000000.0 0.5775 0.8292
4916000000.0 1.037 0.05927
4919000000.0 0.7102 -0.7781
4922000000.0 -0.1521 -1.024
4925000000.0 -0.9032 -0.5212
4928000000.0 -1.017 0.3737
4931000000.0 -0.3402 1.052
4934000000.0 0.6201 0.9647
4938000000.0 1.155 0.1006
4941000000.0 0.7774 -0.8384
4944000000.0 -0.1567 -1.169
4947000000.0 -1.044 -0.627
4950000000.0 -1.143 0.4624
4953000000.0 -0.366 1.201
4956000000.0 0.747 1.057
4959000000.0 1.317 0.03025
4962000000.0 0.8316 -1.016
4966000000.0 -0.2988 -1.281
4969000000.0 -1.192 -0.569
4972000000.0 -1.139 0.6175
4975000000.0 -0.2452 1.282
4978000000.0 0.8916 0.9438
4981000000.0 1.278 -0.1099
4984000000.0 0.6742 -1.059
4988000000.0 -0.4111 -1.173
4991000000.0 -1.16 -0.3935
4994000000.0 -0.9986 0.6527
4997000000.0 -0.08727 1.177
5000000000.0 0.8719 0.775
5003000000.0 1.128 -0.1767
5006000000.0 0.5041 -0.9703
5009000000.0 -0.4599 -0.9506
5012000000.0 -1.047 -0.2115
5016000000.0 -0.7681 0.6719
5019000000.0 0.07312 1.003
5022000000.0 0.8319 0.5412
5025000000.0 0.9099 -0.3324
5028000000.0 0.2726 -0.8999
5031000000.0 -0.5279 -0.7532
5034000000.0 -0.9067 -0.03404
5038000000.0 -0.5529 0.6789
5041000000.0 0.1983 0.8541
5044000000.0 0.8 0.3451
5047000000.0 0.7518 -0.4444
5050000000.0 0.07145 -0.8286
5053000000.0 -0.6283 -0.5918
5056000000.0 -0.841 0.1269
5059000000.0 -0.3951 0.7668
5062000000.0 0.3932 0.8026
5066000000.0 0.8954 0.1883
5069000000.0 0.6888 -0.6367
5072000000.0 -0.1097 -0.9612
5075000000.0 -0.8427 -0.5029
5078000000.0 -0.9225 0.3904
5081000000.0 -0.2641 0.987
5084000000.0 0.6437 0.8316
5088000000.0 1.047 -0.03455
5091000000.0 0.6535 -0.8323
5094000000.0 -0.3067 -1.06
5097000000.0 -1.048 -0.3774
5100000000.0 -0.9689 0.5787
5103000000.0 -0.1495 1.129
5106000000.0 0.7999 0.8046
5109000000.0 1.166 -0.1372
5112000000.0 0.5994 -1.014
5116000000.0 -0.3817 -1.099
5119000000.0 -1.101 -0.3784
5122000000.0 -0.9614 0.6574
5125000000.0 -0.08471 1.22
5128000000.0 0.869 0.808
5131000000.0 1.14 -0.1812
5134000000.0 0.5692 -1.027
5138000000.0 -0.4207 -1.075
5141000000.0 -1.125 -0.3657
5144000000.0 -0.9614 0.6235
5147000000.0 -0.1171 1.107
5150000000.0 0.7766 0.8067
5153000000.0 1.109 -0.11
5156000000.0 0.5858 -0.902
5159000000.0 -0.3311 -1.038
5162000000.0 -0.9786 -0.4211
5166000000.0 -0.9511 0.5031
5169000000.0 -0.2174 1.033
5172000000.0 0.6517 0.7944
5175000000.0 1.014 -0.02634
5178000000.0 0.642 -0.7994
5181000000.0 -0.1985 -1.002
5184000000.0 -0.9076 -0.442
5188000000.0 -0.9288 0.4301
5191000000.0 -0.2493 0.969
5194000000.0 0.5908 0.7915
5197000000.0 0.9946 0.03457
5200000000.0 0.653 -0.7614
5203000000.0 -0.207 -0.9418
5206000000.0 -0.8602 -0.43
5209000000.0 -0.8668 0.3931
5212000000.0 -0.1931 0.9336
5216000000.0 0.6096 0.7223
5219000000.0 0.9504 -0.02378
5222000000.0 0.5454 -0.7816
5225000000.0 -0.2512 -0.9048
5228000000.0 -0.887 -0.3488
5231000000.0 -0.8221 0.4808
5234000000.0 -0.1174 0.9255
5238000000.0 0.7011 0.6601
5241000000.0 0.9307 -0.1292
5244000000.0 0.4605 -0.8346
5247000000.0 -0.3858 -0.8889
5250000000.0 -0.9234 -0.2397
5253000000.0 -0.7721 0.5775
5256000000.0 0.004072 0.9783
5259000000.0 0.7684 0.621
5262000000.0 0.9541 -0.2393
5266000000.0 0.414 -0.9067
5269000000.0 -0.4542 -0.878
5272000000.0 -0.949 -0.1687
5275000000.0 -0.76 0.6561
5278000000.0 0.03519 1.011
5281000000.0 0.805 0.607
5284000000.0 0.9868 -0.2395
5288000000.0 0.4349 -0.9016
5291000000.0 -0.4255 -0.9159
5294000000.0 -1.006 -0.2593
5297000000.0 -0.8366 0.6053
5300000000.0 -0.07997 1.034
5303000000.0 0.7458 0.7173
5306000000.0 1.065 -0.1234
5309000000.0 0.5928 -0.9228
5312000000.0 -0.3348 -1.044
5316000000.0 -1.028 -0.4292
5319000000.0 -0.9583 0.5101
5322000000.0 -0.2481 1.099
5325000000.0 0.7189 0.8782
5328000000.0 1.126 0.06247
5331000000.0 0.7199 -0.8403
5334000000.0 -0.1572 -1.11
5338000000.0 -0.955 -0.5891
5341000000.0 -1.089 0.3879
5344000000.0 -0.4246 1.055
5347000000.0 0.5421 1.012
5350000000.0 1.151 0.2383
5353000000.0 0.9002 -0.719
5356000000.0 0.04335 -1.161
5359000000.0 -0.8844 -0.755
5362000000.0 -1.132 0.1629
5366000000.0 -0.5636 1.018
5369000000.0 0.3598 1.073
5372000000.0 1.099 0.3903
5375000000.0 1.021 -0.578
5378000000.0 0.1777 -1.143
5381000000.0 -0.7786 -0.8311
5384000000.0 -1.183 0.08408
5388000000.0 -0.6516 0.9344
5391000000.0 0.2968 1.088
5394000000.0 1.024 0.4418
5397000000.0 0.9942 -0.5116
5400000000.0 0.1975 -1.067
5403000000.0 -0.678 -0.8579
5406000000.0 -1.068 0.004916
5409000000.0 -0.6448 0.8286
5412000000.0 0.2401 1.005
5416000000.0 0.9155 0.4289
5419000000.0 0.9087 -0.448
5422000000.0 0.2235 -0.9784
5425000000.0 -0.6431 -0.778
5428000000.0 -0.9963 0.04174
5431000000.0 -0.5796 0.7823
5434000000.0 0.2813 0.9567
5438000000.0 0.8732 0.3776
5441000000.0 0.806 -0.4718
5444000000.0 0.116 -0.9226
5447000000.0 -0.6384 -0.668
5450000000.0 -0.8849 0.09898
5453000000.0 -0.4554 0.7573
5456000000.0 0.3206 0.8329
5459000000.0 0.8289 0.2651
5462000000.0 0.7019 -0.4977
5466000000.0 0.06268 -0.8402
5469000000.0 -0.5903 -0.5888
5472000000.0 -0.8172 0.1632
5475000000.0 -0.4455 0.7325
5478000000.0 0.3158 0.8021
5481000000.0 0.8357 0.2293
5484000000.0 0.7009 -0.5172
5488000000.0 0.1253 -0.8733
5491000000.0 -0.6128 -0.6118
5494000000.0 -0.8506 0.1085
5497000000.0 -0.4926 0.7322
5500000000.0 0.2916 0.8575
5503000000.0 0.8086 0.3259
5506000000.0 0.7698 -0.4644
5509000000.0 0.1719 -0.893
5512000000.0 -0.6046 -0.6923
5516000000.0 -0.9191 0.002566
5519000000.0 -0.5742 0.7321
5522000000.0 0.2002 0.9087
5525000000.0 0.815 0.4518
5528000000.0 0.8783 -0.3112
5531000000.0 0.3067 -0.9062
5534000000.0 -0.475 -0.8326
5538000000.0 -0.9534 -0.1581
5541000000.0 -0.7485 0.6489
5544000000.0 0.006208 1.016
5547000000.0 0.7964 0.6036
5550000000.0 0.999 -0.2121
5553000000.0 0.51 -0.9263
5556000000.0 -0.3633 -0.9461
5559000000.0 -1.011 -0.3496
5562000000.0 -0.901 0.5553
5566000000.0 -0.1664 1.035
5569000000.0 0.6853 0.8082
5572000000.0 1.073 -0.04177
5575000000.0 0.6423 -0.8303
5578000000.0 -0.2098 -1.034
5581000000.0 -0.8947 -0.4748
5584000000.0 -0.9922 0.3969
5588000000.0 -0.312 0.9916
5591000000.0 0.5534 0.8766
5594000000.0 1.02 0.1247
5597000000.0 0.7262 -0.73
5600000000.0 -0.07712 -1.022
5603000000.0 -0.8197 -0.609
5606000000.0 -0.9953 0.2493
5609000000.0 -0.4188 0.9017
5612000000.0 0.4263 0.8886
5616000000.0 0.9444 0.2342
5619000000.0 0.7911 -0.5817
5622000000.0 0.02865 -0.9645
5625000000.0 -0.7219 -0.6532
5628000000.0 -0.9457 0.1734
5631000000.0 -0.4567 0.8156
5634000000.0 0.3429 0.8728
5638000000.0 0.8699 0.2867
5641000000.0 0.7971 -0.5118
5644000000.0 0.06108 -0.9394
5647000000.0 -0.6433 -0.6247
5650000000.0 -0.8842 0.09462
5653000000.0 -0.4581 0.7498
5656000000.0 0.3155 0.8577
5659000000.0 0.8482 0.2946
5662000000.0 0.761 -0.4861
5666000000.0 0.07745 -0.8715
5669000000.0 -0.6361 -0.5952
5672000000.0 -0.8754 0.1129
5675000000.0 -0.4593 0.751
5678000000.0 0.3449 0.8103
5681000000.0 0.8599 0.2622
5684000000.0 0.738 -0.5263
5688000000.0 0.06517 -0.88
5691000000.0 -0.6934 -0.608
5694000000.0 -0.8758 0.1592
5697000000.0 -0.3982 0.8316
5700000000.0 0.3663 0.8583
5703000000.0 0.8874 0.2359
5706000000.0 0.7243 -0.5297
5709000000.0 0.05806 -0.9678
5712000000.0 -0.7435 -0.6416
5716000000.0 -0.933 0.1754
5719000000.0 -0.4662 0.8561
5722000000.0 0.3793 0.8827
5725000000.0 0.925 0.3078
5728000000.0 0.7772 -0.5754
5731000000.0 0.09173 -0.9888
5734000000.0 -0.7337 -0.6886
5738000000.0 -0.9954 0.1422
5741000000.0 -0.5479 0.8398
5744000000.0 0.3517 0.9638
5747000000.0 0.9903 0.3757
5750000000.0 0.9032 -0.4854
5753000000.0 0.1834 -1.045
5756000000.0 -0.6853 -0.8047
5759000000.0 -1.038 0.01736
5762000000.0 -0.7054 0.819
5766000000.0 0.1742 1.062
5769000000.0 0.9303 0.5095
5772000000.0 1.009 -0.3917
5775000000.0 0.3279 -1.002
5778000000.0 -0.5609 -0.9078
5781000000.0 -1.081 -0.1722
5784000000.0 -0.8444 0.7112
5788000000.0 0.04216 1.102
5791000000.0 0.8544 0.6288
5794000000.0 1.073 -0.2358
5797000000.0 0.4925 -0.9409
5800000000.0 -0.4244 -1.004
5803000000.0 -1.042 -0.3006
5806000000.0 -0.9057 0.6001
5809000000.0 -0.0893 1.084
5812000000.0 0.7319 0.7744
5816000000.0 1.071 -0.07681
5819000000.0 0.6012 -0.8105
5822000000.0 -0.2728 -1.023
5825000000.0 -0.9504 -0.4391
5828000000.0 -0.963 0.4267
5831000000.0 -0.2479 1.033
5834000000.0 0.6379 0.8477
5838000000.0 1.019 0.01893
5841000000.0 0.699 -0.7352
5844000000.0 -0.1283 -1.014
5847000000.0 -0.878 -0.5224
5850000000.0 -0.9491 0.3349
5853000000.0 -0.3592 0.958
5856000000.0 0.5358 0.8249
5859000000.0 0.986 0.1424
5862000000.0 0.7063 -0.6666
5866000000.0 -0.08659 -0.9612
5869000000.0 -0.8191 -0.5376
5872000000.0 -0.9168 0.2908
5875000000.0 -0.3312 0.8834
5878000000.0 0.4471 0.8024
5881000000.0 0.9273 0.1557
5884000000.0 0.637 -0.6102
5888000000.0 -0.07336 -0.879
5891000000.0 -0.7657 -0.5206
5894000000.0 -0.861 0.2689
5897000000.0 -0.3361 0.8312
5900000000.0 0.3979 0.7729
5903000000.0 0.8888 0.181
5906000000.0 0.6253 -0.6169
5909000000.0 -0.03826 -0.8468
5912000000.0 -0.6886 -0.5223
5916000000.0 -0.8295 0.2176
5919000000.0 -0.3698 0.7817
5922000000.0 0.3877 0.7796
5925000000.0 0.8389 0.1734
5928000000.0 0.6726 -0.5163
5931000000.0 0.04769 -0.8554
5934000000.0 -0.6516 -0.5406
5938000000.0 -0.8269 0.1527
5941000000.0 -0.3663 0.7413
5944000000.0 0.3066 0.8137
5947000000.0 0.8007 0.2652
5950000000.0 0.7248 -0.475
5953000000.0 0.1136 -0.8563
5956000000.0 -0.6132 -0.6434
5959000000.0 -0.9059 0.05637
5962000000.0 -0.5327 0.7048
5966000000.0 0.2156 0.847
5969000000.0 0.7718 0.3617
5972000000.0 0.8357 -0.3762
5975000000.0 0.237 -0.9008
5978000000.0 -0.5045 -0.7585
5981000000.0 -0.9305 -0.1037
5984000000.0 -0.6824 0.6307
5988000000.0 0.05593 0.9634
5991000000.0 0.7751 0.5424
5994000000.0 0.9193 -0.2739
5997000000.0 0.4148 -0.878
6000000000.0 -0.4051 -0.895
6003000000.0 -0.8998 -0.234
6006000000.0 -0.7599 0.5672
6009000000.0 -0.06424 0.9727
6012000000.0 0.7287 0.6482
6016000000.0 0.9511 -0.1289
6019000000.0 0.5348 -0.8451
6022000000.0 -0.2998 -0.9329
6025000000.0 -0.9021 -0.3577
6028000000.0 -0.877 0.4889
6031000000.0 -0.1979 0.9662
6034000000.0 0.6215 0.773
6038000000.0 1.003 -0.003942
6041000000.0 0.6471 -0.7611
6044000000.0 -0.2018 -0.9738
6047000000.0 -0.8811 -0.4617
6050000000.0 -0.9298 0.4211
6053000000.0 -0.2655 0.9485
6056000000.0 0.5496 0.8298
6059000000.0 0.9721 0.0655
6062000000.0 0.6675 -0.7184
6066000000.0 -0.1405 -0.9642
6069000000.0 -0.8207 -0.4891
6072000000.0 -0.887 0.3532
6075000000.0 -0.3229 0.87
6078000000.0 0.5079 0.7904
6081000000.0 0.9061 0.1138
6084000000.0 0.6569 -0.6226
6088000000.0 -0.09095 -0.8966
6091000000.0 -0.749 -0.4929
6094000000.0 -0.8565 0.2641
6097000000.0 -0.3381 0.8432
6100000000.0 0.441 0.7778
6103000000.0 0.8699 0.1213
6106000000.0 0.6265 -0.5859
6109000000.0 -0.03766 -0.8815
6112000000.0 -0.7144 -0.4796
6116000000.0 -0.8265 0.2356
6119000000.0 -0.3297 0.8051
6122000000.0 0.4198 0.7169
6125000000.0 0.8302 0.163
6128000000.0 0.6878 -0.5406
6131000000.0 -0.04299 -0.8436
6134000000.0 -0.6887 -0.5051
6138000000.0 -0.839 0.2306
6141000000.0 -0.3405 0.7433
6144000000.0 0.3737 0.7634
6147000000.0 0.8313 0.1924
6150000000.0 0.6711 -0.5381
6153000000.0 0.02763 -0.8316
6156000000.0 -0.6614 -0.5503
6159000000.0 -0.8463 0.1484
6162000000.0 -0.4139 0.7481
6166000000.0 0.3232 0.7937
6169000000.0 0.827 0.2738
6172000000.0 0.716 -0.4978
6175000000.0 0.07915 -0.8815
6178000000.0 -0.6702 -0.6307
6181000000.0 -0.8697 0.1043
6184000000.0 -0.4632 0.7814
6188000000.0 0.2527 0.8326
6191000000.0 0.8479 0.3385
6194000000.0 0.7549 -0.431
6197000000.0 0.1231 -0.8725
6200000000.0 -0.6081 -0.6681
6203000000.0 -0.8938 0.02488
6206000000.0 -0.5697 0.716
6209000000.0 0.21 0.8535
6212000000.0 0.8433 0.397
6216000000.0 0.8214 -0.38
6219000000.0 0.2394 -0.87
6222000000.0 -0.5323 -0.7054
6225000000.0 -0.9321 -0.03043
6228000000.0 -0.6267 0.6562
6231000000.0 0.1433 0.8437
6234000000.0 0.7652 0.4639
6238000000.0 0.8089 -0.2773
6241000000.0 0.3243 -0.8213
6244000000.0 -0.4187 -0.7511
6247000000.0 -0.8329 -0.1348
6250000000.0 -0.6494 0.537
6253000000.0 -0.02816 0.8321
6256000000.0 0.6269 0.5184
6259000000.0 0.7976 -0.13
6262000000.0 0.3923 -0.6919
6266000000.0 -0.2632 -0.7463
