! Created with skrf 1.8.0 (http://scikit-rf.org).
# Hz S RI R 50.0 
!freq ReS11 ImS11
4000000000.0 -0.2006 -1.552
4003000000.0 -1.213 -0.8032
4006000000.0 -1.425 0.4758
4009000000.0 -0.5426 1.398
4012000000.0 0.7327 1.302
4016000000.0 1.496 0.2043
4019000000.0 1.194 -1.026
4022000000.0 -0.1122 -1.56
4025000000.0 -1.344 -0.8962
4028000000.0 -1.534 0.4905
4031000000.0 -0.6 1.515
4034000000.0 0.7925 1.408
4038000000.0 1.621 0.2287
4041000000.0 1.193 -1.078
4044000000.0 -0.06411 -1.626
4047000000.0 -1.348 -0.9088
4050000000.0 -1.572 0.4174
4053000000.0 -0.6497 1.508
4056000000.0 0.7313 1.45
4059000000.0 1.575 0.3476
4062000000.0 1.284 -0.992
4066000000.0 0.01669 -1.623
4069000000.0 -1.208 -1.043
4072000000.0 -1.624 0.263
4075000000.0 -0.7889 1.376
4078000000.0 0.5539 1.544
4081000000.0 1.562 0.566
4084000000.0 1.418 -0.8381
4088000000.0 0.2628 -1.651
4091000000.0 -1.094 -1.227
4094000000.0 -1.667 0.07451
4097000000.0 -0.9771 1.323
4100000000.0 0.3706 1.566
4103000000.0 1.438 0.7106
4106000000.0 1.429 -0.6357
4109000000.0 0.4452 -1.499
4112000000.0 -0.8131 -1.285
4116000000.0 -1.485 -0.2426
4119000000.0 -1.139 0.9702
4122000000.0 0.03493 1.481
4125000000.0 1.137 0.9373
4128000000.0 1.477 -0.2059
4131000000.0 0.783 -1.259
4134000000.0 -0.4527 -1.428
4138000000.0 -1.372 -0.6049
4141000000.0 -1.331 0.6199
4144000000.0 -0.3962 1.456
4147000000.0 0.8715 1.234
4150000000.0 1.52 0.155
4153000000.0 1.095 -1.074
4156000000.0 -0.1546 -1.517
4159000000.0 -1.203 -0.9075
4162000000.0 -1.495 0.3616
4166000000.0 -0.6461 1.371
4169000000.0 0.5939 1.399
4172000000.0 1.418 0.4257
4175000000.0 1.268 -0.8277
4178000000.0 0.1587 -1.474
4181000000.0 -1.016 -1.082
4184000000.0 -1.495 0.08357
4188000000.0 -0.9173 1.243
4191000000.0 0.3299 1.466
4194000000.0 1.381 0.6936
4197000000.0 1.409 -0.6598
4200000000.0 0.4017 -1.537
4203000000.0 -0.9414 -1.294
4206000000.0 -1.63 -0.03163
4209000000.0 -1.05 1.249
4212000000.0 0.3324 1.624
4216000000.0 1.503 0.748
4219000000.0 1.499 -0.741
4222000000.0 0.3477 -1.664
4225000000.0 -1.101 -1.287
4228000000.0 -1.727 0.08678
4231000000.0 -0.96 1.337
4234000000.0 0.5443 1.587
4238000000.0 1.568 0.5207
4241000000.0 1.326 -0.9032
4244000000.0 0.09673 -1.587
4247000000.0 -1.205 -1.069
4250000000.0 -1.545 0.2731
4253000000.0 -0.6748 1.406
4256000000.0 0.6764 1.406
4259000000.0 1.484 0.3275
4262000000.0 1.149 -0.9652
4266000000.0 -0.05156 -1.519
4269000000.0 -1.194 -0.9047
4272000000.0 -1.424 0.4387
4275000000.0 -0.5641 1.362
4278000000.0 0.7545 1.252
4281000000.0 1.445 0.196
4284000000.0 1.027 -0.9787
4288000000.0 -0.138 -1.388
4291000000.0 -1.123 -0.7729
4294000000.0 -1.306 0.4203
4297000000.0 -0.4785 1.211
4300000000.0 0.6439 1.177
4303000000.0 1.277 0.2565
4306000000.0 0.9918 -0.8504
4309000000.0 0.07319 -1.269
4312000000.0 -0.9723 -0.8612
4316000000.0 -1.283 0.196
4319000000.0 -0.6923 1.075
4322000000.0 0.4439 1.249
4325000000.0 1.204 0.5034
4328000000.0 1.19 -0.6056
4331000000.0 0.2952 -1.317
4334000000.0 -0.8211 -1.047
4338000000.0 -1.339 -0.04926
4341000000.0 -0.929 1.013
4344000000.0 0.2123 1.393
4347000000.0 1.214 0.75
4350000000.0 1.362 -0.4579
4353000000.0 0.527 -1.386
4356000000.0 -0.7306 -1.267
4359000000.0 -1.431 -0.241
4362000000.0 -1.116 0.9449
4366000000.0 -0.005329 1.426
4369000000.0 1.142 0.9316
4372000000.0 1.468 -0.28
4375000000.0 0.7123 -1.301
4378000000.0 -0.5536 -1.399
4381000000.0 -1.448 -0.4679
4384000000.0 -1.291 0.7906
4388000000.0 -0.2 1.517
4391000000.0 1.09 1.13
4394000000.0 1.532 -0.1169
4397000000.0 0.8677 -1.294
4400000000.0 -0.4782 -1.505
4403000000.0 -1.491 -0.5665
4406000000.0 -1.385 0.8008
4409000000.0 -0.2189 1.58
4412000000.0 1.09 1.14
4416000000.0 1.584 -0.1703
4419000000.0 0.8141 -1.295
4422000000.0 -0.5171 -1.411
4425000000.0 -1.445 -0.4635
4428000000.0 -1.251 0.8034
4431000000.0 -0.09972 1.456
4434000000.0 1.06 0.9548
4438000000.0 1.43 -0.2466
4441000000.0 0.664 -1.208
4444000000.0 -0.5714 -1.306
4447000000.0 -1.35 -0.3327
4450000000.0 -1.04 0.8479
4453000000.0 0.01052 1.319
4456000000.0 0.9954 0.7808
4459000000.0 1.236 -0.346
4462000000.0 0.4697 -1.203
4466000000.0 -0.609 -1.087
4469000000.0 -1.233 -0.1896
4472000000.0 -0.8843 0.817
4475000000.0 0.1635 1.207
4478000000.0 0.9958 0.644
4481000000.0 1.078 -0.4049
4484000000.0 0.3718 -1.092
4488000000.0 -0.6585 -0.9575
4491000000.0 -1.161 -0.0768
4494000000.0 -0.7394 0.8478
4497000000.0 0.1624 1.121
4500000000.0 0.9662 0.5742
4503000000.0 1.017 -0.3925
4506000000.0 0.3592 -1.051
4509000000.0 -0.5976 -0.9271
4512000000.0 -1.091 -0.1163
4516000000.0 -0.7976 0.7863
4519000000.0 0.08134 1.133
4522000000.0 0.9254 0.6408
4525000000.0 1.093 -0.3454
4528000000.0 0.4247 -1.083
4531000000.0 -0.561 -1.017
4534000000.0 -1.149 -0.2193
4538000000.0 -0.8693 0.7646
4541000000.0 0.02858 1.144
4544000000.0 0.9335 0.729
4547000000.0 1.179 -0.2179
4550000000.0 0.5772 -1.066
4553000000.0 -0.4564 -1.13
4556000000.0 -1.149 -0.3724
4559000000.0 -1.059 0.6742
4562000000.0 -0.1768 1.233
4566000000.0 0.8425 0.9485
4569000000.0 1.263 -0.03352
4572000000.0 0.8011 -0.9792
4575000000.0 -0.2741 -1.268
4578000000.0 -1.146 -0.6169
4581000000.0 -1.258 0.4841
4584000000.0 -0.4059 1.251
4588000000.0 0.7476 1.137
4591000000.0 1.347 0.1534
4594000000.0 0.9834 -0.9185
4597000000.0 -0.07739 -1.372
4600000000.0 -1.112 -0.8005
4603000000.0 -1.361 0.3564
4606000000.0 -0.5551 1.256
4609000000.0 0.6297 1.261
4612000000.0 1.376 0.3279
4616000000.0 1.091 -0.8676
4619000000.0 0.04543 -1.395
4622000000.0 -1.031 -0.9039
4625000000.0 -1.391 0.257
4628000000.0 -0.6913 1.211
4631000000.0 0.514 1.312
4634000000.0 1.33 0.4203
4638000000.0 1.14 -0.75
4641000000.0 0.09261 -1.358
4644000000.0 -0.9741 -0.9384
4647000000.0 -1.323 0.2107
4650000000.0 -0.7052 1.156
4653000000.0 0.4671 1.235
4656000000.0 1.242 0.3613
4659000000.0 1.062 -0.7359
4662000000.0 0.0983 -1.265
4666000000.0 -0.9209 -0.8133
4669000000.0 -1.223 0.202
4672000000.0 -0.5869 1.022
4675000000.0 0.4239 1.115
4678000000.0 1.106 0.3286
4681000000.0 0.936 -0.674
4684000000.0 0.06679 -1.102
4688000000.0 -0.8555 -0.7498
4691000000.0 -1.113 0.206
4694000000.0 -0.5176 0.9538
4697000000.0 0.4318 1.011
4700000000.0 1.069 0.311
4703000000.0 0.8335 -0.6494
4706000000.0 0.02311 -1.098
4709000000.0 -0.8341 -0.7017
4712000000.0 -1.046 0.2059
4716000000.0 -0.4992 0.9713
4719000000.0 0.4354 0.9895
4722000000.0 1.031 0.2562
4725000000.0 0.8432 -0.6127
4728000000.0 0.038 -1.07
4731000000.0 -0.7719 -0.6891
4734000000.0 -1.038 0.1608
4738000000.0 -0.5119 0.9155
4741000000.0 0.3332 0.9713
4744000000.0 0.9871 0.3718
4747000000.0 0.9324 -0.554
4750000000.0 0.1692 -1.004
4753000000.0 -0.7266 -0.7869
4756000000.0 -1.104 0.05348
4759000000.0 -0.6892 0.8528
4762000000.0 0.2369 1.112
4766000000.0 1.007 0.5015
4769000000.0 1.05 -0.4197
4772000000.0 0.3452 -1.125
4775000000.0 -0.6311 -0.9544
4778000000.0 -1.16 -0.1189
4781000000.0 -0.8432 0.7839
4784000000.0 0.06127 1.221
4788000000.0 0.9683 0.7256
4791000000.0 1.197 -0.2556
4794000000.0 0.5571 -1.089
4797000000.0 -0.4798 -1.143
4800000000.0 -1.21 -0.4086
4803000000.0 -1.035 0.6518
4806000000.0 -0.1971 1.235
4809000000.0 0.8259 0.9418
4812000000.0 1.299 -0.009119
4816000000.0 0.812 -1.038
4819000000.0 -0.2612 -1.309
4822000000.0 -1.194 -0.6467
4825000000.0 -1.247 0.4987
4828000000.0 -0.3935 1.326
4831000000.0 0.7696 1.138
4834000000.0 1.377 0.1532
4838000000.0 0.9657 -0.9647
4841000000.0 -0.1565 -1.397
4844000000.0 -1.176 -0.7896
4847000000.0 -1.32 0.3942
4850000000.0 -0.5193 1.281
4853000000.0 0.6563 1.242
4856000000.0 1.367 0.2729
4859000000.0 1.061 -0.8872
4862000000.0 -0.02714 -1.372
4866000000.0 -1.046 -0.8586
4869000000.0 -1.287 0.2731
4872000000.0 -0.5827 1.173
4875000000.0 0.5456 1.211
4878000000.0 1.245 0.3383
4881000000.0 1.041 -0.7742
4884000000.0 0.06058 -1.265
4888000000.0 -0.9392 -0.82
4891000000.0 -1.196 0.2095
4894000000.0 -0.5936 1.048
4897000000.0 0.4304 1.066
4900000000.0 1.115 0.3291
4903000000.0 0.913 -0.6383
4906000000.0 0.05845 -1.109
4909000000.0 -0.793 -0.7266
4912000000.0 -1.043 0.1514
4916000000.0 -0.5208 0.8613
4919000000.0 0.3294 0.9554
4922000000.0 0.9351 0.3334
4925000000.0 0.8451 -0.5211
4928000000.0 0.1806 -0.9403
4931000000.0 -0.6324 -0.7207
4934000000.0 -0.9386 -0.009741
4938000000.0 -0.5746 0.7194
4941000000.0 0.1989 0.8991
4944000000.0 0.8371 0.3949
4947000000.0 0.8499 -0.3931
4950000000.0 0.2373 -0.9172
4953000000.0 -0.5617 -0.7807
4956000000.0 -0.9574 -0.0466
4959000000.0 -0.6436 0.7377
4962000000.0 0.1455 0.9708
4966000000.0 0.852 0.5048
4969000000.0 0.9233 -0.3319
4972000000.0 0.3248 -0.9427
4975000000.0 -0.516 -0.8734
4978000000.0 -1.027 -0.1457
4981000000.0 -0.7396 0.6667
4984000000.0 0.08684 1.048
4988000000.0 0.85 0.6121
4991000000.0 1.032 -0.2694
4994000000.0 0.4816 -0.9874
4997000000.0 -0.4452 -0.9976
5000000000.0 -1.063 -0.3191
5003000000.0 -0.9364 0.6728
5006000000.0 -0.07083 1.13
5009000000.0 0.8348 0.8359
5012000000.0 1.185 -0.134
5016000000.0 0.6621 -1.044
5019000000.0 -0.3984 -1.172
5022000000.0 -1.147 -0.4691
5025000000.0 -1.119 0.5997
5028000000.0 -0.2748 1.232
5031000000.0 0.8025 0.9831
5034000000.0 1.308 0.00808
5038000000.0 0.8483 -0.978
5041000000.0 -0.2186 -1.258
5044000000.0 -1.139 -0.6162
5047000000.0 -1.222 0.4468
5050000000.0 -0.4322 1.211
5053000000.0 0.6858 1.103
5056000000.0 1.313 0.2005
5059000000.0 0.9678 -0.8435
5062000000.0 -0.007144 -1.287
5066000000.0 -1.028 -0.8329
5069000000.0 -1.271 0.2564
5072000000.0 -0.6136 1.153
5075000000.0 0.5195 1.193
5078000000.0 1.24 0.3582
5081000000.0 1.096 -0.6873
5084000000.0 0.1653 -1.251
5088000000.0 -0.8585 -0.8817
5091000000.0 -1.19 0.08322
5094000000.0 -0.709 0.9434
5097000000.0 0.2605 1.116
5100000000.0 1.031 0.5306
5103000000.0 1.025 -0.4354
5106000000.0 0.3231 -1.077
5109000000.0 -0.608 -0.9376
5112000000.0 -1.072 -0.1462
5116000000.0 -0.8287 0.7301
5119000000.0 0.05366 1.052
5122000000.0 0.8555 0.5886
5125000000.0 1.004 -0.2408
5128000000.0 0.4522 -0.9182
5131000000.0 -0.4222 -0.9355
5134000000.0 -1.012 -0.2773
5138000000.0 -0.8118 0.5511
5141000000.0 -0.06401 0.9926
5144000000.0 0.7279 0.6425
5147000000.0 0.9084 -0.107
5150000000.0 0.5172 -0.8325
5153000000.0 -0.3104 -0.8575
5156000000.0 -0.8459 -0.3309
5159000000.0 -0.7818 0.464
5162000000.0 -0.1319 0.9015
5166000000.0 0.5983 0.69
5169000000.0 0.878 -0.03809
5172000000.0 0.5462 -0.7226
5175000000.0 -0.2083 -0.8892
5178000000.0 -0.8317 -0.399
5181000000.0 -0.8047 0.4286
5184000000.0 -0.1799 0.9066
5188000000.0 0.567 0.6866
5191000000.0 0.9263 -0.01142
5194000000.0 0.5726 -0.7507
5197000000.0 -0.224 -0.9117
5200000000.0 -0.8383 -0.3971
5203000000.0 -0.8372 0.432
5206000000.0 -0.2043 0.9305
5209000000.0 0.5923 0.7663
5212000000.0 0.9681 -0.002621
5216000000.0 0.5888 -0.7312
5219000000.0 -0.2152 -0.9241
5222000000.0 -0.8792 -0.4588
5225000000.0 -0.9232 0.3854
5228000000.0 -0.2734 0.9666
5231000000.0 0.5858 0.8412
5234000000.0 1.017 0.06906
5238000000.0 0.7097 -0.7286
5241000000.0 -0.1258 -1.024
5244000000.0 -0.8781 -0.5651
5247000000.0 -0.9946 0.3048
5250000000.0 -0.3704 0.9879
5253000000.0 0.5224 0.9424
5256000000.0 1.035 0.2352
5259000000.0 0.8516 -0.6919
5262000000.0 0.01036 -1.1
5266000000.0 -0.8175 -0.7298
5269000000.0 -1.08 0.1865
5272000000.0 -0.5699 0.9247
5275000000.0 0.3423 1.062
5278000000.0 1.029 0.4272
5281000000.0 0.9562 -0.5159
5284000000.0 0.2367 -1.068
5288000000.0 -0.6635 -0.9039
5291000000.0 -1.128 -0.06206
5294000000.0 -0.7692 0.8243
5297000000.0 0.1239 1.082
5300000000.0 0.9178 0.656
5303000000.0 1.082 -0.3134
5306000000.0 0.4756 -1.038
5309000000.0 -0.4532 -1.016
5312000000.0 -1.115 -0.3212
5316000000.0 -0.9831 0.6947
5319000000.0 -0.07805 1.138
5322000000.0 0.8106 0.8304
5325000000.0 1.169 -0.0963
5328000000.0 0.6629 -0.9509
5331000000.0 -0.29 -1.129
5334000000.0 -1.044 -0.4645
5338000000.0 -1.043 0.5308
5341000000.0 -0.2804 1.074
5344000000.0 0.6727 0.8771
5347000000.0 1.129 0.0644
5350000000.0 0.7621 -0.8055
5353000000.0 -0.1866 -1.104
5356000000.0 -0.9298 -0.5993
5359000000.0 -1.023 0.368
5362000000.0 -0.346 1.03
5366000000.0 0.5674 0.9162
5369000000.0 1.083 0.1402
5372000000.0 0.7686 -0.7127
5375000000.0 -0.09105 -1.052
5378000000.0 -0.8466 -0.5676
5381000000.0 -0.9525 0.3457
5384000000.0 -0.3641 0.9362
5388000000.0 0.5046 0.8423
5391000000.0 0.967 0.1372
5394000000.0 0.7078 -0.6657
5397000000.0 -0.121 -0.9569
5400000000.0 -0.7781 -0.4755
5403000000.0 -0.8838 0.327
5406000000.0 -0.3112 0.8505
5409000000.0 0.4866 0.7457
5412000000.0 0.8907 0.1031
5416000000.0 0.6153 -0.6346
5419000000.0 -0.1126 -0.8395
5422000000.0 -0.7187 -0.4652
5425000000.0 -0.772 0.2974
5428000000.0 -0.2878 0.8266
5431000000.0 0.4712 0.7349
5434000000.0 0.8896 0.05249
5438000000.0 0.5972 -0.6286
5441000000.0 -0.1043 -0.8941
5444000000.0 -0.7514 -0.478
5447000000.0 -0.8493 0.3243
5450000000.0 -0.2978 0.851
5453000000.0 0.4763 0.7588
5456000000.0 0.9146 0.1217
5459000000.0 0.6104 -0.6267
5462000000.0 -0.05289 -0.8615
5466000000.0 -0.7287 -0.5228
5469000000.0 -0.8939 0.2138
5472000000.0 -0.3948 0.8354
5475000000.0 0.4102 0.8154
5478000000.0 0.8845 0.271
5481000000.0 0.775 -0.5475
5484000000.0 0.062 -0.944
5488000000.0 -0.6982 -0.6515
5491000000.0 -0.9746 0.101
5494000000.0 -0.5272 0.8098
5497000000.0 0.2677 0.9855
5500000000.0 0.9168 0.4052
5503000000.0 0.904 -0.4378
5506000000.0 0.2503 -0.9992
5509000000.0 -0.5891 -0.8077
5512000000.0 -1.059 -0.09227
5516000000.0 -0.6764 0.7318
5519000000.0 0.09664 1.03
5522000000.0 0.8605 0.5894
5525000000.0 1.016 -0.2785
5528000000.0 0.4381 -0.9555
5531000000.0 -0.4243 -0.9607
5534000000.0 -1.018 -0.2823
5538000000.0 -0.8265 0.6107
5541000000.0 -0.08611 1.077
5544000000.0 0.767 0.7387
5547000000.0 1.07 -0.1024
5550000000.0 0.6071 -0.8506
5553000000.0 -0.279 -1.004
5556000000.0 -0.9613 -0.4517
5559000000.0 -0.9587 0.4578
5562000000.0 -0.2537 1.002
5566000000.0 0.6183 0.8608
5569000000.0 1.024 0.03593
5572000000.0 0.7051 -0.7609
5575000000.0 -0.1358 -1.027
5578000000.0 -0.8527 -0.5552
5581000000.0 -0.9246 0.3337
5584000000.0 -0.3418 0.9106
5588000000.0 0.4792 0.8668
5591000000.0 0.9693 0.1621
5594000000.0 0.7319 -0.6256
5597000000.0 -0.003655 -0.9658
5600000000.0 -0.7384 -0.5826
5603000000.0 -0.8784 0.2158
5606000000.0 -0.4131 0.7984
5609000000.0 0.3417 0.8269
5612000000.0 0.8359 0.2373
5616000000.0 0.7291 -0.546
5619000000.0 0.07218 -0.907
5622000000.0 -0.6412 -0.6056
5625000000.0 -0.8618 0.1225
5628000000.0 -0.427 0.7485
5631000000.0 0.3122 0.7964
5634000000.0 0.8033 0.2397
5638000000.0 0.6949 -0.4487
5641000000.0 0.1322 -0.855
5644000000.0 -0.6112 -0.6183
5647000000.0 -0.8331 0.08554
5650000000.0 -0.4266 0.7033
5653000000.0 0.2803 0.8147
5656000000.0 0.8154 0.2994
5659000000.0 0.7372 -0.4396
5662000000.0 0.08917 -0.846
5666000000.0 -0.6352 -0.6191
5669000000.0 -0.8796 0.103
5672000000.0 -0.4914 0.7574
5675000000.0 0.2767 0.843
5678000000.0 0.854 0.3167
5681000000.0 0.7997 -0.4839
5684000000.0 0.09113 -0.9281
5688000000.0 -0.6135 -0.6796
5691000000.0 -0.9383 0.0822
5694000000.0 -0.5152 0.8157
5697000000.0 0.2878 0.9205
5700000000.0 0.9141 0.4051
5703000000.0 0.8618 -0.4928
5706000000.0 0.1934 -0.9969
5709000000.0 -0.6317 -0.769
5712000000.0 -1.041 -0.01557
5716000000.0 -0.6338 0.8054
5719000000.0 0.2418 0.9735
5722000000.0 0.926 0.4879
5725000000.0 0.9951 -0.387
5728000000.0 0.2982 -1.014
5731000000.0 -0.6134 -0.8755
5734000000.0 -1.077 -0.1229
5738000000.0 -0.7661 0.7506
5741000000.0 0.06557 1.088
5744000000.0 0.8912 0.6287
5747000000.0 1.056 -0.2567
5750000000.0 0.4767 -0.9982
5753000000.0 -0.5015 -0.9752
5756000000.0 -1.07 -0.2716
5759000000.0 -0.9292 0.6558
5762000000.0 -0.1058 1.123
5766000000.0 0.7969 0.7939
5769000000.0 1.127 -0.1335
5772000000.0 0.6143 -0.9221
5775000000.0 -0.3266 -1.077
5778000000.0 -1.004 -0.4642
5781000000.0 -0.9727 0.5184
5784000000.0 -0.2591 1.058
5788000000.0 0.6629 0.8586
5791000000.0 1.05 0.04325
5794000000.0 0.7398 -0.812
5797000000.0 -0.1311 -1.077
5800000000.0 -0.9233 -0.5618
5803000000.0 -1.02 0.3333
5806000000.0 -0.4068 1.007
5809000000.0 0.4974 0.9355
5812000000.0 1.034 0.1896
5816000000.0 0.8205 -0.6692
5819000000.0 -0.02027 -1.056
5822000000.0 -0.7944 -0.6347
5825000000.0 -0.9895 0.201
5828000000.0 -0.4787 0.8985
5831000000.0 0.3713 0.9081
5834000000.0 0.943 0.2746
5838000000.0 0.8124 -0.5417
5841000000.0 0.06434 -0.9661
5844000000.0 -0.7032 -0.6865
5847000000.0 -0.9515 0.1323
5850000000.0 -0.4758 0.8306
5853000000.0 0.306 0.8702
5856000000.0 0.9046 0.294
5859000000.0 0.7745 -0.4667
5862000000.0 0.1213 -0.954
5866000000.0 -0.6172 -0.6483
5869000000.0 -0.9173 0.1153
5872000000.0 -0.4929 0.7474
5875000000.0 0.2598 0.8559
5878000000.0 0.8207 0.3063
5881000000.0 0.7604 -0.4466
5884000000.0 0.1296 -0.8476
5888000000.0 -0.5865 -0.6218
5891000000.0 -0.8814 0.06051
5894000000.0 -0.4955 0.711
5897000000.0 0.2357 0.8585
5900000000.0 0.7835 0.3268
5903000000.0 0.7548 -0.3937
5906000000.0 0.1634 -0.8639
5909000000.0 -0.5512 -0.6645
5912000000.0 -0.8555 -0.001573
5916000000.0 -0.5374 0.6962
5919000000.0 0.1748 0.8471
5922000000.0 0.7577 0.3971
5925000000.0 0.8221 -0.3342
5928000000.0 0.2582 -0.8225
5931000000.0 -0.4942 -0.7287
5934000000.0 -0.896 -0.08084
5938000000.0 -0.6433 0.625
5941000000.0 0.09974 0.9214
5944000000.0 0.7166 0.5093
5947000000.0 0.8816 -0.2386
5950000000.0 0.3998 -0.8215
5953000000.0 -0.3566 -0.8391
5956000000.0 -0.8999 -0.2211
5959000000.0 -0.7467 0.5354
5962000000.0 -0.05662 0.9131
5966000000.0 0.6789 0.6744
5969000000.0 0.9201 -0.1059
5972000000.0 0.5147 -0.7853
5975000000.0 -0.2763 -0.9318
5978000000.0 -0.891 -0.3816
5981000000.0 -0.8589 0.4392
5984000000.0 -0.2376 0.9197
5988000000.0 0.5845 0.7646
5991000000.0 0.9791 0.06442
5994000000.0 0.697 -0.7399
5997000000.0 -0.1306 -0.9916
6000000000.0 -0.8648 -0.5378
6003000000.0 -0.9378 0.2989
6006000000.0 -0.3676 0.9209
6009000000.0 0.473 0.9046
6012000000.0 0.9684 0.1765
6016000000.0 0.7515 -0.6579
6019000000.0 -0.003393 -0.9853
6022000000.0 -0.789 -0.5923
6025000000.0 -0.9434 0.1862
6028000000.0 -0.4396 0.8616
6031000000.0 0.3849 0.8971
6034000000.0 0.9393 0.2772
6038000000.0 0.8176 -0.5366
6041000000.0 0.06681 -0.9656
6044000000.0 -0.6762 -0.6574
6047000000.0 -0.9539 0.1445
6050000000.0 -0.5167 0.8068
6053000000.0 0.3211 0.869
6056000000.0 0.8623 0.3215
6059000000.0 0.8036 -0.5096
6062000000.0 0.1425 -0.9129
6066000000.0 -0.649 -0.6842
6069000000.0 -0.9192 0.0459
6072000000.0 -0.5429 0.7311
6075000000.0 0.2402 0.8709
6078000000.0 0.8049 0.3636
6081000000.0 0.7695 -0.4028
6084000000.0 0.1544 -0.8491
6088000000.0 -0.5537 -0.6631
6091000000.0 -0.8568 0.01548
6094000000.0 -0.5227 0.6801
6097000000.0 0.1875 0.8156
6100000000.0 0.7736 0.3708
6103000000.0 0.7681 -0.3658
6106000000.0 0.2013 -0.8226
6109000000.0 -0.5235 -0.6652
6112000000.0 -0.8892 -0.03728
6116000000.0 -0.5577 0.6379
6119000000.0 0.1859 0.869
6122000000.0 0.7463 0.4081
6125000000.0 0.8007 -0.3089
6128000000.0 0.2362 -0.8587
6131000000.0 -0.5155 -0.6953
6134000000.0 -0.868 -0.04369
6138000000.0 -0.5889 0.6542
6141000000.0 0.1179 0.8819
6144000000.0 0.7429 0.4448
6147000000.0 0.8429 -0.2862
6150000000.0 0.3177 -0.8572
6153000000.0 -0.4556 -0.7456
6156000000.0 -0.8736 -0.1348
6159000000.0 -0.6774 0.5998
6162000000.0 0.04721 0.9402
6166000000.0 0.7509 0.5334
6169000000.0 0.8741 -0.2019
6172000000.0 0.3648 -0.8607
6175000000.0 -0.4327 -0.8344
6178000000.0 -0.9072 -0.2224
6181000000.0 -0.7513 0.5936
6184000000.0 -0.02926 0.9606
6188000000.0 0.7017 0.6364
6191000000.0 0.914 -0.1468
6194000000.0 0.481 -0.8218
6197000000.0 -0.352 -0.9006
6200000000.0 -0.8974 -0.304
6203000000.0 -0.8033 0.4804
6206000000.0 -0.09284 0.9225
6209000000.0 0.6105 0.6826
6212000000.0 0.9309 -0.04328
6216000000.0 0.5514 -0.7089
6219000000.0 -0.2314 -0.9049
6222000000.0 -0.8181 -0.3881
6225000000.0 -0.8406 0.3896
6228000000.0 -0.2516 0.8818
6231000000.0 0.5169 0.7115
6234000000.0 0.8991 0.0852
6238000000.0 0.6204 -0.6289
6241000000.0 -0.08992 -0.8747
6244000000.0 -0.7506 -0.4502
6247000000.0 -0.8572 0.2362
6250000000.0 -0.3354 0.7861
6253000000.0 0.3769 0.7542
6256000000.0 0.8037 0.1992
6259000000.0 0.6783 -0.4997
6262000000.0 0.04431 -0.8254
6266000000.0 -0.5917 -0.5456
