! Created with skrf 1.8.0 (http://scikit-rf.org).
# Hz S RI R 50.0 
!freq ReS11 ImS11
4000000000.0 -0.1896 -1.474
4003000000.0 -1.274 -0.8517
4006000000.0 -1.419 0.4895
4009000000.0 -0.5325 1.449
4012000000.0 0.7743 1.324
4016000000.0 1.511 0.2299
4019000000.0 1.136 -1.092
4022000000.0 -0.09817 -1.519
4025000000.0 -1.294 -0.8981
4028000000.0 -1.489 0.4939
4031000000.0 -0.6109 1.497
4034000000.0 0.7793 1.422
4038000000.0 1.611 0.2408
4041000000.0 1.228 -1.122
4044000000.0 -0.1259 -1.614
4047000000.0 -1.339 -0.924
4050000000.0 -1.556 0.4403
4053000000.0 -0.6171 1.496
4056000000.0 0.7527 1.454
4059000000.0 1.589 0.3237
4062000000.0 1.276 -1.03
4066000000.0 0.007652 -1.614
4069000000.0 -1.236 -1.024
4072000000.0 -1.576 0.2744
4075000000.0 -0.8076 1.434
4078000000.0 0.5395 1.539
4081000000.0 1.566 0.5826
4084000000.0 1.394 -0.8235
4088000000.0 0.2673 -1.639
4091000000.0 -1.088 -1.221
4094000000.0 -1.667 0.03957
4097000000.0 -1.026 1.348
4100000000.0 0.3753 1.592
4103000000.0 1.431 0.7062
4106000000.0 1.404 -0.6197
4109000000.0 0.4412 -1.476
4112000000.0 -0.806 -1.309
4116000000.0 -1.527 -0.2158
4119000000.0 -1.114 1.025
4122000000.0 0.0111 1.475
4125000000.0 1.135 0.9655
4128000000.0 1.454 -0.2402
4131000000.0 0.7874 -1.257
4134000000.0 -0.4305 -1.426
4138000000.0 -1.341 -0.6273
4141000000.0 -1.341 0.6294
4144000000.0 -0.406 1.453
4147000000.0 0.8812 1.24
4150000000.0 1.493 0.1639
4153000000.0 1.106 -1.029
4156000000.0 -0.1228 -1.511
4159000000.0 -1.246 -0.9335
4162000000.0 -1.471 0.3632
4166000000.0 -0.6597 1.357
4169000000.0 0.6198 1.385
4172000000.0 1.387 0.4353
4175000000.0 1.266 -0.8142
4178000000.0 0.1488 -1.484
4181000000.0 -1.034 -1.077
4184000000.0 -1.501 0.1121
4188000000.0 -0.9106 1.229
4191000000.0 0.3702 1.515
4194000000.0 1.396 0.6665
4197000000.0 1.405 -0.6598
4200000000.0 0.3539 -1.541
4203000000.0 -0.977 -1.297
4206000000.0 -1.59 -0.05787
4209000000.0 -1.053 1.235
4212000000.0 0.3504 1.602
4216000000.0 1.507 0.7348
4219000000.0 1.554 -0.7538
4222000000.0 0.348 -1.643
4225000000.0 -1.146 -1.279
4228000000.0 -1.663 0.09459
4231000000.0 -0.9374 1.395
4234000000.0 0.5581 1.565
4238000000.0 1.563 0.5308
4241000000.0 1.346 -0.8994
4244000000.0 0.1225 -1.634
4247000000.0 -1.212 -1.033
4250000000.0 -1.53 0.3424
4253000000.0 -0.6984 1.411
4256000000.0 0.6937 1.419
4259000000.0 1.493 0.3277
4262000000.0 1.173 -1.019
4266000000.0 -0.07175 -1.485
4269000000.0 -1.243 -0.8812
4272000000.0 -1.424 0.4418
4275000000.0 -0.5524 1.351
4278000000.0 0.7482 1.251
4281000000.0 1.425 0.1949
4284000000.0 1.011 -0.9977
4288000000.0 -0.1231 -1.384
4291000000.0 -1.148 -0.7497
4294000000.0 -1.33 0.4257
4297000000.0 -0.4831 1.224
4300000000.0 0.6585 1.159
4303000000.0 1.254 0.2249
4306000000.0 1.021 -0.8062
4309000000.0 -0.009116 -1.291
4312000000.0 -0.9713 -0.8492
4316000000.0 -1.27 0.1998
4319000000.0 -0.6545 1.094
4322000000.0 0.4242 1.242
4325000000.0 1.25 0.4827
4328000000.0 1.169 -0.6236
4331000000.0 0.2675 -1.298
4334000000.0 -0.8407 -1.062
4338000000.0 -1.403 -0.082
4341000000.0 -0.9009 1.05
4344000000.0 0.2115 1.394
4347000000.0 1.216 0.7191
4350000000.0 1.334 -0.5032
4353000000.0 0.5345 -1.364
4356000000.0 -0.7148 -1.259
4359000000.0 -1.442 -0.2611
4362000000.0 -1.133 0.9474
4366000000.0 0.03197 1.462
4369000000.0 1.12 0.9412
4372000000.0 1.425 -0.289
4375000000.0 0.6934 -1.294
4378000000.0 -0.5508 -1.43
4381000000.0 -1.435 -0.5023
4384000000.0 -1.286 0.8292
4388000000.0 -0.1846 1.532
4391000000.0 1.074 1.148
4394000000.0 1.6 -0.1668
4397000000.0 0.868 -1.3
4400000000.0 -0.5091 -1.507
4403000000.0 -1.48 -0.5271
4406000000.0 -1.336 0.8124
4409000000.0 -0.1956 1.566
4412000000.0 1.099 1.117
4416000000.0 1.56 -0.1909
4419000000.0 0.7737 -1.31
4422000000.0 -0.5635 -1.42
4425000000.0 -1.427 -0.4252
4428000000.0 -1.223 0.8428
4431000000.0 -0.09527 1.451
4434000000.0 1.083 0.9574
4438000000.0 1.397 -0.2482
4441000000.0 0.6224 -1.253
4444000000.0 -0.5518 -1.25
4447000000.0 -1.32 -0.2998
4450000000.0 -1.057 0.8395
4453000000.0 0.02667 1.328
4456000000.0 1.031 0.7676
4459000000.0 1.238 -0.3837
4462000000.0 0.4865 -1.197
4466000000.0 -0.6417 -1.087
4469000000.0 -1.24 -0.1371
4472000000.0 -0.8532 0.8522
4475000000.0 0.1432 1.165
4478000000.0 1.013 0.5991
4481000000.0 1.096 -0.4305
4484000000.0 0.3472 -1.092
4488000000.0 -0.677 -0.9419
4491000000.0 -1.169 -0.07069
4494000000.0 -0.7672 0.8713
4497000000.0 0.1844 1.107
4500000000.0 0.9961 0.5832
4503000000.0 1.018 -0.386
4506000000.0 0.3409 -1.074
4509000000.0 -0.6183 -0.9001
4512000000.0 -1.121 -0.09356
4516000000.0 -0.8102 0.808
4519000000.0 0.1088 1.117
4522000000.0 0.9706 0.6056
4525000000.0 1.058 -0.3629
4528000000.0 0.4045 -1.069
4531000000.0 -0.5747 -0.9885
4534000000.0 -1.166 -0.1955
4538000000.0 -0.885 0.7617
4541000000.0 -0.0003525 1.19
4544000000.0 0.9319 0.7493
4547000000.0 1.158 -0.2608
4550000000.0 0.5671 -1.065
4553000000.0 -0.4812 -1.145
4556000000.0 -1.178 -0.3632
4559000000.0 -1.041 0.6591
4562000000.0 -0.1791 1.247
4566000000.0 0.8531 0.9201
4569000000.0 1.264 -0.04573
4572000000.0 0.782 -1.029
4575000000.0 -0.2668 -1.245
4578000000.0 -1.179 -0.5853
4581000000.0 -1.257 0.5307
4584000000.0 -0.4035 1.27
4588000000.0 0.739 1.138
4591000000.0 1.354 0.1674
4594000000.0 1.01 -0.9536
4597000000.0 -0.1006 -1.388
4600000000.0 -1.134 -0.8
4603000000.0 -1.331 0.3721
4606000000.0 -0.5802 1.267
4609000000.0 0.6253 1.239
4612000000.0 1.384 0.3105
4616000000.0 1.096 -0.8687
4619000000.0 -0.0006731 -1.41
4622000000.0 -1.06 -0.9069
4625000000.0 -1.375 0.2541
4628000000.0 -0.6287 1.235
4631000000.0 0.551 1.26
4634000000.0 1.324 0.3763
4638000000.0 1.142 -0.7559
4641000000.0 0.09291 -1.346
4644000000.0 -0.9731 -0.9212
4647000000.0 -1.326 0.1904
4650000000.0 -0.692 1.148
4653000000.0 0.4859 1.223
4656000000.0 1.258 0.3772
4659000000.0 1.051 -0.7148
4662000000.0 0.07007 -1.249
4666000000.0 -0.9059 -0.8073
4669000000.0 -1.225 0.1926
4672000000.0 -0.5855 1.049
4675000000.0 0.4469 1.069
4678000000.0 1.128 0.3221
4681000000.0 0.95 -0.6721
4684000000.0 0.06407 -1.167
4688000000.0 -0.84 -0.7386
4691000000.0 -1.097 0.206
4694000000.0 -0.5419 0.9891
4697000000.0 0.4405 1.018
4700000000.0 1.03 0.32
4703000000.0 0.8773 -0.6373
4706000000.0 0.04772 -1.099
4709000000.0 -0.844 -0.6922
4712000000.0 -1.049 0.1987
4716000000.0 -0.5256 0.9333
4719000000.0 0.4412 0.9772
4722000000.0 1.04 0.2206
4725000000.0 0.8471 -0.6464
4728000000.0 0.01161 -1.071
4731000000.0 -0.7747 -0.6548
4734000000.0 -1.008 0.1866
4738000000.0 -0.4859 0.9062
4741000000.0 0.3655 0.9758
4744000000.0 1.001 0.3256
4747000000.0 0.8931 -0.5651
4750000000.0 0.1426 -1.072
4753000000.0 -0.6993 -0.7988
4756000000.0 -1.064 0.02182
4759000000.0 -0.678 0.8822
4762000000.0 0.2309 1.088
4766000000.0 0.9951 0.5207
4769000000.0 1.046 -0.4508
4772000000.0 0.3247 -1.133
4775000000.0 -0.6384 -0.9843
4778000000.0 -1.146 -0.1233
4781000000.0 -0.8761 0.8326
4784000000.0 0.06566 1.189
4788000000.0 0.9546 0.7197
4791000000.0 1.182 -0.2594
4794000000.0 0.551 -1.104
4797000000.0 -0.4754 -1.164
4800000000.0 -1.197 -0.3689
4803000000.0 -1.04 0.6574
4806000000.0 -0.1649 1.244
4809000000.0 0.8286 0.9217
4812000000.0 1.304 -0.037
4816000000.0 0.7927 -1.002
4819000000.0 -0.3051 -1.323
4822000000.0 -1.206 -0.605
4825000000.0 -1.242 0.5338
4828000000.0 -0.4065 1.292
4831000000.0 0.7633 1.147
4834000000.0 1.392 0.1421
4838000000.0 0.9871 -0.9854
4841000000.0 -0.1199 -1.38
4844000000.0 -1.191 -0.7919
4847000000.0 -1.32 0.3949
4850000000.0 -0.4854 1.278
4853000000.0 0.6611 1.234
4856000000.0 1.358 0.2172
4859000000.0 1.07 -0.8726
4862000000.0 -0.04034 -1.375
4866000000.0 -1.067 -0.8437
4869000000.0 -1.29 0.3031
4872000000.0 -0.5878 1.199
4875000000.0 0.562 1.207
4878000000.0 1.249 0.2794
4881000000.0 1.008 -0.7738
4884000000.0 0.02845 -1.249
4888000000.0 -0.9396 -0.8273
4891000000.0 -1.188 0.2062
4894000000.0 -0.566 1.074
4897000000.0 0.4772 1.047
4900000000.0 1.122 0.3191
4903000000.0 0.9216 -0.6266
4906000000.0 0.0666 -1.073
4909000000.0 -0.7778 -0.7446
4912000000.0 -1.044 0.1156
4916000000.0 -0.5511 0.8905
4919000000.0 0.3206 0.9845
4922000000.0 0.9494 0.3461
4925000000.0 0.873 -0.5075
4928000000.0 0.1428 -0.939
4931000000.0 -0.6387 -0.6946
4934000000.0 -0.9377 0.02322
4938000000.0 -0.5851 0.732
4941000000.0 0.2105 0.8955
4944000000.0 0.8479 0.4127
4947000000.0 0.8519 -0.4122
4950000000.0 0.2333 -0.9131
4953000000.0 -0.5875 -0.7374
4956000000.0 -0.9527 -0.03774
4959000000.0 -0.6396 0.7381
4962000000.0 0.1497 0.9994
4966000000.0 0.8813 0.4796
4969000000.0 0.9225 -0.3449
4972000000.0 0.3231 -0.9443
4975000000.0 -0.5355 -0.8415
4978000000.0 -1.027 -0.1195
4981000000.0 -0.7488 0.7244
4984000000.0 0.06991 1.041
4988000000.0 0.8516 0.6305
4991000000.0 1.033 -0.27
4994000000.0 0.4541 -0.9931
4997000000.0 -0.4624 -1.002
5000000000.0 -1.072 -0.2891
5003000000.0 -0.913 0.6471
5006000000.0 -0.0658 1.162
5009000000.0 0.8742 0.859
5012000000.0 1.19 -0.1429
5016000000.0 0.6407 -1.03
5019000000.0 -0.379 -1.192
5022000000.0 -1.153 -0.4539
5025000000.0 -1.113 0.6219
5028000000.0 -0.2417 1.238
5031000000.0 0.8014 0.9722
5034000000.0 1.293 -9.874e-05
5038000000.0 0.8237 -0.9888
5041000000.0 -0.263 -1.281
5044000000.0 -1.11 -0.6214
5047000000.0 -1.198 0.4453
5050000000.0 -0.4048 1.195
5053000000.0 0.6751 1.142
5056000000.0 1.303 0.1967
5059000000.0 0.982 -0.8854
5062000000.0 -0.01181 -1.309
5066000000.0 -1.013 -0.797
5069000000.0 -1.289 0.2763
5072000000.0 -0.603 1.136
5075000000.0 0.5127 1.206
5078000000.0 1.225 0.3672
5081000000.0 1.052 -0.6904
5084000000.0 0.1299 -1.255
5088000000.0 -0.8557 -0.8779
5091000000.0 -1.206 0.0974
5094000000.0 -0.7245 0.955
5097000000.0 0.2874 1.143
5100000000.0 1.033 0.4686
5103000000.0 1.042 -0.4403
5106000000.0 0.302 -1.082
5109000000.0 -0.6279 -0.8808
5112000000.0 -1.066 -0.1563
5116000000.0 -0.757 0.7107
5119000000.0 0.1061 1.063
5122000000.0 0.854 0.6371
5125000000.0 0.9946 -0.2404
5128000000.0 0.4559 -0.9103
5131000000.0 -0.4254 -0.903
5134000000.0 -0.9871 -0.2475
5138000000.0 -0.7929 0.5908
5141000000.0 -0.08143 1.008
5144000000.0 0.7398 0.6764
5147000000.0 0.9595 -0.1284
5150000000.0 0.4645 -0.7856
5153000000.0 -0.3289 -0.8748
5156000000.0 -0.8607 -0.2816
5159000000.0 -0.7657 0.4694
5162000000.0 -0.1842 0.8906
5166000000.0 0.609 0.6617
5169000000.0 0.9236 -0.03763
5172000000.0 0.5255 -0.7013
5175000000.0 -0.243 -0.8707
5178000000.0 -0.8187 -0.3436
5181000000.0 -0.8073 0.4162
5184000000.0 -0.1658 0.9065
5188000000.0 0.602 0.6971
5191000000.0 0.9141 -0.0226
5194000000.0 0.5971 -0.7116
5197000000.0 -0.2505 -0.9179
5200000000.0 -0.8474 -0.402
5203000000.0 -0.8419 0.4336
5206000000.0 -0.1943 0.9402
5209000000.0 0.6284 0.7475
5212000000.0 0.9624 0.0134
5216000000.0 0.5908 -0.764
5219000000.0 -0.2169 -0.969
5222000000.0 -0.8854 -0.4723
5225000000.0 -0.8991 0.4281
5228000000.0 -0.267 0.9873
5231000000.0 0.5981 0.8132
5234000000.0 1.018 0.08016
5238000000.0 0.7047 -0.7369
5241000000.0 -0.1366 -1.024
5244000000.0 -0.9067 -0.577
5247000000.0 -0.9739 0.3269
5250000000.0 -0.3713 0.9877
5253000000.0 0.54 0.9197
5256000000.0 1.056 0.1916
5259000000.0 0.8499 -0.6919
5262000000.0 0.01109 -1.066
5266000000.0 -0.8216 -0.7205
5269000000.0 -1.078 0.1826
5272000000.0 -0.5335 0.9685
5275000000.0 0.3571 1.024
5278000000.0 1.023 0.4014
5281000000.0 0.9528 -0.5448
5284000000.0 0.2117 -1.068
5288000000.0 -0.6629 -0.8586
5291000000.0 -1.125 -0.03073
5294000000.0 -0.7657 0.7802
5297000000.0 0.1333 1.148
5300000000.0 0.9295 0.5945
5303000000.0 1.094 -0.2936
5306000000.0 0.4558 -1.052
5309000000.0 -0.4884 -1.037
5312000000.0 -1.119 -0.3032
5316000000.0 -0.9309 0.6598
5319000000.0 -0.1077 1.148
5322000000.0 0.8295 0.8054
5325000000.0 1.165 -0.09232
5328000000.0 0.6419 -0.9807
5331000000.0 -0.2899 -1.073
5334000000.0 -1.051 -0.4667
5338000000.0 -1.012 0.5087
5341000000.0 -0.2471 1.123
5344000000.0 0.6705 0.9113
5347000000.0 1.124 0.06689
5350000000.0 0.7596 -0.8361
5353000000.0 -0.158 -1.118
5356000000.0 -0.93 -0.5424
5359000000.0 -1.031 0.3533
5362000000.0 -0.3239 1.034
5366000000.0 0.5862 0.9252
5369000000.0 1.055 0.1027
5372000000.0 0.752 -0.7366
5375000000.0 -0.1155 -1.025
5378000000.0 -0.8609 -0.5464
5381000000.0 -0.9886 0.3283
5384000000.0 -0.3334 0.9542
5388000000.0 0.512 0.8375
5391000000.0 0.9645 0.1124
5394000000.0 0.6762 -0.6573
5397000000.0 -0.1227 -0.9375
5400000000.0 -0.7816 -0.4718
5403000000.0 -0.8681 0.299
5406000000.0 -0.2818 0.8496
5409000000.0 0.5063 0.7574
5412000000.0 0.8713 0.08791
5416000000.0 0.5966 -0.6097
5419000000.0 -0.1303 -0.8541
5422000000.0 -0.7291 -0.4325
5425000000.0 -0.8057 0.3119
5428000000.0 -0.2864 0.8583
5431000000.0 0.5047 0.7181
5434000000.0 0.8578 0.08189
5438000000.0 0.5897 -0.6452
5441000000.0 -0.1332 -0.8978
5444000000.0 -0.7766 -0.4425
5447000000.0 -0.8444 0.32
5450000000.0 -0.267 0.8674
5453000000.0 0.4973 0.726
5456000000.0 0.9114 0.1018
5459000000.0 0.638 -0.6325
5462000000.0 -0.08014 -0.903
5466000000.0 -0.7577 -0.5042
5469000000.0 -0.8753 0.1997
5472000000.0 -0.3736 0.8567
5475000000.0 0.4329 0.8365
5478000000.0 0.9108 0.2418
5481000000.0 0.7704 -0.5443
5484000000.0 0.09749 -0.941
5488000000.0 -0.6688 -0.6494
5491000000.0 -0.9537 0.1005
5494000000.0 -0.5734 0.805
5497000000.0 0.2696 0.961
5500000000.0 0.9234 0.3928
5503000000.0 0.9049 -0.4712
5506000000.0 0.2107 -1.025
5509000000.0 -0.6237 -0.8237
5512000000.0 -1.029 -0.05615
5516000000.0 -0.6991 0.7647
5519000000.0 0.1168 1.006
5522000000.0 0.8879 0.5589
5525000000.0 1.007 -0.2711
5528000000.0 0.4521 -0.9729
5531000000.0 -0.4797 -0.9609
5534000000.0 -1.059 -0.2897
5538000000.0 -0.8772 0.5968
5541000000.0 -0.09896 1.05
5544000000.0 0.7451 0.7635
5547000000.0 1.103 -0.1304
5550000000.0 0.6096 -0.8942
5553000000.0 -0.3047 -1.027
5556000000.0 -0.9888 -0.4561
5559000000.0 -0.9112 0.4641
5562000000.0 -0.2681 1.036
5566000000.0 0.6497 0.8077
5569000000.0 1.04 0.0518
5572000000.0 0.6927 -0.7452
5575000000.0 -0.153 -1.055
5578000000.0 -0.8585 -0.5241
5581000000.0 -0.9124 0.3166
5584000000.0 -0.3247 0.9233
5588000000.0 0.4777 0.8629
5591000000.0 0.955 0.1647
5594000000.0 0.7033 -0.6197
5597000000.0 -0.02168 -0.9531
5600000000.0 -0.7331 -0.5781
5603000000.0 -0.9134 0.2053
5606000000.0 -0.4091 0.7928
5609000000.0 0.3645 0.7877
5612000000.0 0.8568 0.2148
5616000000.0 0.6924 -0.5284
5619000000.0 0.03024 -0.8547
5622000000.0 -0.6434 -0.555
5625000000.0 -0.8316 0.1587
5628000000.0 -0.4053 0.7444
5631000000.0 0.2975 0.7829
5634000000.0 0.7976 0.2244
5638000000.0 0.7005 -0.4687
5641000000.0 0.07024 -0.8599
5644000000.0 -0.6048 -0.5806
5647000000.0 -0.8477 0.1044
5650000000.0 -0.43 0.7395
5653000000.0 0.3136 0.8137
5656000000.0 0.8224 0.2588
5659000000.0 0.69 -0.4771
5662000000.0 0.1032 -0.8455
5666000000.0 -0.6144 -0.5785
5669000000.0 -0.8904 0.1246
5672000000.0 -0.4529 0.7411
5675000000.0 0.3116 0.8921
5678000000.0 0.858 0.2741
5681000000.0 0.7539 -0.4977
5684000000.0 0.1467 -0.9478
5688000000.0 -0.6345 -0.6563
5691000000.0 -0.967 0.07848
5694000000.0 -0.5173 0.7915
5697000000.0 0.2782 0.9359
5700000000.0 0.9185 0.3596
5703000000.0 0.8546 -0.4908
5706000000.0 0.1638 -1.007
5709000000.0 -0.6922 -0.7909
5712000000.0 -1.009 0.0447
5716000000.0 -0.6307 0.8107
5719000000.0 0.2281 1.029
5722000000.0 0.942 0.444
5725000000.0 0.9733 -0.4585
5728000000.0 0.2941 -1.012
5731000000.0 -0.6386 -0.8715
5734000000.0 -1.068 -0.08881
5738000000.0 -0.7559 0.7199
5741000000.0 0.08329 1.073
5744000000.0 0.9127 0.6048
5747000000.0 1.05 -0.274
5750000000.0 0.4565 -0.9982
5753000000.0 -0.4987 -1.042
5756000000.0 -1.085 -0.2587
5759000000.0 -0.886 0.6729
5762000000.0 -0.09588 1.155
5766000000.0 0.8211 0.7682
5769000000.0 1.073 -0.124
5772000000.0 0.5967 -0.9017
5775000000.0 -0.3216 -1.065
5778000000.0 -0.9988 -0.4394
5781000000.0 -0.9982 0.4935
5784000000.0 -0.2072 1.08
5788000000.0 0.6841 0.8619
5791000000.0 1.082 0.05137
5794000000.0 0.7357 -0.8031
5797000000.0 -0.1991 -1.063
5800000000.0 -0.9329 -0.5387
5803000000.0 -1.002 0.3502
5806000000.0 -0.3903 0.9777
5809000000.0 0.5343 0.9327
5812000000.0 1.035 0.15
5816000000.0 0.7667 -0.6745
5819000000.0 -0.02884 -1.015
5822000000.0 -0.801 -0.6109
5825000000.0 -1.022 0.2693
5828000000.0 -0.4119 0.9025
5831000000.0 0.4026 0.9121
5834000000.0 0.9928 0.2479
5838000000.0 0.7935 -0.583
5841000000.0 0.07473 -0.9625
5844000000.0 -0.7075 -0.6425
5847000000.0 -0.9302 0.162
5850000000.0 -0.483 0.8451
5853000000.0 0.3324 0.8961
5856000000.0 0.9041 0.2961
5859000000.0 0.7849 -0.503
5862000000.0 0.08464 -0.9333
5866000000.0 -0.6281 -0.6516
5869000000.0 -0.9377 0.1
5872000000.0 -0.4725 0.7639
5875000000.0 0.3094 0.8488
5878000000.0 0.8483 0.2806
5881000000.0 0.759 -0.4611
5884000000.0 0.1162 -0.8593
5888000000.0 -0.6206 -0.6039
5891000000.0 -0.8716 0.06711
5894000000.0 -0.4641 0.7083
5897000000.0 0.269 0.8221
5900000000.0 0.7898 0.3138
5903000000.0 0.7799 -0.4043
5906000000.0 0.1481 -0.8199
5909000000.0 -0.559 -0.673
5912000000.0 -0.884 0.01565
5916000000.0 -0.545 0.6955
5919000000.0 0.1959 0.8707
5922000000.0 0.8011 0.4165
5925000000.0 0.8013 -0.371
5928000000.0 0.2463 -0.832
5931000000.0 -0.5075 -0.721
5934000000.0 -0.9076 -0.06473
5938000000.0 -0.6308 0.6377
5941000000.0 0.07205 0.8987
5944000000.0 0.7834 0.5063
5947000000.0 0.871 -0.2359
5950000000.0 0.3525 -0.8523
5953000000.0 -0.3917 -0.7913
5956000000.0 -0.8842 -0.2423
5959000000.0 -0.7543 0.54
5962000000.0 -0.08274 0.9145
5966000000.0 0.6912 0.6539
5969000000.0 0.9459 -0.09666
5972000000.0 0.5201 -0.7852
5975000000.0 -0.285 -0.9405
5978000000.0 -0.8882 -0.3788
5981000000.0 -0.8528 0.4383
5984000000.0 -0.2083 0.9663
5988000000.0 0.5985 0.8054
5991000000.0 0.9827 0.03627
5994000000.0 0.6745 -0.7881
5997000000.0 -0.1312 -0.9786
6000000000.0 -0.8674 -0.5459
6003000000.0 -0.9286 0.3148
6006000000.0 -0.3703 0.9493
6009000000.0 0.4994 0.8601
6012000000.0 0.9893 0.164
6016000000.0 0.7708 -0.6604
6019000000.0 -0.01875 -0.9882
6022000000.0 -0.8034 -0.6014
6025000000.0 -0.9454 0.2159
6028000000.0 -0.4211 0.9095
6031000000.0 0.3812 0.9021
6034000000.0 0.949 0.2576
6038000000.0 0.7913 -0.5779
6041000000.0 0.04868 -0.9687
6044000000.0 -0.7256 -0.6415
6047000000.0 -0.9413 0.1476
6050000000.0 -0.5027 0.8355
6053000000.0 0.3266 0.8769
6056000000.0 0.9037 0.3291
6059000000.0 0.7794 -0.4854
6062000000.0 0.08109 -0.8967
6066000000.0 -0.6514 -0.6666
6069000000.0 -0.9166 0.09603
6072000000.0 -0.4907 0.7444
6075000000.0 0.287 0.86
6078000000.0 0.8276 0.3421
6081000000.0 0.7602 -0.4258
6084000000.0 0.1277 -0.8619
6088000000.0 -0.5917 -0.6558
6091000000.0 -0.8608 0.01252
6094000000.0 -0.5205 0.7073
6097000000.0 0.1953 0.8065
6100000000.0 0.7887 0.3323
6103000000.0 0.7764 -0.3696
6106000000.0 0.1914 -0.8328
6109000000.0 -0.5574 -0.6614
6112000000.0 -0.8556 -0.01696
6116000000.0 -0.547 0.6857
6119000000.0 0.1834 0.8478
6122000000.0 0.7896 0.4084
6125000000.0 0.8084 -0.3333
6128000000.0 0.206 -0.8505
6131000000.0 -0.5334 -0.7259
6134000000.0 -0.8721 -0.0616
6138000000.0 -0.6159 0.6696
6141000000.0 0.154 0.8868
6144000000.0 0.7477 0.4455
6147000000.0 0.8024 -0.313
6150000000.0 0.2636 -0.8342
6153000000.0 -0.4978 -0.7673
6156000000.0 -0.9193 -0.1066
6159000000.0 -0.6449 0.6243
6162000000.0 0.06628 0.899
6166000000.0 0.7696 0.53
6169000000.0 0.8985 -0.2481
6172000000.0 0.3573 -0.834
6175000000.0 -0.4329 -0.8368
6178000000.0 -0.9421 -0.1649
6181000000.0 -0.7177 0.5964
6184000000.0 0.009092 0.9351
6188000000.0 0.7353 0.591
6191000000.0 0.9296 -0.1854
6194000000.0 0.4744 -0.811
6197000000.0 -0.3692 -0.8723
6200000000.0 -0.9112 -0.2831
6203000000.0 -0.7744 0.5282
6206000000.0 -0.08007 0.901
6209000000.0 0.6188 0.6676
6212000000.0 0.9323 -0.07443
6216000000.0 0.5418 -0.7623
6219000000.0 -0.2559 -0.885
6222000000.0 -0.8296 -0.3592
6225000000.0 -0.8077 0.4051
6228000000.0 -0.2076 0.8796
6231000000.0 0.5267 0.688
6234000000.0 0.8917 0.04401
6238000000.0 0.5976 -0.6435
6241000000.0 -0.1275 -0.8596
6244000000.0 -0.7659 -0.4359
6247000000.0 -0.7912 0.2842
6250000000.0 -0.3063 0.7976
6253000000.0 0.3971 0.7094
6256000000.0 0.8397 0.1602
6259000000.0 0.6313 -0.4905
6262000000.0 0.008012 -0.8444
6266000000.0 -0.6341 -0.5449
6269000000.0 -0.816 0.1399
