! Created with skrf 1.8.0 (http://scikit-rf.org).
# Hz S RI R 50.0 
!freq ReS11 ImS11
4000000000.0 -0.1488 -1.523
4003000000.0 -1.252 -0.8371
4006000000.0 -1.406 0.4571
4009000000.0 -0.5668 1.376
4012000000.0 0.7255 1.282
4016000000.0 1.47 0.2249
4019000000.0 1.13 -1.037
4022000000.0 -0.06643 -1.547
4025000000.0 -1.311 -0.9338
4028000000.0 -1.513 0.4573
4031000000.0 -0.5878 1.509
4034000000.0 0.7931 1.384
4038000000.0 1.609 0.2579
4041000000.0 1.217 -1.138
4044000000.0 -0.1277 -1.602
4047000000.0 -1.336 -0.9723
4050000000.0 -1.528 0.4308
4053000000.0 -0.6334 1.482
4056000000.0 0.7474 1.399
4059000000.0 1.582 0.382
4062000000.0 1.3 -0.9993
4066000000.0 0.01431 -1.628
4069000000.0 -1.228 -1.014
4072000000.0 -1.594 0.2413
4075000000.0 -0.834 1.367
4078000000.0 0.5447 1.54
4081000000.0 1.526 0.5696
4084000000.0 1.418 -0.8157
4088000000.0 0.2259 -1.635
4091000000.0 -1.074 -1.214
4094000000.0 -1.602 0.08168
4097000000.0 -1.001 1.299
4100000000.0 0.3428 1.575
4103000000.0 1.415 0.7284
4106000000.0 1.431 -0.6186
4109000000.0 0.4595 -1.475
4112000000.0 -0.8399 -1.289
4116000000.0 -1.442 -0.1966
4119000000.0 -1.128 1.006
4122000000.0 0.0183 1.508
4125000000.0 1.12 0.9466
4128000000.0 1.469 -0.2399
4131000000.0 0.8069 -1.269
4134000000.0 -0.4162 -1.405
4138000000.0 -1.377 -0.5951
4141000000.0 -1.32 0.6361
4144000000.0 -0.4008 1.412
4147000000.0 0.8399 1.233
4150000000.0 1.518 0.1185
4153000000.0 1.067 -1.063
4156000000.0 -0.0991 -1.509
4159000000.0 -1.187 -0.8918
4162000000.0 -1.513 0.3645
4166000000.0 -0.6605 1.355
4169000000.0 0.6032 1.384
4172000000.0 1.431 0.3884
4175000000.0 1.244 -0.8499
4178000000.0 0.1695 -1.477
4181000000.0 -1.037 -1.08
4184000000.0 -1.5 0.07634
4188000000.0 -0.8793 1.214
4191000000.0 0.3797 1.474
4194000000.0 1.404 0.6874
4197000000.0 1.404 -0.6394
4200000000.0 0.3849 -1.542
4203000000.0 -1.003 -1.268
4206000000.0 -1.609 -0.05673
4209000000.0 -1.041 1.254
4212000000.0 0.3047 1.59
4216000000.0 1.455 0.7558
4219000000.0 1.475 -0.7183
4222000000.0 0.3379 -1.624
4225000000.0 -1.104 -1.244
4228000000.0 -1.697 0.0974
4231000000.0 -0.9237 1.38
4234000000.0 0.5126 1.533
4238000000.0 1.581 0.5435
4241000000.0 1.355 -0.9467
4244000000.0 0.08787 -1.601
4247000000.0 -1.223 -1.037
4250000000.0 -1.536 0.3186
4253000000.0 -0.702 1.443
4256000000.0 0.6858 1.374
4259000000.0 1.51 0.3392
4262000000.0 1.172 -1.012
4266000000.0 -0.03312 -1.482
4269000000.0 -1.189 -0.8458
4272000000.0 -1.419 0.4367
4275000000.0 -0.5293 1.379
4278000000.0 0.7259 1.241
4281000000.0 1.447 0.2084
4284000000.0 0.9979 -0.9495
4288000000.0 -0.1253 -1.374
4291000000.0 -1.138 -0.7293
4294000000.0 -1.262 0.4258
4297000000.0 -0.4513 1.254
4300000000.0 0.6129 1.141
4303000000.0 1.252 0.2571
4306000000.0 0.9766 -0.7921
4309000000.0 0.02239 -1.269
4312000000.0 -0.9672 -0.8578
4316000000.0 -1.285 0.1868
4319000000.0 -0.714 1.085
4322000000.0 0.4573 1.24
4325000000.0 1.202 0.5142
4328000000.0 1.186 -0.6069
4331000000.0 0.2996 -1.311
4334000000.0 -0.833 -1.067
4338000000.0 -1.356 -0.05875
4341000000.0 -0.8976 1.035
4344000000.0 0.2004 1.394
4347000000.0 1.2 0.7416
4350000000.0 1.333 -0.4595
4353000000.0 0.4913 -1.327
4356000000.0 -0.7174 -1.253
4359000000.0 -1.412 -0.2804
4362000000.0 -1.124 0.9241
4366000000.0 0.007541 1.456
4369000000.0 1.116 0.9288
4372000000.0 1.432 -0.2717
4375000000.0 0.7068 -1.236
4378000000.0 -0.5582 -1.387
4381000000.0 -1.436 -0.4978
4384000000.0 -1.31 0.7822
4388000000.0 -0.1964 1.509
4391000000.0 1.062 1.106
4394000000.0 1.526 -0.09755
4397000000.0 0.8698 -1.312
4400000000.0 -0.4722 -1.503
4403000000.0 -1.471 -0.5347
4406000000.0 -1.361 0.7896
4409000000.0 -0.181 1.575
4412000000.0 1.066 1.111
4416000000.0 1.537 -0.1478
4419000000.0 0.7733 -1.305
4422000000.0 -0.51 -1.418
4425000000.0 -1.417 -0.4361
4428000000.0 -1.225 0.804
4431000000.0 -0.1188 1.448
4434000000.0 1.062 0.93
4438000000.0 1.386 -0.2336
4441000000.0 0.6376 -1.217
4444000000.0 -0.5538 -1.28
4447000000.0 -1.357 -0.336
4450000000.0 -1.029 0.8169
4453000000.0 0.03039 1.299
4456000000.0 1.034 0.8037
4459000000.0 1.221 -0.3277
4462000000.0 0.4764 -1.193
4466000000.0 -0.6437 -1.071
4469000000.0 -1.192 -0.1667
4472000000.0 -0.8511 0.8613
4475000000.0 0.146 1.177
4478000000.0 1.042 0.618
4481000000.0 1.083 -0.4088
4484000000.0 0.308 -1.098
4488000000.0 -0.6527 -0.9186
4491000000.0 -1.113 -0.1079
4494000000.0 -0.7904 0.8133
4497000000.0 0.148 1.093
4500000000.0 0.9664 0.5359
4503000000.0 1.005 -0.3771
4506000000.0 0.306 -1.054
4509000000.0 -0.5919 -0.8944
4512000000.0 -1.108 -0.1115
4516000000.0 -0.7461 0.7893
4519000000.0 0.1231 1.123
4522000000.0 0.9414 0.6156
4525000000.0 1.08 -0.335
4528000000.0 0.4311 -1.071
4531000000.0 -0.5543 -1.009
4534000000.0 -1.141 -0.2036
4538000000.0 -0.8797 0.7763
4541000000.0 0.04092 1.17
4544000000.0 0.9333 0.7288
4547000000.0 1.166 -0.2217
4550000000.0 0.5665 -1.036
4553000000.0 -0.4477 -1.104
4556000000.0 -1.152 -0.3694
4559000000.0 -1.022 0.6274
4562000000.0 -0.176 1.204
4566000000.0 0.831 0.9352
4569000000.0 1.258 -0.01668
4572000000.0 0.7807 -0.9887
4575000000.0 -0.2614 -1.227
4578000000.0 -1.153 -0.6046
4581000000.0 -1.202 0.4716
4584000000.0 -0.3945 1.241
4588000000.0 0.7291 1.133
4591000000.0 1.335 0.1487
4594000000.0 0.9753 -0.9247
4597000000.0 -0.09081 -1.375
4600000000.0 -1.159 -0.8041
4603000000.0 -1.33 0.3725
4606000000.0 -0.5718 1.265
4609000000.0 0.6156 1.221
4612000000.0 1.345 0.3332
4616000000.0 1.096 -0.8236
4619000000.0 0.06096 -1.394
4622000000.0 -1.042 -0.927
4625000000.0 -1.336 0.243
4628000000.0 -0.667 1.226
4631000000.0 0.5259 1.283
4634000000.0 1.306 0.3791
4638000000.0 1.139 -0.7693
4641000000.0 0.1051 -1.331
4644000000.0 -0.9922 -0.9005
4647000000.0 -1.367 0.1639
4650000000.0 -0.6518 1.153
4653000000.0 0.4596 1.207
4656000000.0 1.248 0.3742
4659000000.0 1.059 -0.7078
4662000000.0 0.07066 -1.235
4666000000.0 -0.9286 -0.8243
4669000000.0 -1.211 0.2062
4672000000.0 -0.6162 1.027
4675000000.0 0.4347 1.117
4678000000.0 1.084 0.3492
4681000000.0 0.9348 -0.6613
4684000000.0 0.05709 -1.114
4688000000.0 -0.8185 -0.7287
4691000000.0 -1.105 0.2053
4694000000.0 -0.541 0.9418
4697000000.0 0.3776 0.9808
4700000000.0 1.032 0.3223
4703000000.0 0.8439 -0.6362
4706000000.0 0.03839 -1.1
4709000000.0 -0.8504 -0.6727
4712000000.0 -1.07 0.2084
4716000000.0 -0.4705 0.9565
4719000000.0 0.4145 0.9881
4722000000.0 1.002 0.2534
4725000000.0 0.8411 -0.6289
4728000000.0 0.04286 -1.049
4731000000.0 -0.7731 -0.6467
4734000000.0 -0.9967 0.1598
4738000000.0 -0.5147 0.914
4741000000.0 0.3885 0.9559
4744000000.0 0.9815 0.3572
4747000000.0 0.9091 -0.5696
4750000000.0 0.1698 -1.013
4753000000.0 -0.6963 -0.7893
4756000000.0 -1.069 0.04974
4759000000.0 -0.6762 0.8591
4762000000.0 0.2066 1.089
4766000000.0 1.019 0.4931
4769000000.0 1.052 -0.4345
4772000000.0 0.3363 -1.088
4775000000.0 -0.6391 -0.9804
4778000000.0 -1.138 -0.1221
4781000000.0 -0.8426 0.7779
4784000000.0 0.06937 1.186
4788000000.0 0.9633 0.7288
4791000000.0 1.176 -0.2906
4794000000.0 0.5628 -1.074
4797000000.0 -0.4691 -1.15
4800000000.0 -1.208 -0.3576
4803000000.0 -1.051 0.6282
4806000000.0 -0.1987 1.231
4809000000.0 0.8304 0.9366
4812000000.0 1.281 -0.0298
4816000000.0 0.8038 -0.9943
4819000000.0 -0.2711 -1.302
4822000000.0 -1.175 -0.6361
4825000000.0 -1.226 0.522
4828000000.0 -0.4207 1.303
4831000000.0 0.748 1.138
4834000000.0 1.37 0.1468
4838000000.0 0.9805 -0.9553
4841000000.0 -0.1263 -1.396
4844000000.0 -1.15 -0.7797
4847000000.0 -1.345 0.3905
4850000000.0 -0.5302 1.289
4853000000.0 0.6277 1.2
4856000000.0 1.346 0.273
4859000000.0 1.036 -0.8663
4862000000.0 -0.03432 -1.359
4866000000.0 -1.032 -0.8455
4869000000.0 -1.311 0.2987
4872000000.0 -0.6261 1.189
4875000000.0 0.5071 1.194
4878000000.0 1.254 0.3144
4881000000.0 1.012 -0.7513
4884000000.0 0.03741 -1.269
4888000000.0 -0.9169 -0.8107
4891000000.0 -1.192 0.2034
4894000000.0 -0.6137 1.033
4897000000.0 0.4333 1.077
4900000000.0 1.096 0.34
4903000000.0 0.9405 -0.6324
4906000000.0 0.1195 -1.103
4909000000.0 -0.7553 -0.7291
4912000000.0 -1.005 0.1225
4916000000.0 -0.5502 0.8793
4919000000.0 0.3306 0.9693
4922000000.0 0.9222 0.3485
4925000000.0 0.8495 -0.5
4928000000.0 0.1572 -0.932
4931000000.0 -0.6432 -0.7392
4934000000.0 -0.944 0.03256
4938000000.0 -0.5804 0.717
4941000000.0 0.2256 0.9011
4944000000.0 0.8393 0.4031
4947000000.0 0.8672 -0.3824
4950000000.0 0.2458 -0.9399
4953000000.0 -0.5399 -0.7602
4956000000.0 -0.9657 -0.05214
4959000000.0 -0.6541 0.7098
4962000000.0 0.1388 0.956
4966000000.0 0.8397 0.4829
4969000000.0 0.9075 -0.3557
4972000000.0 0.2978 -0.9317
4975000000.0 -0.5353 -0.8234
4978000000.0 -1.019 -0.1363
4981000000.0 -0.7298 0.7099
4984000000.0 0.06075 1.046
4988000000.0 0.8431 0.6369
4991000000.0 1.007 -0.282
4994000000.0 0.4607 -0.9658
4997000000.0 -0.4419 -1.003
5000000000.0 -1.058 -0.2715
5003000000.0 -0.9137 0.6409
5006000000.0 -0.09108 1.157
5009000000.0 0.8354 0.8068
5012000000.0 1.197 -0.129
5016000000.0 0.6725 -1.016
5019000000.0 -0.3458 -1.2
5022000000.0 -1.147 -0.4695
5025000000.0 -1.123 0.6081
5028000000.0 -0.2278 1.247
5031000000.0 0.7872 0.9351
5034000000.0 1.272 -0.01446
5038000000.0 0.8183 -0.97
5041000000.0 -0.2155 -1.272
5044000000.0 -1.118 -0.6146
5047000000.0 -1.18 0.4698
5050000000.0 -0.4468 1.224
5053000000.0 0.6432 1.141
5056000000.0 1.269 0.2095
5059000000.0 0.9996 -0.8449
5062000000.0 -0.02633 -1.281
5066000000.0 -0.9702 -0.7774
5069000000.0 -1.242 0.2695
5072000000.0 -0.6311 1.096
5075000000.0 0.5032 1.19
5078000000.0 1.168 0.3718
5081000000.0 1.059 -0.7097
5084000000.0 0.1297 -1.252
5088000000.0 -0.8082 -0.8934
5091000000.0 -1.213 0.08054
5094000000.0 -0.703 0.9516
5097000000.0 0.2749 1.155
5100000000.0 1.014 0.5033
5103000000.0 1.054 -0.4596
5106000000.0 0.3034 -1.073
5109000000.0 -0.6305 -0.8826
5112000000.0 -1.1 -0.1266
5116000000.0 -0.7451 0.7635
5119000000.0 0.03365 1.031
5122000000.0 0.8795 0.6277
5125000000.0 0.9835 -0.2544
5128000000.0 0.4628 -0.9495
5131000000.0 -0.4076 -0.9154
5134000000.0 -0.9554 -0.2652
5138000000.0 -0.7808 0.5844
5141000000.0 -0.05601 1.015
5144000000.0 0.7237 0.6658
5147000000.0 0.9397 -0.1473
5150000000.0 0.4742 -0.7862
5153000000.0 -0.3057 -0.8818
5156000000.0 -0.8969 -0.3135
5159000000.0 -0.7711 0.4246
5162000000.0 -0.1394 0.9002
5166000000.0 0.5814 0.6593
5169000000.0 0.888 -0.05009
5172000000.0 0.5162 -0.7184
5175000000.0 -0.2231 -0.8805
5178000000.0 -0.8005 -0.3722
5181000000.0 -0.8105 0.3791
5184000000.0 -0.1907 0.8712
5188000000.0 0.6012 0.6847
5191000000.0 0.9052 -0.02636
5194000000.0 0.5318 -0.7369
5197000000.0 -0.2027 -0.9057
5200000000.0 -0.8361 -0.391
5203000000.0 -0.8479 0.41
5206000000.0 -0.2075 0.9229
5209000000.0 0.6048 0.755
5212000000.0 0.9458 -0.01245
5216000000.0 0.634 -0.7581
5219000000.0 -0.2034 -0.9709
5222000000.0 -0.8616 -0.4217
5225000000.0 -0.907 0.4084
5228000000.0 -0.2545 0.9492
5231000000.0 0.5755 0.8274
5234000000.0 1.022 0.08291
5238000000.0 0.6952 -0.7509
5241000000.0 -0.1256 -1.013
5244000000.0 -0.8671 -0.5626
5247000000.0 -0.9692 0.3043
5250000000.0 -0.4117 0.9903
5253000000.0 0.4965 0.9352
5256000000.0 1.036 0.205
5259000000.0 0.8004 -0.66
5262000000.0 0.04442 -1.063
5266000000.0 -0.8168 -0.6897
5269000000.0 -1.096 0.1687
5272000000.0 -0.5498 0.9423
5275000000.0 0.3538 1.03
5278000000.0 1.003 0.399
5281000000.0 0.9584 -0.5146
5284000000.0 0.2268 -1.046
5288000000.0 -0.6655 -0.8416
5291000000.0 -1.095 -0.03978
5294000000.0 -0.7525 0.7991
5297000000.0 0.1262 1.104
5300000000.0 0.9366 0.631
5303000000.0 1.092 -0.2952
5306000000.0 0.4713 -1.032
5309000000.0 -0.4816 -1.014
5312000000.0 -1.102 -0.2815
5316000000.0 -0.9409 0.6373
5319000000.0 -0.1129 1.123
5322000000.0 0.8303 0.8115
5325000000.0 1.137 -0.06381
5328000000.0 0.6467 -0.9307
5331000000.0 -0.2766 -1.118
5334000000.0 -1.045 -0.462
5338000000.0 -1.027 0.4922
5341000000.0 -0.2609 1.106
5344000000.0 0.672 0.8769
5347000000.0 1.115 0.02205
5350000000.0 0.7348 -0.8119
5353000000.0 -0.1559 -1.091
5356000000.0 -0.9478 -0.5419
5359000000.0 -0.9983 0.3609
5362000000.0 -0.3743 0.9854
5366000000.0 0.5548 0.9234
5369000000.0 1.052 0.1533
5372000000.0 0.766 -0.7444
5375000000.0 -0.09074 -1.025
5378000000.0 -0.8986 -0.5502
5381000000.0 -0.9435 0.3178
5384000000.0 -0.3446 0.9426
5388000000.0 0.5144 0.817
5391000000.0 0.9548 0.0954
5394000000.0 0.7027 -0.6959
5397000000.0 -0.1247 -0.9185
5400000000.0 -0.7796 -0.4813
5403000000.0 -0.8337 0.2917
5406000000.0 -0.2573 0.8736
5409000000.0 0.4813 0.7362
5412000000.0 0.8774 0.1131
5416000000.0 0.6222 -0.6166
5419000000.0 -0.1317 -0.8716
5422000000.0 -0.73 -0.4467
5425000000.0 -0.8273 0.281
5428000000.0 -0.2761 0.8176
5431000000.0 0.4908 0.7365
5434000000.0 0.8515 0.08702
5438000000.0 0.5971 -0.6198
5441000000.0 -0.09833 -0.8864
5444000000.0 -0.7602 -0.4301
5447000000.0 -0.8334 0.3018
5450000000.0 -0.2667 0.8323
5453000000.0 0.4788 0.7393
5456000000.0 0.9023 0.0778
5459000000.0 0.6598 -0.6401
5462000000.0 -0.04422 -0.8938
5466000000.0 -0.7625 -0.5306
5469000000.0 -0.8708 0.2702
5472000000.0 -0.3535 0.7983
5475000000.0 0.4141 0.8325
5478000000.0 0.8845 0.2677
5481000000.0 0.775 -0.5559
5484000000.0 0.06945 -0.9333
5488000000.0 -0.703 -0.6606
5491000000.0 -0.9612 0.08974
5494000000.0 -0.5568 0.8073
5497000000.0 0.2426 0.9374
5500000000.0 0.9121 0.42
5503000000.0 0.8963 -0.4259
5506000000.0 0.2113 -0.961
5509000000.0 -0.59 -0.8347
5512000000.0 -1.02 -0.07195
5516000000.0 -0.6893 0.7637
5519000000.0 0.1233 1.031
5522000000.0 0.8596 0.5919
5525000000.0 1.021 -0.2876
5528000000.0 0.4329 -0.9248
5531000000.0 -0.4481 -0.9554
5534000000.0 -1.018 -0.2846
5538000000.0 -0.8623 0.6167
5541000000.0 -0.06912 1.013
5544000000.0 0.7491 0.7925
5547000000.0 1.06 -0.1123
5550000000.0 0.6018 -0.8592
5553000000.0 -0.2784 -1.025
5556000000.0 -0.9766 -0.3857
5559000000.0 -0.9453 0.4873
5562000000.0 -0.242 1.011
5566000000.0 0.6395 0.8017
5569000000.0 1.036 0.06322
5572000000.0 0.6943 -0.7501
5575000000.0 -0.1505 -1.01
5578000000.0 -0.8424 -0.5257
5581000000.0 -0.9613 0.3273
5584000000.0 -0.3662 0.9213
5588000000.0 0.4637 0.809
5591000000.0 0.9583 0.166
5594000000.0 0.7233 -0.6058
5597000000.0 -0.006225 -0.9164
5600000000.0 -0.7118 -0.6143
5603000000.0 -0.8951 0.1768
5606000000.0 -0.4075 0.8054
5609000000.0 0.3532 0.8275
5612000000.0 0.8441 0.2436
5616000000.0 0.7202 -0.5009
5619000000.0 0.08424 -0.878
5622000000.0 -0.6288 -0.6075
5625000000.0 -0.8176 0.1326
5628000000.0 -0.4311 0.7288
5631000000.0 0.2861 0.7818
5634000000.0 0.7724 0.263
5638000000.0 0.6971 -0.4722
5641000000.0 0.06793 -0.8274
5644000000.0 -0.5822 -0.5579
5647000000.0 -0.844 0.1153
5650000000.0 -0.4401 0.7238
5653000000.0 0.2752 0.809
5656000000.0 0.8266 0.277
5659000000.0 0.7114 -0.4696
5662000000.0 0.1054 -0.854
5666000000.0 -0.5933 -0.6111
5669000000.0 -0.8632 0.113
5672000000.0 -0.483 0.7497
5675000000.0 0.3086 0.8535
5678000000.0 0.8589 0.2868
5681000000.0 0.7894 -0.4942
5684000000.0 0.1316 -0.9152
5688000000.0 -0.6704 -0.6907
5691000000.0 -0.9172 0.1139
5694000000.0 -0.5381 0.7928
5697000000.0 0.2813 0.9362
5700000000.0 0.8906 0.3821
5703000000.0 0.8811 -0.4799
5706000000.0 0.1868 -0.9812
5709000000.0 -0.6402 -0.7831
5712000000.0 -1.005 0.0227
5716000000.0 -0.6432 0.8031
5719000000.0 0.2183 1.016
5722000000.0 0.949 0.5009
5725000000.0 0.9538 -0.4316
5728000000.0 0.3047 -0.9909
5731000000.0 -0.5943 -0.875
5734000000.0 -1.066 -0.1282
5738000000.0 -0.7969 0.7504
5741000000.0 0.07621 1.098
5744000000.0 0.905 0.6505
5747000000.0 1.036 -0.2518
5750000000.0 0.415 -0.9976
5753000000.0 -0.4713 -0.9923
5756000000.0 -1.083 -0.289
5759000000.0 -0.9012 0.6508
5762000000.0 -0.06865 1.106
5766000000.0 0.8108 0.7648
5769000000.0 1.096 -0.159
5772000000.0 0.6101 -0.9217
5775000000.0 -0.2928 -1.092
5778000000.0 -0.9933 -0.4509
5781000000.0 -0.9888 0.4716
5784000000.0 -0.2255 1.05
5788000000.0 0.6496 0.8699
5791000000.0 1.105 0.09109
5794000000.0 0.7374 -0.815
5797000000.0 -0.1321 -1.089
5800000000.0 -0.8793 -0.588
5803000000.0 -1.026 0.3324
5806000000.0 -0.3846 0.9932
5809000000.0 0.4821 0.9132
5812000000.0 1.029 0.2092
5816000000.0 0.7528 -0.6921
5819000000.0 0.02135 -1.025
5822000000.0 -0.7779 -0.6373
5825000000.0 -0.9629 0.1925
5828000000.0 -0.4275 0.9231
5831000000.0 0.3883 0.8932
5834000000.0 0.9413 0.2622
5838000000.0 0.7638 -0.5598
5841000000.0 0.08601 -0.9857
5844000000.0 -0.7062 -0.6513
5847000000.0 -0.9471 0.1496
5850000000.0 -0.517 0.7927
5853000000.0 0.307 0.8826
5856000000.0 0.8965 0.3102
5859000000.0 0.8051 -0.5001
5862000000.0 0.1043 -0.8949
5866000000.0 -0.6366 -0.6505
5869000000.0 -0.8922 0.1117
5872000000.0 -0.4683 0.7244
5875000000.0 0.2956 0.8156
5878000000.0 0.8551 0.3111
5881000000.0 0.7631 -0.4415
5884000000.0 0.1311 -0.8436
5888000000.0 -0.5952 -0.6255
5891000000.0 -0.8168 0.07913
5894000000.0 -0.487 0.6967
5897000000.0 0.2273 0.8084
5900000000.0 0.7682 0.3555
5903000000.0 0.7716 -0.4011
5906000000.0 0.1601 -0.8455
5909000000.0 -0.5406 -0.6338
5912000000.0 -0.9007 0.01616
5916000000.0 -0.5494 0.662
5919000000.0 0.1734 0.8574
5922000000.0 0.7864 0.408
5925000000.0 0.8064 -0.3195
5928000000.0 0.259 -0.8256
5931000000.0 -0.5049 -0.7247
5934000000.0 -0.8523 -0.1098
5938000000.0 -0.6034 0.6178
5941000000.0 0.0742 0.8996
5944000000.0 0.7478 0.4874
5947000000.0 0.855 -0.2245
5950000000.0 0.37 -0.8108
5953000000.0 -0.3704 -0.8043
5956000000.0 -0.8869 -0.2471
5959000000.0 -0.7367 0.5381
5962000000.0 -0.05528 0.9313
5966000000.0 0.6847 0.6381
5969000000.0 0.9231 -0.1286
5972000000.0 0.551 -0.7934
5975000000.0 -0.2974 -0.9041
5978000000.0 -0.911 -0.3895
5981000000.0 -0.8501 0.4299
5984000000.0 -0.2363 0.9805
5988000000.0 0.5839 0.7665
5991000000.0 0.9696 0.04363
5994000000.0 0.6259 -0.7433
5997000000.0 -0.1252 -1.004
6000000000.0 -0.8491 -0.5233
6003000000.0 -0.9374 0.287
6006000000.0 -0.359 0.9035
6009000000.0 0.5002 0.8625
6012000000.0 0.982 0.1493
6016000000.0 0.7438 -0.6393
6019000000.0 0.00543 -1.007
6022000000.0 -0.7768 -0.605
6025000000.0 -0.9332 0.1913
6028000000.0 -0.4257 0.8689
6031000000.0 0.3927 0.8684
6034000000.0 0.9282 0.2843
6038000000.0 0.799 -0.5712
6041000000.0 0.07195 -0.9707
6044000000.0 -0.7183 -0.6613
6047000000.0 -0.9376 0.1059
6050000000.0 -0.5121 0.7992
6053000000.0 0.3247 0.8602
6056000000.0 0.8683 0.3115
6059000000.0 0.8067 -0.4897
6062000000.0 0.1228 -0.9212
6066000000.0 -0.6405 -0.6763
6069000000.0 -0.924 0.05458
6072000000.0 -0.5039 0.7488
6075000000.0 0.2609 0.8605
6078000000.0 0.7965 0.3276
6081000000.0 0.7834 -0.4369
6084000000.0 0.1544 -0.8631
6088000000.0 -0.5809 -0.6414
6091000000.0 -0.8971 0.01054
6094000000.0 -0.534 0.6794
6097000000.0 0.1997 0.8466
6100000000.0 0.7656 0.3875
6103000000.0 0.7628 -0.3737
6106000000.0 0.1941 -0.8421
6109000000.0 -0.5318 -0.6731
6112000000.0 -0.8579 -0.003759
6116000000.0 -0.5438 0.6555
6119000000.0 0.1447 0.8704
6122000000.0 0.7634 0.4104
6125000000.0 0.8126 -0.3217
6128000000.0 0.2383 -0.8402
6131000000.0 -0.5017 -0.6968
6134000000.0 -0.896 -0.06716
6138000000.0 -0.5811 0.646
6141000000.0 0.1021 0.8658
6144000000.0 0.7646 0.4456
6147000000.0 0.8006 -0.3053
6150000000.0 0.3084 -0.8318
6153000000.0 -0.477 -0.7678
6156000000.0 -0.8978 -0.1542
6159000000.0 -0.6407 0.6079
6162000000.0 0.05606 0.9148
6166000000.0 0.7169 0.537
6169000000.0 0.8716 -0.2263
6172000000.0 0.3695 -0.8556
6175000000.0 -0.4116 -0.8254
6178000000.0 -0.9305 -0.2247
6181000000.0 -0.7259 0.5806
6184000000.0 -0.01986 0.926
6188000000.0 0.7154 0.6146
6191000000.0 0.9283 -0.145
6194000000.0 0.473 -0.8376
6197000000.0 -0.326 -0.8548
6200000000.0 -0.9131 -0.2934
6203000000.0 -0.8087 0.5063
6206000000.0 -0.1094 0.9243
6209000000.0 0.6269 0.7009
6212000000.0 0.8864 -0.0345
6216000000.0 0.5536 -0.72
6219000000.0 -0.2369 -0.882
6222000000.0 -0.8568 -0.3839
6225000000.0 -0.8234 0.3827
6228000000.0 -0.2183 0.8793
6231000000.0 0.5106 0.7206
6234000000.0 0.8983 0.05761
6238000000.0 0.619 -0.6417
6241000000.0 -0.09596 -0.8738
6244000000.0 -0.7454 -0.495
6247000000.0 -0.8105 0.2769
6250000000.0 -0.3142 0.8039
6253000000.0 0.4188 0.7693
6256000000.0 0.8288 0.1797
6259000000.0 0.669 -0.5008
6262000000.0 0.02442 -0.7936
6266000000.0 -0.5808 -0.561
6269000000.0 -0.7888 0.1257
