! Created with skrf 1.8.0 (http://scikit-rf.org).
# Hz S RI R 50.0 
!freq ReS11 ImS11
4000000000.0 -0.2047 -1.449
4003000000.0 -1.259 -0.774
4006000000.0 -1.441 0.4697
4009000000.0 -0.5344 1.416
4012000000.0 0.7927 1.32
4016000000.0 1.504 0.2062
4019000000.0 1.149 -1.075
4022000000.0 -0.1423 -1.557
4025000000.0 -1.335 -0.9205
4028000000.0 -1.532 0.4301
4031000000.0 -0.5712 1.51
4034000000.0 0.8008 1.386
4038000000.0 1.678 0.226
4041000000.0 1.193 -1.151
4044000000.0 -0.1246 -1.625
4047000000.0 -1.349 -0.9454
4050000000.0 -1.589 0.4945
4053000000.0 -0.6663 1.505
4056000000.0 0.7808 1.44
4059000000.0 1.581 0.3306
4062000000.0 1.24 -1.012
4066000000.0 0.01992 -1.552
4069000000.0 -1.236 -1.054
4072000000.0 -1.585 0.3087
4075000000.0 -0.789 1.416
4078000000.0 0.609 1.5
4081000000.0 1.565 0.5419
4084000000.0 1.404 -0.8369
4088000000.0 0.2002 -1.618
4091000000.0 -1.106 -1.251
4094000000.0 -1.645 0.09887
4097000000.0 -0.9427 1.304
4100000000.0 0.4198 1.578
4103000000.0 1.443 0.7078
4106000000.0 1.457 -0.643
4109000000.0 0.4258 -1.496
4112000000.0 -0.8493 -1.31
4116000000.0 -1.516 -0.2067
4119000000.0 -1.157 1.016
4122000000.0 0.008909 1.492
4125000000.0 1.146 0.9316
4128000000.0 1.492 -0.2606
4131000000.0 0.747 -1.245
4134000000.0 -0.437 -1.4
4138000000.0 -1.395 -0.5655
4141000000.0 -1.37 0.6644
4144000000.0 -0.3598 1.461
4147000000.0 0.8424 1.239
4150000000.0 1.503 0.1269
4153000000.0 1.101 -1.102
4156000000.0 -0.1544 -1.499
4159000000.0 -1.217 -0.8543
4162000000.0 -1.431 0.3995
4166000000.0 -0.6399 1.352
4169000000.0 0.6445 1.347
4172000000.0 1.472 0.4015
4175000000.0 1.22 -0.8771
4178000000.0 0.152 -1.505
4181000000.0 -1.055 -1.058
4184000000.0 -1.513 0.1272
4188000000.0 -0.8624 1.243
4191000000.0 0.4087 1.48
4194000000.0 1.345 0.6492
4197000000.0 1.404 -0.6768
4200000000.0 0.365 -1.531
4203000000.0 -1.022 -1.235
4206000000.0 -1.643 0.01086
4209000000.0 -1.016 1.275
4212000000.0 0.363 1.635
4216000000.0 1.5 0.6979
4219000000.0 1.493 -0.7645
4222000000.0 0.2942 -1.649
4225000000.0 -1.108 -1.241
4228000000.0 -1.682 0.1861
4231000000.0 -0.8778 1.393
4234000000.0 0.5779 1.538
4238000000.0 1.565 0.4728
4241000000.0 1.294 -0.9389
4244000000.0 0.03874 -1.613
4247000000.0 -1.227 -1.0
4250000000.0 -1.532 0.3543
4253000000.0 -0.6319 1.44
4256000000.0 0.727 1.377
4259000000.0 1.503 0.2935
4262000000.0 1.12 -0.9939
4266000000.0 -0.06103 -1.502
4269000000.0 -1.216 -0.8329
4272000000.0 -1.44 0.5001
4275000000.0 -0.5169 1.368
4278000000.0 0.7893 1.198
4281000000.0 1.436 0.13
4284000000.0 0.9817 -1.022
4288000000.0 -0.1661 -1.334
4291000000.0 -1.131 -0.7334
4294000000.0 -1.299 0.422
4297000000.0 -0.4615 1.252
4300000000.0 0.684 1.139
4303000000.0 1.273 0.1978
4306000000.0 1.011 -0.8517
4309000000.0 -0.03859 -1.286
4312000000.0 -0.979 -0.8144
4316000000.0 -1.296 0.2007
4319000000.0 -0.6493 1.118
4322000000.0 0.4407 1.243
4325000000.0 1.241 0.4512
4328000000.0 1.154 -0.6491
4331000000.0 0.2549 -1.331
4334000000.0 -0.8616 -1.088
4338000000.0 -1.351 -0.04329
4341000000.0 -0.8985 1.066
4344000000.0 0.2469 1.415
4347000000.0 1.25 0.6907
4350000000.0 1.355 -0.5048
4353000000.0 0.4344 -1.364
4356000000.0 -0.7369 -1.235
4359000000.0 -1.432 -0.1699
4362000000.0 -1.09 0.9513
4366000000.0 0.04691 1.45
4369000000.0 1.171 0.9023
4372000000.0 1.436 -0.3181
4375000000.0 0.6898 -1.325
4378000000.0 -0.6158 -1.353
4381000000.0 -1.456 -0.4222
4384000000.0 -1.25 0.8393
4388000000.0 -0.1564 1.53
4391000000.0 1.12 1.067
4394000000.0 1.572 -0.1789
4397000000.0 0.7835 -1.364
4400000000.0 -0.5452 -1.508
4403000000.0 -1.496 -0.5205
4406000000.0 -1.353 0.8424
4409000000.0 -0.1326 1.57
4412000000.0 1.2 1.093
4416000000.0 1.55 -0.2254
4419000000.0 0.7554 -1.311
4422000000.0 -0.5932 -1.413
4425000000.0 -1.438 -0.4007
4428000000.0 -1.193 0.8893
4431000000.0 -0.04226 1.436
4434000000.0 1.091 0.9134
4438000000.0 1.351 -0.2885
4441000000.0 0.616 -1.259
4444000000.0 -0.6296 -1.212
4447000000.0 -1.306 -0.2652
4450000000.0 -1.008 0.8478
4453000000.0 0.0726 1.314
4456000000.0 1.056 0.7168
4459000000.0 1.204 -0.3859
4462000000.0 0.4392 -1.198
4466000000.0 -0.6628 -1.055
4469000000.0 -1.221 -0.1377
4472000000.0 -0.7899 0.9006
4475000000.0 0.2073 1.187
4478000000.0 1.065 0.5807
4481000000.0 1.023 -0.4721
4484000000.0 0.3006 -1.103
4488000000.0 -0.6665 -0.9238
4491000000.0 -1.18 -0.03842
4494000000.0 -0.7274 0.8888
4497000000.0 0.2238 1.116
4500000000.0 1.013 0.5256
4503000000.0 0.9857 -0.4319
4506000000.0 0.3024 -1.046
4509000000.0 -0.6254 -0.9124
4512000000.0 -1.11 -0.06111
4516000000.0 -0.7561 0.8074
4519000000.0 0.1534 1.114
4522000000.0 0.9746 0.5815
4525000000.0 1.08 -0.3972
4528000000.0 0.3563 -1.091
4531000000.0 -0.6065 -0.9957
4534000000.0 -1.159 -0.1749
4538000000.0 -0.8658 0.7939
4541000000.0 0.04674 1.193
4544000000.0 0.9374 0.6961
4547000000.0 1.154 -0.2832
4550000000.0 0.535 -1.04
4553000000.0 -0.4706 -1.115
4556000000.0 -1.172 -0.3668
4559000000.0 -1.01 0.6811
4562000000.0 -0.1366 1.245
4566000000.0 0.8778 0.8909
4569000000.0 1.281 -0.0665
4572000000.0 0.7641 -1.027
4575000000.0 -0.2847 -1.224
4578000000.0 -1.17 -0.5974
4581000000.0 -1.196 0.5256
4584000000.0 -0.3723 1.284
4588000000.0 0.7647 1.13
4591000000.0 1.345 0.1211
4594000000.0 0.9543 -0.9607
4597000000.0 -0.1363 -1.357
4600000000.0 -1.167 -0.7964
4603000000.0 -1.31 0.4084
4606000000.0 -0.5374 1.289
4609000000.0 0.6565 1.227
4612000000.0 1.387 0.2848
4616000000.0 1.078 -0.8907
4619000000.0 -0.0001638 -1.404
4622000000.0 -1.088 -0.8724
4625000000.0 -1.349 0.3081
4628000000.0 -0.6029 1.208
4631000000.0 0.5838 1.277
4634000000.0 1.333 0.3524
4638000000.0 1.086 -0.8006
4641000000.0 0.05409 -1.347
4644000000.0 -1.026 -0.9186
4647000000.0 -1.334 0.2436
4650000000.0 -0.6265 1.201
4653000000.0 0.5314 1.186
4656000000.0 1.272 0.3271
4659000000.0 1.022 -0.7263
4662000000.0 0.0302 -1.269
4666000000.0 -0.9654 -0.8012
4669000000.0 -1.178 0.2426
4672000000.0 -0.5173 1.057
4675000000.0 0.4736 1.047
4678000000.0 1.154 0.2877
4681000000.0 0.8752 -0.7182
4684000000.0 0.007525 -1.101
4688000000.0 -0.888 -0.7139
4691000000.0 -1.124 0.2471
4694000000.0 -0.5087 0.9883
4697000000.0 0.4238 1.011
4700000000.0 1.076 0.2626
4703000000.0 0.843 -0.6605
4706000000.0 -0.04467 -1.076
4709000000.0 -0.8503 -0.6476
4712000000.0 -1.043 0.2558
4716000000.0 -0.4274 0.9684
4719000000.0 0.4736 0.9458
4722000000.0 1.036 0.2287
4725000000.0 0.8466 -0.6376
4728000000.0 0.01882 -1.043
4731000000.0 -0.827 -0.6726
4734000000.0 -1.003 0.2053
4738000000.0 -0.5034 0.9201
4741000000.0 0.3998 0.961
4744000000.0 0.9898 0.3226
4747000000.0 0.8597 -0.5483
4750000000.0 0.1402 -1.078
4753000000.0 -0.7315 -0.7764
4756000000.0 -1.129 0.07792
4759000000.0 -0.6609 0.8707
4762000000.0 0.261 1.073
4766000000.0 1.012 0.4965
4769000000.0 1.037 -0.4716
4772000000.0 0.3222 -1.12
4775000000.0 -0.7032 -0.9709
4778000000.0 -1.175 -0.1125
4781000000.0 -0.8271 0.8567
4784000000.0 0.09141 1.207
4788000000.0 0.9779 0.7155
4791000000.0 1.184 -0.2949
4794000000.0 0.5393 -1.134
4797000000.0 -0.4896 -1.121
4800000000.0 -1.202 -0.3625
4803000000.0 -1.013 0.6621
4806000000.0 -0.1443 1.216
4809000000.0 0.8708 0.9367
4812000000.0 1.293 -0.0822
4816000000.0 0.7707 -1.023
4819000000.0 -0.2924 -1.298
4822000000.0 -1.21 -0.6302
4825000000.0 -1.247 0.5253
4828000000.0 -0.3714 1.32
4831000000.0 0.7912 1.11
4834000000.0 1.387 0.09939
4838000000.0 0.9596 -1.028
4841000000.0 -0.195 -1.389
4844000000.0 -1.202 -0.7363
4847000000.0 -1.3 0.4433
4850000000.0 -0.4893 1.334
4853000000.0 0.7028 1.233
4856000000.0 1.363 0.2259
4859000000.0 1.027 -0.9412
4862000000.0 -0.03808 -1.371
4866000000.0 -1.069 -0.7956
4869000000.0 -1.309 0.3138
4872000000.0 -0.5509 1.213
4875000000.0 0.5713 1.181
4878000000.0 1.27 0.3078
4881000000.0 1.013 -0.7839
4884000000.0 0.03362 -1.267
4888000000.0 -0.9561 -0.7704
4891000000.0 -1.193 0.2578
4894000000.0 -0.5563 1.072
4897000000.0 0.4906 1.073
4900000000.0 1.142 0.2554
4903000000.0 0.9109 -0.655
4906000000.0 0.03163 -1.084
4909000000.0 -0.8133 -0.7061
4912000000.0 -1.026 0.168
4916000000.0 -0.5032 0.8881
4919000000.0 0.3498 0.9498
4922000000.0 0.9416 0.3151
4925000000.0 0.8185 -0.5369
4928000000.0 0.1351 -0.949
4931000000.0 -0.6289 -0.6981
4934000000.0 -0.9362 0.0581
4938000000.0 -0.5336 0.7619
4941000000.0 0.2732 0.8864
4944000000.0 0.8797 0.3983
4947000000.0 0.8242 -0.4316
4950000000.0 0.2365 -0.9297
4953000000.0 -0.5896 -0.7338
4956000000.0 -0.9554 -0.01792
4959000000.0 -0.6264 0.7241
4962000000.0 0.1928 0.9418
4966000000.0 0.8716 0.4575
4969000000.0 0.9079 -0.3721
4972000000.0 0.2853 -0.9514
4975000000.0 -0.5672 -0.8369
4978000000.0 -0.99 -0.1128
4981000000.0 -0.7547 0.7288
4984000000.0 0.06715 1.062
4988000000.0 0.844 0.6036
4991000000.0 1.023 -0.3068
4994000000.0 0.4346 -1.007
4997000000.0 -0.5131 -0.9883
5000000000.0 -1.079 -0.2533
5003000000.0 -0.9046 0.6835
5006000000.0 -0.06281 1.177
5009000000.0 0.8816 0.8107
5012000000.0 1.198 -0.1662
5016000000.0 0.655 -1.045
5019000000.0 -0.4072 -1.157
5022000000.0 -1.183 -0.3939
5025000000.0 -1.088 0.634
5028000000.0 -0.1988 1.255
5031000000.0 0.8468 0.9554
5034000000.0 1.267 -0.007912
5038000000.0 0.7889 -1.018
5041000000.0 -0.264 -1.262
5044000000.0 -1.133 -0.5924
5047000000.0 -1.209 0.5264
5050000000.0 -0.4053 1.226
5053000000.0 0.6965 1.108
5056000000.0 1.284 0.1653
5059000000.0 0.9657 -0.867
5062000000.0 -0.06002 -1.336
5066000000.0 -1.056 -0.7647
5069000000.0 -1.263 0.3053
5072000000.0 -0.5578 1.14
5075000000.0 0.511 1.167
5078000000.0 1.23 0.3318
5081000000.0 1.081 -0.7118
5084000000.0 0.1281 -1.22
5088000000.0 -0.8567 -0.849
5091000000.0 -1.193 0.1459
5094000000.0 -0.6731 0.9372
5097000000.0 0.2779 1.114
5100000000.0 1.049 0.4685
5103000000.0 1.062 -0.4682
5106000000.0 0.2866 -1.092
5109000000.0 -0.6358 -0.9066
5112000000.0 -1.048 -0.0934
5116000000.0 -0.7333 0.765
5119000000.0 0.09227 1.032
5122000000.0 0.8343 0.608
5125000000.0 1.003 -0.263
5128000000.0 0.4299 -0.9604
5131000000.0 -0.437 -0.9218
5134000000.0 -0.9755 -0.2113
5138000000.0 -0.7768 0.6153
5141000000.0 -0.04933 0.96
5144000000.0 0.7211 0.6353
5147000000.0 0.9403 -0.1454
5150000000.0 0.4631 -0.8168
5153000000.0 -0.2971 -0.8743
5156000000.0 -0.8704 -0.2897
5159000000.0 -0.7497 0.4924
5162000000.0 -0.1282 0.8625
5166000000.0 0.6033 0.6533
5169000000.0 0.8792 -0.07196
5172000000.0 0.5187 -0.7364
5175000000.0 -0.2605 -0.8898
5178000000.0 -0.842 -0.3267
5181000000.0 -0.8017 0.4398
5184000000.0 -0.1535 0.9032
5188000000.0 0.608 0.7097
5191000000.0 0.9322 -0.02533
5194000000.0 0.5361 -0.7609
5197000000.0 -0.2691 -0.9038
5200000000.0 -0.8839 -0.3575
5203000000.0 -0.8329 0.4445
5206000000.0 -0.1658 0.9574
5209000000.0 0.6211 0.7071
5212000000.0 0.9531 -0.006166
5216000000.0 0.6072 -0.7982
5219000000.0 -0.2466 -0.9513
5222000000.0 -0.9107 -0.4153
5225000000.0 -0.9147 0.427
5228000000.0 -0.2495 0.9516
5231000000.0 0.6193 0.8191
5234000000.0 1.028 0.04199
5238000000.0 0.6886 -0.782
5241000000.0 -0.1821 -1.025
5244000000.0 -0.8983 -0.5493
5247000000.0 -0.9794 0.3672
5250000000.0 -0.3791 1.022
5253000000.0 0.5432 0.916
5256000000.0 1.05 0.1526
5259000000.0 0.8173 -0.7203
5262000000.0 -0.0392 -1.079
5266000000.0 -0.8465 -0.698
5269000000.0 -1.08 0.2142
5272000000.0 -0.5437 0.9436
5275000000.0 0.3788 1.022
5278000000.0 1.019 0.3424
5281000000.0 0.9562 -0.5557
5284000000.0 0.2033 -1.087
5288000000.0 -0.7202 -0.8429
5291000000.0 -1.11 -0.0134
5294000000.0 -0.7377 0.8709
5297000000.0 0.1718 1.114
5300000000.0 0.956 0.5868
5303000000.0 1.067 -0.343
5306000000.0 0.4296 -1.037
5309000000.0 -0.4999 -1.021
5312000000.0 -1.088 -0.2613
5316000000.0 -0.9208 0.6793
5319000000.0 -0.05192 1.127
5322000000.0 0.8642 0.7905
5325000000.0 1.142 -0.1349
5328000000.0 0.6111 -0.9703
5331000000.0 -0.3743 -1.067
5334000000.0 -1.065 -0.4566
5338000000.0 -0.9881 0.5405
5341000000.0 -0.2192 1.1
5344000000.0 0.693 0.87
5347000000.0 1.119 0.0164
5350000000.0 0.7228 -0.8208
5353000000.0 -0.1967 -1.097
5356000000.0 -0.9933 -0.528
5359000000.0 -1.005 0.4029
5362000000.0 -0.3221 1.048
5366000000.0 0.6144 0.9077
5369000000.0 1.07 0.07953
5372000000.0 0.7246 -0.7553
5375000000.0 -0.1465 -1.032
5378000000.0 -0.8874 -0.4839
5381000000.0 -0.9433 0.3782
5384000000.0 -0.2863 0.9846
5388000000.0 0.5727 0.8222
5391000000.0 0.9513 0.06069
5394000000.0 0.6314 -0.7263
5397000000.0 -0.1517 -0.9297
5400000000.0 -0.8434 -0.4378
5403000000.0 -0.8371 0.3389
5406000000.0 -0.2138 0.8668
5409000000.0 0.5105 0.7113
5412000000.0 0.8864 0.03672
5416000000.0 0.5751 -0.6522
5419000000.0 -0.1567 -0.8453
5422000000.0 -0.7755 -0.3931
5425000000.0 -0.7978 0.3556
5428000000.0 -0.2367 0.853
5431000000.0 0.5239 0.6998
5434000000.0 0.8599 0.05765
5438000000.0 0.5838 -0.6473
5441000000.0 -0.1589 -0.8463
5444000000.0 -0.7784 -0.4421
5447000000.0 -0.7992 0.3297
5450000000.0 -0.2264 0.8447
5453000000.0 0.5201 0.7063
5456000000.0 0.9154 0.08031
5459000000.0 0.6005 -0.6434
5462000000.0 -0.09411 -0.8784
5466000000.0 -0.7651 -0.5049
5469000000.0 -0.8982 0.3192
5472000000.0 -0.3504 0.8475
5475000000.0 0.4454 0.8043
5478000000.0 0.8947 0.1929
5481000000.0 0.7695 -0.5895
5484000000.0 0.03477 -0.9397
5488000000.0 -0.7333 -0.6852
5491000000.0 -0.9664 0.1442
5494000000.0 -0.5261 0.8606
5497000000.0 0.304 0.9851
5500000000.0 0.9313 0.37
5503000000.0 0.8931 -0.5001
5506000000.0 0.2059 -1.014
5509000000.0 -0.6223 -0.7861
5512000000.0 -1.011 -0.0111
5516000000.0 -0.6967 0.763
5519000000.0 0.1484 1.026
5522000000.0 0.8847 0.5342
5525000000.0 0.9788 -0.3154
5528000000.0 0.4065 -0.9675
5531000000.0 -0.4576 -0.9387
5534000000.0 -1.031 -0.2591
5538000000.0 -0.8603 0.6281
5541000000.0 -0.03356 1.049
5544000000.0 0.8107 0.7119
5547000000.0 1.071 -0.1553
5550000000.0 0.5551 -0.9027
5553000000.0 -0.3586 -1.02
5556000000.0 -0.9855 -0.3898
5559000000.0 -0.9213 0.5055
5562000000.0 -0.1953 1.032
5566000000.0 0.6683 0.7832
5569000000.0 1.038 -0.002803
5572000000.0 0.6527 -0.8113
5575000000.0 -0.1908 -0.9773
5578000000.0 -0.8988 -0.4737
5581000000.0 -0.9337 0.3393
5584000000.0 -0.2876 0.9023
5588000000.0 0.5146 0.7941
5591000000.0 0.947 0.1047
5594000000.0 0.6874 -0.6641
5597000000.0 -0.07838 -0.9373
5600000000.0 -0.7848 -0.564
5603000000.0 -0.8942 0.2661
5606000000.0 -0.3656 0.8357
5609000000.0 0.4233 0.77
5612000000.0 0.8381 0.2067
5616000000.0 0.6501 -0.5339
5619000000.0 -0.05431 -0.8505
5622000000.0 -0.6773 -0.536
5625000000.0 -0.8105 0.1902
5628000000.0 -0.3793 0.721
5631000000.0 0.348 0.7891
5634000000.0 0.8001 0.2203
5638000000.0 0.6848 -0.4918
5641000000.0 0.0421 -0.8375
5644000000.0 -0.6299 -0.5336
5647000000.0 -0.8187 0.1612
5650000000.0 -0.4237 0.7502
5653000000.0 0.3219 0.7781
5656000000.0 0.8147 0.2254
5659000000.0 0.6774 -0.4942
5662000000.0 0.01815 -0.867
5666000000.0 -0.6458 -0.5481
5669000000.0 -0.8729 0.1926
5672000000.0 -0.4167 0.7964
5675000000.0 0.3463 0.8174
5678000000.0 0.8619 0.2556
5681000000.0 0.7705 -0.5502
5684000000.0 0.01716 -0.9222
5688000000.0 -0.7295 -0.6309
5691000000.0 -0.9487 0.1297
5694000000.0 -0.4973 0.826
5697000000.0 0.343 0.9196
5700000000.0 0.9539 0.3062
5703000000.0 0.8561 -0.5267
5706000000.0 0.1163 -1.024
5709000000.0 -0.7086 -0.7463
5712000000.0 -1.009 0.1025
5716000000.0 -0.5869 0.8373
5719000000.0 0.2655 1.009
5722000000.0 0.9821 0.4124
5725000000.0 0.9584 -0.4525
5728000000.0 0.2149 -1.047
5731000000.0 -0.6445 -0.8634
5734000000.0 -1.041 -0.0762
5738000000.0 -0.7317 0.7991
5741000000.0 0.1712 1.078
5744000000.0 0.9456 0.5664
5747000000.0 1.05 -0.3655
5750000000.0 0.4123 -1.034
5753000000.0 -0.5447 -0.9471
5756000000.0 -1.072 -0.2129
5759000000.0 -0.8828 0.6719
5762000000.0 -0.03605 1.121
5766000000.0 0.8425 0.7398
5769000000.0 1.11 -0.1954
5772000000.0 0.5604 -0.9702
5775000000.0 -0.3988 -1.019
5778000000.0 -1.048 -0.3928
5781000000.0 -0.9657 0.5333
5784000000.0 -0.1945 1.081
5788000000.0 0.6821 0.8142
5791000000.0 1.073 -0.003166
5794000000.0 0.7119 -0.8419
5797000000.0 -0.1867 -1.062
5800000000.0 -0.9216 -0.5018
5803000000.0 -0.9905 0.4074
5806000000.0 -0.2991 0.9991
5809000000.0 0.5985 0.9392
5812000000.0 1.004 0.1713
5816000000.0 0.7686 -0.6925
5819000000.0 -0.06652 -1.033
5822000000.0 -0.8301 -0.5841
5825000000.0 -0.9605 0.2655
5828000000.0 -0.416 0.9078
5831000000.0 0.4477 0.889
5834000000.0 0.9677 0.2147
5838000000.0 0.7538 -0.6262
5841000000.0 0.001935 -0.9707
5844000000.0 -0.7562 -0.5926
5847000000.0 -0.9359 0.1817
5850000000.0 -0.4185 0.8514
5853000000.0 0.3742 0.8175
5856000000.0 0.894 0.2308
5859000000.0 0.7432 -0.5464
5862000000.0 0.01745 -0.8827
5866000000.0 -0.6983 -0.5868
5869000000.0 -0.8811 0.1453
5872000000.0 -0.4233 0.7825
5875000000.0 0.3213 0.8083
5878000000.0 0.8612 0.2625
5881000000.0 0.7056 -0.4917
5884000000.0 0.05616 -0.8515
5888000000.0 -0.632 -0.5861
5891000000.0 -0.8782 0.1353
5894000000.0 -0.442 0.735
5897000000.0 0.2986 0.8152
5900000000.0 0.7883 0.2799
5903000000.0 0.7291 -0.4955
5906000000.0 0.08583 -0.8432
5909000000.0 -0.5862 -0.6432
5912000000.0 -0.881 0.05727
5916000000.0 -0.5174 0.7072
5919000000.0 0.2558 0.8371
5922000000.0 0.8305 0.3618
5925000000.0 0.8076 -0.3865
5928000000.0 0.1884 -0.8483
5931000000.0 -0.5565 -0.6702
5934000000.0 -0.9064 -0.005812
5938000000.0 -0.561 0.6483
5941000000.0 0.1408 0.8987
5944000000.0 0.7409 0.5002
5947000000.0 0.8579 -0.279
5950000000.0 0.3166 -0.8495
5953000000.0 -0.4511 -0.8129
5956000000.0 -0.9345 -0.1651
5959000000.0 -0.7404 0.5797
5962000000.0 -0.0163 0.9349
5966000000.0 0.7428 0.6129
5969000000.0 0.9371 -0.1817
5972000000.0 0.4973 -0.8326
5975000000.0 -0.2904 -0.9109
5978000000.0 -0.9192 -0.3196
5981000000.0 -0.8618 0.4878
5984000000.0 -0.1576 0.9516
5988000000.0 0.6504 0.7406
5991000000.0 0.9927 -0.02692
5994000000.0 0.6094 -0.7785
5997000000.0 -0.2035 -1.0
6000000000.0 -0.8686 -0.4787
6003000000.0 -0.9022 0.3734
6006000000.0 -0.2879 0.9362
6009000000.0 0.5543 0.8253
6012000000.0 1.004 0.1081
6016000000.0 0.7088 -0.7106
6019000000.0 -0.1025 -1.014
6022000000.0 -0.8283 -0.567
6025000000.0 -0.9387 0.2531
6028000000.0 -0.3752 0.9089
6031000000.0 0.4683 0.8922
6034000000.0 0.9594 0.21
6038000000.0 0.7501 -0.6165
6041000000.0 -0.0005687 -0.9605
6044000000.0 -0.7451 -0.6051
6047000000.0 -0.9359 0.1943
6050000000.0 -0.4404 0.871
6053000000.0 0.3848 0.8689
6056000000.0 0.9043 0.2212
6059000000.0 0.7622 -0.5404
6062000000.0 0.05253 -0.9386
6066000000.0 -0.679 -0.6056
6069000000.0 -0.8841 0.1481
6072000000.0 -0.4275 0.7895
6075000000.0 0.3227 0.8477
6078000000.0 0.8362 0.2604
6081000000.0 0.7185 -0.4818
6084000000.0 0.09067 -0.8724
6088000000.0 -0.6258 -0.5892
6091000000.0 -0.8486 0.09964
6094000000.0 -0.4433 0.7146
6097000000.0 0.2942 0.8334
6100000000.0 0.7896 0.2985
6103000000.0 0.7211 -0.4176
6106000000.0 0.132 -0.846
6109000000.0 -0.5523 -0.6186
6112000000.0 -0.8568 0.04771
6116000000.0 -0.5294 0.7088
6119000000.0 0.2389 0.8368
6122000000.0 0.7927 0.2904
6125000000.0 0.7601 -0.4126
6128000000.0 0.1765 -0.8426
6131000000.0 -0.5714 -0.6766
6134000000.0 -0.8727 0.004058
6138000000.0 -0.5693 0.6965
6141000000.0 0.2011 0.8453
6144000000.0 0.792 0.3746
6147000000.0 0.8277 -0.3821
6150000000.0 0.2501 -0.8863
6153000000.0 -0.5072 -0.7334
6156000000.0 -0.9191 -0.0471
6159000000.0 -0.5901 0.6363
6162000000.0 0.1156 0.8899
6166000000.0 0.806 0.4617
6169000000.0 0.893 -0.3203
6172000000.0 0.3112 -0.8842
6175000000.0 -0.4946 -0.8082
6178000000.0 -0.9448 -0.1201
6181000000.0 -0.7131 0.6333
6184000000.0 0.07842 0.9374
6188000000.0 0.801 0.5146
6191000000.0 0.9315 -0.2445
6194000000.0 0.4086 -0.8649
6197000000.0 -0.4384 -0.8431
6200000000.0 -0.9179 -0.1766
6203000000.0 -0.7187 0.5515
6206000000.0 -0.01627 0.9587
6209000000.0 0.6801 0.6399
6212000000.0 0.9333 -0.1288
6216000000.0 0.4905 -0.7928
6219000000.0 -0.3374 -0.9058
6222000000.0 -0.8723 -0.3408
6225000000.0 -0.7804 0.4503
6228000000.0 -0.1424 0.923
6231000000.0 0.6037 0.6654
6234000000.0 0.9027 0.002714
6238000000.0 0.5389 -0.7255
6241000000.0 -0.1795 -0.8717
6244000000.0 -0.7699 -0.3814
6247000000.0 -0.8101 0.3356
6250000000.0 -0.2688 0.8172
6253000000.0 0.4816 0.7281
6256000000.0 0.8761 0.079
6259000000.0 0.609 -0.5257
6262000000.0 -0.02461 -0.8216
6266000000.0 -0.6548 -0.4776
