! Created with skrf 1.8.0 (http://scikit-rf.org).
# Hz S RI R 50.0 
!freq ReS11 ImS11
4000000000.0 -0.2997 -1.474
4003000000.0 -1.341 -0.6733
4006000000.0 -1.372 0.5736
4009000000.0 -0.4045 1.429
4012000000.0 0.9026 1.2
4016000000.0 1.506 0.09386
4019000000.0 1.01 -1.197
4022000000.0 -0.2706 -1.58
4025000000.0 -1.391 -0.7553
4028000000.0 -1.516 0.5888
4031000000.0 -0.4702 1.506
4034000000.0 0.9538 1.332
4038000000.0 1.617 0.08091
4041000000.0 1.073 -1.217
4044000000.0 -0.2965 -1.61
4047000000.0 -1.437 -0.8045
4050000000.0 -1.504 0.5786
4053000000.0 -0.4944 1.584
4056000000.0 0.8885 1.354
4059000000.0 1.626 0.181
4062000000.0 1.19 -1.159
4066000000.0 -0.1406 -1.582
4069000000.0 -1.302 -0.8944
4072000000.0 -1.579 0.4056
4075000000.0 -0.6814 1.451
4078000000.0 0.6623 1.5
4081000000.0 1.591 0.4235
4084000000.0 1.31 -0.9719
4088000000.0 0.1016 -1.627
4091000000.0 -1.19 -1.11
4094000000.0 -1.601 0.193
4097000000.0 -0.8292 1.364
4100000000.0 0.5107 1.565
4103000000.0 1.48 0.5717
4106000000.0 1.374 -0.7549
4109000000.0 0.3082 -1.517
4112000000.0 -0.9212 -1.199
4116000000.0 -1.479 -0.05848
4119000000.0 -1.041 1.101
4122000000.0 0.1704 1.462
4125000000.0 1.186 0.8251
4128000000.0 1.453 -0.394
4131000000.0 0.6708 -1.292
4134000000.0 -0.5711 -1.343
4138000000.0 -1.382 -0.4986
4141000000.0 -1.264 0.7768
4144000000.0 -0.2264 1.481
4147000000.0 0.9798 1.141
4150000000.0 1.486 -0.007464
4153000000.0 0.9708 -1.167
4156000000.0 -0.2694 -1.441
4159000000.0 -1.305 -0.7396
4162000000.0 -1.376 0.5299
4166000000.0 -0.5019 1.419
4169000000.0 0.7581 1.274
4172000000.0 1.47 0.2498
4175000000.0 1.11 -0.9792
4178000000.0 -0.05498 -1.496
4181000000.0 -1.148 -0.9099
4184000000.0 -1.472 0.292
4188000000.0 -0.6838 1.325
4191000000.0 0.5938 1.407
4194000000.0 1.474 0.4167
4197000000.0 1.26 -0.8894
4200000000.0 0.1489 -1.538
4203000000.0 -1.161 -1.075
4206000000.0 -1.608 0.2448
4209000000.0 -0.8016 1.418
4212000000.0 0.6926 1.498
4216000000.0 1.608 0.4109
4219000000.0 1.295 -0.9884
4222000000.0 -0.029 -1.66
4225000000.0 -1.308 -0.9853
4228000000.0 -1.613 0.5041
4231000000.0 -0.6217 1.556
4234000000.0 0.8777 1.376
4238000000.0 1.615 0.1498
4241000000.0 1.062 -1.19
4244000000.0 -0.28 -1.556
4247000000.0 -1.389 -0.6916
4250000000.0 -1.377 0.6671
4253000000.0 -0.3219 1.485
4256000000.0 0.969 1.16
4259000000.0 1.451 -0.02836
4262000000.0 0.8583 -1.235
4266000000.0 -0.4081 -1.367
4269000000.0 -1.336 -0.5455
4272000000.0 -1.215 0.7458
4275000000.0 -0.2194 1.418
4278000000.0 0.9956 1.035
4281000000.0 1.383 -0.1052
4284000000.0 0.7715 -1.169
4288000000.0 -0.4294 -1.328
4291000000.0 -1.287 -0.4953
4294000000.0 -1.128 0.6501
4297000000.0 -0.2112 1.311
4300000000.0 0.8588 0.961
4303000000.0 1.311 -0.00107
4306000000.0 0.8151 -1.009
4309000000.0 -0.2638 -1.253
4312000000.0 -1.1 -0.6119
4316000000.0 -1.174 0.4571
4319000000.0 -0.4193 1.184
4322000000.0 0.6437 1.169
4325000000.0 1.305 0.241
4328000000.0 1.015 -0.8278
4331000000.0 -0.002412 -1.356
4334000000.0 -1.06 -0.876
4338000000.0 -1.374 0.2047
4341000000.0 -0.7139 1.201
4344000000.0 0.5042 1.319
4347000000.0 1.355 0.4383
4350000000.0 1.252 -0.7517
4353000000.0 0.1719 -1.404
4356000000.0 -1.008 -1.08
4359000000.0 -1.436 0.04541
4362000000.0 -0.8757 1.198
4366000000.0 0.3409 1.441
4369000000.0 1.338 0.6306
4372000000.0 1.378 -0.6366
4375000000.0 0.38 -1.485
4378000000.0 -0.8764 -1.22
4381000000.0 -1.5 -0.06867
4384000000.0 -1.032 1.156
4388000000.0 0.3051 1.539
4391000000.0 1.383 0.7503
4394000000.0 1.458 -0.606
4397000000.0 0.4602 -1.486
4400000000.0 -0.9042 -1.277
4403000000.0 -1.564 -0.03252
4406000000.0 -1.004 1.182
4409000000.0 0.3146 1.514
4412000000.0 1.377 0.6526
4416000000.0 1.324 -0.6885
4419000000.0 0.2741 -1.479
4422000000.0 -0.9379 -1.103
4425000000.0 -1.464 0.09743
4428000000.0 -0.8009 1.177
4431000000.0 0.431 1.309
4434000000.0 1.3 0.4646
4438000000.0 1.138 -0.7318
4441000000.0 0.1151 -1.302
4444000000.0 -0.9286 -0.9229
4447000000.0 -1.241 0.2132
4450000000.0 -0.6104 1.076
4453000000.0 0.5245 1.136
4456000000.0 1.22 0.2966
4459000000.0 0.9655 -0.7551
4462000000.0 -0.02566 -1.179
4466000000.0 -0.9793 -0.7125
4469000000.0 -1.134 0.3221
4472000000.0 -0.4579 1.087
4475000000.0 0.5789 1.02
4478000000.0 1.123 0.215
4481000000.0 0.8359 -0.8058
4484000000.0 -0.07397 -1.161
4488000000.0 -0.9751 -0.6418
4491000000.0 -1.082 0.3352
4494000000.0 -0.4604 1.056
4497000000.0 0.5397 0.9968
4500000000.0 1.145 0.2049
4503000000.0 0.8398 -0.7177
4506000000.0 -0.04411 -1.104
4509000000.0 -0.8933 -0.6884
4512000000.0 -1.084 0.2577
4516000000.0 -0.4976 1.036
4519000000.0 0.4943 1.056
4522000000.0 1.124 0.3022
4525000000.0 0.978 -0.6913
4528000000.0 0.03148 -1.198
4531000000.0 -0.8557 -0.8423
4534000000.0 -1.197 0.1741
4538000000.0 -0.6519 1.045
4541000000.0 0.395 1.16
4544000000.0 1.148 0.4641
4547000000.0 1.108 -0.5876
4550000000.0 0.2394 -1.219
4553000000.0 -0.7715 -0.9631
4556000000.0 -1.248 -0.02592
4559000000.0 -0.8202 0.9875
4562000000.0 0.1988 1.302
4566000000.0 1.101 0.6825
4569000000.0 1.237 -0.3948
4572000000.0 0.4628 -1.239
4575000000.0 -0.6123 -1.168
4578000000.0 -1.333 -0.25
4581000000.0 -1.04 0.8532
4584000000.0 -0.007366 1.376
4588000000.0 1.043 0.8763
4591000000.0 1.344 -0.2629
4594000000.0 0.6654 -1.224
4597000000.0 -0.5356 -1.304
4600000000.0 -1.356 -0.4109
4603000000.0 -1.159 0.7707
4606000000.0 -0.1388 1.396
4609000000.0 1.024 0.9648
4612000000.0 1.366 -0.1483
4616000000.0 0.7629 -1.215
4619000000.0 -0.4435 -1.3
4622000000.0 -1.269 -0.4761
4625000000.0 -1.167 0.6882
4628000000.0 -0.1965 1.372
4631000000.0 0.8933 1.003
4634000000.0 1.317 -0.08926
4638000000.0 0.7455 -1.109
4641000000.0 -0.3727 -1.287
4644000000.0 -1.222 -0.4666
4647000000.0 -1.11 0.6466
4650000000.0 -0.1638 1.267
4653000000.0 0.8696 0.9019
4656000000.0 1.226 -0.1128
4659000000.0 0.6712 -1.047
4662000000.0 -0.3783 -1.161
4666000000.0 -1.113 -0.4085
4669000000.0 -1.004 0.6295
4672000000.0 -0.1439 1.153
4675000000.0 0.8083 0.8111
4678000000.0 1.121 -0.1072
4681000000.0 0.5997 -0.9615
4684000000.0 -0.3683 -1.027
4688000000.0 -1.009 -0.3705
4691000000.0 -0.9131 0.5245
4694000000.0 -0.1188 1.038
4697000000.0 0.7535 0.7817
4700000000.0 1.055 -0.1254
4703000000.0 0.5476 -0.9151
4706000000.0 -0.3374 -1.034
4709000000.0 -1.004 -0.3594
4712000000.0 -0.9598 0.5824
4716000000.0 -0.1673 1.064
4719000000.0 0.7732 0.8227
4722000000.0 1.104 -0.06946
4725000000.0 0.6009 -0.913
4728000000.0 -0.2998 -1.025
4731000000.0 -1.001 -0.441
4734000000.0 -0.9548 0.482
4738000000.0 -0.2262 1.067
4741000000.0 0.6709 0.8481
4744000000.0 1.09 0.01931
4747000000.0 0.7364 -0.837
4750000000.0 -0.178 -1.106
4753000000.0 -0.9609 -0.5953
4756000000.0 -1.094 0.3959
4759000000.0 -0.4323 1.059
4762000000.0 0.5649 1.036
4766000000.0 1.174 0.2393
4769000000.0 0.924 -0.7534
4772000000.0 0.03515 -1.181
4775000000.0 -0.9175 -0.7935
4778000000.0 -1.227 0.1714
4781000000.0 -0.6504 1.073
4784000000.0 0.384 1.186
4788000000.0 1.16 0.4316
4791000000.0 1.143 -0.5942
4794000000.0 0.2337 -1.232
4797000000.0 -0.8366 -1.015
4800000000.0 -1.326 -0.02981
4803000000.0 -0.872 0.9424
4806000000.0 0.1842 1.287
4809000000.0 1.126 0.702
4812000000.0 1.266 -0.4401
4816000000.0 0.4955 -1.236
4819000000.0 -0.6631 -1.191
4822000000.0 -1.35 -0.2706
4825000000.0 -1.048 0.9212
4828000000.0 0.02215 1.379
4831000000.0 1.1 0.8827
4834000000.0 1.379 -0.2949
4838000000.0 0.6328 -1.262
4841000000.0 -0.5546 -1.271
4844000000.0 -1.339 -0.3801
4847000000.0 -1.124 0.8174
4850000000.0 -0.04071 1.35
4853000000.0 0.9858 0.8933
4856000000.0 1.325 -0.2043
4859000000.0 0.6702 -1.15
4862000000.0 -0.4867 -1.227
4866000000.0 -1.256 -0.4115
4869000000.0 -1.06 0.6868
4872000000.0 -0.1403 1.259
4875000000.0 0.8497 0.885
4878000000.0 1.196 -0.101
4881000000.0 0.6603 -0.9833
4884000000.0 -0.3434 -1.11
4888000000.0 -1.058 -0.4334
4891000000.0 -0.9863 0.5535
4894000000.0 -0.1805 1.126
4897000000.0 0.7242 0.7686
4900000000.0 1.041 -0.06305
4903000000.0 0.5928 -0.8593
4906000000.0 -0.2875 -0.9855
4909000000.0 -0.925 -0.4306
4912000000.0 -0.8686 0.4628
4916000000.0 -0.177 0.9426
4919000000.0 0.6076 0.7661
4922000000.0 0.9644 -0.004345
4925000000.0 0.6237 -0.7399
4928000000.0 -0.2047 -0.9339
4931000000.0 -0.819 -0.4226
4934000000.0 -0.8552 0.3586
4938000000.0 -0.2963 0.8868
4941000000.0 0.5199 0.7739
4944000000.0 0.9531 0.1043
4947000000.0 0.6791 -0.6645
4950000000.0 -0.08469 -0.9665
4953000000.0 -0.8196 -0.5346
4956000000.0 -0.9512 0.2857
4959000000.0 -0.3794 0.9172
4962000000.0 0.4881 0.8912
4966000000.0 1.003 0.1799
4969000000.0 0.7898 -0.6605
4972000000.0 -0.01188 -1.067
4975000000.0 -0.8136 -0.635
4978000000.0 -1.039 0.2001
4981000000.0 -0.4831 0.9681
4984000000.0 0.4431 1.024
4988000000.0 1.067 0.3187
4991000000.0 0.9372 -0.616
4994000000.0 0.1284 -1.117
4997000000.0 -0.8082 -0.8622
5000000000.0 -1.162 0.1073
5003000000.0 -0.7208 0.9721
5006000000.0 0.3085 1.189
5009000000.0 1.132 0.5285
5012000000.0 1.121 -0.573
5016000000.0 0.2751 -1.254
5019000000.0 -0.7819 -1.018
5022000000.0 -1.303 -0.05875
5025000000.0 -0.839 0.9933
5028000000.0 0.2093 1.316
5031000000.0 1.131 0.6593
5034000000.0 1.233 -0.4481
5038000000.0 0.4654 -1.206
5041000000.0 -0.6397 -1.095
5044000000.0 -1.257 -0.2218
5047000000.0 -1.002 0.8659
5050000000.0 0.0282 1.292
5053000000.0 1.027 0.8205
5056000000.0 1.301 -0.2461
5059000000.0 0.591 -1.118
5062000000.0 -0.4583 -1.195
5066000000.0 -1.211 -0.4114
5069000000.0 -1.049 0.6516
5072000000.0 -0.1458 1.227
5075000000.0 0.8293 0.8832
5078000000.0 1.221 -0.1063
5081000000.0 0.6897 -0.974
5084000000.0 -0.2806 -1.156
5088000000.0 -1.068 -0.5049
5091000000.0 -1.021 0.5094
5094000000.0 -0.2675 1.095
5097000000.0 0.6465 0.9088
5100000000.0 1.064 0.05178
5103000000.0 0.7698 -0.747
5106000000.0 -0.1142 -1.038
5109000000.0 -0.8588 -0.5467
5112000000.0 -0.9475 0.2932
5116000000.0 -0.4264 0.9315
5119000000.0 0.5017 0.8823
5122000000.0 0.9615 0.191
5125000000.0 0.7733 -0.5874
5128000000.0 0.04121 -0.9484
5131000000.0 -0.735 -0.5742
5134000000.0 -0.9142 0.1619
5138000000.0 -0.4387 0.8566
5141000000.0 0.3621 0.8581
5144000000.0 0.8914 0.2193
5147000000.0 0.7486 -0.526
5150000000.0 0.02003 -0.8864
5153000000.0 -0.6737 -0.583
5156000000.0 -0.8427 0.1662
5159000000.0 -0.4068 0.7736
5162000000.0 0.3298 0.8019
5166000000.0 0.8397 0.2662
5169000000.0 0.7167 -0.5112
5172000000.0 0.0807 -0.9138
5175000000.0 -0.6633 -0.6283
5178000000.0 -0.8822 0.121
5181000000.0 -0.4533 0.8018
5184000000.0 0.3534 0.8556
5188000000.0 0.8912 0.291
5191000000.0 0.7739 -0.5213
5194000000.0 0.06188 -0.9586
5197000000.0 -0.7183 -0.6537
5200000000.0 -0.9843 0.1623
5203000000.0 -0.508 0.841
5206000000.0 0.3209 0.913
5209000000.0 0.9361 0.3075
5212000000.0 0.8291 -0.5525
5216000000.0 0.1146 -0.9838
5219000000.0 -0.6897 -0.7273
5222000000.0 -1.028 0.08408
5225000000.0 -0.599 0.8527
5228000000.0 0.261 0.9877
5231000000.0 0.9585 0.4394
5234000000.0 0.9477 -0.4759
5238000000.0 0.2481 -1.041
5241000000.0 -0.6492 -0.8554
5244000000.0 -1.067 -0.03957
5247000000.0 -0.7179 0.8064
5250000000.0 0.1629 1.081
5253000000.0 0.9245 0.5831
5256000000.0 1.024 -0.3267
5259000000.0 0.4105 -0.9946
5262000000.0 -0.5181 -0.9543
5266000000.0 -1.063 -0.226
5269000000.0 -0.8416 0.6735
5272000000.0 -0.05116 1.089
5275000000.0 0.8192 0.7187
5278000000.0 1.084 -0.1582
5281000000.0 0.5895 -0.9505
5284000000.0 -0.3431 -1.037
5288000000.0 -1.038 -0.3857
5291000000.0 -0.9933 0.5055
5294000000.0 -0.2053 1.073
5297000000.0 0.6831 0.8671
5300000000.0 1.112 0.01814
5303000000.0 0.7298 -0.8406
5306000000.0 -0.1584 -1.06
5309000000.0 -0.9698 -0.5469
5312000000.0 -1.062 0.3905
5316000000.0 -0.3795 1.053
5319000000.0 0.5764 0.9311
5322000000.0 1.091 0.1432
5325000000.0 0.7705 -0.7216
5328000000.0 -0.06097 -1.079
5331000000.0 -0.8683 -0.5979
5334000000.0 -1.034 0.3116
5338000000.0 -0.3653 0.9769
5341000000.0 0.5001 0.9124
5344000000.0 1.039 0.1453
5347000000.0 0.7421 -0.722
5350000000.0 -0.09009 -1.001
5353000000.0 -0.8336 -0.5418
5356000000.0 -0.9376 0.3378
5359000000.0 -0.3066 0.9292
5362000000.0 0.5259 0.8076
5366000000.0 0.943 0.04578
5369000000.0 0.62 -0.6809
5372000000.0 -0.1737 -0.9111
5375000000.0 -0.7999 -0.4161
5378000000.0 -0.8291 0.3587
5381000000.0 -0.2176 0.8798
5384000000.0 0.5762 0.6848
5388000000.0 0.8827 -0.0388
5391000000.0 0.5434 -0.696
5394000000.0 -0.2583 -0.8213
5397000000.0 -0.8351 -0.3079
5400000000.0 -0.7337 0.42
5403000000.0 -0.1229 0.8167
5406000000.0 0.5774 0.6583
5409000000.0 0.856 -0.03974
5412000000.0 0.4615 -0.6994
5416000000.0 -0.2495 -0.8338
5419000000.0 -0.8012 -0.314
5422000000.0 -0.7669 0.4306
5425000000.0 -0.1457 0.8702
5428000000.0 0.5778 0.6703
5431000000.0 0.9193 -0.01342
5434000000.0 0.5545 -0.7385
5438000000.0 -0.2105 -0.8928
5441000000.0 -0.8765 -0.3988
5444000000.0 -0.8725 0.4124
5447000000.0 -0.2437 0.9497
5450000000.0 0.5686 0.7813
5453000000.0 0.9661 0.04145
5456000000.0 0.6557 -0.7521
5459000000.0 -0.1755 -1.014
5462000000.0 -0.8818 -0.5181
5466000000.0 -0.9669 0.3489
5469000000.0 -0.3691 1.004
5472000000.0 0.545 0.9275
5475000000.0 1.059 0.2304
5478000000.0 0.8061 -0.6741
5481000000.0 -0.01487 -1.049
5484000000.0 -0.837 -0.6999
5488000000.0 -1.053 0.2097
5491000000.0 -0.4935 0.9566
5494000000.0 0.4331 1.005
5497000000.0 1.069 0.3191
5500000000.0 0.9178 -0.6388
5503000000.0 0.08687 -1.093
5506000000.0 -0.8016 -0.7669
5509000000.0 -1.068 0.1395
5512000000.0 -0.5297 0.9235
5516000000.0 0.3779 1.0
5519000000.0 1.039 0.421
5522000000.0 0.9109 -0.5232
5525000000.0 0.1602 -1.029
5528000000.0 -0.735 -0.7894
5531000000.0 -1.045 0.08679
5534000000.0 -0.5559 0.8605
5538000000.0 0.291 0.9867
5541000000.0 0.9434 0.3831
5544000000.0 0.8649 -0.4819
5547000000.0 0.1292 -0.9859
5550000000.0 -0.6381 -0.658
5553000000.0 -0.9416 0.1089
5556000000.0 -0.5194 0.7901
5559000000.0 0.2893 0.8552
5562000000.0 0.8152 0.2845
5566000000.0 0.7443 -0.4748
5569000000.0 0.04435 -0.8086
5572000000.0 -0.6139 -0.6063
5575000000.0 -0.8263 0.1279
5578000000.0 -0.3771 0.7303
5581000000.0 0.3373 0.7504
5584000000.0 0.774 0.176
5588000000.0 0.6221 -0.5037
5591000000.0 0.004053 -0.8223
5594000000.0 -0.6176 -0.5318
5597000000.0 -0.7752 0.2002
5600000000.0 -0.3 0.7622
5603000000.0 0.3948 0.6882
5606000000.0 0.7759 0.128
5609000000.0 0.6027 -0.5585
5612000000.0 -0.03435 -0.8193
5616000000.0 -0.7081 -0.4497
5619000000.0 -0.788 0.2767
5622000000.0 -0.3179 0.8107
5625000000.0 0.4814 0.7149
5628000000.0 0.8393 0.107
5631000000.0 0.6248 -0.6266
5634000000.0 -0.1009 -0.9056
5638000000.0 -0.7736 -0.4902
5641000000.0 -0.9037 0.3241
5644000000.0 -0.3106 0.9213
5647000000.0 0.5094 0.8206
5650000000.0 0.9984 0.1051
5653000000.0 0.7206 -0.7199
5656000000.0 -0.09327 -1.013
5659000000.0 -0.8596 -0.5619
5662000000.0 -0.9897 0.3535
5666000000.0 -0.3575 1.023
5669000000.0 0.5935 0.8988
5672000000.0 1.082 0.1322
5675000000.0 0.7951 -0.7908
5678000000.0 -0.1188 -1.116
5681000000.0 -0.9362 -0.5985
5684000000.0 -1.045 0.3795
5688000000.0 -0.3862 1.059
5691000000.0 0.6168 0.9568
5694000000.0 1.134 0.1311
5697000000.0 0.7903 -0.8193
5700000000.0 -0.1458 -1.127
5703000000.0 -0.9663 -0.5772
5706000000.0 -1.063 0.3713
5709000000.0 -0.3509 1.086
5712000000.0 0.6539 0.9175
5716000000.0 1.085 0.09775
5719000000.0 0.7336 -0.8106
5722000000.0 -0.1929 -1.062
5725000000.0 -0.9257 -0.4944
5728000000.0 -0.9706 0.4484
5731000000.0 -0.2639 1.055
5734000000.0 0.651 0.8112
5738000000.0 1.032 -0.02083
5741000000.0 0.6139 -0.8232
5744000000.0 -0.304 -0.9847
5747000000.0 -0.9175 -0.3318
5750000000.0 -0.8241 0.5523
5753000000.0 -0.06046 0.9271
5756000000.0 0.713 0.6139
5759000000.0 0.8949 -0.2145
5762000000.0 0.4088 -0.8683
5766000000.0 -0.445 -0.7781
5769000000.0 -0.895 -0.09282
5772000000.0 -0.6309 0.6566
5775000000.0 0.1619 0.9008
5778000000.0 0.8088 0.4174
5781000000.0 0.8054 -0.4081
5784000000.0 0.1359 -0.9157
5788000000.0 -0.6374 -0.6557
5791000000.0 -0.9173 0.1101
5794000000.0 -0.4739 0.7857
5797000000.0 0.3221 0.8493
5800000000.0 0.9037 0.2631
5803000000.0 0.7395 -0.5801
5806000000.0 -0.008399 -0.9604
5809000000.0 -0.756 -0.5782
5812000000.0 -0.924 0.2238
5816000000.0 -0.3696 0.8829
5819000000.0 0.4361 0.8431
5822000000.0 0.9324 0.16
5825000000.0 0.7297 -0.6938
5828000000.0 -0.05625 -0.9491
5831000000.0 -0.845 -0.5803
5834000000.0 -0.9336 0.2947
5838000000.0 -0.3813 0.9375
5841000000.0 0.5121 0.8781
5844000000.0 0.9784 0.1459
5847000000.0 0.7448 -0.6688
5850000000.0 -0.04901 -1.028
5853000000.0 -0.8597 -0.5879
5856000000.0 -0.9986 0.2918
5859000000.0 -0.3835 1.004
5862000000.0 0.5232 0.9209
5866000000.0 1.073 0.1466
5869000000.0 0.7806 -0.7468
5872000000.0 -0.09843 -1.067
5875000000.0 -0.8667 -0.6304
5878000000.0 -0.9975 0.3097
5881000000.0 -0.3455 0.988
5884000000.0 0.5481 0.8946
5888000000.0 1.046 0.1258
5891000000.0 0.7405 -0.7183
5894000000.0 -0.1129 -1.046
5897000000.0 -0.8591 -0.5356
5900000000.0 -0.9319 0.361
5903000000.0 -0.2972 0.977
5906000000.0 0.5703 0.8007
5909000000.0 1.007 0.07447
5912000000.0 0.6482 -0.782
5916000000.0 -0.197 -0.9212
5919000000.0 -0.8627 -0.4268
5922000000.0 -0.8724 0.4169
5925000000.0 -0.1822 0.8972
5928000000.0 0.5806 0.702
5931000000.0 0.8723 -0.02238
5934000000.0 0.527 -0.7108
5938000000.0 -0.2867 -0.8325
5941000000.0 -0.8446 -0.3286
5944000000.0 -0.7504 0.4857
5947000000.0 -0.07497 0.8323
5950000000.0 0.6206 0.5979
5953000000.0 0.8479 -0.1202
5956000000.0 0.451 -0.7188
5959000000.0 -0.2801 -0.7734
5962000000.0 -0.7841 -0.2653
5966000000.0 -0.7187 0.4758
5969000000.0 -0.07519 0.8176
5972000000.0 0.6294 0.5771
5975000000.0 0.8333 -0.137
5978000000.0 0.419 -0.7146
5981000000.0 -0.3126 -0.7915
5984000000.0 -0.7971 -0.254
5988000000.0 -0.7107 0.4971
5991000000.0 -0.08545 0.8908
5994000000.0 0.6191 0.6009
5997000000.0 0.8491 -0.07707
6000000000.0 0.4623 -0.7187
6003000000.0 -0.2696 -0.8227
6006000000.0 -0.8347 -0.286
6009000000.0 -0.7521 0.456
6012000000.0 -0.1411 0.8873
6016000000.0 0.6209 0.6574
6019000000.0 0.9042 -0.04102
6022000000.0 0.5358 -0.737
6025000000.0 -0.2133 -0.9044
6028000000.0 -0.8405 -0.4144
6031000000.0 -0.8569 0.4131
6034000000.0 -0.2283 0.93
6038000000.0 0.5799 0.7603
6041000000.0 0.9621 0.002135
6044000000.0 0.6524 -0.7357
6047000000.0 -0.1551 -0.9737
6050000000.0 -0.8515 -0.5007
6053000000.0 -0.9258 0.3966
6056000000.0 -0.3216 0.9466
6059000000.0 0.5592 0.8491
6062000000.0 1.026 0.085
6066000000.0 0.6718 -0.7141
6069000000.0 -0.125 -1.013
6072000000.0 -0.8706 -0.5114
6075000000.0 -0.9469 0.4042
6078000000.0 -0.3052 0.9521
6081000000.0 0.5584 0.8273
6084000000.0 1.004 0.08967
6088000000.0 0.665 -0.7002
6091000000.0 -0.1401 -0.9711
6094000000.0 -0.8415 -0.4863
6097000000.0 -0.9122 0.3244
6100000000.0 -0.2724 0.915
6103000000.0 0.5421 0.7907
6106000000.0 0.9424 0.1053
6109000000.0 0.6585 -0.676
6112000000.0 -0.1689 -0.9186
6116000000.0 -0.8059 -0.4802
6119000000.0 -0.852 0.3633
6122000000.0 -0.2728 0.8435
6125000000.0 0.5139 0.7498
6128000000.0 0.8866 0.04916
6131000000.0 0.5777 -0.6601
6134000000.0 -0.133 -0.8633
6138000000.0 -0.7137 -0.386
6141000000.0 -0.7918 0.3373
6144000000.0 -0.2386 0.8136
6147000000.0 0.4879 0.6958
6150000000.0 0.8154 0.03986
6153000000.0 0.563 -0.6113
6156000000.0 -0.1277 -0.8059
6159000000.0 -0.7262 -0.3879
6162000000.0 -0.7823 0.3273
6166000000.0 -0.2002 0.8087
6169000000.0 0.487 0.6554
6172000000.0 0.845 0.02754
6175000000.0 0.541 -0.603
6178000000.0 -0.1317 -0.8201
6181000000.0 -0.7254 -0.4283
6184000000.0 -0.766 0.3141
6188000000.0 -0.2471 0.8086
6191000000.0 0.482 0.7093
6194000000.0 0.837 0.0791
6197000000.0 0.5964 -0.6409
6200000000.0 -0.1316 -0.8366
6203000000.0 -0.7446 -0.4596
6206000000.0 -0.8249 0.3178
6209000000.0 -0.2715 0.8185
6212000000.0 0.4322 0.7467
6216000000.0 0.8323 0.09479
6219000000.0 0.6054 -0.59
6222000000.0 -0.08161 -0.8733
6225000000.0 -0.7518 -0.4755
6228000000.0 -0.8153 0.2555
6231000000.0 -0.3298 0.7963
6234000000.0 0.4202 0.7851
6238000000.0 0.8893 0.1732
6241000000.0 0.641 -0.5592
6244000000.0 -0.03153 -0.8629
6247000000.0 -0.6765 -0.5218
6250000000.0 -0.8338 0.1693
6253000000.0 -0.366 0.757
6256000000.0 0.3265 0.7683
6259000000.0 0.8061 0.2093
6262000000.0 0.6513 -0.472
6266000000.0 0.1023 -0.8154
