! Created with skrf 1.8.0 (http://scikit-rf.org).
# Hz S RI R 50.0 
!freq ReS11 ImS11
4000000000.0 -0.1834 -1.531
4003000000.0 -1.262 -0.7924
4006000000.0 -1.397 0.4807
4009000000.0 -0.519 1.397
4012000000.0 0.762 1.294
4016000000.0 1.537 0.2209
4019000000.0 1.15 -1.049
4022000000.0 -0.1516 -1.549
4025000000.0 -1.309 -0.9019
4028000000.0 -1.566 0.4459
4031000000.0 -0.5616 1.502
4034000000.0 0.8472 1.416
4038000000.0 1.618 0.2697
4041000000.0 1.173 -1.143
4044000000.0 -0.09381 -1.633
4047000000.0 -1.39 -0.9212
4050000000.0 -1.584 0.4623
4053000000.0 -0.6116 1.473
4056000000.0 0.7721 1.46
4059000000.0 1.56 0.3144
4062000000.0 1.248 -1.001
4066000000.0 0.0303 -1.64
4069000000.0 -1.22 -1.095
4072000000.0 -1.611 0.2811
4075000000.0 -0.8088 1.413
4078000000.0 0.5848 1.549
4081000000.0 1.539 0.5215
4084000000.0 1.433 -0.8782
4088000000.0 0.2195 -1.628
4091000000.0 -1.104 -1.238
4094000000.0 -1.651 0.09235
4097000000.0 -0.9798 1.305
4100000000.0 0.3852 1.563
4103000000.0 1.436 0.7037
4106000000.0 1.427 -0.6706
4109000000.0 0.4439 -1.51
4112000000.0 -0.8159 -1.303
4116000000.0 -1.476 -0.202
4119000000.0 -1.143 0.9997
4122000000.0 0.03794 1.517
4125000000.0 1.122 0.9507
4128000000.0 1.455 -0.2426
4131000000.0 0.7966 -1.253
4134000000.0 -0.4163 -1.44
4138000000.0 -1.378 -0.6077
4141000000.0 -1.353 0.6688
4144000000.0 -0.3897 1.442
4147000000.0 0.8537 1.24
4150000000.0 1.509 0.1454
4153000000.0 1.097 -1.056
4156000000.0 -0.1129 -1.522
4159000000.0 -1.273 -0.8815
4162000000.0 -1.483 0.3959
4166000000.0 -0.6491 1.35
4169000000.0 0.6207 1.385
4172000000.0 1.458 0.4152
4175000000.0 1.256 -0.8542
4178000000.0 0.1473 -1.501
4181000000.0 -1.046 -1.063
4184000000.0 -1.508 0.06642
4188000000.0 -0.8673 1.198
4191000000.0 0.3322 1.504
4194000000.0 1.385 0.668
4197000000.0 1.423 -0.6434
4200000000.0 0.3696 -1.525
4203000000.0 -0.9729 -1.282
4206000000.0 -1.637 -0.05818
4209000000.0 -1.092 1.239
4212000000.0 0.3389 1.644
4216000000.0 1.483 0.7488
4219000000.0 1.51 -0.7423
4222000000.0 0.3566 -1.68
4225000000.0 -1.1 -1.271
4228000000.0 -1.715 0.09513
4231000000.0 -0.9376 1.439
4234000000.0 0.538 1.576
4238000000.0 1.576 0.5122
4241000000.0 1.35 -0.9342
4244000000.0 0.07331 -1.627
4247000000.0 -1.203 -1.06
4250000000.0 -1.545 0.3082
4253000000.0 -0.6789 1.39
4256000000.0 0.6991 1.408
4259000000.0 1.546 0.289
4262000000.0 1.153 -0.9843
4266000000.0 -0.06882 -1.487
4269000000.0 -1.245 -0.8807
4272000000.0 -1.411 0.468
4275000000.0 -0.5161 1.407
4278000000.0 0.7412 1.259
4281000000.0 1.423 0.1592
4284000000.0 0.9972 -0.9832
4288000000.0 -0.157 -1.422
4291000000.0 -1.165 -0.7555
4294000000.0 -1.276 0.4075
4297000000.0 -0.5138 1.245
4300000000.0 0.6518 1.161
4303000000.0 1.303 0.2061
4306000000.0 0.9896 -0.8305
4309000000.0 -0.00502 -1.268
4312000000.0 -0.9676 -0.8681
4316000000.0 -1.26 0.2011
4319000000.0 -0.6499 1.122
4322000000.0 0.4275 1.241
4325000000.0 1.234 0.4962
4328000000.0 1.167 -0.6035
4331000000.0 0.2539 -1.288
4334000000.0 -0.821 -1.098
4338000000.0 -1.369 -0.05194
4341000000.0 -0.9505 1.039
4344000000.0 0.2267 1.419
4347000000.0 1.219 0.7774
4350000000.0 1.375 -0.4554
4353000000.0 0.5258 -1.336
4356000000.0 -0.6999 -1.25
4359000000.0 -1.422 -0.2304
4362000000.0 -1.14 0.9438
4366000000.0 0.01593 1.475
4369000000.0 1.117 0.9604
4372000000.0 1.465 -0.2982
4375000000.0 0.7029 -1.298
4378000000.0 -0.5644 -1.396
4381000000.0 -1.446 -0.4716
4384000000.0 -1.308 0.8196
4388000000.0 -0.2072 1.547
4391000000.0 1.075 1.119
4394000000.0 1.542 -0.1504
4397000000.0 0.8754 -1.324
4400000000.0 -0.4791 -1.519
4403000000.0 -1.477 -0.5346
4406000000.0 -1.367 0.8155
4409000000.0 -0.1649 1.599
4412000000.0 1.118 1.124
4416000000.0 1.535 -0.2167
4419000000.0 0.7774 -1.315
4422000000.0 -0.5473 -1.409
4425000000.0 -1.476 -0.453
4428000000.0 -1.214 0.8401
4431000000.0 -0.08418 1.446
4434000000.0 1.082 0.9602
4438000000.0 1.386 -0.2368
4441000000.0 0.6658 -1.254
4444000000.0 -0.5762 -1.225
4447000000.0 -1.336 -0.3197
4450000000.0 -1.065 0.8118
4453000000.0 0.01724 1.32
4456000000.0 1.05 0.7683
4459000000.0 1.229 -0.3515
4462000000.0 0.4776 -1.156
4466000000.0 -0.6405 -1.079
4469000000.0 -1.207 -0.1488
4472000000.0 -0.8492 0.8554
4475000000.0 0.1363 1.212
4478000000.0 1.031 0.6183
4481000000.0 1.073 -0.3946
4484000000.0 0.3159 -1.135
4488000000.0 -0.6636 -0.9723
4491000000.0 -1.132 -0.06702
4494000000.0 -0.7936 0.8522
4497000000.0 0.1945 1.115
4500000000.0 1.005 0.571
4503000000.0 1.03 -0.4038
4506000000.0 0.3281 -1.069
4509000000.0 -0.6303 -0.9359
4512000000.0 -1.118 -0.1154
4516000000.0 -0.7763 0.8014
4519000000.0 0.1161 1.109
4522000000.0 0.9538 0.5985
4525000000.0 1.094 -0.3556
4528000000.0 0.4234 -1.067
4531000000.0 -0.5638 -1.015
4534000000.0 -1.142 -0.1979
4538000000.0 -0.8884 0.751
4541000000.0 0.03551 1.169
4544000000.0 0.9078 0.7367
4547000000.0 1.172 -0.2662
4550000000.0 0.5744 -1.061
4553000000.0 -0.4684 -1.134
4556000000.0 -1.173 -0.3759
4559000000.0 -1.03 0.6595
4562000000.0 -0.1635 1.234
4566000000.0 0.8548 0.9034
4569000000.0 1.272 -0.07281
4572000000.0 0.7906 -0.9816
4575000000.0 -0.288 -1.27
4578000000.0 -1.152 -0.5942
4581000000.0 -1.223 0.508
4584000000.0 -0.3943 1.269
4588000000.0 0.7334 1.131
4591000000.0 1.368 0.143
4594000000.0 0.99 -0.9591
4597000000.0 -0.1221 -1.365
4600000000.0 -1.134 -0.7771
4603000000.0 -1.35 0.3685
4606000000.0 -0.5479 1.289
4609000000.0 0.6555 1.249
4612000000.0 1.363 0.2811
4616000000.0 1.078 -0.8755
4619000000.0 0.02685 -1.392
4622000000.0 -1.077 -0.8831
4625000000.0 -1.361 0.2721
4628000000.0 -0.6532 1.208
4631000000.0 0.5341 1.277
4634000000.0 1.316 0.4186
4638000000.0 1.107 -0.8013
4641000000.0 0.09491 -1.379
4644000000.0 -0.9712 -0.9181
4647000000.0 -1.329 0.1907
4650000000.0 -0.6463 1.146
4653000000.0 0.4893 1.209
4656000000.0 1.253 0.3781
4659000000.0 1.041 -0.7603
4662000000.0 0.07355 -1.224
4666000000.0 -0.935 -0.8384
4669000000.0 -1.215 0.209
4672000000.0 -0.561 1.045
4675000000.0 0.4482 1.072
4678000000.0 1.116 0.3243
4681000000.0 0.9396 -0.6586
4684000000.0 0.08073 -1.094
4688000000.0 -0.8636 -0.7372
4691000000.0 -1.103 0.172
4694000000.0 -0.5235 0.9663
4697000000.0 0.4025 1.011
4700000000.0 1.051 0.2973
4703000000.0 0.8788 -0.6405
4706000000.0 0.03724 -1.077
4709000000.0 -0.8139 -0.719
4712000000.0 -1.082 0.2086
4716000000.0 -0.4895 0.9673
4719000000.0 0.4826 0.9687
4722000000.0 1.014 0.2786
4725000000.0 0.8402 -0.6755
4728000000.0 0.04253 -1.078
4731000000.0 -0.7811 -0.7111
4734000000.0 -1.035 0.1767
4738000000.0 -0.5272 0.9092
4741000000.0 0.371 1.005
4744000000.0 1.022 0.3715
4747000000.0 0.8987 -0.5641
4750000000.0 0.1759 -1.086
4753000000.0 -0.7342 -0.8285
4756000000.0 -1.032 0.04808
4759000000.0 -0.6548 0.8588
4762000000.0 0.2438 1.091
4766000000.0 1.016 0.5054
4769000000.0 1.035 -0.4737
4772000000.0 0.3285 -1.098
4775000000.0 -0.6605 -0.9877
4778000000.0 -1.163 -0.1341
4781000000.0 -0.8589 0.8129
4784000000.0 0.09676 1.179
4788000000.0 0.9651 0.7264
4791000000.0 1.193 -0.251
4794000000.0 0.5507 -1.07
4797000000.0 -0.4616 -1.121
4800000000.0 -1.162 -0.3706
4803000000.0 -1.063 0.65
4806000000.0 -0.1834 1.243
4809000000.0 0.858 0.9455
4812000000.0 1.262 -0.0432
4816000000.0 0.8143 -1.014
4819000000.0 -0.2892 -1.294
4822000000.0 -1.179 -0.6447
4825000000.0 -1.24 0.4937
4828000000.0 -0.382 1.3
4831000000.0 0.7559 1.119
4834000000.0 1.4 0.1336
4838000000.0 0.9881 -1.002
4841000000.0 -0.1425 -1.392
4844000000.0 -1.175 -0.7766
4847000000.0 -1.353 0.4401
4850000000.0 -0.5168 1.295
4853000000.0 0.6592 1.211
4856000000.0 1.351 0.2539
4859000000.0 1.032 -0.9037
4862000000.0 -0.05704 -1.379
4866000000.0 -1.075 -0.8274
4869000000.0 -1.27 0.2921
4872000000.0 -0.5929 1.207
4875000000.0 0.5432 1.192
4878000000.0 1.243 0.316
4881000000.0 1.013 -0.7756
4884000000.0 0.04479 -1.256
4888000000.0 -0.9317 -0.826
4891000000.0 -1.21 0.2411
4894000000.0 -0.5736 1.078
4897000000.0 0.4553 1.092
4900000000.0 1.122 0.3176
4903000000.0 0.9149 -0.651
4906000000.0 0.08024 -1.098
4909000000.0 -0.7618 -0.7485
4912000000.0 -1.066 0.1347
4916000000.0 -0.5088 0.8854
4919000000.0 0.3369 0.9186
4922000000.0 0.9176 0.3411
4925000000.0 0.8284 -0.4991
4928000000.0 0.1169 -0.9621
4931000000.0 -0.6752 -0.7161
4934000000.0 -0.9406 0.03827
4938000000.0 -0.5595 0.7397
4941000000.0 0.2404 0.9331
4944000000.0 0.8353 0.3926
4947000000.0 0.8488 -0.415
4950000000.0 0.2344 -0.9273
4953000000.0 -0.555 -0.7471
4956000000.0 -0.9383 -0.06916
4959000000.0 -0.6632 0.7371
4962000000.0 0.1678 0.961
4966000000.0 0.8574 0.4988
4969000000.0 0.9189 -0.3535
4972000000.0 0.3106 -0.941
4975000000.0 -0.5548 -0.8436
4978000000.0 -1.004 -0.1302
4981000000.0 -0.7388 0.6832
4984000000.0 0.07781 1.05
4988000000.0 0.8521 0.5947
4991000000.0 1.05 -0.2687
4994000000.0 0.4689 -0.9988
4997000000.0 -0.4699 -1.014
5000000000.0 -1.076 -0.2806
5003000000.0 -0.9396 0.6587
5006000000.0 -0.07831 1.177
5009000000.0 0.8497 0.8098
5012000000.0 1.203 -0.1608
5016000000.0 0.6544 -1.024
5019000000.0 -0.3737 -1.179
5022000000.0 -1.182 -0.4379
5025000000.0 -1.131 0.6262
5028000000.0 -0.2124 1.221
5031000000.0 0.807 0.985
5034000000.0 1.286 -0.0331
5038000000.0 0.7991 -0.9994
5041000000.0 -0.2625 -1.24
5044000000.0 -1.15 -0.6541
5047000000.0 -1.215 0.4791
5050000000.0 -0.4112 1.246
5053000000.0 0.6918 1.09
5056000000.0 1.299 0.1561
5059000000.0 0.9741 -0.8669
5062000000.0 -0.0125 -1.296
5066000000.0 -0.9959 -0.8061
5069000000.0 -1.268 0.2631
5072000000.0 -0.5914 1.13
5075000000.0 0.4905 1.169
5078000000.0 1.252 0.4093
5081000000.0 1.056 -0.6862
5084000000.0 0.1582 -1.213
5088000000.0 -0.8613 -0.888
5091000000.0 -1.232 0.1173
5094000000.0 -0.6737 0.9653
5097000000.0 0.2895 1.138
5100000000.0 1.048 0.512
5103000000.0 1.08 -0.4753
5106000000.0 0.3273 -1.078
5109000000.0 -0.6026 -0.9185
5112000000.0 -1.095 -0.1225
5116000000.0 -0.789 0.7551
5119000000.0 0.08282 1.052
5122000000.0 0.8354 0.5836
5125000000.0 0.9968 -0.265
5128000000.0 0.4354 -0.9234
5131000000.0 -0.3937 -0.9253
5134000000.0 -0.9853 -0.2516
5138000000.0 -0.8142 0.5445
5141000000.0 -0.05259 0.985
5144000000.0 0.7219 0.6413
5147000000.0 0.9362 -0.1268
5150000000.0 0.5 -0.8134
5153000000.0 -0.2959 -0.8789
5156000000.0 -0.8422 -0.3222
5159000000.0 -0.7687 0.4699
5162000000.0 -0.1197 0.8995
5166000000.0 0.6108 0.7032
5169000000.0 0.9176 -0.02318
5172000000.0 0.5283 -0.7468
5175000000.0 -0.2356 -0.8841
5178000000.0 -0.8207 -0.3799
5181000000.0 -0.8111 0.4239
5184000000.0 -0.1721 0.8833
5188000000.0 0.5921 0.6793
5191000000.0 0.9188 -0.03187
5194000000.0 0.5507 -0.7601
5197000000.0 -0.2117 -0.8894
5200000000.0 -0.8545 -0.3879
5203000000.0 -0.8287 0.4302
5206000000.0 -0.1847 0.9509
5209000000.0 0.6145 0.7169
5212000000.0 0.9734 -0.00861
5216000000.0 0.6117 -0.7655
5219000000.0 -0.2181 -0.9469
5222000000.0 -0.8986 -0.4415
5225000000.0 -0.8916 0.4009
5228000000.0 -0.2449 0.9791
5231000000.0 0.5715 0.8174
5234000000.0 1.019 0.06502
5238000000.0 0.7045 -0.7517
5241000000.0 -0.1122 -1.023
5244000000.0 -0.8976 -0.5472
5247000000.0 -0.9984 0.3217
5250000000.0 -0.4217 0.9951
5253000000.0 0.5299 0.959
5256000000.0 1.048 0.1928
5259000000.0 0.8208 -0.694
5262000000.0 0.002188 -1.078
5266000000.0 -0.8018 -0.7152
5269000000.0 -1.098 0.1827
5272000000.0 -0.5595 0.9443
5275000000.0 0.3399 1.051
5278000000.0 1.011 0.3811
5281000000.0 0.9736 -0.5403
5284000000.0 0.2313 -1.092
5288000000.0 -0.6696 -0.8336
5291000000.0 -1.108 -0.02543
5294000000.0 -0.7718 0.7969
5297000000.0 0.1272 1.086
5300000000.0 0.9545 0.6203
5303000000.0 1.083 -0.312
5306000000.0 0.4269 -1.082
5309000000.0 -0.4921 -1.029
5312000000.0 -1.117 -0.3069
5316000000.0 -0.9584 0.6669
5319000000.0 -0.1087 1.149
5322000000.0 0.8239 0.8036
5325000000.0 1.147 -0.09791
5328000000.0 0.6617 -0.9551
5331000000.0 -0.2899 -1.131
5334000000.0 -1.037 -0.4587
5338000000.0 -1.029 0.4991
5341000000.0 -0.2456 1.104
5344000000.0 0.6981 0.8934
5347000000.0 1.124 0.02816
5350000000.0 0.7262 -0.8143
5353000000.0 -0.1598 -1.107
5356000000.0 -0.958 -0.5761
5359000000.0 -1.036 0.3583
5362000000.0 -0.3487 1.056
5366000000.0 0.5652 0.9118
5369000000.0 1.036 0.09376
5372000000.0 0.7552 -0.73
5375000000.0 -0.1118 -1.059
5378000000.0 -0.889 -0.5527
5381000000.0 -0.9324 0.3143
5384000000.0 -0.3465 0.945
5388000000.0 0.5419 0.8349
5391000000.0 0.994 0.09264
5394000000.0 0.6734 -0.6832
5397000000.0 -0.1261 -0.9394
5400000000.0 -0.812 -0.4723
5403000000.0 -0.87 0.3305
5406000000.0 -0.2823 0.8476
5409000000.0 0.5152 0.7458
5412000000.0 0.8732 0.06783
5416000000.0 0.612 -0.6281
5419000000.0 -0.1319 -0.8643
5422000000.0 -0.7558 -0.4593
5425000000.0 -0.818 0.3076
5428000000.0 -0.2882 0.842
5431000000.0 0.5038 0.7104
5434000000.0 0.8866 0.0806
5438000000.0 0.5731 -0.6377
5441000000.0 -0.1488 -0.9264
5444000000.0 -0.7674 -0.4257
5447000000.0 -0.8285 0.3334
5450000000.0 -0.2468 0.8424
5453000000.0 0.4567 0.7626
5456000000.0 0.8693 0.07778
5459000000.0 0.6389 -0.6362
5462000000.0 -0.07017 -0.8946
5466000000.0 -0.7596 -0.5272
5469000000.0 -0.9027 0.2309
5472000000.0 -0.3872 0.8638
5475000000.0 0.4307 0.8258
5478000000.0 0.886 0.2311
5481000000.0 0.7745 -0.5376
5484000000.0 0.1088 -0.9384
5488000000.0 -0.7001 -0.6499
5491000000.0 -0.9599 0.08464
5494000000.0 -0.5146 0.8269
5497000000.0 0.2761 0.9216
5500000000.0 0.9332 0.3855
5503000000.0 0.8813 -0.4287
5506000000.0 0.2474 -0.9929
5509000000.0 -0.6362 -0.7943
5512000000.0 -0.996 -0.06044
5516000000.0 -0.7187 0.7468
5519000000.0 0.1075 1.005
5522000000.0 0.8767 0.5673
5525000000.0 1.021 -0.2924
5528000000.0 0.4232 -0.9742
5531000000.0 -0.444 -0.946
5534000000.0 -1.036 -0.2626
5538000000.0 -0.901 0.6166
5541000000.0 -0.07826 1.076
5544000000.0 0.7731 0.7607
5547000000.0 1.09 -0.08509
5550000000.0 0.6099 -0.9111
5553000000.0 -0.3021 -1.038
5556000000.0 -0.9718 -0.4134
5559000000.0 -0.9414 0.4625
5562000000.0 -0.2355 0.9949
5566000000.0 0.6128 0.848
5569000000.0 1.056 0.0776
5572000000.0 0.684 -0.7832
5575000000.0 -0.1622 -1.059
5578000000.0 -0.8889 -0.5051
5581000000.0 -0.9607 0.3002
5584000000.0 -0.3403 0.8976
5588000000.0 0.4991 0.8467
5591000000.0 0.9295 0.155
5594000000.0 0.6889 -0.6766
5597000000.0 -0.05934 -0.9425
5600000000.0 -0.7614 -0.5871
5603000000.0 -0.867 0.1994
5606000000.0 -0.4115 0.829
5609000000.0 0.36 0.8581
5612000000.0 0.8603 0.2101
5616000000.0 0.7341 -0.5243
5619000000.0 0.05976 -0.9049
5622000000.0 -0.6427 -0.5862
5625000000.0 -0.8461 0.1204
5628000000.0 -0.4041 0.739
5631000000.0 0.2874 0.7963
5634000000.0 0.795 0.2419
5638000000.0 0.6828 -0.4953
5641000000.0 0.07559 -0.8572
5644000000.0 -0.6083 -0.5621
5647000000.0 -0.8137 0.1073
5650000000.0 -0.4197 0.7395
5653000000.0 0.3096 0.788
5656000000.0 0.7956 0.2891
5659000000.0 0.7356 -0.4819
5662000000.0 0.07734 -0.8633
5666000000.0 -0.6467 -0.6091
5669000000.0 -0.8984 0.1176
5672000000.0 -0.4536 0.7694
5675000000.0 0.3115 0.8492
5678000000.0 0.871 0.2832
5681000000.0 0.7472 -0.4936
5684000000.0 0.09737 -0.9222
5688000000.0 -0.6591 -0.6531
5691000000.0 -0.9498 0.1043
5694000000.0 -0.5291 0.8255
5697000000.0 0.3526 0.9315
5700000000.0 0.917 0.3719
5703000000.0 0.9022 -0.4932
5706000000.0 0.1575 -1.001
5709000000.0 -0.7135 -0.7972
5712000000.0 -1.031 0.02217
5716000000.0 -0.6048 0.8339
5719000000.0 0.2418 1.014
5722000000.0 0.9778 0.4652
5725000000.0 0.9731 -0.4292
5728000000.0 0.2747 -1.026
5731000000.0 -0.6041 -0.864
5734000000.0 -1.075 -0.1045
5738000000.0 -0.78 0.7769
5741000000.0 0.1287 1.075
5744000000.0 0.8857 0.6181
5747000000.0 1.065 -0.3039
5750000000.0 0.4444 -1.009
5753000000.0 -0.5016 -0.9993
5756000000.0 -1.136 -0.243
5759000000.0 -0.9096 0.6541
5762000000.0 -0.05348 1.124
5766000000.0 0.7955 0.7436
5769000000.0 1.092 -0.1502
5772000000.0 0.6037 -0.9501
5775000000.0 -0.3576 -1.063
5778000000.0 -1.016 -0.4078
5781000000.0 -0.9442 0.4861
5784000000.0 -0.2262 1.048
5788000000.0 0.6346 0.8607
5791000000.0 1.074 0.02154
5794000000.0 0.7115 -0.8053
5797000000.0 -0.1698 -1.054
5800000000.0 -0.9304 -0.5349
5803000000.0 -1.01 0.328
5806000000.0 -0.3719 1.022
5809000000.0 0.5328 0.8915
5812000000.0 1.035 0.1696
5816000000.0 0.7776 -0.6561
5819000000.0 -0.02198 -1.028
5822000000.0 -0.8326 -0.624
5825000000.0 -0.9728 0.2471
5828000000.0 -0.4435 0.8692
5831000000.0 0.3839 0.9282
5834000000.0 0.9882 0.2502
5838000000.0 0.8055 -0.5683
5841000000.0 0.05323 -0.9664
5844000000.0 -0.7243 -0.6513
5847000000.0 -0.9416 0.167
5850000000.0 -0.4744 0.8033
5853000000.0 0.3351 0.8918
5856000000.0 0.8539 0.2677
5859000000.0 0.772 -0.5241
5862000000.0 0.1036 -0.9402
5866000000.0 -0.6636 -0.6207
5869000000.0 -0.9232 0.09467
5872000000.0 -0.4752 0.7599
5875000000.0 0.3044 0.8495
5878000000.0 0.8812 0.2763
5881000000.0 0.7444 -0.495
5884000000.0 0.09933 -0.8826
5888000000.0 -0.6167 -0.6374
5891000000.0 -0.8519 0.1032
5894000000.0 -0.4779 0.7165
5897000000.0 0.2383 0.8274
5900000000.0 0.7871 0.3317
5903000000.0 0.7479 -0.4351
5906000000.0 0.1435 -0.8404
5909000000.0 -0.5306 -0.6379
5912000000.0 -0.8712 0.009243
5916000000.0 -0.533 0.6895
5919000000.0 0.2108 0.8592
5922000000.0 0.809 0.3971
5925000000.0 0.8266 -0.3513
5928000000.0 0.2309 -0.8244
5931000000.0 -0.5209 -0.7243
5934000000.0 -0.888 -0.04475
5938000000.0 -0.6556 0.6664
5941000000.0 0.106 0.8705
5944000000.0 0.7394 0.5194
5947000000.0 0.8658 -0.2463
5950000000.0 0.3596 -0.839
5953000000.0 -0.4162 -0.7884
5956000000.0 -0.8962 -0.2118
5959000000.0 -0.706 0.5666
5962000000.0 -0.03187 0.9405
5966000000.0 0.6978 0.6432
5969000000.0 0.9532 -0.1207
5972000000.0 0.4862 -0.7906
5975000000.0 -0.2559 -0.9233
5978000000.0 -0.8678 -0.3755
5981000000.0 -0.8666 0.4594
5984000000.0 -0.2042 0.98
5988000000.0 0.6053 0.7644
5991000000.0 0.987 0.02835
5994000000.0 0.6612 -0.7373
5997000000.0 -0.1555 -1.016
6000000000.0 -0.8476 -0.5059
6003000000.0 -0.9806 0.3332
6006000000.0 -0.362 0.9439
6009000000.0 0.5093 0.8592
6012000000.0 0.9897 0.1595
6016000000.0 0.7409 -0.6373
6019000000.0 -0.04888 -0.9743
6022000000.0 -0.7837 -0.5948
6025000000.0 -0.957 0.2259
6028000000.0 -0.4474 0.8715
6031000000.0 0.4225 0.9022
6034000000.0 0.9297 0.2414
6038000000.0 0.7673 -0.5593
6041000000.0 0.06561 -0.9475
6044000000.0 -0.7062 -0.6881
6047000000.0 -0.9518 0.1258
6050000000.0 -0.4777 0.7854
6053000000.0 0.3281 0.8691
6056000000.0 0.8873 0.2861
6059000000.0 0.8055 -0.5163
6062000000.0 0.1088 -0.9172
6066000000.0 -0.6556 -0.6525
6069000000.0 -0.9132 0.07495
6072000000.0 -0.5009 0.74
6075000000.0 0.2634 0.8392
6078000000.0 0.7954 0.3128
6081000000.0 0.767 -0.4313
6084000000.0 0.133 -0.8483
6088000000.0 -0.5759 -0.6304
6091000000.0 -0.8822 0.03291
6094000000.0 -0.4884 0.6823
6097000000.0 0.2143 0.8435
6100000000.0 0.7731 0.363
6103000000.0 0.7435 -0.4173
6106000000.0 0.1938 -0.8304
6109000000.0 -0.5407 -0.6585
6112000000.0 -0.873 0.001558
6116000000.0 -0.5352 0.6605
6119000000.0 0.1849 0.8428
6122000000.0 0.7604 0.3954
6125000000.0 0.7976 -0.3852
6128000000.0 0.1962 -0.8095
6131000000.0 -0.5262 -0.6902
6134000000.0 -0.8477 -0.07784
6138000000.0 -0.5699 0.6296
6141000000.0 0.1164 0.8767
6144000000.0 0.7362 0.4469
6147000000.0 0.848 -0.3096
6150000000.0 0.2926 -0.8476
6153000000.0 -0.4748 -0.7298
6156000000.0 -0.8724 -0.1372
6159000000.0 -0.6601 0.652
6162000000.0 0.07731 0.9125
6166000000.0 0.7712 0.5451
6169000000.0 0.9185 -0.2552
6172000000.0 0.379 -0.8665
6175000000.0 -0.4676 -0.8387
6178000000.0 -0.9088 -0.1978
6181000000.0 -0.7185 0.5927
6184000000.0 -0.02126 0.9546
6188000000.0 0.7166 0.5949
6191000000.0 0.9363 -0.2113
6194000000.0 0.4424 -0.8416
6197000000.0 -0.3625 -0.8461
6200000000.0 -0.92 -0.2885
6203000000.0 -0.7891 0.5152
6206000000.0 -0.0825 0.9384
6209000000.0 0.637 0.6655
6212000000.0 0.9386 -0.06667
6216000000.0 0.5151 -0.7821
6219000000.0 -0.2353 -0.8732
6222000000.0 -0.8522 -0.3428
6225000000.0 -0.8151 0.3861
6228000000.0 -0.2139 0.8906
6231000000.0 0.537 0.7108
6234000000.0 0.9087 0.0424
6238000000.0 0.6326 -0.6803
6241000000.0 -0.1253 -0.8787
6244000000.0 -0.7532 -0.4622
6247000000.0 -0.801 0.2792
6250000000.0 -0.2959 0.8026
6253000000.0 0.3876 0.7395
6256000000.0 0.8323 0.1498
6259000000.0 0.6554 -0.5264
6262000000.0 0.02068 -0.8224
6266000000.0 -0.5871 -0.5549
6269000000.0 -0.8157 0.1023
