! Created with skrf 1.8.0 (http://scikit-rf.org).
# Hz S RI R 50.0 
!freq ReS11 ImS11
4000000000.0 -0.1691 -1.504
4003000000.0 -1.257 -0.8023
4006000000.0 -1.423 0.4909
4009000000.0 -0.5254 1.386
4012000000.0 0.8138 1.306
4016000000.0 1.488 0.2443
4019000000.0 1.115 -1.086
4022000000.0 -0.1257 -1.604
4025000000.0 -1.298 -0.9029
4028000000.0 -1.546 0.4381
4031000000.0 -0.5995 1.514
4034000000.0 0.7822 1.364
4038000000.0 1.574 0.2024
4041000000.0 1.203 -1.082
4044000000.0 -0.1324 -1.585
4047000000.0 -1.38 -0.952
4050000000.0 -1.583 0.4463
4053000000.0 -0.6201 1.515
4056000000.0 0.7594 1.411
4059000000.0 1.551 0.3715
4062000000.0 1.276 -1.023
4066000000.0 0.04259 -1.598
4069000000.0 -1.197 -1.104
4072000000.0 -1.611 0.2276
4075000000.0 -0.791 1.435
4078000000.0 0.5718 1.539
4081000000.0 1.553 0.5766
4084000000.0 1.413 -0.8572
4088000000.0 0.258 -1.651
4091000000.0 -1.066 -1.22
4094000000.0 -1.658 0.08234
4097000000.0 -0.9811 1.311
4100000000.0 0.408 1.596
4103000000.0 1.431 0.694
4106000000.0 1.416 -0.6239
4109000000.0 0.4642 -1.522
4112000000.0 -0.8574 -1.284
4116000000.0 -1.511 -0.2039
4119000000.0 -1.089 0.9828
4122000000.0 0.005515 1.512
4125000000.0 1.147 0.9663
4128000000.0 1.479 -0.252
4131000000.0 0.7804 -1.255
4134000000.0 -0.4139 -1.381
4138000000.0 -1.374 -0.6264
4141000000.0 -1.33 0.6402
4144000000.0 -0.3825 1.455
4147000000.0 0.8507 1.215
4150000000.0 1.517 0.1294
4153000000.0 1.091 -1.041
4156000000.0 -0.1183 -1.535
4159000000.0 -1.235 -0.9002
4162000000.0 -1.465 0.3685
4166000000.0 -0.6544 1.35
4169000000.0 0.6143 1.36
4172000000.0 1.432 0.3981
4175000000.0 1.248 -0.832
4178000000.0 0.1625 -1.478
4181000000.0 -1.058 -1.063
4184000000.0 -1.523 0.0797
4188000000.0 -0.9055 1.221
4191000000.0 0.3769 1.479
4194000000.0 1.38 0.6607
4197000000.0 1.415 -0.6381
4200000000.0 0.4212 -1.519
4203000000.0 -0.9644 -1.29
4206000000.0 -1.638 -0.05713
4209000000.0 -1.064 1.227
4212000000.0 0.3347 1.594
4216000000.0 1.487 0.7742
4219000000.0 1.474 -0.7523
4222000000.0 0.3566 -1.639
4225000000.0 -1.087 -1.274
4228000000.0 -1.699 0.1135
4231000000.0 -0.9528 1.393
4234000000.0 0.5472 1.537
4238000000.0 1.592 0.5442
4241000000.0 1.325 -0.8955
4244000000.0 0.1405 -1.645
4247000000.0 -1.205 -1.036
4250000000.0 -1.57 0.308
4253000000.0 -0.6772 1.377
4256000000.0 0.6635 1.385
4259000000.0 1.504 0.2929
4262000000.0 1.185 -1.0
4266000000.0 -0.06862 -1.553
4269000000.0 -1.222 -0.8323
4272000000.0 -1.427 0.4448
4275000000.0 -0.5587 1.377
4278000000.0 0.7818 1.274
4281000000.0 1.414 0.2291
4284000000.0 1.018 -0.9903
4288000000.0 -0.132 -1.408
4291000000.0 -1.167 -0.7871
4294000000.0 -1.305 0.4151
4297000000.0 -0.5016 1.255
4300000000.0 0.6408 1.146
4303000000.0 1.281 0.2449
4306000000.0 1.012 -0.8321
4309000000.0 0.02181 -1.283
4312000000.0 -0.9932 -0.845
4316000000.0 -1.278 0.1902
4319000000.0 -0.6532 1.094
4322000000.0 0.4459 1.225
4325000000.0 1.223 0.5054
4328000000.0 1.188 -0.5962
4331000000.0 0.3172 -1.311
4334000000.0 -0.8405 -1.094
4338000000.0 -1.382 -0.03334
4341000000.0 -0.9336 1.02
4344000000.0 0.2364 1.399
4347000000.0 1.245 0.7567
4350000000.0 1.344 -0.4772
4353000000.0 0.5132 -1.374
4356000000.0 -0.6909 -1.225
4359000000.0 -1.396 -0.2391
4362000000.0 -1.094 0.9332
4366000000.0 -0.01479 1.45
4369000000.0 1.123 0.9538
4372000000.0 1.448 -0.3049
4375000000.0 0.7036 -1.311
4378000000.0 -0.5189 -1.376
4381000000.0 -1.421 -0.483
4384000000.0 -1.28 0.8317
4388000000.0 -0.1942 1.514
4391000000.0 1.102 1.13
4394000000.0 1.566 -0.1393
4397000000.0 0.8687 -1.294
4400000000.0 -0.5021 -1.501
4403000000.0 -1.504 -0.5658
4406000000.0 -1.39 0.8547
4409000000.0 -0.1891 1.572
4412000000.0 1.075 1.104
4416000000.0 1.542 -0.2071
4419000000.0 0.801 -1.313
4422000000.0 -0.5207 -1.428
4425000000.0 -1.441 -0.4751
4428000000.0 -1.247 0.8442
4431000000.0 -0.1178 1.476
4434000000.0 1.057 0.9444
4438000000.0 1.403 -0.2473
4441000000.0 0.6176 -1.242
4444000000.0 -0.5763 -1.271
4447000000.0 -1.303 -0.3539
4450000000.0 -1.026 0.8321
4453000000.0 0.009648 1.315
4456000000.0 1.044 0.771
4459000000.0 1.265 -0.3336
4462000000.0 0.4879 -1.187
4466000000.0 -0.6205 -1.085
4469000000.0 -1.228 -0.1436
4472000000.0 -0.8622 0.8437
4475000000.0 0.1537 1.166
4478000000.0 1.023 0.6253
4481000000.0 1.079 -0.4296
4484000000.0 0.3459 -1.109
4488000000.0 -0.673 -0.9589
4491000000.0 -1.138 -0.0702
4494000000.0 -0.7521 0.8516
4497000000.0 0.1819 1.142
4500000000.0 0.9848 0.573
4503000000.0 1.012 -0.4184
4506000000.0 0.3428 -1.05
4509000000.0 -0.5686 -0.9277
4512000000.0 -1.077 -0.0869
4516000000.0 -0.7518 0.7578
4519000000.0 0.1136 1.119
4522000000.0 0.9412 0.6034
4525000000.0 1.09 -0.3361
4528000000.0 0.4073 -1.066
4531000000.0 -0.5674 -1.006
4534000000.0 -1.162 -0.2017
4538000000.0 -0.878 0.76
4541000000.0 0.03143 1.177
4544000000.0 0.924 0.7595
4547000000.0 1.177 -0.2268
4550000000.0 0.557 -1.069
4553000000.0 -0.4313 -1.134
4556000000.0 -1.175 -0.3538
4559000000.0 -1.028 0.6467
4562000000.0 -0.1733 1.228
4566000000.0 0.8158 0.9286
4569000000.0 1.268 -0.03974
4572000000.0 0.7968 -1.005
4575000000.0 -0.2756 -1.279
4578000000.0 -1.159 -0.5944
4581000000.0 -1.228 0.5044
4584000000.0 -0.4052 1.264
4588000000.0 0.725 1.125
4591000000.0 1.354 0.1773
4594000000.0 1.003 -0.9549
4597000000.0 -0.1008 -1.366
4600000000.0 -1.144 -0.8109
4603000000.0 -1.341 0.35
4606000000.0 -0.568 1.252
4609000000.0 0.645 1.272
4612000000.0 1.368 0.3098
4616000000.0 1.075 -0.8575
4619000000.0 0.03845 -1.417
4622000000.0 -1.069 -0.909
4625000000.0 -1.387 0.2878
4628000000.0 -0.6734 1.234
4631000000.0 0.5064 1.284
4634000000.0 1.336 0.4028
4638000000.0 1.112 -0.7488
4641000000.0 0.103 -1.365
4644000000.0 -1.006 -0.9271
4647000000.0 -1.314 0.1776
4650000000.0 -0.6877 1.154
4653000000.0 0.4834 1.227
4656000000.0 1.231 0.379
4659000000.0 1.067 -0.7033
4662000000.0 0.1096 -1.256
4666000000.0 -0.9257 -0.8595
4669000000.0 -1.196 0.1722
4672000000.0 -0.5534 1.037
4675000000.0 0.4578 1.082
4678000000.0 1.109 0.3229
4681000000.0 0.9193 -0.6661
4684000000.0 0.07915 -1.118
4688000000.0 -0.8172 -0.7381
4691000000.0 -1.08 0.181
4694000000.0 -0.5128 0.9528
4697000000.0 0.4131 1.019
4700000000.0 1.053 0.3082
4703000000.0 0.9028 -0.6536
4706000000.0 0.05149 -1.086
4709000000.0 -0.8385 -0.7081
4712000000.0 -1.072 0.1999
4716000000.0 -0.5177 0.9678
4719000000.0 0.4495 0.9882
4722000000.0 0.9983 0.2489
4725000000.0 0.8387 -0.6652
4728000000.0 0.03113 -1.038
4731000000.0 -0.7473 -0.6586
4734000000.0 -1.039 0.1828
4738000000.0 -0.5331 0.9042
4741000000.0 0.3671 0.9592
4744000000.0 1.003 0.3547
4747000000.0 0.8834 -0.5306
4750000000.0 0.1853 -1.065
4753000000.0 -0.7039 -0.7832
4756000000.0 -1.098 0.05971
4759000000.0 -0.7044 0.9052
4762000000.0 0.2332 1.085
4766000000.0 0.9913 0.539
4769000000.0 1.057 -0.4564
4772000000.0 0.3035 -1.091
4775000000.0 -0.6512 -0.9902
4778000000.0 -1.149 -0.1142
4781000000.0 -0.8544 0.8162
4784000000.0 0.07 1.195
4788000000.0 0.9342 0.7363
4791000000.0 1.184 -0.2618
4794000000.0 0.5743 -1.077
4797000000.0 -0.4822 -1.158
4800000000.0 -1.17 -0.3881
4803000000.0 -1.035 0.6243
4806000000.0 -0.1657 1.243
4809000000.0 0.84 0.9568
4812000000.0 1.289 -0.04032
4816000000.0 0.8219 -1.007
4819000000.0 -0.2991 -1.295
4822000000.0 -1.187 -0.6295
4825000000.0 -1.242 0.5298
4828000000.0 -0.4103 1.314
4831000000.0 0.7708 1.115
4834000000.0 1.382 0.1577
4838000000.0 0.9827 -0.9969
4841000000.0 -0.1664 -1.379
4844000000.0 -1.152 -0.8022
4847000000.0 -1.365 0.3959
4850000000.0 -0.5111 1.285
4853000000.0 0.6713 1.219
4856000000.0 1.368 0.2714
4859000000.0 1.053 -0.8835
4862000000.0 -0.02419 -1.388
4866000000.0 -1.069 -0.8377
4869000000.0 -1.301 0.3102
4872000000.0 -0.6221 1.183
4875000000.0 0.5593 1.197
4878000000.0 1.255 0.3338
4881000000.0 1.037 -0.7513
4884000000.0 0.04464 -1.244
4888000000.0 -0.96 -0.8179
4891000000.0 -1.18 0.2227
4894000000.0 -0.5756 1.034
4897000000.0 0.4506 1.061
4900000000.0 1.083 0.3467
4903000000.0 0.9313 -0.6304
4906000000.0 0.06995 -1.091
4909000000.0 -0.752 -0.7599
4912000000.0 -1.031 0.1206
4916000000.0 -0.5396 0.8675
4919000000.0 0.3226 0.9673
4922000000.0 0.9175 0.3556
4925000000.0 0.842 -0.4891
4928000000.0 0.1436 -0.9593
4931000000.0 -0.6417 -0.7146
4934000000.0 -0.9637 0.03042
4938000000.0 -0.5705 0.7335
4941000000.0 0.2269 0.9031
4944000000.0 0.8577 0.4028
4947000000.0 0.8477 -0.4069
4950000000.0 0.226 -0.8961
4953000000.0 -0.572 -0.7751
4956000000.0 -0.9649 -0.0309
4959000000.0 -0.6484 0.7367
4962000000.0 0.1602 0.9836
4966000000.0 0.8672 0.5028
4969000000.0 0.9132 -0.3424
4972000000.0 0.2903 -0.9283
4975000000.0 -0.5069 -0.8373
4978000000.0 -1.005 -0.1373
4981000000.0 -0.7411 0.7032
4984000000.0 0.06161 1.036
4988000000.0 0.8461 0.6263
4991000000.0 1.024 -0.2773
4994000000.0 0.4604 -0.9654
4997000000.0 -0.459 -0.9925
5000000000.0 -1.062 -0.2798
5003000000.0 -0.9536 0.6656
5006000000.0 -0.08222 1.15
5009000000.0 0.8584 0.8205
5012000000.0 1.144 -0.134
5016000000.0 0.6532 -1.024
5019000000.0 -0.386 -1.193
5022000000.0 -1.143 -0.475
5025000000.0 -1.1 0.6197
5028000000.0 -0.201 1.215
5031000000.0 0.8396 0.9947
5034000000.0 1.284 0.01691
5038000000.0 0.7993 -0.9819
5041000000.0 -0.2151 -1.287
5044000000.0 -1.13 -0.6086
5047000000.0 -1.213 0.4597
5050000000.0 -0.4245 1.225
5053000000.0 0.6759 1.12
5056000000.0 1.281 0.2067
5059000000.0 1.014 -0.8808
5062000000.0 -0.06074 -1.296
5066000000.0 -1.024 -0.8226
5069000000.0 -1.264 0.2665
5072000000.0 -0.6031 1.162
5075000000.0 0.5084 1.205
5078000000.0 1.22 0.4033
5081000000.0 1.065 -0.6746
5084000000.0 0.1445 -1.224
5088000000.0 -0.8656 -0.9427
5091000000.0 -1.199 0.108
5094000000.0 -0.7069 0.9666
5097000000.0 0.2527 1.098
5100000000.0 1.011 0.5294
5103000000.0 1.031 -0.4784
5106000000.0 0.3065 -1.057
5109000000.0 -0.6039 -0.8924
5112000000.0 -1.116 -0.1208
5116000000.0 -0.7569 0.7528
5119000000.0 0.07999 1.027
5122000000.0 0.8894 0.6241
5125000000.0 0.9896 -0.245
5128000000.0 0.4304 -0.9506
5131000000.0 -0.4424 -0.9543
5134000000.0 -0.9732 -0.2538
5138000000.0 -0.7806 0.5882
5141000000.0 -0.1007 0.9928
5144000000.0 0.6814 0.6927
5147000000.0 0.9691 -0.1209
5150000000.0 0.4935 -0.8224
5153000000.0 -0.2898 -0.8814
5156000000.0 -0.8526 -0.3306
5159000000.0 -0.8136 0.4909
5162000000.0 -0.1514 0.9027
5166000000.0 0.6144 0.6659
5169000000.0 0.8969 -0.06764
5172000000.0 0.5208 -0.765
5175000000.0 -0.24 -0.8812
5178000000.0 -0.8494 -0.3656
5181000000.0 -0.8307 0.4187
5184000000.0 -0.191 0.9095
5188000000.0 0.5558 0.7055
5191000000.0 0.9242 0.002249
5194000000.0 0.5651 -0.7507
5197000000.0 -0.1973 -0.9013
5200000000.0 -0.8371 -0.3735
5203000000.0 -0.8638 0.4128
5206000000.0 -0.1926 0.9384
5209000000.0 0.5838 0.7408
5212000000.0 0.965 0.03639
5216000000.0 0.6054 -0.7566
5219000000.0 -0.212 -0.9556
5222000000.0 -0.8907 -0.4604
5225000000.0 -0.924 0.3937
5228000000.0 -0.2755 0.9954
5231000000.0 0.5809 0.826
5234000000.0 1.008 0.07294
5238000000.0 0.7046 -0.7374
5241000000.0 -0.1358 -1.027
5244000000.0 -0.8947 -0.5588
5247000000.0 -1.018 0.3395
5250000000.0 -0.382 1.004
5253000000.0 0.4979 0.9754
5256000000.0 1.085 0.1755
5259000000.0 0.8397 -0.7004
5262000000.0 0.02275 -1.092
5266000000.0 -0.8209 -0.7268
5269000000.0 -1.083 0.1796
5272000000.0 -0.5738 0.9607
5275000000.0 0.3494 1.045
5278000000.0 1.04 0.4033
5281000000.0 0.9465 -0.5021
5284000000.0 0.2457 -1.066
5288000000.0 -0.683 -0.8831
5291000000.0 -1.117 -0.08879
5294000000.0 -0.7665 0.796
5297000000.0 0.138 1.125
5300000000.0 0.9296 0.623
5303000000.0 1.117 -0.3066
5306000000.0 0.4804 -1.031
5309000000.0 -0.5155 -1.051
5312000000.0 -1.118 -0.2941
5316000000.0 -0.9513 0.6564
5319000000.0 -0.0861 1.112
5322000000.0 0.8034 0.8383
5325000000.0 1.138 -0.1144
5328000000.0 0.6326 -0.9276
5331000000.0 -0.3192 -1.092
5334000000.0 -1.05 -0.4622
5338000000.0 -1.045 0.5164
5341000000.0 -0.2635 1.106
5344000000.0 0.6725 0.9077
5347000000.0 1.104 0.05316
5350000000.0 0.7613 -0.7998
5353000000.0 -0.1555 -1.121
5356000000.0 -0.9657 -0.5544
5359000000.0 -1.013 0.3949
5362000000.0 -0.3565 1.01
5366000000.0 0.5684 0.9226
5369000000.0 1.045 0.1382
5372000000.0 0.7558 -0.7364
5375000000.0 -0.1134 -1.043
5378000000.0 -0.8681 -0.5785
5381000000.0 -0.9909 0.324
5384000000.0 -0.336 0.9358
5388000000.0 0.516 0.8061
5391000000.0 0.9386 0.09448
5394000000.0 0.6663 -0.7255
5397000000.0 -0.09734 -0.9329
5400000000.0 -0.7879 -0.4964
5403000000.0 -0.852 0.3216
5406000000.0 -0.2639 0.8414
5409000000.0 0.4677 0.7598
5412000000.0 0.8529 0.07433
5416000000.0 0.6004 -0.6173
5419000000.0 -0.09217 -0.8609
5422000000.0 -0.7666 -0.4461
5425000000.0 -0.8004 0.2614
5428000000.0 -0.2388 0.8305
5431000000.0 0.4795 0.7397
5434000000.0 0.8409 0.08484
5438000000.0 0.5983 -0.6587
5441000000.0 -0.1338 -0.8945
5444000000.0 -0.7516 -0.4751
5447000000.0 -0.8359 0.2894
5450000000.0 -0.2745 0.8227
5453000000.0 0.4619 0.7438
5456000000.0 0.884 0.1062
5459000000.0 0.6775 -0.6089
5462000000.0 -0.05884 -0.8941
5466000000.0 -0.7225 -0.5349
5469000000.0 -0.888 0.2287
5472000000.0 -0.3785 0.802
5475000000.0 0.3851 0.8386
5478000000.0 0.8775 0.2381
5481000000.0 0.766 -0.5508
5484000000.0 0.0669 -0.9494
5488000000.0 -0.6978 -0.6797
5491000000.0 -0.9582 0.1044
5494000000.0 -0.5657 0.8289
5497000000.0 0.2903 0.9617
5500000000.0 0.9287 0.4024
5503000000.0 0.9109 -0.4631
5506000000.0 0.2124 -0.9395
5509000000.0 -0.6036 -0.8426
5512000000.0 -1.023 -0.03872
5516000000.0 -0.6991 0.7107
5519000000.0 0.1239 1.003
5522000000.0 0.886 0.5994
5525000000.0 0.9934 -0.2774
5528000000.0 0.4336 -0.9362
5531000000.0 -0.4391 -0.9741
5534000000.0 -1.017 -0.2591
5538000000.0 -0.8642 0.5909
5541000000.0 -0.09702 1.071
5544000000.0 0.7511 0.7333
5547000000.0 1.079 -0.09226
5550000000.0 0.5812 -0.8899
5553000000.0 -0.2931 -1.03
5556000000.0 -0.9796 -0.4362
5559000000.0 -0.9277 0.4539
5562000000.0 -0.243 1.027
5566000000.0 0.618 0.8235
5569000000.0 1.045 0.03569
5572000000.0 0.684 -0.7482
5575000000.0 -0.1577 -1.003
5578000000.0 -0.8639 -0.5259
5581000000.0 -0.9666 0.3161
5584000000.0 -0.3631 0.9192
5588000000.0 0.5049 0.8387
5591000000.0 0.9631 0.1685
5594000000.0 0.6996 -0.6067
5597000000.0 -0.02359 -0.9436
5600000000.0 -0.7457 -0.5921
5603000000.0 -0.9045 0.2127
5606000000.0 -0.4212 0.8256
5609000000.0 0.3554 0.815
5612000000.0 0.8582 0.2406
5616000000.0 0.6839 -0.5102
5619000000.0 0.03605 -0.8736
5622000000.0 -0.6389 -0.5992
5625000000.0 -0.8567 0.1438
5628000000.0 -0.4443 0.7359
5631000000.0 0.2878 0.798
5634000000.0 0.7924 0.2671
5638000000.0 0.6889 -0.473
5641000000.0 0.06763 -0.8109
5644000000.0 -0.594 -0.5853
5647000000.0 -0.8418 0.0773
5650000000.0 -0.4427 0.7192
5653000000.0 0.2918 0.7856
5656000000.0 0.8114 0.2652
5659000000.0 0.697 -0.4728
5662000000.0 0.1047 -0.856
5666000000.0 -0.621 -0.5982
5669000000.0 -0.8537 0.09198
5672000000.0 -0.4406 0.7743
5675000000.0 0.2861 0.8596
5678000000.0 0.8464 0.2818
5681000000.0 0.7873 -0.4895
5684000000.0 0.09914 -0.9219
5688000000.0 -0.6366 -0.6726
5691000000.0 -0.9358 0.1186
5694000000.0 -0.5291 0.7958
5697000000.0 0.307 0.9472
5700000000.0 0.9241 0.3482
5703000000.0 0.8675 -0.4633
5706000000.0 0.1708 -0.9888
5709000000.0 -0.6927 -0.7535
5712000000.0 -1.04 0.03824
5716000000.0 -0.6288 0.7957
5719000000.0 0.2272 1.016
5722000000.0 0.9411 0.4678
5725000000.0 0.9978 -0.431
5728000000.0 0.3087 -0.9923
5731000000.0 -0.6064 -0.9
5734000000.0 -1.085 -0.08567
5738000000.0 -0.768 0.7607
5741000000.0 0.05515 1.089
5744000000.0 0.9115 0.616
5747000000.0 1.09 -0.2913
5750000000.0 0.4737 -1.005
5753000000.0 -0.4818 -0.9754
5756000000.0 -1.102 -0.2782
5759000000.0 -0.8832 0.6788
5762000000.0 -0.06985 1.097
5766000000.0 0.8022 0.7823
5769000000.0 1.08 -0.1504
5772000000.0 0.6083 -0.9394
5775000000.0 -0.3412 -1.054
5778000000.0 -0.9896 -0.4325
5781000000.0 -0.9698 0.4995
5784000000.0 -0.2353 1.062
5788000000.0 0.6133 0.8516
5791000000.0 1.073 0.09359
5794000000.0 0.7371 -0.7901
5797000000.0 -0.1274 -1.071
5800000000.0 -0.9421 -0.577
5803000000.0 -1.021 0.3069
5806000000.0 -0.3802 0.9824
5809000000.0 0.5179 0.9194
5812000000.0 1.031 0.1717
5816000000.0 0.7991 -0.647
5819000000.0 -0.05033 -1.044
5822000000.0 -0.7705 -0.6252
5825000000.0 -0.9755 0.2025
5828000000.0 -0.4637 0.9042
5831000000.0 0.3768 0.8912
5834000000.0 0.9291 0.2786
5838000000.0 0.8024 -0.572
5841000000.0 0.08765 -0.9695
5844000000.0 -0.7152 -0.64
5847000000.0 -0.9679 0.1356
5850000000.0 -0.5102 0.8414
5853000000.0 0.3072 0.8575
5856000000.0 0.9092 0.2861
5859000000.0 0.7771 -0.5117
5862000000.0 0.12 -0.9387
5866000000.0 -0.6836 -0.6544
5869000000.0 -0.8901 0.09268
5872000000.0 -0.4787 0.7603
5875000000.0 0.2745 0.8294
5878000000.0 0.8237 0.3006
5881000000.0 0.735 -0.4484
5884000000.0 0.08899 -0.8622
5888000000.0 -0.5883 -0.6307
5891000000.0 -0.8461 0.05102
5894000000.0 -0.5155 0.7131
5897000000.0 0.2247 0.8418
5900000000.0 0.7919 0.3368
5903000000.0 0.7641 -0.4275
5906000000.0 0.1625 -0.841
5909000000.0 -0.5524 -0.677
5912000000.0 -0.8665 0.01885
5916000000.0 -0.5104 0.657
5919000000.0 0.1683 0.8509
5922000000.0 0.7801 0.393
5925000000.0 0.7998 -0.3296
5928000000.0 0.2673 -0.8426
5931000000.0 -0.4707 -0.7154
5934000000.0 -0.8716 -0.07474
5938000000.0 -0.6217 0.629
5941000000.0 0.06897 0.884
5944000000.0 0.7506 0.5089
5947000000.0 0.8764 -0.2414
5950000000.0 0.3371 -0.8107
5953000000.0 -0.3972 -0.8149
5956000000.0 -0.9106 -0.218
5959000000.0 -0.7454 0.5258
5962000000.0 -0.04122 0.9275
5966000000.0 0.6819 0.6385
5969000000.0 0.9514 -0.08657
5972000000.0 0.5144 -0.8055
5975000000.0 -0.2706 -0.9446
5978000000.0 -0.8729 -0.376
5981000000.0 -0.8837 0.4229
5984000000.0 -0.1961 0.9614
5988000000.0 0.5978 0.75
5991000000.0 0.9878 0.04997
5994000000.0 0.7065 -0.7313
5997000000.0 -0.1205 -1.018
6000000000.0 -0.8518 -0.5169
6003000000.0 -0.9204 0.3349
6006000000.0 -0.3595 0.9066
6009000000.0 0.5142 0.8663
6012000000.0 0.9808 0.1781
6016000000.0 0.752 -0.6377
6019000000.0 -0.0338 -0.995
6022000000.0 -0.752 -0.6086
6025000000.0 -0.9634 0.2328
6028000000.0 -0.4409 0.8903
6031000000.0 0.4017 0.915
6034000000.0 0.9487 0.2712
6038000000.0 0.8227 -0.577
6041000000.0 0.0582 -0.9653
6044000000.0 -0.6837 -0.6447
6047000000.0 -0.9746 0.1271
6050000000.0 -0.5155 0.7963
6053000000.0 0.3244 0.8956
6056000000.0 0.8897 0.3312
6059000000.0 0.7934 -0.5035
6062000000.0 0.1167 -0.9133
6066000000.0 -0.6353 -0.6604
6069000000.0 -0.9233 0.05862
6072000000.0 -0.4945 0.7622
6075000000.0 0.2581 0.8687
6078000000.0 0.8051 0.3417
6081000000.0 0.7516 -0.4332
6084000000.0 0.1561 -0.8562
6088000000.0 -0.5684 -0.6554
6091000000.0 -0.8572 0.02617
6094000000.0 -0.5395 0.7072
6097000000.0 0.221 0.8211
6100000000.0 0.7743 0.3681
6103000000.0 0.7728 -0.3751
6106000000.0 0.2103 -0.8336
6109000000.0 -0.5271 -0.6829
6112000000.0 -0.8449 -0.0217
6116000000.0 -0.5721 0.6411
6119000000.0 0.1535 0.8413
6122000000.0 0.7759 0.4071
6125000000.0 0.8135 -0.3611
6128000000.0 0.2151 -0.8319
6131000000.0 -0.5176 -0.7445
6134000000.0 -0.8582 -0.04858
6138000000.0 -0.6005 0.6626
6141000000.0 0.1309 0.897
6144000000.0 0.756 0.4378
6147000000.0 0.8391 -0.2932
6150000000.0 0.3019 -0.8526
6153000000.0 -0.4655 -0.7525
6156000000.0 -0.9157 -0.1244
6159000000.0 -0.6556 0.619
6162000000.0 0.04545 0.9294
6166000000.0 0.7907 0.552
6169000000.0 0.8906 -0.2157
6172000000.0 0.3863 -0.8664
6175000000.0 -0.4361 -0.8379
6178000000.0 -0.8696 -0.2134
6181000000.0 -0.7344 0.567
6184000000.0 -0.01525 0.947
6188000000.0 0.7258 0.6341
6191000000.0 0.8975 -0.1683
6194000000.0 0.4353 -0.7864
6197000000.0 -0.3486 -0.8751
6200000000.0 -0.8947 -0.3032
6203000000.0 -0.7972 0.4776
6206000000.0 -0.1102 0.9126
6209000000.0 0.6374 0.6869
6212000000.0 0.9381 -0.04507
6216000000.0 0.5699 -0.7631
6219000000.0 -0.242 -0.8808
6222000000.0 -0.8009 -0.3716
6225000000.0 -0.8294 0.4039
6228000000.0 -0.214 0.8916
6231000000.0 0.5473 0.7526
6234000000.0 0.8991 0.05221
6238000000.0 0.6159 -0.6681
6241000000.0 -0.1035 -0.8549
6244000000.0 -0.7557 -0.4721
6247000000.0 -0.8282 0.2869
6250000000.0 -0.2967 0.7937
6253000000.0 0.4073 0.7303
6256000000.0 0.8243 0.1576
6259000000.0 0.6621 -0.5247
6262000000.0 0.0278 -0.8266
6266000000.0 -0.6237 -0.5474
6269000000.0 -0.7924 0.09963
