! Created with skrf 1.8.0 (http://scikit-rf.org).
# Hz S RI R 50.0 
!freq ReS11 ImS11
4000000000.0 0.824 -1.311
4003000000.0 -0.471 -1.467
4006000000.0 -1.405 -0.5399
4009000000.0 -1.283 0.7824
4012000000.0 -0.2357 1.493
4016000000.0 0.9841 1.096
4019000000.0 1.491 -0.1017
4022000000.0 0.8886 -1.247
4025000000.0 -0.4135 -1.447
4028000000.0 -1.422 -0.5442
4031000000.0 -1.321 0.7836
4034000000.0 -0.2256 1.516
4038000000.0 1.053 1.132
4041000000.0 1.56 -0.1333
4044000000.0 0.855 -1.288
4047000000.0 -0.4248 -1.448
4050000000.0 -1.434 -0.5471
4053000000.0 -1.308 0.7652
4056000000.0 -0.2291 1.521
4059000000.0 1.053 1.124
4062000000.0 1.55 -0.1058
4066000000.0 0.9355 -1.263
4069000000.0 -0.3728 -1.532
4072000000.0 -1.423 -0.6918
4075000000.0 -1.45 0.7132
4078000000.0 -0.3749 1.587
4081000000.0 1.02 1.333
4084000000.0 1.671 0.03359
4088000000.0 1.078 -1.269
4091000000.0 -0.3076 -1.646
4094000000.0 -1.456 -0.7815
4097000000.0 -1.547 0.6494
4100000000.0 -0.4633 1.592
4103000000.0 0.921 1.356
4106000000.0 1.608 0.1814
4109000000.0 1.135 -1.125
4112000000.0 -0.1261 -1.572
4116000000.0 -1.258 -0.9354
4119000000.0 -1.511 0.3624
4122000000.0 -0.6816 1.381
4125000000.0 0.6016 1.4
4128000000.0 1.481 0.489
4131000000.0 1.3 -0.7595
4134000000.0 0.2429 -1.51
4138000000.0 -0.9722 -1.178
4141000000.0 -1.546 -0.02637
4144000000.0 -1.031 1.157
4147000000.0 0.2224 1.536
4150000000.0 1.311 0.823
4153000000.0 1.472 -0.4801
4156000000.0 0.5741 -1.449
4159000000.0 -0.6966 -1.345
4162000000.0 -1.53 -0.3684
4166000000.0 -1.23 0.9123
4169000000.0 -0.1064 1.548
4172000000.0 1.096 1.065
4175000000.0 1.511 -0.1277
4178000000.0 0.8981 -1.256
4181000000.0 -0.3532 -1.479
4184000000.0 -1.331 -0.6768
4188000000.0 -1.39 0.5698
4191000000.0 -0.4877 1.428
4194000000.0 0.8083 1.307
4197000000.0 1.581 0.2403
4200000000.0 1.191 -1.032
4203000000.0 -0.003369 -1.568
4206000000.0 -1.245 -1.037
4209000000.0 -1.587 0.3377
4212000000.0 -0.7802 1.487
4216000000.0 0.6624 1.517
4219000000.0 1.624 0.4369
4222000000.0 1.417 -1.02
4225000000.0 0.06599 -1.706
4228000000.0 -1.324 -1.153
4231000000.0 -1.703 0.3003
4234000000.0 -0.7869 1.52
4238000000.0 0.701 1.588
4241000000.0 1.641 0.4445
4244000000.0 1.369 -1.021
4247000000.0 0.007876 -1.708
4250000000.0 -1.335 -1.049
4253000000.0 -1.698 0.3856
4256000000.0 -0.6816 1.541
4259000000.0 0.8162 1.489
4262000000.0 1.64 0.3071
4266000000.0 1.25 -1.126
4269000000.0 -0.1628 -1.706
4272000000.0 -1.428 -0.8829
4275000000.0 -1.549 0.5907
4278000000.0 -0.4735 1.553
4281000000.0 0.9251 1.26
4284000000.0 1.564 0.06153
4288000000.0 0.9603 -1.176
4291000000.0 -0.3039 -1.491
4294000000.0 -1.314 -0.6563
4297000000.0 -1.286 0.6094
4300000000.0 -0.3673 1.373
4303000000.0 0.8802 1.071
4306000000.0 1.337 0.06293
4309000000.0 0.8882 -1.002
4312000000.0 -0.1812 -1.338
4316000000.0 -1.126 -0.6717
4319000000.0 -1.246 0.4632
4322000000.0 -0.4574 1.239
4325000000.0 0.6558 1.142
4328000000.0 1.31 0.2364
4331000000.0 1.043 -0.8563
4334000000.0 -0.01211 -1.335
4338000000.0 -1.057 -0.8361
4341000000.0 -1.361 0.2766
4344000000.0 -0.6374 1.219
4347000000.0 0.52 1.287
4350000000.0 1.326 0.406
4353000000.0 1.204 -0.7333
4356000000.0 0.1582 -1.391
4359000000.0 -0.958 -1.043
4362000000.0 -1.37 0.05511
4366000000.0 -0.8261 1.102
4369000000.0 0.2901 1.345
4372000000.0 1.262 0.6253
4375000000.0 1.329 -0.5425
4378000000.0 0.4654 -1.34
4381000000.0 -0.754 -1.215
4384000000.0 -1.487 -0.214
4388000000.0 -1.113 0.9752
4391000000.0 0.04512 1.494
4394000000.0 1.201 0.9459
4397000000.0 1.488 -0.3114
4400000000.0 0.6785 -1.376
4403000000.0 -0.5654 -1.442
4406000000.0 -1.512 -0.4457
4409000000.0 -1.295 0.9167
4412000000.0 -0.1074 1.572
4416000000.0 1.15 1.079
4419000000.0 1.561 -0.2015
4422000000.0 0.8222 -1.354
4425000000.0 -0.5117 -1.479
4428000000.0 -1.475 -0.5339
4431000000.0 -1.329 0.8438
4434000000.0 -0.2268 1.569
4438000000.0 1.04 1.154
4441000000.0 1.551 -0.09259
4444000000.0 0.9086 -1.331
4447000000.0 -0.4091 -1.514
4450000000.0 -1.477 -0.5776
4453000000.0 -1.31 0.8168
4456000000.0 -0.2227 1.516
4459000000.0 1.087 1.071
4462000000.0 1.472 -0.1815
4466000000.0 0.7604 -1.291
4469000000.0 -0.5182 -1.365
4472000000.0 -1.398 -0.4058
4475000000.0 -1.146 0.8284
4478000000.0 -0.06518 1.363
4481000000.0 1.028 0.8649
4484000000.0 1.267 -0.3031
4488000000.0 0.5417 -1.144
4491000000.0 -0.5553 -1.137
4494000000.0 -1.2 -0.2379
4497000000.0 -0.9257 0.8009
4500000000.0 0.07939 1.199
4503000000.0 0.9148 0.658
4506000000.0 1.061 -0.2888
4509000000.0 0.4438 -1.032
4512000000.0 -0.5137 -0.9754
4516000000.0 -1.061 -0.1561
4519000000.0 -0.7944 0.7556
4522000000.0 0.09003 1.075
4525000000.0 0.8946 0.6024
4528000000.0 1.011 -0.3232
4531000000.0 0.3813 -1.028
4534000000.0 -0.5571 -0.908
4538000000.0 -1.068 -0.1609
4541000000.0 -0.7745 0.7476
4544000000.0 0.09161 1.08
4547000000.0 0.8795 0.6052
4550000000.0 1.043 -0.3129
4553000000.0 0.4289 -0.9877
4556000000.0 -0.4958 -0.9675
4559000000.0 -1.068 -0.235
4562000000.0 -0.8865 0.7109
4566000000.0 0.007676 1.135
4569000000.0 0.8634 0.7288
4572000000.0 1.145 -0.1824
4575000000.0 0.5875 -1.009
4578000000.0 -0.3871 -1.124
4581000000.0 -1.133 -0.4023
4584000000.0 -1.042 0.6209
4588000000.0 -0.178 1.21
4591000000.0 0.8358 0.9519
4594000000.0 1.256 -0.0389
4597000000.0 0.7611 -1.021
4600000000.0 -0.2921 -1.255
4603000000.0 -1.124 -0.587
4606000000.0 -1.207 0.5285
4609000000.0 -0.349 1.29
4612000000.0 0.759 1.126
4616000000.0 1.33 0.1063
4619000000.0 0.9221 -0.9564
4622000000.0 -0.1487 -1.347
4625000000.0 -1.122 -0.7433
4628000000.0 -1.302 0.4039
4631000000.0 -0.5232 1.258
4634000000.0 0.6439 1.192
4638000000.0 1.347 0.2411
4641000000.0 1.062 -0.8877
4644000000.0 -0.007242 -1.369
4647000000.0 -1.102 -0.8862
4650000000.0 -1.363 0.3066
4653000000.0 -0.5781 1.243
4656000000.0 0.5988 1.226
4659000000.0 1.343 0.2992
4662000000.0 1.086 -0.807
4666000000.0 0.0236 -1.354
4669000000.0 -1.036 -0.85
4672000000.0 -1.265 0.2695
4675000000.0 -0.57 1.166
4678000000.0 0.5449 1.164
4681000000.0 1.233 0.2876
4684000000.0 0.9682 -0.7601
4688000000.0 0.01541 -1.195
4691000000.0 -0.9239 -0.7593
4694000000.0 -1.174 0.249
4697000000.0 -0.4965 1.109
4700000000.0 0.5293 1.068
4703000000.0 1.155 0.2105
4706000000.0 0.9047 -0.7589
4709000000.0 -0.07606 -1.165
4712000000.0 -0.9469 -0.6189
4716000000.0 -1.059 0.3498
4719000000.0 -0.3615 1.042
4722000000.0 0.5683 0.906
4725000000.0 1.054 0.0966
4728000000.0 0.7312 -0.7563
4731000000.0 -0.08388 -1.028
4734000000.0 -0.8757 -0.5422
4738000000.0 -0.9362 0.3177
4741000000.0 -0.3084 0.964
4744000000.0 0.5411 0.8478
4747000000.0 0.9671 0.09221
4750000000.0 0.711 -0.6993
4753000000.0 -0.0896 -1.02
4756000000.0 -0.8454 -0.5641
4759000000.0 -0.9468 0.2974
4762000000.0 -0.3736 0.9523
4766000000.0 0.4859 0.8843
4769000000.0 1.011 0.1739
4772000000.0 0.7541 -0.6765
4775000000.0 -0.03698 -1.069
4778000000.0 -0.8202 -0.6531
4781000000.0 -1.031 0.2425
4784000000.0 -0.4524 0.9841
4788000000.0 0.434 1.001
4791000000.0 1.051 0.3321
4794000000.0 0.9309 -0.5922
4797000000.0 0.1405 -1.111
4800000000.0 -0.7583 -0.8164
4803000000.0 -1.1 0.05478
4806000000.0 -0.6614 0.8695
4809000000.0 0.2712 1.103
4812000000.0 1.035 0.5605
4816000000.0 1.107 -0.4553
4819000000.0 0.3578 -1.18
4822000000.0 -0.6752 -0.9817
4825000000.0 -1.249 -0.1732
4828000000.0 -0.9154 0.8546
4831000000.0 0.08708 1.277
4834000000.0 1.051 0.7923
4838000000.0 1.268 -0.3421
4841000000.0 0.548 -1.215
4844000000.0 -0.5905 -1.197
4847000000.0 -1.307 -0.3379
4850000000.0 -1.085 0.8114
4853000000.0 -0.03499 1.343
4856000000.0 1.012 0.9125
4859000000.0 1.361 -0.2276
4862000000.0 0.7092 -1.184
4866000000.0 -0.4775 -1.289
4869000000.0 -1.315 -0.4258
4872000000.0 -1.167 0.7227
4875000000.0 -0.1748 1.363
4878000000.0 0.9666 0.9335
4881000000.0 1.373 -0.1452
4884000000.0 0.7547 -1.123
4888000000.0 -0.452 -1.26
4891000000.0 -1.217 -0.4716
4894000000.0 -1.131 0.648
4897000000.0 -0.1604 1.278
4900000000.0 0.8713 0.9178
4903000000.0 1.215 -0.1086
4906000000.0 0.6995 -0.9867
4909000000.0 -0.365 -1.117
4912000000.0 -1.057 -0.4187
4916000000.0 -0.9895 0.5309
4919000000.0 -0.1685 1.058
4922000000.0 0.7027 0.811
4925000000.0 1.058 -0.01475
4928000000.0 0.654 -0.8072
4931000000.0 -0.2031 -0.9838
4934000000.0 -0.8767 -0.4513
4938000000.0 -0.8726 0.4139
4941000000.0 -0.2346 0.9579
4944000000.0 0.5518 0.7763
4947000000.0 0.9683 0.04395
4950000000.0 0.6229 -0.7111
4953000000.0 -0.1327 -0.9514
4956000000.0 -0.8168 -0.4707
4959000000.0 -0.8733 0.3448
4962000000.0 -0.3035 0.9111
4966000000.0 0.5035 0.7968
4969000000.0 0.9541 0.08065
4972000000.0 0.6748 -0.6817
4975000000.0 -0.1182 -0.94
4978000000.0 -0.7986 -0.5308
4981000000.0 -0.8985 0.2743
4984000000.0 -0.3791 0.9073
4988000000.0 0.4801 0.8547
4991000000.0 0.9965 0.1785
4994000000.0 0.7753 -0.6139
4997000000.0 -0.02324 -1.024
5000000000.0 -0.792 -0.6336
5003000000.0 -1.027 0.218
5006000000.0 -0.4946 0.9495
5009000000.0 0.3954 1.018
5012000000.0 1.07 0.298
5016000000.0 0.9264 -0.6001
5019000000.0 0.1051 -1.15
5022000000.0 -0.8466 -0.8282
5025000000.0 -1.166 0.1026
5028000000.0 -0.6757 0.9881
5031000000.0 0.3802 1.138
5034000000.0 1.137 0.4925
5038000000.0 1.09 -0.6078
5041000000.0 0.2224 -1.211
5044000000.0 -0.7515 -0.9438
5047000000.0 -1.259 -0.01626
5050000000.0 -0.8525 0.9399
5053000000.0 0.2179 1.258
5056000000.0 1.127 0.6638
5059000000.0 1.22 -0.4284
5062000000.0 0.459 -1.221
5066000000.0 -0.642 -1.134
5069000000.0 -1.294 -0.1984
5072000000.0 -0.9954 0.8528
5075000000.0 0.04076 1.327
5078000000.0 1.067 0.8057
5081000000.0 1.232 -0.3084
5084000000.0 0.5483 -1.159
5088000000.0 -0.4913 -1.186
5091000000.0 -1.234 -0.3905
5094000000.0 -1.028 0.6708
5097000000.0 -0.1339 1.186
5100000000.0 0.8343 0.8651
5103000000.0 1.169 -0.045
5106000000.0 0.6943 -0.9738
5109000000.0 -0.2714 -1.125
5112000000.0 -1.04 -0.5266
5116000000.0 -1.036 0.4294
5119000000.0 -0.3191 1.043
5122000000.0 0.6225 0.9175
5125000000.0 1.098 0.125
5128000000.0 0.8047 -0.7372
5131000000.0 -0.05799 -1.061
5134000000.0 -0.8662 -0.6068
5138000000.0 -1.031 0.2359
5141000000.0 -0.4507 0.9498
5144000000.0 0.4241 0.9133
5147000000.0 0.9463 0.248
5150000000.0 0.8198 -0.592
5153000000.0 0.08236 -0.9705
5156000000.0 -0.6913 -0.6637
5159000000.0 -0.9545 0.1223
5162000000.0 -0.5034 0.8153
5166000000.0 0.2775 0.8973
5169000000.0 0.8483 0.3526
5172000000.0 0.8218 -0.447
5175000000.0 0.1576 -0.8909
5178000000.0 -0.5888 -0.6836
5181000000.0 -0.9099 0.02855
5184000000.0 -0.5489 0.7253
5188000000.0 0.2139 0.8612
5191000000.0 0.8393 0.361
5194000000.0 0.8364 -0.4185
5197000000.0 0.2227 -0.9127
5200000000.0 -0.5851 -0.7292
5203000000.0 -0.9518 0.03396
5206000000.0 -0.5822 0.7666
5209000000.0 0.2669 0.9155
5212000000.0 0.861 0.3649
5216000000.0 0.8515 -0.4497
5219000000.0 0.1793 -0.9228
5222000000.0 -0.6196 -0.7447
5225000000.0 -0.9744 -0.003754
5228000000.0 -0.6248 0.7653
5231000000.0 0.2 0.962
5234000000.0 0.8916 0.4658
5238000000.0 0.8997 -0.4209
5241000000.0 0.2617 -0.9709
5244000000.0 -0.599 -0.8149
5247000000.0 -1.002 -0.047
5250000000.0 -0.7008 0.7874
5253000000.0 0.1358 1.035
5256000000.0 0.8997 0.5292
5259000000.0 0.9691 -0.3397
5262000000.0 0.3606 -1.018
5266000000.0 -0.5399 -0.9132
5269000000.0 -1.078 -0.1653
5272000000.0 -0.8169 0.7092
5275000000.0 0.01933 1.062
5278000000.0 0.8529 0.6838
5281000000.0 1.076 -0.2176
5284000000.0 0.5466 -0.9604
5288000000.0 -0.3678 -1.017
5291000000.0 -1.013 -0.3907
5294000000.0 -0.9545 0.5203
5297000000.0 -0.2182 1.074
5300000000.0 0.6878 0.8946
5303000000.0 1.113 0.05924
5306000000.0 0.7692 -0.8486
5309000000.0 -0.1428 -1.139
5312000000.0 -0.9609 -0.5964
5316000000.0 -1.086 0.3349
5319000000.0 -0.4551 1.07
5322000000.0 0.4981 1.024
5325000000.0 1.129 0.2609
5328000000.0 0.9423 -0.6666
5331000000.0 0.04601 -1.169
5334000000.0 -0.8388 -0.7726
5338000000.0 -1.155 0.1352
5341000000.0 -0.6207 0.9501
5344000000.0 0.3081 1.086
5347000000.0 1.053 0.4524
5350000000.0 1.018 -0.5149
5353000000.0 0.2721 -1.132
5356000000.0 -0.6867 -0.9164
5359000000.0 -1.124 -0.06551
5362000000.0 -0.7388 0.8067
5366000000.0 0.1648 1.121
5369000000.0 0.9496 0.5868
5372000000.0 1.044 -0.379
5375000000.0 0.36 -1.043
5378000000.0 -0.5925 -0.9258
5381000000.0 -1.057 -0.1083
5384000000.0 -0.7693 0.7561
5388000000.0 0.1056 1.041
5391000000.0 0.8964 0.558
5394000000.0 0.9764 -0.3637
5397000000.0 0.3511 -0.8943
5400000000.0 -0.5125 -0.8384
5403000000.0 -0.963 -0.1366
5406000000.0 -0.6806 0.6667
5409000000.0 0.08009 0.9367
5412000000.0 0.7722 0.4832
5416000000.0 0.8682 -0.2943
5419000000.0 0.3445 -0.8476
5422000000.0 -0.4664 -0.7738
5425000000.0 -0.8943 -0.09942
5428000000.0 -0.633 0.6533
5431000000.0 0.1004 0.8874
5434000000.0 0.7471 0.4541
5438000000.0 0.8502 -0.2854
5441000000.0 0.2492 -0.8327
5444000000.0 -0.5005 -0.7248
5447000000.0 -0.8997 -0.06267
5450000000.0 -0.6357 0.6475
5453000000.0 0.1415 0.897
5456000000.0 0.7736 0.4346
5459000000.0 0.8382 -0.3414
5462000000.0 0.2801 -0.8474
5466000000.0 -0.4764 -0.7104
5469000000.0 -0.8925 -0.1233
5472000000.0 -0.617 0.5925
5475000000.0 0.0829 0.8744
5478000000.0 0.7513 0.5054
5481000000.0 0.8555 -0.2369
5484000000.0 0.3899 -0.8666
5488000000.0 -0.4137 -0.8264
5491000000.0 -0.8723 -0.2158
5494000000.0 -0.7641 0.5877
5497000000.0 -0.02635 0.9512
5500000000.0 0.6786 0.6591
5503000000.0 0.9576 -0.09548
5506000000.0 0.4969 -0.8024
5509000000.0 -0.2949 -0.9273
5512000000.0 -0.9278 -0.3908
5516000000.0 -0.8364 0.4351
5519000000.0 -0.2178 0.9582
5522000000.0 0.5853 0.7713
5525000000.0 1.005 0.07518
5528000000.0 0.7132 -0.7341
5531000000.0 -0.09759 -1.033
5534000000.0 -0.8714 -0.585
5538000000.0 -0.984 0.2825
5541000000.0 -0.4501 0.952
5544000000.0 0.4137 0.9575
5547000000.0 1.006 0.2596
5550000000.0 0.8629 -0.6292
5553000000.0 0.1012 -1.065
5556000000.0 -0.7683 -0.7376
5559000000.0 -1.051 0.1247
5562000000.0 -0.5732 0.8984
5566000000.0 0.3262 1.029
5569000000.0 0.9658 0.3872
5572000000.0 0.9382 -0.5016
5575000000.0 0.2433 -0.9897
5578000000.0 -0.6275 -0.8539
5581000000.0 -1.019 -0.06495
5584000000.0 -0.687 0.7795
5588000000.0 0.12 1.033
5591000000.0 0.8403 0.5239
5594000000.0 0.9363 -0.3078
5597000000.0 0.3723 -0.9276
5600000000.0 -0.4765 -0.8447
5603000000.0 -0.9484 -0.1752
5606000000.0 -0.7464 0.6183
5609000000.0 0.024 0.9644
5612000000.0 0.7145 0.5911
5616000000.0 0.8969 -0.1919
5619000000.0 0.4322 -0.824
5622000000.0 -0.3682 -0.8384
5625000000.0 -0.8865 -0.24
5628000000.0 -0.7449 0.5132
5631000000.0 -0.07185 0.8805
5634000000.0 0.6249 0.6403
5638000000.0 0.8743 -0.1256
5641000000.0 0.4502 -0.7691
5644000000.0 -0.2709 -0.8353
5647000000.0 -0.8292 -0.2619
5650000000.0 -0.7237 0.4741
5653000000.0 -0.07059 0.8564
5656000000.0 0.6002 0.6004
5659000000.0 0.8661 -0.1242
5662000000.0 0.4505 -0.7452
5666000000.0 -0.3202 -0.826
5669000000.0 -0.8271 -0.2552
5672000000.0 -0.7196 0.4827
5675000000.0 -0.06926 0.8655
5678000000.0 0.6987 0.6113
5681000000.0 0.8908 -0.1065
5684000000.0 0.4353 -0.7846
5688000000.0 -0.3228 -0.8201
5691000000.0 -0.9034 -0.302
5694000000.0 -0.7566 0.4929
5697000000.0 -0.07655 0.9528
5700000000.0 0.6601 0.6711
5703000000.0 0.9211 -0.1132
5706000000.0 0.504 -0.8167
5709000000.0 -0.3334 -0.9234
5712000000.0 -0.9 -0.3161
5716000000.0 -0.8549 0.534
5719000000.0 -0.1273 1.005
5722000000.0 0.7118 0.7371
5725000000.0 0.9859 -0.07824
5728000000.0 0.6 -0.8278
5731000000.0 -0.2613 -0.9883
5734000000.0 -0.9385 -0.4212
5738000000.0 -0.9478 0.4702
5741000000.0 -0.2884 1.044
5744000000.0 0.6369 0.8771
5747000000.0 1.068 0.04106
5750000000.0 0.7401 -0.7839
5753000000.0 -0.1149 -1.092
5756000000.0 -0.9145 -0.5972
5759000000.0 -1.034 0.2878
5762000000.0 -0.3962 1.052
5766000000.0 0.5315 0.9357
5769000000.0 1.059 0.2381
5772000000.0 0.8372 -0.6642
5775000000.0 0.03019 -1.085
5778000000.0 -0.8507 -0.7417
5781000000.0 -1.101 0.1385
5784000000.0 -0.5646 0.9172
5788000000.0 0.3369 1.033
5791000000.0 1.013 0.3914
5794000000.0 0.9376 -0.5381
5797000000.0 0.2079 -1.051
5800000000.0 -0.6749 -0.8327
5803000000.0 -1.103 -0.02636
5806000000.0 -0.6918 0.836
5809000000.0 0.1643 1.066
5812000000.0 0.9147 0.5279
5816000000.0 1.02 -0.3846
5819000000.0 0.3402 -1.035
5822000000.0 -0.5378 -0.9368
5825000000.0 -1.038 -0.1872
5828000000.0 -0.7605 0.6921
5831000000.0 0.05242 1.002
5834000000.0 0.8143 0.6051
5838000000.0 1.005 -0.2671
5841000000.0 0.4494 -0.9191
5844000000.0 -0.4082 -0.9149
5847000000.0 -0.9492 -0.2451
5850000000.0 -0.7693 0.5832
5853000000.0 -0.02876 0.9777
5856000000.0 0.7633 0.665
5859000000.0 0.9281 -0.1626
5862000000.0 0.4779 -0.872
5866000000.0 -0.34 -0.8561
5869000000.0 -0.9278 -0.2839
5872000000.0 -0.8052 0.5378
5875000000.0 -0.0636 0.9265
5878000000.0 0.6832 0.6347
5881000000.0 0.864 -0.1264
5884000000.0 0.4882 -0.7546
5888000000.0 -0.3192 -0.8441
5891000000.0 -0.835 -0.2744
5894000000.0 -0.7657 0.4952
5897000000.0 -0.08706 0.8639
5900000000.0 0.6195 0.6144
5903000000.0 0.8738 -0.06945
5906000000.0 0.4657 -0.7423
5909000000.0 -0.2796 -0.8231
5912000000.0 -0.8064 -0.3309
5916000000.0 -0.7381 0.4121
5919000000.0 -0.1333 0.8353
5922000000.0 0.5353 0.6543
5925000000.0 0.8574 -0.03108
5928000000.0 0.5291 -0.6683
5931000000.0 -0.2103 -0.8417
5934000000.0 -0.7671 -0.3732
5938000000.0 -0.7805 0.3802
5941000000.0 -0.2214 0.8547
5944000000.0 0.4746 0.7506
5947000000.0 0.9029 0.06664
5950000000.0 0.625 -0.6326
5953000000.0 -0.1234 -0.9063
5956000000.0 -0.7315 -0.5077
5959000000.0 -0.8453 0.2751
5962000000.0 -0.3693 0.8282
5966000000.0 0.3942 0.8256
5969000000.0 0.8789 0.2373
5972000000.0 0.7367 -0.5688
5975000000.0 0.04978 -0.944
5978000000.0 -0.6698 -0.6349
5981000000.0 -0.9738 0.09969
5984000000.0 -0.5085 0.7962
5988000000.0 0.2787 0.8884
5991000000.0 0.899 0.3911
5994000000.0 0.8331 -0.4331
5997000000.0 0.2147 -0.9556
6000000000.0 -0.617 -0.796
6003000000.0 -1.026 -0.04133
6006000000.0 -0.6469 0.7466
6009000000.0 0.1864 0.9496
6012000000.0 0.8483 0.5392
6016000000.0 0.9475 -0.3264
6019000000.0 0.3222 -0.9166
6022000000.0 -0.5254 -0.8793
6025000000.0 -0.9705 -0.1688
6028000000.0 -0.7343 0.6691
6031000000.0 0.05047 1.014
6034000000.0 0.7874 0.6164
6038000000.0 0.9893 -0.2227
6041000000.0 0.4321 -0.8849
6044000000.0 -0.4189 -0.9114
6047000000.0 -0.9741 -0.2754
6050000000.0 -0.8051 0.5795
6053000000.0 -0.02019 0.9924
6056000000.0 0.736 0.6603
6059000000.0 0.9519 -0.1592
6062000000.0 0.481 -0.8148
6066000000.0 -0.341 -0.9085
6069000000.0 -0.8728 -0.3097
6072000000.0 -0.8044 0.5322
6075000000.0 -0.099 0.9094
6078000000.0 0.6414 0.6373
6081000000.0 0.9107 -0.09218
6084000000.0 0.5038 -0.7731
6088000000.0 -0.2723 -0.8586
6091000000.0 -0.8269 -0.3058
6094000000.0 -0.762 0.4084
6097000000.0 -0.1118 0.8931
6100000000.0 0.5729 0.6331
6103000000.0 0.8956 -0.02715
6106000000.0 0.5206 -0.7038
6109000000.0 -0.2628 -0.8257
6112000000.0 -0.7843 -0.3471
6116000000.0 -0.7735 0.3851
6119000000.0 -0.1599 0.8475
6122000000.0 0.5553 0.6729
6125000000.0 0.852 -0.0377
6128000000.0 0.5346 -0.6857
6131000000.0 -0.1871 -0.8287
6134000000.0 -0.7888 -0.3455
6138000000.0 -0.8063 0.3636
6141000000.0 -0.1716 0.8593
6144000000.0 0.4848 0.6881
6147000000.0 0.8586 0.02657
6150000000.0 0.5757 -0.658
6153000000.0 -0.1567 -0.8736
6156000000.0 -0.7494 -0.4266
6159000000.0 -0.8294 0.2944
6162000000.0 -0.2534 0.8411
6166000000.0 0.5016 0.7544
6169000000.0 0.8983 0.09802
6172000000.0 0.6516 -0.6103
6175000000.0 -0.09073 -0.9286
6178000000.0 -0.7432 -0.5188
6181000000.0 -0.8757 0.2578
6184000000.0 -0.3598 0.8687
6188000000.0 0.4283 0.8146
6191000000.0 0.8976 0.1419
6194000000.0 0.7081 -0.5997
6197000000.0 -0.03432 -0.8655
6200000000.0 -0.6842 -0.5731
6203000000.0 -0.8844 0.1923
6206000000.0 -0.4364 0.8275
6209000000.0 0.348 0.8685
6212000000.0 0.898 0.2522
6216000000.0 0.7911 -0.5095
6219000000.0 0.06208 -0.9273
6222000000.0 -0.6192 -0.6508
6225000000.0 -0.8936 0.06961
6228000000.0 -0.4932 0.7502
6231000000.0 0.2534 0.8693
6234000000.0 0.8066 0.3596
6238000000.0 0.7764 -0.4033
6241000000.0 0.1988 -0.8638
6244000000.0 -0.5368 -0.6872
6247000000.0 -0.8628 -0.01622
6250000000.0 -0.5654 0.6509
6253000000.0 0.09195 0.817
6256000000.0 0.7287 0.4471
6259000000.0 0.7868 -0.2706
6262000000.0 0.3046 -0.7721
