! Created with skrf 1.8.0 (http://scikit-rf.org).
# Hz S RI R 50.0 
!freq ReS11 ImS11
4000000000.0 -0.2143 -1.487
4003000000.0 -1.306 -0.757
4006000000.0 -1.439 0.5212
4009000000.0 -0.4702 1.457
4012000000.0 0.8115 1.293
4016000000.0 1.511 0.1624
4019000000.0 1.138 -1.086
4022000000.0 -0.1294 -1.554
4025000000.0 -1.357 -0.8593
4028000000.0 -1.518 0.4988
4031000000.0 -0.5894 1.498
4034000000.0 0.8641 1.442
4038000000.0 1.61 0.206
4041000000.0 1.175 -1.147
4044000000.0 -0.1638 -1.626
4047000000.0 -1.328 -0.8747
4050000000.0 -1.572 0.5137
4053000000.0 -0.6381 1.475
4056000000.0 0.7835 1.423
4059000000.0 1.601 0.2581
4062000000.0 1.247 -1.063
4066000000.0 -0.04254 -1.608
4069000000.0 -1.216 -1.01
4072000000.0 -1.622 0.3321
4075000000.0 -0.7885 1.441
4078000000.0 0.6073 1.523
4081000000.0 1.598 0.514
4084000000.0 1.417 -0.8745
4088000000.0 0.166 -1.64
4091000000.0 -1.169 -1.19
4094000000.0 -1.666 0.1409
4097000000.0 -0.9648 1.346
4100000000.0 0.3897 1.593
4103000000.0 1.441 0.6901
4106000000.0 1.408 -0.6746
4109000000.0 0.4138 -1.485
4112000000.0 -0.8553 -1.268
4116000000.0 -1.499 -0.1982
4119000000.0 -1.111 1.012
4122000000.0 0.04381 1.494
4125000000.0 1.132 0.9018
4128000000.0 1.472 -0.267
4131000000.0 0.7366 -1.267
4134000000.0 -0.473 -1.395
4138000000.0 -1.368 -0.5789
4141000000.0 -1.329 0.6674
4144000000.0 -0.3341 1.468
4147000000.0 0.8901 1.21
4150000000.0 1.51 0.1113
4153000000.0 1.084 -1.092
4156000000.0 -0.167 -1.486
4159000000.0 -1.26 -0.8449
4162000000.0 -1.453 0.3952
4166000000.0 -0.6175 1.367
4169000000.0 0.6937 1.349
4172000000.0 1.472 0.3487
4175000000.0 1.221 -0.8765
4178000000.0 0.07845 -1.503
4181000000.0 -1.041 -1.068
4184000000.0 -1.5 0.1423
4188000000.0 -0.8546 1.248
4191000000.0 0.428 1.481
4194000000.0 1.416 0.6043
4197000000.0 1.423 -0.7313
4200000000.0 0.304 -1.519
4203000000.0 -1.022 -1.243
4206000000.0 -1.62 0.02418
4209000000.0 -1.015 1.312
4212000000.0 0.4084 1.566
4216000000.0 1.523 0.6697
4219000000.0 1.491 -0.8206
4222000000.0 0.2553 -1.659
4225000000.0 -1.173 -1.217
4228000000.0 -1.676 0.2147
4231000000.0 -0.8484 1.418
4234000000.0 0.6413 1.544
4238000000.0 1.582 0.3982
4241000000.0 1.305 -0.9969
4244000000.0 0.01332 -1.617
4247000000.0 -1.25 -0.9696
4250000000.0 -1.499 0.3725
4253000000.0 -0.6016 1.417
4256000000.0 0.7619 1.356
4259000000.0 1.505 0.2661
4262000000.0 1.073 -1.046
4266000000.0 -0.1557 -1.453
4269000000.0 -1.246 -0.8175
4272000000.0 -1.364 0.4802
4275000000.0 -0.4359 1.405
4278000000.0 0.8129 1.201
4281000000.0 1.426 0.103
4284000000.0 0.9861 -0.9993
4288000000.0 -0.2 -1.398
4291000000.0 -1.18 -0.7083
4294000000.0 -1.249 0.4506
4297000000.0 -0.4325 1.278
4300000000.0 0.6414 1.162
4303000000.0 1.278 0.1746
4306000000.0 0.9665 -0.8499
4309000000.0 -0.06251 -1.308
4312000000.0 -1.021 -0.8016
4316000000.0 -1.259 0.2397
4319000000.0 -0.6596 1.111
4322000000.0 0.4849 1.222
4325000000.0 1.232 0.4403
4328000000.0 1.14 -0.6671
4331000000.0 0.2168 -1.314
4334000000.0 -0.8562 -1.044
4338000000.0 -1.359 0.03177
4341000000.0 -0.8663 1.085
4344000000.0 0.3011 1.434
4347000000.0 1.251 0.6504
4350000000.0 1.356 -0.5396
4353000000.0 0.4367 -1.386
4356000000.0 -0.7587 -1.208
4359000000.0 -1.455 -0.159
4362000000.0 -1.075 1.003
4366000000.0 0.08917 1.438
4369000000.0 1.185 0.8855
4372000000.0 1.448 -0.3519
4375000000.0 0.6707 -1.326
4378000000.0 -0.6436 -1.369
4381000000.0 -1.482 -0.4026
4384000000.0 -1.246 0.8739
4388000000.0 -0.06561 1.548
4391000000.0 1.169 1.015
4394000000.0 1.593 -0.2228
4397000000.0 0.8119 -1.394
4400000000.0 -0.5499 -1.462
4403000000.0 -1.566 -0.4536
4406000000.0 -1.309 0.8998
4409000000.0 -0.07388 1.575
4412000000.0 1.183 1.033
4416000000.0 1.555 -0.2997
4419000000.0 0.6731 -1.382
4422000000.0 -0.6197 -1.377
4425000000.0 -1.448 -0.3534
4428000000.0 -1.139 0.9691
4431000000.0 0.03172 1.433
4434000000.0 1.111 0.8601
4438000000.0 1.389 -0.3489
4441000000.0 0.5573 -1.267
4444000000.0 -0.6678 -1.204
4447000000.0 -1.334 -0.1929
4450000000.0 -0.957 0.9195
4453000000.0 0.1083 1.337
4456000000.0 1.075 0.6921
4459000000.0 1.216 -0.431
4462000000.0 0.3958 -1.178
4466000000.0 -0.7142 -0.9945
4469000000.0 -1.232 -0.0804
4472000000.0 -0.7731 0.9195
4475000000.0 0.2101 1.169
4478000000.0 1.05 0.4996
4481000000.0 1.072 -0.5047
4484000000.0 0.2365 -1.109
4488000000.0 -0.76 -0.8891
4491000000.0 -1.16 -0.02299
4494000000.0 -0.7292 0.8589
4497000000.0 0.2643 1.127
4500000000.0 1.014 0.4872
4503000000.0 0.9736 -0.4595
4506000000.0 0.2635 -1.083
4509000000.0 -0.6815 -0.8703
4512000000.0 -1.142 -0.03471
4516000000.0 -0.7397 0.8642
4519000000.0 0.216 1.126
4522000000.0 0.9928 0.5604
4525000000.0 1.077 -0.4125
4528000000.0 0.3231 -1.088
4531000000.0 -0.6262 -0.9862
4534000000.0 -1.163 -0.1395
4538000000.0 -0.8483 0.8212
4541000000.0 0.1114 1.156
4544000000.0 0.9811 0.6736
4547000000.0 1.158 -0.3336
4550000000.0 0.5034 -1.095
4553000000.0 -0.5484 -1.112
4556000000.0 -1.196 -0.334
4559000000.0 -1.019 0.7451
4562000000.0 -0.08305 1.244
4566000000.0 0.8919 0.8955
4569000000.0 1.271 -0.1232
4572000000.0 0.7645 -1.048
4575000000.0 -0.3373 -1.257
4578000000.0 -1.198 -0.5537
4581000000.0 -1.205 0.5614
4584000000.0 -0.3083 1.322
4588000000.0 0.8083 1.055
4591000000.0 1.356 0.06153
4594000000.0 0.9421 -1.016
4597000000.0 -0.1703 -1.355
4600000000.0 -1.153 -0.7382
4603000000.0 -1.331 0.4672
4606000000.0 -0.4935 1.319
4609000000.0 0.7229 1.228
4612000000.0 1.408 0.2028
4616000000.0 1.046 -0.9152
4619000000.0 -0.04965 -1.399
4622000000.0 -1.132 -0.8136
4625000000.0 -1.33 0.3291
4628000000.0 -0.5813 1.247
4631000000.0 0.5909 1.249
4634000000.0 1.311 0.2892
4638000000.0 1.088 -0.856
4641000000.0 -0.01171 -1.325
4644000000.0 -1.059 -0.8666
4647000000.0 -1.306 0.2913
4650000000.0 -0.57 1.196
4653000000.0 0.5609 1.193
4656000000.0 1.262 0.263
4659000000.0 0.9924 -0.7879
4662000000.0 -0.02085 -1.27
4666000000.0 -0.9747 -0.7581
4669000000.0 -1.212 0.2705
4672000000.0 -0.5129 1.071
4675000000.0 0.5032 1.036
4678000000.0 1.136 0.2127
4681000000.0 0.8836 -0.7226
4684000000.0 -0.0313 -1.11
4688000000.0 -0.8824 -0.7125
4691000000.0 -1.073 0.278
4694000000.0 -0.4732 1.025
4697000000.0 0.4922 0.9898
4700000000.0 1.061 0.2002
4703000000.0 0.8247 -0.6869
4706000000.0 -0.04925 -1.077
4709000000.0 -0.8678 -0.6346
4712000000.0 -1.04 0.2991
4716000000.0 -0.4302 1.021
4719000000.0 0.4844 0.9285
4722000000.0 1.025 0.1981
4725000000.0 0.7828 -0.6953
4728000000.0 -0.06894 -1.031
4731000000.0 -0.825 -0.6581
4734000000.0 -1.047 0.2251
4738000000.0 -0.4811 0.9685
4741000000.0 0.4272 0.9602
4744000000.0 1.025 0.2834
4747000000.0 0.8962 -0.6343
4750000000.0 0.08334 -1.078
4753000000.0 -0.7573 -0.7625
4756000000.0 -1.117 0.0975
4759000000.0 -0.6242 0.9364
4762000000.0 0.3345 1.067
4766000000.0 1.044 0.4798
4769000000.0 1.017 -0.5078
4772000000.0 0.2757 -1.14
4775000000.0 -0.6673 -0.9524
4778000000.0 -1.178 -0.07152
4781000000.0 -0.8394 0.851
4784000000.0 0.1612 1.169
4788000000.0 1.007 0.6918
4791000000.0 1.174 -0.3418
4794000000.0 0.5113 -1.114
4797000000.0 -0.5251 -1.147
4800000000.0 -1.218 -0.3081
4803000000.0 -1.004 0.7264
4806000000.0 -0.1462 1.247
4809000000.0 0.8825 0.9449
4812000000.0 1.274 -0.1102
4816000000.0 0.737 -1.095
4819000000.0 -0.3317 -1.282
4822000000.0 -1.24 -0.552
4825000000.0 -1.265 0.5799
4828000000.0 -0.3131 1.342
4831000000.0 0.8475 1.11
4834000000.0 1.404 0.04827
4838000000.0 0.9114 -1.015
4841000000.0 -0.2438 -1.401
4844000000.0 -1.209 -0.675
4847000000.0 -1.318 0.5119
4850000000.0 -0.4577 1.322
4853000000.0 0.7636 1.152
4856000000.0 1.38 0.1583
4859000000.0 0.9954 -0.9535
4862000000.0 -0.1011 -1.335
4866000000.0 -1.117 -0.7658
4869000000.0 -1.255 0.3613
4872000000.0 -0.5392 1.205
4875000000.0 0.6347 1.191
4878000000.0 1.264 0.2494
4881000000.0 0.9763 -0.8438
4884000000.0 -0.05792 -1.267
4888000000.0 -0.9769 -0.7403
4891000000.0 -1.188 0.2982
4894000000.0 -0.4814 1.072
4897000000.0 0.4918 1.052
4900000000.0 1.111 0.2541
4903000000.0 0.8624 -0.6606
4906000000.0 0.03178 -1.089
4909000000.0 -0.839 -0.6744
4912000000.0 -1.054 0.1664
4916000000.0 -0.4734 0.8985
4919000000.0 0.3841 0.93
4922000000.0 0.9307 0.2725
4925000000.0 0.7823 -0.5476
4928000000.0 0.08941 -0.9612
4931000000.0 -0.648 -0.6731
4934000000.0 -0.9212 0.0705
4938000000.0 -0.5234 0.7736
4941000000.0 0.2761 0.8975
4944000000.0 0.8948 0.3613
4947000000.0 0.8346 -0.4562
4950000000.0 0.1888 -0.9646
4953000000.0 -0.5826 -0.7424
4956000000.0 -0.9448 0.02139
4959000000.0 -0.6251 0.769
4962000000.0 0.2272 0.9458
4966000000.0 0.8847 0.4348
4969000000.0 0.9054 -0.4119
4972000000.0 0.26 -0.963
4975000000.0 -0.5964 -0.8157
4978000000.0 -1.026 -0.07225
4981000000.0 -0.7184 0.764
4984000000.0 0.1322 1.034
4988000000.0 0.8708 0.5951
4991000000.0 1.036 -0.3457
4994000000.0 0.4302 -1.004
4997000000.0 -0.5157 -0.9817
5000000000.0 -1.124 -0.2657
5003000000.0 -0.9165 0.7318
5006000000.0 -0.0266 1.19
5009000000.0 0.9213 0.7983
5012000000.0 1.201 -0.2081
5016000000.0 0.6069 -1.054
5019000000.0 -0.4282 -1.16
5022000000.0 -1.182 -0.387
5025000000.0 -1.075 0.6867
5028000000.0 -0.17 1.264
5031000000.0 0.8733 0.9366
5034000000.0 1.277 -0.03701
5038000000.0 0.7565 -1.042
5041000000.0 -0.2821 -1.253
5044000000.0 -1.176 -0.5823
5047000000.0 -1.171 0.4979
5050000000.0 -0.3697 1.244
5053000000.0 0.7435 1.082
5056000000.0 1.271 0.138
5059000000.0 0.9358 -0.8781
5062000000.0 -0.1015 -1.325
5066000000.0 -1.031 -0.753
5069000000.0 -1.259 0.334
5072000000.0 -0.5366 1.161
5075000000.0 0.5474 1.15
5078000000.0 1.247 0.3034
5081000000.0 0.9946 -0.7487
5084000000.0 0.1037 -1.232
5088000000.0 -0.8993 -0.8533
5091000000.0 -1.155 0.1332
5094000000.0 -0.6222 1.0
5097000000.0 0.3476 1.13
5100000000.0 1.064 0.4247
5103000000.0 0.9858 -0.5124
5106000000.0 0.2486 -1.077
5109000000.0 -0.6722 -0.8429
5112000000.0 -1.051 -0.07132
5116000000.0 -0.745 0.7686
5119000000.0 0.1382 1.093
5122000000.0 0.8783 0.5797
5125000000.0 0.9609 -0.324
5128000000.0 0.4085 -0.9195
5131000000.0 -0.485 -0.9057
5134000000.0 -0.9635 -0.1792
5138000000.0 -0.7413 0.6333
5141000000.0 0.01258 0.9975
5144000000.0 0.7529 0.6222
5147000000.0 0.9617 -0.1896
5150000000.0 0.4303 -0.8093
5153000000.0 -0.3433 -0.8572
5156000000.0 -0.9048 -0.2567
5159000000.0 -0.7362 0.5443
5162000000.0 -0.03961 0.9241
5166000000.0 0.6567 0.6312
5169000000.0 0.9135 -0.1368
5172000000.0 0.4676 -0.7488
5175000000.0 -0.2734 -0.8905
5178000000.0 -0.855 -0.3169
5181000000.0 -0.7859 0.4757
5184000000.0 -0.09671 0.9274
5188000000.0 0.6331 0.6332
5191000000.0 0.931 -0.09658
5194000000.0 0.5018 -0.7883
5197000000.0 -0.302 -0.8944
5200000000.0 -0.8621 -0.3336
5203000000.0 -0.8107 0.4926
5206000000.0 -0.1411 0.9336
5209000000.0 0.6521 0.6878
5212000000.0 0.947 -0.07056
5216000000.0 0.5482 -0.8026
5219000000.0 -0.3045 -0.9437
5222000000.0 -0.926 -0.3804
5225000000.0 -0.8723 0.4655
5228000000.0 -0.1879 1.039
5231000000.0 0.6486 0.811
5234000000.0 1.04 0.001717
5238000000.0 0.6798 -0.7849
5241000000.0 -0.1854 -1.031
5244000000.0 -0.95 -0.5147
5247000000.0 -0.9946 0.402
5250000000.0 -0.315 1.043
5253000000.0 0.5754 0.8849
5256000000.0 1.086 0.1478
5259000000.0 0.7854 -0.7344
5262000000.0 -0.06108 -1.077
5266000000.0 -0.8678 -0.6485
5269000000.0 -1.044 0.2554
5272000000.0 -0.4818 0.9654
5275000000.0 0.4268 0.9914
5278000000.0 1.058 0.3359
5281000000.0 0.9507 -0.5929
5284000000.0 0.1939 -1.055
5288000000.0 -0.7359 -0.8302
5291000000.0 -1.105 0.0006
5294000000.0 -0.6947 0.852
5297000000.0 0.1939 1.094
5300000000.0 0.9436 0.5391
5303000000.0 1.066 -0.3502
5306000000.0 0.403 -1.063
5309000000.0 -0.56 -1.01
5312000000.0 -1.101 -0.225
5316000000.0 -0.9046 0.6932
5319000000.0 -0.05314 1.136
5322000000.0 0.8977 0.7511
5325000000.0 1.127 -0.1791
5328000000.0 0.5948 -0.9778
5331000000.0 -0.4107 -1.08
5334000000.0 -1.074 -0.3799
5338000000.0 -0.9821 0.5606
5341000000.0 -0.1804 1.119
5344000000.0 0.7437 0.8351
5347000000.0 1.112 -0.07317
5350000000.0 0.6884 -0.8829
5353000000.0 -0.2639 -1.067
5356000000.0 -0.9771 -0.4761
5359000000.0 -1.003 0.4778
5362000000.0 -0.2303 1.044
5366000000.0 0.6454 0.8574
5369000000.0 1.064 0.02953
5372000000.0 0.6703 -0.8097
5375000000.0 -0.2103 -1.02
5378000000.0 -0.9016 -0.4576
5381000000.0 -0.9099 0.4273
5384000000.0 -0.2339 0.9652
5388000000.0 0.5988 0.7648
5391000000.0 0.9772 0.0265
5394000000.0 0.5896 -0.7508
5397000000.0 -0.2137 -0.9064
5400000000.0 -0.82 -0.3925
5403000000.0 -0.8322 0.3937
5406000000.0 -0.1921 0.8471
5409000000.0 0.5765 0.6916
5412000000.0 0.8744 -0.00569
5416000000.0 0.5337 -0.6841
5419000000.0 -0.1882 -0.8502
5422000000.0 -0.8009 -0.3718
5425000000.0 -0.7692 0.3857
5428000000.0 -0.1651 0.8815
5431000000.0 0.5825 0.6624
5434000000.0 0.8646 0.005428
5438000000.0 0.5205 -0.7102
5441000000.0 -0.1907 -0.8337
5444000000.0 -0.7908 -0.381
5447000000.0 -0.7982 0.4226
5450000000.0 -0.178 0.8721
5453000000.0 0.5559 0.688
5456000000.0 0.8995 0.02298
5459000000.0 0.5928 -0.7018
5462000000.0 -0.1851 -0.8661
5466000000.0 -0.7966 -0.4508
5469000000.0 -0.852 0.3227
5472000000.0 -0.2861 0.8804
5475000000.0 0.483 0.793
5478000000.0 0.9578 0.1236
5481000000.0 0.7123 -0.5915
5484000000.0 -0.02403 -0.9431
5488000000.0 -0.7418 -0.6268
5491000000.0 -0.9629 0.1763
5494000000.0 -0.4912 0.8624
5497000000.0 0.345 0.9508
5500000000.0 1.0 0.3429
5503000000.0 0.8524 -0.5347
5506000000.0 0.1444 -1.014
5509000000.0 -0.6802 -0.7741
5512000000.0 -1.026 0.01917
5516000000.0 -0.6928 0.8251
5519000000.0 0.1838 1.016
5522000000.0 0.9445 0.4892
5525000000.0 1.011 -0.3869
5528000000.0 0.3651 -1.002
5531000000.0 -0.5239 -0.9155
5534000000.0 -1.063 -0.1841
5538000000.0 -0.8095 0.7049
5541000000.0 0.004235 1.052
5544000000.0 0.8111 0.706
5547000000.0 1.031 -0.1799
5550000000.0 0.5344 -0.9281
5553000000.0 -0.3976 -0.9991
5556000000.0 -1.004 -0.3205
5559000000.0 -0.8951 0.5594
5562000000.0 -0.1379 1.042
5566000000.0 0.6991 0.7798
5569000000.0 1.03 -0.03724
5572000000.0 0.6103 -0.8248
5575000000.0 -0.2284 -0.9935
5578000000.0 -0.9067 -0.4371
5581000000.0 -0.8675 0.4202
5584000000.0 -0.2595 0.9655
5588000000.0 0.5429 0.7732
5591000000.0 0.9764 0.05941
5594000000.0 0.6271 -0.6864
5597000000.0 -0.1337 -0.9261
5600000000.0 -0.7859 -0.4981
5603000000.0 -0.8577 0.2817
5606000000.0 -0.3075 0.8267
5609000000.0 0.4572 0.7387
5612000000.0 0.8909 0.1314
5616000000.0 0.6336 -0.5972
5619000000.0 -0.08353 -0.8741
5622000000.0 -0.7224 -0.4536
5625000000.0 -0.8239 0.2261
5628000000.0 -0.3222 0.7767
5631000000.0 0.4133 0.7464
5634000000.0 0.8128 0.1464
5638000000.0 0.6252 -0.546
5641000000.0 -0.03886 -0.8272
5644000000.0 -0.6868 -0.4949
5647000000.0 -0.8212 0.1962
5650000000.0 -0.3249 0.7704
5653000000.0 0.3984 0.756
5656000000.0 0.8046 0.1527
5659000000.0 0.6699 -0.5413
5662000000.0 -0.04246 -0.8834
5666000000.0 -0.7199 -0.5197
5669000000.0 -0.8472 0.2009
5672000000.0 -0.3729 0.8108
5675000000.0 0.382 0.8017
5678000000.0 0.8731 0.2179
5681000000.0 0.7294 -0.5829
5684000000.0 0.006593 -0.9402
5688000000.0 -0.7459 -0.5932
5691000000.0 -0.9512 0.2017
5694000000.0 -0.4294 0.8774
5697000000.0 0.4419 0.8796
5700000000.0 0.9478 0.2223
5703000000.0 0.8199 -0.6017
5706000000.0 0.05387 -1.047
5709000000.0 -0.7515 -0.7214
5712000000.0 -1.075 0.1646
5716000000.0 -0.5583 0.8629
5719000000.0 0.3576 1.008
5722000000.0 0.989 0.3403
5725000000.0 0.9378 -0.5124
5728000000.0 0.1564 -1.086
5731000000.0 -0.7064 -0.7867
5734000000.0 -1.107 -0.0007628
5738000000.0 -0.7095 0.8382
5741000000.0 0.2195 1.084
5744000000.0 0.9681 0.4927
5747000000.0 1.038 -0.3905
5750000000.0 0.3248 -1.065
5753000000.0 -0.6022 -0.9365
5756000000.0 -1.11 -0.1382
5759000000.0 -0.8406 0.7591
5762000000.0 0.05524 1.117
5766000000.0 0.8868 0.7021
5769000000.0 1.071 -0.2476
5772000000.0 0.4824 -1.023
5775000000.0 -0.4558 -1.003
5778000000.0 -1.081 -0.3341
5781000000.0 -0.9335 0.5725
5784000000.0 -0.1113 1.067
5788000000.0 0.741 0.78
5791000000.0 1.026 -0.09129
5794000000.0 0.6137 -0.8917
5797000000.0 -0.2712 -1.052
5800000000.0 -0.9891 -0.467
5803000000.0 -0.9354 0.455
5806000000.0 -0.2504 1.018
5809000000.0 0.6605 0.828
5812000000.0 1.032 0.06376
5816000000.0 0.6843 -0.7596
5819000000.0 -0.1489 -1.006
5822000000.0 -0.858 -0.5346
5825000000.0 -0.953 0.331
5828000000.0 -0.288 0.9776
5831000000.0 0.5115 0.8462
5834000000.0 0.986 0.1354
5838000000.0 0.6962 -0.6733
5841000000.0 -0.04594 -0.9595
5844000000.0 -0.7971 -0.5346
5847000000.0 -0.9208 0.2595
5850000000.0 -0.3409 0.8508
5853000000.0 0.4588 0.7999
5856000000.0 0.9066 0.1507
5859000000.0 0.6801 -0.579
5862000000.0 -0.03298 -0.9297
5866000000.0 -0.7497 -0.5226
5869000000.0 -0.8563 0.2239
5872000000.0 -0.315 0.816
5875000000.0 0.4118 0.7803
5878000000.0 0.8794 0.1701
5881000000.0 0.6919 -0.5477
5884000000.0 -0.01768 -0.8561
5888000000.0 -0.6951 -0.5084
5891000000.0 -0.8475 0.207
5894000000.0 -0.3761 0.7923
5897000000.0 0.3543 0.8057
5900000000.0 0.7932 0.2275
5903000000.0 0.6773 -0.5292
5906000000.0 0.02025 -0.8412
5909000000.0 -0.665 -0.561
5912000000.0 -0.8776 0.1519
5916000000.0 -0.4281 0.74
5919000000.0 0.3465 0.8378
5922000000.0 0.8468 0.304
5925000000.0 0.7578 -0.4697
5928000000.0 0.1132 -0.8594
5931000000.0 -0.5743 -0.6652
5934000000.0 -0.8887 0.05415
5938000000.0 -0.5528 0.7004
5941000000.0 0.2253 0.8645
5944000000.0 0.8355 0.407
5947000000.0 0.8375 -0.3934
5950000000.0 0.2631 -0.8895
5953000000.0 -0.5298 -0.7727
5956000000.0 -0.9158 -0.1064
5959000000.0 -0.674 0.6624
5962000000.0 0.06478 0.9452
5966000000.0 0.7671 0.5092
5969000000.0 0.9291 -0.2628
5972000000.0 0.4288 -0.8626
5975000000.0 -0.4179 -0.893
5978000000.0 -0.9126 -0.2217
5981000000.0 -0.7889 0.5515
5984000000.0 -0.1174 0.9921
5988000000.0 0.6851 0.6797
5991000000.0 0.9994 -0.1208
5994000000.0 0.5609 -0.8652
5997000000.0 -0.2913 -0.9633
6000000000.0 -0.9676 -0.3799
6003000000.0 -0.888 0.4666
6006000000.0 -0.2031 0.9909
6009000000.0 0.6433 0.7656
6012000000.0 0.9711 -0.02809
6016000000.0 0.6197 -0.7832
6019000000.0 -0.1975 -0.9783
6022000000.0 -0.8885 -0.48
6025000000.0 -0.9152 0.3831
6028000000.0 -0.2764 0.9219
6031000000.0 0.5542 0.8058
6034000000.0 0.9538 0.0888
6038000000.0 0.6672 -0.7118
6041000000.0 -0.1052 -0.9313
6044000000.0 -0.7808 -0.5202
6047000000.0 -0.8786 0.3088
6050000000.0 -0.3571 0.8669
6053000000.0 0.4613 0.7888
6056000000.0 0.9228 0.131
6059000000.0 0.6695 -0.6387
6062000000.0 -0.0669 -0.9078
6066000000.0 -0.7326 -0.5104
6069000000.0 -0.8594 0.2583
6072000000.0 -0.3114 0.8244
6075000000.0 0.4158 0.7819
6078000000.0 0.8717 0.1468
6081000000.0 0.6668 -0.5651
6084000000.0 -0.04526 -0.8558
6088000000.0 -0.6616 -0.5181
6091000000.0 -0.8484 0.2116
6094000000.0 -0.3995 0.7778
6097000000.0 0.3823 0.7805
6100000000.0 0.8183 0.1981
6103000000.0 0.697 -0.5327
6106000000.0 0.01959 -0.8826
6109000000.0 -0.6733 -0.5488
6112000000.0 -0.8594 0.179
6116000000.0 -0.4024 0.767
6119000000.0 0.3177 0.8115
6122000000.0 0.8427 0.2467
6125000000.0 0.7067 -0.5142
6128000000.0 0.06482 -0.8843
6131000000.0 -0.6257 -0.5892
6134000000.0 -0.8981 0.1507
6138000000.0 -0.4388 0.7855
6141000000.0 0.2781 0.8434
6144000000.0 0.8861 0.3209
6147000000.0 0.754 -0.4713
6150000000.0 0.1041 -0.8995
6153000000.0 -0.6063 -0.6673
6156000000.0 -0.9306 0.04884
6159000000.0 -0.5559 0.7585
6162000000.0 0.2211 0.9302
6166000000.0 0.8799 0.402
6169000000.0 0.87 -0.4646
6172000000.0 0.2074 -0.911
6175000000.0 -0.5766 -0.7585
6178000000.0 -0.9662 -0.06584
6181000000.0 -0.6227 0.7277
6184000000.0 0.1915 0.9265
6188000000.0 0.8552 0.4608
6191000000.0 0.8963 -0.3305
6194000000.0 0.2646 -0.8785
6197000000.0 -0.5247 -0.7914
6200000000.0 -0.9385 -0.09812
6203000000.0 -0.6763 0.6784
6206000000.0 0.08816 0.911
6209000000.0 0.7917 0.5657
6212000000.0 0.877 -0.2504
6216000000.0 0.388 -0.855
6219000000.0 -0.4345 -0.8302
6222000000.0 -0.9129 -0.2428
6225000000.0 -0.7261 0.5147
6228000000.0 -0.02 0.8812
6231000000.0 0.6407 0.5922
6234000000.0 0.9038 -0.1144
6238000000.0 0.4795 -0.777
6241000000.0 -0.3175 -0.8557
6244000000.0 -0.8555 -0.3297
6247000000.0 -0.7337 0.4453
6250000000.0 -0.148 0.8186
6253000000.0 0.5652 0.6773
6256000000.0 0.8596 0.0175
6259000000.0 0.5244 -0.6304
6262000000.0 -0.1101 -0.7964
6266000000.0 -0.7085 -0.3909
6269000000.0 -0.7956 0.3034
