! Created with skrf 1.8.0 (http://scikit-rf.org).
# Hz S RI R 50.0 
!freq ReS11 ImS11
4000000000.0 -0.1699 -1.485
4003000000.0 -1.264 -0.8359
4006000000.0 -1.448 0.4957
4009000000.0 -0.5214 1.395
4012000000.0 0.7765 1.314
4016000000.0 1.562 0.1883
4019000000.0 1.146 -1.071
4022000000.0 -0.125 -1.562
4025000000.0 -1.314 -0.891
4028000000.0 -1.521 0.4706
4031000000.0 -0.6019 1.437
4034000000.0 0.823 1.412
4038000000.0 1.628 0.2287
4041000000.0 1.182 -1.111
4044000000.0 -0.1053 -1.641
4047000000.0 -1.322 -0.9683
4050000000.0 -1.582 0.4456
4053000000.0 -0.6163 1.481
4056000000.0 0.7323 1.437
4059000000.0 1.541 0.3352
4062000000.0 1.246 -0.9624
4066000000.0 -0.03226 -1.636
4069000000.0 -1.195 -1.075
4072000000.0 -1.597 0.2579
4075000000.0 -0.8216 1.398
4078000000.0 0.5675 1.553
4081000000.0 1.59 0.5697
4084000000.0 1.408 -0.8377
4088000000.0 0.2539 -1.637
4091000000.0 -1.127 -1.242
4094000000.0 -1.653 0.056
4097000000.0 -1.014 1.334
4100000000.0 0.3925 1.574
4103000000.0 1.435 0.7468
4106000000.0 1.453 -0.604
4109000000.0 0.4813 -1.496
4112000000.0 -0.8327 -1.334
4116000000.0 -1.492 -0.1953
4119000000.0 -1.132 0.9746
4122000000.0 0.05463 1.513
4125000000.0 1.16 0.9966
4128000000.0 1.478 -0.2436
4131000000.0 0.8055 -1.252
4134000000.0 -0.4072 -1.416
4138000000.0 -1.391 -0.5942
4141000000.0 -1.33 0.6623
4144000000.0 -0.4047 1.452
4147000000.0 0.8399 1.239
4150000000.0 1.523 0.1672
4153000000.0 1.098 -1.079
4156000000.0 -0.1036 -1.525
4159000000.0 -1.234 -0.9094
4162000000.0 -1.495 0.399
4166000000.0 -0.6681 1.372
4169000000.0 0.6296 1.393
4172000000.0 1.452 0.3865
4175000000.0 1.264 -0.8182
4178000000.0 0.168 -1.52
4181000000.0 -1.059 -1.128
4184000000.0 -1.49 0.1009
4188000000.0 -0.8984 1.26
4191000000.0 0.3458 1.503
4194000000.0 1.384 0.6434
4197000000.0 1.406 -0.6457
4200000000.0 0.3674 -1.534
4203000000.0 -0.9438 -1.315
4206000000.0 -1.628 -0.06584
4209000000.0 -1.06 1.261
4212000000.0 0.3274 1.643
4216000000.0 1.479 0.6979
4219000000.0 1.52 -0.7196
4222000000.0 0.3511 -1.663
4225000000.0 -1.119 -1.311
4228000000.0 -1.658 0.08938
4231000000.0 -0.9571 1.38
4234000000.0 0.5223 1.59
4238000000.0 1.567 0.5167
4241000000.0 1.355 -0.8888
4244000000.0 0.1366 -1.609
4247000000.0 -1.173 -1.091
4250000000.0 -1.57 0.3097
4253000000.0 -0.6645 1.406
4256000000.0 0.6753 1.404
4259000000.0 1.524 0.3244
4262000000.0 1.157 -0.9442
4266000000.0 -0.06786 -1.528
4269000000.0 -1.242 -0.8779
4272000000.0 -1.435 0.4044
4275000000.0 -0.5464 1.344
4278000000.0 0.7366 1.251
4281000000.0 1.435 0.1747
4284000000.0 1.017 -1.015
4288000000.0 -0.1279 -1.364
4291000000.0 -1.17 -0.7577
4294000000.0 -1.305 0.3977
4297000000.0 -0.4814 1.282
4300000000.0 0.6522 1.154
4303000000.0 1.31 0.2709
4306000000.0 1.038 -0.7876
4309000000.0 0.04041 -1.303
4312000000.0 -0.9582 -0.872
4316000000.0 -1.26 0.2083
4319000000.0 -0.6875 1.116
4322000000.0 0.3861 1.271
4325000000.0 1.215 0.4764
4328000000.0 1.186 -0.6047
4331000000.0 0.318 -1.334
4334000000.0 -0.853 -1.074
4338000000.0 -1.423 -0.06858
4341000000.0 -0.9356 1.029
4344000000.0 0.2154 1.408
4347000000.0 1.209 0.7415
4350000000.0 1.347 -0.4699
4353000000.0 0.5042 -1.357
4356000000.0 -0.7004 -1.271
4359000000.0 -1.371 -0.2653
4362000000.0 -1.081 0.9719
4366000000.0 -0.008013 1.459
4369000000.0 1.14 0.9226
4372000000.0 1.471 -0.2342
4375000000.0 0.695 -1.264
4378000000.0 -0.5497 -1.378
4381000000.0 -1.448 -0.4715
4384000000.0 -1.297 0.8032
4388000000.0 -0.1775 1.535
4391000000.0 1.094 1.126
4394000000.0 1.543 -0.1183
4397000000.0 0.876 -1.322
4400000000.0 -0.4802 -1.51
4403000000.0 -1.46 -0.583
4406000000.0 -1.361 0.8288
4409000000.0 -0.1938 1.523
4412000000.0 1.14 1.139
4416000000.0 1.524 -0.1804
4419000000.0 0.8131 -1.302
4422000000.0 -0.5242 -1.421
4425000000.0 -1.456 -0.4716
4428000000.0 -1.246 0.8114
4431000000.0 -0.1086 1.461
4434000000.0 1.053 0.9711
4438000000.0 1.393 -0.2166
4441000000.0 0.6789 -1.246
4444000000.0 -0.5297 -1.258
4447000000.0 -1.326 -0.3229
4450000000.0 -1.043 0.8424
4453000000.0 0.03994 1.367
4456000000.0 1.034 0.7986
4459000000.0 1.242 -0.3158
4462000000.0 0.4513 -1.192
4466000000.0 -0.6131 -1.072
4469000000.0 -1.211 -0.1483
4472000000.0 -0.8597 0.8413
4475000000.0 0.1427 1.215
4478000000.0 0.9854 0.6045
4481000000.0 1.109 -0.4256
4484000000.0 0.3586 -1.119
4488000000.0 -0.6364 -0.9386
4491000000.0 -1.127 -0.09627
4494000000.0 -0.7594 0.8416
4497000000.0 0.1901 1.151
4500000000.0 0.9694 0.5796
4503000000.0 1.01 -0.387
4506000000.0 0.3293 -1.013
4509000000.0 -0.6215 -0.9438
4512000000.0 -1.105 -0.1185
4516000000.0 -0.7981 0.791
4519000000.0 0.1251 1.114
4522000000.0 0.9263 0.6274
4525000000.0 1.087 -0.3272
4528000000.0 0.4362 -1.08
4531000000.0 -0.561 -0.9927
4534000000.0 -1.161 -0.1924
4538000000.0 -0.8948 0.7561
4541000000.0 0.03877 1.168
4544000000.0 0.9435 0.7524
4547000000.0 1.164 -0.2342
4550000000.0 0.5466 -1.051
4553000000.0 -0.4743 -1.126
4556000000.0 -1.151 -0.38
4559000000.0 -1.033 0.6416
4562000000.0 -0.1751 1.21
4566000000.0 0.8396 0.934
4569000000.0 1.262 -0.03938
4572000000.0 0.7671 -1.012
4575000000.0 -0.2689 -1.264
4578000000.0 -1.149 -0.6188
4581000000.0 -1.22 0.5065
4584000000.0 -0.3951 1.259
4588000000.0 0.7654 1.12
4591000000.0 1.341 0.1501
4594000000.0 1.016 -0.9477
4597000000.0 -0.1116 -1.387
4600000000.0 -1.142 -0.8131
4603000000.0 -1.33 0.3554
4606000000.0 -0.5686 1.271
4609000000.0 0.6141 1.284
4612000000.0 1.385 0.2981
4616000000.0 1.108 -0.8711
4619000000.0 0.04341 -1.392
4622000000.0 -1.077 -0.907
4625000000.0 -1.411 0.2744
4628000000.0 -0.6623 1.2
4631000000.0 0.5061 1.308
4634000000.0 1.312 0.4021
4638000000.0 1.13 -0.7792
4641000000.0 0.1271 -1.364
4644000000.0 -0.9955 -0.9174
4647000000.0 -1.347 0.1861
4650000000.0 -0.6618 1.149
4653000000.0 0.48 1.255
4656000000.0 1.232 0.3745
4659000000.0 1.053 -0.7142
4662000000.0 0.122 -1.28
4666000000.0 -0.9035 -0.8275
4669000000.0 -1.238 0.1695
4672000000.0 -0.5882 1.091
4675000000.0 0.4587 1.09
4678000000.0 1.106 0.341
4681000000.0 0.949 -0.6756
4684000000.0 0.08148 -1.113
4688000000.0 -0.873 -0.7922
4691000000.0 -1.09 0.2049
4694000000.0 -0.5086 0.9456
4697000000.0 0.4212 1.027
4700000000.0 1.077 0.2971
4703000000.0 0.8641 -0.6323
4706000000.0 0.02039 -1.092
4709000000.0 -0.8406 -0.719
4712000000.0 -1.072 0.2136
4716000000.0 -0.4922 0.9614
4719000000.0 0.4236 0.992
4722000000.0 1.034 0.2313
4725000000.0 0.8472 -0.6221
4728000000.0 0.03376 -1.047
4731000000.0 -0.7887 -0.7051
4734000000.0 -1.053 0.1749
4738000000.0 -0.5251 0.9056
4741000000.0 0.4091 0.9867
4744000000.0 0.9801 0.3179
4747000000.0 0.9215 -0.5571
4750000000.0 0.1561 -1.04
4753000000.0 -0.7189 -0.7746
4756000000.0 -1.107 0.02357
4759000000.0 -0.6391 0.8673
4762000000.0 0.2075 1.079
4766000000.0 1.02 0.5245
4769000000.0 1.037 -0.4776
4772000000.0 0.3454 -1.087
4775000000.0 -0.6416 -0.9772
4778000000.0 -1.166 -0.1699
4781000000.0 -0.8981 0.8162
4784000000.0 0.06223 1.17
4788000000.0 0.9596 0.7361
4791000000.0 1.181 -0.2905
4794000000.0 0.5872 -1.096
4797000000.0 -0.4734 -1.133
4800000000.0 -1.194 -0.4189
4803000000.0 -1.074 0.6627
4806000000.0 -0.1531 1.249
4809000000.0 0.8729 0.9443
4812000000.0 1.291 -0.03387
4816000000.0 0.8115 -1.023
4819000000.0 -0.2558 -1.316
4822000000.0 -1.188 -0.6194
4825000000.0 -1.268 0.5107
4828000000.0 -0.4073 1.297
4831000000.0 0.7435 1.156
4834000000.0 1.388 0.1452
4838000000.0 0.9937 -0.9757
4841000000.0 -0.1335 -1.408
4844000000.0 -1.169 -0.7885
4847000000.0 -1.327 0.4045
4850000000.0 -0.5231 1.306
4853000000.0 0.6378 1.211
4856000000.0 1.352 0.2706
4859000000.0 1.046 -0.8601
4862000000.0 -0.03705 -1.339
4866000000.0 -1.043 -0.8391
4869000000.0 -1.277 0.2731
4872000000.0 -0.5877 1.192
4875000000.0 0.5232 1.205
4878000000.0 1.255 0.3208
4881000000.0 1.037 -0.7781
4884000000.0 0.07483 -1.29
4888000000.0 -0.9482 -0.8359
4891000000.0 -1.222 0.2227
4894000000.0 -0.5559 1.06
4897000000.0 0.4376 1.113
4900000000.0 1.097 0.3152
4903000000.0 0.9177 -0.641
4906000000.0 0.07878 -1.087
4909000000.0 -0.7917 -0.7372
4912000000.0 -1.047 0.1357
4916000000.0 -0.5482 0.867
4919000000.0 0.3259 0.9655
4922000000.0 0.9035 0.3268
4925000000.0 0.8761 -0.4643
4928000000.0 0.1571 -0.9341
4931000000.0 -0.6287 -0.7182
4934000000.0 -0.9428 0.05187
4938000000.0 -0.5629 0.7289
4941000000.0 0.2201 0.8971
4944000000.0 0.8409 0.4317
4947000000.0 0.8729 -0.4052
4950000000.0 0.225 -0.9497
4953000000.0 -0.5942 -0.7746
4956000000.0 -0.9586 -0.04623
4959000000.0 -0.6385 0.7172
4962000000.0 0.1574 0.9519
4966000000.0 0.844 0.5099
4969000000.0 0.9473 -0.3599
4972000000.0 0.3283 -0.9317
4975000000.0 -0.5102 -0.8632
4978000000.0 -0.9929 -0.1313
4981000000.0 -0.7611 0.7278
4984000000.0 0.0777 1.046
4988000000.0 0.851 0.6278
4991000000.0 1.039 -0.2608
4994000000.0 0.4798 -0.9855
4997000000.0 -0.4651 -1.002
5000000000.0 -1.078 -0.2987
5003000000.0 -0.9319 0.6462
5006000000.0 -0.1136 1.178
5009000000.0 0.8594 0.8047
5012000000.0 1.21 -0.1504
5016000000.0 0.67 -1.019
5019000000.0 -0.3774 -1.183
5022000000.0 -1.153 -0.4322
5025000000.0 -1.08 0.604
5028000000.0 -0.2433 1.245
5031000000.0 0.8143 0.9708
5034000000.0 1.283 0.003543
5038000000.0 0.8117 -0.957
5041000000.0 -0.2327 -1.257
5044000000.0 -1.139 -0.6654
5047000000.0 -1.227 0.4499
5050000000.0 -0.4583 1.245
5053000000.0 0.6437 1.133
5056000000.0 1.3 0.2274
5059000000.0 1.004 -0.8586
5062000000.0 -0.0484 -1.296
5066000000.0 -1.034 -0.8399
5069000000.0 -1.268 0.288
5072000000.0 -0.6303 1.135
5075000000.0 0.5012 1.173
5078000000.0 1.227 0.376
5081000000.0 1.028 -0.6797
5084000000.0 0.141 -1.232
5088000000.0 -0.8622 -0.9022
5091000000.0 -1.215 0.05885
5094000000.0 -0.6847 0.9548
5097000000.0 0.2849 1.176
5100000000.0 1.056 0.5121
5103000000.0 1.039 -0.451
5106000000.0 0.321 -1.056
5109000000.0 -0.6065 -0.8982
5112000000.0 -1.125 -0.1432
5116000000.0 -0.7713 0.7107
5119000000.0 0.07091 1.058
5122000000.0 0.8223 0.6381
5125000000.0 0.9946 -0.2638
5128000000.0 0.4419 -0.9161
5131000000.0 -0.4307 -0.9616
5134000000.0 -0.9695 -0.2972
5138000000.0 -0.8205 0.5762
5141000000.0 -0.06991 0.9982
5144000000.0 0.727 0.6837
5147000000.0 0.9706 -0.1371
5150000000.0 0.4805 -0.7855
5153000000.0 -0.2779 -0.8727
5156000000.0 -0.8706 -0.3285
5159000000.0 -0.7909 0.4664
5162000000.0 -0.1267 0.8907
5166000000.0 0.6022 0.6633
5169000000.0 0.8742 -0.03319
5172000000.0 0.5536 -0.7368
5175000000.0 -0.2494 -0.8676
5178000000.0 -0.8169 -0.3619
5181000000.0 -0.8032 0.4258
5184000000.0 -0.1787 0.8959
5188000000.0 0.6081 0.7209
5191000000.0 0.9363 -0.02451
5194000000.0 0.5798 -0.728
5197000000.0 -0.2365 -0.9
5200000000.0 -0.8814 -0.3956
5203000000.0 -0.8564 0.4197
5206000000.0 -0.2324 0.929
5209000000.0 0.6032 0.7486
5212000000.0 0.9995 0.01566
5216000000.0 0.618 -0.7749
5219000000.0 -0.2091 -0.9535
5222000000.0 -0.8918 -0.4422
5225000000.0 -0.9375 0.4087
5228000000.0 -0.257 0.9774
5231000000.0 0.5881 0.8224
5234000000.0 1.033 0.07594
5238000000.0 0.6945 -0.7563
5241000000.0 -0.1529 -1.035
5244000000.0 -0.893 -0.5494
5247000000.0 -0.9969 0.3306
5250000000.0 -0.3998 0.984
5253000000.0 0.5023 0.9488
5256000000.0 1.021 0.1958
5259000000.0 0.862 -0.6736
5262000000.0 0.03832 -1.088
5266000000.0 -0.7982 -0.7035
5269000000.0 -1.076 0.1865
5272000000.0 -0.553 0.9563
5275000000.0 0.3507 1.03
5278000000.0 1.023 0.4146
5281000000.0 0.9654 -0.4934
5284000000.0 0.2019 -1.111
5288000000.0 -0.6925 -0.8681
5291000000.0 -1.113 -0.07354
5294000000.0 -0.8024 0.829
5297000000.0 0.1506 1.117
5300000000.0 0.95 0.6123
5303000000.0 1.091 -0.2942
5306000000.0 0.4914 -1.017
5309000000.0 -0.4571 -1.015
5312000000.0 -1.129 -0.3047
5316000000.0 -0.9117 0.669
5319000000.0 -0.09569 1.176
5322000000.0 0.8046 0.8202
5325000000.0 1.18 -0.08317
5328000000.0 0.6554 -0.9152
5331000000.0 -0.3164 -1.091
5334000000.0 -1.027 -0.4843
5338000000.0 -1.009 0.4996
5341000000.0 -0.2819 1.069
5344000000.0 0.7067 0.9015
5347000000.0 1.11 0.07056
5350000000.0 0.738 -0.8064
5353000000.0 -0.1429 -1.079
5356000000.0 -0.949 -0.5599
5359000000.0 -1.019 0.3777
5362000000.0 -0.3634 1.021
5366000000.0 0.5815 0.88
5369000000.0 1.085 0.1217
5372000000.0 0.7761 -0.7327
5375000000.0 -0.08547 -1.043
5378000000.0 -0.8642 -0.5524
5381000000.0 -0.9631 0.3284
5384000000.0 -0.3323 0.9558
5388000000.0 0.5034 0.8137
5391000000.0 0.9524 0.097
5394000000.0 0.6505 -0.6791
5397000000.0 -0.08996 -0.9366
5400000000.0 -0.7916 -0.5163
5403000000.0 -0.8793 0.3101
5406000000.0 -0.2717 0.8499
5409000000.0 0.4858 0.7408
5412000000.0 0.8783 0.09304
5416000000.0 0.6068 -0.6275
5419000000.0 -0.1165 -0.8395
5422000000.0 -0.7491 -0.4426
5425000000.0 -0.7867 0.3045
5428000000.0 -0.2798 0.8422
5431000000.0 0.453 0.7354
5434000000.0 0.8952 0.1079
5438000000.0 0.6234 -0.6405
5441000000.0 -0.09766 -0.8696
5444000000.0 -0.7574 -0.4607
5447000000.0 -0.8325 0.2951
5450000000.0 -0.2931 0.8159
5453000000.0 0.4812 0.7623
5456000000.0 0.878 0.1211
5459000000.0 0.6491 -0.5871
5462000000.0 -0.07987 -0.9099
5466000000.0 -0.7311 -0.4933
5469000000.0 -0.8834 0.2286
5472000000.0 -0.3727 0.8185
5475000000.0 0.4336 0.8669
5478000000.0 0.9013 0.258
5481000000.0 0.7573 -0.5397
5484000000.0 0.0789 -0.9808
5488000000.0 -0.687 -0.631
5491000000.0 -0.9863 0.09183
5494000000.0 -0.5834 0.8167
5497000000.0 0.2345 0.9596
5500000000.0 0.9246 0.3735
5503000000.0 0.9318 -0.4583
5506000000.0 0.2298 -1.013
5509000000.0 -0.5946 -0.8251
5512000000.0 -1.038 -0.04404
5516000000.0 -0.7247 0.7516
5519000000.0 0.07135 1.058
5522000000.0 0.8425 0.5937
5525000000.0 1.014 -0.2508
5528000000.0 0.4551 -0.9539
5531000000.0 -0.426 -0.9255
5534000000.0 -1.013 -0.2704
5538000000.0 -0.8623 0.6171
5541000000.0 -0.1101 1.076
5544000000.0 0.69 0.7465
5547000000.0 1.068 -0.108
5550000000.0 0.6024 -0.9036
5553000000.0 -0.2821 -1.015
5556000000.0 -0.9585 -0.4323
5559000000.0 -0.9518 0.4508
5562000000.0 -0.2387 1.048
5566000000.0 0.6555 0.832
5569000000.0 1.037 0.07616
5572000000.0 0.677 -0.7401
5575000000.0 -0.1587 -1.002
5578000000.0 -0.8481 -0.5443
5581000000.0 -0.938 0.3071
5584000000.0 -0.3763 0.9116
5588000000.0 0.4808 0.8387
5591000000.0 0.928 0.1518
5594000000.0 0.7301 -0.6308
5597000000.0 0.00797 -0.9244
5600000000.0 -0.7433 -0.583
5603000000.0 -0.9078 0.1784
5606000000.0 -0.4065 0.8083
5609000000.0 0.3618 0.8381
5612000000.0 0.8549 0.2196
5616000000.0 0.7265 -0.5042
5619000000.0 0.04521 -0.8723
5622000000.0 -0.6266 -0.5774
5625000000.0 -0.8445 0.1665
5628000000.0 -0.4364 0.7401
5631000000.0 0.2774 0.8225
5634000000.0 0.8306 0.2538
5638000000.0 0.7112 -0.4417
5641000000.0 0.08403 -0.8469
5644000000.0 -0.5896 -0.6016
5647000000.0 -0.8174 0.1052
5650000000.0 -0.4586 0.7256
5653000000.0 0.287 0.7923
5656000000.0 0.8166 0.2782
5659000000.0 0.7302 -0.4827
5662000000.0 0.07834 -0.8877
5666000000.0 -0.6011 -0.6222
5669000000.0 -0.8871 0.1003
5672000000.0 -0.4662 0.765
5675000000.0 0.291 0.8301
5678000000.0 0.8356 0.2753
5681000000.0 0.7945 -0.4966
5684000000.0 0.1173 -0.9352
5688000000.0 -0.6636 -0.6734
5691000000.0 -0.9531 0.08642
5694000000.0 -0.5174 0.787
5697000000.0 0.3055 0.9404
5700000000.0 0.9123 0.3773
5703000000.0 0.8678 -0.4941
5706000000.0 0.161 -1.023
5709000000.0 -0.6676 -0.7673
5712000000.0 -1.051 0.01109
5716000000.0 -0.6424 0.7988
5719000000.0 0.2227 1.046
5722000000.0 0.9337 0.4971
5725000000.0 0.9537 -0.3824
5728000000.0 0.3079 -1.01
5731000000.0 -0.6102 -0.905
5734000000.0 -1.103 -0.1064
5738000000.0 -0.7731 0.7475
5741000000.0 0.06405 1.084
5744000000.0 0.8899 0.6093
5747000000.0 1.043 -0.3073
5750000000.0 0.4371 -1.038
5753000000.0 -0.47 -0.9867
5756000000.0 -1.056 -0.2703
5759000000.0 -0.9267 0.6742
5762000000.0 -0.04861 1.135
5766000000.0 0.8166 0.7645
5769000000.0 1.093 -0.1169
5772000000.0 0.5919 -0.8929
5775000000.0 -0.3054 -1.041
5778000000.0 -1.017 -0.4563
5781000000.0 -0.9615 0.4749
5784000000.0 -0.25 1.056
5788000000.0 0.6582 0.8872
5791000000.0 1.073 0.0613
5794000000.0 0.7408 -0.7858
5797000000.0 -0.1214 -1.058
5800000000.0 -0.9126 -0.5427
5803000000.0 -1.046 0.3506
5806000000.0 -0.3705 1.017
5809000000.0 0.5378 0.9388
5812000000.0 1.066 0.2089
5816000000.0 0.7985 -0.6814
5819000000.0 0.009445 -1.025
5822000000.0 -0.7952 -0.6702
5825000000.0 -0.9686 0.1815
5828000000.0 -0.4326 0.8612
5831000000.0 0.3683 0.9299
5834000000.0 0.9902 0.2719
5838000000.0 0.8162 -0.5586
5841000000.0 0.09729 -0.9684
5844000000.0 -0.7222 -0.6914
5847000000.0 -0.969 0.133
5850000000.0 -0.4448 0.8318
5853000000.0 0.3143 0.8826
5856000000.0 0.9003 0.2776
5859000000.0 0.7625 -0.4743
5862000000.0 0.1027 -0.9692
5866000000.0 -0.6612 -0.6788
5869000000.0 -0.9077 0.1328
5872000000.0 -0.4722 0.7611
5875000000.0 0.31 0.8586
5878000000.0 0.8184 0.2956
5881000000.0 0.7694 -0.4595
5884000000.0 0.1276 -0.8599
5888000000.0 -0.5983 -0.6324
5891000000.0 -0.8752 0.05319
5894000000.0 -0.5365 0.729
5897000000.0 0.2506 0.8419
5900000000.0 0.7967 0.3753
5903000000.0 0.7939 -0.4047
5906000000.0 0.1379 -0.8485
5909000000.0 -0.5773 -0.6622
5912000000.0 -0.884 0.02989
5916000000.0 -0.5253 0.7006
5919000000.0 0.1969 0.8819
5922000000.0 0.7976 0.3767
5925000000.0 0.8138 -0.3237
5928000000.0 0.2468 -0.8277
5931000000.0 -0.4861 -0.7247
5934000000.0 -0.8937 -0.08578
5938000000.0 -0.6191 0.5955
5941000000.0 0.0664 0.8779
5944000000.0 0.7346 0.4848
5947000000.0 0.863 -0.2528
5950000000.0 0.3794 -0.824
5953000000.0 -0.3718 -0.7978
5956000000.0 -0.8914 -0.2392
5959000000.0 -0.7609 0.5351
5962000000.0 -0.05268 0.8868
5966000000.0 0.6847 0.6371
5969000000.0 0.9368 -0.1119
5972000000.0 0.5281 -0.7705
5975000000.0 -0.2961 -0.9161
5978000000.0 -0.8931 -0.4038
5981000000.0 -0.8788 0.4419
5984000000.0 -0.2256 0.953
5988000000.0 0.5704 0.7914
5991000000.0 0.9967 0.05459
5994000000.0 0.6868 -0.7402
5997000000.0 -0.1349 -1.004
6000000000.0 -0.846 -0.5344
6003000000.0 -0.9291 0.3371
6006000000.0 -0.3697 0.9094
6009000000.0 0.4663 0.8878
6012000000.0 0.9524 0.168
6016000000.0 0.7555 -0.6578
6019000000.0 -0.01099 -0.9973
6022000000.0 -0.7781 -0.6427
6025000000.0 -0.9653 0.2086
6028000000.0 -0.4502 0.8753
6031000000.0 0.3746 0.9396
6034000000.0 0.93 0.2617
6038000000.0 0.7934 -0.5541
6041000000.0 0.05562 -0.9729
6044000000.0 -0.7217 -0.6458
6047000000.0 -0.9747 0.1326
6050000000.0 -0.5095 0.816
6053000000.0 0.3181 0.9049
6056000000.0 0.8749 0.3235
6059000000.0 0.7931 -0.4657
6062000000.0 0.1389 -0.9314
6066000000.0 -0.6074 -0.6446
6069000000.0 -0.919 0.08782
6072000000.0 -0.5257 0.731
6075000000.0 0.2402 0.8563
6078000000.0 0.8147 0.3441
6081000000.0 0.7629 -0.4029
6084000000.0 0.163 -0.8774
6088000000.0 -0.5521 -0.6619
6091000000.0 -0.8566 0.01534
6094000000.0 -0.5228 0.6874
6097000000.0 0.2046 0.8418
6100000000.0 0.7771 0.3784
6103000000.0 0.7911 -0.371
6106000000.0 0.2062 -0.8329
6109000000.0 -0.516 -0.6649
6112000000.0 -0.8437 -0.009663
6116000000.0 -0.5645 0.6627
6119000000.0 0.1623 0.8499
6122000000.0 0.7651 0.4039
6125000000.0 0.7839 -0.3353
6128000000.0 0.2202 -0.8381
6131000000.0 -0.5127 -0.6867
6134000000.0 -0.875 -0.06414
6138000000.0 -0.5742 0.6222
6141000000.0 0.1113 0.897
6144000000.0 0.7687 0.4737
6147000000.0 0.8389 -0.2942
6150000000.0 0.3148 -0.8364
6153000000.0 -0.4692 -0.782
6156000000.0 -0.9014 -0.1404
6159000000.0 -0.6765 0.6385
6162000000.0 0.04473 0.9159
6166000000.0 0.7937 0.5704
6169000000.0 0.9104 -0.2548
6172000000.0 0.3834 -0.8443
6175000000.0 -0.4226 -0.8124
6178000000.0 -0.9271 -0.217
6181000000.0 -0.7543 0.5546
6184000000.0 -0.03714 0.9261
6188000000.0 0.7345 0.5831
6191000000.0 0.9215 -0.187
6194000000.0 0.4501 -0.7889
6197000000.0 -0.3437 -0.876
6200000000.0 -0.8578 -0.2952
6203000000.0 -0.8268 0.5004
6206000000.0 -0.1258 0.9516
6209000000.0 0.63 0.6794
6212000000.0 0.9329 -0.06649
6216000000.0 0.5327 -0.7432
6219000000.0 -0.2253 -0.8972
6222000000.0 -0.8289 -0.3743
6225000000.0 -0.8331 0.3642
6228000000.0 -0.2435 0.88
6231000000.0 0.537 0.7534
6234000000.0 0.899 0.05731
6238000000.0 0.6152 -0.6804
6241000000.0 -0.1065 -0.8518
6244000000.0 -0.7593 -0.4505
6247000000.0 -0.7934 0.2595
6250000000.0 -0.3036 0.7754
6253000000.0 0.3792 0.7455
6256000000.0 0.8176 0.2001
6259000000.0 0.6438 -0.4931
6262000000.0 0.04173 -0.8704
6266000000.0 -0.5887 -0.5597
6269000000.0 -0.811 0.1065
