! Created with skrf 1.8.0 (http://scikit-rf.org).
# Hz S RI R 50.0 
!freq ReS11 ImS11
4000000000.0 -0.1679 -1.493
4003000000.0 -1.244 -0.7907
4006000000.0 -1.497 0.5246
4009000000.0 -0.5486 1.401
4012000000.0 0.7938 1.339
4016000000.0 1.531 0.231
4019000000.0 1.122 -1.034
4022000000.0 -0.08736 -1.589
4025000000.0 -1.299 -0.8521
4028000000.0 -1.524 0.4595
4031000000.0 -0.599 1.454
4034000000.0 0.8112 1.406
4038000000.0 1.575 0.245
4041000000.0 1.211 -1.108
4044000000.0 -0.08904 -1.599
4047000000.0 -1.35 -0.9401
4050000000.0 -1.562 0.4342
4053000000.0 -0.6486 1.484
4056000000.0 0.7023 1.398
4059000000.0 1.555 0.3217
4062000000.0 1.283 -0.9851
4066000000.0 0.01796 -1.635
4069000000.0 -1.231 -1.055
4072000000.0 -1.639 0.2898
4075000000.0 -0.7604 1.408
4078000000.0 0.5463 1.571
4081000000.0 1.565 0.5096
4084000000.0 1.395 -0.8235
4088000000.0 0.2389 -1.63
4091000000.0 -1.115 -1.21
4094000000.0 -1.648 0.07551
4097000000.0 -0.9586 1.307
4100000000.0 0.3608 1.576
4103000000.0 1.445 0.7376
4106000000.0 1.407 -0.6404
4109000000.0 0.4459 -1.499
4112000000.0 -0.8776 -1.292
4116000000.0 -1.518 -0.1872
4119000000.0 -1.125 0.9848
4122000000.0 0.03308 1.499
4125000000.0 1.122 0.9368
4128000000.0 1.471 -0.2361
4131000000.0 0.8074 -1.235
4134000000.0 -0.4471 -1.41
4138000000.0 -1.352 -0.5624
4141000000.0 -1.299 0.6313
4144000000.0 -0.3773 1.447
4147000000.0 0.8838 1.254
4150000000.0 1.5 0.1106
4153000000.0 1.084 -1.045
4156000000.0 -0.108 -1.504
4159000000.0 -1.241 -0.8692
4162000000.0 -1.472 0.385
4166000000.0 -0.6403 1.364
4169000000.0 0.6554 1.36
4172000000.0 1.467 0.4013
4175000000.0 1.229 -0.8399
4178000000.0 0.1468 -1.49
4181000000.0 -1.025 -1.067
4184000000.0 -1.507 0.09712
4188000000.0 -0.9056 1.236
4191000000.0 0.3844 1.459
4194000000.0 1.406 0.6584
4197000000.0 1.4 -0.6765
4200000000.0 0.3671 -1.543
4203000000.0 -0.9788 -1.273
4206000000.0 -1.615 -0.06463
4209000000.0 -1.037 1.23
4212000000.0 0.3312 1.595
4216000000.0 1.524 0.707
4219000000.0 1.497 -0.7301
4222000000.0 0.3388 -1.674
4225000000.0 -1.161 -1.239
4228000000.0 -1.701 0.1202
4231000000.0 -0.8891 1.411
4234000000.0 0.5532 1.569
4238000000.0 1.574 0.4485
4241000000.0 1.326 -0.9208
4244000000.0 0.1037 -1.627
4247000000.0 -1.229 -1.043
4250000000.0 -1.546 0.3427
4253000000.0 -0.6502 1.442
4256000000.0 0.6828 1.381
4259000000.0 1.506 0.3088
4262000000.0 1.161 -0.9981
4266000000.0 -0.0936 -1.568
4269000000.0 -1.241 -0.8646
4272000000.0 -1.441 0.4615
4275000000.0 -0.4937 1.396
4278000000.0 0.7436 1.234
4281000000.0 1.439 0.1362
4284000000.0 0.9982 -1.003
4288000000.0 -0.1618 -1.404
4291000000.0 -1.161 -0.7638
4294000000.0 -1.298 0.4087
4297000000.0 -0.4709 1.25
4300000000.0 0.6358 1.196
4303000000.0 1.301 0.2225
4306000000.0 0.9896 -0.8459
4309000000.0 0.01634 -1.31
4312000000.0 -0.9656 -0.8351
4316000000.0 -1.262 0.2179
4319000000.0 -0.6922 1.164
4322000000.0 0.4135 1.264
4325000000.0 1.234 0.4852
4328000000.0 1.191 -0.6695
4331000000.0 0.2589 -1.345
4334000000.0 -0.8397 -1.084
4338000000.0 -1.378 -0.03638
4341000000.0 -0.928 1.061
4344000000.0 0.2447 1.391
4347000000.0 1.198 0.6631
4350000000.0 1.347 -0.4738
4353000000.0 0.4929 -1.339
4356000000.0 -0.747 -1.269
4359000000.0 -1.442 -0.2429
4362000000.0 -1.075 0.9568
4366000000.0 0.04616 1.456
4369000000.0 1.11 0.8908
4372000000.0 1.44 -0.2966
4375000000.0 0.7185 -1.309
4378000000.0 -0.586 -1.381
4381000000.0 -1.412 -0.4421
4384000000.0 -1.267 0.8402
4388000000.0 -0.1414 1.511
4391000000.0 1.12 1.079
4394000000.0 1.535 -0.1787
4397000000.0 0.8323 -1.337
4400000000.0 -0.5438 -1.487
4403000000.0 -1.496 -0.5288
4406000000.0 -1.328 0.823
4409000000.0 -0.1533 1.594
4412000000.0 1.134 1.089
4416000000.0 1.53 -0.2162
4419000000.0 0.7706 -1.308
4422000000.0 -0.569 -1.432
4425000000.0 -1.434 -0.4295
4428000000.0 -1.223 0.8261
4431000000.0 -0.05328 1.472
4434000000.0 1.088 0.9281
4438000000.0 1.384 -0.2645
4441000000.0 0.6255 -1.255
4444000000.0 -0.6142 -1.254
4447000000.0 -1.337 -0.294
4450000000.0 -1.03 0.8299
4453000000.0 0.04125 1.337
4456000000.0 1.033 0.7381
4459000000.0 1.232 -0.3471
4462000000.0 0.4574 -1.182
4466000000.0 -0.6253 -1.064
4469000000.0 -1.227 -0.1281
4472000000.0 -0.8267 0.8887
4475000000.0 0.1704 1.195
4478000000.0 1.044 0.5959
4481000000.0 1.05 -0.4235
4484000000.0 0.3111 -1.128
4488000000.0 -0.6546 -0.9315
4491000000.0 -1.155 -0.06247
4494000000.0 -0.7332 0.8399
4497000000.0 0.1989 1.127
4500000000.0 0.9958 0.5455
4503000000.0 0.9813 -0.4186
4506000000.0 0.335 -1.069
4509000000.0 -0.6387 -0.9124
4512000000.0 -1.081 -0.05706
4516000000.0 -0.7563 0.8195
4519000000.0 0.1407 1.108
4522000000.0 0.9881 0.575
4525000000.0 1.054 -0.3609
4528000000.0 0.3973 -1.078
4531000000.0 -0.5715 -1.01
4534000000.0 -1.147 -0.1844
4538000000.0 -0.8761 0.771
4541000000.0 0.0402 1.16
4544000000.0 0.9377 0.7345
4547000000.0 1.184 -0.2503
4550000000.0 0.5715 -1.074
4553000000.0 -0.4698 -1.115
4556000000.0 -1.151 -0.3457
4559000000.0 -1.052 0.6718
4562000000.0 -0.12 1.236
4566000000.0 0.8571 0.9037
4569000000.0 1.233 -0.06528
4572000000.0 0.7481 -1.031
4575000000.0 -0.2645 -1.252
4578000000.0 -1.143 -0.5805
4581000000.0 -1.192 0.5338
4584000000.0 -0.3821 1.277
4588000000.0 0.741 1.123
4591000000.0 1.346 0.1187
4594000000.0 0.9675 -0.9409
4597000000.0 -0.1374 -1.364
4600000000.0 -1.135 -0.8004
4603000000.0 -1.335 0.4048
4606000000.0 -0.5326 1.265
4609000000.0 0.6267 1.221
4612000000.0 1.389 0.2754
4616000000.0 1.105 -0.8822
4619000000.0 0.03974 -1.403
4622000000.0 -1.107 -0.8602
4625000000.0 -1.36 0.2715
4628000000.0 -0.6394 1.271
4631000000.0 0.5481 1.256
4634000000.0 1.327 0.3826
4638000000.0 1.138 -0.8159
4641000000.0 0.0843 -1.338
4644000000.0 -1.004 -0.8872
4647000000.0 -1.324 0.2193
4650000000.0 -0.6477 1.163
4653000000.0 0.5215 1.199
4656000000.0 1.248 0.3654
4659000000.0 1.033 -0.7749
4662000000.0 0.07529 -1.252
4666000000.0 -0.9511 -0.8488
4669000000.0 -1.214 0.2321
4672000000.0 -0.5518 1.045
4675000000.0 0.4645 1.101
4678000000.0 1.139 0.2838
4681000000.0 0.9434 -0.67
4684000000.0 0.05167 -1.153
4688000000.0 -0.8509 -0.7295
4691000000.0 -1.062 0.2347
4694000000.0 -0.4846 0.9917
4697000000.0 0.4494 0.992
4700000000.0 1.041 0.2683
4703000000.0 0.8958 -0.6691
4706000000.0 -0.01669 -1.062
4709000000.0 -0.8282 -0.7037
4712000000.0 -1.02 0.2692
4716000000.0 -0.4533 0.9665
4719000000.0 0.4833 0.9801
4722000000.0 1.027 0.2469
4725000000.0 0.8234 -0.6686
4728000000.0 0.004881 -1.038
4731000000.0 -0.8171 -0.6776
4734000000.0 -0.9898 0.1943
4738000000.0 -0.4944 0.9106
4741000000.0 0.3813 0.9887
4744000000.0 0.9781 0.3139
4747000000.0 0.8599 -0.5494
4750000000.0 0.1402 -1.049
4753000000.0 -0.7794 -0.7765
4756000000.0 -1.085 0.0693
4759000000.0 -0.6593 0.8943
4762000000.0 0.2528 1.102
4766000000.0 1.034 0.4984
4769000000.0 1.05 -0.4471
4772000000.0 0.3206 -1.129
4775000000.0 -0.6469 -0.9733
4778000000.0 -1.153 -0.1229
4781000000.0 -0.8422 0.8258
4784000000.0 0.08968 1.203
4788000000.0 0.9446 0.7333
4791000000.0 1.153 -0.3085
4794000000.0 0.5772 -1.09
4797000000.0 -0.5108 -1.144
4800000000.0 -1.217 -0.3732
4803000000.0 -1.034 0.6719
4806000000.0 -0.1397 1.211
4809000000.0 0.8616 0.9338
4812000000.0 1.284 -0.07707
4816000000.0 0.79 -1.037
4819000000.0 -0.2865 -1.284
4822000000.0 -1.181 -0.6113
4825000000.0 -1.235 0.5563
4828000000.0 -0.3616 1.316
4831000000.0 0.7824 1.134
4834000000.0 1.392 0.129
4838000000.0 0.9585 -1.004
4841000000.0 -0.1401 -1.378
4844000000.0 -1.147 -0.7468
4847000000.0 -1.32 0.4535
4850000000.0 -0.4903 1.301
4853000000.0 0.7127 1.216
4856000000.0 1.362 0.2585
4859000000.0 1.069 -0.9052
4862000000.0 -0.03471 -1.362
4866000000.0 -1.082 -0.8204
4869000000.0 -1.285 0.318
4872000000.0 -0.5756 1.187
4875000000.0 0.5504 1.176
4878000000.0 1.292 0.3283
4881000000.0 0.9888 -0.779
4884000000.0 0.02848 -1.268
4888000000.0 -0.9464 -0.7862
4891000000.0 -1.202 0.2384
4894000000.0 -0.5568 1.05
4897000000.0 0.4705 1.096
4900000000.0 1.127 0.295
4903000000.0 0.8969 -0.6402
4906000000.0 0.06712 -1.097
4909000000.0 -0.7925 -0.7152
4912000000.0 -1.038 0.1568
4916000000.0 -0.5301 0.8904
4919000000.0 0.3313 0.9567
4922000000.0 0.9271 0.2826
4925000000.0 0.8269 -0.504
4928000000.0 0.1097 -0.945
4931000000.0 -0.6902 -0.694
4934000000.0 -0.9554 0.03525
4938000000.0 -0.5634 0.7525
4941000000.0 0.2298 0.916
4944000000.0 0.8437 0.3676
4947000000.0 0.8522 -0.4219
4950000000.0 0.2311 -0.9114
4953000000.0 -0.6033 -0.756
4956000000.0 -0.9515 -0.03358
4959000000.0 -0.6497 0.7497
4962000000.0 0.1297 0.9516
4966000000.0 0.8515 0.4992
4969000000.0 0.9279 -0.3735
4972000000.0 0.2981 -0.972
4975000000.0 -0.5654 -0.852
4978000000.0 -1.022 -0.09104
4981000000.0 -0.7314 0.7345
4984000000.0 0.07242 1.062
4988000000.0 0.8855 0.624
4991000000.0 1.037 -0.2672
4994000000.0 0.4716 -0.9774
4997000000.0 -0.4898 -1.01
5000000000.0 -1.103 -0.2859
5003000000.0 -0.9223 0.6902
5006000000.0 -0.05127 1.143
5009000000.0 0.8619 0.8197
5012000000.0 1.198 -0.1525
5016000000.0 0.6484 -1.056
5019000000.0 -0.3952 -1.174
5022000000.0 -1.153 -0.4391
5025000000.0 -1.091 0.6256
5028000000.0 -0.2015 1.245
5031000000.0 0.8458 0.9523
5034000000.0 1.284 -0.02022
5038000000.0 0.7842 -1.021
5041000000.0 -0.254 -1.258
5044000000.0 -1.132 -0.623
5047000000.0 -1.202 0.4906
5050000000.0 -0.4141 1.226
5053000000.0 0.69 1.122
5056000000.0 1.28 0.183
5059000000.0 0.9745 -0.8738
5062000000.0 -0.0616 -1.304
5066000000.0 -1.013 -0.7977
5069000000.0 -1.274 0.289
5072000000.0 -0.5881 1.16
5075000000.0 0.5072 1.187
5078000000.0 1.234 0.3575
5081000000.0 1.047 -0.7133
5084000000.0 0.1213 -1.247
5088000000.0 -0.883 -0.858
5091000000.0 -1.197 0.1052
5094000000.0 -0.7047 0.972
5097000000.0 0.3017 1.089
5100000000.0 1.087 0.5049
5103000000.0 0.9905 -0.4393
5106000000.0 0.3359 -1.055
5109000000.0 -0.6165 -0.9184
5112000000.0 -1.107 -0.1163
5116000000.0 -0.7773 0.744
5119000000.0 0.08259 1.076
5122000000.0 0.8702 0.6314
5125000000.0 0.9965 -0.3003
5128000000.0 0.406 -0.9194
5131000000.0 -0.4278 -0.9075
5134000000.0 -0.9774 -0.2626
5138000000.0 -0.8087 0.5701
5141000000.0 -0.04745 0.9773
5144000000.0 0.695 0.6481
5147000000.0 0.9218 -0.1528
5150000000.0 0.4711 -0.822
5153000000.0 -0.318 -0.8414
5156000000.0 -0.8394 -0.3365
5159000000.0 -0.7745 0.4575
5162000000.0 -0.1297 0.9134
5166000000.0 0.604 0.6527
5169000000.0 0.9029 -0.04912
5172000000.0 0.5397 -0.7074
5175000000.0 -0.2326 -0.858
5178000000.0 -0.8696 -0.3625
5181000000.0 -0.8146 0.4233
5184000000.0 -0.1903 0.8991
5188000000.0 0.6146 0.6843
5191000000.0 0.9397 -0.04574
5194000000.0 0.566 -0.7482
5197000000.0 -0.245 -0.8852
5200000000.0 -0.8855 -0.3863
5203000000.0 -0.8306 0.4241
5206000000.0 -0.1893 0.9446
5209000000.0 0.6152 0.7506
5212000000.0 0.9477 -0.0108
5216000000.0 0.5972 -0.7866
5219000000.0 -0.248 -0.9444
5222000000.0 -0.8887 -0.4301
5225000000.0 -0.9007 0.4358
5228000000.0 -0.2234 0.9628
5231000000.0 0.6036 0.8322
5234000000.0 1.029 0.0526
5238000000.0 0.7114 -0.786
5241000000.0 -0.1263 -1.024
5244000000.0 -0.9084 -0.5489
5247000000.0 -0.9918 0.343
5250000000.0 -0.3804 1.012
5253000000.0 0.535 0.9388
5256000000.0 1.035 0.1778
5259000000.0 0.8212 -0.69
5262000000.0 0.02155 -1.093
5266000000.0 -0.8454 -0.681
5269000000.0 -1.073 0.188
5272000000.0 -0.5343 0.9444
5275000000.0 0.3727 1.028
5278000000.0 1.047 0.3585
5281000000.0 0.94 -0.5433
5284000000.0 0.2433 -1.068
5288000000.0 -0.691 -0.8646
5291000000.0 -1.108 -0.0398
5294000000.0 -0.7595 0.8424
5297000000.0 0.1393 1.104
5300000000.0 0.9195 0.5991
5303000000.0 1.074 -0.3087
5306000000.0 0.4218 -1.064
5309000000.0 -0.4886 -0.9888
5312000000.0 -1.091 -0.2707
5316000000.0 -0.9197 0.6831
5319000000.0 -0.06726 1.12
5322000000.0 0.8341 0.7851
5325000000.0 1.163 -0.1121
5328000000.0 0.6353 -0.9592
5331000000.0 -0.3238 -1.117
5334000000.0 -1.051 -0.4606
5338000000.0 -1.036 0.5151
5341000000.0 -0.2449 1.08
5344000000.0 0.6891 0.8917
5347000000.0 1.105 0.01018
5350000000.0 0.7129 -0.8468
5353000000.0 -0.1642 -1.111
5356000000.0 -0.9797 -0.551
5359000000.0 -1.009 0.3898
5362000000.0 -0.3194 1.032
5366000000.0 0.5785 0.8926
5369000000.0 1.047 0.1125
5372000000.0 0.7218 -0.7476
5375000000.0 -0.1426 -1.049
5378000000.0 -0.8691 -0.5385
5381000000.0 -0.936 0.3754
5384000000.0 -0.2949 0.9264
5388000000.0 0.544 0.7998
5391000000.0 1.007 0.06876
5394000000.0 0.6305 -0.7061
5397000000.0 -0.1434 -0.9135
5400000000.0 -0.7938 -0.4667
5403000000.0 -0.8327 0.3387
5406000000.0 -0.2463 0.8349
5409000000.0 0.5263 0.7411
5412000000.0 0.8714 0.07113
5416000000.0 0.6028 -0.645
5419000000.0 -0.1393 -0.8644
5422000000.0 -0.7501 -0.4074
5425000000.0 -0.7835 0.3102
5428000000.0 -0.2604 0.8221
5431000000.0 0.505 0.6989
5434000000.0 0.8424 0.06408
5438000000.0 0.6267 -0.6339
5441000000.0 -0.1415 -0.8962
5444000000.0 -0.747 -0.4164
5447000000.0 -0.8225 0.327
5450000000.0 -0.2582 0.8751
5453000000.0 0.4924 0.7199
5456000000.0 0.8391 0.07535
5459000000.0 0.6341 -0.6413
5462000000.0 -0.09551 -0.8584
5466000000.0 -0.7344 -0.4932
5469000000.0 -0.8848 0.2423
5472000000.0 -0.3357 0.8507
5475000000.0 0.3998 0.7931
5478000000.0 0.9069 0.2267
5481000000.0 0.7564 -0.5978
5484000000.0 0.01741 -0.9739
5488000000.0 -0.7372 -0.6577
5491000000.0 -0.9579 0.1183
5494000000.0 -0.5178 0.8507
5497000000.0 0.3072 0.9195
5500000000.0 0.9409 0.3718
5503000000.0 0.8872 -0.4782
5506000000.0 0.2318 -1.01
5509000000.0 -0.5953 -0.7866
5512000000.0 -1.02 -0.04359
5516000000.0 -0.6916 0.7506
5519000000.0 0.09776 1.035
5522000000.0 0.8747 0.5342
5525000000.0 0.9753 -0.3011
5528000000.0 0.4161 -0.9795
5531000000.0 -0.4782 -0.9627
5534000000.0 -1.037 -0.2689
5538000000.0 -0.8887 0.6267
5541000000.0 -0.08699 1.046
5544000000.0 0.8046 0.7431
5547000000.0 1.04 -0.1132
5550000000.0 0.5923 -0.8862
5553000000.0 -0.3287 -1.055
5556000000.0 -0.9785 -0.3736
5559000000.0 -0.9484 0.5355
5562000000.0 -0.2144 1.057
5566000000.0 0.6597 0.8209
5569000000.0 1.028 0.03774
5572000000.0 0.6831 -0.7831
5575000000.0 -0.1673 -0.9886
5578000000.0 -0.8728 -0.5079
5581000000.0 -0.9436 0.319
5584000000.0 -0.3056 0.9241
5588000000.0 0.5012 0.8292
5591000000.0 0.9519 0.1387
5594000000.0 0.7339 -0.6235
5597000000.0 -0.04222 -0.9473
5600000000.0 -0.7434 -0.5302
5603000000.0 -0.9078 0.191
5606000000.0 -0.3914 0.817
5609000000.0 0.4053 0.814
5612000000.0 0.8655 0.2045
5616000000.0 0.6998 -0.5316
5619000000.0 0.0161 -0.8554
5622000000.0 -0.6315 -0.5569
5625000000.0 -0.8351 0.1587
5628000000.0 -0.4 0.7682
5631000000.0 0.322 0.7574
5634000000.0 0.8158 0.2184
5638000000.0 0.7057 -0.4893
5641000000.0 0.06055 -0.8503
5644000000.0 -0.6302 -0.5547
5647000000.0 -0.8618 0.1487
5650000000.0 -0.4282 0.7295
5653000000.0 0.3204 0.7626
5656000000.0 0.8317 0.233
5659000000.0 0.7027 -0.4896
5662000000.0 0.05188 -0.8542
5666000000.0 -0.6457 -0.5915
5669000000.0 -0.8542 0.1293
5672000000.0 -0.4231 0.7654
5675000000.0 0.3456 0.8091
5678000000.0 0.8778 0.2651
5681000000.0 0.7733 -0.5246
5684000000.0 0.09138 -0.9181
5688000000.0 -0.6744 -0.6609
5691000000.0 -0.9593 0.1257
5694000000.0 -0.5028 0.8225
5697000000.0 0.305 0.9053
5700000000.0 0.9466 0.3408
5703000000.0 0.8638 -0.4995
5706000000.0 0.13 -1.001
5709000000.0 -0.6896 -0.7634
5712000000.0 -1.025 0.08456
5716000000.0 -0.5946 0.8385
5719000000.0 0.2677 1.02
5722000000.0 0.9693 0.4553
5725000000.0 0.9507 -0.4315
5728000000.0 0.2552 -1.032
5731000000.0 -0.6197 -0.8638
5734000000.0 -1.069 -0.09103
5738000000.0 -0.7838 0.8015
5741000000.0 0.11 1.104
5744000000.0 0.9084 0.5714
5747000000.0 1.056 -0.3015
5750000000.0 0.4168 -1.012
5753000000.0 -0.4875 -0.9752
5756000000.0 -1.065 -0.1819
5759000000.0 -0.8569 0.6579
5762000000.0 -0.0492 1.057
5766000000.0 0.8243 0.7279
5769000000.0 1.093 -0.1695
5772000000.0 0.599 -0.9303
5775000000.0 -0.3652 -1.076
5778000000.0 -0.9915 -0.3946
5781000000.0 -0.9816 0.5198
5784000000.0 -0.2086 1.056
5788000000.0 0.6824 0.862
5791000000.0 1.098 -0.006604
5794000000.0 0.6868 -0.8119
5797000000.0 -0.1844 -1.047
5800000000.0 -0.9294 -0.5314
5803000000.0 -1.006 0.3527
5806000000.0 -0.3304 0.9941
5809000000.0 0.5597 0.9212
5812000000.0 1.043 0.1466
5816000000.0 0.7869 -0.6921
5819000000.0 -0.03774 -1.019
5822000000.0 -0.8078 -0.6167
5825000000.0 -0.9897 0.2322
5828000000.0 -0.448 0.9204
5831000000.0 0.4417 0.8937
5834000000.0 0.9582 0.2517
5838000000.0 0.781 -0.5887
5841000000.0 0.04839 -0.9862
5844000000.0 -0.7422 -0.6291
5847000000.0 -0.9612 0.1661
5850000000.0 -0.4346 0.8369
5853000000.0 0.3666 0.8597
5856000000.0 0.8681 0.2562
5859000000.0 0.7616 -0.5292
5862000000.0 0.03368 -0.8979
5866000000.0 -0.6735 -0.6248
5869000000.0 -0.9214 0.1494
5872000000.0 -0.4595 0.7786
5875000000.0 0.3279 0.8321
5878000000.0 0.8457 0.2606
5881000000.0 0.7255 -0.5009
5884000000.0 0.05931 -0.8586
5888000000.0 -0.6256 -0.6072
5891000000.0 -0.8801 0.0741
5894000000.0 -0.4716 0.7248
5897000000.0 0.2655 0.8366
5900000000.0 0.7989 0.3185
5903000000.0 0.7609 -0.4292
5906000000.0 0.1208 -0.8711
5909000000.0 -0.5861 -0.6243
5912000000.0 -0.8777 0.01311
5916000000.0 -0.5204 0.7
5919000000.0 0.2022 0.8364
5922000000.0 0.7753 0.3739
5925000000.0 0.825 -0.3626
5928000000.0 0.2166 -0.8824
5931000000.0 -0.5125 -0.747
5934000000.0 -0.8909 -0.0488
5938000000.0 -0.6042 0.6423
5941000000.0 0.1219 0.8617
5944000000.0 0.7824 0.4748
5947000000.0 0.8705 -0.2628
5950000000.0 0.3279 -0.868
5953000000.0 -0.4028 -0.7945
5956000000.0 -0.9085 -0.2237
5959000000.0 -0.7384 0.5711
5962000000.0 -0.02714 0.9493
5966000000.0 0.6794 0.6112
5969000000.0 0.9434 -0.1159
5972000000.0 0.4874 -0.8106
5975000000.0 -0.2946 -0.9316
5978000000.0 -0.9238 -0.3752
5981000000.0 -0.8568 0.4617
5984000000.0 -0.1947 0.9699
5988000000.0 0.6238 0.7516
5991000000.0 0.9776 -0.022
5994000000.0 0.6239 -0.78
5997000000.0 -0.1669 -1.011
6000000000.0 -0.8504 -0.5082
6003000000.0 -0.9374 0.382
6006000000.0 -0.3146 0.9358
6009000000.0 0.5268 0.85
6012000000.0 0.9962 0.1049
6016000000.0 0.744 -0.6907
6019000000.0 -0.04989 -0.9757
6022000000.0 -0.8159 -0.5686
6025000000.0 -0.9683 0.2575
6028000000.0 -0.3926 0.9079
6031000000.0 0.4222 0.8929
6034000000.0 0.9562 0.2066
6038000000.0 0.7687 -0.6169
6041000000.0 0.01055 -0.978
6044000000.0 -0.7101 -0.6395
6047000000.0 -0.9562 0.1758
6050000000.0 -0.4498 0.8249
6053000000.0 0.3693 0.8657
6056000000.0 0.9084 0.2701
6059000000.0 0.7819 -0.518
6062000000.0 0.06741 -0.9149
6066000000.0 -0.6329 -0.6033
6069000000.0 -0.8891 0.1195
6072000000.0 -0.4801 0.7759
6075000000.0 0.2692 0.8301
6078000000.0 0.8171 0.2896
6081000000.0 0.7376 -0.4468
6084000000.0 0.1127 -0.8323
6088000000.0 -0.6061 -0.6194
6091000000.0 -0.8609 0.09833
6094000000.0 -0.4967 0.7078
6097000000.0 0.2432 0.8303
6100000000.0 0.8229 0.3064
6103000000.0 0.7587 -0.4046
6106000000.0 0.1496 -0.8439
6109000000.0 -0.5527 -0.6603
6112000000.0 -0.8294 0.03698
6116000000.0 -0.53 0.6828
6119000000.0 0.2196 0.8275
6122000000.0 0.8095 0.3859
6125000000.0 0.7959 -0.4019
6128000000.0 0.197 -0.8357
6131000000.0 -0.5552 -0.6941
6134000000.0 -0.8703 -0.02005
6138000000.0 -0.5683 0.6958
6141000000.0 0.1634 0.8422
6144000000.0 0.7696 0.4289
6147000000.0 0.8361 -0.3454
6150000000.0 0.2441 -0.8557
6153000000.0 -0.5199 -0.745
6156000000.0 -0.9115 -0.07039
6159000000.0 -0.6235 0.6797
6162000000.0 0.114 0.913
6166000000.0 0.7835 0.5168
6169000000.0 0.9033 -0.2956
6172000000.0 0.3529 -0.9098
6175000000.0 -0.4308 -0.7981
6178000000.0 -0.919 -0.1464
6181000000.0 -0.7005 0.6085
6184000000.0 0.05262 0.9409
6188000000.0 0.7435 0.6036
6191000000.0 0.9479 -0.2146
6194000000.0 0.4266 -0.8578
6197000000.0 -0.378 -0.8495
6200000000.0 -0.9387 -0.2401
6203000000.0 -0.7803 0.5549
6206000000.0 -0.07996 0.943
6209000000.0 0.6975 0.669
6212000000.0 0.8959 -0.1117
6216000000.0 0.5037 -0.7967
6219000000.0 -0.2681 -0.8547
6222000000.0 -0.8803 -0.3664
6225000000.0 -0.8282 0.4222
6228000000.0 -0.194 0.8562
6231000000.0 0.5695 0.7034
6234000000.0 0.8785 -0.02101
6238000000.0 0.5591 -0.6846
6241000000.0 -0.1654 -0.9108
6244000000.0 -0.753 -0.4215
6247000000.0 -0.8175 0.2898
6250000000.0 -0.2477 0.8219
6253000000.0 0.4378 0.7041
6256000000.0 0.846 0.1299
6259000000.0 0.6503 -0.5534
6262000000.0 -0.01986 -0.7935
6266000000.0 -0.6407 -0.5375
6269000000.0 -0.8173 0.1674
