! Created with skrf 1.8.0 (http://scikit-rf.org).
# Hz S RI R 50.0 
!freq ReS11 ImS11
4000000000.0 -0.1728 -1.482
4003000000.0 -1.278 -0.7776
4006000000.0 -1.43 0.5155
4009000000.0 -0.5434 1.391
4012000000.0 0.7331 1.304
4016000000.0 1.521 0.2267
4019000000.0 1.111 -1.097
4022000000.0 -0.1036 -1.638
4025000000.0 -1.29 -0.9084
4028000000.0 -1.529 0.4278
4031000000.0 -0.5635 1.518
4034000000.0 0.7762 1.429
4038000000.0 1.623 0.1829
4041000000.0 1.231 -1.14
4044000000.0 -0.1357 -1.578
4047000000.0 -1.335 -0.8979
4050000000.0 -1.591 0.4121
4053000000.0 -0.5841 1.498
4056000000.0 0.7598 1.41
4059000000.0 1.576 0.3265
4062000000.0 1.241 -1.045
4066000000.0 -0.009653 -1.612
4069000000.0 -1.203 -1.032
4072000000.0 -1.551 0.281
4075000000.0 -0.8384 1.438
4078000000.0 0.6278 1.56
4081000000.0 1.57 0.5057
4084000000.0 1.398 -0.8463
4088000000.0 0.2297 -1.629
4091000000.0 -1.074 -1.206
4094000000.0 -1.626 0.06674
4097000000.0 -0.9755 1.316
4100000000.0 0.362 1.588
4103000000.0 1.421 0.6776
4106000000.0 1.488 -0.6255
4109000000.0 0.4427 -1.507
4112000000.0 -0.8385 -1.27
4116000000.0 -1.502 -0.1938
4119000000.0 -1.133 0.9966
4122000000.0 0.04245 1.48
4125000000.0 1.144 0.9301
4128000000.0 1.464 -0.2298
4131000000.0 0.7434 -1.255
4134000000.0 -0.4449 -1.415
4138000000.0 -1.341 -0.5723
4141000000.0 -1.349 0.6536
4144000000.0 -0.3734 1.452
4147000000.0 0.8609 1.226
4150000000.0 1.52 0.1327
4153000000.0 1.074 -1.075
4156000000.0 -0.1319 -1.535
4159000000.0 -1.242 -0.8923
4162000000.0 -1.486 0.4116
4166000000.0 -0.6659 1.369
4169000000.0 0.6583 1.37
4172000000.0 1.448 0.3819
4175000000.0 1.234 -0.8486
4178000000.0 0.1071 -1.493
4181000000.0 -1.042 -1.089
4184000000.0 -1.503 0.1008
4188000000.0 -0.884 1.211
4191000000.0 0.3731 1.481
4194000000.0 1.383 0.6687
4197000000.0 1.417 -0.6734
4200000000.0 0.3906 -1.555
4203000000.0 -0.9915 -1.222
4206000000.0 -1.61 -0.02008
4209000000.0 -1.052 1.255
4212000000.0 0.3586 1.64
4216000000.0 1.532 0.7191
4219000000.0 1.522 -0.7926
4222000000.0 0.2846 -1.639
4225000000.0 -1.17 -1.239
4228000000.0 -1.651 0.1357
4231000000.0 -0.9063 1.423
4234000000.0 0.5668 1.556
4238000000.0 1.561 0.4628
4241000000.0 1.331 -0.9322
4244000000.0 0.05429 -1.612
4247000000.0 -1.244 -0.9809
4250000000.0 -1.534 0.3425
4253000000.0 -0.6525 1.405
4256000000.0 0.7068 1.371
4259000000.0 1.48 0.2683
4262000000.0 1.164 -1.021
4266000000.0 -0.1092 -1.5
4269000000.0 -1.191 -0.864
4272000000.0 -1.417 0.4628
4275000000.0 -0.5118 1.421
4278000000.0 0.7718 1.245
4281000000.0 1.449 0.1864
4284000000.0 1.031 -1.018
4288000000.0 -0.1545 -1.35
4291000000.0 -1.155 -0.7277
4294000000.0 -1.295 0.443
4297000000.0 -0.4417 1.232
4300000000.0 0.639 1.143
4303000000.0 1.271 0.2458
4306000000.0 1.002 -0.8083
4309000000.0 -0.01562 -1.301
4312000000.0 -0.9891 -0.8415
4316000000.0 -1.272 0.1987
4319000000.0 -0.6754 1.097
4322000000.0 0.4252 1.227
4325000000.0 1.218 0.4977
4328000000.0 1.194 -0.6545
4331000000.0 0.2838 -1.321
4334000000.0 -0.8639 -1.055
4338000000.0 -1.377 -0.02167
4341000000.0 -0.9168 1.036
4344000000.0 0.2285 1.372
4347000000.0 1.217 0.7164
4350000000.0 1.366 -0.4979
4353000000.0 0.4802 -1.329
4356000000.0 -0.737 -1.255
4359000000.0 -1.461 -0.2213
4362000000.0 -1.109 0.9938
4366000000.0 0.0403 1.454
4369000000.0 1.16 0.929
4372000000.0 1.457 -0.2914
4375000000.0 0.7073 -1.32
4378000000.0 -0.5615 -1.382
4381000000.0 -1.459 -0.4378
4384000000.0 -1.272 0.8612
4388000000.0 -0.1715 1.511
4391000000.0 1.102 1.088
4394000000.0 1.552 -0.1641
4397000000.0 0.8265 -1.343
4400000000.0 -0.5304 -1.479
4403000000.0 -1.523 -0.5659
4406000000.0 -1.317 0.8261
4409000000.0 -0.1625 1.557
4412000000.0 1.112 1.082
4416000000.0 1.56 -0.2383
4419000000.0 0.7818 -1.307
4422000000.0 -0.5377 -1.393
4425000000.0 -1.439 -0.4249
4428000000.0 -1.217 0.8806
4431000000.0 -0.04664 1.477
4434000000.0 1.108 0.9215
4438000000.0 1.368 -0.274
4441000000.0 0.6032 -1.245
4444000000.0 -0.6121 -1.23
4447000000.0 -1.332 -0.2739
4450000000.0 -1.025 0.8673
4453000000.0 0.03198 1.309
4456000000.0 1.093 0.7333
4459000000.0 1.216 -0.3787
4462000000.0 0.4735 -1.179
4466000000.0 -0.6721 -1.084
4469000000.0 -1.238 -0.1386
4472000000.0 -0.8352 0.9011
4475000000.0 0.1939 1.185
4478000000.0 1.033 0.5977
4481000000.0 1.103 -0.4682
4484000000.0 0.3134 -1.123
4488000000.0 -0.6576 -0.9259
4491000000.0 -1.144 -0.02193
4494000000.0 -0.7319 0.8858
4497000000.0 0.2101 1.116
4500000000.0 0.9871 0.543
4503000000.0 1.009 -0.4327
4506000000.0 0.3101 -1.049
4509000000.0 -0.6466 -0.8975
4512000000.0 -1.13 -0.0825
4516000000.0 -0.7522 0.8176
4519000000.0 0.1503 1.123
4522000000.0 0.9677 0.5714
4525000000.0 1.06 -0.384
4528000000.0 0.411 -1.078
4531000000.0 -0.5977 -1.01
4534000000.0 -1.151 -0.1573
4538000000.0 -0.8926 0.798
4541000000.0 0.03506 1.163
4544000000.0 0.9291 0.7207
4547000000.0 1.15 -0.2646
4550000000.0 0.549 -1.065
4553000000.0 -0.4862 -1.112
4556000000.0 -1.176 -0.3172
4559000000.0 -1.051 0.6766
4562000000.0 -0.1438 1.229
4566000000.0 0.8759 0.9214
4569000000.0 1.252 -0.07686
4572000000.0 0.7503 -1.041
4575000000.0 -0.2782 -1.249
4578000000.0 -1.188 -0.5939
4581000000.0 -1.214 0.5315
4584000000.0 -0.3843 1.293
4588000000.0 0.7506 1.11
4591000000.0 1.368 0.09228
4594000000.0 0.9753 -0.9891
4597000000.0 -0.1304 -1.383
4600000000.0 -1.145 -0.7872
4603000000.0 -1.322 0.4092
4606000000.0 -0.5409 1.307
4609000000.0 0.6552 1.246
4612000000.0 1.362 0.2568
4616000000.0 1.09 -0.879
4619000000.0 0.01869 -1.41
4622000000.0 -1.066 -0.87
4625000000.0 -1.355 0.2659
4628000000.0 -0.6512 1.204
4631000000.0 0.5561 1.279
4634000000.0 1.332 0.3805
4638000000.0 1.113 -0.8077
4641000000.0 0.06049 -1.385
4644000000.0 -1.031 -0.921
4647000000.0 -1.345 0.2394
4650000000.0 -0.6557 1.18
4653000000.0 0.495 1.236
4656000000.0 1.247 0.3447
4659000000.0 1.068 -0.7435
4662000000.0 0.04696 -1.273
4666000000.0 -0.9665 -0.7893
4669000000.0 -1.216 0.2133
4672000000.0 -0.5163 1.063
4675000000.0 0.4697 1.094
4678000000.0 1.091 0.3037
4681000000.0 0.8771 -0.6987
4684000000.0 0.03468 -1.153
4688000000.0 -0.8639 -0.7102
4691000000.0 -1.06 0.1921
4694000000.0 -0.523 0.9801
4697000000.0 0.4528 0.988
4700000000.0 1.05 0.2888
4703000000.0 0.8565 -0.6795
4706000000.0 0.03699 -1.086
4709000000.0 -0.8317 -0.6851
4712000000.0 -1.06 0.2159
4716000000.0 -0.457 0.9774
4719000000.0 0.4748 0.9729
4722000000.0 1.046 0.2301
4725000000.0 0.798 -0.6591
4728000000.0 0.001404 -1.024
4731000000.0 -0.8227 -0.6785
4734000000.0 -1.009 0.1941
4738000000.0 -0.4667 0.9215
4741000000.0 0.3674 0.9899
4744000000.0 1.012 0.3424
4747000000.0 0.892 -0.5767
4750000000.0 0.1309 -1.069
4753000000.0 -0.7414 -0.7859
4756000000.0 -1.094 0.09791
4759000000.0 -0.6764 0.88
4762000000.0 0.2691 1.078
4766000000.0 1.043 0.5102
4769000000.0 1.02 -0.4747
4772000000.0 0.2982 -1.128
4775000000.0 -0.6555 -1.004
4778000000.0 -1.145 -0.1106
4781000000.0 -0.8533 0.8183
4784000000.0 0.0728 1.217
4788000000.0 0.9687 0.6968
4791000000.0 1.172 -0.2995
4794000000.0 0.5339 -1.082
4797000000.0 -0.4987 -1.145
4800000000.0 -1.189 -0.3696
4803000000.0 -1.038 0.677
4806000000.0 -0.1453 1.247
4809000000.0 0.8499 0.9348
4812000000.0 1.277 -0.08557
4816000000.0 0.7756 -1.052
4819000000.0 -0.2837 -1.308
4822000000.0 -1.207 -0.6002
4825000000.0 -1.237 0.5491
4828000000.0 -0.3589 1.34
4831000000.0 0.7784 1.133
4834000000.0 1.37 0.1135
4838000000.0 0.9793 -0.9832
4841000000.0 -0.1615 -1.39
4844000000.0 -1.171 -0.7361
4847000000.0 -1.305 0.4495
4850000000.0 -0.4745 1.29
4853000000.0 0.6615 1.2
4856000000.0 1.381 0.2415
4859000000.0 1.028 -0.9044
4862000000.0 -0.05387 -1.367
4866000000.0 -1.084 -0.8238
4869000000.0 -1.299 0.3008
4872000000.0 -0.572 1.207
4875000000.0 0.5827 1.188
4878000000.0 1.248 0.284
4881000000.0 0.9836 -0.7902
4884000000.0 0.01775 -1.263
4888000000.0 -0.9552 -0.7929
4891000000.0 -1.207 0.2329
4894000000.0 -0.573 1.056
4897000000.0 0.4783 1.076
4900000000.0 1.097 0.3155
4903000000.0 0.9133 -0.687
4906000000.0 0.06726 -1.097
4909000000.0 -0.7745 -0.6971
4912000000.0 -1.028 0.167
4916000000.0 -0.5229 0.8891
4919000000.0 0.3498 0.9381
4922000000.0 0.9486 0.3294
4925000000.0 0.8251 -0.5232
4928000000.0 0.1516 -0.9606
4931000000.0 -0.6634 -0.7228
4934000000.0 -0.9252 0.05294
4938000000.0 -0.5396 0.766
4941000000.0 0.2584 0.9153
4944000000.0 0.8538 0.3851
4947000000.0 0.8583 -0.4154
4950000000.0 0.249 -0.9083
4953000000.0 -0.6071 -0.7273
4956000000.0 -0.972 -0.02759
4959000000.0 -0.6273 0.747
4962000000.0 0.182 0.9422
4966000000.0 0.8877 0.4658
4969000000.0 0.9238 -0.385
4972000000.0 0.2791 -0.9458
4975000000.0 -0.5576 -0.8503
4978000000.0 -0.9895 -0.114
4981000000.0 -0.7492 0.7251
4984000000.0 0.07867 1.038
4988000000.0 0.8679 0.5946
4991000000.0 1.03 -0.287
4994000000.0 0.4492 -0.9763
4997000000.0 -0.4692 -0.9758
5000000000.0 -1.134 -0.2852
5003000000.0 -0.9218 0.6605
5006000000.0 -0.06278 1.163
5009000000.0 0.8639 0.8087
5012000000.0 1.191 -0.1503
5016000000.0 0.6476 -1.02
5019000000.0 -0.4257 -1.172
5022000000.0 -1.181 -0.4564
5025000000.0 -1.106 0.6414
5028000000.0 -0.2295 1.233
5031000000.0 0.8343 0.9769
5034000000.0 1.284 -0.05751
5038000000.0 0.8329 -1.042
5041000000.0 -0.2532 -1.259
5044000000.0 -1.142 -0.6091
5047000000.0 -1.181 0.453
5050000000.0 -0.4008 1.237
5053000000.0 0.6712 1.102
5056000000.0 1.28 0.1773
5059000000.0 0.971 -0.8564
5062000000.0 -0.06173 -1.276
5066000000.0 -0.9981 -0.779
5069000000.0 -1.289 0.2779
5072000000.0 -0.5554 1.169
5075000000.0 0.5256 1.144
5078000000.0 1.227 0.3341
5081000000.0 1.045 -0.707
5084000000.0 0.1369 -1.244
5088000000.0 -0.883 -0.8733
5091000000.0 -1.18 0.09313
5094000000.0 -0.6709 0.9403
5097000000.0 0.316 1.145
5100000000.0 1.001 0.5046
5103000000.0 1.023 -0.4549
5106000000.0 0.2864 -1.043
5109000000.0 -0.6157 -0.9376
5112000000.0 -1.085 -0.1196
5116000000.0 -0.7848 0.743
5119000000.0 0.06987 1.036
5122000000.0 0.8449 0.6056
5125000000.0 1.006 -0.2479
5128000000.0 0.4406 -0.9206
5131000000.0 -0.4401 -0.877
5134000000.0 -0.9719 -0.2251
5138000000.0 -0.7828 0.5926
5141000000.0 -0.03301 0.9613
5144000000.0 0.674 0.6208
5147000000.0 0.9544 -0.14
5150000000.0 0.4761 -0.8116
5153000000.0 -0.3091 -0.8501
5156000000.0 -0.8345 -0.2733
5159000000.0 -0.7453 0.5117
5162000000.0 -0.1067 0.9184
5166000000.0 0.6485 0.6372
5169000000.0 0.9009 -0.07559
5172000000.0 0.5315 -0.7462
5175000000.0 -0.2519 -0.8656
5178000000.0 -0.8424 -0.3285
5181000000.0 -0.7955 0.4398
5184000000.0 -0.1961 0.8945
5188000000.0 0.6091 0.688
5191000000.0 0.937 -0.04738
5194000000.0 0.5635 -0.7511
5197000000.0 -0.253 -0.9014
5200000000.0 -0.8809 -0.3663
5203000000.0 -0.8712 0.4201
5206000000.0 -0.1876 0.9558
5209000000.0 0.611 0.7204
5212000000.0 0.9435 -0.0311
5216000000.0 0.5815 -0.775
5219000000.0 -0.2243 -0.9561
5222000000.0 -0.9049 -0.4198
5225000000.0 -0.9128 0.412
5228000000.0 -0.2459 0.9975
5231000000.0 0.6243 0.8265
5234000000.0 1.012 0.04276
5238000000.0 0.6865 -0.7772
5241000000.0 -0.1474 -1.022
5244000000.0 -0.9055 -0.5125
5247000000.0 -0.996 0.3516
5250000000.0 -0.3674 0.9789
5253000000.0 0.5428 0.9228
5256000000.0 1.064 0.1704
5259000000.0 0.8096 -0.6904
5262000000.0 -0.01169 -1.1
5266000000.0 -0.8294 -0.6973
5269000000.0 -1.089 0.2024
5272000000.0 -0.5262 0.9642
5275000000.0 0.365 1.047
5278000000.0 1.01 0.3707
5281000000.0 0.9971 -0.5358
5284000000.0 0.2171 -1.093
5288000000.0 -0.685 -0.8465
5291000000.0 -1.148 -0.04343
5294000000.0 -0.7399 0.8084
5297000000.0 0.1392 1.114
5300000000.0 0.9387 0.5951
5303000000.0 1.085 -0.3049
5306000000.0 0.4655 -1.072
5309000000.0 -0.5029 -1.006
5312000000.0 -1.092 -0.2753
5316000000.0 -0.9352 0.7018
5319000000.0 -0.06722 1.169
5322000000.0 0.8178 0.7999
5325000000.0 1.176 -0.118
5328000000.0 0.6554 -0.9417
5331000000.0 -0.333 -1.105
5334000000.0 -1.04 -0.407
5338000000.0 -0.9993 0.534
5341000000.0 -0.2139 1.145
5344000000.0 0.7092 0.8829
5347000000.0 1.112 0.01116
5350000000.0 0.7074 -0.8426
5353000000.0 -0.1895 -1.088
5356000000.0 -0.9618 -0.5439
5359000000.0 -1.055 0.4049
5362000000.0 -0.3076 1.021
5366000000.0 0.6039 0.8851
5369000000.0 1.059 0.08827
5372000000.0 0.7151 -0.7695
5375000000.0 -0.1158 -1.008
5378000000.0 -0.8824 -0.5396
5381000000.0 -0.9503 0.3686
5384000000.0 -0.311 0.9699
5388000000.0 0.5534 0.7956
5391000000.0 0.9637 0.06932
5394000000.0 0.659 -0.6812
5397000000.0 -0.1257 -0.9179
5400000000.0 -0.8149 -0.4703
5403000000.0 -0.8522 0.3309
5406000000.0 -0.2348 0.8246
5409000000.0 0.5063 0.7334
5412000000.0 0.8543 0.07872
5416000000.0 0.6025 -0.6363
5419000000.0 -0.1376 -0.8515
5422000000.0 -0.7842 -0.4322
5425000000.0 -0.7838 0.3185
5428000000.0 -0.253 0.8403
5431000000.0 0.4945 0.7237
5434000000.0 0.89 0.05763
5438000000.0 0.5905 -0.6345
5441000000.0 -0.1148 -0.8798
5444000000.0 -0.7733 -0.4374
5447000000.0 -0.8353 0.3337
5450000000.0 -0.2386 0.8482
5453000000.0 0.4982 0.7437
5456000000.0 0.9022 0.07941
5459000000.0 0.6367 -0.6701
5462000000.0 -0.09113 -0.8924
5466000000.0 -0.7389 -0.5039
5469000000.0 -0.8869 0.2574
5472000000.0 -0.3687 0.8326
5475000000.0 0.4422 0.8277
5478000000.0 0.8913 0.2375
5481000000.0 0.7515 -0.568
5484000000.0 0.04065 -0.9691
5488000000.0 -0.7016 -0.6424
5491000000.0 -0.9814 0.1592
5494000000.0 -0.5431 0.844
5497000000.0 0.3382 0.9657
5500000000.0 0.9214 0.3718
5503000000.0 0.8803 -0.48
5506000000.0 0.2156 -1.007
5509000000.0 -0.6673 -0.8021
5512000000.0 -1.008 -0.04983
5516000000.0 -0.6813 0.7672
5519000000.0 0.1222 1.032
5522000000.0 0.881 0.5171
5525000000.0 1.022 -0.3037
5528000000.0 0.4367 -0.951
5531000000.0 -0.4931 -0.9492
5534000000.0 -1.06 -0.2454
5538000000.0 -0.8695 0.6334
5541000000.0 -0.05316 1.044
5544000000.0 0.7818 0.7587
5547000000.0 1.031 -0.1371
5550000000.0 0.6109 -0.8929
5553000000.0 -0.3274 -1.028
5556000000.0 -0.9668 -0.4245
5559000000.0 -0.905 0.4778
5562000000.0 -0.1944 1.029
5566000000.0 0.6781 0.8013
5569000000.0 1.058 0.01101
5572000000.0 0.6821 -0.7612
5575000000.0 -0.1805 -0.9863
5578000000.0 -0.8536 -0.4864
5581000000.0 -0.9154 0.3477
5584000000.0 -0.3429 0.9622
5588000000.0 0.5399 0.8372
5591000000.0 0.9676 0.1467
5594000000.0 0.6768 -0.654
5597000000.0 -0.05802 -0.9789
5600000000.0 -0.761 -0.5329
5603000000.0 -0.8674 0.2237
5606000000.0 -0.3769 0.8241
5609000000.0 0.385 0.8243
5612000000.0 0.8489 0.2107
5616000000.0 0.7041 -0.5525
5619000000.0 0.01236 -0.8834
5622000000.0 -0.6386 -0.571
5625000000.0 -0.8271 0.2012
5628000000.0 -0.4103 0.7229
5631000000.0 0.3153 0.7823
5634000000.0 0.8016 0.2247
5638000000.0 0.6845 -0.4829
5641000000.0 0.0406 -0.7922
5644000000.0 -0.5945 -0.5508
5647000000.0 -0.8182 0.1387
5650000000.0 -0.4201 0.7162
5653000000.0 0.3298 0.7738
5656000000.0 0.7839 0.2226
5659000000.0 0.7387 -0.4973
5662000000.0 0.03706 -0.8629
5666000000.0 -0.6459 -0.5836
5669000000.0 -0.8491 0.1281
5672000000.0 -0.4182 0.7893
5675000000.0 0.3466 0.8201
5678000000.0 0.8641 0.2597
5681000000.0 0.7673 -0.5342
5684000000.0 0.07823 -0.9437
5688000000.0 -0.6965 -0.6739
5691000000.0 -0.9575 0.1402
5694000000.0 -0.4991 0.8227
5697000000.0 0.3224 0.9138
5700000000.0 0.9363 0.3518
5703000000.0 0.8821 -0.5279
5706000000.0 0.1376 -1.019
5709000000.0 -0.6915 -0.7601
5712000000.0 -1.066 0.05697
5716000000.0 -0.5883 0.8387
5719000000.0 0.264 1.035
5722000000.0 0.9537 0.4612
5725000000.0 0.963 -0.4583
5728000000.0 0.2573 -1.038
5731000000.0 -0.6829 -0.8886
5734000000.0 -1.107 -0.104
5738000000.0 -0.7465 0.794
5741000000.0 0.1403 1.064
5744000000.0 0.9325 0.5801
5747000000.0 1.04 -0.2961
5750000000.0 0.4152 -1.038
5753000000.0 -0.552 -0.9911
5756000000.0 -1.057 -0.2467
5759000000.0 -0.8578 0.6919
5762000000.0 -0.05848 1.095
5766000000.0 0.8323 0.7297
5769000000.0 1.075 -0.1662
5772000000.0 0.5703 -0.942
5775000000.0 -0.348 -1.027
5778000000.0 -1.058 -0.3927
5781000000.0 -0.9587 0.5179
5784000000.0 -0.1883 1.078
5788000000.0 0.7297 0.8729
5791000000.0 1.06 0.03331
5794000000.0 0.7335 -0.8161
5797000000.0 -0.2191 -1.06
5800000000.0 -0.956 -0.5432
5803000000.0 -1.037 0.3476
5806000000.0 -0.3652 0.9914
5809000000.0 0.5222 0.8928
5812000000.0 1.021 0.1328
5816000000.0 0.7767 -0.7423
5819000000.0 -0.07403 -1.012
5822000000.0 -0.8247 -0.5994
5825000000.0 -0.9524 0.2537
5828000000.0 -0.4367 0.8951
5831000000.0 0.4239 0.9092
5834000000.0 0.9696 0.1905
5838000000.0 0.7932 -0.596
5841000000.0 0.01565 -0.9407
5844000000.0 -0.7188 -0.6067
5847000000.0 -0.9242 0.1635
5850000000.0 -0.4501 0.8192
5853000000.0 0.3868 0.8682
5856000000.0 0.8855 0.2435
5859000000.0 0.7364 -0.5021
5862000000.0 0.06702 -0.9406
5866000000.0 -0.6795 -0.613
5869000000.0 -0.9186 0.1515
5872000000.0 -0.4336 0.7875
5875000000.0 0.3386 0.831
5878000000.0 0.8325 0.2731
5881000000.0 0.7152 -0.534
5884000000.0 0.0497 -0.8753
5888000000.0 -0.6332 -0.6013
5891000000.0 -0.8608 0.1246
5894000000.0 -0.4526 0.7544
5897000000.0 0.3207 0.821
5900000000.0 0.8153 0.2589
5903000000.0 0.781 -0.4302
5906000000.0 0.1338 -0.8689
5909000000.0 -0.5751 -0.639
5912000000.0 -0.8728 0.04871
5916000000.0 -0.5058 0.6847
5919000000.0 0.2243 0.8146
5922000000.0 0.775 0.3466
5925000000.0 0.7825 -0.4078
5928000000.0 0.2286 -0.8338
5931000000.0 -0.5333 -0.6864
5934000000.0 -0.8806 -0.04545
5938000000.0 -0.6279 0.6815
5941000000.0 0.121 0.9065
5944000000.0 0.7718 0.4918
5947000000.0 0.8534 -0.2865
5950000000.0 0.3465 -0.8574
5953000000.0 -0.4201 -0.8135
5956000000.0 -0.8782 -0.1984
5959000000.0 -0.7275 0.5719
5962000000.0 -0.04723 0.9374
5966000000.0 0.7341 0.5985
5969000000.0 0.9137 -0.1579
5972000000.0 0.4809 -0.8044
5975000000.0 -0.3119 -0.9214
5978000000.0 -0.9138 -0.3158
5981000000.0 -0.8646 0.4832
5984000000.0 -0.1618 0.9841
5988000000.0 0.6615 0.7608
5991000000.0 0.9875 -0.006843
5994000000.0 0.6425 -0.7773
5997000000.0 -0.1809 -0.9962
6000000000.0 -0.8772 -0.5205
6003000000.0 -0.9182 0.3686
6006000000.0 -0.287 0.9265
6009000000.0 0.5247 0.8437
6012000000.0 0.974 0.1389
6016000000.0 0.7143 -0.6786
6019000000.0 -0.07589 -0.9867
6022000000.0 -0.8227 -0.5582
6025000000.0 -0.9505 0.2704
6028000000.0 -0.405 0.8974
6031000000.0 0.4428 0.8828
6034000000.0 0.9683 0.2145
6038000000.0 0.7657 -0.5945
6041000000.0 -0.01119 -0.9434
6044000000.0 -0.7218 -0.6196
6047000000.0 -0.9502 0.1937
6050000000.0 -0.461 0.8462
6053000000.0 0.3813 0.8423
6056000000.0 0.916 0.2566
6059000000.0 0.7761 -0.509
6062000000.0 0.06172 -0.9267
6066000000.0 -0.6613 -0.6312
6069000000.0 -0.8757 0.09841
6072000000.0 -0.4459 0.7718
6075000000.0 0.3215 0.8313
6078000000.0 0.8131 0.2719
6081000000.0 0.7404 -0.4664
6084000000.0 0.09602 -0.8899
6088000000.0 -0.5898 -0.612
6091000000.0 -0.8738 0.06277
6094000000.0 -0.4915 0.7026
6097000000.0 0.2654 0.8201
6100000000.0 0.7945 0.3225
6103000000.0 0.7503 -0.393
6106000000.0 0.1585 -0.8524
6109000000.0 -0.5713 -0.6494
6112000000.0 -0.8556 0.0538
6116000000.0 -0.5146 0.7084
6119000000.0 0.2098 0.8374
6122000000.0 0.8011 0.3584
6125000000.0 0.7526 -0.4122
6128000000.0 0.1542 -0.8379
6131000000.0 -0.5579 -0.6634
6134000000.0 -0.845 -0.004878
6138000000.0 -0.55 0.6925
6141000000.0 0.1771 0.8787
6144000000.0 0.7824 0.4154
6147000000.0 0.8179 -0.3527
6150000000.0 0.2475 -0.8876
6153000000.0 -0.5289 -0.7253
6156000000.0 -0.8983 -0.04652
6159000000.0 -0.6432 0.6513
6162000000.0 0.1173 0.9416
6166000000.0 0.7939 0.5273
6169000000.0 0.8922 -0.321
6172000000.0 0.32 -0.8723
6175000000.0 -0.4641 -0.8259
6178000000.0 -0.9149 -0.1601
6181000000.0 -0.6933 0.6273
6184000000.0 0.004718 0.9682
6188000000.0 0.7678 0.5517
6191000000.0 0.9096 -0.2147
6194000000.0 0.4024 -0.8653
6197000000.0 -0.4124 -0.8887
6200000000.0 -0.9234 -0.2425
6203000000.0 -0.757 0.5445
6206000000.0 -0.06944 0.9185
6209000000.0 0.6714 0.6623
6212000000.0 0.9149 -0.1068
6216000000.0 0.4959 -0.7461
6219000000.0 -0.2888 -0.8778
6222000000.0 -0.8683 -0.3291
6225000000.0 -0.8342 0.4557
6228000000.0 -0.1577 0.8929
6231000000.0 0.5782 0.6674
6234000000.0 0.9015 0.0148
6238000000.0 0.5776 -0.6715
6241000000.0 -0.1833 -0.8409
6244000000.0 -0.7554 -0.4061
6247000000.0 -0.7785 0.3088
6250000000.0 -0.2564 0.7947
6253000000.0 0.4482 0.7094
6256000000.0 0.798 0.163
6259000000.0 0.6243 -0.5425
6262000000.0 -0.0189 -0.8283
6266000000.0 -0.6602 -0.5181
6269000000.0 -0.7857 0.1682
