! Created with skrf 1.8.0 (http://scikit-rf.org).
# Hz S RI R 50.0 
!freq ReS11 ImS11
4000000000.0 -0.179 -1.466
4003000000.0 -1.219 -0.7898
4006000000.0 -1.47 0.4564
4009000000.0 -0.5343 1.418
4012000000.0 0.769 1.342
4016000000.0 1.53 0.2165
4019000000.0 1.142 -1.04
4022000000.0 -0.08859 -1.523
4025000000.0 -1.323 -0.9283
4028000000.0 -1.587 0.4937
4031000000.0 -0.5895 1.526
4034000000.0 0.7652 1.445
4038000000.0 1.585 0.2241
4041000000.0 1.165 -1.118
4044000000.0 -0.1439 -1.637
4047000000.0 -1.312 -0.9388
4050000000.0 -1.576 0.4725
4053000000.0 -0.6626 1.486
4056000000.0 0.7872 1.475
4059000000.0 1.582 0.3727
4062000000.0 1.26 -0.974
4066000000.0 0.02008 -1.615
4069000000.0 -1.219 -1.08
4072000000.0 -1.646 0.2468
4075000000.0 -0.8377 1.445
4078000000.0 0.5901 1.544
4081000000.0 1.55 0.5545
4084000000.0 1.413 -0.8354
4088000000.0 0.2166 -1.611
4091000000.0 -1.095 -1.211
4094000000.0 -1.659 0.07429
4097000000.0 -1.02 1.345
4100000000.0 0.3695 1.564
4103000000.0 1.423 0.7515
4106000000.0 1.44 -0.5906
4109000000.0 0.4564 -1.499
4112000000.0 -0.8764 -1.278
4116000000.0 -1.523 -0.1913
4119000000.0 -1.152 0.9712
4122000000.0 0.01515 1.514
4125000000.0 1.137 0.9945
4128000000.0 1.455 -0.232
4131000000.0 0.7986 -1.248
4134000000.0 -0.4436 -1.372
4138000000.0 -1.389 -0.5967
4141000000.0 -1.357 0.6056
4144000000.0 -0.384 1.421
4147000000.0 0.8653 1.234
4150000000.0 1.521 0.1337
4153000000.0 1.118 -1.071
4156000000.0 -0.1296 -1.496
4159000000.0 -1.228 -0.8821
4162000000.0 -1.482 0.3791
4166000000.0 -0.6678 1.376
4169000000.0 0.6051 1.371
4172000000.0 1.443 0.4116
4175000000.0 1.245 -0.8327
4178000000.0 0.1348 -1.507
4181000000.0 -1.024 -1.078
4184000000.0 -1.512 0.08887
4188000000.0 -0.9086 1.244
4191000000.0 0.3682 1.462
4194000000.0 1.396 0.6694
4197000000.0 1.419 -0.6505
4200000000.0 0.3726 -1.532
4203000000.0 -0.9664 -1.26
4206000000.0 -1.64 -0.04089
4209000000.0 -1.064 1.252
4212000000.0 0.3281 1.662
4216000000.0 1.493 0.7547
4219000000.0 1.48 -0.7576
4222000000.0 0.3432 -1.676
4225000000.0 -1.116 -1.25
4228000000.0 -1.689 0.1092
4231000000.0 -0.9324 1.398
4234000000.0 0.5676 1.584
4238000000.0 1.56 0.5196
4241000000.0 1.394 -0.9445
4244000000.0 0.1134 -1.622
4247000000.0 -1.249 -1.075
4250000000.0 -1.552 0.3095
4253000000.0 -0.6774 1.392
4256000000.0 0.6823 1.404
4259000000.0 1.485 0.3019
4262000000.0 1.136 -0.9988
4266000000.0 -0.07471 -1.499
4269000000.0 -1.197 -0.8708
4272000000.0 -1.406 0.422
4275000000.0 -0.5261 1.374
4278000000.0 0.7473 1.259
4281000000.0 1.404 0.1841
4284000000.0 1.009 -1.005
4288000000.0 -0.103 -1.364
4291000000.0 -1.158 -0.742
4294000000.0 -1.318 0.4365
4297000000.0 -0.4715 1.251
4300000000.0 0.652 1.13
4303000000.0 1.28 0.2719
4306000000.0 1.026 -0.8297
4309000000.0 0.06463 -1.318
4312000000.0 -0.9953 -0.8557
4316000000.0 -1.269 0.1779
4319000000.0 -0.6732 1.126
4322000000.0 0.4328 1.259
4325000000.0 1.24 0.4783
4328000000.0 1.174 -0.6383
4331000000.0 0.3195 -1.355
4334000000.0 -0.8426 -1.09
4338000000.0 -1.382 -0.06115
4341000000.0 -0.9013 1.06
4344000000.0 0.2354 1.384
4347000000.0 1.231 0.7439
4350000000.0 1.343 -0.483
4353000000.0 0.5015 -1.346
4356000000.0 -0.6936 -1.248
4359000000.0 -1.45 -0.2534
4362000000.0 -1.129 0.951
4366000000.0 0.05383 1.463
4369000000.0 1.14 0.9397
4372000000.0 1.455 -0.2589
4375000000.0 0.7292 -1.301
4378000000.0 -0.5383 -1.374
4381000000.0 -1.46 -0.4522
4384000000.0 -1.275 0.8415
4388000000.0 -0.1444 1.542
4391000000.0 1.084 1.12
4394000000.0 1.573 -0.1245
4397000000.0 0.8499 -1.274
4400000000.0 -0.5039 -1.486
4403000000.0 -1.495 -0.548
4406000000.0 -1.352 0.8437
4409000000.0 -0.1866 1.55
4412000000.0 1.134 1.116
4416000000.0 1.521 -0.1653
4419000000.0 0.7956 -1.308
4422000000.0 -0.5389 -1.473
4425000000.0 -1.443 -0.4478
4428000000.0 -1.244 0.8427
4431000000.0 -0.1131 1.463
4434000000.0 1.089 0.9413
4438000000.0 1.379 -0.2396
4441000000.0 0.6582 -1.257
4444000000.0 -0.5892 -1.229
4447000000.0 -1.327 -0.33
4450000000.0 -1.042 0.8327
4453000000.0 0.02464 1.326
4456000000.0 1.057 0.7816
4459000000.0 1.252 -0.3653
4462000000.0 0.4454 -1.203
4466000000.0 -0.6239 -1.078
4469000000.0 -1.235 -0.1639
4472000000.0 -0.8542 0.8594
4475000000.0 0.1626 1.177
4478000000.0 0.9926 0.6151
4481000000.0 1.079 -0.4373
4484000000.0 0.3495 -1.117
4488000000.0 -0.6704 -0.9528
4491000000.0 -1.12 -0.06673
4494000000.0 -0.7362 0.8387
4497000000.0 0.1617 1.111
4500000000.0 1.003 0.5826
4503000000.0 0.9886 -0.3997
4506000000.0 0.3154 -1.05
4509000000.0 -0.6304 -0.9156
4512000000.0 -1.125 -0.08869
4516000000.0 -0.7737 0.7864
4519000000.0 0.1191 1.142
4522000000.0 0.9612 0.6217
4525000000.0 1.105 -0.3671
4528000000.0 0.4154 -1.041
4531000000.0 -0.5581 -1.003
4534000000.0 -1.14 -0.1707
4538000000.0 -0.8999 0.7811
4541000000.0 0.02565 1.183
4544000000.0 0.9389 0.7025
4547000000.0 1.175 -0.2681
4550000000.0 0.5502 -1.079
4553000000.0 -0.4444 -1.11
4556000000.0 -1.157 -0.3536
4559000000.0 -1.048 0.6568
4562000000.0 -0.1555 1.238
4566000000.0 0.8323 0.9422
4569000000.0 1.243 -0.0533
4572000000.0 0.7832 -1.033
4575000000.0 -0.2844 -1.248
4578000000.0 -1.152 -0.6232
4581000000.0 -1.214 0.528
4584000000.0 -0.3841 1.263
4588000000.0 0.7478 1.144
4591000000.0 1.357 0.1435
4594000000.0 0.9733 -0.9754
4597000000.0 -0.11 -1.387
4600000000.0 -1.13 -0.8141
4603000000.0 -1.384 0.3685
4606000000.0 -0.5693 1.279
4609000000.0 0.6428 1.262
4612000000.0 1.349 0.3229
4616000000.0 1.093 -0.8536
4619000000.0 0.06157 -1.395
4622000000.0 -1.069 -0.8892
4625000000.0 -1.372 0.2346
4628000000.0 -0.6608 1.193
4631000000.0 0.5305 1.257
4634000000.0 1.338 0.4054
4638000000.0 1.131 -0.7547
4641000000.0 0.1098 -1.358
4644000000.0 -0.9752 -0.925
4647000000.0 -1.314 0.1955
4650000000.0 -0.6613 1.178
4653000000.0 0.4976 1.227
4656000000.0 1.209 0.3544
4659000000.0 1.039 -0.7311
4662000000.0 0.09686 -1.234
4666000000.0 -0.9376 -0.8469
4669000000.0 -1.196 0.2223
4672000000.0 -0.5659 1.037
4675000000.0 0.4391 1.06
4678000000.0 1.071 0.3008
4681000000.0 0.9185 -0.6455
4684000000.0 0.06071 -1.149
4688000000.0 -0.8483 -0.7633
4691000000.0 -1.109 0.2094
4694000000.0 -0.5174 0.9608
4697000000.0 0.4191 1.017
4700000000.0 1.027 0.3085
4703000000.0 0.8781 -0.6446
4706000000.0 0.01299 -1.121
4709000000.0 -0.8471 -0.6848
4712000000.0 -1.037 0.2409
4716000000.0 -0.5247 0.955
4719000000.0 0.4553 0.9743
4722000000.0 1.017 0.2495
4725000000.0 0.8342 -0.6527
4728000000.0 0.03168 -1.087
4731000000.0 -0.773 -0.6764
4734000000.0 -1.016 0.1541
4738000000.0 -0.5198 0.9236
4741000000.0 0.3621 1.019
4744000000.0 1.009 0.3013
4747000000.0 0.9037 -0.5472
4750000000.0 0.1601 -1.051
4753000000.0 -0.6951 -0.7723
4756000000.0 -1.061 0.04469
4759000000.0 -0.6876 0.8812
4762000000.0 0.233 1.092
4766000000.0 1.012 0.5098
4769000000.0 1.06 -0.4453
4772000000.0 0.3287 -1.124
4775000000.0 -0.6447 -0.9701
4778000000.0 -1.191 -0.123
4781000000.0 -0.8713 0.8255
4784000000.0 0.07787 1.185
4788000000.0 0.9491 0.7131
4791000000.0 1.173 -0.2836
4794000000.0 0.5611 -1.08
4797000000.0 -0.4596 -1.157
4800000000.0 -1.211 -0.399
4803000000.0 -1.044 0.6424
4806000000.0 -0.1874 1.242
4809000000.0 0.8404 0.9517
4812000000.0 1.287 -0.06501
4816000000.0 0.7807 -1.026
4819000000.0 -0.2763 -1.312
4822000000.0 -1.187 -0.6007
4825000000.0 -1.241 0.5247
4828000000.0 -0.402 1.303
4831000000.0 0.7584 1.162
4834000000.0 1.39 0.1293
4838000000.0 0.9818 -0.9975
4841000000.0 -0.1401 -1.377
4844000000.0 -1.149 -0.7484
4847000000.0 -1.307 0.4233
4850000000.0 -0.5115 1.287
4853000000.0 0.6246 1.213
4856000000.0 1.354 0.2758
4859000000.0 1.033 -0.8678
4862000000.0 -0.02536 -1.372
4866000000.0 -1.059 -0.849
4869000000.0 -1.302 0.2748
4872000000.0 -0.5799 1.21
4875000000.0 0.5327 1.161
4878000000.0 1.251 0.3081
4881000000.0 1.029 -0.746
4884000000.0 0.02618 -1.263
4888000000.0 -0.924 -0.7978
4891000000.0 -1.189 0.2287
4894000000.0 -0.5701 1.017
4897000000.0 0.4417 1.093
4900000000.0 1.103 0.328
4903000000.0 0.93 -0.6507
4906000000.0 0.09469 -1.093
4909000000.0 -0.7914 -0.7543
4912000000.0 -1.055 0.1179
4916000000.0 -0.5529 0.8938
4919000000.0 0.3491 0.9827
4922000000.0 0.9383 0.3289
4925000000.0 0.8398 -0.4518
4928000000.0 0.1473 -0.9659
4931000000.0 -0.6475 -0.6854
4934000000.0 -0.9776 0.03343
4938000000.0 -0.5574 0.7439
4941000000.0 0.2176 0.9251
4944000000.0 0.8498 0.3877
4947000000.0 0.8815 -0.4058
4950000000.0 0.245 -0.919
4953000000.0 -0.6001 -0.7685
4956000000.0 -0.9652 -0.02947
4959000000.0 -0.6301 0.7441
4962000000.0 0.1552 0.9737
4966000000.0 0.8594 0.4831
4969000000.0 0.9476 -0.3403
4972000000.0 0.2838 -0.9464
4975000000.0 -0.5549 -0.8774
4978000000.0 -0.9794 -0.1347
4981000000.0 -0.7252 0.711
4984000000.0 0.07155 1.038
4988000000.0 0.866 0.6286
4991000000.0 1.018 -0.2616
4994000000.0 0.4554 -0.9673
4997000000.0 -0.4752 -0.9911
5000000000.0 -1.082 -0.2844
5003000000.0 -0.9087 0.6587
5006000000.0 -0.09786 1.157
5009000000.0 0.8584 0.8219
5012000000.0 1.203 -0.1258
5016000000.0 0.6393 -1.03
5019000000.0 -0.3814 -1.192
5022000000.0 -1.162 -0.476
5025000000.0 -1.118 0.6215
5028000000.0 -0.2273 1.27
5031000000.0 0.8278 0.9878
5034000000.0 1.288 0.0321
5038000000.0 0.833 -1.0
5041000000.0 -0.2312 -1.262
5044000000.0 -1.112 -0.6048
5047000000.0 -1.229 0.4877
5050000000.0 -0.4025 1.228
5053000000.0 0.6428 1.114
5056000000.0 1.291 0.198
5059000000.0 0.9773 -0.814
5062000000.0 -0.03582 -1.288
5066000000.0 -1.036 -0.8067
5069000000.0 -1.26 0.2608
5072000000.0 -0.6165 1.146
5075000000.0 0.4636 1.196
5078000000.0 1.183 0.3878
5081000000.0 1.076 -0.6876
5084000000.0 0.1202 -1.259
5088000000.0 -0.8726 -0.8674
5091000000.0 -1.199 0.1052
5094000000.0 -0.6888 0.9862
5097000000.0 0.2954 1.133
5100000000.0 1.045 0.5136
5103000000.0 1.041 -0.4662
5106000000.0 0.3001 -1.08
5109000000.0 -0.6171 -0.9337
5112000000.0 -1.082 -0.1143
5116000000.0 -0.8114 0.7715
5119000000.0 0.05998 1.084
5122000000.0 0.8464 0.5717
5125000000.0 1.058 -0.2165
5128000000.0 0.4558 -0.9622
5131000000.0 -0.4324 -0.9212
5134000000.0 -0.9554 -0.2245
5138000000.0 -0.7939 0.6025
5141000000.0 -0.06503 0.9898
5144000000.0 0.7158 0.649
5147000000.0 0.9674 -0.142
5150000000.0 0.4831 -0.8021
5153000000.0 -0.2863 -0.8743
5156000000.0 -0.8619 -0.3252
5159000000.0 -0.7817 0.4774
5162000000.0 -0.124 0.9446
5166000000.0 0.6342 0.6453
5169000000.0 0.9099 -0.004165
5172000000.0 0.5173 -0.7395
5175000000.0 -0.2295 -0.8765
5178000000.0 -0.8332 -0.3712
5181000000.0 -0.8064 0.441
5184000000.0 -0.182 0.8945
5188000000.0 0.6288 0.7038
5191000000.0 0.9245 -0.04012
5194000000.0 0.5544 -0.7489
5197000000.0 -0.23 -0.9077
5200000000.0 -0.856 -0.3845
5203000000.0 -0.847 0.4336
5206000000.0 -0.1938 0.936
5209000000.0 0.6058 0.7295
5212000000.0 0.9539 -0.03265
5216000000.0 0.6128 -0.7627
5219000000.0 -0.199 -0.9606
5222000000.0 -0.8705 -0.4387
5225000000.0 -0.9 0.4111
5228000000.0 -0.2334 0.9688
5231000000.0 0.5952 0.8163
5234000000.0 1.02 0.07718
5238000000.0 0.7171 -0.7517
5241000000.0 -0.1345 -1.006
5244000000.0 -0.8745 -0.5596
5247000000.0 -1.02 0.3186
5250000000.0 -0.3745 0.9904
5253000000.0 0.5242 0.9612
5256000000.0 1.041 0.1934
5259000000.0 0.8339 -0.6919
5262000000.0 -0.004667 -1.091
5266000000.0 -0.8289 -0.7146
5269000000.0 -1.101 0.2085
5272000000.0 -0.5544 0.9356
5275000000.0 0.3399 1.033
5278000000.0 1.017 0.4047
5281000000.0 0.974 -0.5521
5284000000.0 0.2457 -1.094
5288000000.0 -0.6776 -0.8395
5291000000.0 -1.118 -0.0491
5294000000.0 -0.7423 0.814
5297000000.0 0.1311 1.101
5300000000.0 0.9528 0.6262
5303000000.0 1.093 -0.347
5306000000.0 0.489 -1.032
5309000000.0 -0.4947 -1.044
5312000000.0 -1.118 -0.2899
5316000000.0 -0.9442 0.664
5319000000.0 -0.06641 1.117
5322000000.0 0.8359 0.7836
5325000000.0 1.115 -0.0925
5328000000.0 0.6638 -0.9772
5331000000.0 -0.315 -1.123
5334000000.0 -1.064 -0.4702
5338000000.0 -1.042 0.5141
5341000000.0 -0.2421 1.073
5344000000.0 0.7114 0.9132
5347000000.0 1.131 0.04266
5350000000.0 0.7361 -0.828
5353000000.0 -0.1709 -1.071
5356000000.0 -0.9716 -0.571
5359000000.0 -1.013 0.4086
5362000000.0 -0.3224 1.045
5366000000.0 0.5536 0.8859
5369000000.0 1.069 0.1184
5372000000.0 0.782 -0.7587
5375000000.0 -0.1197 -1.023
5378000000.0 -0.8652 -0.5409
5381000000.0 -0.96 0.3395
5384000000.0 -0.3404 0.9482
5388000000.0 0.5289 0.8262
5391000000.0 0.9734 0.1057
5394000000.0 0.6269 -0.6737
5397000000.0 -0.1361 -0.9297
5400000000.0 -0.8262 -0.4883
5403000000.0 -0.8602 0.3127
5406000000.0 -0.2657 0.8638
5409000000.0 0.4695 0.7471
5412000000.0 0.8587 0.0612
5416000000.0 0.5794 -0.6399
5419000000.0 -0.1258 -0.8466
5422000000.0 -0.7488 -0.4519
5425000000.0 -0.8128 0.3103
5428000000.0 -0.2476 0.8244
5431000000.0 0.4902 0.7345
5434000000.0 0.8594 0.05642
5438000000.0 0.6078 -0.6286
5441000000.0 -0.1204 -0.8569
5444000000.0 -0.7714 -0.4493
5447000000.0 -0.8541 0.3208
5450000000.0 -0.2645 0.8235
5453000000.0 0.483 0.759
5456000000.0 0.8673 0.09528
5459000000.0 0.6132 -0.6319
5462000000.0 -0.08997 -0.8926
5466000000.0 -0.7034 -0.5002
5469000000.0 -0.8512 0.2537
5472000000.0 -0.3706 0.8294
5475000000.0 0.4393 0.8584
5478000000.0 0.9236 0.2163
5481000000.0 0.7954 -0.5651
5484000000.0 0.03935 -0.9738
5488000000.0 -0.7069 -0.644
5491000000.0 -0.9883 0.1082
5494000000.0 -0.5426 0.8332
5497000000.0 0.305 0.9279
5500000000.0 0.9385 0.4051
5503000000.0 0.905 -0.4851
5506000000.0 0.2407 -0.9924
5509000000.0 -0.6232 -0.8214
5512000000.0 -1.011 -0.03794
5516000000.0 -0.6605 0.7706
5519000000.0 0.1451 1.038
5522000000.0 0.8575 0.5866
5525000000.0 0.9912 -0.2862
5528000000.0 0.4261 -0.9774
5531000000.0 -0.4405 -0.9562
5534000000.0 -1.035 -0.2576
5538000000.0 -0.8584 0.6033
5541000000.0 -0.1017 1.067
5544000000.0 0.7536 0.7567
5547000000.0 1.057 -0.1021
5550000000.0 0.5999 -0.9097
5553000000.0 -0.2877 -0.9971
5556000000.0 -0.973 -0.4391
5559000000.0 -0.9692 0.4475
5562000000.0 -0.2343 1.036
5566000000.0 0.6749 0.8168
5569000000.0 1.022 0.05384
5572000000.0 0.6741 -0.7589
5575000000.0 -0.1267 -1.018
5578000000.0 -0.8758 -0.4987
5581000000.0 -0.9472 0.3313
5584000000.0 -0.3334 0.9296
5588000000.0 0.4898 0.8863
5591000000.0 0.9492 0.165
5594000000.0 0.7549 -0.6056
5597000000.0 -0.04324 -0.945
5600000000.0 -0.7559 -0.5393
5603000000.0 -0.8964 0.2166
5606000000.0 -0.3944 0.797
5609000000.0 0.3871 0.8204
5612000000.0 0.8597 0.2052
5616000000.0 0.7103 -0.5355
5619000000.0 0.05254 -0.8715
5622000000.0 -0.6401 -0.5667
5625000000.0 -0.8674 0.1353
5628000000.0 -0.426 0.7348
5631000000.0 0.2926 0.7792
5634000000.0 0.8041 0.2485
5638000000.0 0.7246 -0.5135
5641000000.0 0.05698 -0.8398
5644000000.0 -0.6011 -0.5957
5647000000.0 -0.8244 0.1248
5650000000.0 -0.4368 0.7334
5653000000.0 0.2952 0.7951
5656000000.0 0.7822 0.2639
5659000000.0 0.738 -0.4782
5662000000.0 0.07158 -0.8522
5666000000.0 -0.6044 -0.5944
5669000000.0 -0.8707 0.1132
5672000000.0 -0.4657 0.7663
5675000000.0 0.3131 0.8389
5678000000.0 0.8618 0.2794
5681000000.0 0.7935 -0.5167
5684000000.0 0.122 -0.9168
5688000000.0 -0.6459 -0.6573
5691000000.0 -0.9423 0.07698
5694000000.0 -0.5323 0.8071
5697000000.0 0.2881 0.9297
5700000000.0 0.9379 0.3545
5703000000.0 0.8513 -0.5222
5706000000.0 0.1433 -0.9866
5709000000.0 -0.6805 -0.7837
5712000000.0 -1.033 0.06775
5716000000.0 -0.6241 0.8333
5719000000.0 0.2267 1.027
5722000000.0 0.9514 0.4977
5725000000.0 0.975 -0.4322
5728000000.0 0.2998 -1.014
5731000000.0 -0.6147 -0.8679
5734000000.0 -1.055 -0.1059
5738000000.0 -0.7466 0.7832
5741000000.0 0.1011 1.099
5744000000.0 0.8745 0.6051
5747000000.0 1.068 -0.2853
5750000000.0 0.4302 -0.9852
5753000000.0 -0.4924 -0.9949
5756000000.0 -1.074 -0.2895
5759000000.0 -0.9013 0.6356
5762000000.0 -0.04414 1.132
5766000000.0 0.792 0.7393
5769000000.0 1.072 -0.1461
5772000000.0 0.5867 -0.8902
5775000000.0 -0.3105 -1.074
5778000000.0 -1.016 -0.4244
5781000000.0 -0.962 0.5041
5784000000.0 -0.2427 1.049
5788000000.0 0.6667 0.8808
5791000000.0 1.077 0.04135
5794000000.0 0.7193 -0.79
5797000000.0 -0.1383 -1.071
5800000000.0 -0.9506 -0.5601
5803000000.0 -1.023 0.3695
5806000000.0 -0.3667 0.9744
5809000000.0 0.5237 0.9174
5812000000.0 1.025 0.1863
5816000000.0 0.8153 -0.6803
5819000000.0 -0.03474 -1.039
5822000000.0 -0.7988 -0.6396
5825000000.0 -0.9892 0.2053
5828000000.0 -0.4452 0.8702
5831000000.0 0.3786 0.9029
5834000000.0 0.9678 0.2743
5838000000.0 0.7769 -0.5534
5841000000.0 0.05369 -0.9713
5844000000.0 -0.6824 -0.6688
5847000000.0 -0.9653 0.149
5850000000.0 -0.4775 0.8157
5853000000.0 0.3362 0.8783
5856000000.0 0.8939 0.3105
5859000000.0 0.803 -0.4899
5862000000.0 0.1145 -0.8763
5866000000.0 -0.6464 -0.6261
5869000000.0 -0.9228 0.1051
5872000000.0 -0.4908 0.7598
5875000000.0 0.2898 0.8229
5878000000.0 0.8578 0.2969
5881000000.0 0.7227 -0.4842
5884000000.0 0.129 -0.8265
5888000000.0 -0.6208 -0.6359
5891000000.0 -0.876 0.06463
5894000000.0 -0.4747 0.7209
5897000000.0 0.2519 0.8157
5900000000.0 0.8216 0.3058
5903000000.0 0.7499 -0.4353
5906000000.0 0.161 -0.8664
5909000000.0 -0.5684 -0.6622
5912000000.0 -0.8835 0.04643
5916000000.0 -0.5071 0.6629
5919000000.0 0.1714 0.8183
5922000000.0 0.7678 0.3576
5925000000.0 0.8281 -0.3672
5928000000.0 0.2546 -0.8334
5931000000.0 -0.4859 -0.7318
5934000000.0 -0.8886 -0.06312
5938000000.0 -0.6325 0.6438
5941000000.0 0.09227 0.8847
5944000000.0 0.7345 0.5166
5947000000.0 0.8973 -0.246
5950000000.0 0.3722 -0.8211
5953000000.0 -0.4104 -0.7912
5956000000.0 -0.8865 -0.2068
5959000000.0 -0.7561 0.5712
5962000000.0 -0.04519 0.9402
5966000000.0 0.675 0.6485
5969000000.0 0.9396 -0.1081
5972000000.0 0.5337 -0.7967
5975000000.0 -0.3169 -0.947
5978000000.0 -0.8767 -0.3794
5981000000.0 -0.8741 0.4233
5984000000.0 -0.237 0.9596
5988000000.0 0.6046 0.8126
5991000000.0 0.9955 0.04268
5994000000.0 0.6707 -0.7335
5997000000.0 -0.163 -0.9712
6000000000.0 -0.8535 -0.5174
6003000000.0 -0.9588 0.3465
6006000000.0 -0.3303 0.9281
6009000000.0 0.4903 0.8468
6012000000.0 0.9866 0.145
6016000000.0 0.7563 -0.6671
6019000000.0 -0.01907 -1.007
6022000000.0 -0.7928 -0.6209
6025000000.0 -0.9502 0.2236
6028000000.0 -0.4282 0.8795
6031000000.0 0.4013 0.9007
6034000000.0 0.9495 0.2254
6038000000.0 0.7984 -0.5506
6041000000.0 0.05516 -0.9645
6044000000.0 -0.695 -0.6565
6047000000.0 -0.9385 0.1501
6050000000.0 -0.5098 0.8118
6053000000.0 0.3227 0.8957
6056000000.0 0.8957 0.298
6059000000.0 0.8051 -0.5038
6062000000.0 0.1208 -0.9306
6066000000.0 -0.6386 -0.6716
6069000000.0 -0.8972 0.0836
6072000000.0 -0.4954 0.7606
6075000000.0 0.2735 0.8613
6078000000.0 0.8 0.352
6081000000.0 0.7772 -0.4381
6084000000.0 0.1515 -0.877
6088000000.0 -0.5674 -0.6667
6091000000.0 -0.852 0.03808
6094000000.0 -0.5096 0.6827
6097000000.0 0.2046 0.8312
6100000000.0 0.7777 0.3423
6103000000.0 0.7569 -0.3602
6106000000.0 0.1989 -0.8187
6109000000.0 -0.5605 -0.6709
6112000000.0 -0.8499 0.007749
6116000000.0 -0.5699 0.678
6119000000.0 0.1813 0.8201
6122000000.0 0.7756 0.3866
6125000000.0 0.7623 -0.375
6128000000.0 0.2227 -0.851
6131000000.0 -0.5108 -0.6823
6134000000.0 -0.8784 -0.06333
6138000000.0 -0.6015 0.6469
6141000000.0 0.1237 0.8766
6144000000.0 0.743 0.4568
6147000000.0 0.8231 -0.2987
6150000000.0 0.2551 -0.8643
6153000000.0 -0.4713 -0.7592
6156000000.0 -0.9193 -0.09651
6159000000.0 -0.6556 0.6149
6162000000.0 0.06587 0.8746
6166000000.0 0.7292 0.5212
6169000000.0 0.9013 -0.2413
6172000000.0 0.3548 -0.8697
6175000000.0 -0.4352 -0.8406
6178000000.0 -0.9291 -0.1963
6181000000.0 -0.7223 0.5872
6184000000.0 0.0045 0.9269
6188000000.0 0.7343 0.5912
6191000000.0 0.909 -0.1768
6194000000.0 0.4354 -0.7899
6197000000.0 -0.3544 -0.8534
6200000000.0 -0.8807 -0.2859
6203000000.0 -0.7759 0.4898
6206000000.0 -0.1046 0.9141
6209000000.0 0.6522 0.6548
6212000000.0 0.9226 -0.1046
6216000000.0 0.5165 -0.7735
6219000000.0 -0.2456 -0.8976
6222000000.0 -0.8106 -0.381
6225000000.0 -0.8069 0.4062
6228000000.0 -0.221 0.8756
6231000000.0 0.5015 0.7363
6234000000.0 0.9189 0.04417
6238000000.0 0.6116 -0.6492
6241000000.0 -0.1429 -0.8604
6244000000.0 -0.7586 -0.4513
6247000000.0 -0.8282 0.2589
6250000000.0 -0.2975 0.8072
6253000000.0 0.4019 0.7281
6256000000.0 0.8432 0.1614
6259000000.0 0.6636 -0.5145
6262000000.0 -0.004166 -0.825
6266000000.0 -0.6098 -0.5366
6269000000.0 -0.8013 0.1346
