! Created with skrf 1.8.0 (http://scikit-rf.org).
# Hz S RI R 50.0 
!freq ReS11 ImS11
4000000000.0 -0.1499 -1.474
4003000000.0 -1.285 -0.8185
4006000000.0 -1.433 0.5115
4009000000.0 -0.5438 1.41
4012000000.0 0.7786 1.312
4016000000.0 1.534 0.1735
4019000000.0 1.108 -1.044
4022000000.0 -0.1253 -1.55
4025000000.0 -1.299 -0.8823
4028000000.0 -1.522 0.4553
4031000000.0 -0.5736 1.51
4034000000.0 0.8039 1.394
4038000000.0 1.604 0.2001
4041000000.0 1.197 -1.115
4044000000.0 -0.08102 -1.632
4047000000.0 -1.304 -0.9455
4050000000.0 -1.555 0.4702
4053000000.0 -0.6208 1.522
4056000000.0 0.7506 1.42
4059000000.0 1.612 0.3326
4062000000.0 1.288 -0.9939
4066000000.0 -0.0293 -1.608
4069000000.0 -1.27 -1.039
4072000000.0 -1.588 0.2754
4075000000.0 -0.827 1.419
4078000000.0 0.5979 1.539
4081000000.0 1.601 0.5671
4084000000.0 1.414 -0.8314
4088000000.0 0.2264 -1.649
4091000000.0 -1.131 -1.248
4094000000.0 -1.66 0.08111
4097000000.0 -0.981 1.329
4100000000.0 0.3797 1.566
4103000000.0 1.432 0.677
4106000000.0 1.444 -0.6743
4109000000.0 0.4474 -1.504
4112000000.0 -0.8499 -1.275
4116000000.0 -1.51 -0.1785
4119000000.0 -1.105 0.9676
4122000000.0 0.01354 1.466
4125000000.0 1.122 0.9527
4128000000.0 1.453 -0.2342
4131000000.0 0.7648 -1.245
4134000000.0 -0.4517 -1.402
4138000000.0 -1.356 -0.5924
4141000000.0 -1.337 0.6274
4144000000.0 -0.3704 1.464
4147000000.0 0.8534 1.248
4150000000.0 1.532 0.1593
4153000000.0 1.087 -1.088
4156000000.0 -0.133 -1.503
4159000000.0 -1.242 -0.8698
4162000000.0 -1.478 0.3414
4166000000.0 -0.6229 1.37
4169000000.0 0.6294 1.386
4172000000.0 1.421 0.3776
4175000000.0 1.236 -0.8289
4178000000.0 0.1562 -1.477
4181000000.0 -1.071 -1.077
4184000000.0 -1.491 0.08799
4188000000.0 -0.8847 1.216
4191000000.0 0.364 1.443
4194000000.0 1.422 0.6403
4197000000.0 1.407 -0.635
4200000000.0 0.3498 -1.544
4203000000.0 -0.9619 -1.285
4206000000.0 -1.608 -0.02951
4209000000.0 -1.021 1.276
4212000000.0 0.3596 1.628
4216000000.0 1.464 0.7232
4219000000.0 1.474 -0.7519
4222000000.0 0.335 -1.658
4225000000.0 -1.141 -1.233
4228000000.0 -1.689 0.1463
4231000000.0 -0.8888 1.406
4234000000.0 0.5513 1.565
4238000000.0 1.558 0.494
4241000000.0 1.328 -0.9732
4244000000.0 0.06167 -1.623
4247000000.0 -1.181 -1.024
4250000000.0 -1.568 0.3317
4253000000.0 -0.6891 1.387
4256000000.0 0.6813 1.397
4259000000.0 1.518 0.2709
4262000000.0 1.145 -1.012
4266000000.0 -0.1125 -1.508
4269000000.0 -1.229 -0.8406
4272000000.0 -1.425 0.4094
4275000000.0 -0.5144 1.396
4278000000.0 0.7699 1.241
4281000000.0 1.44 0.1323
4284000000.0 1.014 -1.002
4288000000.0 -0.1727 -1.414
4291000000.0 -1.149 -0.752
4294000000.0 -1.282 0.4125
4297000000.0 -0.4959 1.261
4300000000.0 0.6338 1.146
4303000000.0 1.306 0.2312
4306000000.0 0.9867 -0.8371
4309000000.0 0.02052 -1.287
4312000000.0 -0.9625 -0.8455
4316000000.0 -1.299 0.2541
4319000000.0 -0.6962 1.094
4322000000.0 0.4547 1.214
4325000000.0 1.215 0.4854
4328000000.0 1.164 -0.5916
4331000000.0 0.2516 -1.348
4334000000.0 -0.8617 -1.085
4338000000.0 -1.382 -0.03218
4341000000.0 -0.9143 1.077
4344000000.0 0.2399 1.39
4347000000.0 1.204 0.7134
4350000000.0 1.33 -0.5038
4353000000.0 0.498 -1.359
4356000000.0 -0.7452 -1.229
4359000000.0 -1.436 -0.2381
4362000000.0 -1.097 0.9741
4366000000.0 0.0365 1.476
4369000000.0 1.168 0.9196
4372000000.0 1.434 -0.3058
4375000000.0 0.6797 -1.318
4378000000.0 -0.5297 -1.372
4381000000.0 -1.461 -0.4569
4384000000.0 -1.251 0.8436
4388000000.0 -0.1654 1.531
4391000000.0 1.145 1.112
4394000000.0 1.583 -0.216
4397000000.0 0.8626 -1.358
4400000000.0 -0.556 -1.522
4403000000.0 -1.5 -0.4926
4406000000.0 -1.353 0.8291
4409000000.0 -0.1551 1.583
4412000000.0 1.121 1.106
4416000000.0 1.525 -0.2381
4419000000.0 0.7948 -1.323
4422000000.0 -0.5174 -1.373
4425000000.0 -1.412 -0.4351
4428000000.0 -1.202 0.8478
4431000000.0 -0.07396 1.458
4434000000.0 1.09 0.9192
4438000000.0 1.388 -0.2882
4441000000.0 0.6136 -1.257
4444000000.0 -0.5847 -1.257
4447000000.0 -1.321 -0.285
4450000000.0 -1.031 0.8693
4453000000.0 0.05045 1.316
4456000000.0 1.044 0.7772
4459000000.0 1.205 -0.3793
4462000000.0 0.4476 -1.195
4466000000.0 -0.6748 -1.033
4469000000.0 -1.223 -0.1433
4472000000.0 -0.8526 0.8704
4475000000.0 0.1663 1.185
4478000000.0 1.025 0.5945
4481000000.0 1.073 -0.4362
4484000000.0 0.3307 -1.138
4488000000.0 -0.6605 -0.9172
4491000000.0 -1.129 -0.04767
4494000000.0 -0.7821 0.8358
4497000000.0 0.203 1.113
4500000000.0 1.018 0.5406
4503000000.0 1.002 -0.4185
4506000000.0 0.3203 -1.056
4509000000.0 -0.6137 -0.9242
4512000000.0 -1.109 -0.09868
4516000000.0 -0.7811 0.816
4519000000.0 0.1407 1.105
4522000000.0 0.9445 0.5994
4525000000.0 1.066 -0.3783
4528000000.0 0.4068 -1.042
4531000000.0 -0.6069 -1.006
4534000000.0 -1.166 -0.1821
4538000000.0 -0.8858 0.8153
4541000000.0 0.06266 1.172
4544000000.0 0.9503 0.7069
4547000000.0 1.175 -0.2432
4550000000.0 0.5429 -1.072
4553000000.0 -0.4582 -1.121
4556000000.0 -1.142 -0.3573
4559000000.0 -1.026 0.6773
4562000000.0 -0.1438 1.209
4566000000.0 0.8486 0.906
4569000000.0 1.274 -0.07776
4572000000.0 0.7542 -1.001
4575000000.0 -0.3056 -1.241
4578000000.0 -1.184 -0.5883
4581000000.0 -1.21 0.5426
4584000000.0 -0.3441 1.291
4588000000.0 0.7363 1.121
4591000000.0 1.347 0.1382
4594000000.0 0.9691 -0.9859
4597000000.0 -0.1042 -1.386
4600000000.0 -1.109 -0.7728
4603000000.0 -1.332 0.3962
4606000000.0 -0.5634 1.284
4609000000.0 0.6396 1.265
4612000000.0 1.357 0.2624
4616000000.0 1.072 -0.8685
4619000000.0 -0.01233 -1.383
4622000000.0 -1.072 -0.8929
4625000000.0 -1.378 0.3007
4628000000.0 -0.629 1.235
4631000000.0 0.5342 1.255
4634000000.0 1.326 0.3569
4638000000.0 1.127 -0.8143
4641000000.0 0.08065 -1.378
4644000000.0 -1.024 -0.8952
4647000000.0 -1.325 0.2352
4650000000.0 -0.6311 1.14
4653000000.0 0.4971 1.211
4656000000.0 1.25 0.3586
4659000000.0 1.02 -0.7324
4662000000.0 0.0322 -1.262
4666000000.0 -0.9528 -0.8238
4669000000.0 -1.202 0.2233
4672000000.0 -0.5635 1.05
4675000000.0 0.487 1.076
4678000000.0 1.138 0.2902
4681000000.0 0.924 -0.6864
4684000000.0 0.03611 -1.124
4688000000.0 -0.8745 -0.7553
4691000000.0 -1.088 0.2171
4694000000.0 -0.4952 0.9915
4697000000.0 0.441 0.9799
4700000000.0 1.061 0.275
4703000000.0 0.8702 -0.6695
4706000000.0 0.04207 -1.096
4709000000.0 -0.835 -0.6956
4712000000.0 -1.019 0.226
4716000000.0 -0.4423 0.9557
4719000000.0 0.4607 0.9634
4722000000.0 1.059 0.2293
4725000000.0 0.8232 -0.6492
4728000000.0 0.01356 -1.059
4731000000.0 -0.7834 -0.6521
4734000000.0 -1.003 0.2066
4738000000.0 -0.5306 0.9217
4741000000.0 0.3457 0.984
4744000000.0 1.032 0.3078
4747000000.0 0.9202 -0.5567
4750000000.0 0.1413 -1.056
4753000000.0 -0.7277 -0.7776
4756000000.0 -1.101 0.04102
4759000000.0 -0.653 0.9071
4762000000.0 0.2437 1.068
4766000000.0 0.9805 0.5224
4769000000.0 1.037 -0.4423
4772000000.0 0.3113 -1.085
4775000000.0 -0.661 -0.9779
4778000000.0 -1.159 -0.1072
4781000000.0 -0.8476 0.8432
4784000000.0 0.09384 1.183
4788000000.0 0.9736 0.7283
4791000000.0 1.162 -0.2894
4794000000.0 0.5528 -1.073
4797000000.0 -0.4891 -1.137
4800000000.0 -1.224 -0.3881
4803000000.0 -1.033 0.6989
4806000000.0 -0.156 1.268
4809000000.0 0.8654 0.9469
4812000000.0 1.284 -0.02534
4816000000.0 0.8103 -1.048
4819000000.0 -0.3017 -1.279
4822000000.0 -1.205 -0.6191
4825000000.0 -1.258 0.5419
4828000000.0 -0.3764 1.325
4831000000.0 0.7948 1.132
4834000000.0 1.386 0.1054
4838000000.0 1.013 -0.9899
4841000000.0 -0.1311 -1.402
4844000000.0 -1.174 -0.7581
4847000000.0 -1.322 0.4204
4850000000.0 -0.5004 1.301
4853000000.0 0.6881 1.228
4856000000.0 1.36 0.2231
4859000000.0 1.009 -0.8754
4862000000.0 -0.04799 -1.35
4866000000.0 -1.087 -0.8308
4869000000.0 -1.308 0.3018
4872000000.0 -0.5791 1.18
4875000000.0 0.5367 1.198
4878000000.0 1.28 0.3374
4881000000.0 0.9984 -0.7767
4884000000.0 0.01351 -1.264
4888000000.0 -0.9436 -0.8016
4891000000.0 -1.203 0.2436
4894000000.0 -0.5622 1.047
4897000000.0 0.4518 1.087
4900000000.0 1.106 0.2866
4903000000.0 0.925 -0.6505
4906000000.0 0.1001 -1.073
4909000000.0 -0.7681 -0.7234
4912000000.0 -1.038 0.1502
4916000000.0 -0.564 0.8912
4919000000.0 0.3502 0.9338
4922000000.0 0.9224 0.3194
4925000000.0 0.8221 -0.5124
4928000000.0 0.1172 -0.9236
4931000000.0 -0.6302 -0.6871
4934000000.0 -0.9414 0.04404
4938000000.0 -0.5637 0.7762
4941000000.0 0.2184 0.901
4944000000.0 0.8557 0.4136
4947000000.0 0.882 -0.4043
4950000000.0 0.229 -0.9318
4953000000.0 -0.5872 -0.7308
4956000000.0 -0.9546 -0.03246
4959000000.0 -0.6241 0.7176
4962000000.0 0.1954 0.9633
4966000000.0 0.8513 0.4797
4969000000.0 0.9152 -0.3682
4972000000.0 0.3002 -0.9563
4975000000.0 -0.5554 -0.8483
4978000000.0 -1.006 -0.09368
4981000000.0 -0.7273 0.7043
4984000000.0 0.09659 1.029
4988000000.0 0.8454 0.5895
4991000000.0 1.035 -0.2989
4994000000.0 0.4574 -0.9671
4997000000.0 -0.4877 -1.011
5000000000.0 -1.103 -0.2681
5003000000.0 -0.9312 0.7057
5006000000.0 -0.08999 1.181
5009000000.0 0.8734 0.797
5012000000.0 1.174 -0.1562
5016000000.0 0.652 -1.042
5019000000.0 -0.3809 -1.187
5022000000.0 -1.172 -0.4461
5025000000.0 -1.123 0.617
5028000000.0 -0.2157 1.273
5031000000.0 0.8517 0.9662
5034000000.0 1.292 -0.02617
5038000000.0 0.8033 -1.015
5041000000.0 -0.2494 -1.232
5044000000.0 -1.137 -0.6129
5047000000.0 -1.192 0.4575
5050000000.0 -0.3679 1.224
5053000000.0 0.6883 1.11
5056000000.0 1.306 0.1705
5059000000.0 0.9674 -0.8896
5062000000.0 -0.03654 -1.302
5066000000.0 -1.022 -0.799
5069000000.0 -1.26 0.2795
5072000000.0 -0.6044 1.144
5075000000.0 0.4996 1.173
5078000000.0 1.212 0.3739
5081000000.0 1.084 -0.6829
5084000000.0 0.1362 -1.231
5088000000.0 -0.8818 -0.885
5091000000.0 -1.204 0.0845
5094000000.0 -0.7146 0.9824
5097000000.0 0.283 1.12
5100000000.0 1.051 0.4982
5103000000.0 1.053 -0.4803
5106000000.0 0.3307 -1.082
5109000000.0 -0.6051 -0.8899
5112000000.0 -1.087 -0.0895
5116000000.0 -0.7771 0.7439
5119000000.0 0.06566 1.039
5122000000.0 0.8682 0.6145
5125000000.0 1.018 -0.2834
5128000000.0 0.4186 -0.9504
5131000000.0 -0.4524 -0.9089
5134000000.0 -0.9861 -0.2741
5138000000.0 -0.7757 0.6072
5141000000.0 -0.06232 0.9675
5144000000.0 0.7445 0.6367
5147000000.0 0.9191 -0.1466
5150000000.0 0.4742 -0.7919
5153000000.0 -0.3273 -0.8667
5156000000.0 -0.895 -0.2965
5159000000.0 -0.7975 0.4773
5162000000.0 -0.113 0.9084
5166000000.0 0.6183 0.6766
5169000000.0 0.9085 -0.06633
5172000000.0 0.4995 -0.7465
5175000000.0 -0.239 -0.8837
5178000000.0 -0.8263 -0.3866
5181000000.0 -0.8251 0.4033
5184000000.0 -0.1596 0.9115
5188000000.0 0.6167 0.6931
5191000000.0 0.9397 -0.03042
5194000000.0 0.5305 -0.7469
5197000000.0 -0.2667 -0.9131
5200000000.0 -0.8745 -0.35
5203000000.0 -0.8307 0.4214
5206000000.0 -0.167 0.9426
5209000000.0 0.6271 0.7043
5212000000.0 0.9549 -0.04001
5216000000.0 0.6092 -0.7682
5219000000.0 -0.2027 -0.9586
5222000000.0 -0.8651 -0.4338
5225000000.0 -0.8966 0.421
5228000000.0 -0.2748 0.9864
5231000000.0 0.6019 0.8164
5234000000.0 1.02 0.05666
5238000000.0 0.6818 -0.7527
5241000000.0 -0.1219 -1.03
5244000000.0 -0.904 -0.5511
5247000000.0 -1.007 0.3585
5250000000.0 -0.3687 0.9655
5253000000.0 0.5341 0.9147
5256000000.0 1.065 0.1637
5259000000.0 0.8273 -0.7061
5262000000.0 0.001133 -1.126
5266000000.0 -0.8287 -0.6917
5269000000.0 -1.09 0.2095
5272000000.0 -0.5455 0.9403
5275000000.0 0.3652 1.023
5278000000.0 1.042 0.3874
5281000000.0 0.9633 -0.5263
5284000000.0 0.2333 -1.094
5288000000.0 -0.7298 -0.8762
5291000000.0 -1.088 -0.02521
5294000000.0 -0.7345 0.8148
5297000000.0 0.1725 1.14
5300000000.0 0.9616 0.6193
5303000000.0 1.078 -0.3333
5306000000.0 0.4343 -1.044
5309000000.0 -0.4946 -0.9859
5312000000.0 -1.104 -0.2787
5316000000.0 -0.9382 0.6849
5319000000.0 -0.07082 1.139
5322000000.0 0.8305 0.8168
5325000000.0 1.156 -0.09951
5328000000.0 0.6111 -0.9474
5331000000.0 -0.3457 -1.108
5334000000.0 -1.04 -0.4419
5338000000.0 -1.007 0.5389
5341000000.0 -0.2352 1.115
5344000000.0 0.691 0.8868
5347000000.0 1.121 0.03349
5350000000.0 0.7532 -0.8383
5353000000.0 -0.1823 -1.072
5356000000.0 -0.9625 -0.5537
5359000000.0 -1.03 0.4082
5362000000.0 -0.3377 1.001
5366000000.0 0.5867 0.8631
5369000000.0 1.065 0.1066
5372000000.0 0.73 -0.7646
5375000000.0 -0.1457 -1.03
5378000000.0 -0.8718 -0.5758
5381000000.0 -0.969 0.3477
5384000000.0 -0.3095 0.9532
5388000000.0 0.5349 0.8215
5391000000.0 0.9663 0.06739
5394000000.0 0.6339 -0.6905
5397000000.0 -0.1287 -0.9315
5400000000.0 -0.8014 -0.4894
5403000000.0 -0.816 0.354
5406000000.0 -0.2742 0.8698
5409000000.0 0.4962 0.7202
5412000000.0 0.8685 0.07509
5416000000.0 0.5685 -0.6426
5419000000.0 -0.1563 -0.8527
5422000000.0 -0.7515 -0.4264
5425000000.0 -0.8142 0.2995
5428000000.0 -0.2484 0.8345
5431000000.0 0.5013 0.7084
5434000000.0 0.8544 0.0484
5438000000.0 0.6055 -0.6362
5441000000.0 -0.1571 -0.8497
5444000000.0 -0.7681 -0.445
5447000000.0 -0.8301 0.3687
5450000000.0 -0.2335 0.8546
5453000000.0 0.4863 0.7649
5456000000.0 0.9015 0.06756
5459000000.0 0.6236 -0.6634
5462000000.0 -0.08191 -0.8998
5466000000.0 -0.7413 -0.5199
5469000000.0 -0.8955 0.2414
5472000000.0 -0.3835 0.8374
5475000000.0 0.3986 0.8223
5478000000.0 0.907 0.1987
5481000000.0 0.7419 -0.5599
5484000000.0 0.05316 -0.9512
5488000000.0 -0.7342 -0.6355
5491000000.0 -0.9891 0.09427
5494000000.0 -0.5511 0.8282
5497000000.0 0.3394 0.9404
5500000000.0 0.9455 0.3572
5503000000.0 0.886 -0.4777
5506000000.0 0.1939 -0.9747
5509000000.0 -0.6249 -0.8182
5512000000.0 -1.007 -0.04389
5516000000.0 -0.7131 0.7495
5519000000.0 0.127 1.015
5522000000.0 0.8632 0.5917
5525000000.0 1.006 -0.2837
5528000000.0 0.4417 -0.9793
5531000000.0 -0.4673 -0.9536
5534000000.0 -1.006 -0.2429
5538000000.0 -0.8614 0.6453
5541000000.0 -0.09582 1.052
5544000000.0 0.7637 0.7713
5547000000.0 1.038 -0.1312
5550000000.0 0.5964 -0.8982
5553000000.0 -0.3013 -1.031
5556000000.0 -1.027 -0.4234
5559000000.0 -0.9366 0.4873
5562000000.0 -0.2482 1.026
5566000000.0 0.6348 0.8244
5569000000.0 1.039 0.02184
5572000000.0 0.6834 -0.8063
5575000000.0 -0.189 -1.009
5578000000.0 -0.8381 -0.5027
5581000000.0 -0.9127 0.3448
5584000000.0 -0.3001 0.9161
5588000000.0 0.5413 0.8076
5591000000.0 0.9624 0.1234
5594000000.0 0.6942 -0.6341
5597000000.0 -0.04038 -0.9387
5600000000.0 -0.7316 -0.5434
5603000000.0 -0.8719 0.2352
5606000000.0 -0.3784 0.8277
5609000000.0 0.3773 0.7923
5612000000.0 0.8561 0.1981
5616000000.0 0.6951 -0.5266
5619000000.0 0.009288 -0.8696
5622000000.0 -0.6729 -0.586
5625000000.0 -0.8099 0.1636
5628000000.0 -0.3999 0.76
5631000000.0 0.3234 0.7522
5634000000.0 0.8199 0.2275
5638000000.0 0.7112 -0.4756
5641000000.0 0.05488 -0.844
5644000000.0 -0.6035 -0.5692
5647000000.0 -0.8277 0.1261
5650000000.0 -0.4257 0.7197
5653000000.0 0.3081 0.7836
5656000000.0 0.8134 0.2495
5659000000.0 0.7091 -0.483
5662000000.0 0.05172 -0.861
5666000000.0 -0.6459 -0.5928
5669000000.0 -0.8765 0.124
5672000000.0 -0.4292 0.7917
5675000000.0 0.3175 0.8441
5678000000.0 0.8488 0.2659
5681000000.0 0.7455 -0.5083
5684000000.0 0.08759 -0.9412
5688000000.0 -0.7049 -0.6517
5691000000.0 -0.9606 0.1483
5694000000.0 -0.5068 0.8388
5697000000.0 0.3185 0.9246
5700000000.0 0.9285 0.3584
5703000000.0 0.85 -0.5006
5706000000.0 0.146 -1.016
5709000000.0 -0.6931 -0.7319
5712000000.0 -1.032 0.04629
5716000000.0 -0.5956 0.8381
5719000000.0 0.266 0.994
5722000000.0 0.9381 0.4368
5725000000.0 0.9799 -0.4764
5728000000.0 0.2711 -1.016
5731000000.0 -0.6358 -0.8752
5734000000.0 -1.077 -0.07038
5738000000.0 -0.7679 0.7791
5741000000.0 0.1276 1.119
5744000000.0 0.8993 0.6057
5747000000.0 1.053 -0.3171
5750000000.0 0.431 -0.9837
5753000000.0 -0.5014 -0.9679
5756000000.0 -1.065 -0.2647
5759000000.0 -0.8746 0.6671
5762000000.0 -0.05775 1.13
5766000000.0 0.835 0.7215
5769000000.0 1.134 -0.1478
5772000000.0 0.5768 -0.9384
5775000000.0 -0.3532 -1.069
5778000000.0 -1.015 -0.4089
5781000000.0 -0.9615 0.5641
5784000000.0 -0.2206 1.079
5788000000.0 0.7022 0.8331
5791000000.0 1.103 0.02267
5794000000.0 0.7035 -0.8261
5797000000.0 -0.1818 -1.094
5800000000.0 -0.9446 -0.5132
5803000000.0 -1.001 0.3705
5806000000.0 -0.3322 1.006
5809000000.0 0.5189 0.8986
5812000000.0 1.045 0.142
5816000000.0 0.761 -0.692
5819000000.0 -0.05014 -1.008
5822000000.0 -0.8202 -0.5997
5825000000.0 -0.9802 0.263
5828000000.0 -0.4371 0.9022
5831000000.0 0.4421 0.9177
5834000000.0 0.9665 0.2331
5838000000.0 0.787 -0.6047
5841000000.0 0.01465 -0.962
5844000000.0 -0.7406 -0.6626
5847000000.0 -0.9205 0.188
5850000000.0 -0.439 0.808
5853000000.0 0.3626 0.8757
5856000000.0 0.894 0.2773
5859000000.0 0.7607 -0.5561
5862000000.0 0.06147 -0.9279
5866000000.0 -0.6748 -0.6087
5869000000.0 -0.9022 0.1472
5872000000.0 -0.4483 0.7753
5875000000.0 0.3154 0.8353
5878000000.0 0.8932 0.2623
5881000000.0 0.7447 -0.4529
5884000000.0 0.08335 -0.8695
5888000000.0 -0.6192 -0.6168
5891000000.0 -0.8841 0.08811
5894000000.0 -0.4565 0.7089
5897000000.0 0.2723 0.7958
5900000000.0 0.7832 0.2934
5903000000.0 0.7211 -0.4369
5906000000.0 0.11 -0.8298
5909000000.0 -0.5401 -0.656
5912000000.0 -0.8541 0.03987
5916000000.0 -0.4861 0.6802
5919000000.0 0.2126 0.8518
5922000000.0 0.8082 0.3462
5925000000.0 0.7675 -0.3924
5928000000.0 0.2157 -0.8323
5931000000.0 -0.5341 -0.7297
5934000000.0 -0.905 -0.06908
5938000000.0 -0.6333 0.6654
5941000000.0 0.08429 0.9422
5944000000.0 0.7699 0.4861
5947000000.0 0.8548 -0.2636
5950000000.0 0.3258 -0.8534
5953000000.0 -0.367 -0.8292
5956000000.0 -0.8884 -0.1794
5959000000.0 -0.7007 0.5748
5962000000.0 -0.04492 0.9314
5966000000.0 0.6822 0.635
5969000000.0 0.9152 -0.1258
5972000000.0 0.5137 -0.8098
5975000000.0 -0.3 -0.8869
5978000000.0 -0.9065 -0.3781
5981000000.0 -0.8589 0.4567
5984000000.0 -0.2183 0.9692
5988000000.0 0.6345 0.763
5991000000.0 0.981 -0.0008971
5994000000.0 0.6622 -0.777
5997000000.0 -0.1728 -0.9814
6000000000.0 -0.8754 -0.5176
6003000000.0 -0.912 0.3655
6006000000.0 -0.3149 0.9628
6009000000.0 0.5018 0.8352
6012000000.0 0.9906 0.1467
6016000000.0 0.7346 -0.6646
6019000000.0 -0.06254 -0.9976
6022000000.0 -0.8339 -0.5985
6025000000.0 -0.9567 0.2503
6028000000.0 -0.3928 0.896
6031000000.0 0.446 0.8931
6034000000.0 0.9419 0.2249
6038000000.0 0.776 -0.5869
6041000000.0 0.03239 -0.9576
6044000000.0 -0.7423 -0.6425
6047000000.0 -0.9216 0.1537
6050000000.0 -0.4593 0.8129
6053000000.0 0.3608 0.8875
6056000000.0 0.8806 0.2726
6059000000.0 0.7665 -0.5152
6062000000.0 0.09142 -0.9176
6066000000.0 -0.666 -0.6241
6069000000.0 -0.9064 0.106
6072000000.0 -0.4606 0.7598
6075000000.0 0.3147 0.8466
6078000000.0 0.8383 0.3054
6081000000.0 0.742 -0.4711
6084000000.0 0.1136 -0.8985
6088000000.0 -0.5847 -0.6263
6091000000.0 -0.86 0.05429
6094000000.0 -0.499 0.7221
6097000000.0 0.2363 0.8112
6100000000.0 0.8038 0.3336
6103000000.0 0.7343 -0.4276
6106000000.0 0.148 -0.8317
6109000000.0 -0.5668 -0.6486
6112000000.0 -0.8298 0.0287
6116000000.0 -0.5276 0.6751
6119000000.0 0.2067 0.82
6122000000.0 0.7783 0.3738
6125000000.0 0.7905 -0.4105
6128000000.0 0.1751 -0.844
6131000000.0 -0.553 -0.6884
6134000000.0 -0.8644 -0.017
6138000000.0 -0.56 0.6747
6141000000.0 0.1706 0.8707
6144000000.0 0.7665 0.4082
6147000000.0 0.8187 -0.3504
6150000000.0 0.2295 -0.873
6153000000.0 -0.4487 -0.7267
6156000000.0 -0.8645 -0.07271
6159000000.0 -0.638 0.6677
6162000000.0 0.1266 0.8834
6166000000.0 0.8006 0.5022
6169000000.0 0.891 -0.2931
6172000000.0 0.3644 -0.8598
6175000000.0 -0.4376 -0.8228
6178000000.0 -0.9604 -0.2012
6181000000.0 -0.7317 0.6262
6184000000.0 0.01788 0.9248
6188000000.0 0.716 0.5737
6191000000.0 0.9339 -0.1824
6194000000.0 0.464 -0.8416
6197000000.0 -0.3991 -0.8701
6200000000.0 -0.8938 -0.254
6203000000.0 -0.7363 0.5397
6206000000.0 -0.08542 0.9408
6209000000.0 0.6956 0.607
6212000000.0 0.9195 -0.1178
6216000000.0 0.5071 -0.8068
6219000000.0 -0.2571 -0.8887
6222000000.0 -0.8362 -0.3725
6225000000.0 -0.7798 0.4295
6228000000.0 -0.1456 0.9045
6231000000.0 0.5747 0.6888
6234000000.0 0.9175 0.02953
6238000000.0 0.5603 -0.6865
6241000000.0 -0.1933 -0.8703
6244000000.0 -0.7735 -0.4482
6247000000.0 -0.7656 0.3067
6250000000.0 -0.2755 0.8064
6253000000.0 0.4467 0.7133
6256000000.0 0.8338 0.1611
6259000000.0 0.6253 -0.5301
6262000000.0 -0.03258 -0.8514
6266000000.0 -0.6207 -0.5164
