! Created with skrf 1.8.0 (http://scikit-rf.org).
# Hz S RI R 50.0 
!freq ReS11 ImS11
4000000000.0 -0.8773 -1.223
4003000000.0 -1.491 -0.06128
4006000000.0 -1.027 1.159
4009000000.0 0.3047 1.555
4012000000.0 1.39 0.7685
4016000000.0 1.48 -0.6214
4019000000.0 0.3996 -1.562
4022000000.0 -0.9425 -1.315
4025000000.0 -1.622 -0.05355
4028000000.0 -1.02 1.277
4031000000.0 0.3354 1.661
4034000000.0 1.562 0.7782
4038000000.0 1.606 -0.7948
4041000000.0 0.4084 -1.678
4044000000.0 -0.9961 -1.308
4047000000.0 -1.689 -0.0186
4050000000.0 -1.041 1.291
4053000000.0 0.3205 1.616
4056000000.0 1.491 0.7802
4059000000.0 1.488 -0.6442
4062000000.0 0.5012 -1.572
4066000000.0 -0.9095 -1.34
4069000000.0 -1.564 -0.1734
4072000000.0 -1.122 1.132
4075000000.0 0.1182 1.639
4078000000.0 1.309 0.921
4081000000.0 1.558 -0.4454
4084000000.0 0.6654 -1.474
4088000000.0 -0.7298 -1.389
4091000000.0 -1.525 -0.3166
4094000000.0 -1.241 1.009
4097000000.0 -0.07098 1.55
4100000000.0 1.182 1.013
4103000000.0 1.508 -0.2665
4106000000.0 0.754 -1.321
4109000000.0 -0.5094 -1.385
4112000000.0 -1.339 -0.4943
4116000000.0 -1.226 0.7166
4119000000.0 -0.2225 1.375
4122000000.0 0.8568 1.096
4125000000.0 1.407 -0.005914
4128000000.0 0.8924 -1.07
4131000000.0 -0.251 -1.372
4134000000.0 -1.233 -0.7319
4138000000.0 -1.31 0.5292
4141000000.0 -0.4525 1.343
4144000000.0 0.7688 1.208
4147000000.0 1.419 0.1518
4150000000.0 1.016 -1.005
4153000000.0 -0.1997 -1.433
4156000000.0 -1.246 -0.7583
4159000000.0 -1.346 0.5209
4162000000.0 -0.4223 1.41
4166000000.0 0.8159 1.205
4169000000.0 1.458 0.07134
4172000000.0 0.9054 -1.14
4175000000.0 -0.3796 -1.435
4178000000.0 -1.306 -0.5501
4181000000.0 -1.223 0.7369
4184000000.0 -0.1555 1.411
4188000000.0 1.062 0.9996
4191000000.0 1.427 -0.2818
4194000000.0 0.6031 -1.293
4197000000.0 -0.7122 -1.29
4200000000.0 -1.459 -0.1939
4203000000.0 -1.027 1.051
4206000000.0 0.3047 1.433
4209000000.0 1.337 0.6239
4212000000.0 1.295 -0.7285
4216000000.0 0.1408 -1.463
4219000000.0 -1.107 -0.9618
4222000000.0 -1.421 0.3325
4225000000.0 -0.5959 1.314
4228000000.0 0.7433 1.242
4231000000.0 1.417 0.1683
4234000000.0 0.9825 -0.991
4238000000.0 -0.1865 -1.375
4241000000.0 -1.199 -0.6721
4244000000.0 -1.265 0.5121
4247000000.0 -0.3964 1.306
4250000000.0 0.7873 1.114
4253000000.0 1.377 0.08227
4256000000.0 0.8974 -0.9901
4259000000.0 -0.2254 -1.386
4262000000.0 -1.218 -0.6999
4266000000.0 -1.274 0.5236
4269000000.0 -0.4321 1.32
4272000000.0 0.815 1.192
4275000000.0 1.453 0.1494
4278000000.0 1.016 -1.058
4281000000.0 -0.2122 -1.433
4284000000.0 -1.207 -0.7636
4288000000.0 -1.382 0.4892
4291000000.0 -0.4907 1.344
4294000000.0 0.7921 1.231
4297000000.0 1.469 0.1522
4300000000.0 1.032 -0.9975
4303000000.0 -0.1365 -1.451
4306000000.0 -1.229 -0.8083
4309000000.0 -1.417 0.4697
4312000000.0 -0.5234 1.39
4316000000.0 0.7699 1.285
4319000000.0 1.52 0.2235
4322000000.0 1.145 -1.089
4325000000.0 -0.1279 -1.552
4328000000.0 -1.334 -0.8626
4331000000.0 -1.514 0.5884
4334000000.0 -0.4468 1.585
4338000000.0 0.9905 1.291
4341000000.0 1.655 -0.008257
4344000000.0 0.9345 -1.339
4347000000.0 -0.5089 -1.591
4350000000.0 -1.556 -0.4718
4353000000.0 -1.31 0.9429
4356000000.0 0.004077 1.579
4359000000.0 1.242 0.9278
4362000000.0 1.455 -0.4309
4366000000.0 0.5104 -1.392
4369000000.0 -0.8221 -1.233
4372000000.0 -1.443 -0.09548
4375000000.0 -0.9541 1.092
4378000000.0 0.2983 1.388
4381000000.0 1.239 0.5808
4384000000.0 1.207 -0.6639
4388000000.0 0.2412 -1.338
4391000000.0 -0.9323 -1.001
4394000000.0 -1.329 0.09053
4397000000.0 -0.7126 1.132
4400000000.0 0.4758 1.25
4403000000.0 1.249 0.413
4406000000.0 1.084 -0.7265
4409000000.0 0.09622 -1.327
4412000000.0 -0.9388 -0.8788
4416000000.0 -1.287 0.215
4419000000.0 -0.6671 1.137
4422000000.0 0.48 1.244
4425000000.0 1.224 0.3753
4428000000.0 1.114 -0.718
4431000000.0 0.1452 -1.308
4434000000.0 -0.9203 -0.9726
4438000000.0 -1.313 0.1055
4441000000.0 -0.7577 1.117
4444000000.0 0.3956 1.351
4447000000.0 1.267 0.5584
4450000000.0 1.263 -0.6337
4453000000.0 0.3148 -1.384
4456000000.0 -0.872 -1.128
4459000000.0 -1.437 0.002995
4462000000.0 -0.9213 1.146
4466000000.0 0.2618 1.429
4469000000.0 1.337 0.7309
4472000000.0 1.407 -0.5811
4475000000.0 0.4687 -1.473
4478000000.0 -0.8613 -1.286
4481000000.0 -1.55 -0.1644
4484000000.0 -1.077 1.1
4488000000.0 0.177 1.539
4491000000.0 1.335 0.84
4494000000.0 1.485 -0.4948
4497000000.0 0.572 -1.446
4500000000.0 -0.8017 -1.351
4503000000.0 -1.493 -0.2094
4506000000.0 -1.108 1.032
4509000000.0 0.1162 1.552
4512000000.0 1.269 0.8519
4516000000.0 1.432 -0.4372
4519000000.0 0.5476 -1.442
4522000000.0 -0.7567 -1.288
4525000000.0 -1.5 -0.1807
4528000000.0 -1.042 1.056
4531000000.0 0.179 1.497
4534000000.0 1.237 0.7569
4538000000.0 1.354 -0.5082
4541000000.0 0.4297 -1.335
4544000000.0 -0.7906 -1.118
4547000000.0 -1.373 -0.06117
4550000000.0 -0.8954 1.032
4553000000.0 0.2485 1.298
4556000000.0 1.151 0.6167
4559000000.0 1.151 -0.5313
4562000000.0 0.2735 -1.214
4566000000.0 -0.7838 -0.9498
4569000000.0 -1.184 0.008516
4572000000.0 -0.6938 0.9561
4575000000.0 0.322 1.126
4578000000.0 1.106 0.4347
4581000000.0 0.9866 -0.5491
4584000000.0 0.1419 -1.135
4588000000.0 -0.8029 -0.7948
4591000000.0 -1.111 0.161
4594000000.0 -0.5775 0.968
4597000000.0 0.4153 1.011
4600000000.0 1.063 0.2943
4603000000.0 0.8998 -0.6907
4606000000.0 0.0427 -1.1
4609000000.0 -0.8587 -0.7169
4612000000.0 -1.103 0.1956
4616000000.0 -0.4939 0.9706
4619000000.0 0.4683 1.024
4622000000.0 1.127 0.2654
4625000000.0 0.8989 -0.6967
4628000000.0 0.008179 -1.086
4631000000.0 -0.8698 -0.7158
4634000000.0 -1.122 0.236
4638000000.0 -0.5 1.051
4641000000.0 0.4902 1.088
4644000000.0 1.173 0.3102
4647000000.0 0.974 -0.7151
4650000000.0 0.06861 -1.239
4653000000.0 -0.9048 -0.8123
4656000000.0 -1.21 0.2156
4659000000.0 -0.6282 1.095
4662000000.0 0.4612 1.209
4666000000.0 1.211 0.3666
4669000000.0 1.074 -0.7212
4672000000.0 0.1021 -1.28
4675000000.0 -0.9459 -0.9143
4678000000.0 -1.305 0.1218
4681000000.0 -0.7415 1.083
4684000000.0 0.4295 1.285
4688000000.0 1.273 0.4868
4691000000.0 1.167 -0.6723
4694000000.0 0.2226 -1.374
4697000000.0 -0.9007 -1.049
4700000000.0 -1.408 0.1029
4703000000.0 -0.8288 1.151
4706000000.0 0.4022 1.375
4709000000.0 1.316 0.5191
4712000000.0 1.257 -0.6998
4716000000.0 0.1747 -1.426
4719000000.0 -1.01 -0.9783
4722000000.0 -1.383 0.2204
4725000000.0 -0.6498 1.186
4728000000.0 0.5072 1.24
4731000000.0 1.257 0.3419
4734000000.0 1.024 -0.8016
4738000000.0 0.02175 -1.246
4741000000.0 -0.9803 -0.7672
4744000000.0 -1.159 0.3188
4747000000.0 -0.4537 1.086
4750000000.0 0.5691 1.005
4753000000.0 1.132 0.1376
4756000000.0 0.7897 -0.8013
4759000000.0 -0.1255 -1.066
4762000000.0 -0.9375 -0.4942
4766000000.0 -0.9496 0.4434
4769000000.0 -0.2367 0.9897
4772000000.0 0.6346 0.7629
4775000000.0 0.9702 -0.05415
4778000000.0 0.5505 -0.8095
4781000000.0 -0.3011 -0.9132
4784000000.0 -0.8843 -0.3118
4788000000.0 -0.7952 0.5166
4791000000.0 -0.1073 0.9194
4794000000.0 0.6744 0.6191
4797000000.0 0.923 -0.1848
4800000000.0 0.4564 -0.7901
4803000000.0 -0.361 -0.8342
4806000000.0 -0.8887 -0.2653
4809000000.0 -0.7594 0.5463
4812000000.0 -0.04794 0.9555
4816000000.0 0.6991 0.6348
4819000000.0 0.9453 -0.1733
4822000000.0 0.4656 -0.8592
4825000000.0 -0.3736 -0.9135
4828000000.0 -0.9808 -0.3089
4831000000.0 -0.849 0.5903
4834000000.0 -0.09487 1.035
4838000000.0 0.7936 0.7396
4841000000.0 1.073 -0.1319
4844000000.0 0.591 -0.9443
4847000000.0 -0.3896 -1.044
4850000000.0 -1.063 -0.3828
4853000000.0 -0.956 0.609
4856000000.0 -0.1387 1.152
4859000000.0 0.7918 0.8898
4862000000.0 1.22 -0.09684
4866000000.0 0.7223 -1.05
4869000000.0 -0.3343 -1.221
4872000000.0 -1.174 -0.4879
4875000000.0 -1.16 0.6014
4878000000.0 -0.2392 1.314
4881000000.0 0.8919 1.051
4884000000.0 1.346 -0.073
4888000000.0 0.8089 -1.087
4891000000.0 -0.3974 -1.329
4894000000.0 -1.276 -0.5399
4897000000.0 -1.203 0.6618
4900000000.0 -0.2097 1.361
4903000000.0 0.93 1.029
4906000000.0 1.324 -0.1187
4909000000.0 0.7465 -1.074
4912000000.0 -0.3911 -1.242
4916000000.0 -1.182 -0.4165
4919000000.0 -1.06 0.6463
4922000000.0 -0.1404 1.197
4925000000.0 0.7955 0.8511
4928000000.0 1.19 -0.1047
4931000000.0 0.6177 -0.9594
4934000000.0 -0.3365 -1.066
4938000000.0 -1.043 -0.4138
4941000000.0 -0.9326 0.5206
4944000000.0 -0.1533 1.041
4947000000.0 0.7207 0.7687
4950000000.0 1.045 -0.04499
4953000000.0 0.5736 -0.8575
4956000000.0 -0.3058 -0.9747
4959000000.0 -0.9333 -0.3561
4962000000.0 -0.8328 0.5008
4966000000.0 -0.1245 0.989
4969000000.0 0.6695 0.688
4972000000.0 0.9556 -0.09895
4975000000.0 0.5114 -0.7586
4978000000.0 -0.2985 -0.897
4981000000.0 -0.8567 -0.3261
4984000000.0 -0.7972 0.4921
4988000000.0 -0.1244 0.908
4991000000.0 0.6248 0.6661
4994000000.0 0.9058 -0.07099
4997000000.0 0.5008 -0.7658
5000000000.0 -0.2776 -0.8852
5003000000.0 -0.8659 -0.365
5006000000.0 -0.8455 0.4956
5009000000.0 -0.1569 0.9647
5012000000.0 0.6715 0.7551
5016000000.0 1.01 -0.05373
5019000000.0 0.6197 -0.8276
5022000000.0 -0.2773 -0.9989
5025000000.0 -0.969 -0.4335
5028000000.0 -0.9642 0.4825
5031000000.0 -0.2092 1.05
5034000000.0 0.697 0.8739
5038000000.0 1.129 0.006487
5041000000.0 0.7151 -0.8905
5044000000.0 -0.2486 -1.142
5047000000.0 -1.035 -0.5615
5050000000.0 -1.112 0.4362
5053000000.0 -0.3592 1.172
5056000000.0 0.6367 1.026
5059000000.0 1.221 0.141
5062000000.0 0.9034 -0.8876
5066000000.0 -0.1351 -1.255
5069000000.0 -1.058 -0.723
5072000000.0 -1.248 0.3708
5075000000.0 -0.4888 1.173
5078000000.0 0.6153 1.173
5081000000.0 1.28 0.2077
5084000000.0 0.9916 -0.8302
5088000000.0 -0.02319 -1.247
5091000000.0 -1.003 -0.7953
5094000000.0 -1.203 0.2724
5097000000.0 -0.5811 1.119
5100000000.0 0.4514 1.153
5103000000.0 1.159 0.3755
5106000000.0 1.025 -0.6662
5109000000.0 0.1771 -1.168
5112000000.0 -0.8056 -0.8491
5116000000.0 -1.17 0.06137
5119000000.0 -0.7248 0.9611
5122000000.0 0.2113 1.116
5125000000.0 1.021 0.4986
5128000000.0 1.036 -0.4417
5131000000.0 0.323 -1.042
5134000000.0 -0.616 -0.9396
5138000000.0 -1.074 -0.1364
5141000000.0 -0.7583 0.7374
5144000000.0 0.07743 1.028
5147000000.0 0.8744 0.5558
5150000000.0 0.9887 -0.2682
5153000000.0 0.4134 -0.9011
5156000000.0 -0.4204 -0.8742
5159000000.0 -0.9643 -0.2455
5162000000.0 -0.797 0.5484
5166000000.0 -0.05949 0.9397
5169000000.0 0.7034 0.6484
5172000000.0 0.9298 -0.1024
5175000000.0 0.5057 -0.7649
5178000000.0 -0.3308 -0.8801
5181000000.0 -0.8796 -0.3297
5184000000.0 -0.8 0.5076
5188000000.0 -0.1256 0.9536
5191000000.0 0.6553 0.6664
5194000000.0 0.9365 -0.08714
5197000000.0 0.5354 -0.7805
5200000000.0 -0.29 -0.8829
5203000000.0 -0.8953 -0.358
5206000000.0 -0.7917 0.4699
5209000000.0 -0.1386 0.9349
5212000000.0 0.6763 0.6691
5216000000.0 0.9328 -0.1063
5219000000.0 0.5041 -0.7942
5222000000.0 -0.2958 -0.8823
5225000000.0 -0.9007 -0.2965
5228000000.0 -0.835 0.5303
5231000000.0 -0.1076 0.9564
5234000000.0 0.6908 0.6977
5238000000.0 0.9767 -0.1022
5241000000.0 0.5344 -0.8506
5244000000.0 -0.2969 -0.9551
5247000000.0 -0.9384 -0.3205
5250000000.0 -0.8716 0.5346
5253000000.0 -0.1095 1.02
5256000000.0 0.7035 0.7467
5259000000.0 1.055 -0.05194
5262000000.0 0.5952 -0.8183
5266000000.0 -0.2684 -1.024
5269000000.0 -0.9382 -0.4491
5272000000.0 -0.9351 0.4347
5275000000.0 -0.265 0.9992
5278000000.0 0.6401 0.8745
5281000000.0 1.05 0.06375
5284000000.0 0.7231 -0.7837
5288000000.0 -0.1037 -1.094
5291000000.0 -0.8978 -0.5935
5294000000.0 -1.067 0.2834
5297000000.0 -0.4417 1.031
5300000000.0 0.4841 0.9806
5303000000.0 1.052 0.3033
5306000000.0 0.9256 -0.6088
5309000000.0 0.1093 -1.133
5312000000.0 -0.8186 -0.7983
5316000000.0 -1.124 0.06086
5319000000.0 -0.6486 0.9506
5322000000.0 0.2725 1.109
5325000000.0 1.04 0.5028
5328000000.0 1.048 -0.4544
5331000000.0 0.3237 -1.141
5334000000.0 -0.6263 -0.9377
5338000000.0 -1.128 -0.1118
5341000000.0 -0.8356 0.74
5344000000.0 0.0463 1.134
5347000000.0 0.9437 0.6916
5350000000.0 1.144 -0.2816
5353000000.0 0.5051 -1.005
5356000000.0 -0.4592 -1.07
5359000000.0 -1.096 -0.3342
5362000000.0 -0.936 0.6481
5366000000.0 -0.09237 1.134
5369000000.0 0.8414 0.7849
5372000000.0 1.158 -0.131
5375000000.0 0.6068 -0.9422
5378000000.0 -0.3231 -1.054
5381000000.0 -1.024 -0.3943
5384000000.0 -0.941 0.5342
5388000000.0 -0.1625 1.081
5391000000.0 0.7311 0.7887
5394000000.0 1.066 -0.06629
5397000000.0 0.6077 -0.8358
5400000000.0 -0.2828 -0.9843
5403000000.0 -0.9301 -0.37
5406000000.0 -0.8684 0.4611
5409000000.0 -0.1622 0.9717
5412000000.0 0.6375 0.717
5416000000.0 0.9603 -0.05198
5419000000.0 0.5654 -0.78
5422000000.0 -0.2825 -0.8983
5425000000.0 -0.8815 -0.3732
5428000000.0 -0.82 0.4658
5431000000.0 -0.1552 0.9246
5434000000.0 0.5926 0.6633
5438000000.0 0.8979 -0.08517
5441000000.0 0.4829 -0.729
5444000000.0 -0.2881 -0.8643
5447000000.0 -0.8511 -0.3009
5450000000.0 -0.7331 0.4689
5453000000.0 -0.1035 0.8624
5456000000.0 0.6283 0.6121
5459000000.0 0.8607 -0.1024
5462000000.0 0.4598 -0.7165
5466000000.0 -0.258 -0.8278
5469000000.0 -0.7953 -0.2875
5472000000.0 -0.7578 0.4437
5475000000.0 -0.1282 0.8294
5478000000.0 0.5839 0.6796
5481000000.0 0.8537 -0.04375
5484000000.0 0.5249 -0.6943
5488000000.0 -0.2191 -0.8478
5491000000.0 -0.7979 -0.39
5494000000.0 -0.8469 0.3828
5497000000.0 -0.229 0.8996
5500000000.0 0.5463 0.7638
5503000000.0 0.9613 0.05104
5506000000.0 0.6326 -0.7012
5509000000.0 -0.1082 -0.9476
5512000000.0 -0.7932 -0.5542
5516000000.0 -0.9666 0.2842
5519000000.0 -0.3806 0.8962
5522000000.0 0.4537 0.867
5525000000.0 0.9457 0.214
5528000000.0 0.7734 -0.5668
5531000000.0 0.08616 -1.027
5534000000.0 -0.7294 -0.6704
5538000000.0 -0.985 0.08312
5541000000.0 -0.5749 0.8562
5544000000.0 0.2923 1.013
5547000000.0 0.9255 0.4264
5550000000.0 0.927 -0.4508
5553000000.0 0.2439 -1.017
5556000000.0 -0.6053 -0.8639
5559000000.0 -1.053 -0.071
5562000000.0 -0.7195 0.7781
5566000000.0 0.12 1.033
5569000000.0 0.855 0.5763
5572000000.0 1.028 -0.3038
5575000000.0 0.4316 -0.9454
5578000000.0 -0.5082 -0.9444
5581000000.0 -1.009 -0.2417
5584000000.0 -0.7995 0.6343
5588000000.0 -0.02353 1.014
5591000000.0 0.7602 0.6733
5594000000.0 1.02 -0.1804
5597000000.0 0.527 -0.8436
5600000000.0 -0.2985 -0.969
5603000000.0 -0.9322 -0.3132
5606000000.0 -0.8745 0.517
5609000000.0 -0.1888 0.9512
5612000000.0 0.6382 0.7367
5616000000.0 0.973 -0.03638
5619000000.0 0.5783 -0.7556
5622000000.0 -0.2002 -0.9309
5625000000.0 -0.8197 -0.3999
5628000000.0 -0.8705 0.3924
5631000000.0 -0.2277 0.89
5634000000.0 0.5317 0.7175
5638000000.0 0.879 0.03473
5641000000.0 0.5946 -0.6701
5644000000.0 -0.1447 -0.8656
5647000000.0 -0.7695 -0.404
5650000000.0 -0.7998 0.3464
5653000000.0 -0.2538 0.8649
5656000000.0 0.5051 0.7086
5659000000.0 0.8628 0.07532
5662000000.0 0.5746 -0.6513
5666000000.0 -0.1413 -0.879
5669000000.0 -0.7506 -0.4394
5672000000.0 -0.8377 0.3381
5675000000.0 -0.2133 0.8556
5678000000.0 0.5532 0.7294
5681000000.0 0.8821 0.04528
5684000000.0 0.5855 -0.6935
5688000000.0 -0.1674 -0.8696
5691000000.0 -0.805 -0.4232
5694000000.0 -0.8462 0.3802
5697000000.0 -0.222 0.8962
5700000000.0 0.5385 0.7114
5703000000.0 0.9352 0.02452
5706000000.0 0.6396 -0.717
5709000000.0 -0.1604 -0.9624
5712000000.0 -0.8412 -0.4591
5716000000.0 -0.9175 0.3927
5719000000.0 -0.2663 0.9398
5722000000.0 0.5607 0.8428
5725000000.0 0.9967 0.09877
5728000000.0 0.7193 -0.7512
5731000000.0 -0.1031 -1.002
5734000000.0 -0.8922 -0.57
5738000000.0 -0.985 0.2978
5741000000.0 -0.3785 0.968
5744000000.0 0.5195 0.9227
5747000000.0 1.034 0.2117
5750000000.0 0.8501 -0.6535
5753000000.0 0.002596 -1.042
5756000000.0 -0.7937 -0.6739
5759000000.0 -1.061 0.1622
5762000000.0 -0.541 0.9645
5766000000.0 0.382 0.995
5769000000.0 1.06 0.3208
5772000000.0 0.9218 -0.5601
5775000000.0 0.2155 -1.084
5778000000.0 -0.7214 -0.8098
5781000000.0 -1.092 0.02409
5784000000.0 -0.6694 0.842
5788000000.0 0.2139 1.089
5791000000.0 0.9609 0.5197
5794000000.0 0.9913 -0.4035
5797000000.0 0.3382 -1.028
5800000000.0 -0.5778 -0.9402
5803000000.0 -1.059 -0.1181
5806000000.0 -0.8232 0.7192
5809000000.0 0.04614 1.074
5812000000.0 0.8448 0.6234
5816000000.0 1.03 -0.2391
5819000000.0 0.4535 -0.9456
5822000000.0 -0.4439 -0.9685
5825000000.0 -0.9926 -0.2822
5828000000.0 -0.8333 0.5975
5831000000.0 -0.07803 1.022
5834000000.0 0.7164 0.7271
5838000000.0 1.04 -0.09307
5841000000.0 0.5583 -0.912
5844000000.0 -0.3498 -0.9778
5847000000.0 -0.9304 -0.3711
5850000000.0 -0.8522 0.4567
5853000000.0 -0.173 0.9788
5856000000.0 0.6328 0.7615
5859000000.0 0.968 -0.02669
5862000000.0 0.5902 -0.784
5866000000.0 -0.2341 -0.9093
5869000000.0 -0.8552 -0.4071
5872000000.0 -0.819 0.454
5875000000.0 -0.2164 0.8902
5878000000.0 0.568 0.7259
5881000000.0 0.9247 -0.02283
5884000000.0 0.5458 -0.6771
5888000000.0 -0.1802 -0.8726
5891000000.0 -0.7818 -0.3876
5894000000.0 -0.8177 0.3846
5897000000.0 -0.2007 0.8484
5900000000.0 0.5356 0.6859
5903000000.0 0.8682 0.02336
5906000000.0 0.5633 -0.6614
5909000000.0 -0.1778 -0.8471
5912000000.0 -0.7768 -0.4043
5916000000.0 -0.7836 0.3117
5919000000.0 -0.275 0.8121
5922000000.0 0.4626 0.695
5925000000.0 0.8541 0.07189
5928000000.0 0.6176 -0.6126
5931000000.0 -0.09857 -0.8327
5934000000.0 -0.7596 -0.4101
5938000000.0 -0.8012 0.2601
5941000000.0 -0.3246 0.8307
5944000000.0 0.4081 0.7375
5947000000.0 0.8593 0.1714
5950000000.0 0.6721 -0.5579
5953000000.0 -0.00185 -0.864
5956000000.0 -0.6526 -0.5654
5959000000.0 -0.8773 0.1619
5962000000.0 -0.4601 0.7588
5966000000.0 0.327 0.849
5969000000.0 0.8341 0.2822
5972000000.0 0.7785 -0.4571
5975000000.0 0.1312 -0.9172
5978000000.0 -0.6019 -0.6978
5981000000.0 -0.9514 0.02136
5984000000.0 -0.5803 0.7072
5988000000.0 0.2174 0.9215
5991000000.0 0.8337 0.4558
5994000000.0 0.8766 -0.3574
5997000000.0 0.294 -0.9203
6000000000.0 -0.5245 -0.834
6003000000.0 -0.9597 -0.1329
6006000000.0 -0.7117 0.6414
6009000000.0 0.05279 0.9769
6012000000.0 0.7794 0.571
6016000000.0 0.9581 -0.2135
6019000000.0 0.4332 -0.8855
6022000000.0 -0.4161 -0.9246
6025000000.0 -0.9605 -0.2407
6028000000.0 -0.8122 0.5772
6031000000.0 -0.1056 0.991
6034000000.0 0.7292 0.6806
6038000000.0 0.9931 -0.1211
6041000000.0 0.5226 -0.8612
6044000000.0 -0.3061 -0.94
6047000000.0 -0.915 -0.3562
6050000000.0 -0.8558 0.4963
6053000000.0 -0.1609 0.9613
6056000000.0 0.6779 0.7374
6059000000.0 0.9776 -0.04411
6062000000.0 0.5633 -0.807
6066000000.0 -0.2186 -0.9247
6069000000.0 -0.8551 -0.3566
6072000000.0 -0.8284 0.4402
6075000000.0 -0.185 0.9084
6078000000.0 0.5598 0.7371
6081000000.0 0.9274 -0.02186
6084000000.0 0.5704 -0.7162
6088000000.0 -0.1705 -0.8565
6091000000.0 -0.8146 -0.4023
6094000000.0 -0.8191 0.3704
6097000000.0 -0.2408 0.8314
6100000000.0 0.4976 0.7153
6103000000.0 0.9097 0.07302
6106000000.0 0.5578 -0.6237
6109000000.0 -0.1556 -0.8796
6112000000.0 -0.7645 -0.4439
6116000000.0 -0.8112 0.3138
6119000000.0 -0.2335 0.8321
6122000000.0 0.4965 0.6963
6125000000.0 0.8644 0.06897
6128000000.0 0.5825 -0.6186
6131000000.0 -0.1122 -0.859
6134000000.0 -0.7115 -0.4646
6138000000.0 -0.8137 0.321
6141000000.0 -0.2994 0.8216
6144000000.0 0.4377 0.6918
6147000000.0 0.8401 0.06111
6150000000.0 0.645 -0.5897
6153000000.0 -0.1118 -0.8603
6156000000.0 -0.7466 -0.4925
6159000000.0 -0.8351 0.2508
6162000000.0 -0.3395 0.7753
6166000000.0 0.4222 0.7799
6169000000.0 0.8663 0.1517
6172000000.0 0.6873 -0.5903
6175000000.0 0.005239 -0.8674
6178000000.0 -0.7089 -0.5832
6181000000.0 -0.8921 0.1935
6184000000.0 -0.4003 0.8008
6188000000.0 0.3641 0.8301
6191000000.0 0.8859 0.25
6194000000.0 0.7571 -0.5587
6197000000.0 0.07899 -0.9163
6200000000.0 -0.6827 -0.6261
6203000000.0 -0.9329 0.1046
6206000000.0 -0.4805 0.7428
6209000000.0 0.2835 0.8615
6212000000.0 0.8356 0.3085
6216000000.0 0.7842 -0.4435
6219000000.0 0.14 -0.9073
6222000000.0 -0.5655 -0.6903
6225000000.0 -0.8998 0.00165
6228000000.0 -0.5458 0.6665
6231000000.0 0.1812 0.8661
6234000000.0 0.8019 0.4335
6238000000.0 0.8038 -0.3361
6241000000.0 0.2533 -0.8892
6244000000.0 -0.4826 -0.727
6247000000.0 -0.8733 -0.07594
6250000000.0 -0.5819 0.6376
6253000000.0 0.08115 0.8251
6256000000.0 0.6819 0.473
6259000000.0 0.822 -0.2248
6262000000.0 0.3356 -0.738
6266000000.0 -0.336 -0.7617
