! Created with skrf 1.8.0 (http://scikit-rf.org).
# Hz S RI R 50.0 
!freq ReS11 ImS11
4000000000.0 0.2444 -1.486
4003000000.0 -0.9823 -1.129
4006000000.0 -1.522 0.03083
4009000000.0 -0.9105 1.205
4012000000.0 0.3636 1.477
4016000000.0 1.406 0.6461
4019000000.0 1.397 -0.6894
4022000000.0 0.3933 -1.516
4025000000.0 -1.004 -1.227
4028000000.0 -1.557 0.01104
4031000000.0 -1.008 1.203
4034000000.0 0.3832 1.505
4038000000.0 1.47 0.6039
4041000000.0 1.437 -0.7034
4044000000.0 0.3635 -1.565
4047000000.0 -1.015 -1.257
4050000000.0 -1.596 0.09293
4053000000.0 -0.9516 1.2
4056000000.0 0.3014 1.55
4059000000.0 1.426 0.7748
4062000000.0 1.495 -0.5905
4066000000.0 0.4679 -1.508
4069000000.0 -0.8689 -1.355
4072000000.0 -1.601 -0.1852
4075000000.0 -1.214 1.139
4078000000.0 0.1558 1.629
4081000000.0 1.388 0.8399
4084000000.0 1.549 -0.4938
4088000000.0 0.6786 -1.49
4091000000.0 -0.7447 -1.452
4094000000.0 -1.614 -0.2874
4097000000.0 -1.287 1.011
4100000000.0 -0.002198 1.651
4103000000.0 1.271 1.058
4106000000.0 1.572 -0.2918
4109000000.0 0.785 -1.376
4112000000.0 -0.4734 -1.457
4116000000.0 -1.425 -0.5844
4119000000.0 -1.353 0.7265
4122000000.0 -0.3071 1.482
4125000000.0 0.9065 1.227
4128000000.0 1.508 0.1195
4131000000.0 1.086 -1.063
4134000000.0 -0.1066 -1.491
4138000000.0 -1.196 -0.9134
4141000000.0 -1.476 0.3121
4144000000.0 -0.7309 1.315
4147000000.0 0.5698 1.456
4150000000.0 1.428 0.5072
4153000000.0 1.309 -0.7508
4156000000.0 0.2089 -1.542
4159000000.0 -1.003 -1.189
4162000000.0 -1.526 -0.01862
4166000000.0 -1.005 1.142
4169000000.0 0.2637 1.513
4172000000.0 1.285 0.7875
4175000000.0 1.444 -0.4881
4178000000.0 0.5081 -1.405
4181000000.0 -0.679 -1.347
4184000000.0 -1.469 -0.352
4188000000.0 -1.198 0.868
4191000000.0 -0.1306 1.505
4194000000.0 1.128 1.072
4197000000.0 1.524 -0.1364
4200000000.0 0.8738 -1.341
4203000000.0 -0.4437 -1.504
4206000000.0 -1.529 -0.6041
4209000000.0 -1.44 0.7773
4212000000.0 -0.3213 1.656
4216000000.0 1.045 1.301
4219000000.0 1.697 -0.05213
4222000000.0 0.9897 -1.395
4225000000.0 -0.4662 -1.643
4228000000.0 -1.603 -0.6609
4231000000.0 -1.472 0.8367
4234000000.0 -0.2698 1.674
4238000000.0 1.205 1.252
4241000000.0 1.703 -0.1688
4244000000.0 0.8568 -1.465
4247000000.0 -0.5766 -1.57
4250000000.0 -1.606 -0.5252
4253000000.0 -1.335 0.9345
4256000000.0 0.07993 1.623
4259000000.0 1.244 1.058
4262000000.0 1.598 -0.3164
4266000000.0 0.7234 -1.42
4269000000.0 -0.7949 -1.352
4272000000.0 -1.516 -0.3112
4275000000.0 -1.198 1.053
4278000000.0 0.08823 1.537
4281000000.0 1.275 0.883
4284000000.0 1.412 -0.4828
4288000000.0 0.5201 -1.394
4291000000.0 -0.7156 -1.222
4294000000.0 -1.417 -0.1727
4297000000.0 -0.9999 1.009
4300000000.0 0.1873 1.315
4303000000.0 1.108 0.7983
4306000000.0 1.299 -0.3652
4309000000.0 0.5294 -1.212
4312000000.0 -0.5606 -1.182
4316000000.0 -1.266 -0.2894
4319000000.0 -1.054 0.7446
4322000000.0 -0.08546 1.319
4325000000.0 0.9335 0.9042
4328000000.0 1.337 -0.1471
4331000000.0 0.7958 -1.071
4334000000.0 -0.3717 -1.299
4338000000.0 -1.227 -0.5796
4341000000.0 -1.229 0.5843
4344000000.0 -0.3037 1.335
4347000000.0 0.8626 1.097
4350000000.0 1.404 0.05931
4353000000.0 0.92 -1.024
4356000000.0 -0.183 -1.389
4359000000.0 -1.198 -0.7624
4362000000.0 -1.381 0.407
4366000000.0 -0.5394 1.305
4369000000.0 0.6476 1.271
4372000000.0 1.382 0.3192
4375000000.0 1.151 -0.8506
4378000000.0 0.109 -1.424
4381000000.0 -1.051 -1.034
4384000000.0 -1.459 0.1895
4388000000.0 -0.8426 1.268
4391000000.0 0.4418 1.48
4394000000.0 1.424 0.5753
4397000000.0 1.329 -0.7745
4400000000.0 0.224 -1.527
4403000000.0 -1.028 -1.146
4406000000.0 -1.591 0.1048
4409000000.0 -0.9217 1.281
4412000000.0 0.3571 1.526
4416000000.0 1.451 0.7195
4419000000.0 1.427 -0.718
4422000000.0 0.3714 -1.522
4425000000.0 -0.9479 -1.249
4428000000.0 -1.529 -0.05322
4431000000.0 -1.007 1.186
4434000000.0 0.3131 1.463
4438000000.0 1.376 0.6826
4441000000.0 1.401 -0.6434
4444000000.0 0.3454 -1.454
4447000000.0 -0.955 -1.167
4450000000.0 -1.484 0.01275
4453000000.0 -0.8777 1.191
4456000000.0 0.3846 1.409
4459000000.0 1.344 0.551
4462000000.0 1.215 -0.6731
4466000000.0 0.1663 -1.369
4469000000.0 -0.9485 -1.003
4472000000.0 -1.313 0.1502
4475000000.0 -0.6515 1.092
4478000000.0 0.4461 1.228
4481000000.0 1.178 0.366
4484000000.0 1.039 -0.7017
4488000000.0 0.0558 -1.205
4491000000.0 -0.8995 -0.7792
4494000000.0 -1.176 0.2181
4497000000.0 -0.5306 1.015
4500000000.0 0.4858 1.029
4503000000.0 1.074 0.2077
4506000000.0 0.8397 -0.6766
4509000000.0 -0.0295 -1.088
4512000000.0 -0.8741 -0.6359
4516000000.0 -1.043 0.2165
4519000000.0 -0.4884 0.9525
4522000000.0 0.4466 0.9778
4525000000.0 1.052 0.255
4528000000.0 0.8703 -0.6736
4531000000.0 0.03446 -1.076
4534000000.0 -0.8889 -0.6694
4538000000.0 -1.079 0.2223
4541000000.0 -0.5227 0.965
4544000000.0 0.4184 1.025
4547000000.0 1.06 0.3245
4550000000.0 0.921 -0.6166
4553000000.0 0.1389 -1.126
4556000000.0 -0.8057 -0.8177
4559000000.0 -1.121 0.1035
4562000000.0 -0.6736 0.9286
4566000000.0 0.2908 1.116
4569000000.0 1.06 0.4953
4572000000.0 1.096 -0.5081
4575000000.0 0.3037 -1.139
4578000000.0 -0.7315 -0.9938
4581000000.0 -1.217 -0.1252
4584000000.0 -0.8635 0.9012
4588000000.0 0.1899 1.299
4591000000.0 1.111 0.6824
4594000000.0 1.252 -0.3556
4597000000.0 0.5333 -1.189
4600000000.0 -0.5977 -1.149
4603000000.0 -1.317 -0.2321
4606000000.0 -1.029 0.8628
4609000000.0 -0.008233 1.349
4612000000.0 1.023 0.8688
4616000000.0 1.327 -0.2328
4619000000.0 0.6808 -1.175
4622000000.0 -0.5657 -1.247
4625000000.0 -1.33 -0.4037
4628000000.0 -1.165 0.7197
4631000000.0 -0.07982 1.366
4634000000.0 0.9576 1.012
4638000000.0 1.39 -0.1024
4641000000.0 0.7958 -1.123
4644000000.0 -0.3896 -1.322
4647000000.0 -1.276 -0.553
4650000000.0 -1.209 0.6595
4653000000.0 -0.2265 1.359
4656000000.0 0.9141 1.031
4659000000.0 1.322 -0.05564
4662000000.0 0.7848 -1.04
4666000000.0 -0.3361 -1.256
4669000000.0 -1.183 -0.4986
4672000000.0 -1.124 0.6375
4675000000.0 -0.1087 1.247
4678000000.0 0.8177 0.9101
4681000000.0 1.206 -0.08815
4684000000.0 0.6389 -1.023
4688000000.0 -0.2989 -1.146
4691000000.0 -1.097 -0.4467
4694000000.0 -1.008 0.5651
4697000000.0 -0.1688 1.141
4700000000.0 0.7584 0.828
4703000000.0 1.151 -0.1181
4706000000.0 0.6005 -0.9149
4709000000.0 -0.3639 -1.061
4712000000.0 -1.018 -0.3862
4716000000.0 -0.8866 0.5859
4719000000.0 -0.09906 1.075
4722000000.0 0.7874 0.6967
4725000000.0 1.06 -0.1685
4728000000.0 0.5109 -0.9048
4731000000.0 -0.354 -0.9641
4734000000.0 -0.9671 -0.3275
4738000000.0 -0.8272 0.5945
4741000000.0 -0.07811 1.03
4744000000.0 0.7292 0.719
4747000000.0 1.005 -0.177
4750000000.0 0.5314 -0.8652
4753000000.0 -0.3223 -0.942
4756000000.0 -0.9791 -0.3846
4759000000.0 -0.9075 0.4784
4762000000.0 -0.1355 1.049
4766000000.0 0.6961 0.7813
4769000000.0 1.06 -0.04363
4772000000.0 0.673 -0.862
4775000000.0 -0.2117 -1.036
4778000000.0 -0.9445 -0.5068
4781000000.0 -1.015 0.4255
4784000000.0 -0.309 1.056
4788000000.0 0.5806 0.9285
4791000000.0 1.126 0.1374
4794000000.0 0.8304 -0.7621
4797000000.0 -0.09807 -1.162
4800000000.0 -0.9309 -0.6921
4803000000.0 -1.129 0.2436
4806000000.0 -0.5411 1.025
4809000000.0 0.4746 1.086
4812000000.0 1.161 0.3711
4816000000.0 1.054 -0.6423
4819000000.0 0.1553 -1.226
4822000000.0 -0.8397 -0.9264
4825000000.0 -1.287 0.05279
4828000000.0 -0.7914 1.061
4831000000.0 0.318 1.281
4834000000.0 1.197 0.5798
4838000000.0 1.229 -0.5623
4841000000.0 0.3815 -1.309
4844000000.0 -0.7862 -1.121
4847000000.0 -1.351 -0.08347
4850000000.0 -0.9491 1.004
4853000000.0 0.1574 1.356
4856000000.0 1.17 0.751
4859000000.0 1.279 -0.4785
4862000000.0 0.485 -1.298
4866000000.0 -0.6856 -1.206
4869000000.0 -1.342 -0.2415
4872000000.0 -1.011 0.9184
4875000000.0 0.07815 1.36
4878000000.0 1.102 0.781
4881000000.0 1.295 -0.3341
4884000000.0 0.5659 -1.219
4888000000.0 -0.6524 -1.157
4891000000.0 -1.257 -0.2355
4894000000.0 -1.008 0.8219
4897000000.0 0.01868 1.251
4900000000.0 0.9826 0.7673
4903000000.0 1.177 -0.302
4906000000.0 0.5298 -1.052
4909000000.0 -0.4566 -1.04
4912000000.0 -1.078 -0.2405
4916000000.0 -0.8459 0.658
4919000000.0 -0.01873 1.046
4922000000.0 0.7945 0.6509
4925000000.0 1.008 -0.1772
4928000000.0 0.4946 -0.8506
4931000000.0 -0.367 -0.9196
4934000000.0 -0.9326 -0.3189
4938000000.0 -0.7911 0.5773
4941000000.0 -0.132 0.9431
4944000000.0 0.6476 0.6788
4947000000.0 0.9435 -0.08358
4950000000.0 0.5343 -0.7703
4953000000.0 -0.28 -0.9331
4956000000.0 -0.8669 -0.3701
4959000000.0 -0.8508 0.4754
4962000000.0 -0.1571 0.9291
4966000000.0 0.6367 0.7203
4969000000.0 0.9714 -0.05064
4972000000.0 0.6053 -0.7601
4975000000.0 -0.2341 -0.9283
4978000000.0 -0.8685 -0.4157
4981000000.0 -0.8699 0.3912
4984000000.0 -0.2623 0.9619
4988000000.0 0.6172 0.7899
4991000000.0 0.9945 0.07686
4994000000.0 0.6852 -0.7121
4997000000.0 -0.1527 -1.0
5000000000.0 -0.8599 -0.536
5003000000.0 -1.008 0.3421
5006000000.0 -0.3755 1.025
5009000000.0 0.6032 0.9708
5012000000.0 1.132 0.1801
5016000000.0 0.873 -0.7533
5019000000.0 -0.02205 -1.147
5022000000.0 -0.9451 -0.7356
5025000000.0 -1.167 0.2307
5028000000.0 -0.5457 1.093
5031000000.0 0.4879 1.126
5034000000.0 1.165 0.3441
5038000000.0 1.029 -0.6709
5041000000.0 0.1094 -1.249
5044000000.0 -0.8868 -0.8857
5047000000.0 -1.264 0.06638
5050000000.0 -0.739 1.04
5053000000.0 0.3303 1.236
5056000000.0 1.157 0.5256
5059000000.0 1.207 -0.5441
5062000000.0 0.3031 -1.28
5066000000.0 -0.7638 -1.073
5069000000.0 -1.317 -0.07869
5072000000.0 -0.9434 0.9651
5075000000.0 0.1369 1.322
5078000000.0 1.086 0.7294
5081000000.0 1.239 -0.3605
5084000000.0 0.4394 -1.199
5088000000.0 -0.6092 -1.096
5091000000.0 -1.21 -0.2344
5094000000.0 -0.9862 0.7751
5097000000.0 -0.02893 1.195
5100000000.0 0.8675 0.8068
5103000000.0 1.169 -0.1575
5106000000.0 0.6233 -0.9952
5109000000.0 -0.3798 -1.096
5112000000.0 -1.04 -0.4068
5116000000.0 -0.9619 0.5151
5119000000.0 -0.1978 1.07
5122000000.0 0.6673 0.8573
5125000000.0 1.086 0.04265
5128000000.0 0.7152 -0.8294
5131000000.0 -0.1622 -1.023
5134000000.0 -0.8933 -0.5534
5138000000.0 -0.9898 0.326
5141000000.0 -0.3597 0.9491
5144000000.0 0.5127 0.8798
5147000000.0 0.9717 0.1572
5150000000.0 0.7491 -0.6427
5153000000.0 -0.03868 -0.9582
5156000000.0 -0.7423 -0.5905
5159000000.0 -0.9307 0.2132
5162000000.0 -0.4262 0.8446
5166000000.0 0.386 0.8694
5169000000.0 0.8952 0.2829
5172000000.0 0.7887 -0.5262
5175000000.0 0.05998 -0.924
5178000000.0 -0.6616 -0.6443
5181000000.0 -0.8832 0.1036
5184000000.0 -0.4579 0.7922
5188000000.0 0.2966 0.8731
5191000000.0 0.8754 0.2933
5194000000.0 0.7968 -0.5328
5197000000.0 0.1185 -0.9196
5200000000.0 -0.6699 -0.6442
5203000000.0 -0.916 0.1355
5206000000.0 -0.4853 0.8336
5209000000.0 0.3284 0.8865
5212000000.0 0.9056 0.3009
5216000000.0 0.8049 -0.4944
5219000000.0 0.1166 -0.9518
5222000000.0 -0.6776 -0.7013
5225000000.0 -0.9462 0.07587
5228000000.0 -0.5471 0.8355
5231000000.0 0.3033 0.932
5234000000.0 0.9268 0.3668
5238000000.0 0.8793 -0.4891
5241000000.0 0.1703 -1.004
5244000000.0 -0.7 -0.7735
5247000000.0 -1.046 0.007864
5250000000.0 -0.6346 0.8342
5253000000.0 0.2207 1.041
5256000000.0 0.9363 0.44
5259000000.0 0.9847 -0.4089
5262000000.0 0.2912 -1.014
5266000000.0 -0.5899 -0.8809
5269000000.0 -1.069 -0.1113
5272000000.0 -0.7631 0.7493
5275000000.0 0.09267 1.061
5278000000.0 0.8771 0.6584
5281000000.0 1.063 -0.2501
5284000000.0 0.4866 -0.9856
5288000000.0 -0.4344 -1.013
5291000000.0 -1.035 -0.3264
5294000000.0 -0.9439 0.598
5297000000.0 -0.1998 1.117
5300000000.0 0.7503 0.7945
5303000000.0 1.136 -0.01519
5306000000.0 0.6958 -0.8604
5309000000.0 -0.2272 -1.118
5312000000.0 -1.011 -0.5176
5316000000.0 -1.056 0.4336
5319000000.0 -0.3519 1.08
5322000000.0 0.5896 0.973
5325000000.0 1.114 0.2033
5328000000.0 0.8633 -0.7441
5331000000.0 0.008243 -1.14
5334000000.0 -0.8928 -0.7629
5338000000.0 -1.134 0.2236
5341000000.0 -0.5696 1.001
5344000000.0 0.424 1.064
5347000000.0 1.081 0.3865
5350000000.0 0.9787 -0.5793
5353000000.0 0.1592 -1.142
5356000000.0 -0.7781 -0.823
5359000000.0 -1.136 0.0575
5362000000.0 -0.671 0.8945
5366000000.0 0.2537 1.092
5369000000.0 1.009 0.4976
5372000000.0 1.025 -0.4449
5375000000.0 0.2728 -1.078
5378000000.0 -0.6821 -0.838
5381000000.0 -1.085 -0.0125
5384000000.0 -0.7001 0.7786
5388000000.0 0.1975 1.037
5391000000.0 0.9167 0.5055
5394000000.0 0.9345 -0.3804
5397000000.0 0.2557 -0.9824
5400000000.0 -0.5759 -0.7855
5403000000.0 -0.9504 -0.02455
5406000000.0 -0.6501 0.7104
5409000000.0 0.1698 0.8856
5412000000.0 0.844 0.4026
5416000000.0 0.8409 -0.3742
5419000000.0 0.2115 -0.8676
5422000000.0 -0.519 -0.7161
5425000000.0 -0.8646 -0.01175
5428000000.0 -0.5932 0.6918
5431000000.0 0.1888 0.8828
5434000000.0 0.7909 0.3742
5438000000.0 0.7974 -0.3802
5441000000.0 0.1686 -0.8802
5444000000.0 -0.5448 -0.6736
5447000000.0 -0.8926 -0.03776
5450000000.0 -0.5392 0.6841
5453000000.0 0.1942 0.8271
5456000000.0 0.7905 0.3704
5459000000.0 0.7999 -0.3241
5462000000.0 0.2267 -0.849
5466000000.0 -0.5187 -0.7015
5469000000.0 -0.8695 -0.01191
5472000000.0 -0.5538 0.6753
5475000000.0 0.1452 0.9113
5478000000.0 0.7714 0.4569
5481000000.0 0.8794 -0.2891
5484000000.0 0.2803 -0.8837
5488000000.0 -0.462 -0.7872
5491000000.0 -0.9117 -0.1543
5494000000.0 -0.7401 0.6706
5497000000.0 -0.01514 0.9416
5500000000.0 0.7213 0.5987
5503000000.0 0.9119 -0.1872
5506000000.0 0.4543 -0.8655
5509000000.0 -0.3897 -0.9205
5512000000.0 -0.9341 -0.3041
5516000000.0 -0.8401 0.521
5519000000.0 -0.1565 0.9823
5522000000.0 0.681 0.7886
5525000000.0 0.9937 -0.02179
5528000000.0 0.6405 -0.7786
5531000000.0 -0.1467 -0.9818
5534000000.0 -0.9011 -0.5257
5538000000.0 -1.002 0.3218
5541000000.0 -0.3557 0.9736
5544000000.0 0.5461 0.9338
5547000000.0 1.073 0.1829
5550000000.0 0.8508 -0.6683
5553000000.0 -0.0004096 -1.078
5556000000.0 -0.7974 -0.7045
5559000000.0 -1.083 0.1985
5562000000.0 -0.5444 0.9221
5566000000.0 0.3557 0.9984
5569000000.0 0.9891 0.365
5572000000.0 0.9149 -0.5252
5575000000.0 0.2152 -1.02
5578000000.0 -0.6995 -0.7931
5581000000.0 -1.037 0.01931
5584000000.0 -0.6242 0.7908
5588000000.0 0.1828 1.022
5591000000.0 0.8801 0.484
5594000000.0 0.9355 -0.3784
5597000000.0 0.3121 -0.9624
5600000000.0 -0.5496 -0.7996
5603000000.0 -0.9591 -0.1262
5606000000.0 -0.7186 0.6737
5609000000.0 0.07024 0.9529
5612000000.0 0.7569 0.5227
5616000000.0 0.8828 -0.2484
5619000000.0 0.3409 -0.8115
5622000000.0 -0.4371 -0.8259
5625000000.0 -0.8997 -0.1702
5628000000.0 -0.6873 0.5699
5631000000.0 -0.005118 0.8792
5634000000.0 0.698 0.5559
5638000000.0 0.8476 -0.1797
5641000000.0 0.3907 -0.7766
5644000000.0 -0.3521 -0.776
5647000000.0 -0.8389 -0.1988
5650000000.0 -0.6554 0.535
5653000000.0 -0.004781 0.853
5656000000.0 0.6604 0.5312
5659000000.0 0.8208 -0.1866
5662000000.0 0.4019 -0.7756
5666000000.0 -0.3722 -0.7787
5669000000.0 -0.8508 -0.1983
5672000000.0 -0.6789 0.5377
5675000000.0 -0.0203 0.8726
5678000000.0 0.6718 0.559
5681000000.0 0.8992 -0.1881
5684000000.0 0.3892 -0.8144
5688000000.0 -0.4054 -0.8444
5691000000.0 -0.886 -0.2336
5694000000.0 -0.7527 0.5671
5697000000.0 0.003007 0.9447
5700000000.0 0.7303 0.6279
5703000000.0 0.9043 -0.1745
5706000000.0 0.4929 -0.8681
5709000000.0 -0.3717 -0.9044
5712000000.0 -0.9564 -0.2695
5716000000.0 -0.7902 0.5755
5719000000.0 -0.08457 0.9942
5722000000.0 0.7241 0.7369
5725000000.0 1.018 -0.1222
5728000000.0 0.6007 -0.8622
5731000000.0 -0.3308 -0.9984
5734000000.0 -0.9575 -0.4123
5738000000.0 -0.9401 0.5144
5741000000.0 -0.1949 1.033
5744000000.0 0.6963 0.847
5747000000.0 1.066 0.0137
5750000000.0 0.6967 -0.8313
5753000000.0 -0.1838 -1.044
5756000000.0 -0.9594 -0.5595
5759000000.0 -1.02 0.3854
5762000000.0 -0.3993 1.02
5766000000.0 0.5707 0.9776
5769000000.0 1.116 0.1791
5772000000.0 0.8227 -0.7185
5775000000.0 0.001048 -1.079
5778000000.0 -0.9048 -0.7189
5781000000.0 -1.058 0.1822
5784000000.0 -0.554 0.9585
5788000000.0 0.4041 0.9979
5791000000.0 1.016 0.3467
5794000000.0 0.9449 -0.5537
5797000000.0 0.1605 -1.068
5800000000.0 -0.7257 -0.8096
5803000000.0 -1.085 0.02393
5806000000.0 -0.6876 0.8407
5809000000.0 0.2425 1.048
5812000000.0 0.9563 0.4859
5816000000.0 0.962 -0.4166
5819000000.0 0.3025 -1.022
5822000000.0 -0.6177 -0.8852
5825000000.0 -1.049 -0.09071
5828000000.0 -0.7057 0.7294
5831000000.0 0.08222 0.9856
5834000000.0 0.858 0.5653
5838000000.0 0.9761 -0.2765
5841000000.0 0.3832 -0.9268
5844000000.0 -0.4694 -0.8657
5847000000.0 -0.9641 -0.2008
5850000000.0 -0.7504 0.6429
5853000000.0 0.009555 0.9458
5856000000.0 0.7707 0.5803
5859000000.0 0.9059 -0.2358
5862000000.0 0.4236 -0.8299
5866000000.0 -0.3885 -0.8435
5869000000.0 -0.8802 -0.2027
5872000000.0 -0.7578 0.5809
5875000000.0 -0.01086 0.9098
5878000000.0 0.6775 0.5437
5881000000.0 0.8497 -0.198
5884000000.0 0.3527 -0.8161
5888000000.0 -0.3542 -0.7883
5891000000.0 -0.8429 -0.2137
5894000000.0 -0.7173 0.5259
5897000000.0 -0.04753 0.8764
5900000000.0 0.6338 0.5945
5903000000.0 0.8416 -0.1467
5906000000.0 0.3919 -0.728
5909000000.0 -0.2925 -0.8134
5912000000.0 -0.7905 -0.2691
5916000000.0 -0.7488 0.4703
5919000000.0 -0.1192 0.8413
5922000000.0 0.5965 0.6211
5925000000.0 0.8486 -0.07249
5928000000.0 0.461 -0.7219
5931000000.0 -0.242 -0.8189
5934000000.0 -0.824 -0.3172
5938000000.0 -0.7315 0.4056
5941000000.0 -0.1374 0.89
5944000000.0 0.5635 0.6688
5947000000.0 0.8745 0.04887
5950000000.0 0.5584 -0.6819
5953000000.0 -0.1317 -0.8807
5956000000.0 -0.7569 -0.4691
5959000000.0 -0.8529 0.2665
5962000000.0 -0.3253 0.8312
5966000000.0 0.4376 0.7899
5969000000.0 0.882 0.1886
5972000000.0 0.7226 -0.5422
5975000000.0 0.006915 -0.9501
5978000000.0 -0.7125 -0.6141
5981000000.0 -0.9402 0.1565
5984000000.0 -0.499 0.8249
5988000000.0 0.3511 0.8944
5991000000.0 0.9205 0.3383
5994000000.0 0.8534 -0.4861
5997000000.0 0.1511 -0.9598
6000000000.0 -0.6255 -0.7527
6003000000.0 -0.96 0.03303
6006000000.0 -0.6253 0.7491
6009000000.0 0.2148 0.9722
6012000000.0 0.8623 0.4772
6016000000.0 0.9087 -0.3715
6019000000.0 0.274 -0.9354
6022000000.0 -0.5431 -0.842
6025000000.0 -0.9705 -0.1069
6028000000.0 -0.706 0.6772
6031000000.0 0.08474 0.995
6034000000.0 0.8174 0.5627
6038000000.0 0.9567 -0.2571
6041000000.0 0.3789 -0.9032
6044000000.0 -0.4434 -0.8727
6047000000.0 -0.9737 -0.2098
6050000000.0 -0.7558 0.5974
6053000000.0 -0.03138 0.9744
6056000000.0 0.7562 0.6274
6059000000.0 0.9381 -0.196
6062000000.0 0.4392 -0.8624
6066000000.0 -0.401 -0.8737
6069000000.0 -0.9375 -0.2144
6072000000.0 -0.7507 0.5425
6075000000.0 -0.04399 0.907
6078000000.0 0.6668 0.6125
6081000000.0 0.8763 -0.1216
6084000000.0 0.4747 -0.7514
6088000000.0 -0.3133 -0.8881
6091000000.0 -0.839 -0.2954
6094000000.0 -0.7613 0.4712
6097000000.0 -0.0958 0.8844
6100000000.0 0.6326 0.631
6103000000.0 0.8613 -0.09218
6106000000.0 0.4779 -0.7379
6109000000.0 -0.2593 -0.798
6112000000.0 -0.7845 -0.3118
6116000000.0 -0.7651 0.4427
6119000000.0 -0.13 0.866
6122000000.0 0.5707 0.6068
6125000000.0 0.8852 -0.05981
6128000000.0 0.475 -0.6832
6131000000.0 -0.2266 -0.8283
6134000000.0 -0.781 -0.3047
6138000000.0 -0.7292 0.4089
6141000000.0 -0.1632 0.8448
6144000000.0 0.5323 0.6867
6147000000.0 0.8677 0.03478
6150000000.0 0.5462 -0.698
6153000000.0 -0.183 -0.8527
6156000000.0 -0.7789 -0.4027
6159000000.0 -0.8108 0.3673
6162000000.0 -0.237 0.842
6166000000.0 0.5431 0.7106
6169000000.0 0.8773 0.07157
6172000000.0 0.5956 -0.6518
6175000000.0 -0.1247 -0.8577
6178000000.0 -0.7767 -0.4711
6181000000.0 -0.8771 0.3013
6184000000.0 -0.3351 0.8365
6188000000.0 0.4509 0.7969
6191000000.0 0.9159 0.1316
6194000000.0 0.6708 -0.6071
6197000000.0 -0.05103 -0.9457
6200000000.0 -0.7177 -0.5484
6203000000.0 -0.8652 0.2405
6206000000.0 -0.3678 0.8603
6209000000.0 0.4335 0.849
6212000000.0 0.9097 0.2359
6216000000.0 0.7459 -0.5511
6219000000.0 0.06223 -0.9126
6222000000.0 -0.6743 -0.6426
6225000000.0 -0.9138 0.1121
6228000000.0 -0.4847 0.7684
6231000000.0 0.2818 0.8317
6234000000.0 0.817 0.2989
6238000000.0 0.7635 -0.4565
6241000000.0 0.1616 -0.8792
6244000000.0 -0.5792 -0.6734
6247000000.0 -0.8688 -0.006004
6250000000.0 -0.5319 0.6659
6253000000.0 0.1405 0.8212
6256000000.0 0.7186 0.3963
6259000000.0 0.7863 -0.3056
6262000000.0 0.2382 -0.7532
