! Created with skrf 1.8.0 (http://scikit-rf.org).
# Hz S RI R 50.0 
!freq ReS11 ImS11
4000000000.0 -0.1985 -1.479
4003000000.0 -1.307 -0.8077
4006000000.0 -1.371 0.5031
4009000000.0 -0.4854 1.475
4012000000.0 0.7809 1.369
4016000000.0 1.558 0.1958
4019000000.0 1.115 -1.023
4022000000.0 -0.1546 -1.541
4025000000.0 -1.375 -0.8531
4028000000.0 -1.548 0.475
4031000000.0 -0.5476 1.509
4034000000.0 0.8429 1.359
4038000000.0 1.623 0.1905
4041000000.0 1.176 -1.105
4044000000.0 -0.1398 -1.639
4047000000.0 -1.4 -0.9196
4050000000.0 -1.548 0.4911
4053000000.0 -0.6107 1.483
4056000000.0 0.7868 1.459
4059000000.0 1.623 0.2867
4062000000.0 1.277 -1.014
4066000000.0 -0.006505 -1.663
4069000000.0 -1.272 -1.033
4072000000.0 -1.619 0.3068
4075000000.0 -0.7865 1.47
4078000000.0 0.6314 1.545
4081000000.0 1.592 0.5064
4084000000.0 1.431 -0.8693
4088000000.0 0.2129 -1.651
4091000000.0 -1.146 -1.239
4094000000.0 -1.666 0.09401
4097000000.0 -0.9559 1.359
4100000000.0 0.4034 1.571
4103000000.0 1.453 0.7291
4106000000.0 1.459 -0.6765
4109000000.0 0.4151 -1.507
4112000000.0 -0.838 -1.285
4116000000.0 -1.537 -0.1885
4119000000.0 -1.118 1.021
4122000000.0 0.04636 1.504
4125000000.0 1.163 0.9607
4128000000.0 1.468 -0.2439
4131000000.0 0.7516 -1.273
4134000000.0 -0.4577 -1.442
4138000000.0 -1.414 -0.5685
4141000000.0 -1.338 0.6824
4144000000.0 -0.3296 1.459
4147000000.0 0.8986 1.248
4150000000.0 1.539 0.09333
4153000000.0 1.083 -1.077
4156000000.0 -0.1504 -1.528
4159000000.0 -1.28 -0.8724
4162000000.0 -1.491 0.3992
4166000000.0 -0.6294 1.431
4169000000.0 0.6393 1.415
4172000000.0 1.452 0.363
4175000000.0 1.254 -0.8865
4178000000.0 0.09883 -1.49
4181000000.0 -1.103 -1.047
4184000000.0 -1.529 0.1236
4188000000.0 -0.865 1.256
4191000000.0 0.4279 1.504
4194000000.0 1.446 0.6675
4197000000.0 1.413 -0.7178
4200000000.0 0.3412 -1.542
4203000000.0 -0.9761 -1.259
4206000000.0 -1.665 -0.02246
4209000000.0 -1.044 1.326
4212000000.0 0.4201 1.622
4216000000.0 1.539 0.6765
4219000000.0 1.53 -0.7976
4222000000.0 0.2966 -1.698
4225000000.0 -1.183 -1.238
4228000000.0 -1.681 0.1865
4231000000.0 -0.8609 1.452
4234000000.0 0.6212 1.585
4238000000.0 1.602 0.4415
4241000000.0 1.302 -1.004
4244000000.0 -0.03547 -1.653
4247000000.0 -1.247 -0.9922
4250000000.0 -1.521 0.3915
4253000000.0 -0.6196 1.433
4256000000.0 0.7815 1.349
4259000000.0 1.534 0.2174
4262000000.0 1.142 -1.049
4266000000.0 -0.1351 -1.529
4269000000.0 -1.271 -0.7972
4272000000.0 -1.417 0.4855
4275000000.0 -0.4802 1.398
4278000000.0 0.8168 1.167
4281000000.0 1.445 0.137
4284000000.0 1.017 -1.06
4288000000.0 -0.183 -1.393
4291000000.0 -1.167 -0.6918
4294000000.0 -1.293 0.4914
4297000000.0 -0.4266 1.299
4300000000.0 0.6883 1.142
4303000000.0 1.294 0.1857
4306000000.0 0.9713 -0.8724
4309000000.0 -0.01642 -1.328
4312000000.0 -1.02 -0.7959
4316000000.0 -1.293 0.2419
4319000000.0 -0.5946 1.153
4322000000.0 0.4871 1.241
4325000000.0 1.255 0.4459
4328000000.0 1.156 -0.6855
4331000000.0 0.2869 -1.342
4334000000.0 -0.8982 -1.039
4338000000.0 -1.408 -0.02845
4341000000.0 -0.9029 1.1
4344000000.0 0.2613 1.39
4347000000.0 1.282 0.6949
4350000000.0 1.363 -0.5575
4353000000.0 0.4557 -1.403
4356000000.0 -0.7783 -1.24
4359000000.0 -1.454 -0.1877
4362000000.0 -1.095 0.9942
4366000000.0 0.05893 1.489
4369000000.0 1.205 0.8783
4372000000.0 1.445 -0.3425
4375000000.0 0.6432 -1.352
4378000000.0 -0.6698 -1.432
4381000000.0 -1.472 -0.415
4384000000.0 -1.276 0.8957
4388000000.0 -0.08965 1.552
4391000000.0 1.163 1.045
4394000000.0 1.559 -0.213
4397000000.0 0.82 -1.393
4400000000.0 -0.5764 -1.487
4403000000.0 -1.519 -0.4904
4406000000.0 -1.334 0.9111
4409000000.0 -0.06041 1.571
4412000000.0 1.185 1.045
4416000000.0 1.532 -0.2963
4419000000.0 0.6739 -1.378
4422000000.0 -0.6435 -1.403
4425000000.0 -1.451 -0.349
4428000000.0 -1.146 0.884
4431000000.0 0.003466 1.448
4434000000.0 1.14 0.8681
4438000000.0 1.371 -0.3667
4441000000.0 0.5479 -1.313
4444000000.0 -0.6607 -1.202
4447000000.0 -1.322 -0.2259
4450000000.0 -0.9758 0.9497
4453000000.0 0.09464 1.34
4456000000.0 1.082 0.7025
4459000000.0 1.215 -0.4519
4462000000.0 0.4096 -1.216
4466000000.0 -0.7305 -1.042
4469000000.0 -1.261 -0.08287
4472000000.0 -0.817 0.8835
4475000000.0 0.2461 1.165
4478000000.0 1.061 0.5359
4481000000.0 1.054 -0.5
4484000000.0 0.2743 -1.127
4488000000.0 -0.7363 -0.8919
4491000000.0 -1.163 0.01098
4494000000.0 -0.6997 0.8968
4497000000.0 0.2378 1.121
4500000000.0 1.029 0.4668
4503000000.0 0.9595 -0.4475
4506000000.0 0.2899 -1.1
4509000000.0 -0.6913 -0.8567
4512000000.0 -1.118 -0.03409
4516000000.0 -0.7498 0.854
4519000000.0 0.1891 1.127
4522000000.0 0.993 0.5227
4525000000.0 1.076 -0.4433
4528000000.0 0.3552 -1.097
4531000000.0 -0.6422 -1.012
4534000000.0 -1.19 -0.09052
4538000000.0 -0.8596 0.8314
4541000000.0 0.09079 1.189
4544000000.0 1.019 0.6885
4547000000.0 1.154 -0.3377
4550000000.0 0.4964 -1.1
4553000000.0 -0.5265 -1.111
4556000000.0 -1.222 -0.2993
4559000000.0 -1.027 0.7099
4562000000.0 -0.1148 1.266
4566000000.0 0.8945 0.9103
4569000000.0 1.299 -0.1122
4572000000.0 0.7557 -1.032
4575000000.0 -0.3657 -1.253
4578000000.0 -1.19 -0.5409
4581000000.0 -1.193 0.5831
4584000000.0 -0.332 1.341
4588000000.0 0.8168 1.097
4591000000.0 1.373 0.08375
4594000000.0 0.925 -1.011
4597000000.0 -0.1939 -1.411
4600000000.0 -1.207 -0.755
4603000000.0 -1.339 0.4536
4606000000.0 -0.5083 1.313
4609000000.0 0.7195 1.232
4612000000.0 1.377 0.2231
4616000000.0 1.05 -0.9594
4619000000.0 -0.0627 -1.437
4622000000.0 -1.138 -0.8513
4625000000.0 -1.371 0.3699
4628000000.0 -0.5997 1.24
4631000000.0 0.5933 1.269
4634000000.0 1.355 0.3276
4638000000.0 1.096 -0.8145
4641000000.0 0.009666 -1.367
4644000000.0 -1.075 -0.8768
4647000000.0 -1.298 0.2986
4650000000.0 -0.6356 1.209
4653000000.0 0.5892 1.18
4656000000.0 1.268 0.3177
4659000000.0 1.015 -0.7905
4662000000.0 -0.04837 -1.295
4666000000.0 -1.001 -0.7714
4669000000.0 -1.203 0.2895
4672000000.0 -0.5284 1.049
4675000000.0 0.5393 1.037
4678000000.0 1.117 0.2359
4681000000.0 0.8793 -0.7558
4684000000.0 -0.01658 -1.157
4688000000.0 -0.8694 -0.6751
4691000000.0 -1.109 0.2531
4694000000.0 -0.4893 0.987
4697000000.0 0.5047 1.009
4700000000.0 1.098 0.2331
4703000000.0 0.812 -0.7125
4706000000.0 -0.01687 -1.133
4709000000.0 -0.8961 -0.6625
4712000000.0 -1.072 0.2871
4716000000.0 -0.4796 0.9924
4719000000.0 0.508 0.9505
4722000000.0 1.058 0.1924
4725000000.0 0.7954 -0.6871
4728000000.0 -0.06044 -1.076
4731000000.0 -0.8376 -0.6609
4734000000.0 -1.038 0.2339
4738000000.0 -0.4848 0.9587
4741000000.0 0.431 0.9773
4744000000.0 1.014 0.291
4747000000.0 0.8941 -0.6082
4750000000.0 0.08392 -1.072
4753000000.0 -0.7573 -0.7757
4756000000.0 -1.118 0.08184
4759000000.0 -0.6031 0.9401
4762000000.0 0.315 1.105
4766000000.0 1.063 0.4749
4769000000.0 1.037 -0.5123
4772000000.0 0.2508 -1.13
4775000000.0 -0.6987 -0.9408
4778000000.0 -1.204 -0.07326
4781000000.0 -0.8451 0.8925
4784000000.0 0.1183 1.205
4788000000.0 1.031 0.7077
4791000000.0 1.195 -0.3282
4794000000.0 0.5475 -1.116
4797000000.0 -0.5418 -1.144
4800000000.0 -1.238 -0.3261
4803000000.0 -1.012 0.7126
4806000000.0 -0.08202 1.25
4809000000.0 0.9038 0.9134
4812000000.0 1.294 -0.1027
4816000000.0 0.7909 -1.072
4819000000.0 -0.3476 -1.291
4822000000.0 -1.239 -0.5564
4825000000.0 -1.242 0.5848
4828000000.0 -0.3235 1.379
4831000000.0 0.8392 1.136
4834000000.0 1.42 0.05556
4838000000.0 0.9265 -1.062
4841000000.0 -0.2028 -1.429
4844000000.0 -1.212 -0.7161
4847000000.0 -1.342 0.4988
4850000000.0 -0.4485 1.335
4853000000.0 0.7277 1.229
4856000000.0 1.398 0.2114
4859000000.0 1.016 -0.9533
4862000000.0 -0.07186 -1.358
4866000000.0 -1.117 -0.7783
4869000000.0 -1.288 0.347
4872000000.0 -0.5019 1.197
4875000000.0 0.6159 1.157
4878000000.0 1.277 0.2576
4881000000.0 0.9839 -0.819
4884000000.0 -0.01524 -1.259
4888000000.0 -0.9662 -0.7205
4891000000.0 -1.18 0.2695
4894000000.0 -0.5298 1.07
4897000000.0 0.5038 1.057
4900000000.0 1.112 0.2706
4903000000.0 0.8741 -0.6835
4906000000.0 0.01514 -1.112
4909000000.0 -0.8323 -0.6818
4912000000.0 -1.027 0.2073
4916000000.0 -0.4693 0.9033
4919000000.0 0.4088 0.9384
4922000000.0 0.9495 0.3101
4925000000.0 0.8346 -0.561
4928000000.0 0.1048 -0.9719
4931000000.0 -0.7147 -0.6932
4934000000.0 -0.9608 0.09637
4938000000.0 -0.5209 0.779
4941000000.0 0.2814 0.9229
4944000000.0 0.8638 0.3717
4947000000.0 0.8555 -0.4665
4950000000.0 0.1709 -0.927
4953000000.0 -0.629 -0.7078
4956000000.0 -1.015 -0.006228
4959000000.0 -0.5998 0.7635
4962000000.0 0.221 0.9532
4966000000.0 0.8869 0.4425
4969000000.0 0.9287 -0.4092
4972000000.0 0.2684 -0.9819
4975000000.0 -0.5685 -0.8244
4978000000.0 -1.008 -0.05167
4981000000.0 -0.711 0.7652
4984000000.0 0.1195 1.048
4988000000.0 0.8933 0.6016
4991000000.0 1.021 -0.3088
4994000000.0 0.4324 -1.012
4997000000.0 -0.5002 -0.9939
5000000000.0 -1.117 -0.2148
5003000000.0 -0.9569 0.7482
5006000000.0 -0.0178 1.18
5009000000.0 0.9065 0.8053
5012000000.0 1.212 -0.2033
5016000000.0 0.6311 -1.082
5019000000.0 -0.4475 -1.169
5022000000.0 -1.217 -0.4056
5025000000.0 -1.118 0.6361
5028000000.0 -0.1939 1.279
5031000000.0 0.9056 0.9878
5034000000.0 1.309 -0.07639
5038000000.0 0.7818 -1.054
5041000000.0 -0.2984 -1.311
5044000000.0 -1.174 -0.5931
5047000000.0 -1.22 0.5521
5050000000.0 -0.3605 1.25
5053000000.0 0.7479 1.104
5056000000.0 1.324 0.1584
5059000000.0 0.979 -0.8815
5062000000.0 -0.0812 -1.315
5066000000.0 -1.056 -0.7314
5069000000.0 -1.285 0.3341
5072000000.0 -0.5307 1.197
5075000000.0 0.5603 1.164
5078000000.0 1.229 0.3376
5081000000.0 1.035 -0.7402
5084000000.0 0.075 -1.26
5088000000.0 -0.9026 -0.8428
5091000000.0 -1.21 0.1414
5094000000.0 -0.6977 1.02
5097000000.0 0.3428 1.089
5100000000.0 1.039 0.4557
5103000000.0 1.012 -0.5624
5106000000.0 0.2787 -1.125
5109000000.0 -0.6513 -0.8637
5112000000.0 -1.089 -0.07742
5116000000.0 -0.7406 0.8091
5119000000.0 0.1058 1.062
5122000000.0 0.9059 0.5862
5125000000.0 0.9895 -0.3174
5128000000.0 0.4065 -0.9404
5131000000.0 -0.4964 -0.9207
5134000000.0 -0.999 -0.2053
5138000000.0 -0.8001 0.6537
5141000000.0 0.0004171 0.971
5144000000.0 0.7591 0.6202
5147000000.0 0.9515 -0.2226
5150000000.0 0.4226 -0.8438
5153000000.0 -0.3612 -0.8199
5156000000.0 -0.9043 -0.2765
5159000000.0 -0.7725 0.5185
5162000000.0 -0.0865 0.9212
5166000000.0 0.6658 0.6255
5169000000.0 0.8867 -0.09617
5172000000.0 0.4813 -0.7451
5175000000.0 -0.2544 -0.8874
5178000000.0 -0.8656 -0.3186
5181000000.0 -0.7642 0.468
5184000000.0 -0.1252 0.9166
5188000000.0 0.6633 0.6856
5191000000.0 0.8969 -0.05855
5194000000.0 0.5001 -0.7636
5197000000.0 -0.2862 -0.9037
5200000000.0 -0.893 -0.3369
5203000000.0 -0.841 0.4801
5206000000.0 -0.1305 0.9747
5209000000.0 0.6738 0.6987
5212000000.0 0.9833 -0.0877
5216000000.0 0.5499 -0.8386
5219000000.0 -0.2816 -0.9469
5222000000.0 -0.9331 -0.3734
5225000000.0 -0.8966 0.4637
5228000000.0 -0.2059 1.031
5231000000.0 0.6727 0.8101
5234000000.0 1.025 0.001181
5238000000.0 0.6614 -0.7995
5241000000.0 -0.1887 -1.041
5244000000.0 -0.9334 -0.512
5247000000.0 -0.9788 0.3969
5250000000.0 -0.3389 1.031
5253000000.0 0.5812 0.9296
5256000000.0 1.082 0.1349
5259000000.0 0.8117 -0.7427
5262000000.0 -0.03282 -1.08
5266000000.0 -0.8745 -0.6771
5269000000.0 -1.074 0.236
5272000000.0 -0.5123 0.9774
5275000000.0 0.4202 0.9994
5278000000.0 1.048 0.3187
5281000000.0 0.9346 -0.5837
5284000000.0 0.163 -1.094
5288000000.0 -0.736 -0.8449
5291000000.0 -1.109 -0.01756
5294000000.0 -0.725 0.8969
5297000000.0 0.1997 1.095
5300000000.0 0.9755 0.5954
5303000000.0 1.11 -0.3993
5306000000.0 0.4019 -1.072
5309000000.0 -0.5501 -1.017
5312000000.0 -1.107 -0.2424
5316000000.0 -0.9203 0.737
5319000000.0 -0.00992 1.173
5322000000.0 0.8568 0.7612
5325000000.0 1.128 -0.2102
5328000000.0 0.6216 -0.9794
5331000000.0 -0.3517 -1.112
5334000000.0 -1.077 -0.4184
5338000000.0 -0.9968 0.5928
5341000000.0 -0.1691 1.122
5344000000.0 0.7291 0.8354
5347000000.0 1.148 -0.05336
5350000000.0 0.6582 -0.9179
5353000000.0 -0.238 -1.09
5356000000.0 -1.011 -0.4831
5359000000.0 -0.9806 0.4773
5362000000.0 -0.281 1.061
5366000000.0 0.6375 0.8445
5369000000.0 1.031 0.02368
5372000000.0 0.675 -0.829
5375000000.0 -0.2199 -1.04
5378000000.0 -0.9329 -0.4719
5381000000.0 -0.9375 0.3975
5384000000.0 -0.2656 0.9527
5388000000.0 0.5792 0.7843
5391000000.0 0.9925 0.02591
5394000000.0 0.6328 -0.7823
5397000000.0 -0.2018 -0.9224
5400000000.0 -0.848 -0.4053
5403000000.0 -0.8297 0.3942
5406000000.0 -0.2288 0.8424
5409000000.0 0.5536 0.6905
5412000000.0 0.8708 -0.002089
5416000000.0 0.5369 -0.6981
5419000000.0 -0.1848 -0.8253
5422000000.0 -0.7788 -0.3946
5425000000.0 -0.7793 0.3847
5428000000.0 -0.1881 0.8943
5431000000.0 0.5849 0.7047
5434000000.0 0.884 0.01331
5438000000.0 0.54 -0.7064
5441000000.0 -0.1788 -0.8808
5444000000.0 -0.8109 -0.3943
5447000000.0 -0.8091 0.4127
5450000000.0 -0.2245 0.8877
5453000000.0 0.5163 0.6819
5456000000.0 0.9138 0.02353
5459000000.0 0.5973 -0.6902
5462000000.0 -0.1489 -0.9145
5466000000.0 -0.7761 -0.4798
5469000000.0 -0.8655 0.2906
5472000000.0 -0.3098 0.8894
5475000000.0 0.5184 0.8332
5478000000.0 0.9292 0.1138
5481000000.0 0.7473 -0.5969
5484000000.0 -0.003212 -0.9846
5488000000.0 -0.7403 -0.6159
5491000000.0 -0.9779 0.1772
5494000000.0 -0.4728 0.895
5497000000.0 0.3651 0.9322
5500000000.0 0.9812 0.3211
5503000000.0 0.9249 -0.5201
5506000000.0 0.1978 -1.002
5509000000.0 -0.6702 -0.7917
5512000000.0 -1.044 -0.0005516
5516000000.0 -0.6609 0.833
5519000000.0 0.206 1.065
5522000000.0 0.9131 0.5446
5525000000.0 0.9917 -0.3394
5528000000.0 0.3618 -0.9911
5531000000.0 -0.5613 -0.934
5534000000.0 -1.01 -0.198
5538000000.0 -0.802 0.6712
5541000000.0 0.0006306 1.076
5544000000.0 0.8333 0.6847
5547000000.0 1.053 -0.1757
5550000000.0 0.4821 -0.9325
5553000000.0 -0.402 -0.9993
5556000000.0 -1.033 -0.3405
5559000000.0 -0.8783 0.5647
5562000000.0 -0.1491 1.04
5566000000.0 0.684 0.7613
5569000000.0 1.04 -0.06551
5572000000.0 0.5999 -0.8358
5575000000.0 -0.2505 -1.004
5578000000.0 -0.876 -0.4209
5581000000.0 -0.9325 0.3826
5584000000.0 -0.2691 0.921
5588000000.0 0.5707 0.8005
5591000000.0 0.9601 0.0737
5594000000.0 0.6486 -0.6874
5597000000.0 -0.1051 -0.9204
5600000000.0 -0.7938 -0.4947
5603000000.0 -0.8849 0.2808
5606000000.0 -0.3347 0.881
5609000000.0 0.4233 0.777
5612000000.0 0.871 0.1407
5616000000.0 0.6466 -0.5755
5619000000.0 -0.06489 -0.8763
5622000000.0 -0.7168 -0.4824
5625000000.0 -0.7911 0.2423
5628000000.0 -0.3585 0.7832
5631000000.0 0.4194 0.7435
5634000000.0 0.8234 0.1437
5638000000.0 0.6376 -0.5318
5641000000.0 -0.03508 -0.8424
5644000000.0 -0.6763 -0.5126
5647000000.0 -0.8353 0.2015
5650000000.0 -0.3406 0.776
5653000000.0 0.3756 0.7631
5656000000.0 0.844 0.1595
5659000000.0 0.6556 -0.5725
5662000000.0 -0.01576 -0.8854
5666000000.0 -0.6826 -0.5328
5669000000.0 -0.8771 0.2153
5672000000.0 -0.3981 0.8346
5675000000.0 0.4204 0.8306
5678000000.0 0.8914 0.1861
5681000000.0 0.7376 -0.5848
5684000000.0 0.003164 -0.9588
5688000000.0 -0.7742 -0.5923
5691000000.0 -0.9331 0.2173
5694000000.0 -0.4622 0.8807
5697000000.0 0.3851 0.9474
5700000000.0 0.9906 0.2776
5703000000.0 0.8146 -0.5996
5706000000.0 0.08488 -1.026
5709000000.0 -0.7537 -0.7126
5712000000.0 -1.053 0.1159
5716000000.0 -0.5356 0.9205
5719000000.0 0.3423 1.016
5722000000.0 0.9906 0.4036
5725000000.0 0.9664 -0.5044
5728000000.0 0.2012 -1.064
5731000000.0 -0.6985 -0.8385
5734000000.0 -1.098 -0.02298
5738000000.0 -0.703 0.8189
5741000000.0 0.2023 1.1
5744000000.0 0.9586 0.5187
5747000000.0 1.017 -0.419
5750000000.0 0.3529 -1.086
5753000000.0 -0.5903 -0.9346
5756000000.0 -1.121 -0.1588
5759000000.0 -0.8262 0.7474
5762000000.0 0.06651 1.136
5766000000.0 0.8999 0.6755
5769000000.0 1.102 -0.2375
5772000000.0 0.4687 -1.014
5775000000.0 -0.4563 -1.03
5778000000.0 -1.061 -0.3229
5781000000.0 -0.926 0.5878
5784000000.0 -0.149 1.118
5788000000.0 0.7655 0.7932
5791000000.0 1.096 -0.04029
5794000000.0 0.6559 -0.9064
5797000000.0 -0.2633 -1.055
5800000000.0 -0.986 -0.4604
5803000000.0 -0.9821 0.4951
5806000000.0 -0.2468 1.037
5809000000.0 0.6522 0.8421
5812000000.0 1.039 0.09194
5816000000.0 0.6739 -0.7742
5819000000.0 -0.1388 -1.04
5822000000.0 -0.8409 -0.5386
5825000000.0 -0.9546 0.3726
5828000000.0 -0.3641 0.9371
5831000000.0 0.5116 0.8661
5834000000.0 0.9788 0.1339
5838000000.0 0.7308 -0.6753
5841000000.0 -0.05487 -0.9519
5844000000.0 -0.7843 -0.5547
5847000000.0 -0.8897 0.2974
5850000000.0 -0.3641 0.853
5853000000.0 0.4306 0.8493
5856000000.0 0.9509 0.1757
5859000000.0 0.7158 -0.5892
5862000000.0 -0.03516 -0.945
5866000000.0 -0.7148 -0.5505
5869000000.0 -0.8746 0.2241
5872000000.0 -0.3674 0.8094
5875000000.0 0.4046 0.766
5878000000.0 0.8701 0.1762
5881000000.0 0.6762 -0.5711
5884000000.0 -0.02311 -0.9211
5888000000.0 -0.7224 -0.542
5891000000.0 -0.8629 0.172
5894000000.0 -0.3926 0.7745
5897000000.0 0.3662 0.7893
5900000000.0 0.8419 0.211
5903000000.0 0.6627 -0.4866
5906000000.0 0.03744 -0.8873
5909000000.0 -0.6501 -0.5683
5912000000.0 -0.8962 0.1027
5916000000.0 -0.4323 0.7654
5919000000.0 0.3283 0.8313
5922000000.0 0.8527 0.3137
5925000000.0 0.7636 -0.4835
5928000000.0 0.1375 -0.8616
5931000000.0 -0.5999 -0.67
5934000000.0 -0.9252 0.05624
5938000000.0 -0.5446 0.7401
5941000000.0 0.1959 0.8881
5944000000.0 0.8216 0.4031
5947000000.0 0.8147 -0.395
5950000000.0 0.2807 -0.8889
5953000000.0 -0.5218 -0.7778
5956000000.0 -0.9341 -0.105
5959000000.0 -0.697 0.6593
5962000000.0 0.06519 0.9461
5966000000.0 0.7902 0.5719
5969000000.0 0.9222 -0.2328
5972000000.0 0.4153 -0.8795
5975000000.0 -0.3913 -0.8717
5978000000.0 -0.9437 -0.2852
5981000000.0 -0.8025 0.5577
5984000000.0 -0.0795 0.9983
5988000000.0 0.7121 0.6909
5991000000.0 1.032 -0.08859
5994000000.0 0.579 -0.8552
5997000000.0 -0.2669 -0.9875
6000000000.0 -0.9378 -0.4044
6003000000.0 -0.9414 0.4399
6006000000.0 -0.1897 0.9809
6009000000.0 0.6288 0.8018
6012000000.0 1.007 -0.0006692
6016000000.0 0.6621 -0.7775
6019000000.0 -0.1868 -1.006
6022000000.0 -0.8834 -0.4791
6025000000.0 -0.9115 0.3571
6028000000.0 -0.2819 0.9501
6031000000.0 0.5279 0.8319
6034000000.0 0.9648 0.1133
6038000000.0 0.6878 -0.6885
6041000000.0 -0.07684 -0.9854
6044000000.0 -0.7951 -0.5522
6047000000.0 -0.9271 0.2909
6050000000.0 -0.3539 0.8791
6053000000.0 0.4877 0.8178
6056000000.0 0.9246 0.1486
6059000000.0 0.6979 -0.6339
6062000000.0 -0.02507 -0.9378
6066000000.0 -0.6923 -0.518
6069000000.0 -0.8815 0.2292
6072000000.0 -0.3512 0.8064
6075000000.0 0.4108 0.8144
6078000000.0 0.8583 0.1676
6081000000.0 0.6702 -0.5536
6084000000.0 0.0008138 -0.86
6088000000.0 -0.7051 -0.5194
6091000000.0 -0.8612 0.2073
6094000000.0 -0.3693 0.776
6097000000.0 0.3832 0.8077
6100000000.0 0.8212 0.2225
6103000000.0 0.7305 -0.5099
6106000000.0 0.0328 -0.8853
6109000000.0 -0.6388 -0.5737
6112000000.0 -0.8534 0.1647
6116000000.0 -0.4509 0.7545
6119000000.0 0.3343 0.8023
6122000000.0 0.8456 0.2716
6125000000.0 0.7367 -0.4982
6128000000.0 0.06465 -0.9051
6131000000.0 -0.6589 -0.6475
6134000000.0 -0.8663 0.09826
6138000000.0 -0.4723 0.7592
6141000000.0 0.2814 0.8446
6144000000.0 0.8661 0.3337
6147000000.0 0.787 -0.4469
6150000000.0 0.1363 -0.8928
6153000000.0 -0.6271 -0.6744
6156000000.0 -0.9274 0.03223
6159000000.0 -0.5359 0.7047
6162000000.0 0.2482 0.9093
6166000000.0 0.8463 0.4001
6169000000.0 0.8557 -0.4295
6172000000.0 0.2158 -0.9348
6175000000.0 -0.5786 -0.7723
6178000000.0 -0.9634 -0.02506
6181000000.0 -0.6527 0.7379
6184000000.0 0.1596 0.926
6188000000.0 0.8518 0.4936
6191000000.0 0.8636 -0.317
6194000000.0 0.3162 -0.9318
6197000000.0 -0.506 -0.8167
6200000000.0 -0.9349 -0.1509
6203000000.0 -0.714 0.63
6206000000.0 0.07502 0.9838
6209000000.0 0.7725 0.5761
6212000000.0 0.9152 -0.227
6216000000.0 0.4132 -0.8662
6219000000.0 -0.3924 -0.8545
6222000000.0 -0.9053 -0.215
6225000000.0 -0.7521 0.5768
6228000000.0 -0.06798 0.9247
6231000000.0 0.6704 0.6129
6234000000.0 0.9278 -0.1161
6238000000.0 0.4718 -0.7092
6241000000.0 -0.2688 -0.8596
6244000000.0 -0.8298 -0.3241
6247000000.0 -0.7458 0.3929
6250000000.0 -0.1476 0.87
6253000000.0 0.5528 0.6911
6256000000.0 0.8424 0.0492
6259000000.0 0.5678 -0.6697
6262000000.0 -0.1611 -0.8186
6266000000.0 -0.679 -0.4221
