! Created with skrf 1.8.0 (http://scikit-rf.org).
# Hz S RI R 50.0 
!freq ReS11 ImS11
4000000000.0 -0.1618 -1.512
4003000000.0 -1.261 -0.8137
4006000000.0 -1.409 0.5204
4009000000.0 -0.5424 1.463
4012000000.0 0.796 1.269
4016000000.0 1.49 0.2372
4019000000.0 1.126 -1.052
4022000000.0 -0.1673 -1.576
4025000000.0 -1.368 -0.9018
4028000000.0 -1.542 0.4709
4031000000.0 -0.5983 1.509
4034000000.0 0.8078 1.432
4038000000.0 1.631 0.2524
4041000000.0 1.155 -1.084
4044000000.0 -0.178 -1.636
4047000000.0 -1.367 -0.9092
4050000000.0 -1.529 0.4948
4053000000.0 -0.6442 1.491
4056000000.0 0.7541 1.423
4059000000.0 1.577 0.3577
4062000000.0 1.243 -0.9835
4066000000.0 0.02831 -1.601
4069000000.0 -1.213 -1.062
4072000000.0 -1.577 0.3006
4075000000.0 -0.8231 1.414
4078000000.0 0.5493 1.552
4081000000.0 1.557 0.5215
4084000000.0 1.41 -0.8533
4088000000.0 0.2582 -1.656
4091000000.0 -1.115 -1.222
4094000000.0 -1.631 0.09721
4097000000.0 -0.9551 1.299
4100000000.0 0.3667 1.571
4103000000.0 1.436 0.7033
4106000000.0 1.448 -0.6367
4109000000.0 0.4525 -1.488
4112000000.0 -0.8532 -1.267
4116000000.0 -1.501 -0.203
4119000000.0 -1.117 0.9859
4122000000.0 0.02621 1.476
4125000000.0 1.15 0.9648
4128000000.0 1.449 -0.2196
4131000000.0 0.7839 -1.239
4134000000.0 -0.4662 -1.404
4138000000.0 -1.364 -0.5687
4141000000.0 -1.325 0.6481
4144000000.0 -0.3619 1.456
4147000000.0 0.8428 1.229
4150000000.0 1.504 0.1523
4153000000.0 1.068 -1.09
4156000000.0 -0.09815 -1.52
4159000000.0 -1.239 -0.8768
4162000000.0 -1.44 0.3889
4166000000.0 -0.6618 1.371
4169000000.0 0.6157 1.368
4172000000.0 1.449 0.3965
4175000000.0 1.229 -0.8405
4178000000.0 0.165 -1.488
4181000000.0 -1.044 -1.077
4184000000.0 -1.5 0.1107
4188000000.0 -0.8846 1.238
4191000000.0 0.3674 1.512
4194000000.0 1.39 0.6785
4197000000.0 1.395 -0.6781
4200000000.0 0.392 -1.518
4203000000.0 -0.9567 -1.262
4206000000.0 -1.621 -0.03325
4209000000.0 -1.045 1.252
4212000000.0 0.3236 1.632
4216000000.0 1.509 0.7367
4219000000.0 1.532 -0.7388
4222000000.0 0.3356 -1.665
4225000000.0 -1.129 -1.254
4228000000.0 -1.676 0.1369
4231000000.0 -0.9438 1.399
4234000000.0 0.5641 1.551
4238000000.0 1.56 0.4828
4241000000.0 1.343 -0.9514
4244000000.0 0.04416 -1.596
4247000000.0 -1.21 -1.022
4250000000.0 -1.531 0.3318
4253000000.0 -0.6875 1.4
4256000000.0 0.72 1.366
4259000000.0 1.527 0.3201
4262000000.0 1.166 -1.003
4266000000.0 -0.1093 -1.507
4269000000.0 -1.26 -0.8555
4272000000.0 -1.426 0.4358
4275000000.0 -0.5426 1.422
4278000000.0 0.7791 1.269
4281000000.0 1.414 0.1428
4284000000.0 1.007 -1.003
4288000000.0 -0.1197 -1.411
4291000000.0 -1.149 -0.7322
4294000000.0 -1.311 0.4052
4297000000.0 -0.4764 1.276
4300000000.0 0.6448 1.159
4303000000.0 1.271 0.2546
4306000000.0 1.003 -0.8046
4309000000.0 -0.008043 -1.284
4312000000.0 -0.9866 -0.874
4316000000.0 -1.244 0.2319
4319000000.0 -0.6455 1.114
4322000000.0 0.4187 1.22
4325000000.0 1.208 0.4858
4328000000.0 1.187 -0.629
4331000000.0 0.2895 -1.291
4334000000.0 -0.834 -1.061
4338000000.0 -1.374 0.006847
4341000000.0 -0.9594 1.036
4344000000.0 0.2112 1.381
4347000000.0 1.25 0.7291
4350000000.0 1.356 -0.4911
4353000000.0 0.5002 -1.341
4356000000.0 -0.7207 -1.22
4359000000.0 -1.45 -0.2601
4362000000.0 -1.123 0.9032
4366000000.0 0.03987 1.422
4369000000.0 1.1 0.935
4372000000.0 1.427 -0.2937
4375000000.0 0.7046 -1.313
4378000000.0 -0.5686 -1.379
4381000000.0 -1.46 -0.461
4384000000.0 -1.272 0.8248
4388000000.0 -0.1361 1.504
4391000000.0 1.116 1.139
4394000000.0 1.525 -0.1866
4397000000.0 0.8456 -1.323
4400000000.0 -0.4962 -1.526
4403000000.0 -1.523 -0.5516
4406000000.0 -1.359 0.8279
4409000000.0 -0.173 1.564
4412000000.0 1.084 1.116
4416000000.0 1.542 -0.2268
4419000000.0 0.7882 -1.337
4422000000.0 -0.5597 -1.414
4425000000.0 -1.44 -0.4362
4428000000.0 -1.203 0.826
4431000000.0 -0.08605 1.465
4434000000.0 1.124 0.9583
4438000000.0 1.386 -0.2641
4441000000.0 0.6465 -1.244
4444000000.0 -0.5934 -1.243
4447000000.0 -1.315 -0.3081
4450000000.0 -1.004 0.8371
4453000000.0 0.0626 1.298
4456000000.0 1.052 0.7546
4459000000.0 1.254 -0.3833
4462000000.0 0.4374 -1.173
4466000000.0 -0.6224 -1.078
4469000000.0 -1.25 -0.1266
4472000000.0 -0.8324 0.9011
4475000000.0 0.1895 1.193
4478000000.0 1.007 0.6006
4481000000.0 1.079 -0.4544
4484000000.0 0.3299 -1.093
4488000000.0 -0.6623 -0.9118
4491000000.0 -1.112 -0.04801
4494000000.0 -0.7631 0.8653
4497000000.0 0.1809 1.099
4500000000.0 0.9805 0.5614
4503000000.0 1.031 -0.42
4506000000.0 0.3029 -1.043
4509000000.0 -0.6185 -0.9076
4512000000.0 -1.13 -0.124
4516000000.0 -0.778 0.7729
4519000000.0 0.1567 1.107
4522000000.0 0.9713 0.61
4525000000.0 1.083 -0.3616
4528000000.0 0.4064 -1.089
4531000000.0 -0.5759 -1.014
4534000000.0 -1.171 -0.1969
4538000000.0 -0.8829 0.8003
4541000000.0 0.06745 1.197
4544000000.0 0.9369 0.7202
4547000000.0 1.158 -0.2587
4550000000.0 0.5562 -1.065
4553000000.0 -0.4804 -1.087
4556000000.0 -1.146 -0.3752
4559000000.0 -1.033 0.6772
4562000000.0 -0.1509 1.216
4566000000.0 0.8258 0.9305
4569000000.0 1.252 -0.06584
4572000000.0 0.8043 -0.9859
4575000000.0 -0.2651 -1.247
4578000000.0 -1.171 -0.5899
4581000000.0 -1.212 0.5161
4584000000.0 -0.3753 1.289
4588000000.0 0.7317 1.144
4591000000.0 1.364 0.1294
4594000000.0 0.9668 -0.9391
4597000000.0 -0.1142 -1.379
4600000000.0 -1.133 -0.7757
4603000000.0 -1.352 0.3886
4606000000.0 -0.5805 1.277
4609000000.0 0.651 1.253
4612000000.0 1.353 0.273
4616000000.0 1.075 -0.8623
4619000000.0 -0.01807 -1.389
4622000000.0 -1.107 -0.9018
4625000000.0 -1.377 0.2898
4628000000.0 -0.6793 1.215
4631000000.0 0.5561 1.285
4634000000.0 1.344 0.3695
4638000000.0 1.142 -0.7947
4641000000.0 0.07685 -1.354
4644000000.0 -1.006 -0.9296
4647000000.0 -1.328 0.2146
4650000000.0 -0.6349 1.184
4653000000.0 0.5395 1.215
4656000000.0 1.243 0.3725
4659000000.0 1.056 -0.7257
4662000000.0 0.0565 -1.249
4666000000.0 -0.9257 -0.8183
4669000000.0 -1.233 0.2096
4672000000.0 -0.5818 1.039
4675000000.0 0.4489 1.072
4678000000.0 1.096 0.3056
4681000000.0 0.9198 -0.628
4684000000.0 0.05347 -1.134
4688000000.0 -0.8135 -0.7807
4691000000.0 -1.084 0.1875
4694000000.0 -0.526 0.9667
4697000000.0 0.4289 1.016
4700000000.0 1.064 0.2712
4703000000.0 0.853 -0.6497
4706000000.0 0.006232 -1.089
4709000000.0 -0.8443 -0.6717
4712000000.0 -1.046 0.2208
4716000000.0 -0.5 0.9432
4719000000.0 0.4445 0.9619
4722000000.0 1.032 0.2456
4725000000.0 0.8343 -0.6446
4728000000.0 0.0198 -1.057
4731000000.0 -0.8008 -0.6707
4734000000.0 -1.047 0.1698
4738000000.0 -0.523 0.8887
4741000000.0 0.3371 0.9659
4744000000.0 1.001 0.3429
4747000000.0 0.8632 -0.5835
4750000000.0 0.1161 -1.058
4753000000.0 -0.7618 -0.7979
4756000000.0 -1.082 0.02702
4759000000.0 -0.664 0.875
4762000000.0 0.2502 1.086
4766000000.0 1.024 0.5064
4769000000.0 1.062 -0.4428
4772000000.0 0.3203 -1.108
4775000000.0 -0.6723 -0.9775
4778000000.0 -1.155 -0.1357
4781000000.0 -0.8399 0.8067
4784000000.0 0.09653 1.178
4788000000.0 0.969 0.7191
4791000000.0 1.178 -0.2898
4794000000.0 0.5476 -1.109
4797000000.0 -0.473 -1.145
4800000000.0 -1.202 -0.3932
4803000000.0 -1.042 0.6584
4806000000.0 -0.1692 1.242
4809000000.0 0.8513 0.9492
4812000000.0 1.279 -0.04214
4816000000.0 0.8232 -1.018
4819000000.0 -0.2799 -1.272
4822000000.0 -1.201 -0.6253
4825000000.0 -1.239 0.5228
4828000000.0 -0.3826 1.3
4831000000.0 0.7643 1.157
4834000000.0 1.384 0.1202
4838000000.0 0.9703 -1.01
4841000000.0 -0.1709 -1.391
4844000000.0 -1.171 -0.753
4847000000.0 -1.353 0.4169
4850000000.0 -0.4898 1.286
4853000000.0 0.6708 1.196
4856000000.0 1.312 0.2456
4859000000.0 1.023 -0.8699
4862000000.0 -0.0454 -1.365
4866000000.0 -1.079 -0.8276
4869000000.0 -1.32 0.3072
4872000000.0 -0.5803 1.204
4875000000.0 0.5962 1.205
4878000000.0 1.239 0.3147
4881000000.0 1.03 -0.7726
4884000000.0 0.03871 -1.253
4888000000.0 -0.9402 -0.8061
4891000000.0 -1.202 0.2239
4894000000.0 -0.5425 1.055
4897000000.0 0.4454 1.098
4900000000.0 1.123 0.3077
4903000000.0 0.9255 -0.6735
4906000000.0 0.08776 -1.076
4909000000.0 -0.7595 -0.726
4912000000.0 -1.057 0.113
4916000000.0 -0.516 0.874
4919000000.0 0.335 0.9501
4922000000.0 0.9279 0.3398
4925000000.0 0.8319 -0.5145
4928000000.0 0.1638 -0.9443
4931000000.0 -0.6394 -0.686
4934000000.0 -0.9573 0.08993
4938000000.0 -0.5578 0.7441
4941000000.0 0.2422 0.9102
4944000000.0 0.829 0.3939
4947000000.0 0.87 -0.3916
4950000000.0 0.2393 -0.9153
4953000000.0 -0.5606 -0.761
4956000000.0 -0.9639 -0.05273
4959000000.0 -0.631 0.7296
4962000000.0 0.1286 0.9798
4966000000.0 0.8413 0.4853
4969000000.0 0.9142 -0.361
4972000000.0 0.3213 -0.9481
4975000000.0 -0.5367 -0.8463
4978000000.0 -1.013 -0.1258
4981000000.0 -0.7156 0.7149
4984000000.0 0.07006 1.036
4988000000.0 0.8441 0.6013
4991000000.0 1.026 -0.2538
4994000000.0 0.4569 -1.014
4997000000.0 -0.4755 -0.9639
5000000000.0 -1.108 -0.2799
5003000000.0 -0.923 0.6638
5006000000.0 -0.08055 1.161
5009000000.0 0.8735 0.8088
5012000000.0 1.193 -0.1709
5016000000.0 0.6359 -1.031
5019000000.0 -0.4147 -1.158
5022000000.0 -1.168 -0.4373
5025000000.0 -1.103 0.6119
5028000000.0 -0.234 1.217
5031000000.0 0.8471 0.9914
5034000000.0 1.283 -0.02384
5038000000.0 0.8249 -0.9975
5041000000.0 -0.268 -1.284
5044000000.0 -1.115 -0.6131
5047000000.0 -1.201 0.4651
5050000000.0 -0.4086 1.198
5053000000.0 0.6792 1.162
5056000000.0 1.28 0.195
5059000000.0 1.001 -0.8856
5062000000.0 -0.05437 -1.291
5066000000.0 -1.018 -0.7669
5069000000.0 -1.235 0.2557
5072000000.0 -0.5524 1.138
5075000000.0 0.5055 1.173
5078000000.0 1.208 0.3737
5081000000.0 1.025 -0.7264
5084000000.0 0.1438 -1.235
5088000000.0 -0.8502 -0.8741
5091000000.0 -1.189 0.09942
5094000000.0 -0.7155 0.9685
5097000000.0 0.2587 1.137
5100000000.0 1.056 0.4861
5103000000.0 1.047 -0.4808
5106000000.0 0.2984 -1.064
5109000000.0 -0.6393 -0.9325
5112000000.0 -1.072 -0.08727
5116000000.0 -0.7719 0.8084
5119000000.0 0.05492 1.025
5122000000.0 0.8224 0.6164
5125000000.0 1.016 -0.2455
5128000000.0 0.4524 -0.9663
5131000000.0 -0.397 -0.8959
5134000000.0 -0.9922 -0.2381
5138000000.0 -0.7793 0.5873
5141000000.0 -0.06324 0.9918
5144000000.0 0.6904 0.6665
5147000000.0 0.954 -0.1392
5150000000.0 0.4871 -0.7984
5153000000.0 -0.312 -0.8646
5156000000.0 -0.8528 -0.282
5159000000.0 -0.7662 0.4805
5162000000.0 -0.1301 0.9048
5166000000.0 0.5841 0.6555
5169000000.0 0.9042 -0.0555
5172000000.0 0.5158 -0.7589
5175000000.0 -0.2483 -0.8738
5178000000.0 -0.8392 -0.3661
5181000000.0 -0.8024 0.4251
5184000000.0 -0.1751 0.9093
5188000000.0 0.5806 0.7041
5191000000.0 0.9071 -0.03508
5194000000.0 0.5507 -0.7494
5197000000.0 -0.2427 -0.9386
5200000000.0 -0.8637 -0.385
5203000000.0 -0.8463 0.421
5206000000.0 -0.1801 0.9446
5209000000.0 0.6095 0.7194
5212000000.0 0.9748 -0.01084
5216000000.0 0.6073 -0.757
5219000000.0 -0.2333 -0.9688
5222000000.0 -0.9024 -0.4265
5225000000.0 -0.9283 0.3991
5228000000.0 -0.2704 0.9588
5231000000.0 0.6132 0.8397
5234000000.0 1.028 0.06525
5238000000.0 0.7044 -0.7591
5241000000.0 -0.1413 -1.053
5244000000.0 -0.8982 -0.5353
5247000000.0 -1.02 0.3548
5250000000.0 -0.3749 1.003
5253000000.0 0.496 0.9347
5256000000.0 1.045 0.2013
5259000000.0 0.8157 -0.7028
5262000000.0 -0.008333 -1.102
5266000000.0 -0.8077 -0.7043
5269000000.0 -1.084 0.1867
5272000000.0 -0.5493 0.9742
5275000000.0 0.3484 1.011
5278000000.0 1.016 0.3727
5281000000.0 0.96 -0.5235
5284000000.0 0.2248 -1.074
5288000000.0 -0.6845 -0.8999
5291000000.0 -1.088 -0.03129
5294000000.0 -0.7776 0.8196
5297000000.0 0.1316 1.142
5300000000.0 0.9289 0.6239
5303000000.0 1.073 -0.3006
5306000000.0 0.4692 -1.012
5309000000.0 -0.5071 -1.037
5312000000.0 -1.103 -0.2603
5316000000.0 -0.937 0.6765
5319000000.0 -0.09505 1.146
5322000000.0 0.8044 0.8085
5325000000.0 1.167 -0.09648
5328000000.0 0.6325 -0.9414
5331000000.0 -0.3145 -1.101
5334000000.0 -1.04 -0.4595
5338000000.0 -1.024 0.4896
5341000000.0 -0.2277 1.078
5344000000.0 0.6942 0.8802
5347000000.0 1.074 0.05901
5350000000.0 0.7055 -0.8214
5353000000.0 -0.1514 -1.133
5356000000.0 -0.9437 -0.5575
5359000000.0 -1.033 0.3927
5362000000.0 -0.3811 1.041
5366000000.0 0.6013 0.8892
5369000000.0 1.059 0.123
5372000000.0 0.7462 -0.7669
5375000000.0 -0.1067 -1.032
5378000000.0 -0.8634 -0.5458
5381000000.0 -0.9691 0.3549
5384000000.0 -0.3264 0.9409
5388000000.0 0.529 0.8042
5391000000.0 0.9767 0.1007
5394000000.0 0.6312 -0.6918
5397000000.0 -0.1328 -0.9775
5400000000.0 -0.802 -0.4717
5403000000.0 -0.8168 0.3303
5406000000.0 -0.2539 0.8635
5409000000.0 0.5224 0.7012
5412000000.0 0.8859 0.06516
5416000000.0 0.5925 -0.6555
5419000000.0 -0.13 -0.8465
5422000000.0 -0.7728 -0.4427
5425000000.0 -0.8219 0.3148
5428000000.0 -0.2553 0.849
5431000000.0 0.4633 0.7056
5434000000.0 0.8469 0.05046
5438000000.0 0.5822 -0.6759
5441000000.0 -0.1337 -0.868
5444000000.0 -0.7567 -0.4347
5447000000.0 -0.8099 0.2898
5450000000.0 -0.2569 0.8642
5453000000.0 0.4989 0.7263
5456000000.0 0.8512 0.08852
5459000000.0 0.6182 -0.6143
5462000000.0 -0.08682 -0.8936
5466000000.0 -0.748 -0.4826
5469000000.0 -0.885 0.2749
5472000000.0 -0.362 0.8285
5475000000.0 0.3555 0.8357
5478000000.0 0.928 0.2084
5481000000.0 0.7792 -0.5681
5484000000.0 0.0629 -0.9264
5488000000.0 -0.7064 -0.6534
5491000000.0 -0.9974 0.1017
5494000000.0 -0.501 0.8109
5497000000.0 0.285 0.9524
5500000000.0 0.9395 0.3718
5503000000.0 0.8911 -0.478
5506000000.0 0.1846 -0.9966
5509000000.0 -0.6625 -0.8266
5512000000.0 -1.016 -0.0629
5516000000.0 -0.7104 0.7411
5519000000.0 0.1198 1.053
5522000000.0 0.8755 0.5793
5525000000.0 1.014 -0.307
5528000000.0 0.4373 -0.995
5531000000.0 -0.4773 -0.9543
5534000000.0 -1.01 -0.2799
5538000000.0 -0.828 0.6289
5541000000.0 -0.08177 1.099
5544000000.0 0.7756 0.7411
5547000000.0 1.106 -0.1184
5550000000.0 0.6301 -0.873
5553000000.0 -0.3429 -1.043
5556000000.0 -0.9656 -0.431
5559000000.0 -0.9713 0.5011
5562000000.0 -0.2069 1.032
5566000000.0 0.6536 0.8309
5569000000.0 1.045 0.03616
5572000000.0 0.6555 -0.7708
5575000000.0 -0.1737 -0.9815
5578000000.0 -0.877 -0.5304
5581000000.0 -0.939 0.3732
5584000000.0 -0.3292 0.935
5588000000.0 0.5138 0.8383
5591000000.0 0.9576 0.1365
5594000000.0 0.6998 -0.6253
5597000000.0 -0.03138 -0.9567
5600000000.0 -0.7396 -0.5696
5603000000.0 -0.8781 0.2081
5606000000.0 -0.4 0.8226
5609000000.0 0.3712 0.8143
5612000000.0 0.8471 0.22
5616000000.0 0.6939 -0.5275
5619000000.0 0.01241 -0.8668
5622000000.0 -0.6649 -0.5392
5625000000.0 -0.8478 0.1662
5628000000.0 -0.4003 0.7514
5631000000.0 0.3316 0.7613
5634000000.0 0.8106 0.2411
5638000000.0 0.6687 -0.4928
5641000000.0 0.08315 -0.8555
5644000000.0 -0.6116 -0.5884
5647000000.0 -0.8163 0.1297
5650000000.0 -0.4101 0.725
5653000000.0 0.2952 0.7887
5656000000.0 0.814 0.2425
5659000000.0 0.6841 -0.4898
5662000000.0 0.0654 -0.8534
5666000000.0 -0.654 -0.5858
5669000000.0 -0.8538 0.1433
5672000000.0 -0.4581 0.772
5675000000.0 0.3089 0.8345
5678000000.0 0.8667 0.2774
5681000000.0 0.7751 -0.5071
5684000000.0 0.08561 -0.9231
5688000000.0 -0.6852 -0.6672
5691000000.0 -0.9384 0.1371
5694000000.0 -0.5063 0.8347
5697000000.0 0.319 0.9304
5700000000.0 0.9307 0.3491
5703000000.0 0.8563 -0.4988
5706000000.0 0.1293 -0.9957
5709000000.0 -0.6874 -0.7676
5712000000.0 -1.026 0.05652
5716000000.0 -0.615 0.8354
5719000000.0 0.274 1.015
5722000000.0 0.9687 0.4662
5725000000.0 0.9552 -0.4609
5728000000.0 0.287 -1.019
5731000000.0 -0.6291 -0.8666
5734000000.0 -1.042 -0.07589
5738000000.0 -0.7303 0.7603
5741000000.0 0.1037 1.088
5744000000.0 0.9006 0.6122
5747000000.0 1.041 -0.3131
5750000000.0 0.4214 -0.9989
5753000000.0 -0.5185 -0.9452
5756000000.0 -1.101 -0.2689
5759000000.0 -0.8804 0.6366
5762000000.0 -0.02008 1.1
5766000000.0 0.8145 0.7575
5769000000.0 1.097 -0.1277
5772000000.0 0.5989 -0.9335
5775000000.0 -0.3469 -1.047
5778000000.0 -1.03 -0.3898
5781000000.0 -0.9575 0.4949
5784000000.0 -0.2002 1.085
5788000000.0 0.6702 0.8627
5791000000.0 1.073 0.01978
5794000000.0 0.7048 -0.7871
5797000000.0 -0.1941 -1.067
5800000000.0 -0.9308 -0.5367
5803000000.0 -0.9943 0.3369
5806000000.0 -0.3727 1.015
5809000000.0 0.5233 0.9134
5812000000.0 1.06 0.1839
5816000000.0 0.751 -0.6889
5819000000.0 -0.04949 -1.016
5822000000.0 -0.8345 -0.5839
5825000000.0 -0.9682 0.242
5828000000.0 -0.4299 0.9119
5831000000.0 0.4263 0.8995
5834000000.0 0.9253 0.2544
5838000000.0 0.7839 -0.5816
5841000000.0 0.04862 -0.9805
5844000000.0 -0.7427 -0.6429
5847000000.0 -0.9315 0.1394
5850000000.0 -0.4964 0.7796
5853000000.0 0.3643 0.8517
5856000000.0 0.8906 0.2601
5859000000.0 0.7374 -0.5464
5862000000.0 0.06412 -0.9281
5866000000.0 -0.6872 -0.612
5869000000.0 -0.9163 0.1484
5872000000.0 -0.4639 0.7802
5875000000.0 0.3409 0.8334
5878000000.0 0.887 0.2707
5881000000.0 0.7258 -0.4894
5884000000.0 0.08931 -0.8596
5888000000.0 -0.5871 -0.5917
5891000000.0 -0.8838 0.09379
5894000000.0 -0.4643 0.7414
5897000000.0 0.2647 0.7978
5900000000.0 0.8134 0.2822
5903000000.0 0.7578 -0.4306
5906000000.0 0.126 -0.8526
5909000000.0 -0.5642 -0.6343
5912000000.0 -0.8885 0.05073
5916000000.0 -0.5098 0.6746
5919000000.0 0.2005 0.8381
5922000000.0 0.7607 0.3944
5925000000.0 0.7768 -0.3596
5928000000.0 0.2241 -0.8577
5931000000.0 -0.5301 -0.6932
5934000000.0 -0.8743 -0.0693
5938000000.0 -0.6132 0.6286
5941000000.0 0.1115 0.9053
5944000000.0 0.7673 0.496
5947000000.0 0.8449 -0.2557
5950000000.0 0.3558 -0.816
5953000000.0 -0.4178 -0.8001
5956000000.0 -0.8934 -0.2221
5959000000.0 -0.7527 0.56
5962000000.0 -0.03493 0.9302
5966000000.0 0.6978 0.6811
5969000000.0 0.9318 -0.1285
5972000000.0 0.4897 -0.8123
5975000000.0 -0.2935 -0.9356
5978000000.0 -0.8841 -0.3271
5981000000.0 -0.854 0.4568
5984000000.0 -0.2168 0.985
5988000000.0 0.5956 0.7614
5991000000.0 0.9872 0.01124
5994000000.0 0.6704 -0.7545
5997000000.0 -0.1613 -0.9972
6000000000.0 -0.8828 -0.4938
6003000000.0 -0.929 0.3413
6006000000.0 -0.3303 0.9551
6009000000.0 0.5372 0.8337
6012000000.0 0.9881 0.1381
6016000000.0 0.741 -0.6792
6019000000.0 -0.05609 -0.972
6022000000.0 -0.7717 -0.6033
6025000000.0 -0.9725 0.2628
6028000000.0 -0.4291 0.8816
6031000000.0 0.4367 0.8859
6034000000.0 0.9465 0.2124
6038000000.0 0.7624 -0.6031
6041000000.0 0.04958 -0.984
6044000000.0 -0.7075 -0.6193
6047000000.0 -0.9532 0.1655
6050000000.0 -0.4629 0.8268
6053000000.0 0.3753 0.8992
6056000000.0 0.899 0.2632
6059000000.0 0.7663 -0.5072
6062000000.0 0.09173 -0.9193
6066000000.0 -0.6341 -0.6377
6069000000.0 -0.9002 0.131
6072000000.0 -0.4623 0.7529
6075000000.0 0.3047 0.8587
6078000000.0 0.8441 0.3122
6081000000.0 0.7366 -0.4632
6084000000.0 0.1572 -0.8885
6088000000.0 -0.5622 -0.6206
6091000000.0 -0.8256 0.07965
6094000000.0 -0.4862 0.7204
6097000000.0 0.2443 0.8195
6100000000.0 0.8072 0.315
6103000000.0 0.7512 -0.4001
6106000000.0 0.1781 -0.8694
6109000000.0 -0.5432 -0.6443
6112000000.0 -0.8821 0.02403
6116000000.0 -0.5437 0.6595
6119000000.0 0.2036 0.8401
6122000000.0 0.791 0.3764
6125000000.0 0.7969 -0.3574
6128000000.0 0.2104 -0.8686
6131000000.0 -0.5397 -0.6708
6134000000.0 -0.8929 -0.004731
6138000000.0 -0.5917 0.6638
6141000000.0 0.1552 0.8643
6144000000.0 0.7589 0.4283
6147000000.0 0.8139 -0.3465
6150000000.0 0.2426 -0.8475
6153000000.0 -0.4746 -0.7259
6156000000.0 -0.8635 -0.1215
6159000000.0 -0.6395 0.6236
6162000000.0 0.101 0.9169
6166000000.0 0.7758 0.4891
6169000000.0 0.8946 -0.2878
6172000000.0 0.3416 -0.8797
6175000000.0 -0.454 -0.8155
6178000000.0 -0.9181 -0.1751
6181000000.0 -0.7105 0.5858
6184000000.0 0.01891 0.9568
6188000000.0 0.7324 0.5759
6191000000.0 0.9341 -0.1796
6194000000.0 0.4269 -0.84
6197000000.0 -0.3525 -0.8822
6200000000.0 -0.9006 -0.2417
6203000000.0 -0.7563 0.5396
6206000000.0 -0.08187 0.9454
6209000000.0 0.6522 0.643
6212000000.0 0.8855 -0.095
6216000000.0 0.5328 -0.7599
6219000000.0 -0.2386 -0.8857
6222000000.0 -0.8424 -0.3716
6225000000.0 -0.8036 0.4297
6228000000.0 -0.1749 0.9118
6231000000.0 0.5648 0.6779
6234000000.0 0.884 0.02477
6238000000.0 0.5931 -0.6822
6241000000.0 -0.1546 -0.8942
6244000000.0 -0.7271 -0.4238
6247000000.0 -0.812 0.3098
6250000000.0 -0.2664 0.7979
6253000000.0 0.442 0.7582
6256000000.0 0.8208 0.1286
6259000000.0 0.6193 -0.5299
6262000000.0 0.01793 -0.8193
6266000000.0 -0.6255 -0.5206
6269000000.0 -0.782 0.1525
