! Created with skrf 1.8.0 (http://scikit-rf.org).
# Hz S RI R 50.0 
!freq ReS11 ImS11
4000000000.0 -0.3562 -1.459
4003000000.0 -1.312 -0.6426
4006000000.0 -1.373 0.5989
4009000000.0 -0.3849 1.464
4012000000.0 0.9217 1.202
4016000000.0 1.539 0.04163
4019000000.0 0.9915 -1.16
4022000000.0 -0.3031 -1.535
4025000000.0 -1.456 -0.7307
4028000000.0 -1.491 0.6833
4031000000.0 -0.424 1.579
4034000000.0 0.9814 1.282
4038000000.0 1.658 0.009986
4041000000.0 1.074 -1.232
4044000000.0 -0.2987 -1.631
4047000000.0 -1.446 -0.7853
4050000000.0 -1.483 0.6731
4053000000.0 -0.4673 1.545
4056000000.0 0.8846 1.305
4059000000.0 1.63 0.09135
4062000000.0 1.168 -1.115
4066000000.0 -0.1807 -1.579
4069000000.0 -1.323 -0.9116
4072000000.0 -1.536 0.4844
4075000000.0 -0.688 1.51
4078000000.0 0.7557 1.472
4081000000.0 1.621 0.3774
4084000000.0 1.282 -0.9939
4088000000.0 0.08148 -1.663
4091000000.0 -1.245 -1.053
4094000000.0 -1.607 0.2461
4097000000.0 -0.8264 1.41
4100000000.0 0.5438 1.518
4103000000.0 1.484 0.5591
4106000000.0 1.37 -0.7622
4109000000.0 0.2832 -1.508
4112000000.0 -0.9761 -1.174
4116000000.0 -1.469 -0.03738
4119000000.0 -0.9911 1.08
4122000000.0 0.2018 1.462
4125000000.0 1.245 0.8116
4128000000.0 1.397 -0.4099
4131000000.0 0.6419 -1.321
4134000000.0 -0.5838 -1.324
4138000000.0 -1.406 -0.4291
4141000000.0 -1.264 0.7795
4144000000.0 -0.1746 1.496
4147000000.0 1.001 1.112
4150000000.0 1.492 -0.06968
4153000000.0 0.9176 -1.204
4156000000.0 -0.3184 -1.483
4159000000.0 -1.318 -0.6805
4162000000.0 -1.417 0.606
4166000000.0 -0.4674 1.432
4169000000.0 0.7795 1.246
4172000000.0 1.471 0.1722
4175000000.0 1.085 -1.035
4178000000.0 -0.09165 -1.51
4181000000.0 -1.187 -0.8623
4184000000.0 -1.463 0.333
4188000000.0 -0.6613 1.334
4191000000.0 0.6541 1.391
4194000000.0 1.443 0.3868
4197000000.0 1.252 -0.9226
4200000000.0 0.04642 -1.597
4203000000.0 -1.188 -1.062
4206000000.0 -1.592 0.3352
4209000000.0 -0.7064 1.447
4212000000.0 0.6935 1.493
4216000000.0 1.613 0.3343
4219000000.0 1.218 -1.104
4222000000.0 -0.07685 -1.679
4225000000.0 -1.403 -0.9177
4228000000.0 -1.509 0.5838
4231000000.0 -0.4643 1.558
4234000000.0 0.9285 1.326
4238000000.0 1.596 -0.01148
4241000000.0 0.9726 -1.219
4244000000.0 -0.4253 -1.496
4247000000.0 -1.448 -0.6315
4250000000.0 -1.356 0.7083
4253000000.0 -0.2286 1.46
4256000000.0 1.017 1.063
4259000000.0 1.455 -0.1248
4262000000.0 0.7757 -1.275
4266000000.0 -0.4387 -1.352
4269000000.0 -1.336 -0.4457
4272000000.0 -1.199 0.7697
4275000000.0 -0.1285 1.444
4278000000.0 1.05 0.93
4281000000.0 1.366 -0.214
4284000000.0 0.71 -1.224
4288000000.0 -0.5075 -1.291
4291000000.0 -1.27 -0.4565
4294000000.0 -1.118 0.6949
4297000000.0 -0.1368 1.312
4300000000.0 0.9134 0.9323
4303000000.0 1.341 -0.09488
4306000000.0 0.7387 -1.016
4309000000.0 -0.276 -1.216
4312000000.0 -1.152 -0.588
4316000000.0 -1.185 0.526
4319000000.0 -0.4081 1.22
4322000000.0 0.7087 1.114
4325000000.0 1.309 0.1706
4328000000.0 1.026 -0.8882
4331000000.0 -0.07611 -1.348
4334000000.0 -1.093 -0.7897
4338000000.0 -1.378 0.3023
4341000000.0 -0.6177 1.261
4344000000.0 0.6121 1.311
4347000000.0 1.375 0.3715
4350000000.0 1.216 -0.8289
4353000000.0 0.1261 -1.467
4356000000.0 -1.083 -1.014
4359000000.0 -1.45 0.1857
4362000000.0 -0.791 1.209
4366000000.0 0.4388 1.444
4369000000.0 1.406 0.5529
4372000000.0 1.336 -0.7484
4375000000.0 0.2578 -1.48
4378000000.0 -0.9572 -1.17
4381000000.0 -1.512 0.04353
4384000000.0 -0.954 1.25
4388000000.0 0.3815 1.543
4391000000.0 1.403 0.6499
4394000000.0 1.403 -0.7047
4397000000.0 0.2739 -1.513
4400000000.0 -1.027 -1.182
4403000000.0 -1.535 0.09177
4406000000.0 -0.9339 1.327
4409000000.0 0.4799 1.466
4412000000.0 1.42 0.5386
4416000000.0 1.268 -0.8268
4419000000.0 0.1126 -1.464
4422000000.0 -1.086 -0.9981
4425000000.0 -1.398 0.2557
4428000000.0 -0.6647 1.229
4431000000.0 0.5836 1.245
4434000000.0 1.278 0.3242
4438000000.0 1.05 -0.8361
4441000000.0 -0.04577 -1.313
4444000000.0 -1.037 -0.7857
4447000000.0 -1.243 0.3171
4450000000.0 -0.4529 1.162
4453000000.0 0.6158 1.083
4456000000.0 1.217 0.1853
4459000000.0 0.8818 -0.826
4462000000.0 -0.1151 -1.209
4466000000.0 -1.013 -0.6281
4469000000.0 -1.138 0.4384
4472000000.0 -0.3566 1.137
4475000000.0 0.6675 0.9612
4478000000.0 1.169 0.05083
4481000000.0 0.7724 -0.8693
4484000000.0 -0.1992 -1.126
4488000000.0 -0.9671 -0.5481
4491000000.0 -1.053 0.4556
4494000000.0 -0.3524 1.107
4497000000.0 0.6591 0.968
4500000000.0 1.176 0.09312
4503000000.0 0.8154 -0.7988
4506000000.0 -0.1276 -1.097
4509000000.0 -0.9673 -0.657
4512000000.0 -1.098 0.3632
4516000000.0 -0.4346 1.104
4519000000.0 0.5534 0.996
4522000000.0 1.153 0.2193
4525000000.0 0.926 -0.7704
4528000000.0 -0.01543 -1.199
4531000000.0 -0.9382 -0.7644
4534000000.0 -1.215 0.2382
4538000000.0 -0.585 1.106
4541000000.0 0.4933 1.161
4544000000.0 1.191 0.35
4547000000.0 1.045 -0.69
4550000000.0 0.1666 -1.275
4553000000.0 -0.8672 -0.9142
4556000000.0 -1.281 0.08934
4559000000.0 -0.7835 1.029
4562000000.0 0.3072 1.276
4566000000.0 1.176 0.6145
4569000000.0 1.212 -0.5229
4572000000.0 0.3833 -1.268
4575000000.0 -0.7461 -1.117
4578000000.0 -1.324 -0.1448
4581000000.0 -0.9816 0.9666
4584000000.0 0.1229 1.379
4588000000.0 1.161 0.7806
4591000000.0 1.345 -0.3848
4594000000.0 0.5556 -1.299
4597000000.0 -0.6548 -1.289
4600000000.0 -1.378 -0.2875
4603000000.0 -1.106 0.8678
4606000000.0 0.002677 1.414
4609000000.0 1.079 0.8855
4612000000.0 1.401 -0.2821
4616000000.0 0.6487 -1.245
4619000000.0 -0.5619 -1.269
4622000000.0 -1.328 -0.3603
4625000000.0 -1.074 0.795
4628000000.0 -0.06098 1.367
4631000000.0 1.022 0.8763
4634000000.0 1.311 -0.2566
4638000000.0 0.6185 -1.17
4641000000.0 -0.5074 -1.216
4644000000.0 -1.242 -0.3355
4647000000.0 -1.038 0.7724
4650000000.0 -0.04177 1.271
4653000000.0 0.9639 0.817
4656000000.0 1.187 -0.2637
4659000000.0 0.5546 -1.087
4662000000.0 -0.5085 -1.072
4666000000.0 -1.165 -0.2601
4669000000.0 -0.9079 0.7196
4672000000.0 -0.01581 1.147
4675000000.0 0.8469 0.679
4678000000.0 1.073 -0.248
4681000000.0 0.4825 -0.9914
4684000000.0 -0.4588 -0.9814
4688000000.0 -1.067 -0.2588
4691000000.0 -0.8666 0.6571
4694000000.0 -0.02449 1.089
4697000000.0 0.8089 0.7054
4700000000.0 1.057 -0.213
4703000000.0 0.4831 -0.9945
4706000000.0 -0.4705 -0.9887
4709000000.0 -1.035 -0.2363
4712000000.0 -0.8704 0.6637
4716000000.0 -0.01889 1.078
4719000000.0 0.8134 0.695
4722000000.0 1.045 -0.2423
4725000000.0 0.49 -0.9613
4728000000.0 -0.4005 -0.9961
4731000000.0 -1.038 -0.3347
4734000000.0 -0.9173 0.5886
4738000000.0 -0.1378 1.105
4741000000.0 0.7652 0.8037
4744000000.0 1.121 -0.05621
4747000000.0 0.6544 -0.8819
4750000000.0 -0.2561 -1.097
4753000000.0 -1.042 -0.5064
4756000000.0 -1.08 0.4622
4759000000.0 -0.319 1.1
4762000000.0 0.6719 0.9989
4766000000.0 1.215 0.1397
4769000000.0 0.8735 -0.8371
4772000000.0 -0.07754 -1.233
4775000000.0 -0.995 -0.7261
4778000000.0 -1.195 0.3062
4781000000.0 -0.5511 1.124
4784000000.0 0.5514 1.162
4788000000.0 1.258 0.3258
4791000000.0 1.062 -0.7016
4794000000.0 0.1622 -1.276
4797000000.0 -0.8645 -0.9346
4800000000.0 -1.316 0.08134
4803000000.0 -0.7799 1.059
4806000000.0 0.3159 1.267
4809000000.0 1.198 0.5903
4812000000.0 1.236 -0.5448
4816000000.0 0.3676 -1.322
4819000000.0 -0.7628 -1.143
4822000000.0 -1.389 -0.1221
4825000000.0 -0.9485 1.005
4828000000.0 0.1713 1.385
4831000000.0 1.173 0.7532
4834000000.0 1.343 -0.4224
4838000000.0 0.5169 -1.316
4841000000.0 -0.672 -1.214
4844000000.0 -1.365 -0.2166
4847000000.0 -1.005 0.9218
4850000000.0 0.08636 1.353
4853000000.0 1.074 0.7484
4856000000.0 1.251 -0.3788
4859000000.0 0.5028 -1.166
4862000000.0 -0.5715 -1.15
4866000000.0 -1.237 -0.2385
4869000000.0 -0.9578 0.8119
4872000000.0 -0.002469 1.228
4875000000.0 0.9189 0.7558
4878000000.0 1.17 -0.2395
4881000000.0 0.5586 -1.052
4884000000.0 -0.4709 -1.037
4888000000.0 -1.076 -0.2729
4891000000.0 -0.8659 0.6827
4894000000.0 -0.03452 1.078
4897000000.0 0.815 0.6652
4900000000.0 1.025 -0.1977
4903000000.0 0.4867 -0.8958
4906000000.0 -0.4048 -0.9505
4909000000.0 -0.9568 -0.2961
4912000000.0 -0.8062 0.5462
4916000000.0 -0.08425 0.9396
4919000000.0 0.692 0.6625
4922000000.0 0.9464 -0.1033
4925000000.0 0.5007 -0.8088
4928000000.0 -0.3078 -0.9043
4931000000.0 -0.8746 -0.3169
4934000000.0 -0.7819 0.4647
4938000000.0 -0.1558 0.9289
4941000000.0 0.6273 0.7279
4944000000.0 0.9527 -0.01899
4947000000.0 0.5844 -0.7678
4950000000.0 -0.2313 -0.9447
4953000000.0 -0.8746 -0.4244
4956000000.0 -0.8998 0.4339
4959000000.0 -0.2424 0.9776
4962000000.0 0.5896 0.8172
4966000000.0 1.038 0.04157
4969000000.0 0.7263 -0.7789
4972000000.0 -0.1802 -1.048
4975000000.0 -0.9205 -0.56
4978000000.0 -1.027 0.3658
4981000000.0 -0.3987 1.059
4984000000.0 0.5677 0.9715
4988000000.0 1.132 0.1957
4991000000.0 0.8585 -0.7736
4994000000.0 -0.01651 -1.156
4997000000.0 -0.927 -0.7315
5000000000.0 -1.192 0.2802
5003000000.0 -0.5788 1.094
5006000000.0 0.4737 1.158
5009000000.0 1.184 0.3328
5012000000.0 1.075 -0.7019
5016000000.0 0.1171 -1.27
5019000000.0 -0.9119 -0.9358
5022000000.0 -1.315 0.1523
5025000000.0 -0.748 1.102
5028000000.0 0.4019 1.256
5031000000.0 1.195 0.498
5034000000.0 1.133 -0.6299
5038000000.0 0.2485 -1.272
5041000000.0 -0.8421 -1.028
5044000000.0 -1.286 -0.0318
5047000000.0 -0.812 0.9687
5050000000.0 0.2125 1.235
5053000000.0 1.117 0.6441
5056000000.0 1.191 -0.411
5059000000.0 0.4543 -1.183
5062000000.0 -0.5672 -1.082
5066000000.0 -1.237 -0.1907
5069000000.0 -0.9371 0.8173
5072000000.0 0.02761 1.207
5075000000.0 0.9304 0.7541
5078000000.0 1.191 -0.2738
5081000000.0 0.5416 -1.083
5084000000.0 -0.4621 -1.052
5088000000.0 -1.104 -0.3263
5091000000.0 -0.9764 0.6655
5094000000.0 -0.09961 1.1
5097000000.0 0.7484 0.7569
5100000000.0 1.029 -0.05985
5103000000.0 0.5604 -0.8483
5106000000.0 -0.2844 -0.9752
5109000000.0 -0.9331 -0.3878
5112000000.0 -0.874 0.4748
5116000000.0 -0.2045 0.9374
5119000000.0 0.6088 0.7611
5122000000.0 0.9483 0.004759
5125000000.0 0.6003 -0.7556
5128000000.0 -0.1801 -0.909
5131000000.0 -0.8204 -0.423
5134000000.0 -0.7934 0.3581
5138000000.0 -0.1796 0.8881
5141000000.0 0.5385 0.72
5144000000.0 0.9021 0.0264
5147000000.0 0.5325 -0.6948
5150000000.0 -0.1663 -0.8578
5153000000.0 -0.7799 -0.4076
5156000000.0 -0.8098 0.3666
5159000000.0 -0.2123 0.8628
5162000000.0 0.5568 0.7095
5166000000.0 0.9071 0.003887
5169000000.0 0.5653 -0.6842
5172000000.0 -0.1924 -0.8721
5175000000.0 -0.854 -0.4234
5178000000.0 -0.8461 0.3846
5181000000.0 -0.2158 0.9064
5184000000.0 0.5904 0.7239
5188000000.0 0.9387 -0.02237
5191000000.0 0.62 -0.755
5194000000.0 -0.2151 -0.9464
5197000000.0 -0.8841 -0.4314
5200000000.0 -0.89 0.4366
5203000000.0 -0.2244 0.9492
5206000000.0 0.5992 0.8058
5209000000.0 0.9873 0.02655
5212000000.0 0.6714 -0.7629
5216000000.0 -0.1956 -0.9934
5219000000.0 -0.8956 -0.5144
5222000000.0 -0.9697 0.3826
5225000000.0 -0.338 0.9695
5228000000.0 0.5739 0.8837
5231000000.0 1.044 0.1535
5234000000.0 0.7852 -0.7463
5238000000.0 -0.04162 -1.096
5241000000.0 -0.8736 -0.6455
5244000000.0 -1.056 0.2729
5247000000.0 -0.4652 0.9812
5250000000.0 0.4735 1.019
5253000000.0 1.065 0.2821
5256000000.0 0.8976 -0.6476
5259000000.0 0.1007 -1.116
5262000000.0 -0.8163 -0.7856
5266000000.0 -1.092 0.1226
5269000000.0 -0.604 0.9321
5272000000.0 0.305 1.055
5275000000.0 1.036 0.4453
5278000000.0 0.9784 -0.4968
5281000000.0 0.2253 -1.054
5284000000.0 -0.6518 -0.8436
5288000000.0 -1.106 -0.05129
5291000000.0 -0.7103 0.8312
5294000000.0 0.1823 1.097
5297000000.0 0.9512 0.5545
5300000000.0 1.008 -0.3867
5303000000.0 0.3289 -1.039
5306000000.0 -0.5703 -0.8962
5309000000.0 -1.1 -0.08992
5312000000.0 -0.7665 0.7635
5316000000.0 0.1513 1.065
5319000000.0 0.9182 0.5495
5322000000.0 0.977 -0.3719
5325000000.0 0.2993 -1.01
5328000000.0 -0.6015 -0.8479
5331000000.0 -1.057 -0.03353
5334000000.0 -0.6312 0.7963
5338000000.0 0.2174 0.973
5341000000.0 0.8783 0.4229
5344000000.0 0.8311 -0.466
5347000000.0 0.1327 -0.9215
5350000000.0 -0.6224 -0.6719
5353000000.0 -0.9194 0.1047
5356000000.0 -0.4742 0.7653
5359000000.0 0.3231 0.8511
5362000000.0 0.8823 0.256
5366000000.0 0.6883 -0.5494
5369000000.0 0.005672 -0.8976
5372000000.0 -0.7203 -0.5342
5375000000.0 -0.8463 0.2471
5378000000.0 -0.3359 0.7951
5381000000.0 0.4449 0.7827
5384000000.0 0.8848 0.09591
5388000000.0 0.6076 -0.6437
5391000000.0 -0.1209 -0.8568
5394000000.0 -0.759 -0.4346
5397000000.0 -0.8427 0.3113
5400000000.0 -0.2643 0.8448
5403000000.0 0.5028 0.7427
5406000000.0 0.9219 0.07634
5409000000.0 0.637 -0.6366
5412000000.0 -0.1178 -0.9359
5416000000.0 -0.8061 -0.4865
5419000000.0 -0.8775 0.3078
5422000000.0 -0.3307 0.8878
5425000000.0 0.5402 0.8299
5428000000.0 0.9904 0.1229
5431000000.0 0.7478 -0.6729
5434000000.0 -0.05664 -1.019
5438000000.0 -0.8533 -0.6049
5441000000.0 -1.005 0.298
5444000000.0 -0.4143 0.9732
5447000000.0 0.5337 0.9747
5450000000.0 1.081 0.1729
5453000000.0 0.8229 -0.6966
5456000000.0 -0.006301 -1.103
5459000000.0 -0.9027 -0.695
5462000000.0 -1.115 0.2789
5466000000.0 -0.5024 1.016
5469000000.0 0.4846 1.022
5472000000.0 1.087 0.2511
5475000000.0 0.91 -0.6967
5478000000.0 0.01078 -1.161
5481000000.0 -0.8928 -0.6713
5484000000.0 -1.081 0.2657
5488000000.0 -0.5032 1.026
5491000000.0 0.524 1.01
5494000000.0 1.086 0.2242
5497000000.0 0.8201 -0.7002
5500000000.0 -0.04544 -1.091
5503000000.0 -0.904 -0.6006
5506000000.0 -0.9932 0.3191
5509000000.0 -0.332 0.9827
5512000000.0 0.5705 0.8287
5516000000.0 0.962 0.07472
5519000000.0 0.6521 -0.7446
5522000000.0 -0.1741 -0.9444
5525000000.0 -0.8047 -0.4256
5528000000.0 -0.8217 0.445
5531000000.0 -0.1801 0.8703
5534000000.0 0.5705 0.6457
5538000000.0 0.8635 -0.07094
5541000000.0 0.4354 -0.7373
5544000000.0 -0.3269 -0.7838
5547000000.0 -0.7887 -0.1728
5550000000.0 -0.6297 0.486
5553000000.0 0.02551 0.8339
5556000000.0 0.6518 0.4755
5559000000.0 0.7629 -0.2408
5562000000.0 0.301 -0.7538
5566000000.0 -0.4302 -0.6696
5569000000.0 -0.8127 -0.06502
5572000000.0 -0.5546 0.6163
5575000000.0 0.1465 0.8069
5578000000.0 0.7237 0.3827
5581000000.0 0.7822 -0.3268
5584000000.0 0.1749 -0.8373
5588000000.0 -0.5646 -0.7119
5591000000.0 -0.8719 -0.007874
5594000000.0 -0.5456 0.6989
5597000000.0 0.2311 0.883
5600000000.0 0.8354 0.3707
5603000000.0 0.8652 -0.4223
5606000000.0 0.2148 -0.9174
5609000000.0 -0.6135 -0.7423
5612000000.0 -0.9667 0.01927
5616000000.0 -0.5873 0.7742
5619000000.0 0.2223 0.9761
5622000000.0 0.9233 0.4402
5625000000.0 0.9393 -0.4588
5628000000.0 0.2327 -0.994
5631000000.0 -0.6502 -0.8175
5634000000.0 -1.085 0.0005857
5638000000.0 -0.6668 0.825
5641000000.0 0.2515 1.056
5644000000.0 0.9739 0.4772
5647000000.0 0.9925 -0.4879
5650000000.0 0.2471 -1.058
5653000000.0 -0.6858 -0.8373
5656000000.0 -1.104 0.007306
5659000000.0 -0.6903 0.8478
5662000000.0 0.2391 1.064
5666000000.0 0.9482 0.4636
5669000000.0 0.957 -0.4948
5672000000.0 0.204 -1.051
5675000000.0 -0.6992 -0.7748
5678000000.0 -1.084 0.0712
5681000000.0 -0.6261 0.8489
5684000000.0 0.3109 1.004
5688000000.0 1.004 0.3926
5691000000.0 0.858 -0.5676
5694000000.0 0.07873 -1.042
5697000000.0 -0.7709 -0.6729
5700000000.0 -0.9776 0.1384
5703000000.0 -0.4685 0.8583
5706000000.0 0.4359 0.871
5709000000.0 0.9441 0.1922
5712000000.0 0.7085 -0.6209
5716000000.0 -0.06723 -0.9372
5719000000.0 -0.774 -0.5041
5722000000.0 -0.8435 0.3375
5725000000.0 -0.2809 0.8976
5728000000.0 0.5196 0.7379
5731000000.0 0.9478 0.02341
5734000000.0 0.5617 -0.7001
5738000000.0 -0.201 -0.8868
5741000000.0 -0.8201 -0.3769
5744000000.0 -0.7947 0.4795
5747000000.0 -0.1191 0.9266
5750000000.0 0.6404 0.6513
5753000000.0 0.9407 -0.1079
5756000000.0 0.4932 -0.8198
5759000000.0 -0.3229 -0.857
5762000000.0 -0.9187 -0.2768
5766000000.0 -0.7545 0.5273
5769000000.0 -0.02839 0.9423
5772000000.0 0.7219 0.6527
5775000000.0 0.9784 -0.1547
5778000000.0 0.4625 -0.8747
5781000000.0 -0.4059 -0.8701
5784000000.0 -0.9396 -0.2726
5788000000.0 -0.8167 0.6067
5791000000.0 -0.06512 1.009
5794000000.0 0.7619 0.674
5797000000.0 1.004 -0.1606
5800000000.0 0.4951 -0.8928
5803000000.0 -0.3357 -0.9423
5806000000.0 -0.9795 -0.3099
5809000000.0 -0.8788 0.5727
5812000000.0 -0.1199 1.027
5816000000.0 0.7101 0.7883
5819000000.0 1.03 -0.09438
5822000000.0 0.6021 -0.8753
5825000000.0 -0.287 -1.016
5828000000.0 -0.9565 -0.4218
5831000000.0 -0.931 0.5111
5834000000.0 -0.2283 1.055
5838000000.0 0.6287 0.8506
5841000000.0 1.058 0.0007072
5844000000.0 0.6836 -0.8313
5847000000.0 -0.2087 -1.03
5850000000.0 -0.9235 -0.4793
5853000000.0 -0.9835 0.3893
5856000000.0 -0.3076 1.019
5859000000.0 0.6115 0.88
5862000000.0 1.048 0.05758
5866000000.0 0.734 -0.7552
5869000000.0 -0.1622 -1.038
5872000000.0 -0.8881 -0.5103
5875000000.0 -0.9686 0.3612
5878000000.0 -0.2967 0.9503
5881000000.0 0.5444 0.8223
5884000000.0 0.9989 0.06621
5888000000.0 0.6915 -0.7147
5891000000.0 -0.1514 -0.9359
5894000000.0 -0.8424 -0.4556
5897000000.0 -0.8665 0.3645
5900000000.0 -0.2766 0.8974
5903000000.0 0.5297 0.7547
5906000000.0 0.8806 0.06559
5909000000.0 0.6057 -0.6616
5912000000.0 -0.1619 -0.8922
5916000000.0 -0.774 -0.4277
5919000000.0 -0.8397 0.3376
5922000000.0 -0.2158 0.8451
5925000000.0 0.5243 0.6873
5928000000.0 0.8541 0.05606
5931000000.0 0.5421 -0.6326
5934000000.0 -0.1599 -0.8123
5938000000.0 -0.7498 -0.4173
5941000000.0 -0.7911 0.3546
5944000000.0 -0.221 0.8196
5947000000.0 0.4787 0.6801
5950000000.0 0.8409 0.05969
5953000000.0 0.5387 -0.59
5956000000.0 -0.1378 -0.8364
5959000000.0 -0.7112 -0.4186
5962000000.0 -0.7898 0.3035
5966000000.0 -0.284 0.8039
5969000000.0 0.4379 0.7485
5972000000.0 0.8457 0.09892
5975000000.0 0.6454 -0.5772
5978000000.0 -0.06707 -0.8785
5981000000.0 -0.7021 -0.5223
5984000000.0 -0.8641 0.2312
5988000000.0 -0.3865 0.8106
5991000000.0 0.4021 0.8068
5994000000.0 0.9041 0.2101
5997000000.0 0.7277 -0.5532
6000000000.0 0.01746 -0.9174
6003000000.0 -0.686 -0.6189
6006000000.0 -0.9147 0.1123
6009000000.0 -0.4787 0.7768
6012000000.0 0.3064 0.8754
6016000000.0 0.9006 0.3042
6019000000.0 0.8114 -0.4867
6022000000.0 0.1577 -0.9501
6025000000.0 -0.6298 -0.7307
6028000000.0 -0.9895 0.02077
6031000000.0 -0.5864 0.7428
6034000000.0 0.2425 0.9435
6038000000.0 0.9148 0.4279
6041000000.0 0.9148 -0.3922
6044000000.0 0.2323 -0.9491
6047000000.0 -0.5907 -0.8103
6050000000.0 -1.004 -0.0859
6053000000.0 -0.6612 0.752
6056000000.0 0.1488 1.007
6059000000.0 0.8623 0.5259
6062000000.0 0.9249 -0.3574
6066000000.0 0.3133 -0.9562
6069000000.0 -0.5496 -0.8149
6072000000.0 -0.9907 -0.07969
6075000000.0 -0.691 0.6812
6078000000.0 0.08924 0.9623
6081000000.0 0.8152 0.5119
6084000000.0 0.9087 -0.2989
6088000000.0 0.3369 -0.8859
6091000000.0 -0.4876 -0.8302
6094000000.0 -0.9572 -0.0842
6097000000.0 -0.6638 0.6366
6100000000.0 0.06123 0.9213
6103000000.0 0.7378 0.5021
6106000000.0 0.8982 -0.2555
6109000000.0 0.321 -0.8375
6112000000.0 -0.4634 -0.7784
6116000000.0 -0.8673 -0.1326
6119000000.0 -0.6687 0.5891
6122000000.0 0.1037 0.8848
6125000000.0 0.7316 0.4687
6128000000.0 0.7996 -0.2976
6131000000.0 0.3104 -0.7878
6134000000.0 -0.3922 -0.737
6138000000.0 -0.833 -0.1097
6141000000.0 -0.6291 0.5445
6144000000.0 0.05369 0.8224
6147000000.0 0.6907 0.5028
6150000000.0 0.7926 -0.2425
6153000000.0 0.3288 -0.7548
6156000000.0 -0.4184 -0.7276
6159000000.0 -0.829 -0.1921
6162000000.0 -0.6319 0.5593
6166000000.0 0.01076 0.8279
6169000000.0 0.6578 0.5156
6172000000.0 0.8203 -0.2264
6175000000.0 0.382 -0.7833
6178000000.0 -0.3691 -0.7828
6181000000.0 -0.8563 -0.1831
6184000000.0 -0.6882 0.5231
6188000000.0 0.02113 0.8717
6191000000.0 0.6789 0.5537
6194000000.0 0.8798 -0.1626
6197000000.0 0.3904 -0.7971
6200000000.0 -0.3448 -0.7726
6203000000.0 -0.8559 -0.2466
6206000000.0 -0.75 0.5035
6209000000.0 -0.07261 0.8743
6212000000.0 0.6514 0.6407
6216000000.0 0.8882 -0.1097
6219000000.0 0.462 -0.7756
6222000000.0 -0.3272 -0.8791
6225000000.0 -0.8205 -0.3018
6228000000.0 -0.7837 0.4501
6231000000.0 -0.1338 0.8737
6234000000.0 0.6374 0.6666
6238000000.0 0.8621 -0.01403
6241000000.0 0.5048 -0.6905
6244000000.0 -0.203 -0.8441
6247000000.0 -0.7668 -0.3696
6250000000.0 -0.7607 0.3593
6253000000.0 -0.2364 0.8187
6256000000.0 0.4683 0.6989
6259000000.0 0.8158 0.07793
6262000000.0 0.5744 -0.5495
