! Created with skrf 1.8.0 (http://scikit-rf.org).
# Hz S RI R 50.0 
!freq ReS11 ImS11
4000000000.0 -0.1524 -1.501
4003000000.0 -1.256 -0.8268
4006000000.0 -1.475 0.5126
4009000000.0 -0.5585 1.419
4012000000.0 0.7972 1.281
4016000000.0 1.501 0.2548
4019000000.0 1.16 -1.051
4022000000.0 -0.06863 -1.566
4025000000.0 -1.323 -0.9009
4028000000.0 -1.556 0.4464
4031000000.0 -0.6044 1.523
4034000000.0 0.8209 1.375
4038000000.0 1.642 0.2539
4041000000.0 1.168 -1.1
4044000000.0 -0.1342 -1.659
4047000000.0 -1.332 -0.9317
4050000000.0 -1.566 0.4185
4053000000.0 -0.6096 1.492
4056000000.0 0.7573 1.461
4059000000.0 1.59 0.2976
4062000000.0 1.269 -1.061
4066000000.0 -0.03076 -1.606
4069000000.0 -1.247 -1.082
4072000000.0 -1.607 0.2531
4075000000.0 -0.8509 1.404
4078000000.0 0.5561 1.578
4081000000.0 1.58 0.5478
4084000000.0 1.418 -0.8577
4088000000.0 0.2391 -1.633
4091000000.0 -1.088 -1.243
4094000000.0 -1.651 0.04046
4097000000.0 -1.04 1.312
4100000000.0 0.3807 1.617
4103000000.0 1.427 0.6995
4106000000.0 1.464 -0.6324
4109000000.0 0.3886 -1.526
4112000000.0 -0.8622 -1.279
4116000000.0 -1.49 -0.2163
4119000000.0 -1.135 1.007
4122000000.0 0.02318 1.492
4125000000.0 1.14 0.9367
4128000000.0 1.477 -0.24
4131000000.0 0.7846 -1.27
4134000000.0 -0.4286 -1.411
4138000000.0 -1.387 -0.5955
4141000000.0 -1.358 0.6268
4144000000.0 -0.3865 1.462
4147000000.0 0.8658 1.245
4150000000.0 1.513 0.1609
4153000000.0 1.114 -1.08
4156000000.0 -0.1027 -1.542
4159000000.0 -1.257 -0.9043
4162000000.0 -1.476 0.3918
4166000000.0 -0.6385 1.37
4169000000.0 0.627 1.398
4172000000.0 1.508 0.4337
4175000000.0 1.259 -0.8415
4178000000.0 0.1827 -1.504
4181000000.0 -1.059 -1.101
4184000000.0 -1.531 0.1144
4188000000.0 -0.8893 1.227
4191000000.0 0.376 1.504
4194000000.0 1.4 0.6637
4197000000.0 1.431 -0.6606
4200000000.0 0.417 -1.521
4203000000.0 -0.9445 -1.289
4206000000.0 -1.619 -0.05505
4209000000.0 -1.074 1.278
4212000000.0 0.334 1.659
4216000000.0 1.53 0.7395
4219000000.0 1.524 -0.7148
4222000000.0 0.3414 -1.693
4225000000.0 -1.101 -1.321
4228000000.0 -1.689 0.09918
4231000000.0 -0.9448 1.45
4234000000.0 0.5478 1.565
4238000000.0 1.534 0.5211
4241000000.0 1.366 -0.9188
4244000000.0 0.08256 -1.639
4247000000.0 -1.22 -1.034
4250000000.0 -1.571 0.317
4253000000.0 -0.7055 1.41
4256000000.0 0.6671 1.469
4259000000.0 1.5 0.3096
4262000000.0 1.179 -0.98
4266000000.0 -0.07083 -1.526
4269000000.0 -1.228 -0.8791
4272000000.0 -1.443 0.4597
4275000000.0 -0.548 1.392
4278000000.0 0.7567 1.238
4281000000.0 1.38 0.2029
4284000000.0 1.0 -0.9928
4288000000.0 -0.1321 -1.413
4291000000.0 -1.171 -0.7977
4294000000.0 -1.292 0.4179
4297000000.0 -0.5085 1.239
4300000000.0 0.6252 1.167
4303000000.0 1.287 0.2527
4306000000.0 1.001 -0.8404
4309000000.0 -0.0111 -1.304
4312000000.0 -0.9915 -0.8482
4316000000.0 -1.267 0.177
4319000000.0 -0.6917 1.113
4322000000.0 0.3688 1.267
4325000000.0 1.223 0.4854
4328000000.0 1.174 -0.6418
4331000000.0 0.2991 -1.329
4334000000.0 -0.8369 -1.056
4338000000.0 -1.387 -0.05736
4341000000.0 -0.9099 1.055
4344000000.0 0.1787 1.415
4347000000.0 1.213 0.7302
4350000000.0 1.37 -0.4351
4353000000.0 0.4938 -1.356
4356000000.0 -0.7158 -1.277
4359000000.0 -1.418 -0.2795
4362000000.0 -1.133 0.9516
4366000000.0 0.02742 1.477
4369000000.0 1.131 0.9337
4372000000.0 1.45 -0.2974
4375000000.0 0.7133 -1.332
4378000000.0 -0.5245 -1.388
4381000000.0 -1.444 -0.4607
4384000000.0 -1.299 0.8231
4388000000.0 -0.192 1.545
4391000000.0 1.097 1.117
4394000000.0 1.562 -0.1331
4397000000.0 0.8696 -1.329
4400000000.0 -0.5264 -1.523
4403000000.0 -1.484 -0.5836
4406000000.0 -1.358 0.8494
4409000000.0 -0.2078 1.594
4412000000.0 1.137 1.143
4416000000.0 1.574 -0.1859
4419000000.0 0.8336 -1.333
4422000000.0 -0.5318 -1.422
4425000000.0 -1.44 -0.4599
4428000000.0 -1.227 0.833
4431000000.0 -0.09089 1.477
4434000000.0 1.074 1.002
4438000000.0 1.395 -0.2217
4441000000.0 0.6653 -1.232
4444000000.0 -0.5509 -1.266
4447000000.0 -1.328 -0.3406
4450000000.0 -1.076 0.8246
4453000000.0 0.01625 1.315
4456000000.0 1.043 0.7918
4459000000.0 1.252 -0.3213
4462000000.0 0.5056 -1.184
4466000000.0 -0.6074 -1.09
4469000000.0 -1.237 -0.175
4472000000.0 -0.9095 0.8287
4475000000.0 0.1439 1.215
4478000000.0 1.04 0.6212
4481000000.0 1.113 -0.4203
4484000000.0 0.3648 -1.097
4488000000.0 -0.6402 -0.9655
4491000000.0 -1.143 -0.1057
4494000000.0 -0.7806 0.849
4497000000.0 0.1598 1.155
4500000000.0 0.9335 0.598
4503000000.0 1.008 -0.4085
4506000000.0 0.3511 -1.08
4509000000.0 -0.5878 -0.93
4512000000.0 -1.12 -0.1206
4516000000.0 -0.7843 0.7903
4519000000.0 0.09754 1.112
4522000000.0 0.9744 0.6032
4525000000.0 1.085 -0.3362
4528000000.0 0.4415 -1.073
4531000000.0 -0.5663 -1.023
4534000000.0 -1.152 -0.2031
4538000000.0 -0.8954 0.7859
4541000000.0 0.03204 1.194
4544000000.0 0.9302 0.7159
4547000000.0 1.175 -0.2491
4550000000.0 0.5971 -1.044
4553000000.0 -0.4495 -1.118
4556000000.0 -1.171 -0.3775
4559000000.0 -1.05 0.6472
4562000000.0 -0.1706 1.252
4566000000.0 0.8256 0.9373
4569000000.0 1.271 -0.03094
4572000000.0 0.8015 -1.017
4575000000.0 -0.2659 -1.264
4578000000.0 -1.166 -0.5983
4581000000.0 -1.235 0.4915
4584000000.0 -0.4064 1.291
4588000000.0 0.7466 1.174
4591000000.0 1.366 0.1496
4594000000.0 0.9936 -0.9666
4597000000.0 -0.1042 -1.39
4600000000.0 -1.137 -0.8065
4603000000.0 -1.331 0.3808
4606000000.0 -0.5821 1.273
4609000000.0 0.6225 1.25
4612000000.0 1.36 0.2996
4616000000.0 1.117 -0.8905
4619000000.0 0.05048 -1.416
4622000000.0 -1.049 -0.9112
4625000000.0 -1.38 0.2342
4628000000.0 -0.6701 1.229
4631000000.0 0.5188 1.291
4634000000.0 1.338 0.419
4638000000.0 1.148 -0.7637
4641000000.0 0.1185 -1.359
4644000000.0 -0.9944 -0.9165
4647000000.0 -1.337 0.1796
4650000000.0 -0.6667 1.178
4653000000.0 0.4806 1.236
4656000000.0 1.257 0.3858
4659000000.0 1.055 -0.6877
4662000000.0 0.1096 -1.265
4666000000.0 -0.9055 -0.8335
4669000000.0 -1.193 0.1987
4672000000.0 -0.578 1.065
4675000000.0 0.458 1.096
4678000000.0 1.156 0.3367
4681000000.0 0.9498 -0.7005
4684000000.0 0.05997 -1.143
4688000000.0 -0.8576 -0.7636
4691000000.0 -1.092 0.197
4694000000.0 -0.554 0.9865
4697000000.0 0.4345 1.012
4700000000.0 1.075 0.3049
4703000000.0 0.9059 -0.6458
4706000000.0 0.05377 -1.085
4709000000.0 -0.8712 -0.7046
4712000000.0 -1.088 0.191
4716000000.0 -0.5223 0.9514
4719000000.0 0.4423 0.9725
4722000000.0 1.038 0.2588
4725000000.0 0.8072 -0.6424
4728000000.0 -0.005038 -1.062
4731000000.0 -0.7678 -0.7335
4734000000.0 -1.019 0.1815
4738000000.0 -0.5259 0.9033
4741000000.0 0.3768 0.9588
4744000000.0 0.9951 0.3375
4747000000.0 0.8854 -0.5439
4750000000.0 0.1939 -1.086
4753000000.0 -0.7266 -0.8222
4756000000.0 -1.106 0.04695
4759000000.0 -0.6656 0.8833
4762000000.0 0.2258 1.1
4766000000.0 1.007 0.5304
4769000000.0 1.06 -0.4303
4772000000.0 0.3578 -1.089
4775000000.0 -0.6401 -0.9838
4778000000.0 -1.18 -0.1482
4781000000.0 -0.8852 0.7811
4784000000.0 0.05783 1.181
4788000000.0 0.977 0.7242
4791000000.0 1.177 -0.2872
4794000000.0 0.5465 -1.084
4797000000.0 -0.4749 -1.186
4800000000.0 -1.212 -0.3936
4803000000.0 -1.041 0.6431
4806000000.0 -0.1745 1.242
4809000000.0 0.8225 0.9413
4812000000.0 1.299 -0.06032
4816000000.0 0.8132 -1.05
4819000000.0 -0.2732 -1.297
4822000000.0 -1.21 -0.6168
4825000000.0 -1.256 0.5334
4828000000.0 -0.4315 1.32
4831000000.0 0.7682 1.135
4834000000.0 1.398 0.135
4838000000.0 0.9927 -0.9991
4841000000.0 -0.1304 -1.406
4844000000.0 -1.173 -0.8329
4847000000.0 -1.344 0.4175
4850000000.0 -0.529 1.296
4853000000.0 0.6828 1.218
4856000000.0 1.369 0.26
4859000000.0 1.064 -0.8658
4862000000.0 0.0107 -1.397
4866000000.0 -1.06 -0.8481
4869000000.0 -1.308 0.2805
4872000000.0 -0.5886 1.187
4875000000.0 0.5276 1.194
4878000000.0 1.264 0.3256
4881000000.0 1.03 -0.766
4884000000.0 0.05208 -1.266
4888000000.0 -0.9325 -0.8259
4891000000.0 -1.19 0.2074
4894000000.0 -0.5702 1.048
4897000000.0 0.4389 1.106
4900000000.0 1.108 0.3429
4903000000.0 0.9308 -0.6392
4906000000.0 0.08241 -1.09
4909000000.0 -0.7781 -0.7529
4912000000.0 -1.044 0.1405
4916000000.0 -0.5521 0.8833
4919000000.0 0.3449 0.9633
4922000000.0 0.9254 0.3358
4925000000.0 0.8678 -0.4826
4928000000.0 0.1666 -0.9345
4931000000.0 -0.618 -0.7423
4934000000.0 -0.9394 0.01591
4938000000.0 -0.563 0.7529
4941000000.0 0.2123 0.9091
4944000000.0 0.8191 0.4214
4947000000.0 0.8817 -0.394
4950000000.0 0.2581 -0.899
4953000000.0 -0.5652 -0.7639
4956000000.0 -0.9662 -0.08141
4959000000.0 -0.6609 0.7137
4962000000.0 0.1473 0.9865
4966000000.0 0.8528 0.5114
4969000000.0 0.9165 -0.3434
4972000000.0 0.3228 -0.9377
4975000000.0 -0.5257 -0.843
4978000000.0 -1.019 -0.1401
4981000000.0 -0.7709 0.6979
4984000000.0 0.07545 1.041
4988000000.0 0.859 0.6301
4991000000.0 1.056 -0.2755
4994000000.0 0.4743 -0.9722
4997000000.0 -0.4572 -1.0
5000000000.0 -1.055 -0.287
5003000000.0 -0.9334 0.6721
5006000000.0 -0.09528 1.189
5009000000.0 0.8548 0.8248
5012000000.0 1.194 -0.1303
5016000000.0 0.6579 -1.008
5019000000.0 -0.3576 -1.195
5022000000.0 -1.185 -0.4727
5025000000.0 -1.105 0.6133
5028000000.0 -0.2286 1.26
5031000000.0 0.8083 0.967
5034000000.0 1.287 0.000534
5038000000.0 0.8227 -0.9788
5041000000.0 -0.2352 -1.3
5044000000.0 -1.118 -0.6163
5047000000.0 -1.223 0.4767
5050000000.0 -0.4521 1.249
5053000000.0 0.6824 1.137
5056000000.0 1.282 0.2002
5059000000.0 1.01 -0.8735
5062000000.0 -0.001089 -1.361
5066000000.0 -1.009 -0.8412
5069000000.0 -1.28 0.2591
5072000000.0 -0.607 1.164
5075000000.0 0.4674 1.164
5078000000.0 1.209 0.3815
5081000000.0 1.069 -0.6921
5084000000.0 0.1528 -1.231
5088000000.0 -0.8781 -0.8981
5091000000.0 -1.177 0.0926
5094000000.0 -0.6737 0.9511
5097000000.0 0.2682 1.17
5100000000.0 1.06 0.5391
5103000000.0 1.066 -0.466
5106000000.0 0.3161 -1.086
5109000000.0 -0.6418 -0.9111
5112000000.0 -1.108 -0.1395
5116000000.0 -0.7973 0.7223
5119000000.0 0.08753 1.09
5122000000.0 0.8445 0.6417
5125000000.0 1.013 -0.237
5128000000.0 0.4614 -0.8994
5131000000.0 -0.4453 -0.966
5134000000.0 -0.9826 -0.25
5138000000.0 -0.8305 0.5712
5141000000.0 -0.04788 0.9739
5144000000.0 0.7027 0.6768
5147000000.0 0.9339 -0.127
5150000000.0 0.4886 -0.7963
5153000000.0 -0.2988 -0.8979
5156000000.0 -0.8329 -0.2861
5159000000.0 -0.8101 0.4272
5162000000.0 -0.1437 0.8738
5166000000.0 0.6022 0.6735
5169000000.0 0.8916 -0.0488
5172000000.0 0.5191 -0.7261
5175000000.0 -0.2151 -0.8779
5178000000.0 -0.855 -0.3754
5181000000.0 -0.8363 0.4048
5184000000.0 -0.1939 0.9096
5188000000.0 0.5974 0.713
5191000000.0 0.9331 -0.009626
5194000000.0 0.6018 -0.7297
5197000000.0 -0.2395 -0.9059
5200000000.0 -0.849 -0.4097
5203000000.0 -0.8671 0.4155
5206000000.0 -0.1872 0.9224
5209000000.0 0.6052 0.7565
5212000000.0 0.9619 0.003245
5216000000.0 0.6153 -0.7867
5219000000.0 -0.1837 -0.9736
5222000000.0 -0.8796 -0.4722
5225000000.0 -0.9156 0.3893
5228000000.0 -0.2746 0.9741
5231000000.0 0.5688 0.8215
5234000000.0 1.037 0.04716
5238000000.0 0.7228 -0.7775
5241000000.0 -0.1478 -1.023
5244000000.0 -0.8856 -0.569
5247000000.0 -1.019 0.3497
5250000000.0 -0.4016 0.998
5253000000.0 0.4939 0.9382
5256000000.0 1.051 0.1915
5259000000.0 0.8788 -0.6781
5262000000.0 -0.001228 -1.072
5266000000.0 -0.8343 -0.7411
5269000000.0 -1.102 0.1499
5272000000.0 -0.5439 0.9273
5275000000.0 0.3272 1.039
5278000000.0 1.023 0.4056
5281000000.0 0.9588 -0.5417
5284000000.0 0.2434 -1.087
5288000000.0 -0.6574 -0.8984
5291000000.0 -1.116 -0.03598
5294000000.0 -0.7745 0.845
5297000000.0 0.1396 1.125
5300000000.0 0.9534 0.6439
5303000000.0 1.095 -0.2738
5306000000.0 0.4919 -1.034
5309000000.0 -0.4663 -1.053
5312000000.0 -1.121 -0.3033
5316000000.0 -0.9659 0.6524
5319000000.0 -0.1064 1.148
5322000000.0 0.8224 0.8131
5325000000.0 1.146 -0.122
5328000000.0 0.647 -0.9533
5331000000.0 -0.2773 -1.13
5334000000.0 -1.034 -0.4567
5338000000.0 -1.005 0.4812
5341000000.0 -0.267 1.112
5344000000.0 0.6374 0.9337
5347000000.0 1.142 0.04366
5350000000.0 0.7491 -0.8399
5353000000.0 -0.1818 -1.097
5356000000.0 -0.9271 -0.5832
5359000000.0 -1.033 0.3602
5362000000.0 -0.3973 1.018
5366000000.0 0.582 0.938
5369000000.0 1.07 0.1382
5372000000.0 0.7878 -0.7378
5375000000.0 -0.0787 -1.047
5378000000.0 -0.8769 -0.5738
5381000000.0 -0.9801 0.3437
5384000000.0 -0.3636 0.921
5388000000.0 0.5554 0.8458
5391000000.0 0.956 0.08606
5394000000.0 0.6943 -0.682
5397000000.0 -0.1013 -0.961
5400000000.0 -0.8057 -0.4798
5403000000.0 -0.8822 0.3185
5406000000.0 -0.3026 0.8815
5409000000.0 0.4972 0.7693
5412000000.0 0.835 0.0847
5416000000.0 0.6244 -0.6291
5419000000.0 -0.124 -0.8898
5422000000.0 -0.7459 -0.4693
5425000000.0 -0.8323 0.322
5428000000.0 -0.2293 0.8174
5431000000.0 0.4707 0.713
5434000000.0 0.8702 0.05006
5438000000.0 0.643 -0.6143
5441000000.0 -0.1101 -0.8752
5444000000.0 -0.7492 -0.4295
5447000000.0 -0.8548 0.3004
5450000000.0 -0.2758 0.8758
5453000000.0 0.4696 0.7613
5456000000.0 0.9019 0.1148
5459000000.0 0.6361 -0.6404
5462000000.0 -0.04871 -0.9074
5466000000.0 -0.7487 -0.5121
5469000000.0 -0.868 0.2194
5472000000.0 -0.3545 0.8603
5475000000.0 0.3809 0.8432
5478000000.0 0.9389 0.2388
5481000000.0 0.7833 -0.568
5484000000.0 0.04914 -0.9437
5488000000.0 -0.7025 -0.6762
5491000000.0 -0.9817 0.1012
5494000000.0 -0.5482 0.8113
5497000000.0 0.3084 0.9757
5500000000.0 0.9181 0.3905
5503000000.0 0.9455 -0.4695
5506000000.0 0.2042 -1.007
5509000000.0 -0.6063 -0.8095
5512000000.0 -1.013 -0.05938
5516000000.0 -0.7557 0.7462
5519000000.0 0.07342 1.037
5522000000.0 0.865 0.5607
5525000000.0 1.013 -0.2577
5528000000.0 0.4638 -0.951
5531000000.0 -0.4233 -0.9689
5534000000.0 -1.033 -0.3099
5538000000.0 -0.8941 0.5958
5541000000.0 -0.09828 1.076
5544000000.0 0.728 0.7454
5547000000.0 1.074 -0.08486
5550000000.0 0.6134 -0.8935
5553000000.0 -0.2574 -1.04
5556000000.0 -0.9668 -0.4314
5559000000.0 -0.947 0.4368
5562000000.0 -0.2591 1.03
5566000000.0 0.6653 0.8432
5569000000.0 1.039 0.04421
5572000000.0 0.7011 -0.7752
5575000000.0 -0.1602 -1.008
5578000000.0 -0.8701 -0.5486
5581000000.0 -0.9407 0.3407
5584000000.0 -0.3688 0.9331
5588000000.0 0.4769 0.868
5591000000.0 0.9446 0.1637
5594000000.0 0.7376 -0.6231
5597000000.0 -0.01785 -0.949
5600000000.0 -0.751 -0.5805
5603000000.0 -0.898 0.2005
5606000000.0 -0.4232 0.8046
5609000000.0 0.3856 0.838
5612000000.0 0.8541 0.2334
5616000000.0 0.7336 -0.5398
5619000000.0 0.05112 -0.8531
5622000000.0 -0.656 -0.5924
5625000000.0 -0.8664 0.1137
5628000000.0 -0.4367 0.7459
5631000000.0 0.3094 0.8157
5634000000.0 0.8089 0.2491
5638000000.0 0.6803 -0.4691
5641000000.0 0.1063 -0.8401
5644000000.0 -0.6056 -0.6007
5647000000.0 -0.8539 0.08626
5650000000.0 -0.4302 0.728
5653000000.0 0.2903 0.8182
5656000000.0 0.7912 0.2671
5659000000.0 0.7262 -0.4728
5662000000.0 0.1108 -0.8568
5666000000.0 -0.634 -0.6082
5669000000.0 -0.8815 0.1159
5672000000.0 -0.4929 0.7495
5675000000.0 0.2669 0.8706
5678000000.0 0.8723 0.3076
5681000000.0 0.7711 -0.4943
5684000000.0 0.1204 -0.9456
5688000000.0 -0.6725 -0.6704
5691000000.0 -0.9422 0.08855
5694000000.0 -0.5428 0.7923
5697000000.0 0.3166 0.9326
5700000000.0 0.9406 0.4001
5703000000.0 0.888 -0.4776
5706000000.0 0.1561 -0.9754
5709000000.0 -0.6478 -0.7475
5712000000.0 -1.04 0.02662
5716000000.0 -0.6194 0.8432
5719000000.0 0.2312 1.036
5722000000.0 0.9375 0.4824
5725000000.0 0.9681 -0.3839
5728000000.0 0.3009 -0.9949
5731000000.0 -0.6185 -0.8891
5734000000.0 -1.071 -0.1045
5738000000.0 -0.7669 0.7775
5741000000.0 0.09796 1.049
5744000000.0 0.917 0.5959
5747000000.0 1.04 -0.3052
5750000000.0 0.4661 -1.019
5753000000.0 -0.4936 -0.9882
5756000000.0 -1.044 -0.2904
5759000000.0 -0.8953 0.6487
5762000000.0 -0.0822 1.129
5766000000.0 0.8165 0.755
5769000000.0 1.105 -0.1559
5772000000.0 0.6053 -0.8999
5775000000.0 -0.327 -1.061
5778000000.0 -1.02 -0.4398
5781000000.0 -0.9871 0.4783
5784000000.0 -0.2519 1.057
5788000000.0 0.611 0.868
5791000000.0 1.085 0.04761
5794000000.0 0.7507 -0.8271
5797000000.0 -0.1389 -1.044
5800000000.0 -0.9241 -0.5674
5803000000.0 -0.9867 0.3564
5806000000.0 -0.3818 1.003
5809000000.0 0.4909 0.9389
5812000000.0 1.018 0.1526
5816000000.0 0.7902 -0.6701
5819000000.0 0.001864 -1.041
5822000000.0 -0.7958 -0.635
5825000000.0 -0.9852 0.2052
5828000000.0 -0.4782 0.9339
5831000000.0 0.4034 0.9428
5834000000.0 0.9783 0.2626
5838000000.0 0.7894 -0.5537
5841000000.0 0.09678 -0.973
5844000000.0 -0.7444 -0.6945
5847000000.0 -0.939 0.1265
5850000000.0 -0.4676 0.8113
5853000000.0 0.3248 0.8836
5856000000.0 0.8974 0.2985
5859000000.0 0.82 -0.4931
5862000000.0 0.1201 -0.9351
5866000000.0 -0.6598 -0.6723
5869000000.0 -0.9225 0.08889
5872000000.0 -0.5003 0.7791
5875000000.0 0.2681 0.8785
5878000000.0 0.8506 0.3122
5881000000.0 0.7316 -0.4489
5884000000.0 0.08352 -0.8764
5888000000.0 -0.5888 -0.6216
5891000000.0 -0.8778 0.0506
5894000000.0 -0.4841 0.7312
5897000000.0 0.2342 0.8021
5900000000.0 0.8095 0.3105
5903000000.0 0.7538 -0.403
5906000000.0 0.1759 -0.8542
5909000000.0 -0.5682 -0.6639
5912000000.0 -0.8627 -0.003593
5916000000.0 -0.5333 0.6831
5919000000.0 0.1976 0.819
5922000000.0 0.7737 0.4241
5925000000.0 0.813 -0.327
5928000000.0 0.2597 -0.8451
5931000000.0 -0.495 -0.7453
5934000000.0 -0.8825 -0.09859
5938000000.0 -0.6522 0.6381
5941000000.0 0.058 0.8998
5944000000.0 0.7088 0.5114
5947000000.0 0.8606 -0.234
5950000000.0 0.3518 -0.8451
5953000000.0 -0.3845 -0.8324
5956000000.0 -0.8981 -0.2415
5959000000.0 -0.7611 0.5217
5962000000.0 -0.07097 0.9168
5966000000.0 0.7031 0.6375
5969000000.0 0.9407 -0.09412
5972000000.0 0.5204 -0.8079
5975000000.0 -0.2822 -0.919
5978000000.0 -0.9086 -0.357
5981000000.0 -0.8871 0.4279
5984000000.0 -0.2525 0.9963
5988000000.0 0.5924 0.8175
5991000000.0 0.9911 0.06404
5994000000.0 0.6782 -0.7465
5997000000.0 -0.1443 -1.0
6000000000.0 -0.8441 -0.5437
6003000000.0 -0.9586 0.2852
6006000000.0 -0.3659 0.9068
6009000000.0 0.5048 0.8731
6012000000.0 0.9825 0.1863
6016000000.0 0.7824 -0.6372
6019000000.0 -0.03402 -0.9864
6022000000.0 -0.7623 -0.6438
6025000000.0 -0.98 0.2106
6028000000.0 -0.4436 0.8774
6031000000.0 0.4143 0.9226
6034000000.0 0.9528 0.268
6038000000.0 0.8293 -0.5632
6041000000.0 0.07157 -0.9484
6044000000.0 -0.6941 -0.6831
6047000000.0 -0.9666 0.1176
6050000000.0 -0.523 0.826
6053000000.0 0.318 0.9269
6056000000.0 0.9126 0.2993
6059000000.0 0.7961 -0.484
6062000000.0 0.1367 -0.9257
6066000000.0 -0.6436 -0.6934
6069000000.0 -0.9146 0.07339
6072000000.0 -0.52 0.742
6075000000.0 0.2661 0.8645
6078000000.0 0.8326 0.3147
6081000000.0 0.7869 -0.4138
6084000000.0 0.1671 -0.88
6088000000.0 -0.5758 -0.688
6091000000.0 -0.8832 0.004697
6094000000.0 -0.568 0.6867
6097000000.0 0.2144 0.8162
6100000000.0 0.7885 0.3769
6103000000.0 0.793 -0.3593
6106000000.0 0.2162 -0.8266
6109000000.0 -0.532 -0.6855
6112000000.0 -0.8684 -0.04415
6116000000.0 -0.5646 0.6707
6119000000.0 0.1806 0.856
6122000000.0 0.7709 0.4189
6125000000.0 0.8147 -0.322
6128000000.0 0.2154 -0.8757
6131000000.0 -0.506 -0.74
6134000000.0 -0.8998 -0.06352
6138000000.0 -0.5867 0.6386
6141000000.0 0.1138 0.8668
6144000000.0 0.7343 0.4728
6147000000.0 0.8557 -0.3072
6150000000.0 0.3108 -0.8421
6153000000.0 -0.4616 -0.7807
6156000000.0 -0.8945 -0.1561
6159000000.0 -0.6624 0.6144
6162000000.0 0.0298 0.8896
6166000000.0 0.7636 0.5362
6169000000.0 0.9139 -0.2352
6172000000.0 0.3636 -0.886
6175000000.0 -0.4319 -0.8364
6178000000.0 -0.9137 -0.2058
6181000000.0 -0.7304 0.6078
6184000000.0 -0.03021 0.9697
6188000000.0 0.7133 0.6128
6191000000.0 0.9085 -0.1644
6194000000.0 0.4738 -0.8309
6197000000.0 -0.3373 -0.9052
6200000000.0 -0.8802 -0.3184
6203000000.0 -0.787 0.4995
6206000000.0 -0.121 0.9347
6209000000.0 0.659 0.6948
6212000000.0 0.944 -0.06009
6216000000.0 0.5956 -0.7491
6219000000.0 -0.2154 -0.8905
6222000000.0 -0.8594 -0.4011
6225000000.0 -0.8414 0.3824
6228000000.0 -0.2237 0.8866
6231000000.0 0.5319 0.7299
6234000000.0 0.9088 0.05294
6238000000.0 0.634 -0.6426
6241000000.0 -0.1275 -0.8695
6244000000.0 -0.7164 -0.4926
6247000000.0 -0.8438 0.2595
6250000000.0 -0.3492 0.7772
6253000000.0 0.3989 0.7354
6256000000.0 0.835 0.1481
6259000000.0 0.6499 -0.5091
6262000000.0 0.03864 -0.8568
6266000000.0 -0.6056 -0.5399
6269000000.0 -0.8215 0.1089
6272000000.0 -0.4482 0.6847
