! Created with skrf 1.8.0 (http://scikit-rf.org).
# Hz S RI R 50.0 
!freq ReS11 ImS11
4000000000.0 -0.1379 -1.485
4003000000.0 -1.235 -0.8089
4006000000.0 -1.447 0.5012
4009000000.0 -0.5116 1.412
4012000000.0 0.8151 1.298
4016000000.0 1.506 0.2114
4019000000.0 1.116 -1.027
4022000000.0 -0.1018 -1.537
4025000000.0 -1.328 -0.8863
4028000000.0 -1.539 0.4035
4031000000.0 -0.5939 1.467
4034000000.0 0.7669 1.381
4038000000.0 1.594 0.2165
4041000000.0 1.192 -1.071
4044000000.0 -0.1106 -1.613
4047000000.0 -1.305 -0.883
4050000000.0 -1.515 0.4242
4053000000.0 -0.6141 1.43
4056000000.0 0.7627 1.411
4059000000.0 1.545 0.358
4062000000.0 1.266 -1.005
4066000000.0 0.02151 -1.6
4069000000.0 -1.205 -1.078
4072000000.0 -1.564 0.2182
4075000000.0 -0.8195 1.378
4078000000.0 0.5649 1.548
4081000000.0 1.53 0.5561
4084000000.0 1.382 -0.8436
4088000000.0 0.2769 -1.605
4091000000.0 -1.095 -1.254
4094000000.0 -1.672 0.03686
4097000000.0 -0.9383 1.311
4100000000.0 0.3687 1.562
4103000000.0 1.392 0.7191
4106000000.0 1.435 -0.6435
4109000000.0 0.4679 -1.491
4112000000.0 -0.8321 -1.262
4116000000.0 -1.493 -0.1807
4119000000.0 -1.119 0.9532
4122000000.0 0.03272 1.486
4125000000.0 1.148 0.9442
4128000000.0 1.467 -0.2321
4131000000.0 0.7925 -1.231
4134000000.0 -0.432 -1.404
4138000000.0 -1.387 -0.5862
4141000000.0 -1.351 0.6319
4144000000.0 -0.373 1.424
4147000000.0 0.8562 1.242
4150000000.0 1.459 0.1174
4153000000.0 1.065 -1.042
4156000000.0 -0.1162 -1.518
4159000000.0 -1.209 -0.8871
4162000000.0 -1.436 0.3923
4166000000.0 -0.6727 1.36
4169000000.0 0.6358 1.384
4172000000.0 1.415 0.4212
4175000000.0 1.233 -0.8365
4178000000.0 0.1599 -1.505
4181000000.0 -1.026 -1.122
4184000000.0 -1.488 0.09194
4188000000.0 -0.9036 1.228
4191000000.0 0.38 1.46
4194000000.0 1.403 0.6737
4197000000.0 1.437 -0.6901
4200000000.0 0.3969 -1.517
4203000000.0 -0.9543 -1.273
4206000000.0 -1.621 -0.03922
4209000000.0 -1.085 1.278
4212000000.0 0.3455 1.623
4216000000.0 1.469 0.7233
4219000000.0 1.532 -0.7166
4222000000.0 0.3636 -1.643
4225000000.0 -1.091 -1.249
4228000000.0 -1.678 0.1147
4231000000.0 -0.9179 1.397
4234000000.0 0.5125 1.581
4238000000.0 1.532 0.4868
4241000000.0 1.369 -0.9157
4244000000.0 0.08224 -1.602
4247000000.0 -1.212 -1.052
4250000000.0 -1.538 0.2786
4253000000.0 -0.6946 1.417
4256000000.0 0.6679 1.373
4259000000.0 1.49 0.3274
4262000000.0 1.167 -1.027
4266000000.0 -0.06865 -1.484
4269000000.0 -1.213 -0.8532
4272000000.0 -1.381 0.4097
4275000000.0 -0.4986 1.387
4278000000.0 0.7283 1.264
4281000000.0 1.411 0.2102
4284000000.0 1.011 -0.9957
4288000000.0 -0.1126 -1.354
4291000000.0 -1.163 -0.7353
4294000000.0 -1.279 0.4218
4297000000.0 -0.5051 1.228
4300000000.0 0.6385 1.156
4303000000.0 1.267 0.239
4306000000.0 0.9972 -0.8428
4309000000.0 -0.002632 -1.31
4312000000.0 -0.959 -0.8359
4316000000.0 -1.281 0.2092
4319000000.0 -0.6805 1.07
4322000000.0 0.4234 1.221
4325000000.0 1.23 0.4833
4328000000.0 1.168 -0.6341
4331000000.0 0.3038 -1.283
4334000000.0 -0.8373 -1.082
4338000000.0 -1.406 -0.0314
4341000000.0 -0.9235 1.049
4344000000.0 0.215 1.417
4347000000.0 1.202 0.7347
4350000000.0 1.359 -0.4695
4353000000.0 0.5215 -1.38
4356000000.0 -0.7037 -1.257
4359000000.0 -1.417 -0.2401
4362000000.0 -1.117 0.9123
4366000000.0 -0.008398 1.457
4369000000.0 1.128 0.9327
4372000000.0 1.438 -0.2732
4375000000.0 0.7083 -1.26
4378000000.0 -0.5623 -1.37
4381000000.0 -1.43 -0.4628
4384000000.0 -1.288 0.783
4388000000.0 -0.1804 1.522
4391000000.0 1.111 1.091
4394000000.0 1.538 -0.1614
4397000000.0 0.8618 -1.28
4400000000.0 -0.519 -1.513
4403000000.0 -1.474 -0.5647
4406000000.0 -1.365 0.8221
4409000000.0 -0.1663 1.545
4412000000.0 1.11 1.078
4416000000.0 1.578 -0.1664
4419000000.0 0.7726 -1.291
4422000000.0 -0.533 -1.374
4425000000.0 -1.4 -0.4255
4428000000.0 -1.205 0.8346
4431000000.0 -0.06814 1.415
4434000000.0 1.063 0.9577
4438000000.0 1.374 -0.2387
4441000000.0 0.6735 -1.247
4444000000.0 -0.5602 -1.257
4447000000.0 -1.322 -0.334
4450000000.0 -1.062 0.8394
4453000000.0 0.01996 1.299
4456000000.0 1.059 0.7648
4459000000.0 1.27 -0.3408
4462000000.0 0.4614 -1.177
4466000000.0 -0.6648 -1.039
4469000000.0 -1.212 -0.122
4472000000.0 -0.8585 0.8514
4475000000.0 0.1515 1.194
4478000000.0 1.023 0.6233
4481000000.0 1.067 -0.4236
4484000000.0 0.3127 -1.088
4488000000.0 -0.6604 -0.9084
4491000000.0 -1.136 -0.03841
4494000000.0 -0.7494 0.8417
4497000000.0 0.1522 1.111
4500000000.0 0.956 0.5823
4503000000.0 1.016 -0.413
4506000000.0 0.3244 -1.042
4509000000.0 -0.6273 -0.898
4512000000.0 -1.064 -0.09443
4516000000.0 -0.7852 0.8028
4519000000.0 0.1557 1.115
4522000000.0 0.9271 0.615
4525000000.0 1.085 -0.338
4528000000.0 0.4004 -1.084
4531000000.0 -0.5707 -1.028
4534000000.0 -1.137 -0.1737
4538000000.0 -0.8891 0.7579
4541000000.0 0.005755 1.172
4544000000.0 0.9246 0.718
4547000000.0 1.143 -0.2479
4550000000.0 0.5721 -1.047
4553000000.0 -0.4516 -1.101
4556000000.0 -1.154 -0.3824
4559000000.0 -1.035 0.6643
4562000000.0 -0.1755 1.218
4566000000.0 0.8327 0.9053
4569000000.0 1.257 -0.04488
4572000000.0 0.7734 -1.012
4575000000.0 -0.2514 -1.252
4578000000.0 -1.117 -0.6025
4581000000.0 -1.203 0.5201
4584000000.0 -0.3933 1.277
4588000000.0 0.7402 1.135
4591000000.0 1.344 0.1786
4594000000.0 0.9606 -0.9392
4597000000.0 -0.1015 -1.373
4600000000.0 -1.124 -0.7986
4603000000.0 -1.349 0.3612
4606000000.0 -0.5326 1.261
4609000000.0 0.6035 1.259
4612000000.0 1.372 0.2943
4616000000.0 1.093 -0.8364
4619000000.0 0.05261 -1.383
4622000000.0 -1.048 -0.9063
4625000000.0 -1.362 0.2594
4628000000.0 -0.6642 1.209
4631000000.0 0.5244 1.274
4634000000.0 1.333 0.4129
4638000000.0 1.115 -0.7898
4641000000.0 0.08114 -1.344
4644000000.0 -0.928 -0.9214
4647000000.0 -1.335 0.1733
4650000000.0 -0.6597 1.124
4653000000.0 0.4594 1.19
4656000000.0 1.23 0.3988
4659000000.0 1.013 -0.6993
4662000000.0 0.06779 -1.275
4666000000.0 -0.9122 -0.8304
4669000000.0 -1.208 0.162
4672000000.0 -0.5722 1.056
4675000000.0 0.4627 1.066
4678000000.0 1.061 0.3191
4681000000.0 0.9534 -0.6465
4684000000.0 0.05705 -1.127
4688000000.0 -0.8509 -0.7126
4691000000.0 -1.073 0.2237
4694000000.0 -0.5204 0.9293
4697000000.0 0.4357 1.035
4700000000.0 1.032 0.2914
4703000000.0 0.9102 -0.6333
4706000000.0 0.05642 -1.041
4709000000.0 -0.8211 -0.6878
4712000000.0 -1.104 0.2065
4716000000.0 -0.4628 0.9338
4719000000.0 0.4195 0.9755
4722000000.0 1.005 0.2815
4725000000.0 0.8452 -0.6355
4728000000.0 0.02156 -1.054
4731000000.0 -0.775 -0.6634
4734000000.0 -1.008 0.1798
4738000000.0 -0.5198 0.9031
4741000000.0 0.3496 0.9666
4744000000.0 0.9844 0.3306
4747000000.0 0.8956 -0.5382
4750000000.0 0.1869 -1.065
4753000000.0 -0.7207 -0.785
4756000000.0 -1.098 0.03116
4759000000.0 -0.6644 0.8337
4762000000.0 0.2538 1.069
4766000000.0 0.9969 0.5197
4769000000.0 1.04 -0.4732
4772000000.0 0.2871 -1.126
4775000000.0 -0.6539 -0.9488
4778000000.0 -1.166 -0.1226
4781000000.0 -0.8642 0.7929
4784000000.0 0.07403 1.175
4788000000.0 0.9527 0.7301
4791000000.0 1.142 -0.3061
4794000000.0 0.5677 -1.069
4797000000.0 -0.4821 -1.163
4800000000.0 -1.184 -0.3796
4803000000.0 -1.038 0.6665
4806000000.0 -0.177 1.238
4809000000.0 0.8511 0.9275
4812000000.0 1.287 -0.03981
4816000000.0 0.8041 -1.021
4819000000.0 -0.2718 -1.295
4822000000.0 -1.143 -0.6387
4825000000.0 -1.239 0.5317
4828000000.0 -0.3785 1.303
4831000000.0 0.767 1.106
4834000000.0 1.379 0.1431
4838000000.0 0.9838 -0.9595
4841000000.0 -0.1107 -1.391
4844000000.0 -1.182 -0.7693
4847000000.0 -1.324 0.4139
4850000000.0 -0.518 1.26
4853000000.0 0.6471 1.22
4856000000.0 1.345 0.2742
4859000000.0 1.039 -0.8602
4862000000.0 -0.03035 -1.372
4866000000.0 -1.035 -0.821
4869000000.0 -1.297 0.2858
4872000000.0 -0.5655 1.175
4875000000.0 0.5464 1.189
4878000000.0 1.244 0.3127
4881000000.0 1.004 -0.7401
4884000000.0 0.07188 -1.242
4888000000.0 -0.9348 -0.8312
4891000000.0 -1.204 0.2198
4894000000.0 -0.5817 1.039
4897000000.0 0.4594 1.066
4900000000.0 1.075 0.3204
4903000000.0 0.8846 -0.6457
4906000000.0 0.08347 -1.107
4909000000.0 -0.7835 -0.743
4912000000.0 -1.04 0.1513
4916000000.0 -0.547 0.8796
4919000000.0 0.3246 0.9475
4922000000.0 0.9172 0.3078
4925000000.0 0.8276 -0.4781
4928000000.0 0.1434 -0.9497
4931000000.0 -0.6221 -0.7014
4934000000.0 -0.9262 0.04029
4938000000.0 -0.5484 0.7373
4941000000.0 0.2117 0.9068
4944000000.0 0.8542 0.4044
4947000000.0 0.8509 -0.3886
4950000000.0 0.2139 -0.9182
4953000000.0 -0.5587 -0.7447
4956000000.0 -0.96 -0.03364
4959000000.0 -0.642 0.7296
4962000000.0 0.1813 0.9374
4966000000.0 0.8744 0.4848
4969000000.0 0.9053 -0.3451
4972000000.0 0.3413 -0.9405
4975000000.0 -0.5274 -0.843
4978000000.0 -0.9837 -0.09254
4981000000.0 -0.7707 0.67
4984000000.0 0.07088 1.047
4988000000.0 0.8534 0.592
4991000000.0 1.033 -0.2649
4994000000.0 0.4726 -0.9632
4997000000.0 -0.4501 -0.9999
5000000000.0 -1.08 -0.2786
5003000000.0 -0.9333 0.6527
5006000000.0 -0.0889 1.151
5009000000.0 0.8447 0.8374
5012000000.0 1.175 -0.1477
5016000000.0 0.6824 -1.024
5019000000.0 -0.3771 -1.155
5022000000.0 -1.15 -0.4501
5025000000.0 -1.109 0.6169
5028000000.0 -0.2646 1.222
5031000000.0 0.8284 0.9714
5034000000.0 1.277 -0.0003699
5038000000.0 0.8324 -0.9878
5041000000.0 -0.2392 -1.233
5044000000.0 -1.142 -0.6367
5047000000.0 -1.201 0.4358
5050000000.0 -0.4268 1.197
5053000000.0 0.6821 1.113
5056000000.0 1.29 0.1839
5059000000.0 0.9882 -0.8447
5062000000.0 0.006447 -1.288
5066000000.0 -1.026 -0.8258
5069000000.0 -1.288 0.2724
5072000000.0 -0.5972 1.121
5075000000.0 0.4974 1.176
5078000000.0 1.239 0.3458
5081000000.0 1.053 -0.6775
5084000000.0 0.1363 -1.205
5088000000.0 -0.8174 -0.8828
5091000000.0 -1.172 0.06045
5094000000.0 -0.6945 0.9619
5097000000.0 0.2457 1.117
5100000000.0 1.02 0.531
5103000000.0 1.067 -0.4545
5106000000.0 0.2564 -1.041
5109000000.0 -0.5884 -0.942
5112000000.0 -1.087 -0.1111
5116000000.0 -0.7544 0.7497
5119000000.0 0.08255 1.02
5122000000.0 0.8159 0.6227
5125000000.0 0.9723 -0.2571
5128000000.0 0.4308 -0.8918
5131000000.0 -0.4137 -0.8809
5134000000.0 -0.9412 -0.2338
5138000000.0 -0.7643 0.5771
5141000000.0 -0.02542 0.9794
5144000000.0 0.6882 0.6533
5147000000.0 0.9195 -0.0988
5150000000.0 0.4705 -0.7804
5153000000.0 -0.2887 -0.8817
5156000000.0 -0.8552 -0.33
5159000000.0 -0.7747 0.4403
5162000000.0 -0.1326 0.9115
5166000000.0 0.6205 0.6651
5169000000.0 0.8769 -0.06473
5172000000.0 0.5355 -0.7033
5175000000.0 -0.2518 -0.847
5178000000.0 -0.8569 -0.3554
5181000000.0 -0.8053 0.3884
5184000000.0 -0.18 0.8836
5188000000.0 0.601 0.713
5191000000.0 0.8863 -0.03139
5194000000.0 0.5763 -0.7253
5197000000.0 -0.2313 -0.8895
5200000000.0 -0.8736 -0.4079
5203000000.0 -0.8831 0.4281
5206000000.0 -0.1947 0.9099
5209000000.0 0.6038 0.7271
5212000000.0 0.9592 -0.005944
5216000000.0 0.609 -0.7732
5219000000.0 -0.2023 -0.9742
5222000000.0 -0.874 -0.4391
5225000000.0 -0.9107 0.3961
5228000000.0 -0.2639 0.9491
5231000000.0 0.5918 0.8238
5234000000.0 1.015 0.06543
5238000000.0 0.7136 -0.7464
5241000000.0 -0.1547 -1.023
5244000000.0 -0.9133 -0.5628
5247000000.0 -0.9994 0.3049
5250000000.0 -0.3675 0.9729
5253000000.0 0.538 0.9492
5256000000.0 1.049 0.1995
5259000000.0 0.8573 -0.6875
5262000000.0 0.01518 -1.073
5266000000.0 -0.813 -0.7207
5269000000.0 -1.087 0.1576
5272000000.0 -0.5425 0.9094
5275000000.0 0.3341 1.033
5278000000.0 1.021 0.4085
5281000000.0 0.9834 -0.5095
5284000000.0 0.2046 -1.035
5288000000.0 -0.692 -0.8704
5291000000.0 -1.111 -0.02487
5294000000.0 -0.7601 0.7855
5297000000.0 0.14 1.112
5300000000.0 0.9061 0.6277
5303000000.0 1.067 -0.3142
5306000000.0 0.4712 -1.063
5309000000.0 -0.4777 -1.005
5312000000.0 -1.104 -0.2832
5316000000.0 -0.9282 0.6632
5319000000.0 -0.1354 1.119
5322000000.0 0.8303 0.7904
5325000000.0 1.14 -0.1316
5328000000.0 0.6637 -0.9446
5331000000.0 -0.2995 -1.085
5334000000.0 -1.032 -0.4386
5338000000.0 -0.9994 0.4861
5341000000.0 -0.2405 1.088
5344000000.0 0.652 0.8632
5347000000.0 1.119 0.09831
5350000000.0 0.7363 -0.8137
5353000000.0 -0.1702 -1.094
5356000000.0 -0.9457 -0.5531
5359000000.0 -1.007 0.3663
5362000000.0 -0.3451 1.047
5366000000.0 0.5763 0.8946
5369000000.0 1.048 0.1501
5372000000.0 0.7509 -0.7476
5375000000.0 -0.1266 -1.016
5378000000.0 -0.8571 -0.5566
5381000000.0 -0.951 0.3605
5384000000.0 -0.323 0.9306
5388000000.0 0.4932 0.8184
5391000000.0 0.9394 0.1321
5394000000.0 0.6656 -0.682
5397000000.0 -0.09685 -0.9373
5400000000.0 -0.7754 -0.4779
5403000000.0 -0.8322 0.2811
5406000000.0 -0.2742 0.8543
5409000000.0 0.4978 0.738
5412000000.0 0.8968 0.06239
5416000000.0 0.5863 -0.6144
5419000000.0 -0.1022 -0.8588
5422000000.0 -0.7339 -0.4347
5425000000.0 -0.8033 0.3101
5428000000.0 -0.2559 0.8051
5431000000.0 0.506 0.6948
5434000000.0 0.8732 0.07432
5438000000.0 0.5706 -0.6088
5441000000.0 -0.135 -0.8523
5444000000.0 -0.753 -0.4349
5447000000.0 -0.8269 0.2953
5450000000.0 -0.2767 0.8266
5453000000.0 0.4764 0.742
5456000000.0 0.8782 0.09769
5459000000.0 0.6467 -0.6227
5462000000.0 -0.05448 -0.8778
5466000000.0 -0.7621 -0.542
5469000000.0 -0.8841 0.2138
5472000000.0 -0.4133 0.8027
5475000000.0 0.3932 0.8232
5478000000.0 0.9027 0.2266
5481000000.0 0.7494 -0.5766
5484000000.0 0.06656 -0.9342
5488000000.0 -0.6935 -0.6719
5491000000.0 -0.9748 0.09111
5494000000.0 -0.5667 0.7877
5497000000.0 0.2831 0.9644
5500000000.0 0.9241 0.4056
5503000000.0 0.8538 -0.4865
5506000000.0 0.2362 -0.9581
5509000000.0 -0.6206 -0.7979
5512000000.0 -1.008 -0.0624
5516000000.0 -0.6954 0.7324
5519000000.0 0.1217 1.014
5522000000.0 0.8943 0.5724
5525000000.0 1.004 -0.3117
5528000000.0 0.4179 -0.9679
5531000000.0 -0.4423 -0.9449
5534000000.0 -1.005 -0.2754
5538000000.0 -0.8889 0.6217
5541000000.0 -0.1204 1.075
5544000000.0 0.775 0.7455
5547000000.0 1.058 -0.09254
5550000000.0 0.5864 -0.8951
5553000000.0 -0.2761 -1.039
5556000000.0 -0.9448 -0.387
5559000000.0 -0.9438 0.4333
5562000000.0 -0.2246 1.018
5566000000.0 0.6237 0.8355
5569000000.0 1.035 0.02512
5572000000.0 0.6758 -0.7744
5575000000.0 -0.1324 -1.027
5578000000.0 -0.8473 -0.5382
5581000000.0 -0.9351 0.3395
5584000000.0 -0.327 0.9148
5588000000.0 0.4969 0.8155
5591000000.0 0.967 0.1597
5594000000.0 0.7038 -0.6639
5597000000.0 -0.02779 -0.9345
5600000000.0 -0.7404 -0.5433
5603000000.0 -0.8921 0.2147
5606000000.0 -0.4242 0.8178
5609000000.0 0.383 0.7888
5612000000.0 0.8746 0.2317
5616000000.0 0.6965 -0.5043
5619000000.0 0.04224 -0.8715
5622000000.0 -0.6494 -0.576
5625000000.0 -0.8302 0.1154
5628000000.0 -0.3963 0.7367
5631000000.0 0.2997 0.7786
5634000000.0 0.7873 0.2497
5638000000.0 0.687 -0.4892
5641000000.0 0.07418 -0.823
5644000000.0 -0.6127 -0.5697
5647000000.0 -0.8297 0.1211
5650000000.0 -0.4236 0.7118
5653000000.0 0.3006 0.7539
5656000000.0 0.7985 0.2455
5659000000.0 0.7245 -0.4781
5662000000.0 0.07281 -0.8704
5666000000.0 -0.6115 -0.6211
5669000000.0 -0.8562 0.1251
5672000000.0 -0.4469 0.7595
5675000000.0 0.3038 0.8485
5678000000.0 0.8434 0.2855
5681000000.0 0.7705 -0.5018
5684000000.0 0.102 -0.9156
5688000000.0 -0.6465 -0.6518
5691000000.0 -0.9425 0.08726
5694000000.0 -0.4994 0.8038
5697000000.0 0.2888 0.9311
5700000000.0 0.8994 0.3778
5703000000.0 0.8463 -0.4641
5706000000.0 0.1559 -0.9806
5709000000.0 -0.65 -0.7646
5712000000.0 -1.03 0.01118
5716000000.0 -0.6279 0.8131
5719000000.0 0.2403 1.013
5722000000.0 0.9423 0.4834
5725000000.0 0.945 -0.4358
5728000000.0 0.2964 -1.048
5731000000.0 -0.6006 -0.8883
5734000000.0 -1.046 -0.1034
5738000000.0 -0.7495 0.7539
5741000000.0 0.1219 1.087
5744000000.0 0.9328 0.5917
5747000000.0 1.033 -0.267
5750000000.0 0.4524 -0.9721
5753000000.0 -0.466 -0.9714
5756000000.0 -1.079 -0.2789
5759000000.0 -0.8827 0.6683
5762000000.0 -0.05892 1.099
5766000000.0 0.8043 0.7331
5769000000.0 1.094 -0.1428
5772000000.0 0.614 -0.9213
5775000000.0 -0.3234 -1.077
5778000000.0 -1.014 -0.4052
5781000000.0 -0.9416 0.5175
5784000000.0 -0.263 1.067
5788000000.0 0.6694 0.845
5791000000.0 1.065 0.04536
5794000000.0 0.744 -0.7546
5797000000.0 -0.135 -1.055
5800000000.0 -0.9172 -0.5615
5803000000.0 -0.9997 0.3178
5806000000.0 -0.3736 0.9811
5809000000.0 0.5239 0.9135
5812000000.0 1.036 0.192
5816000000.0 0.783 -0.6761
5819000000.0 -0.004744 -1.019
5822000000.0 -0.7958 -0.6265
5825000000.0 -0.9908 0.2153
5828000000.0 -0.4463 0.883
5831000000.0 0.3983 0.9333
5834000000.0 0.9351 0.2597
5838000000.0 0.7664 -0.5762
5841000000.0 0.04203 -0.9842
5844000000.0 -0.7219 -0.6432
5847000000.0 -0.9573 0.1459
5850000000.0 -0.4893 0.7877
5853000000.0 0.3202 0.8843
5856000000.0 0.9169 0.2879
5859000000.0 0.7823 -0.4944
5862000000.0 0.09011 -0.933
5866000000.0 -0.6456 -0.6247
5869000000.0 -0.904 0.09856
5872000000.0 -0.4774 0.7547
5875000000.0 0.3129 0.822
5878000000.0 0.8346 0.2973
5881000000.0 0.7849 -0.4505
5884000000.0 0.09087 -0.8422
5888000000.0 -0.6177 -0.6249
5891000000.0 -0.8725 0.07403
5894000000.0 -0.4528 0.7118
5897000000.0 0.2657 0.7924
5900000000.0 0.798 0.3316
5903000000.0 0.7263 -0.4182
5906000000.0 0.1464 -0.8677
5909000000.0 -0.5652 -0.6472
5912000000.0 -0.8456 0.02423
5916000000.0 -0.5401 0.667
5919000000.0 0.1771 0.8454
5922000000.0 0.7628 0.3844
5925000000.0 0.7851 -0.3665
5928000000.0 0.2513 -0.8174
5931000000.0 -0.5042 -0.7278
5934000000.0 -0.8463 -0.07834
5938000000.0 -0.6114 0.6135
5941000000.0 0.08656 0.9104
5944000000.0 0.7389 0.5011
5947000000.0 0.8844 -0.2228
5950000000.0 0.3619 -0.8323
5953000000.0 -0.4001 -0.7917
5956000000.0 -0.908 -0.2261
5959000000.0 -0.7707 0.5385
5962000000.0 -0.04208 0.9205
5966000000.0 0.6914 0.6311
5969000000.0 0.9444 -0.1175
5972000000.0 0.4984 -0.7869
5975000000.0 -0.2673 -0.8967
5978000000.0 -0.9168 -0.3648
5981000000.0 -0.8806 0.4313
5984000000.0 -0.1996 0.9376
5988000000.0 0.5945 0.781
5991000000.0 1.007 0.04256
5994000000.0 0.6837 -0.7261
5997000000.0 -0.1377 -1.013
6000000000.0 -0.8478 -0.5047
6003000000.0 -0.9268 0.3127
6006000000.0 -0.345 0.934
6009000000.0 0.5145 0.8497
6012000000.0 0.9842 0.173
6016000000.0 0.7597 -0.6508
6019000000.0 -0.03205 -0.9886
6022000000.0 -0.7786 -0.6015
6025000000.0 -0.9646 0.2356
6028000000.0 -0.423 0.858
6031000000.0 0.3947 0.9021
6034000000.0 0.9427 0.2196
6038000000.0 0.7625 -0.5642
6041000000.0 0.04091 -0.9592
6044000000.0 -0.6791 -0.6444
6047000000.0 -0.938 0.09783
6050000000.0 -0.4867 0.7939
6053000000.0 0.3138 0.8848
6056000000.0 0.8753 0.3079
6059000000.0 0.777 -0.4911
6062000000.0 0.1071 -0.9356
6066000000.0 -0.6589 -0.6483
6069000000.0 -0.909 0.08701
6072000000.0 -0.484 0.7645
6075000000.0 0.2721 0.8608
6078000000.0 0.8217 0.3141
6081000000.0 0.7745 -0.4282
6084000000.0 0.1347 -0.8839
6088000000.0 -0.5578 -0.677
6091000000.0 -0.8584 0.005851
6094000000.0 -0.5279 0.6775
6097000000.0 0.2058 0.8015
6100000000.0 0.7839 0.3558
6103000000.0 0.7545 -0.396
6106000000.0 0.1832 -0.8294
6109000000.0 -0.5274 -0.67
6112000000.0 -0.8781 -0.02427
6116000000.0 -0.5654 0.6875
6119000000.0 0.1491 0.8446
6122000000.0 0.7625 0.3918
6125000000.0 0.7953 -0.3609
6128000000.0 0.22 -0.8164
6131000000.0 -0.5172 -0.716
6134000000.0 -0.8687 -0.002714
6138000000.0 -0.6069 0.6681
6141000000.0 0.129 0.8275
6144000000.0 0.7513 0.4388
6147000000.0 0.8346 -0.3135
6150000000.0 0.2697 -0.8256
6153000000.0 -0.4896 -0.7667
6156000000.0 -0.8468 -0.1142
6159000000.0 -0.6737 0.6338
6162000000.0 0.07355 0.8972
6166000000.0 0.7748 0.5109
6169000000.0 0.8672 -0.2283
6172000000.0 0.405 -0.8166
6175000000.0 -0.4179 -0.8105
6178000000.0 -0.9019 -0.2276
6181000000.0 -0.7321 0.6223
6184000000.0 -0.03135 0.9228
6188000000.0 0.7294 0.6066
6191000000.0 0.9326 -0.1647
6194000000.0 0.4868 -0.8276
6197000000.0 -0.348 -0.8974
6200000000.0 -0.8912 -0.277
6203000000.0 -0.7839 0.5107
6206000000.0 -0.1177 0.9092
6209000000.0 0.6569 0.6836
6212000000.0 0.9129 -0.09209
6216000000.0 0.5263 -0.7288
6219000000.0 -0.1997 -0.8852
6222000000.0 -0.8229 -0.3952
6225000000.0 -0.8104 0.3986
6228000000.0 -0.199 0.8627
6231000000.0 0.5456 0.7388
6234000000.0 0.8981 0.04927
6238000000.0 0.5904 -0.6097
6241000000.0 -0.1087 -0.8782
6244000000.0 -0.7244 -0.4536
6247000000.0 -0.8085 0.2728
6250000000.0 -0.3071 0.8179
6253000000.0 0.3972 0.7404
6256000000.0 0.8088 0.1692
6259000000.0 0.6324 -0.5083
6262000000.0 0.03739 -0.8206
6266000000.0 -0.6277 -0.553
