! Created with skrf 1.8.0 (http://scikit-rf.org).
# Hz S RI R 50.0 
!freq ReS11 ImS11
4000000000.0 -0.2 -1.483
4003000000.0 -1.295 -0.8088
4006000000.0 -1.43 0.4696
4009000000.0 -0.5446 1.413
4012000000.0 0.8046 1.301
4016000000.0 1.528 0.2116
4019000000.0 1.116 -1.102
4022000000.0 -0.1244 -1.583
4025000000.0 -1.289 -0.9148
4028000000.0 -1.5 0.4514
4031000000.0 -0.5782 1.492
4034000000.0 0.8034 1.407
4038000000.0 1.639 0.2582
4041000000.0 1.223 -1.105
4044000000.0 -0.1411 -1.632
4047000000.0 -1.358 -0.9216
4050000000.0 -1.577 0.4545
4053000000.0 -0.6182 1.481
4056000000.0 0.7663 1.423
4059000000.0 1.566 0.281
4062000000.0 1.28 -1.05
4066000000.0 0.01405 -1.623
4069000000.0 -1.252 -1.017
4072000000.0 -1.601 0.3029
4075000000.0 -0.8014 1.373
4078000000.0 0.5502 1.533
4081000000.0 1.569 0.5363
4084000000.0 1.405 -0.8789
4088000000.0 0.2239 -1.671
4091000000.0 -1.143 -1.215
4094000000.0 -1.65 0.1012
4097000000.0 -0.9642 1.35
4100000000.0 0.3793 1.601
4103000000.0 1.443 0.6962
4106000000.0 1.459 -0.6238
4109000000.0 0.4452 -1.51
4112000000.0 -0.8546 -1.287
4116000000.0 -1.533 -0.1911
4119000000.0 -1.145 1.014
4122000000.0 0.03601 1.498
4125000000.0 1.165 0.9436
4128000000.0 1.464 -0.2226
4131000000.0 0.7737 -1.257
4134000000.0 -0.4698 -1.441
4138000000.0 -1.365 -0.5741
4141000000.0 -1.344 0.6797
4144000000.0 -0.3912 1.474
4147000000.0 0.8739 1.229
4150000000.0 1.524 0.1092
4153000000.0 1.095 -1.069
4156000000.0 -0.1381 -1.531
4159000000.0 -1.256 -0.8817
4162000000.0 -1.469 0.3851
4166000000.0 -0.662 1.366
4169000000.0 0.6272 1.392
4172000000.0 1.434 0.4248
4175000000.0 1.25 -0.8439
4178000000.0 0.1165 -1.49
4181000000.0 -1.071 -1.082
4184000000.0 -1.489 0.1047
4188000000.0 -0.887 1.233
4191000000.0 0.414 1.486
4194000000.0 1.381 0.6246
4197000000.0 1.404 -0.6876
4200000000.0 0.403 -1.519
4203000000.0 -0.9571 -1.233
4206000000.0 -1.692 -0.01331
4209000000.0 -1.066 1.246
4212000000.0 0.3729 1.613
4216000000.0 1.507 0.7123
4219000000.0 1.517 -0.792
4222000000.0 0.312 -1.631
4225000000.0 -1.123 -1.224
4228000000.0 -1.699 0.1308
4231000000.0 -0.8795 1.411
4234000000.0 0.5814 1.562
4238000000.0 1.584 0.4565
4241000000.0 1.32 -0.9262
4244000000.0 0.03355 -1.631
4247000000.0 -1.255 -1.02
4250000000.0 -1.535 0.3642
4253000000.0 -0.6874 1.381
4256000000.0 0.7197 1.364
4259000000.0 1.492 0.2966
4262000000.0 1.151 -1.044
4266000000.0 -0.09228 -1.507
4269000000.0 -1.198 -0.8497
4272000000.0 -1.402 0.4864
4275000000.0 -0.4675 1.387
4278000000.0 0.7476 1.273
4281000000.0 1.406 0.1644
4284000000.0 0.9811 -0.9965
4288000000.0 -0.1938 -1.389
4291000000.0 -1.149 -0.7042
4294000000.0 -1.266 0.4312
4297000000.0 -0.4577 1.254
4300000000.0 0.6626 1.113
4303000000.0 1.305 0.2153
4306000000.0 0.9693 -0.8324
4309000000.0 0.01152 -1.307
4312000000.0 -0.9837 -0.8351
4316000000.0 -1.296 0.1936
4319000000.0 -0.6744 1.131
4322000000.0 0.4186 1.253
4325000000.0 1.22 0.4347
4328000000.0 1.171 -0.6362
4331000000.0 0.238 -1.349
4334000000.0 -0.89 -1.067
4338000000.0 -1.384 -0.001571
4341000000.0 -0.9165 1.05
4344000000.0 0.2036 1.369
4347000000.0 1.248 0.7222
4350000000.0 1.361 -0.4714
4353000000.0 0.4676 -1.371
4356000000.0 -0.7444 -1.261
4359000000.0 -1.448 -0.2029
4362000000.0 -1.067 1.011
4366000000.0 0.0432 1.473
4369000000.0 1.147 0.924
4372000000.0 1.437 -0.3216
4375000000.0 0.706 -1.339
4378000000.0 -0.5918 -1.413
4381000000.0 -1.459 -0.4485
4384000000.0 -1.262 0.8537
4388000000.0 -0.136 1.551
4391000000.0 1.113 1.122
4394000000.0 1.555 -0.1803
4397000000.0 0.832 -1.358
4400000000.0 -0.5417 -1.506
4403000000.0 -1.52 -0.5203
4406000000.0 -1.338 0.8716
4409000000.0 -0.1102 1.584
4412000000.0 1.116 1.081
4416000000.0 1.536 -0.2157
4419000000.0 0.7867 -1.326
4422000000.0 -0.5733 -1.402
4425000000.0 -1.459 -0.3843
4428000000.0 -1.214 0.8826
4431000000.0 -0.03145 1.443
4434000000.0 1.09 0.9284
4438000000.0 1.37 -0.2665
4441000000.0 0.6172 -1.27
4444000000.0 -0.5959 -1.253
4447000000.0 -1.32 -0.2615
4450000000.0 -0.9833 0.8959
4453000000.0 0.05896 1.353
4456000000.0 1.065 0.758
4459000000.0 1.248 -0.3927
4462000000.0 0.4172 -1.175
4466000000.0 -0.6679 -1.056
4469000000.0 -1.218 -0.1165
4472000000.0 -0.8327 0.8542
4475000000.0 0.1577 1.186
4478000000.0 1.011 0.5712
4481000000.0 1.092 -0.474
4484000000.0 0.318 -1.126
4488000000.0 -0.674 -0.9124
4491000000.0 -1.117 -0.05244
4494000000.0 -0.7492 0.8496
4497000000.0 0.2068 1.125
4500000000.0 0.9867 0.5504
4503000000.0 0.9941 -0.4143
4506000000.0 0.2992 -1.022
4509000000.0 -0.6407 -0.8915
4512000000.0 -1.092 -0.06856
4516000000.0 -0.7529 0.8121
4519000000.0 0.1492 1.127
4522000000.0 0.99 0.5944
4525000000.0 1.025 -0.386
4528000000.0 0.4108 -1.089
4531000000.0 -0.5935 -0.985
4534000000.0 -1.153 -0.1847
4538000000.0 -0.8611 0.779
4541000000.0 0.07146 1.195
4544000000.0 0.9317 0.7104
4547000000.0 1.17 -0.2605
4550000000.0 0.5341 -1.05
4553000000.0 -0.5127 -1.138
4556000000.0 -1.174 -0.3412
4559000000.0 -1.021 0.6782
4562000000.0 -0.1425 1.245
4566000000.0 0.865 0.9159
4569000000.0 1.272 -0.06474
4572000000.0 0.7602 -1.033
4575000000.0 -0.3221 -1.273
4578000000.0 -1.179 -0.5874
4581000000.0 -1.188 0.5373
4584000000.0 -0.3918 1.297
4588000000.0 0.7905 1.131
4591000000.0 1.36 0.1208
4594000000.0 0.9599 -0.9736
4597000000.0 -0.1367 -1.379
4600000000.0 -1.17 -0.7704
4603000000.0 -1.325 0.4343
4606000000.0 -0.5233 1.301
4609000000.0 0.6631 1.231
4612000000.0 1.376 0.2498
4616000000.0 1.08 -0.912
4619000000.0 0.00599 -1.391
4622000000.0 -1.087 -0.8946
4625000000.0 -1.361 0.2876
4628000000.0 -0.6518 1.238
4631000000.0 0.5899 1.278
4634000000.0 1.322 0.3523
4638000000.0 1.119 -0.8183
4641000000.0 0.04527 -1.395
4644000000.0 -1.042 -0.893
4647000000.0 -1.353 0.2257
4650000000.0 -0.6358 1.149
4653000000.0 0.5073 1.222
4656000000.0 1.249 0.3412
4659000000.0 1.015 -0.758
4662000000.0 0.03599 -1.281
4666000000.0 -0.9573 -0.7898
4669000000.0 -1.217 0.2234
4672000000.0 -0.5297 1.05
4675000000.0 0.4585 1.101
4678000000.0 1.14 0.3065
4681000000.0 0.9061 -0.6712
4684000000.0 0.01436 -1.141
4688000000.0 -0.8498 -0.7126
4691000000.0 -1.098 0.2377
4694000000.0 -0.5177 0.9812
4697000000.0 0.4672 1.018
4700000000.0 1.069 0.2677
4703000000.0 0.8639 -0.6558
4706000000.0 0.01303 -1.083
4709000000.0 -0.8506 -0.7078
4712000000.0 -1.063 0.2414
4716000000.0 -0.4444 0.9796
4719000000.0 0.4808 0.9691
4722000000.0 1.024 0.2281
4725000000.0 0.8199 -0.6511
4728000000.0 -0.006974 -1.057
4731000000.0 -0.8114 -0.6602
4734000000.0 -1.019 0.2127
4738000000.0 -0.4909 0.9362
4741000000.0 0.4012 0.9492
4744000000.0 0.9975 0.3201
4747000000.0 0.899 -0.5606
4750000000.0 0.1495 -1.075
4753000000.0 -0.735 -0.7777
4756000000.0 -1.097 0.03413
4759000000.0 -0.6762 0.8872
4762000000.0 0.2406 1.078
4766000000.0 1.027 0.5201
4769000000.0 1.041 -0.4918
4772000000.0 0.3385 -1.133
4775000000.0 -0.6831 -0.9784
4778000000.0 -1.191 -0.09548
4781000000.0 -0.8278 0.8539
4784000000.0 0.08877 1.203
4788000000.0 0.9998 0.7056
4791000000.0 1.191 -0.2682
4794000000.0 0.5531 -1.1
4797000000.0 -0.5 -1.141
4800000000.0 -1.22 -0.3829
4803000000.0 -1.039 0.6715
4806000000.0 -0.1596 1.247
4809000000.0 0.8858 0.9465
4812000000.0 1.304 -0.07005
4816000000.0 0.7907 -1.081
4819000000.0 -0.2932 -1.269
4822000000.0 -1.223 -0.623
4825000000.0 -1.237 0.5539
4828000000.0 -0.3508 1.334
4831000000.0 0.7804 1.121
4834000000.0 1.391 0.09913
4838000000.0 0.9364 -1.016
4841000000.0 -0.1728 -1.388
4844000000.0 -1.184 -0.7538
4847000000.0 -1.332 0.4337
4850000000.0 -0.4985 1.317
4853000000.0 0.7033 1.189
4856000000.0 1.357 0.219
4859000000.0 1.034 -0.89
4862000000.0 -0.05804 -1.369
4866000000.0 -1.095 -0.7972
4869000000.0 -1.312 0.3154
4872000000.0 -0.5497 1.186
4875000000.0 0.5835 1.179
4878000000.0 1.252 0.3047
4881000000.0 1.01 -0.7692
4884000000.0 -0.0009073 -1.255
4888000000.0 -0.9443 -0.7909
4891000000.0 -1.209 0.2342
4894000000.0 -0.5474 1.083
4897000000.0 0.4952 1.063
4900000000.0 1.096 0.2952
4903000000.0 0.909 -0.6555
4906000000.0 0.07423 -1.086
4909000000.0 -0.7881 -0.7297
4912000000.0 -1.047 0.1903
4916000000.0 -0.5319 0.8646
4919000000.0 0.3772 0.9429
4922000000.0 0.9324 0.3139
4925000000.0 0.8232 -0.5035
4928000000.0 0.1274 -0.9812
4931000000.0 -0.6493 -0.6836
4934000000.0 -0.9425 0.0754
4938000000.0 -0.5401 0.7556
4941000000.0 0.2513 0.938
4944000000.0 0.8199 0.3741
4947000000.0 0.8601 -0.4196
4950000000.0 0.2069 -0.9171
4953000000.0 -0.6 -0.7561
4956000000.0 -0.9638 -0.03481
4959000000.0 -0.621 0.7321
4962000000.0 0.1663 0.9318
4966000000.0 0.878 0.4625
4969000000.0 0.9384 -0.3779
4972000000.0 0.3045 -0.9562
4975000000.0 -0.5718 -0.8314
4978000000.0 -1.017 -0.1043
4981000000.0 -0.753 0.6984
4984000000.0 0.08589 1.058
4988000000.0 0.88 0.6
4991000000.0 1.028 -0.3094
4994000000.0 0.4317 -0.9731
4997000000.0 -0.4712 -1.014
5000000000.0 -1.104 -0.2437
5003000000.0 -0.9063 0.6849
5006000000.0 -0.06258 1.156
5009000000.0 0.8702 0.7593
5012000000.0 1.176 -0.1638
5016000000.0 0.6401 -1.037
5019000000.0 -0.4213 -1.167
5022000000.0 -1.176 -0.4283
5025000000.0 -1.098 0.6493
5028000000.0 -0.2294 1.237
5031000000.0 0.8398 0.9764
5034000000.0 1.264 -0.02771
5038000000.0 0.7789 -1.011
5041000000.0 -0.2492 -1.27
5044000000.0 -1.157 -0.6181
5047000000.0 -1.196 0.4822
5050000000.0 -0.3996 1.233
5053000000.0 0.7144 1.085
5056000000.0 1.299 0.1857
5059000000.0 0.9944 -0.882
5062000000.0 -0.04695 -1.299
5066000000.0 -1.024 -0.7624
5069000000.0 -1.256 0.2915
5072000000.0 -0.5697 1.133
5075000000.0 0.4884 1.181
5078000000.0 1.211 0.3754
5081000000.0 1.079 -0.7582
5084000000.0 0.1673 -1.249
5088000000.0 -0.8673 -0.8828
5091000000.0 -1.175 0.1219
5094000000.0 -0.7023 0.9781
5097000000.0 0.3253 1.098
5100000000.0 1.018 0.4467
5103000000.0 1.003 -0.4934
5106000000.0 0.3181 -1.068
5109000000.0 -0.6293 -0.9316
5112000000.0 -1.103 -0.1123
5116000000.0 -0.7469 0.7494
5119000000.0 0.06354 1.065
5122000000.0 0.8826 0.5914
5125000000.0 1.005 -0.2761
5128000000.0 0.4036 -0.8803
5131000000.0 -0.4415 -0.9079
5134000000.0 -0.9597 -0.2244
5138000000.0 -0.7768 0.5698
5141000000.0 -0.0276 0.9664
5144000000.0 0.7077 0.5845
5147000000.0 0.937 -0.1659
5150000000.0 0.465 -0.8131
5153000000.0 -0.308 -0.9082
5156000000.0 -0.8754 -0.2715
5159000000.0 -0.7675 0.4854
5162000000.0 -0.103 0.8822
5166000000.0 0.6531 0.642
5169000000.0 0.9139 -0.06139
5172000000.0 0.4892 -0.7419
5175000000.0 -0.2452 -0.8762
5178000000.0 -0.8224 -0.3472
5181000000.0 -0.7963 0.418
5184000000.0 -0.1392 0.9065
5188000000.0 0.6105 0.6552
5191000000.0 0.9439 -0.06832
5194000000.0 0.5526 -0.7507
5197000000.0 -0.2384 -0.8943
5200000000.0 -0.8937 -0.3348
5203000000.0 -0.8341 0.4211
5206000000.0 -0.1497 0.9224
5209000000.0 0.6279 0.7354
5212000000.0 0.9949 -0.0209
5216000000.0 0.5438 -0.7858
5219000000.0 -0.2276 -0.928
5222000000.0 -0.8975 -0.426
5225000000.0 -0.9314 0.4222
5228000000.0 -0.245 0.998
5231000000.0 0.6087 0.8192
5234000000.0 1.038 0.03359
5238000000.0 0.7031 -0.7719
5241000000.0 -0.159 -1.017
5244000000.0 -0.8896 -0.5362
5247000000.0 -1.017 0.3659
5250000000.0 -0.3876 1.013
5253000000.0 0.5743 0.9043
5256000000.0 1.072 0.1575
5259000000.0 0.8262 -0.7083
5262000000.0 -0.01103 -1.06
5266000000.0 -0.846 -0.6892
5269000000.0 -1.087 0.173
5272000000.0 -0.5384 0.9852
5275000000.0 0.3559 1.03
5278000000.0 1.036 0.3874
5281000000.0 0.9845 -0.5837
5284000000.0 0.2191 -1.092
5288000000.0 -0.6872 -0.8456
5291000000.0 -1.122 -0.04094
5294000000.0 -0.7427 0.8525
5297000000.0 0.1572 1.104
5300000000.0 0.9205 0.5996
5303000000.0 1.056 -0.3097
5306000000.0 0.4423 -1.066
5309000000.0 -0.4881 -1.028
5312000000.0 -1.092 -0.2809
5316000000.0 -0.9461 0.7128
5319000000.0 -0.0734 1.126
5322000000.0 0.8116 0.783
5325000000.0 1.121 -0.1482
5328000000.0 0.6621 -0.989
5331000000.0 -0.3031 -1.075
5334000000.0 -1.07 -0.4444
5338000000.0 -1.01 0.5287
5341000000.0 -0.2454 1.105
5344000000.0 0.729 0.8851
5347000000.0 1.123 0.01589
5350000000.0 0.7093 -0.8561
5353000000.0 -0.18 -1.094
5356000000.0 -0.9543 -0.5286
5359000000.0 -1.028 0.3937
5362000000.0 -0.3115 1.007
5366000000.0 0.6227 0.871
5369000000.0 1.08 0.0952
5372000000.0 0.727 -0.7999
5375000000.0 -0.1263 -1.028
5378000000.0 -0.8484 -0.5085
5381000000.0 -0.94 0.3824
5384000000.0 -0.2918 0.9519
5388000000.0 0.5695 0.7918
5391000000.0 0.9695 0.0591
5394000000.0 0.6527 -0.7124
5397000000.0 -0.1575 -0.9119
5400000000.0 -0.7957 -0.4428
5403000000.0 -0.8366 0.364
5406000000.0 -0.2346 0.8853
5409000000.0 0.5211 0.7328
5412000000.0 0.8672 0.05563
5416000000.0 0.5725 -0.6714
5419000000.0 -0.1416 -0.8296
5422000000.0 -0.7442 -0.4078
5425000000.0 -0.7925 0.3311
5428000000.0 -0.2356 0.831
5431000000.0 0.5005 0.7058
5434000000.0 0.8906 0.01653
5438000000.0 0.582 -0.644
5441000000.0 -0.1364 -0.9083
5444000000.0 -0.7783 -0.4336
5447000000.0 -0.8201 0.3525
5450000000.0 -0.2424 0.8547
5453000000.0 0.4758 0.756
5456000000.0 0.9073 0.07277
5459000000.0 0.6134 -0.6483
5462000000.0 -0.09621 -0.9
5466000000.0 -0.7516 -0.4758
5469000000.0 -0.8828 0.2849
5472000000.0 -0.3723 0.8814
5475000000.0 0.4149 0.8294
5478000000.0 0.8944 0.1988
5481000000.0 0.7409 -0.5703
5484000000.0 0.04704 -0.9559
5488000000.0 -0.7253 -0.6672
5491000000.0 -1.013 0.1372
5494000000.0 -0.5344 0.8534
5497000000.0 0.33 0.951
5500000000.0 0.9248 0.3499
5503000000.0 0.9334 -0.4989
5506000000.0 0.1856 -1.033
5509000000.0 -0.6263 -0.7867
5512000000.0 -1.011 -0.0452
5516000000.0 -0.6785 0.7801
5519000000.0 0.1541 1.014
5522000000.0 0.8797 0.5428
5525000000.0 0.9689 -0.3622
5528000000.0 0.4093 -0.9655
5531000000.0 -0.4786 -0.9322
5534000000.0 -1.038 -0.2383
5538000000.0 -0.8341 0.6455
5541000000.0 -0.03894 1.072
5544000000.0 0.7953 0.6979
5547000000.0 1.077 -0.1183
5550000000.0 0.5609 -0.9034
5553000000.0 -0.3265 -0.9912
5556000000.0 -0.9716 -0.4011
5559000000.0 -0.9442 0.4929
5562000000.0 -0.194 1.033
5566000000.0 0.6692 0.7985
5569000000.0 1.01 -0.004137
5572000000.0 0.6699 -0.8143
5575000000.0 -0.1866 -1.031
5578000000.0 -0.8582 -0.4813
5581000000.0 -0.9151 0.3794
5584000000.0 -0.2985 0.9379
5588000000.0 0.4932 0.8183
5591000000.0 0.9407 0.1064
5594000000.0 0.6946 -0.6414
5597000000.0 -0.04704 -0.9137
5600000000.0 -0.7526 -0.5454
5603000000.0 -0.8771 0.2576
5606000000.0 -0.3634 0.8137
5609000000.0 0.3924 0.7834
5612000000.0 0.8544 0.2012
5616000000.0 0.669 -0.544
5619000000.0 -0.00997 -0.8548
5622000000.0 -0.6732 -0.5495
5625000000.0 -0.8375 0.1591
5628000000.0 -0.396 0.751
5631000000.0 0.3349 0.7732
5634000000.0 0.8008 0.2179
5638000000.0 0.6768 -0.5017
5641000000.0 0.02265 -0.8438
5644000000.0 -0.6303 -0.5642
5647000000.0 -0.8436 0.1451
5650000000.0 -0.4068 0.75
5653000000.0 0.3405 0.7587
5656000000.0 0.8499 0.2213
5659000000.0 0.6753 -0.4976
5662000000.0 0.04224 -0.8355
5666000000.0 -0.6694 -0.5635
5669000000.0 -0.8575 0.1621
5672000000.0 -0.4375 0.7961
5675000000.0 0.3604 0.8304
5678000000.0 0.8931 0.2405
5681000000.0 0.7786 -0.5585
5684000000.0 0.06742 -0.9256
5688000000.0 -0.7006 -0.6475
5691000000.0 -0.9678 0.1743
5694000000.0 -0.5163 0.8429
5697000000.0 0.3367 0.927
5700000000.0 0.9145 0.2983
5703000000.0 0.8383 -0.5202
5706000000.0 0.1366 -1.009
5709000000.0 -0.6852 -0.7466
5712000000.0 -1.037 0.04625
5716000000.0 -0.577 0.8556
5719000000.0 0.2713 1.009
5722000000.0 0.9576 0.4339
5725000000.0 0.9611 -0.4496
5728000000.0 0.2289 -1.025
5731000000.0 -0.6642 -0.8701
5734000000.0 -1.061 -0.05244
5738000000.0 -0.7398 0.7724
5741000000.0 0.1337 1.085
5744000000.0 0.9478 0.601
5747000000.0 1.049 -0.3185
5750000000.0 0.4054 -1.044
5753000000.0 -0.4883 -1.012
5756000000.0 -1.098 -0.1848
5759000000.0 -0.8787 0.6801
5762000000.0 0.005048 1.089
5766000000.0 0.8169 0.7241
5769000000.0 1.098 -0.1787
5772000000.0 0.5526 -0.9622
5775000000.0 -0.3549 -1.029
5778000000.0 -1.049 -0.4029
5781000000.0 -0.9387 0.5536
5784000000.0 -0.1776 1.095
5788000000.0 0.7012 0.8295
5791000000.0 1.063 -0.04218
5794000000.0 0.7277 -0.8216
5797000000.0 -0.1889 -1.074
5800000000.0 -0.9349 -0.5169
5803000000.0 -0.983 0.3679
5806000000.0 -0.3265 0.9803
5809000000.0 0.5514 0.8899
5812000000.0 1.04 0.1403
5816000000.0 0.7465 -0.7195
5819000000.0 -0.07392 -1.027
5822000000.0 -0.8187 -0.6319
5825000000.0 -0.9867 0.26
5828000000.0 -0.3858 0.8948
5831000000.0 0.4527 0.8546
5834000000.0 0.9908 0.2071
5838000000.0 0.7551 -0.5879
5841000000.0 0.02386 -0.9578
5844000000.0 -0.7299 -0.5942
5847000000.0 -0.9359 0.1688
5850000000.0 -0.4369 0.8502
5853000000.0 0.3755 0.8576
5856000000.0 0.9378 0.248
5859000000.0 0.7756 -0.5453
5862000000.0 0.03774 -0.9094
5866000000.0 -0.7113 -0.5923
5869000000.0 -0.9186 0.1508
5872000000.0 -0.4365 0.7762
5875000000.0 0.3459 0.8318
5878000000.0 0.8592 0.2273
5881000000.0 0.7203 -0.5129
5884000000.0 0.04286 -0.8646
5888000000.0 -0.6716 -0.593
5891000000.0 -0.8455 0.1272
5894000000.0 -0.4637 0.7439
5897000000.0 0.2891 0.8233
5900000000.0 0.8292 0.3001
5903000000.0 0.7366 -0.4402
5906000000.0 0.1274 -0.8868
5909000000.0 -0.577 -0.6001
5912000000.0 -0.8543 0.07032
5916000000.0 -0.5043 0.7245
5919000000.0 0.2189 0.841
5922000000.0 0.8066 0.3451
5925000000.0 0.795 -0.3871
5928000000.0 0.1594 -0.8444
5931000000.0 -0.5473 -0.6913
5934000000.0 -0.891 -0.06145
5938000000.0 -0.5956 0.6559
5941000000.0 0.1467 0.8827
5944000000.0 0.7671 0.474
5947000000.0 0.8583 -0.2789
5950000000.0 0.3362 -0.85
5953000000.0 -0.4555 -0.8081
5956000000.0 -0.8939 -0.1891
5959000000.0 -0.7128 0.6022
5962000000.0 -0.008965 0.9407
5966000000.0 0.7139 0.6237
5969000000.0 0.9251 -0.1622
5972000000.0 0.4831 -0.826
5975000000.0 -0.3255 -0.9143
5978000000.0 -0.9156 -0.3185
5981000000.0 -0.8586 0.4929
5984000000.0 -0.1613 1.003
5988000000.0 0.6453 0.7701
5991000000.0 0.9894 -0.01324
5994000000.0 0.6409 -0.7725
5997000000.0 -0.2055 -0.9897
6000000000.0 -0.8851 -0.4895
6003000000.0 -0.9408 0.3728
6006000000.0 -0.2932 0.9614
6009000000.0 0.5493 0.8391
6012000000.0 1.03 0.1241
6016000000.0 0.6909 -0.6973
6019000000.0 -0.07209 -0.9966
6022000000.0 -0.8561 -0.5626
6025000000.0 -0.9454 0.2736
6028000000.0 -0.3911 0.8998
6031000000.0 0.4492 0.8683
6034000000.0 0.9878 0.1963
6038000000.0 0.7454 -0.6128
6041000000.0 -0.01316 -0.9744
6044000000.0 -0.7702 -0.6215
6047000000.0 -0.9277 0.2072
6050000000.0 -0.4357 0.8394
6053000000.0 0.372 0.8695
6056000000.0 0.8961 0.2371
6059000000.0 0.77 -0.549
6062000000.0 0.07383 -0.9485
6066000000.0 -0.6884 -0.6233
6069000000.0 -0.8794 0.1379
6072000000.0 -0.4558 0.7738
6075000000.0 0.323 0.8285
6078000000.0 0.8371 0.2613
6081000000.0 0.7244 -0.462
6084000000.0 0.09734 -0.8566
6088000000.0 -0.6063 -0.6189
6091000000.0 -0.8644 0.1072
6094000000.0 -0.4569 0.7189
6097000000.0 0.2656 0.7932
6100000000.0 0.7945 0.3056
6103000000.0 0.7419 -0.4168
6106000000.0 0.1626 -0.8599
6109000000.0 -0.5817 -0.6555
6112000000.0 -0.8596 0.07699
6116000000.0 -0.5281 0.7096
6119000000.0 0.2306 0.8323
6122000000.0 0.8151 0.3347
6125000000.0 0.7811 -0.436
6128000000.0 0.1598 -0.8507
6131000000.0 -0.5612 -0.6517
6134000000.0 -0.8693 0.008231
6138000000.0 -0.5266 0.7103
6141000000.0 0.1914 0.8518
6144000000.0 0.813 0.431
6147000000.0 0.8239 -0.366
6150000000.0 0.212 -0.8831
6153000000.0 -0.5408 -0.7561
6156000000.0 -0.9201 -0.03912
6159000000.0 -0.6577 0.6491
6162000000.0 0.1054 0.8988
6166000000.0 0.803 0.4755
6169000000.0 0.8694 -0.3128
6172000000.0 0.3157 -0.905
6175000000.0 -0.4903 -0.8209
6178000000.0 -0.9447 -0.1161
6181000000.0 -0.7072 0.6777
6184000000.0 0.05348 0.9584
6188000000.0 0.7491 0.5703
6191000000.0 0.9123 -0.2325
6194000000.0 0.3963 -0.884
6197000000.0 -0.4091 -0.8251
6200000000.0 -0.8921 -0.212
6203000000.0 -0.7472 0.5801
6206000000.0 -0.02844 0.9668
6209000000.0 0.6949 0.6228
6212000000.0 0.9213 -0.1514
6216000000.0 0.4609 -0.8069
6219000000.0 -0.2888 -0.8958
6222000000.0 -0.8453 -0.3178
6225000000.0 -0.7867 0.4309
6228000000.0 -0.1312 0.9076
6231000000.0 0.5644 0.7048
6234000000.0 0.9099 0.001635
6238000000.0 0.5708 -0.6945
6241000000.0 -0.1743 -0.8973
6244000000.0 -0.7755 -0.4154
6247000000.0 -0.8127 0.3418
6250000000.0 -0.2504 0.794
6253000000.0 0.4753 0.7044
6256000000.0 0.8306 0.1178
6259000000.0 0.6418 -0.5732
6262000000.0 -0.04647 -0.8112
6266000000.0 -0.6139 -0.5062
6269000000.0 -0.8133 0.1763
