! Created with skrf 1.8.0 (http://scikit-rf.org).
# Hz S RI R 50.0 
!freq ReS11 ImS11
4000000000.0 0.288 -1.488
4003000000.0 -0.9192 -1.161
4006000000.0 -1.519 -0.00788
4009000000.0 -0.918 1.157
4012000000.0 0.318 1.467
4016000000.0 1.343 0.6553
4019000000.0 1.396 -0.6551
4022000000.0 0.3879 -1.455
4025000000.0 -0.9386 -1.186
4028000000.0 -1.531 0.02303
4031000000.0 -0.977 1.239
4034000000.0 0.3442 1.531
4038000000.0 1.451 0.6936
4041000000.0 1.447 -0.641
4044000000.0 0.3789 -1.513
4047000000.0 -0.9804 -1.263
4050000000.0 -1.596 0.06445
4053000000.0 -0.9698 1.204
4056000000.0 0.265 1.535
4059000000.0 1.364 0.7838
4062000000.0 1.491 -0.5708
4066000000.0 0.5037 -1.537
4069000000.0 -0.8875 -1.33
4072000000.0 -1.558 -0.1887
4075000000.0 -1.104 1.166
4078000000.0 0.1277 1.682
4081000000.0 1.287 0.9253
4084000000.0 1.554 -0.4108
4088000000.0 0.6837 -1.535
4091000000.0 -0.783 -1.479
4094000000.0 -1.635 -0.357
4097000000.0 -1.264 0.9899
4100000000.0 -0.006066 1.648
4103000000.0 1.211 1.058
4106000000.0 1.619 -0.2575
4109000000.0 0.8037 -1.35
4112000000.0 -0.509 -1.491
4116000000.0 -1.426 -0.5807
4119000000.0 -1.386 0.7019
4122000000.0 -0.3387 1.46
4125000000.0 0.8691 1.253
4128000000.0 1.476 0.1667
4131000000.0 1.096 -1.032
4134000000.0 -0.09672 -1.513
4138000000.0 -1.211 -0.9456
4141000000.0 -1.484 0.293
4144000000.0 -0.7457 1.337
4147000000.0 0.5003 1.44
4150000000.0 1.442 0.5479
4153000000.0 1.32 -0.7876
4156000000.0 0.2679 -1.534
4159000000.0 -0.9703 -1.171
4162000000.0 -1.546 -0.03865
4166000000.0 -0.9772 1.148
4169000000.0 0.2193 1.514
4172000000.0 1.252 0.8211
4175000000.0 1.441 -0.4389
4178000000.0 0.6104 -1.398
4181000000.0 -0.6684 -1.355
4184000000.0 -1.473 -0.3233
4188000000.0 -1.262 0.8717
4191000000.0 -0.122 1.533
4194000000.0 1.104 1.062
4197000000.0 1.548 -0.1307
4200000000.0 0.9246 -1.31
4203000000.0 -0.4141 -1.541
4206000000.0 -1.485 -0.6321
4209000000.0 -1.441 0.765
4212000000.0 -0.3058 1.663
4216000000.0 1.074 1.313
4219000000.0 1.706 -0.01326
4222000000.0 1.0 -1.376
4225000000.0 -0.4279 -1.65
4228000000.0 -1.566 -0.6684
4231000000.0 -1.507 0.8332
4234000000.0 -0.116 1.697
4238000000.0 1.174 1.233
4241000000.0 1.704 -0.1436
4244000000.0 0.896 -1.444
4247000000.0 -0.5928 -1.567
4250000000.0 -1.58 -0.5034
4253000000.0 -1.361 0.9255
4256000000.0 -0.1064 1.633
4259000000.0 1.227 1.099
4262000000.0 1.629 -0.3002
4266000000.0 0.7181 -1.441
4269000000.0 -0.6837 -1.437
4272000000.0 -1.541 -0.3389
4275000000.0 -1.191 1.006
4278000000.0 0.1484 1.568
4281000000.0 1.328 0.7194
4284000000.0 1.407 -0.4739
4288000000.0 0.5387 -1.367
4291000000.0 -0.7105 -1.223
4294000000.0 -1.405 -0.2015
4297000000.0 -0.94 0.9591
4300000000.0 0.1052 1.351
4303000000.0 1.104 0.7713
4306000000.0 1.281 -0.3378
4309000000.0 0.5427 -1.172
4312000000.0 -0.5358 -1.213
4316000000.0 -1.24 -0.3467
4319000000.0 -1.083 0.7508
4322000000.0 -0.1118 1.309
4325000000.0 0.9245 0.9557
4328000000.0 1.286 -0.1475
4331000000.0 0.7593 -1.113
4334000000.0 -0.365 -1.291
4338000000.0 -1.244 -0.5613
4341000000.0 -1.228 0.5947
4344000000.0 -0.325 1.363
4347000000.0 0.8476 1.135
4350000000.0 1.397 0.1211
4353000000.0 0.9655 -0.9939
4356000000.0 -0.1799 -1.385
4359000000.0 -1.206 -0.7654
4362000000.0 -1.374 0.4021
4366000000.0 -0.5551 1.313
4369000000.0 0.6316 1.278
4372000000.0 1.388 0.3185
4375000000.0 1.12 -0.8979
4378000000.0 0.05411 -1.486
4381000000.0 -1.03 -1.013
4384000000.0 -1.507 0.1628
4388000000.0 -0.7417 1.29
4391000000.0 0.4907 1.444
4394000000.0 1.401 0.5934
4397000000.0 1.373 -0.7115
4400000000.0 0.3286 -1.557
4403000000.0 -0.9979 -1.2
4406000000.0 -1.575 0.01743
4409000000.0 -0.964 1.293
4412000000.0 0.3498 1.555
4416000000.0 1.418 0.6757
4419000000.0 1.417 -0.6458
4422000000.0 0.3879 -1.532
4425000000.0 -0.9356 -1.251
4428000000.0 -1.56 -0.02953
4431000000.0 -0.9572 1.171
4434000000.0 0.2714 1.507
4438000000.0 1.379 0.7246
4441000000.0 1.361 -0.6219
4444000000.0 0.3586 -1.46
4447000000.0 -0.9283 -1.175
4450000000.0 -1.438 0.01627
4453000000.0 -0.8872 1.175
4456000000.0 0.3364 1.4
4459000000.0 1.314 0.6027
4462000000.0 1.263 -0.6713
4466000000.0 0.1853 -1.38
4469000000.0 -0.8946 -0.9745
4472000000.0 -1.301 0.09327
4475000000.0 -0.7132 1.107
4478000000.0 0.4459 1.217
4481000000.0 1.198 0.3621
4484000000.0 1.027 -0.6865
4488000000.0 0.07537 -1.201
4491000000.0 -0.8776 -0.7638
4494000000.0 -1.159 0.2125
4497000000.0 -0.5608 1.023
4500000000.0 0.4277 1.059
4503000000.0 1.038 0.2825
4506000000.0 0.8872 -0.6455
4509000000.0 0.02785 -1.056
4512000000.0 -0.8519 -0.6974
4516000000.0 -1.056 0.2211
4519000000.0 -0.3912 1.011
4522000000.0 0.4738 0.9901
4525000000.0 1.035 0.2535
4528000000.0 0.8543 -0.6511
4531000000.0 0.03279 -1.07
4534000000.0 -0.8271 -0.6855
4538000000.0 -1.094 0.1922
4541000000.0 -0.5374 0.9603
4544000000.0 0.4053 1.018
4547000000.0 1.069 0.3515
4550000000.0 0.9006 -0.6405
4553000000.0 0.1292 -1.125
4556000000.0 -0.8019 -0.8183
4559000000.0 -1.15 0.07978
4562000000.0 -0.6781 0.9138
4566000000.0 0.2752 1.148
4569000000.0 1.061 0.4975
4572000000.0 1.091 -0.4962
4575000000.0 0.311 -1.167
4578000000.0 -0.7101 -0.9903
4581000000.0 -1.244 -0.0305
4584000000.0 -0.8267 0.919
4588000000.0 0.1316 1.261
4591000000.0 1.051 0.7244
4594000000.0 1.245 -0.357
4597000000.0 0.5089 -1.193
4600000000.0 -0.5994 -1.173
4603000000.0 -1.309 -0.2756
4606000000.0 -1.063 0.7958
4609000000.0 0.06478 1.349
4612000000.0 1.035 0.8717
4616000000.0 1.325 -0.2356
4619000000.0 0.6828 -1.184
4622000000.0 -0.4747 -1.297
4625000000.0 -1.281 -0.4552
4628000000.0 -1.157 0.7131
4631000000.0 -0.2127 1.385
4634000000.0 0.9421 1.038
4638000000.0 1.363 -0.1996
4641000000.0 0.842 -1.136
4644000000.0 -0.3551 -1.349
4647000000.0 -1.259 -0.5285
4650000000.0 -1.189 0.6595
4653000000.0 -0.2456 1.352
4656000000.0 0.8982 0.9997
4659000000.0 1.372 -0.03753
4662000000.0 0.7679 -1.079
4666000000.0 -0.3252 -1.293
4669000000.0 -1.173 -0.5279
4672000000.0 -1.142 0.601
4675000000.0 -0.2563 1.234
4678000000.0 0.7931 0.9446
4681000000.0 1.248 -0.04354
4684000000.0 0.7105 -0.949
4688000000.0 -0.3159 -1.148
4691000000.0 -1.089 -0.4602
4694000000.0 -1.055 0.5681
4697000000.0 -0.1849 1.196
4700000000.0 0.7708 0.8489
4703000000.0 1.117 -0.06225
4706000000.0 0.6526 -0.9013
4709000000.0 -0.3743 -1.08
4712000000.0 -1.006 -0.3783
4716000000.0 -0.9218 0.5917
4719000000.0 -0.1117 1.06
4722000000.0 0.7782 0.7046
4725000000.0 1.05 -0.1534
4728000000.0 0.5112 -0.8888
4731000000.0 -0.3687 -0.9557
4734000000.0 -0.9471 -0.2742
4738000000.0 -0.8581 0.5278
4741000000.0 -0.124 1.039
4744000000.0 0.7077 0.7324
4747000000.0 1.012 -0.06298
4750000000.0 0.5475 -0.8305
4753000000.0 -0.3093 -0.9824
4756000000.0 -0.9321 -0.3773
4759000000.0 -0.9008 0.4903
4762000000.0 -0.2096 1.012
4766000000.0 0.6582 0.8088
4769000000.0 1.016 -0.01706
4772000000.0 0.62 -0.8323
4775000000.0 -0.2046 -1.045
4778000000.0 -0.9951 -0.5095
4781000000.0 -1.016 0.4199
4784000000.0 -0.3515 1.025
4788000000.0 0.5796 0.9159
4791000000.0 1.114 0.1732
4794000000.0 0.8231 -0.7876
4797000000.0 -0.03937 -1.161
4800000000.0 -0.9148 -0.7176
4803000000.0 -1.106 0.2454
4806000000.0 -0.5634 1.026
4809000000.0 0.4667 1.108
4812000000.0 1.131 0.3878
4816000000.0 1.036 -0.6419
4819000000.0 0.1673 -1.233
4822000000.0 -0.8526 -0.9329
4825000000.0 -1.279 0.05791
4828000000.0 -0.7883 1.015
4831000000.0 0.2883 1.269
4834000000.0 1.217 0.6147
4838000000.0 1.212 -0.5425
4841000000.0 0.3597 -1.29
4844000000.0 -0.7653 -1.122
4847000000.0 -1.36 -0.0979
4850000000.0 -0.9348 0.9988
4853000000.0 0.1659 1.377
4856000000.0 1.155 0.7415
4859000000.0 1.321 -0.4248
4862000000.0 0.5027 -1.286
4866000000.0 -0.6787 -1.211
4869000000.0 -1.359 -0.2128
4872000000.0 -1.01 0.9196
4875000000.0 0.09014 1.362
4878000000.0 1.062 0.8117
4881000000.0 1.288 -0.3402
4884000000.0 0.5262 -1.206
4888000000.0 -0.6095 -1.167
4891000000.0 -1.278 -0.2205
4894000000.0 -0.9232 0.8467
4897000000.0 0.05663 1.247
4900000000.0 0.9672 0.7671
4903000000.0 1.188 -0.2552
4906000000.0 0.5326 -1.01
4909000000.0 -0.4919 -1.044
4912000000.0 -1.061 -0.2542
4916000000.0 -0.8808 0.6403
4919000000.0 -0.0346 1.107
4922000000.0 0.8146 0.7043
4925000000.0 0.9927 -0.1794
4928000000.0 0.4286 -0.8943
4931000000.0 -0.3673 -0.9338
4934000000.0 -0.9273 -0.3214
4938000000.0 -0.7956 0.4933
4941000000.0 -0.1018 0.95
4944000000.0 0.6704 0.6801
4947000000.0 0.9227 -0.08898
4950000000.0 0.5312 -0.7858
4953000000.0 -0.272 -0.9001
4956000000.0 -0.8859 -0.383
4959000000.0 -0.8229 0.4554
4962000000.0 -0.1881 0.9426
4966000000.0 0.6456 0.6944
4969000000.0 0.9337 -0.03273
4972000000.0 0.5978 -0.7599
4975000000.0 -0.2431 -0.938
4978000000.0 -0.8751 -0.4117
4981000000.0 -0.8793 0.4098
4984000000.0 -0.283 0.9594
4988000000.0 0.5892 0.7999
4991000000.0 1.016 0.08277
4994000000.0 0.7061 -0.7554
4997000000.0 -0.1285 -0.9999
5000000000.0 -0.8722 -0.5697
5003000000.0 -1.026 0.326
5006000000.0 -0.3623 1.048
5009000000.0 0.5471 0.9928
5012000000.0 1.115 0.2377
5016000000.0 0.8889 -0.7545
5019000000.0 -0.006298 -1.179
5022000000.0 -0.9397 -0.7278
5025000000.0 -1.189 0.2602
5028000000.0 -0.5514 1.071
5031000000.0 0.5255 1.116
5034000000.0 1.209 0.3659
5038000000.0 1.032 -0.7012
5041000000.0 0.123 -1.255
5044000000.0 -0.8773 -0.888
5047000000.0 -1.265 0.1009
5050000000.0 -0.724 1.046
5053000000.0 0.3035 1.242
5056000000.0 1.156 0.5399
5059000000.0 1.181 -0.5208
5062000000.0 0.3488 -1.245
5066000000.0 -0.7317 -1.07
5069000000.0 -1.297 -0.09364
5072000000.0 -0.9105 0.9501
5075000000.0 0.1584 1.297
5078000000.0 1.062 0.6902
5081000000.0 1.216 -0.4032
5084000000.0 0.4755 -1.193
5088000000.0 -0.6021 -1.122
5091000000.0 -1.242 -0.2275
5094000000.0 -0.952 0.7553
5097000000.0 -0.03128 1.21
5100000000.0 0.9191 0.8122
5103000000.0 1.185 -0.141
5106000000.0 0.5964 -0.9951
5109000000.0 -0.3356 -1.077
5112000000.0 -1.058 -0.4435
5116000000.0 -0.9896 0.5074
5119000000.0 -0.2254 1.052
5122000000.0 0.6644 0.8764
5125000000.0 1.092 0.01833
5128000000.0 0.744 -0.8217
5131000000.0 -0.1399 -1.046
5134000000.0 -0.8851 -0.5528
5138000000.0 -0.9596 0.3374
5141000000.0 -0.328 0.9472
5144000000.0 0.477 0.8701
5147000000.0 0.9776 0.1658
5150000000.0 0.7507 -0.6045
5153000000.0 -0.03269 -0.9548
5156000000.0 -0.7445 -0.6027
5159000000.0 -0.9025 0.2017
5162000000.0 -0.4411 0.8316
5166000000.0 0.3457 0.8338
5169000000.0 0.894 0.2738
5172000000.0 0.7884 -0.5196
5175000000.0 0.08531 -0.9024
5178000000.0 -0.6151 -0.6393
5181000000.0 -0.8994 0.1357
5184000000.0 -0.486 0.79
5188000000.0 0.3126 0.8505
5191000000.0 0.8826 0.2795
5194000000.0 0.8099 -0.4995
5197000000.0 0.09235 -0.9169
5200000000.0 -0.6811 -0.6648
5203000000.0 -0.9182 0.1319
5206000000.0 -0.4938 0.7949
5209000000.0 0.325 0.8884
5212000000.0 0.8983 0.3007
5216000000.0 0.8067 -0.4935
5219000000.0 0.09735 -0.9561
5222000000.0 -0.6857 -0.6767
5225000000.0 -0.9548 0.09086
5228000000.0 -0.5343 0.813
5231000000.0 0.3051 0.9625
5234000000.0 0.9066 0.3625
5238000000.0 0.9021 -0.4825
5241000000.0 0.1608 -1.02
5244000000.0 -0.678 -0.7909
5247000000.0 -1.016 0.0602
5250000000.0 -0.618 0.8272
5253000000.0 0.2292 1.019
5256000000.0 0.9566 0.479
5259000000.0 0.9815 -0.4205
5262000000.0 0.2839 -1.032
5266000000.0 -0.6121 -0.9042
5269000000.0 -1.07 -0.0928
5272000000.0 -0.7627 0.756
5275000000.0 0.05608 1.08
5278000000.0 0.899 0.6153
5281000000.0 1.039 -0.2211
5284000000.0 0.4948 -0.9643
5288000000.0 -0.4238 -1.029
5291000000.0 -1.04 -0.3101
5294000000.0 -0.9424 0.6084
5297000000.0 -0.1561 1.107
5300000000.0 0.746 0.8323
5303000000.0 1.126 -0.0007052
5306000000.0 0.71 -0.8806
5309000000.0 -0.1965 -1.137
5312000000.0 -0.9928 -0.544
5316000000.0 -1.075 0.3808
5319000000.0 -0.3953 1.091
5322000000.0 0.5631 1.002
5325000000.0 1.143 0.1953
5328000000.0 0.8832 -0.7438
5331000000.0 0.0002956 -1.178
5334000000.0 -0.889 -0.7566
5338000000.0 -1.157 0.2112
5341000000.0 -0.5462 1.007
5344000000.0 0.3912 1.082
5347000000.0 1.071 0.3615
5350000000.0 1.012 -0.5721
5353000000.0 0.1897 -1.123
5356000000.0 -0.7539 -0.8567
5359000000.0 -1.118 0.02855
5362000000.0 -0.7216 0.8817
5366000000.0 0.2346 1.063
5369000000.0 1.019 0.4889
5372000000.0 0.977 -0.4342
5375000000.0 0.2651 -1.037
5378000000.0 -0.6435 -0.8587
5381000000.0 -1.069 -0.04582
5384000000.0 -0.6803 0.7882
5388000000.0 0.2027 1.006
5391000000.0 0.8996 0.4838
5394000000.0 0.9294 -0.4046
5397000000.0 0.2434 -0.9711
5400000000.0 -0.5838 -0.7757
5403000000.0 -0.9369 -0.02923
5406000000.0 -0.6051 0.7205
5409000000.0 0.1844 0.8943
5412000000.0 0.843 0.4357
5416000000.0 0.8244 -0.3533
5419000000.0 0.2185 -0.8523
5422000000.0 -0.5614 -0.7214
5425000000.0 -0.8708 0.0005368
5428000000.0 -0.5701 0.7004
5431000000.0 0.1898 0.859
5434000000.0 0.825 0.4231
5438000000.0 0.8066 -0.3719
5441000000.0 0.1811 -0.8643
5444000000.0 -0.5505 -0.6635
5447000000.0 -0.8628 -0.006918
5450000000.0 -0.5214 0.6861
5453000000.0 0.1725 0.8759
5456000000.0 0.7819 0.3785
5459000000.0 0.8075 -0.3532
5462000000.0 0.1942 -0.8562
5466000000.0 -0.528 -0.7043
5469000000.0 -0.874 -0.02603
5472000000.0 -0.6068 0.6726
5475000000.0 0.1243 0.9083
5478000000.0 0.7794 0.4705
5481000000.0 0.8619 -0.2882
5484000000.0 0.3469 -0.8725
5488000000.0 -0.4213 -0.7886
5491000000.0 -0.9027 -0.1504
5494000000.0 -0.7195 0.6265
5497000000.0 -0.01316 0.9704
5500000000.0 0.7439 0.5914
5503000000.0 0.9555 -0.2065
5506000000.0 0.4795 -0.8487
5509000000.0 -0.358 -0.9257
5512000000.0 -0.9428 -0.3206
5516000000.0 -0.873 0.5139
5519000000.0 -0.1715 1.004
5522000000.0 0.6088 0.7676
5525000000.0 1.011 -0.02508
5528000000.0 0.6811 -0.7547
5531000000.0 -0.1722 -1.016
5534000000.0 -0.8873 -0.5464
5538000000.0 -0.973 0.3769
5541000000.0 -0.3644 0.9831
5544000000.0 0.5343 0.927
5547000000.0 1.05 0.2293
5550000000.0 0.8445 -0.6609
5553000000.0 0.04165 -1.044
5556000000.0 -0.8057 -0.6832
5559000000.0 -1.059 0.1604
5562000000.0 -0.5546 0.9413
5566000000.0 0.3337 1.002
5569000000.0 0.9941 0.3559
5572000000.0 0.9411 -0.5382
5575000000.0 0.159 -1.023
5578000000.0 -0.6454 -0.7859
5581000000.0 -1.035 0.02872
5584000000.0 -0.6594 0.7613
5588000000.0 0.1888 0.9932
5591000000.0 0.8977 0.4558
5594000000.0 0.9171 -0.3674
5597000000.0 0.3543 -0.9193
5600000000.0 -0.5006 -0.8235
5603000000.0 -0.9493 -0.1224
5606000000.0 -0.681 0.6513
5609000000.0 0.07612 0.9503
5612000000.0 0.7558 0.5464
5616000000.0 0.8872 -0.2334
5619000000.0 0.3218 -0.812
5622000000.0 -0.4386 -0.7805
5625000000.0 -0.88 -0.1915
5628000000.0 -0.7 0.5495
5631000000.0 -0.01822 0.9066
5634000000.0 0.6646 0.5531
5638000000.0 0.8503 -0.1787
5641000000.0 0.3828 -0.7717
5644000000.0 -0.3644 -0.7783
5647000000.0 -0.8474 -0.2125
5650000000.0 -0.6783 0.5209
5653000000.0 -0.03758 0.8777
5656000000.0 0.6908 0.5102
5659000000.0 0.854 -0.1544
5662000000.0 0.3938 -0.7588
5666000000.0 -0.3606 -0.7838
5669000000.0 -0.8587 -0.2234
5672000000.0 -0.7253 0.5399
5675000000.0 -0.04773 0.9147
5678000000.0 0.7161 0.5783
5681000000.0 0.8752 -0.1822
5684000000.0 0.4033 -0.7951
5688000000.0 -0.3603 -0.8305
5691000000.0 -0.9119 -0.2307
5694000000.0 -0.7425 0.5822
5697000000.0 -0.01553 0.9823
5700000000.0 0.7241 0.6002
5703000000.0 0.9362 -0.179
5706000000.0 0.4396 -0.8466
5709000000.0 -0.4073 -0.9229
5712000000.0 -0.9617 -0.2917
5716000000.0 -0.8451 0.5813
5719000000.0 -0.09267 1.009
5722000000.0 0.738 0.7098
5725000000.0 1.044 -0.1146
5728000000.0 0.5547 -0.8634
5731000000.0 -0.3161 -1.001
5734000000.0 -0.967 -0.3746
5738000000.0 -0.9269 0.5045
5741000000.0 -0.232 1.041
5744000000.0 0.6876 0.8429
5747000000.0 1.071 -0.002298
5750000000.0 0.6925 -0.7935
5753000000.0 -0.1576 -1.098
5756000000.0 -0.9694 -0.5348
5759000000.0 -1.04 0.3734
5762000000.0 -0.3631 1.007
5766000000.0 0.5296 0.9226
5769000000.0 1.083 0.181
5772000000.0 0.792 -0.6678
5775000000.0 -0.004024 -1.075
5778000000.0 -0.8233 -0.673
5781000000.0 -1.066 0.2338
5784000000.0 -0.544 0.9548
5788000000.0 0.3928 1.016
5791000000.0 1.032 0.3578
5794000000.0 0.9521 -0.552
5797000000.0 0.1731 -1.065
5800000000.0 -0.7076 -0.8022
5803000000.0 -1.095 0.03369
5806000000.0 -0.6533 0.8734
5809000000.0 0.2241 1.04
5812000000.0 0.9564 0.4771
5816000000.0 0.9892 -0.4034
5819000000.0 0.3164 -1.014
5822000000.0 -0.5749 -0.8535
5825000000.0 -1.048 -0.115
5828000000.0 -0.7171 0.7245
5831000000.0 0.09611 1.023
5834000000.0 0.8205 0.5613
5838000000.0 0.9685 -0.2794
5841000000.0 0.3953 -0.9236
5844000000.0 -0.4499 -0.8665
5847000000.0 -0.9589 -0.1743
5850000000.0 -0.7493 0.6205
5853000000.0 0.02164 0.9519
5856000000.0 0.7648 0.5865
5859000000.0 0.9192 -0.1977
5862000000.0 0.4461 -0.8447
5866000000.0 -0.4265 -0.855
5869000000.0 -0.9064 -0.2114
5872000000.0 -0.7165 0.5551
5875000000.0 -0.008797 0.9125
5878000000.0 0.691 0.593
5881000000.0 0.8607 -0.192
5884000000.0 0.4437 -0.7671
5888000000.0 -0.3859 -0.8452
5891000000.0 -0.8476 -0.2517
5894000000.0 -0.7316 0.5047
5897000000.0 -0.05621 0.8645
5900000000.0 0.6138 0.5684
5903000000.0 0.8482 -0.1251
5906000000.0 0.4219 -0.76
5909000000.0 -0.2986 -0.8298
5912000000.0 -0.8234 -0.2733
5916000000.0 -0.6941 0.4378
5919000000.0 -0.08279 0.8567
5922000000.0 0.6124 0.6174
5925000000.0 0.8278 -0.07184
5928000000.0 0.5219 -0.724
5931000000.0 -0.2313 -0.8254
5934000000.0 -0.7829 -0.3823
5938000000.0 -0.7841 0.4245
5941000000.0 -0.1872 0.8182
5944000000.0 0.5304 0.6693
5947000000.0 0.8823 0.02085
5950000000.0 0.5608 -0.6385
5953000000.0 -0.1259 -0.8699
5956000000.0 -0.7461 -0.4503
5959000000.0 -0.8548 0.2966
5962000000.0 -0.3311 0.8525
5966000000.0 0.4538 0.8264
5969000000.0 0.8436 0.1899
5972000000.0 0.7146 -0.5941
5975000000.0 0.023 -0.9344
5978000000.0 -0.7083 -0.616
5981000000.0 -0.9445 0.187
5984000000.0 -0.4899 0.8278
5988000000.0 0.3118 0.9087
5991000000.0 0.9437 0.3445
5994000000.0 0.8407 -0.4872
5997000000.0 0.1663 -0.9888
6000000000.0 -0.6221 -0.7703
6003000000.0 -0.9719 0.0253
6006000000.0 -0.6186 0.7609
6009000000.0 0.2184 0.9898
6012000000.0 0.8646 0.4465
6016000000.0 0.9185 -0.3467
6019000000.0 0.292 -0.9702
6022000000.0 -0.5137 -0.8371
6025000000.0 -0.9807 -0.1151
6028000000.0 -0.7246 0.6754
6031000000.0 0.05473 0.9795
6034000000.0 0.8328 0.5955
6038000000.0 0.9393 -0.2785
6041000000.0 0.3918 -0.8857
6044000000.0 -0.4565 -0.8818
6047000000.0 -0.9184 -0.188
6050000000.0 -0.7714 0.6002
6053000000.0 -0.02873 0.9698
6056000000.0 0.7186 0.612
6059000000.0 0.9521 -0.1783
6062000000.0 0.458 -0.8416
6066000000.0 -0.3883 -0.877
6069000000.0 -0.9149 -0.2664
6072000000.0 -0.738 0.5203
6075000000.0 -0.04061 0.9177
6078000000.0 0.6589 0.6132
6081000000.0 0.9053 -0.1556
6084000000.0 0.4667 -0.7723
6088000000.0 -0.3191 -0.8442
6091000000.0 -0.849 -0.2896
6094000000.0 -0.7431 0.4923
6097000000.0 -0.09799 0.8952
6100000000.0 0.6143 0.613
6103000000.0 0.8662 -0.09868
6106000000.0 0.4563 -0.7168
6109000000.0 -0.2681 -0.8079
6112000000.0 -0.7879 -0.3186
6116000000.0 -0.7307 0.4357
6119000000.0 -0.08624 0.8536
6122000000.0 0.5742 0.6502
6125000000.0 0.8516 -0.0639
6128000000.0 0.4958 -0.7205
6131000000.0 -0.2102 -0.8237
6134000000.0 -0.7851 -0.3231
6138000000.0 -0.7571 0.4067
6141000000.0 -0.1563 0.8509
6144000000.0 0.5469 0.6654
6147000000.0 0.8627 -0.003406
6150000000.0 0.5139 -0.6618
6153000000.0 -0.1954 -0.8478
6156000000.0 -0.7609 -0.3921
6159000000.0 -0.7934 0.3443
6162000000.0 -0.2551 0.8295
6166000000.0 0.4977 0.7149
6169000000.0 0.8913 0.05465
6172000000.0 0.6135 -0.6558
6175000000.0 -0.09795 -0.9201
6178000000.0 -0.7834 -0.4657
6181000000.0 -0.8475 0.3029
6184000000.0 -0.3025 0.8416
6188000000.0 0.4136 0.8079
6191000000.0 0.9285 0.1371
6194000000.0 0.6715 -0.6255
6197000000.0 -0.08796 -0.885
6200000000.0 -0.7706 -0.5339
6203000000.0 -0.8749 0.2272
6206000000.0 -0.3892 0.8412
6209000000.0 0.4067 0.8302
6212000000.0 0.8645 0.2079
6216000000.0 0.6987 -0.5271
6219000000.0 0.07053 -0.9168
6222000000.0 -0.6686 -0.6409
6225000000.0 -0.9066 0.1465
6228000000.0 -0.4768 0.775
6231000000.0 0.301 0.8618
6234000000.0 0.7973 0.3345
6238000000.0 0.7996 -0.4616
6241000000.0 0.146 -0.8529
6244000000.0 -0.5541 -0.6621
6247000000.0 -0.8629 -0.01003
6250000000.0 -0.5651 0.6805
6253000000.0 0.1924 0.8314
6256000000.0 0.6975 0.404
6259000000.0 0.778 -0.3055
6262000000.0 0.258 -0.7897
