! Created with skrf 1.8.0 (http://scikit-rf.org).
# Hz S RI R 50.0 
!freq ReS11 ImS11
4000000000.0 -0.1906 -1.485
4003000000.0 -1.289 -0.7779
4006000000.0 -1.382 0.513
4009000000.0 -0.4851 1.432
4012000000.0 0.8303 1.302
4016000000.0 1.506 0.1929
4019000000.0 1.12 -1.029
4022000000.0 -0.1263 -1.55
4025000000.0 -1.347 -0.8418
4028000000.0 -1.547 0.4621
4031000000.0 -0.5576 1.5
4034000000.0 0.823 1.364
4038000000.0 1.639 0.2177
4041000000.0 1.201 -1.155
4044000000.0 -0.1565 -1.619
4047000000.0 -1.358 -0.8439
4050000000.0 -1.555 0.5112
4053000000.0 -0.6019 1.492
4056000000.0 0.7907 1.472
4059000000.0 1.599 0.2943
4062000000.0 1.222 -1.045
4066000000.0 0.006763 -1.587
4069000000.0 -1.27 -1.022
4072000000.0 -1.592 0.3092
4075000000.0 -0.8036 1.427
4078000000.0 0.6069 1.491
4081000000.0 1.572 0.5406
4084000000.0 1.422 -0.8778
4088000000.0 0.232 -1.611
4091000000.0 -1.095 -1.201
4094000000.0 -1.639 0.09714
4097000000.0 -0.944 1.315
4100000000.0 0.4023 1.524
4103000000.0 1.466 0.6802
4106000000.0 1.477 -0.6821
4109000000.0 0.3896 -1.494
4112000000.0 -0.862 -1.26
4116000000.0 -1.5 -0.1358
4119000000.0 -1.076 1.016
4122000000.0 0.08108 1.484
4125000000.0 1.143 0.898
4128000000.0 1.47 -0.2774
4131000000.0 0.7371 -1.264
4134000000.0 -0.4707 -1.391
4138000000.0 -1.367 -0.5647
4141000000.0 -1.322 0.669
4144000000.0 -0.3209 1.453
4147000000.0 0.8929 1.217
4150000000.0 1.506 0.1228
4153000000.0 1.035 -1.075
4156000000.0 -0.1439 -1.51
4159000000.0 -1.28 -0.8525
4162000000.0 -1.473 0.4205
4166000000.0 -0.6223 1.397
4169000000.0 0.6574 1.349
4172000000.0 1.46 0.3542
4175000000.0 1.215 -0.8802
4178000000.0 0.1158 -1.474
4181000000.0 -1.06 -1.014
4184000000.0 -1.477 0.1215
4188000000.0 -0.8128 1.223
4191000000.0 0.4239 1.448
4194000000.0 1.391 0.5994
4197000000.0 1.37 -0.7368
4200000000.0 0.3085 -1.53
4203000000.0 -1.03 -1.237
4206000000.0 -1.639 0.03945
4209000000.0 -0.9748 1.251
4212000000.0 0.4371 1.591
4216000000.0 1.499 0.6632
4219000000.0 1.419 -0.8128
4222000000.0 0.2095 -1.645
4225000000.0 -1.195 -1.199
4228000000.0 -1.669 0.19
4231000000.0 -0.8521 1.442
4234000000.0 0.6279 1.503
4238000000.0 1.567 0.4053
4241000000.0 1.284 -0.9998
4244000000.0 0.0006483 -1.581
4247000000.0 -1.279 -0.9448
4250000000.0 -1.497 0.4039
4253000000.0 -0.5744 1.412
4256000000.0 0.7512 1.308
4259000000.0 1.487 0.1917
4262000000.0 1.104 -1.05
4266000000.0 -0.1575 -1.479
4269000000.0 -1.236 -0.7665
4272000000.0 -1.425 0.527
4275000000.0 -0.4218 1.394
4278000000.0 0.8407 1.224
4281000000.0 1.455 0.07831
4284000000.0 0.9478 -1.026
4288000000.0 -0.2209 -1.364
4291000000.0 -1.194 -0.679
4294000000.0 -1.263 0.4998
4297000000.0 -0.4321 1.294
4300000000.0 0.6814 1.087
4303000000.0 1.282 0.1937
4306000000.0 0.9624 -0.8457
4309000000.0 -0.05811 -1.299
4312000000.0 -0.986 -0.8143
4316000000.0 -1.269 0.2436
4319000000.0 -0.6101 1.152
4322000000.0 0.4743 1.21
4325000000.0 1.205 0.4525
4328000000.0 1.123 -0.7042
4331000000.0 0.2135 -1.294
4334000000.0 -0.8837 -1.07
4338000000.0 -1.398 0.0204
4341000000.0 -0.8678 1.068
4344000000.0 0.2521 1.364
4347000000.0 1.234 0.695
4350000000.0 1.324 -0.5584
4353000000.0 0.4332 -1.347
4356000000.0 -0.8082 -1.217
4359000000.0 -1.404 -0.1574
4362000000.0 -1.061 0.9901
4366000000.0 0.1163 1.462
4369000000.0 1.223 0.8809
4372000000.0 1.429 -0.3688
4375000000.0 0.6341 -1.362
4378000000.0 -0.6678 -1.369
4381000000.0 -1.438 -0.3664
4384000000.0 -1.253 0.9273
4388000000.0 -0.0775 1.54
4391000000.0 1.172 1.048
4394000000.0 1.555 -0.2377
4397000000.0 0.7845 -1.329
4400000000.0 -0.6187 -1.445
4403000000.0 -1.525 -0.4361
4406000000.0 -1.281 0.9078
4409000000.0 -0.08107 1.595
4412000000.0 1.179 1.014
4416000000.0 1.5 -0.3197
4419000000.0 0.6814 -1.371
4422000000.0 -0.6962 -1.36
4425000000.0 -1.423 -0.3362
4428000000.0 -1.15 0.9405
4431000000.0 0.02273 1.422
4434000000.0 1.159 0.8249
4438000000.0 1.337 -0.3512
4441000000.0 0.5238 -1.238
4444000000.0 -0.6782 -1.185
4447000000.0 -1.313 -0.1682
4450000000.0 -0.9321 0.9499
4453000000.0 0.1555 1.3
4456000000.0 1.098 0.6638
4459000000.0 1.207 -0.4384
4462000000.0 0.366 -1.197
4466000000.0 -0.7267 -0.963
4469000000.0 -1.247 -0.02316
4472000000.0 -0.8061 0.9122
4475000000.0 0.2446 1.147
4478000000.0 1.077 0.484
4481000000.0 1.024 -0.5185
4484000000.0 0.2204 -1.097
4488000000.0 -0.6957 -0.8959
4491000000.0 -1.12 0.0288
4494000000.0 -0.7027 0.8886
4497000000.0 0.2795 1.073
4500000000.0 0.9807 0.4944
4503000000.0 0.9689 -0.4794
4506000000.0 0.2299 -1.053
4509000000.0 -0.6735 -0.8753
4512000000.0 -1.123 -0.02172
4516000000.0 -0.7439 0.8536
4519000000.0 0.2142 1.084
4522000000.0 1.005 0.5422
4525000000.0 1.048 -0.4256
4528000000.0 0.3103 -1.118
4531000000.0 -0.6361 -0.9664
4534000000.0 -1.145 -0.1089
4538000000.0 -0.8363 0.8253
4541000000.0 0.1085 1.207
4544000000.0 0.981 0.6813
4547000000.0 1.147 -0.3247
4550000000.0 0.4721 -1.114
4553000000.0 -0.5461 -1.099
4556000000.0 -1.191 -0.2747
4559000000.0 -0.9899 0.7103
4562000000.0 -0.07792 1.225
4566000000.0 0.9149 0.881
4569000000.0 1.257 -0.1358
4572000000.0 0.718 -1.068
4575000000.0 -0.3387 -1.244
4578000000.0 -1.186 -0.5202
4581000000.0 -1.154 0.6075
4584000000.0 -0.3093 1.278
4588000000.0 0.8171 1.074
4591000000.0 1.359 0.04716
4594000000.0 0.9295 -1.018
4597000000.0 -0.2032 -1.39
4600000000.0 -1.172 -0.7339
4603000000.0 -1.28 0.4923
4606000000.0 -0.4493 1.31
4609000000.0 0.7135 1.21
4612000000.0 1.401 0.2087
4616000000.0 1.01 -0.9847
4619000000.0 -0.09072 -1.391
4622000000.0 -1.104 -0.7811
4625000000.0 -1.351 0.3445
4628000000.0 -0.5548 1.253
4631000000.0 0.6076 1.228
4634000000.0 1.357 0.2837
4638000000.0 1.055 -0.8571
4641000000.0 -0.04904 -1.344
4644000000.0 -1.075 -0.8155
4647000000.0 -1.291 0.3059
4650000000.0 -0.5531 1.199
4653000000.0 0.5904 1.16
4656000000.0 1.275 0.2762
4659000000.0 0.9863 -0.8205
4662000000.0 -0.06284 -1.246
4666000000.0 -1.006 -0.7188
4669000000.0 -1.171 0.3221
4672000000.0 -0.4669 1.09
4675000000.0 0.5639 1.036
4678000000.0 1.102 0.1809
4681000000.0 0.8388 -0.7431
4684000000.0 -0.01721 -1.108
4688000000.0 -0.8931 -0.641
4691000000.0 -1.077 0.2794
4694000000.0 -0.4293 1.051
4697000000.0 0.5343 0.9302
4700000000.0 1.077 0.1839
4703000000.0 0.8258 -0.7185
4706000000.0 -0.0555 -1.082
4709000000.0 -0.8643 -0.6323
4712000000.0 -1.018 0.3008
4716000000.0 -0.3901 0.9694
4719000000.0 0.5298 0.9251
4722000000.0 1.052 0.1678
4725000000.0 0.8164 -0.6978
4728000000.0 -0.02443 -1.06
4731000000.0 -0.8634 -0.6187
4734000000.0 -1.026 0.2334
4738000000.0 -0.4265 0.9451
4741000000.0 0.4136 0.9477
4744000000.0 1.021 0.2715
4747000000.0 0.8577 -0.6129
4750000000.0 0.07776 -1.076
4753000000.0 -0.7688 -0.7575
4756000000.0 -1.108 0.1104
4759000000.0 -0.6092 0.9279
4762000000.0 0.332 1.077
4766000000.0 1.035 0.4506
4769000000.0 1.017 -0.5031
4772000000.0 0.2476 -1.106
4775000000.0 -0.7067 -0.9287
4778000000.0 -1.181 -0.05771
4781000000.0 -0.8101 0.8735
4784000000.0 0.1405 1.178
4788000000.0 1.014 0.6679
4791000000.0 1.159 -0.3204
4794000000.0 0.4871 -1.139
4797000000.0 -0.563 -1.135
4800000000.0 -1.225 -0.2879
4803000000.0 -1.004 0.7363
4806000000.0 -0.1084 1.25
4809000000.0 0.9059 0.8852
4812000000.0 1.283 -0.1023
4816000000.0 0.752 -1.098
4819000000.0 -0.3639 -1.31
4822000000.0 -1.218 -0.5365
4825000000.0 -1.22 0.6118
4828000000.0 -0.3034 1.342
4831000000.0 0.8519 1.088
4834000000.0 1.369 0.04756
4838000000.0 0.9016 -1.051
4841000000.0 -0.222 -1.373
4844000000.0 -1.223 -0.6912
4847000000.0 -1.288 0.5224
4850000000.0 -0.4058 1.314
4853000000.0 0.7422 1.138
4856000000.0 1.354 0.1816
4859000000.0 0.969 -0.9332
4862000000.0 -0.134 -1.324
4866000000.0 -1.115 -0.7318
4869000000.0 -1.257 0.3539
4872000000.0 -0.5063 1.2
4875000000.0 0.6104 1.108
4878000000.0 1.273 0.2165
4881000000.0 0.9429 -0.8297
4884000000.0 -0.03005 -1.218
4888000000.0 -0.9503 -0.7422
4891000000.0 -1.171 0.2972
4894000000.0 -0.4896 1.081
4897000000.0 0.5086 1.017
4900000000.0 1.068 0.2258
4903000000.0 0.8665 -0.6826
4906000000.0 -0.008696 -1.115
4909000000.0 -0.8334 -0.6726
4912000000.0 -1.009 0.2061
4916000000.0 -0.4717 0.9062
4919000000.0 0.3952 0.928
4922000000.0 0.9467 0.2683
4925000000.0 0.7858 -0.5628
4928000000.0 0.06664 -0.9575
4931000000.0 -0.6729 -0.6502
4934000000.0 -0.9425 0.1127
4938000000.0 -0.5154 0.7849
4941000000.0 0.2713 0.8962
4944000000.0 0.8487 0.3486
4947000000.0 0.813 -0.436
4950000000.0 0.1841 -0.9403
4953000000.0 -0.6125 -0.7173
4956000000.0 -0.9402 0.03227
4959000000.0 -0.6297 0.7666
4962000000.0 0.2273 0.9602
4966000000.0 0.8708 0.4468
4969000000.0 0.9098 -0.4277
4972000000.0 0.2381 -0.9838
4975000000.0 -0.5935 -0.7951
4978000000.0 -1.014 -0.05697
4981000000.0 -0.7049 0.7409
4984000000.0 0.1517 1.022
4988000000.0 0.8722 0.5691
4991000000.0 1.013 -0.3028
4994000000.0 0.3825 -0.9959
4997000000.0 -0.5219 -0.9676
5000000000.0 -1.111 -0.2272
5003000000.0 -0.9018 0.735
5006000000.0 -0.0123 1.18
5009000000.0 0.926 0.7499
5012000000.0 1.198 -0.2422
5016000000.0 0.5652 -1.076
5019000000.0 -0.4486 -1.14
5022000000.0 -1.19 -0.3717
5025000000.0 -1.07 0.69
5028000000.0 -0.1398 1.268
5031000000.0 0.8793 0.9128
5034000000.0 1.292 -0.09174
5038000000.0 0.7655 -1.038
5041000000.0 -0.3013 -1.247
5044000000.0 -1.155 -0.5366
5047000000.0 -1.157 0.5364
5050000000.0 -0.3039 1.23
5053000000.0 0.7327 1.023
5056000000.0 1.28 0.1184
5059000000.0 0.9204 -0.9255
5062000000.0 -0.1068 -1.291
5066000000.0 -1.056 -0.7415
5069000000.0 -1.244 0.3391
5072000000.0 -0.4635 1.149
5075000000.0 0.581 1.14
5078000000.0 1.236 0.2855
5081000000.0 0.9782 -0.7506
5084000000.0 0.0363 -1.232
5088000000.0 -0.8933 -0.821
5091000000.0 -1.17 0.1514
5094000000.0 -0.6205 0.9744
5097000000.0 0.3515 1.067
5100000000.0 1.02 0.431
5103000000.0 1.019 -0.5016
5106000000.0 0.2108 -1.081
5109000000.0 -0.6599 -0.8574
5112000000.0 -1.09 -0.04218
5116000000.0 -0.743 0.788
5119000000.0 0.1619 1.064
5122000000.0 0.8466 0.5478
5125000000.0 0.9613 -0.3225
5128000000.0 0.3783 -0.9407
5131000000.0 -0.5016 -0.8705
5134000000.0 -0.9601 -0.1569
5138000000.0 -0.7419 0.6362
5141000000.0 0.03524 0.9644
5144000000.0 0.7528 0.5788
5147000000.0 0.921 -0.1927
5150000000.0 0.4309 -0.8312
5153000000.0 -0.366 -0.8511
5156000000.0 -0.8445 -0.2244
5159000000.0 -0.7241 0.4784
5162000000.0 -0.05719 0.8957
5166000000.0 0.6748 0.6348
5169000000.0 0.8668 -0.129
5172000000.0 0.4741 -0.7752
5175000000.0 -0.3034 -0.8234
5178000000.0 -0.8587 -0.2733
5181000000.0 -0.7615 0.5099
5184000000.0 -0.1055 0.8776
5188000000.0 0.6629 0.6294
5191000000.0 0.9149 -0.1076
5194000000.0 0.4527 -0.7644
5197000000.0 -0.3311 -0.8559
5200000000.0 -0.8812 -0.2752
5203000000.0 -0.7894 0.5217
5206000000.0 -0.08312 0.9664
5209000000.0 0.6613 0.6482
5212000000.0 0.9673 -0.1311
5216000000.0 0.5313 -0.7983
5219000000.0 -0.2922 -0.9298
5222000000.0 -0.9213 -0.3659
5225000000.0 -0.8856 0.5066
5228000000.0 -0.1782 0.9912
5231000000.0 0.6727 0.776
5234000000.0 1.013 0.009957
5238000000.0 0.6528 -0.8096
5241000000.0 -0.2263 -1.011
5244000000.0 -0.919 -0.482
5247000000.0 -0.9757 0.3955
5250000000.0 -0.3008 1.022
5253000000.0 0.6089 0.896
5256000000.0 1.051 0.1205
5259000000.0 0.7714 -0.7345
5262000000.0 -0.08069 -1.078
5266000000.0 -0.8788 -0.6495
5269000000.0 -1.054 0.2597
5272000000.0 -0.501 0.968
5275000000.0 0.4366 1.017
5278000000.0 1.039 0.341
5281000000.0 0.9326 -0.5772
5284000000.0 0.1416 -1.089
5288000000.0 -0.7437 -0.8261
5291000000.0 -1.12 0.04464
5294000000.0 -0.7031 0.8583
5297000000.0 0.2282 1.086
5300000000.0 0.9865 0.5319
5303000000.0 1.025 -0.368
5306000000.0 0.3802 -1.058
5309000000.0 -0.5504 -0.9715
5312000000.0 -1.097 -0.2043
5316000000.0 -0.8693 0.7207
5319000000.0 0.004019 1.171
5322000000.0 0.8418 0.745
5325000000.0 1.148 -0.2028
5328000000.0 0.5644 -0.9975
5331000000.0 -0.3844 -1.062
5334000000.0 -1.081 -0.3664
5338000000.0 -0.9731 0.5915
5341000000.0 -0.1705 1.089
5344000000.0 0.7395 0.8329
5347000000.0 1.121 -0.04827
5350000000.0 0.6628 -0.8788
5353000000.0 -0.2649 -1.07
5356000000.0 -0.9986 -0.4545
5359000000.0 -0.9449 0.4788
5362000000.0 -0.2436 1.04
5366000000.0 0.6537 0.8255
5369000000.0 1.05 -0.001518
5372000000.0 0.6384 -0.7957
5375000000.0 -0.2425 -0.9704
5378000000.0 -0.9025 -0.456
5381000000.0 -0.8805 0.4354
5384000000.0 -0.2114 0.9642
5388000000.0 0.6106 0.738
5391000000.0 0.9392 -0.03447
5394000000.0 0.5673 -0.7634
5397000000.0 -0.2278 -0.8956
5400000000.0 -0.8308 -0.3676
5403000000.0 -0.7847 0.4194
5406000000.0 -0.1321 0.9049
5409000000.0 0.5668 0.6415
5412000000.0 0.8731 -0.01567
5416000000.0 0.4949 -0.708
5419000000.0 -0.2342 -0.8157
5422000000.0 -0.7849 -0.3237
5425000000.0 -0.7613 0.4197
5428000000.0 -0.1837 0.8626
5431000000.0 0.5375 0.6375
5434000000.0 0.8702 -0.0307
5438000000.0 0.4951 -0.7212
5441000000.0 -0.2287 -0.8354
5444000000.0 -0.8226 -0.3891
5447000000.0 -0.7953 0.4074
5450000000.0 -0.1902 0.8837
5453000000.0 0.5659 0.6654
5456000000.0 0.8754 -0.008028
5459000000.0 0.5436 -0.6908
5462000000.0 -0.1874 -0.9207
5466000000.0 -0.7968 -0.4177
5469000000.0 -0.8487 0.3115
5472000000.0 -0.2847 0.8639
5475000000.0 0.5077 0.7714
5478000000.0 0.9537 0.1569
5481000000.0 0.7102 -0.6784
5484000000.0 -0.03271 -0.9674
5488000000.0 -0.7703 -0.5928
5491000000.0 -0.9519 0.2056
5494000000.0 -0.4659 0.8968
5497000000.0 0.362 0.9699
5500000000.0 0.9395 0.3326
5503000000.0 0.8638 -0.5548
5506000000.0 0.1359 -1.035
5509000000.0 -0.7397 -0.7523
5512000000.0 -1.029 0.05193
5516000000.0 -0.6552 0.8067
5519000000.0 0.2028 0.9952
5522000000.0 0.9185 0.4814
5525000000.0 0.9489 -0.3845
5528000000.0 0.3373 -0.9933
5531000000.0 -0.5478 -0.8842
5534000000.0 -1.05 -0.1761
5538000000.0 -0.7905 0.7349
5541000000.0 0.03124 1.076
5544000000.0 0.7992 0.6727
5547000000.0 1.015 -0.2322
5550000000.0 0.4573 -0.9427
5553000000.0 -0.4 -0.9568
5556000000.0 -1.029 -0.3274
5559000000.0 -0.8866 0.5709
5562000000.0 -0.09716 1.028
5566000000.0 0.7416 0.7104
5569000000.0 1.034 -0.1114
5572000000.0 0.5768 -0.8293
5575000000.0 -0.2676 -0.9429
5578000000.0 -0.9145 -0.4269
5581000000.0 -0.8641 0.4599
5584000000.0 -0.2083 0.9096
5588000000.0 0.5955 0.7826
5591000000.0 0.9494 0.02244
5594000000.0 0.6259 -0.6906
5597000000.0 -0.1523 -0.909
5600000000.0 -0.8112 -0.4364
5603000000.0 -0.8591 0.3336
5606000000.0 -0.2729 0.8362
5609000000.0 0.4654 0.7207
5612000000.0 0.8555 0.104
5616000000.0 0.6239 -0.5987
5619000000.0 -0.08948 -0.8391
5622000000.0 -0.7036 -0.4559
5625000000.0 -0.7831 0.2646
5628000000.0 -0.285 0.776
5631000000.0 0.3977 0.7394
5634000000.0 0.8147 0.1126
5638000000.0 0.6205 -0.5562
5641000000.0 -0.05706 -0.8623
5644000000.0 -0.6721 -0.4699
5647000000.0 -0.7746 0.2682
5650000000.0 -0.3021 0.7913
5653000000.0 0.4297 0.7219
5656000000.0 0.8547 0.12
5659000000.0 0.639 -0.5753
5662000000.0 -0.07495 -0.8819
5666000000.0 -0.6974 -0.5121
5669000000.0 -0.8237 0.2569
5672000000.0 -0.3327 0.817
5675000000.0 0.4571 0.7753
5678000000.0 0.8994 0.1463
5681000000.0 0.6869 -0.6035
5684000000.0 -0.05902 -0.93
5688000000.0 -0.7641 -0.5628
5691000000.0 -0.9321 0.2462
5694000000.0 -0.3796 0.877
5697000000.0 0.4338 0.8804
5700000000.0 0.949 0.213
5703000000.0 0.7944 -0.6438
5706000000.0 0.005272 -1.033
5709000000.0 -0.7918 -0.665
5712000000.0 -0.9995 0.1647
5716000000.0 -0.527 0.9112
5719000000.0 0.3648 0.9925
5722000000.0 1.014 0.3076
5725000000.0 0.9187 -0.5606
5728000000.0 0.1418 -1.063
5731000000.0 -0.7383 -0.8085
5734000000.0 -1.107 0.06143
5738000000.0 -0.6727 0.856
5741000000.0 0.2732 1.075
5744000000.0 0.9811 0.5353
5747000000.0 1.025 -0.4426
5750000000.0 0.3001 -1.051
5753000000.0 -0.6096 -0.936
5756000000.0 -1.153 -0.1277
5759000000.0 -0.7656 0.765
5762000000.0 0.05992 1.078
5766000000.0 0.9103 0.6145
5769000000.0 1.065 -0.3047
5772000000.0 0.4539 -0.9645
5775000000.0 -0.4746 -0.996
5778000000.0 -1.078 -0.2941
5781000000.0 -0.859 0.6336
5784000000.0 -0.07645 1.112
5788000000.0 0.7738 0.7235
5791000000.0 1.097 -0.1049
5794000000.0 0.5913 -0.8984
5797000000.0 -0.2972 -1.019
5800000000.0 -0.9548 -0.4361
5803000000.0 -0.9364 0.4735
5806000000.0 -0.2045 0.9901
5809000000.0 0.6536 0.8176
5812000000.0 1.022 0.01188
5816000000.0 0.6561 -0.7956
5819000000.0 -0.1895 -1.003
5822000000.0 -0.885 -0.4456
5825000000.0 -0.9115 0.3634
5828000000.0 -0.2771 0.9539
5831000000.0 0.5409 0.8135
5834000000.0 0.9539 0.1048
5838000000.0 0.6352 -0.6802
5841000000.0 -0.09975 -0.9414
5844000000.0 -0.7659 -0.4759
5847000000.0 -0.8537 0.3098
5850000000.0 -0.2864 0.8663
5853000000.0 0.4898 0.7754
5856000000.0 0.9191 0.06278
5859000000.0 0.612 -0.6478
5862000000.0 -0.07917 -0.9442
5866000000.0 -0.746 -0.5078
5869000000.0 -0.8544 0.2874
5872000000.0 -0.3132 0.8103
5875000000.0 0.4912 0.7513
5878000000.0 0.8657 0.1201
5881000000.0 0.6212 -0.6045
5884000000.0 -0.08723 -0.8943
5888000000.0 -0.7271 -0.4838
5891000000.0 -0.8299 0.2519
5894000000.0 -0.3296 0.8031
5897000000.0 0.3868 0.7687
5900000000.0 0.8522 0.1459
5903000000.0 0.6865 -0.5586
5906000000.0 -0.01973 -0.8622
5909000000.0 -0.7075 -0.5356
5912000000.0 -0.8889 0.2149
5916000000.0 -0.3576 0.7691
5919000000.0 0.3586 0.7823
5922000000.0 0.842 0.2138
5925000000.0 0.7234 -0.5102
5928000000.0 0.07461 -0.8599
5931000000.0 -0.646 -0.5728
5934000000.0 -0.9135 0.09334
5938000000.0 -0.4807 0.7647
5941000000.0 0.2493 0.8353
5944000000.0 0.8517 0.3589
5947000000.0 0.8025 -0.4408
5950000000.0 0.2149 -0.8624
5953000000.0 -0.5742 -0.7642
5956000000.0 -0.9245 -0.04685
5959000000.0 -0.6565 0.6877
5962000000.0 0.1194 0.9318
5966000000.0 0.8205 0.5139
5969000000.0 0.9079 -0.3082
5972000000.0 0.3612 -0.9139
5975000000.0 -0.4564 -0.8625
5978000000.0 -0.9768 -0.1997
5981000000.0 -0.7467 0.6197
5984000000.0 0.006108 0.9761
5988000000.0 0.7874 0.6299
5991000000.0 0.9906 -0.1666
5994000000.0 0.4861 -0.8753
5997000000.0 -0.3432 -0.9249
6000000000.0 -0.9462 -0.3373
6003000000.0 -0.8717 0.5232
6006000000.0 -0.1117 0.9709
6009000000.0 0.6505 0.7422
6012000000.0 0.9862 -0.03772
6016000000.0 0.5842 -0.807
6019000000.0 -0.2672 -0.9453
6022000000.0 -0.8882 -0.4031
6025000000.0 -0.89 0.4248
6028000000.0 -0.2063 0.9469
6031000000.0 0.6144 0.7385
6034000000.0 0.9561 0.00853
6038000000.0 0.6073 -0.7419
6041000000.0 -0.1965 -0.9384
6044000000.0 -0.829 -0.435
6047000000.0 -0.8699 0.3762
6050000000.0 -0.2756 0.9043
6053000000.0 0.5383 0.76
6056000000.0 0.9129 0.08138
6059000000.0 0.6115 -0.644
6062000000.0 -0.1278 -0.8842
6066000000.0 -0.7435 -0.4603
6069000000.0 -0.8063 0.3405
6072000000.0 -0.2682 0.8041
6075000000.0 0.4567 0.749
6078000000.0 0.8566 0.08983
6081000000.0 0.6035 -0.632
6084000000.0 -0.1155 -0.8501
6088000000.0 -0.703 -0.4677
6091000000.0 -0.8414 0.2767
6094000000.0 -0.2891 0.7678
6097000000.0 0.4238 0.7401
6100000000.0 0.8247 0.1364
6103000000.0 0.6279 -0.5564
6106000000.0 -0.04437 -0.8582
6109000000.0 -0.6845 -0.512
6112000000.0 -0.8288 0.2211
6116000000.0 -0.3755 0.8109
6119000000.0 0.4021 0.779
6122000000.0 0.859 0.1708
6125000000.0 0.679 -0.5703
6128000000.0 -0.01483 -0.8796
6131000000.0 -0.677 -0.5396
6134000000.0 -0.8415 0.1964
6138000000.0 -0.4151 0.7989
6141000000.0 0.3799 0.8075
6144000000.0 0.8738 0.2397
6147000000.0 0.7494 -0.528
6150000000.0 0.02486 -0.903
6153000000.0 -0.6698 -0.6197
6156000000.0 -0.9309 0.1247
6159000000.0 -0.5115 0.811
6162000000.0 0.3042 0.863
6166000000.0 0.8755 0.3134
6169000000.0 0.7868 -0.5071
6172000000.0 0.1232 -0.9505
6175000000.0 -0.6416 -0.7046
6178000000.0 -0.9242 0.08848
6181000000.0 -0.5505 0.7564
6184000000.0 0.2629 0.9297
6188000000.0 0.873 0.3903
6191000000.0 0.8445 -0.4262
6194000000.0 0.2347 -0.9383
6197000000.0 -0.5988 -0.7531
6200000000.0 -0.942 -0.03088
6203000000.0 -0.6116 0.7212
6206000000.0 0.1585 0.9101
6209000000.0 0.8304 0.482
6212000000.0 0.8721 -0.3273
6216000000.0 0.3193 -0.8644
6219000000.0 -0.4698 -0.7748
6222000000.0 -0.9335 -0.1286
6225000000.0 -0.6508 0.6161
6228000000.0 0.03227 0.9044
6231000000.0 0.7238 0.5532
6234000000.0 0.8695 -0.1975
6238000000.0 0.4352 -0.7699
6241000000.0 -0.3691 -0.7713
6244000000.0 -0.818 -0.2063
6247000000.0 -0.6788 0.4884
6250000000.0 -0.09729 0.8305
6253000000.0 0.6038 0.5603
6256000000.0 0.8549 -0.09239
6259000000.0 0.4604 -0.6694
6262000000.0 -0.2219 -0.8035
6266000000.0 -0.7278 -0.3024
