! Created with skrf 1.8.0 (http://scikit-rf.org).
# Hz S RI R 50.0 
!freq ReS11 ImS11
4000000000.0 -0.2196 -1.53
4003000000.0 -1.279 -0.7697
4006000000.0 -1.428 0.4906
4009000000.0 -0.5168 1.461
4012000000.0 0.7524 1.297
4016000000.0 1.543 0.1736
4019000000.0 1.091 -1.076
4022000000.0 -0.1737 -1.572
4025000000.0 -1.296 -0.8647
4028000000.0 -1.534 0.5074
4031000000.0 -0.562 1.51
4034000000.0 0.8325 1.376
4038000000.0 1.584 0.2365
4041000000.0 1.127 -1.146
4044000000.0 -0.1305 -1.625
4047000000.0 -1.393 -0.8881
4050000000.0 -1.517 0.4413
4053000000.0 -0.6211 1.47
4056000000.0 0.7785 1.439
4059000000.0 1.601 0.3222
4062000000.0 1.251 -1.027
4066000000.0 0.01982 -1.631
4069000000.0 -1.254 -1.027
4072000000.0 -1.606 0.3259
4075000000.0 -0.8123 1.413
4078000000.0 0.6129 1.535
4081000000.0 1.555 0.5574
4084000000.0 1.408 -0.8818
4088000000.0 0.2556 -1.584
4091000000.0 -1.126 -1.214
4094000000.0 -1.669 0.0905
4097000000.0 -1.002 1.319
4100000000.0 0.4083 1.583
4103000000.0 1.453 0.718
4106000000.0 1.48 -0.6425
4109000000.0 0.4082 -1.516
4112000000.0 -0.8142 -1.278
4116000000.0 -1.496 -0.1681
4119000000.0 -1.122 1.025
4122000000.0 0.03633 1.472
4125000000.0 1.145 0.9171
4128000000.0 1.467 -0.2683
4131000000.0 0.7515 -1.28
4134000000.0 -0.4184 -1.426
4138000000.0 -1.353 -0.5716
4141000000.0 -1.368 0.6806
4144000000.0 -0.374 1.455
4147000000.0 0.8816 1.242
4150000000.0 1.498 0.1039
4153000000.0 1.13 -1.072
4156000000.0 -0.1585 -1.497
4159000000.0 -1.248 -0.8859
4162000000.0 -1.473 0.4083
4166000000.0 -0.6537 1.397
4169000000.0 0.6414 1.356
4172000000.0 1.451 0.3799
4175000000.0 1.214 -0.866
4178000000.0 0.1447 -1.497
4181000000.0 -1.069 -1.078
4184000000.0 -1.493 0.1174
4188000000.0 -0.8577 1.223
4191000000.0 0.4124 1.481
4194000000.0 1.44 0.6331
4197000000.0 1.39 -0.6903
4200000000.0 0.3365 -1.536
4203000000.0 -0.9811 -1.271
4206000000.0 -1.597 -0.03615
4209000000.0 -1.051 1.28
4212000000.0 0.3666 1.623
4216000000.0 1.532 0.6767
4219000000.0 1.485 -0.7519
4222000000.0 0.2927 -1.648
4225000000.0 -1.13 -1.232
4228000000.0 -1.703 0.1449
4231000000.0 -0.8566 1.425
4234000000.0 0.6007 1.567
4238000000.0 1.562 0.456
4241000000.0 1.3 -0.9668
4244000000.0 0.07126 -1.597
4247000000.0 -1.228 -0.9615
4250000000.0 -1.499 0.3424
4253000000.0 -0.6316 1.452
4256000000.0 0.706 1.36
4259000000.0 1.556 0.2754
4262000000.0 1.104 -1.001
4266000000.0 -0.1205 -1.489
4269000000.0 -1.253 -0.8188
4272000000.0 -1.396 0.4856
4275000000.0 -0.4723 1.361
4278000000.0 0.8023 1.248
4281000000.0 1.431 0.1678
4284000000.0 1.005 -1.007
4288000000.0 -0.1578 -1.393
4291000000.0 -1.201 -0.6853
4294000000.0 -1.299 0.3955
4297000000.0 -0.4416 1.244
4300000000.0 0.6497 1.137
4303000000.0 1.315 0.2095
4306000000.0 0.9764 -0.8479
4309000000.0 0.0001334 -1.285
4312000000.0 -0.9882 -0.8097
4316000000.0 -1.286 0.2211
4319000000.0 -0.6723 1.114
4322000000.0 0.4265 1.238
4325000000.0 1.225 0.4563
4328000000.0 1.157 -0.6308
4331000000.0 0.2206 -1.301
4334000000.0 -0.8653 -1.039
4338000000.0 -1.345 -0.01373
4341000000.0 -0.9156 1.074
4344000000.0 0.2291 1.406
4347000000.0 1.229 0.7094
4350000000.0 1.355 -0.5028
4353000000.0 0.4514 -1.39
4356000000.0 -0.7428 -1.219
4359000000.0 -1.439 -0.1995
4362000000.0 -1.081 0.98
4366000000.0 0.03731 1.462
4369000000.0 1.177 0.8942
4372000000.0 1.453 -0.3276
4375000000.0 0.682 -1.297
4378000000.0 -0.5952 -1.38
4381000000.0 -1.439 -0.4469
4384000000.0 -1.246 0.8759
4388000000.0 -0.1627 1.53
4391000000.0 1.135 1.071
4394000000.0 1.569 -0.202
4397000000.0 0.8401 -1.354
4400000000.0 -0.5748 -1.488
4403000000.0 -1.527 -0.4805
4406000000.0 -1.324 0.881
4409000000.0 -0.1488 1.594
4412000000.0 1.151 1.087
4416000000.0 1.539 -0.256
4419000000.0 0.7393 -1.313
4422000000.0 -0.5626 -1.41
4425000000.0 -1.44 -0.3663
4428000000.0 -1.175 0.8904
4431000000.0 -0.03705 1.467
4434000000.0 1.111 0.9253
4438000000.0 1.363 -0.2995
4441000000.0 0.5735 -1.23
4444000000.0 -0.6226 -1.213
4447000000.0 -1.326 -0.2716
4450000000.0 -0.9854 0.8802
4453000000.0 0.09217 1.305
4456000000.0 1.087 0.71
4459000000.0 1.197 -0.426
4462000000.0 0.449 -1.203
4466000000.0 -0.6749 -1.066
4469000000.0 -1.223 -0.1296
4472000000.0 -0.8152 0.8684
4475000000.0 0.1801 1.178
4478000000.0 1.054 0.5593
4481000000.0 1.073 -0.4547
4484000000.0 0.2945 -1.117
4488000000.0 -0.6797 -0.9294
4491000000.0 -1.148 0.006657
4494000000.0 -0.7241 0.8601
4497000000.0 0.1914 1.104
4500000000.0 0.9784 0.5087
4503000000.0 1.013 -0.4637
4506000000.0 0.2872 -1.079
4509000000.0 -0.6615 -0.8876
4512000000.0 -1.103 -0.05256
4516000000.0 -0.7552 0.8246
4519000000.0 0.1937 1.105
4522000000.0 0.962 0.5809
4525000000.0 1.059 -0.39
4528000000.0 0.3803 -1.095
4531000000.0 -0.5863 -0.9786
4534000000.0 -1.15 -0.154
4538000000.0 -0.8527 0.815
4541000000.0 0.1006 1.196
4544000000.0 0.9734 0.687
4547000000.0 1.188 -0.2904
4550000000.0 0.5501 -1.101
4553000000.0 -0.5089 -1.118
4556000000.0 -1.173 -0.3258
4559000000.0 -1.008 0.6782
4562000000.0 -0.1216 1.248
4566000000.0 0.8764 0.8938
4569000000.0 1.294 -0.08505
4572000000.0 0.7504 -1.041
4575000000.0 -0.3209 -1.257
4578000000.0 -1.191 -0.5357
4581000000.0 -1.218 0.5585
4584000000.0 -0.3508 1.238
4588000000.0 0.7766 1.108
4591000000.0 1.38 0.1074
4594000000.0 0.9573 -0.9991
4597000000.0 -0.1504 -1.373
4600000000.0 -1.177 -0.7413
4603000000.0 -1.313 0.4081
4606000000.0 -0.487 1.283
4609000000.0 0.6787 1.222
4612000000.0 1.374 0.2369
4616000000.0 1.051 -0.913
4619000000.0 -0.02798 -1.408
4622000000.0 -1.071 -0.8548
4625000000.0 -1.327 0.3014
4628000000.0 -0.6217 1.219
4631000000.0 0.5743 1.257
4634000000.0 1.323 0.3143
4638000000.0 1.085 -0.8495
4641000000.0 0.05844 -1.369
4644000000.0 -1.01 -0.8815
4647000000.0 -1.299 0.2317
4650000000.0 -0.619 1.191
4653000000.0 0.5218 1.195
4656000000.0 1.282 0.3181
4659000000.0 1.001 -0.7726
4662000000.0 -0.002169 -1.236
4666000000.0 -0.9668 -0.7913
4669000000.0 -1.189 0.2322
4672000000.0 -0.5552 1.071
4675000000.0 0.4784 1.065
4678000000.0 1.152 0.2549
4681000000.0 0.9035 -0.6917
4684000000.0 0.004517 -1.13
4688000000.0 -0.8656 -0.7161
4691000000.0 -1.081 0.2102
4694000000.0 -0.4898 0.97
4697000000.0 0.4744 0.985
4700000000.0 1.044 0.2509
4703000000.0 0.8514 -0.6515
4706000000.0 -0.005127 -1.074
4709000000.0 -0.8471 -0.6716
4712000000.0 -1.045 0.2861
4716000000.0 -0.4384 0.9725
4719000000.0 0.5269 0.9716
4722000000.0 1.058 0.1956
4725000000.0 0.8006 -0.6526
4728000000.0 -0.03158 -1.086
4731000000.0 -0.8483 -0.6596
4734000000.0 -1.034 0.2025
4738000000.0 -0.482 0.9457
4741000000.0 0.4259 0.9598
4744000000.0 1.015 0.3128
4747000000.0 0.8946 -0.5903
4750000000.0 0.1136 -1.052
4753000000.0 -0.7766 -0.7697
4756000000.0 -1.101 0.07696
4759000000.0 -0.6413 0.905
4762000000.0 0.2793 1.081
4766000000.0 1.034 0.4745
4769000000.0 1.032 -0.4879
4772000000.0 0.2837 -1.121
4775000000.0 -0.6685 -0.9351
4778000000.0 -1.168 -0.09537
4781000000.0 -0.8595 0.843
4784000000.0 0.1007 1.198
4788000000.0 0.9886 0.697
4791000000.0 1.175 -0.3094
4794000000.0 0.5375 -1.118
4797000000.0 -0.5066 -1.142
4800000000.0 -1.207 -0.3468
4803000000.0 -1.028 0.6935
4806000000.0 -0.1424 1.243
4809000000.0 0.8833 0.9256
4812000000.0 1.303 -0.08708
4816000000.0 0.7799 -1.073
4819000000.0 -0.3381 -1.304
4822000000.0 -1.199 -0.5782
4825000000.0 -1.251 0.5665
4828000000.0 -0.3416 1.333
4831000000.0 0.8187 1.143
4834000000.0 1.393 0.1003
4838000000.0 0.9374 -1.019
4841000000.0 -0.1784 -1.37
4844000000.0 -1.184 -0.741
4847000000.0 -1.302 0.4496
4850000000.0 -0.4617 1.296
4853000000.0 0.6859 1.196
4856000000.0 1.335 0.1941
4859000000.0 1.015 -0.9239
4862000000.0 -0.04938 -1.348
4866000000.0 -1.097 -0.8102
4869000000.0 -1.272 0.3545
4872000000.0 -0.5364 1.22
4875000000.0 0.5951 1.152
4878000000.0 1.289 0.3013
4881000000.0 0.9877 -0.7814
4884000000.0 -0.002866 -1.207
4888000000.0 -0.9756 -0.7724
4891000000.0 -1.193 0.2519
4894000000.0 -0.5124 1.052
4897000000.0 0.4715 1.063
4900000000.0 1.102 0.279
4903000000.0 0.9066 -0.663
4906000000.0 0.05461 -1.093
4909000000.0 -0.7845 -0.7115
4912000000.0 -1.016 0.1979
4916000000.0 -0.5029 0.8786
4919000000.0 0.379 0.9436
4922000000.0 0.9536 0.3099
4925000000.0 0.8263 -0.5201
4928000000.0 0.1233 -0.9512
4931000000.0 -0.6726 -0.703
4934000000.0 -0.9296 0.04422
4938000000.0 -0.5264 0.7508
4941000000.0 0.25 0.9011
4944000000.0 0.8641 0.3696
4947000000.0 0.8631 -0.4511
4950000000.0 0.2111 -0.9199
4953000000.0 -0.5829 -0.7361
4956000000.0 -0.9426 -0.008525
4959000000.0 -0.6215 0.7537
4962000000.0 0.1853 0.966
4966000000.0 0.8582 0.4697
4969000000.0 0.9335 -0.3833
4972000000.0 0.2764 -0.9817
4975000000.0 -0.5575 -0.8247
4978000000.0 -1.015 -0.1049
4981000000.0 -0.7323 0.7397
4984000000.0 0.0972 1.035
4988000000.0 0.8553 0.5882
4991000000.0 1.047 -0.3186
4994000000.0 0.4403 -0.9876
4997000000.0 -0.4875 -0.99
5000000000.0 -1.096 -0.2698
5003000000.0 -0.9059 0.7148
5006000000.0 -0.06693 1.193
5009000000.0 0.8826 0.809
5012000000.0 1.217 -0.1719
5016000000.0 0.6469 -1.029
5019000000.0 -0.4121 -1.184
5022000000.0 -1.196 -0.4193
5025000000.0 -1.074 0.6449
5028000000.0 -0.1796 1.276
5031000000.0 0.8651 0.9565
5034000000.0 1.299 -0.03536
5038000000.0 0.7971 -1.015
5041000000.0 -0.27 -1.261
5044000000.0 -1.16 -0.5743
5047000000.0 -1.215 0.4779
5050000000.0 -0.4148 1.243
5053000000.0 0.692 1.111
5056000000.0 1.271 0.1691
5059000000.0 0.9684 -0.8884
5062000000.0 -0.05591 -1.278
5066000000.0 -1.008 -0.7571
5069000000.0 -1.298 0.3057
5072000000.0 -0.5244 1.176
5075000000.0 0.5463 1.198
5078000000.0 1.235 0.3427
5081000000.0 1.061 -0.7229
5084000000.0 0.1377 -1.238
5088000000.0 -0.8951 -0.8549
5091000000.0 -1.192 0.1558
5094000000.0 -0.6842 0.9911
5097000000.0 0.3483 1.135
5100000000.0 1.058 0.487
5103000000.0 1.026 -0.4902
5106000000.0 0.2947 -1.073
5109000000.0 -0.6431 -0.898
5112000000.0 -1.085 -0.06954
5116000000.0 -0.7493 0.7461
5119000000.0 0.1063 1.078
5122000000.0 0.8457 0.5882
5125000000.0 0.9881 -0.2791
5128000000.0 0.3891 -0.9284
5131000000.0 -0.4773 -0.9315
5134000000.0 -0.9832 -0.2132
5138000000.0 -0.7806 0.6052
5141000000.0 -0.0003845 0.9722
5144000000.0 0.7094 0.5993
5147000000.0 0.9419 -0.1549
5150000000.0 0.4398 -0.8219
5153000000.0 -0.3148 -0.8847
5156000000.0 -0.8662 -0.2867
5159000000.0 -0.7599 0.5118
5162000000.0 -0.1306 0.9073
5166000000.0 0.6429 0.6408
5169000000.0 0.8978 -0.07141
5172000000.0 0.508 -0.746
5175000000.0 -0.2699 -0.8435
5178000000.0 -0.8334 -0.3104
5181000000.0 -0.7756 0.4647
5184000000.0 -0.1507 0.9115
5188000000.0 0.6387 0.6898
5191000000.0 0.922 -0.09541
5194000000.0 0.5179 -0.7705
5197000000.0 -0.2762 -0.8876
5200000000.0 -0.8808 -0.3532
5203000000.0 -0.8449 0.4383
5206000000.0 -0.154 0.9478
5209000000.0 0.6371 0.7143
5212000000.0 0.9698 -0.03771
5216000000.0 0.6091 -0.7922
5219000000.0 -0.2566 -0.9634
5222000000.0 -0.8672 -0.3949
5225000000.0 -0.9039 0.4382
5228000000.0 -0.2225 0.9684
5231000000.0 0.6138 0.8064
5234000000.0 1.019 0.02076
5238000000.0 0.6955 -0.7588
5241000000.0 -0.1671 -0.9964
5244000000.0 -0.9252 -0.5282
5247000000.0 -1.005 0.3788
5250000000.0 -0.3531 1.009
5253000000.0 0.5621 0.9021
5256000000.0 1.074 0.1653
5259000000.0 0.8362 -0.7231
5262000000.0 -0.03804 -1.098
5266000000.0 -0.8435 -0.7258
5269000000.0 -1.07 0.227
5272000000.0 -0.5286 0.9585
5275000000.0 0.4248 1.037
5278000000.0 1.039 0.3779
5281000000.0 0.955 -0.5424
5284000000.0 0.1776 -1.098
5288000000.0 -0.7225 -0.8668
5291000000.0 -1.115 -0.00793
5294000000.0 -0.7245 0.874
5297000000.0 0.1493 1.101
5300000000.0 0.9563 0.5778
5303000000.0 1.073 -0.3716
5306000000.0 0.4162 -1.073
5309000000.0 -0.5254 -0.9927
5312000000.0 -1.11 -0.2564
5316000000.0 -0.921 0.6938
5319000000.0 -0.03351 1.158
5322000000.0 0.8471 0.7808
5325000000.0 1.157 -0.1621
5328000000.0 0.5901 -0.9398
5331000000.0 -0.3255 -1.081
5334000000.0 -1.056 -0.423
5338000000.0 -0.9878 0.5344
5341000000.0 -0.2201 1.089
5344000000.0 0.7131 0.8707
5347000000.0 1.129 0.008445
5350000000.0 0.7195 -0.8334
5353000000.0 -0.2254 -1.062
5356000000.0 -0.96 -0.4783
5359000000.0 -1.008 0.4563
5362000000.0 -0.2967 1.038
5366000000.0 0.6327 0.8553
5369000000.0 1.062 0.05862
5372000000.0 0.7112 -0.7672
5375000000.0 -0.1498 -1.019
5378000000.0 -0.8427 -0.4874
5381000000.0 -0.9395 0.3943
5384000000.0 -0.2467 0.9848
5388000000.0 0.5452 0.8002
5391000000.0 0.9582 0.01459
5394000000.0 0.6383 -0.7092
5397000000.0 -0.184 -0.9136
5400000000.0 -0.7976 -0.4244
5403000000.0 -0.8341 0.3536
5406000000.0 -0.2364 0.8389
5409000000.0 0.4964 0.7055
5412000000.0 0.8326 -0.003054
5416000000.0 0.5486 -0.6541
5419000000.0 -0.166 -0.8574
5422000000.0 -0.7715 -0.3651
5425000000.0 -0.8107 0.35
5428000000.0 -0.2005 0.8398
5431000000.0 0.5253 0.7063
5434000000.0 0.8842 0.01906
5438000000.0 0.5759 -0.7102
5441000000.0 -0.1939 -0.8724
5444000000.0 -0.7531 -0.4183
5447000000.0 -0.8388 0.3732
5450000000.0 -0.2168 0.8723
5453000000.0 0.5088 0.7243
5456000000.0 0.8902 0.04384
5459000000.0 0.653 -0.6504
5462000000.0 -0.1229 -0.8998
5466000000.0 -0.7483 -0.4742
5469000000.0 -0.8638 0.3049
5472000000.0 -0.3499 0.8985
5475000000.0 0.4588 0.7918
5478000000.0 0.9191 0.21
5481000000.0 0.7611 -0.6118
5484000000.0 -0.01015 -0.9689
5488000000.0 -0.7207 -0.6331
5491000000.0 -0.9664 0.1762
5494000000.0 -0.5035 0.8523
5497000000.0 0.3316 0.9522
5500000000.0 0.9508 0.3739
5503000000.0 0.8816 -0.466
5506000000.0 0.1899 -1.033
5509000000.0 -0.6612 -0.8091
5512000000.0 -1.038 -0.01001
5516000000.0 -0.6788 0.756
5519000000.0 0.1646 1.041
5522000000.0 0.8802 0.5371
5525000000.0 0.9926 -0.3584
5528000000.0 0.3829 -0.972
5531000000.0 -0.5126 -0.9256
5534000000.0 -1.057 -0.2129
5538000000.0 -0.8289 0.6525
5541000000.0 -0.03925 1.087
5544000000.0 0.7882 0.7562
5547000000.0 1.05 -0.1719
5550000000.0 0.5872 -0.9014
5553000000.0 -0.3414 -0.9843
5556000000.0 -1.007 -0.4362
5559000000.0 -0.9199 0.5065
5562000000.0 -0.1685 0.9953
5566000000.0 0.6653 0.81
5569000000.0 1.014 -0.02763
5572000000.0 0.6509 -0.783
5575000000.0 -0.2201 -0.9908
5578000000.0 -0.8685 -0.4762
5581000000.0 -0.9069 0.3627
5584000000.0 -0.2725 0.9221
5588000000.0 0.5092 0.8004
5591000000.0 0.9723 0.1028
5594000000.0 0.7054 -0.6502
5597000000.0 -0.05792 -0.931
5600000000.0 -0.7482 -0.5358
5603000000.0 -0.887 0.2402
5606000000.0 -0.3629 0.8344
5609000000.0 0.433 0.7864
5612000000.0 0.8811 0.1598
5616000000.0 0.6866 -0.5666
5619000000.0 -0.03637 -0.8473
5622000000.0 -0.6837 -0.5351
5625000000.0 -0.8465 0.1759
5628000000.0 -0.3836 0.7661
5631000000.0 0.3584 0.7469
5634000000.0 0.841 0.1742
5638000000.0 0.6495 -0.5176
5641000000.0 0.02231 -0.8328
5644000000.0 -0.6635 -0.5267
5647000000.0 -0.8428 0.1816
5650000000.0 -0.39 0.7464
5653000000.0 0.3465 0.7892
5656000000.0 0.8044 0.2322
5659000000.0 0.7058 -0.507
5662000000.0 0.001435 -0.8738
5666000000.0 -0.6841 -0.5645
5669000000.0 -0.8755 0.1819
5672000000.0 -0.4079 0.79
5675000000.0 0.371 0.8145
5678000000.0 0.8736 0.2082
5681000000.0 0.7351 -0.5346
5684000000.0 0.03201 -0.9378
5688000000.0 -0.7444 -0.6253
5691000000.0 -0.9379 0.1511
5694000000.0 -0.4683 0.8682
5697000000.0 0.3413 0.9193
5700000000.0 0.9446 0.286
5703000000.0 0.8737 -0.5448
5706000000.0 0.1143 -1.026
5709000000.0 -0.7165 -0.7228
5712000000.0 -1.01 0.08771
5716000000.0 -0.595 0.8735
5719000000.0 0.2838 1.032
5722000000.0 0.9675 0.3962
5725000000.0 0.9176 -0.4763
5728000000.0 0.2001 -1.069
5731000000.0 -0.6802 -0.8573
5734000000.0 -1.095 -0.06485
5738000000.0 -0.7223 0.7975
5741000000.0 0.1934 1.078
5744000000.0 0.9234 0.5607
5747000000.0 1.063 -0.3431
5750000000.0 0.3777 -1.001
5753000000.0 -0.5285 -0.9665
5756000000.0 -1.108 -0.1921
5759000000.0 -0.8557 0.7309
5762000000.0 -0.009315 1.092
5766000000.0 0.8524 0.7205
5769000000.0 1.102 -0.1941
5772000000.0 0.5299 -0.955
5775000000.0 -0.3645 -1.027
5778000000.0 -1.057 -0.3618
5781000000.0 -0.9431 0.5921
5784000000.0 -0.1762 1.087
5788000000.0 0.7073 0.837
5791000000.0 1.095 0.02169
5794000000.0 0.6732 -0.8492
5797000000.0 -0.237 -1.058
5800000000.0 -0.918 -0.5002
5803000000.0 -0.9624 0.3826
5806000000.0 -0.3257 1.002
5809000000.0 0.5696 0.8716
5812000000.0 1.075 0.1059
5816000000.0 0.7412 -0.736
5819000000.0 -0.08566 -1.01
5822000000.0 -0.8187 -0.5857
5825000000.0 -0.9226 0.2864
5828000000.0 -0.3836 0.9145
5831000000.0 0.4841 0.8348
5834000000.0 0.98 0.1801
5838000000.0 0.7526 -0.5924
5841000000.0 -0.00262 -0.9419
5844000000.0 -0.7502 -0.591
5847000000.0 -0.9274 0.2035
5850000000.0 -0.4226 0.8363
5853000000.0 0.3907 0.8893
5856000000.0 0.9416 0.2304
5859000000.0 0.7331 -0.5727
5862000000.0 0.01473 -0.9342
5866000000.0 -0.7065 -0.5714
5869000000.0 -0.8603 0.2117
5872000000.0 -0.404 0.7876
5875000000.0 0.3774 0.7904
5878000000.0 0.8534 0.2375
5881000000.0 0.7077 -0.5356
5884000000.0 0.03968 -0.8892
5888000000.0 -0.6411 -0.5957
5891000000.0 -0.8575 0.1471
5894000000.0 -0.4065 0.7787
5897000000.0 0.3189 0.801
5900000000.0 0.7967 0.2705
5903000000.0 0.7274 -0.4895
5906000000.0 0.09048 -0.8726
5909000000.0 -0.583 -0.6185
5912000000.0 -0.858 0.06734
5916000000.0 -0.4816 0.7025
5919000000.0 0.2327 0.8443
5922000000.0 0.8152 0.3243
5925000000.0 0.7515 -0.4175
5928000000.0 0.156 -0.896
5931000000.0 -0.5477 -0.6709
5934000000.0 -0.899 -0.01933
5938000000.0 -0.5955 0.6695
5941000000.0 0.1434 0.9012
5944000000.0 0.7491 0.464
5947000000.0 0.8636 -0.3357
5950000000.0 0.3269 -0.8681
5953000000.0 -0.4549 -0.7923
5956000000.0 -0.9009 -0.1478
5959000000.0 -0.6984 0.6222
5962000000.0 -0.0189 0.9424
5966000000.0 0.7354 0.6023
5969000000.0 0.9604 -0.1808
5972000000.0 0.4862 -0.8414
5975000000.0 -0.3333 -0.8989
5978000000.0 -0.9135 -0.3173
5981000000.0 -0.8375 0.5122
5984000000.0 -0.1558 0.9926
5988000000.0 0.6551 0.7347
5991000000.0 0.9848 -0.03831
5994000000.0 0.6158 -0.7683
5997000000.0 -0.2205 -0.9839
6000000000.0 -0.9052 -0.4695
6003000000.0 -0.934 0.4032
6006000000.0 -0.2608 0.9684
6009000000.0 0.5432 0.8089
6012000000.0 0.9961 0.07811
6016000000.0 0.7115 -0.7184
6019000000.0 -0.1082 -0.9829
6022000000.0 -0.8548 -0.5244
6025000000.0 -0.9428 0.2884
6028000000.0 -0.3565 0.9138
6031000000.0 0.4695 0.8268
6034000000.0 0.9375 0.1532
6038000000.0 0.7396 -0.6408
6041000000.0 -0.03032 -0.9832
6044000000.0 -0.7689 -0.5949
6047000000.0 -0.9069 0.2002
6050000000.0 -0.3852 0.8358
6053000000.0 0.385 0.8451
6056000000.0 0.9027 0.2308
6059000000.0 0.713 -0.5701
6062000000.0 0.01793 -0.9374
6066000000.0 -0.6962 -0.6033
6069000000.0 -0.8997 0.1495
6072000000.0 -0.4158 0.7955
6075000000.0 0.3544 0.7943
6078000000.0 0.8197 0.2411
6081000000.0 0.7306 -0.5026
6084000000.0 0.05807 -0.8605
6088000000.0 -0.6099 -0.6121
6091000000.0 -0.8369 0.1275
6094000000.0 -0.4202 0.7213
6097000000.0 0.3028 0.8054
6100000000.0 0.7994 0.2891
6103000000.0 0.7453 -0.4296
6106000000.0 0.0839 -0.8397
6109000000.0 -0.5453 -0.6236
6112000000.0 -0.8466 0.06864
6116000000.0 -0.4696 0.7188
6119000000.0 0.2319 0.7897
6122000000.0 0.8185 0.2999
6125000000.0 0.7435 -0.4416
6128000000.0 0.1125 -0.8657
6131000000.0 -0.583 -0.6665
6134000000.0 -0.8598 0.05544
6138000000.0 -0.5244 0.7181
6141000000.0 0.2375 0.8549
6144000000.0 0.7992 0.3734
6147000000.0 0.8124 -0.4046
6150000000.0 0.2401 -0.8784
6153000000.0 -0.5571 -0.6801
6156000000.0 -0.9142 -0.03433
6159000000.0 -0.6227 0.7077
6162000000.0 0.1508 0.9296
6166000000.0 0.7845 0.4878
6169000000.0 0.8601 -0.3349
6172000000.0 0.3183 -0.8822
6175000000.0 -0.5129 -0.8004
6178000000.0 -0.9146 -0.1273
6181000000.0 -0.6964 0.6803
6184000000.0 0.07759 0.9431
6188000000.0 0.7972 0.5201
6191000000.0 0.9142 -0.2626
6194000000.0 0.3809 -0.8688
6197000000.0 -0.4231 -0.8289
6200000000.0 -0.9265 -0.2125
6203000000.0 -0.7258 0.5662
6206000000.0 0.0001808 0.9223
6209000000.0 0.7077 0.6011
6212000000.0 0.9254 -0.161
6216000000.0 0.4186 -0.7723
6219000000.0 -0.3404 -0.8692
6222000000.0 -0.8539 -0.2497
6225000000.0 -0.7577 0.4827
6228000000.0 -0.1363 0.9183
6231000000.0 0.6175 0.6612
6234000000.0 0.8873 -0.05407
6238000000.0 0.5434 -0.7073
6241000000.0 -0.1997 -0.8418
6244000000.0 -0.7993 -0.4049
6247000000.0 -0.8091 0.338
6250000000.0 -0.238 0.8188
6253000000.0 0.4712 0.6977
6256000000.0 0.8241 0.05926
6259000000.0 0.6068 -0.5875
6262000000.0 -0.07225 -0.7984
