! Created with skrf 1.8.0 (http://scikit-rf.org).
# Hz S RI R 50.0 
!freq ReS11 ImS11
4000000000.0 -0.2422 -1.451
4003000000.0 -1.263 -0.7374
4006000000.0 -1.371 0.5717
4009000000.0 -0.4411 1.404
4012000000.0 0.8676 1.251
4016000000.0 1.533 0.1046
4019000000.0 1.093 -1.098
4022000000.0 -0.2488 -1.546
4025000000.0 -1.362 -0.77
4028000000.0 -1.513 0.5559
4031000000.0 -0.4788 1.523
4034000000.0 0.8859 1.336
4038000000.0 1.591 0.1414
4041000000.0 1.1 -1.222
4044000000.0 -0.217 -1.625
4047000000.0 -1.318 -0.8629
4050000000.0 -1.533 0.5116
4053000000.0 -0.5279 1.53
4056000000.0 0.8428 1.371
4059000000.0 1.606 0.2313
4062000000.0 1.222 -1.095
4066000000.0 -0.08984 -1.602
4069000000.0 -1.313 -0.9931
4072000000.0 -1.565 0.3922
4075000000.0 -0.7294 1.431
4078000000.0 0.6573 1.499
4081000000.0 1.559 0.4473
4084000000.0 1.369 -0.9317
4088000000.0 0.1785 -1.633
4091000000.0 -1.177 -1.199
4094000000.0 -1.634 0.1511
4097000000.0 -0.9218 1.342
4100000000.0 0.452 1.569
4103000000.0 1.476 0.6336
4106000000.0 1.388 -0.7005
4109000000.0 0.3322 -1.514
4112000000.0 -0.933 -1.239
4116000000.0 -1.473 -0.1326
4119000000.0 -1.043 1.039
4122000000.0 0.07647 1.484
4125000000.0 1.144 0.8897
4128000000.0 1.439 -0.3033
4131000000.0 0.7102 -1.249
4134000000.0 -0.5413 -1.367
4138000000.0 -1.396 -0.5248
4141000000.0 -1.28 0.7206
4144000000.0 -0.3176 1.449
4147000000.0 0.9014 1.205
4150000000.0 1.525 0.04624
4153000000.0 0.9908 -1.124
4156000000.0 -0.1877 -1.5
4159000000.0 -1.282 -0.7884
4162000000.0 -1.441 0.4681
4166000000.0 -0.5606 1.405
4169000000.0 0.7206 1.313
4172000000.0 1.449 0.2871
4175000000.0 1.175 -0.9286
4178000000.0 0.06631 -1.481
4181000000.0 -1.113 -0.9919
4184000000.0 -1.48 0.2127
4188000000.0 -0.7583 1.291
4191000000.0 0.4895 1.43
4194000000.0 1.451 0.5387
4197000000.0 1.345 -0.7537
4200000000.0 0.2579 -1.551
4203000000.0 -1.088 -1.154
4206000000.0 -1.617 0.1226
4209000000.0 -0.9029 1.37
4212000000.0 0.528 1.581
4216000000.0 1.561 0.5715
4219000000.0 1.377 -0.8734
4222000000.0 0.1451 -1.674
4225000000.0 -1.259 -1.107
4228000000.0 -1.617 0.3316
4231000000.0 -0.7197 1.481
4234000000.0 0.7202 1.481
4238000000.0 1.597 0.2787
4241000000.0 1.195 -1.051
4244000000.0 -0.1274 -1.58
4247000000.0 -1.322 -0.8517
4250000000.0 -1.438 0.5113
4253000000.0 -0.5191 1.45
4256000000.0 0.8349 1.262
4259000000.0 1.47 0.08108
4262000000.0 0.9838 -1.093
4266000000.0 -0.2851 -1.432
4269000000.0 -1.293 -0.6908
4272000000.0 -1.344 0.5994
4275000000.0 -0.3293 1.418
4278000000.0 0.9097 1.107
4281000000.0 1.397 -0.01222
4284000000.0 0.8604 -1.069
4288000000.0 -0.3007 -1.319
4291000000.0 -1.227 -0.5932
4294000000.0 -1.22 0.5729
4297000000.0 -0.3171 1.29
4300000000.0 0.761 1.062
4303000000.0 1.302 0.09519
4306000000.0 0.9189 -0.9206
4309000000.0 -0.1587 -1.271
4312000000.0 -1.088 -0.7219
4316000000.0 -1.242 0.3631
4319000000.0 -0.495 1.212
4322000000.0 0.5757 1.154
4325000000.0 1.281 0.3112
4328000000.0 1.109 -0.7976
4331000000.0 0.1275 -1.314
4334000000.0 -0.9568 -0.9589
4338000000.0 -1.381 0.1436
4341000000.0 -0.8304 1.15
4344000000.0 0.3597 1.371
4347000000.0 1.293 0.5977
4350000000.0 1.28 -0.6674
4353000000.0 0.3358 -1.392
4356000000.0 -0.8622 -1.165
4359000000.0 -1.464 -0.0641
4362000000.0 -0.9551 1.09
4366000000.0 0.2107 1.463
4369000000.0 1.249 0.7815
4372000000.0 1.402 -0.4927
4375000000.0 0.526 -1.383
4378000000.0 -0.7443 -1.307
4381000000.0 -1.485 -0.2433
4384000000.0 -1.106 1.012
4388000000.0 0.05702 1.533
4391000000.0 1.249 0.9509
4394000000.0 1.543 -0.3855
4397000000.0 0.6295 -1.444
4400000000.0 -0.7295 -1.384
4403000000.0 -1.509 -0.2898
4406000000.0 -1.139 1.08
4409000000.0 0.1381 1.519
4412000000.0 1.308 0.869
4416000000.0 1.424 -0.4723
4419000000.0 0.5118 -1.42
4422000000.0 -0.7976 -1.249
4425000000.0 -1.463 -0.127
4428000000.0 -0.9782 1.036
4431000000.0 0.1924 1.395
4434000000.0 1.198 0.6668
4438000000.0 1.291 -0.5319
4441000000.0 0.3555 -1.341
4444000000.0 -0.8099 -1.041
4447000000.0 -1.302 -0.02504
4450000000.0 -0.8047 1.03
4453000000.0 0.283 1.222
4456000000.0 1.147 0.5004
4459000000.0 1.083 -0.6082
4462000000.0 0.1887 -1.189
4466000000.0 -0.8321 -0.8578
4469000000.0 -1.212 0.1293
4472000000.0 -0.6153 1.003
4475000000.0 0.4178 1.118
4478000000.0 1.132 0.4084
4481000000.0 0.9658 -0.6266
4484000000.0 0.09646 -1.143
4488000000.0 -0.8458 -0.7607
4491000000.0 -1.129 0.1751
4494000000.0 -0.5625 0.9788
4497000000.0 0.4319 1.067
4500000000.0 1.079 0.3178
4503000000.0 0.9012 -0.6402
4506000000.0 0.1174 -1.119
4509000000.0 -0.7926 -0.7905
4512000000.0 -1.123 0.106
4516000000.0 -0.6691 0.9437
4519000000.0 0.3179 1.1
4522000000.0 1.028 0.4424
4525000000.0 1.01 -0.5558
4528000000.0 0.2262 -1.167
4531000000.0 -0.7742 -0.8951
4534000000.0 -1.212 -0.01553
4538000000.0 -0.7475 0.9042
4541000000.0 0.2284 1.222
4544000000.0 1.067 0.5914
4547000000.0 1.178 -0.4266
4550000000.0 0.3952 -1.153
4553000000.0 -0.6485 -1.046
4556000000.0 -1.23 -0.1903
4559000000.0 -0.9417 0.7992
4562000000.0 0.05138 1.269
4566000000.0 1.007 0.8066
4569000000.0 1.274 -0.2588
4572000000.0 0.6239 -1.149
4575000000.0 -0.4775 -1.213
4578000000.0 -1.256 -0.41
4581000000.0 -1.134 0.6923
4584000000.0 -0.1831 1.35
4588000000.0 0.9431 1.027
4591000000.0 1.373 -0.05563
4594000000.0 0.8498 -1.134
4597000000.0 -0.3455 -1.337
4600000000.0 -1.266 -0.6154
4603000000.0 -1.267 0.6277
4606000000.0 -0.3388 1.353
4609000000.0 0.8547 1.133
4612000000.0 1.393 0.02603
4616000000.0 0.9255 -1.068
4619000000.0 -0.2152 -1.393
4622000000.0 -1.195 -0.656
4625000000.0 -1.271 0.5406
4628000000.0 -0.4061 1.33
4631000000.0 0.7849 1.128
4634000000.0 1.362 0.1035
4638000000.0 0.9418 -0.9904
4641000000.0 -0.1813 -1.32
4644000000.0 -1.125 -0.7088
4647000000.0 -1.222 0.4774
4650000000.0 -0.4281 1.257
4653000000.0 0.7166 1.064
4656000000.0 1.272 0.09532
4659000000.0 0.848 -0.94
4662000000.0 -0.2205 -1.203
4666000000.0 -1.063 -0.5813
4669000000.0 -1.077 0.4543
4672000000.0 -0.3084 1.125
4675000000.0 0.6576 0.9603
4678000000.0 1.119 0.06552
4681000000.0 0.7275 -0.8288
4684000000.0 -0.1933 -1.093
4688000000.0 -0.955 -0.5308
4691000000.0 -1.03 0.3928
4694000000.0 -0.2968 1.052
4697000000.0 0.6313 0.8824
4700000000.0 1.073 0.05553
4703000000.0 0.7086 -0.826
4706000000.0 -0.1996 -1.064
4709000000.0 -0.9614 -0.5051
4712000000.0 -0.9822 0.4295
4716000000.0 -0.2618 1.004
4719000000.0 0.6065 0.8577
4722000000.0 1.041 0.08715
4725000000.0 0.7203 -0.7558
4728000000.0 -0.1697 -1.056
4731000000.0 -0.9458 -0.5593
4734000000.0 -0.9898 0.342
4738000000.0 -0.3532 1.006
4741000000.0 0.527 0.9222
4744000000.0 1.033 0.1846
4747000000.0 0.815 -0.6904
4750000000.0 -0.02324 -1.107
4753000000.0 -0.841 -0.7059
4756000000.0 -1.104 0.2026
4759000000.0 -0.5277 0.9858
4762000000.0 0.4049 1.072
4766000000.0 1.098 0.3604
4769000000.0 1.012 -0.5919
4772000000.0 0.1781 -1.166
4775000000.0 -0.8132 -0.8597
4778000000.0 -1.161 0.02787
4781000000.0 -0.7745 0.9405
4784000000.0 0.239 1.194
4788000000.0 1.059 0.5735
4791000000.0 1.154 -0.4529
4794000000.0 0.3973 -1.159
4797000000.0 -0.6336 -1.101
4800000000.0 -1.279 -0.1989
4803000000.0 -0.9417 0.8154
4806000000.0 0.01948 1.294
4809000000.0 0.9805 0.8052
4812000000.0 1.277 -0.2677
4816000000.0 0.6626 -1.168
4819000000.0 -0.4889 -1.247
4822000000.0 -1.272 -0.4176
4825000000.0 -1.163 0.7106
4828000000.0 -0.1774 1.391
4831000000.0 0.9381 1.006
4834000000.0 1.396 -0.1077
4838000000.0 0.8006 -1.127
4841000000.0 -0.3746 -1.344
4844000000.0 -1.283 -0.5752
4847000000.0 -1.241 0.6546
4850000000.0 -0.2813 1.356
4853000000.0 0.8407 1.051
4856000000.0 1.348 -0.009622
4859000000.0 0.8715 -1.022
4862000000.0 -0.264 -1.303
4866000000.0 -1.154 -0.6163
4869000000.0 -1.217 0.5179
4872000000.0 -0.3677 1.237
4875000000.0 0.7178 1.014
4878000000.0 1.237 0.09038
4881000000.0 0.8349 -0.9342
4884000000.0 -0.171 -1.202
4888000000.0 -0.9998 -0.6137
4891000000.0 -1.124 0.4232
4894000000.0 -0.3536 1.068
4897000000.0 0.6254 0.9515
4900000000.0 1.102 0.09068
4903000000.0 0.7781 -0.769
4906000000.0 -0.1318 -1.063
4909000000.0 -0.852 -0.5547
4912000000.0 -0.9805 0.3117
4916000000.0 -0.3752 0.94
4919000000.0 0.4659 0.8617
4922000000.0 0.9071 0.1603
4925000000.0 0.6986 -0.6211
4928000000.0 -0.01966 -0.9442
4931000000.0 -0.7601 -0.5612
4934000000.0 -0.9074 0.2108
4938000000.0 -0.4068 0.8243
4941000000.0 0.371 0.866
4944000000.0 0.8945 0.2217
4947000000.0 0.7844 -0.5483
4950000000.0 0.06742 -0.9394
4953000000.0 -0.6928 -0.6574
4956000000.0 -0.9576 0.1203
4959000000.0 -0.5063 0.8356
4962000000.0 0.3464 0.9523
4966000000.0 0.9582 0.3205
4969000000.0 0.8394 -0.5101
4972000000.0 0.1495 -1.0
4975000000.0 -0.6499 -0.7609
4978000000.0 -1.03 0.03379
4981000000.0 -0.6119 0.8628
4984000000.0 0.2585 1.04
4988000000.0 0.9884 0.4966
4991000000.0 0.988 -0.4527
4994000000.0 0.3237 -1.062
4997000000.0 -0.6347 -0.9339
5000000000.0 -1.116 -0.09661
5003000000.0 -0.7959 0.8362
5006000000.0 0.09978 1.171
5009000000.0 0.9862 0.685
5012000000.0 1.164 -0.3332
5016000000.0 0.4652 -1.171
5019000000.0 -0.5681 -1.098
5022000000.0 -1.266 -0.2239
5025000000.0 -0.9897 0.7862
5028000000.0 -0.01887 1.286
5031000000.0 0.9796 0.8251
5034000000.0 1.255 -0.2204
5038000000.0 0.6627 -1.108
5041000000.0 -0.4857 -1.208
5044000000.0 -1.219 -0.4316
5047000000.0 -1.132 0.6527
5050000000.0 -0.2262 1.304
5053000000.0 0.8636 0.9862
5056000000.0 1.297 -0.04341
5059000000.0 0.8179 -0.9501
5062000000.0 -0.2219 -1.252
5066000000.0 -1.142 -0.6153
5069000000.0 -1.185 0.4652
5072000000.0 -0.383 1.178
5075000000.0 0.6539 1.062
5078000000.0 1.24 0.151
5081000000.0 0.8829 -0.8446
5084000000.0 -0.09539 -1.212
5088000000.0 -0.9343 -0.7112
5091000000.0 -1.116 0.2977
5094000000.0 -0.4965 1.063
5097000000.0 0.4668 1.049
5100000000.0 1.041 0.3234
5103000000.0 0.9433 -0.6175
5106000000.0 0.1211 -1.059
5109000000.0 -0.7244 -0.7819
5112000000.0 -1.052 0.09775
5116000000.0 -0.6144 0.823
5119000000.0 0.2395 0.9862
5122000000.0 0.8986 0.4481
5125000000.0 0.8834 -0.4282
5128000000.0 0.2116 -0.9756
5131000000.0 -0.5908 -0.7844
5134000000.0 -0.9875 -0.02838
5138000000.0 -0.6493 0.7061
5141000000.0 0.1474 0.9699
5144000000.0 0.7914 0.4726
5147000000.0 0.8614 -0.3126
5150000000.0 0.3095 -0.8699
5153000000.0 -0.5062 -0.7921
5156000000.0 -0.9035 -0.08959
5159000000.0 -0.6611 0.6272
5162000000.0 0.07954 0.8685
5166000000.0 0.7158 0.5032
5169000000.0 0.839 -0.2714
5172000000.0 0.3294 -0.8153
5175000000.0 -0.4338 -0.7949
5178000000.0 -0.8991 -0.1368
5181000000.0 -0.7023 0.6216
5184000000.0 0.07592 0.9089
5188000000.0 0.7569 0.5039
5191000000.0 0.8797 -0.2448
5194000000.0 0.3815 -0.8798
5197000000.0 -0.464 -0.8358
5200000000.0 -0.95 -0.1389
5203000000.0 -0.741 0.634
5206000000.0 0.05261 0.9796
5209000000.0 0.7782 0.5624
5212000000.0 0.9422 -0.2657
5216000000.0 0.3997 -0.8954
5219000000.0 -0.4331 -0.8939
5222000000.0 -0.9899 -0.1999
5225000000.0 -0.7954 0.5968
5228000000.0 -0.04305 0.9925
5231000000.0 0.7799 0.6702
5234000000.0 1.021 -0.1722
5238000000.0 0.5367 -0.8915
5241000000.0 -0.389 -0.9869
5244000000.0 -1.002 -0.3716
5247000000.0 -0.916 0.5654
5250000000.0 -0.1537 1.067
5253000000.0 0.7117 0.8045
5256000000.0 1.071 -0.04976
5259000000.0 0.6879 -0.8452
5262000000.0 -0.224 -1.064
5266000000.0 -0.9588 -0.5237
5269000000.0 -1.008 0.3856
5272000000.0 -0.352 1.051
5275000000.0 0.5647 0.9599
5278000000.0 1.071 0.1801
5281000000.0 0.8143 -0.7121
5284000000.0 -0.008754 -1.105
5288000000.0 -0.8278 -0.7203
5291000000.0 -1.075 0.2012
5294000000.0 -0.5827 0.9428
5297000000.0 0.3663 1.052
5300000000.0 1.032 0.3873
5303000000.0 0.996 -0.5375
5306000000.0 0.2412 -1.091
5309000000.0 -0.7101 -0.9023
5312000000.0 -1.155 -0.03494
5316000000.0 -0.7122 0.8769
5319000000.0 0.175 1.117
5322000000.0 0.9819 0.5979
5325000000.0 1.096 -0.3945
5328000000.0 0.3848 -1.075
5331000000.0 -0.5538 -0.9427
5334000000.0 -1.097 -0.1647
5338000000.0 -0.8601 0.7409
5341000000.0 0.05094 1.108
5344000000.0 0.8938 0.6615
5347000000.0 1.045 -0.2976
5350000000.0 0.4502 -0.9821
5353000000.0 -0.4595 -0.9421
5356000000.0 -1.036 -0.2099
5359000000.0 -0.822 0.6317
5362000000.0 0.00125 1.047
5366000000.0 0.784 0.6725
5369000000.0 0.9784 -0.2178
5372000000.0 0.4349 -0.9107
5375000000.0 -0.4327 -0.8904
5378000000.0 -0.9751 -0.1813
5381000000.0 -0.7368 0.6117
5384000000.0 0.04414 0.9373
5388000000.0 0.7406 0.5424
5391000000.0 0.8999 -0.2386
5394000000.0 0.3509 -0.8395
5397000000.0 -0.4649 -0.7749
5400000000.0 -0.9009 -0.1365
5403000000.0 -0.6373 0.5688
5406000000.0 0.08456 0.8313
5409000000.0 0.7076 0.4785
5412000000.0 0.7892 -0.2627
5416000000.0 0.3134 -0.7771
5419000000.0 -0.4611 -0.7305
5422000000.0 -0.8549 -0.1369
5425000000.0 -0.62 0.586
5428000000.0 0.06322 0.8514
5431000000.0 0.7254 0.5024
5434000000.0 0.8226 -0.2669
5438000000.0 0.3211 -0.8436
5441000000.0 -0.4452 -0.7669
5444000000.0 -0.8809 -0.1777
5447000000.0 -0.6834 0.5941
5450000000.0 0.04681 0.8917
5453000000.0 0.7271 0.561
5456000000.0 0.9042 -0.2335
5459000000.0 0.4097 -0.8392
5462000000.0 -0.3959 -0.8825
5466000000.0 -0.88 -0.2601
5469000000.0 -0.7641 0.5172
5472000000.0 -0.08012 0.9426
5475000000.0 0.659 0.6883
5478000000.0 0.9396 -0.06213
5481000000.0 0.5771 -0.7945
5484000000.0 -0.2456 -0.9536
5488000000.0 -0.8876 -0.4289
5491000000.0 -0.9205 0.4388
5494000000.0 -0.2936 1.025
5497000000.0 0.5854 0.8375
5500000000.0 1.047 0.1029
5503000000.0 0.7569 -0.7562
5506000000.0 -0.1005 -1.053
5509000000.0 -0.8525 -0.6045
5512000000.0 -1.004 0.3016
5516000000.0 -0.4338 0.9701
5519000000.0 0.4682 0.9668
5522000000.0 1.03 0.279
5525000000.0 0.8995 -0.6394
5528000000.0 0.08895 -1.039
5531000000.0 -0.7818 -0.796
5534000000.0 -1.101 0.121
5538000000.0 -0.5927 0.916
5541000000.0 0.2744 1.039
5544000000.0 0.994 0.4196
5547000000.0 0.952 -0.4927
5550000000.0 0.259 -1.046
5553000000.0 -0.6603 -0.813
5556000000.0 -1.024 -0.03343
5559000000.0 -0.6913 0.7906
5562000000.0 0.1772 0.9977
5566000000.0 0.8676 0.4778
5569000000.0 0.9275 -0.3535
5572000000.0 0.2897 -0.9486
5575000000.0 -0.5157 -0.79
5578000000.0 -0.9454 -0.1137
5581000000.0 -0.7052 0.698
5584000000.0 0.07012 0.9666
5588000000.0 0.776 0.5152
5591000000.0 0.8452 -0.2652
5594000000.0 0.3412 -0.8546
5597000000.0 -0.4206 -0.7873
5600000000.0 -0.8364 -0.138
5603000000.0 -0.6241 0.5711
5606000000.0 0.03502 0.8453
5609000000.0 0.6475 0.5133
5612000000.0 0.7953 -0.234
5616000000.0 0.3422 -0.755
5619000000.0 -0.379 -0.7483
5622000000.0 -0.7706 -0.1683
5625000000.0 -0.6127 0.5277
5628000000.0 0.01608 0.8211
5631000000.0 0.6366 0.4916
5634000000.0 0.7782 -0.1912
5638000000.0 0.3374 -0.7526
5641000000.0 -0.3776 -0.7424
5644000000.0 -0.8371 -0.1633
5647000000.0 -0.638 0.5491
5650000000.0 0.01614 0.8729
5653000000.0 0.6835 0.4887
5656000000.0 0.8354 -0.2018
5659000000.0 0.371 -0.7811
5662000000.0 -0.415 -0.7963
5666000000.0 -0.9074 -0.1952
5669000000.0 -0.7091 0.5584
5672000000.0 0.01289 0.9214
5675000000.0 0.7397 0.6191
5678000000.0 0.9259 -0.1842
5681000000.0 0.4286 -0.8758
5684000000.0 -0.4147 -0.8909
5688000000.0 -0.9636 -0.2727
5691000000.0 -0.8492 0.557
5694000000.0 -0.03158 1.006
5697000000.0 0.7488 0.6885
5700000000.0 1.029 -0.1291
5703000000.0 0.5306 -0.9026
5706000000.0 -0.3553 -1.009
5709000000.0 -1.01 -0.3477
5712000000.0 -0.9442 0.5414
5716000000.0 -0.1462 1.079
5719000000.0 0.7343 0.8199
5722000000.0 1.096 -0.04063
5725000000.0 0.6849 -0.8934
5728000000.0 -0.2491 -1.078
5731000000.0 -0.9716 -0.5022
5734000000.0 -1.034 0.4339
5738000000.0 -0.294 1.073
5741000000.0 0.6381 0.9124
5744000000.0 1.107 0.1267
5747000000.0 0.7896 -0.7872
5750000000.0 -0.1047 -1.144
5753000000.0 -0.8874 -0.6311
5756000000.0 -1.068 0.3114
5759000000.0 -0.4473 1.022
5762000000.0 0.4831 1.012
5766000000.0 1.072 0.2335
5769000000.0 0.8781 -0.6645
5772000000.0 0.03351 -1.103
5775000000.0 -0.8113 -0.7137
5778000000.0 -1.06 0.1912
5781000000.0 -0.5457 0.921
5784000000.0 0.3665 0.9933
5788000000.0 0.9987 0.3477
5791000000.0 0.8862 -0.5786
5794000000.0 0.1371 -1.025
5797000000.0 -0.7246 -0.7228
5800000000.0 -1.017 0.09454
5803000000.0 -0.5748 0.8919
5806000000.0 0.3224 0.9956
5809000000.0 0.9543 0.3594
5812000000.0 0.8749 -0.4838
5816000000.0 0.1537 -0.9934
5819000000.0 -0.6515 -0.6949
5822000000.0 -0.9221 0.06463
5825000000.0 -0.5415 0.7854
5828000000.0 0.2439 0.8949
5831000000.0 0.8632 0.3506
5834000000.0 0.7903 -0.4527
5838000000.0 0.1635 -0.9031
5841000000.0 -0.6088 -0.6744
5844000000.0 -0.9035 0.0384
5847000000.0 -0.5265 0.7241
5850000000.0 0.2658 0.8645
5853000000.0 0.8375 0.3203
5856000000.0 0.7468 -0.4083
5859000000.0 0.1406 -0.8479
5862000000.0 -0.5731 -0.6491
5866000000.0 -0.8795 0.09177
5869000000.0 -0.4657 0.7239
5872000000.0 0.2838 0.8422
5875000000.0 0.8176 0.3108
5878000000.0 0.7281 -0.4789
5881000000.0 0.145 -0.8804
5884000000.0 -0.5883 -0.6225
5888000000.0 -0.8548 0.06207
5891000000.0 -0.4808 0.7291
5894000000.0 0.2532 0.8796
5897000000.0 0.781 0.3241
5900000000.0 0.793 -0.4263
5903000000.0 0.1883 -0.8777
5906000000.0 -0.5672 -0.7118
5909000000.0 -0.9143 -0.008731
5912000000.0 -0.5865 0.7209
5916000000.0 0.1889 0.9185
5919000000.0 0.8372 0.4166
5922000000.0 0.8315 -0.395
5925000000.0 0.2511 -0.9619
5928000000.0 -0.5146 -0.7805
5931000000.0 -0.948 -0.07084
5934000000.0 -0.676 0.6893
5938000000.0 0.07752 0.9738
5941000000.0 0.8092 0.5602
5944000000.0 0.9321 -0.2559
5947000000.0 0.3884 -0.8826
5950000000.0 -0.4735 -0.8762
5953000000.0 -0.9533 -0.2056
5956000000.0 -0.791 0.5903
5959000000.0 -0.01496 0.9958
5962000000.0 0.7747 0.6552
5966000000.0 0.9748 -0.2164
5969000000.0 0.4688 -0.9002
5972000000.0 -0.3878 -0.9052
5975000000.0 -0.967 -0.2428
5978000000.0 -0.8405 0.5863
5981000000.0 -0.07872 1.016
5984000000.0 0.7897 0.6867
5988000000.0 1.005 -0.1504
5991000000.0 0.5008 -0.8542
5994000000.0 -0.3631 -0.9136
5997000000.0 -0.9726 -0.3091
6000000000.0 -0.8323 0.5397
6003000000.0 -0.05979 0.9552
6006000000.0 0.6763 0.6428
6009000000.0 0.9366 -0.1434
6012000000.0 0.4624 -0.8101
6016000000.0 -0.3245 -0.8859
6019000000.0 -0.8976 -0.2715
6022000000.0 -0.738 0.5195
6025000000.0 -0.04595 0.9113
6028000000.0 0.6481 0.5844
6031000000.0 0.8625 -0.1793
6034000000.0 0.4065 -0.7666
6038000000.0 -0.3468 -0.7927
6041000000.0 -0.8462 -0.2026
6044000000.0 -0.6549 0.5337
6047000000.0 0.01454 0.8517
6050000000.0 0.6653 0.5146
6053000000.0 0.8035 -0.1764
6056000000.0 0.3446 -0.748
6059000000.0 -0.3647 -0.7558
6062000000.0 -0.8193 -0.2089
6066000000.0 -0.6453 0.5157
6069000000.0 0.02367 0.8524
6072000000.0 0.6847 0.484
6075000000.0 0.8066 -0.2026
6078000000.0 0.3307 -0.7898
6081000000.0 -0.4111 -0.7473
6084000000.0 -0.8656 -0.135
6088000000.0 -0.6737 0.5912
6091000000.0 0.01674 0.8716
6094000000.0 0.6895 0.5612
6097000000.0 0.8473 -0.2178
6100000000.0 0.3427 -0.8208
6103000000.0 -0.4142 -0.7983
6106000000.0 -0.946 -0.1895
6109000000.0 -0.7365 0.6444
6112000000.0 0.05694 0.966
6116000000.0 0.7944 0.5832
6119000000.0 0.9577 -0.2712
6122000000.0 0.3557 -0.9114
6125000000.0 -0.4896 -0.8599
6128000000.0 -0.9863 -0.1199
6131000000.0 -0.7178 0.7109
6134000000.0 0.06862 0.9919
6138000000.0 0.8347 0.5502
6141000000.0 0.976 -0.3207
6144000000.0 0.3482 -0.9327
6147000000.0 -0.554 -0.8901
6150000000.0 -1.023 -0.1174
6153000000.0 -0.7144 0.714
6156000000.0 0.1326 1.024
6159000000.0 0.8896 0.5037
6162000000.0 0.9624 -0.3397
6166000000.0 0.3232 -0.9579
6169000000.0 -0.5437 -0.8024
6172000000.0 -1.006 -0.0724
6175000000.0 -0.6933 0.7513
6178000000.0 0.1741 0.9487
6181000000.0 0.8391 0.4671
6184000000.0 0.8829 -0.3863
6188000000.0 0.2224 -0.9065
6191000000.0 -0.5965 -0.746
6194000000.0 -0.9308 -0.01343
6197000000.0 -0.5672 0.7181
6200000000.0 0.2061 0.8416
6203000000.0 0.8284 0.3664
6206000000.0 0.7862 -0.4018
6209000000.0 0.1855 -0.8267
6212000000.0 -0.5611 -0.6561
6216000000.0 -0.8179 0.06776
6219000000.0 -0.484 0.6904
6222000000.0 0.2428 0.7993
6225000000.0 0.7809 0.2523
6228000000.0 0.7342 -0.435
6231000000.0 0.1242 -0.818
6234000000.0 -0.5814 -0.5788
6238000000.0 -0.8067 0.09224
6241000000.0 -0.4066 0.7208
6244000000.0 0.3306 0.7515
6247000000.0 0.7844 0.1949
6250000000.0 0.6407 -0.4836
6253000000.0 -0.001531 -0.822
6256000000.0 -0.6378 -0.4817
6259000000.0 -0.7558 0.23
6262000000.0 -0.3238 0.7697
6266000000.0 0.3739 0.7281
