! Created with skrf 1.8.0 (http://scikit-rf.org).
# Hz S RI R 50.0 
!freq ReS11 ImS11
4000000000.0 -0.1885 -1.535
4003000000.0 -1.24 -0.809
4006000000.0 -1.426 0.4564
4009000000.0 -0.5163 1.41
4012000000.0 0.7599 1.322
4016000000.0 1.524 0.2553
4019000000.0 1.15 -1.034
4022000000.0 -0.1162 -1.588
4025000000.0 -1.336 -0.9552
4028000000.0 -1.537 0.4568
4031000000.0 -0.5898 1.499
4034000000.0 0.8141 1.452
4038000000.0 1.612 0.2341
4041000000.0 1.205 -1.109
4044000000.0 -0.09923 -1.629
4047000000.0 -1.367 -0.9127
4050000000.0 -1.583 0.4697
4053000000.0 -0.6313 1.51
4056000000.0 0.7484 1.437
4059000000.0 1.593 0.3479
4062000000.0 1.221 -1.004
4066000000.0 0.0109 -1.589
4069000000.0 -1.219 -1.057
4072000000.0 -1.604 0.2075
4075000000.0 -0.8455 1.413
4078000000.0 0.5603 1.519
4081000000.0 1.547 0.5801
4084000000.0 1.416 -0.8647
4088000000.0 0.2388 -1.615
4091000000.0 -1.098 -1.225
4094000000.0 -1.623 0.1188
4097000000.0 -1.012 1.318
4100000000.0 0.379 1.597
4103000000.0 1.433 0.7179
4106000000.0 1.47 -0.6293
4109000000.0 0.4412 -1.487
4112000000.0 -0.8182 -1.306
4116000000.0 -1.505 -0.22
4119000000.0 -1.139 0.9905
4122000000.0 -0.0204 1.515
4125000000.0 1.125 0.9767
4128000000.0 1.469 -0.2314
4131000000.0 0.7937 -1.245
4134000000.0 -0.4246 -1.428
4138000000.0 -1.393 -0.6095
4141000000.0 -1.348 0.645
4144000000.0 -0.3704 1.472
4147000000.0 0.8479 1.265
4150000000.0 1.519 0.1676
4153000000.0 1.1 -1.075
4156000000.0 -0.1046 -1.538
4159000000.0 -1.249 -0.8919
4162000000.0 -1.492 0.3568
4166000000.0 -0.669 1.387
4169000000.0 0.6262 1.403
4172000000.0 1.453 0.4134
4175000000.0 1.252 -0.8776
4178000000.0 0.1501 -1.513
4181000000.0 -1.025 -1.116
4184000000.0 -1.509 0.07952
4188000000.0 -0.9102 1.233
4191000000.0 0.3856 1.491
4194000000.0 1.362 0.6501
4197000000.0 1.42 -0.6633
4200000000.0 0.3856 -1.517
4203000000.0 -0.9412 -1.294
4206000000.0 -1.62 -0.05609
4209000000.0 -1.055 1.235
4212000000.0 0.342 1.611
4216000000.0 1.492 0.7419
4219000000.0 1.513 -0.7375
4222000000.0 0.3415 -1.646
4225000000.0 -1.126 -1.259
4228000000.0 -1.672 0.09883
4231000000.0 -0.948 1.411
4234000000.0 0.5545 1.599
4238000000.0 1.566 0.5011
4241000000.0 1.405 -0.9606
4244000000.0 0.1257 -1.604
4247000000.0 -1.212 -1.058
4250000000.0 -1.548 0.292
4253000000.0 -0.706 1.423
4256000000.0 0.6738 1.351
4259000000.0 1.539 0.3317
4262000000.0 1.121 -0.99
4266000000.0 -0.06817 -1.538
4269000000.0 -1.221 -0.9277
4272000000.0 -1.437 0.4231
4275000000.0 -0.5474 1.377
4278000000.0 0.7288 1.282
4281000000.0 1.449 0.1537
4284000000.0 0.982 -1.008
4288000000.0 -0.1228 -1.419
4291000000.0 -1.135 -0.7632
4294000000.0 -1.307 0.3928
4297000000.0 -0.4788 1.255
4300000000.0 0.678 1.134
4303000000.0 1.271 0.2788
4306000000.0 1.041 -0.8278
4309000000.0 0.01418 -1.28
4312000000.0 -0.9637 -0.8606
4316000000.0 -1.268 0.2074
4319000000.0 -0.6698 1.08
4322000000.0 0.3972 1.246
4325000000.0 1.231 0.5063
4328000000.0 1.195 -0.5748
4331000000.0 0.2744 -1.312
4334000000.0 -0.8522 -1.093
4338000000.0 -1.384 -0.04187
4341000000.0 -0.9315 1.06
4344000000.0 0.2054 1.383
4347000000.0 1.186 0.7439
4350000000.0 1.393 -0.4557
4353000000.0 0.4913 -1.37
4356000000.0 -0.7195 -1.229
4359000000.0 -1.402 -0.2694
4362000000.0 -1.11 0.9363
4366000000.0 -0.02692 1.466
4369000000.0 1.128 0.9387
4372000000.0 1.443 -0.2986
4375000000.0 0.7035 -1.326
4378000000.0 -0.5321 -1.382
4381000000.0 -1.449 -0.457
4384000000.0 -1.286 0.8173
4388000000.0 -0.189 1.534
4391000000.0 1.099 1.104
4394000000.0 1.58 -0.1283
4397000000.0 0.8698 -1.304
4400000000.0 -0.481 -1.515
4403000000.0 -1.469 -0.5834
4406000000.0 -1.336 0.813
4409000000.0 -0.1935 1.571
4412000000.0 1.103 1.117
4416000000.0 1.554 -0.1638
4419000000.0 0.8053 -1.34
4422000000.0 -0.5361 -1.425
4425000000.0 -1.458 -0.4578
4428000000.0 -1.217 0.8294
4431000000.0 -0.1117 1.459
4434000000.0 1.063 0.9501
4438000000.0 1.432 -0.2413
4441000000.0 0.6458 -1.233
4444000000.0 -0.5406 -1.258
4447000000.0 -1.346 -0.3361
4450000000.0 -1.087 0.8623
4453000000.0 0.03296 1.315
4456000000.0 1.048 0.7961
4459000000.0 1.224 -0.3556
4462000000.0 0.4858 -1.166
4466000000.0 -0.6716 -1.049
4469000000.0 -1.223 -0.1646
4472000000.0 -0.8765 0.8891
4475000000.0 0.1273 1.221
4478000000.0 0.9845 0.5971
4481000000.0 1.066 -0.4018
4484000000.0 0.3516 -1.098
4488000000.0 -0.6881 -0.9392
4491000000.0 -1.102 -0.09127
4494000000.0 -0.7727 0.7987
4497000000.0 0.1343 1.121
4500000000.0 0.9881 0.582
4503000000.0 1.017 -0.4217
4506000000.0 0.3232 -1.057
4509000000.0 -0.6024 -0.9298
4512000000.0 -1.086 -0.08109
4516000000.0 -0.7866 0.79
4519000000.0 0.1112 1.096
4522000000.0 0.9497 0.6252
4525000000.0 1.072 -0.3561
4528000000.0 0.4267 -1.075
4531000000.0 -0.5666 -1.004
4534000000.0 -1.157 -0.2034
4538000000.0 -0.8789 0.7427
4541000000.0 0.00668 1.175
4544000000.0 0.8898 0.7531
4547000000.0 1.162 -0.2387
4550000000.0 0.5701 -1.057
4553000000.0 -0.4475 -1.099
4556000000.0 -1.154 -0.4043
4559000000.0 -1.043 0.6472
4562000000.0 -0.1839 1.219
4566000000.0 0.8706 0.9306
4569000000.0 1.284 -0.04786
4572000000.0 0.8067 -1.015
4575000000.0 -0.2636 -1.253
4578000000.0 -1.152 -0.6082
4581000000.0 -1.216 0.4553
4584000000.0 -0.4098 1.276
4588000000.0 0.7044 1.159
4591000000.0 1.356 0.1574
4594000000.0 0.9915 -0.9334
4597000000.0 -0.0771 -1.393
4600000000.0 -1.129 -0.8208
4603000000.0 -1.349 0.3705
4606000000.0 -0.5635 1.254
4609000000.0 0.6074 1.249
4612000000.0 1.337 0.3101
4616000000.0 1.089 -0.8674
4619000000.0 0.01801 -1.403
4622000000.0 -1.055 -0.9257
4625000000.0 -1.358 0.2499
4628000000.0 -0.6843 1.23
4631000000.0 0.4977 1.306
4634000000.0 1.336 0.3808
4638000000.0 1.154 -0.7837
4641000000.0 0.1013 -1.346
4644000000.0 -0.9973 -0.9038
4647000000.0 -1.329 0.1894
4650000000.0 -0.667 1.169
4653000000.0 0.4722 1.24
4656000000.0 1.266 0.3525
4659000000.0 1.079 -0.7226
4662000000.0 0.07098 -1.282
4666000000.0 -0.9234 -0.8137
4669000000.0 -1.181 0.2096
4672000000.0 -0.6077 1.039
4675000000.0 0.4568 1.119
4678000000.0 1.128 0.3236
4681000000.0 0.9726 -0.6637
4684000000.0 0.06671 -1.145
4688000000.0 -0.8257 -0.7654
4691000000.0 -1.095 0.1559
4694000000.0 -0.5368 0.9448
4697000000.0 0.4147 1.002
4700000000.0 1.084 0.3309
4703000000.0 0.8797 -0.6618
4706000000.0 0.05877 -1.109
4709000000.0 -0.832 -0.6993
4712000000.0 -1.078 0.2322
4716000000.0 -0.4979 0.9485
4719000000.0 0.4548 0.9599
4722000000.0 1.003 0.2597
4725000000.0 0.8377 -0.6413
4728000000.0 0.03953 -1.079
4731000000.0 -0.8324 -0.7324
4734000000.0 -1.003 0.1713
4738000000.0 -0.5356 0.9114
4741000000.0 0.3879 0.9692
4744000000.0 1.012 0.3352
4747000000.0 0.8848 -0.5456
4750000000.0 0.154 -1.06
4753000000.0 -0.7131 -0.8129
4756000000.0 -1.077 0.03154
4759000000.0 -0.685 0.8564
4762000000.0 0.2381 1.124
4766000000.0 1.0 0.5033
4769000000.0 1.055 -0.412
4772000000.0 0.3244 -1.108
4775000000.0 -0.6157 -0.985
4778000000.0 -1.157 -0.1335
4781000000.0 -0.899 0.7958
4784000000.0 0.07493 1.186
4788000000.0 0.9291 0.7465
4791000000.0 1.169 -0.261
4794000000.0 0.5703 -1.089
4797000000.0 -0.4684 -1.148
4800000000.0 -1.214 -0.385
4803000000.0 -1.049 0.6469
4806000000.0 -0.1967 1.232
4809000000.0 0.833 0.9491
4812000000.0 1.291 -0.03978
4816000000.0 0.8346 -1.024
4819000000.0 -0.2718 -1.281
4822000000.0 -1.181 -0.6209
4825000000.0 -1.262 0.5194
4828000000.0 -0.4073 1.328
4831000000.0 0.7758 1.161
4834000000.0 1.376 0.1196
4838000000.0 0.9634 -1.001
4841000000.0 -0.1245 -1.393
4844000000.0 -1.137 -0.7592
4847000000.0 -1.345 0.4189
4850000000.0 -0.5209 1.288
4853000000.0 0.6466 1.243
4856000000.0 1.36 0.2483
4859000000.0 1.045 -0.9126
4862000000.0 -0.01917 -1.377
4866000000.0 -1.044 -0.8346
4869000000.0 -1.314 0.2598
4872000000.0 -0.5861 1.193
4875000000.0 0.5595 1.183
4878000000.0 1.256 0.3263
4881000000.0 1.022 -0.7542
4884000000.0 0.03839 -1.259
4888000000.0 -0.9403 -0.831
4891000000.0 -1.224 0.1981
4894000000.0 -0.5854 1.034
4897000000.0 0.4416 1.105
4900000000.0 1.117 0.3186
4903000000.0 0.9283 -0.6309
4906000000.0 0.08278 -1.101
4909000000.0 -0.7928 -0.7375
4912000000.0 -1.043 0.1107
4916000000.0 -0.5474 0.8764
4919000000.0 0.3303 0.9466
4922000000.0 0.9131 0.3311
4925000000.0 0.8744 -0.4928
4928000000.0 0.1633 -0.9563
4931000000.0 -0.6333 -0.6989
4934000000.0 -0.9384 0.05466
4938000000.0 -0.5466 0.7694
4941000000.0 0.2199 0.9137
4944000000.0 0.8431 0.3816
4947000000.0 0.8667 -0.3895
4950000000.0 0.237 -0.8836
4953000000.0 -0.5619 -0.7968
4956000000.0 -0.9774 -0.05738
4959000000.0 -0.6326 0.7488
4962000000.0 0.1629 0.9781
4966000000.0 0.852 0.4961
4969000000.0 0.9128 -0.3492
4972000000.0 0.3067 -0.9361
4975000000.0 -0.5267 -0.828
4978000000.0 -0.9953 -0.1162
4981000000.0 -0.729 0.6951
4984000000.0 0.03894 1.032
4988000000.0 0.853 0.6319
4991000000.0 1.047 -0.2679
4994000000.0 0.4656 -0.9615
4997000000.0 -0.4706 -1.009
5000000000.0 -1.082 -0.2746
5003000000.0 -0.9379 0.6575
5006000000.0 -0.09903 1.161
5009000000.0 0.846 0.8199
5012000000.0 1.202 -0.1216
5016000000.0 0.6579 -1.038
5019000000.0 -0.3916 -1.168
5022000000.0 -1.175 -0.4606
5025000000.0 -1.085 0.5984
5028000000.0 -0.2063 1.25
5031000000.0 0.8341 0.9658
5034000000.0 1.285 -0.01237
5038000000.0 0.8205 -0.988
5041000000.0 -0.2202 -1.272
5044000000.0 -1.148 -0.6623
5047000000.0 -1.214 0.4589
5050000000.0 -0.4427 1.208
5053000000.0 0.6733 1.121
5056000000.0 1.283 0.2227
5059000000.0 1.004 -0.8221
5062000000.0 0.001555 -1.303
5066000000.0 -1.003 -0.8433
5069000000.0 -1.277 0.2764
5072000000.0 -0.6005 1.134
5075000000.0 0.499 1.151
5078000000.0 1.234 0.3891
5081000000.0 1.079 -0.7212
5084000000.0 0.142 -1.212
5088000000.0 -0.8329 -0.8789
5091000000.0 -1.178 0.05124
5094000000.0 -0.7146 0.9755
5097000000.0 0.2833 1.147
5100000000.0 1.055 0.4848
5103000000.0 1.068 -0.4439
5106000000.0 0.2833 -1.054
5109000000.0 -0.6201 -0.9109
5112000000.0 -1.064 -0.1455
5116000000.0 -0.768 0.7418
5119000000.0 0.05618 1.069
5122000000.0 0.8311 0.6202
5125000000.0 1.031 -0.2646
5128000000.0 0.4549 -0.931
5131000000.0 -0.4403 -0.9335
5134000000.0 -0.9233 -0.2501
5138000000.0 -0.7932 0.6303
5141000000.0 -0.07069 0.9632
5144000000.0 0.7032 0.674
5147000000.0 0.9444 -0.1475
5150000000.0 0.4793 -0.7768
5153000000.0 -0.3085 -0.8597
5156000000.0 -0.858 -0.3192
5159000000.0 -0.7926 0.4829
5162000000.0 -0.1501 0.9107
5166000000.0 0.5911 0.6512
5169000000.0 0.9035 -0.03351
5172000000.0 0.5395 -0.7128
5175000000.0 -0.2437 -0.8836
5178000000.0 -0.8416 -0.4128
5181000000.0 -0.7914 0.4012
5184000000.0 -0.1696 0.8866
5188000000.0 0.5994 0.7101
5191000000.0 0.9228 0.005709
5194000000.0 0.5654 -0.7264
5197000000.0 -0.2136 -0.9269
5200000000.0 -0.8451 -0.4068
5203000000.0 -0.8727 0.4369
5206000000.0 -0.2071 0.9046
5209000000.0 0.5976 0.7389
5212000000.0 0.962 -0.0353
5216000000.0 0.601 -0.7505
5219000000.0 -0.1871 -0.9728
5222000000.0 -0.8885 -0.4355
5225000000.0 -0.9113 0.3923
5228000000.0 -0.2791 0.955
5231000000.0 0.5757 0.8222
5234000000.0 1.014 0.06651
5238000000.0 0.6958 -0.7451
5241000000.0 -0.1705 -1.039
5244000000.0 -0.8708 -0.5534
5247000000.0 -1.019 0.3344
5250000000.0 -0.3863 0.9912
5253000000.0 0.5252 0.9216
5256000000.0 1.046 0.1875
5259000000.0 0.8507 -0.675
5262000000.0 0.02025 -1.086
5266000000.0 -0.8399 -0.7226
5269000000.0 -1.052 0.1474
5272000000.0 -0.5534 0.9468
5275000000.0 0.3588 1.009
5278000000.0 1.005 0.4228
5281000000.0 0.9591 -0.5488
5284000000.0 0.2285 -1.093
5288000000.0 -0.6679 -0.8746
5291000000.0 -1.098 -0.06783
5294000000.0 -0.7641 0.8322
5297000000.0 0.153 1.107
5300000000.0 0.9666 0.6362
5303000000.0 1.102 -0.3194
5306000000.0 0.4717 -1.026
5309000000.0 -0.495 -1.03
5312000000.0 -1.078 -0.297
5316000000.0 -0.9429 0.6643
5319000000.0 -0.09928 1.151
5322000000.0 0.8262 0.7983
5325000000.0 1.137 -0.08713
5328000000.0 0.6728 -0.9114
5331000000.0 -0.3328 -1.104
5334000000.0 -1.051 -0.457
5338000000.0 -1.018 0.4875
5341000000.0 -0.2706 1.106
5344000000.0 0.6827 0.8893
5347000000.0 1.126 0.03776
5350000000.0 0.7495 -0.8462
5353000000.0 -0.1685 -1.077
5356000000.0 -0.9498 -0.5691
5359000000.0 -1.044 0.3763
5362000000.0 -0.352 1.019
5366000000.0 0.5489 0.9203
5369000000.0 1.051 0.1271
5372000000.0 0.7588 -0.7638
5375000000.0 -0.1139 -1.042
5378000000.0 -0.867 -0.5714
5381000000.0 -0.9775 0.3165
5384000000.0 -0.3269 0.9655
5388000000.0 0.5587 0.8463
5391000000.0 0.9508 0.1117
5394000000.0 0.6653 -0.6688
5397000000.0 -0.1251 -0.9206
5400000000.0 -0.785 -0.4755
5403000000.0 -0.8649 0.3106
5406000000.0 -0.2588 0.843
5409000000.0 0.4933 0.7464
5412000000.0 0.8878 0.09985
5416000000.0 0.5907 -0.6315
5419000000.0 -0.1084 -0.8584
5422000000.0 -0.7312 -0.4391
5425000000.0 -0.8064 0.3055
5428000000.0 -0.2864 0.8306
5431000000.0 0.4731 0.7253
5434000000.0 0.8845 0.08436
5438000000.0 0.6198 -0.6215
5441000000.0 -0.1472 -0.8642
5444000000.0 -0.7702 -0.4116
5447000000.0 -0.832 0.3603
5450000000.0 -0.2706 0.84
5453000000.0 0.4737 0.7506
5456000000.0 0.8917 0.1313
5459000000.0 0.6716 -0.6243
5462000000.0 -0.06042 -0.8808
5466000000.0 -0.7439 -0.5322
5469000000.0 -0.9034 0.2401
5472000000.0 -0.3635 0.8319
5475000000.0 0.4092 0.8292
5478000000.0 0.9104 0.2402
5481000000.0 0.7808 -0.5579
5484000000.0 0.09136 -0.9728
5488000000.0 -0.7102 -0.6565
5491000000.0 -0.9728 0.1243
5494000000.0 -0.5539 0.8161
5497000000.0 0.2999 0.9534
5500000000.0 0.9202 0.3873
5503000000.0 0.8974 -0.4242
5506000000.0 0.2456 -0.9797
5509000000.0 -0.5958 -0.8234
5512000000.0 -1.057 -0.04718
5516000000.0 -0.7102 0.7579
5519000000.0 0.1354 1.025
5522000000.0 0.9057 0.5584
5525000000.0 0.9874 -0.2686
5528000000.0 0.4527 -0.9321
5531000000.0 -0.4384 -0.9767
5534000000.0 -1.015 -0.2761
5538000000.0 -0.8513 0.6233
5541000000.0 -0.07682 1.034
5544000000.0 0.7648 0.7288
5547000000.0 1.039 -0.08235
5550000000.0 0.5976 -0.8736
5553000000.0 -0.2691 -1.033
5556000000.0 -0.9635 -0.4569
5559000000.0 -0.9555 0.4634
5562000000.0 -0.2326 1.023
5566000000.0 0.6086 0.8435
5569000000.0 1.008 0.07869
5572000000.0 0.6871 -0.7896
5575000000.0 -0.1142 -0.9801
5578000000.0 -0.8498 -0.5232
5581000000.0 -0.9436 0.3207
5584000000.0 -0.3831 0.9393
5588000000.0 0.4961 0.8313
5591000000.0 0.9485 0.2044
5594000000.0 0.7324 -0.5959
5597000000.0 -0.01448 -0.9396
5600000000.0 -0.75 -0.5918
5603000000.0 -0.9035 0.1801
5606000000.0 -0.4034 0.8049
5609000000.0 0.3568 0.8401
5612000000.0 0.8735 0.2503
5616000000.0 0.7229 -0.5168
5619000000.0 0.03585 -0.8551
5622000000.0 -0.6496 -0.579
5625000000.0 -0.8231 0.1311
5628000000.0 -0.4479 0.7392
5631000000.0 0.2971 0.7745
5634000000.0 0.8086 0.2437
5638000000.0 0.6917 -0.4568
5641000000.0 0.06583 -0.8324
5644000000.0 -0.6026 -0.5868
5647000000.0 -0.8489 0.1175
5650000000.0 -0.4467 0.7352
5653000000.0 0.2931 0.8042
5656000000.0 0.7981 0.2831
5659000000.0 0.7296 -0.4832
5662000000.0 0.09321 -0.8492
5666000000.0 -0.6094 -0.6107
5669000000.0 -0.8641 0.1054
5672000000.0 -0.4373 0.7565
5675000000.0 0.2942 0.8568
5678000000.0 0.846 0.2801
5681000000.0 0.787 -0.4941
5684000000.0 0.1053 -0.9214
5688000000.0 -0.6643 -0.6875
5691000000.0 -0.9461 0.07933
5694000000.0 -0.5322 0.781
5697000000.0 0.306 0.9053
5700000000.0 0.9304 0.3654
5703000000.0 0.8728 -0.5088
5706000000.0 0.1693 -0.9904
5709000000.0 -0.7032 -0.7508
5712000000.0 -1.037 0.0148
5716000000.0 -0.6169 0.836
5719000000.0 0.2207 1.031
5722000000.0 0.9418 0.4747
5725000000.0 0.9418 -0.4205
5728000000.0 0.2881 -1.036
5731000000.0 -0.6201 -0.8925
5734000000.0 -1.055 -0.08052
5738000000.0 -0.778 0.7298
5741000000.0 0.1079 1.072
5744000000.0 0.945 0.6358
5747000000.0 1.055 -0.2712
5750000000.0 0.4432 -1.034
5753000000.0 -0.4869 -0.992
5756000000.0 -1.079 -0.2869
5759000000.0 -0.9184 0.6595
5762000000.0 -0.1059 1.103
5766000000.0 0.8073 0.7741
5769000000.0 1.122 -0.1407
5772000000.0 0.5923 -0.9133
5775000000.0 -0.2971 -1.066
5778000000.0 -0.979 -0.469
5781000000.0 -0.9876 0.4913
5784000000.0 -0.2525 1.064
5788000000.0 0.682 0.8585
5791000000.0 1.094 0.05448
5794000000.0 0.7228 -0.7836
5797000000.0 -0.1292 -1.078
5800000000.0 -0.9506 -0.5704
5803000000.0 -1.035 0.3394
5806000000.0 -0.3589 1.013
5809000000.0 0.5437 0.9217
5812000000.0 1.018 0.1701
5816000000.0 0.8259 -0.7111
5819000000.0 0.00649 -1.046
5822000000.0 -0.7849 -0.6782
5825000000.0 -0.9847 0.2288
5828000000.0 -0.4839 0.8912
5831000000.0 0.4086 0.8885
5834000000.0 0.9582 0.267
5838000000.0 0.8031 -0.5417
5841000000.0 0.07169 -0.9885
5844000000.0 -0.7009 -0.6754
5847000000.0 -0.9597 0.1427
5850000000.0 -0.4659 0.8168
5853000000.0 0.3267 0.887
5856000000.0 0.8815 0.2866
5859000000.0 0.7731 -0.5315
5862000000.0 0.1344 -0.9006
5866000000.0 -0.6577 -0.6726
5869000000.0 -0.896 0.1104
5872000000.0 -0.463 0.7392
5875000000.0 0.3154 0.8196
5878000000.0 0.8396 0.3202
5881000000.0 0.7389 -0.4537
5884000000.0 0.1012 -0.8836
5888000000.0 -0.5846 -0.6661
5891000000.0 -0.8667 0.07698
5894000000.0 -0.4866 0.7238
5897000000.0 0.2575 0.8412
5900000000.0 0.7976 0.3103
5903000000.0 0.7466 -0.3976
5906000000.0 0.1626 -0.8721
5909000000.0 -0.5579 -0.6257
5912000000.0 -0.8684 0.008187
5916000000.0 -0.5405 0.6878
5919000000.0 0.1962 0.8531
5922000000.0 0.7873 0.391
5925000000.0 0.8035 -0.3346
5928000000.0 0.248 -0.8369
5931000000.0 -0.516 -0.6851
5934000000.0 -0.8599 -0.06752
5938000000.0 -0.6542 0.6051
5941000000.0 0.07748 0.867
5944000000.0 0.733 0.5152
5947000000.0 0.875 -0.2427
5950000000.0 0.3768 -0.8099
5953000000.0 -0.3956 -0.8275
5956000000.0 -0.8693 -0.2473
5959000000.0 -0.7553 0.5604
5962000000.0 -0.06993 0.9308
5966000000.0 0.6683 0.666
5969000000.0 0.9491 -0.08457
5972000000.0 0.5096 -0.8122
5975000000.0 -0.2854 -0.9249
5978000000.0 -0.8821 -0.3585
5981000000.0 -0.9011 0.4238
5984000000.0 -0.2509 0.9521
5988000000.0 0.6034 0.7962
5991000000.0 0.9865 0.03058
5994000000.0 0.6842 -0.7186
5997000000.0 -0.1203 -0.9686
6000000000.0 -0.884 -0.5274
6003000000.0 -0.9293 0.2893
6006000000.0 -0.3552 0.9215
6009000000.0 0.4848 0.8727
6012000000.0 0.9549 0.1723
6016000000.0 0.7662 -0.6441
6019000000.0 -0.01313 -0.9725
6022000000.0 -0.756 -0.6389
6025000000.0 -0.9762 0.1962
6028000000.0 -0.4318 0.8715
6031000000.0 0.4147 0.9226
6034000000.0 0.9459 0.2624
6038000000.0 0.7943 -0.5913
6041000000.0 0.05639 -0.9579
6044000000.0 -0.7183 -0.6682
6047000000.0 -0.9577 0.1403
6050000000.0 -0.4923 0.8097
6053000000.0 0.3026 0.8876
6056000000.0 0.8989 0.3171
6059000000.0 0.7957 -0.489
6062000000.0 0.1094 -0.9016
6066000000.0 -0.6387 -0.6657
6069000000.0 -0.911 0.08481
6072000000.0 -0.5097 0.7628
6075000000.0 0.2491 0.8585
6078000000.0 0.8013 0.3491
6081000000.0 0.7774 -0.4274
6084000000.0 0.1522 -0.8622
6088000000.0 -0.5725 -0.6379
6091000000.0 -0.8665 0.02669
6094000000.0 -0.5274 0.6753
6097000000.0 0.201 0.8423
6100000000.0 0.7696 0.3324
6103000000.0 0.7635 -0.3639
6106000000.0 0.1951 -0.8115
6109000000.0 -0.5198 -0.6918
6112000000.0 -0.8283 -0.02172
6116000000.0 -0.557 0.6811
6119000000.0 0.1813 0.8196
6122000000.0 0.7841 0.4106
6125000000.0 0.7592 -0.3368
6128000000.0 0.2524 -0.8442
6131000000.0 -0.5009 -0.6984
6134000000.0 -0.8635 -0.03113
6138000000.0 -0.6252 0.6267
6141000000.0 0.1374 0.8636
6144000000.0 0.7666 0.4493
6147000000.0 0.8348 -0.2901
6150000000.0 0.2799 -0.827
6153000000.0 -0.4711 -0.7743
6156000000.0 -0.928 -0.1411
6159000000.0 -0.686 0.6061
6162000000.0 0.04635 0.9291
6166000000.0 0.7391 0.5131
6169000000.0 0.8747 -0.1991
6172000000.0 0.3877 -0.8442
6175000000.0 -0.4065 -0.8461
6178000000.0 -0.9121 -0.2261
6181000000.0 -0.7418 0.5689
6184000000.0 -0.03244 0.962
6188000000.0 0.7446 0.6177
6191000000.0 0.9218 -0.1633
6194000000.0 0.466 -0.8565
6197000000.0 -0.3391 -0.8578
6200000000.0 -0.9336 -0.2528
6203000000.0 -0.7938 0.5296
6206000000.0 -0.1239 0.9184
6209000000.0 0.6453 0.6864
6212000000.0 0.9352 -0.07443
6216000000.0 0.543 -0.7605
6219000000.0 -0.2411 -0.8551
6222000000.0 -0.8434 -0.3836
6225000000.0 -0.829 0.3543
6228000000.0 -0.2258 0.8697
6231000000.0 0.5483 0.7558
6234000000.0 0.8912 0.08875
6238000000.0 0.5958 -0.6277
6241000000.0 -0.06898 -0.8584
6244000000.0 -0.7637 -0.463
6247000000.0 -0.8214 0.2577
6250000000.0 -0.3099 0.8044
6253000000.0 0.4047 0.7373
6256000000.0 0.8174 0.1772
6259000000.0 0.6457 -0.5176
6262000000.0 0.04103 -0.8282
6266000000.0 -0.6034 -0.5363
