! Created with skrf 1.8.0 (http://scikit-rf.org).
# Hz S RI R 50.0 
!freq ReS11 ImS11
4000000000.0 -0.1972 -1.468
4003000000.0 -1.27 -0.7577
4006000000.0 -1.418 0.5025
4009000000.0 -0.5353 1.435
4012000000.0 0.7309 1.282
4016000000.0 1.497 0.2063
4019000000.0 1.16 -1.079
4022000000.0 -0.07531 -1.537
4025000000.0 -1.309 -0.9147
4028000000.0 -1.506 0.4748
4031000000.0 -0.5408 1.55
4034000000.0 0.8275 1.419
4038000000.0 1.564 0.1963
4041000000.0 1.257 -1.099
4044000000.0 -0.1585 -1.649
4047000000.0 -1.368 -0.9091
4050000000.0 -1.563 0.5193
4053000000.0 -0.6664 1.468
4056000000.0 0.7497 1.385
4059000000.0 1.626 0.2788
4062000000.0 1.244 -0.9967
4066000000.0 -0.02335 -1.621
4069000000.0 -1.247 -1.067
4072000000.0 -1.632 0.2596
4075000000.0 -0.7879 1.396
4078000000.0 0.5668 1.486
4081000000.0 1.53 0.5576
4084000000.0 1.372 -0.8743
4088000000.0 0.27 -1.637
4091000000.0 -1.119 -1.203
4094000000.0 -1.654 0.1006
4097000000.0 -0.9799 1.3
4100000000.0 0.3881 1.539
4103000000.0 1.439 0.7105
4106000000.0 1.44 -0.6322
4109000000.0 0.4164 -1.489
4112000000.0 -0.8537 -1.27
4116000000.0 -1.501 -0.1888
4119000000.0 -1.11 0.9957
4122000000.0 0.05714 1.484
4125000000.0 1.1 0.925
4128000000.0 1.427 -0.2393
4131000000.0 0.7326 -1.252
4134000000.0 -0.4514 -1.37
4138000000.0 -1.355 -0.5847
4141000000.0 -1.349 0.6585
4144000000.0 -0.3539 1.44
4147000000.0 0.8821 1.235
4150000000.0 1.521 0.1199
4153000000.0 1.049 -1.066
4156000000.0 -0.153 -1.519
4159000000.0 -1.233 -0.8605
4162000000.0 -1.459 0.3866
4166000000.0 -0.6294 1.371
4169000000.0 0.6135 1.366
4172000000.0 1.465 0.3897
4175000000.0 1.237 -0.8771
4178000000.0 0.13 -1.496
4181000000.0 -1.036 -1.078
4184000000.0 -1.504 0.1217
4188000000.0 -0.8669 1.27
4191000000.0 0.3863 1.473
4194000000.0 1.376 0.6273
4197000000.0 1.394 -0.6729
4200000000.0 0.3633 -1.524
4203000000.0 -1.007 -1.268
4206000000.0 -1.602 -0.005671
4209000000.0 -0.9994 1.262
4212000000.0 0.3597 1.591
4216000000.0 1.482 0.6726
4219000000.0 1.478 -0.8075
4222000000.0 0.2935 -1.66
4225000000.0 -1.123 -1.2
4228000000.0 -1.647 0.1269
4231000000.0 -0.8986 1.426
4234000000.0 0.6154 1.54
4238000000.0 1.572 0.4577
4241000000.0 1.316 -0.939
4244000000.0 0.02001 -1.605
4247000000.0 -1.211 -0.9715
4250000000.0 -1.533 0.3692
4253000000.0 -0.6187 1.411
4256000000.0 0.7064 1.377
4259000000.0 1.524 0.2531
4262000000.0 1.134 -1.025
4266000000.0 -0.1341 -1.474
4269000000.0 -1.257 -0.8181
4272000000.0 -1.368 0.4669
4275000000.0 -0.4817 1.339
4278000000.0 0.7778 1.194
4281000000.0 1.447 0.1561
4284000000.0 0.9775 -1.024
4288000000.0 -0.1791 -1.374
4291000000.0 -1.142 -0.7121
4294000000.0 -1.271 0.4522
4297000000.0 -0.4475 1.251
4300000000.0 0.6947 1.144
4303000000.0 1.29 0.2011
4306000000.0 0.9637 -0.8329
4309000000.0 0.00612 -1.296
4312000000.0 -1.006 -0.7997
4316000000.0 -1.243 0.2278
4319000000.0 -0.6661 1.106
4322000000.0 0.4307 1.21
4325000000.0 1.256 0.4707
4328000000.0 1.139 -0.6586
4331000000.0 0.2652 -1.322
4334000000.0 -0.8581 -1.031
4338000000.0 -1.373 0.03352
4341000000.0 -0.9098 1.026
4344000000.0 0.2078 1.378
4347000000.0 1.22 0.6943
4350000000.0 1.352 -0.4706
4353000000.0 0.4788 -1.335
4356000000.0 -0.7643 -1.197
4359000000.0 -1.431 -0.1903
4362000000.0 -1.099 0.9698
4366000000.0 0.07526 1.439
4369000000.0 1.167 0.88
4372000000.0 1.43 -0.3369
4375000000.0 0.6646 -1.334
4378000000.0 -0.5996 -1.352
4381000000.0 -1.434 -0.4292
4384000000.0 -1.228 0.8842
4388000000.0 -0.1237 1.516
4391000000.0 1.109 1.068
4394000000.0 1.571 -0.1974
4397000000.0 0.8121 -1.363
4400000000.0 -0.5465 -1.463
4403000000.0 -1.505 -0.5239
4406000000.0 -1.31 0.878
4409000000.0 -0.1572 1.575
4412000000.0 1.156 1.075
4416000000.0 1.538 -0.2528
4419000000.0 0.769 -1.318
4422000000.0 -0.6098 -1.365
4425000000.0 -1.435 -0.4294
4428000000.0 -1.161 0.8964
4431000000.0 -0.06033 1.457
4434000000.0 1.116 0.896
4438000000.0 1.366 -0.3024
4441000000.0 0.5996 -1.241
4444000000.0 -0.6297 -1.186
4447000000.0 -1.344 -0.2525
4450000000.0 -0.9932 0.9165
4453000000.0 0.1209 1.304
4456000000.0 1.067 0.7404
4459000000.0 1.207 -0.4068
4462000000.0 0.404 -1.174
4466000000.0 -0.6831 -1.007
4469000000.0 -1.228 -0.07726
4472000000.0 -0.8431 0.9146
4475000000.0 0.205 1.158
4478000000.0 1.011 0.5619
4481000000.0 1.099 -0.4506
4484000000.0 0.2828 -1.126
4488000000.0 -0.7026 -0.9496
4491000000.0 -1.119 -0.04523
4494000000.0 -0.738 0.8409
4497000000.0 0.2282 1.114
4500000000.0 1.033 0.5342
4503000000.0 0.9904 -0.4111
4506000000.0 0.279 -1.04
4509000000.0 -0.6518 -0.882
4512000000.0 -1.087 -0.06797
4516000000.0 -0.7474 0.8456
4519000000.0 0.14 1.078
4522000000.0 0.9742 0.5461
4525000000.0 1.076 -0.4059
4528000000.0 0.3603 -1.089
4531000000.0 -0.608 -0.9762
4534000000.0 -1.163 -0.1523
4538000000.0 -0.8682 0.7907
4541000000.0 0.06438 1.15
4544000000.0 0.9556 0.7107
4547000000.0 1.147 -0.2856
4550000000.0 0.5459 -1.084
4553000000.0 -0.4823 -1.117
4556000000.0 -1.185 -0.3316
4559000000.0 -1.036 0.6649
4562000000.0 -0.1024 1.217
4566000000.0 0.8723 0.8824
4569000000.0 1.257 -0.09513
4572000000.0 0.7465 -1.044
4575000000.0 -0.3312 -1.252
4578000000.0 -1.189 -0.5636
4581000000.0 -1.194 0.5477
4584000000.0 -0.3702 1.291
4588000000.0 0.7604 1.09
4591000000.0 1.351 0.08825
4594000000.0 0.9478 -1.005
4597000000.0 -0.1494 -1.367
4600000000.0 -1.163 -0.7755
4603000000.0 -1.313 0.4295
4606000000.0 -0.5125 1.3
4609000000.0 0.6545 1.202
4612000000.0 1.356 0.2471
4616000000.0 1.035 -0.9055
4619000000.0 -0.02719 -1.398
4622000000.0 -1.094 -0.8272
4625000000.0 -1.331 0.2774
4628000000.0 -0.6244 1.241
4631000000.0 0.5873 1.213
4634000000.0 1.333 0.3159
4638000000.0 1.108 -0.8297
4641000000.0 0.06256 -1.374
4644000000.0 -1.022 -0.8425
4647000000.0 -1.34 0.25
4650000000.0 -0.603 1.178
4653000000.0 0.5609 1.192
4656000000.0 1.25 0.32
4659000000.0 1.037 -0.7751
4662000000.0 0.01978 -1.263
4666000000.0 -0.9518 -0.7843
4669000000.0 -1.175 0.2808
4672000000.0 -0.5396 1.078
4675000000.0 0.4658 1.057
4678000000.0 1.11 0.2899
4681000000.0 0.8848 -0.6992
4684000000.0 0.00307 -1.079
4688000000.0 -0.8599 -0.7305
4691000000.0 -1.052 0.266
4694000000.0 -0.473 0.9641
4697000000.0 0.4741 0.9502
4700000000.0 1.073 0.2648
4703000000.0 0.8556 -0.6678
4706000000.0 0.008026 -1.093
4709000000.0 -0.8463 -0.6643
4712000000.0 -1.035 0.2639
4716000000.0 -0.4198 0.97
4719000000.0 0.4912 0.9332
4722000000.0 1.038 0.2245
4725000000.0 0.8023 -0.6693
4728000000.0 -0.0005812 -1.047
4731000000.0 -0.8144 -0.655
4734000000.0 -1.005 0.2199
4738000000.0 -0.4883 0.9341
4741000000.0 0.4228 0.9717
4744000000.0 0.9718 0.2825
4747000000.0 0.9023 -0.5626
4750000000.0 0.1394 -1.075
4753000000.0 -0.751 -0.7314
4756000000.0 -1.084 0.04542
4759000000.0 -0.6505 0.8527
4762000000.0 0.2884 1.068
4766000000.0 0.9996 0.4722
4769000000.0 1.052 -0.4829
4772000000.0 0.2966 -1.108
4775000000.0 -0.666 -0.9231
4778000000.0 -1.168 -0.1131
4781000000.0 -0.7966 0.8644
4784000000.0 0.1209 1.206
4788000000.0 0.9974 0.7117
4791000000.0 1.168 -0.2951
4794000000.0 0.5362 -1.114
4797000000.0 -0.5044 -1.126
4800000000.0 -1.215 -0.3547
4803000000.0 -1.03 0.6652
4806000000.0 -0.1305 1.224
4809000000.0 0.8728 0.9433
4812000000.0 1.28 -0.06832
4816000000.0 0.7877 -1.031
4819000000.0 -0.3038 -1.297
4822000000.0 -1.191 -0.5821
4825000000.0 -1.219 0.5655
4828000000.0 -0.3643 1.34
4831000000.0 0.7915 1.121
4834000000.0 1.37 0.09035
4838000000.0 0.92 -0.9973
4841000000.0 -0.1782 -1.373
4844000000.0 -1.168 -0.7511
4847000000.0 -1.309 0.4588
4850000000.0 -0.4742 1.307
4853000000.0 0.6865 1.154
4856000000.0 1.347 0.1797
4859000000.0 0.9919 -0.9273
4862000000.0 -0.0745 -1.336
4866000000.0 -1.08 -0.7871
4869000000.0 -1.261 0.3645
4872000000.0 -0.5408 1.17
4875000000.0 0.6096 1.172
4878000000.0 1.251 0.2633
4881000000.0 0.9908 -0.7868
4884000000.0 -7.826e-06 -1.232
4888000000.0 -0.9521 -0.8012
4891000000.0 -1.135 0.2523
4894000000.0 -0.5245 1.053
4897000000.0 0.4634 1.041
4900000000.0 1.092 0.2882
4903000000.0 0.9136 -0.668
4906000000.0 0.05047 -1.095
4909000000.0 -0.8083 -0.6865
4912000000.0 -1.04 0.1839
4916000000.0 -0.467 0.9055
4919000000.0 0.3696 0.9551
4922000000.0 0.9256 0.3048
4925000000.0 0.8246 -0.5183
4928000000.0 0.1169 -0.9491
4931000000.0 -0.6525 -0.6868
4934000000.0 -0.9372 0.05084
4938000000.0 -0.5195 0.7614
4941000000.0 0.2254 0.8923
4944000000.0 0.8589 0.387
4947000000.0 0.828 -0.4383
4950000000.0 0.2054 -0.8755
4953000000.0 -0.5906 -0.7482
4956000000.0 -0.9427 -0.02616
4959000000.0 -0.5978 0.7536
4962000000.0 0.1862 0.9706
4966000000.0 0.8581 0.458
4969000000.0 0.9208 -0.3784
4972000000.0 0.2771 -0.9719
4975000000.0 -0.5738 -0.84
4978000000.0 -1.019 -0.09728
4981000000.0 -0.7014 0.7368
4984000000.0 0.06673 1.051
4988000000.0 0.8724 0.6222
4991000000.0 1.017 -0.2934
4994000000.0 0.4329 -0.9853
4997000000.0 -0.4771 -0.9991
5000000000.0 -1.083 -0.2605
5003000000.0 -0.9171 0.6987
5006000000.0 -0.04732 1.173
5009000000.0 0.8493 0.7688
5012000000.0 1.192 -0.2088
5016000000.0 0.6072 -1.074
5019000000.0 -0.4143 -1.165
5022000000.0 -1.174 -0.3839
5025000000.0 -1.087 0.6694
5028000000.0 -0.2023 1.266
5031000000.0 0.8713 0.9635
5034000000.0 1.26 -0.0329
5038000000.0 0.7747 -1.019
5041000000.0 -0.2561 -1.259
5044000000.0 -1.116 -0.6027
5047000000.0 -1.164 0.4984
5050000000.0 -0.4003 1.217
5053000000.0 0.6943 1.09
5056000000.0 1.272 0.1723
5059000000.0 0.9575 -0.8924
5062000000.0 -0.08379 -1.279
5066000000.0 -1.065 -0.782
5069000000.0 -1.251 0.2932
5072000000.0 -0.5529 1.177
5075000000.0 0.525 1.151
5078000000.0 1.237 0.3491
5081000000.0 1.03 -0.7394
5084000000.0 0.123 -1.217
5088000000.0 -0.8618 -0.8721
5091000000.0 -1.202 0.1234
5094000000.0 -0.6648 0.9782
5097000000.0 0.3148 1.11
5100000000.0 1.042 0.4334
5103000000.0 1.023 -0.4635
5106000000.0 0.2688 -1.057
5109000000.0 -0.6429 -0.8619
5112000000.0 -1.122 -0.03863
5116000000.0 -0.7401 0.7743
5119000000.0 0.09193 1.068
5122000000.0 0.8615 0.6048
5125000000.0 0.9791 -0.275
5128000000.0 0.4267 -0.9538
5131000000.0 -0.4623 -0.8874
5134000000.0 -1.002 -0.2357
5138000000.0 -0.7606 0.6194
5141000000.0 -0.04157 0.9715
5144000000.0 0.7271 0.6147
5147000000.0 0.9212 -0.1579
5150000000.0 0.4117 -0.8386
5153000000.0 -0.3378 -0.8515
5156000000.0 -0.8719 -0.2602
5159000000.0 -0.7639 0.5183
5162000000.0 -0.09345 0.8837
5166000000.0 0.6409 0.623
5169000000.0 0.8832 -0.1185
5172000000.0 0.516 -0.7488
5175000000.0 -0.2896 -0.8615
5178000000.0 -0.8448 -0.3114
5181000000.0 -0.7845 0.447
5184000000.0 -0.09141 0.9014
5188000000.0 0.5905 0.6619
5191000000.0 0.9266 -0.06656
5194000000.0 0.5167 -0.7408
5197000000.0 -0.2776 -0.8709
5200000000.0 -0.8517 -0.3566
5203000000.0 -0.8371 0.4611
5206000000.0 -0.1594 0.9372
5209000000.0 0.6154 0.7344
5212000000.0 0.9753 -0.04967
5216000000.0 0.5828 -0.7806
5219000000.0 -0.2488 -0.9536
5222000000.0 -0.9077 -0.407
5225000000.0 -0.8946 0.4227
5228000000.0 -0.2203 0.9838
5231000000.0 0.6295 0.7826
5234000000.0 1.029 0.04555
5238000000.0 0.6935 -0.8072
5241000000.0 -0.1964 -1.042
5244000000.0 -0.9035 -0.5166
5247000000.0 -0.9788 0.3622
5250000000.0 -0.3491 0.9857
5253000000.0 0.5541 0.9571
5256000000.0 1.081 0.187
5259000000.0 0.8267 -0.7188
5262000000.0 -0.04206 -1.06
5266000000.0 -0.8604 -0.6764
5269000000.0 -1.065 0.2059
5272000000.0 -0.5356 0.9537
5275000000.0 0.3536 0.9958
5278000000.0 1.046 0.379
5281000000.0 0.9465 -0.5763
5284000000.0 0.1816 -1.054
5288000000.0 -0.7063 -0.8542
5291000000.0 -1.08 0.005644
5294000000.0 -0.73 0.8486
5297000000.0 0.1662 1.12
5300000000.0 0.95 0.5823
5303000000.0 1.073 -0.3343
5306000000.0 0.4596 -1.069
5309000000.0 -0.5229 -1.019
5312000000.0 -1.085 -0.2533
5316000000.0 -0.8987 0.7121
5319000000.0 -0.07479 1.126
5322000000.0 0.8568 0.7629
5325000000.0 1.116 -0.1439
5328000000.0 0.628 -0.9592
5331000000.0 -0.3749 -1.078
5334000000.0 -1.076 -0.42
5338000000.0 -0.9894 0.5591
5341000000.0 -0.2161 1.12
5344000000.0 0.734 0.8622
5347000000.0 1.095 -0.001996
5350000000.0 0.6946 -0.8572
5353000000.0 -0.2022 -1.081
5356000000.0 -0.9537 -0.5327
5359000000.0 -1.02 0.4012
5362000000.0 -0.2974 1.049
5366000000.0 0.6275 0.8656
5369000000.0 1.025 0.05308
5372000000.0 0.7109 -0.7605
5375000000.0 -0.1681 -1.03
5378000000.0 -0.8633 -0.5123
5381000000.0 -0.9473 0.3544
5384000000.0 -0.2955 0.9283
5388000000.0 0.5601 0.7915
5391000000.0 0.9553 0.05949
5394000000.0 0.604 -0.6858
5397000000.0 -0.188 -0.9132
5400000000.0 -0.8098 -0.4233
5403000000.0 -0.8436 0.3437
5406000000.0 -0.2344 0.8684
5409000000.0 0.5196 0.6812
5412000000.0 0.8699 0.05611
5416000000.0 0.5601 -0.6513
5419000000.0 -0.194 -0.8332
5422000000.0 -0.7727 -0.4152
5425000000.0 -0.7952 0.3504
5428000000.0 -0.2021 0.8339
5431000000.0 0.5222 0.6805
5434000000.0 0.8897 0.01265
5438000000.0 0.5937 -0.6633
5441000000.0 -0.1626 -0.8424
5444000000.0 -0.7827 -0.4118
5447000000.0 -0.8354 0.3556
5450000000.0 -0.2002 0.8633
5453000000.0 0.5394 0.7336
5456000000.0 0.8915 0.0401
5459000000.0 0.6094 -0.6642
5462000000.0 -0.1332 -0.9003
5466000000.0 -0.7861 -0.4669
5469000000.0 -0.8726 0.2819
5472000000.0 -0.3134 0.8707
5475000000.0 0.4285 0.8218
5478000000.0 0.9356 0.1924
5481000000.0 0.7431 -0.578
5484000000.0 0.0508 -0.9374
5488000000.0 -0.7042 -0.6248
5491000000.0 -0.9696 0.1689
5494000000.0 -0.496 0.8428
5497000000.0 0.3355 0.9284
5500000000.0 0.948 0.3653
5503000000.0 0.8838 -0.5049
5506000000.0 0.18 -1.013
5509000000.0 -0.6442 -0.8226
5512000000.0 -1.03 -0.01682
5516000000.0 -0.6518 0.7712
5519000000.0 0.1692 1.016
5522000000.0 0.892 0.5388
5525000000.0 0.9706 -0.3006
5528000000.0 0.3893 -0.9902
5531000000.0 -0.5306 -0.9231
5534000000.0 -1.049 -0.2214
5538000000.0 -0.8524 0.646
5541000000.0 -0.03155 1.05
5544000000.0 0.7432 0.7027
5547000000.0 1.077 -0.1379
5550000000.0 0.5632 -0.9623
5553000000.0 -0.3392 -1.018
5556000000.0 -0.9912 -0.3633
5559000000.0 -0.8861 0.5328
5562000000.0 -0.2084 1.063
5566000000.0 0.6635 0.8033
5569000000.0 1.015 -0.02267
5572000000.0 0.6741 -0.8083
5575000000.0 -0.1979 -0.9908
5578000000.0 -0.8567 -0.4923
5581000000.0 -0.9085 0.3621
5584000000.0 -0.2924 0.9488
5588000000.0 0.5403 0.7848
5591000000.0 0.9255 0.1249
5594000000.0 0.6817 -0.6766
5597000000.0 -0.07592 -0.9637
5600000000.0 -0.7691 -0.5004
5603000000.0 -0.8917 0.2727
5606000000.0 -0.331 0.8572
5609000000.0 0.4098 0.7825
5612000000.0 0.8568 0.1674
5616000000.0 0.6908 -0.5642
5619000000.0 -0.000881 -0.866
5622000000.0 -0.6585 -0.5093
5625000000.0 -0.8258 0.2111
5628000000.0 -0.3695 0.7531
5631000000.0 0.3692 0.7637
5634000000.0 0.8165 0.1766
5638000000.0 0.6628 -0.5307
5641000000.0 0.008428 -0.8376
5644000000.0 -0.6377 -0.5371
5647000000.0 -0.8146 0.163
5650000000.0 -0.3573 0.7543
5653000000.0 0.3455 0.7518
5656000000.0 0.8135 0.1986
5659000000.0 0.6442 -0.5232
5662000000.0 0.04002 -0.8536
5666000000.0 -0.6811 -0.5577
5669000000.0 -0.8636 0.1687
5672000000.0 -0.4122 0.7756
5675000000.0 0.3933 0.8067
5678000000.0 0.8265 0.2242
5681000000.0 0.7596 -0.5786
5684000000.0 0.01395 -0.9323
5688000000.0 -0.7077 -0.6097
5691000000.0 -0.9433 0.1609
5694000000.0 -0.4693 0.8446
5697000000.0 0.3834 0.9186
5700000000.0 0.9695 0.3108
5703000000.0 0.8238 -0.5588
5706000000.0 0.1 -0.9992
5709000000.0 -0.7171 -0.7109
5712000000.0 -1.029 0.08987
5716000000.0 -0.5998 0.8476
5719000000.0 0.3281 1.003
5722000000.0 0.9476 0.4283
5725000000.0 0.9497 -0.4985
5728000000.0 0.2381 -1.02
5731000000.0 -0.6773 -0.8304
5734000000.0 -1.065 -0.04844
5738000000.0 -0.7043 0.8386
5741000000.0 0.1847 1.052
5744000000.0 0.9609 0.5942
5747000000.0 1.051 -0.3592
5750000000.0 0.3674 -1.044
5753000000.0 -0.5281 -0.9695
5756000000.0 -1.097 -0.1961
5759000000.0 -0.8667 0.7134
5762000000.0 -0.02022 1.124
5766000000.0 0.8698 0.7044
5769000000.0 1.073 -0.2107
5772000000.0 0.5367 -0.9397
5775000000.0 -0.3533 -1.012
5778000000.0 -1.005 -0.3441
5781000000.0 -0.9746 0.5735
5784000000.0 -0.1495 1.056
5788000000.0 0.7325 0.7952
5791000000.0 1.086 -0.03616
5794000000.0 0.6738 -0.855
5797000000.0 -0.243 -1.051
5800000000.0 -0.9335 -0.5061
5803000000.0 -0.986 0.4051
5806000000.0 -0.3133 1.001
5809000000.0 0.5791 0.8892
5812000000.0 1.021 0.09824
5816000000.0 0.7517 -0.6934
5819000000.0 -0.08912 -1.014
5822000000.0 -0.8341 -0.5918
5825000000.0 -0.9605 0.2907
5828000000.0 -0.3422 0.883
5831000000.0 0.4943 0.8879
5834000000.0 0.9602 0.1694
5838000000.0 0.7366 -0.6076
5841000000.0 -0.02818 -0.96
5844000000.0 -0.7259 -0.5745
5847000000.0 -0.9592 0.2158
5850000000.0 -0.3938 0.8041
5853000000.0 0.4111 0.8449
5856000000.0 0.9128 0.2035
5859000000.0 0.6937 -0.5241
5862000000.0 0.01592 -0.9139
5866000000.0 -0.687 -0.5632
5869000000.0 -0.8688 0.1651
5872000000.0 -0.3952 0.8122
5875000000.0 0.3621 0.7847
5878000000.0 0.8492 0.2411
5881000000.0 0.6988 -0.5228
5884000000.0 0.02115 -0.8685
5888000000.0 -0.6457 -0.5629
5891000000.0 -0.8435 0.1613
5894000000.0 -0.4364 0.7585
5897000000.0 0.3334 0.8039
5900000000.0 0.8119 0.2702
5903000000.0 0.7024 -0.4454
5906000000.0 0.103 -0.8703
5909000000.0 -0.5829 -0.6181
5912000000.0 -0.8705 0.1052
5916000000.0 -0.4419 0.7164
5919000000.0 0.2833 0.8328
5922000000.0 0.7824 0.322
5925000000.0 0.7912 -0.414
5928000000.0 0.1773 -0.8841
5931000000.0 -0.5492 -0.688
5934000000.0 -0.9007 0.005197
5938000000.0 -0.612 0.703
5941000000.0 0.1553 0.9105
5944000000.0 0.7616 0.4358
5947000000.0 0.8553 -0.3386
5950000000.0 0.2841 -0.84
5953000000.0 -0.4563 -0.7916
5956000000.0 -0.9175 -0.1462
5959000000.0 -0.6987 0.5995
5962000000.0 0.003714 0.9331
5966000000.0 0.7718 0.5763
5969000000.0 0.9271 -0.1515
5972000000.0 0.4694 -0.8562
5975000000.0 -0.3395 -0.9054
5978000000.0 -0.9561 -0.3106
5981000000.0 -0.842 0.5015
5984000000.0 -0.1497 0.9966
5988000000.0 0.6407 0.7242
5991000000.0 0.9907 -0.04131
5994000000.0 0.6063 -0.7778
5997000000.0 -0.2134 -0.9681
6000000000.0 -0.9083 -0.4479
6003000000.0 -0.8927 0.4237
6006000000.0 -0.2429 0.969
6009000000.0 0.5732 0.809
6012000000.0 0.9815 0.0966
6016000000.0 0.6881 -0.713
6019000000.0 -0.1488 -1.005
6022000000.0 -0.8398 -0.5351
6025000000.0 -0.9468 0.3034
6028000000.0 -0.3449 0.9066
6031000000.0 0.4702 0.8519
6034000000.0 0.9299 0.1619
6038000000.0 0.7172 -0.6397
6041000000.0 -0.05141 -0.9417
6044000000.0 -0.779 -0.5871
6047000000.0 -0.9364 0.2218
6050000000.0 -0.3918 0.8443
6053000000.0 0.4018 0.8402
6056000000.0 0.8959 0.1941
6059000000.0 0.6903 -0.5791
6062000000.0 0.02077 -0.9033
6066000000.0 -0.6902 -0.5801
6069000000.0 -0.8757 0.1695
6072000000.0 -0.4051 0.7962
6075000000.0 0.341 0.8094
6078000000.0 0.8386 0.2448
6081000000.0 0.7288 -0.493
6084000000.0 0.01793 -0.8639
6088000000.0 -0.6336 -0.5876
6091000000.0 -0.831 0.1614
6094000000.0 -0.4385 0.7159
6097000000.0 0.2665 0.8265
6100000000.0 0.8165 0.2683
6103000000.0 0.7195 -0.4634
6106000000.0 0.1034 -0.8437
6109000000.0 -0.5927 -0.599
6112000000.0 -0.832 0.08023
6116000000.0 -0.4521 0.7407
6119000000.0 0.269 0.8021
6122000000.0 0.826 0.3296
6125000000.0 0.7539 -0.4459
6128000000.0 0.1296 -0.8531
6131000000.0 -0.5872 -0.641
6134000000.0 -0.8761 0.06798
6138000000.0 -0.5299 0.7154
6141000000.0 0.2247 0.825
6144000000.0 0.8538 0.3677
6147000000.0 0.789 -0.4045
6150000000.0 0.2005 -0.8726
6153000000.0 -0.5612 -0.7142
6156000000.0 -0.911 -0.03109
6159000000.0 -0.5986 0.7086
6162000000.0 0.1639 0.9006
6166000000.0 0.7929 0.3921
6169000000.0 0.8428 -0.3397
6172000000.0 0.284 -0.9104
6175000000.0 -0.5535 -0.7807
6178000000.0 -0.9404 -0.1147
6181000000.0 -0.6557 0.6643
6184000000.0 0.08616 0.9411
6188000000.0 0.7971 0.5032
6191000000.0 0.8976 -0.2791
6194000000.0 0.3597 -0.8929
6197000000.0 -0.4628 -0.8452
6200000000.0 -0.939 -0.1922
6203000000.0 -0.7035 0.5679
6206000000.0 -0.03313 0.9416
6209000000.0 0.6973 0.601
6212000000.0 0.9201 -0.1516
6216000000.0 0.4646 -0.7965
6219000000.0 -0.3687 -0.8614
6222000000.0 -0.862 -0.2803
6225000000.0 -0.7612 0.4823
6228000000.0 -0.1393 0.8998
6231000000.0 0.6184 0.669
6234000000.0 0.895 -0.05358
6238000000.0 0.4851 -0.7213
6241000000.0 -0.23 -0.8622
6244000000.0 -0.783 -0.3725
6247000000.0 -0.7767 0.3482
6250000000.0 -0.2367 0.8248
6253000000.0 0.4653 0.6601
6256000000.0 0.8192 0.054
6259000000.0 0.5981 -0.5957
6262000000.0 -0.04199 -0.8304
6266000000.0 -0.663 -0.4395
