! Created with skrf 1.8.0 (http://scikit-rf.org).
# Hz S RI R 50.0 
!freq ReS11 ImS11
4000000000.0 -0.199 -1.499
4003000000.0 -1.25 -0.8038
4006000000.0 -1.417 0.487
4009000000.0 -0.5248 1.403
4012000000.0 0.7803 1.311
4016000000.0 1.509 0.1727
4019000000.0 1.14 -1.064
4022000000.0 -0.1345 -1.528
4025000000.0 -1.364 -0.8957
4028000000.0 -1.518 0.4974
4031000000.0 -0.5262 1.488
4034000000.0 0.8447 1.401
4038000000.0 1.63 0.2709
4041000000.0 1.163 -1.145
4044000000.0 -0.1429 -1.654
4047000000.0 -1.347 -0.8877
4050000000.0 -1.546 0.4872
4053000000.0 -0.616 1.511
4056000000.0 0.7471 1.439
4059000000.0 1.565 0.2869
4062000000.0 1.266 -0.9824
4066000000.0 -0.006602 -1.634
4069000000.0 -1.262 -1.046
4072000000.0 -1.585 0.2846
4075000000.0 -0.8097 1.407
4078000000.0 0.5743 1.566
4081000000.0 1.536 0.5521
4084000000.0 1.438 -0.8868
4088000000.0 0.2413 -1.623
4091000000.0 -1.154 -1.24
4094000000.0 -1.636 0.07126
4097000000.0 -1.01 1.308
4100000000.0 0.4163 1.593
4103000000.0 1.426 0.7164
4106000000.0 1.47 -0.6305
4109000000.0 0.4079 -1.52
4112000000.0 -0.8254 -1.296
4116000000.0 -1.507 -0.1852
4119000000.0 -1.145 1.006
4122000000.0 0.05654 1.486
4125000000.0 1.134 0.9443
4128000000.0 1.449 -0.2607
4131000000.0 0.7785 -1.23
4134000000.0 -0.4337 -1.408
4138000000.0 -1.368 -0.5529
4141000000.0 -1.324 0.6554
4144000000.0 -0.3373 1.466
4147000000.0 0.8708 1.236
4150000000.0 1.541 0.1084
4153000000.0 1.066 -1.083
4156000000.0 -0.1122 -1.511
4159000000.0 -1.237 -0.8714
4162000000.0 -1.477 0.4436
4166000000.0 -0.6298 1.368
4169000000.0 0.6365 1.374
4172000000.0 1.462 0.3699
4175000000.0 1.197 -0.8591
4178000000.0 0.1351 -1.505
4181000000.0 -1.044 -1.064
4184000000.0 -1.522 0.09158
4188000000.0 -0.8796 1.215
4191000000.0 0.3699 1.503
4194000000.0 1.423 0.6165
4197000000.0 1.396 -0.6948
4200000000.0 0.386 -1.532
4203000000.0 -1.002 -1.242
4206000000.0 -1.611 -0.03688
4209000000.0 -1.051 1.261
4212000000.0 0.3938 1.625
4216000000.0 1.514 0.6819
4219000000.0 1.526 -0.7652
4222000000.0 0.315 -1.666
4225000000.0 -1.136 -1.252
4228000000.0 -1.645 0.1627
4231000000.0 -0.8927 1.443
4234000000.0 0.6161 1.557
4238000000.0 1.567 0.4519
4241000000.0 1.311 -0.9333
4244000000.0 0.04906 -1.606
4247000000.0 -1.242 -1.037
4250000000.0 -1.559 0.3631
4253000000.0 -0.655 1.395
4256000000.0 0.7212 1.343
4259000000.0 1.502 0.2566
4262000000.0 1.114 -1.017
4266000000.0 -0.1114 -1.481
4269000000.0 -1.243 -0.8401
4272000000.0 -1.405 0.4421
4275000000.0 -0.4851 1.401
4278000000.0 0.755 1.229
4281000000.0 1.419 0.1514
4284000000.0 0.9661 -1.014
4288000000.0 -0.1694 -1.376
4291000000.0 -1.183 -0.7525
4294000000.0 -1.282 0.4237
4297000000.0 -0.461 1.282
4300000000.0 0.6719 1.146
4303000000.0 1.283 0.1975
4306000000.0 0.9749 -0.853
4309000000.0 0.01657 -1.288
4312000000.0 -1.001 -0.8341
4316000000.0 -1.281 0.2285
4319000000.0 -0.6332 1.119
4322000000.0 0.4031 1.246
4325000000.0 1.233 0.4968
4328000000.0 1.156 -0.6507
4331000000.0 0.2544 -1.326
4334000000.0 -0.8723 -1.068
4338000000.0 -1.366 -0.03736
4341000000.0 -0.9242 1.068
4344000000.0 0.2564 1.415
4347000000.0 1.231 0.7306
4350000000.0 1.323 -0.4748
4353000000.0 0.4666 -1.339
4356000000.0 -0.7585 -1.232
4359000000.0 -1.435 -0.2019
4362000000.0 -1.081 0.9653
4366000000.0 0.04373 1.494
4369000000.0 1.181 0.879
4372000000.0 1.468 -0.316
4375000000.0 0.6917 -1.325
4378000000.0 -0.5884 -1.36
4381000000.0 -1.482 -0.4195
4384000000.0 -1.298 0.8537
4388000000.0 -0.1456 1.577
4391000000.0 1.141 1.101
4394000000.0 1.585 -0.2196
4397000000.0 0.8328 -1.378
4400000000.0 -0.5431 -1.502
4403000000.0 -1.535 -0.476
4406000000.0 -1.314 0.8618
4409000000.0 -0.1462 1.586
4412000000.0 1.163 1.034
4416000000.0 1.533 -0.2632
4419000000.0 0.7344 -1.335
4422000000.0 -0.5831 -1.409
4425000000.0 -1.413 -0.3638
4428000000.0 -1.208 0.8762
4431000000.0 -0.059 1.456
4434000000.0 1.079 0.9413
4438000000.0 1.374 -0.3035
4441000000.0 0.6206 -1.257
4444000000.0 -0.6072 -1.217
4447000000.0 -1.309 -0.2747
4450000000.0 -1.019 0.8836
4453000000.0 0.0695 1.302
4456000000.0 1.059 0.7476
4459000000.0 1.247 -0.3929
4462000000.0 0.4727 -1.184
4466000000.0 -0.6732 -1.041
4469000000.0 -1.237 -0.1355
4472000000.0 -0.8084 0.8691
4475000000.0 0.175 1.214
4478000000.0 1.037 0.5974
4481000000.0 1.073 -0.4529
4484000000.0 0.2948 -1.112
4488000000.0 -0.6932 -0.9276
4491000000.0 -1.143 -0.01223
4494000000.0 -0.7479 0.8673
4497000000.0 0.2022 1.131
4500000000.0 1.008 0.5532
4503000000.0 1.002 -0.427
4506000000.0 0.2909 -1.057
4509000000.0 -0.6244 -0.8778
4512000000.0 -1.115 -0.07093
4516000000.0 -0.7646 0.8234
4519000000.0 0.1561 1.116
4522000000.0 0.9851 0.5584
4525000000.0 1.084 -0.4064
4528000000.0 0.3945 -1.111
4531000000.0 -0.5905 -1.008
4534000000.0 -1.147 -0.1528
4538000000.0 -0.8972 0.7911
4541000000.0 0.07223 1.185
4544000000.0 0.9342 0.7014
4547000000.0 1.185 -0.2863
4550000000.0 0.5413 -1.087
4553000000.0 -0.4692 -1.109
4556000000.0 -1.165 -0.3481
4559000000.0 -1.048 0.6708
4562000000.0 -0.1538 1.272
4566000000.0 0.8644 0.9093
4569000000.0 1.279 -0.07886
4572000000.0 0.7683 -1.022
4575000000.0 -0.3111 -1.257
4578000000.0 -1.173 -0.5872
4581000000.0 -1.221 0.5475
4584000000.0 -0.3895 1.283
4588000000.0 0.7676 1.112
4591000000.0 1.354 0.1182
4594000000.0 0.9616 -0.9897
4597000000.0 -0.1396 -1.39
4600000000.0 -1.153 -0.7536
4603000000.0 -1.35 0.4128
4606000000.0 -0.54 1.287
4609000000.0 0.6831 1.215
4612000000.0 1.382 0.2601
4616000000.0 1.067 -0.9095
4619000000.0 0.01619 -1.39
4622000000.0 -1.078 -0.8708
4625000000.0 -1.348 0.2725
4628000000.0 -0.6691 1.244
4631000000.0 0.5535 1.259
4634000000.0 1.336 0.3788
4638000000.0 1.127 -0.8205
4641000000.0 0.05334 -1.372
4644000000.0 -1.03 -0.8667
4647000000.0 -1.318 0.2441
4650000000.0 -0.646 1.24
4653000000.0 0.5545 1.199
4656000000.0 1.257 0.3391
4659000000.0 1.051 -0.7495
4662000000.0 0.02334 -1.267
4666000000.0 -0.9543 -0.7934
4669000000.0 -1.205 0.2729
4672000000.0 -0.5366 1.073
4675000000.0 0.4993 1.08
4678000000.0 1.149 0.2963
4681000000.0 0.9263 -0.6901
4684000000.0 0.0176 -1.141
4688000000.0 -0.8676 -0.7074
4691000000.0 -1.105 0.2074
4694000000.0 -0.4719 1.025
4697000000.0 0.4675 1.017
4700000000.0 1.061 0.2494
4703000000.0 0.8286 -0.6659
4706000000.0 -0.006924 -1.074
4709000000.0 -0.8819 -0.6525
4712000000.0 -1.05 0.2415
4716000000.0 -0.4594 0.9573
4719000000.0 0.4591 0.9622
4722000000.0 1.061 0.2425
4725000000.0 0.8135 -0.6828
4728000000.0 -0.006933 -1.06
4731000000.0 -0.7684 -0.6649
4734000000.0 -1.01 0.2005
4738000000.0 -0.5018 0.8877
4741000000.0 0.3762 1.002
4744000000.0 0.9977 0.3166
4747000000.0 0.8674 -0.565
4750000000.0 0.119 -1.039
4753000000.0 -0.7284 -0.7788
4756000000.0 -1.053 0.07799
4759000000.0 -0.6553 0.8832
4762000000.0 0.2329 1.102
4766000000.0 1.021 0.5064
4769000000.0 1.058 -0.461
4772000000.0 0.3102 -1.142
4775000000.0 -0.7037 -0.9845
4778000000.0 -1.16 -0.1337
4781000000.0 -0.8493 0.8369
4784000000.0 0.1011 1.192
4788000000.0 0.9877 0.6995
4791000000.0 1.173 -0.2877
4794000000.0 0.5307 -1.083
4797000000.0 -0.5144 -1.123
4800000000.0 -1.193 -0.3488
4803000000.0 -1.048 0.6747
4806000000.0 -0.1482 1.273
4809000000.0 0.8724 0.9349
4812000000.0 1.286 -0.0672
4816000000.0 0.7876 -1.063
4819000000.0 -0.2923 -1.296
4822000000.0 -1.203 -0.5988
4825000000.0 -1.235 0.5617
4828000000.0 -0.392 1.341
4831000000.0 0.7889 1.136
4834000000.0 1.379 0.1229
4838000000.0 0.9829 -1.021
4841000000.0 -0.151 -1.386
4844000000.0 -1.212 -0.7356
4847000000.0 -1.328 0.4263
4850000000.0 -0.5116 1.304
4853000000.0 0.6559 1.178
4856000000.0 1.358 0.2132
4859000000.0 1.025 -0.9329
4862000000.0 -0.06422 -1.346
4866000000.0 -1.084 -0.7847
4869000000.0 -1.304 0.3371
4872000000.0 -0.5483 1.195
4875000000.0 0.5809 1.194
4878000000.0 1.257 0.2838
4881000000.0 1.004 -0.8042
4884000000.0 0.03928 -1.258
4888000000.0 -0.972 -0.7766
4891000000.0 -1.176 0.21
4894000000.0 -0.5671 1.048
4897000000.0 0.4698 1.046
4900000000.0 1.086 0.3136
4903000000.0 0.9228 -0.6309
4906000000.0 0.05298 -1.081
4909000000.0 -0.8099 -0.7017
4912000000.0 -1.036 0.1778
4916000000.0 -0.5081 0.8731
4919000000.0 0.3573 0.9596
4922000000.0 0.9445 0.2916
4925000000.0 0.8563 -0.4996
4928000000.0 0.156 -0.921
4931000000.0 -0.6619 -0.6803
4934000000.0 -0.9355 0.06426
4938000000.0 -0.5685 0.7678
4941000000.0 0.2573 0.9151
4944000000.0 0.8512 0.3633
4947000000.0 0.8253 -0.3985
4950000000.0 0.2107 -0.9498
4953000000.0 -0.5943 -0.7709
4956000000.0 -0.9592 -0.003068
4959000000.0 -0.6302 0.7425
4962000000.0 0.1816 0.935
4966000000.0 0.8661 0.4587
4969000000.0 0.9285 -0.3857
4972000000.0 0.2514 -0.9656
4975000000.0 -0.5582 -0.8323
4978000000.0 -0.9969 -0.09311
4981000000.0 -0.7389 0.7174
4984000000.0 0.0766 1.041
4988000000.0 0.8687 0.5942
4991000000.0 0.996 -0.2851
4994000000.0 0.4549 -0.9852
4997000000.0 -0.4938 -0.9988
5000000000.0 -1.112 -0.2725
5003000000.0 -0.9124 0.7022
5006000000.0 -0.05042 1.154
5009000000.0 0.9142 0.7905
5012000000.0 1.201 -0.1673
5016000000.0 0.6444 -1.03
5019000000.0 -0.4169 -1.169
5022000000.0 -1.195 -0.4304
5025000000.0 -1.099 0.6093
5028000000.0 -0.2091 1.228
5031000000.0 0.8315 0.9506
5034000000.0 1.279 -0.05689
5038000000.0 0.8104 -1.025
5041000000.0 -0.2446 -1.26
5044000000.0 -1.143 -0.5975
5047000000.0 -1.187 0.5055
5050000000.0 -0.3798 1.242
5053000000.0 0.717 1.087
5056000000.0 1.265 0.1679
5059000000.0 0.94 -0.8957
5062000000.0 -0.03706 -1.277
5066000000.0 -1.046 -0.7976
5069000000.0 -1.281 0.2759
5072000000.0 -0.5833 1.143
5075000000.0 0.5011 1.197
5078000000.0 1.236 0.3639
5081000000.0 1.034 -0.7112
5084000000.0 0.08237 -1.23
5088000000.0 -0.8622 -0.8593
5091000000.0 -1.226 0.1386
5094000000.0 -0.6766 1.0
5097000000.0 0.2894 1.127
5100000000.0 1.074 0.4663
5103000000.0 1.024 -0.4649
5106000000.0 0.2755 -1.046
5109000000.0 -0.6205 -0.901
5112000000.0 -1.109 -0.07752
5116000000.0 -0.7544 0.7745
5119000000.0 0.08461 1.075
5122000000.0 0.8411 0.5882
5125000000.0 0.9863 -0.2649
5128000000.0 0.3791 -0.9618
5131000000.0 -0.4639 -0.934
5134000000.0 -0.9608 -0.2526
5138000000.0 -0.7824 0.6215
5141000000.0 -0.02375 0.9982
5144000000.0 0.7313 0.6435
5147000000.0 0.927 -0.1708
5150000000.0 0.451 -0.836
5153000000.0 -0.3203 -0.8819
5156000000.0 -0.8678 -0.2928
5159000000.0 -0.7714 0.4871
5162000000.0 -0.09854 0.8787
5166000000.0 0.6021 0.6537
5169000000.0 0.9076 -0.08167
5172000000.0 0.5007 -0.7177
5175000000.0 -0.2625 -0.8596
5178000000.0 -0.8595 -0.3665
5181000000.0 -0.7968 0.4601
5184000000.0 -0.163 0.9185
5188000000.0 0.6415 0.6709
5191000000.0 0.8993 -0.03565
5194000000.0 0.5421 -0.7596
5197000000.0 -0.2743 -0.9005
5200000000.0 -0.8494 -0.3683
5203000000.0 -0.8001 0.4595
5206000000.0 -0.1775 0.921
5209000000.0 0.6111 0.7094
5212000000.0 0.9759 -0.02339
5216000000.0 0.583 -0.7816
5219000000.0 -0.2728 -0.9222
5222000000.0 -0.9192 -0.4366
5225000000.0 -0.888 0.4502
5228000000.0 -0.2276 0.9781
5231000000.0 0.645 0.8121
5234000000.0 1.032 0.04394
5238000000.0 0.7066 -0.7636
5241000000.0 -0.1753 -1.012
5244000000.0 -0.8911 -0.5072
5247000000.0 -1.005 0.3721
5250000000.0 -0.347 1.003
5253000000.0 0.5346 0.9596
5256000000.0 1.051 0.145
5259000000.0 0.7884 -0.7269
5262000000.0 -0.001759 -1.095
5266000000.0 -0.8244 -0.6921
5269000000.0 -1.074 0.186
5272000000.0 -0.5333 0.9269
5275000000.0 0.368 1.002
5278000000.0 1.018 0.3661
5281000000.0 0.9689 -0.5547
5284000000.0 0.2241 -1.068
5288000000.0 -0.7063 -0.8729
5291000000.0 -1.096 -0.01834
5294000000.0 -0.7395 0.8395
5297000000.0 0.1702 1.124
5300000000.0 0.928 0.6241
5303000000.0 1.081 -0.3691
5306000000.0 0.4336 -1.005
5309000000.0 -0.5141 -1.023
5312000000.0 -1.118 -0.2564
5316000000.0 -0.912 0.7103
5319000000.0 -0.08909 1.16
5322000000.0 0.86 0.7717
5325000000.0 1.163 -0.128
5328000000.0 0.6171 -0.9523
5331000000.0 -0.3172 -1.101
5334000000.0 -1.082 -0.4591
5338000000.0 -0.9858 0.5521
5341000000.0 -0.1993 1.088
5344000000.0 0.6989 0.8554
5347000000.0 1.096 -0.01812
5350000000.0 0.7068 -0.8557
5353000000.0 -0.2296 -1.086
5356000000.0 -0.9688 -0.4914
5359000000.0 -1.017 0.4045
5362000000.0 -0.2914 1.008
5366000000.0 0.6022 0.9039
5369000000.0 1.056 0.08083
5372000000.0 0.7349 -0.7523
5375000000.0 -0.1469 -1.039
5378000000.0 -0.8927 -0.5072
5381000000.0 -0.9647 0.3612
5384000000.0 -0.2728 0.9616
5388000000.0 0.5798 0.7991
5391000000.0 0.9545 0.0642
5394000000.0 0.6478 -0.6876
5397000000.0 -0.1551 -0.9137
5400000000.0 -0.8101 -0.4392
5403000000.0 -0.8264 0.3493
5406000000.0 -0.255 0.887
5409000000.0 0.4965 0.7195
5412000000.0 0.8578 0.05812
5416000000.0 0.5711 -0.6566
5419000000.0 -0.1547 -0.8453
5422000000.0 -0.7591 -0.4036
5425000000.0 -0.8287 0.3296
5428000000.0 -0.2258 0.8385
5431000000.0 0.4913 0.7078
5434000000.0 0.8532 0.04826
5438000000.0 0.5746 -0.6703
5441000000.0 -0.181 -0.8691
5444000000.0 -0.7901 -0.4097
5447000000.0 -0.8077 0.3208
5450000000.0 -0.2473 0.8598
5453000000.0 0.4974 0.711
5456000000.0 0.8806 0.05323
5459000000.0 0.6294 -0.668
5462000000.0 -0.1141 -0.9111
5466000000.0 -0.7708 -0.5073
5469000000.0 -0.8705 0.2739
5472000000.0 -0.348 0.8485
5475000000.0 0.4219 0.8323
5478000000.0 0.8831 0.2166
5481000000.0 0.7592 -0.5691
5484000000.0 0.0151 -0.9458
5488000000.0 -0.7058 -0.6244
5491000000.0 -0.984 0.1032
5494000000.0 -0.5186 0.7929
5497000000.0 0.2972 0.9672
5500000000.0 0.9096 0.3447
5503000000.0 0.8762 -0.4693
5506000000.0 0.1822 -1.022
5509000000.0 -0.6257 -0.7979
5512000000.0 -0.9867 -0.01671
5516000000.0 -0.6782 0.7864
5519000000.0 0.1329 0.9944
5522000000.0 0.8825 0.5565
5525000000.0 1.012 -0.3384
5528000000.0 0.4331 -0.9678
5531000000.0 -0.5052 -0.9358
5534000000.0 -1.016 -0.2131
5538000000.0 -0.8543 0.6501
5541000000.0 -0.09103 1.075
5544000000.0 0.7959 0.71
5547000000.0 1.063 -0.1472
5550000000.0 0.5587 -0.942
5553000000.0 -0.3329 -1.043
5556000000.0 -1.029 -0.3996
5559000000.0 -0.9251 0.4837
5562000000.0 -0.1991 1.022
5566000000.0 0.6515 0.7925
5569000000.0 1.029 0.007882
5572000000.0 0.6587 -0.7999
5575000000.0 -0.1822 -0.9799
5578000000.0 -0.8692 -0.4677
5581000000.0 -0.8838 0.3689
5584000000.0 -0.2845 0.9626
5588000000.0 0.5136 0.8206
5591000000.0 0.9452 0.0821
5594000000.0 0.697 -0.6599
5597000000.0 -0.05239 -0.9488
5600000000.0 -0.77 -0.5521
5603000000.0 -0.9105 0.2442
5606000000.0 -0.3979 0.8389
5609000000.0 0.4019 0.8053
5612000000.0 0.862 0.1915
5616000000.0 0.6625 -0.5468
5619000000.0 0.01346 -0.851
5622000000.0 -0.6665 -0.5293
5625000000.0 -0.8189 0.1817
5628000000.0 -0.3549 0.7592
5631000000.0 0.3513 0.7707
5634000000.0 0.8257 0.2137
5638000000.0 0.6673 -0.4939
5641000000.0 0.03957 -0.8303
5644000000.0 -0.6303 -0.553
5647000000.0 -0.8183 0.1276
5650000000.0 -0.4173 0.7377
5653000000.0 0.3535 0.7725
5656000000.0 0.8208 0.2227
5659000000.0 0.6727 -0.5207
5662000000.0 0.02653 -0.8468
5666000000.0 -0.6772 -0.5789
5669000000.0 -0.8487 0.1637
5672000000.0 -0.4532 0.7794
5675000000.0 0.3706 0.8444
5678000000.0 0.8879 0.2359
5681000000.0 0.7647 -0.5521
5684000000.0 0.05259 -0.9492
5688000000.0 -0.7067 -0.6539
5691000000.0 -0.9527 0.1653
5694000000.0 -0.4637 0.8364
5697000000.0 0.3566 0.9274
5700000000.0 0.9488 0.3115
5703000000.0 0.8607 -0.5378
5706000000.0 0.1298 -1.014
5709000000.0 -0.7223 -0.7832
5712000000.0 -1.033 0.09482
5716000000.0 -0.5885 0.8513
5719000000.0 0.2868 1.043
5722000000.0 0.9745 0.3988
5725000000.0 0.9671 -0.4663
5728000000.0 0.2437 -1.017
5731000000.0 -0.6372 -0.8649
5734000000.0 -1.059 -0.05694
5738000000.0 -0.719 0.7808
5741000000.0 0.1572 1.068
5744000000.0 0.9149 0.6063
5747000000.0 1.049 -0.3233
5750000000.0 0.4166 -1.057
5753000000.0 -0.5379 -0.9488
5756000000.0 -1.084 -0.2338
5759000000.0 -0.8296 0.7056
5762000000.0 -0.04172 1.12
5766000000.0 0.8231 0.7051
5769000000.0 1.083 -0.1503
5772000000.0 0.557 -0.9433
5775000000.0 -0.3436 -0.9961
5778000000.0 -1.019 -0.4012
5781000000.0 -0.9438 0.5515
5784000000.0 -0.1869 1.055
5788000000.0 0.7199 0.8336
5791000000.0 1.103 -0.02335
5794000000.0 0.6704 -0.8027
5797000000.0 -0.2266 -1.078
5800000000.0 -0.9544 -0.5314
5803000000.0 -0.9669 0.4127
5806000000.0 -0.3408 1.018
5809000000.0 0.5703 0.8879
5812000000.0 1.016 0.13
5816000000.0 0.7292 -0.7295
5819000000.0 -0.05216 -1.034
5822000000.0 -0.7991 -0.6006
5825000000.0 -0.9619 0.2746
5828000000.0 -0.4497 0.912
5831000000.0 0.4413 0.8788
5834000000.0 0.9557 0.204
5838000000.0 0.7429 -0.6219
5841000000.0 0.0005641 -1.002
5844000000.0 -0.7526 -0.6096
5847000000.0 -0.9067 0.205
5850000000.0 -0.4397 0.8368
5853000000.0 0.4019 0.8663
5856000000.0 0.8953 0.2242
5859000000.0 0.756 -0.5635
5862000000.0 0.01393 -0.8934
5866000000.0 -0.6958 -0.6178
5869000000.0 -0.8659 0.175
5872000000.0 -0.4293 0.8217
5875000000.0 0.3336 0.8229
5878000000.0 0.8753 0.2535
5881000000.0 0.7236 -0.4972
5884000000.0 0.04843 -0.8881
5888000000.0 -0.6415 -0.5883
5891000000.0 -0.847 0.1601
5894000000.0 -0.4329 0.7283
5897000000.0 0.3359 0.7942
5900000000.0 0.8021 0.2774
5903000000.0 0.7626 -0.4666
5906000000.0 0.129 -0.8523
5909000000.0 -0.5812 -0.6313
5912000000.0 -0.8678 0.04875
5916000000.0 -0.4733 0.716
5919000000.0 0.2286 0.8316
5922000000.0 0.7874 0.3347
5925000000.0 0.7925 -0.4137
5928000000.0 0.1949 -0.8621
5931000000.0 -0.5514 -0.7094
5934000000.0 -0.9081 -0.02842
5938000000.0 -0.6108 0.663
5941000000.0 0.1314 0.8751
5944000000.0 0.773 0.4714
5947000000.0 0.8566 -0.2739
5950000000.0 0.3212 -0.8529
5953000000.0 -0.468 -0.8073
5956000000.0 -0.9173 -0.1554
5959000000.0 -0.7095 0.5719
5962000000.0 -0.006812 0.9421
5966000000.0 0.7421 0.629
5969000000.0 0.9556 -0.1544
5972000000.0 0.4908 -0.8583
5975000000.0 -0.3401 -0.9106
5978000000.0 -0.9243 -0.3159
5981000000.0 -0.8611 0.5111
5984000000.0 -0.1821 0.9396
5988000000.0 0.6557 0.761
5991000000.0 1.015 -0.03661
5994000000.0 0.6417 -0.7542
5997000000.0 -0.1978 -1.0
6000000000.0 -0.8877 -0.463
6003000000.0 -0.932 0.4017
6006000000.0 -0.296 0.9531
6009000000.0 0.5534 0.8321
6012000000.0 1.006 0.08435
6016000000.0 0.6892 -0.7075
6019000000.0 -0.09919 -0.9906
6022000000.0 -0.8336 -0.5562
6025000000.0 -0.9351 0.3039
6028000000.0 -0.3905 0.9274
6031000000.0 0.4717 0.8525
6034000000.0 0.9706 0.1769
6038000000.0 0.7464 -0.6178
6041000000.0 -0.05123 -0.9603
6044000000.0 -0.7679 -0.5962
6047000000.0 -0.9305 0.2053
6050000000.0 -0.4136 0.8681
6053000000.0 0.3825 0.8647
6056000000.0 0.9185 0.237
6059000000.0 0.7444 -0.5551
6062000000.0 0.03359 -0.9182
6066000000.0 -0.673 -0.6002
6069000000.0 -0.9011 0.1413
6072000000.0 -0.4237 0.7815
6075000000.0 0.3279 0.8261
6078000000.0 0.8163 0.2487
6081000000.0 0.7301 -0.4916
6084000000.0 0.07232 -0.8591
6088000000.0 -0.6115 -0.6153
6091000000.0 -0.8566 0.09293
6094000000.0 -0.4641 0.7189
6097000000.0 0.2524 0.799
6100000000.0 0.7847 0.2923
6103000000.0 0.7474 -0.4137
6106000000.0 0.1147 -0.8423
6109000000.0 -0.5675 -0.6274
6112000000.0 -0.8678 0.07044
6116000000.0 -0.4747 0.723
6119000000.0 0.2595 0.8347
6122000000.0 0.8017 0.3393
6125000000.0 0.7905 -0.4042
6128000000.0 0.1489 -0.8455
6131000000.0 -0.5655 -0.6632
6134000000.0 -0.8565 0.004276
6138000000.0 -0.5634 0.7171
6141000000.0 0.1749 0.8681
6144000000.0 0.7956 0.3675
6147000000.0 0.79 -0.3576
6150000000.0 0.2356 -0.8439
6153000000.0 -0.5442 -0.7416
6156000000.0 -0.9406 -0.07324
6159000000.0 -0.6111 0.6757
6162000000.0 0.1416 0.9071
6166000000.0 0.8248 0.4691
6169000000.0 0.8635 -0.2997
6172000000.0 0.3111 -0.8629
6175000000.0 -0.4692 -0.7999
6178000000.0 -0.9039 -0.1478
6181000000.0 -0.6913 0.6434
6184000000.0 0.05074 0.9226
6188000000.0 0.7762 0.5743
6191000000.0 0.9102 -0.2415
6194000000.0 0.4219 -0.848
6197000000.0 -0.4056 -0.8367
6200000000.0 -0.9074 -0.2376
6203000000.0 -0.7699 0.5861
6206000000.0 -0.0334 0.9246
6209000000.0 0.6869 0.6424
6212000000.0 0.9428 -0.1673
6216000000.0 0.4656 -0.8045
6219000000.0 -0.3204 -0.8935
6222000000.0 -0.8487 -0.3349
6225000000.0 -0.8042 0.4307
6228000000.0 -0.1428 0.91
6231000000.0 0.6093 0.6559
6234000000.0 0.8892 -0.01706
6238000000.0 0.5689 -0.6855
6241000000.0 -0.1863 -0.8455
6244000000.0 -0.7991 -0.374
6247000000.0 -0.8245 0.3172
6250000000.0 -0.2325 0.8134
6253000000.0 0.4217 0.7288
6256000000.0 0.8191 0.102
6259000000.0 0.6345 -0.5794
6262000000.0 -0.01335 -0.8105
6266000000.0 -0.663 -0.506
