! Created with skrf 1.8.0 (http://scikit-rf.org).
# Hz S RI R 50.0 
!freq ReS11 ImS11
4000000000.0 -0.6432 -1.339
4003000000.0 -1.475 -0.4159
4006000000.0 -1.21 0.9059
4009000000.0 -0.02863 1.558
4012000000.0 1.151 0.949
4016000000.0 1.524 -0.2697
4019000000.0 0.7758 -1.4
4022000000.0 -0.613 -1.417
4025000000.0 -1.567 -0.4574
4028000000.0 -1.325 0.9973
4031000000.0 -0.06442 1.657
4034000000.0 1.252 1.064
4038000000.0 1.627 -0.3334
4041000000.0 0.7805 -1.481
4044000000.0 -0.6745 -1.545
4047000000.0 -1.609 -0.3989
4050000000.0 -1.344 0.9862
4053000000.0 -0.06993 1.67
4056000000.0 1.159 1.152
4059000000.0 1.63 -0.1962
4062000000.0 0.8393 -1.36
4066000000.0 -0.4861 -1.5
4069000000.0 -1.496 -0.5926
4072000000.0 -1.449 0.775
4075000000.0 -0.3057 1.595
4078000000.0 1.029 1.242
4081000000.0 1.648 -0.007952
4084000000.0 1.01 -1.216
4088000000.0 -0.3535 -1.625
4091000000.0 -1.413 -0.7341
4094000000.0 -1.525 0.6185
4097000000.0 -0.4722 1.51
4100000000.0 0.8833 1.349
4103000000.0 1.575 0.1991
4106000000.0 1.132 -1.05
4109000000.0 -0.05967 -1.561
4112000000.0 -1.182 -0.9059
4116000000.0 -1.432 0.3225
4119000000.0 -0.72 1.286
4122000000.0 0.5366 1.338
4125000000.0 1.395 0.4893
4128000000.0 1.235 -0.7001
4131000000.0 0.2659 -1.406
4134000000.0 -0.9009 -1.129
4138000000.0 -1.448 -0.008092
4141000000.0 -0.9658 1.076
4144000000.0 0.2131 1.454
4147000000.0 1.235 0.7649
4150000000.0 1.409 -0.4825
4153000000.0 0.5248 -1.415
4156000000.0 -0.7286 -1.294
4159000000.0 -1.479 -0.2169
4162000000.0 -1.078 0.9951
4166000000.0 0.06712 1.502
4169000000.0 1.206 0.8663
4172000000.0 1.449 -0.3741
4175000000.0 0.6305 -1.381
4178000000.0 -0.6749 -1.354
4181000000.0 -1.457 -0.3036
4184000000.0 -1.159 0.9446
4188000000.0 0.01599 1.482
4191000000.0 1.195 0.9393
4194000000.0 1.471 -0.3817
4197000000.0 0.5764 -1.408
4200000000.0 -0.7689 -1.381
4203000000.0 -1.54 -0.2136
4206000000.0 -1.119 1.107
4209000000.0 0.2462 1.577
4212000000.0 1.378 0.7258
4216000000.0 1.456 -0.6872
4219000000.0 0.2867 -1.583
4222000000.0 -1.099 -1.138
4225000000.0 -1.542 0.194
4228000000.0 -0.7759 1.348
4231000000.0 0.6097 1.372
4234000000.0 1.481 0.3286
4238000000.0 1.119 -0.9679
4241000000.0 -0.1013 -1.46
4244000000.0 -1.175 -0.8488
4247000000.0 -1.332 0.46
4250000000.0 -0.4859 1.338
4253000000.0 0.7718 1.192
4256000000.0 1.412 0.1289
4259000000.0 0.9564 -1.008
4262000000.0 -0.1689 -1.368
4266000000.0 -1.199 -0.6853
4269000000.0 -1.328 0.499
4272000000.0 -0.4437 1.313
4275000000.0 0.7593 1.122
4278000000.0 1.384 0.07071
4281000000.0 0.9241 -0.9876
4284000000.0 -0.217 -1.363
4288000000.0 -1.163 -0.6791
4291000000.0 -1.272 0.486
4294000000.0 -0.4461 1.251
4297000000.0 0.6716 1.112
4300000000.0 1.287 0.1715
4303000000.0 1.003 -0.9084
4306000000.0 -0.01592 -1.331
4309000000.0 -1.054 -0.8148
4312000000.0 -1.311 0.2617
4316000000.0 -0.6372 1.204
4319000000.0 0.5139 1.272
4322000000.0 1.303 0.4192
4325000000.0 1.173 -0.7513
4328000000.0 0.1802 -1.398
4331000000.0 -0.9769 -1.073
4334000000.0 -1.46 0.08575
4338000000.0 -0.8646 1.258
4341000000.0 0.4346 1.457
4344000000.0 1.429 0.5622
4347000000.0 1.339 -0.7979
4350000000.0 0.2499 -1.562
4353000000.0 -1.088 -1.166
4356000000.0 -1.583 0.1467
4359000000.0 -0.8601 1.342
4362000000.0 0.5429 1.464
4366000000.0 1.497 0.4795
4369000000.0 1.267 -0.8701
4372000000.0 0.1041 -1.537
4375000000.0 -1.182 -1.006
4378000000.0 -1.509 0.2984
4381000000.0 -0.6694 1.356
4384000000.0 0.6882 1.367
4388000000.0 1.542 0.2704
4391000000.0 1.08 -1.026
4394000000.0 -0.1744 -1.483
4397000000.0 -1.271 -0.7413
4400000000.0 -1.342 0.5782
4403000000.0 -0.3162 1.396
4406000000.0 0.8628 1.074
4409000000.0 1.368 -0.02584
4412000000.0 0.7779 -1.108
4416000000.0 -0.4206 -1.262
4419000000.0 -1.244 -0.4212
4422000000.0 -1.078 0.6904
4425000000.0 -0.06991 1.25
4428000000.0 0.9409 0.8169
4431000000.0 1.228 -0.1982
4434000000.0 0.5506 -1.098
4438000000.0 -0.5052 -1.096
4441000000.0 -1.186 -0.2722
4444000000.0 -0.9685 0.7148
4447000000.0 -0.05796 1.205
4450000000.0 0.9596 0.7704
4453000000.0 1.176 -0.2884
4456000000.0 0.5812 -1.088
4459000000.0 -0.5281 -1.122
4462000000.0 -1.208 -0.3109
4466000000.0 -1.028 0.7714
4469000000.0 -0.02925 1.276
4472000000.0 0.9803 0.8295
4475000000.0 1.24 -0.2594
4478000000.0 0.5942 -1.141
4481000000.0 -0.4983 -1.214
4484000000.0 -1.273 -0.3572
4488000000.0 -1.121 0.7473
4491000000.0 -0.1518 1.34
4494000000.0 0.9669 0.955
4497000000.0 1.355 -0.1201
4500000000.0 0.7744 -1.139
4503000000.0 -0.364 -1.27
4506000000.0 -1.231 -0.5407
4509000000.0 -1.222 0.598
4512000000.0 -0.3086 1.339
4516000000.0 0.842 1.112
4519000000.0 1.414 0.03923
4522000000.0 0.9412 -1.078
4525000000.0 -0.2389 -1.415
4528000000.0 -1.248 -0.7107
4531000000.0 -1.353 0.5487
4534000000.0 -0.4133 1.372
4538000000.0 0.7848 1.209
4541000000.0 1.432 0.1577
4544000000.0 1.002 -1.026
4547000000.0 -0.1571 -1.457
4550000000.0 -1.206 -0.7969
4553000000.0 -1.379 0.4226
4556000000.0 -0.5168 1.343
4559000000.0 0.7007 1.241
4562000000.0 1.408 0.2367
4566000000.0 1.087 -0.946
4569000000.0 -0.029 -1.429
4572000000.0 -1.136 -0.8366
4575000000.0 -1.379 0.3505
4578000000.0 -0.5608 1.284
4581000000.0 0.6593 1.264
4584000000.0 1.379 0.2662
4588000000.0 1.04 -0.9265
4591000000.0 -0.07992 -1.382
4594000000.0 -1.116 -0.7608
4597000000.0 -1.295 0.4013
4600000000.0 -0.4853 1.262
4603000000.0 0.7008 1.123
4606000000.0 1.268 0.1521
4609000000.0 0.8769 -0.9155
4612000000.0 -0.1794 -1.254
4616000000.0 -1.078 -0.5917
4619000000.0 -1.166 0.4772
4622000000.0 -0.305 1.164
4625000000.0 0.701 0.9583
4628000000.0 1.156 0.05872
4631000000.0 0.7545 -0.8597
4634000000.0 -0.2402 -1.12
4638000000.0 -1.041 -0.5361
4641000000.0 -1.054 0.4947
4644000000.0 -0.2437 1.124
4647000000.0 0.7192 0.8965
4650000000.0 1.1 -0.0147
4653000000.0 0.6576 -0.8863
4656000000.0 -0.2863 -1.072
4659000000.0 -1.033 -0.4691
4662000000.0 -0.9784 0.5111
4666000000.0 -0.2154 1.09
4669000000.0 0.7614 0.8356
4672000000.0 1.128 -0.05801
4675000000.0 0.6953 -0.8941
4678000000.0 -0.2845 -1.1
4681000000.0 -1.019 -0.4713
4684000000.0 -1.059 0.495
4688000000.0 -0.2923 1.14
4691000000.0 0.7051 0.9218
4694000000.0 1.188 0.09128
4697000000.0 0.816 -0.868
4700000000.0 -0.1816 -1.226
4703000000.0 -1.072 -0.6294
4706000000.0 -1.18 0.4355
4709000000.0 -0.4186 1.244
4712000000.0 0.7359 1.121
4716000000.0 1.291 0.1557
4719000000.0 0.9616 -0.9473
4722000000.0 -0.1197 -1.339
4725000000.0 -1.113 -0.7625
4728000000.0 -1.288 0.3789
4731000000.0 -0.5346 1.261
4734000000.0 0.6512 1.211
4738000000.0 1.344 0.2838
4741000000.0 1.047 -0.8926
4744000000.0 -0.01546 -1.37
4747000000.0 -1.095 -0.866
4750000000.0 -1.366 0.286
4753000000.0 -0.632 1.255
4756000000.0 0.594 1.288
4759000000.0 1.365 0.3536
4762000000.0 1.132 -0.9015
4766000000.0 0.01515 -1.431
4769000000.0 -1.144 -0.8878
4772000000.0 -1.365 0.3273
4775000000.0 -0.5775 1.282
4778000000.0 0.6643 1.225
4781000000.0 1.349 0.2478
4784000000.0 0.9888 -0.8969
4788000000.0 -0.1283 -1.29
4791000000.0 -1.089 -0.6852
4794000000.0 -1.197 0.4416
4797000000.0 -0.3792 1.145
4800000000.0 0.6696 0.9843
4803000000.0 1.143 0.06598
4806000000.0 0.7167 -0.8504
4809000000.0 -0.2379 -1.052
4812000000.0 -0.9704 -0.4493
4816000000.0 -0.9004 0.5019
4819000000.0 -0.1776 0.9908
4822000000.0 0.6886 0.7194
4825000000.0 0.9743 -0.1235
4828000000.0 0.48 -0.8323
4831000000.0 -0.344 -0.8516
4834000000.0 -0.9209 -0.2601
4838000000.0 -0.7444 0.5492
4841000000.0 -0.01628 0.9251
4844000000.0 0.7183 0.5627
4847000000.0 0.8767 -0.2595
4850000000.0 0.3407 -0.8424
4853000000.0 -0.438 -0.7814
4856000000.0 -0.9012 -0.1076
4859000000.0 -0.6831 0.6652
4862000000.0 0.08706 0.9236
4866000000.0 0.7991 0.4969
4869000000.0 0.8881 -0.3368
4872000000.0 0.3136 -0.9156
4875000000.0 -0.579 -0.8394
4878000000.0 -1.035 -0.06449
4881000000.0 -0.7129 0.7722
4884000000.0 0.2119 1.083
4888000000.0 0.9883 0.5206
4891000000.0 1.062 -0.4397
4894000000.0 0.3026 -1.114
4897000000.0 -0.7137 -0.9629
4900000000.0 -1.201 0.002629
4903000000.0 -0.7325 0.9664
4906000000.0 0.3096 1.207
4909000000.0 1.134 0.5197
4912000000.0 1.127 -0.6206
4916000000.0 0.2432 -1.257
4919000000.0 -0.867 -0.9436
4922000000.0 -1.263 0.09506
4925000000.0 -0.6912 1.09
4928000000.0 0.3852 1.254
4931000000.0 1.238 0.4307
4934000000.0 1.099 -0.7039
4938000000.0 0.1138 -1.262
4941000000.0 -0.9295 -0.8906
4944000000.0 -1.242 0.2134
4947000000.0 -0.6166 1.125
4950000000.0 0.4973 1.132
4953000000.0 1.196 0.2902
4956000000.0 0.9431 -0.7548
4959000000.0 -0.03342 -1.206
4962000000.0 -0.9279 -0.661
4966000000.0 -1.082 0.3026
4969000000.0 -0.4054 1.026
4972000000.0 0.5594 0.9366
4975000000.0 1.043 0.1204
4978000000.0 0.6864 -0.7274
4981000000.0 -0.1535 -0.9704
4984000000.0 -0.8471 -0.5084
4988000000.0 -0.8672 0.3844
4991000000.0 -0.2311 0.8985
4994000000.0 0.5611 0.753
4997000000.0 0.9477 0.02067
5000000000.0 0.5748 -0.7043
5003000000.0 -0.1853 -0.8746
5006000000.0 -0.8333 -0.3522
5009000000.0 -0.7934 0.4435
5012000000.0 -0.1226 0.8993
5016000000.0 0.6006 0.6571
5019000000.0 0.9081 -0.07964
5022000000.0 0.4959 -0.77
5025000000.0 -0.3118 -0.8741
5028000000.0 -0.8795 -0.271
5031000000.0 -0.7922 0.5547
5034000000.0 -0.05209 0.9401
5038000000.0 0.7363 0.6512
5041000000.0 0.967 -0.1928
5044000000.0 0.4624 -0.8847
5047000000.0 -0.3884 -0.9444
5050000000.0 -1.019 -0.2752
5053000000.0 -0.8671 0.6396
5056000000.0 -0.04728 1.115
5059000000.0 0.8358 0.745
5062000000.0 1.08 -0.2165
5066000000.0 0.5654 -1.038
5069000000.0 -0.4622 -1.113
5072000000.0 -1.134 -0.3202
5075000000.0 -0.9994 0.6913
5078000000.0 -0.04749 1.23
5081000000.0 0.9698 0.8221
5084000000.0 1.211 -0.2203
5088000000.0 0.61 -1.121
5091000000.0 -0.4706 -1.174
5094000000.0 -1.191 -0.3674
5097000000.0 -1.036 0.7119
5100000000.0 -0.1092 1.243
5103000000.0 0.9139 0.8464
5106000000.0 1.213 -0.1365
5109000000.0 0.6623 -1.016
5112000000.0 -0.3413 -1.215
5116000000.0 -1.111 -0.4629
5119000000.0 -1.064 0.5817
5122000000.0 -0.2357 1.187
5125000000.0 0.7439 0.9411
5128000000.0 1.198 0.007291
5131000000.0 0.7383 -0.8826
5134000000.0 -0.2224 -1.125
5138000000.0 -0.9602 -0.545
5141000000.0 -1.068 0.4409
5144000000.0 -0.334 1.084
5147000000.0 0.5782 0.9297
5150000000.0 1.031 0.1026
5153000000.0 0.7509 -0.7719
5156000000.0 -0.03766 -1.045
5159000000.0 -0.8505 -0.6222
5162000000.0 -0.9709 0.2468
5166000000.0 -0.4411 0.8907
5169000000.0 0.4369 0.8988
5172000000.0 0.9569 0.2483
5175000000.0 0.7846 -0.5827
5178000000.0 0.04233 -0.9876
5181000000.0 -0.7045 -0.6709
5184000000.0 -0.9493 0.1276
5188000000.0 -0.4752 0.8479
5191000000.0 0.3569 0.8868
5194000000.0 0.8989 0.2901
5197000000.0 0.7671 -0.5394
5200000000.0 0.06235 -0.9482
5203000000.0 -0.7042 -0.6207
5206000000.0 -0.8943 0.1643
5209000000.0 -0.4738 0.842
5212000000.0 0.3692 0.8826
5216000000.0 0.8913 0.2536
5219000000.0 0.747 -0.5416
5222000000.0 0.03194 -0.9393
5225000000.0 -0.7588 -0.6048
5228000000.0 -0.9319 0.1955
5231000000.0 -0.4458 0.8564
5234000000.0 0.4259 0.8548
5238000000.0 0.9267 0.2158
5241000000.0 0.7582 -0.618
5244000000.0 -0.01182 -0.9814
5247000000.0 -0.7966 -0.622
5250000000.0 -0.9865 0.2328
5253000000.0 -0.4335 0.9108
5256000000.0 0.4616 0.8914
5259000000.0 1.001 0.2154
5262000000.0 0.8059 -0.6286
5266000000.0 0.001698 -1.037
5269000000.0 -0.8021 -0.6697
5272000000.0 -1.019 0.1885
5275000000.0 -0.4919 0.8932
5278000000.0 0.4096 0.9739
5281000000.0 0.9943 0.3012
5284000000.0 0.88 -0.5709
5288000000.0 0.1188 -1.073
5291000000.0 -0.7393 -0.766
5294000000.0 -1.074 0.05113
5297000000.0 -0.6307 0.8533
5300000000.0 0.2535 1.064
5303000000.0 0.9875 0.4993
5306000000.0 1.016 -0.4333
5309000000.0 0.317 -1.056
5312000000.0 -0.6033 -0.9208
5316000000.0 -1.099 -0.1193
5319000000.0 -0.7956 0.7743
5322000000.0 0.05911 1.144
5325000000.0 0.8921 0.6735
5328000000.0 1.131 -0.2338
5331000000.0 0.5467 -0.9997
5334000000.0 -0.4862 -1.07
5338000000.0 -1.107 -0.3372
5341000000.0 -0.9567 0.6466
5344000000.0 -0.163 1.135
5347000000.0 0.7826 0.8412
5350000000.0 1.144 -0.04717
5353000000.0 0.6921 -0.9718
5356000000.0 -0.2459 -1.127
5359000000.0 -0.9993 -0.5376
5362000000.0 -1.062 0.4612
5366000000.0 -0.3349 1.128
5369000000.0 0.64 0.9588
5372000000.0 1.165 0.1155
5375000000.0 0.8082 -0.8185
5378000000.0 -0.117 -1.159
5381000000.0 -0.9748 -0.5922
5384000000.0 -1.05 0.3234
5388000000.0 -0.3965 1.054
5391000000.0 0.5222 0.9315
5394000000.0 1.048 0.1988
5397000000.0 0.792 -0.7489
5400000000.0 -0.08093 -1.052
5403000000.0 -0.8472 -0.5886
5406000000.0 -0.9906 0.2787
5409000000.0 -0.3842 0.9162
5412000000.0 0.4829 0.8212
5416000000.0 0.9677 0.1798
5419000000.0 0.7488 -0.6533
5422000000.0 -0.05211 -0.9699
5425000000.0 -0.7852 -0.5612
5428000000.0 -0.9138 0.2933
5431000000.0 -0.3509 0.8718
5434000000.0 0.4802 0.801
5438000000.0 0.9234 0.1041
5441000000.0 0.6337 -0.6712
5444000000.0 -0.125 -0.8974
5447000000.0 -0.7608 -0.4417
5450000000.0 -0.8235 0.3226
5453000000.0 -0.2456 0.8459
5456000000.0 0.494 0.7077
5459000000.0 0.8511 0.06972
5462000000.0 0.6 -0.6662
5466000000.0 -0.1491 -0.8468
5469000000.0 -0.7603 -0.4106
5472000000.0 -0.7842 0.3163
5475000000.0 -0.25 0.8135
5478000000.0 0.4698 0.7367
5481000000.0 0.8689 0.1037
5484000000.0 0.6333 -0.6013
5488000000.0 -0.09185 -0.9055
5491000000.0 -0.7171 -0.5029
5494000000.0 -0.8743 0.2623
5497000000.0 -0.3489 0.8787
5500000000.0 0.4178 0.8091
5503000000.0 0.9102 0.1624
5506000000.0 0.7417 -0.5772
5509000000.0 0.02015 -0.9269
5512000000.0 -0.6965 -0.6532
5516000000.0 -0.9274 0.155
5519000000.0 -0.4681 0.8059
5522000000.0 0.334 0.9289
5525000000.0 0.9156 0.3389
5528000000.0 0.8388 -0.4611
5531000000.0 0.1647 -0.9949
5534000000.0 -0.6359 -0.7931
5538000000.0 -1.01 -0.03059
5541000000.0 -0.6987 0.7746
5544000000.0 0.1761 1.034
5547000000.0 0.8862 0.517
5550000000.0 0.9747 -0.3606
5553000000.0 0.3656 -0.9652
5556000000.0 -0.5198 -0.9293
5559000000.0 -1.061 -0.1932
5562000000.0 -0.8312 0.707
5566000000.0 0.003303 1.052
5569000000.0 0.7944 0.6896
5572000000.0 1.04 -0.1911
5575000000.0 0.521 -0.8854
5578000000.0 -0.3575 -1.01
5581000000.0 -0.9474 -0.352
5584000000.0 -0.884 0.5195
5588000000.0 -0.181 1.037
5591000000.0 0.6847 0.7702
5594000000.0 1.034 -0.01986
5597000000.0 0.6514 -0.807
5600000000.0 -0.2059 -0.9728
5603000000.0 -0.8806 -0.4909
5606000000.0 -0.9116 0.3834
5609000000.0 -0.2872 0.9535
5612000000.0 0.5678 0.8204
5616000000.0 0.9726 0.08213
5619000000.0 0.6832 -0.687
5622000000.0 -0.07289 -0.944
5625000000.0 -0.8174 -0.5474
5628000000.0 -0.8798 0.2882
5631000000.0 -0.332 0.8947
5634000000.0 0.4094 0.7769
5638000000.0 0.8952 0.1568
5641000000.0 0.673 -0.6044
5644000000.0 -0.03737 -0.881
5647000000.0 -0.7306 -0.5306
5650000000.0 -0.8779 0.2533
5653000000.0 -0.3628 0.7996
5656000000.0 0.4133 0.7841
5659000000.0 0.8469 0.1635
5662000000.0 0.6655 -0.5749
5666000000.0 -0.03048 -0.8618
5669000000.0 -0.6801 -0.5237
5672000000.0 -0.8366 0.2385
5675000000.0 -0.3299 0.8112
5678000000.0 0.4239 0.7674
5681000000.0 0.864 0.1191
5684000000.0 0.6459 -0.6051
5688000000.0 -0.06365 -0.9097
5691000000.0 -0.7564 -0.5421
5694000000.0 -0.9067 0.2627
5697000000.0 -0.3517 0.8624
5700000000.0 0.5068 0.7995
5703000000.0 0.9259 0.1516
5706000000.0 0.6918 -0.651
5709000000.0 -0.07633 -0.9765
5712000000.0 -0.7737 -0.5257
5716000000.0 -0.943 0.2937
5719000000.0 -0.3727 0.9023
5722000000.0 0.476 0.8471
5725000000.0 0.9737 0.1786
5728000000.0 0.7627 -0.6437
5731000000.0 -0.001826 -1.032
5734000000.0 -0.7596 -0.6219
5738000000.0 -1.019 0.2074
5741000000.0 -0.4357 0.9369
5744000000.0 0.4239 0.9514
5747000000.0 1.008 0.2894
5750000000.0 0.8715 -0.6028
5753000000.0 0.1047 -1.025
5756000000.0 -0.7736 -0.7452
5759000000.0 -1.086 0.09711
5762000000.0 -0.6282 0.8873
5766000000.0 0.3245 1.024
5769000000.0 0.9637 0.4342
5772000000.0 0.9426 -0.4816
5775000000.0 0.2611 -1.07
5778000000.0 -0.6406 -0.9077
5781000000.0 -1.093 -0.08732
5784000000.0 -0.7455 0.7831
5788000000.0 0.1221 1.044
5791000000.0 0.9148 0.5718
5794000000.0 1.013 -0.3098
5797000000.0 0.428 -1.006
5800000000.0 -0.5006 -0.953
5803000000.0 -1.049 -0.2403
5806000000.0 -0.831 0.6497
5809000000.0 -0.01196 1.073
5812000000.0 0.7965 0.7059
5816000000.0 1.062 -0.1649
5819000000.0 0.5496 -0.9092
5822000000.0 -0.3467 -0.9949
5825000000.0 -0.9816 -0.3554
5828000000.0 -0.9123 0.5348
5831000000.0 -0.1658 1.045
5834000000.0 0.6905 0.7574
5838000000.0 1.035 -0.02091
5841000000.0 0.6373 -0.8193
5844000000.0 -0.2392 -1.003
5847000000.0 -0.929 -0.4442
5850000000.0 -0.9082 0.4061
5853000000.0 -0.2668 0.9639
5856000000.0 0.5602 0.8143
5859000000.0 0.979 0.04619
5862000000.0 0.647 -0.7163
5866000000.0 -0.1692 -0.9465
5869000000.0 -0.8203 -0.4581
5872000000.0 -0.86 0.38
5875000000.0 -0.2698 0.8904
5878000000.0 0.5591 0.7893
5881000000.0 0.9412 0.08529
5884000000.0 0.6344 -0.6839
5888000000.0 -0.1487 -0.886
5891000000.0 -0.8006 -0.4572
5894000000.0 -0.8158 0.3291
5897000000.0 -0.2524 0.8405
5900000000.0 0.4765 0.7249
5903000000.0 0.851 0.09273
5906000000.0 0.6046 -0.5825
5909000000.0 -0.1069 -0.8655
5912000000.0 -0.6991 -0.4666
5916000000.0 -0.8022 0.273
5919000000.0 -0.3224 0.7957
5922000000.0 0.4441 0.7724
5925000000.0 0.8263 0.1196
5928000000.0 0.6228 -0.5653
5931000000.0 -0.04841 -0.864
5934000000.0 -0.6759 -0.535
5938000000.0 -0.8068 0.2273
5941000000.0 -0.3974 0.7981
5944000000.0 0.3388 0.7922
5947000000.0 0.8556 0.2358
5950000000.0 0.6828 -0.5002
5953000000.0 0.04928 -0.8714
5956000000.0 -0.615 -0.6072
5959000000.0 -0.8446 0.05164
5962000000.0 -0.4868 0.7439
5966000000.0 0.2673 0.8534
5969000000.0 0.8355 0.3703
5972000000.0 0.8222 -0.4229
5975000000.0 0.2005 -0.9125
5978000000.0 -0.5856 -0.7338
5981000000.0 -0.9429 -0.0335
5984000000.0 -0.6459 0.7122
5988000000.0 0.1588 0.9191
5991000000.0 0.81 0.4957
5994000000.0 0.9028 -0.2935
5997000000.0 0.3656 -0.9086
6000000000.0 -0.4495 -0.8893
6003000000.0 -0.9218 -0.1756
6006000000.0 -0.7512 0.6156
6009000000.0 0.01346 0.9867
6012000000.0 0.743 0.6524
6016000000.0 0.9655 -0.1539
6019000000.0 0.4765 -0.8472
6022000000.0 -0.3524 -0.9234
6025000000.0 -0.9518 -0.3246
6028000000.0 -0.8418 0.5447
6031000000.0 -0.1349 0.9761
6034000000.0 0.7004 0.728
6038000000.0 0.9899 -0.03893
6041000000.0 0.5696 -0.7829
6044000000.0 -0.259 -0.9563
6047000000.0 -0.9022 -0.42
6050000000.0 -0.8911 0.4394
6053000000.0 -0.2073 0.955
6056000000.0 0.6136 0.7844
6059000000.0 0.9522 0.01724
6062000000.0 0.6027 -0.7311
6066000000.0 -0.1791 -0.9473
6069000000.0 -0.8481 -0.4499
6072000000.0 -0.844 0.3691
6075000000.0 -0.2673 0.9106
6078000000.0 0.557 0.7416
6081000000.0 0.9122 0.04765
6084000000.0 0.6248 -0.6537
6088000000.0 -0.1423 -0.8807
6091000000.0 -0.7675 -0.4572
6094000000.0 -0.8638 0.339
6097000000.0 -0.2779 0.8654
6100000000.0 0.4843 0.7264
6103000000.0 0.8943 0.1056
6106000000.0 0.5714 -0.6468
6109000000.0 -0.08431 -0.8744
6112000000.0 -0.7475 -0.4655
6116000000.0 -0.8087 0.2602
6119000000.0 -0.292 0.8072
6122000000.0 0.446 0.7261
6125000000.0 0.862 0.1063
6128000000.0 0.6175 -0.5884
6131000000.0 -0.03898 -0.8474
6134000000.0 -0.7075 -0.4719
6138000000.0 -0.8141 0.2453
6141000000.0 -0.3131 0.7791
6144000000.0 0.4014 0.7409
6147000000.0 0.8376 0.1556
6150000000.0 0.6203 -0.5724
6153000000.0 -0.02773 -0.8727
6156000000.0 -0.6621 -0.5073
6159000000.0 -0.8641 0.1986
6162000000.0 -0.4006 0.769
6166000000.0 0.3672 0.7956
6169000000.0 0.8648 0.2016
6172000000.0 0.7517 -0.5234
6175000000.0 0.05219 -0.8782
6178000000.0 -0.6795 -0.5687
6181000000.0 -0.8756 0.1226
6184000000.0 -0.4624 0.8005
6188000000.0 0.3069 0.8466
6191000000.0 0.8398 0.2697
6194000000.0 0.7335 -0.513
6197000000.0 0.1199 -0.8899
6200000000.0 -0.6469 -0.6209
6203000000.0 -0.8922 0.02636
6206000000.0 -0.5354 0.7744
6209000000.0 0.2434 0.8392
6212000000.0 0.8491 0.3617
6216000000.0 0.836 -0.4021
6219000000.0 0.2146 -0.8968
6222000000.0 -0.5848 -0.6987
6225000000.0 -0.9333 -0.02244
6228000000.0 -0.5814 0.6593
6231000000.0 0.155 0.8705
6234000000.0 0.7633 0.4441
6238000000.0 0.8509 -0.2966
6241000000.0 0.2402 -0.8417
6244000000.0 -0.5086 -0.7282
6247000000.0 -0.8404 -0.1192
6250000000.0 -0.6206 0.5653
6253000000.0 0.03886 0.8522
6256000000.0 0.6304 0.5315
6259000000.0 0.816 -0.1709
6262000000.0 0.4008 -0.7228
