! Created with skrf 1.8.0 (http://scikit-rf.org).
# Hz S RI R 50.0 
!freq ReS11 ImS11
4000000000.0 -0.14 -1.53
4003000000.0 -1.264 -0.8243
4006000000.0 -1.421 0.462
4009000000.0 -0.5518 1.404
4012000000.0 0.8036 1.325
4016000000.0 1.546 0.2147
4019000000.0 1.133 -1.058
4022000000.0 -0.09876 -1.546
4025000000.0 -1.277 -0.9042
4028000000.0 -1.552 0.4941
4031000000.0 -0.5772 1.525
4034000000.0 0.804 1.414
4038000000.0 1.622 0.219
4041000000.0 1.227 -1.108
4044000000.0 -0.1108 -1.643
4047000000.0 -1.362 -0.9665
4050000000.0 -1.577 0.4286
4053000000.0 -0.6671 1.523
4056000000.0 0.7786 1.465
4059000000.0 1.631 0.3527
4062000000.0 1.299 -1.045
4066000000.0 0.07818 -1.588
4069000000.0 -1.242 -1.071
4072000000.0 -1.639 0.2343
4075000000.0 -0.8551 1.408
4078000000.0 0.5476 1.589
4081000000.0 1.553 0.5335
4084000000.0 1.424 -0.8404
4088000000.0 0.2479 -1.647
4091000000.0 -1.111 -1.262
4094000000.0 -1.663 0.09702
4097000000.0 -1.006 1.323
4100000000.0 0.3658 1.561
4103000000.0 1.465 0.7502
4106000000.0 1.483 -0.6207
4109000000.0 0.4564 -1.487
4112000000.0 -0.8626 -1.27
4116000000.0 -1.509 -0.2146
4119000000.0 -1.131 1.0
4122000000.0 0.009019 1.508
4125000000.0 1.132 0.9604
4128000000.0 1.46 -0.2179
4131000000.0 0.8061 -1.241
4134000000.0 -0.4065 -1.448
4138000000.0 -1.365 -0.5925
4141000000.0 -1.345 0.6161
4144000000.0 -0.3858 1.465
4147000000.0 0.8816 1.226
4150000000.0 1.521 0.1323
4153000000.0 1.117 -1.098
4156000000.0 -0.1292 -1.509
4159000000.0 -1.25 -0.9051
4162000000.0 -1.465 0.38
4166000000.0 -0.6596 1.38
4169000000.0 0.6411 1.41
4172000000.0 1.453 0.4318
4175000000.0 1.267 -0.8192
4178000000.0 0.1478 -1.475
4181000000.0 -1.057 -1.112
4184000000.0 -1.528 0.09567
4188000000.0 -0.8738 1.229
4191000000.0 0.41 1.53
4194000000.0 1.414 0.6634
4197000000.0 1.447 -0.6637
4200000000.0 0.408 -1.532
4203000000.0 -0.9666 -1.273
4206000000.0 -1.643 -0.05281
4209000000.0 -1.075 1.271
4212000000.0 0.3363 1.636
4216000000.0 1.522 0.7331
4219000000.0 1.58 -0.7326
4222000000.0 0.341 -1.684
4225000000.0 -1.138 -1.284
4228000000.0 -1.713 0.1202
4231000000.0 -0.9325 1.402
4234000000.0 0.5597 1.576
4238000000.0 1.577 0.5542
4241000000.0 1.361 -0.9393
4244000000.0 0.1248 -1.596
4247000000.0 -1.204 -1.08
4250000000.0 -1.547 0.3243
4253000000.0 -0.6749 1.397
4256000000.0 0.6999 1.361
4259000000.0 1.531 0.3294
4262000000.0 1.218 -0.988
4266000000.0 -0.08824 -1.508
4269000000.0 -1.218 -0.8673
4272000000.0 -1.446 0.425
4275000000.0 -0.5257 1.378
4278000000.0 0.7625 1.242
4281000000.0 1.46 0.1988
4284000000.0 1.013 -0.9789
4288000000.0 -0.1404 -1.386
4291000000.0 -1.158 -0.7555
4294000000.0 -1.318 0.4063
4297000000.0 -0.5047 1.26
4300000000.0 0.6451 1.17
4303000000.0 1.3 0.2456
4306000000.0 1.018 -0.8193
4309000000.0 0.03176 -1.291
4312000000.0 -0.9805 -0.8762
4316000000.0 -1.266 0.1774
4319000000.0 -0.6875 1.133
4322000000.0 0.4038 1.222
4325000000.0 1.203 0.4808
4328000000.0 1.224 -0.6213
4331000000.0 0.3202 -1.375
4334000000.0 -0.8381 -1.086
4338000000.0 -1.397 -0.05746
4341000000.0 -0.9444 1.049
4344000000.0 0.2168 1.403
4347000000.0 1.179 0.7376
4350000000.0 1.343 -0.4805
4353000000.0 0.5251 -1.335
4356000000.0 -0.746 -1.297
4359000000.0 -1.421 -0.2899
4362000000.0 -1.112 0.9533
4366000000.0 0.02302 1.463
4369000000.0 1.157 0.959
4372000000.0 1.472 -0.2776
4375000000.0 0.7368 -1.315
4378000000.0 -0.5579 -1.408
4381000000.0 -1.436 -0.4791
4384000000.0 -1.304 0.8283
4388000000.0 -0.2067 1.533
4391000000.0 1.108 1.139
4394000000.0 1.579 -0.1052
4397000000.0 0.8827 -1.333
4400000000.0 -0.52 -1.55
4403000000.0 -1.531 -0.5563
4406000000.0 -1.352 0.8068
4409000000.0 -0.2324 1.576
4412000000.0 1.111 1.174
4416000000.0 1.557 -0.1556
4419000000.0 0.832 -1.347
4422000000.0 -0.5145 -1.462
4425000000.0 -1.459 -0.4825
4428000000.0 -1.247 0.8548
4431000000.0 -0.08072 1.467
4434000000.0 1.099 1.01
4438000000.0 1.431 -0.2431
4441000000.0 0.7075 -1.248
4444000000.0 -0.5631 -1.308
4447000000.0 -1.306 -0.3354
4450000000.0 -1.1 0.8088
4453000000.0 0.003352 1.363
4456000000.0 1.015 0.808
4459000000.0 1.273 -0.3427
4462000000.0 0.5045 -1.211
4466000000.0 -0.6248 -1.109
4469000000.0 -1.246 -0.193
4472000000.0 -0.8988 0.8765
4475000000.0 0.1336 1.235
4478000000.0 1.021 0.6123
4481000000.0 1.1 -0.426
4484000000.0 0.3675 -1.097
4488000000.0 -0.6362 -0.9414
4491000000.0 -1.162 -0.07692
4494000000.0 -0.7861 0.8323
4497000000.0 0.1775 1.112
4500000000.0 1.002 0.5627
4503000000.0 1.027 -0.3948
4506000000.0 0.3336 -1.055
4509000000.0 -0.5946 -0.9218
4512000000.0 -1.118 -0.1121
4516000000.0 -0.7921 0.785
4519000000.0 0.1218 1.142
4522000000.0 0.9627 0.6296
4525000000.0 1.097 -0.3143
4528000000.0 0.4151 -1.06
4531000000.0 -0.5737 -0.9989
4534000000.0 -1.175 -0.1764
4538000000.0 -0.9094 0.7623
4541000000.0 0.01856 1.191
4544000000.0 0.9229 0.7418
4547000000.0 1.205 -0.2228
4550000000.0 0.5702 -1.055
4553000000.0 -0.4623 -1.102
4556000000.0 -1.153 -0.3823
4559000000.0 -1.052 0.6434
4562000000.0 -0.1781 1.245
4566000000.0 0.8295 0.9447
4569000000.0 1.267 -0.04145
4572000000.0 0.7994 -1.011
4575000000.0 -0.2667 -1.274
4578000000.0 -1.157 -0.6074
4581000000.0 -1.221 0.5137
4584000000.0 -0.423 1.299
4588000000.0 0.7158 1.143
4591000000.0 1.366 0.1535
4594000000.0 1.012 -0.9418
4597000000.0 -0.07882 -1.373
4600000000.0 -1.139 -0.7993
4603000000.0 -1.357 0.3355
4606000000.0 -0.616 1.279
4609000000.0 0.6062 1.279
4612000000.0 1.406 0.314
4616000000.0 1.113 -0.8685
4619000000.0 0.04098 -1.415
4622000000.0 -1.056 -0.8954
4625000000.0 -1.396 0.2553
4628000000.0 -0.6763 1.225
4631000000.0 0.5352 1.334
4634000000.0 1.335 0.4146
4638000000.0 1.144 -0.7842
4641000000.0 0.1091 -1.391
4644000000.0 -1.007 -0.9603
4647000000.0 -1.362 0.1843
4650000000.0 -0.6858 1.163
4653000000.0 0.4697 1.225
4656000000.0 1.253 0.4036
4659000000.0 1.07 -0.7201
4662000000.0 0.0932 -1.273
4666000000.0 -0.9282 -0.8675
4669000000.0 -1.217 0.1971
4672000000.0 -0.6242 1.098
4675000000.0 0.4431 1.095
4678000000.0 1.107 0.3696
4681000000.0 0.9602 -0.7009
4684000000.0 0.08315 -1.109
4688000000.0 -0.8586 -0.7664
4691000000.0 -1.139 0.1823
4694000000.0 -0.5411 0.9826
4697000000.0 0.4005 1.036
4700000000.0 1.051 0.284
4703000000.0 0.9117 -0.6422
4706000000.0 0.05565 -1.09
4709000000.0 -0.8502 -0.7102
4712000000.0 -1.031 0.1848
4716000000.0 -0.5086 0.9717
4719000000.0 0.4164 0.9665
4722000000.0 1.056 0.257
4725000000.0 0.8418 -0.6456
4728000000.0 0.0472 -1.064
4731000000.0 -0.7711 -0.7014
4734000000.0 -1.013 0.1575
4738000000.0 -0.5149 0.914
4741000000.0 0.3819 1.007
4744000000.0 0.9826 0.362
4747000000.0 0.9077 -0.5512
4750000000.0 0.1699 -1.065
4753000000.0 -0.6734 -0.8147
4756000000.0 -1.117 0.01624
4759000000.0 -0.697 0.8657
4762000000.0 0.2299 1.111
4766000000.0 0.9978 0.5266
4769000000.0 1.091 -0.4368
4772000000.0 0.3445 -1.116
4775000000.0 -0.6366 -0.9574
4778000000.0 -1.163 -0.1638
4781000000.0 -0.8752 0.7926
4784000000.0 0.04931 1.206
4788000000.0 0.9605 0.7578
4791000000.0 1.181 -0.2723
4794000000.0 0.5788 -1.096
4797000000.0 -0.4942 -1.16
4800000000.0 -1.22 -0.3775
4803000000.0 -1.039 0.6434
4806000000.0 -0.179 1.235
4809000000.0 0.8395 0.9566
4812000000.0 1.302 -0.02045
4816000000.0 0.8213 -1.026
4819000000.0 -0.2465 -1.311
4822000000.0 -1.192 -0.6275
4825000000.0 -1.285 0.5352
4828000000.0 -0.4143 1.343
4831000000.0 0.7538 1.165
4834000000.0 1.41 0.1419
4838000000.0 0.9983 -0.99
4841000000.0 -0.1269 -1.423
4844000000.0 -1.201 -0.8023
4847000000.0 -1.331 0.3883
4850000000.0 -0.5117 1.292
4853000000.0 0.6518 1.262
4856000000.0 1.344 0.2875
4859000000.0 1.064 -0.8873
4862000000.0 -0.01607 -1.371
4866000000.0 -1.082 -0.8552
4869000000.0 -1.325 0.3027
4872000000.0 -0.6221 1.169
4875000000.0 0.5474 1.216
4878000000.0 1.263 0.3508
4881000000.0 1.041 -0.7551
4884000000.0 0.03542 -1.258
4888000000.0 -0.9493 -0.8068
4891000000.0 -1.219 0.2241
4894000000.0 -0.5746 1.074
4897000000.0 0.4197 1.089
4900000000.0 1.114 0.3388
4903000000.0 0.9013 -0.6181
4906000000.0 0.06691 -1.1
4909000000.0 -0.7694 -0.7225
4912000000.0 -1.011 0.1335
4916000000.0 -0.5691 0.8596
4919000000.0 0.3177 0.9455
4922000000.0 0.9509 0.3629
4925000000.0 0.8675 -0.5069
4928000000.0 0.1362 -0.9628
4931000000.0 -0.6404 -0.7391
4934000000.0 -0.9463 0.01271
4938000000.0 -0.5629 0.7836
4941000000.0 0.2005 0.9193
4944000000.0 0.8727 0.419
4947000000.0 0.8757 -0.4089
4950000000.0 0.2469 -0.9253
4953000000.0 -0.5744 -0.7716
4956000000.0 -0.9687 -0.04691
4959000000.0 -0.6663 0.7062
4962000000.0 0.1487 0.9495
4966000000.0 0.8792 0.479
4969000000.0 0.9451 -0.3664
4972000000.0 0.304 -0.9534
4975000000.0 -0.5177 -0.8727
4978000000.0 -1.038 -0.1293
4981000000.0 -0.7584 0.6969
4984000000.0 0.03822 1.026
4988000000.0 0.864 0.6337
4991000000.0 1.037 -0.2598
4994000000.0 0.478 -0.9858
4997000000.0 -0.4703 -0.9982
5000000000.0 -1.082 -0.2928
5003000000.0 -0.9502 0.6649
5006000000.0 -0.1021 1.162
5009000000.0 0.8453 0.836
5012000000.0 1.191 -0.1058
5016000000.0 0.6941 -1.037
5019000000.0 -0.3992 -1.183
5022000000.0 -1.182 -0.4686
5025000000.0 -1.137 0.6332
5028000000.0 -0.2531 1.27
5031000000.0 0.8055 0.9908
5034000000.0 1.288 -0.001792
5038000000.0 0.822 -1.023
5041000000.0 -0.2731 -1.282
5044000000.0 -1.112 -0.634
5047000000.0 -1.248 0.4663
5050000000.0 -0.4324 1.237
5053000000.0 0.6703 1.126
5056000000.0 1.314 0.2023
5059000000.0 1.0 -0.8679
5062000000.0 -0.04038 -1.322
5066000000.0 -1.012 -0.8122
5069000000.0 -1.285 0.2633
5072000000.0 -0.6253 1.159
5075000000.0 0.4891 1.204
5078000000.0 1.22 0.409
5081000000.0 1.049 -0.7026
5084000000.0 0.1479 -1.219
5088000000.0 -0.847 -0.8987
5091000000.0 -1.204 0.08342
5094000000.0 -0.7057 0.9671
5097000000.0 0.2607 1.13
5100000000.0 1.023 0.5284
5103000000.0 1.052 -0.4369
5106000000.0 0.3036 -1.102
5109000000.0 -0.5394 -0.9279
5112000000.0 -1.078 -0.1257
5116000000.0 -0.7698 0.7637
5119000000.0 0.09835 1.112
5122000000.0 0.8236 0.6345
5125000000.0 1.035 -0.2291
5128000000.0 0.448 -0.94
5131000000.0 -0.4072 -0.9655
5134000000.0 -0.9993 -0.2261
5138000000.0 -0.7805 0.5588
5141000000.0 -0.06896 0.9996
5144000000.0 0.7007 0.6577
5147000000.0 0.9698 -0.1567
5150000000.0 0.4853 -0.8085
5153000000.0 -0.3118 -0.8704
5156000000.0 -0.8941 -0.337
5159000000.0 -0.7789 0.4893
5162000000.0 -0.1466 0.9265
5166000000.0 0.6039 0.6821
5169000000.0 0.8962 -0.0369
5172000000.0 0.5754 -0.7326
5175000000.0 -0.2334 -0.8932
5178000000.0 -0.8627 -0.3883
5181000000.0 -0.7978 0.4316
5184000000.0 -0.1974 0.9346
5188000000.0 0.5703 0.6824
5191000000.0 0.9631 -0.0232
5194000000.0 0.5557 -0.7329
5197000000.0 -0.2138 -0.9076
5200000000.0 -0.8593 -0.4084
5203000000.0 -0.8482 0.4419
5206000000.0 -0.2308 0.9356
5209000000.0 0.6253 0.769
5212000000.0 0.9717 -0.01467
5216000000.0 0.6181 -0.7493
5219000000.0 -0.2156 -0.9808
5222000000.0 -0.8792 -0.4665
5225000000.0 -0.9363 0.4228
5228000000.0 -0.2659 0.9764
5231000000.0 0.598 0.8529
5234000000.0 1.044 0.0808
5238000000.0 0.7268 -0.7653
5241000000.0 -0.1439 -1.025
5244000000.0 -0.866 -0.5627
5247000000.0 -0.9928 0.3337
5250000000.0 -0.3907 0.9934
5253000000.0 0.4959 0.9411
5256000000.0 1.064 0.2003
5259000000.0 0.8786 -0.6949
5262000000.0 0.0327 -1.094
5266000000.0 -0.8487 -0.7315
5269000000.0 -1.055 0.1552
5272000000.0 -0.6059 0.9313
5275000000.0 0.3657 1.064
5278000000.0 1.024 0.3866
5281000000.0 0.9771 -0.5284
5284000000.0 0.217 -1.08
5288000000.0 -0.6367 -0.8839
5291000000.0 -1.101 -0.06537
5294000000.0 -0.7659 0.8274
5297000000.0 0.1204 1.085
5300000000.0 0.9398 0.6103
5303000000.0 1.107 -0.2955
5306000000.0 0.4858 -1.011
5309000000.0 -0.4659 -1.043
5312000000.0 -1.095 -0.2876
5316000000.0 -0.9711 0.6657
5319000000.0 -0.1171 1.17
5322000000.0 0.795 0.8345
5325000000.0 1.172 -0.1244
5328000000.0 0.6473 -0.9692
5331000000.0 -0.3191 -1.102
5334000000.0 -1.061 -0.4743
5338000000.0 -1.04 0.5123
5341000000.0 -0.2976 1.113
5344000000.0 0.6758 0.914
5347000000.0 1.137 0.04252
5350000000.0 0.781 -0.829
5353000000.0 -0.1952 -1.11
5356000000.0 -0.9619 -0.564
5359000000.0 -1.042 0.3732
5362000000.0 -0.3678 1.014
5366000000.0 0.5559 0.9425
5369000000.0 1.058 0.1359
5372000000.0 0.7561 -0.7295
5375000000.0 -0.1064 -1.046
5378000000.0 -0.8973 -0.566
5381000000.0 -0.9708 0.3246
5384000000.0 -0.3404 0.978
5388000000.0 0.5205 0.8552
5391000000.0 0.9915 0.0948
5394000000.0 0.6481 -0.6513
5397000000.0 -0.09104 -0.9315
5400000000.0 -0.7926 -0.5068
5403000000.0 -0.8818 0.3128
5406000000.0 -0.2862 0.8389
5409000000.0 0.4736 0.7648
5412000000.0 0.9048 0.09563
5416000000.0 0.6431 -0.6183
5419000000.0 -0.1048 -0.8795
5422000000.0 -0.7529 -0.4711
5425000000.0 -0.8448 0.2953
5428000000.0 -0.2953 0.8604
5431000000.0 0.4773 0.7458
5434000000.0 0.8732 0.09112
5438000000.0 0.611 -0.664
5441000000.0 -0.1106 -0.8752
5444000000.0 -0.7589 -0.4569
5447000000.0 -0.8576 0.3111
5450000000.0 -0.2973 0.8167
5453000000.0 0.4796 0.7467
5456000000.0 0.9071 0.106
5459000000.0 0.6557 -0.6393
5462000000.0 -0.07188 -0.9059
5466000000.0 -0.7369 -0.5089
5469000000.0 -0.8843 0.2184
5472000000.0 -0.4178 0.8453
5475000000.0 0.4076 0.8375
5478000000.0 0.9309 0.2323
5481000000.0 0.7563 -0.558
5484000000.0 0.05756 -0.9374
5488000000.0 -0.7261 -0.6838
5491000000.0 -0.9968 0.09042
5494000000.0 -0.5637 0.8319
5497000000.0 0.2654 0.9878
5500000000.0 0.9344 0.4089
5503000000.0 0.9199 -0.4296
5506000000.0 0.2371 -1.009
5509000000.0 -0.6173 -0.8165
5512000000.0 -1.035 -0.06583
5516000000.0 -0.7112 0.7549
5519000000.0 0.1089 1.032
5522000000.0 0.8728 0.5933
5525000000.0 1.001 -0.2839
5528000000.0 0.4695 -0.9713
5531000000.0 -0.4358 -0.9761
5534000000.0 -1.011 -0.3033
5538000000.0 -0.898 0.5991
5541000000.0 -0.1144 1.038
5544000000.0 0.7882 0.7716
5547000000.0 1.068 -0.08634
5550000000.0 0.6221 -0.9039
5553000000.0 -0.2661 -1.028
5556000000.0 -0.9825 -0.4745
5559000000.0 -0.9722 0.4662
5562000000.0 -0.2544 1.033
5566000000.0 0.6115 0.8515
5569000000.0 1.059 0.06565
5572000000.0 0.6875 -0.7457
5575000000.0 -0.1338 -1.014
5578000000.0 -0.8877 -0.5434
5581000000.0 -0.9571 0.3067
5584000000.0 -0.3551 0.9221
5588000000.0 0.4195 0.8564
5591000000.0 0.9627 0.1644
5594000000.0 0.74 -0.6451
5597000000.0 0.003301 -0.9055
5600000000.0 -0.7326 -0.5804
5603000000.0 -0.9304 0.2324
5606000000.0 -0.4172 0.8294
5609000000.0 0.3619 0.8092
5612000000.0 0.876 0.23
5616000000.0 0.7363 -0.4917
5619000000.0 0.05748 -0.8768
5622000000.0 -0.6029 -0.5818
5625000000.0 -0.8615 0.1153
5628000000.0 -0.4491 0.7469
5631000000.0 0.3105 0.7933
5634000000.0 0.8049 0.2674
5638000000.0 0.7135 -0.4759
5641000000.0 0.06744 -0.8475
5644000000.0 -0.5942 -0.6226
5647000000.0 -0.8479 0.131
5650000000.0 -0.4689 0.6965
5653000000.0 0.2748 0.7903
5656000000.0 0.7976 0.2718
5659000000.0 0.732 -0.4765
5662000000.0 0.08025 -0.8642
5666000000.0 -0.6397 -0.5999
5669000000.0 -0.8893 0.1031
5672000000.0 -0.4775 0.7241
5675000000.0 0.31 0.8576
5678000000.0 0.8691 0.2934
5681000000.0 0.781 -0.4807
5684000000.0 0.1406 -0.9077
5688000000.0 -0.6523 -0.6989
5691000000.0 -0.9651 0.0944
5694000000.0 -0.5601 0.8105
5697000000.0 0.3194 0.9391
5700000000.0 0.9179 0.382
5703000000.0 0.883 -0.5026
5706000000.0 0.1477 -1.011
5709000000.0 -0.68 -0.7706
5712000000.0 -1.047 -0.01758
5716000000.0 -0.6643 0.816
5719000000.0 0.2363 1.03
5722000000.0 0.9627 0.4846
5725000000.0 0.9546 -0.4392
5728000000.0 0.3119 -1.009
5731000000.0 -0.5846 -0.8872
5734000000.0 -1.089 -0.1327
5738000000.0 -0.7736 0.7764
5741000000.0 0.08853 1.087
5744000000.0 0.8971 0.6191
5747000000.0 1.05 -0.2671
5750000000.0 0.4952 -0.9967
5753000000.0 -0.48 -0.9984
5756000000.0 -1.093 -0.2799
5759000000.0 -0.8961 0.6524
5762000000.0 -0.0529 1.108
5766000000.0 0.7819 0.7541
5769000000.0 1.085 -0.07721
5772000000.0 0.6079 -0.9683
5775000000.0 -0.3345 -1.054
5778000000.0 -1.01 -0.442
5781000000.0 -1.025 0.512
5784000000.0 -0.239 1.053
5788000000.0 0.6483 0.8774
5791000000.0 1.12 0.04275
5794000000.0 0.7336 -0.7699
5797000000.0 -0.1566 -1.097
5800000000.0 -0.9112 -0.5675
5803000000.0 -1.03 0.3433
5806000000.0 -0.3709 1.023
5809000000.0 0.5385 0.951
5812000000.0 1.032 0.1956
5816000000.0 0.776 -0.663
5819000000.0 -0.03672 -1.036
5822000000.0 -0.7952 -0.6406
5825000000.0 -0.9982 0.247
5828000000.0 -0.4612 0.8907
5831000000.0 0.3907 0.9393
5834000000.0 0.9614 0.2636
5838000000.0 0.8022 -0.5552
5841000000.0 0.07014 -0.977
5844000000.0 -0.7213 -0.6582
5847000000.0 -0.9418 0.1388
5850000000.0 -0.495 0.8246
5853000000.0 0.3478 0.8688
5856000000.0 0.8928 0.3241
5859000000.0 0.8107 -0.4792
5862000000.0 0.1242 -0.9496
5866000000.0 -0.6537 -0.6525
5869000000.0 -0.9107 0.07541
5872000000.0 -0.5143 0.7664
5875000000.0 0.2689 0.8797
5878000000.0 0.8296 0.3044
5881000000.0 0.7503 -0.4443
5884000000.0 0.1127 -0.8477
5888000000.0 -0.5884 -0.6288
5891000000.0 -0.8567 0.06146
5894000000.0 -0.515 0.7371
5897000000.0 0.2231 0.8435
5900000000.0 0.7772 0.3502
5903000000.0 0.7947 -0.416
5906000000.0 0.1713 -0.878
5909000000.0 -0.5513 -0.6757
5912000000.0 -0.897 -0.008303
5916000000.0 -0.5418 0.6648
5919000000.0 0.1977 0.8634
5922000000.0 0.7808 0.4411
5925000000.0 0.8328 -0.3807
5928000000.0 0.2368 -0.8364
5931000000.0 -0.4882 -0.754
5934000000.0 -0.8671 -0.1231
5938000000.0 -0.6299 0.6463
5941000000.0 0.06553 0.88
5944000000.0 0.7345 0.4869
5947000000.0 0.874 -0.2439
5950000000.0 0.3713 -0.8385
5953000000.0 -0.4309 -0.8331
5956000000.0 -0.8938 -0.2097
5959000000.0 -0.776 0.5377
5962000000.0 -0.05801 0.9741
5966000000.0 0.6786 0.664
5969000000.0 0.9303 -0.1215
5972000000.0 0.5417 -0.7849
5975000000.0 -0.2532 -0.9263
5978000000.0 -0.9105 -0.4112
5981000000.0 -0.8853 0.4217
5984000000.0 -0.2603 0.9487
5988000000.0 0.5898 0.7904
5991000000.0 1.002 0.07007
5994000000.0 0.714 -0.731
5997000000.0 -0.1486 -1.017
6000000000.0 -0.8621 -0.5716
6003000000.0 -0.961 0.3024
6006000000.0 -0.3857 0.9398
6009000000.0 0.4823 0.8833
6012000000.0 0.9812 0.1861
6016000000.0 0.7816 -0.6471
6019000000.0 -0.02615 -1.02
6022000000.0 -0.7682 -0.6092
6025000000.0 -0.9765 0.2052
6028000000.0 -0.4621 0.8695
6031000000.0 0.3987 0.9219
6034000000.0 0.9456 0.273
6038000000.0 0.8037 -0.575
6041000000.0 0.1049 -0.9694
6044000000.0 -0.7001 -0.6563
6047000000.0 -0.9792 0.1288
6050000000.0 -0.5372 0.8135
6053000000.0 0.313 0.8845
6056000000.0 0.885 0.3257
6059000000.0 0.8289 -0.5044
6062000000.0 0.1355 -0.9437
6066000000.0 -0.656 -0.6903
6069000000.0 -0.9193 0.07373
6072000000.0 -0.5009 0.7735
6075000000.0 0.2415 0.8806
6078000000.0 0.8371 0.3252
6081000000.0 0.78 -0.4346
6084000000.0 0.1646 -0.8837
6088000000.0 -0.5676 -0.6469
6091000000.0 -0.8895 0.01043
6094000000.0 -0.5308 0.6887
6097000000.0 0.1999 0.8448
6100000000.0 0.7587 0.3712
6103000000.0 0.7703 -0.3836
6106000000.0 0.1926 -0.8197
6109000000.0 -0.5144 -0.6961
6112000000.0 -0.8584 -0.03424
6116000000.0 -0.5396 0.6546
6119000000.0 0.1676 0.8501
6122000000.0 0.7591 0.4221
6125000000.0 0.8034 -0.3522
6128000000.0 0.2443 -0.8321
6131000000.0 -0.4801 -0.6879
6134000000.0 -0.8438 -0.04511
6138000000.0 -0.5855 0.6423
6141000000.0 0.1311 0.875
6144000000.0 0.7371 0.4556
6147000000.0 0.8371 -0.283
6150000000.0 0.3265 -0.857
6153000000.0 -0.4323 -0.7632
6156000000.0 -0.8856 -0.1357
6159000000.0 -0.6633 0.6065
6162000000.0 0.04557 0.9593
6166000000.0 0.7354 0.5585
6169000000.0 0.8978 -0.2199
6172000000.0 0.4003 -0.8353
6175000000.0 -0.4276 -0.8425
6178000000.0 -0.9331 -0.236
6181000000.0 -0.7372 0.5791
6184000000.0 -0.007359 0.9549
6188000000.0 0.7131 0.6289
6191000000.0 0.9516 -0.1775
6194000000.0 0.4833 -0.8321
6197000000.0 -0.333 -0.8912
6200000000.0 -0.8797 -0.2887
6203000000.0 -0.8263 0.5007
6206000000.0 -0.1283 0.9272
6209000000.0 0.65 0.6812
6212000000.0 0.9299 -0.06013
6216000000.0 0.5235 -0.7502
6219000000.0 -0.2749 -0.9217
6222000000.0 -0.8372 -0.4053
6225000000.0 -0.8297 0.3748
6228000000.0 -0.2281 0.9155
6231000000.0 0.5223 0.7462
6234000000.0 0.8799 0.04762
6238000000.0 0.6149 -0.6338
6241000000.0 -0.09954 -0.8928
6244000000.0 -0.7319 -0.4986
6247000000.0 -0.8225 0.2469
6250000000.0 -0.316 0.7903
6253000000.0 0.3551 0.7505
6256000000.0 0.8259 0.1642
6259000000.0 0.6625 -0.5212
6262000000.0 0.03842 -0.8087
6266000000.0 -0.5745 -0.5719
6269000000.0 -0.8116 0.1155
