! Created with skrf 1.8.0 (http://scikit-rf.org).
# Hz S RI R 50.0 
!freq ReS11 ImS11
4000000000.0 -0.2156 -1.48
4003000000.0 -1.251 -0.8034
4006000000.0 -1.396 0.5089
4009000000.0 -0.5251 1.417
4012000000.0 0.7452 1.302
4016000000.0 1.487 0.2015
4019000000.0 1.098 -1.025
4022000000.0 -0.1125 -1.559
4025000000.0 -1.291 -0.8936
4028000000.0 -1.522 0.5082
4031000000.0 -0.556 1.503
4034000000.0 0.8384 1.416
4038000000.0 1.576 0.2539
4041000000.0 1.159 -1.106
4044000000.0 -0.1116 -1.641
4047000000.0 -1.354 -0.8997
4050000000.0 -1.571 0.4616
4053000000.0 -0.6008 1.483
4056000000.0 0.7136 1.471
4059000000.0 1.601 0.3423
4062000000.0 1.225 -0.9721
4066000000.0 0.03309 -1.59
4069000000.0 -1.199 -1.029
4072000000.0 -1.616 0.2583
4075000000.0 -0.8083 1.405
4078000000.0 0.5841 1.549
4081000000.0 1.533 0.5426
4084000000.0 1.419 -0.8363
4088000000.0 0.2359 -1.626
4091000000.0 -1.097 -1.242
4094000000.0 -1.616 0.06688
4097000000.0 -0.9836 1.306
4100000000.0 0.364 1.545
4103000000.0 1.42 0.7205
4106000000.0 1.447 -0.6496
4109000000.0 0.4694 -1.498
4112000000.0 -0.8238 -1.271
4116000000.0 -1.496 -0.2027
4119000000.0 -1.085 0.9977
4122000000.0 0.03987 1.504
4125000000.0 1.128 0.977
4128000000.0 1.45 -0.2037
4131000000.0 0.7978 -1.269
4134000000.0 -0.4817 -1.392
4138000000.0 -1.341 -0.5777
4141000000.0 -1.311 0.6464
4144000000.0 -0.3707 1.445
4147000000.0 0.8858 1.242
4150000000.0 1.501 0.1416
4153000000.0 1.076 -1.049
4156000000.0 -0.1034 -1.548
4159000000.0 -1.237 -0.9117
4162000000.0 -1.47 0.3684
4166000000.0 -0.6345 1.343
4169000000.0 0.6091 1.372
4172000000.0 1.442 0.432
4175000000.0 1.212 -0.8326
4178000000.0 0.1614 -1.513
4181000000.0 -1.041 -1.065
4184000000.0 -1.506 0.07578
4188000000.0 -0.8671 1.215
4191000000.0 0.3618 1.456
4194000000.0 1.385 0.6472
4197000000.0 1.4 -0.6658
4200000000.0 0.3798 -1.527
4203000000.0 -0.947 -1.29
4206000000.0 -1.605 -0.05183
4209000000.0 -1.048 1.235
4212000000.0 0.3488 1.6
4216000000.0 1.448 0.7258
4219000000.0 1.534 -0.7656
4222000000.0 0.3036 -1.613
4225000000.0 -1.118 -1.274
4228000000.0 -1.699 0.09489
4231000000.0 -0.9033 1.371
4234000000.0 0.5365 1.581
4238000000.0 1.527 0.5207
4241000000.0 1.354 -0.9307
4244000000.0 0.07216 -1.611
4247000000.0 -1.197 -1.022
4250000000.0 -1.562 0.3227
4253000000.0 -0.6899 1.372
4256000000.0 0.6854 1.415
4259000000.0 1.485 0.3018
4262000000.0 1.145 -0.9674
4266000000.0 -0.06892 -1.484
4269000000.0 -1.242 -0.8624
4272000000.0 -1.389 0.4221
4275000000.0 -0.5431 1.383
4278000000.0 0.7746 1.243
4281000000.0 1.39 0.1383
4284000000.0 0.9751 -1.014
4288000000.0 -0.1417 -1.367
4291000000.0 -1.154 -0.7494
4294000000.0 -1.29 0.4435
4297000000.0 -0.4985 1.212
4300000000.0 0.6497 1.159
4303000000.0 1.295 0.2328
4306000000.0 0.976 -0.8444
4309000000.0 0.009293 -1.298
4312000000.0 -0.9501 -0.8202
4316000000.0 -1.233 0.2329
4319000000.0 -0.6571 1.115
4322000000.0 0.4347 1.244
4325000000.0 1.196 0.4823
4328000000.0 1.147 -0.5991
4331000000.0 0.252 -1.292
4334000000.0 -0.8539 -1.085
4338000000.0 -1.364 -0.03038
4341000000.0 -0.8988 1.047
4344000000.0 0.2205 1.38
4347000000.0 1.222 0.7536
4350000000.0 1.335 -0.492
4353000000.0 0.5295 -1.345
4356000000.0 -0.7287 -1.254
4359000000.0 -1.452 -0.243
4362000000.0 -1.098 0.892
4366000000.0 0.01294 1.47
4369000000.0 1.112 0.9065
4372000000.0 1.422 -0.2664
4375000000.0 0.6894 -1.325
4378000000.0 -0.5392 -1.377
4381000000.0 -1.418 -0.4457
4384000000.0 -1.275 0.8149
4388000000.0 -0.1651 1.517
4391000000.0 1.098 1.127
4394000000.0 1.541 -0.167
4397000000.0 0.8777 -1.293
4400000000.0 -0.5006 -1.506
4403000000.0 -1.47 -0.5705
4406000000.0 -1.357 0.8045
4409000000.0 -0.1951 1.58
4412000000.0 1.107 1.107
4416000000.0 1.552 -0.2196
4419000000.0 0.77 -1.352
4422000000.0 -0.5551 -1.419
4425000000.0 -1.442 -0.4535
4428000000.0 -1.21 0.8288
4431000000.0 -0.08384 1.48
4434000000.0 1.055 0.9543
4438000000.0 1.383 -0.2549
4441000000.0 0.6514 -1.24
4444000000.0 -0.5494 -1.251
4447000000.0 -1.313 -0.3091
4450000000.0 -1.026 0.8548
4453000000.0 0.03366 1.327
4456000000.0 1.064 0.771
4459000000.0 1.232 -0.3615
4462000000.0 0.4415 -1.203
4466000000.0 -0.6166 -1.06
4469000000.0 -1.224 -0.1442
4472000000.0 -0.8456 0.861
4475000000.0 0.1496 1.199
4478000000.0 0.9926 0.5986
4481000000.0 1.108 -0.4281
4484000000.0 0.3335 -1.12
4488000000.0 -0.6517 -0.9431
4491000000.0 -1.119 -0.03279
4494000000.0 -0.7589 0.8313
4497000000.0 0.2138 1.102
4500000000.0 0.9941 0.5421
4503000000.0 1.037 -0.3969
4506000000.0 0.3172 -1.028
4509000000.0 -0.5961 -0.9108
4512000000.0 -1.084 -0.1074
4516000000.0 -0.7652 0.7909
4519000000.0 0.09553 1.105
4522000000.0 0.9441 0.6015
4525000000.0 1.077 -0.3548
4528000000.0 0.3996 -1.063
4531000000.0 -0.5879 -0.9956
4534000000.0 -1.149 -0.1593
4538000000.0 -0.8782 0.7631
4541000000.0 0.03147 1.161
4544000000.0 0.9323 0.713
4547000000.0 1.171 -0.2324
4550000000.0 0.5706 -1.066
4553000000.0 -0.4838 -1.11
4556000000.0 -1.175 -0.3667
4559000000.0 -1.034 0.6546
4562000000.0 -0.1869 1.205
4566000000.0 0.8292 0.9162
4569000000.0 1.256 -0.04553
4572000000.0 0.7577 -0.9707
4575000000.0 -0.2685 -1.229
4578000000.0 -1.151 -0.6165
4581000000.0 -1.195 0.4947
4584000000.0 -0.3837 1.298
4588000000.0 0.7407 1.102
4591000000.0 1.344 0.1187
4594000000.0 0.961 -0.9561
4597000000.0 -0.1243 -1.358
4600000000.0 -1.145 -0.7774
4603000000.0 -1.312 0.3731
4606000000.0 -0.5724 1.299
4609000000.0 0.6407 1.208
4612000000.0 1.386 0.321
4616000000.0 1.101 -0.8468
4619000000.0 0.03564 -1.385
4622000000.0 -1.063 -0.9139
4625000000.0 -1.361 0.23
4628000000.0 -0.6523 1.191
4631000000.0 0.5161 1.248
4634000000.0 1.293 0.3817
4638000000.0 1.096 -0.7828
4641000000.0 0.09716 -1.339
4644000000.0 -1.028 -0.904
4647000000.0 -1.301 0.2165
4650000000.0 -0.6472 1.15
4653000000.0 0.4863 1.192
4656000000.0 1.238 0.3913
4659000000.0 1.044 -0.7254
4662000000.0 0.07132 -1.266
4666000000.0 -0.9356 -0.8318
4669000000.0 -1.205 0.1834
4672000000.0 -0.5758 1.059
4675000000.0 0.4105 1.098
4678000000.0 1.126 0.3204
4681000000.0 0.9056 -0.6343
4684000000.0 0.08578 -1.102
4688000000.0 -0.8287 -0.7406
4691000000.0 -1.092 0.1719
4694000000.0 -0.5021 0.9739
4697000000.0 0.4212 1.012
4700000000.0 1.072 0.2678
4703000000.0 0.8769 -0.6626
4706000000.0 0.04033 -1.089
4709000000.0 -0.8022 -0.6823
4712000000.0 -1.071 0.2308
4716000000.0 -0.467 0.985
4719000000.0 0.4758 0.9566
4722000000.0 1.001 0.2665
4725000000.0 0.836 -0.6496
4728000000.0 0.03361 -1.045
4731000000.0 -0.7985 -0.673
4734000000.0 -1.015 0.1499
4738000000.0 -0.5139 0.9068
4741000000.0 0.3947 0.9809
4744000000.0 0.9896 0.3341
4747000000.0 0.8823 -0.5669
4750000000.0 0.1566 -1.037
4753000000.0 -0.7236 -0.7834
4756000000.0 -1.064 0.018
4759000000.0 -0.6843 0.8518
4762000000.0 0.2507 1.076
4766000000.0 0.9606 0.5041
4769000000.0 1.035 -0.4508
4772000000.0 0.3501 -1.081
4775000000.0 -0.6571 -0.9913
4778000000.0 -1.148 -0.1208
4781000000.0 -0.868 0.7898
4784000000.0 0.06816 1.191
4788000000.0 0.991 0.7041
4791000000.0 1.16 -0.2778
4794000000.0 0.5487 -1.081
4797000000.0 -0.4603 -1.13
4800000000.0 -1.203 -0.3918
4803000000.0 -1.035 0.6657
4806000000.0 -0.1674 1.21
4809000000.0 0.8311 0.9401
4812000000.0 1.263 -0.04321
4816000000.0 0.7951 -1.006
4819000000.0 -0.2586 -1.285
4822000000.0 -1.195 -0.6107
4825000000.0 -1.269 0.5059
4828000000.0 -0.4044 1.309
4831000000.0 0.7709 1.151
4834000000.0 1.371 0.133
4838000000.0 0.9553 -0.9955
4841000000.0 -0.1564 -1.393
4844000000.0 -1.17 -0.7729
4847000000.0 -1.327 0.4319
4850000000.0 -0.5013 1.26
4853000000.0 0.6858 1.198
4856000000.0 1.363 0.2697
4859000000.0 1.016 -0.8805
4862000000.0 -0.03432 -1.346
4866000000.0 -1.055 -0.8107
4869000000.0 -1.288 0.2891
4872000000.0 -0.578 1.151
4875000000.0 0.5537 1.196
4878000000.0 1.252 0.3152
4881000000.0 1.044 -0.7562
4884000000.0 0.03883 -1.232
4888000000.0 -0.8997 -0.8212
4891000000.0 -1.177 0.2191
4894000000.0 -0.5749 1.052
4897000000.0 0.4648 1.082
4900000000.0 1.099 0.3061
4903000000.0 0.9233 -0.6311
4906000000.0 0.06522 -1.088
4909000000.0 -0.7524 -0.7108
4912000000.0 -1.034 0.1284
4916000000.0 -0.5226 0.9008
4919000000.0 0.3159 0.9361
4922000000.0 0.9341 0.3213
4925000000.0 0.8373 -0.4806
4928000000.0 0.1525 -0.9599
4931000000.0 -0.6446 -0.7011
4934000000.0 -0.9272 0.03333
4938000000.0 -0.5738 0.7581
4941000000.0 0.2131 0.9046
4944000000.0 0.8446 0.409
4947000000.0 0.8379 -0.3949
4950000000.0 0.2294 -0.9011
4953000000.0 -0.5983 -0.7713
4956000000.0 -0.9618 -0.0205
4959000000.0 -0.6319 0.7447
4962000000.0 0.1568 0.9884
4966000000.0 0.8586 0.4812
4969000000.0 0.9177 -0.3527
4972000000.0 0.3051 -0.9583
4975000000.0 -0.5361 -0.8449
4978000000.0 -0.9973 -0.1236
4981000000.0 -0.7385 0.6888
4984000000.0 0.07583 1.026
4988000000.0 0.836 0.6134
4991000000.0 1.023 -0.2483
4994000000.0 0.4639 -0.9754
4997000000.0 -0.4485 -0.9904
5000000000.0 -1.078 -0.2743
5003000000.0 -0.9467 0.6317
5006000000.0 -0.08929 1.162
5009000000.0 0.8601 0.8266
5012000000.0 1.174 -0.158
5016000000.0 0.6546 -1.034
5019000000.0 -0.3913 -1.166
5022000000.0 -1.173 -0.457
5025000000.0 -1.085 0.6148
5028000000.0 -0.2297 1.242
5031000000.0 0.798 0.979
5034000000.0 1.266 -0.004562
5038000000.0 0.8108 -1.006
5041000000.0 -0.2432 -1.242
5044000000.0 -1.127 -0.5929
5047000000.0 -1.206 0.4734
5050000000.0 -0.4377 1.184
5053000000.0 0.6632 1.105
5056000000.0 1.29 0.1799
5059000000.0 0.9693 -0.8327
5062000000.0 -0.03906 -1.3
5066000000.0 -1.014 -0.8448
5069000000.0 -1.274 0.2479
5072000000.0 -0.5982 1.137
5075000000.0 0.4852 1.178
5078000000.0 1.241 0.3649
5081000000.0 1.059 -0.6893
5084000000.0 0.1292 -1.259
5088000000.0 -0.8275 -0.9005
5091000000.0 -1.21 0.07752
5094000000.0 -0.6936 0.9604
5097000000.0 0.3196 1.126
5100000000.0 1.059 0.5059
5103000000.0 1.055 -0.4548
5106000000.0 0.3076 -1.104
5109000000.0 -0.6009 -0.9066
5112000000.0 -1.081 -0.1338
5116000000.0 -0.7872 0.7777
5119000000.0 0.05108 1.049
5122000000.0 0.8342 0.6294
5125000000.0 0.9917 -0.2701
5128000000.0 0.4546 -0.9035
5131000000.0 -0.425 -0.9188
5134000000.0 -0.9632 -0.2555
5138000000.0 -0.7985 0.5747
5141000000.0 -0.04051 0.9568
5144000000.0 0.6934 0.6541
5147000000.0 0.9302 -0.1705
5150000000.0 0.4938 -0.7632
5153000000.0 -0.2894 -0.8685
5156000000.0 -0.8835 -0.3201
5159000000.0 -0.7403 0.454
5162000000.0 -0.1701 0.881
5166000000.0 0.5721 0.6744
5169000000.0 0.9052 -0.04013
5172000000.0 0.5132 -0.7214
5175000000.0 -0.2227 -0.8614
5178000000.0 -0.8233 -0.3501
5181000000.0 -0.8077 0.43
5184000000.0 -0.1571 0.9152
5188000000.0 0.605 0.6992
5191000000.0 0.909 -0.03915
5194000000.0 0.5698 -0.7308
5197000000.0 -0.2328 -0.9116
5200000000.0 -0.8451 -0.386
5203000000.0 -0.8637 0.4084
5206000000.0 -0.1955 0.9489
5209000000.0 0.5889 0.7529
5212000000.0 0.9854 -0.02353
5216000000.0 0.5917 -0.755
5219000000.0 -0.2126 -0.9661
5222000000.0 -0.8898 -0.4486
5225000000.0 -0.9075 0.423
5228000000.0 -0.2513 0.9867
5231000000.0 0.6107 0.8139
5234000000.0 1.036 0.07763
5238000000.0 0.7144 -0.7604
5241000000.0 -0.1468 -1.024
5244000000.0 -0.849 -0.5431
5247000000.0 -0.9827 0.349
5250000000.0 -0.3674 1.025
5253000000.0 0.5213 0.9307
5256000000.0 1.031 0.1982
5259000000.0 0.821 -0.6809
5262000000.0 -0.01731 -1.079
5266000000.0 -0.7848 -0.6867
5269000000.0 -1.063 0.1888
5272000000.0 -0.5715 0.9247
5275000000.0 0.373 1.045
5278000000.0 1.037 0.4146
5281000000.0 0.9676 -0.513
5284000000.0 0.2195 -1.07
5288000000.0 -0.6699 -0.8732
5291000000.0 -1.08 -0.03217
5294000000.0 -0.7399 0.81
5297000000.0 0.1028 1.089
5300000000.0 0.9421 0.6505
5303000000.0 1.058 -0.2963
5306000000.0 0.4472 -1.032
5309000000.0 -0.5069 -1.012
5312000000.0 -1.092 -0.2617
5316000000.0 -0.9282 0.6685
5319000000.0 -0.0783 1.127
5322000000.0 0.7995 0.7971
5325000000.0 1.147 -0.07261
5328000000.0 0.6913 -0.9859
5331000000.0 -0.3162 -1.083
5334000000.0 -1.052 -0.4522
5338000000.0 -1.01 0.511
5341000000.0 -0.2527 1.085
5344000000.0 0.6786 0.9188
5347000000.0 1.116 -0.02444
5350000000.0 0.7342 -0.8259
5353000000.0 -0.1811 -1.088
5356000000.0 -0.9431 -0.5441
5359000000.0 -1.014 0.3804
5362000000.0 -0.3395 1.007
5366000000.0 0.56 0.9289
5369000000.0 1.059 0.1132
5372000000.0 0.7732 -0.7581
5375000000.0 -0.09324 -1.017
5378000000.0 -0.8619 -0.5756
5381000000.0 -0.9966 0.3267
5384000000.0 -0.3404 0.9176
5388000000.0 0.4921 0.8514
5391000000.0 0.9644 0.1071
5394000000.0 0.6417 -0.6613
5397000000.0 -0.1195 -0.8974
5400000000.0 -0.8205 -0.4488
5403000000.0 -0.839 0.2953
5406000000.0 -0.2665 0.857
5409000000.0 0.4823 0.7212
5412000000.0 0.8541 0.0712
5416000000.0 0.5704 -0.6232
5419000000.0 -0.1315 -0.8515
5422000000.0 -0.7312 -0.4423
5425000000.0 -0.8054 0.2981
5428000000.0 -0.2644 0.8504
5431000000.0 0.4885 0.7121
5434000000.0 0.8391 0.06179
5438000000.0 0.5686 -0.6275
5441000000.0 -0.1372 -0.88
5444000000.0 -0.7541 -0.4476
5447000000.0 -0.8443 0.3169
5450000000.0 -0.2903 0.8388
5453000000.0 0.4752 0.7305
5456000000.0 0.8848 0.09479
5459000000.0 0.6497 -0.6311
5462000000.0 -0.07712 -0.9047
5466000000.0 -0.7114 -0.5062
5469000000.0 -0.884 0.2222
5472000000.0 -0.405 0.8474
5475000000.0 0.4249 0.8347
5478000000.0 0.886 0.2265
5481000000.0 0.7404 -0.567
5484000000.0 0.03853 -0.9517
5488000000.0 -0.6892 -0.64
5491000000.0 -0.9809 0.1001
5494000000.0 -0.5014 0.7958
5497000000.0 0.3056 0.9392
5500000000.0 0.896 0.3608
5503000000.0 0.8898 -0.4266
5506000000.0 0.2508 -0.9653
5509000000.0 -0.6459 -0.8199
5512000000.0 -1.014 -0.04343
5516000000.0 -0.7287 0.7088
5519000000.0 0.1138 1.026
5522000000.0 0.8471 0.5576
5525000000.0 0.9962 -0.3096
5528000000.0 0.3995 -0.9585
5531000000.0 -0.4806 -0.928
5534000000.0 -1.045 -0.2589
5538000000.0 -0.8453 0.6148
5541000000.0 -0.07838 1.074
5544000000.0 0.7707 0.7757
5547000000.0 1.056 -0.09281
5550000000.0 0.6048 -0.8707
5553000000.0 -0.2894 -1.016
5556000000.0 -0.9785 -0.421
5559000000.0 -0.9395 0.4802
5562000000.0 -0.2406 1.021
5566000000.0 0.6463 0.8574
5569000000.0 1.052 0.0354
5572000000.0 0.689 -0.7563
5575000000.0 -0.1296 -1.01
5578000000.0 -0.8698 -0.4879
5581000000.0 -0.9374 0.3547
5584000000.0 -0.3328 0.9086
5588000000.0 0.4792 0.8555
5591000000.0 0.9405 0.1466
5594000000.0 0.753 -0.6104
5597000000.0 -0.00324 -0.9499
5600000000.0 -0.7363 -0.5568
5603000000.0 -0.8742 0.2118
5606000000.0 -0.4185 0.7813
5609000000.0 0.365 0.8224
5612000000.0 0.8558 0.2134
5616000000.0 0.6964 -0.5045
5619000000.0 0.03388 -0.8633
5622000000.0 -0.6439 -0.5746
5625000000.0 -0.854 0.1371
5628000000.0 -0.4283 0.7554
5631000000.0 0.325 0.7892
5634000000.0 0.784 0.2334
5638000000.0 0.7044 -0.4602
5641000000.0 0.09812 -0.8403
5644000000.0 -0.5998 -0.5877
5647000000.0 -0.8359 0.08538
5650000000.0 -0.428 0.7027
5653000000.0 0.2987 0.8055
5656000000.0 0.8082 0.2459
5659000000.0 0.7216 -0.4903
5662000000.0 0.08464 -0.8685
5666000000.0 -0.6356 -0.6037
5669000000.0 -0.8708 0.09942
5672000000.0 -0.4693 0.7466
5675000000.0 0.3289 0.8175
5678000000.0 0.8386 0.2763
5681000000.0 0.7684 -0.5018
5684000000.0 0.1319 -0.9031
5688000000.0 -0.6623 -0.6672
5691000000.0 -0.9622 0.1085
5694000000.0 -0.5226 0.811
5697000000.0 0.3054 0.9398
5700000000.0 0.926 0.3852
5703000000.0 0.8739 -0.4872
5706000000.0 0.1543 -1.023
5709000000.0 -0.6755 -0.7692
5712000000.0 -1.017 0.03346
5716000000.0 -0.6032 0.8306
5719000000.0 0.241 1.025
5722000000.0 0.9571 0.4689
5725000000.0 0.9484 -0.4161
5728000000.0 0.2879 -0.9962
5731000000.0 -0.5818 -0.8826
5734000000.0 -1.055 -0.07693
5738000000.0 -0.7113 0.7609
5741000000.0 0.1028 1.104
5744000000.0 0.9259 0.6209
5747000000.0 1.07 -0.2908
5750000000.0 0.4225 -1.017
5753000000.0 -0.5084 -1.017
5756000000.0 -1.052 -0.2515
5759000000.0 -0.8971 0.6959
5762000000.0 -0.07757 1.084
5766000000.0 0.8072 0.7663
5769000000.0 1.092 -0.1438
5772000000.0 0.6165 -0.9173
5775000000.0 -0.3322 -1.041
5778000000.0 -0.9969 -0.4459
5781000000.0 -0.987 0.4916
5784000000.0 -0.2373 1.087
5788000000.0 0.6552 0.837
5791000000.0 1.075 0.03338
5794000000.0 0.7399 -0.8154
5797000000.0 -0.1695 -1.07
5800000000.0 -0.8921 -0.543
5803000000.0 -0.9838 0.3406
5806000000.0 -0.3781 0.999
5809000000.0 0.5398 0.8836
5812000000.0 1.04 0.1734
5816000000.0 0.7948 -0.6735
5819000000.0 -0.04078 -1.001
5822000000.0 -0.7998 -0.6402
5825000000.0 -0.9522 0.2333
5828000000.0 -0.4447 0.9113
5831000000.0 0.3919 0.9105
5834000000.0 0.9298 0.2407
5838000000.0 0.8124 -0.5616
5841000000.0 0.008545 -0.9634
5844000000.0 -0.7205 -0.665
5847000000.0 -0.9327 0.1462
5850000000.0 -0.4864 0.8021
5853000000.0 0.311 0.8461
5856000000.0 0.8731 0.286
5859000000.0 0.7729 -0.5111
5862000000.0 0.07698 -0.8974
5866000000.0 -0.6701 -0.6579
5869000000.0 -0.9114 0.08734
5872000000.0 -0.4919 0.7441
5875000000.0 0.305 0.832
5878000000.0 0.8186 0.304
5881000000.0 0.7567 -0.4715
5884000000.0 0.09982 -0.8512
5888000000.0 -0.6242 -0.6194
5891000000.0 -0.8754 0.06058
5894000000.0 -0.4806 0.726
5897000000.0 0.2533 0.7993
5900000000.0 0.7942 0.3267
5903000000.0 0.7662 -0.4107
5906000000.0 0.1561 -0.8341
5909000000.0 -0.548 -0.6389
5912000000.0 -0.8596 0.01323
5916000000.0 -0.5143 0.7036
5919000000.0 0.1836 0.8533
5922000000.0 0.7734 0.3867
5925000000.0 0.7812 -0.347
5928000000.0 0.2482 -0.8538
5931000000.0 -0.5034 -0.721
5934000000.0 -0.8676 -0.08343
5938000000.0 -0.6157 0.643
5941000000.0 0.0778 0.8866
5944000000.0 0.75 0.4957
5947000000.0 0.8551 -0.2427
5950000000.0 0.3694 -0.8083
5953000000.0 -0.4242 -0.8053
5956000000.0 -0.8812 -0.2291
5959000000.0 -0.7415 0.5864
5962000000.0 -0.05171 0.9389
5966000000.0 0.68 0.6486
5969000000.0 0.9381 -0.1047
5972000000.0 0.5113 -0.818
5975000000.0 -0.2974 -0.9192
5978000000.0 -0.8895 -0.3744
5981000000.0 -0.8857 0.4405
5984000000.0 -0.2219 0.9301
5988000000.0 0.5771 0.7575
5991000000.0 0.9997 0.03481
5994000000.0 0.6328 -0.7333
5997000000.0 -0.143 -1.014
6000000000.0 -0.864 -0.5399
6003000000.0 -0.9497 0.3269
6006000000.0 -0.3537 0.9064
6009000000.0 0.4974 0.8761
6012000000.0 0.9878 0.1814
6016000000.0 0.7534 -0.6361
6019000000.0 -0.03459 -0.9704
6022000000.0 -0.7913 -0.5886
6025000000.0 -0.9736 0.2318
6028000000.0 -0.4376 0.8794
6031000000.0 0.4 0.863
6034000000.0 0.9362 0.2474
6038000000.0 0.7819 -0.5582
6041000000.0 0.06763 -0.9564
6044000000.0 -0.7044 -0.648
6047000000.0 -0.9527 0.1394
6050000000.0 -0.472 0.8093
6053000000.0 0.3331 0.8842
6056000000.0 0.8851 0.296
6059000000.0 0.7956 -0.4977
6062000000.0 0.09019 -0.9048
6066000000.0 -0.6403 -0.6514
6069000000.0 -0.8814 0.1061
6072000000.0 -0.4673 0.7512
6075000000.0 0.2658 0.8376
6078000000.0 0.846 0.3255
6081000000.0 0.7438 -0.447
6084000000.0 0.1349 -0.8483
6088000000.0 -0.5683 -0.6493
6091000000.0 -0.873 0.04059
6094000000.0 -0.4954 0.6782
6097000000.0 0.2326 0.8627
6100000000.0 0.7985 0.3514
6103000000.0 0.763 -0.3816
6106000000.0 0.1666 -0.8148
6109000000.0 -0.5575 -0.661
6112000000.0 -0.868 0.0008365
6116000000.0 -0.5246 0.674
6119000000.0 0.1886 0.8562
6122000000.0 0.7649 0.4068
6125000000.0 0.7957 -0.3461
6128000000.0 0.2015 -0.8083
6131000000.0 -0.5093 -0.7008
6134000000.0 -0.8651 -0.01513
6138000000.0 -0.58 0.6429
6141000000.0 0.1277 0.899
6144000000.0 0.7591 0.4391
6147000000.0 0.8278 -0.3089
6150000000.0 0.2663 -0.8427
6153000000.0 -0.4826 -0.7546
6156000000.0 -0.8787 -0.1221
6159000000.0 -0.6641 0.6333
6162000000.0 0.04908 0.8949
6166000000.0 0.7608 0.5226
6169000000.0 0.8649 -0.2662
6172000000.0 0.3642 -0.819
6175000000.0 -0.424 -0.8526
6178000000.0 -0.9322 -0.1959
6181000000.0 -0.7352 0.575
6184000000.0 0.03749 0.9548
6188000000.0 0.7338 0.5879
6191000000.0 0.9389 -0.1585
6194000000.0 0.4544 -0.8338
6197000000.0 -0.3437 -0.8978
6200000000.0 -0.8913 -0.2639
6203000000.0 -0.767 0.5309
6206000000.0 -0.06207 0.9281
6209000000.0 0.6419 0.6758
6212000000.0 0.9064 -0.07554
6216000000.0 0.5308 -0.764
6219000000.0 -0.2535 -0.9041
6222000000.0 -0.8294 -0.3883
6225000000.0 -0.8203 0.3967
6228000000.0 -0.1993 0.8705
6231000000.0 0.5503 0.7588
6234000000.0 0.9212 0.03667
6238000000.0 0.5935 -0.6331
6241000000.0 -0.1396 -0.897
6244000000.0 -0.7516 -0.4489
6247000000.0 -0.7891 0.2679
6250000000.0 -0.3127 0.7857
6253000000.0 0.4133 0.7321
6256000000.0 0.804 0.1552
6259000000.0 0.6323 -0.5057
6262000000.0 0.02605 -0.8
6266000000.0 -0.6088 -0.5281
