! Created with skrf 1.8.0 (http://scikit-rf.org).
# Hz S RI R 50.0 
!freq ReS11 ImS11
4000000000.0 -0.1583 -1.538
4003000000.0 -1.244 -0.7819
4006000000.0 -1.443 0.5018
4009000000.0 -0.5254 1.414
4012000000.0 0.7838 1.304
4016000000.0 1.463 0.1851
4019000000.0 1.151 -1.065
4022000000.0 -0.1048 -1.552
4025000000.0 -1.268 -0.9048
4028000000.0 -1.537 0.4882
4031000000.0 -0.5371 1.463
4034000000.0 0.7771 1.378
4038000000.0 1.589 0.2279
4041000000.0 1.181 -1.112
4044000000.0 -0.109 -1.67
4047000000.0 -1.335 -0.9392
4050000000.0 -1.576 0.4373
4053000000.0 -0.6272 1.466
4056000000.0 0.7426 1.407
4059000000.0 1.595 0.318
4062000000.0 1.233 -1.033
4066000000.0 -0.00331 -1.599
4069000000.0 -1.218 -1.063
4072000000.0 -1.581 0.265
4075000000.0 -0.7919 1.417
4078000000.0 0.5895 1.533
4081000000.0 1.505 0.5366
4084000000.0 1.376 -0.8347
4088000000.0 0.2705 -1.63
4091000000.0 -1.129 -1.217
4094000000.0 -1.632 0.07533
4097000000.0 -0.9596 1.31
4100000000.0 0.363 1.59
4103000000.0 1.445 0.7461
4106000000.0 1.454 -0.6444
4109000000.0 0.4332 -1.508
4112000000.0 -0.7973 -1.268
4116000000.0 -1.453 -0.1738
4119000000.0 -1.116 0.9978
4122000000.0 -0.007747 1.485
4125000000.0 1.113 0.9503
4128000000.0 1.463 -0.1943
4131000000.0 0.7763 -1.249
4134000000.0 -0.4399 -1.382
4138000000.0 -1.335 -0.5942
4141000000.0 -1.347 0.6428
4144000000.0 -0.3643 1.445
4147000000.0 0.8694 1.237
4150000000.0 1.518 0.1399
4153000000.0 1.094 -1.061
4156000000.0 -0.1321 -1.49
4159000000.0 -1.236 -0.8629
4162000000.0 -1.49 0.3577
4166000000.0 -0.6349 1.363
4169000000.0 0.5977 1.372
4172000000.0 1.459 0.3982
4175000000.0 1.259 -0.8516
4178000000.0 0.1759 -1.483
4181000000.0 -1.076 -1.075
4184000000.0 -1.484 0.08635
4188000000.0 -0.8613 1.207
4191000000.0 0.362 1.498
4194000000.0 1.382 0.6706
4197000000.0 1.414 -0.6722
4200000000.0 0.3534 -1.51
4203000000.0 -0.983 -1.285
4206000000.0 -1.579 -0.07706
4209000000.0 -1.032 1.269
4212000000.0 0.3251 1.642
4216000000.0 1.502 0.7359
4219000000.0 1.499 -0.7384
4222000000.0 0.3234 -1.644
4225000000.0 -1.135 -1.251
4228000000.0 -1.648 0.1377
4231000000.0 -0.8851 1.406
4234000000.0 0.5617 1.556
4238000000.0 1.566 0.4816
4241000000.0 1.308 -0.9398
4244000000.0 0.04204 -1.612
4247000000.0 -1.23 -1.01
4250000000.0 -1.532 0.3389
4253000000.0 -0.6802 1.413
4256000000.0 0.6814 1.37
4259000000.0 1.551 0.2778
4262000000.0 1.151 -0.9737
4266000000.0 -0.1192 -1.536
4269000000.0 -1.225 -0.7847
4272000000.0 -1.415 0.4433
4275000000.0 -0.5057 1.382
4278000000.0 0.7774 1.228
4281000000.0 1.457 0.1596
4284000000.0 0.9858 -0.9778
4288000000.0 -0.1737 -1.372
4291000000.0 -1.177 -0.7145
4294000000.0 -1.295 0.4523
4297000000.0 -0.4786 1.269
4300000000.0 0.6441 1.152
4303000000.0 1.324 0.2039
4306000000.0 1.005 -0.8463
4309000000.0 0.01487 -1.274
4312000000.0 -0.9768 -0.8147
4316000000.0 -1.273 0.2098
4319000000.0 -0.6803 1.101
4322000000.0 0.4205 1.263
4325000000.0 1.234 0.4421
4328000000.0 1.155 -0.622
4331000000.0 0.2839 -1.353
4334000000.0 -0.8677 -1.062
4338000000.0 -1.385 -0.01271
4341000000.0 -0.8766 1.067
4344000000.0 0.186 1.403
4347000000.0 1.192 0.6878
4350000000.0 1.312 -0.4986
4353000000.0 0.468 -1.348
4356000000.0 -0.7178 -1.225
4359000000.0 -1.424 -0.2827
4362000000.0 -1.096 0.9559
4366000000.0 0.01547 1.438
4369000000.0 1.174 0.8979
4372000000.0 1.435 -0.3168
4375000000.0 0.6803 -1.287
4378000000.0 -0.559 -1.338
4381000000.0 -1.451 -0.4505
4384000000.0 -1.265 0.8518
4388000000.0 -0.1478 1.516
4391000000.0 1.111 1.098
4394000000.0 1.543 -0.1582
4397000000.0 0.8336 -1.306
4400000000.0 -0.5117 -1.473
4403000000.0 -1.485 -0.5342
4406000000.0 -1.313 0.8563
4409000000.0 -0.172 1.567
4412000000.0 1.131 1.093
4416000000.0 1.544 -0.228
4419000000.0 0.7685 -1.337
4422000000.0 -0.5386 -1.401
4425000000.0 -1.436 -0.408
4428000000.0 -1.198 0.8532
4431000000.0 -0.04801 1.429
4434000000.0 1.077 0.9572
4438000000.0 1.353 -0.2868
4441000000.0 0.6339 -1.252
4444000000.0 -0.5763 -1.229
4447000000.0 -1.331 -0.2754
4450000000.0 -1.003 0.8645
4453000000.0 0.04166 1.294
4456000000.0 1.063 0.751
4459000000.0 1.218 -0.3801
4462000000.0 0.4359 -1.147
4466000000.0 -0.6545 -1.042
4469000000.0 -1.209 -0.1409
4472000000.0 -0.8542 0.8818
4475000000.0 0.181 1.182
4478000000.0 1.011 0.5906
4481000000.0 1.081 -0.4475
4484000000.0 0.3056 -1.096
4488000000.0 -0.6801 -0.927
4491000000.0 -1.097 -0.04467
4494000000.0 -0.7221 0.8639
4497000000.0 0.2091 1.109
4500000000.0 0.9712 0.514
4503000000.0 0.9955 -0.4507
4506000000.0 0.3152 -1.039
4509000000.0 -0.6117 -0.8946
4512000000.0 -1.086 -0.1143
4516000000.0 -0.7587 0.8226
4519000000.0 0.1316 1.083
4522000000.0 0.9273 0.5726
4525000000.0 1.068 -0.4086
4528000000.0 0.3892 -1.096
4531000000.0 -0.6254 -0.9912
4534000000.0 -1.134 -0.1628
4538000000.0 -0.8774 0.7839
4541000000.0 0.04872 1.181
4544000000.0 0.9365 0.6977
4547000000.0 1.14 -0.27
4550000000.0 0.5617 -1.072
4553000000.0 -0.4817 -1.084
4556000000.0 -1.158 -0.3388
4559000000.0 -1.005 0.6704
4562000000.0 -0.1567 1.178
4566000000.0 0.8472 0.8907
4569000000.0 1.24 -0.05772
4572000000.0 0.7771 -1.02
4575000000.0 -0.3033 -1.235
4578000000.0 -1.163 -0.5882
4581000000.0 -1.188 0.5316
4584000000.0 -0.3749 1.299
4588000000.0 0.7562 1.096
4591000000.0 1.362 0.1367
4594000000.0 0.9625 -0.9702
4597000000.0 -0.1317 -1.364
4600000000.0 -1.147 -0.7693
4603000000.0 -1.326 0.4078
4606000000.0 -0.5625 1.273
4609000000.0 0.6336 1.237
4612000000.0 1.373 0.2491
4616000000.0 1.089 -0.8855
4619000000.0 -0.01666 -1.377
4622000000.0 -1.062 -0.8661
4625000000.0 -1.348 0.2877
4628000000.0 -0.6319 1.219
4631000000.0 0.5382 1.249
4634000000.0 1.324 0.3298
4638000000.0 1.112 -0.7686
4641000000.0 0.08675 -1.305
4644000000.0 -1.026 -0.914
4647000000.0 -1.343 0.2093
4650000000.0 -0.6327 1.186
4653000000.0 0.4971 1.195
4656000000.0 1.251 0.3617
4659000000.0 1.046 -0.7443
4662000000.0 0.05493 -1.266
4666000000.0 -0.9371 -0.803
4669000000.0 -1.197 0.2126
4672000000.0 -0.5334 1.042
4675000000.0 0.485 1.053
4678000000.0 1.126 0.3016
4681000000.0 0.9157 -0.7178
4684000000.0 0.02923 -1.103
4688000000.0 -0.8493 -0.706
4691000000.0 -1.091 0.2037
4694000000.0 -0.4995 0.9577
4697000000.0 0.4746 0.9803
4700000000.0 1.054 0.2981
4703000000.0 0.8723 -0.6235
4706000000.0 0.01263 -1.083
4709000000.0 -0.8339 -0.667
4712000000.0 -1.083 0.2181
4716000000.0 -0.4484 0.9664
4719000000.0 0.4302 0.942
4722000000.0 1.032 0.2152
4725000000.0 0.8177 -0.6818
4728000000.0 0.005717 -1.027
4731000000.0 -0.8274 -0.6491
4734000000.0 -1.019 0.1795
4738000000.0 -0.4782 0.892
4741000000.0 0.3782 0.9735
4744000000.0 0.9845 0.3217
4747000000.0 0.8664 -0.5788
4750000000.0 0.1485 -1.081
4753000000.0 -0.7281 -0.7902
4756000000.0 -1.069 0.06609
4759000000.0 -0.6575 0.8867
4762000000.0 0.2668 1.106
4766000000.0 1.001 0.4813
4769000000.0 1.021 -0.4724
4772000000.0 0.2987 -1.111
4775000000.0 -0.6425 -0.9572
4778000000.0 -1.159 -0.103
4781000000.0 -0.8465 0.7982
4784000000.0 0.07562 1.17
4788000000.0 0.9922 0.7117
4791000000.0 1.166 -0.2836
4794000000.0 0.5403 -1.086
4797000000.0 -0.5112 -1.142
4800000000.0 -1.181 -0.3434
4803000000.0 -1.04 0.664
4806000000.0 -0.1762 1.278
4809000000.0 0.8461 0.954
4812000000.0 1.288 -0.06279
4816000000.0 0.7785 -1.037
4819000000.0 -0.3095 -1.289
4822000000.0 -1.194 -0.6432
4825000000.0 -1.234 0.5477
4828000000.0 -0.3624 1.306
4831000000.0 0.7893 1.127
4834000000.0 1.373 0.08718
4838000000.0 0.9923 -0.98
4841000000.0 -0.1518 -1.385
4844000000.0 -1.16 -0.7459
4847000000.0 -1.322 0.4356
4850000000.0 -0.497 1.273
4853000000.0 0.699 1.182
4856000000.0 1.352 0.2218
4859000000.0 1.004 -0.9214
4862000000.0 -0.07381 -1.353
4866000000.0 -1.048 -0.81
4869000000.0 -1.28 0.3197
4872000000.0 -0.5449 1.19
4875000000.0 0.5595 1.173
4878000000.0 1.262 0.3052
4881000000.0 1.009 -0.7531
4884000000.0 0.02398 -1.275
4888000000.0 -0.9538 -0.7653
4891000000.0 -1.21 0.2308
4894000000.0 -0.5434 1.024
4897000000.0 0.4445 1.077
4900000000.0 1.107 0.3088
4903000000.0 0.9352 -0.6533
4906000000.0 0.07214 -1.052
4909000000.0 -0.7793 -0.7255
4912000000.0 -1.003 0.1607
4916000000.0 -0.5338 0.9119
4919000000.0 0.3391 0.9401
4922000000.0 0.949 0.3064
4925000000.0 0.8204 -0.4913
4928000000.0 0.1178 -0.9341
4931000000.0 -0.6386 -0.6929
4934000000.0 -0.9529 0.07706
4938000000.0 -0.5392 0.7596
4941000000.0 0.2552 0.9166
4944000000.0 0.8417 0.4111
4947000000.0 0.8213 -0.3937
4950000000.0 0.2335 -0.919
4953000000.0 -0.5542 -0.7482
4956000000.0 -0.9628 -0.04149
4959000000.0 -0.6262 0.7267
4962000000.0 0.1756 0.9474
4966000000.0 0.8516 0.4814
4969000000.0 0.9284 -0.3761
4972000000.0 0.2967 -0.9657
4975000000.0 -0.564 -0.8499
4978000000.0 -0.9964 -0.108
4981000000.0 -0.7441 0.7145
4984000000.0 0.06867 1.03
4988000000.0 0.8613 0.5826
4991000000.0 1.039 -0.2797
4994000000.0 0.4433 -0.9797
4997000000.0 -0.4838 -1.004
5000000000.0 -1.09 -0.2616
5003000000.0 -0.9336 0.6599
5006000000.0 -0.08616 1.164
5009000000.0 0.8476 0.7821
5012000000.0 1.169 -0.159
5016000000.0 0.6473 -1.042
5019000000.0 -0.3951 -1.166
5022000000.0 -1.173 -0.4314
5025000000.0 -1.088 0.647
5028000000.0 -0.2192 1.231
5031000000.0 0.8446 0.9705
5034000000.0 1.283 -0.03086
5038000000.0 0.7838 -0.9973
5041000000.0 -0.2461 -1.272
5044000000.0 -1.138 -0.5967
5047000000.0 -1.209 0.4453
5050000000.0 -0.4309 1.218
5053000000.0 0.6839 1.124
5056000000.0 1.254 0.1837
5059000000.0 0.9303 -0.8871
5062000000.0 -0.06114 -1.275
5066000000.0 -1.002 -0.7728
5069000000.0 -1.25 0.2852
5072000000.0 -0.5769 1.151
5075000000.0 0.519 1.198
5078000000.0 1.229 0.3401
5081000000.0 1.034 -0.6926
5084000000.0 0.1079 -1.265
5088000000.0 -0.8754 -0.8526
5091000000.0 -1.186 0.1048
5094000000.0 -0.6722 0.9543
5097000000.0 0.2674 1.129
5100000000.0 1.015 0.4734
5103000000.0 1.014 -0.478
5106000000.0 0.3061 -1.085
5109000000.0 -0.6197 -0.9092
5112000000.0 -1.061 -0.06781
5116000000.0 -0.7596 0.7297
5119000000.0 0.0943 1.055
5122000000.0 0.8474 0.6083
5125000000.0 0.967 -0.2607
5128000000.0 0.4164 -0.9017
5131000000.0 -0.4398 -0.8884
5134000000.0 -0.971 -0.1981
5138000000.0 -0.7854 0.5898
5141000000.0 -0.01038 0.9838
5144000000.0 0.6838 0.6778
5147000000.0 0.9474 -0.1289
5150000000.0 0.4647 -0.801
5153000000.0 -0.3127 -0.8774
5156000000.0 -0.8802 -0.2978
5159000000.0 -0.796 0.4775
5162000000.0 -0.09726 0.8893
5166000000.0 0.6267 0.6338
5169000000.0 0.911 -0.05379
5172000000.0 0.5498 -0.7427
5175000000.0 -0.2297 -0.8411
5178000000.0 -0.84 -0.3432
5181000000.0 -0.7942 0.432
5184000000.0 -0.132 0.9231
5188000000.0 0.5991 0.6776
5191000000.0 0.924 -0.04792
5194000000.0 0.5496 -0.7585
5197000000.0 -0.2586 -0.8806
5200000000.0 -0.8664 -0.3733
5203000000.0 -0.8318 0.4486
5206000000.0 -0.1904 0.9371
5209000000.0 0.624 0.7108
5212000000.0 0.9844 -0.01961
5216000000.0 0.5976 -0.7704
5219000000.0 -0.2266 -0.9415
5222000000.0 -0.8756 -0.4144
5225000000.0 -0.922 0.4161
5228000000.0 -0.2309 0.9652
5231000000.0 0.6274 0.8101
5234000000.0 1.015 0.02826
5238000000.0 0.6838 -0.7537
5241000000.0 -0.1305 -1.018
5244000000.0 -0.899 -0.5263
5247000000.0 -0.996 0.3351
5250000000.0 -0.3775 0.9984
5253000000.0 0.5373 0.9195
5256000000.0 1.047 0.1771
5259000000.0 0.8316 -0.7219
5262000000.0 -0.01316 -1.083
5266000000.0 -0.8453 -0.6812
5269000000.0 -1.054 0.1669
5272000000.0 -0.5471 0.9367
5275000000.0 0.3907 1.026
5278000000.0 1.029 0.3855
5281000000.0 0.9705 -0.5251
5284000000.0 0.2112 -1.077
5288000000.0 -0.7122 -0.8523
5291000000.0 -1.094 -0.0315
5294000000.0 -0.7219 0.8413
5297000000.0 0.1213 1.094
5300000000.0 0.9488 0.5902
5303000000.0 1.056 -0.3227
5306000000.0 0.4487 -1.052
5309000000.0 -0.5079 -1.023
5312000000.0 -1.107 -0.2649
5316000000.0 -0.9579 0.6737
5319000000.0 -0.09384 1.13
5322000000.0 0.8377 0.8087
5325000000.0 1.147 -0.1358
5328000000.0 0.6297 -0.962
5331000000.0 -0.3415 -1.121
5334000000.0 -1.068 -0.4649
5338000000.0 -1.004 0.5423
5341000000.0 -0.2491 1.1
5344000000.0 0.7191 0.8941
5347000000.0 1.104 0.01022
5350000000.0 0.718 -0.839
5353000000.0 -0.1882 -1.112
5356000000.0 -0.9244 -0.5072
5359000000.0 -1.017 0.4392
5362000000.0 -0.293 1.03
5366000000.0 0.591 0.8921
5369000000.0 1.059 0.09106
5372000000.0 0.7106 -0.754
5375000000.0 -0.151 -1.048
5378000000.0 -0.8605 -0.5287
5381000000.0 -0.9205 0.3746
5384000000.0 -0.3022 0.9562
5388000000.0 0.5553 0.8042
5391000000.0 0.9626 0.08119
5394000000.0 0.634 -0.679
5397000000.0 -0.1512 -0.9116
5400000000.0 -0.8196 -0.4316
5403000000.0 -0.8199 0.362
5406000000.0 -0.2522 0.8297
5409000000.0 0.5366 0.6948
5412000000.0 0.8718 0.05163
5416000000.0 0.5915 -0.6573
5419000000.0 -0.1536 -0.8521
5422000000.0 -0.7549 -0.4093
5425000000.0 -0.8113 0.3415
5428000000.0 -0.2364 0.8173
5431000000.0 0.4701 0.6883
5434000000.0 0.8641 0.08389
5438000000.0 0.591 -0.6523
5441000000.0 -0.1575 -0.8777
5444000000.0 -0.7599 -0.4468
5447000000.0 -0.8022 0.3132
5450000000.0 -0.2473 0.8403
5453000000.0 0.5082 0.7238
5456000000.0 0.8623 0.06974
5459000000.0 0.6173 -0.6318
5462000000.0 -0.08429 -0.8754
5466000000.0 -0.7341 -0.4784
5469000000.0 -0.8652 0.2585
5472000000.0 -0.3607 0.844
5475000000.0 0.4311 0.823
5478000000.0 0.8818 0.2319
5481000000.0 0.7266 -0.5686
5484000000.0 0.04155 -0.9401
5488000000.0 -0.6848 -0.6556
5491000000.0 -0.9868 0.1154
5494000000.0 -0.5617 0.8446
5497000000.0 0.3072 0.9224
5500000000.0 0.9513 0.3974
5503000000.0 0.8824 -0.4801
5506000000.0 0.1777 -0.9945
5509000000.0 -0.6362 -0.7898
5512000000.0 -1.024 -0.0188
5516000000.0 -0.6731 0.7583
5519000000.0 0.1163 1.044
5522000000.0 0.8272 0.5324
5525000000.0 1.002 -0.2778
5528000000.0 0.4165 -0.962
5531000000.0 -0.4688 -0.9242
5534000000.0 -1.053 -0.2263
5538000000.0 -0.8748 0.6185
5541000000.0 -0.03015 1.071
5544000000.0 0.7439 0.7471
5547000000.0 1.067 -0.1413
5550000000.0 0.5447 -0.9377
5553000000.0 -0.3056 -1.013
5556000000.0 -1.001 -0.417
5559000000.0 -0.9568 0.5051
5562000000.0 -0.2009 1.009
5566000000.0 0.6516 0.8028
5569000000.0 1.052 0.03485
5572000000.0 0.6572 -0.7566
5575000000.0 -0.1472 -1.001
5578000000.0 -0.8616 -0.4978
5581000000.0 -0.9144 0.3558
5584000000.0 -0.2824 0.9397
5588000000.0 0.4926 0.8045
5591000000.0 0.9749 0.1217
5594000000.0 0.6988 -0.6421
5597000000.0 -0.05492 -0.9276
5600000000.0 -0.7582 -0.5342
5603000000.0 -0.8886 0.2228
5606000000.0 -0.3524 0.8097
5609000000.0 0.4015 0.8133
5612000000.0 0.8577 0.2096
5616000000.0 0.6826 -0.5417
5619000000.0 0.01107 -0.8638
5622000000.0 -0.6604 -0.5469
5625000000.0 -0.8278 0.1755
5628000000.0 -0.4161 0.752
5631000000.0 0.3139 0.7576
5634000000.0 0.8107 0.2308
5638000000.0 0.6654 -0.5011
5641000000.0 0.04719 -0.8236
5644000000.0 -0.6051 -0.5586
5647000000.0 -0.8332 0.1613
5650000000.0 -0.4185 0.7388
5653000000.0 0.3353 0.7504
5656000000.0 0.8105 0.2375
5659000000.0 0.6888 -0.4987
5662000000.0 0.05608 -0.8852
5666000000.0 -0.6338 -0.5871
5669000000.0 -0.8443 0.1565
5672000000.0 -0.4308 0.7376
5675000000.0 0.3451 0.8371
5678000000.0 0.8586 0.252
5681000000.0 0.7584 -0.5086
5684000000.0 0.09424 -0.9164
5688000000.0 -0.6921 -0.6128
5691000000.0 -0.9592 0.1209
5694000000.0 -0.5158 0.8193
5697000000.0 0.3441 0.9113
5700000000.0 0.9147 0.3433
5703000000.0 0.8735 -0.5185
5706000000.0 0.1199 -1.036
5709000000.0 -0.7246 -0.7317
5712000000.0 -1.015 0.03907
5716000000.0 -0.624 0.883
5719000000.0 0.2317 1.031
5722000000.0 0.9553 0.4252
5725000000.0 0.9478 -0.4743
5728000000.0 0.2748 -1.017
5731000000.0 -0.6284 -0.8911
5734000000.0 -1.056 -0.06538
5738000000.0 -0.7553 0.78
5741000000.0 0.1314 1.09
5744000000.0 0.9017 0.6095
5747000000.0 1.043 -0.3381
5750000000.0 0.4221 -1.022
5753000000.0 -0.5251 -0.9634
5756000000.0 -1.095 -0.2085
5759000000.0 -0.868 0.6656
5762000000.0 -0.02039 1.124
5766000000.0 0.8275 0.6928
5769000000.0 1.071 -0.1318
5772000000.0 0.5819 -0.9331
5775000000.0 -0.3219 -1.032
5778000000.0 -1.026 -0.4035
5781000000.0 -0.9312 0.539
5784000000.0 -0.1711 1.087
5788000000.0 0.6769 0.8514
5791000000.0 1.098 0.03761
5794000000.0 0.7003 -0.7922
5797000000.0 -0.1589 -1.061
5800000000.0 -0.9341 -0.5077
5803000000.0 -0.9652 0.3522
5806000000.0 -0.3565 0.9893
5809000000.0 0.571 0.8867
5812000000.0 1.017 0.1378
5816000000.0 0.7215 -0.6772
5819000000.0 -0.0534 -1.022
5822000000.0 -0.7979 -0.6056
5825000000.0 -0.9603 0.2407
5828000000.0 -0.4233 0.891
5831000000.0 0.4056 0.8897
5834000000.0 0.9494 0.2609
5838000000.0 0.7579 -0.5466
5841000000.0 0.01573 -0.9605
5844000000.0 -0.74 -0.6536
5847000000.0 -0.9229 0.1663
5850000000.0 -0.4581 0.7999
5853000000.0 0.3657 0.8582
5856000000.0 0.9029 0.254
5859000000.0 0.7446 -0.5519
5862000000.0 0.03608 -0.9176
5866000000.0 -0.6669 -0.6241
5869000000.0 -0.8845 0.1446
5872000000.0 -0.4405 0.8034
5875000000.0 0.2957 0.8532
5878000000.0 0.8249 0.2725
5881000000.0 0.727 -0.4939
5884000000.0 0.09131 -0.8705
5888000000.0 -0.6582 -0.616
5891000000.0 -0.8621 0.1091
5894000000.0 -0.4599 0.7311
5897000000.0 0.3071 0.7976
5900000000.0 0.8207 0.3021
5903000000.0 0.755 -0.4536
5906000000.0 0.1387 -0.8174
5909000000.0 -0.5709 -0.6201
5912000000.0 -0.8775 0.06408
5916000000.0 -0.5301 0.6843
5919000000.0 0.2223 0.8299
5922000000.0 0.7931 0.3803
5925000000.0 0.7865 -0.3739
5928000000.0 0.2424 -0.8297
5931000000.0 -0.5373 -0.7071
5934000000.0 -0.8847 -0.04331
5938000000.0 -0.6168 0.6507
5941000000.0 0.1574 0.8827
5944000000.0 0.7521 0.471
5947000000.0 0.8863 -0.2291
5950000000.0 0.3201 -0.826
5953000000.0 -0.422 -0.8051
5956000000.0 -0.8874 -0.1828
5959000000.0 -0.7307 0.5457
5962000000.0 -0.01517 0.9328
5966000000.0 0.7131 0.6354
5969000000.0 0.9477 -0.1445
5972000000.0 0.493 -0.8102
5975000000.0 -0.3164 -0.9013
5978000000.0 -0.8975 -0.3437
5981000000.0 -0.852 0.5015
5984000000.0 -0.1906 0.9751
5988000000.0 0.6224 0.7583
5991000000.0 0.9922 -0.02068
5994000000.0 0.6686 -0.7803
5997000000.0 -0.1757 -0.9763
6000000000.0 -0.8706 -0.4861
6003000000.0 -0.9068 0.3413
6006000000.0 -0.3314 0.9295
6009000000.0 0.5084 0.8411
6012000000.0 0.9734 0.1351
6016000000.0 0.7047 -0.6817
6019000000.0 -0.07619 -0.9886
6022000000.0 -0.8108 -0.5701
6025000000.0 -0.9484 0.275
6028000000.0 -0.3928 0.8961
6031000000.0 0.4366 0.8902
6034000000.0 0.9388 0.1793
6038000000.0 0.7797 -0.6005
6041000000.0 0.02592 -0.9478
6044000000.0 -0.7398 -0.611
6047000000.0 -0.9446 0.1887
6050000000.0 -0.4607 0.8191
6053000000.0 0.3856 0.8732
6056000000.0 0.8671 0.2628
6059000000.0 0.766 -0.5348
6062000000.0 0.07429 -0.902
6066000000.0 -0.6497 -0.6532
6069000000.0 -0.8906 0.1445
6072000000.0 -0.4352 0.7463
6075000000.0 0.3097 0.8194
6078000000.0 0.8376 0.3031
6081000000.0 0.7334 -0.4426
6084000000.0 0.1081 -0.8441
6088000000.0 -0.6079 -0.6098
6091000000.0 -0.8379 0.08553
6094000000.0 -0.4767 0.7285
6097000000.0 0.2443 0.822
6100000000.0 0.7924 0.3313
6103000000.0 0.7407 -0.3989
6106000000.0 0.1364 -0.8499
6109000000.0 -0.5805 -0.6768
6112000000.0 -0.8505 0.06328
6116000000.0 -0.5053 0.6794
6119000000.0 0.2388 0.8324
6122000000.0 0.8183 0.3451
6125000000.0 0.7564 -0.4249
6128000000.0 0.1772 -0.857
6131000000.0 -0.5717 -0.6818
6134000000.0 -0.8651 -0.02026
6138000000.0 -0.5433 0.6569
6141000000.0 0.1876 0.8477
6144000000.0 0.7993 0.4175
6147000000.0 0.8122 -0.3526
6150000000.0 0.2285 -0.8492
6153000000.0 -0.4832 -0.753
6156000000.0 -0.8839 -0.07008
6159000000.0 -0.6469 0.6675
6162000000.0 0.08297 0.9113
6166000000.0 0.7973 0.4841
6169000000.0 0.8927 -0.2626
6172000000.0 0.3416 -0.8829
6175000000.0 -0.4752 -0.8223
6178000000.0 -0.9297 -0.1451
6181000000.0 -0.7264 0.6448
6184000000.0 0.03558 0.9468
6188000000.0 0.7713 0.5406
6191000000.0 0.9472 -0.2524
6194000000.0 0.4276 -0.8396
6197000000.0 -0.4092 -0.8379
6200000000.0 -0.8992 -0.2365
6203000000.0 -0.7774 0.5414
6206000000.0 -0.07409 0.905
6209000000.0 0.7086 0.6556
6212000000.0 0.923 -0.1257
6216000000.0 0.5 -0.7628
6219000000.0 -0.2968 -0.8859
6222000000.0 -0.8672 -0.3485
6225000000.0 -0.7918 0.4435
6228000000.0 -0.1512 0.889
6231000000.0 0.5499 0.6851
6234000000.0 0.8868 0.005934
6238000000.0 0.5619 -0.6622
6241000000.0 -0.1552 -0.8751
6244000000.0 -0.7452 -0.4116
6247000000.0 -0.8025 0.3296
6250000000.0 -0.2773 0.7965
6253000000.0 0.4322 0.7287
6256000000.0 0.7924 0.1295
6259000000.0 0.6115 -0.5582
6262000000.0 -0.04009 -0.8194
