! Created with skrf 1.8.0 (http://scikit-rf.org).
# Hz S RI R 50.0 
!freq ReS11 ImS11
4000000000.0 -0.2167 -1.51
4003000000.0 -1.282 -0.7413
4006000000.0 -1.405 0.5323
4009000000.0 -0.5271 1.459
4012000000.0 0.8444 1.283
4016000000.0 1.571 0.1595
4019000000.0 1.096 -1.116
4022000000.0 -0.2446 -1.551
4025000000.0 -1.379 -0.8366
4028000000.0 -1.467 0.5396
4031000000.0 -0.528 1.529
4034000000.0 0.8693 1.39
4038000000.0 1.615 0.1532
4041000000.0 1.136 -1.145
4044000000.0 -0.1904 -1.605
4047000000.0 -1.381 -0.8679
4050000000.0 -1.585 0.5671
4053000000.0 -0.5545 1.551
4056000000.0 0.8114 1.374
4059000000.0 1.609 0.2509
4062000000.0 1.225 -1.048
4066000000.0 -0.06505 -1.602
4069000000.0 -1.292 -1.014
4072000000.0 -1.604 0.294
4075000000.0 -0.7862 1.469
4078000000.0 0.6315 1.536
4081000000.0 1.605 0.5164
4084000000.0 1.397 -0.8941
4088000000.0 0.1583 -1.664
4091000000.0 -1.168 -1.173
4094000000.0 -1.645 0.1135
4097000000.0 -0.9143 1.365
4100000000.0 0.4627 1.585
4103000000.0 1.452 0.6516
4106000000.0 1.421 -0.6886
4109000000.0 0.4087 -1.508
4112000000.0 -0.8895 -1.257
4116000000.0 -1.507 -0.1107
4119000000.0 -1.088 1.033
4122000000.0 0.06067 1.506
4125000000.0 1.148 0.9274
4128000000.0 1.476 -0.2875
4131000000.0 0.7462 -1.313
4134000000.0 -0.5022 -1.397
4138000000.0 -1.367 -0.5664
4141000000.0 -1.321 0.7114
4144000000.0 -0.3326 1.46
4147000000.0 0.9352 1.193
4150000000.0 1.492 0.09105
4153000000.0 1.01 -1.119
4156000000.0 -0.1656 -1.518
4159000000.0 -1.271 -0.8186
4162000000.0 -1.473 0.4254
4166000000.0 -0.5641 1.368
4169000000.0 0.7144 1.35
4172000000.0 1.463 0.3073
4175000000.0 1.174 -0.9012
4178000000.0 0.09817 -1.511
4181000000.0 -1.112 -1.01
4184000000.0 -1.49 0.1605
4188000000.0 -0.8107 1.29
4191000000.0 0.4501 1.473
4194000000.0 1.423 0.5772
4197000000.0 1.35 -0.7533
4200000000.0 0.2611 -1.574
4203000000.0 -1.049 -1.21
4206000000.0 -1.634 0.05937
4209000000.0 -0.934 1.354
4212000000.0 0.4436 1.573
4216000000.0 1.558 0.6199
4219000000.0 1.399 -0.8923
4222000000.0 0.1535 -1.694
4225000000.0 -1.212 -1.156
4228000000.0 -1.655 0.2725
4231000000.0 -0.784 1.466
4234000000.0 0.6768 1.482
4238000000.0 1.596 0.35
4241000000.0 1.233 -1.027
4244000000.0 -0.07593 -1.587
4247000000.0 -1.274 -0.8667
4250000000.0 -1.472 0.4721
4253000000.0 -0.5248 1.439
4256000000.0 0.7799 1.293
4259000000.0 1.515 0.1357
4262000000.0 1.031 -1.082
4266000000.0 -0.2194 -1.486
4269000000.0 -1.283 -0.7255
4272000000.0 -1.361 0.5306
4275000000.0 -0.3943 1.414
4278000000.0 0.835 1.181
4281000000.0 1.411 0.04163
4284000000.0 0.8819 -1.105
4288000000.0 -0.2912 -1.374
4291000000.0 -1.212 -0.6299
4294000000.0 -1.234 0.5198
4297000000.0 -0.3788 1.281
4300000000.0 0.7354 1.116
4303000000.0 1.281 0.1285
4306000000.0 0.9156 -0.9012
4309000000.0 -0.116 -1.276
4312000000.0 -1.032 -0.7541
4316000000.0 -1.249 0.3022
4319000000.0 -0.5668 1.168
4322000000.0 0.5032 1.206
4325000000.0 1.26 0.3947
4328000000.0 1.125 -0.717
4331000000.0 0.1558 -1.386
4334000000.0 -0.9213 -1.017
4338000000.0 -1.36 0.06696
4341000000.0 -0.8326 1.091
4344000000.0 0.3251 1.395
4347000000.0 1.275 0.6154
4350000000.0 1.336 -0.5982
4353000000.0 0.3635 -1.413
4356000000.0 -0.8344 -1.159
4359000000.0 -1.469 -0.1188
4362000000.0 -1.022 1.052
4366000000.0 0.174 1.476
4369000000.0 1.221 0.8143
4372000000.0 1.396 -0.4437
4375000000.0 0.5677 -1.392
4378000000.0 -0.7088 -1.369
4381000000.0 -1.493 -0.3153
4384000000.0 -1.19 0.9825
4388000000.0 -0.04147 1.503
4391000000.0 1.216 1.002
4394000000.0 1.541 -0.3173
4397000000.0 0.6837 -1.436
4400000000.0 -0.6806 -1.433
4403000000.0 -1.543 -0.3695
4406000000.0 -1.231 1.012
4409000000.0 0.03331 1.591
4412000000.0 1.226 0.9523
4416000000.0 1.479 -0.4069
4419000000.0 0.5795 -1.394
4422000000.0 -0.7408 -1.336
4425000000.0 -1.487 -0.211
4428000000.0 -1.038 0.9896
4431000000.0 0.1468 1.413
4434000000.0 1.183 0.7211
4438000000.0 1.339 -0.4956
4441000000.0 0.4314 -1.304
4444000000.0 -0.7376 -1.135
4447000000.0 -1.345 -0.08858
4450000000.0 -0.9021 1.024
4453000000.0 0.2484 1.282
4456000000.0 1.123 0.5893
4459000000.0 1.132 -0.5235
4462000000.0 0.2537 -1.217
4466000000.0 -0.781 -0.9571
4469000000.0 -1.202 0.07185
4472000000.0 -0.6859 0.9875
4475000000.0 0.3491 1.129
4478000000.0 1.101 0.4436
4481000000.0 0.9936 -0.593
4484000000.0 0.148 -1.115
4488000000.0 -0.8068 -0.8305
4491000000.0 -1.141 0.1037
4494000000.0 -0.6269 0.9372
4497000000.0 0.338 1.092
4500000000.0 1.043 0.3763
4503000000.0 0.968 -0.5622
4506000000.0 0.1838 -1.101
4509000000.0 -0.7487 -0.8094
4512000000.0 -1.123 0.03217
4516000000.0 -0.7056 0.9399
4519000000.0 0.2743 1.101
4522000000.0 1.04 0.484
4525000000.0 1.035 -0.4943
4528000000.0 0.2778 -1.152
4531000000.0 -0.7286 -0.9552
4534000000.0 -1.181 -0.06537
4538000000.0 -0.8061 0.8697
4541000000.0 0.1743 1.172
4544000000.0 1.026 0.6253
4547000000.0 1.156 -0.4068
4550000000.0 0.4291 -1.138
4553000000.0 -0.6003 -1.061
4556000000.0 -1.225 -0.2348
4559000000.0 -0.962 0.7973
4562000000.0 -0.01741 1.264
4566000000.0 0.9625 0.8451
4569000000.0 1.276 -0.1996
4572000000.0 0.6448 -1.107
4575000000.0 -0.4221 -1.24
4578000000.0 -1.242 -0.4662
4581000000.0 -1.146 0.6509
4584000000.0 -0.2073 1.325
4588000000.0 0.9023 1.014
4591000000.0 1.371 -0.02185
4594000000.0 0.8681 -1.079
4597000000.0 -0.2921 -1.388
4600000000.0 -1.229 -0.6554
4603000000.0 -1.31 0.5573
4606000000.0 -0.3767 1.347
4609000000.0 0.7837 1.139
4612000000.0 1.393 0.1167
4616000000.0 0.9913 -1.008
4619000000.0 -0.141 -1.412
4622000000.0 -1.203 -0.7253
4625000000.0 -1.346 0.4469
4628000000.0 -0.4896 1.293
4631000000.0 0.7036 1.187
4634000000.0 1.366 0.1875
4638000000.0 1.002 -0.9048
4641000000.0 -0.1034 -1.354
4644000000.0 -1.114 -0.786
4647000000.0 -1.287 0.3782
4650000000.0 -0.4719 1.25
4653000000.0 0.6508 1.126
4656000000.0 1.264 0.1927
4659000000.0 0.9371 -0.8588
4662000000.0 -0.1085 -1.238
4666000000.0 -1.011 -0.6462
4669000000.0 -1.138 0.3864
4672000000.0 -0.3993 1.074
4675000000.0 0.5979 0.9968
4678000000.0 1.127 0.136
4681000000.0 0.8042 -0.7988
4684000000.0 -0.1282 -1.099
4688000000.0 -0.9332 -0.5923
4691000000.0 -1.046 0.3525
4694000000.0 -0.3465 1.029
4697000000.0 0.5724 0.929
4700000000.0 1.113 0.123
4703000000.0 0.8156 -0.774
4706000000.0 -0.117 -1.082
4709000000.0 -0.8962 -0.5617
4712000000.0 -1.049 0.3595
4716000000.0 -0.3331 1.032
4719000000.0 0.6061 0.908
4722000000.0 1.037 0.1136
4725000000.0 0.7346 -0.7716
4728000000.0 -0.1148 -1.037
4731000000.0 -0.8705 -0.6075
4734000000.0 -1.031 0.2815
4738000000.0 -0.4157 0.9673
4741000000.0 0.4586 0.9405
4744000000.0 1.03 0.2027
4747000000.0 0.8436 -0.6765
4750000000.0 0.03127 -1.069
4753000000.0 -0.8355 -0.7383
4756000000.0 -1.098 0.1642
4759000000.0 -0.5737 0.9525
4762000000.0 0.3754 1.07
4766000000.0 1.075 0.4328
4769000000.0 1.052 -0.5483
4772000000.0 0.1843 -1.143
4775000000.0 -0.7633 -0.9054
4778000000.0 -1.212 -0.009162
4781000000.0 -0.7892 0.9303
4784000000.0 0.1732 1.215
4788000000.0 1.071 0.6285
4791000000.0 1.184 -0.3898
4794000000.0 0.4498 -1.158
4797000000.0 -0.588 -1.102
4800000000.0 -1.256 -0.2538
4803000000.0 -0.9961 0.7787
4806000000.0 -0.0229 1.287
4809000000.0 0.977 0.8672
4812000000.0 1.28 -0.1863
4816000000.0 0.6926 -1.137
4819000000.0 -0.4445 -1.286
4822000000.0 -1.266 -0.4645
4825000000.0 -1.201 0.6575
4828000000.0 -0.2393 1.397
4831000000.0 0.8961 1.062
4834000000.0 1.372 0.001599
4838000000.0 0.8575 -1.112
4841000000.0 -0.3467 -1.368
4844000000.0 -1.242 -0.6142
4847000000.0 -1.282 0.5717
4850000000.0 -0.3346 1.334
4853000000.0 0.7825 1.102
4856000000.0 1.388 0.0774
4859000000.0 0.9322 -1.022
4862000000.0 -0.222 -1.356
4866000000.0 -1.161 -0.6709
4869000000.0 -1.236 0.4538
4872000000.0 -0.4134 1.24
4875000000.0 0.6537 1.066
4878000000.0 1.287 0.151
4881000000.0 0.8938 -0.869
4884000000.0 -0.1427 -1.226
4888000000.0 -1.03 -0.6808
4891000000.0 -1.149 0.3715
4894000000.0 -0.4271 1.082
4897000000.0 0.6001 0.9888
4900000000.0 1.119 0.1456
4903000000.0 0.8078 -0.7263
4906000000.0 -0.06411 -1.089
4909000000.0 -0.8421 -0.6232
4912000000.0 -0.9876 0.2714
4916000000.0 -0.4138 0.9163
4919000000.0 0.4448 0.8959
4922000000.0 0.9648 0.1962
4925000000.0 0.7613 -0.6045
4928000000.0 0.01757 -0.9585
4931000000.0 -0.7239 -0.6435
4934000000.0 -0.8877 0.1364
4938000000.0 -0.4881 0.7934
4941000000.0 0.3359 0.8783
4944000000.0 0.8903 0.2839
4947000000.0 0.7955 -0.5034
4950000000.0 0.09303 -0.9431
4953000000.0 -0.6756 -0.6867
4956000000.0 -0.9723 0.09496
4959000000.0 -0.5765 0.8063
4962000000.0 0.26 0.9581
4966000000.0 0.9009 0.3803
4969000000.0 0.8936 -0.4673
4972000000.0 0.2055 -1.009
4975000000.0 -0.6384 -0.8029
4978000000.0 -1.049 -0.009538
4981000000.0 -0.6834 0.7932
4984000000.0 0.201 1.036
4988000000.0 0.9438 0.523
4991000000.0 1.035 -0.3973
4994000000.0 0.3662 -1.065
4997000000.0 -0.5936 -0.9522
5000000000.0 -1.14 -0.1582
5003000000.0 -0.8643 0.7805
5006000000.0 0.06977 1.174
5009000000.0 0.9733 0.7062
5012000000.0 1.187 -0.3054
5016000000.0 0.5265 -1.096
5019000000.0 -0.5362 -1.152
5022000000.0 -1.266 -0.3211
5025000000.0 -1.032 0.747
5028000000.0 -0.1072 1.304
5031000000.0 0.9399 0.8828
5034000000.0 1.293 -0.1722
5038000000.0 0.7183 -1.082
5041000000.0 -0.3923 -1.236
5044000000.0 -1.212 -0.5021
5047000000.0 -1.143 0.6115
5050000000.0 -0.2795 1.269
5053000000.0 0.8058 1.041
5056000000.0 1.313 0.03827
5059000000.0 0.932 -0.9568
5062000000.0 -0.1736 -1.266
5066000000.0 -1.103 -0.6448
5069000000.0 -1.255 0.3937
5072000000.0 -0.4215 1.213
5075000000.0 0.6426 1.108
5078000000.0 1.237 0.1911
5081000000.0 0.9551 -0.8132
5084000000.0 -0.02718 -1.23
5088000000.0 -0.9542 -0.7722
5091000000.0 -1.177 0.2349
5094000000.0 -0.5563 0.997
5097000000.0 0.4153 1.054
5100000000.0 1.084 0.325
5103000000.0 0.9297 -0.5941
5106000000.0 0.1571 -1.081
5109000000.0 -0.678 -0.8059
5112000000.0 -1.096 0.0262
5116000000.0 -0.7119 0.7898
5119000000.0 0.1815 0.9919
5122000000.0 0.8963 0.49
5125000000.0 0.9249 -0.3732
5128000000.0 0.2986 -0.9784
5131000000.0 -0.5259 -0.8705
5134000000.0 -0.993 -0.1698
5138000000.0 -0.7377 0.698
5141000000.0 0.09838 0.9964
5144000000.0 0.7787 0.4931
5147000000.0 0.8845 -0.2828
5150000000.0 0.3661 -0.8437
5153000000.0 -0.4237 -0.8183
5156000000.0 -0.8904 -0.1659
5159000000.0 -0.6868 0.6099
5162000000.0 0.005021 0.8898
5166000000.0 0.7071 0.5446
5169000000.0 0.8913 -0.1923
5172000000.0 0.3865 -0.7949
5175000000.0 -0.3877 -0.8208
5178000000.0 -0.849 -0.2131
5181000000.0 -0.7318 0.5697
5184000000.0 -0.036 0.9327
5188000000.0 0.7045 0.5975
5191000000.0 0.914 -0.1709
5194000000.0 0.4146 -0.8133
5197000000.0 -0.3906 -0.8756
5200000000.0 -0.9275 -0.2495
5203000000.0 -0.7483 0.5813
5206000000.0 -0.02301 0.9896
5209000000.0 0.7511 0.64
5212000000.0 0.946 -0.1836
5216000000.0 0.4701 -0.8556
5219000000.0 -0.334 -0.9187
5222000000.0 -0.9385 -0.2953
5225000000.0 -0.8459 0.5651
5228000000.0 -0.1137 1.013
5231000000.0 0.7175 0.7293
5234000000.0 1.018 -0.07466
5238000000.0 0.6061 -0.8681
5241000000.0 -0.3176 -0.9796
5244000000.0 -0.974 -0.4226
5247000000.0 -0.9513 0.4754
5250000000.0 -0.2289 1.06
5253000000.0 0.6779 0.8641
5256000000.0 1.079 0.06967
5259000000.0 0.7429 -0.812
5262000000.0 -0.1647 -1.103
5266000000.0 -0.9035 -0.5989
5269000000.0 -1.063 0.3242
5272000000.0 -0.4094 1.022
5275000000.0 0.478 0.9983
5278000000.0 1.085 0.2254
5281000000.0 0.8831 -0.6655
5284000000.0 0.0756 -1.112
5288000000.0 -0.7967 -0.7821
5291000000.0 -1.117 0.09818
5294000000.0 -0.6541 0.9155
5297000000.0 0.2937 1.081
5300000000.0 1.011 0.4895
5303000000.0 1.051 -0.4809
5306000000.0 0.3256 -1.103
5309000000.0 -0.6279 -0.9003
5312000000.0 -1.14 -0.1654
5316000000.0 -0.8086 0.8078
5319000000.0 0.08604 1.129
5322000000.0 0.9496 0.6233
5325000000.0 1.093 -0.295
5328000000.0 0.4718 -1.016
5331000000.0 -0.4988 -1.025
5334000000.0 -1.098 -0.3089
5338000000.0 -0.89 0.6747
5341000000.0 -0.04545 1.114
5344000000.0 0.8296 0.7663
5347000000.0 1.126 -0.1804
5350000000.0 0.5637 -0.9374
5353000000.0 -0.3731 -1.006
5356000000.0 -0.9905 -0.3356
5359000000.0 -0.9064 0.5805
5362000000.0 -0.1409 1.073
5366000000.0 0.7474 0.7517
5369000000.0 1.054 -0.1269
5372000000.0 0.5442 -0.8374
5375000000.0 -0.3091 -0.9248
5378000000.0 -0.939 -0.3521
5381000000.0 -0.8166 0.5132
5384000000.0 -0.09656 0.9525
5388000000.0 0.6874 0.6643
5391000000.0 0.9244 -0.1136
5394000000.0 0.4848 -0.7849
5397000000.0 -0.3457 -0.8405
5400000000.0 -0.8751 -0.2494
5403000000.0 -0.7452 0.5058
5406000000.0 -0.04907 0.8763
5409000000.0 0.6165 0.6118
5412000000.0 0.8274 -0.1313
5416000000.0 0.4358 -0.7537
5419000000.0 -0.36 -0.7976
5422000000.0 -0.8123 -0.2522
5425000000.0 -0.7114 0.4925
5428000000.0 -0.04833 0.86
5431000000.0 0.6624 0.5866
5434000000.0 0.8779 -0.146
5438000000.0 0.4491 -0.7732
5441000000.0 -0.3401 -0.8187
5444000000.0 -0.8394 -0.2524
5447000000.0 -0.7567 0.5072
5450000000.0 -0.07681 0.9114
5453000000.0 0.6486 0.6508
5456000000.0 0.9156 -0.1176
5459000000.0 0.5101 -0.7572
5462000000.0 -0.2776 -0.8667
5466000000.0 -0.861 -0.3377
5469000000.0 -0.8388 0.4634
5472000000.0 -0.1853 0.9344
5475000000.0 0.5921 0.7543
5478000000.0 0.9502 0.05058
5481000000.0 0.6406 -0.7466
5484000000.0 -0.1429 -0.9839
5488000000.0 -0.8531 -0.4837
5491000000.0 -0.9564 0.3032
5494000000.0 -0.3662 0.9248
5497000000.0 0.4858 0.9137
5500000000.0 0.9762 0.2275
5503000000.0 0.823 -0.6647
5506000000.0 0.05028 -1.034
5509000000.0 -0.7937 -0.6767
5512000000.0 -1.056 0.1319
5516000000.0 -0.5694 0.8907
5519000000.0 0.3338 0.9998
5522000000.0 0.9941 0.3679
5525000000.0 0.957 -0.495
5528000000.0 0.229 -1.041
5531000000.0 -0.6369 -0.8462
5534000000.0 -1.105 -0.01773
5538000000.0 -0.6962 0.8096
5541000000.0 0.1531 1.057
5544000000.0 0.9033 0.5611
5547000000.0 1.03 -0.3646
5550000000.0 0.3827 -0.989
5553000000.0 -0.5297 -0.8991
5556000000.0 -1.008 -0.1706
5559000000.0 -0.7925 0.6852
5562000000.0 0.01185 1.038
5566000000.0 0.7971 0.6615
5569000000.0 0.9773 -0.226
5572000000.0 0.4713 -0.8919
5575000000.0 -0.3916 -0.9285
5578000000.0 -0.932 -0.256
5581000000.0 -0.7746 0.5782
5584000000.0 -0.06117 0.9808
5588000000.0 0.6789 0.6468
5591000000.0 0.886 -0.09744
5594000000.0 0.5166 -0.787
5597000000.0 -0.2639 -0.8699
5600000000.0 -0.8284 -0.3323
5603000000.0 -0.7544 0.4564
5606000000.0 -0.1385 0.8537
5609000000.0 0.5825 0.6765
5612000000.0 0.8828 -0.05202
5616000000.0 0.4935 -0.6798
5619000000.0 -0.2047 -0.8279
5622000000.0 -0.7429 -0.3444
5625000000.0 -0.7415 0.3954
5628000000.0 -0.1463 0.8289
5631000000.0 0.5204 0.649
5634000000.0 0.8547 -0.03675
5638000000.0 0.4875 -0.6523
5641000000.0 -0.2015 -0.8213
5644000000.0 -0.7689 -0.3519
5647000000.0 -0.7488 0.3399
5650000000.0 -0.1516 0.8225
5653000000.0 0.5308 0.6674
5656000000.0 0.8899 -0.008279
5659000000.0 0.5587 -0.6994
5662000000.0 -0.1814 -0.8285
5666000000.0 -0.791 -0.3623
5669000000.0 -0.8255 0.4009
5672000000.0 -0.2208 0.888
5675000000.0 0.5616 0.7299
5678000000.0 0.9632 -0.01601
5681000000.0 0.6018 -0.7284
5684000000.0 -0.216 -0.9494
5688000000.0 -0.8706 -0.4289
5691000000.0 -0.9201 0.3917
5694000000.0 -0.2638 0.9619
5697000000.0 0.6002 0.828
5700000000.0 1.014 0.06524
5703000000.0 0.6982 -0.7518
5706000000.0 -0.1341 -1.038
5709000000.0 -0.9005 -0.5525
5712000000.0 -1.013 0.3737
5716000000.0 -0.3366 0.9948
5719000000.0 0.5639 0.9038
5722000000.0 1.08 0.1595
5725000000.0 0.8286 -0.7213
5728000000.0 -0.01154 -1.077
5731000000.0 -0.8357 -0.7019
5734000000.0 -1.106 0.1958
5738000000.0 -0.5148 0.9778
5741000000.0 0.4331 1.041
5744000000.0 1.059 0.3154
5747000000.0 0.9258 -0.5811
5750000000.0 0.1221 -1.101
5753000000.0 -0.7856 -0.804
5756000000.0 -1.109 0.01018
5759000000.0 -0.6525 0.8898
5762000000.0 0.2867 1.082
5766000000.0 1.008 0.4934
5769000000.0 1.012 -0.4543
5772000000.0 0.3006 -1.031
5775000000.0 -0.6341 -0.8816
5778000000.0 -1.071 -0.08771
5781000000.0 -0.7507 0.7767
5784000000.0 0.1023 1.111
5788000000.0 0.8667 0.6034
5791000000.0 1.003 -0.3148
5794000000.0 0.4264 -0.9401
5797000000.0 -0.516 -0.9836
5800000000.0 -1.064 -0.2412
5803000000.0 -0.8028 0.6433
5806000000.0 -0.00244 1.053
5809000000.0 0.7956 0.6617
5812000000.0 0.9899 -0.2206
5816000000.0 0.4834 -0.9151
5819000000.0 -0.3803 -0.9015
5822000000.0 -0.9432 -0.2712
5825000000.0 -0.8231 0.5529
5828000000.0 -0.09964 0.9842
5831000000.0 0.6967 0.6523
5834000000.0 0.9606 -0.166
5838000000.0 0.481 -0.8218
5841000000.0 -0.3475 -0.8572
5844000000.0 -0.8833 -0.3239
5847000000.0 -0.7616 0.503
5850000000.0 -0.1096 0.9192
5853000000.0 0.6653 0.6406
5856000000.0 0.9102 -0.09259
5859000000.0 0.4542 -0.7686
5862000000.0 -0.2906 -0.8447
5866000000.0 -0.8253 -0.2483
5869000000.0 -0.7443 0.4696
5872000000.0 -0.08423 0.8501
5875000000.0 0.6526 0.6283
5878000000.0 0.869 -0.1069
5881000000.0 0.4926 -0.7626
5884000000.0 -0.3245 -0.8308
5888000000.0 -0.8009 -0.2928
5891000000.0 -0.7434 0.4653
5894000000.0 -0.1156 0.8726
5897000000.0 0.5878 0.6557
5900000000.0 0.8757 -0.05085
5903000000.0 0.4852 -0.6997
5906000000.0 -0.2621 -0.8534
5909000000.0 -0.8002 -0.3442
5912000000.0 -0.8289 0.378
5916000000.0 -0.1971 0.8908
5919000000.0 0.532 0.7266
5922000000.0 0.9095 0.01253
5925000000.0 0.5652 -0.7045
5928000000.0 -0.1051 -0.9088
5931000000.0 -0.8061 -0.4578
5934000000.0 -0.9027 0.2922
5938000000.0 -0.2945 0.8582
5941000000.0 0.4725 0.7942
5944000000.0 0.9401 0.1695
5947000000.0 0.7105 -0.6118
5950000000.0 -0.03035 -0.9543
5953000000.0 -0.7409 -0.5869
5956000000.0 -0.976 0.1683
5959000000.0 -0.4455 0.8362
5962000000.0 0.3688 0.9177
5966000000.0 0.945 0.2979
5969000000.0 0.8226 -0.5451
5972000000.0 0.132 -0.9774
5975000000.0 -0.7044 -0.7364
5978000000.0 -1.017 0.06014
5981000000.0 -0.6035 0.7976
5984000000.0 0.2433 0.9755
5988000000.0 0.9401 0.407
5991000000.0 0.927 -0.4548
5994000000.0 0.218 -1.024
5997000000.0 -0.6284 -0.8084
6000000000.0 -1.025 -0.05113
6003000000.0 -0.6781 0.776
6006000000.0 0.1692 0.9949
6009000000.0 0.8706 0.4813
6012000000.0 0.908 -0.362
6016000000.0 0.28 -0.9498
6019000000.0 -0.544 -0.7811
6022000000.0 -0.9705 -0.09681
6025000000.0 -0.6759 0.7079
6028000000.0 0.1639 0.9403
6031000000.0 0.8018 0.4802
6034000000.0 0.8874 -0.322
6038000000.0 0.3127 -0.91
6041000000.0 -0.4871 -0.7919
6044000000.0 -0.8961 -0.1061
6047000000.0 -0.6677 0.6422
6050000000.0 0.09649 0.8821
6053000000.0 0.7396 0.4765
6056000000.0 0.8437 -0.2694
6059000000.0 0.2984 -0.8417
6062000000.0 -0.4305 -0.7643
6066000000.0 -0.8632 -0.1005
6069000000.0 -0.6491 0.6017
6072000000.0 0.08136 0.8846
6075000000.0 0.7181 0.4793
6078000000.0 0.8107 -0.2489
6081000000.0 0.3312 -0.8123
6084000000.0 -0.4083 -0.7345
6088000000.0 -0.8312 -0.1242
6091000000.0 -0.6208 0.5503
6094000000.0 0.02178 0.8606
6097000000.0 0.6969 0.5106
6100000000.0 0.8247 -0.2179
6103000000.0 0.3337 -0.7796
6106000000.0 -0.4008 -0.7799
6109000000.0 -0.844 -0.1948
6112000000.0 -0.6598 0.5576
6116000000.0 -0.009712 0.8938
6119000000.0 0.6848 0.5719
6122000000.0 0.876 -0.208
6125000000.0 0.4134 -0.8285
6128000000.0 -0.402 -0.8481
6131000000.0 -0.9207 -0.2422
6134000000.0 -0.7434 0.5579
6138000000.0 -0.05727 0.9647
6141000000.0 0.6893 0.6138
6144000000.0 0.9513 -0.1727
6147000000.0 0.438 -0.7907
6150000000.0 -0.3712 -0.8897
6153000000.0 -0.9331 -0.2503
6156000000.0 -0.8181 0.5587
6159000000.0 -0.04625 0.9677
6162000000.0 0.7096 0.6837
6166000000.0 0.9641 -0.1188
6169000000.0 0.5309 -0.8245
6172000000.0 -0.321 -0.9411
6175000000.0 -0.9278 -0.3122
6178000000.0 -0.8785 0.5292
6181000000.0 -0.1234 1.033
6184000000.0 0.6483 0.7174
6188000000.0 1.011 -0.08346
6191000000.0 0.5661 -0.8334
6194000000.0 -0.2846 -0.9279
6197000000.0 -0.8847 -0.4011
6200000000.0 -0.8317 0.47
6203000000.0 -0.2109 0.9315
6206000000.0 0.5725 0.75
6209000000.0 0.9467 -0.007994
6212000000.0 0.6057 -0.7028
6216000000.0 -0.1692 -0.9042
6219000000.0 -0.8035 -0.4175
6222000000.0 -0.8414 0.3709
6225000000.0 -0.2526 0.8572
6228000000.0 0.527 0.7532
6231000000.0 0.874 0.0923
6234000000.0 0.5916 -0.6213
6238000000.0 -0.06645 -0.8837
6241000000.0 -0.7059 -0.4631
6244000000.0 -0.7955 0.2824
6247000000.0 -0.321 0.7941
6250000000.0 0.3769 0.7197
6253000000.0 0.8419 0.1323
6256000000.0 0.6215 -0.5537
6259000000.0 0.008151 -0.8071
6262000000.0 -0.6584 -0.5071
