! Created with skrf 1.8.0 (http://scikit-rf.org).
# Hz S RI R 50.0 
!freq ReS11 ImS11
4000000000.0 -0.1823 -1.463
4003000000.0 -1.299 -0.8306
4006000000.0 -1.44 0.4773
4009000000.0 -0.5181 1.455
4012000000.0 0.8033 1.334
4016000000.0 1.495 0.2059
4019000000.0 1.149 -1.052
4022000000.0 -0.1773 -1.571
4025000000.0 -1.327 -0.8596
4028000000.0 -1.552 0.4917
4031000000.0 -0.5949 1.46
4034000000.0 0.8027 1.381
4038000000.0 1.623 0.2173
4041000000.0 1.168 -1.116
4044000000.0 -0.1334 -1.665
4047000000.0 -1.315 -0.9099
4050000000.0 -1.625 0.4745
4053000000.0 -0.6284 1.529
4056000000.0 0.731 1.435
4059000000.0 1.578 0.2945
4062000000.0 1.306 -0.9926
4066000000.0 0.011 -1.616
4069000000.0 -1.215 -1.075
4072000000.0 -1.591 0.282
4075000000.0 -0.844 1.421
4078000000.0 0.5507 1.558
4081000000.0 1.54 0.5308
4084000000.0 1.448 -0.8594
4088000000.0 0.2791 -1.637
4091000000.0 -1.072 -1.248
4094000000.0 -1.659 0.08274
4097000000.0 -0.9715 1.297
4100000000.0 0.3499 1.632
4103000000.0 1.453 0.7295
4106000000.0 1.444 -0.6669
4109000000.0 0.4361 -1.497
4112000000.0 -0.8568 -1.308
4116000000.0 -1.511 -0.23
4119000000.0 -1.131 0.9699
4122000000.0 -0.003215 1.5
4125000000.0 1.125 0.9491
4128000000.0 1.471 -0.2167
4131000000.0 0.7571 -1.247
4134000000.0 -0.4521 -1.426
4138000000.0 -1.393 -0.6016
4141000000.0 -1.341 0.6031
4144000000.0 -0.4068 1.461
4147000000.0 0.8486 1.249
4150000000.0 1.502 0.1338
4153000000.0 1.054 -1.054
4156000000.0 -0.1069 -1.479
4159000000.0 -1.251 -0.8723
4162000000.0 -1.496 0.3577
4166000000.0 -0.665 1.367
4169000000.0 0.6181 1.364
4172000000.0 1.432 0.4273
4175000000.0 1.257 -0.8272
4178000000.0 0.1761 -1.514
4181000000.0 -1.025 -1.089
4184000000.0 -1.52 0.07406
4188000000.0 -0.8967 1.187
4191000000.0 0.3734 1.474
4194000000.0 1.403 0.7034
4197000000.0 1.433 -0.6747
4200000000.0 0.3907 -1.532
4203000000.0 -0.9644 -1.294
4206000000.0 -1.64 -0.0622
4209000000.0 -1.094 1.235
4212000000.0 0.2852 1.634
4216000000.0 1.521 0.7623
4219000000.0 1.507 -0.7427
4222000000.0 0.3359 -1.65
4225000000.0 -1.116 -1.289
4228000000.0 -1.663 0.1034
4231000000.0 -0.9639 1.404
4234000000.0 0.5518 1.6
4238000000.0 1.601 0.5515
4241000000.0 1.364 -0.9283
4244000000.0 0.118 -1.628
4247000000.0 -1.196 -1.022
4250000000.0 -1.543 0.3026
4253000000.0 -0.6626 1.43
4256000000.0 0.6698 1.413
4259000000.0 1.505 0.345
4262000000.0 1.171 -1.018
4266000000.0 -0.04851 -1.525
4269000000.0 -1.212 -0.8393
4272000000.0 -1.404 0.4422
4275000000.0 -0.5323 1.412
4278000000.0 0.7574 1.271
4281000000.0 1.421 0.1998
4284000000.0 1.048 -0.9826
4288000000.0 -0.1293 -1.405
4291000000.0 -1.152 -0.7233
4294000000.0 -1.301 0.4241
4297000000.0 -0.4904 1.223
4300000000.0 0.6262 1.145
4303000000.0 1.286 0.2012
4306000000.0 1.009 -0.821
4309000000.0 0.03253 -1.302
4312000000.0 -0.9889 -0.8647
4316000000.0 -1.313 0.2
4319000000.0 -0.6779 1.105
4322000000.0 0.381 1.229
4325000000.0 1.233 0.5057
4328000000.0 1.189 -0.6515
4331000000.0 0.2959 -1.312
4334000000.0 -0.8413 -1.087
4338000000.0 -1.418 -0.04505
4341000000.0 -0.9281 1.022
4344000000.0 0.2213 1.405
4347000000.0 1.246 0.7426
4350000000.0 1.339 -0.4803
4353000000.0 0.4791 -1.383
4356000000.0 -0.7364 -1.244
4359000000.0 -1.412 -0.2696
4362000000.0 -1.158 0.9539
4366000000.0 0.03622 1.467
4369000000.0 1.105 0.9443
4372000000.0 1.439 -0.3061
4375000000.0 0.7276 -1.306
4378000000.0 -0.5502 -1.414
4381000000.0 -1.466 -0.4722
4384000000.0 -1.305 0.8095
4388000000.0 -0.1837 1.539
4391000000.0 1.063 1.128
4394000000.0 1.551 -0.1355
4397000000.0 0.9169 -1.333
4400000000.0 -0.4915 -1.524
4403000000.0 -1.498 -0.5721
4406000000.0 -1.338 0.8383
4409000000.0 -0.1995 1.593
4412000000.0 1.112 1.128
4416000000.0 1.532 -0.1582
4419000000.0 0.8023 -1.329
4422000000.0 -0.5032 -1.449
4425000000.0 -1.436 -0.4338
4428000000.0 -1.265 0.8155
4431000000.0 -0.1182 1.484
4434000000.0 1.102 0.9626
4438000000.0 1.395 -0.2382
4441000000.0 0.6541 -1.225
4444000000.0 -0.5564 -1.27
4447000000.0 -1.355 -0.3257
4450000000.0 -1.043 0.8399
4453000000.0 0.02655 1.349
4456000000.0 1.055 0.7758
4459000000.0 1.25 -0.3109
4462000000.0 0.4923 -1.199
4466000000.0 -0.6371 -1.08
4469000000.0 -1.254 -0.1287
4472000000.0 -0.8981 0.8523
4475000000.0 0.1341 1.198
4478000000.0 1.032 0.6017
4481000000.0 1.095 -0.4491
4484000000.0 0.3718 -1.141
4488000000.0 -0.6124 -0.9262
4491000000.0 -1.121 -0.08151
4494000000.0 -0.7665 0.8458
4497000000.0 0.1879 1.143
4500000000.0 0.9967 0.5658
4503000000.0 1.041 -0.3955
4506000000.0 0.3483 -1.039
4509000000.0 -0.6143 -0.9264
4512000000.0 -1.103 -0.06905
4516000000.0 -0.8002 0.8143
4519000000.0 0.1225 1.103
4522000000.0 0.9864 0.634
4525000000.0 1.102 -0.3461
4528000000.0 0.3926 -1.075
4531000000.0 -0.5781 -1.007
4534000000.0 -1.167 -0.19
4538000000.0 -0.9309 0.7748
4541000000.0 0.02222 1.175
4544000000.0 0.8999 0.7341
4547000000.0 1.173 -0.2252
4550000000.0 0.5651 -1.039
4553000000.0 -0.4747 -1.109
4556000000.0 -1.153 -0.3825
4559000000.0 -1.046 0.6646
4562000000.0 -0.1743 1.192
4566000000.0 0.8351 0.9542
4569000000.0 1.268 -0.02517
4572000000.0 0.7803 -1.007
4575000000.0 -0.2553 -1.288
4578000000.0 -1.136 -0.6285
4581000000.0 -1.226 0.5037
4584000000.0 -0.4027 1.277
4588000000.0 0.7246 1.152
4591000000.0 1.354 0.1604
4594000000.0 0.9959 -0.9448
4597000000.0 -0.08304 -1.37
4600000000.0 -1.144 -0.82
4603000000.0 -1.368 0.3877
4606000000.0 -0.5873 1.269
4609000000.0 0.6106 1.28
4612000000.0 1.368 0.2862
4616000000.0 1.099 -0.8765
4619000000.0 0.01922 -1.396
4622000000.0 -1.05 -0.9611
4625000000.0 -1.363 0.2465
4628000000.0 -0.6732 1.217
4631000000.0 0.5176 1.269
4634000000.0 1.333 0.4082
4638000000.0 1.133 -0.7803
4641000000.0 0.1281 -1.37
4644000000.0 -1.008 -0.9176
4647000000.0 -1.332 0.157
4650000000.0 -0.6727 1.167
4653000000.0 0.4989 1.225
4656000000.0 1.245 0.4239
4659000000.0 1.087 -0.7034
4662000000.0 0.09786 -1.275
4666000000.0 -0.9402 -0.8269
4669000000.0 -1.216 0.1726
4672000000.0 -0.5516 1.04
4675000000.0 0.4404 1.108
4678000000.0 1.141 0.3305
4681000000.0 0.9157 -0.6755
4684000000.0 0.05429 -1.137
4688000000.0 -0.8392 -0.7715
4691000000.0 -1.12 0.2004
4694000000.0 -0.5269 0.9801
4697000000.0 0.4165 1.056
4700000000.0 1.047 0.2995
4703000000.0 0.876 -0.6283
4706000000.0 0.03853 -1.09
4709000000.0 -0.8495 -0.719
4712000000.0 -1.072 0.228
4716000000.0 -0.5015 0.9814
4719000000.0 0.4267 0.9815
4722000000.0 1.009 0.2619
4725000000.0 0.8443 -0.6378
4728000000.0 0.03189 -1.071
4731000000.0 -0.8073 -0.69
4734000000.0 -1.037 0.1759
4738000000.0 -0.5224 0.9202
4741000000.0 0.3773 0.989
4744000000.0 0.9858 0.3416
4747000000.0 0.9092 -0.5483
4750000000.0 0.158 -1.071
4753000000.0 -0.7208 -0.8467
4756000000.0 -1.106 0.01639
4759000000.0 -0.691 0.862
4762000000.0 0.2217 1.092
4766000000.0 1.001 0.5198
4769000000.0 1.049 -0.4349
4772000000.0 0.3488 -1.085
4775000000.0 -0.6595 -0.9688
4778000000.0 -1.157 -0.1563
4781000000.0 -0.8334 0.8107
4784000000.0 0.06834 1.207
4788000000.0 0.9751 0.7415
4791000000.0 1.19 -0.2612
4794000000.0 0.5668 -1.125
4797000000.0 -0.4615 -1.149
4800000000.0 -1.199 -0.4236
4803000000.0 -1.058 0.6548
4806000000.0 -0.1645 1.239
4809000000.0 0.8678 0.9794
4812000000.0 1.304 -0.02494
4816000000.0 0.8159 -1.022
4819000000.0 -0.2614 -1.293
4822000000.0 -1.179 -0.6339
4825000000.0 -1.252 0.5182
4828000000.0 -0.4261 1.34
4831000000.0 0.7585 1.136
4834000000.0 1.381 0.1311
4838000000.0 1.001 -0.9954
4841000000.0 -0.1245 -1.391
4844000000.0 -1.162 -0.7484
4847000000.0 -1.344 0.4026
4850000000.0 -0.5379 1.289
4853000000.0 0.6531 1.229
4856000000.0 1.355 0.2748
4859000000.0 1.036 -0.8781
4862000000.0 -0.01775 -1.342
4866000000.0 -1.05 -0.8285
4869000000.0 -1.324 0.2894
4872000000.0 -0.607 1.168
4875000000.0 0.5441 1.209
4878000000.0 1.246 0.312
4881000000.0 1.048 -0.7765
4884000000.0 0.1046 -1.271
4888000000.0 -0.9585 -0.8169
4891000000.0 -1.205 0.2171
4894000000.0 -0.5646 1.047
4897000000.0 0.4514 1.081
4900000000.0 1.104 0.3483
4903000000.0 0.9678 -0.6556
4906000000.0 0.1063 -1.095
4909000000.0 -0.791 -0.7603
4912000000.0 -1.021 0.1594
4916000000.0 -0.5577 0.8663
4919000000.0 0.3369 0.9449
4922000000.0 0.9276 0.3627
4925000000.0 0.852 -0.4653
4928000000.0 0.1693 -0.9767
4931000000.0 -0.6484 -0.7155
4934000000.0 -0.9255 0.0339
4938000000.0 -0.5922 0.7575
4941000000.0 0.192 0.9138
4944000000.0 0.8305 0.395
4947000000.0 0.8748 -0.387
4950000000.0 0.2498 -0.9128
4953000000.0 -0.5549 -0.777
4956000000.0 -0.9762 -0.0422
4959000000.0 -0.6454 0.7316
4962000000.0 0.14 0.9504
4966000000.0 0.8414 0.4941
4969000000.0 0.943 -0.3627
4972000000.0 0.2922 -0.9494
4975000000.0 -0.5354 -0.8737
4978000000.0 -1.028 -0.1087
4981000000.0 -0.7625 0.7213
4984000000.0 0.08332 1.04
4988000000.0 0.8746 0.6318
4991000000.0 1.048 -0.2428
4994000000.0 0.4946 -0.9516
4997000000.0 -0.4588 -1.015
5000000000.0 -1.077 -0.2953
5003000000.0 -0.9373 0.6251
5006000000.0 -0.07486 1.154
5009000000.0 0.8467 0.8148
5012000000.0 1.167 -0.1302
5016000000.0 0.6523 -1.022
5019000000.0 -0.3833 -1.179
5022000000.0 -1.162 -0.4624
5025000000.0 -1.105 0.5978
5028000000.0 -0.2392 1.26
5031000000.0 0.8155 0.9851
5034000000.0 1.304 0.006403
5038000000.0 0.835 -0.9828
5041000000.0 -0.2141 -1.258
5044000000.0 -1.111 -0.6348
5047000000.0 -1.213 0.4287
5050000000.0 -0.421 1.245
5053000000.0 0.6734 1.113
5056000000.0 1.278 0.2261
5059000000.0 1.029 -0.8527
5062000000.0 -0.02476 -1.328
5066000000.0 -1.024 -0.8132
5069000000.0 -1.295 0.2768
5072000000.0 -0.5882 1.174
5075000000.0 0.5133 1.206
5078000000.0 1.202 0.3787
5081000000.0 1.06 -0.718
5084000000.0 0.1371 -1.259
5088000000.0 -0.8473 -0.8798
5091000000.0 -1.239 0.1041
5094000000.0 -0.6964 0.9669
5097000000.0 0.2475 1.132
5100000000.0 1.038 0.5239
5103000000.0 1.069 -0.4756
5106000000.0 0.3116 -1.109
5109000000.0 -0.6687 -0.9111
5112000000.0 -1.053 -0.1181
5116000000.0 -0.7937 0.7395
5119000000.0 0.03074 1.055
5122000000.0 0.8233 0.6196
5125000000.0 1.002 -0.2141
5128000000.0 0.4264 -0.8776
5131000000.0 -0.4268 -0.9257
5134000000.0 -0.9818 -0.2848
5138000000.0 -0.792 0.572
5141000000.0 -0.03911 0.9906
5144000000.0 0.7172 0.677
5147000000.0 0.9634 -0.1599
5150000000.0 0.5243 -0.8112
5153000000.0 -0.3311 -0.8877
5156000000.0 -0.8929 -0.3288
5159000000.0 -0.8215 0.4712
5162000000.0 -0.1697 0.9154
5166000000.0 0.6276 0.6621
5169000000.0 0.9469 -0.01928
5172000000.0 0.5343 -0.7325
5175000000.0 -0.2444 -0.8798
5178000000.0 -0.8379 -0.3882
5181000000.0 -0.8423 0.4105
5184000000.0 -0.217 0.8919
5188000000.0 0.5868 0.708
5191000000.0 0.9299 -0.007895
5194000000.0 0.5961 -0.7339
5197000000.0 -0.1871 -0.9056
5200000000.0 -0.8473 -0.3914
5203000000.0 -0.8716 0.4327
5206000000.0 -0.2137 0.9139
5209000000.0 0.6155 0.7332
5212000000.0 0.9747 0.01405
5216000000.0 0.6016 -0.7629
5219000000.0 -0.2189 -0.9491
5222000000.0 -0.8951 -0.4604
5225000000.0 -0.9047 0.4079
5228000000.0 -0.2727 0.9471
5231000000.0 0.5899 0.8407
5234000000.0 1.023 0.0864
5238000000.0 0.7213 -0.7598
5241000000.0 -0.1053 -1.044
5244000000.0 -0.8743 -0.5803
5247000000.0 -1.016 0.3018
5250000000.0 -0.391 0.9878
5253000000.0 0.5227 0.9304
5256000000.0 1.067 0.2133
5259000000.0 0.8294 -0.6491
5262000000.0 0.01814 -1.094
5266000000.0 -0.8586 -0.7139
5269000000.0 -1.066 0.1722
5272000000.0 -0.5406 0.9542
5275000000.0 0.366 1.076
5278000000.0 0.9875 0.4035
5281000000.0 0.9712 -0.5404
5284000000.0 0.246 -1.097
5288000000.0 -0.6756 -0.8801
5291000000.0 -1.099 -0.05552
5294000000.0 -0.7613 0.8513
5297000000.0 0.101 1.115
5300000000.0 0.9516 0.6365
5303000000.0 1.092 -0.3231
5306000000.0 0.4611 -1.045
5309000000.0 -0.5112 -1.045
5312000000.0 -1.103 -0.2829
5316000000.0 -0.9419 0.6431
5319000000.0 -0.1015 1.146
5322000000.0 0.7915 0.831
5325000000.0 1.157 -0.06451
5328000000.0 0.6255 -0.9151
5331000000.0 -0.319 -1.097
5334000000.0 -1.058 -0.4969
5338000000.0 -1.009 0.5051
5341000000.0 -0.2602 1.097
5344000000.0 0.6796 0.9202
5347000000.0 1.147 0.06605
5350000000.0 0.7561 -0.8358
5353000000.0 -0.1597 -1.119
5356000000.0 -0.9548 -0.5902
5359000000.0 -1.008 0.3844
5362000000.0 -0.3675 1.003
5366000000.0 0.5768 0.9175
5369000000.0 1.056 0.1375
5372000000.0 0.7579 -0.7287
5375000000.0 -0.09791 -1.049
5378000000.0 -0.8876 -0.5478
5381000000.0 -0.9677 0.3065
5384000000.0 -0.3465 0.9517
5388000000.0 0.5321 0.842
5391000000.0 0.9514 0.136
5394000000.0 0.6825 -0.6769
5397000000.0 -0.109 -0.9555
5400000000.0 -0.8103 -0.4883
5403000000.0 -0.8984 0.3051
5406000000.0 -0.2954 0.856
5409000000.0 0.4755 0.7566
5412000000.0 0.8658 0.07659
5416000000.0 0.6296 -0.6205
5419000000.0 -0.09709 -0.8726
5422000000.0 -0.7479 -0.4837
5425000000.0 -0.8361 0.3155
5428000000.0 -0.2587 0.8256
5431000000.0 0.4948 0.7356
5434000000.0 0.9039 0.05834
5438000000.0 0.6324 -0.6197
5441000000.0 -0.1098 -0.8645
5444000000.0 -0.7852 -0.4633
5447000000.0 -0.8205 0.295
5450000000.0 -0.3111 0.8394
5453000000.0 0.4617 0.745
5456000000.0 0.8839 0.1224
5459000000.0 0.6284 -0.6075
5462000000.0 -0.06102 -0.9327
5466000000.0 -0.7366 -0.5466
5469000000.0 -0.8822 0.2347
5472000000.0 -0.3641 0.842
5475000000.0 0.3715 0.8566
5478000000.0 0.9366 0.2134
5481000000.0 0.7805 -0.592
5484000000.0 0.0602 -0.9969
5488000000.0 -0.7212 -0.6947
5491000000.0 -0.9648 0.125
5494000000.0 -0.553 0.821
5497000000.0 0.2622 1.02
5500000000.0 0.9304 0.4422
5503000000.0 0.8959 -0.4647
5506000000.0 0.2425 -0.9805
5509000000.0 -0.6005 -0.8269
5512000000.0 -1.061 -0.08908
5516000000.0 -0.7137 0.7483
5519000000.0 0.09942 1.049
5522000000.0 0.886 0.6024
5525000000.0 1.0 -0.2556
5528000000.0 0.4245 -0.9632
5531000000.0 -0.4586 -0.945
5534000000.0 -1.017 -0.2675
5538000000.0 -0.8426 0.6026
5541000000.0 -0.08585 1.062
5544000000.0 0.7487 0.7387
5547000000.0 1.093 -0.1273
5550000000.0 0.6076 -0.8722
5553000000.0 -0.2635 -1.063
5556000000.0 -0.994 -0.4569
5559000000.0 -0.9351 0.4614
5562000000.0 -0.2627 1.032
5566000000.0 0.6126 0.8414
5569000000.0 1.041 0.04121
5572000000.0 0.6955 -0.776
5575000000.0 -0.1543 -0.9833
5578000000.0 -0.8286 -0.5259
5581000000.0 -0.9531 0.3403
5584000000.0 -0.377 0.9507
5588000000.0 0.5031 0.8537
5591000000.0 0.9728 0.188
5594000000.0 0.7335 -0.593
5597000000.0 0.004405 -0.9431
5600000000.0 -0.7632 -0.6055
5603000000.0 -0.9113 0.2039
5606000000.0 -0.4253 0.8001
5609000000.0 0.3577 0.8293
5612000000.0 0.8519 0.2424
5616000000.0 0.7047 -0.4992
5619000000.0 0.04666 -0.8955
5622000000.0 -0.6499 -0.6018
5625000000.0 -0.8647 0.152
5628000000.0 -0.4216 0.7394
5631000000.0 0.2787 0.7823
5634000000.0 0.7952 0.2939
5638000000.0 0.7087 -0.4834
5641000000.0 0.09579 -0.8388
5644000000.0 -0.6103 -0.6045
5647000000.0 -0.8151 0.1235
5650000000.0 -0.457 0.6947
5653000000.0 0.2978 0.7952
5656000000.0 0.7848 0.2811
5659000000.0 0.7378 -0.4498
5662000000.0 0.09892 -0.8627
5666000000.0 -0.6348 -0.617
5669000000.0 -0.8794 0.1056
5672000000.0 -0.4828 0.7156
5675000000.0 0.3079 0.8332
5678000000.0 0.8559 0.3118
5681000000.0 0.787 -0.4933
5684000000.0 0.1117 -0.9176
5688000000.0 -0.6557 -0.7031
5691000000.0 -0.938 0.1138
5694000000.0 -0.5181 0.8217
5697000000.0 0.3105 0.9299
5700000000.0 0.9112 0.3513
5703000000.0 0.8345 -0.4809
5706000000.0 0.1884 -0.992
5709000000.0 -0.6626 -0.79
5712000000.0 -1.031 0.01895
5716000000.0 -0.6564 0.8096
5719000000.0 0.2491 1.032
5722000000.0 0.9326 0.4718
5725000000.0 0.9935 -0.4376
5728000000.0 0.2716 -1.032
5731000000.0 -0.6116 -0.8956
5734000000.0 -1.08 -0.1457
5738000000.0 -0.771 0.7479
5741000000.0 0.07518 1.097
5744000000.0 0.8841 0.6157
5747000000.0 1.066 -0.2779
5750000000.0 0.4423 -1.03
5753000000.0 -0.4744 -1.039
5756000000.0 -1.079 -0.2743
5759000000.0 -0.8776 0.67
5762000000.0 -0.04889 1.119
5766000000.0 0.7965 0.7444
5769000000.0 1.09 -0.1048
5772000000.0 0.6075 -0.9313
5775000000.0 -0.3268 -1.056
5778000000.0 -1.004 -0.4659
5781000000.0 -1.003 0.4858
5784000000.0 -0.2332 1.08
5788000000.0 0.6765 0.8898
5791000000.0 1.077 0.05367
5794000000.0 0.7576 -0.7747
5797000000.0 -0.1496 -1.091
5800000000.0 -0.8933 -0.5634
5803000000.0 -1.015 0.3238
5806000000.0 -0.3937 0.9961
5809000000.0 0.5204 0.9338
5812000000.0 1.016 0.1646
5816000000.0 0.8016 -0.6618
5819000000.0 -0.02592 -1.057
5822000000.0 -0.7962 -0.6366
5825000000.0 -1.006 0.1819
5828000000.0 -0.4859 0.9143
5831000000.0 0.4161 0.901
5834000000.0 0.9543 0.2462
5838000000.0 0.8149 -0.5747
5841000000.0 0.0831 -0.9534
5844000000.0 -0.6993 -0.6877
5847000000.0 -0.937 0.1406
5850000000.0 -0.4516 0.8344
5853000000.0 0.3173 0.9053
5856000000.0 0.9068 0.2949
5859000000.0 0.7811 -0.4974
5862000000.0 0.1213 -0.9229
5866000000.0 -0.6363 -0.6552
5869000000.0 -0.922 0.08445
5872000000.0 -0.4904 0.7575
5875000000.0 0.3089 0.8413
5878000000.0 0.8372 0.3133
5881000000.0 0.7547 -0.4652
5884000000.0 0.1085 -0.8861
5888000000.0 -0.5951 -0.6601
5891000000.0 -0.8359 0.09774
5894000000.0 -0.5182 0.7041
5897000000.0 0.2225 0.8362
5900000000.0 0.8012 0.3378
5903000000.0 0.7495 -0.4092
5906000000.0 0.1821 -0.7997
5909000000.0 -0.5598 -0.6631
5912000000.0 -0.8654 -0.01428
5916000000.0 -0.5606 0.6627
5919000000.0 0.1784 0.8548
5922000000.0 0.779 0.4303
5925000000.0 0.8201 -0.3287
5928000000.0 0.2383 -0.8561
5931000000.0 -0.4881 -0.7573
5934000000.0 -0.8862 -0.07669
5938000000.0 -0.6311 0.6297
5941000000.0 0.08556 0.879
5944000000.0 0.7123 0.5395
5947000000.0 0.8732 -0.2506
5950000000.0 0.3689 -0.8224
5953000000.0 -0.4047 -0.8392
5956000000.0 -0.8681 -0.2132
5959000000.0 -0.7491 0.5203
5962000000.0 -0.09395 0.9239
5966000000.0 0.6832 0.6885
5969000000.0 0.9325 -0.07953
5972000000.0 0.5453 -0.7796
5975000000.0 -0.2631 -0.9127
5978000000.0 -0.8924 -0.3951
5981000000.0 -0.9147 0.4323
5984000000.0 -0.2332 0.9737
5988000000.0 0.5483 0.7954
5991000000.0 1.005 0.07656
5994000000.0 0.6832 -0.7222
5997000000.0 -0.1427 -0.9776
6000000000.0 -0.87 -0.5366
6003000000.0 -0.9558 0.352
6006000000.0 -0.3797 0.9117
6009000000.0 0.4858 0.8803
6012000000.0 0.9883 0.1799
6016000000.0 0.7646 -0.6434
6019000000.0 -0.008444 -0.9918
6022000000.0 -0.7965 -0.6174
6025000000.0 -0.9619 0.2035
6028000000.0 -0.4447 0.8849
6031000000.0 0.3792 0.9285
6034000000.0 0.9424 0.2775
6038000000.0 0.8013 -0.5395
6041000000.0 0.09401 -0.9519
6044000000.0 -0.6929 -0.6787
6047000000.0 -0.9731 0.1163
6050000000.0 -0.5061 0.8185
6053000000.0 0.2938 0.8828
6056000000.0 0.8832 0.3349
6059000000.0 0.7885 -0.5099
6062000000.0 0.11 -0.9138
6066000000.0 -0.6281 -0.6678
6069000000.0 -0.9402 0.07265
6072000000.0 -0.5024 0.7574
6075000000.0 0.2357 0.8517
6078000000.0 0.8458 0.3236
6081000000.0 0.7768 -0.4414
6084000000.0 0.1702 -0.8651
6088000000.0 -0.5824 -0.6862
6091000000.0 -0.8729 -0.000967
6094000000.0 -0.5479 0.6894
6097000000.0 0.2124 0.8707
6100000000.0 0.7581 0.3791
6103000000.0 0.7472 -0.358
6106000000.0 0.1999 -0.8469
6109000000.0 -0.5222 -0.6658
6112000000.0 -0.8713 -0.0145
6116000000.0 -0.5693 0.6456
6119000000.0 0.1603 0.8689
6122000000.0 0.7825 0.4132
6125000000.0 0.8165 -0.3123
6128000000.0 0.2558 -0.8416
6131000000.0 -0.4843 -0.7126
6134000000.0 -0.879 -0.03028
6138000000.0 -0.6101 0.6445
6141000000.0 0.1257 0.879
6144000000.0 0.7592 0.4318
6147000000.0 0.8261 -0.2856
6150000000.0 0.2927 -0.8089
6153000000.0 -0.4635 -0.7995
6156000000.0 -0.9139 -0.1215
6159000000.0 -0.6624 0.6161
6162000000.0 0.04238 0.9233
6166000000.0 0.7443 0.5532
6169000000.0 0.8822 -0.2127
6172000000.0 0.3991 -0.8572
6175000000.0 -0.4184 -0.8031
6178000000.0 -0.9106 -0.237
6181000000.0 -0.7485 0.569
6184000000.0 -0.01605 0.9687
6188000000.0 0.7015 0.6085
6191000000.0 0.923 -0.1617
6194000000.0 0.4797 -0.8396
6197000000.0 -0.3294 -0.9002
6200000000.0 -0.8878 -0.284
6203000000.0 -0.7773 0.5001
6206000000.0 -0.1233 0.9327
6209000000.0 0.6189 0.6839
6212000000.0 0.932 -0.05343
6216000000.0 0.5279 -0.7346
6219000000.0 -0.231 -0.8873
6222000000.0 -0.8375 -0.3836
6225000000.0 -0.8634 0.3858
6228000000.0 -0.2328 0.8532
6231000000.0 0.5537 0.7267
6234000000.0 0.9082 0.02596
6238000000.0 0.6096 -0.6734
6241000000.0 -0.08864 -0.8819
6244000000.0 -0.7282 -0.4636
6247000000.0 -0.8165 0.2654
6250000000.0 -0.3225 0.7981
6253000000.0 0.3946 0.7362
6256000000.0 0.8254 0.166
6259000000.0 0.6563 -0.5156
6262000000.0 0.04147 -0.8433
6266000000.0 -0.6063 -0.5632
