! Created with skrf 1.8.0 (http://scikit-rf.org).
# Hz S RI R 50.0 
!freq ReS11 ImS11
4000000000.0 -0.1743 -1.528
4003000000.0 -1.319 -0.7976
4006000000.0 -1.443 0.4544
4009000000.0 -0.5112 1.416
4012000000.0 0.7249 1.35
4016000000.0 1.533 0.2379
4019000000.0 1.126 -1.074
4022000000.0 -0.0968 -1.518
4025000000.0 -1.278 -0.8761
4028000000.0 -1.528 0.4899
4031000000.0 -0.5557 1.517
4034000000.0 0.8388 1.421
4038000000.0 1.616 0.2668
4041000000.0 1.166 -1.098
4044000000.0 -0.1142 -1.647
4047000000.0 -1.338 -0.9448
4050000000.0 -1.583 0.4756
4053000000.0 -0.6322 1.512
4056000000.0 0.7172 1.428
4059000000.0 1.584 0.3239
4062000000.0 1.253 -0.9992
4066000000.0 0.06204 -1.629
4069000000.0 -1.22 -1.067
4072000000.0 -1.579 0.2767
4075000000.0 -0.8345 1.474
4078000000.0 0.552 1.521
4081000000.0 1.539 0.5724
4084000000.0 1.393 -0.8241
4088000000.0 0.2426 -1.676
4091000000.0 -1.13 -1.265
4094000000.0 -1.642 0.0802
4097000000.0 -0.9867 1.295
4100000000.0 0.3876 1.555
4103000000.0 1.423 0.7069
4106000000.0 1.433 -0.6176
4109000000.0 0.4684 -1.493
4112000000.0 -0.8375 -1.299
4116000000.0 -1.487 -0.1908
4119000000.0 -1.121 1.004
4122000000.0 0.04775 1.479
4125000000.0 1.11 0.9828
4128000000.0 1.457 -0.2397
4131000000.0 0.7636 -1.245
4134000000.0 -0.4315 -1.4
4138000000.0 -1.352 -0.5727
4141000000.0 -1.355 0.6594
4144000000.0 -0.3973 1.462
4147000000.0 0.8565 1.248
4150000000.0 1.526 0.1349
4153000000.0 1.078 -1.088
4156000000.0 -0.1261 -1.502
4159000000.0 -1.209 -0.8681
4162000000.0 -1.514 0.3599
4166000000.0 -0.6653 1.34
4169000000.0 0.5903 1.396
4172000000.0 1.437 0.4106
4175000000.0 1.295 -0.8169
4178000000.0 0.1673 -1.515
4181000000.0 -1.028 -1.113
4184000000.0 -1.491 0.08079
4188000000.0 -0.895 1.186
4191000000.0 0.3946 1.499
4194000000.0 1.366 0.6709
4197000000.0 1.438 -0.6348
4200000000.0 0.4083 -1.549
4203000000.0 -0.9749 -1.289
4206000000.0 -1.598 -0.05149
4209000000.0 -1.069 1.239
4212000000.0 0.3446 1.643
4216000000.0 1.494 0.7103
4219000000.0 1.509 -0.7298
4222000000.0 0.3582 -1.683
4225000000.0 -1.124 -1.313
4228000000.0 -1.657 0.107
4231000000.0 -0.9143 1.377
4234000000.0 0.4877 1.588
4238000000.0 1.546 0.5196
4241000000.0 1.375 -0.9025
4244000000.0 0.1047 -1.614
4247000000.0 -1.212 -1.031
4250000000.0 -1.525 0.3284
4253000000.0 -0.6842 1.431
4256000000.0 0.6288 1.403
4259000000.0 1.489 0.307
4262000000.0 1.168 -1.015
4266000000.0 -0.07055 -1.51
4269000000.0 -1.207 -0.8662
4272000000.0 -1.43 0.3747
4275000000.0 -0.529 1.375
4278000000.0 0.7324 1.278
4281000000.0 1.439 0.1886
4284000000.0 1.03 -0.9419
4288000000.0 -0.1467 -1.388
4291000000.0 -1.138 -0.7451
4294000000.0 -1.257 0.4183
4297000000.0 -0.4852 1.232
4300000000.0 0.5986 1.148
4303000000.0 1.295 0.2628
4306000000.0 1.012 -0.8006
4309000000.0 -0.003549 -1.278
4312000000.0 -0.9591 -0.8699
4316000000.0 -1.297 0.1776
4319000000.0 -0.6881 1.101
4322000000.0 0.3991 1.243
4325000000.0 1.247 0.5051
4328000000.0 1.189 -0.6287
4331000000.0 0.309 -1.311
4334000000.0 -0.8298 -1.086
4338000000.0 -1.404 -0.07632
4341000000.0 -0.9562 1.046
4344000000.0 0.2059 1.436
4347000000.0 1.224 0.7259
4350000000.0 1.376 -0.4781
4353000000.0 0.4875 -1.336
4356000000.0 -0.7221 -1.247
4359000000.0 -1.406 -0.24
4362000000.0 -1.102 0.948
4366000000.0 -0.006012 1.471
4369000000.0 1.145 0.9443
4372000000.0 1.432 -0.2603
4375000000.0 0.7226 -1.296
4378000000.0 -0.5428 -1.437
4381000000.0 -1.45 -0.4639
4384000000.0 -1.283 0.8123
4388000000.0 -0.1865 1.535
4391000000.0 1.079 1.146
4394000000.0 1.584 -0.1245
4397000000.0 0.8864 -1.311
4400000000.0 -0.4657 -1.496
4403000000.0 -1.485 -0.5745
4406000000.0 -1.369 0.7961
4409000000.0 -0.2043 1.563
4412000000.0 1.081 1.102
4416000000.0 1.542 -0.1927
4419000000.0 0.8018 -1.301
4422000000.0 -0.5316 -1.435
4425000000.0 -1.409 -0.4851
4428000000.0 -1.213 0.8185
4431000000.0 -0.1107 1.445
4434000000.0 1.032 0.9673
4438000000.0 1.386 -0.2257
4441000000.0 0.6511 -1.243
4444000000.0 -0.5485 -1.259
4447000000.0 -1.331 -0.3525
4450000000.0 -1.04 0.8552
4453000000.0 0.00176 1.325
4456000000.0 1.061 0.8108
4459000000.0 1.266 -0.325
4462000000.0 0.4887 -1.146
4466000000.0 -0.6037 -1.101
4469000000.0 -1.21 -0.198
4472000000.0 -0.8799 0.8608
4475000000.0 0.1347 1.214
4478000000.0 1.028 0.6069
4481000000.0 1.101 -0.445
4484000000.0 0.3247 -1.092
4488000000.0 -0.6235 -0.9545
4491000000.0 -1.134 -0.07469
4494000000.0 -0.7782 0.839
4497000000.0 0.1666 1.128
4500000000.0 0.9933 0.587
4503000000.0 1.033 -0.3728
4506000000.0 0.3187 -1.05
4509000000.0 -0.5996 -0.9473
4512000000.0 -1.103 -0.1062
4516000000.0 -0.7609 0.8117
4519000000.0 0.1191 1.11
4522000000.0 0.9321 0.6292
4525000000.0 1.083 -0.3453
4528000000.0 0.4179 -1.069
4531000000.0 -0.5807 -1.014
4534000000.0 -1.112 -0.1951
4538000000.0 -0.8756 0.7657
4541000000.0 0.009011 1.168
4544000000.0 0.9059 0.7595
4547000000.0 1.158 -0.2449
4550000000.0 0.5925 -1.056
4553000000.0 -0.4552 -1.104
4556000000.0 -1.154 -0.3999
4559000000.0 -1.036 0.6656
4562000000.0 -0.1587 1.226
4566000000.0 0.8491 0.9283
4569000000.0 1.248 -0.0259
4572000000.0 0.8136 -1.012
4575000000.0 -0.2594 -1.266
4578000000.0 -1.136 -0.6069
4581000000.0 -1.219 0.5015
4584000000.0 -0.4026 1.284
4588000000.0 0.7211 1.118
4591000000.0 1.358 0.1438
4594000000.0 0.9998 -0.959
4597000000.0 -0.09949 -1.377
4600000000.0 -1.14 -0.8127
4603000000.0 -1.338 0.3387
4606000000.0 -0.5703 1.244
4609000000.0 0.6212 1.257
4612000000.0 1.377 0.3399
4616000000.0 1.108 -0.8661
4619000000.0 0.03612 -1.395
4622000000.0 -1.039 -0.9212
4625000000.0 -1.37 0.2443
4628000000.0 -0.6792 1.213
4631000000.0 0.5072 1.288
4634000000.0 1.303 0.4384
4638000000.0 1.156 -0.7976
4641000000.0 0.104 -1.394
4644000000.0 -0.988 -0.9633
4647000000.0 -1.353 0.2076
4650000000.0 -0.6859 1.15
4653000000.0 0.4614 1.255
4656000000.0 1.269 0.3864
4659000000.0 1.08 -0.7447
4662000000.0 0.0946 -1.263
4666000000.0 -0.9416 -0.8275
4669000000.0 -1.214 0.1722
4672000000.0 -0.579 1.041
4675000000.0 0.4419 1.102
4678000000.0 1.119 0.3271
4681000000.0 0.9567 -0.6466
4684000000.0 0.08279 -1.148
4688000000.0 -0.8533 -0.7558
4691000000.0 -1.081 0.1579
4694000000.0 -0.5604 1.004
4697000000.0 0.4149 1.018
4700000000.0 1.044 0.3027
4703000000.0 0.8847 -0.6181
4706000000.0 0.02209 -1.072
4709000000.0 -0.803 -0.6913
4712000000.0 -1.065 0.2058
4716000000.0 -0.4871 0.9405
4719000000.0 0.4664 0.9598
4722000000.0 1.008 0.2768
4725000000.0 0.8526 -0.6439
4728000000.0 0.0513 -1.028
4731000000.0 -0.776 -0.6985
4734000000.0 -1.046 0.1785
4738000000.0 -0.513 0.9132
4741000000.0 0.3372 0.9845
4744000000.0 0.9835 0.3674
4747000000.0 0.9003 -0.5743
4750000000.0 0.1728 -1.04
4753000000.0 -0.7222 -0.8016
4756000000.0 -1.078 0.001258
4759000000.0 -0.6819 0.876
4762000000.0 0.2298 1.116
4766000000.0 0.9946 0.5205
4769000000.0 1.068 -0.4617
4772000000.0 0.3315 -1.097
4775000000.0 -0.6456 -0.9772
4778000000.0 -1.144 -0.1461
4781000000.0 -0.8654 0.8187
4784000000.0 0.05979 1.211
4788000000.0 0.9463 0.7478
4791000000.0 1.172 -0.2555
4794000000.0 0.5601 -1.099
4797000000.0 -0.475 -1.145
4800000000.0 -1.191 -0.393
4803000000.0 -1.067 0.6576
4806000000.0 -0.2086 1.26
4809000000.0 0.8385 0.9512
4812000000.0 1.277 -0.03744
4816000000.0 0.8353 -1.012
4819000000.0 -0.2802 -1.3
4822000000.0 -1.155 -0.6249
4825000000.0 -1.275 0.527
4828000000.0 -0.4121 1.292
4831000000.0 0.7415 1.148
4834000000.0 1.39 0.1175
4838000000.0 0.999 -0.9824
4841000000.0 -0.1204 -1.412
4844000000.0 -1.143 -0.7905
4847000000.0 -1.331 0.4023
4850000000.0 -0.5442 1.28
4853000000.0 0.6483 1.222
4856000000.0 1.342 0.28
4859000000.0 1.027 -0.8635
4862000000.0 -0.01421 -1.357
4866000000.0 -1.065 -0.8113
4869000000.0 -1.327 0.2717
4872000000.0 -0.6159 1.199
4875000000.0 0.5216 1.179
4878000000.0 1.248 0.3428
4881000000.0 1.03 -0.7679
4884000000.0 0.05968 -1.247
4888000000.0 -0.9536 -0.8308
4891000000.0 -1.19 0.2248
4894000000.0 -0.5908 1.039
4897000000.0 0.4465 1.112
4900000000.0 1.102 0.3045
4903000000.0 0.9176 -0.6423
4906000000.0 0.08522 -1.097
4909000000.0 -0.7718 -0.7279
4912000000.0 -1.031 0.141
4916000000.0 -0.5381 0.8669
4919000000.0 0.3001 0.9397
4922000000.0 0.9252 0.3618
4925000000.0 0.8473 -0.5294
4928000000.0 0.1637 -0.9544
4931000000.0 -0.6496 -0.6955
4934000000.0 -0.9361 0.04347
4938000000.0 -0.5753 0.7323
4941000000.0 0.2249 0.8921
4944000000.0 0.8252 0.4372
4947000000.0 0.8475 -0.4011
4950000000.0 0.2605 -0.9332
4953000000.0 -0.5627 -0.7633
4956000000.0 -0.9472 -0.05028
4959000000.0 -0.6306 0.7249
4962000000.0 0.1736 0.9485
4966000000.0 0.8346 0.5147
4969000000.0 0.9222 -0.3603
4972000000.0 0.3147 -0.9223
4975000000.0 -0.5258 -0.8419
4978000000.0 -1.013 -0.1694
4981000000.0 -0.7503 0.6842
4984000000.0 0.05647 1.03
4988000000.0 0.8631 0.6096
4991000000.0 1.034 -0.2369
4994000000.0 0.4648 -0.9832
4997000000.0 -0.4382 -1.006
5000000000.0 -1.08 -0.2877
5003000000.0 -0.9364 0.6603
5006000000.0 -0.07988 1.155
5009000000.0 0.8574 0.8247
5012000000.0 1.181 -0.1212
5016000000.0 0.653 -1.009
5019000000.0 -0.3562 -1.189
5022000000.0 -1.176 -0.4726
5025000000.0 -1.114 0.6046
5028000000.0 -0.25 1.253
5031000000.0 0.798 1.006
5034000000.0 1.323 -0.008975
5038000000.0 0.8201 -0.9887
5041000000.0 -0.2162 -1.247
5044000000.0 -1.122 -0.6249
5047000000.0 -1.215 0.4642
5050000000.0 -0.4367 1.21
5053000000.0 0.6554 1.128
5056000000.0 1.262 0.2007
5059000000.0 0.9574 -0.863
5062000000.0 -0.005953 -1.298
5066000000.0 -1.024 -0.814
5069000000.0 -1.299 0.2542
5072000000.0 -0.6272 1.129
5075000000.0 0.4843 1.176
5078000000.0 1.217 0.3765
5081000000.0 1.055 -0.6725
5084000000.0 0.1508 -1.218
5088000000.0 -0.8604 -0.891
5091000000.0 -1.19 0.06782
5094000000.0 -0.6908 0.939
5097000000.0 0.2947 1.131
5100000000.0 1.038 0.5105
5103000000.0 1.022 -0.4448
5106000000.0 0.3556 -1.072
5109000000.0 -0.6207 -0.9132
5112000000.0 -1.1 -0.1153
5116000000.0 -0.7586 0.7664
5119000000.0 0.08446 1.066
5122000000.0 0.862 0.6288
5125000000.0 0.9891 -0.2227
5128000000.0 0.4302 -0.9257
5131000000.0 -0.3945 -0.9072
5134000000.0 -0.9232 -0.2378
5138000000.0 -0.8243 0.574
5141000000.0 -0.07001 0.9799
5144000000.0 0.6587 0.6787
5147000000.0 0.9639 -0.09833
5150000000.0 0.4859 -0.8302
5153000000.0 -0.3072 -0.8942
5156000000.0 -0.8418 -0.3158
5159000000.0 -0.7941 0.4609
5162000000.0 -0.1557 0.9087
5166000000.0 0.6203 0.6685
5169000000.0 0.9024 -0.0225
5172000000.0 0.5311 -0.745
5175000000.0 -0.2355 -0.8803
5178000000.0 -0.8559 -0.3569
5181000000.0 -0.803 0.4014
5184000000.0 -0.2075 0.8977
5188000000.0 0.5924 0.7032
5191000000.0 0.9456 0.008075
5194000000.0 0.5633 -0.7372
5197000000.0 -0.2169 -0.9151
5200000000.0 -0.861 -0.4054
5203000000.0 -0.8333 0.4106
5206000000.0 -0.2149 0.9525
5209000000.0 0.5863 0.7406
5212000000.0 0.9705 0.03084
5216000000.0 0.605 -0.7599
5219000000.0 -0.1868 -0.9575
5222000000.0 -0.8601 -0.4598
5225000000.0 -0.9048 0.4073
5228000000.0 -0.275 0.974
5231000000.0 0.5866 0.8279
5234000000.0 1.012 0.09478
5238000000.0 0.7209 -0.7519
5241000000.0 -0.124 -1.007
5244000000.0 -0.8628 -0.5467
5247000000.0 -1.004 0.3072
5250000000.0 -0.4017 0.9633
5253000000.0 0.5278 0.9373
5256000000.0 1.072 0.2205
5259000000.0 0.8664 -0.6651
5262000000.0 0.02338 -1.085
5266000000.0 -0.8161 -0.7113
5269000000.0 -1.073 0.1749
5272000000.0 -0.5796 0.9288
5275000000.0 0.3345 1.012
5278000000.0 1.03 0.3805
5281000000.0 0.9926 -0.5084
5284000000.0 0.2192 -1.061
5288000000.0 -0.6515 -0.8703
5291000000.0 -1.091 -0.06249
5294000000.0 -0.7642 0.8137
5297000000.0 0.156 1.109
5300000000.0 0.9018 0.6394
5303000000.0 1.062 -0.3205
5306000000.0 0.4745 -1.015
5309000000.0 -0.4817 -1.037
5312000000.0 -1.087 -0.3232
5316000000.0 -0.9379 0.6411
5319000000.0 -0.1235 1.137
5322000000.0 0.8051 0.8037
5325000000.0 1.152 -0.08256
5328000000.0 0.6469 -0.9282
5331000000.0 -0.3184 -1.085
5334000000.0 -1.04 -0.4806
5338000000.0 -1.042 0.4945
5341000000.0 -0.2586 1.093
5344000000.0 0.6766 0.919
5347000000.0 1.098 0.04586
5350000000.0 0.7463 -0.8088
5353000000.0 -0.1686 -1.102
5356000000.0 -0.9363 -0.5884
5359000000.0 -1.037 0.3601
5362000000.0 -0.3899 1.027
5366000000.0 0.5446 0.9166
5369000000.0 1.057 0.1592
5372000000.0 0.7848 -0.7358
5375000000.0 -0.09094 -1.02
5378000000.0 -0.8377 -0.5762
5381000000.0 -0.9754 0.3184
5384000000.0 -0.3314 0.9324
5388000000.0 0.5487 0.8375
5391000000.0 0.9394 0.1029
5394000000.0 0.7039 -0.7193
5397000000.0 -0.1203 -0.9424
5400000000.0 -0.7872 -0.482
5403000000.0 -0.8693 0.281
5406000000.0 -0.2835 0.8435
5409000000.0 0.4691 0.7316
5412000000.0 0.89 0.09565
5416000000.0 0.6033 -0.6303
5419000000.0 -0.1085 -0.851
5422000000.0 -0.7253 -0.4759
5425000000.0 -0.8159 0.2934
5428000000.0 -0.2766 0.8178
5431000000.0 0.4698 0.7155
5434000000.0 0.8588 0.09595
5438000000.0 0.6093 -0.6372
5441000000.0 -0.1261 -0.8657
5444000000.0 -0.7626 -0.4543
5447000000.0 -0.8167 0.2977
5450000000.0 -0.2751 0.8291
5453000000.0 0.4521 0.7546
5456000000.0 0.8655 0.09066
5459000000.0 0.645 -0.6226
5462000000.0 -0.04166 -0.8974
5466000000.0 -0.7293 -0.5279
5469000000.0 -0.8616 0.2418
5472000000.0 -0.3768 0.8299
5475000000.0 0.3912 0.8415
5478000000.0 0.904 0.2603
5481000000.0 0.7617 -0.5431
5484000000.0 0.07427 -0.9253
5488000000.0 -0.7159 -0.6732
5491000000.0 -0.9684 0.1157
5494000000.0 -0.5444 0.8079
5497000000.0 0.2913 0.9686
5500000000.0 0.9121 0.416
5503000000.0 0.9318 -0.4332
5506000000.0 0.2552 -0.9557
5509000000.0 -0.6253 -0.8361
5512000000.0 -1.059 -0.05728
5516000000.0 -0.7043 0.731
5519000000.0 0.1135 1.008
5522000000.0 0.8555 0.6005
5525000000.0 0.9904 -0.284
5528000000.0 0.4249 -0.9434
5531000000.0 -0.4125 -0.9483
5534000000.0 -1.023 -0.2454
5538000000.0 -0.8831 0.6084
5541000000.0 -0.1024 1.053
5544000000.0 0.7739 0.7322
5547000000.0 1.058 -0.08935
5550000000.0 0.616 -0.8773
5553000000.0 -0.2818 -1.035
5556000000.0 -0.9622 -0.4235
5559000000.0 -0.9381 0.462
5562000000.0 -0.2421 1.022
5566000000.0 0.6194 0.8261
5569000000.0 1.02 0.0802
5572000000.0 0.7063 -0.7317
5575000000.0 -0.1431 -1.009
5578000000.0 -0.8322 -0.528
5581000000.0 -0.9412 0.2979
5584000000.0 -0.3729 0.9196
5588000000.0 0.4879 0.8613
5591000000.0 0.9639 0.1882
5594000000.0 0.7476 -0.6193
5597000000.0 -0.03414 -0.9391
5600000000.0 -0.7226 -0.5793
5603000000.0 -0.8858 0.1995
5606000000.0 -0.4134 0.8208
5609000000.0 0.3558 0.8549
5612000000.0 0.8693 0.2526
5616000000.0 0.7345 -0.4905
5619000000.0 0.05844 -0.8483
5622000000.0 -0.6286 -0.566
5625000000.0 -0.8406 0.1225
5628000000.0 -0.4157 0.7048
5631000000.0 0.3006 0.7977
5634000000.0 0.8092 0.2814
5638000000.0 0.7574 -0.4743
5641000000.0 0.1015 -0.805
5644000000.0 -0.5872 -0.5961
5647000000.0 -0.8409 0.09309
5650000000.0 -0.4592 0.723
5653000000.0 0.2839 0.8034
5656000000.0 0.8087 0.2844
5659000000.0 0.7144 -0.4471
5662000000.0 0.1007 -0.8346
5666000000.0 -0.6257 -0.5997
5669000000.0 -0.8602 0.09385
5672000000.0 -0.4423 0.7757
5675000000.0 0.2889 0.8546
5678000000.0 0.8319 0.2967
5681000000.0 0.7928 -0.4529
5684000000.0 0.1335 -0.8929
5688000000.0 -0.6451 -0.6665
5691000000.0 -0.9294 0.0702
5694000000.0 -0.568 0.8244
5697000000.0 0.2766 0.9322
5700000000.0 0.9067 0.3755
5703000000.0 0.8642 -0.5042
5706000000.0 0.1774 -1.002
5709000000.0 -0.6681 -0.7903
5712000000.0 -1.033 0.02328
5716000000.0 -0.6137 0.8126
5719000000.0 0.1946 1.022
5722000000.0 0.9332 0.4727
5725000000.0 0.9728 -0.4298
5728000000.0 0.3252 -0.9996
5731000000.0 -0.5871 -0.9027
5734000000.0 -1.051 -0.1108
5738000000.0 -0.7831 0.7278
5741000000.0 0.09516 1.077
5744000000.0 0.8919 0.647
5747000000.0 1.069 -0.3222
5750000000.0 0.4762 -0.9908
5753000000.0 -0.4589 -1.004
5756000000.0 -1.076 -0.2793
5759000000.0 -0.89 0.6401
5762000000.0 -0.05574 1.091
5766000000.0 0.8114 0.7775
5769000000.0 1.106 -0.1126
5772000000.0 0.5928 -0.8858
5775000000.0 -0.3212 -1.066
5778000000.0 -0.9958 -0.4406
5781000000.0 -0.9829 0.4756
5784000000.0 -0.2339 1.036
5788000000.0 0.6708 0.8789
5791000000.0 1.146 0.04456
5794000000.0 0.7259 -0.7834
5797000000.0 -0.1173 -1.062
5800000000.0 -0.8735 -0.5689
5803000000.0 -1.002 0.3273
5806000000.0 -0.4185 1.006
5809000000.0 0.4963 0.9305
5812000000.0 1.026 0.2095
5816000000.0 0.8511 -0.6969
5819000000.0 -0.01621 -1.039
5822000000.0 -0.8031 -0.6545
5825000000.0 -0.9941 0.2058
5828000000.0 -0.4663 0.9129
5831000000.0 0.4137 0.9275
5834000000.0 0.9495 0.2824
5838000000.0 0.8165 -0.5521
5841000000.0 0.07139 -0.9556
5844000000.0 -0.7076 -0.6713
5847000000.0 -0.9138 0.12
5850000000.0 -0.4988 0.8273
5853000000.0 0.3075 0.8868
5856000000.0 0.8866 0.3272
5859000000.0 0.7845 -0.5102
5862000000.0 0.1012 -0.9359
5866000000.0 -0.6567 -0.6542
5869000000.0 -0.934 0.09924
5872000000.0 -0.4826 0.7803
5875000000.0 0.2287 0.852
5878000000.0 0.8563 0.2926
5881000000.0 0.7525 -0.425
5884000000.0 0.1221 -0.8854
5888000000.0 -0.5892 -0.6724
5891000000.0 -0.858 0.06126
5894000000.0 -0.5 0.7163
5897000000.0 0.2155 0.8303
5900000000.0 0.8213 0.3404
5903000000.0 0.7678 -0.394
5906000000.0 0.1462 -0.8295
5909000000.0 -0.5432 -0.6854
5912000000.0 -0.8738 -0.006749
5916000000.0 -0.5158 0.6755
5919000000.0 0.151 0.873
5922000000.0 0.7775 0.4239
5925000000.0 0.8175 -0.3667
5928000000.0 0.2578 -0.8506
5931000000.0 -0.4754 -0.7293
5934000000.0 -0.8703 -0.1281
5938000000.0 -0.6346 0.6201
5941000000.0 0.04186 0.9034
5944000000.0 0.7048 0.5285
5947000000.0 0.8617 -0.2192
5950000000.0 0.3832 -0.7718
5953000000.0 -0.3663 -0.8571
5956000000.0 -0.9011 -0.2531
5959000000.0 -0.7493 0.5251
5962000000.0 -0.09465 0.9388
5966000000.0 0.701 0.6238
5969000000.0 0.9543 -0.08709
5972000000.0 0.5237 -0.757
5975000000.0 -0.263 -0.9304
5978000000.0 -0.9032 -0.381
5981000000.0 -0.8533 0.4326
5984000000.0 -0.2414 0.9425
5988000000.0 0.5707 0.7623
5991000000.0 0.9734 0.0435
5994000000.0 0.6716 -0.7071
5997000000.0 -0.1062 -0.9914
6000000000.0 -0.8473 -0.5326
6003000000.0 -0.9496 0.2898
6006000000.0 -0.3613 0.9262
6009000000.0 0.4796 0.8807
6012000000.0 0.9885 0.171
6016000000.0 0.7604 -0.6427
6019000000.0 -0.03276 -1.013
6022000000.0 -0.7804 -0.6146
6025000000.0 -0.9911 0.1874
6028000000.0 -0.4561 0.8692
6031000000.0 0.4012 0.8886
6034000000.0 0.9543 0.2675
6038000000.0 0.8033 -0.5511
6041000000.0 0.08182 -0.9598
6044000000.0 -0.6945 -0.6639
6047000000.0 -0.9506 0.1603
6050000000.0 -0.5007 0.8158
6053000000.0 0.2987 0.8893
6056000000.0 0.8912 0.3406
6059000000.0 0.794 -0.4824
6062000000.0 0.1194 -0.9294
6066000000.0 -0.6554 -0.684
6069000000.0 -0.9317 0.07561
6072000000.0 -0.5332 0.7314
6075000000.0 0.2637 0.8576
6078000000.0 0.8261 0.349
6081000000.0 0.8084 -0.4163
6084000000.0 0.1707 -0.8425
6088000000.0 -0.571 -0.6721
6091000000.0 -0.882 0.006141
6094000000.0 -0.5155 0.7057
6097000000.0 0.2081 0.8504
6100000000.0 0.756 0.3775
6103000000.0 0.7996 -0.3772
6106000000.0 0.2045 -0.8028
6109000000.0 -0.5087 -0.6877
6112000000.0 -0.8455 -0.02893
6116000000.0 -0.5972 0.65
6119000000.0 0.1658 0.8554
6122000000.0 0.781 0.4179
6125000000.0 0.7893 -0.3535
6128000000.0 0.224 -0.8179
6131000000.0 -0.52 -0.6856
6134000000.0 -0.8642 -0.05932
6138000000.0 -0.5849 0.6145
6141000000.0 0.1097 0.8761
6144000000.0 0.762 0.4381
6147000000.0 0.8573 -0.2848
6150000000.0 0.285 -0.824
6153000000.0 -0.445 -0.7703
6156000000.0 -0.8755 -0.1193
6159000000.0 -0.6774 0.6102
6162000000.0 0.05517 0.8918
6166000000.0 0.7079 0.5459
6169000000.0 0.879 -0.2372
6172000000.0 0.3912 -0.8164
6175000000.0 -0.3825 -0.887
6178000000.0 -0.9192 -0.2018
6181000000.0 -0.7397 0.5777
6184000000.0 -0.04177 0.9533
6188000000.0 0.6707 0.6179
6191000000.0 0.9258 -0.163
6194000000.0 0.4579 -0.7942
6197000000.0 -0.3264 -0.8834
6200000000.0 -0.8842 -0.324
6203000000.0 -0.8096 0.492
6206000000.0 -0.1131 0.9603
6209000000.0 0.6339 0.6846
6212000000.0 0.9406 -0.06004
6216000000.0 0.5609 -0.7341
6219000000.0 -0.204 -0.8858
6222000000.0 -0.8276 -0.4012
6225000000.0 -0.8266 0.3816
6228000000.0 -0.252 0.868
6231000000.0 0.4966 0.6961
6234000000.0 0.8902 0.06044
6238000000.0 0.6419 -0.6406
6241000000.0 -0.1061 -0.8847
6244000000.0 -0.7518 -0.463
6247000000.0 -0.7936 0.2441
6250000000.0 -0.3263 0.7884
6253000000.0 0.3914 0.7737
6256000000.0 0.8219 0.2085
6259000000.0 0.6546 -0.5093
6262000000.0 0.05953 -0.816
6266000000.0 -0.5883 -0.557
