! Created with skrf 1.8.0 (http://scikit-rf.org).
# Hz S RI R 50.0 
!freq ReS11 ImS11
4000000000.0 -0.772 -1.348
4003000000.0 -1.511 -0.2047
4006000000.0 -1.063 1.063
4009000000.0 0.126 1.567
4012000000.0 1.309 0.8769
4016000000.0 1.525 -0.463
4019000000.0 0.5792 -1.481
4022000000.0 -0.805 -1.397
4025000000.0 -1.614 -0.2466
4028000000.0 -1.176 1.149
4031000000.0 0.1383 1.68
4034000000.0 1.408 0.9304
4038000000.0 1.603 -0.5012
4041000000.0 0.5686 -1.565
4044000000.0 -0.8263 -1.437
4047000000.0 -1.632 -0.2077
4050000000.0 -1.193 1.084
4053000000.0 0.1486 1.642
4056000000.0 1.329 0.945
4059000000.0 1.586 -0.4395
4062000000.0 0.661 -1.512
4066000000.0 -0.7235 -1.435
4069000000.0 -1.568 -0.3783
4072000000.0 -1.303 0.9307
4075000000.0 -0.09667 1.6
4078000000.0 1.204 1.048
4081000000.0 1.604 -0.2062
4084000000.0 0.8546 -1.399
4088000000.0 -0.4936 -1.536
4091000000.0 -1.493 -0.5711
4094000000.0 -1.398 0.8112
4097000000.0 -0.2498 1.57
4100000000.0 1.01 1.209
4103000000.0 1.543 -0.007132
4106000000.0 0.953 -1.161
4109000000.0 -0.3447 -1.47
4112000000.0 -1.287 -0.707
4116000000.0 -1.338 0.553
4119000000.0 -0.463 1.37
4122000000.0 0.7462 1.225
4125000000.0 1.367 0.253
4128000000.0 1.052 -0.8885
4131000000.0 0.02657 -1.395
4134000000.0 -1.079 -0.9305
4138000000.0 -1.412 0.2247
4141000000.0 -0.7034 1.23
4144000000.0 0.4776 1.369
4147000000.0 1.347 0.5071
4150000000.0 1.27 -0.7346
4153000000.0 0.2046 -1.476
4156000000.0 -1.049 -1.046
4159000000.0 -1.449 0.1091
4162000000.0 -0.8268 1.236
4166000000.0 0.4581 1.391
4169000000.0 1.348 0.5103
4172000000.0 1.271 -0.7801
4175000000.0 0.1738 -1.455
4178000000.0 -1.032 -1.025
4181000000.0 -1.452 0.1879
4184000000.0 -0.7549 1.242
4188000000.0 0.5256 1.334
4191000000.0 1.437 0.4012
4194000000.0 1.179 -0.885
4197000000.0 -0.04759 -1.505
4200000000.0 -1.229 -0.8904
4203000000.0 -1.413 0.4488
4206000000.0 -0.466 1.467
4209000000.0 0.8837 1.252
4212000000.0 1.508 -0.0454
4216000000.0 0.9064 -1.233
4219000000.0 -0.4541 -1.455
4222000000.0 -1.417 -0.4556
4225000000.0 -1.207 0.8538
4228000000.0 -0.01634 1.468
4231000000.0 1.149 0.8796
4234000000.0 1.424 -0.4209
4238000000.0 0.5197 -1.311
4241000000.0 -0.7227 -1.197
4244000000.0 -1.372 -0.1474
4247000000.0 -0.9238 0.9673
4250000000.0 0.1827 1.38
4253000000.0 1.184 0.6936
4256000000.0 1.255 -0.4921
4259000000.0 0.3772 -1.289
4262000000.0 -0.7712 -1.123
4266000000.0 -1.353 -0.08633
4269000000.0 -0.959 1.005
4272000000.0 0.2032 1.378
4275000000.0 1.215 0.6978
4278000000.0 1.312 -0.4902
4281000000.0 0.404 -1.333
4284000000.0 -0.7569 -1.131
4288000000.0 -1.361 -0.1368
4291000000.0 -0.9915 0.9827
4294000000.0 0.1676 1.328
4297000000.0 1.155 0.7502
4300000000.0 1.32 -0.4111
4303000000.0 0.5089 -1.266
4306000000.0 -0.6139 -1.216
4309000000.0 -1.352 -0.2674
4312000000.0 -1.1 0.8947
4316000000.0 0.004891 1.418
4319000000.0 1.084 0.8795
4322000000.0 1.392 -0.2827
4325000000.0 0.7231 -1.299
4328000000.0 -0.6018 -1.392
4331000000.0 -1.493 -0.4006
4334000000.0 -1.257 0.9348
4338000000.0 -0.01624 1.585
4341000000.0 1.241 0.9697
4344000000.0 1.565 -0.4156
4347000000.0 0.6037 -1.512
4350000000.0 -0.8176 -1.386
4353000000.0 -1.613 -0.198
4356000000.0 -1.104 1.165
4359000000.0 0.2567 1.588
4362000000.0 1.387 0.6889
4366000000.0 1.363 -0.6821
4369000000.0 0.2865 -1.513
4372000000.0 -1.015 -1.104
4375000000.0 -1.473 0.1654
4378000000.0 -0.7648 1.266
4381000000.0 0.539 1.309
4384000000.0 1.414 0.3587
4388000000.0 1.09 -0.8811
4391000000.0 -0.04251 -1.406
4394000000.0 -1.149 -0.7627
4397000000.0 -1.279 0.4256
4400000000.0 -0.3903 1.313
4403000000.0 0.7721 1.071
4406000000.0 1.326 0.04917
4409000000.0 0.8207 -1.016
4412000000.0 -0.2653 -1.26
4416000000.0 -1.147 -0.5339
4419000000.0 -1.131 0.5763
4422000000.0 -0.2518 1.238
4425000000.0 0.8305 0.9588
4428000000.0 1.236 -0.03704
4431000000.0 0.7838 -0.9969
4434000000.0 -0.2758 -1.202
4438000000.0 -1.148 -0.5065
4441000000.0 -1.144 0.601
4444000000.0 -0.2709 1.252
4447000000.0 0.7893 1.001
4450000000.0 1.317 -0.03841
4453000000.0 0.8487 -1.023
4456000000.0 -0.2598 -1.325
4459000000.0 -1.183 -0.6447
4462000000.0 -1.247 0.5163
4466000000.0 -0.4176 1.343
4469000000.0 0.7972 1.172
4472000000.0 1.401 0.1258
4475000000.0 1.004 -1.015
4478000000.0 -0.1801 -1.431
4481000000.0 -1.266 -0.7708
4484000000.0 -1.394 0.4431
4488000000.0 -0.523 1.366
4491000000.0 0.7575 1.275
4494000000.0 1.458 0.276
4497000000.0 1.155 -0.9904
4500000000.0 -0.03989 -1.526
4503000000.0 -1.149 -0.8994
4506000000.0 -1.418 0.3498
4509000000.0 -0.6546 1.311
4512000000.0 0.617 1.338
4516000000.0 1.443 0.3629
4519000000.0 1.229 -0.8766
4522000000.0 0.0685 -1.519
4525000000.0 -1.146 -0.9888
4528000000.0 -1.495 0.2907
4531000000.0 -0.7015 1.341
4534000000.0 0.5834 1.355
4538000000.0 1.433 0.397
4541000000.0 1.163 -0.8768
4544000000.0 0.07152 -1.452
4547000000.0 -1.117 -0.939
4550000000.0 -1.407 0.2958
4553000000.0 -0.6565 1.261
4556000000.0 0.5747 1.277
4559000000.0 1.332 0.335
4562000000.0 1.083 -0.8779
4566000000.0 0.004562 -1.352
4569000000.0 -1.064 -0.815
4572000000.0 -1.278 0.297
4575000000.0 -0.5159 1.164
4578000000.0 0.5991 1.12
4581000000.0 1.244 0.2306
4584000000.0 0.9225 -0.8541
4588000000.0 -0.09327 -1.248
4591000000.0 -1.026 -0.6799
4594000000.0 -1.142 0.4291
4597000000.0 -0.33 1.131
4600000000.0 0.686 0.9535
4603000000.0 1.175 0.07372
4606000000.0 0.7632 -0.881
4609000000.0 -0.207 -1.129
4612000000.0 -0.9994 -0.4959
4616000000.0 -0.9543 0.4649
4619000000.0 -0.252 1.083
4622000000.0 0.7119 0.8493
4625000000.0 1.106 -0.01357
4628000000.0 0.6716 -0.8745
4631000000.0 -0.2831 -1.08
4634000000.0 -1.012 -0.4464
4638000000.0 -0.998 0.5517
4641000000.0 -0.1878 1.102
4644000000.0 0.7779 0.8649
4647000000.0 1.133 -0.05512
4650000000.0 0.6696 -0.9278
4653000000.0 -0.3278 -1.119
4656000000.0 -1.106 -0.4777
4659000000.0 -1.031 0.5475
4662000000.0 -0.2482 1.165
4666000000.0 0.79 0.931
4669000000.0 1.221 -0.06301
4672000000.0 0.7195 -0.9489
4675000000.0 -0.2777 -1.2
4678000000.0 -1.119 -0.5454
4681000000.0 -1.111 0.5575
4684000000.0 -0.2947 1.198
4688000000.0 0.721 1.067
4691000000.0 1.28 0.1322
4694000000.0 0.8908 -0.967
4697000000.0 -0.2207 -1.318
4700000000.0 -1.138 -0.7176
4703000000.0 -1.271 0.4371
4706000000.0 -0.4743 1.333
4709000000.0 0.7845 1.187
4712000000.0 1.396 0.1357
4716000000.0 1.01 -1.01
4719000000.0 -0.2118 -1.447
4722000000.0 -1.239 -0.6953
4725000000.0 -1.306 0.5287
4728000000.0 -0.3836 1.326
4731000000.0 0.8286 1.14
4734000000.0 1.385 0.05487
4738000000.0 0.8864 -1.008
4741000000.0 -0.2852 -1.317
4744000000.0 -1.181 -0.5735
4747000000.0 -1.176 0.5944
4750000000.0 -0.2427 1.29
4753000000.0 0.8139 0.9575
4756000000.0 1.277 -0.09556
4759000000.0 0.6946 -1.056
4762000000.0 -0.4042 -1.118
4766000000.0 -1.128 -0.3783
4769000000.0 -0.9212 0.68
4772000000.0 -0.01922 1.169
4775000000.0 0.8768 0.6881
4778000000.0 1.067 -0.2845
4781000000.0 0.4228 -0.9748
4784000000.0 -0.5246 -0.8971
4788000000.0 -1.007 -0.1003
4791000000.0 -0.6778 0.7106
4794000000.0 0.1657 0.9563
4797000000.0 0.8316 0.4437
4800000000.0 0.8383 -0.3639
4803000000.0 0.2292 -0.8659
4806000000.0 -0.5637 -0.6922
4809000000.0 -0.8918 0.03344
4812000000.0 -0.5254 0.7037
4816000000.0 0.2472 0.8579
4819000000.0 0.8379 0.3227
4822000000.0 0.7693 -0.47
4825000000.0 0.1021 -0.9158
4828000000.0 -0.6495 -0.6648
4831000000.0 -0.9269 0.1042
4834000000.0 -0.5017 0.7938
4838000000.0 0.3233 0.8819
4841000000.0 0.9242 0.2949
4844000000.0 0.8155 -0.5541
4847000000.0 0.08827 -0.9934
4850000000.0 -0.7453 -0.7255
4853000000.0 -1.041 0.1212
4856000000.0 -0.5592 0.909
4859000000.0 0.3675 1.058
4862000000.0 1.062 0.3952
4866000000.0 0.9851 -0.6074
4869000000.0 0.1506 -1.152
4872000000.0 -0.8219 -0.8681
4875000000.0 -1.248 0.07004
4878000000.0 -0.6746 1.054
4881000000.0 0.3968 1.219
4884000000.0 1.215 0.4143
4888000000.0 1.113 -0.6733
4891000000.0 0.1572 -1.332
4894000000.0 -0.9377 -0.9589
4897000000.0 -1.336 0.173
4900000000.0 -0.6916 1.153
4903000000.0 0.4824 1.236
4906000000.0 1.271 0.4067
4909000000.0 1.107 -0.7712
4912000000.0 0.06794 -1.316
4916000000.0 -0.9534 -0.8811
4919000000.0 -1.267 0.2124
4922000000.0 -0.5791 1.102
4925000000.0 0.4976 1.157
4928000000.0 1.181 0.2908
4931000000.0 0.9743 -0.7249
4934000000.0 0.04082 -1.177
4938000000.0 -0.8945 -0.737
4941000000.0 -1.111 0.2142
4944000000.0 -0.5225 0.9764
4947000000.0 0.4568 0.9843
4950000000.0 1.044 0.228
4953000000.0 0.8534 -0.63
4956000000.0 0.0007863 -1.069
4959000000.0 -0.8142 -0.6363
4962000000.0 -0.9833 0.24
4966000000.0 -0.41 0.8896
4969000000.0 0.47 0.8661
4972000000.0 0.9434 0.1611
4975000000.0 0.7307 -0.6115
4978000000.0 -0.04133 -0.9185
4981000000.0 -0.7407 -0.5472
4984000000.0 -0.8858 0.2537
4988000000.0 -0.3451 0.825
4991000000.0 0.4403 0.7819
4994000000.0 0.9053 0.1425
4997000000.0 0.6847 -0.6153
5000000000.0 -0.05264 -0.9216
5003000000.0 -0.7606 -0.5396
5006000000.0 -0.9019 0.2346
5009000000.0 -0.3695 0.8781
5012000000.0 0.4643 0.8291
5016000000.0 0.9659 0.1524
5019000000.0 0.7345 -0.674
5022000000.0 -0.07226 -1.008
5025000000.0 -0.8123 -0.5767
5028000000.0 -0.992 0.2838
5031000000.0 -0.384 0.9573
5034000000.0 0.4902 0.9391
5038000000.0 1.042 0.2035
5041000000.0 0.8403 -0.7531
5044000000.0 -0.04105 -1.11
5047000000.0 -0.9037 -0.692
5050000000.0 -1.138 0.2602
5053000000.0 -0.5299 1.058
5056000000.0 0.5178 1.062
5059000000.0 1.144 0.3105
5062000000.0 0.96 -0.7157
5066000000.0 0.08 -1.269
5069000000.0 -0.9263 -0.8596
5072000000.0 -1.263 0.1912
5075000000.0 -0.6562 1.122
5078000000.0 0.4638 1.227
5081000000.0 1.224 0.4403
5084000000.0 1.099 -0.7006
5088000000.0 0.1482 -1.288
5091000000.0 -0.8344 -0.883
5094000000.0 -1.308 0.1049
5097000000.0 -0.6993 0.9915
5100000000.0 0.3186 1.185
5103000000.0 1.101 0.5205
5106000000.0 1.104 -0.5045
5109000000.0 0.304 -1.163
5112000000.0 -0.7233 -0.9663
5116000000.0 -1.185 -0.1001
5119000000.0 -0.825 0.8122
5122000000.0 0.1362 1.175
5125000000.0 0.973 0.6484
5128000000.0 1.084 -0.3174
5131000000.0 0.4691 -1.055
5134000000.0 -0.4663 -0.9866
5138000000.0 -1.101 -0.2731
5141000000.0 -0.8659 0.7039
5144000000.0 -0.05443 1.092
5147000000.0 0.7907 0.6922
5150000000.0 1.049 -0.1757
5153000000.0 0.5117 -0.9068
5156000000.0 -0.3512 -0.9588
5159000000.0 -0.9388 -0.3366
5162000000.0 -0.8906 0.4939
5166000000.0 -0.1702 0.976
5169000000.0 0.6025 0.73
5172000000.0 0.9367 -0.02951
5175000000.0 0.5933 -0.7405
5178000000.0 -0.1942 -0.9494
5181000000.0 -0.8388 -0.3966
5184000000.0 -0.8625 0.41
5188000000.0 -0.2579 0.8981
5191000000.0 0.5893 0.7193
5194000000.0 0.9353 0.04657
5197000000.0 0.6041 -0.7194
5200000000.0 -0.2101 -0.9096
5203000000.0 -0.8499 -0.4088
5206000000.0 -0.8339 0.3598
5209000000.0 -0.2233 0.9143
5212000000.0 0.5919 0.7498
5216000000.0 0.9334 0.01316
5219000000.0 0.5969 -0.7309
5222000000.0 -0.1862 -0.9108
5225000000.0 -0.8761 -0.4083
5228000000.0 -0.8163 0.3984
5231000000.0 -0.213 0.9574
5234000000.0 0.6135 0.7598
5238000000.0 0.9778 -0.03371
5241000000.0 0.5838 -0.7689
5244000000.0 -0.2372 -0.9623
5247000000.0 -0.8974 -0.3982
5250000000.0 -0.8938 0.4421
5253000000.0 -0.2473 1.008
5256000000.0 0.615 0.8178
5259000000.0 1.033 0.007417
5262000000.0 0.6649 -0.8042
5266000000.0 -0.1692 -1.023
5269000000.0 -0.9142 -0.5075
5272000000.0 -0.9641 0.3793
5275000000.0 -0.3112 1.009
5278000000.0 0.5664 0.8716
5281000000.0 1.046 0.1354
5284000000.0 0.795 -0.7251
5288000000.0 -0.05267 -1.072
5291000000.0 -0.8643 -0.6568
5294000000.0 -1.053 0.2087
5297000000.0 -0.529 0.9778
5300000000.0 0.4038 1.019
5303000000.0 1.04 0.3296
5306000000.0 0.9204 -0.5737
5309000000.0 0.1717 -1.09
5312000000.0 -0.7451 -0.8357
5316000000.0 -1.142 0.04614
5319000000.0 -0.7413 0.8754
5322000000.0 0.2208 1.143
5325000000.0 0.9707 0.5572
5328000000.0 1.089 -0.4392
5331000000.0 0.3969 -1.091
5334000000.0 -0.5865 -0.966
5338000000.0 -1.111 -0.176
5341000000.0 -0.8668 0.7506
5344000000.0 0.02331 1.156
5347000000.0 0.8987 0.7282
5350000000.0 1.119 -0.2035
5353000000.0 0.5784 -0.9929
5356000000.0 -0.4057 -1.077
5359000000.0 -1.075 -0.3597
5362000000.0 -0.9418 0.5779
5366000000.0 -0.1672 1.131
5369000000.0 0.7456 0.8767
5372000000.0 1.127 -0.03675
5375000000.0 0.6958 -0.9099
5378000000.0 -0.2985 -1.092
5381000000.0 -1.001 -0.4588
5384000000.0 -1.012 0.4831
5388000000.0 -0.2587 1.079
5391000000.0 0.6542 0.8696
5394000000.0 1.043 -0.0006378
5397000000.0 0.6554 -0.8313
5400000000.0 -0.2313 -1.033
5403000000.0 -0.9333 -0.4532
5406000000.0 -0.924 0.4253
5409000000.0 -0.2481 0.9584
5412000000.0 0.5826 0.7657
5416000000.0 0.979 0.01337
5419000000.0 0.6252 -0.7357
5422000000.0 -0.1967 -0.9166
5425000000.0 -0.8383 -0.4215
5428000000.0 -0.8376 0.3756
5431000000.0 -0.2113 0.8877
5434000000.0 0.5845 0.7053
5438000000.0 0.8994 -0.03912
5441000000.0 0.5371 -0.7099
5444000000.0 -0.2456 -0.8578
5447000000.0 -0.8296 -0.3127
5450000000.0 -0.7756 0.4342
5453000000.0 -0.127 0.8707
5456000000.0 0.6025 0.6057
5459000000.0 0.8361 -0.0478
5462000000.0 0.477 -0.6959
5466000000.0 -0.2232 -0.8086
5469000000.0 -0.8018 -0.3576
5472000000.0 -0.7645 0.4056
5475000000.0 -0.1859 0.8818
5478000000.0 0.5664 0.6741
5481000000.0 0.8646 0.008488
5484000000.0 0.5654 -0.6821
5488000000.0 -0.2089 -0.8634
5491000000.0 -0.8035 -0.404
5494000000.0 -0.8546 0.3396
5497000000.0 -0.2516 0.8461
5500000000.0 0.4683 0.7706
5503000000.0 0.8967 0.06918
5506000000.0 0.7021 -0.6521
5509000000.0 -0.09185 -0.9152
5512000000.0 -0.7733 -0.5327
5516000000.0 -0.9163 0.2426
5519000000.0 -0.4427 0.8574
5522000000.0 0.3938 0.866
5525000000.0 0.9268 0.2761
5528000000.0 0.8065 -0.5618
5531000000.0 0.08452 -0.955
5534000000.0 -0.6786 -0.6988
5538000000.0 -1.03 0.0586
5541000000.0 -0.5875 0.8377
5544000000.0 0.2707 1.01
5547000000.0 0.9328 0.4697
5550000000.0 0.957 -0.4149
5553000000.0 0.2849 -1.018
5556000000.0 -0.5636 -0.8715
5559000000.0 -1.066 -0.1367
5562000000.0 -0.7372 0.7415
5566000000.0 0.08702 1.06
5569000000.0 0.8486 0.6064
5572000000.0 1.006 -0.2326
5575000000.0 0.428 -0.9431
5578000000.0 -0.4403 -0.9475
5581000000.0 -0.9861 -0.2629
5584000000.0 -0.8449 0.5949
5588000000.0 -0.06229 1.024
5591000000.0 0.7537 0.7103
5594000000.0 1.013 -0.09041
5597000000.0 0.5658 -0.8447
5600000000.0 -0.2948 -0.9363
5603000000.0 -0.9276 -0.4066
5606000000.0 -0.8636 0.4589
5609000000.0 -0.189 0.9743
5612000000.0 0.5736 0.7741
5616000000.0 0.9489 -0.002371
5619000000.0 0.6079 -0.7392
5622000000.0 -0.1385 -0.9309
5625000000.0 -0.8325 -0.4298
5628000000.0 -0.8548 0.3497
5631000000.0 -0.2489 0.8726
5634000000.0 0.4877 0.7349
5638000000.0 0.8873 0.08112
5641000000.0 0.6016 -0.6368
5644000000.0 -0.1311 -0.8762
5647000000.0 -0.7557 -0.4592
5650000000.0 -0.8331 0.3107
5653000000.0 -0.2577 0.8257
5656000000.0 0.4496 0.7154
5659000000.0 0.8732 0.08897
5662000000.0 0.5839 -0.603
5666000000.0 -0.09867 -0.8464
5669000000.0 -0.7382 -0.4467
5672000000.0 -0.8057 0.2932
5675000000.0 -0.2889 0.8077
5678000000.0 0.4606 0.7334
5681000000.0 0.8929 0.06607
5684000000.0 0.6392 -0.6464
5688000000.0 -0.148 -0.8692
5691000000.0 -0.791 -0.4444
5694000000.0 -0.8413 0.3361
5697000000.0 -0.2559 0.8692
5700000000.0 0.5319 0.7533
5703000000.0 0.9178 0.05672
5706000000.0 0.6487 -0.6932
5709000000.0 -0.1104 -0.931
5712000000.0 -0.8558 -0.49
5716000000.0 -0.9016 0.3402
5719000000.0 -0.3083 0.9227
5722000000.0 0.542 0.8327
5725000000.0 0.9954 0.1348
5728000000.0 0.7136 -0.7084
5731000000.0 -0.07603 -1.0
5734000000.0 -0.84 -0.5859
5738000000.0 -0.9782 0.2689
5741000000.0 -0.443 0.977
5744000000.0 0.4755 0.9129
5747000000.0 1.012 0.2361
5750000000.0 0.8173 -0.6438
5753000000.0 0.06655 -1.044
5756000000.0 -0.8092 -0.6948
5759000000.0 -1.034 0.1501
5762000000.0 -0.5687 0.9042
5766000000.0 0.3287 1.008
5769000000.0 1.058 0.4189
5772000000.0 0.9418 -0.512
5775000000.0 0.2075 -1.076
5778000000.0 -0.7021 -0.8102
5781000000.0 -1.071 -0.0001282
5784000000.0 -0.6961 0.8215
5788000000.0 0.1843 1.045
5791000000.0 0.9304 0.5375
5794000000.0 1.017 -0.3669
5797000000.0 0.3719 -1.035
5800000000.0 -0.5621 -0.9539
5803000000.0 -1.036 -0.1849
5806000000.0 -0.8126 0.7095
5809000000.0 -0.001339 1.11
5812000000.0 0.8323 0.6637
5816000000.0 1.03 -0.2111
5819000000.0 0.4992 -0.93
5822000000.0 -0.4212 -0.9604
5825000000.0 -0.9761 -0.3342
5828000000.0 -0.878 0.5466
5831000000.0 -0.1165 1.001
5834000000.0 0.718 0.7095
5838000000.0 1.014 -0.06583
5841000000.0 0.5821 -0.8089
5844000000.0 -0.2641 -0.9743
5847000000.0 -0.9327 -0.4042
5850000000.0 -0.914 0.4458
5853000000.0 -0.199 0.9382
5856000000.0 0.5964 0.7929
5859000000.0 0.9561 -0.01774
5862000000.0 0.5986 -0.7615
5866000000.0 -0.2155 -0.9287
5869000000.0 -0.8566 -0.4106
5872000000.0 -0.88 0.3892
5875000000.0 -0.1959 0.933
5878000000.0 0.5745 0.7393
5881000000.0 0.933 0.009995
5884000000.0 0.5762 -0.718
5888000000.0 -0.1663 -0.8474
5891000000.0 -0.8 -0.4032
5894000000.0 -0.8417 0.3866
5897000000.0 -0.2409 0.8394
5900000000.0 0.5127 0.706
5903000000.0 0.8648 0.0403
5906000000.0 0.5874 -0.6386
5909000000.0 -0.1424 -0.8211
5912000000.0 -0.7515 -0.4265
5916000000.0 -0.7984 0.2842
5919000000.0 -0.2836 0.8222
5922000000.0 0.4559 0.7295
5925000000.0 0.8298 0.1451
5928000000.0 0.5803 -0.592
5931000000.0 -0.08797 -0.8552
5934000000.0 -0.7087 -0.4582
5938000000.0 -0.8535 0.2125
5941000000.0 -0.3381 0.7758
5944000000.0 0.3815 0.7385
5947000000.0 0.8278 0.1561
5950000000.0 0.6763 -0.5441
5953000000.0 0.02139 -0.8586
5956000000.0 -0.6561 -0.5746
5959000000.0 -0.8552 0.157
5962000000.0 -0.4736 0.7459
5966000000.0 0.2766 0.8542
5969000000.0 0.8471 0.3109
5972000000.0 0.792 -0.4389
5975000000.0 0.1814 -0.9254
5978000000.0 -0.5481 -0.7027
5981000000.0 -0.9288 0.01557
5984000000.0 -0.6001 0.7229
5988000000.0 0.1805 0.925
5991000000.0 0.8281 0.4678
5994000000.0 0.9017 -0.3151
5997000000.0 0.3326 -0.9391
6000000000.0 -0.4943 -0.8449
6003000000.0 -0.9529 -0.1548
6006000000.0 -0.6917 0.6577
6009000000.0 0.0329 0.9633
6012000000.0 0.7753 0.6062
6016000000.0 0.973 -0.2275
6019000000.0 0.4479 -0.854
6022000000.0 -0.3877 -0.8959
6025000000.0 -0.9521 -0.2505
6028000000.0 -0.8199 0.5369
6031000000.0 -0.1005 0.9445
6034000000.0 0.7078 0.6853
6038000000.0 0.9655 -0.1165
6041000000.0 0.5369 -0.8202
6044000000.0 -0.2903 -0.9517
6047000000.0 -0.9125 -0.3717
6050000000.0 -0.8841 0.4737
6053000000.0 -0.1805 0.9598
6056000000.0 0.646 0.7544
6059000000.0 0.9849 -0.01625
6062000000.0 0.6007 -0.7589
6066000000.0 -0.2292 -0.9345
6069000000.0 -0.8817 -0.3989
6072000000.0 -0.861 0.4192
6075000000.0 -0.2202 0.92
6078000000.0 0.5655 0.7248
6081000000.0 0.9098 0.01046
6084000000.0 0.593 -0.6658
6088000000.0 -0.1619 -0.8778
6091000000.0 -0.7816 -0.418
6094000000.0 -0.8033 0.3748
6097000000.0 -0.2421 0.8669
6100000000.0 0.4811 0.7246
6103000000.0 0.8669 0.0548
6106000000.0 0.6008 -0.6359
6109000000.0 -0.122 -0.8561
6112000000.0 -0.7434 -0.4181
6116000000.0 -0.8389 0.2889
6119000000.0 -0.2975 0.8188
6122000000.0 0.4828 0.7159
6125000000.0 0.8553 0.07944
6128000000.0 0.5985 -0.6186
6131000000.0 -0.09169 -0.848
6134000000.0 -0.7214 -0.468
6138000000.0 -0.8055 0.2816
6141000000.0 -0.3059 0.7872
6144000000.0 0.4347 0.7356
6147000000.0 0.8439 0.1045
6150000000.0 0.6684 -0.5616
6153000000.0 -0.06165 -0.8656
6156000000.0 -0.7384 -0.5197
6159000000.0 -0.8305 0.2281
6162000000.0 -0.3451 0.8056
6166000000.0 0.4023 0.7751
6169000000.0 0.8494 0.1819
6172000000.0 0.6861 -0.5428
6175000000.0 -0.01675 -0.9086
6178000000.0 -0.6853 -0.5576
6181000000.0 -0.8972 0.1441
6184000000.0 -0.4213 0.7921
6188000000.0 0.3408 0.8649
6191000000.0 0.8586 0.2391
6194000000.0 0.7082 -0.5208
6197000000.0 0.1135 -0.9202
6200000000.0 -0.6493 -0.6088
6203000000.0 -0.9303 0.06792
6206000000.0 -0.4528 0.7223
6209000000.0 0.2957 0.8821
6212000000.0 0.8469 0.3153
6216000000.0 0.7941 -0.4264
6219000000.0 0.1672 -0.9024
6222000000.0 -0.5784 -0.6735
6225000000.0 -0.8984 -0.004813
6228000000.0 -0.5847 0.6812
6231000000.0 0.181 0.8628
6234000000.0 0.778 0.4393
6238000000.0 0.8094 -0.3332
6241000000.0 0.2541 -0.8557
6244000000.0 -0.444 -0.7075
6247000000.0 -0.8649 -0.1168
6250000000.0 -0.6188 0.6153
6253000000.0 0.05048 0.8437
6256000000.0 0.6428 0.495
6259000000.0 0.8023 -0.174
6262000000.0 0.3713 -0.7114
6266000000.0 -0.3145 -0.7374
