! Created with skrf 1.8.0 (http://scikit-rf.org).
# Hz S RI R 50.0 
!freq ReS11 ImS11
4000000000.0 -0.8863 -1.285
4003000000.0 -1.522 -0.08101
4006000000.0 -1.034 1.162
4009000000.0 0.2381 1.564
4012000000.0 1.325 0.7493
4016000000.0 1.463 -0.5772
4019000000.0 0.4748 -1.559
4022000000.0 -0.9122 -1.331
4025000000.0 -1.623 -0.05879
4028000000.0 -1.111 1.26
4031000000.0 0.2656 1.672
4034000000.0 1.534 0.831
4038000000.0 1.576 -0.6758
4041000000.0 0.4473 -1.629
4044000000.0 -0.9838 -1.343
4047000000.0 -1.672 -0.0888
4050000000.0 -1.107 1.237
4053000000.0 0.2725 1.65
4056000000.0 1.456 0.832
4059000000.0 1.583 -0.5347
4062000000.0 0.5427 -1.522
4066000000.0 -0.8473 -1.358
4069000000.0 -1.603 -0.1973
4072000000.0 -1.184 1.092
4075000000.0 0.04841 1.601
4078000000.0 1.304 0.9601
4081000000.0 1.575 -0.3775
4084000000.0 0.6883 -1.443
4088000000.0 -0.6501 -1.467
4091000000.0 -1.529 -0.4153
4094000000.0 -1.339 0.8928
4097000000.0 -0.09636 1.569
4100000000.0 1.17 1.052
4103000000.0 1.536 -0.2201
4106000000.0 0.833 -1.293
4109000000.0 -0.4508 -1.424
4112000000.0 -1.38 -0.5402
4116000000.0 -1.274 0.661
4119000000.0 -0.3149 1.425
4122000000.0 0.885 1.114
4125000000.0 1.422 0.05353
4128000000.0 0.9383 -1.044
4131000000.0 -0.1638 -1.369
4134000000.0 -1.157 -0.7414
4138000000.0 -1.345 0.4167
4141000000.0 -0.5122 1.3
4144000000.0 0.7025 1.262
4147000000.0 1.429 0.2554
4150000000.0 1.103 -0.9592
4153000000.0 -0.05607 -1.443
4156000000.0 -1.164 -0.8307
4159000000.0 -1.381 0.4274
4162000000.0 -0.5454 1.365
4166000000.0 0.748 1.246
4169000000.0 1.472 0.1642
4172000000.0 1.012 -1.046
4175000000.0 -0.1934 -1.458
4178000000.0 -1.249 -0.7295
4181000000.0 -1.305 0.5808
4184000000.0 -0.3203 1.413
4188000000.0 0.9539 1.081
4191000000.0 1.446 -0.06185
4194000000.0 0.7875 -1.266
4197000000.0 -0.5613 -1.397
4200000000.0 -1.425 -0.3902
4203000000.0 -1.134 0.9224
4206000000.0 0.07423 1.499
4209000000.0 1.244 0.7841
4212000000.0 1.408 -0.5338
4216000000.0 0.3557 -1.431
4219000000.0 -0.9498 -1.159
4222000000.0 -1.495 0.08257
4225000000.0 -0.7684 1.251
4228000000.0 0.5354 1.332
4231000000.0 1.357 0.3952
4234000000.0 1.098 -0.9163
4238000000.0 -0.01511 -1.361
4241000000.0 -1.108 -0.8318
4244000000.0 -1.288 0.3398
4247000000.0 -0.5328 1.27
4250000000.0 0.6298 1.225
4253000000.0 1.325 0.2836
4256000000.0 1.011 -0.8234
4259000000.0 -0.05806 -1.345
4262000000.0 -1.073 -0.8577
4266000000.0 -1.338 0.3448
4269000000.0 -0.565 1.26
4272000000.0 0.6124 1.209
4275000000.0 1.414 0.2886
4278000000.0 1.081 -0.8943
4281000000.0 -0.0164 -1.429
4284000000.0 -1.14 -0.8869
4288000000.0 -1.378 0.3273
4291000000.0 -0.6123 1.334
4294000000.0 0.6106 1.262
4297000000.0 1.396 0.3292
4300000000.0 1.163 -0.9075
4303000000.0 0.06233 -1.444
4306000000.0 -1.099 -0.9434
4309000000.0 -1.42 0.2773
4312000000.0 -0.7468 1.285
4316000000.0 0.5437 1.37
4319000000.0 1.457 0.4648
4322000000.0 1.281 -0.9029
4325000000.0 0.1124 -1.574
4328000000.0 -1.19 -0.9981
4331000000.0 -1.545 0.3123
4334000000.0 -0.7166 1.445
4338000000.0 0.7681 1.461
4341000000.0 1.616 0.2551
4344000000.0 1.204 -1.157
4347000000.0 -0.2001 -1.631
4350000000.0 -1.449 -0.7733
4353000000.0 -1.443 0.6931
4356000000.0 -0.336 1.588
4359000000.0 1.057 1.193
4362000000.0 1.526 -0.153
4366000000.0 0.7951 -1.283
4369000000.0 -0.5751 -1.372
4372000000.0 -1.439 -0.3809
4375000000.0 -1.086 0.8871
4378000000.0 0.01921 1.38
4381000000.0 1.14 0.8176
4384000000.0 1.306 -0.4151
4388000000.0 0.4717 -1.302
4391000000.0 -0.7587 -1.134
4394000000.0 -1.37 -0.08139
4397000000.0 -0.8751 0.9992
4400000000.0 0.2394 1.296
4403000000.0 1.209 0.6164
4406000000.0 1.224 -0.5412
4409000000.0 0.2843 -1.312
4412000000.0 -0.8539 -0.9851
4416000000.0 -1.302 0.007614
4419000000.0 -0.8021 0.9988
4422000000.0 0.307 1.241
4425000000.0 1.182 0.5289
4428000000.0 1.182 -0.5706
4431000000.0 0.2714 -1.266
4434000000.0 -0.8314 -1.043
4438000000.0 -1.304 -0.0297
4441000000.0 -0.8615 1.021
4444000000.0 0.1987 1.313
4447000000.0 1.182 0.6917
4450000000.0 1.268 -0.469
4453000000.0 0.4324 -1.3
4456000000.0 -0.7445 -1.234
4459000000.0 -1.439 -0.1686
4462000000.0 -1.038 1.008
4466000000.0 0.06632 1.45
4469000000.0 1.225 0.8632
4472000000.0 1.434 -0.3926
4475000000.0 0.5999 -1.381
4478000000.0 -0.7215 -1.341
4481000000.0 -1.512 -0.317
4484000000.0 -1.209 0.9733
4488000000.0 0.004749 1.529
4491000000.0 1.213 1.008
4494000000.0 1.534 -0.3059
4497000000.0 0.7168 -1.399
4500000000.0 -0.6188 -1.455
4503000000.0 -1.443 -0.3805
4506000000.0 -1.255 0.8989
4509000000.0 -0.06393 1.533
4512000000.0 1.125 1.023
4516000000.0 1.519 -0.237
4519000000.0 0.7147 -1.355
4522000000.0 -0.592 -1.39
4525000000.0 -1.477 -0.4178
4528000000.0 -1.202 0.9104
4531000000.0 -0.07404 1.507
4534000000.0 1.103 0.9575
4538000000.0 1.411 -0.2938
4541000000.0 0.6244 -1.288
4544000000.0 -0.6147 -1.271
4547000000.0 -1.365 -0.3115
4550000000.0 -1.042 0.8835
4553000000.0 0.0388 1.333
4556000000.0 1.06 0.7918
4559000000.0 1.236 -0.3462
4562000000.0 0.4963 -1.209
4566000000.0 -0.6284 -1.097
4569000000.0 -1.231 -0.1673
4572000000.0 -0.8484 0.8381
4575000000.0 0.1387 1.205
4578000000.0 0.9891 0.6121
4581000000.0 1.109 -0.4323
4584000000.0 0.3234 -1.114
4588000000.0 -0.7053 -0.9322
4591000000.0 -1.141 -0.03053
4594000000.0 -0.6989 0.8821
4597000000.0 0.2505 1.095
4600000000.0 1.015 0.4756
4603000000.0 0.9866 -0.5251
4606000000.0 0.2021 -1.092
4609000000.0 -0.7508 -0.8225
4612000000.0 -1.122 0.07088
4616000000.0 -0.632 0.9079
4619000000.0 0.3053 1.066
4622000000.0 1.019 0.3935
4625000000.0 0.9323 -0.5831
4628000000.0 0.1773 -1.122
4631000000.0 -0.778 -0.8409
4634000000.0 -1.177 0.08229
4638000000.0 -0.6511 0.9726
4641000000.0 0.3439 1.124
4644000000.0 1.081 0.4218
4647000000.0 1.061 -0.5905
4650000000.0 0.1933 -1.178
4653000000.0 -0.8303 -0.9176
4656000000.0 -1.25 0.03606
4659000000.0 -0.7356 1.022
4662000000.0 0.3264 1.215
4666000000.0 1.139 0.5312
4669000000.0 1.127 -0.5719
4672000000.0 0.2786 -1.251
4675000000.0 -0.7745 -1.01
4678000000.0 -1.291 -0.0291
4681000000.0 -0.8418 1.021
4684000000.0 0.2816 1.308
4688000000.0 1.141 0.6473
4691000000.0 1.242 -0.4709
4694000000.0 0.4009 -1.319
4697000000.0 -0.7819 -1.147
4700000000.0 -1.361 -0.09432
4703000000.0 -0.9507 1.012
4706000000.0 0.1635 1.432
4709000000.0 1.262 0.6724
4712000000.0 1.31 -0.533
4716000000.0 0.377 -1.334
4719000000.0 -0.8361 -1.108
4722000000.0 -1.378 0.001643
4725000000.0 -0.8642 1.073
4728000000.0 0.337 1.334
4731000000.0 1.192 0.5643
4734000000.0 1.171 -0.6334
4738000000.0 0.1922 -1.277
4741000000.0 -0.8769 -0.8923
4744000000.0 -1.243 0.1132
4747000000.0 -0.6364 1.026
4750000000.0 0.4461 1.109
4753000000.0 1.103 0.3182
4756000000.0 0.9476 -0.6765
4759000000.0 0.01046 -1.107
4762000000.0 -0.873 -0.6763
4766000000.0 -1.017 0.3004
4769000000.0 -0.3983 0.9618
4772000000.0 0.5359 0.875
4775000000.0 1.015 0.1013
4778000000.0 0.6573 -0.7195
4781000000.0 -0.1791 -0.9515
4784000000.0 -0.8506 -0.4511
4788000000.0 -0.8502 0.4065
4791000000.0 -0.191 0.9324
4794000000.0 0.5871 0.7263
4797000000.0 0.9034 -0.02791
4800000000.0 0.5433 -0.7695
4803000000.0 -0.227 -0.8686
4806000000.0 -0.8465 -0.3423
4809000000.0 -0.7894 0.4398
4812000000.0 -0.1287 0.8975
4816000000.0 0.619 0.685
4819000000.0 0.9469 -0.06486
4822000000.0 0.52 -0.7753
4825000000.0 -0.2455 -0.9329
4828000000.0 -0.9364 -0.3626
4831000000.0 -0.8728 0.5022
4834000000.0 -0.1298 1.045
4838000000.0 0.7179 0.7713
4841000000.0 1.064 -0.009085
4844000000.0 0.6066 -0.8675
4847000000.0 -0.3051 -1.071
4850000000.0 -1.029 -0.4564
4853000000.0 -1.028 0.515
4856000000.0 -0.2541 1.12
4859000000.0 0.7475 0.9338
4862000000.0 1.202 -0.009279
4866000000.0 0.7695 -0.9349
4869000000.0 -0.2563 -1.24
4872000000.0 -1.107 -0.5946
4875000000.0 -1.193 0.5147
4878000000.0 -0.3766 1.271
4881000000.0 0.7793 1.073
4884000000.0 1.361 0.0429
4888000000.0 0.898 -1.061
4891000000.0 -0.2848 -1.335
4894000000.0 -1.216 -0.6229
4897000000.0 -1.236 0.5743
4900000000.0 -0.3317 1.332
4903000000.0 0.8371 1.09
4906000000.0 1.373 -0.03129
4909000000.0 0.8098 -1.045
4912000000.0 -0.3051 -1.248
4916000000.0 -1.164 -0.5295
4919000000.0 -1.115 0.5307
4922000000.0 -0.2464 1.195
4925000000.0 0.7602 0.9567
4928000000.0 1.208 -0.02745
4931000000.0 0.7239 -0.9076
4934000000.0 -0.2811 -1.133
4938000000.0 -0.9992 -0.452
4941000000.0 -0.9765 0.4671
4944000000.0 -0.2118 1.049
4947000000.0 0.6657 0.821
4950000000.0 1.077 -0.02308
4953000000.0 0.6338 -0.8169
4956000000.0 -0.2458 -0.9653
4959000000.0 -0.9048 -0.4222
4962000000.0 -0.8492 0.4555
4966000000.0 -0.1707 0.9251
4969000000.0 0.6375 0.7274
4972000000.0 0.9436 -0.0503
4975000000.0 0.5824 -0.7472
4978000000.0 -0.265 -0.8867
4981000000.0 -0.85 -0.3693
4984000000.0 -0.7925 0.4339
4988000000.0 -0.16 0.9109
4991000000.0 0.5958 0.671
4994000000.0 0.9035 -0.02881
4997000000.0 0.5519 -0.7357
5000000000.0 -0.2531 -0.9036
5003000000.0 -0.8629 -0.3931
5006000000.0 -0.8648 0.4325
5009000000.0 -0.2152 0.9344
5012000000.0 0.6372 0.7657
5016000000.0 1.006 0.007148
5019000000.0 0.6284 -0.8094
5022000000.0 -0.2687 -1.01
5025000000.0 -0.9621 -0.4604
5028000000.0 -0.9717 0.4661
5031000000.0 -0.2576 1.034
5034000000.0 0.6726 0.8844
5038000000.0 1.118 0.04151
5041000000.0 0.745 -0.8557
5044000000.0 -0.1809 -1.136
5047000000.0 -0.9935 -0.5617
5050000000.0 -1.131 0.419
5053000000.0 -0.4151 1.129
5056000000.0 0.6496 1.048
5059000000.0 1.207 0.1481
5062000000.0 0.9089 -0.8403
5066000000.0 -0.09252 -1.268
5069000000.0 -1.04 -0.7442
5072000000.0 -1.276 0.3512
5075000000.0 -0.5376 1.176
5078000000.0 0.5893 1.177
5081000000.0 1.293 0.2819
5084000000.0 1.003 -0.8135
5088000000.0 0.02718 -1.288
5091000000.0 -0.9714 -0.8058
5094000000.0 -1.255 0.2285
5097000000.0 -0.5985 1.093
5100000000.0 0.4476 1.157
5103000000.0 1.166 0.4245
5106000000.0 1.028 -0.618
5109000000.0 0.1509 -1.194
5112000000.0 -0.7807 -0.9494
5116000000.0 -1.19 0.02189
5119000000.0 -0.755 0.9698
5122000000.0 0.2125 1.167
5125000000.0 0.9954 0.5437
5128000000.0 1.03 -0.4171
5131000000.0 0.345 -1.064
5134000000.0 -0.5728 -0.915
5138000000.0 -1.07 -0.1516
5141000000.0 -0.7581 0.7122
5144000000.0 0.0443 1.071
5147000000.0 0.8402 0.653
5150000000.0 1.015 -0.249
5153000000.0 0.4624 -0.9292
5156000000.0 -0.4093 -0.94
5159000000.0 -0.9605 -0.249
5162000000.0 -0.7881 0.5529
5166000000.0 -0.05539 0.9807
5169000000.0 0.6916 0.6662
5172000000.0 0.9233 -0.1138
5175000000.0 0.5171 -0.772
5178000000.0 -0.3131 -0.9175
5181000000.0 -0.8681 -0.3555
5184000000.0 -0.793 0.4611
5188000000.0 -0.1523 0.9301
5191000000.0 0.6482 0.698
5194000000.0 0.9397 -0.07208
5197000000.0 0.5256 -0.734
5200000000.0 -0.248 -0.91
5203000000.0 -0.8708 -0.3558
5206000000.0 -0.8254 0.481
5209000000.0 -0.1447 0.9549
5212000000.0 0.6567 0.6931
5216000000.0 0.9518 -0.06455
5219000000.0 0.53 -0.7931
5222000000.0 -0.2564 -0.8861
5225000000.0 -0.8942 -0.3263
5228000000.0 -0.8381 0.5034
5231000000.0 -0.1449 0.942
5234000000.0 0.6782 0.6929
5238000000.0 1.012 -0.07094
5241000000.0 0.5522 -0.807
5244000000.0 -0.2844 -0.9654
5247000000.0 -0.9557 -0.3579
5250000000.0 -0.8493 0.513
5253000000.0 -0.1468 0.992
5256000000.0 0.6925 0.7743
5259000000.0 1.032 -0.0173
5262000000.0 0.612 -0.8138
5266000000.0 -0.2462 -1.022
5269000000.0 -0.9537 -0.4413
5272000000.0 -0.9426 0.4441
5275000000.0 -0.2755 1.031
5278000000.0 0.5883 0.8847
5281000000.0 1.048 0.05651
5284000000.0 0.7407 -0.7755
5288000000.0 -0.1141 -1.075
5291000000.0 -0.8933 -0.6049
5294000000.0 -1.039 0.2929
5297000000.0 -0.4626 1.028
5300000000.0 0.4912 1.007
5303000000.0 1.076 0.3096
5306000000.0 0.9284 -0.6153
5309000000.0 0.1225 -1.115
5312000000.0 -0.7466 -0.8086
5316000000.0 -1.132 0.06926
5319000000.0 -0.6768 0.9177
5322000000.0 0.2626 1.1
5325000000.0 1.042 0.5145
5328000000.0 1.07 -0.4467
5331000000.0 0.3171 -1.11
5334000000.0 -0.6465 -0.9819
5338000000.0 -1.154 -0.1267
5341000000.0 -0.8406 0.7995
5344000000.0 0.082 1.148
5347000000.0 0.9166 0.6885
5350000000.0 1.122 -0.2381
5353000000.0 0.5363 -1.006
5356000000.0 -0.449 -1.055
5359000000.0 -1.068 -0.3399
5362000000.0 -0.963 0.6371
5366000000.0 -0.1629 1.119
5369000000.0 0.7939 0.7971
5372000000.0 1.162 -0.1031
5375000000.0 0.6182 -0.953
5378000000.0 -0.3489 -1.067
5381000000.0 -1.053 -0.4193
5384000000.0 -0.9621 0.5519
5388000000.0 -0.1764 1.086
5391000000.0 0.6925 0.8353
5394000000.0 1.068 -0.05575
5397000000.0 0.6322 -0.8439
5400000000.0 -0.2624 -1.016
5403000000.0 -0.9138 -0.4352
5406000000.0 -0.8879 0.4918
5409000000.0 -0.2011 0.9773
5412000000.0 0.6297 0.7478
5416000000.0 0.9823 -0.05161
5419000000.0 0.5771 -0.7403
5422000000.0 -0.2731 -0.9135
5425000000.0 -0.8395 -0.3548
5428000000.0 -0.7978 0.4504
5431000000.0 -0.1154 0.9006
5434000000.0 0.6186 0.6494
5438000000.0 0.9127 -0.08276
5441000000.0 0.4778 -0.7553
5444000000.0 -0.2835 -0.8609
5447000000.0 -0.8145 -0.3165
5450000000.0 -0.7561 0.4546
5453000000.0 -0.0857 0.8604
5456000000.0 0.5887 0.6152
5459000000.0 0.867 -0.09743
5462000000.0 0.4539 -0.723
5466000000.0 -0.2645 -0.8005
5469000000.0 -0.8101 -0.3022
5472000000.0 -0.7295 0.4465
5475000000.0 -0.1139 0.8188
5478000000.0 0.583 0.6469
5481000000.0 0.8697 -0.008193
5484000000.0 0.5495 -0.7105
5488000000.0 -0.242 -0.8828
5491000000.0 -0.8155 -0.3877
5494000000.0 -0.8214 0.3665
5497000000.0 -0.2416 0.8965
5500000000.0 0.5595 0.7719
5503000000.0 0.9506 0.06267
5506000000.0 0.6536 -0.6645
5509000000.0 -0.127 -0.9476
5512000000.0 -0.8048 -0.5415
5516000000.0 -0.8945 0.2873
5519000000.0 -0.4073 0.8624
5522000000.0 0.4246 0.8643
5525000000.0 0.9452 0.2608
5528000000.0 0.8013 -0.5909
5531000000.0 0.09468 -0.9593
5534000000.0 -0.7044 -0.7241
5538000000.0 -0.9673 0.1023
5541000000.0 -0.5807 0.794
5544000000.0 0.2763 0.9926
5547000000.0 0.9692 0.429
5550000000.0 0.9535 -0.4454
5553000000.0 0.2635 -1.032
5556000000.0 -0.5835 -0.8729
5559000000.0 -1.057 -0.07891
5562000000.0 -0.7394 0.7849
5566000000.0 0.1065 1.053
5569000000.0 0.862 0.5904
5572000000.0 1.006 -0.2921
5575000000.0 0.3963 -0.9637
5578000000.0 -0.4712 -0.9565
5581000000.0 -1.036 -0.2628
5584000000.0 -0.867 0.6338
5588000000.0 -0.05113 1.037
5591000000.0 0.7612 0.686
5594000000.0 0.9663 -0.152
5597000000.0 0.5263 -0.8646
5600000000.0 -0.3078 -0.974
5603000000.0 -0.9324 -0.389
5606000000.0 -0.8472 0.4901
5609000000.0 -0.1605 0.9485
5612000000.0 0.6359 0.7506
5616000000.0 0.9488 -0.0256
5619000000.0 0.6015 -0.7406
5622000000.0 -0.1901 -0.8999
5625000000.0 -0.869 -0.4282
5628000000.0 -0.8298 0.3601
5631000000.0 -0.2429 0.8856
5634000000.0 0.516 0.7281
5638000000.0 0.8913 0.05235
5641000000.0 0.6223 -0.6583
5644000000.0 -0.1321 -0.8363
5647000000.0 -0.7714 -0.4453
5650000000.0 -0.7991 0.3579
5653000000.0 -0.2544 0.8502
5656000000.0 0.4924 0.7432
5659000000.0 0.8866 0.05076
5662000000.0 0.5631 -0.6323
5666000000.0 -0.1423 -0.857
5669000000.0 -0.7648 -0.417
5672000000.0 -0.8231 0.318
5675000000.0 -0.2605 0.8567
5678000000.0 0.4995 0.7252
5681000000.0 0.863 0.06985
5684000000.0 0.5843 -0.6668
5688000000.0 -0.1433 -0.8561
5691000000.0 -0.8053 -0.4408
5694000000.0 -0.8455 0.3547
5697000000.0 -0.2463 0.9042
5700000000.0 0.5537 0.7357
5703000000.0 0.9494 0.05127
5706000000.0 0.6024 -0.7201
5709000000.0 -0.1722 -0.9408
5712000000.0 -0.8832 -0.4558
5716000000.0 -0.9037 0.375
5719000000.0 -0.2822 0.9331
5722000000.0 0.5759 0.8386
5725000000.0 0.9993 0.1126
5728000000.0 0.7119 -0.7117
5731000000.0 -0.07568 -1.025
5734000000.0 -0.8601 -0.5418
5738000000.0 -0.9656 0.3
5741000000.0 -0.4063 0.9487
5744000000.0 0.4939 0.9458
5747000000.0 1.039 0.225
5750000000.0 0.8187 -0.6351
5753000000.0 0.03762 -1.088
5756000000.0 -0.8223 -0.7038
5759000000.0 -1.059 0.1926
5762000000.0 -0.5413 0.925
5766000000.0 0.3683 1.032
5769000000.0 1.033 0.3669
5772000000.0 0.9396 -0.5701
5775000000.0 0.149 -1.069
5778000000.0 -0.712 -0.8402
5781000000.0 -1.079 0.008936
5784000000.0 -0.6703 0.8441
5788000000.0 0.225 1.107
5791000000.0 0.9583 0.5381
5794000000.0 1.025 -0.3692
5797000000.0 0.3531 -1.025
5800000000.0 -0.5662 -0.9531
5803000000.0 -1.071 -0.1413
5806000000.0 -0.8042 0.7118
5809000000.0 0.03267 1.061
5812000000.0 0.8648 0.6462
5816000000.0 1.05 -0.2665
5819000000.0 0.4815 -0.9259
5822000000.0 -0.4218 -0.9617
5825000000.0 -0.9852 -0.2817
5828000000.0 -0.8469 0.567
5831000000.0 -0.06335 1.055
5834000000.0 0.7424 0.7168
5838000000.0 1.004 -0.09197
5841000000.0 0.5629 -0.8389
5844000000.0 -0.2994 -0.9626
5847000000.0 -0.9289 -0.369
5850000000.0 -0.9193 0.4703
5853000000.0 -0.1942 0.9315
5856000000.0 0.6453 0.7451
5859000000.0 1.013 -0.005925
5862000000.0 0.5898 -0.7524
5866000000.0 -0.2652 -0.9422
5869000000.0 -0.8468 -0.3979
5872000000.0 -0.8562 0.3997
5875000000.0 -0.1905 0.9063
5878000000.0 0.5896 0.7221
5881000000.0 0.9133 -0.002914
5884000000.0 0.5621 -0.7143
5888000000.0 -0.1836 -0.8635
5891000000.0 -0.793 -0.3863
5894000000.0 -0.7977 0.3458
5897000000.0 -0.2207 0.7813
5900000000.0 0.5189 0.6806
5903000000.0 0.8754 0.006718
5906000000.0 0.5494 -0.675
5909000000.0 -0.1485 -0.8478
5912000000.0 -0.7551 -0.4162
5916000000.0 -0.785 0.3174
5919000000.0 -0.2671 0.8085
5922000000.0 0.4722 0.7171
5925000000.0 0.8586 0.07121
5928000000.0 0.6083 -0.6443
5931000000.0 -0.1179 -0.8505
5934000000.0 -0.7337 -0.4806
5938000000.0 -0.8076 0.2854
5941000000.0 -0.3725 0.8194
5944000000.0 0.3845 0.7726
5947000000.0 0.8449 0.1735
5950000000.0 0.6855 -0.5301
5953000000.0 0.01937 -0.8794
5956000000.0 -0.6602 -0.59
5959000000.0 -0.8838 0.1484
5962000000.0 -0.4504 0.7502
5966000000.0 0.2941 0.8298
5969000000.0 0.8306 0.2838
5972000000.0 0.7907 -0.438
5975000000.0 0.1333 -0.8899
5978000000.0 -0.6162 -0.6842
5981000000.0 -0.9403 0.00516
5984000000.0 -0.627 0.7292
5988000000.0 0.1914 0.9265
5991000000.0 0.8254 0.4711
5994000000.0 0.8949 -0.3621
5997000000.0 0.3132 -0.9305
6000000000.0 -0.5172 -0.8293
6003000000.0 -0.9535 -0.1411
6006000000.0 -0.7297 0.6545
6009000000.0 0.06472 0.9867
6012000000.0 0.7909 0.5617
6016000000.0 0.9646 -0.2
6019000000.0 0.4238 -0.8958
6022000000.0 -0.4052 -0.9178
6025000000.0 -0.925 -0.2641
6028000000.0 -0.812 0.5936
6031000000.0 -0.08003 0.9925
6034000000.0 0.7213 0.7121
6038000000.0 0.9882 -0.1151
6041000000.0 0.5246 -0.8341
6044000000.0 -0.3245 -0.9583
6047000000.0 -0.9025 -0.3379
6050000000.0 -0.8786 0.4964
6053000000.0 -0.1589 0.9759
6056000000.0 0.641 0.7126
6059000000.0 0.9758 -0.03405
6062000000.0 0.5997 -0.796
6066000000.0 -0.2636 -0.9306
6069000000.0 -0.8776 -0.4176
6072000000.0 -0.8496 0.4524
6075000000.0 -0.204 0.9089
6078000000.0 0.5826 0.7143
6081000000.0 0.9397 -0.01239
6084000000.0 0.5756 -0.6927
6088000000.0 -0.1575 -0.8999
6091000000.0 -0.8123 -0.4099
6094000000.0 -0.8032 0.3396
6097000000.0 -0.2283 0.8441
6100000000.0 0.5098 0.7057
6103000000.0 0.8508 0.04636
6106000000.0 0.5815 -0.6515
6109000000.0 -0.1541 -0.8663
6112000000.0 -0.7624 -0.4232
6116000000.0 -0.8004 0.2935
6119000000.0 -0.2513 0.8169
6122000000.0 0.4892 0.7234
6125000000.0 0.852 0.06002
6128000000.0 0.6045 -0.6012
6131000000.0 -0.1179 -0.8317
6134000000.0 -0.7337 -0.4749
6138000000.0 -0.8191 0.3085
6141000000.0 -0.315 0.822
6144000000.0 0.4576 0.7234
6147000000.0 0.8436 0.1187
6150000000.0 0.6414 -0.5845
6153000000.0 -0.0761 -0.8849
6156000000.0 -0.6994 -0.4583
6159000000.0 -0.8317 0.2312
6162000000.0 -0.3056 0.7941
6166000000.0 0.4262 0.7779
6169000000.0 0.8348 0.183
6172000000.0 0.6889 -0.5586
6175000000.0 -0.02133 -0.9188
6178000000.0 -0.6934 -0.5858
6181000000.0 -0.8882 0.179
6184000000.0 -0.4157 0.8137
6188000000.0 0.3525 0.8476
6191000000.0 0.8946 0.2609
6194000000.0 0.7352 -0.5324
6197000000.0 0.03366 -0.9026
6200000000.0 -0.6555 -0.623
6203000000.0 -0.9086 0.09979
6206000000.0 -0.5035 0.7703
6209000000.0 0.3081 0.8638
6212000000.0 0.854 0.3579
6216000000.0 0.8169 -0.4514
6219000000.0 0.1346 -0.9157
6222000000.0 -0.5728 -0.7088
6225000000.0 -0.8899 0.002523
6228000000.0 -0.5494 0.7136
6231000000.0 0.1871 0.8747
6234000000.0 0.7992 0.4052
6238000000.0 0.8294 -0.3318
6241000000.0 0.2437 -0.8325
6244000000.0 -0.4615 -0.7063
6247000000.0 -0.8554 -0.1077
6250000000.0 -0.6199 0.6193
6253000000.0 0.03419 0.8192
6256000000.0 0.6701 0.4817
6259000000.0 0.7746 -0.1972
6262000000.0 0.3454 -0.7406
