! Created with skrf 1.8.0 (http://scikit-rf.org).
# Hz S RI R 50.0 
!freq ReS11 ImS11
4000000000.0 -0.1929 -1.549
4003000000.0 -1.256 -0.8122
4006000000.0 -1.39 0.4769
4009000000.0 -0.556 1.441
4012000000.0 0.7499 1.322
4016000000.0 1.492 0.2952
4019000000.0 1.157 -1.061
4022000000.0 -0.07689 -1.55
4025000000.0 -1.34 -0.8607
4028000000.0 -1.513 0.419
4031000000.0 -0.6156 1.528
4034000000.0 0.7949 1.399
4038000000.0 1.62 0.2376
4041000000.0 1.201 -1.09
4044000000.0 -0.1393 -1.609
4047000000.0 -1.335 -0.9444
4050000000.0 -1.532 0.4438
4053000000.0 -0.6476 1.489
4056000000.0 0.78 1.434
4059000000.0 1.601 0.3338
4062000000.0 1.274 -0.9679
4066000000.0 0.02229 -1.609
4069000000.0 -1.239 -1.096
4072000000.0 -1.577 0.2724
4075000000.0 -0.823 1.394
4078000000.0 0.5626 1.567
4081000000.0 1.517 0.5559
4084000000.0 1.409 -0.8364
4088000000.0 0.2349 -1.669
4091000000.0 -1.103 -1.21
4094000000.0 -1.662 0.05923
4097000000.0 -0.9912 1.289
4100000000.0 0.3935 1.569
4103000000.0 1.468 0.7307
4106000000.0 1.474 -0.6363
4109000000.0 0.4425 -1.47
4112000000.0 -0.8177 -1.285
4116000000.0 -1.489 -0.1918
4119000000.0 -1.142 1.011
4122000000.0 0.03225 1.495
4125000000.0 1.13 0.953
4128000000.0 1.488 -0.2046
4131000000.0 0.7968 -1.29
4134000000.0 -0.4424 -1.433
4138000000.0 -1.357 -0.5979
4141000000.0 -1.361 0.6312
4144000000.0 -0.3817 1.44
4147000000.0 0.8389 1.26
4150000000.0 1.515 0.1456
4153000000.0 1.061 -1.065
4156000000.0 -0.1345 -1.517
4159000000.0 -1.281 -0.8863
4162000000.0 -1.474 0.3848
4166000000.0 -0.6636 1.357
4169000000.0 0.6157 1.426
4172000000.0 1.448 0.3877
4175000000.0 1.233 -0.8223
4178000000.0 0.1573 -1.492
4181000000.0 -1.021 -1.11
4184000000.0 -1.463 0.0931
4188000000.0 -0.9063 1.208
4191000000.0 0.3815 1.503
4194000000.0 1.378 0.6921
4197000000.0 1.428 -0.6659
4200000000.0 0.3987 -1.519
4203000000.0 -0.9523 -1.304
4206000000.0 -1.636 -0.07221
4209000000.0 -1.065 1.265
4212000000.0 0.3335 1.621
4216000000.0 1.512 0.768
4219000000.0 1.517 -0.7426
4222000000.0 0.3259 -1.653
4225000000.0 -1.099 -1.262
4228000000.0 -1.689 0.1152
4231000000.0 -0.9432 1.408
4234000000.0 0.5288 1.599
4238000000.0 1.563 0.4963
4241000000.0 1.397 -0.9377
4244000000.0 0.1285 -1.601
4247000000.0 -1.242 -1.069
4250000000.0 -1.547 0.3313
4253000000.0 -0.7066 1.417
4256000000.0 0.7042 1.368
4259000000.0 1.488 0.3424
4262000000.0 1.162 -1.014
4266000000.0 -0.06326 -1.463
4269000000.0 -1.255 -0.8635
4272000000.0 -1.435 0.441
4275000000.0 -0.5089 1.359
4278000000.0 0.7417 1.27
4281000000.0 1.422 0.2
4284000000.0 1.004 -0.9911
4288000000.0 -0.1328 -1.417
4291000000.0 -1.164 -0.7202
4294000000.0 -1.287 0.4093
4297000000.0 -0.4735 1.24
4300000000.0 0.6585 1.194
4303000000.0 1.293 0.2634
4306000000.0 1.007 -0.8366
4309000000.0 0.05226 -1.283
4312000000.0 -1.002 -0.8618
4316000000.0 -1.283 0.196
4319000000.0 -0.7052 1.096
4322000000.0 0.4131 1.249
4325000000.0 1.211 0.5304
4328000000.0 1.196 -0.6242
4331000000.0 0.285 -1.326
4334000000.0 -0.8555 -1.092
4338000000.0 -1.375 -0.07338
4341000000.0 -0.9639 1.055
4344000000.0 0.1767 1.397
4347000000.0 1.226 0.7193
4350000000.0 1.351 -0.4596
4353000000.0 0.4667 -1.362
4356000000.0 -0.7277 -1.261
4359000000.0 -1.453 -0.2784
4362000000.0 -1.086 0.9296
4366000000.0 0.004854 1.446
4369000000.0 1.131 0.9566
4372000000.0 1.467 -0.2707
4375000000.0 0.7045 -1.316
4378000000.0 -0.5248 -1.395
4381000000.0 -1.41 -0.4809
4384000000.0 -1.299 0.8245
4388000000.0 -0.2164 1.542
4391000000.0 1.088 1.133
4394000000.0 1.532 -0.1481
4397000000.0 0.8881 -1.277
4400000000.0 -0.4875 -1.489
4403000000.0 -1.513 -0.5766
4406000000.0 -1.367 0.8084
4409000000.0 -0.2008 1.598
4412000000.0 1.11 1.086
4416000000.0 1.549 -0.1632
4419000000.0 0.8036 -1.307
4422000000.0 -0.5188 -1.425
4425000000.0 -1.434 -0.439
4428000000.0 -1.224 0.8451
4431000000.0 -0.08668 1.482
4434000000.0 1.072 0.9734
4438000000.0 1.411 -0.2503
4441000000.0 0.6594 -1.251
4444000000.0 -0.5487 -1.302
4447000000.0 -1.326 -0.3156
4450000000.0 -1.065 0.8439
4453000000.0 -0.0004291 1.339
4456000000.0 1.065 0.7912
4459000000.0 1.249 -0.343
4462000000.0 0.4588 -1.184
4466000000.0 -0.6358 -1.078
4469000000.0 -1.221 -0.1459
4472000000.0 -0.8816 0.8639
4475000000.0 0.1428 1.215
4478000000.0 1.005 0.6274
4481000000.0 1.112 -0.4196
4484000000.0 0.3359 -1.132
4488000000.0 -0.6501 -0.9495
4491000000.0 -1.136 -0.0984
4494000000.0 -0.7719 0.839
4497000000.0 0.189 1.123
4500000000.0 0.9709 0.5803
4503000000.0 1.011 -0.4051
4506000000.0 0.3322 -1.059
4509000000.0 -0.6194 -0.9241
4512000000.0 -1.107 -0.1231
4516000000.0 -0.7804 0.7947
4519000000.0 0.09884 1.102
4522000000.0 0.9659 0.6148
4525000000.0 1.07 -0.3392
4528000000.0 0.4337 -1.047
4531000000.0 -0.5836 -0.992
4534000000.0 -1.157 -0.1898
4538000000.0 -0.8774 0.7613
4541000000.0 0.02715 1.192
4544000000.0 0.9272 0.7545
4547000000.0 1.164 -0.2283
4550000000.0 0.5755 -1.055
4553000000.0 -0.4489 -1.144
4556000000.0 -1.164 -0.3944
4559000000.0 -1.03 0.6495
4562000000.0 -0.1772 1.249
4566000000.0 0.8418 0.9339
4569000000.0 1.26 -0.04495
4572000000.0 0.8026 -1.017
4575000000.0 -0.2796 -1.268
4578000000.0 -1.163 -0.595
4581000000.0 -1.221 0.494
4584000000.0 -0.3968 1.273
4588000000.0 0.7312 1.149
4591000000.0 1.335 0.1513
4594000000.0 1.009 -0.9428
4597000000.0 -0.1021 -1.361
4600000000.0 -1.13 -0.7876
4603000000.0 -1.361 0.334
4606000000.0 -0.5821 1.277
4609000000.0 0.6076 1.235
4612000000.0 1.367 0.2953
4616000000.0 1.087 -0.8585
4619000000.0 0.03268 -1.405
4622000000.0 -1.047 -0.9046
4625000000.0 -1.355 0.2388
4628000000.0 -0.6834 1.213
4631000000.0 0.5187 1.277
4634000000.0 1.329 0.3899
4638000000.0 1.137 -0.7601
4641000000.0 0.1185 -1.344
4644000000.0 -0.9721 -0.9282
4647000000.0 -1.341 0.1677
4650000000.0 -0.6941 1.161
4653000000.0 0.502 1.216
4656000000.0 1.242 0.3964
4659000000.0 1.062 -0.7547
4662000000.0 0.1087 -1.284
4666000000.0 -0.911 -0.8161
4669000000.0 -1.216 0.1919
4672000000.0 -0.5924 1.08
4675000000.0 0.4478 1.085
4678000000.0 1.113 0.3427
4681000000.0 0.934 -0.6589
4684000000.0 0.02582 -1.109
4688000000.0 -0.8304 -0.7758
4691000000.0 -1.104 0.1934
4694000000.0 -0.532 0.9572
4697000000.0 0.4572 1.001
4700000000.0 1.052 0.3245
4703000000.0 0.8806 -0.6285
4706000000.0 0.03649 -1.066
4709000000.0 -0.8365 -0.7138
4712000000.0 -1.06 0.2151
4716000000.0 -0.5105 0.9538
4719000000.0 0.4402 0.9919
4722000000.0 1.028 0.2819
4725000000.0 0.8287 -0.6218
4728000000.0 0.06634 -1.068
4731000000.0 -0.8162 -0.6845
4734000000.0 -1.032 0.1752
4738000000.0 -0.5074 0.8944
4741000000.0 0.3652 0.9608
4744000000.0 0.9774 0.3469
4747000000.0 0.8781 -0.5281
4750000000.0 0.1231 -1.05
4753000000.0 -0.6875 -0.7843
4756000000.0 -1.092 0.05588
4759000000.0 -0.6923 0.868
4762000000.0 0.2393 1.079
4766000000.0 0.9989 0.5035
4769000000.0 1.037 -0.4425
4772000000.0 0.3385 -1.106
4775000000.0 -0.6324 -0.9471
4778000000.0 -1.141 -0.1579
4781000000.0 -0.8728 0.8144
4784000000.0 0.0117 1.227
4788000000.0 0.9714 0.7309
4791000000.0 1.187 -0.2762
4794000000.0 0.5655 -1.063
4797000000.0 -0.4683 -1.159
4800000000.0 -1.198 -0.3981
4803000000.0 -1.038 0.6461
4806000000.0 -0.1886 1.239
4809000000.0 0.8396 0.9844
4812000000.0 1.292 -0.02694
4816000000.0 0.8146 -0.9993
4819000000.0 -0.2797 -1.299
4822000000.0 -1.174 -0.6227
4825000000.0 -1.248 0.5363
4828000000.0 -0.3981 1.312
4831000000.0 0.7694 1.169
4834000000.0 1.391 0.1392
4838000000.0 0.9737 -1.001
4841000000.0 -0.1331 -1.389
4844000000.0 -1.148 -0.7657
4847000000.0 -1.328 0.3907
4850000000.0 -0.5351 1.289
4853000000.0 0.6543 1.228
4856000000.0 1.337 0.2534
4859000000.0 1.075 -0.8722
4862000000.0 -0.01212 -1.333
4866000000.0 -1.062 -0.8746
4869000000.0 -1.292 0.2817
4872000000.0 -0.5837 1.187
4875000000.0 0.5421 1.2
4878000000.0 1.262 0.3143
4881000000.0 1.049 -0.7623
4884000000.0 0.05715 -1.251
4888000000.0 -0.9645 -0.8331
4891000000.0 -1.208 0.2093
4894000000.0 -0.5746 1.048
4897000000.0 0.4289 1.092
4900000000.0 1.097 0.355
4903000000.0 0.9324 -0.612
4906000000.0 0.08726 -1.127
4909000000.0 -0.7703 -0.7228
4912000000.0 -1.017 0.1475
4916000000.0 -0.5524 0.8822
4919000000.0 0.3416 0.968
4922000000.0 0.9399 0.3528
4925000000.0 0.8497 -0.4874
4928000000.0 0.1534 -0.9493
4931000000.0 -0.6195 -0.7166
4934000000.0 -0.9553 0.04363
4938000000.0 -0.5546 0.7491
4941000000.0 0.2032 0.9411
4944000000.0 0.8468 0.3965
4947000000.0 0.8622 -0.3989
4950000000.0 0.2282 -0.9349
4953000000.0 -0.5803 -0.7753
4956000000.0 -0.9821 -0.0481
4959000000.0 -0.6555 0.6965
4962000000.0 0.1688 0.9854
4966000000.0 0.8577 0.4648
4969000000.0 0.9409 -0.3668
4972000000.0 0.2935 -0.9605
4975000000.0 -0.5235 -0.8598
4978000000.0 -0.9902 -0.137
4981000000.0 -0.7505 0.7079
4984000000.0 0.05012 1.035
4988000000.0 0.8498 0.5933
4991000000.0 1.054 -0.2468
4994000000.0 0.4753 -0.9721
4997000000.0 -0.4477 -1.008
5000000000.0 -1.052 -0.3001
5003000000.0 -0.9531 0.6694
5006000000.0 -0.1038 1.178
5009000000.0 0.8429 0.8374
5012000000.0 1.211 -0.1564
5016000000.0 0.653 -1.025
5019000000.0 -0.369 -1.182
5022000000.0 -1.18 -0.4872
5025000000.0 -1.096 0.5953
5028000000.0 -0.2625 1.251
5031000000.0 0.8352 0.987
5034000000.0 1.271 -0.0203
5038000000.0 0.8177 -0.994
5041000000.0 -0.238 -1.268
5044000000.0 -1.11 -0.6124
5047000000.0 -1.197 0.4491
5050000000.0 -0.4281 1.241
5053000000.0 0.6617 1.105
5056000000.0 1.294 0.2364
5059000000.0 0.9757 -0.8712
5062000000.0 -0.01183 -1.316
5066000000.0 -1.014 -0.8315
5069000000.0 -1.27 0.2623
5072000000.0 -0.613 1.18
5075000000.0 0.4999 1.216
5078000000.0 1.213 0.3707
5081000000.0 1.05 -0.7215
5084000000.0 0.1283 -1.269
5088000000.0 -0.8434 -0.9129
5091000000.0 -1.192 0.06637
5094000000.0 -0.688 0.9575
5097000000.0 0.2774 1.142
5100000000.0 1.007 0.5241
5103000000.0 1.045 -0.4856
5106000000.0 0.3165 -1.083
5109000000.0 -0.5942 -0.952
5112000000.0 -1.085 -0.1319
5116000000.0 -0.8048 0.7136
5119000000.0 0.05152 1.093
5122000000.0 0.8695 0.6505
5125000000.0 1.011 -0.2541
5128000000.0 0.4537 -0.9188
5131000000.0 -0.3929 -0.9422
5134000000.0 -0.9619 -0.288
5138000000.0 -0.8205 0.5786
5141000000.0 -0.03778 0.9876
5144000000.0 0.7026 0.654
5147000000.0 0.951 -0.1256
5150000000.0 0.5031 -0.8085
5153000000.0 -0.2975 -0.885
5156000000.0 -0.8736 -0.3103
5159000000.0 -0.7826 0.4856
5162000000.0 -0.128 0.8953
5166000000.0 0.6391 0.6735
5169000000.0 0.9067 -0.04335
5172000000.0 0.5392 -0.7407
5175000000.0 -0.2581 -0.9123
5178000000.0 -0.8275 -0.3992
5181000000.0 -0.8129 0.4168
5184000000.0 -0.2096 0.9055
5188000000.0 0.562 0.7009
5191000000.0 0.9299 -0.01724
5194000000.0 0.5425 -0.7403
5197000000.0 -0.2132 -0.9271
5200000000.0 -0.8629 -0.4134
5203000000.0 -0.8365 0.4255
5206000000.0 -0.1789 0.9282
5209000000.0 0.6245 0.7593
5212000000.0 0.9738 0.01469
5216000000.0 0.6109 -0.7952
5219000000.0 -0.207 -0.962
5222000000.0 -0.8966 -0.4363
5225000000.0 -0.9081 0.4045
5228000000.0 -0.2853 0.956
5231000000.0 0.5833 0.8414
5234000000.0 1.025 0.07863
5238000000.0 0.7331 -0.7542
5241000000.0 -0.1302 -0.9963
5244000000.0 -0.8982 -0.5653
5247000000.0 -0.9949 0.3118
5250000000.0 -0.3828 0.9959
5253000000.0 0.5229 0.9571
5256000000.0 1.038 0.2055
5259000000.0 0.8208 -0.6708
5262000000.0 -0.003585 -1.073
5266000000.0 -0.8055 -0.7067
5269000000.0 -1.081 0.1477
5272000000.0 -0.5693 0.9372
5275000000.0 0.3536 1.011
5278000000.0 1.027 0.3745
5281000000.0 0.9659 -0.5399
5284000000.0 0.2304 -1.062
5288000000.0 -0.6559 -0.8933
5291000000.0 -1.115 -0.0527
5294000000.0 -0.7797 0.8245
5297000000.0 0.1255 1.147
5300000000.0 0.9533 0.6429
5303000000.0 1.111 -0.2965
5306000000.0 0.4622 -1.026
5309000000.0 -0.4624 -1.014
5312000000.0 -1.119 -0.282
5316000000.0 -0.9695 0.6392
5319000000.0 -0.1303 1.162
5322000000.0 0.7986 0.8131
5325000000.0 1.135 -0.09884
5328000000.0 0.6418 -0.9426
5331000000.0 -0.3116 -1.119
5334000000.0 -1.048 -0.4651
5338000000.0 -1.022 0.5196
5341000000.0 -0.2821 1.096
5344000000.0 0.6785 0.8745
5347000000.0 1.104 0.05266
5350000000.0 0.7365 -0.8457
5353000000.0 -0.1578 -1.064
5356000000.0 -0.9545 -0.5602
5359000000.0 -1.037 0.3919
5362000000.0 -0.3773 1.052
5366000000.0 0.5815 0.9277
5369000000.0 1.07 0.1321
5372000000.0 0.7698 -0.7483
5375000000.0 -0.1024 -1.045
5378000000.0 -0.8651 -0.5905
5381000000.0 -0.9827 0.324
5384000000.0 -0.3378 0.9394
5388000000.0 0.5092 0.84
5391000000.0 0.968 0.1214
5394000000.0 0.6627 -0.6914
5397000000.0 -0.1284 -0.9212
5400000000.0 -0.785 -0.4784
5403000000.0 -0.8676 0.2738
5406000000.0 -0.2922 0.8558
5409000000.0 0.4842 0.7689
5412000000.0 0.8794 0.08096
5416000000.0 0.608 -0.6289
5419000000.0 -0.09412 -0.853
5422000000.0 -0.743 -0.4448
5425000000.0 -0.8395 0.3201
5428000000.0 -0.2712 0.8306
5431000000.0 0.4823 0.7409
5434000000.0 0.8766 0.06479
5438000000.0 0.6219 -0.6108
5441000000.0 -0.1188 -0.8996
5444000000.0 -0.7627 -0.4476
5447000000.0 -0.8572 0.2864
5450000000.0 -0.2662 0.8737
5453000000.0 0.4601 0.75
5456000000.0 0.9014 0.08601
5459000000.0 0.6551 -0.6014
5462000000.0 -0.07195 -0.892
5466000000.0 -0.7374 -0.5
5469000000.0 -0.8805 0.246
5472000000.0 -0.4012 0.8265
5475000000.0 0.3924 0.8233
5478000000.0 0.8979 0.2197
5481000000.0 0.783 -0.5525
5484000000.0 0.04971 -0.9593
5488000000.0 -0.6906 -0.6543
5491000000.0 -0.992 0.1205
5494000000.0 -0.5423 0.8474
5497000000.0 0.2723 0.9464
5500000000.0 0.9492 0.4122
5503000000.0 0.902 -0.5005
5506000000.0 0.214 -0.9975
5509000000.0 -0.5954 -0.8022
5512000000.0 -1.027 -0.07207
5516000000.0 -0.6834 0.7391
5519000000.0 0.1186 1.002
5522000000.0 0.8577 0.5494
5525000000.0 0.9935 -0.3077
5528000000.0 0.3789 -0.9317
5531000000.0 -0.4219 -0.9541
5534000000.0 -1.01 -0.2971
5538000000.0 -0.8641 0.5833
5541000000.0 -0.07847 1.05
5544000000.0 0.7598 0.7809
5547000000.0 1.077 -0.09461
5550000000.0 0.5848 -0.8685
5553000000.0 -0.2997 -1.06
5556000000.0 -0.9788 -0.4368
5559000000.0 -0.9823 0.4554
5562000000.0 -0.2428 1.033
5566000000.0 0.6233 0.8102
5569000000.0 1.042 0.06826
5572000000.0 0.7159 -0.736
5575000000.0 -0.1469 -1.008
5578000000.0 -0.8658 -0.5167
5581000000.0 -0.9753 0.2946
5584000000.0 -0.3433 0.9321
5588000000.0 0.4846 0.8383
5591000000.0 0.9443 0.1516
5594000000.0 0.7053 -0.6131
5597000000.0 -0.02083 -0.9281
5600000000.0 -0.7277 -0.569
5603000000.0 -0.9021 0.1838
5606000000.0 -0.4121 0.8219
5609000000.0 0.3658 0.8076
5612000000.0 0.8348 0.2441
5616000000.0 0.7 -0.5261
5619000000.0 0.03363 -0.851
5622000000.0 -0.6375 -0.6081
5625000000.0 -0.8445 0.1596
5628000000.0 -0.4276 0.7328
5631000000.0 0.2789 0.8209
5634000000.0 0.7792 0.2534
5638000000.0 0.7047 -0.4399
5641000000.0 0.06137 -0.8594
5644000000.0 -0.5925 -0.593
5647000000.0 -0.8331 0.1088
5650000000.0 -0.4309 0.7032
5653000000.0 0.2732 0.802
5656000000.0 0.8241 0.276
5659000000.0 0.7489 -0.4744
5662000000.0 0.08533 -0.8705
5666000000.0 -0.6268 -0.6001
5669000000.0 -0.8639 0.1112
5672000000.0 -0.466 0.7667
5675000000.0 0.2934 0.8362
5678000000.0 0.8568 0.3022
5681000000.0 0.786 -0.484
5684000000.0 0.1128 -0.9212
5688000000.0 -0.6908 -0.6746
5691000000.0 -0.9249 0.09327
5694000000.0 -0.5415 0.7812
5697000000.0 0.2882 0.9521
5700000000.0 0.9311 0.357
5703000000.0 0.8872 -0.4902
5706000000.0 0.185 -1.013
5709000000.0 -0.6758 -0.7742
5712000000.0 -1.029 0.01327
5716000000.0 -0.6373 0.8025
5719000000.0 0.2251 1.032
5722000000.0 0.9506 0.4835
5725000000.0 0.9527 -0.4406
5728000000.0 0.3199 -1.054
5731000000.0 -0.5847 -0.8893
5734000000.0 -1.082 -0.0918
5738000000.0 -0.776 0.7391
5741000000.0 0.1066 1.122
5744000000.0 0.9244 0.6717
5747000000.0 1.052 -0.2792
5750000000.0 0.4796 -0.9984
5753000000.0 -0.472 -1.021
5756000000.0 -1.073 -0.2735
5759000000.0 -0.8934 0.665
5762000000.0 -0.09495 1.1
5766000000.0 0.8228 0.7723
5769000000.0 1.092 -0.09986
5772000000.0 0.5856 -0.8949
5775000000.0 -0.3197 -1.056
5778000000.0 -1.013 -0.4211
5781000000.0 -0.9703 0.4876
5784000000.0 -0.2203 1.054
5788000000.0 0.636 0.845
5791000000.0 1.082 0.05638
5794000000.0 0.7306 -0.779
5797000000.0 -0.1239 -1.061
5800000000.0 -0.9059 -0.5919
5803000000.0 -1.013 0.3219
5806000000.0 -0.4098 0.9585
5809000000.0 0.4982 0.9405
5812000000.0 0.9994 0.1975
5816000000.0 0.82 -0.6629
5819000000.0 -0.01885 -1.031
5822000000.0 -0.7844 -0.6352
5825000000.0 -0.977 0.2052
5828000000.0 -0.4704 0.9068
5831000000.0 0.4226 0.9159
5834000000.0 0.9302 0.2883
5838000000.0 0.8214 -0.5726
5841000000.0 0.05348 -0.9779
5844000000.0 -0.6992 -0.6873
5847000000.0 -0.9478 0.1522
5850000000.0 -0.4972 0.8099
5853000000.0 0.3339 0.9001
5856000000.0 0.9065 0.3029
5859000000.0 0.7958 -0.4896
5862000000.0 0.119 -0.9252
5866000000.0 -0.5996 -0.6564
5869000000.0 -0.8973 0.09055
5872000000.0 -0.4634 0.7411
5875000000.0 0.2812 0.8623
5878000000.0 0.8305 0.3163
5881000000.0 0.7682 -0.4895
5884000000.0 0.1567 -0.8977
5888000000.0 -0.5954 -0.669
5891000000.0 -0.8795 0.01332
5894000000.0 -0.5055 0.7249
5897000000.0 0.2271 0.8125
5900000000.0 0.7615 0.3333
5903000000.0 0.7647 -0.3845
5906000000.0 0.1436 -0.8317
5909000000.0 -0.5665 -0.6598
5912000000.0 -0.8763 0.01205
5916000000.0 -0.5394 0.6587
5919000000.0 0.1702 0.8659
5922000000.0 0.7613 0.3748
5925000000.0 0.8052 -0.3577
5928000000.0 0.2517 -0.8365
5931000000.0 -0.5022 -0.7284
5934000000.0 -0.8763 -0.1037
5938000000.0 -0.6413 0.6203
5941000000.0 0.07478 0.906
5944000000.0 0.725 0.5071
5947000000.0 0.8605 -0.2403
5950000000.0 0.4152 -0.8208
5953000000.0 -0.3982 -0.7988
5956000000.0 -0.8551 -0.2362
5959000000.0 -0.7444 0.5439
5962000000.0 -0.07601 0.9511
5966000000.0 0.6866 0.6347
5969000000.0 0.9481 -0.1073
5972000000.0 0.4982 -0.7741
5975000000.0 -0.2628 -0.901
5978000000.0 -0.8863 -0.3863
5981000000.0 -0.8656 0.4109
5984000000.0 -0.2319 0.9627
5988000000.0 0.6036 0.8003
5991000000.0 0.9915 0.05687
5994000000.0 0.6961 -0.7262
5997000000.0 -0.1317 -1.019
6000000000.0 -0.8546 -0.5423
6003000000.0 -0.9414 0.2826
6006000000.0 -0.3725 0.9248
6009000000.0 0.4874 0.8638
6012000000.0 0.9708 0.2048
6016000000.0 0.7539 -0.6427
6019000000.0 -0.01441 -0.9701
6022000000.0 -0.7645 -0.609
6025000000.0 -0.9777 0.1961
6028000000.0 -0.4458 0.8706
6031000000.0 0.3875 0.9428
6034000000.0 0.9369 0.2715
6038000000.0 0.8161 -0.5761
6041000000.0 0.0795 -0.9857
6044000000.0 -0.7073 -0.6779
6047000000.0 -0.9558 0.1354
6050000000.0 -0.5007 0.8226
6053000000.0 0.3168 0.8861
6056000000.0 0.8956 0.2995
6059000000.0 0.8023 -0.4773
6062000000.0 0.1396 -0.9051
6066000000.0 -0.64 -0.6464
6069000000.0 -0.8982 0.06134
6072000000.0 -0.52 0.7343
6075000000.0 0.2576 0.8901
6078000000.0 0.8165 0.3474
6081000000.0 0.785 -0.4543
6084000000.0 0.1665 -0.8783
6088000000.0 -0.5755 -0.6564
6091000000.0 -0.8584 0.01
6094000000.0 -0.5377 0.6629
6097000000.0 0.2386 0.8367
6100000000.0 0.7784 0.3957
6103000000.0 0.7824 -0.3566
6106000000.0 0.2012 -0.8344
6109000000.0 -0.51 -0.6971
6112000000.0 -0.8803 -0.01542
6116000000.0 -0.547 0.6679
6119000000.0 0.1624 0.8328
6122000000.0 0.7795 0.4148
6125000000.0 0.7944 -0.3407
6128000000.0 0.2387 -0.8448
6131000000.0 -0.5212 -0.7052
6134000000.0 -0.8558 -0.03778
6138000000.0 -0.6153 0.6569
6141000000.0 0.136 0.879
6144000000.0 0.7385 0.4456
6147000000.0 0.8191 -0.2727
6150000000.0 0.2898 -0.8401
6153000000.0 -0.4618 -0.7625
6156000000.0 -0.9072 -0.1351
6159000000.0 -0.6625 0.6245
6162000000.0 0.06426 0.9273
6166000000.0 0.7309 0.513
6169000000.0 0.9277 -0.2453
6172000000.0 0.4038 -0.8656
6175000000.0 -0.4066 -0.8325
6178000000.0 -0.9302 -0.2406
6181000000.0 -0.7743 0.6027
6184000000.0 -0.004826 0.9468
6188000000.0 0.717 0.6276
6191000000.0 0.9407 -0.1895
6194000000.0 0.4822 -0.8028
6197000000.0 -0.3417 -0.8969
6200000000.0 -0.8757 -0.2838
6203000000.0 -0.8146 0.4941
6206000000.0 -0.1124 0.9329
6209000000.0 0.663 0.6583
6212000000.0 0.9455 -0.06513
6216000000.0 0.5358 -0.7183
6219000000.0 -0.2387 -0.9079
6222000000.0 -0.81 -0.3853
6225000000.0 -0.8577 0.3831
6228000000.0 -0.2589 0.8827
6231000000.0 0.5419 0.7354
6234000000.0 0.889 0.03599
6238000000.0 0.6146 -0.6346
6241000000.0 -0.09906 -0.8814
6244000000.0 -0.7433 -0.4567
6247000000.0 -0.8061 0.2637
6250000000.0 -0.2991 0.7921
6253000000.0 0.4166 0.7429
6256000000.0 0.8328 0.1621
6259000000.0 0.6542 -0.5048
6262000000.0 0.04637 -0.8482
6266000000.0 -0.6311 -0.5417
