! Created with skrf 1.8.0 (http://scikit-rf.org).
# Hz S RI R 50.0 
!freq ReS11 ImS11
4000000000.0 -0.1768 -1.453
4003000000.0 -1.258 -0.8246
4006000000.0 -1.467 0.5121
4009000000.0 -0.58 1.46
4012000000.0 0.7844 1.256
4016000000.0 1.526 0.2124
4019000000.0 1.132 -1.099
4022000000.0 -0.08089 -1.553
4025000000.0 -1.293 -0.9276
4028000000.0 -1.52 0.459
4031000000.0 -0.5888 1.47
4034000000.0 0.8483 1.371
4038000000.0 1.605 0.2049
4041000000.0 1.24 -1.112
4044000000.0 -0.07355 -1.6
4047000000.0 -1.307 -0.9108
4050000000.0 -1.576 0.4535
4053000000.0 -0.6246 1.508
4056000000.0 0.7414 1.435
4059000000.0 1.59 0.3484
4062000000.0 1.26 -1.025
4066000000.0 0.05162 -1.627
4069000000.0 -1.251 -1.071
4072000000.0 -1.572 0.2616
4075000000.0 -0.8002 1.395
4078000000.0 0.5729 1.551
4081000000.0 1.543 0.5627
4084000000.0 1.427 -0.8107
4088000000.0 0.257 -1.674
4091000000.0 -1.089 -1.224
4094000000.0 -1.65 0.09602
4097000000.0 -0.9608 1.329
4100000000.0 0.3672 1.568
4103000000.0 1.483 0.7338
4106000000.0 1.444 -0.6268
4109000000.0 0.5002 -1.538
4112000000.0 -0.8614 -1.3
4116000000.0 -1.515 -0.1851
4119000000.0 -1.099 1.002
4122000000.0 0.03362 1.49
4125000000.0 1.14 0.96
4128000000.0 1.465 -0.2019
4131000000.0 0.7993 -1.254
4134000000.0 -0.4247 -1.414
4138000000.0 -1.361 -0.5941
4141000000.0 -1.333 0.6424
4144000000.0 -0.3871 1.45
4147000000.0 0.8641 1.247
4150000000.0 1.502 0.1753
4153000000.0 1.107 -1.106
4156000000.0 -0.1157 -1.509
4159000000.0 -1.221 -0.8938
4162000000.0 -1.471 0.3849
4166000000.0 -0.6708 1.362
4169000000.0 0.6221 1.373
4172000000.0 1.433 0.4147
4175000000.0 1.219 -0.8408
4178000000.0 0.1571 -1.495
4181000000.0 -1.034 -1.062
4184000000.0 -1.491 0.06515
4188000000.0 -0.8909 1.22
4191000000.0 0.3517 1.503
4194000000.0 1.385 0.6619
4197000000.0 1.439 -0.6792
4200000000.0 0.3895 -1.511
4203000000.0 -0.9846 -1.279
4206000000.0 -1.638 -0.05279
4209000000.0 -1.07 1.276
4212000000.0 0.3904 1.63
4216000000.0 1.518 0.7478
4219000000.0 1.529 -0.746
4222000000.0 0.3081 -1.643
4225000000.0 -1.073 -1.301
4228000000.0 -1.691 0.1251
4231000000.0 -0.9602 1.405
4234000000.0 0.5273 1.579
4238000000.0 1.58 0.5092
4241000000.0 1.335 -0.9402
4244000000.0 0.06815 -1.646
4247000000.0 -1.225 -1.038
4250000000.0 -1.533 0.3469
4253000000.0 -0.6588 1.424
4256000000.0 0.6801 1.367
4259000000.0 1.506 0.3
4262000000.0 1.151 -1.006
4266000000.0 -0.05524 -1.505
4269000000.0 -1.201 -0.8699
4272000000.0 -1.404 0.4571
4275000000.0 -0.4937 1.39
4278000000.0 0.7192 1.27
4281000000.0 1.388 0.1862
4284000000.0 1.006 -0.9934
4288000000.0 -0.1404 -1.397
4291000000.0 -1.177 -0.7407
4294000000.0 -1.278 0.387
4297000000.0 -0.4907 1.26
4300000000.0 0.6727 1.166
4303000000.0 1.294 0.2434
4306000000.0 1.003 -0.806
4309000000.0 0.003894 -1.278
4312000000.0 -0.9692 -0.8321
4316000000.0 -1.291 0.1885
4319000000.0 -0.7 1.147
4322000000.0 0.4024 1.217
4325000000.0 1.212 0.493
4328000000.0 1.197 -0.6375
4331000000.0 0.2717 -1.314
4334000000.0 -0.875 -1.07
4338000000.0 -1.361 -0.06287
4341000000.0 -0.9385 1.045
4344000000.0 0.2026 1.376
4347000000.0 1.219 0.7356
4350000000.0 1.337 -0.4573
4353000000.0 0.4892 -1.357
4356000000.0 -0.715 -1.252
4359000000.0 -1.408 -0.2703
4362000000.0 -1.102 0.9444
4366000000.0 0.03059 1.471
4369000000.0 1.148 0.9253
4372000000.0 1.466 -0.2925
4375000000.0 0.7107 -1.315
4378000000.0 -0.5836 -1.378
4381000000.0 -1.427 -0.4866
4384000000.0 -1.291 0.8181
4388000000.0 -0.1804 1.516
4391000000.0 1.07 1.108
4394000000.0 1.572 -0.1489
4397000000.0 0.8405 -1.317
4400000000.0 -0.4702 -1.507
4403000000.0 -1.47 -0.5587
4406000000.0 -1.358 0.8235
4409000000.0 -0.1747 1.535
4412000000.0 1.117 1.121
4416000000.0 1.555 -0.1802
4419000000.0 0.7956 -1.33
4422000000.0 -0.5228 -1.422
4425000000.0 -1.424 -0.4469
4428000000.0 -1.216 0.8493
4431000000.0 -0.1042 1.445
4434000000.0 1.083 0.9164
4438000000.0 1.388 -0.2499
4441000000.0 0.6378 -1.251
4444000000.0 -0.5653 -1.246
4447000000.0 -1.327 -0.2677
4450000000.0 -1.058 0.8529
4453000000.0 0.01632 1.281
4456000000.0 1.045 0.7679
4459000000.0 1.212 -0.3756
4462000000.0 0.4552 -1.175
4466000000.0 -0.6447 -1.068
4469000000.0 -1.216 -0.1715
4472000000.0 -0.8536 0.8522
4475000000.0 0.1438 1.197
4478000000.0 1.008 0.5969
4481000000.0 1.122 -0.4426
4484000000.0 0.3252 -1.073
4488000000.0 -0.6524 -0.9424
4491000000.0 -1.11 -0.0922
4494000000.0 -0.7523 0.837
4497000000.0 0.1829 1.123
4500000000.0 0.9757 0.556
4503000000.0 1.028 -0.3793
4506000000.0 0.3061 -1.069
4509000000.0 -0.5838 -0.9087
4512000000.0 -1.104 -0.1071
4516000000.0 -0.7973 0.7832
4519000000.0 0.1269 1.125
4522000000.0 0.9555 0.633
4525000000.0 1.092 -0.34
4528000000.0 0.4279 -1.071
4531000000.0 -0.5692 -1.006
4534000000.0 -1.137 -0.1718
4538000000.0 -0.8696 0.7613
4541000000.0 0.03167 1.178
4544000000.0 0.923 0.7435
4547000000.0 1.163 -0.2235
4550000000.0 0.5743 -1.097
4553000000.0 -0.4362 -1.118
4556000000.0 -1.144 -0.3787
4559000000.0 -1.043 0.6374
4562000000.0 -0.1912 1.206
4566000000.0 0.8502 0.9224
4569000000.0 1.281 -0.03315
4572000000.0 0.7614 -1.037
4575000000.0 -0.2794 -1.286
4578000000.0 -1.164 -0.6251
4581000000.0 -1.216 0.4865
4584000000.0 -0.4001 1.278
4588000000.0 0.7315 1.13
4591000000.0 1.362 0.1482
4594000000.0 0.9917 -0.9562
4597000000.0 -0.1087 -1.385
4600000000.0 -1.138 -0.761
4603000000.0 -1.352 0.3631
4606000000.0 -0.5649 1.286
4609000000.0 0.6358 1.277
4612000000.0 1.383 0.2842
4616000000.0 1.12 -0.8875
4619000000.0 0.04146 -1.402
4622000000.0 -1.049 -0.9037
4625000000.0 -1.363 0.2418
4628000000.0 -0.6484 1.212
4631000000.0 0.5001 1.271
4634000000.0 1.341 0.4034
4638000000.0 1.112 -0.7926
4641000000.0 0.1068 -1.364
4644000000.0 -1.009 -0.9143
4647000000.0 -1.318 0.1957
4650000000.0 -0.6831 1.158
4653000000.0 0.5053 1.22
4656000000.0 1.249 0.3937
4659000000.0 1.064 -0.7383
4662000000.0 0.08374 -1.256
4666000000.0 -0.9179 -0.8011
4669000000.0 -1.207 0.2038
4672000000.0 -0.5984 1.034
4675000000.0 0.4599 1.084
4678000000.0 1.099 0.3277
4681000000.0 0.9549 -0.6661
4684000000.0 0.03373 -1.097
4688000000.0 -0.8642 -0.7345
4691000000.0 -1.119 0.1644
4694000000.0 -0.4944 0.9765
4697000000.0 0.4382 1.014
4700000000.0 1.063 0.2991
4703000000.0 0.8903 -0.6349
4706000000.0 0.03206 -1.08
4709000000.0 -0.8187 -0.6989
4712000000.0 -1.075 0.207
4716000000.0 -0.5163 0.9605
4719000000.0 0.4404 0.965
4722000000.0 1.05 0.2566
4725000000.0 0.8628 -0.622
4728000000.0 0.02066 -1.029
4731000000.0 -0.8117 -0.6822
4734000000.0 -1.024 0.1893
4738000000.0 -0.5326 0.9003
4741000000.0 0.3741 0.9776
4744000000.0 0.9942 0.3376
4747000000.0 0.8895 -0.5789
4750000000.0 0.1635 -1.052
4753000000.0 -0.7147 -0.7884
4756000000.0 -1.073 0.03343
4759000000.0 -0.688 0.8623
4762000000.0 0.2613 1.089
4766000000.0 0.9938 0.5066
4769000000.0 1.053 -0.4459
4772000000.0 0.3228 -1.118
4775000000.0 -0.6307 -0.9685
4778000000.0 -1.158 -0.1471
4781000000.0 -0.8503 0.8177
4784000000.0 0.0755 1.17
4788000000.0 0.9771 0.7075
4791000000.0 1.181 -0.2802
4794000000.0 0.5481 -1.069
4797000000.0 -0.4711 -1.134
4800000000.0 -1.162 -0.3938
4803000000.0 -1.03 0.6735
4806000000.0 -0.1721 1.201
4809000000.0 0.8344 0.93
4812000000.0 1.307 -0.0391
4816000000.0 0.8078 -1.037
4819000000.0 -0.27 -1.274
4822000000.0 -1.173 -0.6568
4825000000.0 -1.244 0.5393
4828000000.0 -0.4114 1.31
4831000000.0 0.7667 1.151
4834000000.0 1.384 0.1457
4838000000.0 0.9836 -0.9678
4841000000.0 -0.163 -1.386
4844000000.0 -1.174 -0.7554
4847000000.0 -1.343 0.4038
4850000000.0 -0.5374 1.316
4853000000.0 0.6596 1.243
4856000000.0 1.366 0.252
4859000000.0 1.032 -0.8881
4862000000.0 0.01355 -1.373
4866000000.0 -1.075 -0.834
4869000000.0 -1.306 0.287
4872000000.0 -0.5976 1.188
4875000000.0 0.5495 1.197
4878000000.0 1.254 0.3461
4881000000.0 1.02 -0.7471
4884000000.0 0.06703 -1.237
4888000000.0 -0.9382 -0.8668
4891000000.0 -1.214 0.1907
4894000000.0 -0.5504 1.026
4897000000.0 0.4697 1.067
4900000000.0 1.079 0.3181
4903000000.0 0.9211 -0.6291
4906000000.0 0.09026 -1.096
4909000000.0 -0.7958 -0.7465
4912000000.0 -1.033 0.1242
4916000000.0 -0.5327 0.8705
4919000000.0 0.3342 0.9366
4922000000.0 0.9416 0.3283
4925000000.0 0.833 -0.5042
4928000000.0 0.1747 -0.9512
4931000000.0 -0.6541 -0.7208
4934000000.0 -0.9584 0.02662
4938000000.0 -0.5786 0.7486
4941000000.0 0.2156 0.9007
4944000000.0 0.846 0.3889
4947000000.0 0.8764 -0.4012
4950000000.0 0.2574 -0.9193
4953000000.0 -0.5754 -0.7823
4956000000.0 -0.9557 -0.04937
4959000000.0 -0.6542 0.7033
4962000000.0 0.1278 0.986
4966000000.0 0.8467 0.4828
4969000000.0 0.9616 -0.3622
4972000000.0 0.3109 -0.9621
4975000000.0 -0.5296 -0.8517
4978000000.0 -0.988 -0.1233
4981000000.0 -0.7489 0.7242
4984000000.0 0.04723 1.051
4988000000.0 0.8703 0.6225
4991000000.0 1.03 -0.2824
4994000000.0 0.4742 -0.9844
4997000000.0 -0.4637 -0.972
5000000000.0 -1.074 -0.2873
5003000000.0 -0.9385 0.6675
5006000000.0 -0.07618 1.178
5009000000.0 0.8688 0.797
5012000000.0 1.193 -0.1241
5016000000.0 0.6507 -1.035
5019000000.0 -0.3561 -1.171
5022000000.0 -1.164 -0.4597
5025000000.0 -1.121 0.6222
5028000000.0 -0.2052 1.239
5031000000.0 0.8063 0.9692
5034000000.0 1.277 -0.01004
5038000000.0 0.7966 -1.014
5041000000.0 -0.2388 -1.267
5044000000.0 -1.122 -0.6368
5047000000.0 -1.218 0.4305
5050000000.0 -0.4382 1.213
5053000000.0 0.6671 1.1
5056000000.0 1.299 0.1847
5059000000.0 0.9921 -0.8483
5062000000.0 -0.01289 -1.292
5066000000.0 -1.022 -0.7963
5069000000.0 -1.282 0.2605
5072000000.0 -0.6037 1.128
5075000000.0 0.4775 1.194
5078000000.0 1.24 0.3779
5081000000.0 1.068 -0.6999
5084000000.0 0.1215 -1.238
5088000000.0 -0.8448 -0.9377
5091000000.0 -1.187 0.07203
5094000000.0 -0.6741 0.9782
5097000000.0 0.2374 1.126
5100000000.0 1.026 0.482
5103000000.0 1.018 -0.4674
5106000000.0 0.311 -1.075
5109000000.0 -0.6434 -0.9244
5112000000.0 -1.08 -0.1039
5116000000.0 -0.7785 0.7253
5119000000.0 0.05494 1.053
5122000000.0 0.8597 0.6077
5125000000.0 0.9886 -0.2223
5128000000.0 0.4337 -0.8942
5131000000.0 -0.4068 -0.9348
5134000000.0 -0.9685 -0.2798
5138000000.0 -0.7783 0.5837
5141000000.0 -0.063 0.9429
5144000000.0 0.7331 0.6325
5147000000.0 0.9068 -0.1422
5150000000.0 0.4631 -0.7923
5153000000.0 -0.2847 -0.9045
5156000000.0 -0.9039 -0.2929
5159000000.0 -0.805 0.4745
5162000000.0 -0.1241 0.9228
5166000000.0 0.6057 0.6623
5169000000.0 0.909 -0.03446
5172000000.0 0.5473 -0.7096
5175000000.0 -0.2499 -0.8954
5178000000.0 -0.8285 -0.3586
5181000000.0 -0.8054 0.4213
5184000000.0 -0.1859 0.9224
5188000000.0 0.6117 0.7108
5191000000.0 0.9285 -0.02242
5194000000.0 0.5665 -0.7487
5197000000.0 -0.2363 -0.8932
5200000000.0 -0.8647 -0.407
5203000000.0 -0.8404 0.4218
5206000000.0 -0.1844 0.9352
5209000000.0 0.612 0.7403
5212000000.0 0.9714 0.0133
5216000000.0 0.6008 -0.7593
5219000000.0 -0.2141 -0.9545
5222000000.0 -0.8719 -0.4357
5225000000.0 -0.9132 0.4169
5228000000.0 -0.2463 0.9801
5231000000.0 0.5911 0.8293
5234000000.0 1.034 0.05791
5238000000.0 0.709 -0.7605
5241000000.0 -0.1253 -1.029
5244000000.0 -0.8856 -0.5551
5247000000.0 -0.9825 0.3257
5250000000.0 -0.397 1.007
5253000000.0 0.5282 0.9206
5256000000.0 1.057 0.2032
5259000000.0 0.8325 -0.6759
5262000000.0 0.01312 -1.076
5266000000.0 -0.8082 -0.7089
5269000000.0 -1.083 0.1648
5272000000.0 -0.5728 0.9267
5275000000.0 0.3507 1.055
5278000000.0 1.016 0.3933
5281000000.0 0.939 -0.5272
5284000000.0 0.2249 -1.086
5288000000.0 -0.6715 -0.8841
5291000000.0 -1.104 -0.05284
5294000000.0 -0.7363 0.8225
5297000000.0 0.1323 1.122
5300000000.0 0.9458 0.6417
5303000000.0 1.078 -0.3174
5306000000.0 0.4688 -1.009
5309000000.0 -0.5186 -1.047
5312000000.0 -1.088 -0.2921
5316000000.0 -0.9402 0.6819
5319000000.0 -0.09413 1.135
5322000000.0 0.839 0.8029
5325000000.0 1.14 -0.1124
5328000000.0 0.6398 -0.9569
5331000000.0 -0.325 -1.111
5334000000.0 -1.039 -0.4581
5338000000.0 -0.9855 0.5084
5341000000.0 -0.2828 1.073
5344000000.0 0.69 0.9103
5347000000.0 1.114 0.0446
5350000000.0 0.7325 -0.8103
5353000000.0 -0.1581 -1.086
5356000000.0 -0.9103 -0.5797
5359000000.0 -1.034 0.3684
5362000000.0 -0.3719 1.053
5366000000.0 0.5826 0.9239
5369000000.0 1.069 0.1279
5372000000.0 0.7446 -0.726
5375000000.0 -0.1114 -1.045
5378000000.0 -0.9076 -0.5539
5381000000.0 -0.9747 0.3027
5384000000.0 -0.3123 0.9588
5388000000.0 0.5234 0.8148
5391000000.0 0.9609 0.1148
5394000000.0 0.6777 -0.6564
5397000000.0 -0.1254 -0.9093
5400000000.0 -0.7838 -0.4919
5403000000.0 -0.8626 0.2798
5406000000.0 -0.2651 0.8427
5409000000.0 0.4851 0.7611
5412000000.0 0.8904 0.07658
5416000000.0 0.6148 -0.6437
5419000000.0 -0.1141 -0.8635
5422000000.0 -0.757 -0.4494
5425000000.0 -0.8135 0.3061
5428000000.0 -0.276 0.8292
5431000000.0 0.4626 0.736
5434000000.0 0.8792 0.07537
5438000000.0 0.6472 -0.6414
5441000000.0 -0.1006 -0.8668
5444000000.0 -0.796 -0.4733
5447000000.0 -0.84 0.3178
5450000000.0 -0.2615 0.8618
5453000000.0 0.4632 0.728
5456000000.0 0.8802 0.07297
5459000000.0 0.6634 -0.6091
5462000000.0 -0.1008 -0.8733
5466000000.0 -0.7202 -0.5183
5469000000.0 -0.8786 0.2336
5472000000.0 -0.4169 0.8437
5475000000.0 0.4024 0.8785
5478000000.0 0.911 0.2311
5481000000.0 0.7657 -0.5564
5484000000.0 0.03325 -0.9681
5488000000.0 -0.7018 -0.6546
5491000000.0 -0.9793 0.1285
5494000000.0 -0.5598 0.8418
5497000000.0 0.2739 0.9569
5500000000.0 0.9278 0.4133
5503000000.0 0.9002 -0.4526
5506000000.0 0.2326 -0.9902
5509000000.0 -0.6107 -0.8384
5512000000.0 -1.002 -0.0454
5516000000.0 -0.7019 0.7307
5519000000.0 0.1203 1.038
5522000000.0 0.8544 0.5832
5525000000.0 1.015 -0.2971
5528000000.0 0.4391 -0.9368
5531000000.0 -0.45 -0.9342
5534000000.0 -1.035 -0.2692
5538000000.0 -0.8312 0.6152
5541000000.0 -0.1025 1.068
5544000000.0 0.7573 0.7566
5547000000.0 1.098 -0.1215
5550000000.0 0.627 -0.8777
5553000000.0 -0.2977 -1.024
5556000000.0 -0.9875 -0.3992
5559000000.0 -0.9495 0.5011
5562000000.0 -0.2383 0.9995
5566000000.0 0.6591 0.8005
5569000000.0 1.04 0.05245
5572000000.0 0.6665 -0.752
5575000000.0 -0.1468 -1.023
5578000000.0 -0.8761 -0.5139
5581000000.0 -0.9394 0.3462
5584000000.0 -0.3614 0.9334
5588000000.0 0.4623 0.8479
5591000000.0 0.953 0.1589
5594000000.0 0.7092 -0.6059
5597000000.0 -0.03565 -0.9576
5600000000.0 -0.76 -0.5609
5603000000.0 -0.9199 0.1955
5606000000.0 -0.4093 0.7888
5609000000.0 0.3668 0.7908
5612000000.0 0.8386 0.2353
5616000000.0 0.7019 -0.508
5619000000.0 0.05004 -0.8748
5622000000.0 -0.6488 -0.6041
5625000000.0 -0.8542 0.1201
5628000000.0 -0.421 0.7607
5631000000.0 0.3133 0.7764
5634000000.0 0.7965 0.2488
5638000000.0 0.7152 -0.4706
5641000000.0 0.08087 -0.8563
5644000000.0 -0.621 -0.5789
5647000000.0 -0.8379 0.1282
5650000000.0 -0.4209 0.7315
5653000000.0 0.3029 0.7951
5656000000.0 0.8252 0.2761
5659000000.0 0.7453 -0.4663
5662000000.0 0.08115 -0.8465
5666000000.0 -0.6358 -0.6033
5669000000.0 -0.8775 0.07393
5672000000.0 -0.4644 0.7505
5675000000.0 0.3003 0.8398
5678000000.0 0.8581 0.2819
5681000000.0 0.7798 -0.5006
5684000000.0 0.09042 -0.8835
5688000000.0 -0.642 -0.6701
5691000000.0 -0.9597 0.09242
5694000000.0 -0.5509 0.803
5697000000.0 0.3134 0.9258
5700000000.0 0.9386 0.3741
5703000000.0 0.865 -0.4848
5706000000.0 0.1317 -1.013
5709000000.0 -0.6997 -0.754
5712000000.0 -1.017 0.01988
5716000000.0 -0.6061 0.8046
5719000000.0 0.2227 1.043
5722000000.0 0.9542 0.4556
5725000000.0 0.9693 -0.4145
5728000000.0 0.2973 -1.047
5731000000.0 -0.6377 -0.8843
5734000000.0 -1.064 -0.09026
5738000000.0 -0.7742 0.7703
5741000000.0 0.1123 1.089
5744000000.0 0.8942 0.6105
5747000000.0 1.049 -0.3192
5750000000.0 0.4414 -0.985
5753000000.0 -0.5048 -0.9997
5756000000.0 -1.098 -0.2532
5759000000.0 -0.8749 0.6707
5762000000.0 -0.06041 1.107
5766000000.0 0.8162 0.8106
5769000000.0 1.095 -0.1404
5772000000.0 0.6244 -0.9182
5775000000.0 -0.361 -1.078
5778000000.0 -1.024 -0.451
5781000000.0 -0.9699 0.5084
5784000000.0 -0.2394 1.079
5788000000.0 0.6853 0.8658
5791000000.0 1.078 0.05164
5794000000.0 0.723 -0.8214
5797000000.0 -0.1352 -1.05
5800000000.0 -0.8766 -0.5371
5803000000.0 -1.009 0.3396
5806000000.0 -0.3695 0.9817
5809000000.0 0.5145 0.9236
5812000000.0 1.033 0.1848
5816000000.0 0.7853 -0.6645
5819000000.0 -0.03289 -1.041
5822000000.0 -0.8219 -0.6258
5825000000.0 -0.9982 0.1904
5828000000.0 -0.4492 0.8756
5831000000.0 0.3836 0.8913
5834000000.0 0.9727 0.2571
5838000000.0 0.7653 -0.5778
5841000000.0 0.06946 -0.9975
5844000000.0 -0.7078 -0.6706
5847000000.0 -0.9722 0.1217
5850000000.0 -0.4793 0.8556
5853000000.0 0.3386 0.8606
5856000000.0 0.8662 0.2947
5859000000.0 0.7558 -0.5049
5862000000.0 0.09054 -0.9322
5866000000.0 -0.6374 -0.6435
5869000000.0 -0.9168 0.1298
5872000000.0 -0.485 0.7671
5875000000.0 0.2913 0.8418
5878000000.0 0.8567 0.3088
5881000000.0 0.7261 -0.4486
5884000000.0 0.1119 -0.8389
5888000000.0 -0.6028 -0.6472
5891000000.0 -0.8788 0.07429
5894000000.0 -0.4881 0.701
5897000000.0 0.2638 0.8431
5900000000.0 0.8153 0.3283
5903000000.0 0.768 -0.4046
5906000000.0 0.126 -0.8315
5909000000.0 -0.5352 -0.6375
5912000000.0 -0.8508 0.05099
5916000000.0 -0.5104 0.6659
5919000000.0 0.1818 0.8379
5922000000.0 0.7753 0.3957
5925000000.0 0.7961 -0.3631
5928000000.0 0.2301 -0.864
5931000000.0 -0.5029 -0.723
5934000000.0 -0.9189 -0.07748
5938000000.0 -0.6304 0.6354
5941000000.0 0.08868 0.8845
5944000000.0 0.7529 0.5194
5947000000.0 0.8748 -0.2459
5950000000.0 0.3558 -0.8026
5953000000.0 -0.3915 -0.8497
5956000000.0 -0.8931 -0.2391
5959000000.0 -0.7508 0.561
5962000000.0 -0.08495 0.9412
5966000000.0 0.6923 0.638
5969000000.0 0.948 -0.1076
5972000000.0 0.5155 -0.7858
5975000000.0 -0.2625 -0.9331
5978000000.0 -0.8831 -0.3912
5981000000.0 -0.8815 0.4548
5984000000.0 -0.2174 0.9672
5988000000.0 0.6135 0.7997
5991000000.0 1.007 0.05791
5994000000.0 0.6698 -0.7825
5997000000.0 -0.133 -1.025
6000000000.0 -0.876 -0.5301
6003000000.0 -0.9467 0.2957
6006000000.0 -0.3608 0.9462
6009000000.0 0.4923 0.8705
6012000000.0 0.9691 0.1713
6016000000.0 0.7566 -0.6715
6019000000.0 -0.03337 -0.9997
6022000000.0 -0.7973 -0.6176
6025000000.0 -0.9876 0.253
6028000000.0 -0.4377 0.8709
6031000000.0 0.3859 0.8758
6034000000.0 0.9489 0.2526
6038000000.0 0.7945 -0.5702
6041000000.0 0.07621 -0.9688
6044000000.0 -0.7209 -0.6453
6047000000.0 -0.9634 0.1353
6050000000.0 -0.4838 0.8113
6053000000.0 0.3553 0.8799
6056000000.0 0.8645 0.3109
6059000000.0 0.7909 -0.4857
6062000000.0 0.121 -0.9237
6066000000.0 -0.6539 -0.6541
6069000000.0 -0.8946 0.1208
6072000000.0 -0.5187 0.7542
6075000000.0 0.2819 0.8593
6078000000.0 0.8213 0.3424
6081000000.0 0.7699 -0.4078
6084000000.0 0.1311 -0.8493
6088000000.0 -0.5922 -0.6347
6091000000.0 -0.8331 0.01771
6094000000.0 -0.5149 0.7033
6097000000.0 0.2048 0.8244
6100000000.0 0.7771 0.3392
6103000000.0 0.7794 -0.4043
6106000000.0 0.1841 -0.823
6109000000.0 -0.5482 -0.657
6112000000.0 -0.8556 -0.03433
6116000000.0 -0.5484 0.6712
6119000000.0 0.1804 0.8416
6122000000.0 0.7695 0.3781
6125000000.0 0.787 -0.3596
6128000000.0 0.2283 -0.8435
6131000000.0 -0.5219 -0.7455
6134000000.0 -0.8678 -0.08144
6138000000.0 -0.593 0.6178
6141000000.0 0.1256 0.8233
6144000000.0 0.7709 0.4211
6147000000.0 0.8452 -0.3245
6150000000.0 0.2718 -0.8303
6153000000.0 -0.4847 -0.7575
6156000000.0 -0.8825 -0.1078
6159000000.0 -0.6602 0.6321
6162000000.0 0.03783 0.9175
6166000000.0 0.7773 0.4829
6169000000.0 0.9105 -0.2313
6172000000.0 0.3697 -0.8582
6175000000.0 -0.4381 -0.8441
6178000000.0 -0.9373 -0.2033
6181000000.0 -0.7085 0.6281
6184000000.0 -0.0166 0.9662
6188000000.0 0.7135 0.6025
6191000000.0 0.8947 -0.1753
6194000000.0 0.4576 -0.8247
6197000000.0 -0.3363 -0.8645
6200000000.0 -0.9114 -0.2788
6203000000.0 -0.7711 0.5093
6206000000.0 -0.1274 0.9295
6209000000.0 0.6323 0.6613
6212000000.0 0.9375 -0.08542
6216000000.0 0.5579 -0.7225
6219000000.0 -0.2625 -0.8855
6222000000.0 -0.8141 -0.3837
6225000000.0 -0.8312 0.388
6228000000.0 -0.1845 0.8769
6231000000.0 0.5559 0.7172
6234000000.0 0.9016 0.02912
6238000000.0 0.6206 -0.6838
6241000000.0 -0.1283 -0.8711
6244000000.0 -0.7493 -0.4415
6247000000.0 -0.8212 0.3299
6250000000.0 -0.2992 0.798
6253000000.0 0.3999 0.7539
6256000000.0 0.7926 0.1536
6259000000.0 0.6278 -0.5194
6262000000.0 0.009032 -0.7994
6266000000.0 -0.6196 -0.5484
6269000000.0 -0.8215 0.1243
