! Created with skrf 1.8.0 (http://scikit-rf.org).
# Hz S RI R 50.0 
!freq ReS11 ImS11
4000000000.0 -0.1971 -1.464
4003000000.0 -1.28 -0.7692
4006000000.0 -1.438 0.4904
4009000000.0 -0.5253 1.446
4012000000.0 0.7454 1.369
4016000000.0 1.549 0.2795
4019000000.0 1.133 -1.086
4022000000.0 -0.1105 -1.55
4025000000.0 -1.282 -0.9268
4028000000.0 -1.549 0.5207
4031000000.0 -0.5613 1.518
4034000000.0 0.7912 1.417
4038000000.0 1.607 0.1743
4041000000.0 1.203 -1.064
4044000000.0 -0.1311 -1.675
4047000000.0 -1.363 -0.9107
4050000000.0 -1.559 0.452
4053000000.0 -0.671 1.503
4056000000.0 0.7591 1.452
4059000000.0 1.556 0.3133
4062000000.0 1.232 -0.9958
4066000000.0 0.02421 -1.636
4069000000.0 -1.26 -1.054
4072000000.0 -1.605 0.2718
4075000000.0 -0.8077 1.435
4078000000.0 0.5453 1.541
4081000000.0 1.584 0.567
4084000000.0 1.41 -0.8488
4088000000.0 0.2152 -1.636
4091000000.0 -1.07 -1.234
4094000000.0 -1.631 0.08596
4097000000.0 -0.942 1.337
4100000000.0 0.3625 1.561
4103000000.0 1.429 0.7172
4106000000.0 1.467 -0.656
4109000000.0 0.403 -1.509
4112000000.0 -0.8597 -1.291
4116000000.0 -1.539 -0.1868
4119000000.0 -1.114 1.006
4122000000.0 0.02083 1.474
4125000000.0 1.124 0.9737
4128000000.0 1.481 -0.2167
4131000000.0 0.7878 -1.266
4134000000.0 -0.435 -1.419
4138000000.0 -1.366 -0.5903
4141000000.0 -1.351 0.681
4144000000.0 -0.3635 1.431
4147000000.0 0.8732 1.23
4150000000.0 1.503 0.1514
4153000000.0 1.079 -1.078
4156000000.0 -0.1022 -1.505
4159000000.0 -1.218 -0.8581
4162000000.0 -1.473 0.3709
4166000000.0 -0.6533 1.331
4169000000.0 0.6138 1.34
4172000000.0 1.421 0.4292
4175000000.0 1.224 -0.8417
4178000000.0 0.1638 -1.507
4181000000.0 -1.011 -1.076
4184000000.0 -1.495 0.1226
4188000000.0 -0.9009 1.233
4191000000.0 0.38 1.471
4194000000.0 1.372 0.643
4197000000.0 1.397 -0.7093
4200000000.0 0.3695 -1.559
4203000000.0 -0.9571 -1.265
4206000000.0 -1.6 -0.06327
4209000000.0 -1.017 1.25
4212000000.0 0.3234 1.631
4216000000.0 1.507 0.7294
4219000000.0 1.505 -0.7607
4222000000.0 0.3064 -1.658
4225000000.0 -1.117 -1.252
4228000000.0 -1.665 0.09132
4231000000.0 -0.9222 1.451
4234000000.0 0.584 1.568
4238000000.0 1.591 0.5032
4241000000.0 1.331 -0.92
4244000000.0 0.07595 -1.612
4247000000.0 -1.215 -1.027
4250000000.0 -1.549 0.3364
4253000000.0 -0.7003 1.414
4256000000.0 0.736 1.403
4259000000.0 1.507 0.2507
4262000000.0 1.138 -1.028
4266000000.0 -0.1028 -1.511
4269000000.0 -1.193 -0.8583
4272000000.0 -1.421 0.4439
4275000000.0 -0.525 1.378
4278000000.0 0.7406 1.23
4281000000.0 1.42 0.1839
4284000000.0 1.02 -0.9934
4288000000.0 -0.1466 -1.376
4291000000.0 -1.121 -0.7752
4294000000.0 -1.307 0.4247
4297000000.0 -0.4937 1.209
4300000000.0 0.6512 1.117
4303000000.0 1.296 0.2417
4306000000.0 1.011 -0.8172
4309000000.0 0.02488 -1.293
4312000000.0 -1.004 -0.8212
4316000000.0 -1.243 0.2192
4319000000.0 -0.6659 1.104
4322000000.0 0.4218 1.211
4325000000.0 1.227 0.4628
4328000000.0 1.152 -0.6154
4331000000.0 0.2658 -1.359
4334000000.0 -0.862 -1.042
4338000000.0 -1.398 -0.05921
4341000000.0 -0.8796 1.064
4344000000.0 0.2284 1.387
4347000000.0 1.225 0.7227
4350000000.0 1.366 -0.4669
4353000000.0 0.4817 -1.357
4356000000.0 -0.7165 -1.275
4359000000.0 -1.439 -0.2078
4362000000.0 -1.105 0.966
4366000000.0 0.03253 1.447
4369000000.0 1.135 0.9048
4372000000.0 1.454 -0.2976
4375000000.0 0.7205 -1.284
4378000000.0 -0.551 -1.38
4381000000.0 -1.422 -0.447
4384000000.0 -1.297 0.8664
4388000000.0 -0.1722 1.513
4391000000.0 1.095 1.119
4394000000.0 1.576 -0.1593
4397000000.0 0.8432 -1.333
4400000000.0 -0.5177 -1.495
4403000000.0 -1.499 -0.5399
4406000000.0 -1.349 0.8503
4409000000.0 -0.1761 1.579
4412000000.0 1.108 1.096
4416000000.0 1.55 -0.2007
4419000000.0 0.7987 -1.326
4422000000.0 -0.5534 -1.44
4425000000.0 -1.464 -0.4284
4428000000.0 -1.206 0.86
4431000000.0 -0.07781 1.448
4434000000.0 1.078 0.9376
4438000000.0 1.371 -0.2686
4441000000.0 0.6384 -1.265
4444000000.0 -0.5952 -1.221
4447000000.0 -1.365 -0.2907
4450000000.0 -1.007 0.8816
4453000000.0 0.04358 1.335
4456000000.0 1.089 0.7655
4459000000.0 1.278 -0.3761
4462000000.0 0.4418 -1.181
4466000000.0 -0.6387 -1.046
4469000000.0 -1.258 -0.1286
4472000000.0 -0.8346 0.8539
4475000000.0 0.1976 1.185
4478000000.0 1.057 0.5674
4481000000.0 1.074 -0.4374
4484000000.0 0.3347 -1.103
4488000000.0 -0.6504 -0.9385
4491000000.0 -1.124 -0.0477
4494000000.0 -0.7333 0.8496
4497000000.0 0.1828 1.136
4500000000.0 1.004 0.5485
4503000000.0 0.9784 -0.408
4506000000.0 0.3026 -1.057
4509000000.0 -0.6496 -0.8879
4512000000.0 -1.097 -0.07976
4516000000.0 -0.7627 0.8259
4519000000.0 0.1493 1.095
4522000000.0 0.9539 0.5912
4525000000.0 1.062 -0.3544
4528000000.0 0.3992 -1.085
4531000000.0 -0.5588 -0.9769
4534000000.0 -1.159 -0.1704
4538000000.0 -0.8794 0.7828
4541000000.0 0.02214 1.181
4544000000.0 0.955 0.7427
4547000000.0 1.174 -0.2646
4550000000.0 0.5531 -1.071
4553000000.0 -0.4813 -1.131
4556000000.0 -1.18 -0.3546
4559000000.0 -1.007 0.6738
4562000000.0 -0.1636 1.228
4566000000.0 0.8299 0.9291
4569000000.0 1.297 -0.06879
4572000000.0 0.791 -1.02
4575000000.0 -0.293 -1.233
4578000000.0 -1.165 -0.5944
4581000000.0 -1.201 0.5248
4584000000.0 -0.3759 1.301
4588000000.0 0.7619 1.12
4591000000.0 1.324 0.156
4594000000.0 0.9686 -0.9545
4597000000.0 -0.09666 -1.37
4600000000.0 -1.146 -0.7657
4603000000.0 -1.356 0.3991
4606000000.0 -0.5691 1.274
4609000000.0 0.6415 1.237
4612000000.0 1.378 0.3001
4616000000.0 1.097 -0.8712
4619000000.0 -0.01527 -1.404
4622000000.0 -1.051 -0.8991
4625000000.0 -1.375 0.2568
4628000000.0 -0.652 1.232
4631000000.0 0.521 1.278
4634000000.0 1.305 0.3853
4638000000.0 1.141 -0.8109
4641000000.0 0.08552 -1.379
4644000000.0 -0.9867 -0.9069
4647000000.0 -1.325 0.1909
4650000000.0 -0.635 1.139
4653000000.0 0.5008 1.244
4656000000.0 1.253 0.3748
4659000000.0 1.073 -0.7402
4662000000.0 0.04392 -1.252
4666000000.0 -0.9426 -0.8343
4669000000.0 -1.188 0.2318
4672000000.0 -0.5561 1.019
4675000000.0 0.4372 1.094
4678000000.0 1.105 0.2805
4681000000.0 0.9151 -0.6812
4684000000.0 0.04654 -1.165
4688000000.0 -0.8577 -0.7392
4691000000.0 -1.114 0.2011
4694000000.0 -0.5109 1.011
4697000000.0 0.4378 1.041
4700000000.0 1.054 0.2777
4703000000.0 0.9018 -0.6506
4706000000.0 0.01403 -1.113
4709000000.0 -0.8254 -0.6934
4712000000.0 -1.073 0.2159
4716000000.0 -0.4683 0.9444
4719000000.0 0.4508 0.9667
4722000000.0 1.05 0.2304
4725000000.0 0.8464 -0.6427
4728000000.0 -0.007636 -1.025
4731000000.0 -0.7966 -0.6648
4734000000.0 -1.024 0.2004
4738000000.0 -0.4884 0.9079
4741000000.0 0.373 0.99
4744000000.0 0.9894 0.3447
4747000000.0 0.9259 -0.5427
4750000000.0 0.1619 -1.07
4753000000.0 -0.7327 -0.8133
4756000000.0 -1.099 0.04578
4759000000.0 -0.6486 0.8811
4762000000.0 0.2549 1.071
4766000000.0 1.029 0.555
4769000000.0 1.046 -0.4632
4772000000.0 0.314 -1.102
4775000000.0 -0.6513 -0.9374
4778000000.0 -1.184 -0.1142
4781000000.0 -0.8448 0.8274
4784000000.0 0.08955 1.166
4788000000.0 0.9635 0.7476
4791000000.0 1.175 -0.2781
4794000000.0 0.5564 -1.118
4797000000.0 -0.5013 -1.123
4800000000.0 -1.203 -0.4005
4803000000.0 -1.074 0.6766
4806000000.0 -0.1733 1.241
4809000000.0 0.8356 0.9399
4812000000.0 1.277 -0.04099
4816000000.0 0.7822 -1.04
4819000000.0 -0.2994 -1.294
4822000000.0 -1.189 -0.6124
4825000000.0 -1.235 0.5333
4828000000.0 -0.3863 1.308
4831000000.0 0.7763 1.147
4834000000.0 1.398 0.1322
4838000000.0 0.961 -0.9887
4841000000.0 -0.1557 -1.376
4844000000.0 -1.181 -0.7458
4847000000.0 -1.329 0.4094
4850000000.0 -0.4959 1.32
4853000000.0 0.6749 1.196
4856000000.0 1.344 0.2296
4859000000.0 1.001 -0.8963
4862000000.0 -0.0388 -1.378
4866000000.0 -1.064 -0.7874
4869000000.0 -1.288 0.3013
4872000000.0 -0.558 1.179
4875000000.0 0.5445 1.185
4878000000.0 1.232 0.3246
4881000000.0 1.011 -0.7553
4884000000.0 0.05771 -1.262
4888000000.0 -0.9482 -0.7784
4891000000.0 -1.192 0.2261
4894000000.0 -0.5752 1.081
4897000000.0 0.4709 1.079
4900000000.0 1.121 0.3178
4903000000.0 0.9255 -0.6446
4906000000.0 0.03774 -1.074
4909000000.0 -0.7631 -0.7453
4912000000.0 -1.043 0.1438
4916000000.0 -0.5365 0.8785
4919000000.0 0.3523 0.9365
4922000000.0 0.9414 0.3154
4925000000.0 0.8423 -0.4954
4928000000.0 0.1174 -0.9359
4931000000.0 -0.6415 -0.7071
4934000000.0 -0.9743 0.05772
4938000000.0 -0.5442 0.7471
4941000000.0 0.2417 0.8757
4944000000.0 0.8571 0.3939
4947000000.0 0.8344 -0.4011
4950000000.0 0.2141 -0.883
4953000000.0 -0.5735 -0.7412
4956000000.0 -0.9737 -0.01219
4959000000.0 -0.6357 0.7444
4962000000.0 0.1357 0.9453
4966000000.0 0.8647 0.4794
4969000000.0 0.9122 -0.3642
4972000000.0 0.3023 -0.966
4975000000.0 -0.5551 -0.8574
4978000000.0 -1.017 -0.1379
4981000000.0 -0.7331 0.7097
4984000000.0 0.07417 1.037
4988000000.0 0.8354 0.5875
4991000000.0 1.039 -0.2892
4994000000.0 0.4875 -0.9864
4997000000.0 -0.4889 -1.001
5000000000.0 -1.086 -0.2661
5003000000.0 -0.916 0.6746
5006000000.0 -0.0746 1.177
5009000000.0 0.8749 0.8141
5012000000.0 1.169 -0.1549
5016000000.0 0.6272 -1.033
5019000000.0 -0.412 -1.19
5022000000.0 -1.186 -0.4526
5025000000.0 -1.124 0.6248
5028000000.0 -0.2157 1.257
5031000000.0 0.8293 0.975
5034000000.0 1.293 -0.02692
5038000000.0 0.8221 -0.9895
5041000000.0 -0.2604 -1.279
5044000000.0 -1.139 -0.6118
5047000000.0 -1.217 0.4677
5050000000.0 -0.4324 1.253
5053000000.0 0.6788 1.086
5056000000.0 1.251 0.2064
5059000000.0 0.9803 -0.8707
5062000000.0 -0.04765 -1.292
5066000000.0 -1.048 -0.82
5069000000.0 -1.242 0.2819
5072000000.0 -0.6181 1.139
5075000000.0 0.537 1.173
5078000000.0 1.233 0.3936
5081000000.0 1.034 -0.7235
5084000000.0 0.09971 -1.219
5088000000.0 -0.8919 -0.8885
5091000000.0 -1.255 0.1225
5094000000.0 -0.6952 0.9953
5097000000.0 0.2927 1.133
5100000000.0 1.03 0.505
5103000000.0 1.08 -0.4399
5106000000.0 0.323 -1.078
5109000000.0 -0.6176 -0.9032
5112000000.0 -1.051 -0.1275
5116000000.0 -0.7509 0.7531
5119000000.0 0.1043 1.057
5122000000.0 0.8384 0.6306
5125000000.0 0.9646 -0.2818
5128000000.0 0.4457 -0.941
5131000000.0 -0.4398 -0.9309
5134000000.0 -0.9736 -0.2238
5138000000.0 -0.7861 0.5993
5141000000.0 -0.07776 0.9581
5144000000.0 0.7059 0.6062
5147000000.0 0.9362 -0.1278
5150000000.0 0.5054 -0.8163
5153000000.0 -0.3311 -0.8801
5156000000.0 -0.8738 -0.2973
5159000000.0 -0.7901 0.4876
5162000000.0 -0.1276 0.8838
5166000000.0 0.5786 0.6557
5169000000.0 0.9055 -0.06139
5172000000.0 0.526 -0.7646
5175000000.0 -0.2445 -0.863
5178000000.0 -0.8506 -0.3589
5181000000.0 -0.8109 0.4272
5184000000.0 -0.1685 0.8663
5188000000.0 0.6224 0.6837
5191000000.0 0.9407 -0.01072
5194000000.0 0.5242 -0.7403
5197000000.0 -0.2569 -0.9388
5200000000.0 -0.8857 -0.3569
5203000000.0 -0.8157 0.4479
5206000000.0 -0.2013 0.9441
5209000000.0 0.6183 0.7751
5212000000.0 0.976 -0.02557
5216000000.0 0.6087 -0.7666
5219000000.0 -0.2056 -0.9439
5222000000.0 -0.8752 -0.4281
5225000000.0 -0.9121 0.4003
5228000000.0 -0.2715 0.9645
5231000000.0 0.6013 0.8224
5234000000.0 1.018 0.05742
5238000000.0 0.7048 -0.7878
5241000000.0 -0.1215 -1.038
5244000000.0 -0.8949 -0.5577
5247000000.0 -1.008 0.3575
5250000000.0 -0.3725 0.9818
5253000000.0 0.5216 0.9379
5256000000.0 1.069 0.2032
5259000000.0 0.8108 -0.684
5262000000.0 0.004077 -1.097
5266000000.0 -0.83 -0.6965
5269000000.0 -1.074 0.1888
5272000000.0 -0.5553 0.9541
5275000000.0 0.3731 1.03
5278000000.0 1.05 0.3911
5281000000.0 0.969 -0.5419
5284000000.0 0.2219 -1.089
5288000000.0 -0.7032 -0.8786
5291000000.0 -1.123 -0.06432
5294000000.0 -0.7587 0.8427
5297000000.0 0.143 1.111
5300000000.0 0.9337 0.6024
5303000000.0 1.108 -0.2927
5306000000.0 0.4634 -1.028
5309000000.0 -0.5264 -1.019
5312000000.0 -1.121 -0.3119
5316000000.0 -0.9264 0.6919
5319000000.0 -0.1079 1.124
5322000000.0 0.8471 0.817
5325000000.0 1.163 -0.09726
5328000000.0 0.6079 -0.9758
5331000000.0 -0.3423 -1.105
5334000000.0 -1.051 -0.451
5338000000.0 -0.996 0.5287
5341000000.0 -0.2355 1.106
5344000000.0 0.6904 0.8904
5347000000.0 1.113 0.04135
5350000000.0 0.7342 -0.8207
5353000000.0 -0.1931 -1.1
5356000000.0 -0.969 -0.5416
5359000000.0 -0.9954 0.3844
5362000000.0 -0.3368 1.028
5366000000.0 0.5761 0.8927
5369000000.0 1.02 0.1199
5372000000.0 0.7433 -0.7688
5375000000.0 -0.131 -1.069
5378000000.0 -0.8692 -0.5185
5381000000.0 -0.9473 0.317
5384000000.0 -0.3033 0.9641
5388000000.0 0.547 0.8216
5391000000.0 0.9721 0.08108
5394000000.0 0.6392 -0.6899
5397000000.0 -0.1423 -0.9188
5400000000.0 -0.8234 -0.4397
5403000000.0 -0.8377 0.3708
5406000000.0 -0.2347 0.8551
5409000000.0 0.4925 0.7413
5412000000.0 0.8747 0.07254
5416000000.0 0.604 -0.6648
5419000000.0 -0.1155 -0.8692
5422000000.0 -0.7783 -0.4124
5425000000.0 -0.792 0.3173
5428000000.0 -0.2455 0.8154
5431000000.0 0.4928 0.6878
5434000000.0 0.8673 0.05322
5438000000.0 0.609 -0.6397
5441000000.0 -0.1658 -0.8926
5444000000.0 -0.7886 -0.4448
5447000000.0 -0.7931 0.2991
5450000000.0 -0.2646 0.8316
5453000000.0 0.4638 0.7267
5456000000.0 0.8897 0.08052
5459000000.0 0.6417 -0.6538
5462000000.0 -0.07093 -0.8976
5466000000.0 -0.7632 -0.487
5469000000.0 -0.8863 0.2619
5472000000.0 -0.3297 0.8433
5475000000.0 0.4023 0.8077
5478000000.0 0.9164 0.2201
5481000000.0 0.7402 -0.5435
5484000000.0 0.0302 -0.9659
5488000000.0 -0.702 -0.6542
5491000000.0 -0.987 0.1267
5494000000.0 -0.5362 0.8307
5497000000.0 0.3083 0.937
5500000000.0 0.8978 0.3654
5503000000.0 0.9076 -0.4678
5506000000.0 0.2337 -0.9935
5509000000.0 -0.6497 -0.803
5512000000.0 -1.037 -0.06457
5516000000.0 -0.6961 0.7784
5519000000.0 0.1274 1.031
5522000000.0 0.8329 0.5402
5525000000.0 1.02 -0.3269
5528000000.0 0.4062 -0.9734
5531000000.0 -0.4761 -0.9464
5534000000.0 -1.031 -0.2722
5538000000.0 -0.8647 0.6209
5541000000.0 -0.08164 1.06
5544000000.0 0.7454 0.7625
5547000000.0 1.077 -0.1008
5550000000.0 0.5913 -0.8974
5553000000.0 -0.2844 -1.048
5556000000.0 -0.9716 -0.408
5559000000.0 -0.9283 0.5158
5562000000.0 -0.2317 0.9957
5566000000.0 0.6527 0.8237
5569000000.0 1.061 0.004599
5572000000.0 0.7252 -0.7477
5575000000.0 -0.1717 -1.0
5578000000.0 -0.8556 -0.537
5581000000.0 -0.9177 0.3499
5584000000.0 -0.341 0.9282
5588000000.0 0.5052 0.8206
5591000000.0 0.9584 0.1336
5594000000.0 0.727 -0.635
5597000000.0 -0.06226 -0.9449
5600000000.0 -0.7502 -0.5329
5603000000.0 -0.8921 0.2326
5606000000.0 -0.4035 0.8065
5609000000.0 0.4011 0.8109
5612000000.0 0.8565 0.2195
5616000000.0 0.6776 -0.5562
5619000000.0 0.0359 -0.8609
5622000000.0 -0.6675 -0.5619
5625000000.0 -0.8103 0.1497
5628000000.0 -0.4472 0.7342
5631000000.0 0.3358 0.7779
5634000000.0 0.8307 0.2194
5638000000.0 0.7027 -0.4973
5641000000.0 0.06408 -0.853
5644000000.0 -0.6167 -0.5834
5647000000.0 -0.83 0.1307
5650000000.0 -0.4117 0.7142
5653000000.0 0.3067 0.7937
5656000000.0 0.81 0.2359
5659000000.0 0.687 -0.5032
5662000000.0 0.06472 -0.8615
5666000000.0 -0.646 -0.597
5669000000.0 -0.8663 0.1169
5672000000.0 -0.4503 0.7695
5675000000.0 0.3229 0.8336
5678000000.0 0.8531 0.286
5681000000.0 0.7815 -0.5113
5684000000.0 0.06685 -0.9169
5688000000.0 -0.6923 -0.6628
5691000000.0 -0.9465 0.1243
5694000000.0 -0.5307 0.8359
5697000000.0 0.3136 0.9106
5700000000.0 0.931 0.3221
5703000000.0 0.8535 -0.5372
5706000000.0 0.1627 -1.012
5709000000.0 -0.6766 -0.7894
5712000000.0 -1.022 0.05145
5716000000.0 -0.6309 0.8395
5719000000.0 0.2721 0.9912
5722000000.0 0.9516 0.4732
5725000000.0 0.9894 -0.4728
5728000000.0 0.2665 -1.019
5731000000.0 -0.6389 -0.8629
5734000000.0 -1.102 -0.08302
5738000000.0 -0.7859 0.7771
5741000000.0 0.1535 1.083
5744000000.0 0.9318 0.5997
5747000000.0 1.073 -0.3515
5750000000.0 0.4181 -1.025
5753000000.0 -0.4789 -0.9831
5756000000.0 -1.075 -0.2505
5759000000.0 -0.8833 0.6684
5762000000.0 -0.03687 1.094
5766000000.0 0.8228 0.7506
5769000000.0 1.088 -0.1434
5772000000.0 0.5947 -0.9239
5775000000.0 -0.3309 -1.055
5778000000.0 -1.016 -0.4031
5781000000.0 -0.945 0.5309
5784000000.0 -0.1978 1.05
5788000000.0 0.6708 0.8551
5791000000.0 1.08 -0.03287
5794000000.0 0.6918 -0.8083
5797000000.0 -0.1655 -1.057
5800000000.0 -0.9329 -0.5457
5803000000.0 -1.0 0.3498
5806000000.0 -0.3622 0.9553
5809000000.0 0.5596 0.9225
5812000000.0 1.044 0.1538
5816000000.0 0.7363 -0.7069
5819000000.0 -0.04472 -1.027
5822000000.0 -0.8408 -0.599
5825000000.0 -0.9785 0.2601
5828000000.0 -0.4531 0.924
5831000000.0 0.413 0.9062
5834000000.0 0.9397 0.2333
5838000000.0 0.8054 -0.5739
5841000000.0 0.03618 -0.9781
5844000000.0 -0.745 -0.6764
5847000000.0 -0.9591 0.1731
5850000000.0 -0.4797 0.854
5853000000.0 0.3759 0.8764
5856000000.0 0.913 0.2708
5859000000.0 0.7968 -0.5228
5862000000.0 0.07133 -0.9141
5866000000.0 -0.6742 -0.6351
5869000000.0 -0.8965 0.1344
5872000000.0 -0.4595 0.7736
5875000000.0 0.3182 0.8407
5878000000.0 0.8186 0.296
5881000000.0 0.7402 -0.4415
5884000000.0 0.1146 -0.8658
5888000000.0 -0.6249 -0.6267
5891000000.0 -0.8241 0.09691
5894000000.0 -0.4562 0.7466
5897000000.0 0.2637 0.8077
5900000000.0 0.7849 0.3143
5903000000.0 0.7663 -0.4258
5906000000.0 0.1584 -0.8454
5909000000.0 -0.5869 -0.6637
5912000000.0 -0.8356 0.01784
5916000000.0 -0.5453 0.7015
5919000000.0 0.2334 0.8268
5922000000.0 0.7953 0.4018
5925000000.0 0.7968 -0.3802
5928000000.0 0.2031 -0.8471
5931000000.0 -0.512 -0.7105
5934000000.0 -0.8929 -0.06353
5938000000.0 -0.6126 0.6375
5941000000.0 0.1128 0.9081
5944000000.0 0.743 0.4737
5947000000.0 0.872 -0.2751
5950000000.0 0.3493 -0.8287
5953000000.0 -0.4294 -0.8278
5956000000.0 -0.8954 -0.1904
5959000000.0 -0.733 0.5532
5962000000.0 -0.03929 0.9186
5966000000.0 0.6943 0.6232
5969000000.0 0.9316 -0.108
5972000000.0 0.5487 -0.8083
5975000000.0 -0.306 -0.9074
5978000000.0 -0.9257 -0.3569
5981000000.0 -0.8518 0.4814
5984000000.0 -0.1745 0.9664
5988000000.0 0.6211 0.7807
5991000000.0 1.012 0.0003069
5994000000.0 0.6576 -0.7334
5997000000.0 -0.1771 -0.9875
6000000000.0 -0.8724 -0.5188
6003000000.0 -0.9341 0.3595
6006000000.0 -0.3162 0.9409
6009000000.0 0.5335 0.8405
6012000000.0 0.9812 0.1311
6016000000.0 0.7256 -0.6739
6019000000.0 -0.04454 -0.9968
6022000000.0 -0.7975 -0.5675
6025000000.0 -0.9641 0.2879
6028000000.0 -0.4248 0.9086
6031000000.0 0.4232 0.8818
6034000000.0 0.9529 0.2384
6038000000.0 0.7569 -0.5748
6041000000.0 0.02536 -0.9825
6044000000.0 -0.7302 -0.6468
6047000000.0 -0.9522 0.1547
6050000000.0 -0.4744 0.816
6053000000.0 0.336 0.867
6056000000.0 0.9108 0.2896
6059000000.0 0.7744 -0.5218
6062000000.0 0.06997 -0.897
6066000000.0 -0.6808 -0.6309
6069000000.0 -0.8905 0.1261
6072000000.0 -0.4794 0.7696
6075000000.0 0.2781 0.8401
6078000000.0 0.8367 0.2687
6081000000.0 0.7656 -0.4493
6084000000.0 0.1096 -0.8885
6088000000.0 -0.6007 -0.6163
6091000000.0 -0.8599 0.05987
6094000000.0 -0.517 0.6952
6097000000.0 0.1972 0.8314
6100000000.0 0.7947 0.3359
6103000000.0 0.7459 -0.3761
6106000000.0 0.1611 -0.8491
6109000000.0 -0.5516 -0.6547
6112000000.0 -0.853 0.0184
6116000000.0 -0.5094 0.6764
6119000000.0 0.1915 0.8239
6122000000.0 0.7695 0.3789
6125000000.0 0.7913 -0.3519
6128000000.0 0.2061 -0.8437
6131000000.0 -0.5115 -0.6821
6134000000.0 -0.8592 -0.01913
6138000000.0 -0.5572 0.6806
6141000000.0 0.1566 0.8822
6144000000.0 0.7656 0.42
6147000000.0 0.8306 -0.3259
6150000000.0 0.3084 -0.8237
6153000000.0 -0.5019 -0.7361
6156000000.0 -0.9249 -0.0855
6159000000.0 -0.6638 0.6671
6162000000.0 0.08807 0.9428
6166000000.0 0.7884 0.5076
6169000000.0 0.8667 -0.2552
6172000000.0 0.3557 -0.9194
6175000000.0 -0.4586 -0.8304
6178000000.0 -0.9378 -0.1611
6181000000.0 -0.7288 0.6064
6184000000.0 0.03322 0.9114
6188000000.0 0.761 0.5875
6191000000.0 0.9372 -0.2226
6194000000.0 0.4382 -0.8572
6197000000.0 -0.3768 -0.89
6200000000.0 -0.9033 -0.2529
6203000000.0 -0.7562 0.511
6206000000.0 -0.09311 0.9217
6209000000.0 0.6389 0.6602
6212000000.0 0.902 -0.1102
6216000000.0 0.5454 -0.762
6219000000.0 -0.2964 -0.8836
6222000000.0 -0.8336 -0.3371
6225000000.0 -0.83 0.4384
6228000000.0 -0.1794 0.898
6231000000.0 0.5564 0.7316
6234000000.0 0.9087 0.01575
6238000000.0 0.5628 -0.636
6241000000.0 -0.1214 -0.8579
6244000000.0 -0.757 -0.4544
6247000000.0 -0.8061 0.2818
6250000000.0 -0.2732 0.8021
6253000000.0 0.4039 0.7194
6256000000.0 0.8533 0.1377
6259000000.0 0.6582 -0.5145
6262000000.0 0.006992 -0.8019
6266000000.0 -0.6403 -0.5266
6269000000.0 -0.8062 0.1398
