! Created with skrf 1.8.0 (http://scikit-rf.org).
# Hz S RI R 50.0 
!freq ReS11 ImS11
4000000000.0 -0.1854 -1.5
4003000000.0 -1.241 -0.801
4006000000.0 -1.435 0.5004
4009000000.0 -0.5267 1.419
4012000000.0 0.7314 1.323
4016000000.0 1.524 0.2139
4019000000.0 1.125 -1.078
4022000000.0 -0.09982 -1.507
4025000000.0 -1.262 -0.853
4028000000.0 -1.46 0.4558
4031000000.0 -0.6064 1.526
4034000000.0 0.8355 1.419
4038000000.0 1.618 0.2407
4041000000.0 1.199 -1.086
4044000000.0 -0.09792 -1.617
4047000000.0 -1.301 -0.94
4050000000.0 -1.569 0.4743
4053000000.0 -0.5784 1.486
4056000000.0 0.7862 1.395
4059000000.0 1.596 0.324
4062000000.0 1.252 -1.02
4066000000.0 0.001806 -1.594
4069000000.0 -1.217 -1.094
4072000000.0 -1.587 0.2426
4075000000.0 -0.8274 1.38
4078000000.0 0.5517 1.512
4081000000.0 1.561 0.538
4084000000.0 1.435 -0.8234
4088000000.0 0.2394 -1.606
4091000000.0 -1.121 -1.246
4094000000.0 -1.627 0.07243
4097000000.0 -0.9739 1.316
4100000000.0 0.3948 1.584
4103000000.0 1.426 0.6886
4106000000.0 1.434 -0.6392
4109000000.0 0.4682 -1.498
4112000000.0 -0.8249 -1.258
4116000000.0 -1.474 -0.2493
4119000000.0 -1.091 0.986
4122000000.0 0.02498 1.479
4125000000.0 1.113 0.9552
4128000000.0 1.479 -0.268
4131000000.0 0.7767 -1.243
4134000000.0 -0.4631 -1.45
4138000000.0 -1.346 -0.5734
4141000000.0 -1.351 0.6264
4144000000.0 -0.3809 1.436
4147000000.0 0.8587 1.224
4150000000.0 1.483 0.1329
4153000000.0 1.055 -1.062
4156000000.0 -0.1553 -1.478
4159000000.0 -1.246 -0.9011
4162000000.0 -1.449 0.3842
4166000000.0 -0.6478 1.37
4169000000.0 0.5864 1.367
4172000000.0 1.432 0.3764
4175000000.0 1.263 -0.8197
4178000000.0 0.1792 -1.468
4181000000.0 -1.043 -1.053
4184000000.0 -1.476 0.1266
4188000000.0 -0.8617 1.229
4191000000.0 0.3958 1.469
4194000000.0 1.37 0.6531
4197000000.0 1.392 -0.62
4200000000.0 0.3751 -1.508
4203000000.0 -0.9975 -1.259
4206000000.0 -1.607 -0.01309
4209000000.0 -1.023 1.249
4212000000.0 0.3112 1.603
4216000000.0 1.49 0.7324
4219000000.0 1.473 -0.7601
4222000000.0 0.3151 -1.649
4225000000.0 -1.105 -1.247
4228000000.0 -1.69 0.1245
4231000000.0 -0.8987 1.393
4234000000.0 0.5335 1.543
4238000000.0 1.535 0.5101
4241000000.0 1.327 -0.9323
4244000000.0 0.02327 -1.605
4247000000.0 -1.211 -1.036
4250000000.0 -1.531 0.3265
4253000000.0 -0.6934 1.417
4256000000.0 0.6641 1.395
4259000000.0 1.483 0.3059
4262000000.0 1.162 -0.9686
4266000000.0 -0.07004 -1.472
4269000000.0 -1.223 -0.8325
4272000000.0 -1.428 0.3957
4275000000.0 -0.5393 1.368
4278000000.0 0.7436 1.224
4281000000.0 1.42 0.1879
4284000000.0 1.015 -0.9529
4288000000.0 -0.1654 -1.391
4291000000.0 -1.15 -0.7596
4294000000.0 -1.291 0.4166
4297000000.0 -0.4599 1.267
4300000000.0 0.6501 1.123
4303000000.0 1.323 0.2391
4306000000.0 1.01 -0.8017
4309000000.0 0.005057 -1.273
4312000000.0 -0.9958 -0.8468
4316000000.0 -1.283 0.1762
4319000000.0 -0.6791 1.121
4322000000.0 0.4218 1.252
4325000000.0 1.199 0.4707
4328000000.0 1.169 -0.6335
4331000000.0 0.2635 -1.322
4334000000.0 -0.8313 -1.086
4338000000.0 -1.388 -0.05047
4341000000.0 -0.8891 1.045
4344000000.0 0.2136 1.389
4347000000.0 1.22 0.7182
4350000000.0 1.308 -0.5094
4353000000.0 0.4839 -1.332
4356000000.0 -0.7569 -1.24
4359000000.0 -1.41 -0.2386
4362000000.0 -1.117 0.9412
4366000000.0 0.02381 1.418
4369000000.0 1.14 0.9337
4372000000.0 1.463 -0.293
4375000000.0 0.6865 -1.285
4378000000.0 -0.5773 -1.377
4381000000.0 -1.44 -0.468
4384000000.0 -1.257 0.8524
4388000000.0 -0.162 1.53
4391000000.0 1.102 1.106
4394000000.0 1.551 -0.2044
4397000000.0 0.8565 -1.292
4400000000.0 -0.499 -1.477
4403000000.0 -1.455 -0.5262
4406000000.0 -1.365 0.8266
4409000000.0 -0.1642 1.567
4412000000.0 1.106 1.103
4416000000.0 1.561 -0.1894
4419000000.0 0.7545 -1.303
4422000000.0 -0.5565 -1.405
4425000000.0 -1.454 -0.4264
4428000000.0 -1.234 0.8444
4431000000.0 -0.09089 1.457
4434000000.0 1.048 0.9368
4438000000.0 1.377 -0.2646
4441000000.0 0.6272 -1.234
4444000000.0 -0.5925 -1.233
4447000000.0 -1.303 -0.3291
4450000000.0 -1.05 0.8667
4453000000.0 0.0672 1.316
4456000000.0 1.023 0.767
4459000000.0 1.25 -0.3264
4462000000.0 0.4695 -1.193
4466000000.0 -0.6416 -1.051
4469000000.0 -1.215 -0.1575
4472000000.0 -0.8132 0.8473
4475000000.0 0.1775 1.22
4478000000.0 0.9894 0.5847
4481000000.0 1.072 -0.4183
4484000000.0 0.292 -1.094
4488000000.0 -0.6709 -0.9217
4491000000.0 -1.152 -0.07828
4494000000.0 -0.7376 0.8487
4497000000.0 0.1872 1.092
4500000000.0 0.9758 0.5605
4503000000.0 1.017 -0.4188
4506000000.0 0.296 -1.056
4509000000.0 -0.6104 -0.9017
4512000000.0 -1.082 -0.08857
4516000000.0 -0.7473 0.7992
4519000000.0 0.1344 1.113
4522000000.0 0.9616 0.6073
4525000000.0 1.087 -0.3841
4528000000.0 0.3944 -1.044
4531000000.0 -0.5622 -0.9937
4534000000.0 -1.124 -0.1929
4538000000.0 -0.862 0.7551
4541000000.0 0.02917 1.17
4544000000.0 0.9307 0.7081
4547000000.0 1.131 -0.2691
4550000000.0 0.5677 -1.043
4553000000.0 -0.4435 -1.108
4556000000.0 -1.175 -0.3553
4559000000.0 -1.046 0.6406
4562000000.0 -0.1584 1.21
4566000000.0 0.8608 0.9114
4569000000.0 1.257 -0.03705
4572000000.0 0.7721 -0.9856
4575000000.0 -0.2919 -1.273
4578000000.0 -1.143 -0.6001
4581000000.0 -1.206 0.5539
4584000000.0 -0.387 1.278
4588000000.0 0.7445 1.109
4591000000.0 1.344 0.1437
4594000000.0 1.002 -0.9668
4597000000.0 -0.1206 -1.374
4600000000.0 -1.129 -0.7929
4603000000.0 -1.33 0.3992
4606000000.0 -0.5426 1.269
4609000000.0 0.6041 1.25
4612000000.0 1.36 0.2931
4616000000.0 1.087 -0.86
4619000000.0 -0.004013 -1.399
4622000000.0 -1.062 -0.8919
4625000000.0 -1.348 0.2629
4628000000.0 -0.6527 1.227
4631000000.0 0.5155 1.267
4634000000.0 1.291 0.3908
4638000000.0 1.094 -0.7572
4641000000.0 0.09055 -1.342
4644000000.0 -1.008 -0.9058
4647000000.0 -1.312 0.2047
4650000000.0 -0.6545 1.126
4653000000.0 0.4843 1.214
4656000000.0 1.255 0.3273
4659000000.0 1.015 -0.7184
4662000000.0 0.0495 -1.228
4666000000.0 -0.8861 -0.8321
4669000000.0 -1.197 0.2252
4672000000.0 -0.5456 1.062
4675000000.0 0.4544 1.07
4678000000.0 1.109 0.2908
4681000000.0 0.9018 -0.6991
4684000000.0 0.06609 -1.125
4688000000.0 -0.8576 -0.7268
4691000000.0 -1.108 0.2055
4694000000.0 -0.5338 0.9844
4697000000.0 0.4512 1.019
4700000000.0 1.029 0.2653
4703000000.0 0.8836 -0.6614
4706000000.0 0.01339 -1.074
4709000000.0 -0.8374 -0.6663
4712000000.0 -1.04 0.2265
4716000000.0 -0.5113 0.9759
4719000000.0 0.4265 0.9673
4722000000.0 1.028 0.2694
4725000000.0 0.8443 -0.6508
4728000000.0 0.03745 -1.05
4731000000.0 -0.7976 -0.6808
4734000000.0 -0.9791 0.1915
4738000000.0 -0.5123 0.8813
4741000000.0 0.377 0.9411
4744000000.0 0.9969 0.3172
4747000000.0 0.8717 -0.565
4750000000.0 0.1352 -1.078
4753000000.0 -0.7296 -0.7655
4756000000.0 -1.097 0.06658
4759000000.0 -0.6525 0.8632
4762000000.0 0.2521 1.062
4766000000.0 0.9977 0.5213
4769000000.0 1.056 -0.4402
4772000000.0 0.3344 -1.095
4775000000.0 -0.6595 -0.9718
4778000000.0 -1.143 -0.1146
4781000000.0 -0.8622 0.8181
4784000000.0 0.08141 1.195
4788000000.0 0.9569 0.7255
4791000000.0 1.159 -0.2718
4794000000.0 0.5507 -1.067
4797000000.0 -0.4752 -1.119
4800000000.0 -1.195 -0.3464
4803000000.0 -1.024 0.6539
4806000000.0 -0.1775 1.231
4809000000.0 0.8616 0.9154
4812000000.0 1.271 -0.06216
4816000000.0 0.7697 -1.023
4819000000.0 -0.27 -1.264
4822000000.0 -1.186 -0.5902
4825000000.0 -1.23 0.5388
4828000000.0 -0.3807 1.294
4831000000.0 0.7867 1.144
4834000000.0 1.37 0.1117
4838000000.0 0.9637 -0.9693
4841000000.0 -0.1496 -1.374
4844000000.0 -1.163 -0.7727
4847000000.0 -1.312 0.4255
4850000000.0 -0.4959 1.3
4853000000.0 0.6772 1.22
4856000000.0 1.345 0.2488
4859000000.0 1.041 -0.8689
4862000000.0 -0.0626 -1.34
4866000000.0 -1.02 -0.8182
4869000000.0 -1.278 0.3156
4872000000.0 -0.5785 1.185
4875000000.0 0.5127 1.143
4878000000.0 1.22 0.3163
4881000000.0 1.014 -0.7665
4884000000.0 0.03581 -1.247
4888000000.0 -0.9326 -0.7982
4891000000.0 -1.2 0.2177
4894000000.0 -0.5733 1.039
4897000000.0 0.445 1.077
4900000000.0 1.093 0.3054
4903000000.0 0.9142 -0.6391
4906000000.0 0.05897 -1.092
4909000000.0 -0.7476 -0.7215
4912000000.0 -1.037 0.1543
4916000000.0 -0.5166 0.8799
4919000000.0 0.3479 0.9498
4922000000.0 0.917 0.3429
4925000000.0 0.8349 -0.5192
4928000000.0 0.131 -0.9715
4931000000.0 -0.6209 -0.6764
4934000000.0 -0.9197 0.07481
4938000000.0 -0.5961 0.7353
4941000000.0 0.2351 0.9227
4944000000.0 0.8443 0.399
4947000000.0 0.8349 -0.3894
4950000000.0 0.2218 -0.9138
4953000000.0 -0.5739 -0.7372
4956000000.0 -0.9374 -0.05415
4959000000.0 -0.6528 0.7222
4962000000.0 0.2034 0.9523
4966000000.0 0.8462 0.4873
4969000000.0 0.9178 -0.3447
4972000000.0 0.3308 -0.9432
4975000000.0 -0.5334 -0.8591
4978000000.0 -0.9935 -0.1005
4981000000.0 -0.7274 0.7042
4984000000.0 0.06005 1.023
4988000000.0 0.8683 0.5989
4991000000.0 1.035 -0.2855
4994000000.0 0.4505 -0.959
4997000000.0 -0.4394 -0.9744
5000000000.0 -1.065 -0.2691
5003000000.0 -0.8924 0.6564
5006000000.0 -0.05899 1.168
5009000000.0 0.8457 0.8083
5012000000.0 1.177 -0.1716
5016000000.0 0.6533 -1.019
5019000000.0 -0.3854 -1.187
5022000000.0 -1.16 -0.4478
5025000000.0 -1.119 0.6149
5028000000.0 -0.2317 1.25
5031000000.0 0.8294 0.99
5034000000.0 1.27 -0.02184
5038000000.0 0.8082 -0.9966
5041000000.0 -0.2409 -1.257
5044000000.0 -1.106 -0.5855
5047000000.0 -1.188 0.4594
5050000000.0 -0.422 1.216
5053000000.0 0.6903 1.088
5056000000.0 1.272 0.1872
5059000000.0 0.989 -0.8396
5062000000.0 -0.05488 -1.286
5066000000.0 -1.011 -0.7988
5069000000.0 -1.28 0.2602
5072000000.0 -0.585 1.147
5075000000.0 0.4628 1.159
5078000000.0 1.204 0.3876
5081000000.0 1.063 -0.7114
5084000000.0 0.1446 -1.209
5088000000.0 -0.8408 -0.878
5091000000.0 -1.178 0.07451
5094000000.0 -0.6793 0.969
5097000000.0 0.3017 1.134
5100000000.0 1.039 0.4932
5103000000.0 1.032 -0.4544
5106000000.0 0.3526 -1.056
5109000000.0 -0.5662 -0.8893
5112000000.0 -1.065 -0.0826
5116000000.0 -0.7541 0.7279
5119000000.0 0.07629 1.094
5122000000.0 0.8327 0.5996
5125000000.0 0.9883 -0.2716
5128000000.0 0.4585 -0.9134
5131000000.0 -0.4221 -0.8817
5134000000.0 -0.9824 -0.2777
5138000000.0 -0.8064 0.5816
5141000000.0 -0.05163 0.9833
5144000000.0 0.7231 0.6589
5147000000.0 0.9241 -0.135
5150000000.0 0.4903 -0.8457
5153000000.0 -0.3334 -0.8948
5156000000.0 -0.8813 -0.3117
5159000000.0 -0.7677 0.4875
5162000000.0 -0.141 0.8607
5166000000.0 0.6056 0.6827
5169000000.0 0.8831 -0.049
5172000000.0 0.5472 -0.7303
5175000000.0 -0.2236 -0.8616
5178000000.0 -0.8062 -0.3394
5181000000.0 -0.802 0.4441
5184000000.0 -0.1961 0.9226
5188000000.0 0.5821 0.6791
5191000000.0 0.9314 -0.007333
5194000000.0 0.5523 -0.7446
5197000000.0 -0.2276 -0.8895
5200000000.0 -0.8637 -0.364
5203000000.0 -0.8478 0.4371
5206000000.0 -0.1773 0.9448
5209000000.0 0.5976 0.7323
5212000000.0 0.9557 0.009774
5216000000.0 0.5762 -0.7474
5219000000.0 -0.1885 -0.9478
5222000000.0 -0.893 -0.4434
5225000000.0 -0.9262 0.4122
5228000000.0 -0.2532 0.9464
5231000000.0 0.5871 0.8228
5234000000.0 1.0 0.0713
5238000000.0 0.7107 -0.7864
5241000000.0 -0.1183 -1.027
5244000000.0 -0.8798 -0.5415
5247000000.0 -0.9821 0.3518
5250000000.0 -0.3628 1.016
5253000000.0 0.5129 0.9187
5256000000.0 1.06 0.198
5259000000.0 0.8108 -0.6643
5262000000.0 0.009231 -1.078
5266000000.0 -0.827 -0.6882
5269000000.0 -1.051 0.2127
5272000000.0 -0.5827 0.926
5275000000.0 0.3631 1.037
5278000000.0 1.036 0.3999
5281000000.0 0.9743 -0.5104
5284000000.0 0.2342 -1.072
5288000000.0 -0.6623 -0.8438
5291000000.0 -1.105 -0.02403
5294000000.0 -0.758 0.8017
5297000000.0 0.1201 1.101
5300000000.0 0.9293 0.6043
5303000000.0 1.081 -0.295
5306000000.0 0.4524 -1.054
5309000000.0 -0.4727 -1.023
5312000000.0 -1.094 -0.2492
5316000000.0 -0.8942 0.6608
5319000000.0 -0.06573 1.14
5322000000.0 0.8174 0.7988
5325000000.0 1.147 -0.1074
5328000000.0 0.6667 -0.9396
5331000000.0 -0.2829 -1.111
5334000000.0 -1.046 -0.4664
5338000000.0 -0.9981 0.5185
5341000000.0 -0.2403 1.089
5344000000.0 0.7063 0.9045
5347000000.0 1.111 0.04614
5350000000.0 0.7219 -0.8383
5353000000.0 -0.1807 -1.092
5356000000.0 -0.949 -0.5522
5359000000.0 -1.02 0.3977
5362000000.0 -0.3311 1.041
5366000000.0 0.5566 0.8971
5369000000.0 1.047 0.123
5372000000.0 0.7383 -0.7261
5375000000.0 -0.119 -1.048
5378000000.0 -0.8702 -0.538
5381000000.0 -0.9311 0.3201
5384000000.0 -0.33 0.9397
5388000000.0 0.5288 0.8051
5391000000.0 0.9428 0.09213
5394000000.0 0.6595 -0.6804
5397000000.0 -0.139 -0.9181
5400000000.0 -0.7852 -0.4593
5403000000.0 -0.8334 0.3317
5406000000.0 -0.2882 0.844
5409000000.0 0.495 0.7298
5412000000.0 0.8742 0.09077
5416000000.0 0.5975 -0.6576
5419000000.0 -0.1176 -0.863
5422000000.0 -0.7268 -0.4652
5425000000.0 -0.7962 0.3172
5428000000.0 -0.2839 0.816
5431000000.0 0.491 0.7206
5434000000.0 0.8757 0.06993
5438000000.0 0.5759 -0.6635
5441000000.0 -0.1279 -0.8257
5444000000.0 -0.7702 -0.4649
5447000000.0 -0.8117 0.3352
5450000000.0 -0.2393 0.8569
5453000000.0 0.4687 0.7219
5456000000.0 0.8965 0.0868
5459000000.0 0.6272 -0.6109
5462000000.0 -0.08356 -0.9173
5466000000.0 -0.747 -0.5418
5469000000.0 -0.8702 0.2308
5472000000.0 -0.356 0.833
5475000000.0 0.423 0.8245
5478000000.0 0.914 0.21
5481000000.0 0.7574 -0.5651
5484000000.0 0.05309 -0.9482
5488000000.0 -0.7125 -0.6582
5491000000.0 -0.9987 0.1128
5494000000.0 -0.5523 0.811
5497000000.0 0.2688 0.9674
5500000000.0 0.9151 0.3971
5503000000.0 0.8768 -0.4357
5506000000.0 0.2155 -0.988
5509000000.0 -0.6205 -0.7817
5512000000.0 -1.032 -0.06465
5516000000.0 -0.6753 0.7342
5519000000.0 0.1159 1.019
5522000000.0 0.8367 0.5704
5525000000.0 1.004 -0.2957
5528000000.0 0.4243 -0.936
5531000000.0 -0.4385 -0.9163
5534000000.0 -1.013 -0.2851
5538000000.0 -0.8669 0.6236
5541000000.0 -0.0867 1.06
5544000000.0 0.7848 0.7473
5547000000.0 1.043 -0.1059
5550000000.0 0.5988 -0.8764
5553000000.0 -0.315 -1.002
5556000000.0 -1.004 -0.426
5559000000.0 -0.9272 0.4877
5562000000.0 -0.2323 1.013
5566000000.0 0.6104 0.8036
5569000000.0 1.04 0.05023
5572000000.0 0.6602 -0.7663
5575000000.0 -0.1546 -0.9726
5578000000.0 -0.8632 -0.5137
5581000000.0 -0.939 0.3388
5584000000.0 -0.3212 0.9157
5588000000.0 0.4883 0.8115
5591000000.0 0.9388 0.1499
5594000000.0 0.6974 -0.614
5597000000.0 -0.02114 -0.9043
5600000000.0 -0.7557 -0.5417
5603000000.0 -0.8674 0.2229
5606000000.0 -0.3797 0.8173
5609000000.0 0.3387 0.7944
5612000000.0 0.8619 0.1948
5616000000.0 0.6723 -0.5211
5619000000.0 0.03715 -0.8927
5622000000.0 -0.6408 -0.5566
5625000000.0 -0.8338 0.1349
5628000000.0 -0.4149 0.7157
5631000000.0 0.3161 0.7679
5634000000.0 0.7924 0.2562
5638000000.0 0.6951 -0.4407
5641000000.0 0.03287 -0.8385
5644000000.0 -0.5984 -0.5406
5647000000.0 -0.806 0.107
5650000000.0 -0.4249 0.7132
5653000000.0 0.2996 0.7771
5656000000.0 0.8069 0.2437
5659000000.0 0.6992 -0.48
5662000000.0 0.06578 -0.8547
5666000000.0 -0.65 -0.6105
5669000000.0 -0.8751 0.09924
5672000000.0 -0.4744 0.7375
5675000000.0 0.3222 0.8354
5678000000.0 0.8554 0.2573
5681000000.0 0.733 -0.4975
5684000000.0 0.1065 -0.9126
5688000000.0 -0.6505 -0.6804
5691000000.0 -0.9333 0.134
5694000000.0 -0.524 0.7994
5697000000.0 0.3287 0.9242
5700000000.0 0.9269 0.339
5703000000.0 0.8468 -0.5158
5706000000.0 0.1568 -0.9809
5709000000.0 -0.6683 -0.7392
5712000000.0 -1.033 0.07591
5716000000.0 -0.6352 0.8371
5719000000.0 0.2439 0.9815
5722000000.0 0.9664 0.4754
5725000000.0 0.964 -0.4826
5728000000.0 0.2883 -1.043
5731000000.0 -0.6396 -0.8721
5734000000.0 -1.09 -0.07272
5738000000.0 -0.7378 0.7588
5741000000.0 0.09615 1.033
5744000000.0 0.8995 0.6084
5747000000.0 1.039 -0.3128
5750000000.0 0.4487 -1.007
5753000000.0 -0.5246 -0.9862
5756000000.0 -1.062 -0.2591
5759000000.0 -0.8699 0.6825
5762000000.0 -0.02225 1.101
5766000000.0 0.8437 0.7317
5769000000.0 1.11 -0.1298
5772000000.0 0.6061 -0.915
5775000000.0 -0.3372 -1.08
5778000000.0 -1.021 -0.4136
5781000000.0 -0.9661 0.5058
5784000000.0 -0.2326 1.036
5788000000.0 0.6765 0.8655
5791000000.0 1.078 0.05719
5794000000.0 0.6918 -0.7662
5797000000.0 -0.1741 -1.06
5800000000.0 -0.9109 -0.5354
5803000000.0 -0.9935 0.3596
5806000000.0 -0.396 0.9736
5809000000.0 0.5321 0.8809
5812000000.0 1.028 0.1952
5816000000.0 0.7623 -0.6712
5819000000.0 -0.04214 -1.076
5822000000.0 -0.7925 -0.596
5825000000.0 -0.9613 0.2371
5828000000.0 -0.4439 0.9368
5831000000.0 0.433 0.8993
5834000000.0 0.9392 0.2636
5838000000.0 0.7934 -0.5725
5841000000.0 0.04671 -0.9449
5844000000.0 -0.7098 -0.6279
5847000000.0 -0.9375 0.1524
5850000000.0 -0.4886 0.8372
5853000000.0 0.3326 0.8614
5856000000.0 0.8672 0.2918
5859000000.0 0.7743 -0.4845
5862000000.0 0.07912 -0.9347
5866000000.0 -0.6826 -0.6313
5869000000.0 -0.893 0.1034
5872000000.0 -0.4769 0.7852
5875000000.0 0.3178 0.8206
5878000000.0 0.814 0.2746
5881000000.0 0.7491 -0.4531
5884000000.0 0.09043 -0.8565
5888000000.0 -0.5862 -0.6346
5891000000.0 -0.8816 0.08572
5894000000.0 -0.4581 0.733
5897000000.0 0.2673 0.8088
5900000000.0 0.8167 0.2924
5903000000.0 0.7641 -0.4073
5906000000.0 0.1838 -0.8451
5909000000.0 -0.5667 -0.6553
5912000000.0 -0.8279 -0.006605
5916000000.0 -0.5205 0.6987
5919000000.0 0.1892 0.811
5922000000.0 0.779 0.3365
5925000000.0 0.7954 -0.3567
5928000000.0 0.2094 -0.8147
5931000000.0 -0.5095 -0.6945
5934000000.0 -0.8857 -0.08344
5938000000.0 -0.6062 0.6173
5941000000.0 0.07889 0.8533
5944000000.0 0.7548 0.4742
5947000000.0 0.8468 -0.2408
5950000000.0 0.3528 -0.8222
5953000000.0 -0.4351 -0.8075
5956000000.0 -0.8795 -0.2049
5959000000.0 -0.7255 0.5819
5962000000.0 -0.05566 0.9153
5966000000.0 0.6713 0.6567
5969000000.0 0.9458 -0.1307
5972000000.0 0.4917 -0.8195
5975000000.0 -0.3126 -0.905
5978000000.0 -0.8858 -0.3535
5981000000.0 -0.8372 0.4665
5984000000.0 -0.218 0.9501
5988000000.0 0.5961 0.8023
5991000000.0 0.9986 -0.000816
5994000000.0 0.6515 -0.7245
5997000000.0 -0.1603 -0.9792
6000000000.0 -0.8542 -0.4945
6003000000.0 -0.9478 0.3272
6006000000.0 -0.3324 0.9357
6009000000.0 0.5045 0.8281
6012000000.0 0.9925 0.1781
6016000000.0 0.7092 -0.6543
6019000000.0 -0.03835 -0.9906
6022000000.0 -0.7855 -0.5874
6025000000.0 -0.9608 0.2603
6028000000.0 -0.4187 0.8758
6031000000.0 0.4337 0.8579
6034000000.0 0.9117 0.2629
6038000000.0 0.774 -0.5961
6041000000.0 0.04261 -0.9643
6044000000.0 -0.7084 -0.6193
6047000000.0 -0.9561 0.165
6050000000.0 -0.4765 0.8323
6053000000.0 0.3412 0.8657
6056000000.0 0.8658 0.2835
6059000000.0 0.7821 -0.5268
6062000000.0 0.08906 -0.9057
6066000000.0 -0.6593 -0.6377
6069000000.0 -0.8972 0.08248
6072000000.0 -0.4619 0.7417
6075000000.0 0.2971 0.8476
6078000000.0 0.7948 0.3157
6081000000.0 0.7548 -0.4441
6084000000.0 0.1298 -0.8646
6088000000.0 -0.5846 -0.6601
6091000000.0 -0.839 0.049
6094000000.0 -0.5019 0.6937
6097000000.0 0.2322 0.8313
6100000000.0 0.7785 0.3443
6103000000.0 0.7318 -0.3989
6106000000.0 0.1853 -0.8336
6109000000.0 -0.5308 -0.6581
6112000000.0 -0.866 -0.01985
6116000000.0 -0.521 0.6827
6119000000.0 0.1806 0.8513
6122000000.0 0.7784 0.412
6125000000.0 0.7922 -0.3878
6128000000.0 0.1969 -0.8236
6131000000.0 -0.5247 -0.7092
6134000000.0 -0.8383 -0.02673
6138000000.0 -0.5244 0.665
6141000000.0 0.162 0.8498
6144000000.0 0.7735 0.4343
6147000000.0 0.7891 -0.3349
6150000000.0 0.2813 -0.8502
6153000000.0 -0.4718 -0.7935
6156000000.0 -0.8881 -0.1094
6159000000.0 -0.654 0.6343
6162000000.0 0.06525 0.9291
6166000000.0 0.7542 0.5217
6169000000.0 0.8425 -0.2943
6172000000.0 0.3491 -0.8389
6175000000.0 -0.4445 -0.8297
6178000000.0 -0.91 -0.1811
6181000000.0 -0.7345 0.5942
6184000000.0 -0.009284 0.9608
6188000000.0 0.7119 0.5957
6191000000.0 0.9371 -0.159
6194000000.0 0.4129 -0.8384
6197000000.0 -0.3732 -0.8463
6200000000.0 -0.8865 -0.2937
6203000000.0 -0.7858 0.5357
6206000000.0 -0.09536 0.9227
6209000000.0 0.6769 0.6658
6212000000.0 0.9149 -0.08115
6216000000.0 0.4988 -0.7424
6219000000.0 -0.273 -0.885
6222000000.0 -0.8481 -0.3743
6225000000.0 -0.8228 0.4275
6228000000.0 -0.1979 0.9146
6231000000.0 0.5047 0.6853
6234000000.0 0.8738 0.02111
6238000000.0 0.5936 -0.6638
6241000000.0 -0.114 -0.883
6244000000.0 -0.7606 -0.4434
6247000000.0 -0.8363 0.2641
6250000000.0 -0.3033 0.8014
6253000000.0 0.3872 0.769
6256000000.0 0.8222 0.1482
6259000000.0 0.622 -0.5215
6262000000.0 -0.01468 -0.8315
6266000000.0 -0.6264 -0.5498
