! Created with skrf 1.8.0 (http://scikit-rf.org).
# Hz S RI R 50.0 
!freq ReS11 ImS11
4000000000.0 -0.1971 -1.467
4003000000.0 -1.263 -0.804
4006000000.0 -1.425 0.4884
4009000000.0 -0.5247 1.427
4012000000.0 0.7943 1.279
4016000000.0 1.515 0.1924
4019000000.0 1.091 -1.058
4022000000.0 -0.111 -1.535
4025000000.0 -1.31 -0.8617
4028000000.0 -1.527 0.4512
4031000000.0 -0.5881 1.511
4034000000.0 0.8303 1.351
4038000000.0 1.688 0.2092
4041000000.0 1.233 -1.107
4044000000.0 -0.111 -1.587
4047000000.0 -1.356 -0.8975
4050000000.0 -1.55 0.4692
4053000000.0 -0.6124 1.486
4056000000.0 0.7725 1.392
4059000000.0 1.595 0.33
4062000000.0 1.211 -0.9971
4066000000.0 0.02067 -1.63
4069000000.0 -1.242 -1.027
4072000000.0 -1.6 0.2777
4075000000.0 -0.7955 1.413
4078000000.0 0.5863 1.518
4081000000.0 1.552 0.5521
4084000000.0 1.412 -0.8505
4088000000.0 0.2237 -1.6
4091000000.0 -1.123 -1.231
4094000000.0 -1.643 0.08172
4097000000.0 -0.9416 1.328
4100000000.0 0.4182 1.588
4103000000.0 1.486 0.7138
4106000000.0 1.456 -0.641
4109000000.0 0.4243 -1.471
4112000000.0 -0.8499 -1.222
4116000000.0 -1.525 -0.1816
4119000000.0 -1.121 1.026
4122000000.0 0.06927 1.449
4125000000.0 1.143 0.9918
4128000000.0 1.439 -0.2595
4131000000.0 0.7901 -1.259
4134000000.0 -0.442 -1.422
4138000000.0 -1.352 -0.5716
4141000000.0 -1.316 0.6478
4144000000.0 -0.3329 1.422
4147000000.0 0.8744 1.23
4150000000.0 1.507 0.11
4153000000.0 1.079 -1.07
4156000000.0 -0.1162 -1.55
4159000000.0 -1.222 -0.8758
4162000000.0 -1.463 0.4036
4166000000.0 -0.6255 1.346
4169000000.0 0.6163 1.358
4172000000.0 1.45 0.3704
4175000000.0 1.233 -0.8492
4178000000.0 0.1683 -1.467
4181000000.0 -1.054 -1.036
4184000000.0 -1.494 0.1174
4188000000.0 -0.8792 1.25
4191000000.0 0.3901 1.487
4194000000.0 1.372 0.6508
4197000000.0 1.378 -0.6694
4200000000.0 0.4083 -1.51
4203000000.0 -0.9844 -1.234
4206000000.0 -1.614 0.01113
4209000000.0 -1.038 1.256
4212000000.0 0.3747 1.589
4216000000.0 1.508 0.6984
4219000000.0 1.472 -0.7776
4222000000.0 0.3025 -1.682
4225000000.0 -1.153 -1.221
4228000000.0 -1.651 0.1552
4231000000.0 -0.8885 1.447
4234000000.0 0.5629 1.555
4238000000.0 1.551 0.4413
4241000000.0 1.331 -0.9438
4244000000.0 0.07256 -1.618
4247000000.0 -1.217 -1.014
4250000000.0 -1.489 0.3601
4253000000.0 -0.6356 1.418
4256000000.0 0.6912 1.371
4259000000.0 1.499 0.2529
4262000000.0 1.12 -1.003
4266000000.0 -0.1106 -1.505
4269000000.0 -1.232 -0.8268
4272000000.0 -1.35 0.4545
4275000000.0 -0.4813 1.375
4278000000.0 0.792 1.228
4281000000.0 1.427 0.1597
4284000000.0 0.9924 -1.02
4288000000.0 -0.1924 -1.364
4291000000.0 -1.145 -0.6888
4294000000.0 -1.286 0.4555
4297000000.0 -0.4782 1.221
4300000000.0 0.6834 1.136
4303000000.0 1.285 0.1873
4306000000.0 0.9674 -0.8367
4309000000.0 -0.04123 -1.293
4312000000.0 -0.9975 -0.7959
4316000000.0 -1.25 0.2388
4319000000.0 -0.62 1.093
4322000000.0 0.3988 1.221
4325000000.0 1.242 0.4465
4328000000.0 1.119 -0.6524
4331000000.0 0.2466 -1.33
4334000000.0 -0.8735 -1.066
4338000000.0 -1.37 -0.02547
4341000000.0 -0.9136 1.048
4344000000.0 0.2208 1.389
4347000000.0 1.217 0.6688
4350000000.0 1.328 -0.4677
4353000000.0 0.4736 -1.367
4356000000.0 -0.7576 -1.256
4359000000.0 -1.412 -0.2074
4362000000.0 -1.073 0.964
4366000000.0 0.04425 1.473
4369000000.0 1.151 0.9009
4372000000.0 1.45 -0.3263
4375000000.0 0.6771 -1.3
4378000000.0 -0.6027 -1.352
4381000000.0 -1.454 -0.4218
4384000000.0 -1.279 0.8671
4388000000.0 -0.1236 1.551
4391000000.0 1.14 1.07
4394000000.0 1.553 -0.1802
4397000000.0 0.8186 -1.319
4400000000.0 -0.5483 -1.5
4403000000.0 -1.526 -0.5002
4406000000.0 -1.356 0.8782
4409000000.0 -0.08912 1.57
4412000000.0 1.161 1.077
4416000000.0 1.53 -0.2706
4419000000.0 0.7329 -1.351
4422000000.0 -0.6089 -1.391
4425000000.0 -1.439 -0.3836
4428000000.0 -1.158 0.8825
4431000000.0 -0.02305 1.467
4434000000.0 1.11 0.9048
4438000000.0 1.384 -0.3258
4441000000.0 0.607 -1.272
4444000000.0 -0.5793 -1.209
4447000000.0 -1.314 -0.2544
4450000000.0 -1.029 0.8708
4453000000.0 0.08825 1.278
4456000000.0 1.057 0.7373
4459000000.0 1.203 -0.3956
4462000000.0 0.4137 -1.209
4466000000.0 -0.67 -1.082
4469000000.0 -1.249 -0.0532
4472000000.0 -0.8066 0.883
4475000000.0 0.1919 1.177
4478000000.0 1.05 0.5307
4481000000.0 1.055 -0.4897
4484000000.0 0.2998 -1.132
4488000000.0 -0.6892 -0.9172
4491000000.0 -1.123 -0.04816
4494000000.0 -0.6967 0.8736
4497000000.0 0.2298 1.102
4500000000.0 0.9887 0.5124
4503000000.0 0.9752 -0.4353
4506000000.0 0.3002 -1.04
4509000000.0 -0.6121 -0.898
4512000000.0 -1.114 -0.0472
4516000000.0 -0.736 0.8178
4519000000.0 0.1763 1.114
4522000000.0 0.975 0.5541
4525000000.0 1.074 -0.4026
4528000000.0 0.368 -1.076
4531000000.0 -0.5997 -1.021
4534000000.0 -1.158 -0.1359
4538000000.0 -0.8428 0.7888
4541000000.0 0.0716 1.185
4544000000.0 0.9492 0.7197
4547000000.0 1.151 -0.2775
4550000000.0 0.5459 -1.088
4553000000.0 -0.5066 -1.122
4556000000.0 -1.151 -0.3377
4559000000.0 -1.026 0.6783
4562000000.0 -0.113 1.236
4566000000.0 0.8555 0.9038
4569000000.0 1.276 -0.08019
4572000000.0 0.7368 -1.017
4575000000.0 -0.3133 -1.26
4578000000.0 -1.184 -0.5888
4581000000.0 -1.182 0.5308
4584000000.0 -0.3592 1.277
4588000000.0 0.7543 1.118
4591000000.0 1.367 0.09292
4594000000.0 0.941 -0.9754
4597000000.0 -0.1311 -1.373
4600000000.0 -1.151 -0.7658
4603000000.0 -1.343 0.4048
4606000000.0 -0.5127 1.295
4609000000.0 0.6724 1.184
4612000000.0 1.363 0.2435
4616000000.0 1.061 -0.9057
4619000000.0 0.0016 -1.378
4622000000.0 -1.092 -0.8729
4625000000.0 -1.359 0.3087
4628000000.0 -0.5948 1.21
4631000000.0 0.5965 1.238
4634000000.0 1.314 0.3516
4638000000.0 1.091 -0.8003
4641000000.0 0.02774 -1.344
4644000000.0 -1.028 -0.8578
4647000000.0 -1.289 0.2428
4650000000.0 -0.6251 1.171
4653000000.0 0.5252 1.194
4656000000.0 1.253 0.3575
4659000000.0 1.002 -0.7562
4662000000.0 0.01188 -1.26
4666000000.0 -0.9276 -0.7688
4669000000.0 -1.182 0.2557
4672000000.0 -0.5404 1.075
4675000000.0 0.5006 1.051
4678000000.0 1.145 0.2701
4681000000.0 0.9173 -0.7044
4684000000.0 -0.02243 -1.147
4688000000.0 -0.8563 -0.73
4691000000.0 -1.072 0.2235
4694000000.0 -0.4479 1.002
4697000000.0 0.4716 0.9939
4700000000.0 1.071 0.2853
4703000000.0 0.8301 -0.6945
4706000000.0 0.0009883 -1.086
4709000000.0 -0.8521 -0.6566
4712000000.0 -1.013 0.2801
4716000000.0 -0.4386 0.9968
4719000000.0 0.4815 0.969
4722000000.0 1.035 0.1817
4725000000.0 0.8089 -0.668
4728000000.0 0.004217 -1.018
4731000000.0 -0.7967 -0.6361
4734000000.0 -1.047 0.1926
4738000000.0 -0.4861 0.9239
4741000000.0 0.4009 0.9631
4744000000.0 0.9959 0.3133
4747000000.0 0.8721 -0.5795
4750000000.0 0.109 -1.061
4753000000.0 -0.7638 -0.766
4756000000.0 -1.075 0.06288
4759000000.0 -0.6406 0.9147
4762000000.0 0.2646 1.073
4766000000.0 0.9908 0.4947
4769000000.0 1.044 -0.4672
4772000000.0 0.305 -1.111
4775000000.0 -0.6708 -0.9475
4778000000.0 -1.174 -0.08213
4781000000.0 -0.8296 0.8499
4784000000.0 0.126 1.216
4788000000.0 0.9881 0.6585
4791000000.0 1.185 -0.3097
4794000000.0 0.5192 -1.123
4797000000.0 -0.5125 -1.127
4800000000.0 -1.208 -0.3439
4803000000.0 -1.018 0.6736
4806000000.0 -0.1666 1.227
4809000000.0 0.8667 0.9283
4812000000.0 1.311 -0.08536
4816000000.0 0.7863 -1.029
4819000000.0 -0.3138 -1.292
4822000000.0 -1.18 -0.5927
4825000000.0 -1.239 0.5563
4828000000.0 -0.3694 1.319
4831000000.0 0.7763 1.13
4834000000.0 1.393 0.09227
4838000000.0 0.9361 -1.032
4841000000.0 -0.205 -1.384
4844000000.0 -1.192 -0.743
4847000000.0 -1.314 0.4425
4850000000.0 -0.5171 1.322
4853000000.0 0.7199 1.175
4856000000.0 1.336 0.1747
4859000000.0 0.9938 -0.9135
4862000000.0 -0.05092 -1.36
4866000000.0 -1.069 -0.7936
4869000000.0 -1.275 0.3202
4872000000.0 -0.5305 1.222
4875000000.0 0.6037 1.177
4878000000.0 1.267 0.2834
4881000000.0 0.9814 -0.8119
4884000000.0 0.02065 -1.248
4888000000.0 -0.9522 -0.7855
4891000000.0 -1.153 0.2201
4894000000.0 -0.5308 1.058
4897000000.0 0.489 1.054
4900000000.0 1.063 0.2806
4903000000.0 0.8747 -0.6557
4906000000.0 0.05536 -1.097
4909000000.0 -0.805 -0.685
4912000000.0 -1.022 0.1931
4916000000.0 -0.489 0.924
4919000000.0 0.3718 0.947
4922000000.0 0.9363 0.3117
4925000000.0 0.8151 -0.5162
4928000000.0 0.07281 -0.9427
4931000000.0 -0.6854 -0.6681
4934000000.0 -0.97 0.06563
4938000000.0 -0.5313 0.7399
4941000000.0 0.2411 0.8951
4944000000.0 0.8569 0.3715
4947000000.0 0.8489 -0.4111
4950000000.0 0.2343 -0.926
4953000000.0 -0.6024 -0.7314
4956000000.0 -0.9704 -0.007233
4959000000.0 -0.6148 0.7468
4962000000.0 0.1751 0.9535
4966000000.0 0.8423 0.4464
4969000000.0 0.931 -0.3721
4972000000.0 0.2726 -0.9633
4975000000.0 -0.5883 -0.8409
4978000000.0 -0.9772 -0.1011
4981000000.0 -0.7104 0.7228
4984000000.0 0.09768 1.054
4988000000.0 0.8613 0.5839
4991000000.0 1.008 -0.3008
4994000000.0 0.4118 -0.9982
4997000000.0 -0.4794 -1.011
5000000000.0 -1.121 -0.2657
5003000000.0 -0.9157 0.6767
5006000000.0 -0.06419 1.15
5009000000.0 0.8594 0.7931
5012000000.0 1.209 -0.1967
5016000000.0 0.6255 -1.047
5019000000.0 -0.4046 -1.17
5022000000.0 -1.192 -0.4325
5025000000.0 -1.076 0.6533
5028000000.0 -0.1942 1.257
5031000000.0 0.8499 0.9495
5034000000.0 1.291 -0.04219
5038000000.0 0.7666 -0.9897
5041000000.0 -0.2618 -1.267
5044000000.0 -1.124 -0.5873
5047000000.0 -1.218 0.486
5050000000.0 -0.3787 1.222
5053000000.0 0.7146 1.083
5056000000.0 1.27 0.1661
5059000000.0 0.9612 -0.8687
5062000000.0 -0.077 -1.318
5066000000.0 -1.037 -0.7574
5069000000.0 -1.223 0.2738
5072000000.0 -0.5579 1.123
5075000000.0 0.5187 1.13
5078000000.0 1.251 0.3433
5081000000.0 1.07 -0.7128
5084000000.0 0.09435 -1.255
5088000000.0 -0.8634 -0.8151
5091000000.0 -1.209 0.1145
5094000000.0 -0.6616 0.9655
5097000000.0 0.2914 1.136
5100000000.0 1.026 0.4689
5103000000.0 1.02 -0.4951
5106000000.0 0.2888 -1.059
5109000000.0 -0.6267 -0.8925
5112000000.0 -1.077 -0.08352
5116000000.0 -0.7334 0.7584
5119000000.0 0.09648 1.047
5122000000.0 0.8493 0.5952
5125000000.0 1.018 -0.2548
5128000000.0 0.4144 -0.9184
5131000000.0 -0.4443 -0.8997
5134000000.0 -0.9707 -0.2178
5138000000.0 -0.7462 0.6277
5141000000.0 -0.02775 0.9816
5144000000.0 0.7315 0.6202
5147000000.0 0.9298 -0.1648
5150000000.0 0.4704 -0.8347
5153000000.0 -0.3426 -0.8595
5156000000.0 -0.8685 -0.3119
5159000000.0 -0.7692 0.488
5162000000.0 -0.1007 0.9053
5166000000.0 0.6244 0.6344
5169000000.0 0.9232 -0.06502
5172000000.0 0.4738 -0.7633
5175000000.0 -0.2591 -0.8802
5178000000.0 -0.8285 -0.3243
5181000000.0 -0.7477 0.465
5184000000.0 -0.1486 0.8838
5188000000.0 0.6144 0.6593
5191000000.0 0.9343 -0.04681
5194000000.0 0.5622 -0.787
5197000000.0 -0.2496 -0.8954
5200000000.0 -0.8656 -0.3545
5203000000.0 -0.8302 0.4287
5206000000.0 -0.1681 0.939
5209000000.0 0.6126 0.6984
5212000000.0 0.988 -0.02327
5216000000.0 0.558 -0.773
5219000000.0 -0.2612 -0.9412
5222000000.0 -0.933 -0.4002
5225000000.0 -0.8733 0.427
5228000000.0 -0.2214 0.9742
5231000000.0 0.6082 0.7918
5234000000.0 1.003 0.02974
5238000000.0 0.7016 -0.7685
5241000000.0 -0.1668 -1.016
5244000000.0 -0.9006 -0.5467
5247000000.0 -0.9781 0.3713
5250000000.0 -0.3485 1.005
5253000000.0 0.545 0.9055
5256000000.0 1.056 0.1738
5259000000.0 0.8122 -0.7204
5262000000.0 -0.006197 -1.08
5266000000.0 -0.8549 -0.6616
5269000000.0 -1.042 0.2047
5272000000.0 -0.5277 0.9285
5275000000.0 0.3906 1.015
5278000000.0 1.042 0.3661
5281000000.0 0.9219 -0.5463
5284000000.0 0.1683 -1.105
5288000000.0 -0.7117 -0.8481
5291000000.0 -1.125 -0.03058
5294000000.0 -0.7244 0.8478
5297000000.0 0.1734 1.101
5300000000.0 0.9662 0.5639
5303000000.0 1.057 -0.3346
5306000000.0 0.4591 -1.045
5309000000.0 -0.509 -0.9999
5312000000.0 -1.123 -0.2497
5316000000.0 -0.9301 0.6443
5319000000.0 -0.05935 1.117
5322000000.0 0.8399 0.7819
5325000000.0 1.138 -0.1365
5328000000.0 0.6034 -0.9618
5331000000.0 -0.3533 -1.057
5334000000.0 -1.07 -0.4198
5338000000.0 -0.9563 0.5366
5341000000.0 -0.2138 1.09
5344000000.0 0.7054 0.8594
5347000000.0 1.07 -0.01211
5350000000.0 0.685 -0.8477
5353000000.0 -0.2182 -1.067
5356000000.0 -0.9675 -0.5246
5359000000.0 -0.9898 0.4294
5362000000.0 -0.293 1.008
5366000000.0 0.6296 0.8866
5369000000.0 1.065 0.09423
5372000000.0 0.7283 -0.7742
5375000000.0 -0.1605 -1.021
5378000000.0 -0.872 -0.4843
5381000000.0 -0.9426 0.354
5384000000.0 -0.2739 0.9478
5388000000.0 0.5578 0.7694
5391000000.0 0.9652 0.01168
5394000000.0 0.6414 -0.6883
5397000000.0 -0.168 -0.9116
5400000000.0 -0.7941 -0.408
5403000000.0 -0.8363 0.3523
5406000000.0 -0.2426 0.8412
5409000000.0 0.5476 0.7105
5412000000.0 0.8688 0.03287
5416000000.0 0.5742 -0.6483
5419000000.0 -0.1796 -0.8279
5422000000.0 -0.7659 -0.3844
5425000000.0 -0.7904 0.3428
5428000000.0 -0.2399 0.816
5431000000.0 0.5351 0.7066
5434000000.0 0.8549 0.009399
5438000000.0 0.5649 -0.6588
5441000000.0 -0.1763 -0.8825
5444000000.0 -0.8251 -0.4284
5447000000.0 -0.7837 0.3644
5450000000.0 -0.2117 0.8264
5453000000.0 0.5372 0.7245
5456000000.0 0.8963 0.04326
5459000000.0 0.6108 -0.6531
5462000000.0 -0.137 -0.9285
5466000000.0 -0.7718 -0.4613
5469000000.0 -0.8642 0.2957
5472000000.0 -0.338 0.8284
5475000000.0 0.4448 0.827
5478000000.0 0.9105 0.1805
5481000000.0 0.7293 -0.5656
5484000000.0 0.01709 -0.9778
5488000000.0 -0.7594 -0.6285
5491000000.0 -0.9579 0.1417
5494000000.0 -0.4853 0.8409
5497000000.0 0.3267 0.9104
5500000000.0 0.9175 0.3446
5503000000.0 0.8885 -0.4807
5506000000.0 0.2199 -0.9898
5509000000.0 -0.6295 -0.772
5512000000.0 -1.038 -0.04434
5516000000.0 -0.7076 0.7787
5519000000.0 0.2131 1.034
5522000000.0 0.9165 0.5471
5525000000.0 0.9944 -0.3294
5528000000.0 0.3793 -0.9584
5531000000.0 -0.5078 -0.915
5534000000.0 -1.027 -0.2165
5538000000.0 -0.8297 0.6658
5541000000.0 -0.04946 1.071
5544000000.0 0.7806 0.6692
5547000000.0 1.072 -0.1365
5550000000.0 0.5704 -0.9414
5553000000.0 -0.2995 -0.9994
5556000000.0 -0.9897 -0.3713
5559000000.0 -0.8899 0.5386
5562000000.0 -0.2001 0.9961
5566000000.0 0.6522 0.8118
5569000000.0 1.063 0.01714
5572000000.0 0.6211 -0.7958
5575000000.0 -0.198 -1.028
5578000000.0 -0.8649 -0.4731
5581000000.0 -0.9132 0.3542
5584000000.0 -0.3009 0.9408
5588000000.0 0.4969 0.8148
5591000000.0 0.9612 0.09376
5594000000.0 0.6552 -0.6587
5597000000.0 -0.07537 -0.9457
5600000000.0 -0.7633 -0.5194
5603000000.0 -0.8463 0.2913
5606000000.0 -0.3317 0.8413
5609000000.0 0.4252 0.8199
5612000000.0 0.8735 0.1921
5616000000.0 0.6859 -0.5983
5619000000.0 -0.02114 -0.8449
5622000000.0 -0.6726 -0.5489
5625000000.0 -0.827 0.1991
5628000000.0 -0.3685 0.757
5631000000.0 0.3406 0.7585
5634000000.0 0.8046 0.2141
5638000000.0 0.6601 -0.4969
5641000000.0 0.02746 -0.8274
5644000000.0 -0.6416 -0.5273
5647000000.0 -0.8239 0.1737
5650000000.0 -0.3812 0.7377
5653000000.0 0.3357 0.7616
5656000000.0 0.813 0.2033
5659000000.0 0.6736 -0.4818
5662000000.0 0.02795 -0.8429
5666000000.0 -0.6667 -0.5608
5669000000.0 -0.8801 0.1936
5672000000.0 -0.4208 0.7873
5675000000.0 0.373 0.8228
5678000000.0 0.8863 0.2342
5681000000.0 0.7584 -0.5502
5684000000.0 0.02353 -0.9371
5688000000.0 -0.717 -0.6317
5691000000.0 -0.9488 0.1606
5694000000.0 -0.4665 0.8385
5697000000.0 0.3633 0.8966
5700000000.0 0.9287 0.3143
5703000000.0 0.8197 -0.5491
5706000000.0 0.09902 -1.016
5709000000.0 -0.7187 -0.7512
5712000000.0 -1.005 0.09374
5716000000.0 -0.6001 0.8894
5719000000.0 0.3011 1.019
5722000000.0 0.9657 0.4196
5725000000.0 0.9406 -0.476
5728000000.0 0.2146 -1.02
5731000000.0 -0.6485 -0.8476
5734000000.0 -1.059 -0.05892
5738000000.0 -0.73 0.8362
5741000000.0 0.1666 1.102
5744000000.0 0.9305 0.5778
5747000000.0 1.025 -0.3229
5750000000.0 0.3925 -1.012
5753000000.0 -0.5275 -0.9598
5756000000.0 -1.091 -0.1862
5759000000.0 -0.8487 0.7174
5762000000.0 0.009524 1.116
5766000000.0 0.8058 0.7039
5769000000.0 1.105 -0.1728
5772000000.0 0.5137 -1.013
5775000000.0 -0.3662 -1.03
5778000000.0 -1.059 -0.3623
5781000000.0 -0.9388 0.5911
5784000000.0 -0.1904 1.067
5788000000.0 0.6942 0.8312
5791000000.0 1.112 -0.02635
5794000000.0 0.6843 -0.8077
5797000000.0 -0.2301 -1.036
5800000000.0 -0.9286 -0.5263
5803000000.0 -0.9608 0.4197
5806000000.0 -0.3443 0.9977
5809000000.0 0.571 0.8701
5812000000.0 1.016 0.1068
5816000000.0 0.7327 -0.7343
5819000000.0 -0.1031 -1.023
5822000000.0 -0.8362 -0.5672
5825000000.0 -0.9819 0.2689
5828000000.0 -0.3818 0.8677
5831000000.0 0.4339 0.8788
5834000000.0 0.9261 0.1964
5838000000.0 0.7408 -0.6409
5841000000.0 0.0165 -0.9438
5844000000.0 -0.7321 -0.5666
5847000000.0 -0.902 0.2188
5850000000.0 -0.4194 0.8742
5853000000.0 0.4323 0.8493
5856000000.0 0.8661 0.2147
5859000000.0 0.7421 -0.5729
5862000000.0 0.02125 -0.9102
5866000000.0 -0.7157 -0.5761
5869000000.0 -0.8873 0.1715
5872000000.0 -0.3948 0.8188
5875000000.0 0.3625 0.8036
5878000000.0 0.8732 0.2264
5881000000.0 0.6969 -0.4966
5884000000.0 0.03899 -0.8654
5888000000.0 -0.6417 -0.5852
5891000000.0 -0.8438 0.1374
5894000000.0 -0.3929 0.7597
5897000000.0 0.3166 0.7939
5900000000.0 0.8321 0.248
5903000000.0 0.7146 -0.4463
5906000000.0 0.1107 -0.8838
5909000000.0 -0.6043 -0.607
5912000000.0 -0.8719 0.09207
5916000000.0 -0.5203 0.7045
5919000000.0 0.2551 0.826
5922000000.0 0.8129 0.3423
5925000000.0 0.7453 -0.4008
5928000000.0 0.1862 -0.8415
5931000000.0 -0.5623 -0.6632
5934000000.0 -0.8944 -0.01437
5938000000.0 -0.5761 0.679
5941000000.0 0.1506 0.9052
5944000000.0 0.789 0.4557
5947000000.0 0.8475 -0.3164
5950000000.0 0.3326 -0.867
5953000000.0 -0.4511 -0.7858
5956000000.0 -0.9185 -0.1293
5959000000.0 -0.7077 0.598
5962000000.0 0.01199 0.9469
5966000000.0 0.7444 0.6165
5969000000.0 0.9377 -0.1833
5972000000.0 0.4791 -0.838
5975000000.0 -0.3589 -0.8883
5978000000.0 -0.9284 -0.2859
5981000000.0 -0.8171 0.5011
5984000000.0 -0.1577 0.9586
5988000000.0 0.652 0.7414
5991000000.0 0.969 -0.06332
5994000000.0 0.6232 -0.8039
5997000000.0 -0.2518 -0.9617
6000000000.0 -0.9005 -0.4319
6003000000.0 -0.9001 0.3872
6006000000.0 -0.2626 0.9653
6009000000.0 0.5586 0.8286
6012000000.0 1.001 0.06878
6016000000.0 0.6498 -0.7327
6019000000.0 -0.1085 -0.9848
6022000000.0 -0.8078 -0.5207
6025000000.0 -0.9327 0.305
6028000000.0 -0.3684 0.9317
6031000000.0 0.4855 0.8332
6034000000.0 0.9504 0.149
6038000000.0 0.7423 -0.6472
6041000000.0 -0.03663 -0.9604
6044000000.0 -0.7591 -0.5715
6047000000.0 -0.9183 0.2283
6050000000.0 -0.4113 0.8616
6053000000.0 0.4213 0.8185
6056000000.0 0.9157 0.2024
6059000000.0 0.7347 -0.5594
6062000000.0 0.03051 -0.9269
6066000000.0 -0.689 -0.5854
6069000000.0 -0.8806 0.1455
6072000000.0 -0.4438 0.7811
6075000000.0 0.3431 0.8011
6078000000.0 0.8442 0.2258
6081000000.0 0.7003 -0.507
6084000000.0 0.06475 -0.8499
6088000000.0 -0.6304 -0.583
6091000000.0 -0.8438 0.1354
6094000000.0 -0.4468 0.7496
6097000000.0 0.2824 0.8254
6100000000.0 0.7791 0.2879
6103000000.0 0.7381 -0.4542
6106000000.0 0.1099 -0.8595
6109000000.0 -0.5937 -0.6078
6112000000.0 -0.8796 0.08623
6116000000.0 -0.468 0.7063
6119000000.0 0.2409 0.8116
6122000000.0 0.8085 0.3127
6125000000.0 0.7418 -0.4309
6128000000.0 0.1241 -0.8407
6131000000.0 -0.5741 -0.6626
6134000000.0 -0.8769 0.07626
6138000000.0 -0.5169 0.7075
6141000000.0 0.206 0.8589
6144000000.0 0.7948 0.3526
6147000000.0 0.8049 -0.3975
6150000000.0 0.2168 -0.88
6153000000.0 -0.5383 -0.7025
6156000000.0 -0.9156 -0.03588
6159000000.0 -0.6119 0.6905
6162000000.0 0.1561 0.9343
6166000000.0 0.8282 0.4372
6169000000.0 0.8481 -0.3221
6172000000.0 0.3485 -0.908
6175000000.0 -0.5227 -0.786
6178000000.0 -0.9718 -0.09959
6181000000.0 -0.66 0.681
6184000000.0 0.09433 0.9396
6188000000.0 0.7722 0.5606
6191000000.0 0.9193 -0.2516
6194000000.0 0.3669 -0.8595
6197000000.0 -0.4451 -0.8496
6200000000.0 -0.9203 -0.1881
6203000000.0 -0.7475 0.5676
6206000000.0 -0.03102 0.9382
6209000000.0 0.6956 0.6259
6212000000.0 0.9195 -0.1855
6216000000.0 0.4314 -0.8017
6219000000.0 -0.3171 -0.8518
6222000000.0 -0.8623 -0.2998
6225000000.0 -0.7706 0.5243
6228000000.0 -0.1594 0.9041
6231000000.0 0.6114 0.6552
6234000000.0 0.8635 -0.01775
6238000000.0 0.5129 -0.6812
6241000000.0 -0.1751 -0.8837
6244000000.0 -0.7725 -0.3798
6247000000.0 -0.7612 0.3722
6250000000.0 -0.2326 0.8036
6253000000.0 0.457 0.7026
6256000000.0 0.7958 0.09311
6259000000.0 0.5771 -0.5861
6262000000.0 -0.06928 -0.8118
6266000000.0 -0.6404 -0.5109
