! Created with skrf 1.8.0 (http://scikit-rf.org).
# Hz S RI R 50.0 
!freq ReS11 ImS11
4000000000.0 -0.8106 -1.318
4003000000.0 -1.53 -0.1929
4006000000.0 -1.141 1.089
4009000000.0 0.1672 1.516
4012000000.0 1.328 0.8391
4016000000.0 1.488 -0.502
4019000000.0 0.5422 -1.497
4022000000.0 -0.8557 -1.436
4025000000.0 -1.639 -0.1961
4028000000.0 -1.195 1.121
4031000000.0 0.1433 1.65
4034000000.0 1.434 0.846
4038000000.0 1.557 -0.551
4041000000.0 0.5482 -1.6
4044000000.0 -0.9234 -1.393
4047000000.0 -1.661 -0.1809
4050000000.0 -1.211 1.171
4053000000.0 0.2024 1.65
4056000000.0 1.339 0.8645
4059000000.0 1.549 -0.513
4062000000.0 0.5808 -1.514
4066000000.0 -0.7597 -1.43
4069000000.0 -1.594 -0.3084
4072000000.0 -1.254 0.9754
4075000000.0 -0.01462 1.63
4078000000.0 1.222 1.046
4081000000.0 1.606 -0.2395
4084000000.0 0.7762 -1.364
4088000000.0 -0.5646 -1.489
4091000000.0 -1.512 -0.5086
4094000000.0 -1.357 0.8688
4097000000.0 -0.2053 1.543
4100000000.0 1.109 1.14
4103000000.0 1.518 -0.07719
4106000000.0 0.8517 -1.251
4109000000.0 -0.385 -1.433
4112000000.0 -1.301 -0.6484
4116000000.0 -1.325 0.5847
4119000000.0 -0.4141 1.374
4122000000.0 0.7844 1.209
4125000000.0 1.374 0.1645
4128000000.0 1.021 -0.9481
4131000000.0 -0.0444 -1.407
4134000000.0 -1.137 -0.8757
4138000000.0 -1.393 0.3011
4141000000.0 -0.6672 1.297
4144000000.0 0.5767 1.334
4147000000.0 1.381 0.3965
4150000000.0 1.223 -0.826
4153000000.0 0.1165 -1.447
4156000000.0 -1.091 -0.9914
4159000000.0 -1.451 0.2305
4162000000.0 -0.726 1.287
4166000000.0 0.5434 1.361
4169000000.0 1.409 0.4088
4172000000.0 1.161 -0.8619
4175000000.0 0.04626 -1.455
4178000000.0 -1.112 -0.9147
4181000000.0 -1.419 0.329
4184000000.0 -0.5886 1.361
4188000000.0 0.7085 1.285
4191000000.0 1.42 0.2376
4194000000.0 1.062 -1.023
4197000000.0 -0.255 -1.49
4200000000.0 -1.329 -0.7074
4203000000.0 -1.347 0.6485
4206000000.0 -0.2441 1.472
4209000000.0 1.003 1.092
4212000000.0 1.474 -0.2319
4216000000.0 0.69 -1.358
4219000000.0 -0.6842 -1.323
4222000000.0 -1.486 -0.2421
4225000000.0 -1.02 1.058
4228000000.0 0.2394 1.42
4231000000.0 1.236 0.7185
4234000000.0 1.318 -0.6139
4238000000.0 0.2768 -1.382
4241000000.0 -0.9161 -1.083
4244000000.0 -1.376 0.03481
4247000000.0 -0.796 1.07
4250000000.0 0.3713 1.3
4253000000.0 1.24 0.527
4256000000.0 1.164 -0.6673
4259000000.0 0.2175 -1.357
4262000000.0 -0.9112 -1.028
4266000000.0 -1.337 0.07399
4269000000.0 -0.8034 1.127
4272000000.0 0.3903 1.35
4275000000.0 1.276 0.5667
4278000000.0 1.201 -0.6425
4281000000.0 0.2116 -1.414
4284000000.0 -0.9249 -1.045
4288000000.0 -1.376 0.07155
4291000000.0 -0.8358 1.117
4294000000.0 0.2986 1.36
4297000000.0 1.307 0.5765
4300000000.0 1.267 -0.6135
4303000000.0 0.3436 -1.36
4306000000.0 -0.8375 -1.17
4309000000.0 -1.405 -0.07758
4312000000.0 -0.9437 1.068
4316000000.0 0.2073 1.401
4319000000.0 1.269 0.7457
4322000000.0 1.371 -0.4983
4325000000.0 0.4592 -1.434
4328000000.0 -0.8622 -1.288
4331000000.0 -1.586 -0.0986
4334000000.0 -1.063 1.177
4338000000.0 0.2784 1.551
4341000000.0 1.436 0.7469
4344000000.0 1.473 -0.6921
4347000000.0 0.2836 -1.623
4350000000.0 -1.133 -1.227
4353000000.0 -1.617 0.1766
4356000000.0 -0.8382 1.378
4359000000.0 0.6189 1.465
4362000000.0 1.522 0.3555
4366000000.0 1.179 -1.013
4369000000.0 -0.05442 -1.519
4372000000.0 -1.247 -0.8215
4375000000.0 -1.359 0.5019
4378000000.0 -0.4034 1.352
4381000000.0 0.8522 1.128
4384000000.0 1.433 0.0208
4388000000.0 0.8653 -1.126
4391000000.0 -0.3736 -1.335
4394000000.0 -1.298 -0.5004
4397000000.0 -1.139 0.7034
4400000000.0 -0.1398 1.323
4403000000.0 0.9984 0.9113
4406000000.0 1.315 -0.2044
4409000000.0 0.6505 -1.138
4412000000.0 -0.546 -1.189
4416000000.0 -1.263 -0.326
4419000000.0 -1.01 0.7785
4422000000.0 -0.02159 1.281
4425000000.0 1.007 0.8131
4428000000.0 1.247 -0.2596
4431000000.0 0.5755 -1.145
4434000000.0 -0.5252 -1.169
4438000000.0 -1.225 -0.3205
4441000000.0 -1.028 0.7459
4444000000.0 -0.08213 1.3
4447000000.0 0.9951 0.9344
4450000000.0 1.341 -0.1693
4453000000.0 0.6745 -1.172
4456000000.0 -0.4762 -1.299
4459000000.0 -1.293 -0.4639
4462000000.0 -1.202 0.7514
4466000000.0 -0.1988 1.429
4469000000.0 0.9979 1.093
4472000000.0 1.445 -0.09764
4475000000.0 0.8419 -1.192
4478000000.0 -0.3856 -1.415
4481000000.0 -1.39 -0.6119
4484000000.0 -1.351 0.6698
4488000000.0 -0.3059 1.476
4491000000.0 0.9532 1.195
4494000000.0 1.51 0.01253
4497000000.0 1.034 -1.177
4500000000.0 -0.2886 -1.515
4503000000.0 -1.308 -0.7191
4506000000.0 -1.399 0.5622
4509000000.0 -0.4359 1.461
4512000000.0 0.8594 1.245
4516000000.0 1.528 0.1112
4519000000.0 1.05 -1.125
4522000000.0 -0.229 -1.515
4525000000.0 -1.326 -0.755
4528000000.0 -1.397 0.546
4531000000.0 -0.4712 1.44
4534000000.0 0.851 1.249
4538000000.0 1.484 0.1003
4541000000.0 0.9617 -1.126
4544000000.0 -0.2327 -1.42
4547000000.0 -1.254 -0.6941
4550000000.0 -1.283 0.5353
4553000000.0 -0.3689 1.345
4556000000.0 0.8445 1.096
4559000000.0 1.363 0.0254
4562000000.0 0.8446 -1.021
4566000000.0 -0.274 -1.303
4569000000.0 -1.152 -0.5446
4572000000.0 -1.151 0.5691
4575000000.0 -0.2553 1.251
4578000000.0 0.8361 0.9508
4581000000.0 1.221 -0.07094
4584000000.0 0.6732 -1.001
4588000000.0 -0.3744 -1.137
4591000000.0 -1.095 -0.381
4594000000.0 -1.004 0.6335
4597000000.0 -0.06643 1.167
4600000000.0 0.871 0.7834
4603000000.0 1.108 -0.2342
4606000000.0 0.5244 -0.9901
4609000000.0 -0.464 -1.014
4612000000.0 -1.097 -0.2457
4616000000.0 -0.8347 0.707
4619000000.0 0.005895 1.094
4622000000.0 0.8862 0.6557
4625000000.0 1.068 -0.2618
4628000000.0 0.4571 -1.04
4631000000.0 -0.4945 -0.9822
4634000000.0 -1.109 -0.235
4638000000.0 -0.8555 0.7237
4641000000.0 0.03298 1.135
4644000000.0 0.9455 0.7092
4647000000.0 1.114 -0.2977
4650000000.0 0.4506 -1.064
4653000000.0 -0.5551 -1.064
4656000000.0 -1.165 -0.2465
4659000000.0 -0.9331 0.7606
4662000000.0 0.03496 1.197
4666000000.0 0.9858 0.7448
4669000000.0 1.183 -0.228
4672000000.0 0.5398 -1.101
4675000000.0 -0.4905 -1.14
4678000000.0 -1.217 -0.3371
4681000000.0 -1.022 0.7701
4684000000.0 -0.08902 1.282
4688000000.0 0.9606 0.8651
4691000000.0 1.297 -0.1379
4694000000.0 0.6851 -1.073
4697000000.0 -0.4547 -1.284
4700000000.0 -1.3 -0.459
4703000000.0 -1.177 0.7188
4706000000.0 -0.14 1.426
4709000000.0 0.9921 0.953
4712000000.0 1.394 -0.1647
4716000000.0 0.748 -1.207
4719000000.0 -0.4881 -1.375
4722000000.0 -1.354 -0.4357
4725000000.0 -1.149 0.8089
4728000000.0 -0.09425 1.386
4731000000.0 1.021 0.911
4734000000.0 1.311 -0.2669
4738000000.0 0.6123 -1.192
4741000000.0 -0.5488 -1.186
4744000000.0 -1.25 -0.2662
4747000000.0 -0.9592 0.8063
4750000000.0 0.03925 1.276
4753000000.0 1.017 0.6968
4756000000.0 1.151 -0.3595
4759000000.0 0.3954 -1.153
4762000000.0 -0.6783 -0.9796
4766000000.0 -1.161 -0.06016
4769000000.0 -0.7066 0.8707
4772000000.0 0.2647 1.074
4775000000.0 0.9451 0.4237
4778000000.0 0.918 -0.5167
4781000000.0 0.1125 -1.017
4784000000.0 -0.7046 -0.7114
4788000000.0 -0.977 0.1471
4791000000.0 -0.4465 0.8496
4794000000.0 0.3897 0.8944
4797000000.0 0.9166 0.2382
4800000000.0 0.7064 -0.5655
4803000000.0 -0.01003 -0.8835
4806000000.0 -0.6894 -0.5371
4809000000.0 -0.8717 0.218
4812000000.0 -0.359 0.8269
4816000000.0 0.4489 0.7843
4819000000.0 0.9099 0.126
4822000000.0 0.6783 -0.6567
4825000000.0 -0.07305 -0.9314
4828000000.0 -0.8063 -0.5236
4831000000.0 -0.916 0.2942
4834000000.0 -0.3648 0.9045
4838000000.0 0.5317 0.8582
4841000000.0 1.022 0.1346
4844000000.0 0.7461 -0.7051
4847000000.0 -0.06031 -1.052
4850000000.0 -0.8858 -0.614
4853000000.0 -1.081 0.3215
4856000000.0 -0.4149 1.039
4859000000.0 0.5337 0.9916
4862000000.0 1.13 0.227
4866000000.0 0.9042 -0.7615
4869000000.0 -0.004546 -1.217
4872000000.0 -0.9708 -0.7614
4875000000.0 -1.236 0.2975
4878000000.0 -0.544 1.181
4881000000.0 0.5813 1.19
4884000000.0 1.273 0.2717
4888000000.0 1.019 -0.8699
4891000000.0 -0.04272 -1.361
4894000000.0 -1.093 -0.7901
4897000000.0 -1.327 0.3321
4900000000.0 -0.535 1.239
4903000000.0 0.6821 1.183
4906000000.0 1.351 0.2114
4909000000.0 0.9854 -0.913
4912000000.0 -0.1339 -1.312
4916000000.0 -1.097 -0.7054
4919000000.0 -1.193 0.4157
4922000000.0 -0.4489 1.19
4925000000.0 0.6285 1.051
4928000000.0 1.201 0.1602
4931000000.0 0.8561 -0.8227
4934000000.0 -0.1001 -1.141
4938000000.0 -0.9569 -0.6348
4941000000.0 -1.063 0.3712
4944000000.0 -0.3898 1.018
4947000000.0 0.5477 0.9257
4950000000.0 1.073 0.129
4953000000.0 0.7118 -0.7398
4956000000.0 -0.1414 -1.03
4959000000.0 -0.872 -0.5068
4962000000.0 -0.9342 0.3586
4966000000.0 -0.3038 0.932
4969000000.0 0.5232 0.8219
4972000000.0 0.954 0.0723
4975000000.0 0.6454 -0.7006
4978000000.0 -0.1447 -0.9379
4981000000.0 -0.814 -0.4454
4984000000.0 -0.8416 0.3514
4988000000.0 -0.2709 0.8355
4991000000.0 0.5274 0.7318
4994000000.0 0.9263 0.09661
4997000000.0 0.6038 -0.661
5000000000.0 -0.1359 -0.9232
5003000000.0 -0.823 -0.4564
5006000000.0 -0.9005 0.3498
5009000000.0 -0.2751 0.929
5012000000.0 0.5618 0.8368
5016000000.0 1.002 0.06987
5019000000.0 0.7212 -0.7453
5022000000.0 -0.1367 -1.025
5025000000.0 -0.9081 -0.5128
5028000000.0 -0.986 0.3559
5031000000.0 -0.3562 0.9878
5034000000.0 0.5961 0.9088
5038000000.0 1.099 0.1083
5041000000.0 0.8175 -0.7633
5044000000.0 -0.1224 -1.12
5047000000.0 -0.9455 -0.6477
5050000000.0 -1.134 0.3124
5053000000.0 -0.457 1.066
5056000000.0 0.5609 1.071
5059000000.0 1.204 0.26
5062000000.0 0.9733 -0.7871
5066000000.0 -0.009793 -1.286
5069000000.0 -0.9644 -0.8421
5072000000.0 -1.232 0.2767
5075000000.0 -0.5917 1.157
5078000000.0 0.524 1.182
5081000000.0 1.248 0.3389
5084000000.0 1.055 -0.7211
5088000000.0 0.09209 -1.301
5091000000.0 -0.8879 -0.8952
5094000000.0 -1.262 0.1593
5097000000.0 -0.6679 1.08
5100000000.0 0.3764 1.168
5103000000.0 1.138 0.4782
5106000000.0 1.093 -0.5568
5109000000.0 0.2589 -1.141
5112000000.0 -0.7475 -0.9351
5116000000.0 -1.183 -0.01439
5119000000.0 -0.7753 0.8625
5122000000.0 0.1993 1.147
5125000000.0 0.9627 0.5851
5128000000.0 1.068 -0.3785
5131000000.0 0.3815 -1.036
5134000000.0 -0.5378 -0.9759
5138000000.0 -1.086 -0.2058
5141000000.0 -0.8504 0.6723
5144000000.0 -0.0174 1.093
5147000000.0 0.8139 0.695
5150000000.0 1.04 -0.2048
5153000000.0 0.4847 -0.9176
5156000000.0 -0.3758 -0.9183
5159000000.0 -0.96 -0.3027
5162000000.0 -0.8575 0.5102
5166000000.0 -0.1342 0.9862
5169000000.0 0.6609 0.7337
5172000000.0 0.9569 -0.05252
5175000000.0 0.5588 -0.7615
5178000000.0 -0.2669 -0.9105
5181000000.0 -0.8804 -0.3849
5184000000.0 -0.8527 0.4524
5188000000.0 -0.1883 0.9145
5191000000.0 0.6149 0.7224
5194000000.0 0.9158 -0.03614
5197000000.0 0.5621 -0.7452
5200000000.0 -0.2308 -0.9166
5203000000.0 -0.8722 -0.3627
5206000000.0 -0.8068 0.4458
5209000000.0 -0.1864 0.922
5212000000.0 0.6149 0.7071
5216000000.0 0.9591 -0.05007
5219000000.0 0.5556 -0.7589
5222000000.0 -0.2199 -0.9249
5225000000.0 -0.878 -0.3732
5228000000.0 -0.8527 0.4496
5231000000.0 -0.1426 0.9549
5234000000.0 0.6565 0.7542
5238000000.0 1.013 -0.07094
5241000000.0 0.5923 -0.7695
5244000000.0 -0.2418 -0.9506
5247000000.0 -0.9083 -0.4014
5250000000.0 -0.8774 0.4552
5253000000.0 -0.2112 0.9897
5256000000.0 0.6633 0.8138
5259000000.0 1.058 -0.003496
5262000000.0 0.6242 -0.8067
5266000000.0 -0.2396 -1.03
5269000000.0 -0.9333 -0.4845
5272000000.0 -0.9313 0.4099
5275000000.0 -0.2973 1.024
5278000000.0 0.5789 0.8302
5281000000.0 1.052 0.1045
5284000000.0 0.7886 -0.7367
5288000000.0 -0.06095 -1.078
5291000000.0 -0.8735 -0.6289
5294000000.0 -1.057 0.2518
5297000000.0 -0.5022 1.001
5300000000.0 0.4271 1.008
5303000000.0 1.059 0.3323
5306000000.0 0.907 -0.6197
5309000000.0 0.1373 -1.11
5312000000.0 -0.7677 -0.8346
5316000000.0 -1.143 0.07133
5319000000.0 -0.6724 0.8946
5322000000.0 0.2594 1.145
5325000000.0 1.028 0.5288
5328000000.0 1.063 -0.4584
5331000000.0 0.3821 -1.088
5334000000.0 -0.6038 -0.9786
5338000000.0 -1.151 -0.175
5341000000.0 -0.8738 0.7573
5344000000.0 0.01546 1.147
5347000000.0 0.876 0.7125
5350000000.0 1.122 -0.2512
5353000000.0 0.5323 -1.015
5356000000.0 -0.3843 -1.066
5359000000.0 -1.076 -0.3302
5362000000.0 -0.9402 0.6055
5366000000.0 -0.1737 1.148
5369000000.0 0.7805 0.8339
5372000000.0 1.111 -0.06851
5375000000.0 0.6702 -0.9303
5378000000.0 -0.3069 -1.094
5381000000.0 -1.027 -0.4381
5384000000.0 -0.9857 0.4916
5388000000.0 -0.1933 1.08
5391000000.0 0.6972 0.8323
5394000000.0 1.075 -0.007649
5397000000.0 0.6321 -0.796
5400000000.0 -0.2208 -0.9936
5403000000.0 -0.9245 -0.4469
5406000000.0 -0.9469 0.437
5409000000.0 -0.2101 0.9745
5412000000.0 0.6106 0.7372
5416000000.0 0.983 0.01033
5419000000.0 0.5415 -0.7682
5422000000.0 -0.2245 -0.9512
5425000000.0 -0.8429 -0.3826
5428000000.0 -0.8116 0.4169
5431000000.0 -0.1784 0.9197
5434000000.0 0.6082 0.7066
5438000000.0 0.9194 -0.05793
5441000000.0 0.5157 -0.733
5444000000.0 -0.2426 -0.8682
5447000000.0 -0.823 -0.3264
5450000000.0 -0.7841 0.4484
5453000000.0 -0.1398 0.8674
5456000000.0 0.6013 0.6339
5459000000.0 0.8559 -0.07063
5462000000.0 0.4808 -0.7102
5466000000.0 -0.2545 -0.829
5469000000.0 -0.8081 -0.3088
5472000000.0 -0.7501 0.4022
5475000000.0 -0.1665 0.838
5478000000.0 0.5307 0.6631
5481000000.0 0.8773 0.01972
5484000000.0 0.5356 -0.7245
5488000000.0 -0.1961 -0.9189
5491000000.0 -0.8337 -0.3842
5494000000.0 -0.8274 0.365
5497000000.0 -0.2481 0.8761
5500000000.0 0.5088 0.7845
5503000000.0 0.9641 0.08149
5506000000.0 0.6625 -0.6709
5509000000.0 -0.09216 -0.9623
5512000000.0 -0.777 -0.5464
5516000000.0 -0.9447 0.2426
5519000000.0 -0.3743 0.8918
5522000000.0 0.4127 0.8926
5525000000.0 0.9358 0.2193
5528000000.0 0.8348 -0.5697
5531000000.0 0.09039 -0.9702
5534000000.0 -0.6927 -0.7467
5538000000.0 -1.047 0.05612
5541000000.0 -0.578 0.836
5544000000.0 0.2699 1.001
5547000000.0 0.9341 0.4765
5550000000.0 0.967 -0.4454
5553000000.0 0.2631 -1.018
5556000000.0 -0.6114 -0.8479
5559000000.0 -1.063 -0.07139
5562000000.0 -0.7467 0.7468
5566000000.0 0.0876 1.038
5569000000.0 0.8777 0.5928
5572000000.0 0.988 -0.2769
5575000000.0 0.4461 -0.9804
5578000000.0 -0.4703 -0.9452
5581000000.0 -1.006 -0.2551
5584000000.0 -0.8605 0.5992
5588000000.0 -0.05827 1.015
5591000000.0 0.7271 0.7219
5594000000.0 1.018 -0.1244
5597000000.0 0.5554 -0.8125
5600000000.0 -0.2849 -0.9536
5603000000.0 -0.9086 -0.3767
5606000000.0 -0.8743 0.4673
5609000000.0 -0.1978 0.9665
5612000000.0 0.6291 0.7506
5616000000.0 0.9465 -0.03482
5619000000.0 0.6029 -0.7542
5622000000.0 -0.1781 -0.9087
5625000000.0 -0.8116 -0.4487
5628000000.0 -0.8428 0.3499
5631000000.0 -0.2648 0.9069
5634000000.0 0.5319 0.7352
5638000000.0 0.9103 0.05181
5641000000.0 0.598 -0.6658
5644000000.0 -0.1402 -0.8767
5647000000.0 -0.7521 -0.4466
5650000000.0 -0.8305 0.3314
5653000000.0 -0.2755 0.847
5656000000.0 0.4752 0.7474
5659000000.0 0.8837 0.05559
5662000000.0 0.606 -0.6267
5666000000.0 -0.1236 -0.8627
5669000000.0 -0.755 -0.4238
5672000000.0 -0.8374 0.309
5675000000.0 -0.2827 0.8368
5678000000.0 0.4807 0.7229
5681000000.0 0.9174 0.05437
5684000000.0 0.5971 -0.6721
5688000000.0 -0.1441 -0.894
5691000000.0 -0.8062 -0.4534
5694000000.0 -0.849 0.3446
5697000000.0 -0.2632 0.8773
5700000000.0 0.5346 0.7644
5703000000.0 0.9312 0.0561
5706000000.0 0.6252 -0.6932
5709000000.0 -0.1428 -0.9275
5712000000.0 -0.8596 -0.4586
5716000000.0 -0.9139 0.3473
5719000000.0 -0.2871 0.9299
5722000000.0 0.5462 0.8248
5725000000.0 0.9975 0.102
5728000000.0 0.7103 -0.7041
5731000000.0 -0.1113 -1.051
5734000000.0 -0.8495 -0.578
5738000000.0 -0.9963 0.2633
5741000000.0 -0.3954 0.9514
5744000000.0 0.4774 0.9582
5747000000.0 1.051 0.2359
5750000000.0 0.8519 -0.6548
5753000000.0 0.003616 -1.071
5756000000.0 -0.8023 -0.719
5759000000.0 -1.067 0.1877
5762000000.0 -0.5271 0.902
5766000000.0 0.3245 1.015
5769000000.0 1.018 0.3567
5772000000.0 0.9533 -0.5132
5775000000.0 0.1906 -1.063
5778000000.0 -0.7056 -0.8442
5781000000.0 -1.108 0.01127
5784000000.0 -0.6938 0.8358
5788000000.0 0.2361 1.064
5791000000.0 0.9569 0.5518
5794000000.0 1.024 -0.4011
5797000000.0 0.343 -0.987
5800000000.0 -0.548 -0.9249
5803000000.0 -0.9949 -0.1678
5806000000.0 -0.784 0.7295
5809000000.0 0.05945 1.067
5812000000.0 0.8291 0.6564
5816000000.0 1.069 -0.2489
5819000000.0 0.4975 -0.9127
5822000000.0 -0.4095 -0.9693
5825000000.0 -0.9788 -0.3292
5828000000.0 -0.8827 0.5507
5831000000.0 -0.09053 1.017
5834000000.0 0.7135 0.7151
5838000000.0 1.021 -0.07317
5841000000.0 0.5207 -0.8052
5844000000.0 -0.2774 -0.9742
5847000000.0 -0.9448 -0.3852
5850000000.0 -0.8899 0.513
5853000000.0 -0.1858 0.9837
5856000000.0 0.6585 0.7771
5859000000.0 1.002 -0.009799
5862000000.0 0.593 -0.7642
5866000000.0 -0.242 -0.9129
5869000000.0 -0.8363 -0.4078
5872000000.0 -0.8466 0.4021
5875000000.0 -0.1849 0.9173
5878000000.0 0.5928 0.732
5881000000.0 0.9201 -0.01094
5884000000.0 0.5808 -0.6943
5888000000.0 -0.176 -0.8755
5891000000.0 -0.7822 -0.4035
5894000000.0 -0.8002 0.3661
5897000000.0 -0.2386 0.8524
5900000000.0 0.5015 0.709
5903000000.0 0.8584 0.04918
5906000000.0 0.6014 -0.655
5909000000.0 -0.1758 -0.8437
5912000000.0 -0.753 -0.4101
5916000000.0 -0.8118 0.3273
5919000000.0 -0.2499 0.8005
5922000000.0 0.4707 0.7189
5925000000.0 0.8616 0.08115
5928000000.0 0.583 -0.5917
5931000000.0 -0.08576 -0.8494
5934000000.0 -0.7172 -0.4719
5938000000.0 -0.8037 0.2894
5941000000.0 -0.3357 0.8005
5944000000.0 0.3882 0.7851
5947000000.0 0.8473 0.1827
5950000000.0 0.6878 -0.542
5953000000.0 0.0144 -0.8978
5956000000.0 -0.6556 -0.5645
5959000000.0 -0.8813 0.1564
5962000000.0 -0.4483 0.7764
5966000000.0 0.2984 0.8471
5969000000.0 0.8555 0.3107
5972000000.0 0.7774 -0.4365
5975000000.0 0.157 -0.8982
5978000000.0 -0.5923 -0.6993
5981000000.0 -0.934 -0.003455
5984000000.0 -0.6066 0.7077
5988000000.0 0.2026 0.935
5991000000.0 0.838 0.4651
5994000000.0 0.8922 -0.3492
5997000000.0 0.3336 -0.9201
6000000000.0 -0.509 -0.8555
6003000000.0 -0.9526 -0.1621
6006000000.0 -0.7275 0.6683
6009000000.0 0.02776 0.9783
6012000000.0 0.7878 0.5868
6016000000.0 0.9685 -0.2005
6019000000.0 0.4553 -0.8781
6022000000.0 -0.402 -0.8855
6025000000.0 -0.9687 -0.2787
6028000000.0 -0.8182 0.569
6031000000.0 -0.0526 0.9837
6034000000.0 0.7064 0.6789
6038000000.0 0.9853 -0.1221
6041000000.0 0.5445 -0.8453
6044000000.0 -0.2931 -0.9394
6047000000.0 -0.9066 -0.3745
6050000000.0 -0.8643 0.49
6053000000.0 -0.1677 0.9915
6056000000.0 0.6596 0.7511
6059000000.0 0.9783 -0.02852
6062000000.0 0.5912 -0.7891
6066000000.0 -0.2473 -0.9443
6069000000.0 -0.8607 -0.3921
6072000000.0 -0.8517 0.4285
6075000000.0 -0.208 0.903
6078000000.0 0.5684 0.7201
6081000000.0 0.887 0.02526
6084000000.0 0.5837 -0.7014
6088000000.0 -0.1707 -0.8977
6091000000.0 -0.813 -0.4147
6094000000.0 -0.8113 0.3579
6097000000.0 -0.2513 0.8479
6100000000.0 0.5108 0.7304
6103000000.0 0.8632 0.07214
6106000000.0 0.6061 -0.6261
6109000000.0 -0.1435 -0.8608
6112000000.0 -0.7328 -0.4335
6116000000.0 -0.7952 0.3226
6119000000.0 -0.2692 0.8244
6122000000.0 0.4777 0.7091
6125000000.0 0.8585 0.07561
6128000000.0 0.5866 -0.6101
6131000000.0 -0.1159 -0.8834
6134000000.0 -0.7278 -0.4582
6138000000.0 -0.7988 0.2427
6141000000.0 -0.2907 0.7826
6144000000.0 0.4313 0.7424
6147000000.0 0.8351 0.1205
6150000000.0 0.5828 -0.5731
6153000000.0 -0.06281 -0.8265
6156000000.0 -0.7516 -0.4965
6159000000.0 -0.8498 0.2046
6162000000.0 -0.3817 0.781
6166000000.0 0.3996 0.7611
6169000000.0 0.8703 0.223
6172000000.0 0.7259 -0.5415
6175000000.0 0.01033 -0.8962
6178000000.0 -0.714 -0.5871
6181000000.0 -0.9168 0.1894
6184000000.0 -0.4119 0.8098
6188000000.0 0.3976 0.8104
6191000000.0 0.8816 0.2367
6194000000.0 0.7565 -0.5063
6197000000.0 0.05022 -0.9021
6200000000.0 -0.6711 -0.648
6203000000.0 -0.922 0.1021
6206000000.0 -0.4737 0.7609
6209000000.0 0.2486 0.8591
6212000000.0 0.8637 0.3245
6216000000.0 0.7725 -0.4576
6219000000.0 0.1641 -0.9047
6222000000.0 -0.5657 -0.7118
6225000000.0 -0.9193 0.04602
6228000000.0 -0.5838 0.6829
6231000000.0 0.1887 0.8681
6234000000.0 0.7733 0.4333
6238000000.0 0.8446 -0.3529
6241000000.0 0.2799 -0.839
6244000000.0 -0.4593 -0.7368
6247000000.0 -0.8182 -0.1264
6250000000.0 -0.6513 0.5767
6253000000.0 0.08097 0.8512
6256000000.0 0.6795 0.4861
6259000000.0 0.8104 -0.183
6262000000.0 0.3772 -0.768
6266000000.0 -0.3561 -0.7841
