! Created with skrf 1.8.0 (http://scikit-rf.org).
# Hz S RI R 50.0 
!freq ReS11 ImS11
4000000000.0 -0.2566 -1.528
4003000000.0 -1.264 -0.8058
4006000000.0 -1.421 0.5145
4009000000.0 -0.4821 1.442
4012000000.0 0.8332 1.292
4016000000.0 1.557 0.1613
4019000000.0 1.11 -1.089
4022000000.0 -0.1958 -1.571
4025000000.0 -1.363 -0.8212
4028000000.0 -1.479 0.5054
4031000000.0 -0.5578 1.486
4034000000.0 0.8064 1.378
4038000000.0 1.626 0.2262
4041000000.0 1.14 -1.164
4044000000.0 -0.1883 -1.62
4047000000.0 -1.37 -0.8811
4050000000.0 -1.583 0.5213
4053000000.0 -0.584 1.527
4056000000.0 0.7495 1.404
4059000000.0 1.615 0.2477
4062000000.0 1.265 -1.051
4066000000.0 -0.01482 -1.621
4069000000.0 -1.263 -1.011
4072000000.0 -1.563 0.3365
4075000000.0 -0.7896 1.441
4078000000.0 0.6031 1.491
4081000000.0 1.557 0.5256
4084000000.0 1.344 -0.8879
4088000000.0 0.1927 -1.662
4091000000.0 -1.151 -1.222
4094000000.0 -1.663 0.1057
4097000000.0 -0.9289 1.323
4100000000.0 0.389 1.572
4103000000.0 1.434 0.6643
4106000000.0 1.42 -0.6563
4109000000.0 0.4032 -1.502
4112000000.0 -0.8672 -1.259
4116000000.0 -1.465 -0.1584
4119000000.0 -1.093 1.044
4122000000.0 0.06304 1.472
4125000000.0 1.154 0.9331
4128000000.0 1.467 -0.2828
4131000000.0 0.7555 -1.233
4134000000.0 -0.486 -1.376
4138000000.0 -1.354 -0.5624
4141000000.0 -1.325 0.696
4144000000.0 -0.336 1.443
4147000000.0 0.9231 1.202
4150000000.0 1.487 0.1318
4153000000.0 1.061 -1.081
4156000000.0 -0.1594 -1.513
4159000000.0 -1.261 -0.8624
4162000000.0 -1.442 0.4088
4166000000.0 -0.615 1.397
4169000000.0 0.6828 1.384
4172000000.0 1.434 0.3881
4175000000.0 1.236 -0.8997
4178000000.0 0.1134 -1.493
4181000000.0 -1.091 -1.046
4184000000.0 -1.501 0.1604
4188000000.0 -0.8419 1.274
4191000000.0 0.4456 1.449
4194000000.0 1.381 0.5592
4197000000.0 1.379 -0.7125
4200000000.0 0.3015 -1.551
4203000000.0 -1.032 -1.217
4206000000.0 -1.634 0.03214
4209000000.0 -0.9901 1.281
4212000000.0 0.4008 1.601
4216000000.0 1.534 0.6476
4219000000.0 1.479 -0.8536
4222000000.0 0.255 -1.686
4225000000.0 -1.187 -1.202
4228000000.0 -1.616 0.2471
4231000000.0 -0.8224 1.443
4234000000.0 0.6464 1.534
4238000000.0 1.574 0.3871
4241000000.0 1.245 -1.009
4244000000.0 -0.00996 -1.609
4247000000.0 -1.274 -0.951
4250000000.0 -1.505 0.4245
4253000000.0 -0.5742 1.39
4256000000.0 0.7957 1.361
4259000000.0 1.522 0.168
4262000000.0 1.051 -1.085
4266000000.0 -0.1081 -1.471
4269000000.0 -1.274 -0.7848
4272000000.0 -1.379 0.5197
4275000000.0 -0.4154 1.375
4278000000.0 0.8291 1.203
4281000000.0 1.433 0.09804
4284000000.0 0.95 -1.035
4288000000.0 -0.2432 -1.401
4291000000.0 -1.162 -0.6819
4294000000.0 -1.283 0.5462
4297000000.0 -0.4104 1.234
4300000000.0 0.71 1.112
4303000000.0 1.273 0.1995
4306000000.0 0.9584 -0.8992
4309000000.0 -0.04331 -1.275
4312000000.0 -0.9987 -0.7885
4316000000.0 -1.271 0.2764
4319000000.0 -0.6127 1.155
4322000000.0 0.5084 1.218
4325000000.0 1.28 0.3998
4328000000.0 1.137 -0.6937
4331000000.0 0.2126 -1.328
4334000000.0 -0.9001 -1.019
4338000000.0 -1.337 0.06427
4341000000.0 -0.845 1.076
4344000000.0 0.2905 1.37
4347000000.0 1.267 0.6524
4350000000.0 1.302 -0.5635
4353000000.0 0.4123 -1.367
4356000000.0 -0.776 -1.22
4359000000.0 -1.461 -0.127
4362000000.0 -1.041 1.004
4366000000.0 0.06487 1.457
4369000000.0 1.198 0.8485
4372000000.0 1.46 -0.3781
4375000000.0 0.6375 -1.361
4378000000.0 -0.6499 -1.36
4381000000.0 -1.503 -0.3492
4384000000.0 -1.208 0.9245
4388000000.0 -0.06833 1.586
4391000000.0 1.165 1.021
4394000000.0 1.533 -0.2924
4397000000.0 0.7274 -1.397
4400000000.0 -0.6257 -1.454
4403000000.0 -1.551 -0.4315
4406000000.0 -1.268 0.9422
4409000000.0 -0.04266 1.567
4412000000.0 1.195 0.9859
4416000000.0 1.52 -0.3652
4419000000.0 0.6657 -1.404
4422000000.0 -0.6979 -1.374
4425000000.0 -1.456 -0.3025
4428000000.0 -1.117 0.9846
4431000000.0 0.03659 1.43
4434000000.0 1.142 0.8259
4438000000.0 1.338 -0.3777
4441000000.0 0.5035 -1.311
4444000000.0 -0.7035 -1.2
4447000000.0 -1.354 -0.1826
4450000000.0 -0.9329 0.959
4453000000.0 0.1716 1.306
4456000000.0 1.136 0.6597
4459000000.0 1.182 -0.46
4462000000.0 0.3494 -1.203
4466000000.0 -0.7413 -0.9858
4469000000.0 -1.222 -0.002296
4472000000.0 -0.7575 0.9452
4475000000.0 0.2618 1.176
4478000000.0 1.084 0.4966
4481000000.0 1.045 -0.4944
4484000000.0 0.2156 -1.147
4488000000.0 -0.7505 -0.8791
4491000000.0 -1.144 0.05378
4494000000.0 -0.6681 0.9069
4497000000.0 0.3173 1.059
4500000000.0 1.026 0.4727
4503000000.0 0.9673 -0.5136
4506000000.0 0.2531 -1.082
4509000000.0 -0.6869 -0.8548
4512000000.0 -1.102 0.00855
4516000000.0 -0.7091 0.8653
4519000000.0 0.2265 1.124
4522000000.0 1.024 0.54
4525000000.0 1.058 -0.46
4528000000.0 0.3263 -1.144
4531000000.0 -0.6397 -0.9754
4534000000.0 -1.155 -0.1096
4538000000.0 -0.8183 0.8396
4541000000.0 0.1307 1.202
4544000000.0 0.9974 0.6631
4547000000.0 1.172 -0.3453
4550000000.0 0.4817 -1.123
4553000000.0 -0.5504 -1.102
4556000000.0 -1.205 -0.2847
4559000000.0 -1.01 0.731
4562000000.0 -0.07357 1.254
4566000000.0 0.9148 0.8718
4569000000.0 1.289 -0.1447
4572000000.0 0.7023 -1.094
4575000000.0 -0.3764 -1.225
4578000000.0 -1.192 -0.5237
4581000000.0 -1.196 0.6198
4584000000.0 -0.266 1.315
4588000000.0 0.8379 1.076
4591000000.0 1.374 0.03815
4594000000.0 0.9199 -1.045
4597000000.0 -0.2308 -1.373
4600000000.0 -1.207 -0.702
4603000000.0 -1.341 0.4786
4606000000.0 -0.4597 1.339
4609000000.0 0.7559 1.2
4612000000.0 1.401 0.1779
4616000000.0 1.024 -0.9746
4619000000.0 -0.1184 -1.366
4622000000.0 -1.147 -0.803
4625000000.0 -1.318 0.3601
4628000000.0 -0.5303 1.285
4631000000.0 0.6249 1.237
4634000000.0 1.343 0.2819
4638000000.0 1.038 -0.8684
4641000000.0 -0.04843 -1.346
4644000000.0 -1.056 -0.7909
4647000000.0 -1.29 0.3046
4650000000.0 -0.5422 1.2
4653000000.0 0.6178 1.169
4656000000.0 1.272 0.2458
4659000000.0 0.9618 -0.8458
4662000000.0 -0.05887 -1.23
4666000000.0 -1.029 -0.7306
4669000000.0 -1.185 0.3592
4672000000.0 -0.4653 1.116
4675000000.0 0.5568 1.0
4678000000.0 1.155 0.197
4681000000.0 0.8382 -0.7646
4684000000.0 -0.05958 -1.106
4688000000.0 -0.9138 -0.6558
4691000000.0 -1.078 0.3197
4694000000.0 -0.4429 1.038
4697000000.0 0.578 0.9819
4700000000.0 1.078 0.1873
4703000000.0 0.8263 -0.7327
4706000000.0 -0.08599 -1.085
4709000000.0 -0.8872 -0.5919
4712000000.0 -1.059 0.3108
4716000000.0 -0.4115 0.9997
4719000000.0 0.5318 0.9277
4722000000.0 1.074 0.1922
4725000000.0 0.7824 -0.7127
4728000000.0 -0.02124 -1.063
4731000000.0 -0.8536 -0.6033
4734000000.0 -1.023 0.2531
4738000000.0 -0.4421 0.9314
4741000000.0 0.4804 0.9536
4744000000.0 1.032 0.249
4747000000.0 0.889 -0.6317
4750000000.0 0.05976 -1.082
4753000000.0 -0.7733 -0.7587
4756000000.0 -1.088 0.1608
4759000000.0 -0.606 0.9375
4762000000.0 0.3184 1.125
4766000000.0 1.057 0.4477
4769000000.0 1.034 -0.532
4772000000.0 0.2514 -1.145
4775000000.0 -0.717 -0.942
4778000000.0 -1.214 -0.05569
4781000000.0 -0.8023 0.8735
4784000000.0 0.1437 1.192
4788000000.0 1.028 0.658
4791000000.0 1.19 -0.3791
4794000000.0 0.4825 -1.144
4797000000.0 -0.573 -1.15
4800000000.0 -1.235 -0.3071
4803000000.0 -0.9666 0.7314
4806000000.0 -0.08728 1.278
4809000000.0 0.9243 0.8996
4812000000.0 1.315 -0.1326
4816000000.0 0.7435 -1.105
4819000000.0 -0.3938 -1.288
4822000000.0 -1.241 -0.5318
4825000000.0 -1.232 0.6142
4828000000.0 -0.2899 1.355
4831000000.0 0.8567 1.083
4834000000.0 1.396 0.00225
4838000000.0 0.9266 -1.067
4841000000.0 -0.2431 -1.384
4844000000.0 -1.228 -0.6593
4847000000.0 -1.332 0.5288
4850000000.0 -0.3868 1.313
4853000000.0 0.7756 1.142
4856000000.0 1.364 0.1262
4859000000.0 0.9706 -0.9488
4862000000.0 -0.09809 -1.324
4866000000.0 -1.117 -0.7498
4869000000.0 -1.255 0.425
4872000000.0 -0.4896 1.246
4875000000.0 0.6687 1.123
4878000000.0 1.273 0.1895
4881000000.0 0.9389 -0.8373
4884000000.0 -0.07264 -1.252
4888000000.0 -0.9878 -0.7114
4891000000.0 -1.196 0.3157
4894000000.0 -0.4538 1.077
4897000000.0 0.5405 1.031
4900000000.0 1.096 0.2159
4903000000.0 0.846 -0.7018
4906000000.0 -0.02287 -1.098
4909000000.0 -0.8381 -0.6379
4912000000.0 -0.9912 0.2174
4916000000.0 -0.4658 0.898
4919000000.0 0.4291 0.9091
4922000000.0 0.9269 0.268
4925000000.0 0.7599 -0.5825
4928000000.0 0.06347 -0.9523
4931000000.0 -0.6965 -0.6275
4934000000.0 -0.9286 0.1056
4938000000.0 -0.5016 0.8119
4941000000.0 0.2927 0.8988
4944000000.0 0.8891 0.3396
4947000000.0 0.8027 -0.4479
4950000000.0 0.1722 -0.967
4953000000.0 -0.6385 -0.7352
4956000000.0 -0.9544 0.0597
4959000000.0 -0.5997 0.7814
4962000000.0 0.2169 0.9847
4966000000.0 0.919 0.4128
4969000000.0 0.892 -0.451
4972000000.0 0.2478 -0.9844
4975000000.0 -0.5937 -0.8134
4978000000.0 -1.008 -0.03229
4981000000.0 -0.6946 0.761
4984000000.0 0.1689 1.043
4988000000.0 0.9011 0.5611
4991000000.0 1.022 -0.3536
4994000000.0 0.3816 -1.013
4997000000.0 -0.5684 -0.9924
5000000000.0 -1.111 -0.2142
5003000000.0 -0.8835 0.733
5006000000.0 0.00131 1.18
5009000000.0 0.9374 0.7533
5012000000.0 1.217 -0.2308
5016000000.0 0.6001 -1.091
5019000000.0 -0.5066 -1.184
5022000000.0 -1.196 -0.3697
5025000000.0 -1.042 0.7057
5028000000.0 -0.1324 1.278
5031000000.0 0.9248 0.915
5034000000.0 1.307 -0.07577
5038000000.0 0.746 -1.065
5041000000.0 -0.2995 -1.222
5044000000.0 -1.188 -0.5536
5047000000.0 -1.167 0.5671
5050000000.0 -0.3536 1.261
5053000000.0 0.7283 1.074
5056000000.0 1.312 0.1137
5059000000.0 0.924 -0.9093
5062000000.0 -0.1505 -1.287
5066000000.0 -1.095 -0.7052
5069000000.0 -1.248 0.3665
5072000000.0 -0.4875 1.165
5075000000.0 0.6085 1.151
5078000000.0 1.24 0.291
5081000000.0 1.004 -0.7454
5084000000.0 0.07453 -1.26
5088000000.0 -0.9194 -0.851
5091000000.0 -1.183 0.1861
5094000000.0 -0.6237 0.9836
5097000000.0 0.3733 1.078
5100000000.0 1.055 0.4111
5103000000.0 1.002 -0.5069
5106000000.0 0.2411 -1.074
5109000000.0 -0.6629 -0.8633
5112000000.0 -1.061 -0.06762
5116000000.0 -0.7215 0.7787
5119000000.0 0.1191 1.023
5122000000.0 0.8645 0.5356
5125000000.0 0.9658 -0.346
5128000000.0 0.3732 -0.981
5131000000.0 -0.5247 -0.8823
5134000000.0 -0.9616 -0.1827
5138000000.0 -0.7447 0.6226
5141000000.0 0.03516 0.9838
5144000000.0 0.7402 0.6056
5147000000.0 0.9399 -0.2137
5150000000.0 0.4149 -0.8171
5153000000.0 -0.3789 -0.8417
5156000000.0 -0.8931 -0.2307
5159000000.0 -0.727 0.5246
5162000000.0 -0.04157 0.911
5166000000.0 0.6791 0.6036
5169000000.0 0.8829 -0.1521
5172000000.0 0.4404 -0.8156
5175000000.0 -0.309 -0.8166
5178000000.0 -0.8469 -0.2799
5181000000.0 -0.7706 0.4999
5184000000.0 -0.07446 0.9097
5188000000.0 0.6781 0.65
5191000000.0 0.9424 -0.1027
5194000000.0 0.4825 -0.8229
5197000000.0 -0.3221 -0.874
5200000000.0 -0.8879 -0.2948
5203000000.0 -0.8229 0.5199
5206000000.0 -0.1162 0.9491
5209000000.0 0.6899 0.6664
5212000000.0 0.9894 -0.116
5216000000.0 0.5227 -0.8636
5219000000.0 -0.2952 -0.9321
5222000000.0 -0.9401 -0.352
5225000000.0 -0.8722 0.4758
5228000000.0 -0.1472 0.9904
5231000000.0 0.6758 0.7585
5234000000.0 1.038 -0.04327
5238000000.0 0.6173 -0.8497
5241000000.0 -0.2057 -1.029
5244000000.0 -0.9502 -0.4769
5247000000.0 -0.9478 0.43
5250000000.0 -0.2933 1.011
5253000000.0 0.6239 0.8816
5256000000.0 1.082 0.106
5259000000.0 0.7947 -0.7757
5262000000.0 -0.0855 -1.068
5266000000.0 -0.8755 -0.6307
5269000000.0 -1.059 0.2838
5272000000.0 -0.4575 0.9926
5275000000.0 0.4337 0.9998
5278000000.0 1.042 0.2986
5281000000.0 0.9353 -0.6344
5284000000.0 0.1151 -1.095
5288000000.0 -0.7392 -0.7862
5291000000.0 -1.114 0.05123
5294000000.0 -0.6709 0.8765
5297000000.0 0.2423 1.1
5300000000.0 1.013 0.5478
5303000000.0 1.024 -0.3958
5306000000.0 0.3867 -1.09
5309000000.0 -0.5732 -0.9746
5312000000.0 -1.109 -0.2012
5316000000.0 -0.8574 0.7507
5319000000.0 0.01944 1.138
5322000000.0 0.8968 0.72
5325000000.0 1.142 -0.2004
5328000000.0 0.5607 -1.02
5331000000.0 -0.4184 -1.052
5334000000.0 -1.087 -0.3282
5338000000.0 -0.961 0.606
5341000000.0 -0.1418 1.15
5344000000.0 0.7986 0.8048
5347000000.0 1.106 -0.06673
5350000000.0 0.6425 -0.8677
5353000000.0 -0.2899 -1.038
5356000000.0 -0.9985 -0.4301
5359000000.0 -0.9523 0.5003
5362000000.0 -0.2119 1.045
5366000000.0 0.6721 0.8129
5369000000.0 1.047 -0.03172
5372000000.0 0.6345 -0.8517
5375000000.0 -0.2585 -0.9977
5378000000.0 -0.9035 -0.4036
5381000000.0 -0.8938 0.4463
5384000000.0 -0.1862 1.008
5388000000.0 0.631 0.7273
5391000000.0 0.9722 -0.03905
5394000000.0 0.5715 -0.7366
5397000000.0 -0.2349 -0.9033
5400000000.0 -0.8444 -0.3585
5403000000.0 -0.7737 0.4392
5406000000.0 -0.1297 0.843
5409000000.0 0.5742 0.6331
5412000000.0 0.8769 -0.03716
5416000000.0 0.5083 -0.712
5419000000.0 -0.2391 -0.8437
5422000000.0 -0.7682 -0.309
5425000000.0 -0.74 0.4427
5428000000.0 -0.148 0.8689
5431000000.0 0.601 0.6646
5434000000.0 0.8838 -0.06082
5438000000.0 0.4876 -0.698
5441000000.0 -0.2439 -0.8686
5444000000.0 -0.8077 -0.3332
5447000000.0 -0.7911 0.4532
5450000000.0 -0.1735 0.864
5453000000.0 0.6137 0.6813
5456000000.0 0.8644 -0.02616
5459000000.0 0.5379 -0.7106
5462000000.0 -0.1693 -0.8984
5466000000.0 -0.7785 -0.4016
5469000000.0 -0.844 0.3461
5472000000.0 -0.2556 0.8895
5475000000.0 0.5013 0.8035
5478000000.0 0.9356 0.09877
5481000000.0 0.7009 -0.64
5484000000.0 -0.05892 -0.9512
5488000000.0 -0.8119 -0.5851
5491000000.0 -0.9646 0.2583
5494000000.0 -0.4666 0.8741
5497000000.0 0.3859 0.9192
5500000000.0 0.9624 0.3056
5503000000.0 0.8724 -0.5806
5506000000.0 0.08099 -1.017
5509000000.0 -0.7228 -0.7274
5512000000.0 -1.058 0.02936
5516000000.0 -0.6312 0.8198
5519000000.0 0.2485 1.024
5522000000.0 0.9333 0.4398
5525000000.0 0.985 -0.3851
5528000000.0 0.3165 -1.014
5531000000.0 -0.5592 -0.8731
5534000000.0 -1.06 -0.1723
5538000000.0 -0.7838 0.7354
5541000000.0 0.03925 1.065
5544000000.0 0.8413 0.6244
5547000000.0 1.046 -0.2379
5550000000.0 0.4579 -0.9282
5553000000.0 -0.4152 -0.9825
5556000000.0 -1.02 -0.288
5559000000.0 -0.882 0.6111
5562000000.0 -0.07969 1.026
5566000000.0 0.7395 0.731
5569000000.0 1.013 -0.1066
5572000000.0 0.5605 -0.8174
5575000000.0 -0.2888 -0.9629
5578000000.0 -0.9218 -0.3953
5581000000.0 -0.8788 0.4298
5584000000.0 -0.1965 0.9392
5588000000.0 0.6019 0.7497
5591000000.0 0.9369 0.03334
5594000000.0 0.6004 -0.7028
5597000000.0 -0.1365 -0.9161
5600000000.0 -0.8031 -0.4278
5603000000.0 -0.8264 0.3251
5606000000.0 -0.2577 0.8676
5609000000.0 0.4913 0.7375
5612000000.0 0.8784 0.08676
5616000000.0 0.5973 -0.6201
5619000000.0 -0.1062 -0.8546
5622000000.0 -0.7066 -0.4256
5625000000.0 -0.7859 0.2923
5628000000.0 -0.2861 0.793
5631000000.0 0.4408 0.7252
5634000000.0 0.8189 0.09282
5638000000.0 0.5735 -0.5983
5641000000.0 -0.09317 -0.8319
5644000000.0 -0.693 -0.4635
5647000000.0 -0.7928 0.2498
5650000000.0 -0.2843 0.7917
5653000000.0 0.4345 0.72
5656000000.0 0.8688 0.1317
5659000000.0 0.6413 -0.5802
5662000000.0 -0.08707 -0.8707
5666000000.0 -0.7661 -0.4642
5669000000.0 -0.8362 0.2754
5672000000.0 -0.2923 0.8317
5675000000.0 0.4777 0.7855
5678000000.0 0.9188 0.1522
5681000000.0 0.6878 -0.6187
5684000000.0 -0.05069 -0.9449
5688000000.0 -0.7851 -0.5464
5691000000.0 -0.9099 0.273
5694000000.0 -0.3769 0.9265
5697000000.0 0.4544 0.8888
5700000000.0 0.9994 0.2179
5703000000.0 0.8001 -0.6286
5706000000.0 0.04051 -1.056
5709000000.0 -0.7984 -0.6419
5712000000.0 -1.002 0.2078
5716000000.0 -0.5083 0.9232
5719000000.0 0.4158 0.994
5722000000.0 1.02 0.3188
5725000000.0 0.8944 -0.6222
5728000000.0 0.1568 -1.089
5731000000.0 -0.7606 -0.7719
5734000000.0 -1.096 0.08082
5738000000.0 -0.6351 0.8968
5741000000.0 0.2743 1.073
5744000000.0 1.019 0.4681
5747000000.0 0.9993 -0.4756
5750000000.0 0.2825 -1.076
5753000000.0 -0.6168 -0.8775
5756000000.0 -1.102 -0.09803
5759000000.0 -0.7725 0.7824
5762000000.0 0.1526 1.084
5766000000.0 0.9395 0.6303
5769000000.0 1.053 -0.3019
5772000000.0 0.4624 -1.035
5775000000.0 -0.4775 -0.9832
5778000000.0 -1.053 -0.2293
5781000000.0 -0.865 0.6372
5784000000.0 -0.0495 1.073
5788000000.0 0.8087 0.7548
5791000000.0 1.035 -0.1473
5794000000.0 0.5565 -0.907
5797000000.0 -0.3134 -1.033
5800000000.0 -1.018 -0.3729
5803000000.0 -0.913 0.4919
5806000000.0 -0.1609 1.032
5809000000.0 0.6828 0.7584
5812000000.0 1.027 -0.01604
5816000000.0 0.6091 -0.7876
5819000000.0 -0.2029 -0.964
5822000000.0 -0.9046 -0.44
5825000000.0 -0.8792 0.4104
5828000000.0 -0.2194 0.9642
5831000000.0 0.5847 0.7829
5834000000.0 0.9873 0.06129
5838000000.0 0.643 -0.7176
5841000000.0 -0.1616 -0.9816
5844000000.0 -0.8 -0.4793
5847000000.0 -0.8531 0.3523
5850000000.0 -0.2978 0.9016
5853000000.0 0.5045 0.7663
5856000000.0 0.9475 0.07229
5859000000.0 0.6179 -0.6477
5862000000.0 -0.09787 -0.9201
5866000000.0 -0.7819 -0.449
5869000000.0 -0.841 0.2805
5872000000.0 -0.2904 0.8247
5875000000.0 0.5066 0.7153
5878000000.0 0.8756 0.1088
5881000000.0 0.6046 -0.6223
5884000000.0 -0.1198 -0.88
5888000000.0 -0.7708 -0.4902
5891000000.0 -0.8432 0.2746
5894000000.0 -0.2831 0.8058
5897000000.0 0.4265 0.7576
5900000000.0 0.8373 0.1096
5903000000.0 0.64 -0.5679
5906000000.0 -0.05725 -0.8442
5909000000.0 -0.6651 -0.5066
5912000000.0 -0.8221 0.2091
5916000000.0 -0.3767 0.7753
5919000000.0 0.3852 0.7889
5922000000.0 0.8681 0.2089
5925000000.0 0.7006 -0.4957
5928000000.0 0.02565 -0.8701
5931000000.0 -0.6507 -0.6319
5934000000.0 -0.8746 0.1292
5938000000.0 -0.4832 0.7813
5941000000.0 0.2823 0.8826
5944000000.0 0.8432 0.32
5947000000.0 0.8161 -0.4489
5950000000.0 0.1595 -0.9069
5953000000.0 -0.5793 -0.7643
5956000000.0 -0.932 0.0144
5959000000.0 -0.6363 0.7298
5962000000.0 0.1535 0.9486
5966000000.0 0.8289 0.4924
5969000000.0 0.9169 -0.3331
5972000000.0 0.3252 -0.9302
5975000000.0 -0.5083 -0.8532
5978000000.0 -0.9912 -0.1618
5981000000.0 -0.7684 0.6515
5984000000.0 0.01398 1.009
5988000000.0 0.7954 0.6289
5991000000.0 0.9842 -0.221
5994000000.0 0.4929 -0.8959
5997000000.0 -0.3919 -0.9595
6000000000.0 -0.9566 -0.267
6003000000.0 -0.8262 0.5265
6006000000.0 -0.08395 0.9858
6009000000.0 0.7115 0.7146
6012000000.0 0.9856 -0.08396
6016000000.0 0.5344 -0.8131
6019000000.0 -0.3182 -0.9315
6022000000.0 -0.9272 -0.3658
6025000000.0 -0.8423 0.4883
6028000000.0 -0.17 0.9478
6031000000.0 0.654 0.7326
6034000000.0 0.9783 -0.03516
6038000000.0 0.5974 -0.7549
6041000000.0 -0.2191 -0.9164
6044000000.0 -0.8509 -0.3929
6047000000.0 -0.8437 0.3958
6050000000.0 -0.252 0.8926
6053000000.0 0.5725 0.7314
6056000000.0 0.8954 0.02387
6059000000.0 0.5846 -0.6605
6062000000.0 -0.1722 -0.8862
6066000000.0 -0.7933 -0.4336
6069000000.0 -0.8089 0.3512
6072000000.0 -0.2422 0.854
6075000000.0 0.5174 0.7107
6078000000.0 0.8591 0.05003
6081000000.0 0.594 -0.6288
6084000000.0 -0.1411 -0.8544
6088000000.0 -0.7392 -0.4358
6091000000.0 -0.7956 0.3027
6094000000.0 -0.26 0.8066
6097000000.0 0.4859 0.6932
6100000000.0 0.8427 0.1182
6103000000.0 0.6112 -0.6061
6106000000.0 -0.1201 -0.8331
6109000000.0 -0.7259 -0.4771
6112000000.0 -0.8336 0.2792
6116000000.0 -0.3083 0.8355
6119000000.0 0.4435 0.7694
6122000000.0 0.8696 0.1355
6125000000.0 0.6581 -0.6032
6128000000.0 -0.05019 -0.8905
6131000000.0 -0.7362 -0.4827
6134000000.0 -0.8766 0.2737
6138000000.0 -0.3589 0.8172
6141000000.0 0.435 0.7817
6144000000.0 0.8916 0.1828
6147000000.0 0.7211 -0.5846
6150000000.0 0.009509 -0.9183
6153000000.0 -0.7095 -0.5615
6156000000.0 -0.9277 0.1772
6159000000.0 -0.4443 0.8203
6162000000.0 0.3612 0.8681
6166000000.0 0.9119 0.2358
6169000000.0 0.7544 -0.5148
6172000000.0 0.05952 -0.9908
6175000000.0 -0.705 -0.6615
6178000000.0 -0.952 0.125
6181000000.0 -0.5285 0.8214
6184000000.0 0.3208 0.9356
6188000000.0 0.8995 0.3418
6191000000.0 0.842 -0.4834
6194000000.0 0.1356 -0.9205
6197000000.0 -0.6471 -0.732
6200000000.0 -0.9816 0.0442
6203000000.0 -0.5707 0.7225
6206000000.0 0.2263 0.9285
6209000000.0 0.8478 0.4176
6212000000.0 0.8382 -0.3696
6216000000.0 0.2326 -0.8684
6219000000.0 -0.5402 -0.7373
6222000000.0 -0.9661 -0.106
6225000000.0 -0.663 0.6611
6228000000.0 0.09372 0.8727
6231000000.0 0.7368 0.505
6234000000.0 0.8709 -0.2629
6238000000.0 0.3506 -0.8041
6241000000.0 -0.4498 -0.7961
6244000000.0 -0.8644 -0.1741
6247000000.0 -0.6811 0.5569
6250000000.0 -0.04672 0.8363
6253000000.0 0.6409 0.5358
6256000000.0 0.8255 -0.1096
6259000000.0 0.4232 -0.7264
6262000000.0 -0.2503 -0.7791
6266000000.0 -0.7655 -0.2914
6269000000.0 -0.7073 0.3927
