! Created with skrf 1.8.0 (http://scikit-rf.org).
# Hz S RI R 50.0 
!freq ReS11 ImS11
4000000000.0 -0.1548 -1.528
4003000000.0 -1.271 -0.8224
4006000000.0 -1.486 0.4624
4009000000.0 -0.5139 1.382
4012000000.0 0.7686 1.284
4016000000.0 1.482 0.2107
4019000000.0 1.143 -1.06
4022000000.0 -0.1391 -1.52
4025000000.0 -1.278 -0.8717
4028000000.0 -1.498 0.435
4031000000.0 -0.5965 1.512
4034000000.0 0.8598 1.429
4038000000.0 1.593 0.214
4041000000.0 1.171 -1.081
4044000000.0 -0.1143 -1.587
4047000000.0 -1.317 -0.9503
4050000000.0 -1.569 0.4403
4053000000.0 -0.6484 1.459
4056000000.0 0.7524 1.47
4059000000.0 1.563 0.3235
4062000000.0 1.271 -0.971
4066000000.0 0.02463 -1.618
4069000000.0 -1.199 -1.062
4072000000.0 -1.59 0.2738
4075000000.0 -0.8639 1.394
4078000000.0 0.5588 1.515
4081000000.0 1.541 0.4986
4084000000.0 1.423 -0.8269
4088000000.0 0.2653 -1.65
4091000000.0 -1.101 -1.189
4094000000.0 -1.628 0.07718
4097000000.0 -0.9546 1.282
4100000000.0 0.3679 1.553
4103000000.0 1.421 0.7203
4106000000.0 1.439 -0.6592
4109000000.0 0.4358 -1.477
4112000000.0 -0.8136 -1.302
4116000000.0 -1.518 -0.228
4119000000.0 -1.098 0.9946
4122000000.0 0.003765 1.463
4125000000.0 1.134 0.9833
4128000000.0 1.456 -0.2206
4131000000.0 0.8084 -1.257
4134000000.0 -0.4084 -1.408
4138000000.0 -1.339 -0.6117
4141000000.0 -1.337 0.6257
4144000000.0 -0.402 1.459
4147000000.0 0.868 1.236
4150000000.0 1.48 0.157
4153000000.0 1.087 -1.036
4156000000.0 -0.129 -1.549
4159000000.0 -1.238 -0.8774
4162000000.0 -1.458 0.3485
4166000000.0 -0.6901 1.333
4169000000.0 0.6051 1.35
4172000000.0 1.433 0.4261
4175000000.0 1.233 -0.8196
4178000000.0 0.181 -1.469
4181000000.0 -1.039 -1.105
4184000000.0 -1.507 0.0746
4188000000.0 -0.8748 1.204
4191000000.0 0.378 1.471
4194000000.0 1.373 0.6828
4197000000.0 1.405 -0.6186
4200000000.0 0.394 -1.512
4203000000.0 -0.9542 -1.29
4206000000.0 -1.605 -0.07014
4209000000.0 -1.082 1.259
4212000000.0 0.3318 1.605
4216000000.0 1.521 0.7668
4219000000.0 1.544 -0.7162
4222000000.0 0.353 -1.631
4225000000.0 -1.1 -1.278
4228000000.0 -1.7 0.06016
4231000000.0 -0.9421 1.411
4234000000.0 0.5379 1.551
4238000000.0 1.581 0.5483
4241000000.0 1.343 -0.9016
4244000000.0 0.1035 -1.61
4247000000.0 -1.199 -1.063
4250000000.0 -1.571 0.3066
4253000000.0 -0.7087 1.414
4256000000.0 0.6989 1.41
4259000000.0 1.499 0.3304
4262000000.0 1.167 -0.9728
4266000000.0 -0.07105 -1.475
4269000000.0 -1.229 -0.8841
4272000000.0 -1.408 0.4364
4275000000.0 -0.5581 1.346
4278000000.0 0.734 1.244
4281000000.0 1.452 0.1666
4284000000.0 1.047 -0.9732
4288000000.0 -0.1321 -1.362
4291000000.0 -1.136 -0.6836
4294000000.0 -1.277 0.427
4297000000.0 -0.45 1.288
4300000000.0 0.6358 1.157
4303000000.0 1.284 0.2486
4306000000.0 1.017 -0.7785
4309000000.0 0.06166 -1.295
4312000000.0 -0.9924 -0.8427
4316000000.0 -1.252 0.1943
4319000000.0 -0.7086 1.093
4322000000.0 0.409 1.25
4325000000.0 1.233 0.5002
4328000000.0 1.181 -0.6192
4331000000.0 0.3156 -1.308
4334000000.0 -0.8434 -1.066
4338000000.0 -1.39 -0.05178
4341000000.0 -0.9128 1.024
4344000000.0 0.1847 1.398
4347000000.0 1.22 0.7544
4350000000.0 1.366 -0.4407
4353000000.0 0.4899 -1.335
4356000000.0 -0.6975 -1.253
4359000000.0 -1.435 -0.2474
4362000000.0 -1.139 0.8982
4366000000.0 0.01128 1.44
4369000000.0 1.153 0.9306
4372000000.0 1.462 -0.2421
4375000000.0 0.7174 -1.289
4378000000.0 -0.5371 -1.383
4381000000.0 -1.45 -0.4787
4384000000.0 -1.296 0.8297
4388000000.0 -0.1824 1.489
4391000000.0 1.083 1.111
4394000000.0 1.561 -0.1249
4397000000.0 0.9039 -1.293
4400000000.0 -0.4478 -1.518
4403000000.0 -1.471 -0.5807
4406000000.0 -1.362 0.8017
4409000000.0 -0.2138 1.522
4412000000.0 1.122 1.094
4416000000.0 1.536 -0.1668
4419000000.0 0.7858 -1.271
4422000000.0 -0.513 -1.411
4425000000.0 -1.398 -0.4618
4428000000.0 -1.239 0.8227
4431000000.0 -0.1 1.43
4434000000.0 1.069 0.9674
4438000000.0 1.392 -0.2686
4441000000.0 0.6863 -1.24
4444000000.0 -0.5279 -1.248
4447000000.0 -1.333 -0.3507
4450000000.0 -1.051 0.8221
4453000000.0 0.01885 1.361
4456000000.0 1.038 0.8113
4459000000.0 1.253 -0.3363
4462000000.0 0.494 -1.17
4466000000.0 -0.6227 -1.072
4469000000.0 -1.224 -0.1907
4472000000.0 -0.8738 0.8487
4475000000.0 0.1279 1.169
4478000000.0 0.9867 0.6456
4481000000.0 1.086 -0.4133
4484000000.0 0.3498 -1.098
4488000000.0 -0.6351 -0.9478
4491000000.0 -1.136 -0.07322
4494000000.0 -0.7936 0.8364
4497000000.0 0.1547 1.108
4500000000.0 0.9817 0.5604
4503000000.0 1.022 -0.3658
4506000000.0 0.3393 -1.046
4509000000.0 -0.6166 -0.8993
4512000000.0 -1.09 -0.1276
4516000000.0 -0.8063 0.809
4519000000.0 0.117 1.127
4522000000.0 0.9374 0.6244
4525000000.0 1.072 -0.3596
4528000000.0 0.4569 -1.068
4531000000.0 -0.5364 -1.007
4534000000.0 -1.136 -0.2336
4538000000.0 -0.8957 0.7468
4541000000.0 0.02771 1.173
4544000000.0 0.9059 0.7357
4547000000.0 1.171 -0.2255
4550000000.0 0.5647 -1.062
4553000000.0 -0.4642 -1.118
4556000000.0 -1.147 -0.3634
4559000000.0 -1.054 0.6238
4562000000.0 -0.2008 1.203
4566000000.0 0.8244 0.9179
4569000000.0 1.246 -0.04529
4572000000.0 0.7718 -1.019
4575000000.0 -0.2713 -1.262
4578000000.0 -1.146 -0.6101
4581000000.0 -1.231 0.4767
4584000000.0 -0.4165 1.249
4588000000.0 0.6991 1.123
4591000000.0 1.354 0.1963
4594000000.0 0.9681 -0.9433
4597000000.0 -0.08378 -1.386
4600000000.0 -1.109 -0.8133
4603000000.0 -1.335 0.3634
4606000000.0 -0.5645 1.267
4609000000.0 0.636 1.286
4612000000.0 1.343 0.3034
4616000000.0 1.104 -0.8597
4619000000.0 0.03567 -1.383
4622000000.0 -1.051 -0.906
4625000000.0 -1.342 0.2377
4628000000.0 -0.6813 1.177
4631000000.0 0.5097 1.266
4634000000.0 1.306 0.3999
4638000000.0 1.141 -0.7531
4641000000.0 0.122 -1.363
4644000000.0 -0.9619 -0.8835
4647000000.0 -1.319 0.1816
4650000000.0 -0.67 1.133
4653000000.0 0.4806 1.191
4656000000.0 1.236 0.3726
4659000000.0 1.064 -0.7478
4662000000.0 0.07522 -1.271
4666000000.0 -0.9166 -0.8336
4669000000.0 -1.226 0.2144
4672000000.0 -0.5709 1.043
4675000000.0 0.4377 1.065
4678000000.0 1.11 0.3359
4681000000.0 0.9465 -0.6762
4684000000.0 0.05183 -1.126
4688000000.0 -0.8509 -0.7668
4691000000.0 -1.073 0.1871
4694000000.0 -0.5406 0.9223
4697000000.0 0.4147 1.036
4700000000.0 1.056 0.2903
4703000000.0 0.8905 -0.6324
4706000000.0 0.01111 -1.098
4709000000.0 -0.8024 -0.722
4712000000.0 -1.065 0.2031
4716000000.0 -0.4733 0.9667
4719000000.0 0.4209 0.9719
4722000000.0 1.026 0.241
4725000000.0 0.8427 -0.6207
4728000000.0 0.02833 -1.046
4731000000.0 -0.7713 -0.7041
4734000000.0 -1.022 0.1578
4738000000.0 -0.5066 0.8384
4741000000.0 0.3294 0.9714
4744000000.0 0.9903 0.3539
4747000000.0 0.9073 -0.5604
4750000000.0 0.1491 -1.039
4753000000.0 -0.7205 -0.8071
4756000000.0 -1.103 0.009311
4759000000.0 -0.6919 0.8684
4762000000.0 0.2354 1.068
4766000000.0 0.9738 0.5252
4769000000.0 1.037 -0.4304
4772000000.0 0.3562 -1.086
4775000000.0 -0.6353 -0.9888
4778000000.0 -1.154 -0.1295
4781000000.0 -0.8473 0.8198
4784000000.0 0.06649 1.198
4788000000.0 0.9371 0.7319
4791000000.0 1.194 -0.259
4794000000.0 0.5754 -1.084
4797000000.0 -0.4495 -1.161
4800000000.0 -1.173 -0.396
4803000000.0 -1.06 0.6427
4806000000.0 -0.2132 1.239
4809000000.0 0.8101 0.9456
4812000000.0 1.284 -0.009716
4816000000.0 0.8197 -1.022
4819000000.0 -0.2821 -1.294
4822000000.0 -1.186 -0.622
4825000000.0 -1.264 0.503
4828000000.0 -0.4094 1.304
4831000000.0 0.7576 1.187
4834000000.0 1.381 0.1529
4838000000.0 0.9882 -0.9761
4841000000.0 -0.1203 -1.361
4844000000.0 -1.131 -0.7983
4847000000.0 -1.358 0.4036
4850000000.0 -0.5216 1.282
4853000000.0 0.632 1.233
4856000000.0 1.326 0.2518
4859000000.0 1.06 -0.8765
4862000000.0 -0.002286 -1.339
4866000000.0 -1.053 -0.8464
4869000000.0 -1.292 0.2777
4872000000.0 -0.5999 1.154
4875000000.0 0.5396 1.183
4878000000.0 1.255 0.3302
4881000000.0 1.005 -0.769
4884000000.0 0.06272 -1.228
4888000000.0 -0.9041 -0.7997
4891000000.0 -1.199 0.1666
4894000000.0 -0.5844 1.009
4897000000.0 0.4373 1.04
4900000000.0 1.086 0.3346
4903000000.0 0.9083 -0.6143
4906000000.0 0.09692 -1.093
4909000000.0 -0.7744 -0.7534
4912000000.0 -1.041 0.1589
4916000000.0 -0.5355 0.8827
4919000000.0 0.3172 0.9679
4922000000.0 0.9294 0.3763
4925000000.0 0.8227 -0.4986
4928000000.0 0.1558 -0.9438
4931000000.0 -0.6316 -0.7223
4934000000.0 -0.9514 0.02049
4938000000.0 -0.5394 0.7498
4941000000.0 0.2085 0.9348
4944000000.0 0.8503 0.4191
4947000000.0 0.839 -0.3904
4950000000.0 0.2546 -0.906
4953000000.0 -0.5671 -0.786
4956000000.0 -0.9541 -0.06897
4959000000.0 -0.666 0.7004
4962000000.0 0.1576 0.9382
4966000000.0 0.8581 0.482
4969000000.0 0.9337 -0.3453
4972000000.0 0.2977 -0.9376
4975000000.0 -0.4954 -0.8497
4978000000.0 -1.003 -0.1465
4981000000.0 -0.7544 0.6947
4984000000.0 0.07186 1.037
4988000000.0 0.8453 0.6124
4991000000.0 1.016 -0.2398
4994000000.0 0.4643 -0.9853
4997000000.0 -0.435 -0.9693
5000000000.0 -1.075 -0.317
5003000000.0 -0.9051 0.6694
5006000000.0 -0.07883 1.12
5009000000.0 0.8501 0.8467
5012000000.0 1.177 -0.1446
5016000000.0 0.6722 -1.028
5019000000.0 -0.3644 -1.162
5022000000.0 -1.151 -0.4629
5025000000.0 -1.092 0.6004
5028000000.0 -0.2354 1.241
5031000000.0 0.7853 0.975
5034000000.0 1.283 -0.01618
5038000000.0 0.8187 -0.9897
5041000000.0 -0.2435 -1.279
5044000000.0 -1.093 -0.636
5047000000.0 -1.209 0.4668
5050000000.0 -0.4426 1.216
5053000000.0 0.6516 1.095
5056000000.0 1.27 0.168
5059000000.0 0.9864 -0.8471
5062000000.0 -0.04037 -1.3
5066000000.0 -0.9868 -0.8198
5069000000.0 -1.268 0.2782
5072000000.0 -0.6163 1.113
5075000000.0 0.4713 1.201
5078000000.0 1.201 0.351
5081000000.0 1.033 -0.6428
5084000000.0 0.1469 -1.223
5088000000.0 -0.8452 -0.9019
5091000000.0 -1.196 0.09394
5094000000.0 -0.7135 0.9673
5097000000.0 0.2747 1.114
5100000000.0 0.9949 0.4671
5103000000.0 1.055 -0.4321
5106000000.0 0.32 -1.055
5109000000.0 -0.6314 -0.883
5112000000.0 -1.072 -0.09247
5116000000.0 -0.7823 0.7452
5119000000.0 0.05818 1.04
5122000000.0 0.8353 0.6073
5125000000.0 1.043 -0.228
5128000000.0 0.4497 -0.8994
5131000000.0 -0.4444 -0.9221
5134000000.0 -0.9521 -0.2365
5138000000.0 -0.7841 0.5484
5141000000.0 -0.08738 0.9752
5144000000.0 0.6924 0.6437
5147000000.0 0.9226 -0.1081
5150000000.0 0.4864 -0.8124
5153000000.0 -0.3189 -0.8874
5156000000.0 -0.8494 -0.3376
5159000000.0 -0.7814 0.4623
5162000000.0 -0.1388 0.8572
5166000000.0 0.572 0.7013
5169000000.0 0.8766 -0.05625
5172000000.0 0.5474 -0.7163
5175000000.0 -0.2194 -0.8533
5178000000.0 -0.8362 -0.3875
5181000000.0 -0.7834 0.442
5184000000.0 -0.1683 0.8854
5188000000.0 0.5844 0.7243
5191000000.0 0.8986 -0.01308
5194000000.0 0.5751 -0.7288
5197000000.0 -0.2207 -0.9237
5200000000.0 -0.8572 -0.3949
5203000000.0 -0.8293 0.4113
5206000000.0 -0.2257 0.9432
5209000000.0 0.6126 0.7346
5212000000.0 0.9622 -0.003922
5216000000.0 0.6232 -0.7632
5219000000.0 -0.2039 -0.9552
5222000000.0 -0.8413 -0.4508
5225000000.0 -0.9092 0.4038
5228000000.0 -0.2733 0.9797
5231000000.0 0.5718 0.8614
5234000000.0 1.016 0.07259
5238000000.0 0.6982 -0.725
5241000000.0 -0.129 -1.019
5244000000.0 -0.8715 -0.5649
5247000000.0 -1.007 0.3192
5250000000.0 -0.3634 0.9625
5253000000.0 0.489 0.9342
5256000000.0 1.042 0.2061
5259000000.0 0.831 -0.6617
5262000000.0 0.0298 -1.111
5266000000.0 -0.8084 -0.7122
5269000000.0 -1.064 0.1886
5272000000.0 -0.5523 0.9498
5275000000.0 0.3182 1.047
5278000000.0 1.012 0.3858
5281000000.0 0.9713 -0.5168
5284000000.0 0.2251 -1.079
5288000000.0 -0.6733 -0.8956
5291000000.0 -1.073 -0.04473
5294000000.0 -0.7491 0.8034
5297000000.0 0.1216 1.125
5300000000.0 0.9144 0.6364
5303000000.0 1.082 -0.3065
5306000000.0 0.4623 -1.03
5309000000.0 -0.474 -1.04
5312000000.0 -1.075 -0.3233
5316000000.0 -0.9316 0.6794
5319000000.0 -0.1027 1.133
5322000000.0 0.7859 0.7957
5325000000.0 1.153 -0.1078
5328000000.0 0.6703 -0.9157
5331000000.0 -0.301 -1.103
5334000000.0 -1.021 -0.4735
5338000000.0 -1.011 0.5024
5341000000.0 -0.3192 1.106
5344000000.0 0.6669 0.8812
5347000000.0 1.072 0.07535
5350000000.0 0.776 -0.8436
5353000000.0 -0.1624 -1.081
5356000000.0 -0.956 -0.5962
5359000000.0 -1.018 0.3659
5362000000.0 -0.3605 0.9824
5366000000.0 0.5644 0.9099
5369000000.0 1.035 0.1251
5372000000.0 0.7642 -0.7455
5375000000.0 -0.09737 -1.047
5378000000.0 -0.8646 -0.5799
5381000000.0 -0.9505 0.2966
5384000000.0 -0.3503 0.9595
5388000000.0 0.4901 0.8139
5391000000.0 0.9719 0.09617
5394000000.0 0.6839 -0.671
5397000000.0 -0.1528 -0.9536
5400000000.0 -0.773 -0.5036
5403000000.0 -0.8694 0.3012
5406000000.0 -0.28 0.8408
5409000000.0 0.49 0.7302
5412000000.0 0.8911 0.09537
5416000000.0 0.6308 -0.61
5419000000.0 -0.079 -0.8648
5422000000.0 -0.7394 -0.4237
5425000000.0 -0.817 0.2759
5428000000.0 -0.295 0.8305
5431000000.0 0.4582 0.6977
5434000000.0 0.8816 0.06259
5438000000.0 0.6312 -0.6331
5441000000.0 -0.1024 -0.8807
5444000000.0 -0.7492 -0.4298
5447000000.0 -0.8016 0.3005
5450000000.0 -0.3032 0.842
5453000000.0 0.4639 0.7323
5456000000.0 0.8804 0.1254
5459000000.0 0.6271 -0.569
5462000000.0 -0.08989 -0.9012
5466000000.0 -0.7157 -0.5429
5469000000.0 -0.8361 0.2516
5472000000.0 -0.3896 0.848
5475000000.0 0.3924 0.8381
5478000000.0 0.9002 0.207
5481000000.0 0.7585 -0.5526
5484000000.0 0.09069 -0.9266
5488000000.0 -0.7292 -0.6744
5491000000.0 -0.9828 0.09048
5494000000.0 -0.5573 0.8138
5497000000.0 0.2783 0.9199
5500000000.0 0.8749 0.4182
5503000000.0 0.895 -0.449
5506000000.0 0.231 -1.0
5509000000.0 -0.6288 -0.8082
5512000000.0 -1.037 -0.08812
5516000000.0 -0.7007 0.7717
5519000000.0 0.1394 1.033
5522000000.0 0.8635 0.6128
5525000000.0 0.988 -0.2818
5528000000.0 0.4404 -0.9488
5531000000.0 -0.4445 -0.9576
5534000000.0 -1.009 -0.2625
5538000000.0 -0.8693 0.5951
5541000000.0 -0.111 1.041
5544000000.0 0.7525 0.7841
5547000000.0 1.059 -0.1065
5550000000.0 0.6256 -0.8716
5553000000.0 -0.2911 -1.022
5556000000.0 -0.9621 -0.4562
5559000000.0 -0.9665 0.4559
5562000000.0 -0.2432 1.034
5566000000.0 0.5986 0.8275
5569000000.0 1.037 0.07824
5572000000.0 0.6768 -0.7411
5575000000.0 -0.1042 -0.9724
5578000000.0 -0.8646 -0.5458
5581000000.0 -0.9323 0.2877
5584000000.0 -0.3269 0.9192
5588000000.0 0.4911 0.8707
5591000000.0 0.9234 0.1632
5594000000.0 0.7499 -0.5993
5597000000.0 -0.00435 -0.9375
5600000000.0 -0.725 -0.5605
5603000000.0 -0.9072 0.183
5606000000.0 -0.3963 0.8054
5609000000.0 0.366 0.8268
5612000000.0 0.8469 0.218
5616000000.0 0.6938 -0.4764
5619000000.0 0.07031 -0.8556
5622000000.0 -0.6444 -0.6015
5625000000.0 -0.8422 0.1086
5628000000.0 -0.4072 0.7301
5631000000.0 0.2897 0.7732
5634000000.0 0.7749 0.2657
5638000000.0 0.722 -0.4613
5641000000.0 0.09679 -0.8245
5644000000.0 -0.5978 -0.5985
5647000000.0 -0.8302 0.104
5650000000.0 -0.44 0.7077
5653000000.0 0.2771 0.7967
5656000000.0 0.7842 0.2701
5659000000.0 0.7265 -0.4429
5662000000.0 0.122 -0.8581
5666000000.0 -0.5859 -0.5829
5669000000.0 -0.8926 0.1132
5672000000.0 -0.4689 0.7387
5675000000.0 0.2985 0.8385
5678000000.0 0.8316 0.3413
5681000000.0 0.7689 -0.4794
5684000000.0 0.1163 -0.9176
5688000000.0 -0.6597 -0.71
5691000000.0 -0.928 0.06903
5694000000.0 -0.5238 0.7855
5697000000.0 0.2755 0.9442
5700000000.0 0.926 0.3463
5703000000.0 0.8888 -0.4919
5706000000.0 0.1593 -1.003
5709000000.0 -0.6576 -0.739
5712000000.0 -1.005 0.03866
5716000000.0 -0.6272 0.794
5719000000.0 0.249 1.015
5722000000.0 0.9371 0.4757
5725000000.0 0.9612 -0.3838
5728000000.0 0.2829 -1.045
5731000000.0 -0.5856 -0.8846
5734000000.0 -1.033 -0.1336
5738000000.0 -0.7673 0.7699
5741000000.0 0.07383 1.094
5744000000.0 0.9169 0.6431
5747000000.0 1.084 -0.2841
5750000000.0 0.4655 -0.9883
5753000000.0 -0.4612 -0.9801
5756000000.0 -1.038 -0.2467
5759000000.0 -0.9011 0.6323
5762000000.0 -0.07813 1.097
5766000000.0 0.7973 0.792
5769000000.0 1.067 -0.1526
5772000000.0 0.5957 -0.9331
5775000000.0 -0.3182 -1.08
5778000000.0 -0.9916 -0.4103
5781000000.0 -0.9732 0.483
5784000000.0 -0.2598 1.048
5788000000.0 0.6534 0.8262
5791000000.0 1.115 0.05382
5794000000.0 0.73 -0.7699
5797000000.0 -0.1443 -1.047
5800000000.0 -0.8854 -0.6068
5803000000.0 -1.031 0.3764
5806000000.0 -0.365 1.023
5809000000.0 0.4956 0.9275
5812000000.0 1.04 0.1772
5816000000.0 0.8087 -0.6734
5819000000.0 -0.0003519 -1.02
5822000000.0 -0.764 -0.6276
5825000000.0 -1.002 0.1907
5828000000.0 -0.4745 0.9242
5831000000.0 0.3951 0.935
5834000000.0 0.9476 0.2729
5838000000.0 0.8162 -0.5431
5841000000.0 0.1065 -0.9595
5844000000.0 -0.7099 -0.6569
5847000000.0 -0.9459 0.1505
5850000000.0 -0.4986 0.8034
5853000000.0 0.338 0.8746
5856000000.0 0.8628 0.3319
5859000000.0 0.7411 -0.4997
5862000000.0 0.1289 -0.9144
5866000000.0 -0.6286 -0.6342
5869000000.0 -0.8888 0.0718
5872000000.0 -0.4789 0.7728
5875000000.0 0.2783 0.836
5878000000.0 0.8349 0.328
5881000000.0 0.7671 -0.4572
5884000000.0 0.1123 -0.862
5888000000.0 -0.5709 -0.6303
5891000000.0 -0.8635 0.05933
5894000000.0 -0.506 0.7089
5897000000.0 0.27 0.8168
5900000000.0 0.7772 0.3466
5903000000.0 0.7671 -0.3814
5906000000.0 0.1583 -0.8544
5909000000.0 -0.5603 -0.688
5912000000.0 -0.8525 -0.0252
5916000000.0 -0.5525 0.6534
5919000000.0 0.1898 0.8579
5922000000.0 0.7757 0.4086
5925000000.0 0.7653 -0.3321
5928000000.0 0.2548 -0.8462
5931000000.0 -0.4876 -0.7064
5934000000.0 -0.8697 -0.08475
5938000000.0 -0.6683 0.5952
5941000000.0 0.05782 0.9103
5944000000.0 0.7074 0.5183
5947000000.0 0.8706 -0.235
5950000000.0 0.3449 -0.8298
5953000000.0 -0.3966 -0.8067
5956000000.0 -0.8829 -0.2388
5959000000.0 -0.7197 0.5284
5962000000.0 -0.05458 0.9178
5966000000.0 0.6686 0.6565
5969000000.0 0.923 -0.09825
5972000000.0 0.5127 -0.8115
5975000000.0 -0.2401 -0.888
5978000000.0 -0.891 -0.3526
5981000000.0 -0.9042 0.4266
5984000000.0 -0.2302 0.9176
5988000000.0 0.5936 0.8287
5991000000.0 0.9714 0.0706
5994000000.0 0.699 -0.7301
5997000000.0 -0.1218 -1.016
6000000000.0 -0.8616 -0.5583
6003000000.0 -0.9267 0.3364
6006000000.0 -0.3649 0.9179
6009000000.0 0.5175 0.8714
6012000000.0 0.972 0.1915
6016000000.0 0.7573 -0.6538
6019000000.0 0.00381 -1.008
6022000000.0 -0.7776 -0.6318
6025000000.0 -0.9856 0.2139
6028000000.0 -0.4377 0.8806
6031000000.0 0.4029 0.9097
6034000000.0 0.9611 0.2961
6038000000.0 0.7944 -0.5581
6041000000.0 0.07784 -0.9608
6044000000.0 -0.6932 -0.6964
6047000000.0 -0.9216 0.1234
6050000000.0 -0.487 0.7922
6053000000.0 0.3286 0.8972
6056000000.0 0.8871 0.3053
6059000000.0 0.7868 -0.4845
6062000000.0 0.1347 -0.9484
6066000000.0 -0.6478 -0.673
6069000000.0 -0.9168 0.07161
6072000000.0 -0.5205 0.7431
6075000000.0 0.234 0.8598
6078000000.0 0.8197 0.3461
6081000000.0 0.786 -0.4248
6084000000.0 0.1498 -0.8491
6088000000.0 -0.5588 -0.665
6091000000.0 -0.8503 0.03476
6094000000.0 -0.5188 0.6847
6097000000.0 0.206 0.8672
6100000000.0 0.7985 0.3669
6103000000.0 0.7861 -0.3743
6106000000.0 0.2184 -0.8016
6109000000.0 -0.4996 -0.6709
6112000000.0 -0.8705 -0.03142
6116000000.0 -0.5496 0.6358
6119000000.0 0.1609 0.8109
6122000000.0 0.7761 0.3938
6125000000.0 0.7685 -0.3442
6128000000.0 0.2547 -0.8183
6131000000.0 -0.5014 -0.7138
6134000000.0 -0.8789 -0.05353
6138000000.0 -0.5835 0.6252
6141000000.0 0.1144 0.8543
6144000000.0 0.7422 0.4572
6147000000.0 0.8223 -0.3174
6150000000.0 0.2967 -0.8179
6153000000.0 -0.4448 -0.7555
6156000000.0 -0.9041 -0.1334
6159000000.0 -0.7014 0.5845
6162000000.0 0.03118 0.894
6166000000.0 0.7279 0.5449
6169000000.0 0.9173 -0.2368
6172000000.0 0.41 -0.8633
6175000000.0 -0.4162 -0.8565
6178000000.0 -0.9085 -0.2029
6181000000.0 -0.7607 0.5567
6184000000.0 -0.05913 0.957
6188000000.0 0.7116 0.6089
6191000000.0 0.9651 -0.1508
6194000000.0 0.4884 -0.8294
6197000000.0 -0.2896 -0.8689
6200000000.0 -0.9099 -0.2864
6203000000.0 -0.7545 0.4769
6206000000.0 -0.1628 0.942
6209000000.0 0.6171 0.6702
6212000000.0 0.9101 -0.06318
6216000000.0 0.5482 -0.7506
6219000000.0 -0.219 -0.9245
6222000000.0 -0.8096 -0.3807
6225000000.0 -0.8401 0.3891
6228000000.0 -0.197 0.8679
6231000000.0 0.5203 0.7068
6234000000.0 0.8778 0.02495
6238000000.0 0.6141 -0.6618
6241000000.0 -0.1265 -0.8689
6244000000.0 -0.7174 -0.4705
6247000000.0 -0.8172 0.2668
6250000000.0 -0.3197 0.7706
6253000000.0 0.368 0.7467
6256000000.0 0.8066 0.1812
6259000000.0 0.6697 -0.5022
6262000000.0 0.02842 -0.8115
6266000000.0 -0.5992 -0.5645
6269000000.0 -0.8106 0.1277
