! Created with skrf 1.8.0 (http://scikit-rf.org).
# Hz S RI R 50.0 
!freq ReS11 ImS11
4000000000.0 -0.1667 -1.493
4003000000.0 -1.305 -0.7774
4006000000.0 -1.405 0.445
4009000000.0 -0.5109 1.44
4012000000.0 0.8112 1.305
4016000000.0 1.577 0.2017
4019000000.0 1.117 -1.07
4022000000.0 -0.1801 -1.525
4025000000.0 -1.3 -0.8586
4028000000.0 -1.494 0.4584
4031000000.0 -0.5373 1.458
4034000000.0 0.8064 1.366
4038000000.0 1.632 0.2354
4041000000.0 1.207 -1.1
4044000000.0 -0.172 -1.622
4047000000.0 -1.338 -0.9133
4050000000.0 -1.572 0.4619
4053000000.0 -0.6089 1.507
4056000000.0 0.7833 1.382
4059000000.0 1.55 0.3108
4062000000.0 1.257 -0.9958
4066000000.0 -0.01711 -1.589
4069000000.0 -1.213 -1.032
4072000000.0 -1.604 0.2994
4075000000.0 -0.784 1.416
4078000000.0 0.6218 1.575
4081000000.0 1.566 0.5198
4084000000.0 1.401 -0.8677
4088000000.0 0.2054 -1.633
4091000000.0 -1.115 -1.225
4094000000.0 -1.61 0.07153
4097000000.0 -0.9294 1.301
4100000000.0 0.3981 1.548
4103000000.0 1.44 0.655
4106000000.0 1.432 -0.67
4109000000.0 0.4492 -1.509
4112000000.0 -0.8856 -1.272
4116000000.0 -1.481 -0.196
4119000000.0 -1.101 1.009
4122000000.0 0.02884 1.488
4125000000.0 1.13 0.939
4128000000.0 1.473 -0.2707
4131000000.0 0.7885 -1.263
4134000000.0 -0.4486 -1.374
4138000000.0 -1.369 -0.5568
4141000000.0 -1.306 0.6709
4144000000.0 -0.3564 1.463
4147000000.0 0.9042 1.24
4150000000.0 1.502 0.1207
4153000000.0 1.079 -1.066
4156000000.0 -0.1125 -1.505
4159000000.0 -1.234 -0.8522
4162000000.0 -1.469 0.4292
4166000000.0 -0.6491 1.367
4169000000.0 0.651 1.367
4172000000.0 1.429 0.3757
4175000000.0 1.213 -0.8274
4178000000.0 0.1444 -1.485
4181000000.0 -1.058 -1.042
4184000000.0 -1.513 0.1396
4188000000.0 -0.8423 1.223
4191000000.0 0.4 1.438
4194000000.0 1.407 0.6167
4197000000.0 1.398 -0.7134
4200000000.0 0.367 -1.55
4203000000.0 -0.9728 -1.203
4206000000.0 -1.61 0.01047
4209000000.0 -1.007 1.251
4212000000.0 0.3865 1.599
4216000000.0 1.49 0.6933
4219000000.0 1.47 -0.7885
4222000000.0 0.2448 -1.643
4225000000.0 -1.187 -1.221
4228000000.0 -1.632 0.1823
4231000000.0 -0.8912 1.394
4234000000.0 0.6023 1.564
4238000000.0 1.57 0.4467
4241000000.0 1.319 -0.9572
4244000000.0 0.007238 -1.596
4247000000.0 -1.236 -0.9668
4250000000.0 -1.531 0.3756
4253000000.0 -0.6098 1.398
4256000000.0 0.7094 1.349
4259000000.0 1.499 0.262
4262000000.0 1.12 -1.025
4266000000.0 -0.08836 -1.509
4269000000.0 -1.236 -0.8131
4272000000.0 -1.363 0.4612
4275000000.0 -0.476 1.376
4278000000.0 0.7854 1.208
4281000000.0 1.402 0.1513
4284000000.0 0.9821 -1.017
4288000000.0 -0.1807 -1.387
4291000000.0 -1.176 -0.6986
4294000000.0 -1.273 0.4659
4297000000.0 -0.4315 1.286
4300000000.0 0.6581 1.116
4303000000.0 1.296 0.174
4306000000.0 0.9483 -0.8045
4309000000.0 -0.02478 -1.255
4312000000.0 -1.0 -0.8083
4316000000.0 -1.241 0.2203
4319000000.0 -0.6489 1.126
4322000000.0 0.4188 1.226
4325000000.0 1.237 0.4343
4328000000.0 1.139 -0.6758
4331000000.0 0.2341 -1.293
4334000000.0 -0.8405 -1.019
4338000000.0 -1.362 0.03282
4341000000.0 -0.9006 1.083
4344000000.0 0.2655 1.38
4347000000.0 1.248 0.6839
4350000000.0 1.329 -0.5378
4353000000.0 0.4394 -1.352
4356000000.0 -0.7757 -1.199
4359000000.0 -1.433 -0.1827
4362000000.0 -1.107 0.9965
4366000000.0 0.06335 1.458
4369000000.0 1.172 0.8607
4372000000.0 1.424 -0.3397
4375000000.0 0.6619 -1.338
4378000000.0 -0.5613 -1.382
4381000000.0 -1.444 -0.3955
4384000000.0 -1.242 0.8535
4388000000.0 -0.1181 1.554
4391000000.0 1.132 1.063
4394000000.0 1.528 -0.2281
4397000000.0 0.8036 -1.359
4400000000.0 -0.5308 -1.5
4403000000.0 -1.504 -0.4434
4406000000.0 -1.283 0.9023
4409000000.0 -0.1368 1.564
4412000000.0 1.146 1.044
4416000000.0 1.524 -0.2635
4419000000.0 0.713 -1.326
4422000000.0 -0.5705 -1.381
4425000000.0 -1.439 -0.3921
4428000000.0 -1.158 0.8916
4431000000.0 -0.01386 1.401
4434000000.0 1.129 0.8969
4438000000.0 1.356 -0.3164
4441000000.0 0.5539 -1.238
4444000000.0 -0.6221 -1.219
4447000000.0 -1.335 -0.2238
4450000000.0 -0.9726 0.8705
4453000000.0 0.1038 1.302
4456000000.0 1.066 0.6917
4459000000.0 1.179 -0.427
4462000000.0 0.3951 -1.188
4466000000.0 -0.6846 -1.021
4469000000.0 -1.216 -0.1001
4472000000.0 -0.815 0.8879
4475000000.0 0.2226 1.135
4478000000.0 1.059 0.5561
4481000000.0 1.06 -0.475
4484000000.0 0.2842 -1.121
4488000000.0 -0.7052 -0.9097
4491000000.0 -1.136 -0.0259
4494000000.0 -0.7145 0.855
4497000000.0 0.2485 1.108
4500000000.0 0.979 0.5179
4503000000.0 0.9786 -0.4384
4506000000.0 0.2705 -1.051
4509000000.0 -0.652 -0.8352
4512000000.0 -1.11 -0.05171
4516000000.0 -0.7434 0.8207
4519000000.0 0.166 1.107
4522000000.0 0.9697 0.5603
4525000000.0 1.082 -0.4141
4528000000.0 0.3468 -1.096
4531000000.0 -0.6299 -0.9739
4534000000.0 -1.128 -0.1711
4538000000.0 -0.8233 0.7883
4541000000.0 0.1038 1.184
4544000000.0 0.9605 0.7151
4547000000.0 1.16 -0.2999
4550000000.0 0.5073 -1.091
4553000000.0 -0.5087 -1.107
4556000000.0 -1.165 -0.3168
4559000000.0 -1.026 0.7004
4562000000.0 -0.118 1.231
4566000000.0 0.8656 0.9027
4569000000.0 1.274 -0.0874
4572000000.0 0.76 -1.021
4575000000.0 -0.357 -1.26
4578000000.0 -1.179 -0.5699
4581000000.0 -1.207 0.5982
4584000000.0 -0.3347 1.304
4588000000.0 0.7607 1.088
4591000000.0 1.362 0.1023
4594000000.0 0.9583 -0.9898
4597000000.0 -0.1539 -1.373
4600000000.0 -1.156 -0.7524
4603000000.0 -1.328 0.4405
4606000000.0 -0.4941 1.286
4609000000.0 0.6633 1.212
4612000000.0 1.366 0.2393
4616000000.0 1.047 -0.9175
4619000000.0 -0.04189 -1.37
4622000000.0 -1.09 -0.8605
4625000000.0 -1.339 0.3107
4628000000.0 -0.5705 1.264
4631000000.0 0.5659 1.245
4634000000.0 1.333 0.3255
4638000000.0 1.057 -0.8292
4641000000.0 0.04633 -1.369
4644000000.0 -1.016 -0.8619
4647000000.0 -1.321 0.276
4650000000.0 -0.6002 1.179
4653000000.0 0.5911 1.204
4656000000.0 1.25 0.271
4659000000.0 1.019 -0.7656
4662000000.0 0.02593 -1.249
4666000000.0 -0.9363 -0.7555
4669000000.0 -1.153 0.2793
4672000000.0 -0.5406 1.065
4675000000.0 0.5293 1.047
4678000000.0 1.139 0.2495
4681000000.0 0.8831 -0.7148
4684000000.0 -0.02832 -1.122
4688000000.0 -0.8987 -0.6942
4691000000.0 -1.116 0.255
4694000000.0 -0.4844 0.9611
4697000000.0 0.5027 0.9863
4700000000.0 1.045 0.2155
4703000000.0 0.8532 -0.7093
4706000000.0 -0.02937 -1.091
4709000000.0 -0.8255 -0.6487
4712000000.0 -1.059 0.2838
4716000000.0 -0.4595 0.9769
4719000000.0 0.4844 0.9376
4722000000.0 1.047 0.193
4725000000.0 0.7862 -0.6802
4728000000.0 -0.01461 -1.027
4731000000.0 -0.8122 -0.6504
4734000000.0 -1.003 0.2466
4738000000.0 -0.5004 0.9084
4741000000.0 0.4249 0.969
4744000000.0 0.9946 0.2702
4747000000.0 0.8554 -0.6019
4750000000.0 0.1098 -1.092
4753000000.0 -0.7377 -0.7629
4756000000.0 -1.075 0.1002
4759000000.0 -0.6565 0.905
4762000000.0 0.2732 1.095
4766000000.0 1.038 0.4818
4769000000.0 1.025 -0.4607
4772000000.0 0.2947 -1.136
4775000000.0 -0.659 -0.9464
4778000000.0 -1.168 -0.1039
4781000000.0 -0.822 0.8425
4784000000.0 0.123 1.196
4788000000.0 1.003 0.6857
4791000000.0 1.196 -0.3125
4794000000.0 0.5412 -1.098
4797000000.0 -0.5127 -1.11
4800000000.0 -1.214 -0.3435
4803000000.0 -1.03 0.6754
4806000000.0 -0.1496 1.24
4809000000.0 0.8675 0.9032
4812000000.0 1.3 -0.09807
4816000000.0 0.7817 -1.063
4819000000.0 -0.3239 -1.258
4822000000.0 -1.195 -0.5738
4825000000.0 -1.229 0.5753
4828000000.0 -0.3429 1.313
4831000000.0 0.8217 1.117
4834000000.0 1.383 0.0806
4838000000.0 0.9594 -1.045
4841000000.0 -0.2103 -1.369
4844000000.0 -1.172 -0.7245
4847000000.0 -1.293 0.4906
4850000000.0 -0.477 1.318
4853000000.0 0.7148 1.184
4856000000.0 1.341 0.2036
4859000000.0 0.9963 -0.9367
4862000000.0 -0.04977 -1.341
4866000000.0 -1.089 -0.7956
4869000000.0 -1.275 0.3385
4872000000.0 -0.5688 1.212
4875000000.0 0.5923 1.154
4878000000.0 1.268 0.2452
4881000000.0 1.008 -0.817
4884000000.0 -0.02342 -1.225
4888000000.0 -0.9502 -0.7453
4891000000.0 -1.173 0.2535
4894000000.0 -0.4985 1.041
4897000000.0 0.4915 1.035
4900000000.0 1.075 0.3096
4903000000.0 0.8961 -0.6789
4906000000.0 0.03325 -1.069
4909000000.0 -0.7958 -0.6893
4912000000.0 -1.016 0.1937
4916000000.0 -0.5018 0.8716
4919000000.0 0.3712 0.9317
4922000000.0 0.9246 0.3046
4925000000.0 0.8074 -0.5289
4928000000.0 0.09072 -0.9398
4931000000.0 -0.6808 -0.6548
4934000000.0 -0.9409 0.08022
4938000000.0 -0.5274 0.7459
4941000000.0 0.2684 0.9002
4944000000.0 0.8432 0.3577
4947000000.0 0.8256 -0.4362
4950000000.0 0.1964 -0.927
4953000000.0 -0.6214 -0.729
4956000000.0 -0.9694 -0.01391
4959000000.0 -0.6314 0.7266
4962000000.0 0.1944 0.9784
4966000000.0 0.8643 0.4701
4969000000.0 0.9142 -0.4076
4972000000.0 0.2617 -0.9624
4975000000.0 -0.5735 -0.8255
4978000000.0 -1.014 -0.08166
4981000000.0 -0.7299 0.7076
4984000000.0 0.1314 1.022
4988000000.0 0.8876 0.608
4991000000.0 1.018 -0.311
4994000000.0 0.4239 -1.01
4997000000.0 -0.5017 -0.9682
5000000000.0 -1.095 -0.2493
5003000000.0 -0.9141 0.684
5006000000.0 -0.05951 1.14
5009000000.0 0.8909 0.8002
5012000000.0 1.173 -0.1822
5016000000.0 0.6166 -1.069
5019000000.0 -0.4304 -1.169
5022000000.0 -1.183 -0.4126
5025000000.0 -1.054 0.6527
5028000000.0 -0.1833 1.267
5031000000.0 0.8712 0.9474
5034000000.0 1.271 -0.05844
5038000000.0 0.7891 -1.007
5041000000.0 -0.3017 -1.236
5044000000.0 -1.171 -0.5815
5047000000.0 -1.175 0.5019
5050000000.0 -0.3701 1.236
5053000000.0 0.71 1.086
5056000000.0 1.286 0.1402
5059000000.0 0.9376 -0.8862
5062000000.0 -0.07215 -1.296
5066000000.0 -1.039 -0.7427
5069000000.0 -1.284 0.3063
5072000000.0 -0.5547 1.169
5075000000.0 0.551 1.151
5078000000.0 1.21 0.3293
5081000000.0 1.023 -0.7257
5084000000.0 0.06121 -1.185
5088000000.0 -0.8932 -0.8344
5091000000.0 -1.203 0.1348
5094000000.0 -0.6585 0.9751
5097000000.0 0.2899 1.125
5100000000.0 1.046 0.4187
5103000000.0 1.018 -0.4779
5106000000.0 0.2788 -1.03
5109000000.0 -0.6466 -0.8745
5112000000.0 -1.062 -0.1063
5116000000.0 -0.7433 0.7475
5119000000.0 0.08899 1.03
5122000000.0 0.8725 0.5967
5125000000.0 0.9903 -0.3057
5128000000.0 0.3678 -0.9402
5131000000.0 -0.447 -0.893
5134000000.0 -0.9745 -0.2283
5138000000.0 -0.7566 0.6256
5141000000.0 0.01008 0.975
5144000000.0 0.7248 0.5982
5147000000.0 0.9391 -0.1637
5150000000.0 0.4563 -0.8099
5153000000.0 -0.3247 -0.8361
5156000000.0 -0.8697 -0.2492
5159000000.0 -0.7599 0.5109
5162000000.0 -0.09352 0.8827
5166000000.0 0.6255 0.6536
5169000000.0 0.8708 -0.08509
5172000000.0 0.5127 -0.7556
5175000000.0 -0.2604 -0.8672
5178000000.0 -0.8615 -0.3367
5181000000.0 -0.7947 0.4893
5184000000.0 -0.1547 0.904
5188000000.0 0.626 0.6701
5191000000.0 0.9039 -0.06092
5194000000.0 0.5119 -0.7587
5197000000.0 -0.2848 -0.8738
5200000000.0 -0.8415 -0.3259
5203000000.0 -0.8089 0.5059
5206000000.0 -0.1513 0.9469
5209000000.0 0.6395 0.6981
5212000000.0 0.986 -0.03988
5216000000.0 0.5675 -0.7867
5219000000.0 -0.2638 -0.9525
5222000000.0 -0.9098 -0.4057
5225000000.0 -0.8812 0.4396
5228000000.0 -0.2122 0.9993
5231000000.0 0.6363 0.792
5234000000.0 1.029 -0.0134
5238000000.0 0.6793 -0.7667
5241000000.0 -0.1763 -1.014
5244000000.0 -0.9041 -0.5337
5247000000.0 -0.993 0.3758
5250000000.0 -0.3435 0.9957
5253000000.0 0.5719 0.8819
5256000000.0 1.052 0.1563
5259000000.0 0.7875 -0.7343
5262000000.0 -0.04325 -1.074
5266000000.0 -0.8558 -0.6515
5269000000.0 -1.057 0.2092
5272000000.0 -0.5324 0.9507
5275000000.0 0.4194 1.004
5278000000.0 1.047 0.3914
5281000000.0 0.9312 -0.5758
5284000000.0 0.1739 -1.082
5288000000.0 -0.6993 -0.8631
5291000000.0 -1.117 -0.01881
5294000000.0 -0.7254 0.82
5297000000.0 0.1814 1.076
5300000000.0 0.9464 0.5968
5303000000.0 1.07 -0.3617
5306000000.0 0.41 -1.059
5309000000.0 -0.5297 -0.9995
5312000000.0 -1.11 -0.2389
5316000000.0 -0.9081 0.7077
5319000000.0 -0.0428 1.142
5322000000.0 0.8401 0.777
5325000000.0 1.123 -0.1517
5328000000.0 0.57 -0.9489
5331000000.0 -0.3687 -1.082
5334000000.0 -1.07 -0.4093
5338000000.0 -0.9713 0.568
5341000000.0 -0.1962 1.105
5344000000.0 0.7454 0.853
5347000000.0 1.129 -0.0293
5350000000.0 0.6849 -0.8674
5353000000.0 -0.2237 -1.081
5356000000.0 -0.9694 -0.4949
5359000000.0 -0.9923 0.4582
5362000000.0 -0.2879 1.016
5366000000.0 0.6258 0.8602
5369000000.0 1.034 0.03175
5372000000.0 0.6833 -0.7701
5375000000.0 -0.1953 -1.005
5378000000.0 -0.8612 -0.4685
5381000000.0 -0.9194 0.3901
5384000000.0 -0.2634 0.9645
5388000000.0 0.554 0.7854
5391000000.0 0.9249 0.0547
5394000000.0 0.6005 -0.7057
5397000000.0 -0.1749 -0.8865
5400000000.0 -0.8097 -0.4357
5403000000.0 -0.8013 0.39
5406000000.0 -0.2136 0.8343
5409000000.0 0.5259 0.6898
5412000000.0 0.8733 0.01564
5416000000.0 0.5656 -0.6473
5419000000.0 -0.1533 -0.8406
5422000000.0 -0.7609 -0.3938
5425000000.0 -0.7847 0.3614
5428000000.0 -0.2103 0.8425
5431000000.0 0.5304 0.7001
5434000000.0 0.8776 0.0109
5438000000.0 0.5599 -0.64
5441000000.0 -0.1617 -0.8448
5444000000.0 -0.7666 -0.3804
5447000000.0 -0.7936 0.3567
5450000000.0 -0.2028 0.8442
5453000000.0 0.5362 0.7154
5456000000.0 0.8701 0.05939
5459000000.0 0.5743 -0.6797
5462000000.0 -0.139 -0.8969
5466000000.0 -0.7789 -0.4695
5469000000.0 -0.8433 0.2914
5472000000.0 -0.3405 0.852
5475000000.0 0.4419 0.7989
5478000000.0 0.9159 0.1963
5481000000.0 0.7488 -0.6282
5484000000.0 -0.005614 -0.9645
5488000000.0 -0.753 -0.6309
5491000000.0 -0.9654 0.1652
5494000000.0 -0.4976 0.8503
5497000000.0 0.3216 0.9286
5500000000.0 0.9561 0.3633
5503000000.0 0.8927 -0.5107
5506000000.0 0.158 -1.008
5509000000.0 -0.6403 -0.8014
5512000000.0 -1.043 0.00811
5516000000.0 -0.6684 0.7906
5519000000.0 0.1544 1.009
5522000000.0 0.942 0.5535
5525000000.0 1.007 -0.3576
5528000000.0 0.3979 -0.988
5531000000.0 -0.4821 -0.9505
5534000000.0 -1.024 -0.1718
5538000000.0 -0.8247 0.6553
5541000000.0 -0.03782 1.039
5544000000.0 0.7989 0.6958
5547000000.0 1.058 -0.185
5550000000.0 0.5329 -0.927
5553000000.0 -0.3578 -0.999
5556000000.0 -1.01 -0.3387
5559000000.0 -0.9439 0.5493
5562000000.0 -0.1805 1.038
5566000000.0 0.6818 0.7985
5569000000.0 1.043 0.01328
5572000000.0 0.6093 -0.7732
5575000000.0 -0.2085 -0.9907
5578000000.0 -0.9242 -0.4229
5581000000.0 -0.9164 0.3848
5584000000.0 -0.2857 0.9137
5588000000.0 0.534 0.7826
5591000000.0 0.9389 0.08063
5594000000.0 0.6796 -0.6561
5597000000.0 -0.07771 -0.9221
5600000000.0 -0.762 -0.5275
5603000000.0 -0.8658 0.2827
5606000000.0 -0.3523 0.8097
5609000000.0 0.4301 0.7684
5612000000.0 0.8665 0.1762
5616000000.0 0.6406 -0.5719
5619000000.0 -0.03166 -0.8452
5622000000.0 -0.668 -0.5251
5625000000.0 -0.798 0.1913
5628000000.0 -0.3502 0.7742
5631000000.0 0.3688 0.7385
5634000000.0 0.8107 0.1755
5638000000.0 0.6445 -0.5408
5641000000.0 -0.01867 -0.8292
5644000000.0 -0.6585 -0.5167
5647000000.0 -0.8115 0.1842
5650000000.0 -0.3518 0.7574
5653000000.0 0.3657 0.7692
5656000000.0 0.8428 0.1968
5659000000.0 0.6744 -0.5192
5662000000.0 0.007476 -0.8868
5666000000.0 -0.6611 -0.5504
5669000000.0 -0.8491 0.1624
5672000000.0 -0.4005 0.8063
5675000000.0 0.3679 0.8136
5678000000.0 0.8799 0.2128
5681000000.0 0.7194 -0.5388
5684000000.0 0.01427 -0.9395
5688000000.0 -0.7184 -0.5915
5691000000.0 -0.9372 0.1705
5694000000.0 -0.4645 0.8678
5697000000.0 0.3584 0.8958
5700000000.0 0.9528 0.2996
5703000000.0 0.7935 -0.5822
5706000000.0 0.07451 -0.9949
5709000000.0 -0.7452 -0.7021
5712000000.0 -1.001 0.09446
5716000000.0 -0.5733 0.8798
5719000000.0 0.3376 1.021
5722000000.0 0.9794 0.3957
5725000000.0 0.9245 -0.518
5728000000.0 0.2168 -1.026
5731000000.0 -0.6584 -0.8428
5734000000.0 -1.077 0.02167
5738000000.0 -0.6844 0.8267
5741000000.0 0.1702 1.079
5744000000.0 0.9384 0.5303
5747000000.0 1.024 -0.3824
5750000000.0 0.3896 -1.034
5753000000.0 -0.553 -0.9481
5756000000.0 -1.12 -0.1726
5759000000.0 -0.8617 0.7143
5762000000.0 0.01817 1.099
5766000000.0 0.8627 0.69
5769000000.0 1.059 -0.205
5772000000.0 0.5424 -0.9851
5775000000.0 -0.4265 -1.012
5778000000.0 -1.034 -0.3285
5781000000.0 -0.9363 0.5509
5784000000.0 -0.1458 1.042
5788000000.0 0.7381 0.8168
5791000000.0 1.087 -0.07373
5794000000.0 0.6486 -0.8654
5797000000.0 -0.2378 -1.042
5800000000.0 -0.9557 -0.4839
5803000000.0 -0.99 0.4075
5806000000.0 -0.3193 1.038
5809000000.0 0.5954 0.8794
5812000000.0 1.014 0.109
5816000000.0 0.7041 -0.7571
5819000000.0 -0.1248 -1.022
5822000000.0 -0.867 -0.5609
5825000000.0 -0.9673 0.3075
5828000000.0 -0.33 0.9509
5831000000.0 0.4854 0.8372
5834000000.0 0.9429 0.1438
5838000000.0 0.7056 -0.6041
5841000000.0 -0.03882 -0.9477
5844000000.0 -0.7616 -0.5562
5847000000.0 -0.9129 0.2004
5850000000.0 -0.3679 0.822
5853000000.0 0.4436 0.8488
5856000000.0 0.8912 0.2077
5859000000.0 0.7387 -0.5823
5862000000.0 -0.008938 -0.9018
5866000000.0 -0.6936 -0.5611
5869000000.0 -0.8882 0.2078
5872000000.0 -0.4198 0.7909
5875000000.0 0.3685 0.8104
5878000000.0 0.8365 0.1835
5881000000.0 0.6872 -0.5384
5884000000.0 -0.01072 -0.8593
5888000000.0 -0.6678 -0.5608
5891000000.0 -0.8426 0.1821
5894000000.0 -0.4281 0.7816
5897000000.0 0.3379 0.7897
5900000000.0 0.8243 0.2109
5903000000.0 0.6949 -0.5087
5906000000.0 0.06625 -0.8746
5909000000.0 -0.5711 -0.5959
5912000000.0 -0.8529 0.08055
5916000000.0 -0.4749 0.7427
5919000000.0 0.271 0.8042
5922000000.0 0.8248 0.2996
5925000000.0 0.738 -0.4231
5928000000.0 0.1728 -0.8989
5931000000.0 -0.5622 -0.6895
5934000000.0 -0.8797 -0.008745
5938000000.0 -0.5184 0.6871
5941000000.0 0.1657 0.8553
5944000000.0 0.8037 0.4584
5947000000.0 0.8351 -0.3441
5950000000.0 0.2738 -0.8582
5953000000.0 -0.4774 -0.7756
5956000000.0 -0.9209 -0.1276
5959000000.0 -0.6855 0.6314
5962000000.0 0.007674 0.9117
5966000000.0 0.7383 0.5835
5969000000.0 0.9437 -0.2059
5972000000.0 0.4334 -0.8574
5975000000.0 -0.352 -0.8952
5978000000.0 -0.9327 -0.2876
5981000000.0 -0.8256 0.5414
5984000000.0 -0.1273 0.9816
5988000000.0 0.701 0.7073
5991000000.0 0.9936 -0.0802
5994000000.0 0.562 -0.8075
5997000000.0 -0.2406 -0.9846
6000000000.0 -0.9199 -0.4533
6003000000.0 -0.9056 0.4404
6006000000.0 -0.2488 0.9472
6009000000.0 0.5993 0.7934
6012000000.0 0.9651 0.06697
6016000000.0 0.6679 -0.7364
6019000000.0 -0.1507 -0.9825
6022000000.0 -0.8319 -0.513
6025000000.0 -0.9071 0.3357
6028000000.0 -0.2965 0.9252
6031000000.0 0.5276 0.8156
6034000000.0 0.9545 0.1597
6038000000.0 0.6962 -0.6592
6041000000.0 -0.06127 -0.9718
6044000000.0 -0.7853 -0.5468
6047000000.0 -0.8963 0.2563
6050000000.0 -0.3756 0.8746
6053000000.0 0.4467 0.8292
6056000000.0 0.9209 0.1701
6059000000.0 0.7012 -0.5715
6062000000.0 -0.01935 -0.9242
6066000000.0 -0.688 -0.5515
6069000000.0 -0.8852 0.1901
6072000000.0 -0.3854 0.7888
6075000000.0 0.3894 0.8016
6078000000.0 0.85 0.2085
6081000000.0 0.7015 -0.5207
6084000000.0 0.03646 -0.8323
6088000000.0 -0.6232 -0.5464
6091000000.0 -0.8486 0.1325
6094000000.0 -0.421 0.7061
6097000000.0 0.3079 0.7886
6100000000.0 0.7919 0.2739
6103000000.0 0.6783 -0.4817
6106000000.0 0.05671 -0.8324
6109000000.0 -0.6252 -0.6081
6112000000.0 -0.8515 0.1353
6116000000.0 -0.4629 0.7286
6119000000.0 0.2748 0.8136
6122000000.0 0.8198 0.2758
6125000000.0 0.7447 -0.4613
6128000000.0 0.09696 -0.858
6131000000.0 -0.5877 -0.6111
6134000000.0 -0.8805 0.04359
6138000000.0 -0.4962 0.7557
6141000000.0 0.2636 0.8285
6144000000.0 0.812 0.3384
6147000000.0 0.8068 -0.4281
6150000000.0 0.1599 -0.8699
6153000000.0 -0.5748 -0.6946
6156000000.0 -0.9207 0.01641
6159000000.0 -0.5491 0.7124
6162000000.0 0.1968 0.8988
6166000000.0 0.8301 0.4173
6169000000.0 0.8565 -0.3633
6172000000.0 0.2253 -0.8982
6175000000.0 -0.5127 -0.7362
6178000000.0 -0.989 -0.1002
6181000000.0 -0.6521 0.6895
6184000000.0 0.1332 0.9712
6188000000.0 0.8068 0.4748
6191000000.0 0.9278 -0.2713
6194000000.0 0.3359 -0.9029
6197000000.0 -0.4897 -0.8143
6200000000.0 -0.9256 -0.147
6203000000.0 -0.7394 0.6144
6206000000.0 0.004272 0.9939
6209000000.0 0.7514 0.5759
6212000000.0 0.9106 -0.1714
6216000000.0 0.4159 -0.7871
6219000000.0 -0.3302 -0.8426
6222000000.0 -0.8874 -0.2759
6225000000.0 -0.7498 0.5047
6228000000.0 -0.1058 0.9071
6231000000.0 0.6072 0.654
6234000000.0 0.895 -0.09507
6238000000.0 0.5454 -0.735
6241000000.0 -0.2445 -0.8506
6244000000.0 -0.7453 -0.3567
6247000000.0 -0.7586 0.3768
6250000000.0 -0.1805 0.835
6253000000.0 0.5 0.6792
6256000000.0 0.826 0.07373
6259000000.0 0.5436 -0.5741
6262000000.0 -0.07407 -0.7956
6266000000.0 -0.6729 -0.438
