! Created with skrf 1.8.0 (http://scikit-rf.org).
# Hz S RI R 50.0 
!freq ReS11 ImS11
4000000000.0 -0.3584 -1.502
4003000000.0 -1.339 -0.7042
4006000000.0 -1.399 0.5867
4009000000.0 -0.3691 1.506
4012000000.0 0.9203 1.188
4016000000.0 1.591 0.06542
4019000000.0 1.036 -1.138
4022000000.0 -0.3143 -1.523
4025000000.0 -1.398 -0.7626
4028000000.0 -1.507 0.6227
4031000000.0 -0.3995 1.529
4034000000.0 0.9462 1.313
4038000000.0 1.63 0.08968
4041000000.0 1.097 -1.213
4044000000.0 -0.2744 -1.639
4047000000.0 -1.416 -0.796
4050000000.0 -1.517 0.603
4053000000.0 -0.4833 1.59
4056000000.0 0.8932 1.374
4059000000.0 1.597 0.1567
4062000000.0 1.098 -1.187
4066000000.0 -0.1414 -1.618
4069000000.0 -1.34 -0.927
4072000000.0 -1.566 0.4282
4075000000.0 -0.6717 1.5
4078000000.0 0.7854 1.468
4081000000.0 1.599 0.3792
4084000000.0 1.313 -0.9941
4088000000.0 0.1262 -1.605
4091000000.0 -1.21 -1.152
4094000000.0 -1.617 0.263
4097000000.0 -0.7939 1.381
4100000000.0 0.5479 1.509
4103000000.0 1.482 0.6046
4106000000.0 1.412 -0.745
4109000000.0 0.2893 -1.519
4112000000.0 -0.9406 -1.212
4116000000.0 -1.519 -0.03047
4119000000.0 -1.025 1.097
4122000000.0 0.1644 1.468
4125000000.0 1.201 0.8616
4128000000.0 1.438 -0.3912
4131000000.0 0.6413 -1.309
4134000000.0 -0.5791 -1.34
4138000000.0 -1.425 -0.4429
4141000000.0 -1.259 0.8026
4144000000.0 -0.2273 1.496
4147000000.0 1.009 1.138
4150000000.0 1.502 -0.02191
4153000000.0 0.9497 -1.189
4156000000.0 -0.2952 -1.478
4159000000.0 -1.324 -0.703
4162000000.0 -1.412 0.5766
4166000000.0 -0.4579 1.436
4169000000.0 0.7917 1.299
4172000000.0 1.471 0.2187
4175000000.0 1.154 -0.9845
4178000000.0 -0.06097 -1.493
4181000000.0 -1.202 -0.9384
4184000000.0 -1.432 0.3275
4188000000.0 -0.6835 1.367
4191000000.0 0.5772 1.403
4194000000.0 1.488 0.4399
4197000000.0 1.299 -0.8578
4200000000.0 0.1243 -1.551
4203000000.0 -1.182 -1.082
4206000000.0 -1.618 0.2134
4209000000.0 -0.7827 1.454
4212000000.0 0.6501 1.511
4216000000.0 1.637 0.3906
4219000000.0 1.306 -1.055
4222000000.0 -0.05571 -1.716
4225000000.0 -1.315 -0.9912
4228000000.0 -1.565 0.5218
4231000000.0 -0.5685 1.513
4234000000.0 0.9196 1.378
4238000000.0 1.62 0.1089
4241000000.0 1.045 -1.222
4244000000.0 -0.3188 -1.563
4247000000.0 -1.433 -0.696
4250000000.0 -1.403 0.6449
4253000000.0 -0.3268 1.501
4256000000.0 0.9901 1.115
4259000000.0 1.475 -0.07285
4262000000.0 0.8541 -1.2
4266000000.0 -0.4576 -1.414
4269000000.0 -1.34 -0.5331
4272000000.0 -1.252 0.7579
4275000000.0 -0.2125 1.407
4278000000.0 1.021 1.031
4281000000.0 1.404 -0.173
4284000000.0 0.7239 -1.154
4288000000.0 -0.4489 -1.298
4291000000.0 -1.273 -0.4349
4294000000.0 -1.167 0.712
4297000000.0 -0.2101 1.305
4300000000.0 0.8567 0.9749
4303000000.0 1.297 -0.01746
4306000000.0 0.8133 -1.024
4309000000.0 -0.2412 -1.283
4312000000.0 -1.108 -0.6147
4316000000.0 -1.213 0.481
4319000000.0 -0.4156 1.216
4322000000.0 0.6695 1.145
4325000000.0 1.312 0.2384
4328000000.0 1.022 -0.8556
4331000000.0 0.01745 -1.373
4334000000.0 -1.069 -0.8597
4338000000.0 -1.391 0.2527
4341000000.0 -0.7001 1.215
4344000000.0 0.5409 1.347
4347000000.0 1.368 0.4613
4350000000.0 1.24 -0.7626
4353000000.0 0.2237 -1.447
4356000000.0 -1.015 -1.076
4359000000.0 -1.495 0.07654
4362000000.0 -0.8491 1.226
4366000000.0 0.4127 1.446
4369000000.0 1.348 0.5971
4372000000.0 1.359 -0.6565
4375000000.0 0.3238 -1.469
4378000000.0 -0.9185 -1.235
4381000000.0 -1.529 -0.06908
4384000000.0 -1.004 1.164
4388000000.0 0.2741 1.532
4391000000.0 1.385 0.7679
4394000000.0 1.409 -0.641
4397000000.0 0.4083 -1.537
4400000000.0 -0.932 -1.249
4403000000.0 -1.579 -0.03966
4406000000.0 -0.9918 1.218
4409000000.0 0.3818 1.543
4412000000.0 1.423 0.6176
4416000000.0 1.352 -0.686
4419000000.0 0.2407 -1.452
4422000000.0 -0.9965 -1.107
4425000000.0 -1.43 0.1088
4428000000.0 -0.7951 1.216
4431000000.0 0.4572 1.303
4434000000.0 1.284 0.4264
4438000000.0 1.102 -0.7574
4441000000.0 0.09712 -1.34
4444000000.0 -0.9626 -0.8942
4447000000.0 -1.286 0.2307
4450000000.0 -0.5891 1.124
4453000000.0 0.5433 1.135
4456000000.0 1.183 0.2627
4459000000.0 0.9687 -0.7786
4462000000.0 -0.03014 -1.226
4466000000.0 -0.9633 -0.7303
4469000000.0 -1.182 0.3384
4472000000.0 -0.4213 1.093
4475000000.0 0.5718 1.018
4478000000.0 1.14 0.1865
4481000000.0 0.8486 -0.7799
4484000000.0 -0.1191 -1.154
4488000000.0 -0.9647 -0.6442
4491000000.0 -1.074 0.3403
4494000000.0 -0.3776 1.101
4497000000.0 0.6018 0.9995
4500000000.0 1.142 0.1799
4503000000.0 0.8141 -0.7703
4506000000.0 -0.05326 -1.127
4509000000.0 -0.9343 -0.6746
4512000000.0 -1.114 0.2749
4516000000.0 -0.4781 1.064
4519000000.0 0.52 1.072
4522000000.0 1.134 0.2769
4525000000.0 0.9645 -0.7131
4528000000.0 0.0684 -1.209
4531000000.0 -0.9395 -0.8299
4534000000.0 -1.191 0.1583
4538000000.0 -0.6175 1.033
4541000000.0 0.4214 1.166
4544000000.0 1.175 0.4604
4547000000.0 1.092 -0.6148
4550000000.0 0.2472 -1.233
4553000000.0 -0.814 -0.9746
4556000000.0 -1.26 -0.01148
4559000000.0 -0.8379 0.9956
4562000000.0 0.2215 1.297
4566000000.0 1.134 0.6483
4569000000.0 1.241 -0.4572
4572000000.0 0.4875 -1.269
4575000000.0 -0.6811 -1.169
4578000000.0 -1.327 -0.2265
4581000000.0 -1.04 0.8973
4584000000.0 0.03044 1.361
4588000000.0 1.101 0.8635
4591000000.0 1.388 -0.2876
4594000000.0 0.6504 -1.244
4597000000.0 -0.5721 -1.301
4600000000.0 -1.371 -0.4019
4603000000.0 -1.156 0.7868
4606000000.0 -0.121 1.43
4609000000.0 1.045 0.9845
4612000000.0 1.392 -0.1637
4616000000.0 0.7183 -1.175
4619000000.0 -0.4503 -1.312
4622000000.0 -1.317 -0.4673
4625000000.0 -1.171 0.7359
4628000000.0 -0.1866 1.366
4631000000.0 0.9286 0.9884
4634000000.0 1.345 -0.1222
4638000000.0 0.7462 -1.148
4641000000.0 -0.3883 -1.282
4644000000.0 -1.262 -0.4428
4647000000.0 -1.135 0.6966
4650000000.0 -0.1389 1.314
4653000000.0 0.9022 0.9098
4656000000.0 1.248 -0.1263
4659000000.0 0.6376 -1.031
4662000000.0 -0.4196 -1.146
4666000000.0 -1.154 -0.3717
4669000000.0 -0.9831 0.645
4672000000.0 -0.1187 1.114
4675000000.0 0.8266 0.8237
4678000000.0 1.099 -0.1387
4681000000.0 0.5411 -0.9512
4684000000.0 -0.3957 -1.058
4688000000.0 -1.023 -0.3534
4691000000.0 -0.9031 0.5857
4694000000.0 -0.125 1.094
4697000000.0 0.7973 0.7653
4700000000.0 1.089 -0.1314
4703000000.0 0.5531 -0.9075
4706000000.0 -0.3769 -1.042
4709000000.0 -1.051 -0.3386
4712000000.0 -0.9226 0.5956
4716000000.0 -0.1364 1.073
4719000000.0 0.7922 0.7529
4722000000.0 1.106 -0.133
4725000000.0 0.6023 -0.8974
4728000000.0 -0.3274 -1.009
4731000000.0 -0.9781 -0.3788
4734000000.0 -0.9814 0.5035
4738000000.0 -0.2101 1.099
4741000000.0 0.6991 0.8304
4744000000.0 1.097 -0.003128
4747000000.0 0.7019 -0.8366
4750000000.0 -0.1736 -1.1
4753000000.0 -0.9809 -0.5906
4756000000.0 -1.107 0.3948
4759000000.0 -0.4169 1.088
4762000000.0 0.5955 1.024
4766000000.0 1.166 0.1882
4769000000.0 0.9255 -0.7781
4772000000.0 -0.04274 -1.247
4775000000.0 -0.9537 -0.8015
4778000000.0 -1.219 0.2064
4781000000.0 -0.6117 1.087
4784000000.0 0.4385 1.19
4788000000.0 1.211 0.4288
4791000000.0 1.104 -0.6281
4794000000.0 0.2239 -1.259
4797000000.0 -0.8274 -1.012
4800000000.0 -1.337 -0.02661
4803000000.0 -0.8368 0.9987
4806000000.0 0.2133 1.308
4809000000.0 1.154 0.6981
4812000000.0 1.271 -0.4384
4816000000.0 0.4687 -1.259
4819000000.0 -0.6775 -1.196
4822000000.0 -1.362 -0.224
4825000000.0 -1.023 0.9278
4828000000.0 0.03116 1.392
4831000000.0 1.12 0.8376
4834000000.0 1.385 -0.3197
4838000000.0 0.6356 -1.271
4841000000.0 -0.6013 -1.259
4844000000.0 -1.356 -0.3468
4847000000.0 -1.108 0.8307
4850000000.0 -0.04205 1.359
4853000000.0 1.018 0.8873
4856000000.0 1.339 -0.2323
4859000000.0 0.6548 -1.172
4862000000.0 -0.469 -1.217
4866000000.0 -1.26 -0.3819
4869000000.0 -1.088 0.6953
4872000000.0 -0.1163 1.26
4875000000.0 0.895 0.8651
4878000000.0 1.206 -0.1411
4881000000.0 0.6442 -1.01
4884000000.0 -0.405 -1.119
4888000000.0 -1.1 -0.4026
4891000000.0 -0.9586 0.5921
4894000000.0 -0.1376 1.093
4897000000.0 0.7764 0.8163
4900000000.0 1.075 -0.111
4903000000.0 0.5872 -0.8718
4906000000.0 -0.3048 -0.9994
4909000000.0 -0.941 -0.4069
4912000000.0 -0.8718 0.4891
4916000000.0 -0.1859 0.9572
4919000000.0 0.6467 0.7365
4922000000.0 0.9668 -0.03497
4925000000.0 0.5855 -0.7552
4928000000.0 -0.1995 -0.9498
4931000000.0 -0.8473 -0.42
4934000000.0 -0.8594 0.3806
4938000000.0 -0.2426 0.9208
4941000000.0 0.528 0.7354
4944000000.0 0.9658 0.09138
4947000000.0 0.6727 -0.704
4950000000.0 -0.1202 -0.9559
4953000000.0 -0.8211 -0.497
4956000000.0 -0.9338 0.3256
4959000000.0 -0.3672 0.9327
4962000000.0 0.5172 0.8722
4966000000.0 1.013 0.1592
4969000000.0 0.7627 -0.6985
4972000000.0 -0.06363 -1.069
4975000000.0 -0.8646 -0.63
4978000000.0 -1.046 0.2454
4981000000.0 -0.472 0.9817
4984000000.0 0.4412 1.014
4988000000.0 1.096 0.3105
4991000000.0 0.9298 -0.6334
4994000000.0 0.1065 -1.15
4997000000.0 -0.8342 -0.8434
5000000000.0 -1.17 0.124
5003000000.0 -0.687 0.9913
5006000000.0 0.3302 1.182
5009000000.0 1.167 0.5028
5012000000.0 1.115 -0.6196
5016000000.0 0.2711 -1.255
5019000000.0 -0.8257 -1.006
5022000000.0 -1.31 -0.03501
5025000000.0 -0.833 1.008
5028000000.0 0.2595 1.288
5031000000.0 1.159 0.6688
5034000000.0 1.223 -0.4913
5038000000.0 0.4061 -1.225
5041000000.0 -0.6771 -1.125
5044000000.0 -1.278 -0.1712
5047000000.0 -0.9489 0.8759
5050000000.0 0.0776 1.287
5053000000.0 1.001 0.7845
5056000000.0 1.25 -0.291
5059000000.0 0.5847 -1.123
5062000000.0 -0.5059 -1.162
5066000000.0 -1.193 -0.3706
5069000000.0 -1.06 0.7078
5072000000.0 -0.133 1.217
5075000000.0 0.8381 0.882
5078000000.0 1.208 -0.116
5081000000.0 0.663 -0.9902
5084000000.0 -0.3399 -1.121
5088000000.0 -1.044 -0.4499
5091000000.0 -1.034 0.4984
5094000000.0 -0.2141 1.114
5097000000.0 0.6485 0.8727
5100000000.0 1.066 0.02562
5103000000.0 0.7119 -0.7954
5106000000.0 -0.1716 -1.065
5109000000.0 -0.861 -0.5421
5112000000.0 -0.9829 0.3228
5116000000.0 -0.3759 0.9059
5119000000.0 0.4998 0.9007
5122000000.0 0.9939 0.1587
5125000000.0 0.7146 -0.6263
5128000000.0 -0.03828 -0.9451
5131000000.0 -0.7336 -0.6012
5134000000.0 -0.9001 0.2201
5138000000.0 -0.4187 0.8433
5141000000.0 0.4411 0.8319
5144000000.0 0.9164 0.1896
5147000000.0 0.7228 -0.5389
5150000000.0 -0.01852 -0.9285
5153000000.0 -0.7158 -0.5522
5156000000.0 -0.8508 0.2021
5159000000.0 -0.4039 0.7804
5162000000.0 0.3514 0.8538
5166000000.0 0.8719 0.2313
5169000000.0 0.7587 -0.5333
5172000000.0 0.001678 -0.9098
5175000000.0 -0.7179 -0.5937
5178000000.0 -0.8793 0.2003
5181000000.0 -0.384 0.8252
5184000000.0 0.3691 0.877
5188000000.0 0.9106 0.2349
5191000000.0 0.7552 -0.5372
5194000000.0 0.0138 -0.9842
5197000000.0 -0.7176 -0.6345
5200000000.0 -0.9551 0.1723
5203000000.0 -0.4575 0.8746
5206000000.0 0.3835 0.9258
5209000000.0 0.9646 0.2405
5212000000.0 0.8247 -0.5783
5216000000.0 0.07645 -1.038
5219000000.0 -0.7535 -0.7132
5222000000.0 -0.9973 0.1139
5225000000.0 -0.5762 0.8606
5228000000.0 0.3426 0.9915
5231000000.0 0.9735 0.3715
5234000000.0 0.9519 -0.5005
5238000000.0 0.2026 -1.069
5241000000.0 -0.6616 -0.8123
5244000000.0 -1.119 -0.01014
5247000000.0 -0.6911 0.8437
5250000000.0 0.1985 1.107
5253000000.0 0.9582 0.5383
5256000000.0 1.049 -0.407
5259000000.0 0.3665 -1.073
5262000000.0 -0.5659 -0.9455
5266000000.0 -1.122 -0.1707
5269000000.0 -0.8451 0.7611
5272000000.0 0.01397 1.092
5275000000.0 0.8961 0.7003
5278000000.0 1.097 -0.1957
5281000000.0 0.5306 -0.9466
5284000000.0 -0.4088 -1.024
5288000000.0 -1.057 -0.3456
5291000000.0 -0.9379 0.5679
5294000000.0 -0.1585 1.07
5297000000.0 0.7193 0.8288
5300000000.0 1.127 -0.04255
5303000000.0 0.6692 -0.8796
5306000000.0 -0.2445 -1.094
5309000000.0 -0.9867 -0.5351
5312000000.0 -1.024 0.4516
5316000000.0 -0.2693 1.105
5319000000.0 0.6495 0.9257
5322000000.0 1.114 0.03832
5325000000.0 0.7606 -0.812
5328000000.0 -0.1916 -1.08
5331000000.0 -0.9519 -0.5291
5334000000.0 -0.9677 0.3786
5338000000.0 -0.2925 1.015
5341000000.0 0.6103 0.8331
5344000000.0 1.04 0.06645
5347000000.0 0.68 -0.7808
5350000000.0 -0.2206 -0.9846
5353000000.0 -0.8936 -0.4298
5356000000.0 -0.8938 0.4164
5359000000.0 -0.2071 0.9402
5362000000.0 0.6033 0.7614
5366000000.0 0.9417 -0.03067
5369000000.0 0.5487 -0.7618
5372000000.0 -0.2487 -0.8896
5375000000.0 -0.8503 -0.3212
5378000000.0 -0.7536 0.4758
5381000000.0 -0.1237 0.9052
5384000000.0 0.6472 0.6055
5388000000.0 0.8815 -0.1698
5391000000.0 0.4028 -0.762
5394000000.0 -0.3471 -0.8136
5397000000.0 -0.8257 -0.2251
5400000000.0 -0.7308 0.5253
5403000000.0 -0.01535 0.864
5406000000.0 0.6633 0.5688
5409000000.0 0.863 -0.1684
5412000000.0 0.4119 -0.7525
5416000000.0 -0.3663 -0.8103
5419000000.0 -0.8484 -0.2392
5422000000.0 -0.7393 0.5139
5425000000.0 -0.03483 0.9084
5428000000.0 0.6665 0.6338
5431000000.0 0.9189 -0.1407
5434000000.0 0.4738 -0.8352
5438000000.0 -0.353 -0.9233
5441000000.0 -0.9253 -0.3071
5444000000.0 -0.8291 0.5363
5447000000.0 -0.1468 1.016
5450000000.0 0.7147 0.73
5453000000.0 1.006 -0.0956
5456000000.0 0.6171 -0.8619
5459000000.0 -0.2788 -0.9914
5462000000.0 -0.9609 -0.4285
5466000000.0 -0.9566 0.4582
5469000000.0 -0.2161 1.044
5472000000.0 0.6423 0.8358
5475000000.0 1.059 0.05932
5478000000.0 0.7278 -0.7954
5481000000.0 -0.1864 -1.094
5484000000.0 -0.9557 -0.5781
5488000000.0 -1.033 0.3428
5491000000.0 -0.3701 1.054
5494000000.0 0.5914 0.9783
5497000000.0 1.13 0.1667
5500000000.0 0.792 -0.7519
5503000000.0 -0.06318 -1.114
5506000000.0 -0.9075 -0.6602
5509000000.0 -1.039 0.2873
5512000000.0 -0.4271 1.032
5516000000.0 0.5082 0.9535
5519000000.0 1.074 0.1757
5522000000.0 0.7968 -0.6822
5525000000.0 -0.02557 -1.012
5528000000.0 -0.852 -0.6012
5531000000.0 -0.9748 0.2538
5534000000.0 -0.3931 0.9101
5538000000.0 0.4841 0.8616
5541000000.0 0.9991 0.1659
5544000000.0 0.7503 -0.6504
5547000000.0 -0.06561 -0.931
5550000000.0 -0.7761 -0.5152
5553000000.0 -0.8757 0.268
5556000000.0 -0.2837 0.8575
5559000000.0 0.4514 0.7547
5562000000.0 0.8421 0.05971
5566000000.0 0.5764 -0.6175
5569000000.0 -0.1471 -0.8355
5572000000.0 -0.7146 -0.3883
5575000000.0 -0.7305 0.348
5578000000.0 -0.2052 0.7611
5581000000.0 0.4961 0.6395
5584000000.0 0.7941 -0.02013
5588000000.0 0.468 -0.654
5591000000.0 -0.2205 -0.7688
5594000000.0 -0.7327 -0.3117
5597000000.0 -0.691 0.4146
5600000000.0 -0.1058 0.8096
5603000000.0 0.5868 0.552
5606000000.0 0.8285 -0.06087
5609000000.0 0.4328 -0.699
5612000000.0 -0.3351 -0.7867
5616000000.0 -0.814 -0.241
5619000000.0 -0.6954 0.4964
5622000000.0 -0.08658 0.8743
5625000000.0 0.6738 0.6091
5628000000.0 0.8896 -0.1312
5631000000.0 0.4631 -0.8144
5634000000.0 -0.3716 -0.8735
5638000000.0 -0.9245 -0.2493
5641000000.0 -0.8076 0.5561
5644000000.0 -0.03546 0.9795
5647000000.0 0.7777 0.6732
5650000000.0 1.024 -0.1849
5653000000.0 0.47 -0.9223
5656000000.0 -0.4205 -0.9877
5659000000.0 -1.043 -0.2755
5662000000.0 -0.8988 0.6029
5666000000.0 -0.07536 1.103
5669000000.0 0.843 0.7348
5672000000.0 1.112 -0.1842
5675000000.0 0.5346 -0.987
5678000000.0 -0.4346 -1.043
5681000000.0 -1.102 -0.2967
5684000000.0 -0.9416 0.6761
5688000000.0 -0.05411 1.15
5691000000.0 0.8624 0.7489
5694000000.0 1.119 -0.228
5697000000.0 0.5177 -1.028
5700000000.0 -0.5128 -1.03
5703000000.0 -1.094 -0.2273
5706000000.0 -0.8497 0.7185
5709000000.0 0.03815 1.112
5712000000.0 0.8753 0.6512
5716000000.0 1.055 -0.3236
5719000000.0 0.3902 -1.014
5722000000.0 -0.5194 -0.9038
5725000000.0 -1.052 -0.07026
5728000000.0 -0.6969 0.7583
5731000000.0 0.1659 0.9998
5734000000.0 0.9064 0.4891
5738000000.0 0.8755 -0.405
5741000000.0 0.2044 -0.9724
5744000000.0 -0.6354 -0.7416
5747000000.0 -0.9971 0.07851
5750000000.0 -0.4834 0.7699
5753000000.0 0.3491 0.8421
5756000000.0 0.9101 0.2637
5759000000.0 0.7608 -0.6167
5762000000.0 -0.05574 -0.9244
5766000000.0 -0.7702 -0.5295
5769000000.0 -0.8689 0.3003
5772000000.0 -0.2777 0.8862
5775000000.0 0.544 0.7821
5778000000.0 0.9163 0.03633
5781000000.0 0.5894 -0.7231
5784000000.0 -0.2324 -0.8948
5788000000.0 -0.8606 -0.3562
5791000000.0 -0.796 0.4585
5794000000.0 -0.109 0.911
5797000000.0 0.6497 0.6658
5800000000.0 0.9992 -0.1457
5803000000.0 0.5068 -0.8084
5806000000.0 -0.3546 -0.8981
5809000000.0 -0.9433 -0.2795
5812000000.0 -0.828 0.5556
5816000000.0 -0.05646 0.9668
5819000000.0 0.7527 0.6889
5822000000.0 0.9739 -0.1798
5825000000.0 0.4997 -0.8838
5828000000.0 -0.3384 -0.9309
5831000000.0 -0.9752 -0.2955
5834000000.0 -0.8624 0.5604
5838000000.0 -0.05833 1.051
5841000000.0 0.7542 0.6975
5844000000.0 1.042 -0.1757
5847000000.0 0.5256 -0.9001
5850000000.0 -0.3943 -0.9872
5853000000.0 -1.006 -0.3354
5856000000.0 -0.8765 0.5879
5859000000.0 -0.1247 1.052
5862000000.0 0.7846 0.7471
5866000000.0 1.095 -0.1359
5869000000.0 0.5344 -0.9348
5872000000.0 -0.3862 -0.9965
5875000000.0 -1.016 -0.2963
5878000000.0 -0.8913 0.549
5881000000.0 -0.05941 1.06
5884000000.0 0.76 0.7009
5888000000.0 1.045 -0.1546
5891000000.0 0.5182 -0.8728
5894000000.0 -0.4098 -0.9477
5897000000.0 -0.9649 -0.2672
5900000000.0 -0.7994 0.5853
5903000000.0 -0.02684 1.001
5906000000.0 0.7319 0.6003
5909000000.0 0.9898 -0.1938
5912000000.0 0.4248 -0.8388
5916000000.0 -0.4346 -0.8645
5919000000.0 -0.9205 -0.2166
5922000000.0 -0.7064 0.6013
5925000000.0 0.03219 0.9215
5928000000.0 0.7636 0.4965
5931000000.0 0.8413 -0.2436
5934000000.0 0.2566 -0.8195
5938000000.0 -0.4294 -0.7597
5941000000.0 -0.8487 -0.1334
5944000000.0 -0.6248 0.5855
5947000000.0 0.08897 0.8049
5950000000.0 0.7182 0.4392
5953000000.0 0.832 -0.2768
5956000000.0 0.2676 -0.765
5959000000.0 -0.4505 -0.6878
5962000000.0 -0.8528 -0.093
5966000000.0 -0.607 0.5801
5969000000.0 0.09357 0.8337
5972000000.0 0.6973 0.4533
5975000000.0 0.8068 -0.2654
5978000000.0 0.2958 -0.7672
5981000000.0 -0.4315 -0.7454
5984000000.0 -0.874 -0.1491
5988000000.0 -0.6207 0.6072
5991000000.0 0.09306 0.8585
5994000000.0 0.6981 0.5339
5997000000.0 0.8302 -0.2351
6000000000.0 0.3631 -0.8167
6003000000.0 -0.4309 -0.7972
6006000000.0 -0.8615 -0.1835
6009000000.0 -0.6918 0.5803
6012000000.0 -0.02228 0.9242
6016000000.0 0.7077 0.5836
6019000000.0 0.9026 -0.1675
6022000000.0 0.4506 -0.8144
6025000000.0 -0.3821 -0.8815
6028000000.0 -0.912 -0.3052
6031000000.0 -0.7927 0.5425
6034000000.0 -0.09585 0.9915
6038000000.0 0.6895 0.6955
6041000000.0 0.9581 -0.114
6044000000.0 0.5405 -0.8168
6047000000.0 -0.2747 -0.9642
6050000000.0 -0.9444 -0.3614
6053000000.0 -0.8948 0.4972
6056000000.0 -0.1513 1.003
6059000000.0 0.6757 0.7522
6062000000.0 1.011 -0.0414
6066000000.0 0.6095 -0.8332
6069000000.0 -0.2545 -0.9756
6072000000.0 -0.9273 -0.4173
6075000000.0 -0.8992 0.429
6078000000.0 -0.2144 0.9923
6081000000.0 0.642 0.7506
6084000000.0 0.9888 -0.01624
6088000000.0 0.57 -0.7716
6091000000.0 -0.2323 -0.9247
6094000000.0 -0.8542 -0.3997
6097000000.0 -0.8495 0.452
6100000000.0 -0.1979 0.9163
6103000000.0 0.6126 0.7223
6106000000.0 0.9641 -0.001873
6109000000.0 0.5767 -0.7507
6112000000.0 -0.2306 -0.8996
6116000000.0 -0.8279 -0.376
6119000000.0 -0.8112 0.4177
6122000000.0 -0.1685 0.8999
6125000000.0 0.5908 0.6475
6128000000.0 0.8743 -0.01372
6131000000.0 0.5123 -0.7129
6134000000.0 -0.2159 -0.8374
6138000000.0 -0.8018 -0.3414
6141000000.0 -0.7495 0.4133
6144000000.0 -0.1468 0.8259
6147000000.0 0.5576 0.6298
6150000000.0 0.8302 -0.0624
6153000000.0 0.4814 -0.6604
6156000000.0 -0.2046 -0.8333
6159000000.0 -0.7589 -0.3569
6162000000.0 -0.7721 0.3903
6166000000.0 -0.1729 0.788
6169000000.0 0.5432 0.6409
6172000000.0 0.8754 0.01156
6175000000.0 0.4738 -0.6664
6178000000.0 -0.2014 -0.8042
6181000000.0 -0.8057 -0.3501
6184000000.0 -0.7664 0.3806
6188000000.0 -0.1948 0.8458
6191000000.0 0.5649 0.6592
6194000000.0 0.8669 -0.01978
6197000000.0 0.5173 -0.6873
6200000000.0 -0.1844 -0.8432
6203000000.0 -0.781 -0.4055
6206000000.0 -0.8058 0.3492
6209000000.0 -0.1987 0.8688
6212000000.0 0.5479 0.6665
6216000000.0 0.8875 0.07324
6219000000.0 0.5754 -0.6483
6222000000.0 -0.1456 -0.8646
6225000000.0 -0.7952 -0.4343
6228000000.0 -0.8057 0.3104
6231000000.0 -0.2805 0.8534
6234000000.0 0.4804 0.7135
6238000000.0 0.8595 0.1064
6241000000.0 0.6312 -0.5762
6244000000.0 -0.07046 -0.8759
6247000000.0 -0.6867 -0.4943
6250000000.0 -0.8088 0.2098
6253000000.0 -0.3156 0.7876
6256000000.0 0.3961 0.7451
6259000000.0 0.8212 0.1813
6262000000.0 0.653 -0.4864
