! Created with skrf 1.8.0 (http://scikit-rf.org).
# Hz S RI R 50.0 
!freq ReS11 ImS11
4000000000.0 -0.1998 -1.553
4003000000.0 -1.294 -0.7763
4006000000.0 -1.405 0.521
4009000000.0 -0.5139 1.444
4012000000.0 0.8153 1.257
4016000000.0 1.593 0.1929
4019000000.0 1.153 -1.085
4022000000.0 -0.144 -1.589
4025000000.0 -1.387 -0.8538
4028000000.0 -1.59 0.5253
4031000000.0 -0.5929 1.55
4034000000.0 0.873 1.439
4038000000.0 1.662 0.223
4041000000.0 1.199 -1.166
4044000000.0 -0.1978 -1.652
4047000000.0 -1.412 -0.8912
4050000000.0 -1.542 0.5079
4053000000.0 -0.5829 1.539
4056000000.0 0.7863 1.422
4059000000.0 1.561 0.3023
4062000000.0 1.236 -1.028
4066000000.0 -0.01838 -1.612
4069000000.0 -1.205 -1.075
4072000000.0 -1.603 0.2891
4075000000.0 -0.7899 1.456
4078000000.0 0.6127 1.534
4081000000.0 1.583 0.5095
4084000000.0 1.42 -0.8947
4088000000.0 0.2042 -1.619
4091000000.0 -1.175 -1.185
4094000000.0 -1.679 0.08711
4097000000.0 -0.9454 1.333
4100000000.0 0.3997 1.551
4103000000.0 1.463 0.7022
4106000000.0 1.417 -0.6868
4109000000.0 0.4068 -1.555
4112000000.0 -0.854 -1.277
4116000000.0 -1.504 -0.1713
4119000000.0 -1.108 1.018
4122000000.0 0.07271 1.51
4125000000.0 1.177 0.9234
4128000000.0 1.485 -0.2652
4131000000.0 0.7724 -1.273
4134000000.0 -0.4636 -1.386
4138000000.0 -1.37 -0.5545
4141000000.0 -1.331 0.6831
4144000000.0 -0.3462 1.489
4147000000.0 0.8891 1.216
4150000000.0 1.554 0.109
4153000000.0 1.052 -1.101
4156000000.0 -0.1544 -1.528
4159000000.0 -1.257 -0.8492
4162000000.0 -1.455 0.4023
4166000000.0 -0.6533 1.382
4169000000.0 0.6642 1.346
4172000000.0 1.486 0.4001
4175000000.0 1.208 -0.8861
4178000000.0 0.08645 -1.491
4181000000.0 -1.076 -1.066
4184000000.0 -1.502 0.1678
4188000000.0 -0.853 1.227
4191000000.0 0.4436 1.511
4194000000.0 1.416 0.6236
4197000000.0 1.403 -0.7192
4200000000.0 0.3192 -1.569
4203000000.0 -1.039 -1.272
4206000000.0 -1.651 0.05555
4209000000.0 -1.035 1.318
4212000000.0 0.4037 1.618
4216000000.0 1.529 0.6321
4219000000.0 1.47 -0.8482
4222000000.0 0.2761 -1.694
4225000000.0 -1.217 -1.223
4228000000.0 -1.672 0.2306
4231000000.0 -0.8228 1.459
4234000000.0 0.6397 1.537
4238000000.0 1.6 0.422
4241000000.0 1.281 -1.018
4244000000.0 -0.008238 -1.619
4247000000.0 -1.278 -0.9934
4250000000.0 -1.524 0.4459
4253000000.0 -0.5974 1.457
4256000000.0 0.7836 1.331
4259000000.0 1.561 0.2177
4262000000.0 1.079 -1.06
4266000000.0 -0.1892 -1.535
4269000000.0 -1.284 -0.7809
4272000000.0 -1.401 0.5451
4275000000.0 -0.4381 1.4
4278000000.0 0.8545 1.198
4281000000.0 1.439 0.07611
4284000000.0 0.9635 -1.061
4288000000.0 -0.2109 -1.401
4291000000.0 -1.185 -0.6721
4294000000.0 -1.284 0.4822
4297000000.0 -0.4024 1.276
4300000000.0 0.6904 1.13
4303000000.0 1.305 0.1911
4306000000.0 1.006 -0.8462
4309000000.0 -0.05836 -1.322
4312000000.0 -1.046 -0.8192
4316000000.0 -1.277 0.2824
4319000000.0 -0.6573 1.126
4322000000.0 0.4933 1.229
4325000000.0 1.247 0.4038
4328000000.0 1.161 -0.706
4331000000.0 0.2192 -1.345
4334000000.0 -0.8989 -1.054
4338000000.0 -1.404 0.01484
4341000000.0 -0.8753 1.106
4344000000.0 0.2921 1.404
4347000000.0 1.279 0.669
4350000000.0 1.369 -0.5296
4353000000.0 0.4364 -1.375
4356000000.0 -0.8033 -1.225
4359000000.0 -1.475 -0.1764
4362000000.0 -1.05 1.037
4366000000.0 0.1172 1.479
4369000000.0 1.2 0.8681
4372000000.0 1.463 -0.3558
4375000000.0 0.6506 -1.376
4378000000.0 -0.713 -1.382
4381000000.0 -1.483 -0.3856
4384000000.0 -1.263 0.9301
4388000000.0 -0.07484 1.572
4391000000.0 1.19 1.053
4394000000.0 1.563 -0.3024
4397000000.0 0.7694 -1.42
4400000000.0 -0.5916 -1.461
4403000000.0 -1.536 -0.4182
4406000000.0 -1.311 0.9173
4409000000.0 -0.06409 1.581
4412000000.0 1.191 1.011
4416000000.0 1.54 -0.3533
4419000000.0 0.6907 -1.408
4422000000.0 -0.6732 -1.392
4425000000.0 -1.472 -0.3084
4428000000.0 -1.157 0.9362
4431000000.0 0.03993 1.449
4434000000.0 1.136 0.8387
4438000000.0 1.352 -0.4029
4441000000.0 0.5087 -1.302
4444000000.0 -0.6878 -1.219
4447000000.0 -1.362 -0.178
4450000000.0 -0.9506 0.9732
4453000000.0 0.1587 1.287
4456000000.0 1.141 0.6743
4459000000.0 1.16 -0.4686
4462000000.0 0.3406 -1.213
4466000000.0 -0.7278 -0.9883
4469000000.0 -1.251 -0.02482
4472000000.0 -0.7848 0.9542
4475000000.0 0.2719 1.174
4478000000.0 1.069 0.495
4481000000.0 1.05 -0.5343
4484000000.0 0.2156 -1.154
4488000000.0 -0.7537 -0.8861
4491000000.0 -1.16 0.01167
4494000000.0 -0.6571 0.9278
4497000000.0 0.305 1.103
4500000000.0 1.041 0.4743
4503000000.0 0.9876 -0.5063
4506000000.0 0.2483 -1.077
4509000000.0 -0.6767 -0.8803
4512000000.0 -1.103 -0.03386
4516000000.0 -0.7367 0.8767
4519000000.0 0.206 1.12
4522000000.0 1.027 0.5411
4525000000.0 1.065 -0.4659
4528000000.0 0.3204 -1.114
4531000000.0 -0.661 -0.9875
4534000000.0 -1.183 -0.1227
4538000000.0 -0.8468 0.8425
4541000000.0 0.1096 1.188
4544000000.0 0.9961 0.6595
4547000000.0 1.173 -0.3428
4550000000.0 0.4914 -1.124
4553000000.0 -0.534 -1.137
4556000000.0 -1.232 -0.2896
4559000000.0 -1.023 0.7349
4562000000.0 -0.08394 1.252
4566000000.0 0.9168 0.902
4569000000.0 1.292 -0.1096
4572000000.0 0.7101 -1.077
4575000000.0 -0.3513 -1.276
4578000000.0 -1.221 -0.5282
4581000000.0 -1.201 0.6086
4584000000.0 -0.3137 1.314
4588000000.0 0.8279 1.085
4591000000.0 1.391 0.04783
4594000000.0 0.9122 -1.021
4597000000.0 -0.2036 -1.392
4600000000.0 -1.216 -0.7112
4603000000.0 -1.291 0.4835
4606000000.0 -0.4683 1.326
4609000000.0 0.7213 1.19
4612000000.0 1.396 0.2037
4616000000.0 1.066 -0.974
4619000000.0 -0.0922 -1.405
4622000000.0 -1.136 -0.8316
4625000000.0 -1.372 0.3787
4628000000.0 -0.5634 1.261
4631000000.0 0.6327 1.256
4634000000.0 1.366 0.2883
4638000000.0 1.096 -0.8868
4641000000.0 -0.01171 -1.364
4644000000.0 -1.093 -0.8127
4647000000.0 -1.303 0.3301
4650000000.0 -0.5638 1.19
4653000000.0 0.5697 1.186
4656000000.0 1.306 0.2915
4659000000.0 0.9688 -0.8334
4662000000.0 -0.06112 -1.266
4666000000.0 -0.977 -0.7569
4669000000.0 -1.166 0.3177
4672000000.0 -0.4898 1.078
4675000000.0 0.5773 1.054
4678000000.0 1.162 0.2074
4681000000.0 0.8808 -0.755
4684000000.0 -0.0548 -1.151
4688000000.0 -0.9016 -0.6801
4691000000.0 -1.063 0.2862
4694000000.0 -0.4204 1.011
4697000000.0 0.5182 0.9668
4700000000.0 1.102 0.2131
4703000000.0 0.8514 -0.7484
4706000000.0 -0.04543 -1.095
4709000000.0 -0.901 -0.5865
4712000000.0 -1.027 0.2926
4716000000.0 -0.3798 1.006
4719000000.0 0.5154 0.9386
4722000000.0 1.049 0.1762
4725000000.0 0.7978 -0.7327
4728000000.0 -0.06215 -1.053
4731000000.0 -0.8798 -0.6161
4734000000.0 -1.02 0.2318
4738000000.0 -0.4725 0.9843
4741000000.0 0.4216 0.9979
4744000000.0 1.034 0.2783
4747000000.0 0.872 -0.6235
4750000000.0 0.07805 -1.084
4753000000.0 -0.7928 -0.7797
4756000000.0 -1.107 0.106
4759000000.0 -0.6125 0.9634
4762000000.0 0.321 1.096
4766000000.0 1.071 0.4498
4769000000.0 1.032 -0.4942
4772000000.0 0.2579 -1.135
4775000000.0 -0.7286 -0.9611
4778000000.0 -1.203 -0.06624
4781000000.0 -0.8145 0.8872
4784000000.0 0.1521 1.226
4788000000.0 1.03 0.6593
4791000000.0 1.193 -0.3641
4794000000.0 0.501 -1.158
4797000000.0 -0.5834 -1.133
4800000000.0 -1.235 -0.2927
4803000000.0 -1.047 0.7327
4806000000.0 -0.1049 1.284
4809000000.0 0.9027 0.9334
4812000000.0 1.293 -0.1187
4816000000.0 0.7728 -1.113
4819000000.0 -0.3854 -1.292
4822000000.0 -1.257 -0.5681
4825000000.0 -1.272 0.614
4828000000.0 -0.3035 1.342
4831000000.0 0.8785 1.095
4834000000.0 1.418 0.04374
4838000000.0 0.9115 -1.035
4841000000.0 -0.2384 -1.379
4844000000.0 -1.23 -0.6759
4847000000.0 -1.312 0.5051
4850000000.0 -0.4451 1.326
4853000000.0 0.7586 1.171
4856000000.0 1.377 0.1508
4859000000.0 0.9645 -0.9613
4862000000.0 -0.1296 -1.383
4866000000.0 -1.152 -0.7633
4869000000.0 -1.268 0.3732
4872000000.0 -0.4926 1.247
4875000000.0 0.633 1.135
4878000000.0 1.272 0.2451
4881000000.0 0.9742 -0.8197
4884000000.0 -0.05884 -1.25
4888000000.0 -1.024 -0.7581
4891000000.0 -1.178 0.2901
4894000000.0 -0.4733 1.098
4897000000.0 0.5401 1.046
4900000000.0 1.139 0.254
4903000000.0 0.8544 -0.7066
4906000000.0 -0.005089 -1.095
4909000000.0 -0.8346 -0.6818
4912000000.0 -1.041 0.2302
4916000000.0 -0.48 0.8901
4919000000.0 0.3922 0.9209
4922000000.0 0.9662 0.2696
4925000000.0 0.805 -0.567
4928000000.0 0.09093 -0.9588
4931000000.0 -0.6574 -0.6534
4934000000.0 -0.9517 0.1345
4938000000.0 -0.5424 0.7786
4941000000.0 0.2976 0.9158
4944000000.0 0.8947 0.3579
4947000000.0 0.8191 -0.4567
4950000000.0 0.1751 -0.9265
4953000000.0 -0.6534 -0.7148
4956000000.0 -0.9796 0.0465
4959000000.0 -0.5744 0.7801
4962000000.0 0.2189 0.9628
4966000000.0 0.8863 0.4231
4969000000.0 0.8869 -0.4391
4972000000.0 0.2496 -0.9862
4975000000.0 -0.5889 -0.8584
4978000000.0 -1.026 -0.06744
4981000000.0 -0.717 0.7835
4984000000.0 0.134 1.081
4988000000.0 0.899 0.5862
4991000000.0 1.032 -0.3235
4994000000.0 0.4091 -1.034
4997000000.0 -0.5642 -0.9538
5000000000.0 -1.111 -0.2475
5003000000.0 -0.8953 0.7246
5006000000.0 -0.01318 1.177
5009000000.0 0.9191 0.7883
5012000000.0 1.2 -0.2294
5016000000.0 0.5644 -1.087
5019000000.0 -0.4574 -1.175
5022000000.0 -1.208 -0.4053
5025000000.0 -1.085 0.7082
5028000000.0 -0.1383 1.267
5031000000.0 0.9031 0.9155
5034000000.0 1.312 -0.09427
5038000000.0 0.7488 -1.06
5041000000.0 -0.3239 -1.263
5044000000.0 -1.186 -0.5887
5047000000.0 -1.166 0.5573
5050000000.0 -0.3287 1.249
5053000000.0 0.753 1.114
5056000000.0 1.306 0.1328
5059000000.0 0.9261 -0.9442
5062000000.0 -0.09891 -1.31
5066000000.0 -1.069 -0.7494
5069000000.0 -1.234 0.3273
5072000000.0 -0.5238 1.21
5075000000.0 0.5709 1.126
5078000000.0 1.23 0.3132
5081000000.0 1.02 -0.7547
5084000000.0 0.09099 -1.258
5088000000.0 -0.87 -0.8665
5091000000.0 -1.179 0.1542
5094000000.0 -0.5965 1.042
5097000000.0 0.3381 1.122
5100000000.0 1.048 0.3996
5103000000.0 1.015 -0.4994
5106000000.0 0.2388 -1.096
5109000000.0 -0.6875 -0.8729
5112000000.0 -1.087 -0.03462
5116000000.0 -0.7439 0.8305
5119000000.0 0.1625 1.021
5122000000.0 0.864 0.5436
5125000000.0 0.9892 -0.3245
5128000000.0 0.3569 -0.9535
5131000000.0 -0.4601 -0.8931
5134000000.0 -0.9742 -0.156
5138000000.0 -0.7453 0.6409
5141000000.0 0.006564 0.9436
5144000000.0 0.7619 0.5941
5147000000.0 0.9386 -0.236
5150000000.0 0.4048 -0.846
5153000000.0 -0.3862 -0.8459
5156000000.0 -0.8968 -0.2635
5159000000.0 -0.7394 0.5215
5162000000.0 -0.09601 0.9081
5166000000.0 0.6709 0.591
5169000000.0 0.9039 -0.1295
5172000000.0 0.4696 -0.7832
5175000000.0 -0.3125 -0.8688
5178000000.0 -0.8716 -0.3039
5181000000.0 -0.7926 0.5216
5184000000.0 -0.1056 0.952
5188000000.0 0.6859 0.636
5191000000.0 0.9111 -0.1254
5194000000.0 0.5068 -0.8041
5197000000.0 -0.3082 -0.9041
5200000000.0 -0.8974 -0.2804
5203000000.0 -0.8057 0.5072
5206000000.0 -0.1222 0.9532
5209000000.0 0.6698 0.7091
5212000000.0 0.9853 -0.09055
5216000000.0 0.5439 -0.8032
5219000000.0 -0.2838 -0.9405
5222000000.0 -0.9217 -0.3597
5225000000.0 -0.8839 0.4859
5228000000.0 -0.2004 1.006
5231000000.0 0.659 0.7845
5234000000.0 1.044 -0.0112
5238000000.0 0.6451 -0.8059
5241000000.0 -0.2304 -1.039
5244000000.0 -0.9496 -0.4748
5247000000.0 -0.9747 0.4225
5250000000.0 -0.3026 1.02
5253000000.0 0.6229 0.8962
5256000000.0 1.065 0.1105
5259000000.0 0.7735 -0.7763
5262000000.0 -0.08281 -1.099
5266000000.0 -0.914 -0.6608
5269000000.0 -1.063 0.26
5272000000.0 -0.4597 0.9916
5275000000.0 0.4548 1.026
5278000000.0 1.086 0.3006
5281000000.0 0.9356 -0.6096
5284000000.0 0.1358 -1.084
5288000000.0 -0.771 -0.814
5291000000.0 -1.127 0.02088
5294000000.0 -0.7006 0.8808
5297000000.0 0.2077 1.126
5300000000.0 0.9948 0.5568
5303000000.0 1.074 -0.3954
5306000000.0 0.4206 -1.062
5309000000.0 -0.5682 -0.9976
5312000000.0 -1.129 -0.1869
5316000000.0 -0.8979 0.7177
5319000000.0 0.007326 1.143
5322000000.0 0.9087 0.7476
5325000000.0 1.139 -0.1849
5328000000.0 0.5753 -1.008
5331000000.0 -0.3956 -1.082
5334000000.0 -1.081 -0.3863
5338000000.0 -0.9678 0.617
5341000000.0 -0.1357 1.101
5344000000.0 0.7694 0.836
5347000000.0 1.107 -0.09628
5350000000.0 0.6574 -0.9038
5353000000.0 -0.2884 -1.051
5356000000.0 -0.9812 -0.4662
5359000000.0 -0.9815 0.4733
5362000000.0 -0.2101 1.047
5366000000.0 0.6555 0.8429
5369000000.0 1.068 -0.01277
5372000000.0 0.6619 -0.8144
5375000000.0 -0.2369 -1.059
5378000000.0 -0.9098 -0.4784
5381000000.0 -0.887 0.4447
5384000000.0 -0.2108 0.9758
5388000000.0 0.6498 0.7415
5391000000.0 0.9359 -0.01817
5394000000.0 0.5739 -0.7726
5397000000.0 -0.2364 -0.8842
5400000000.0 -0.8268 -0.3897
5403000000.0 -0.7993 0.439
5406000000.0 -0.1456 0.8804
5409000000.0 0.5967 0.6695
5412000000.0 0.8675 -0.069
5416000000.0 0.5064 -0.7125
5419000000.0 -0.2246 -0.8279
5422000000.0 -0.7863 -0.3707
5425000000.0 -0.7786 0.4108
5428000000.0 -0.1847 0.8688
5431000000.0 0.5767 0.6552
5434000000.0 0.8768 -0.04847
5438000000.0 0.5275 -0.7265
5441000000.0 -0.216 -0.8708
5444000000.0 -0.8206 -0.3758
5447000000.0 -0.7915 0.4381
5450000000.0 -0.1714 0.9077
5453000000.0 0.5525 0.708
5456000000.0 0.9022 -0.01804
5459000000.0 0.5662 -0.736
5462000000.0 -0.184 -0.8895
5466000000.0 -0.8488 -0.4055
5469000000.0 -0.9069 0.3562
5472000000.0 -0.2909 0.8836
5475000000.0 0.4874 0.8059
5478000000.0 0.9538 0.119
5481000000.0 0.7089 -0.6264
5484000000.0 0.0009837 -0.9722
5488000000.0 -0.7893 -0.594
5491000000.0 -0.9606 0.1866
5494000000.0 -0.4237 0.9332
5497000000.0 0.3802 0.925
5500000000.0 0.9884 0.3331
5503000000.0 0.8743 -0.5471
5506000000.0 0.1262 -1.005
5509000000.0 -0.7287 -0.7633
5512000000.0 -1.035 0.05967
5516000000.0 -0.6207 0.8549
5519000000.0 0.229 1.008
5522000000.0 0.9552 0.4824
5525000000.0 0.9673 -0.3978
5528000000.0 0.3403 -0.9963
5531000000.0 -0.5964 -0.8948
5534000000.0 -1.059 -0.1658
5538000000.0 -0.8221 0.7181
5541000000.0 0.03718 1.091
5544000000.0 0.8576 0.6463
5547000000.0 1.045 -0.2281
5550000000.0 0.5075 -0.9551
5553000000.0 -0.413 -1.019
5556000000.0 -1.042 -0.3088
5559000000.0 -0.8862 0.6108
5562000000.0 -0.1191 1.072
5566000000.0 0.7437 0.7513
5569000000.0 1.023 -0.08659
5572000000.0 0.58 -0.8507
5575000000.0 -0.2679 -0.9927
5578000000.0 -0.9137 -0.4072
5581000000.0 -0.8598 0.4491
5584000000.0 -0.1989 0.9843
5588000000.0 0.5513 0.7393
5591000000.0 0.9559 0.03923
5594000000.0 0.6037 -0.7011
5597000000.0 -0.1614 -0.8905
5600000000.0 -0.8137 -0.4296
5603000000.0 -0.8444 0.3385
5606000000.0 -0.2654 0.865
5609000000.0 0.4993 0.7231
5612000000.0 0.8776 0.09247
5616000000.0 0.5978 -0.6057
5619000000.0 -0.09203 -0.8472
5622000000.0 -0.7274 -0.4598
5625000000.0 -0.8203 0.2793
5628000000.0 -0.2805 0.7975
5631000000.0 0.4271 0.7473
5634000000.0 0.8288 0.1352
5638000000.0 0.6203 -0.5644
5641000000.0 -0.06286 -0.8354
5644000000.0 -0.6868 -0.4883
5647000000.0 -0.8092 0.2344
5650000000.0 -0.2989 0.7825
5653000000.0 0.4167 0.7488
5656000000.0 0.8359 0.1197
5659000000.0 0.6439 -0.5792
5662000000.0 -0.0769 -0.8991
5666000000.0 -0.7598 -0.4966
5669000000.0 -0.8612 0.2515
5672000000.0 -0.3519 0.8436
5675000000.0 0.4341 0.7985
5678000000.0 0.9315 0.1592
5681000000.0 0.6888 -0.6286
5684000000.0 -0.04241 -0.9333
5688000000.0 -0.7982 -0.5977
5691000000.0 -0.9384 0.2424
5694000000.0 -0.3801 0.8771
5697000000.0 0.445 0.9048
5700000000.0 1.03 0.2163
5703000000.0 0.7909 -0.6478
5706000000.0 0.02709 -1.049
5709000000.0 -0.8173 -0.6832
5712000000.0 -1.044 0.1428
5716000000.0 -0.5394 0.9434
5719000000.0 0.3929 1.001
5722000000.0 1.05 0.3067
5725000000.0 0.9276 -0.5751
5728000000.0 0.1302 -1.06
5731000000.0 -0.7364 -0.8438
5734000000.0 -1.088 0.0772
5738000000.0 -0.6541 0.9177
5741000000.0 0.2382 1.084
5744000000.0 1.022 0.4838
5747000000.0 1.016 -0.4368
5750000000.0 0.2839 -1.078
5753000000.0 -0.6063 -0.9319
5756000000.0 -1.148 -0.1168
5759000000.0 -0.7914 0.7965
5762000000.0 0.1101 1.095
5766000000.0 0.9167 0.6348
5769000000.0 1.101 -0.3128
5772000000.0 0.4961 -1.024
5775000000.0 -0.5151 -1.01
5778000000.0 -1.067 -0.2716
5781000000.0 -0.8783 0.6381
5784000000.0 -0.07082 1.081
5788000000.0 0.8052 0.7562
5791000000.0 1.032 -0.1429
5794000000.0 0.5731 -0.9081
5797000000.0 -0.3055 -1.008
5800000000.0 -0.9687 -0.4411
5803000000.0 -0.9654 0.5198
5806000000.0 -0.2434 1.065
5809000000.0 0.6502 0.8248
5812000000.0 1.061 0.0331
5816000000.0 0.6478 -0.7852
5819000000.0 -0.184 -1.031
5822000000.0 -0.8931 -0.4671
5825000000.0 -0.9409 0.3874
5828000000.0 -0.2828 0.9488
5831000000.0 0.5455 0.8402
5834000000.0 0.9793 0.09932
5838000000.0 0.6831 -0.6897
5841000000.0 -0.1047 -0.938
5844000000.0 -0.8226 -0.4972
5847000000.0 -0.8955 0.3285
5850000000.0 -0.3036 0.9016
5853000000.0 0.5161 0.7793
5856000000.0 0.8986 0.1508
5859000000.0 0.6252 -0.6437
5862000000.0 -0.0868 -0.8686
5866000000.0 -0.7808 -0.4889
5869000000.0 -0.8465 0.2757
5872000000.0 -0.3361 0.8216
5875000000.0 0.4833 0.7778
5878000000.0 0.9021 0.1121
5881000000.0 0.6539 -0.6165
5884000000.0 -0.05297 -0.8849
5888000000.0 -0.6962 -0.4825
5891000000.0 -0.8348 0.2409
5894000000.0 -0.3308 0.7817
5897000000.0 0.411 0.7457
5900000000.0 0.8471 0.147
5903000000.0 0.6901 -0.5305
5906000000.0 -0.0219 -0.8516
5909000000.0 -0.7397 -0.5322
5912000000.0 -0.867 0.1955
5916000000.0 -0.3671 0.7976
5919000000.0 0.3461 0.811
5922000000.0 0.8771 0.2652
5925000000.0 0.736 -0.5203
5928000000.0 0.07689 -0.8558
5931000000.0 -0.6589 -0.6319
5934000000.0 -0.9052 0.07543
5938000000.0 -0.5258 0.7291
5941000000.0 0.2676 0.886
5944000000.0 0.8601 0.3451
5947000000.0 0.8238 -0.4008
5950000000.0 0.1898 -0.8842
5953000000.0 -0.5838 -0.7687
5956000000.0 -0.9514 -0.02896
5959000000.0 -0.6374 0.7135
5962000000.0 0.1366 0.9582
5966000000.0 0.8311 0.5131
5969000000.0 0.9419 -0.2882
5972000000.0 0.3614 -0.8993
5975000000.0 -0.4508 -0.9027
5978000000.0 -0.9628 -0.1938
5981000000.0 -0.7933 0.6451
5984000000.0 -0.03812 1.014
5988000000.0 0.7658 0.6538
5991000000.0 0.9862 -0.1179
5994000000.0 0.4991 -0.894
5997000000.0 -0.363 -0.962
6000000000.0 -0.9767 -0.3527
6003000000.0 -0.8785 0.5225
6006000000.0 -0.1462 0.9941
6009000000.0 0.6768 0.7319
6012000000.0 1.011 -0.03374
6016000000.0 0.5941 -0.8403
6019000000.0 -0.2435 -0.9686
6022000000.0 -0.9188 -0.4225
6025000000.0 -0.8781 0.4516
6028000000.0 -0.2457 0.9579
6031000000.0 0.6165 0.7772
6034000000.0 0.959 0.04197
6038000000.0 0.638 -0.7154
6041000000.0 -0.1431 -0.9308
6044000000.0 -0.816 -0.4449
6047000000.0 -0.8715 0.3478
6050000000.0 -0.2521 0.8949
6053000000.0 0.5305 0.7794
6056000000.0 0.9168 0.09014
6059000000.0 0.6176 -0.6774
6062000000.0 -0.1213 -0.8812
6066000000.0 -0.791 -0.4541
6069000000.0 -0.8574 0.3035
6072000000.0 -0.2955 0.8282
6075000000.0 0.4681 0.7505
6078000000.0 0.8508 0.09465
6081000000.0 0.6135 -0.6036
6084000000.0 -0.09398 -0.8825
6088000000.0 -0.7164 -0.5054
6091000000.0 -0.834 0.2536
6094000000.0 -0.3193 0.7943
6097000000.0 0.4301 0.7344
6100000000.0 0.8498 0.1332
6103000000.0 0.6471 -0.5552
6106000000.0 -0.05176 -0.8726
6109000000.0 -0.7092 -0.4773
6112000000.0 -0.8237 0.2021
6116000000.0 -0.3368 0.8089
6119000000.0 0.4009 0.7852
6122000000.0 0.8617 0.1559
6125000000.0 0.6901 -0.582
6128000000.0 0.00526 -0.885
6131000000.0 -0.6939 -0.5579
6134000000.0 -0.8573 0.2066
6138000000.0 -0.4182 0.8165
6141000000.0 0.381 0.8423
6144000000.0 0.8891 0.2148
6147000000.0 0.7498 -0.5431
6150000000.0 0.03546 -0.9097
6153000000.0 -0.6942 -0.6331
6156000000.0 -0.9149 0.1426
6159000000.0 -0.5014 0.7964
6162000000.0 0.3188 0.8945
6166000000.0 0.8633 0.2858
6169000000.0 0.8457 -0.4979
6172000000.0 0.1433 -0.9824
6175000000.0 -0.6678 -0.6921
6178000000.0 -0.9664 0.04136
6181000000.0 -0.5549 0.7879
6184000000.0 0.2421 0.9416
6188000000.0 0.876 0.3806
6191000000.0 0.8504 -0.4406
6194000000.0 0.2336 -0.9381
6197000000.0 -0.5885 -0.7445
6200000000.0 -0.9583 -0.02532
6203000000.0 -0.6495 0.7121
6206000000.0 0.1501 0.9625
6209000000.0 0.8364 0.4699
6212000000.0 0.892 -0.3091
6216000000.0 0.3339 -0.8728
6219000000.0 -0.4948 -0.7782
6222000000.0 -0.9171 -0.1574
6225000000.0 -0.6957 0.6325
6228000000.0 0.06629 0.9065
6231000000.0 0.7329 0.5463
6234000000.0 0.8967 -0.2239
6238000000.0 0.4004 -0.8096
6241000000.0 -0.3575 -0.8103
6244000000.0 -0.8623 -0.2527
6247000000.0 -0.7063 0.4972
6250000000.0 -0.0607 0.8538
6253000000.0 0.562 0.6276
6256000000.0 0.8585 -0.07061
6259000000.0 0.4824 -0.6886
6262000000.0 -0.2331 -0.8018
6266000000.0 -0.76 -0.3498
