! Created with skrf 1.8.0 (http://scikit-rf.org).
# Hz S RI R 50.0 
!freq ReS11 ImS11
4000000000.0 -0.2615 -1.455
4003000000.0 -1.346 -0.711
4006000000.0 -1.43 0.6206
4009000000.0 -0.3938 1.452
4012000000.0 0.8952 1.222
4016000000.0 1.527 0.1162
4019000000.0 1.041 -1.165
4022000000.0 -0.2354 -1.566
4025000000.0 -1.362 -0.7802
4028000000.0 -1.499 0.5867
4031000000.0 -0.5275 1.548
4034000000.0 0.9313 1.357
4038000000.0 1.676 0.1216
4041000000.0 1.112 -1.197
4044000000.0 -0.2709 -1.636
4047000000.0 -1.404 -0.8025
4050000000.0 -1.504 0.5726
4053000000.0 -0.4987 1.486
4056000000.0 0.8792 1.356
4059000000.0 1.581 0.1504
4062000000.0 1.166 -1.094
4066000000.0 -0.05414 -1.632
4069000000.0 -1.33 -0.9482
4072000000.0 -1.572 0.4298
4075000000.0 -0.6987 1.485
4078000000.0 0.6787 1.493
4081000000.0 1.571 0.4332
4084000000.0 1.309 -0.9805
4088000000.0 0.1142 -1.672
4091000000.0 -1.172 -1.14
4094000000.0 -1.623 0.1885
4097000000.0 -0.9158 1.394
4100000000.0 0.5057 1.56
4103000000.0 1.435 0.6068
4106000000.0 1.408 -0.7153
4109000000.0 0.3225 -1.53
4112000000.0 -0.9376 -1.227
4116000000.0 -1.49 -0.06605
4119000000.0 -1.02 1.052
4122000000.0 0.1415 1.447
4125000000.0 1.164 0.8713
4128000000.0 1.435 -0.3463
4131000000.0 0.6762 -1.299
4134000000.0 -0.5513 -1.353
4138000000.0 -1.369 -0.4883
4141000000.0 -1.282 0.7535
4144000000.0 -0.2696 1.463
4147000000.0 0.9342 1.171
4150000000.0 1.505 0.003356
4153000000.0 0.9857 -1.157
4156000000.0 -0.2393 -1.452
4159000000.0 -1.318 -0.7634
4162000000.0 -1.425 0.4911
4166000000.0 -0.5109 1.416
4169000000.0 0.7374 1.313
4172000000.0 1.475 0.2787
4175000000.0 1.123 -0.9536
4178000000.0 -0.0007248 -1.468
4181000000.0 -1.108 -0.977
4184000000.0 -1.487 0.261
4188000000.0 -0.7483 1.309
4191000000.0 0.5468 1.429
4194000000.0 1.456 0.5008
4197000000.0 1.305 -0.8513
4200000000.0 0.1622 -1.545
4203000000.0 -1.12 -1.127
4206000000.0 -1.614 0.2074
4209000000.0 -0.8344 1.335
4212000000.0 0.6144 1.579
4216000000.0 1.596 0.4928
4219000000.0 1.352 -0.9539
4222000000.0 0.0104 -1.659
4225000000.0 -1.279 -1.002
4228000000.0 -1.635 0.4078
4231000000.0 -0.669 1.495
4234000000.0 0.7893 1.392
4238000000.0 1.613 0.2106
4241000000.0 1.129 -1.135
4244000000.0 -0.1921 -1.568
4247000000.0 -1.347 -0.7431
4250000000.0 -1.432 0.6116
4253000000.0 -0.43 1.49
4256000000.0 0.9125 1.209
4259000000.0 1.493 0.03116
4262000000.0 0.921 -1.18
4266000000.0 -0.3444 -1.45
4269000000.0 -1.316 -0.5948
4272000000.0 -1.289 0.6976
4275000000.0 -0.2528 1.356
4278000000.0 0.9458 1.047
4281000000.0 1.396 -0.08672
4284000000.0 0.7972 -1.139
4288000000.0 -0.3916 -1.316
4291000000.0 -1.266 -0.5281
4294000000.0 -1.145 0.6638
4297000000.0 -0.2517 1.256
4300000000.0 0.7952 1.062
4303000000.0 1.287 0.004075
4306000000.0 0.8323 -0.9671
4309000000.0 -0.1747 -1.277
4312000000.0 -1.076 -0.676
4316000000.0 -1.172 0.4121
4319000000.0 -0.4732 1.161
4322000000.0 0.6196 1.179
4325000000.0 1.286 0.273
4328000000.0 1.078 -0.7881
4331000000.0 0.05905 -1.337
4334000000.0 -0.9796 -0.9171
4338000000.0 -1.387 0.209
4341000000.0 -0.7407 1.214
4344000000.0 0.4665 1.349
4347000000.0 1.321 0.518
4350000000.0 1.263 -0.7085
4353000000.0 0.2281 -1.453
4356000000.0 -0.9452 -1.112
4359000000.0 -1.471 0.04669
4362000000.0 -0.9527 1.147
4366000000.0 0.2726 1.426
4369000000.0 1.314 0.6557
4372000000.0 1.351 -0.5447
4375000000.0 0.4599 -1.406
4378000000.0 -0.8208 -1.254
4381000000.0 -1.532 -0.1799
4384000000.0 -1.063 1.088
4388000000.0 0.1562 1.536
4391000000.0 1.29 0.8346
4394000000.0 1.507 -0.5088
4397000000.0 0.5462 -1.505
4400000000.0 -0.84 -1.325
4403000000.0 -1.532 -0.1399
4406000000.0 -1.069 1.151
4409000000.0 0.2502 1.521
4412000000.0 1.322 0.7113
4416000000.0 1.401 -0.5935
4419000000.0 0.3816 -1.458
4422000000.0 -0.8905 -1.159
4425000000.0 -1.452 0.01826
4428000000.0 -0.8914 1.119
4431000000.0 0.3526 1.372
4434000000.0 1.28 0.547
4438000000.0 1.176 -0.6313
4441000000.0 0.2186 -1.315
4444000000.0 -0.8959 -0.9629
4447000000.0 -1.301 0.1002
4450000000.0 -0.7067 1.078
4453000000.0 0.4133 1.179
4456000000.0 1.187 0.3755
4459000000.0 1.036 -0.6765
4462000000.0 0.05938 -1.228
4466000000.0 -0.9034 -0.8116
4469000000.0 -1.145 0.2617
4472000000.0 -0.5639 1.061
4475000000.0 0.4947 1.055
4478000000.0 1.16 0.2669
4481000000.0 0.9266 -0.7086
4484000000.0 0.001679 -1.165
4488000000.0 -0.8872 -0.7072
4491000000.0 -1.131 0.2439
4494000000.0 -0.4965 1.013
4497000000.0 0.4866 1.026
4500000000.0 1.12 0.261
4503000000.0 0.8656 -0.6752
4506000000.0 0.01735 -1.103
4509000000.0 -0.859 -0.7586
4512000000.0 -1.119 0.196
4516000000.0 -0.5468 0.9908
4519000000.0 0.414 1.091
4522000000.0 1.105 0.3526
4525000000.0 0.9811 -0.6477
4528000000.0 0.1285 -1.156
4531000000.0 -0.8243 -0.8508
4534000000.0 -1.201 0.08343
4538000000.0 -0.6959 0.9903
4541000000.0 0.3077 1.153
4544000000.0 1.103 0.5129
4547000000.0 1.098 -0.5521
4550000000.0 0.3253 -1.218
4553000000.0 -0.7352 -0.9973
4556000000.0 -1.258 -0.1027
4559000000.0 -0.9019 0.8982
4562000000.0 0.1282 1.294
4566000000.0 1.053 0.7448
4569000000.0 1.269 -0.371
4572000000.0 0.5459 -1.218
4575000000.0 -0.5774 -1.207
4578000000.0 -1.299 -0.3305
4581000000.0 -1.1 0.806
4584000000.0 -0.08366 1.376
4588000000.0 1.016 0.9464
4591000000.0 1.347 -0.178
4594000000.0 0.7463 -1.173
4597000000.0 -0.437 -1.326
4600000000.0 -1.318 -0.4731
4603000000.0 -1.208 0.6977
4606000000.0 -0.2575 1.377
4609000000.0 0.9318 1.045
4612000000.0 1.378 -0.07951
4616000000.0 0.8256 -1.12
4619000000.0 -0.3389 -1.344
4622000000.0 -1.253 -0.5872
4625000000.0 -1.23 0.596
4628000000.0 -0.3172 1.337
4631000000.0 0.8568 1.045
4634000000.0 1.358 -0.009531
4638000000.0 0.8317 -1.036
4641000000.0 -0.2715 -1.274
4644000000.0 -1.18 -0.5767
4647000000.0 -1.154 0.5701
4650000000.0 -0.2935 1.266
4653000000.0 0.7793 0.9861
4656000000.0 1.248 -0.02126
4659000000.0 0.7543 -0.9681
4662000000.0 -0.3222 -1.162
4666000000.0 -1.078 -0.4728
4669000000.0 -1.064 0.5508
4672000000.0 -0.2281 1.13
4675000000.0 0.74 0.8741
4678000000.0 1.116 -0.03956
4681000000.0 0.6905 -0.9219
4684000000.0 -0.2581 -1.061
4688000000.0 -0.9927 -0.4164
4691000000.0 -0.9584 0.5064
4694000000.0 -0.2091 1.046
4697000000.0 0.6858 0.8125
4700000000.0 1.086 -0.03204
4703000000.0 0.668 -0.8738
4706000000.0 -0.2161 -1.061
4709000000.0 -1.0 -0.4429
4712000000.0 -0.9855 0.505
4716000000.0 -0.2138 1.036
4719000000.0 0.7267 0.823
4722000000.0 1.045 -0.02144
4725000000.0 0.6457 -0.8401
4728000000.0 -0.2511 -1.037
4731000000.0 -0.9686 -0.4487
4734000000.0 -0.9959 0.4509
4738000000.0 -0.2802 1.049
4741000000.0 0.5691 0.883
4744000000.0 1.071 0.08382
4747000000.0 0.7802 -0.7588
4750000000.0 -0.0989 -1.099
4753000000.0 -0.9019 -0.6137
4756000000.0 -1.065 0.2701
4759000000.0 -0.473 1.063
4762000000.0 0.5152 1.031
4766000000.0 1.111 0.2839
4769000000.0 0.9391 -0.6792
4772000000.0 0.07857 -1.205
4775000000.0 -0.862 -0.8325
4778000000.0 -1.211 0.1261
4781000000.0 -0.7016 1.008
4784000000.0 0.3145 1.206
4788000000.0 1.136 0.549
4791000000.0 1.158 -0.5437
4794000000.0 0.3514 -1.228
4797000000.0 -0.7518 -1.049
4800000000.0 -1.296 -0.0963
4803000000.0 -0.9023 0.8739
4806000000.0 0.1017 1.291
4809000000.0 1.068 0.7676
4812000000.0 1.302 -0.3082
4816000000.0 0.5658 -1.209
4819000000.0 -0.5755 -1.206
4822000000.0 -1.338 -0.3255
4825000000.0 -1.122 0.8105
4828000000.0 -0.09318 1.386
4831000000.0 1.028 0.9265
4834000000.0 1.385 -0.2008
4838000000.0 0.719 -1.179
4841000000.0 -0.4728 -1.325
4844000000.0 -1.311 -0.4516
4847000000.0 -1.173 0.7253
4850000000.0 -0.1773 1.369
4853000000.0 0.9209 0.9975
4856000000.0 1.33 -0.106
4859000000.0 0.7634 -1.105
4862000000.0 -0.3551 -1.259
4866000000.0 -1.201 -0.5203
4869000000.0 -1.125 0.596
4872000000.0 -0.2488 1.224
4875000000.0 0.7965 0.9423
4878000000.0 1.243 -0.02068
4881000000.0 0.75 -0.9484
4884000000.0 -0.2542 -1.171
4888000000.0 -1.042 -0.5169
4891000000.0 -1.066 0.5001
4894000000.0 -0.2415 1.09
4897000000.0 0.6749 0.8654
4900000000.0 1.105 0.008206
4903000000.0 0.6832 -0.8447
4906000000.0 -0.1951 -1.029
4909000000.0 -0.913 -0.4731
4912000000.0 -0.9022 0.3753
4916000000.0 -0.2618 0.9347
4919000000.0 0.5209 0.7896
4922000000.0 0.9612 0.09046
4925000000.0 0.6849 -0.6832
4928000000.0 -0.09751 -0.951
4931000000.0 -0.7993 -0.5082
4934000000.0 -0.8913 0.2679
4938000000.0 -0.333 0.8494
4941000000.0 0.4467 0.8162
4944000000.0 0.9458 0.1836
4947000000.0 0.7078 -0.6128
4950000000.0 -0.02495 -0.9562
4953000000.0 -0.7556 -0.5855
4956000000.0 -0.9885 0.2287
4959000000.0 -0.4364 0.8928
4962000000.0 0.4053 0.8978
4966000000.0 0.9844 0.2493
4969000000.0 0.8456 -0.5914
4972000000.0 0.06653 -1.034
4975000000.0 -0.7639 -0.7066
4978000000.0 -1.042 0.1629
4981000000.0 -0.5702 0.8886
4984000000.0 0.3488 1.02
4988000000.0 1.022 0.4067
4991000000.0 0.991 -0.5474
4994000000.0 0.2019 -1.085
4997000000.0 -0.7245 -0.8633
5000000000.0 -1.136 0.005082
5003000000.0 -0.767 0.9008
5006000000.0 0.2339 1.187
5009000000.0 1.09 0.6148
5012000000.0 1.146 -0.4369
5016000000.0 0.3974 -1.173
5019000000.0 -0.6668 -1.074
5022000000.0 -1.282 -0.132
5025000000.0 -0.9361 0.9017
5028000000.0 0.1191 1.285
5031000000.0 1.071 0.7466
5034000000.0 1.259 -0.3333
5038000000.0 0.5163 -1.178
5041000000.0 -0.59 -1.176
5044000000.0 -1.251 -0.3167
5047000000.0 -1.059 0.7425
5050000000.0 -0.1046 1.272
5053000000.0 0.9194 0.8858
5056000000.0 1.269 -0.1242
5059000000.0 0.7146 -1.064
5062000000.0 -0.3641 -1.231
5066000000.0 -1.141 -0.4742
5069000000.0 -1.148 0.5681
5072000000.0 -0.2937 1.199
5075000000.0 0.7454 1.011
5078000000.0 1.234 0.02926
5081000000.0 0.8096 -0.8727
5084000000.0 -0.1944 -1.189
5088000000.0 -1.055 -0.5972
5091000000.0 -1.086 0.393
5094000000.0 -0.3719 1.046
5097000000.0 0.6029 0.9619
5100000000.0 1.081 0.2063
5103000000.0 0.8393 -0.7006
5106000000.0 -0.0375 -1.055
5109000000.0 -0.825 -0.642
5112000000.0 -1.003 0.2011
5116000000.0 -0.501 0.8638
5119000000.0 0.374 0.9464
5122000000.0 0.9658 0.3144
5125000000.0 0.8578 -0.5671
5128000000.0 0.1378 -0.9471
5131000000.0 -0.6775 -0.6945
5134000000.0 -0.9334 0.06991
5138000000.0 -0.541 0.7956
5141000000.0 0.2642 0.9284
5144000000.0 0.8635 0.376
5147000000.0 0.8214 -0.4457
5150000000.0 0.1367 -0.8743
5153000000.0 -0.5579 -0.6773
5156000000.0 -0.9075 0.01953
5159000000.0 -0.5328 0.7336
5162000000.0 0.1965 0.8665
5166000000.0 0.8029 0.3811
5169000000.0 0.7624 -0.4018
5172000000.0 0.2073 -0.8469
5175000000.0 -0.5473 -0.7111
5178000000.0 -0.8935 -0.02371
5181000000.0 -0.574 0.6822
5184000000.0 0.1828 0.8805
5188000000.0 0.8491 0.3919
5191000000.0 0.8456 -0.3968
5194000000.0 0.2009 -0.9023
5197000000.0 -0.5864 -0.7537
5200000000.0 -0.9192 -0.02186
5203000000.0 -0.6222 0.7679
5206000000.0 0.1786 0.9667
5209000000.0 0.8616 0.4268
5212000000.0 0.8967 -0.3759
5216000000.0 0.2697 -0.9686
5219000000.0 -0.5741 -0.8212
5222000000.0 -1.007 -0.08791
5225000000.0 -0.7272 0.7361
5228000000.0 0.1325 1.023
5231000000.0 0.864 0.553
5234000000.0 1.017 -0.309
5238000000.0 0.4224 -0.9756
5241000000.0 -0.4967 -0.9492
5244000000.0 -1.044 -0.1921
5247000000.0 -0.8233 0.6708
5250000000.0 -0.01271 1.084
5253000000.0 0.8109 0.7118
5256000000.0 1.082 -0.1639
5259000000.0 0.5588 -0.9525
5262000000.0 -0.3631 -1.054
5266000000.0 -1.048 -0.3894
5269000000.0 -0.9526 0.5403
5272000000.0 -0.1965 1.089
5275000000.0 0.7028 0.8371
5278000000.0 1.119 0.03976
5281000000.0 0.7281 -0.8211
5284000000.0 -0.1704 -1.107
5288000000.0 -0.9359 -0.5766
5291000000.0 -1.042 0.3364
5294000000.0 -0.4231 1.037
5297000000.0 0.5124 0.9814
5300000000.0 1.081 0.2301
5303000000.0 0.8978 -0.7161
5306000000.0 0.05478 -1.105
5309000000.0 -0.8321 -0.741
5312000000.0 -1.121 0.149
5316000000.0 -0.6022 0.962
5319000000.0 0.3677 1.047
5322000000.0 1.068 0.3814
5325000000.0 0.9576 -0.5681
5328000000.0 0.154 -1.107
5331000000.0 -0.7464 -0.8284
5334000000.0 -1.085 0.05554
5338000000.0 -0.6335 0.8598
5341000000.0 0.2766 1.038
5344000000.0 0.9893 0.4228
5347000000.0 0.9446 -0.4994
5350000000.0 0.2111 -1.03
5353000000.0 -0.657 -0.8096
5356000000.0 -1.021 0.01301
5359000000.0 -0.6322 0.8072
5362000000.0 0.2429 0.9373
5366000000.0 0.8892 0.4013
5369000000.0 0.8356 -0.4691
5372000000.0 0.1628 -0.9206
5375000000.0 -0.6416 -0.7083
5378000000.0 -0.9452 0.06763
5381000000.0 -0.506 0.7803
5384000000.0 0.2721 0.8547
5388000000.0 0.8579 0.2949
5391000000.0 0.7486 -0.4767
5394000000.0 0.08398 -0.915
5397000000.0 -0.6249 -0.5911
5400000000.0 -0.8583 0.1295
5403000000.0 -0.4449 0.733
5406000000.0 0.3074 0.7839
5409000000.0 0.8259 0.2464
5412000000.0 0.695 -0.4774
5416000000.0 0.05949 -0.844
5419000000.0 -0.6426 -0.6089
5422000000.0 -0.8634 0.1268
5425000000.0 -0.4466 0.7585
5428000000.0 0.2923 0.8357
5431000000.0 0.8218 0.2661
5434000000.0 0.7437 -0.4868
5438000000.0 0.1006 -0.8642
5441000000.0 -0.6567 -0.6417
5444000000.0 -0.9105 0.08905
5447000000.0 -0.5218 0.7651
5450000000.0 0.2621 0.8737
5453000000.0 0.8887 0.3023
5456000000.0 0.8368 -0.446
5459000000.0 0.1919 -0.9387
5462000000.0 -0.6257 -0.7511
5466000000.0 -0.9803 0.008056
5469000000.0 -0.6398 0.7223
5472000000.0 0.1837 0.9693
5475000000.0 0.887 0.4987
5478000000.0 0.9452 -0.3792
5481000000.0 0.3512 -0.9307
5484000000.0 -0.5263 -0.9027
5488000000.0 -1.033 -0.1947
5491000000.0 -0.8307 0.6878
5494000000.0 0.02259 1.054
5497000000.0 0.8176 0.6756
5500000000.0 1.061 -0.1924
5503000000.0 0.4917 -0.9482
5506000000.0 -0.421 -0.9925
5509000000.0 -1.046 -0.2966
5512000000.0 -0.9245 0.5666
5516000000.0 -0.1323 1.073
5519000000.0 0.7244 0.7803
5522000000.0 1.056 -0.05699
5525000000.0 0.601 -0.8741
5528000000.0 -0.2549 -1.03
5531000000.0 -0.9779 -0.4707
5534000000.0 -0.9569 0.4784
5538000000.0 -0.2346 1.044
5541000000.0 0.6224 0.8125
5544000000.0 1.047 0.02032
5547000000.0 0.6908 -0.7757
5550000000.0 -0.1884 -0.9728
5553000000.0 -0.8879 -0.5078
5556000000.0 -0.9393 0.3869
5559000000.0 -0.2898 0.9717
5562000000.0 0.5269 0.779
5566000000.0 0.9561 0.06132
5569000000.0 0.6448 -0.677
5572000000.0 -0.1458 -0.893
5575000000.0 -0.7597 -0.4784
5578000000.0 -0.8328 0.3117
5581000000.0 -0.2988 0.8277
5584000000.0 0.4884 0.7571
5588000000.0 0.8407 0.09353
5591000000.0 0.594 -0.5722
5594000000.0 -0.0948 -0.8456
5597000000.0 -0.6995 -0.4461
5600000000.0 -0.7609 0.284
5603000000.0 -0.2551 0.7562
5606000000.0 0.4554 0.6501
5609000000.0 0.8033 0.06652
5612000000.0 0.5463 -0.6028
5616000000.0 -0.08815 -0.7793
5619000000.0 -0.7059 -0.4204
5622000000.0 -0.7364 0.3122
5625000000.0 -0.2355 0.7488
5628000000.0 0.483 0.6828
5631000000.0 0.8426 0.02885
5634000000.0 0.5733 -0.6194
5638000000.0 -0.1433 -0.8383
5641000000.0 -0.7285 -0.3968
5644000000.0 -0.7994 0.3254
5647000000.0 -0.2386 0.849
5650000000.0 0.5159 0.74
5653000000.0 0.9024 0.06677
5656000000.0 0.6191 -0.6685
5659000000.0 -0.152 -0.9272
5662000000.0 -0.8269 -0.4647
5666000000.0 -0.9016 0.3371
5669000000.0 -0.3146 0.9343
5672000000.0 0.547 0.8227
5675000000.0 1.009 0.1126
5678000000.0 0.7354 -0.7388
5681000000.0 -0.1319 -1.042
5684000000.0 -0.9055 -0.5387
5688000000.0 -1.018 0.3553
5691000000.0 -0.3889 1.017
5694000000.0 0.5456 0.945
5697000000.0 1.086 0.1582
5700000000.0 0.8288 -0.7429
5703000000.0 -0.06356 -1.122
5706000000.0 -0.8953 -0.6601
5709000000.0 -1.08 0.2852
5712000000.0 -0.4712 1.053
5716000000.0 0.4917 1.019
5719000000.0 1.106 0.264
5722000000.0 0.8876 -0.7135
5725000000.0 0.00981 -1.145
5728000000.0 -0.8721 -0.7164
5731000000.0 -1.12 0.2283
5734000000.0 -0.5322 1.004
5738000000.0 0.4431 1.033
5741000000.0 1.056 0.3395
5744000000.0 0.9371 -0.6415
5747000000.0 0.07716 -1.115
5750000000.0 -0.7972 -0.7728
5753000000.0 -1.067 0.144
5756000000.0 -0.5524 0.911
5759000000.0 0.3817 0.987
5762000000.0 1.011 0.3407
5766000000.0 0.8416 -0.5989
5769000000.0 0.05068 -1.055
5772000000.0 -0.7711 -0.6775
5775000000.0 -1.017 0.1808
5778000000.0 -0.4426 0.8675
5781000000.0 0.3924 0.8993
5784000000.0 0.9494 0.278
5788000000.0 0.7836 -0.5724
5791000000.0 0.03896 -0.9802
5794000000.0 -0.7225 -0.6057
5797000000.0 -0.9402 0.2121
5800000000.0 -0.3887 0.8595
5803000000.0 0.4498 0.8115
5806000000.0 0.9328 0.1564
5809000000.0 0.652 -0.6088
5812000000.0 -0.09279 -0.9225
5816000000.0 -0.7995 -0.4506
5819000000.0 -0.7989 0.3375
5822000000.0 -0.2144 0.8796
5825000000.0 0.564 0.6921
5828000000.0 0.8913 0.002963
5831000000.0 0.5416 -0.7068
5834000000.0 -0.216 -0.8496
5838000000.0 -0.8298 -0.3534
5841000000.0 -0.7721 0.4636
5844000000.0 -0.1489 0.8522
5847000000.0 0.6219 0.6581
5850000000.0 0.8989 -0.05597
5853000000.0 0.4928 -0.761
5856000000.0 -0.2896 -0.858
5859000000.0 -0.8678 -0.324
5862000000.0 -0.8018 0.4919
5866000000.0 -0.1098 0.9261
5869000000.0 0.7028 0.6775
5872000000.0 0.9593 -0.1525
5875000000.0 0.5049 -0.8462
5878000000.0 -0.353 -0.8971
5881000000.0 -0.9351 -0.2727
5884000000.0 -0.8057 0.5557
5888000000.0 -0.08206 0.963
5891000000.0 0.7348 0.6625
5894000000.0 1.018 -0.1863
5897000000.0 0.5026 -0.8822
5900000000.0 -0.3802 -0.9506
5903000000.0 -0.9894 -0.2982
5906000000.0 -0.8368 0.6205
5909000000.0 -0.04848 1.008
5912000000.0 0.7817 0.6837
5916000000.0 1.032 -0.1991
5919000000.0 0.4837 -0.9442
5922000000.0 -0.4634 -0.9044
5925000000.0 -1.021 -0.2268
5928000000.0 -0.7719 0.6723
5931000000.0 0.05085 1.015
5934000000.0 0.8205 0.6163
5938000000.0 0.9106 -0.2704
5941000000.0 0.3992 -0.9318
5944000000.0 -0.5079 -0.8661
5947000000.0 -0.9753 -0.1471
5950000000.0 -0.6578 0.703
5953000000.0 0.1439 0.9513
5956000000.0 0.8235 0.4688
5959000000.0 0.8248 -0.3745
5962000000.0 0.2432 -0.9286
5966000000.0 -0.5938 -0.7075
5969000000.0 -0.9088 0.02258
5972000000.0 -0.4921 0.7254
5975000000.0 0.2654 0.8231
5978000000.0 0.817 0.2686
5981000000.0 0.7297 -0.466
5984000000.0 0.03918 -0.8462
5988000000.0 -0.6515 -0.545
5991000000.0 -0.8413 0.1896
5994000000.0 -0.3607 0.7498
5997000000.0 0.3632 0.7436
6000000000.0 0.8246 0.1616
6003000000.0 0.6064 -0.544
6006000000.0 -0.04679 -0.7816
6009000000.0 -0.6979 -0.4962
6012000000.0 -0.7867 0.2548
6016000000.0 -0.2986 0.7509
6019000000.0 0.4232 0.7035
6022000000.0 0.8347 0.0966
6025000000.0 0.6276 -0.6061
6028000000.0 -0.07521 -0.8496
6031000000.0 -0.7203 -0.4374
6034000000.0 -0.829 0.2725
6038000000.0 -0.2976 0.7968
6041000000.0 0.4484 0.773
6044000000.0 0.8973 0.1025
6047000000.0 0.6296 -0.6441
6050000000.0 -0.09204 -0.9406
6053000000.0 -0.8004 -0.5085
6056000000.0 -0.9107 0.2915
6059000000.0 -0.3114 0.938
6062000000.0 0.5446 0.8053
6066000000.0 0.9782 0.06901
6069000000.0 0.6948 -0.7062
6072000000.0 -0.1121 -0.9882
6075000000.0 -0.8721 -0.5187
6078000000.0 -0.9278 0.3757
6081000000.0 -0.3012 0.9849
6084000000.0 0.584 0.8358
6088000000.0 1.028 0.07871
6091000000.0 0.6929 -0.7703
6094000000.0 -0.1897 -1.034
6097000000.0 -0.917 -0.4761
6100000000.0 -0.9353 0.4313
6103000000.0 -0.232 1.009
6106000000.0 0.647 0.7966
6109000000.0 1.006 -0.007133
6112000000.0 0.5957 -0.7817
6116000000.0 -0.2331 -0.9964
6119000000.0 -0.8973 -0.3762
6122000000.0 -0.8346 0.4901
6125000000.0 -0.1098 0.9232
6128000000.0 0.6556 0.6958
6131000000.0 0.9515 -0.08773
6134000000.0 0.4892 -0.7806
6138000000.0 -0.2878 -0.8504
6141000000.0 -0.8369 -0.2794
6144000000.0 -0.7638 0.4614
6147000000.0 -0.05069 0.8785
6150000000.0 0.6214 0.6102
6153000000.0 0.8593 -0.1439
6156000000.0 0.3712 -0.7258
6159000000.0 -0.2934 -0.7467
6162000000.0 -0.8097 -0.2428
6166000000.0 -0.6831 0.517
6169000000.0 -0.04457 0.8299
6172000000.0 0.6272 0.5263
6175000000.0 0.8269 -0.1723
6178000000.0 0.3447 -0.7109
6181000000.0 -0.3512 -0.7276
6184000000.0 -0.8235 -0.202
6188000000.0 -0.6254 0.5126
6191000000.0 0.02407 0.8163
6194000000.0 0.6536 0.4888
6197000000.0 0.7775 -0.1897
6200000000.0 0.3254 -0.7454
6203000000.0 -0.3769 -0.7154
6206000000.0 -0.7849 -0.1501
6209000000.0 -0.6463 0.5963
6212000000.0 0.06598 0.8498
6216000000.0 0.6899 0.4856
6219000000.0 0.8238 -0.2242
6222000000.0 0.3154 -0.7918
6225000000.0 -0.4276 -0.7419
6228000000.0 -0.835 -0.201
6231000000.0 -0.6667 0.5626
6234000000.0 0.05322 0.8359
6238000000.0 0.7158 0.5089
6241000000.0 0.8174 -0.2499
6244000000.0 0.3162 -0.7532
6247000000.0 -0.4033 -0.7405
6250000000.0 -0.8158 -0.1524
6253000000.0 -0.6355 0.5282
6256000000.0 0.008211 0.8234
6259000000.0 0.6296 0.5066
6262000000.0 0.7889 -0.165
6266000000.0 0.3798 -0.7257
