! Created with skrf 1.8.0 (http://scikit-rf.org).
# Hz S RI R 50.0 
!freq ReS11 ImS11
4000000000.0 -0.304 -1.482
4003000000.0 -1.253 -0.7464
4006000000.0 -1.395 0.5671
4009000000.0 -0.4045 1.442
4012000000.0 0.8837 1.288
4016000000.0 1.566 0.1141
4019000000.0 1.047 -1.135
4022000000.0 -0.2628 -1.545
4025000000.0 -1.38 -0.8224
4028000000.0 -1.457 0.5849
4031000000.0 -0.5074 1.585
4034000000.0 0.8959 1.347
4038000000.0 1.61 0.1478
4041000000.0 1.126 -1.179
4044000000.0 -0.206 -1.623
4047000000.0 -1.412 -0.8294
4050000000.0 -1.488 0.558
4053000000.0 -0.5517 1.483
4056000000.0 0.835 1.349
4059000000.0 1.577 0.2078
4062000000.0 1.191 -1.076
4066000000.0 -0.05377 -1.596
4069000000.0 -1.258 -0.9784
4072000000.0 -1.59 0.3609
4075000000.0 -0.691 1.436
4078000000.0 0.6799 1.48
4081000000.0 1.596 0.4577
4084000000.0 1.36 -0.9462
4088000000.0 0.1173 -1.647
4091000000.0 -1.177 -1.147
4094000000.0 -1.625 0.1955
4097000000.0 -0.8818 1.377
4100000000.0 0.4728 1.535
4103000000.0 1.498 0.6262
4106000000.0 1.409 -0.7084
4109000000.0 0.355 -1.54
4112000000.0 -0.8994 -1.227
4116000000.0 -1.468 -0.09078
4119000000.0 -1.039 1.046
4122000000.0 0.07432 1.477
4125000000.0 1.171 0.8863
4128000000.0 1.414 -0.3127
4131000000.0 0.722 -1.281
4134000000.0 -0.5085 -1.379
4138000000.0 -1.386 -0.5086
4141000000.0 -1.27 0.7199
4144000000.0 -0.2881 1.462
4147000000.0 0.9536 1.181
4150000000.0 1.458 0.05963
4153000000.0 0.9877 -1.119
4156000000.0 -0.2081 -1.493
4159000000.0 -1.271 -0.8375
4162000000.0 -1.398 0.486
4166000000.0 -0.5449 1.375
4169000000.0 0.7363 1.293
4172000000.0 1.43 0.3177
4175000000.0 1.164 -0.9247
4178000000.0 0.02058 -1.484
4181000000.0 -1.12 -0.9809
4184000000.0 -1.442 0.233
4188000000.0 -0.7625 1.294
4191000000.0 0.4714 1.439
4194000000.0 1.445 0.5417
4197000000.0 1.347 -0.7982
4200000000.0 0.2285 -1.559
4203000000.0 -1.087 -1.187
4206000000.0 -1.583 0.1304
4209000000.0 -0.9031 1.383
4212000000.0 0.5342 1.544
4216000000.0 1.591 0.5545
4219000000.0 1.367 -0.9263
4222000000.0 0.07275 -1.663
4225000000.0 -1.226 -1.077
4228000000.0 -1.597 0.3335
4231000000.0 -0.6809 1.463
4234000000.0 0.7579 1.439
4238000000.0 1.606 0.2716
4241000000.0 1.178 -1.095
4244000000.0 -0.1975 -1.58
4247000000.0 -1.376 -0.8098
4250000000.0 -1.436 0.5662
4253000000.0 -0.4772 1.422
4256000000.0 0.8397 1.236
4259000000.0 1.53 0.08149
4262000000.0 0.9827 -1.122
4266000000.0 -0.2868 -1.44
4269000000.0 -1.305 -0.6715
4272000000.0 -1.335 0.5978
4275000000.0 -0.3271 1.404
4278000000.0 0.9402 1.093
4281000000.0 1.418 0.01082
4284000000.0 0.8417 -1.108
4288000000.0 -0.3396 -1.319
4291000000.0 -1.22 -0.5982
4294000000.0 -1.185 0.5801
4297000000.0 -0.3343 1.303
4300000000.0 0.8214 1.071
4303000000.0 1.313 0.03615
4306000000.0 0.8987 -0.9709
4309000000.0 -0.11 -1.258
4312000000.0 -1.076 -0.6984
4316000000.0 -1.212 0.3651
4319000000.0 -0.5354 1.188
4322000000.0 0.5685 1.165
4325000000.0 1.257 0.3206
4328000000.0 1.077 -0.7615
4331000000.0 0.09141 -1.348
4334000000.0 -1.025 -0.9687
4338000000.0 -1.372 0.1172
4341000000.0 -0.7791 1.146
4344000000.0 0.4129 1.379
4347000000.0 1.303 0.5861
4350000000.0 1.282 -0.6727
4353000000.0 0.3354 -1.411
4356000000.0 -0.8942 -1.127
4359000000.0 -1.45 -0.01572
4362000000.0 -0.9593 1.089
4366000000.0 0.2122 1.458
4369000000.0 1.278 0.7406
4372000000.0 1.402 -0.4976
4375000000.0 0.5069 -1.404
4378000000.0 -0.7903 -1.302
4381000000.0 -1.516 -0.2013
4384000000.0 -1.133 1.02
4388000000.0 0.07674 1.516
4391000000.0 1.266 0.9078
4394000000.0 1.499 -0.4229
4397000000.0 0.595 -1.462
4400000000.0 -0.7663 -1.399
4403000000.0 -1.594 -0.2522
4406000000.0 -1.138 1.092
4409000000.0 0.119 1.533
4412000000.0 1.29 0.8172
4416000000.0 1.432 -0.4997
4419000000.0 0.47 -1.436
4422000000.0 -0.8143 -1.235
4425000000.0 -1.419 -0.1215
4428000000.0 -0.9543 1.058
4431000000.0 0.2673 1.406
4434000000.0 1.249 0.6487
4438000000.0 1.235 -0.5928
4441000000.0 0.2978 -1.294
4444000000.0 -0.8107 -1.015
4447000000.0 -1.288 0.01251
4450000000.0 -0.7746 1.034
4453000000.0 0.3093 1.233
4456000000.0 1.156 0.4577
4459000000.0 1.068 -0.604
4462000000.0 0.1526 -1.204
4466000000.0 -0.8501 -0.8745
4469000000.0 -1.225 0.1299
4472000000.0 -0.621 1.04
4475000000.0 0.4483 1.098
4478000000.0 1.108 0.3673
4481000000.0 0.9444 -0.6669
4484000000.0 0.06279 -1.151
4488000000.0 -0.8481 -0.7651
4491000000.0 -1.135 0.1824
4494000000.0 -0.5766 0.9855
4497000000.0 0.4078 1.068
4500000000.0 1.063 0.3304
4503000000.0 0.9219 -0.6343
4506000000.0 0.08755 -1.118
4509000000.0 -0.7998 -0.7909
4512000000.0 -1.138 0.1129
4516000000.0 -0.623 0.915
4519000000.0 0.3376 1.116
4522000000.0 1.125 0.4376
4525000000.0 1.007 -0.5593
4528000000.0 0.1967 -1.177
4531000000.0 -0.7551 -0.9083
4534000000.0 -1.207 0.008404
4538000000.0 -0.7321 0.9254
4541000000.0 0.2628 1.173
4544000000.0 1.083 0.5676
4547000000.0 1.131 -0.4616
4550000000.0 0.3611 -1.175
4553000000.0 -0.6678 -1.014
4556000000.0 -1.216 -0.1653
4559000000.0 -0.9181 0.8641
4562000000.0 0.07014 1.292
4566000000.0 0.994 0.7901
4569000000.0 1.269 -0.2836
4572000000.0 0.5777 -1.148
4575000000.0 -0.5155 -1.215
4578000000.0 -1.275 -0.3672
4581000000.0 -1.108 0.732
4584000000.0 -0.1537 1.343
4588000000.0 0.9399 0.9796
4591000000.0 1.346 -0.05785
4594000000.0 0.7739 -1.122
4597000000.0 -0.3809 -1.335
4600000000.0 -1.274 -0.5686
4603000000.0 -1.248 0.632
4606000000.0 -0.2848 1.371
4609000000.0 0.8704 1.081
4612000000.0 1.372 0.03889
4616000000.0 0.8883 -1.074
4619000000.0 -0.2786 -1.374
4622000000.0 -1.229 -0.6562
4625000000.0 -1.285 0.527
4628000000.0 -0.3849 1.325
4631000000.0 0.784 1.1
4634000000.0 1.344 0.0881
4638000000.0 0.9117 -1.012
4641000000.0 -0.199 -1.299
4644000000.0 -1.17 -0.6729
4647000000.0 -1.217 0.4791
4650000000.0 -0.3401 1.207
4653000000.0 0.7383 1.069
4656000000.0 1.235 0.07159
4659000000.0 0.8363 -0.9493
4662000000.0 -0.1977 -1.193
4666000000.0 -1.066 -0.5772
4669000000.0 -1.088 0.5041
4672000000.0 -0.302 1.153
4675000000.0 0.6903 0.9104
4678000000.0 1.17 0.01684
4681000000.0 0.7289 -0.8348
4684000000.0 -0.1864 -1.101
4688000000.0 -0.967 -0.5049
4691000000.0 -1.01 0.4434
4694000000.0 -0.2988 1.098
4697000000.0 0.6255 0.8803
4700000000.0 1.067 0.06922
4703000000.0 0.7183 -0.7838
4706000000.0 -0.187 -1.06
4709000000.0 -0.9506 -0.4988
4712000000.0 -0.9965 0.4415
4716000000.0 -0.2654 1.033
4719000000.0 0.6217 0.8571
4722000000.0 1.039 0.04332
4725000000.0 0.6829 -0.797
4728000000.0 -0.2051 -1.03
4731000000.0 -0.8992 -0.4996
4734000000.0 -0.9977 0.3811
4738000000.0 -0.3676 0.9908
4741000000.0 0.5558 0.8799
4744000000.0 1.077 0.1362
4747000000.0 0.7955 -0.7088
4750000000.0 -0.05388 -1.076
4753000000.0 -0.8719 -0.6805
4756000000.0 -1.099 0.2187
4759000000.0 -0.5133 1.02
4762000000.0 0.4419 1.08
4766000000.0 1.096 0.3278
4769000000.0 0.9908 -0.6232
4772000000.0 0.1409 -1.153
4775000000.0 -0.7877 -0.8482
4778000000.0 -1.192 0.07514
4781000000.0 -0.7415 0.9846
4784000000.0 0.2899 1.197
4788000000.0 1.113 0.5621
4791000000.0 1.173 -0.4843
4794000000.0 0.3807 -1.219
4797000000.0 -0.7028 -1.08
4800000000.0 -1.268 -0.1731
4803000000.0 -0.9737 0.8462
4806000000.0 0.02947 1.268
4809000000.0 0.9994 0.8032
4812000000.0 1.265 -0.2781
4816000000.0 0.6319 -1.187
4819000000.0 -0.4957 -1.253
4822000000.0 -1.281 -0.4115
4825000000.0 -1.14 0.7237
4828000000.0 -0.1276 1.381
4831000000.0 0.972 1.003
4834000000.0 1.371 -0.1174
4838000000.0 0.7788 -1.156
4841000000.0 -0.3978 -1.329
4844000000.0 -1.273 -0.5066
4847000000.0 -1.21 0.6714
4850000000.0 -0.2755 1.323
4853000000.0 0.8623 1.054
4856000000.0 1.352 -0.02836
4859000000.0 0.8056 -1.05
4862000000.0 -0.2866 -1.28
4866000000.0 -1.161 -0.5901
4869000000.0 -1.174 0.5186
4872000000.0 -0.3327 1.237
4875000000.0 0.7087 1.03
4878000000.0 1.247 0.06286
4881000000.0 0.8034 -0.9275
4884000000.0 -0.2042 -1.193
4888000000.0 -1.058 -0.5787
4891000000.0 -1.101 0.4183
4894000000.0 -0.3184 1.104
4897000000.0 0.6331 0.9453
4900000000.0 1.084 0.09092
4903000000.0 0.7666 -0.7788
4906000000.0 -0.1458 -1.05
4909000000.0 -0.8593 -0.5447
4912000000.0 -0.9376 0.322
4916000000.0 -0.321 0.9331
4919000000.0 0.503 0.8632
4922000000.0 0.9353 0.1453
4925000000.0 0.7292 -0.6074
4928000000.0 -0.05081 -0.9177
4931000000.0 -0.743 -0.5771
4934000000.0 -0.8851 0.2562
4938000000.0 -0.4008 0.8356
4941000000.0 0.3994 0.8558
4944000000.0 0.9001 0.2207
4947000000.0 0.748 -0.5527
4950000000.0 0.04963 -0.9346
4953000000.0 -0.7164 -0.6458
4956000000.0 -0.9539 0.143
4959000000.0 -0.4805 0.8556
4962000000.0 0.3531 0.9173
4966000000.0 0.9364 0.3001
4969000000.0 0.8746 -0.5409
4972000000.0 0.1281 -1.015
4975000000.0 -0.6837 -0.751
4978000000.0 -1.025 0.05523
4981000000.0 -0.635 0.8422
4984000000.0 0.2655 1.048
4988000000.0 0.9652 0.4452
4991000000.0 0.9986 -0.4685
4994000000.0 0.2834 -1.067
4997000000.0 -0.655 -0.9261
5000000000.0 -1.168 -0.09412
5003000000.0 -0.8065 0.8793
5006000000.0 0.16 1.213
5009000000.0 0.9993 0.6473
5012000000.0 1.197 -0.3657
5016000000.0 0.4698 -1.143
5019000000.0 -0.5973 -1.126
5022000000.0 -1.276 -0.2119
5025000000.0 -0.962 0.8265
5028000000.0 0.002945 1.281
5031000000.0 0.9884 0.8311
5034000000.0 1.266 -0.2423
5038000000.0 0.6186 -1.149
5041000000.0 -0.4785 -1.211
5044000000.0 -1.188 -0.4179
5047000000.0 -1.105 0.6817
5050000000.0 -0.2016 1.282
5053000000.0 0.875 0.9272
5056000000.0 1.296 -0.01497
5059000000.0 0.7918 -1.006
5062000000.0 -0.2415 -1.259
5066000000.0 -1.156 -0.5897
5069000000.0 -1.172 0.5222
5072000000.0 -0.3356 1.198
5075000000.0 0.6924 1.063
5078000000.0 1.218 0.1302
5081000000.0 0.8967 -0.8777
5084000000.0 -0.1022 -1.196
5088000000.0 -0.9917 -0.6877
5091000000.0 -1.121 0.3251
5094000000.0 -0.4791 1.049
5097000000.0 0.4505 1.006
5100000000.0 1.09 0.2905
5103000000.0 0.8632 -0.6554
5106000000.0 0.09843 -1.076
5109000000.0 -0.7556 -0.735
5112000000.0 -1.03 0.1287
5116000000.0 -0.6001 0.8157
5119000000.0 0.3207 0.9638
5122000000.0 0.9588 0.4204
5125000000.0 0.8728 -0.465
5128000000.0 0.2276 -0.9605
5131000000.0 -0.6023 -0.7586
5134000000.0 -0.9846 -0.04502
5138000000.0 -0.6539 0.735
5141000000.0 0.1682 0.943
5144000000.0 0.8385 0.4346
5147000000.0 0.8672 -0.3226
5150000000.0 0.2662 -0.8761
5153000000.0 -0.5269 -0.7531
5156000000.0 -0.8804 -0.109
5159000000.0 -0.6213 0.6592
5162000000.0 0.1014 0.8947
5166000000.0 0.7559 0.4666
5169000000.0 0.8414 -0.2727
5172000000.0 0.3041 -0.8278
5175000000.0 -0.465 -0.7749
5178000000.0 -0.8771 -0.1212
5181000000.0 -0.6583 0.6432
5184000000.0 0.05336 0.9122
5188000000.0 0.7655 0.4955
5191000000.0 0.892 -0.3125
5194000000.0 0.3063 -0.8758
5197000000.0 -0.5055 -0.8081
5200000000.0 -0.9306 -0.1203
5203000000.0 -0.6677 0.6598
5206000000.0 0.05151 0.9471
5209000000.0 0.8014 0.5379
5212000000.0 0.9209 -0.2892
5216000000.0 0.3946 -0.9195
5219000000.0 -0.4697 -0.8663
5222000000.0 -0.9879 -0.1916
5225000000.0 -0.7557 0.6407
5228000000.0 0.00727 1.019
5231000000.0 0.812 0.65
5234000000.0 1.0 -0.2099
5238000000.0 0.4918 -0.9094
5241000000.0 -0.3948 -0.9735
5244000000.0 -0.9984 -0.3246
5247000000.0 -0.8898 0.5794
5250000000.0 -0.1363 1.076
5253000000.0 0.7167 0.791
5256000000.0 1.101 -0.074
5259000000.0 0.6423 -0.8871
5262000000.0 -0.2373 -1.047
5266000000.0 -0.9656 -0.5001
5269000000.0 -0.9946 0.4453
5272000000.0 -0.3421 1.037
5275000000.0 0.5846 0.9042
5278000000.0 1.105 0.1452
5281000000.0 0.843 -0.7622
5284000000.0 -0.04095 -1.102
5288000000.0 -0.8705 -0.6896
5291000000.0 -1.109 0.235
5294000000.0 -0.5364 0.9797
5297000000.0 0.4066 1.01
5300000000.0 1.067 0.3866
5303000000.0 0.9543 -0.6165
5306000000.0 0.1467 -1.105
5309000000.0 -0.7618 -0.8526
5312000000.0 -1.138 0.03018
5316000000.0 -0.6753 0.8655
5319000000.0 0.2361 1.105
5322000000.0 0.9874 0.5201
5325000000.0 1.042 -0.4459
5328000000.0 0.3533 -1.084
5331000000.0 -0.6054 -0.9137
5334000000.0 -1.106 -0.1079
5338000000.0 -0.7808 0.7806
5341000000.0 0.1048 1.087
5344000000.0 0.8896 0.5761
5347000000.0 1.02 -0.328
5350000000.0 0.3892 -1.0
5353000000.0 -0.5171 -0.9477
5356000000.0 -1.056 -0.153
5359000000.0 -0.7802 0.7201
5362000000.0 0.06342 1.042
5366000000.0 0.8204 0.5978
5369000000.0 0.9747 -0.3015
5372000000.0 0.3634 -0.9617
5375000000.0 -0.4436 -0.8385
5378000000.0 -0.9749 -0.1589
5381000000.0 -0.6935 0.6353
5384000000.0 0.1009 0.9375
5388000000.0 0.783 0.5052
5391000000.0 0.8438 -0.3129
5394000000.0 0.2665 -0.8365
5397000000.0 -0.4942 -0.7328
5400000000.0 -0.8704 -0.04775
5403000000.0 -0.6038 0.6259
5406000000.0 0.09802 0.8906
5409000000.0 0.7359 0.4187
5412000000.0 0.8025 -0.3179
5416000000.0 0.2711 -0.8346
5419000000.0 -0.4695 -0.6805
5422000000.0 -0.8734 -0.05057
5425000000.0 -0.5972 0.6077
5428000000.0 0.1256 0.8636
5431000000.0 0.7404 0.4561
5434000000.0 0.84 -0.3034
5438000000.0 0.2667 -0.8214
5441000000.0 -0.4558 -0.7472
5444000000.0 -0.9106 -0.0895
5447000000.0 -0.6589 0.6544
5450000000.0 0.1056 0.914
5453000000.0 0.7619 0.5176
5456000000.0 0.8932 -0.3015
5459000000.0 0.3628 -0.8687
5462000000.0 -0.4388 -0.8511
5466000000.0 -0.9115 -0.2229
5469000000.0 -0.7397 0.5779
5472000000.0 -0.03304 0.9571
5475000000.0 0.742 0.5984
5478000000.0 0.996 -0.1549
5481000000.0 0.4953 -0.8654
5484000000.0 -0.3061 -0.9499
5488000000.0 -0.9529 -0.3915
5491000000.0 -0.9047 0.4899
5494000000.0 -0.2076 1.011
5497000000.0 0.6596 0.7924
5500000000.0 1.043 0.01753
5503000000.0 0.6691 -0.8014
5506000000.0 -0.1454 -1.068
5509000000.0 -0.9178 -0.5324
5512000000.0 -1.011 0.3444
5516000000.0 -0.3883 0.9848
5519000000.0 0.5768 0.9216
5522000000.0 1.056 0.2056
5525000000.0 0.8329 -0.6756
5528000000.0 -0.01475 -1.075
5531000000.0 -0.8189 -0.6726
5534000000.0 -1.038 0.1942
5538000000.0 -0.5397 0.905
5541000000.0 0.3814 0.9973
5544000000.0 0.9947 0.3113
5547000000.0 0.8943 -0.55
5550000000.0 0.1608 -1.037
5553000000.0 -0.715 -0.7357
5556000000.0 -1.014 0.04021
5559000000.0 -0.5666 0.8435
5562000000.0 0.2765 0.9632
5566000000.0 0.8883 0.4016
5569000000.0 0.8632 -0.4507
5572000000.0 0.2175 -0.9463
5575000000.0 -0.5969 -0.7355
5578000000.0 -0.9197 -0.02626
5581000000.0 -0.6065 0.694
5584000000.0 0.1644 0.9249
5588000000.0 0.8141 0.4162
5591000000.0 0.8299 -0.36
5594000000.0 0.2321 -0.853
5597000000.0 -0.4766 -0.6788
5600000000.0 -0.8469 -0.03884
5603000000.0 -0.5687 0.6255
5606000000.0 0.1196 0.8125
5609000000.0 0.6999 0.4328
5612000000.0 0.7382 -0.2926
5616000000.0 0.2258 -0.7679
5619000000.0 -0.4468 -0.6649
5622000000.0 -0.8189 -0.05515
5625000000.0 -0.5397 0.5953
5628000000.0 0.1405 0.8023
5631000000.0 0.704 0.3707
5634000000.0 0.785 -0.2909
5638000000.0 0.2313 -0.7799
5641000000.0 -0.4539 -0.6836
5644000000.0 -0.8397 -0.05305
5647000000.0 -0.5827 0.6063
5650000000.0 0.1308 0.8397
5653000000.0 0.7502 0.4287
5656000000.0 0.8001 -0.3338
5659000000.0 0.277 -0.8745
5662000000.0 -0.4969 -0.7518
5666000000.0 -0.9252 -0.09392
5669000000.0 -0.6139 0.6654
5672000000.0 0.1164 0.9412
5675000000.0 0.805 0.5125
5678000000.0 0.9085 -0.3434
5681000000.0 0.328 -0.9351
5684000000.0 -0.548 -0.8353
5688000000.0 -0.9932 -0.1259
5691000000.0 -0.7654 0.7227
5694000000.0 0.07501 1.066
5697000000.0 0.8539 0.6127
5700000000.0 1.016 -0.2354
5703000000.0 0.4455 -0.9914
5706000000.0 -0.4932 -0.9571
5709000000.0 -1.096 -0.2377
5712000000.0 -0.8729 0.6566
5716000000.0 -0.01977 1.088
5719000000.0 0.8421 0.7293
5722000000.0 1.097 -0.2098
5725000000.0 0.5419 -0.9382
5728000000.0 -0.4116 -1.015
5731000000.0 -1.058 -0.3977
5734000000.0 -0.9595 0.6299
5738000000.0 -0.1494 1.112
5741000000.0 0.7714 0.8372
5744000000.0 1.127 -0.06304
5747000000.0 0.6553 -0.8967
5750000000.0 -0.2553 -1.086
5753000000.0 -0.9735 -0.4978
5756000000.0 -1.086 0.4572
5759000000.0 -0.2723 1.079
5762000000.0 0.6586 0.8845
5766000000.0 1.087 0.08887
5769000000.0 0.7147 -0.7959
5772000000.0 -0.1749 -1.089
5775000000.0 -0.948 -0.5674
5778000000.0 -0.9981 0.3425
5781000000.0 -0.3682 1.003
5784000000.0 0.5561 0.8946
5788000000.0 0.9958 0.152
5791000000.0 0.7576 -0.7151
5794000000.0 -0.09265 -1.026
5797000000.0 -0.8258 -0.5967
5800000000.0 -0.953 0.2825
5803000000.0 -0.3553 0.9347
5806000000.0 0.4868 0.8894
5809000000.0 0.966 0.1714
5812000000.0 0.7361 -0.6355
5816000000.0 -0.05373 -0.9641
5819000000.0 -0.7672 -0.5449
5822000000.0 -0.9317 0.2656
5825000000.0 -0.3562 0.8584
5828000000.0 0.4491 0.7913
5831000000.0 0.9087 0.1496
5834000000.0 0.678 -0.6245
5838000000.0 -0.07293 -0.9209
5841000000.0 -0.7009 -0.4759
5844000000.0 -0.8684 0.2673
5847000000.0 -0.3094 0.8746
5850000000.0 0.4666 0.7376
5853000000.0 0.9032 0.1182
5856000000.0 0.6173 -0.6501
5859000000.0 -0.1197 -0.8673
5862000000.0 -0.7415 -0.4633
5866000000.0 -0.843 0.3082
5869000000.0 -0.2585 0.8319
5872000000.0 0.4535 0.7403
5875000000.0 0.8871 0.06799
5878000000.0 0.6225 -0.6218
5881000000.0 -0.1083 -0.8827
5884000000.0 -0.761 -0.463
5888000000.0 -0.8604 0.3023
5891000000.0 -0.3282 0.842
5894000000.0 0.4895 0.7746
5897000000.0 0.8948 0.1015
5900000000.0 0.656 -0.6331
5903000000.0 -0.05357 -0.9175
5906000000.0 -0.7573 -0.5195
5909000000.0 -0.9086 0.3068
5912000000.0 -0.3434 0.8755
5916000000.0 0.4263 0.8603
5919000000.0 0.9584 0.1815
5922000000.0 0.747 -0.5954
5925000000.0 -0.02149 -0.9469
5928000000.0 -0.7579 -0.6149
5931000000.0 -0.9631 0.2302
5934000000.0 -0.4774 0.8396
5938000000.0 0.3899 0.9029
5941000000.0 0.9799 0.2552
5944000000.0 0.8157 -0.5751
5947000000.0 0.04134 -0.9982
5950000000.0 -0.7264 -0.7084
5953000000.0 -0.9805 0.1804
5956000000.0 -0.5516 0.8816
5959000000.0 0.37 0.9373
5962000000.0 0.9662 0.2919
5966000000.0 0.855 -0.5886
5969000000.0 0.102 -1.012
5972000000.0 -0.7213 -0.7111
5975000000.0 -1.017 0.1519
5978000000.0 -0.528 0.8875
5981000000.0 0.3696 0.9165
5984000000.0 0.9575 0.3175
5988000000.0 0.8396 -0.5591
5991000000.0 0.0788 -0.9867
5994000000.0 -0.7525 -0.6788
5997000000.0 -0.936 0.18
6000000000.0 -0.4422 0.8624
6003000000.0 0.3874 0.8549
6006000000.0 0.8922 0.2179
6009000000.0 0.713 -0.5735
6012000000.0 0.001406 -0.8956
6016000000.0 -0.7149 -0.543
6019000000.0 -0.8494 0.2307
6022000000.0 -0.3191 0.7826
6025000000.0 0.4216 0.7263
6028000000.0 0.8114 0.1134
6031000000.0 0.6124 -0.5574
6034000000.0 -0.08524 -0.8273
6038000000.0 -0.7176 -0.4512
6041000000.0 -0.7896 0.2794
6044000000.0 -0.2605 0.7685
6047000000.0 0.468 0.7154
6050000000.0 0.8397 0.08175
6053000000.0 0.56 -0.5799
6056000000.0 -0.1131 -0.8264
6059000000.0 -0.7484 -0.4269
6062000000.0 -0.7922 0.3294
6066000000.0 -0.2141 0.8245
6069000000.0 0.5106 0.6783
6072000000.0 0.8823 0.0006128
6075000000.0 0.5814 -0.6838
6078000000.0 -0.1917 -0.8637
6081000000.0 -0.8101 -0.3972
6084000000.0 -0.8303 0.3901
6088000000.0 -0.2088 0.8991
6091000000.0 0.5944 0.7019
6094000000.0 0.9469 -0.03044
6097000000.0 0.5812 -0.7724
6100000000.0 -0.2544 -0.9251
6103000000.0 -0.8979 -0.3936
6106000000.0 -0.8657 0.4809
6109000000.0 -0.166 0.9789
6112000000.0 0.6983 0.7702
6116000000.0 1.034 -0.109
6119000000.0 0.5643 -0.886
6122000000.0 -0.3718 -0.9844
6125000000.0 -0.9909 -0.3227
6128000000.0 -0.8832 0.5802
6131000000.0 -0.1027 1.031
6134000000.0 0.778 0.7042
6138000000.0 1.012 -0.1825
6141000000.0 0.4559 -0.9523
6144000000.0 -0.4289 -0.9408
6147000000.0 -0.977 -0.233
6150000000.0 -0.7942 0.6368
6153000000.0 0.02358 1.01
6156000000.0 0.8211 0.5827
6159000000.0 0.9473 -0.2444
6162000000.0 0.3328 -0.8972
6166000000.0 -0.5001 -0.8138
6169000000.0 -0.9329 -0.08385
6172000000.0 -0.6566 0.6247
6175000000.0 0.1043 0.9123
6178000000.0 0.7941 0.4204
6181000000.0 0.8157 -0.3466
6184000000.0 0.2311 -0.8643
6188000000.0 -0.5295 -0.6839
6191000000.0 -0.8478 -0.005054
6194000000.0 -0.5292 0.6707
6197000000.0 0.2163 0.7954
6200000000.0 0.7623 0.3272
6203000000.0 0.7284 -0.4264
6206000000.0 0.123 -0.8005
6209000000.0 -0.5525 -0.5781
6212000000.0 -0.8161 0.1018
6216000000.0 -0.4213 0.701
6219000000.0 0.3076 0.757
6222000000.0 0.7946 0.1421
6225000000.0 0.6273 -0.4286
6228000000.0 0.0468 -0.8082
6231000000.0 -0.6313 -0.5244
6234000000.0 -0.8253 0.1998
6238000000.0 -0.3318 0.7704
6241000000.0 0.4196 0.7263
6244000000.0 0.8188 0.1344
6247000000.0 0.5478 -0.5743
6250000000.0 -0.1346 -0.7943
6253000000.0 -0.6984 -0.4093
6256000000.0 -0.7504 0.3028
6259000000.0 -0.2314 0.7699
6262000000.0 0.5097 0.6828
6266000000.0 0.83 0.01224
