! Created with skrf 1.8.0 (http://scikit-rf.org).
# Hz S RI R 50.0 
!freq ReS11 ImS11
4000000000.0 -0.1669 -1.502
4003000000.0 -1.257 -0.8295
4006000000.0 -1.405 0.4382
4009000000.0 -0.5082 1.4
4012000000.0 0.76 1.295
4016000000.0 1.509 0.2265
4019000000.0 1.187 -1.036
4022000000.0 -0.121 -1.557
4025000000.0 -1.305 -0.8772
4028000000.0 -1.526 0.4699
4031000000.0 -0.5667 1.53
4034000000.0 0.8 1.408
4038000000.0 1.617 0.2356
4041000000.0 1.184 -1.086
4044000000.0 -0.1333 -1.624
4047000000.0 -1.336 -0.9154
4050000000.0 -1.526 0.4566
4053000000.0 -0.6622 1.516
4056000000.0 0.7179 1.452
4059000000.0 1.575 0.3459
4062000000.0 1.282 -0.9521
4066000000.0 0.06178 -1.626
4069000000.0 -1.221 -1.077
4072000000.0 -1.59 0.2598
4075000000.0 -0.8106 1.412
4078000000.0 0.5502 1.557
4081000000.0 1.549 0.5381
4084000000.0 1.418 -0.8309
4088000000.0 0.2386 -1.664
4091000000.0 -1.099 -1.238
4094000000.0 -1.671 0.02962
4097000000.0 -0.9689 1.316
4100000000.0 0.342 1.585
4103000000.0 1.413 0.714
4106000000.0 1.439 -0.6425
4109000000.0 0.4775 -1.523
4112000000.0 -0.8008 -1.273
4116000000.0 -1.534 -0.1811
4119000000.0 -1.145 1.016
4122000000.0 0.03127 1.479
4125000000.0 1.154 0.962
4128000000.0 1.469 -0.255
4131000000.0 0.7721 -1.254
4134000000.0 -0.4084 -1.393
4138000000.0 -1.352 -0.5611
4141000000.0 -1.36 0.633
4144000000.0 -0.3753 1.443
4147000000.0 0.8849 1.255
4150000000.0 1.537 0.1621
4153000000.0 1.064 -1.058
4156000000.0 -0.1313 -1.506
4159000000.0 -1.227 -0.8997
4162000000.0 -1.482 0.3592
4166000000.0 -0.6816 1.355
4169000000.0 0.6035 1.37
4172000000.0 1.431 0.43
4175000000.0 1.271 -0.8066
4178000000.0 0.1465 -1.506
4181000000.0 -1.053 -1.09
4184000000.0 -1.494 0.07619
4188000000.0 -0.8733 1.236
4191000000.0 0.3614 1.487
4194000000.0 1.429 0.6912
4197000000.0 1.404 -0.6717
4200000000.0 0.3853 -1.537
4203000000.0 -0.9542 -1.255
4206000000.0 -1.62 -0.0434
4209000000.0 -1.024 1.232
4212000000.0 0.3548 1.624
4216000000.0 1.511 0.7708
4219000000.0 1.527 -0.7124
4222000000.0 0.3179 -1.673
4225000000.0 -1.12 -1.289
4228000000.0 -1.673 0.09163
4231000000.0 -0.9444 1.396
4234000000.0 0.5616 1.545
4238000000.0 1.584 0.5199
4241000000.0 1.37 -0.8985
4244000000.0 0.05962 -1.61
4247000000.0 -1.216 -1.079
4250000000.0 -1.567 0.344
4253000000.0 -0.6876 1.358
4256000000.0 0.6937 1.386
4259000000.0 1.506 0.3062
4262000000.0 1.186 -0.9798
4266000000.0 -0.06166 -1.503
4269000000.0 -1.253 -0.865
4272000000.0 -1.412 0.412
4275000000.0 -0.5418 1.38
4278000000.0 0.7816 1.23
4281000000.0 1.419 0.1909
4284000000.0 1.01 -0.9931
4288000000.0 -0.1467 -1.419
4291000000.0 -1.14 -0.7613
4294000000.0 -1.277 0.3712
4297000000.0 -0.4826 1.237
4300000000.0 0.6214 1.145
4303000000.0 1.263 0.2311
4306000000.0 1.014 -0.8539
4309000000.0 0.007608 -1.31
4312000000.0 -0.9753 -0.8427
4316000000.0 -1.26 0.1816
4319000000.0 -0.6609 1.114
4322000000.0 0.3918 1.238
4325000000.0 1.213 0.5103
4328000000.0 1.222 -0.6535
4331000000.0 0.3072 -1.329
4334000000.0 -0.8159 -1.119
4338000000.0 -1.383 -0.03478
4341000000.0 -0.9354 1.062
4344000000.0 0.1992 1.422
4347000000.0 1.212 0.7418
4350000000.0 1.375 -0.4802
4353000000.0 0.4727 -1.348
4356000000.0 -0.6929 -1.265
4359000000.0 -1.436 -0.2771
4362000000.0 -1.127 0.9649
4366000000.0 0.006147 1.492
4369000000.0 1.128 0.9431
4372000000.0 1.47 -0.291
4375000000.0 0.7203 -1.293
4378000000.0 -0.5332 -1.36
4381000000.0 -1.456 -0.5028
4384000000.0 -1.296 0.8258
4388000000.0 -0.1995 1.539
4391000000.0 1.107 1.116
4394000000.0 1.541 -0.1398
4397000000.0 0.86 -1.336
4400000000.0 -0.5008 -1.503
4403000000.0 -1.508 -0.5664
4406000000.0 -1.345 0.8294
4409000000.0 -0.2103 1.565
4412000000.0 1.119 1.087
4416000000.0 1.533 -0.1735
4419000000.0 0.7841 -1.311
4422000000.0 -0.5605 -1.417
4425000000.0 -1.425 -0.4487
4428000000.0 -1.222 0.8198
4431000000.0 -0.1091 1.437
4434000000.0 1.069 0.9837
4438000000.0 1.394 -0.236
4441000000.0 0.6766 -1.265
4444000000.0 -0.5658 -1.281
4447000000.0 -1.321 -0.3212
4450000000.0 -1.036 0.833
4453000000.0 -0.0007411 1.361
4456000000.0 1.024 0.8001
4459000000.0 1.24 -0.3558
4462000000.0 0.47 -1.16
4466000000.0 -0.6284 -1.085
4469000000.0 -1.218 -0.1854
4472000000.0 -0.8785 0.855
4475000000.0 0.1503 1.205
4478000000.0 1.028 0.6223
4481000000.0 1.074 -0.4152
4484000000.0 0.3469 -1.128
4488000000.0 -0.6428 -0.9251
4491000000.0 -1.142 -0.08574
4494000000.0 -0.77 0.8622
4497000000.0 0.2003 1.112
4500000000.0 0.9748 0.5768
4503000000.0 1.008 -0.3901
4506000000.0 0.3336 -1.038
4509000000.0 -0.5937 -0.9084
4512000000.0 -1.097 -0.09823
4516000000.0 -0.7769 0.8119
4519000000.0 0.09809 1.146
4522000000.0 0.9484 0.6258
4525000000.0 1.089 -0.3585
4528000000.0 0.4009 -1.062
4531000000.0 -0.5785 -1.007
4534000000.0 -1.149 -0.2089
4538000000.0 -0.9064 0.7477
4541000000.0 0.02899 1.189
4544000000.0 0.9092 0.6996
4547000000.0 1.165 -0.262
4550000000.0 0.5832 -1.054
4553000000.0 -0.4395 -1.116
4556000000.0 -1.154 -0.3738
4559000000.0 -1.051 0.6521
4562000000.0 -0.1512 1.225
4566000000.0 0.8315 0.9443
4569000000.0 1.237 -0.05303
4572000000.0 0.7849 -1.003
4575000000.0 -0.2671 -1.272
4578000000.0 -1.15 -0.5813
4581000000.0 -1.248 0.5127
4584000000.0 -0.408 1.267
4588000000.0 0.7501 1.141
4591000000.0 1.366 0.1317
4594000000.0 0.9915 -0.9468
4597000000.0 -0.08298 -1.335
4600000000.0 -1.139 -0.8118
4603000000.0 -1.356 0.3627
4606000000.0 -0.5635 1.267
4609000000.0 0.5993 1.247
4612000000.0 1.373 0.2963
4616000000.0 1.104 -0.8705
4619000000.0 0.04281 -1.39
4622000000.0 -1.057 -0.9135
4625000000.0 -1.331 0.2502
4628000000.0 -0.6878 1.202
4631000000.0 0.507 1.281
4634000000.0 1.334 0.4085
4638000000.0 1.131 -0.7609
4641000000.0 0.1134 -1.352
4644000000.0 -0.9949 -0.9363
4647000000.0 -1.341 0.2077
4650000000.0 -0.6676 1.152
4653000000.0 0.4456 1.206
4656000000.0 1.211 0.4073
4659000000.0 1.07 -0.7291
4662000000.0 0.09415 -1.269
4666000000.0 -0.9107 -0.8227
4669000000.0 -1.218 0.2107
4672000000.0 -0.597 1.052
4675000000.0 0.4484 1.135
4678000000.0 1.12 0.3283
4681000000.0 0.9438 -0.6725
4684000000.0 0.06339 -1.124
4688000000.0 -0.8259 -0.7443
4691000000.0 -1.122 0.1749
4694000000.0 -0.5325 0.9734
4697000000.0 0.4417 1.03
4700000000.0 1.06 0.3254
4703000000.0 0.8983 -0.65
4706000000.0 0.04982 -1.076
4709000000.0 -0.8415 -0.7107
4712000000.0 -1.074 0.2089
4716000000.0 -0.5119 0.9301
4719000000.0 0.4577 0.9596
4722000000.0 1.03 0.2886
4725000000.0 0.8424 -0.6344
4728000000.0 0.06183 -1.03
4731000000.0 -0.7945 -0.6978
4734000000.0 -1.024 0.1607
4738000000.0 -0.5075 0.8696
4741000000.0 0.3767 0.9822
4744000000.0 1.004 0.3379
4747000000.0 0.9041 -0.5594
4750000000.0 0.1502 -1.071
4753000000.0 -0.7154 -0.7917
4756000000.0 -1.068 0.02993
4759000000.0 -0.6578 0.8875
4762000000.0 0.2173 1.095
4766000000.0 0.9922 0.5202
4769000000.0 1.054 -0.4548
4772000000.0 0.3277 -1.1
4775000000.0 -0.6274 -1.005
4778000000.0 -1.154 -0.1481
4781000000.0 -0.895 0.8048
4784000000.0 0.07495 1.229
4788000000.0 0.9306 0.7199
4791000000.0 1.186 -0.2768
4794000000.0 0.598 -1.099
4797000000.0 -0.4588 -1.145
4800000000.0 -1.19 -0.4065
4803000000.0 -1.049 0.6546
4806000000.0 -0.171 1.226
4809000000.0 0.8292 0.9698
4812000000.0 1.279 -0.01753
4816000000.0 0.8189 -1.039
4819000000.0 -0.2643 -1.284
4822000000.0 -1.177 -0.663
4825000000.0 -1.262 0.4926
4828000000.0 -0.3919 1.304
4831000000.0 0.7478 1.151
4834000000.0 1.398 0.1525
4838000000.0 0.985 -0.9664
4841000000.0 -0.1287 -1.377
4844000000.0 -1.183 -0.7833
4847000000.0 -1.315 0.4198
4850000000.0 -0.5063 1.303
4853000000.0 0.6607 1.234
4856000000.0 1.358 0.2798
4859000000.0 1.071 -0.879
4862000000.0 -0.007145 -1.347
4866000000.0 -1.055 -0.8364
4869000000.0 -1.318 0.2843
4872000000.0 -0.5902 1.163
4875000000.0 0.5291 1.204
4878000000.0 1.281 0.3351
4881000000.0 1.053 -0.7715
4884000000.0 0.05536 -1.263
4888000000.0 -0.9338 -0.8315
4891000000.0 -1.219 0.1958
4894000000.0 -0.5742 1.044
4897000000.0 0.4473 1.081
4900000000.0 1.079 0.3062
4903000000.0 0.9132 -0.6317
4906000000.0 0.1042 -1.095
4909000000.0 -0.7729 -0.7525
4912000000.0 -1.045 0.1316
4916000000.0 -0.5559 0.8561
4919000000.0 0.3372 0.9646
4922000000.0 0.93 0.3564
4925000000.0 0.85 -0.522
4928000000.0 0.1284 -0.9657
4931000000.0 -0.6489 -0.7381
4934000000.0 -0.9304 0.04085
4938000000.0 -0.5455 0.7598
4941000000.0 0.2239 0.9287
4944000000.0 0.8432 0.4115
4947000000.0 0.8413 -0.4127
4950000000.0 0.2528 -0.9215
4953000000.0 -0.5756 -0.7855
4956000000.0 -0.9539 -0.04367
4959000000.0 -0.6514 0.7185
4962000000.0 0.1524 0.9554
4966000000.0 0.8665 0.4939
4969000000.0 0.8998 -0.3373
4972000000.0 0.3061 -0.9784
4975000000.0 -0.5547 -0.8581
4978000000.0 -0.9956 -0.1229
4981000000.0 -0.7579 0.7169
4984000000.0 0.05256 1.023
4988000000.0 0.844 0.6132
4991000000.0 1.025 -0.2577
4994000000.0 0.4757 -0.9479
4997000000.0 -0.4759 -1.019
5000000000.0 -1.078 -0.2562
5003000000.0 -0.914 0.6533
5006000000.0 -0.08591 1.146
5009000000.0 0.8405 0.8118
5012000000.0 1.19 -0.1473
5016000000.0 0.6678 -1.021
5019000000.0 -0.3878 -1.166
5022000000.0 -1.166 -0.4946
5025000000.0 -1.12 0.5867
5028000000.0 -0.2432 1.243
5031000000.0 0.8391 0.991
5034000000.0 1.264 0.01125
5038000000.0 0.8235 -0.9937
5041000000.0 -0.2347 -1.278
5044000000.0 -1.139 -0.6404
5047000000.0 -1.22 0.4583
5050000000.0 -0.4497 1.229
5053000000.0 0.6576 1.116
5056000000.0 1.32 0.203
5059000000.0 0.985 -0.8567
5062000000.0 -0.01408 -1.308
5066000000.0 -0.9884 -0.8019
5069000000.0 -1.261 0.2657
5072000000.0 -0.5762 1.132
5075000000.0 0.4927 1.196
5078000000.0 1.19 0.3849
5081000000.0 1.07 -0.6722
5084000000.0 0.1084 -1.239
5088000000.0 -0.8422 -0.8978
5091000000.0 -1.23 0.09074
5094000000.0 -0.7078 0.9518
5097000000.0 0.3076 1.146
5100000000.0 1.05 0.4895
5103000000.0 1.077 -0.4645
5106000000.0 0.2829 -1.073
5109000000.0 -0.6303 -0.9253
5112000000.0 -1.096 -0.1287
5116000000.0 -0.8088 0.7254
5119000000.0 0.07921 1.017
5122000000.0 0.823 0.6468
5125000000.0 1.016 -0.2252
5128000000.0 0.4549 -0.953
5131000000.0 -0.4443 -0.9059
5134000000.0 -0.963 -0.2663
5138000000.0 -0.8055 0.573
5141000000.0 -0.07858 1.019
5144000000.0 0.6863 0.6516
5147000000.0 0.9502 -0.1164
5150000000.0 0.4935 -0.7857
5153000000.0 -0.312 -0.8986
5156000000.0 -0.8672 -0.3219
5159000000.0 -0.7869 0.4546
5162000000.0 -0.1424 0.922
5166000000.0 0.6167 0.6683
5169000000.0 0.9515 -0.03882
5172000000.0 0.5165 -0.715
5175000000.0 -0.2057 -0.8702
5178000000.0 -0.8662 -0.3713
5181000000.0 -0.8009 0.4207
5184000000.0 -0.2067 0.8761
5188000000.0 0.609 0.6958
5191000000.0 0.9316 -0.0443
5194000000.0 0.5775 -0.7481
5197000000.0 -0.2094 -0.9096
5200000000.0 -0.8684 -0.4164
5203000000.0 -0.8516 0.4132
5206000000.0 -0.2048 0.9308
5209000000.0 0.5987 0.7379
5212000000.0 0.9501 0.003218
5216000000.0 0.6419 -0.7302
5219000000.0 -0.2117 -0.9523
5222000000.0 -0.9072 -0.4525
5225000000.0 -0.9186 0.3798
5228000000.0 -0.276 0.9779
5231000000.0 0.5991 0.8342
5234000000.0 1.04 0.06478
5238000000.0 0.7108 -0.7634
5241000000.0 -0.1422 -1.034
5244000000.0 -0.8868 -0.5894
5247000000.0 -1.001 0.3203
5250000000.0 -0.4021 1.01
5253000000.0 0.5281 0.9482
5256000000.0 1.074 0.211
5259000000.0 0.8543 -0.6986
5262000000.0 0.01226 -1.08
5266000000.0 -0.837 -0.7133
5269000000.0 -1.088 0.1742
5272000000.0 -0.5643 0.9481
5275000000.0 0.3338 1.053
5278000000.0 1.014 0.3715
5281000000.0 1.001 -0.4953
5284000000.0 0.2218 -1.075
5288000000.0 -0.6678 -0.8865
5291000000.0 -1.128 -0.05088
5294000000.0 -0.7765 0.7945
5297000000.0 0.1276 1.095
5300000000.0 0.9398 0.6084
5303000000.0 1.075 -0.3229
5306000000.0 0.4796 -1.016
5309000000.0 -0.4921 -1.035
5312000000.0 -1.109 -0.2753
5316000000.0 -0.9509 0.6677
5319000000.0 -0.1227 1.152
5322000000.0 0.8044 0.818
5325000000.0 1.138 -0.0925
5328000000.0 0.6244 -0.9539
5331000000.0 -0.3109 -1.09
5334000000.0 -1.051 -0.497
5338000000.0 -1.03 0.4876
5341000000.0 -0.2707 1.101
5344000000.0 0.6956 0.8683
5347000000.0 1.129 0.04899
5350000000.0 0.772 -0.8258
5353000000.0 -0.1706 -1.101
5356000000.0 -0.9653 -0.5713
5359000000.0 -1.009 0.3813
5362000000.0 -0.3445 1.026
5366000000.0 0.5855 0.9047
5369000000.0 1.083 0.137
5372000000.0 0.7652 -0.7382
5375000000.0 -0.1135 -1.053
5378000000.0 -0.8572 -0.5725
5381000000.0 -0.9557 0.3318
5384000000.0 -0.3278 0.9328
5388000000.0 0.5115 0.8235
5391000000.0 0.9756 0.1027
5394000000.0 0.6792 -0.669
5397000000.0 -0.1175 -0.9203
5400000000.0 -0.7716 -0.5109
5403000000.0 -0.8611 0.29
5406000000.0 -0.2796 0.8498
5409000000.0 0.4772 0.7487
5412000000.0 0.876 0.07829
5416000000.0 0.5856 -0.6164
5419000000.0 -0.09853 -0.8304
5422000000.0 -0.7515 -0.4434
5425000000.0 -0.8238 0.321
5428000000.0 -0.2754 0.8312
5431000000.0 0.4753 0.7113
5434000000.0 0.8636 0.06732
5438000000.0 0.6187 -0.6356
5441000000.0 -0.1223 -0.8655
5444000000.0 -0.747 -0.4504
5447000000.0 -0.8422 0.3107
5450000000.0 -0.2793 0.8331
5453000000.0 0.4747 0.7491
5456000000.0 0.8959 0.08728
5459000000.0 0.6477 -0.6205
5462000000.0 -0.05213 -0.9031
5466000000.0 -0.7319 -0.5258
5469000000.0 -0.877 0.233
5472000000.0 -0.3775 0.8243
5475000000.0 0.4005 0.8154
5478000000.0 0.8826 0.2216
5481000000.0 0.7622 -0.5279
5484000000.0 0.08729 -0.9368
5488000000.0 -0.6821 -0.6808
5491000000.0 -0.9818 0.108
5494000000.0 -0.5488 0.8315
5497000000.0 0.2753 0.9875
5500000000.0 0.903 0.3691
5503000000.0 0.9197 -0.4168
5506000000.0 0.2246 -1.006
5509000000.0 -0.5709 -0.8106
5512000000.0 -0.9929 -0.06422
5516000000.0 -0.7289 0.7973
5519000000.0 0.1092 1.01
5522000000.0 0.8327 0.5756
5525000000.0 1.012 -0.291
5528000000.0 0.4223 -0.9567
5531000000.0 -0.456 -0.9632
5534000000.0 -1.001 -0.2796
5538000000.0 -0.8682 0.6212
5541000000.0 -0.1242 1.065
5544000000.0 0.7795 0.7341
5547000000.0 1.074 -0.09939
5550000000.0 0.6209 -0.8739
5553000000.0 -0.2691 -1.033
5556000000.0 -0.9374 -0.445
5559000000.0 -0.9845 0.4889
5562000000.0 -0.2423 1.028
5566000000.0 0.6247 0.8675
5569000000.0 1.012 0.06738
5572000000.0 0.6723 -0.7567
5575000000.0 -0.1473 -0.9998
5578000000.0 -0.8624 -0.5407
5581000000.0 -0.9472 0.3007
5584000000.0 -0.3722 0.9058
5588000000.0 0.4631 0.871
5591000000.0 0.9367 0.1376
5594000000.0 0.7243 -0.6317
5597000000.0 -0.02556 -0.9415
5600000000.0 -0.7462 -0.5743
5603000000.0 -0.8683 0.1844
5606000000.0 -0.4139 0.8099
5609000000.0 0.3896 0.8308
5612000000.0 0.8556 0.2383
5616000000.0 0.7219 -0.514
5619000000.0 0.07441 -0.8797
5622000000.0 -0.6346 -0.5936
5625000000.0 -0.8379 0.1373
5628000000.0 -0.424 0.7351
5631000000.0 0.3037 0.7931
5634000000.0 0.805 0.2479
5638000000.0 0.7074 -0.4339
5641000000.0 0.09199 -0.8403
5644000000.0 -0.598 -0.5906
5647000000.0 -0.8281 0.1138
5650000000.0 -0.4195 0.7286
5653000000.0 0.2919 0.8027
5656000000.0 0.8235 0.2673
5659000000.0 0.7266 -0.4697
5662000000.0 0.09414 -0.8602
5666000000.0 -0.6234 -0.6223
5669000000.0 -0.8769 0.1187
5672000000.0 -0.4838 0.7586
5675000000.0 0.3125 0.862
5678000000.0 0.861 0.2898
5681000000.0 0.7758 -0.5033
5684000000.0 0.1027 -0.9363
5688000000.0 -0.6612 -0.6774
5691000000.0 -0.9434 0.06951
5694000000.0 -0.5488 0.793
5697000000.0 0.2958 0.9384
5700000000.0 0.9129 0.3498
5703000000.0 0.8772 -0.4781
5706000000.0 0.1894 -0.9732
5709000000.0 -0.6669 -0.7756
5712000000.0 -1.03 0.03901
5716000000.0 -0.6224 0.8347
5719000000.0 0.2674 0.9975
5722000000.0 0.9363 0.4711
5725000000.0 0.9596 -0.4044
5728000000.0 0.2757 -1.022
5731000000.0 -0.5913 -0.9169
5734000000.0 -1.086 -0.1028
5738000000.0 -0.7771 0.7824
5741000000.0 0.06108 1.092
5744000000.0 0.8944 0.6374
5747000000.0 1.059 -0.309
5750000000.0 0.4689 -1.005
5753000000.0 -0.5084 -1.012
5756000000.0 -1.078 -0.276
5759000000.0 -0.9244 0.6433
5762000000.0 -0.09663 1.095
5766000000.0 0.7907 0.8047
5769000000.0 1.089 -0.1229
5772000000.0 0.5968 -0.9206
5775000000.0 -0.3167 -1.066
5778000000.0 -1.015 -0.4577
5781000000.0 -0.9727 0.5124
5784000000.0 -0.2783 1.075
5788000000.0 0.6481 0.8569
5791000000.0 1.087 0.09171
5794000000.0 0.7208 -0.8076
5797000000.0 -0.1358 -1.101
5800000000.0 -0.9064 -0.5844
5803000000.0 -1.024 0.3205
5806000000.0 -0.3766 0.9805
5809000000.0 0.5153 0.9063
5812000000.0 1.006 0.1901
5816000000.0 0.7953 -0.6573
5819000000.0 -0.03529 -1.061
5822000000.0 -0.8109 -0.6119
5825000000.0 -0.9932 0.2633
5828000000.0 -0.4587 0.9004
5831000000.0 0.4107 0.9417
5834000000.0 0.9336 0.3015
5838000000.0 0.8152 -0.5741
5841000000.0 0.08172 -0.9604
5844000000.0 -0.7001 -0.6165
5847000000.0 -0.9705 0.1649
5850000000.0 -0.519 0.8041
5853000000.0 0.3506 0.8841
5856000000.0 0.8992 0.3229
5859000000.0 0.7532 -0.5379
5862000000.0 0.1094 -0.912
5866000000.0 -0.6591 -0.6663
5869000000.0 -0.9012 0.07748
5872000000.0 -0.5171 0.7585
5875000000.0 0.308 0.8663
5878000000.0 0.8324 0.3029
5881000000.0 0.7244 -0.4473
5884000000.0 0.1474 -0.8957
5888000000.0 -0.5788 -0.639
5891000000.0 -0.8689 0.06359
5894000000.0 -0.4986 0.6959
5897000000.0 0.2618 0.8317
5900000000.0 0.8026 0.3345
5903000000.0 0.7553 -0.4131
5906000000.0 0.1716 -0.8101
5909000000.0 -0.5503 -0.666
5912000000.0 -0.8738 0.001989
5916000000.0 -0.5504 0.6724
5919000000.0 0.1876 0.8451
5922000000.0 0.7752 0.4069
5925000000.0 0.8333 -0.3262
5928000000.0 0.2575 -0.853
5931000000.0 -0.4987 -0.7269
5934000000.0 -0.8889 -0.08137
5938000000.0 -0.6265 0.6344
5941000000.0 0.06404 0.866
5944000000.0 0.6956 0.5138
5947000000.0 0.8845 -0.2463
5950000000.0 0.377 -0.8092
5953000000.0 -0.388 -0.8518
5956000000.0 -0.9232 -0.2405
5959000000.0 -0.7461 0.5333
5962000000.0 -0.05026 0.9233
5966000000.0 0.6589 0.6422
5969000000.0 0.9187 -0.1092
5972000000.0 0.5328 -0.7841
5975000000.0 -0.2548 -0.9278
5978000000.0 -0.8822 -0.387
5981000000.0 -0.8654 0.4341
5984000000.0 -0.216 0.9422
5988000000.0 0.5858 0.7967
5991000000.0 0.9897 0.03635
5994000000.0 0.6561 -0.7297
5997000000.0 -0.1159 -1.003
6000000000.0 -0.8559 -0.5513
6003000000.0 -0.9504 0.309
6006000000.0 -0.3759 0.9559
6009000000.0 0.5059 0.8826
6012000000.0 0.9905 0.1998
6016000000.0 0.7495 -0.6391
6019000000.0 -0.01019 -1.004
6022000000.0 -0.766 -0.6086
6025000000.0 -0.9815 0.2061
6028000000.0 -0.443 0.8718
6031000000.0 0.4065 0.8815
6034000000.0 0.9286 0.28
6038000000.0 0.8043 -0.5701
6041000000.0 0.06076 -0.9569
6044000000.0 -0.6913 -0.6528
6047000000.0 -0.9477 0.103
6050000000.0 -0.4871 0.8098
6053000000.0 0.326 0.9002
6056000000.0 0.8678 0.2948
6059000000.0 0.8327 -0.4787
6062000000.0 0.1166 -0.9122
6066000000.0 -0.6418 -0.6531
6069000000.0 -0.9103 0.08289
6072000000.0 -0.4746 0.7491
6075000000.0 0.2667 0.8757
6078000000.0 0.8187 0.3629
6081000000.0 0.7762 -0.4109
6084000000.0 0.1578 -0.8454
6088000000.0 -0.5532 -0.6602
6091000000.0 -0.8818 0.05216
6094000000.0 -0.5292 0.6961
6097000000.0 0.2014 0.8393
6100000000.0 0.788 0.3675
6103000000.0 0.7513 -0.3684
6106000000.0 0.2251 -0.8413
6109000000.0 -0.5461 -0.6587
6112000000.0 -0.8614 -0.0139
6116000000.0 -0.5416 0.6757
6119000000.0 0.1537 0.8497
6122000000.0 0.7859 0.4044
6125000000.0 0.7928 -0.3475
6128000000.0 0.2228 -0.841
6131000000.0 -0.5141 -0.7142
6134000000.0 -0.8562 -0.05038
6138000000.0 -0.6055 0.6689
6141000000.0 0.1061 0.9099
6144000000.0 0.7475 0.4463
6147000000.0 0.8486 -0.269
6150000000.0 0.3145 -0.8605
6153000000.0 -0.4631 -0.7697
6156000000.0 -0.8895 -0.1504
6159000000.0 -0.6683 0.637
6162000000.0 0.03849 0.894
6166000000.0 0.739 0.5554
6169000000.0 0.8932 -0.2592
6172000000.0 0.3616 -0.8248
6175000000.0 -0.4125 -0.8359
6178000000.0 -0.928 -0.2319
6181000000.0 -0.735 0.5732
6184000000.0 -0.002737 0.9411
6188000000.0 0.7098 0.6137
6191000000.0 0.9458 -0.1529
6194000000.0 0.4376 -0.841
6197000000.0 -0.3162 -0.8872
6200000000.0 -0.889 -0.2773
6203000000.0 -0.7995 0.5171
6206000000.0 -0.1235 0.918
6209000000.0 0.6266 0.65
6212000000.0 0.9079 -0.0218
6216000000.0 0.521 -0.7573
6219000000.0 -0.2227 -0.8956
6222000000.0 -0.8381 -0.4191
6225000000.0 -0.8392 0.3818
6228000000.0 -0.2553 0.8666
6231000000.0 0.5237 0.7406
6234000000.0 0.9234 0.03539
6238000000.0 0.5772 -0.6347
6241000000.0 -0.1304 -0.8502
6244000000.0 -0.7422 -0.4559
6247000000.0 -0.8092 0.2789
6250000000.0 -0.3429 0.7775
6253000000.0 0.3944 0.7518
6256000000.0 0.8134 0.1902
6259000000.0 0.6576 -0.518
6262000000.0 0.05399 -0.813
6266000000.0 -0.6122 -0.5538
6269000000.0 -0.7921 0.1098
