! Created with skrf 1.8.0 (http://scikit-rf.org).
# Hz S RI R 50.0 
!freq ReS11 ImS11
4000000000.0 -0.1606 -1.49
4003000000.0 -1.286 -0.7952
4006000000.0 -1.427 0.4714
4009000000.0 -0.508 1.438
4012000000.0 0.8235 1.365
4016000000.0 1.496 0.1936
4019000000.0 1.141 -1.085
4022000000.0 -0.1533 -1.561
4025000000.0 -1.291 -0.9425
4028000000.0 -1.488 0.4385
4031000000.0 -0.586 1.541
4034000000.0 0.8475 1.394
4038000000.0 1.616 0.2796
4041000000.0 1.23 -1.134
4044000000.0 -0.1048 -1.635
4047000000.0 -1.349 -0.9344
4050000000.0 -1.56 0.4414
4053000000.0 -0.648 1.498
4056000000.0 0.7891 1.487
4059000000.0 1.604 0.3473
4062000000.0 1.311 -1.031
4066000000.0 0.04599 -1.677
4069000000.0 -1.25 -1.078
4072000000.0 -1.614 0.2463
4075000000.0 -0.8552 1.446
4078000000.0 0.5516 1.523
4081000000.0 1.584 0.5183
4084000000.0 1.427 -0.8799
4088000000.0 0.2365 -1.629
4091000000.0 -1.058 -1.235
4094000000.0 -1.619 0.04885
4097000000.0 -1.027 1.32
4100000000.0 0.4176 1.562
4103000000.0 1.466 0.7227
4106000000.0 1.457 -0.6042
4109000000.0 0.4203 -1.498
4112000000.0 -0.8396 -1.294
4116000000.0 -1.504 -0.2137
4119000000.0 -1.135 0.9864
4122000000.0 0.01538 1.473
4125000000.0 1.143 0.9497
4128000000.0 1.459 -0.2283
4131000000.0 0.821 -1.266
4134000000.0 -0.4464 -1.414
4138000000.0 -1.403 -0.6343
4141000000.0 -1.356 0.658
4144000000.0 -0.3845 1.448
4147000000.0 0.8406 1.262
4150000000.0 1.537 0.1456
4153000000.0 1.091 -1.099
4156000000.0 -0.1144 -1.505
4159000000.0 -1.242 -0.9069
4162000000.0 -1.461 0.3874
4166000000.0 -0.6774 1.344
4169000000.0 0.6279 1.386
4172000000.0 1.45 0.4353
4175000000.0 1.279 -0.837
4178000000.0 0.1929 -1.543
4181000000.0 -1.04 -1.088
4184000000.0 -1.532 0.09128
4188000000.0 -0.9241 1.23
4191000000.0 0.365 1.503
4194000000.0 1.41 0.6993
4197000000.0 1.404 -0.6336
4200000000.0 0.4118 -1.537
4203000000.0 -0.9695 -1.298
4206000000.0 -1.603 -0.08429
4209000000.0 -1.054 1.265
4212000000.0 0.3355 1.642
4216000000.0 1.503 0.75
4219000000.0 1.576 -0.7593
4222000000.0 0.3337 -1.704
4225000000.0 -1.086 -1.338
4228000000.0 -1.705 0.1206
4231000000.0 -0.984 1.407
4234000000.0 0.5193 1.588
4238000000.0 1.582 0.5138
4241000000.0 1.357 -0.9079
4244000000.0 0.1234 -1.617
4247000000.0 -1.228 -1.105
4250000000.0 -1.587 0.2929
4253000000.0 -0.7124 1.395
4256000000.0 0.6808 1.381
4259000000.0 1.503 0.3531
4262000000.0 1.18 -1.004
4266000000.0 -0.09379 -1.517
4269000000.0 -1.266 -0.871
4272000000.0 -1.442 0.4398
4275000000.0 -0.5065 1.376
4278000000.0 0.7909 1.275
4281000000.0 1.45 0.2106
4284000000.0 1.029 -0.9817
4288000000.0 -0.1707 -1.435
4291000000.0 -1.149 -0.7462
4294000000.0 -1.308 0.4597
4297000000.0 -0.4913 1.262
4300000000.0 0.6541 1.149
4303000000.0 1.309 0.2832
4306000000.0 1.035 -0.8244
4309000000.0 0.04039 -1.299
4312000000.0 -0.9935 -0.8435
4316000000.0 -1.29 0.2081
4319000000.0 -0.6951 1.128
4322000000.0 0.3823 1.262
4325000000.0 1.251 0.5343
4328000000.0 1.182 -0.6126
4331000000.0 0.2637 -1.31
4334000000.0 -0.8385 -1.093
4338000000.0 -1.411 -0.07023
4341000000.0 -0.9418 1.039
4344000000.0 0.1971 1.405
4347000000.0 1.237 0.7509
4350000000.0 1.374 -0.454
4353000000.0 0.5184 -1.344
4356000000.0 -0.7231 -1.224
4359000000.0 -1.442 -0.2482
4362000000.0 -1.148 0.8969
4366000000.0 0.01104 1.481
4369000000.0 1.16 0.9229
4372000000.0 1.468 -0.2813
4375000000.0 0.725 -1.279
4378000000.0 -0.5247 -1.377
4381000000.0 -1.486 -0.495
4384000000.0 -1.28 0.7788
4388000000.0 -0.1876 1.567
4391000000.0 1.082 1.135
4394000000.0 1.569 -0.1421
4397000000.0 0.8709 -1.367
4400000000.0 -0.4671 -1.548
4403000000.0 -1.5 -0.5984
4406000000.0 -1.39 0.8219
4409000000.0 -0.2263 1.589
4412000000.0 1.098 1.148
4416000000.0 1.583 -0.1861
4419000000.0 0.815 -1.335
4422000000.0 -0.4958 -1.423
4425000000.0 -1.45 -0.4819
4428000000.0 -1.257 0.8408
4431000000.0 -0.06241 1.494
4434000000.0 1.064 0.9826
4438000000.0 1.414 -0.24
4441000000.0 0.6325 -1.273
4444000000.0 -0.5359 -1.287
4447000000.0 -1.293 -0.346
4450000000.0 -1.062 0.8181
4453000000.0 -0.009702 1.323
4456000000.0 1.056 0.7856
4459000000.0 1.266 -0.332
4462000000.0 0.4855 -1.179
4466000000.0 -0.5958 -1.127
4469000000.0 -1.241 -0.1995
4472000000.0 -0.8622 0.8446
4475000000.0 0.1368 1.172
4478000000.0 1.005 0.6414
4481000000.0 1.12 -0.4025
4484000000.0 0.345 -1.11
4488000000.0 -0.6617 -0.9469
4491000000.0 -1.166 -0.06597
4494000000.0 -0.7686 0.8436
4497000000.0 0.1841 1.149
4500000000.0 0.9939 0.5894
4503000000.0 1.023 -0.3956
4506000000.0 0.3294 -1.02
4509000000.0 -0.5814 -0.9234
4512000000.0 -1.127 -0.1223
4516000000.0 -0.7844 0.7986
4519000000.0 0.1397 1.103
4522000000.0 0.9485 0.6316
4525000000.0 1.096 -0.3442
4528000000.0 0.422 -1.052
4531000000.0 -0.5714 -1.003
4534000000.0 -1.156 -0.1737
4538000000.0 -0.9106 0.7504
4541000000.0 -0.002178 1.189
4544000000.0 0.9428 0.7675
4547000000.0 1.173 -0.2266
4550000000.0 0.5675 -1.075
4553000000.0 -0.4478 -1.136
4556000000.0 -1.165 -0.3737
4559000000.0 -1.049 0.6349
4562000000.0 -0.1928 1.236
4566000000.0 0.7961 0.946
4569000000.0 1.265 -0.03541
4572000000.0 0.8088 -1.013
4575000000.0 -0.2933 -1.277
4578000000.0 -1.155 -0.5885
4581000000.0 -1.249 0.5038
4584000000.0 -0.4037 1.257
4588000000.0 0.7219 1.15
4591000000.0 1.344 0.1777
4594000000.0 1.007 -0.9804
4597000000.0 -0.1006 -1.395
4600000000.0 -1.132 -0.8194
4603000000.0 -1.35 0.3783
4606000000.0 -0.5761 1.27
4609000000.0 0.6475 1.254
4612000000.0 1.389 0.3149
4616000000.0 1.098 -0.8764
4619000000.0 0.04204 -1.429
4622000000.0 -1.077 -0.8755
4625000000.0 -1.361 0.2799
4628000000.0 -0.6739 1.25
4631000000.0 0.5215 1.294
4634000000.0 1.34 0.3957
4638000000.0 1.157 -0.7618
4641000000.0 0.08244 -1.379
4644000000.0 -1.005 -0.9658
4647000000.0 -1.353 0.1837
4650000000.0 -0.6857 1.152
4653000000.0 0.4745 1.237
4656000000.0 1.269 0.3984
4659000000.0 1.062 -0.7342
4662000000.0 0.08786 -1.295
4666000000.0 -0.9156 -0.8715
4669000000.0 -1.202 0.188
4672000000.0 -0.5875 1.02
4675000000.0 0.4353 1.093
4678000000.0 1.149 0.3337
4681000000.0 0.9764 -0.6739
4684000000.0 0.05812 -1.131
4688000000.0 -0.8576 -0.747
4691000000.0 -1.152 0.1899
4694000000.0 -0.5318 0.9478
4697000000.0 0.4201 1.02
4700000000.0 1.057 0.3156
4703000000.0 0.8622 -0.6185
4706000000.0 0.04587 -1.09
4709000000.0 -0.8457 -0.7431
4712000000.0 -1.112 0.2209
4716000000.0 -0.4672 0.981
4719000000.0 0.4643 0.991
4722000000.0 1.042 0.2992
4725000000.0 0.8032 -0.6303
4728000000.0 0.04765 -1.069
4731000000.0 -0.7918 -0.7055
4734000000.0 -1.061 0.1524
4738000000.0 -0.5275 0.9072
4741000000.0 0.3495 0.9787
4744000000.0 0.9693 0.344
4747000000.0 0.9313 -0.5267
4750000000.0 0.1674 -1.077
4753000000.0 -0.7417 -0.8226
4756000000.0 -1.118 0.007583
4759000000.0 -0.674 0.8829
4762000000.0 0.24 1.097
4766000000.0 1.03 0.5516
4769000000.0 1.057 -0.4545
4772000000.0 0.3267 -1.12
4775000000.0 -0.6176 -0.9697
4778000000.0 -1.186 -0.1576
4781000000.0 -0.9159 0.8106
4784000000.0 0.05975 1.216
4788000000.0 0.9951 0.7152
4791000000.0 1.203 -0.2518
4794000000.0 0.5645 -1.124
4797000000.0 -0.4563 -1.153
4800000000.0 -1.195 -0.4142
4803000000.0 -1.06 0.6592
4806000000.0 -0.1814 1.243
4809000000.0 0.8398 0.9515
4812000000.0 1.284 -0.02635
4816000000.0 0.8008 -1.048
4819000000.0 -0.2874 -1.312
4822000000.0 -1.202 -0.6337
4825000000.0 -1.257 0.5403
4828000000.0 -0.4033 1.311
4831000000.0 0.7744 1.161
4834000000.0 1.378 0.1566
4838000000.0 0.9871 -0.9747
4841000000.0 -0.1278 -1.4
4844000000.0 -1.138 -0.7866
4847000000.0 -1.361 0.4137
4850000000.0 -0.5241 1.302
4853000000.0 0.6881 1.227
4856000000.0 1.373 0.2717
4859000000.0 1.061 -0.9052
4862000000.0 -0.02871 -1.371
4866000000.0 -1.088 -0.8644
4869000000.0 -1.32 0.28
4872000000.0 -0.5851 1.221
4875000000.0 0.537 1.208
4878000000.0 1.282 0.3514
4881000000.0 1.064 -0.7591
4884000000.0 0.1008 -1.284
4888000000.0 -0.9615 -0.7883
4891000000.0 -1.213 0.1835
4894000000.0 -0.5847 1.076
4897000000.0 0.4628 1.103
4900000000.0 1.087 0.3271
4903000000.0 0.9399 -0.6367
4906000000.0 0.08529 -1.089
4909000000.0 -0.8182 -0.7485
4912000000.0 -1.054 0.1227
4916000000.0 -0.5591 0.8805
4919000000.0 0.3161 0.9623
4922000000.0 0.956 0.3543
4925000000.0 0.838 -0.5256
4928000000.0 0.1464 -0.9515
4931000000.0 -0.6195 -0.7418
4934000000.0 -0.9385 0.03233
4938000000.0 -0.5956 0.7696
4941000000.0 0.2215 0.9157
4944000000.0 0.8607 0.4357
4947000000.0 0.85 -0.4229
4950000000.0 0.2512 -0.9257
4953000000.0 -0.5631 -0.7711
4956000000.0 -0.9419 -0.02814
4959000000.0 -0.6495 0.7301
4962000000.0 0.1537 0.9624
4966000000.0 0.8672 0.5334
4969000000.0 0.9326 -0.367
4972000000.0 0.3257 -0.9474
4975000000.0 -0.5226 -0.8544
4978000000.0 -1.004 -0.1585
4981000000.0 -0.7461 0.7105
4984000000.0 0.06012 1.022
4988000000.0 0.8915 0.6255
4991000000.0 1.045 -0.2456
4994000000.0 0.4687 -0.982
4997000000.0 -0.4557 -0.9896
5000000000.0 -1.084 -0.2786
5003000000.0 -0.9538 0.6754
5006000000.0 -0.08203 1.168
5009000000.0 0.8569 0.8285
5012000000.0 1.237 -0.1293
5016000000.0 0.678 -1.042
5019000000.0 -0.3974 -1.179
5022000000.0 -1.184 -0.4478
5025000000.0 -1.103 0.6161
5028000000.0 -0.2341 1.258
5031000000.0 0.8369 1.009
5034000000.0 1.302 -0.009182
5038000000.0 0.8375 -1.001
5041000000.0 -0.2346 -1.278
5044000000.0 -1.148 -0.6182
5047000000.0 -1.211 0.4887
5050000000.0 -0.4286 1.231
5053000000.0 0.6626 1.126
5056000000.0 1.271 0.2076
5059000000.0 1.009 -0.8692
5062000000.0 -0.03591 -1.309
5066000000.0 -1.04 -0.8225
5069000000.0 -1.3 0.2685
5072000000.0 -0.6084 1.165
5075000000.0 0.492 1.201
5078000000.0 1.224 0.3906
5081000000.0 1.059 -0.7114
5084000000.0 0.1398 -1.231
5088000000.0 -0.8356 -0.8784
5091000000.0 -1.243 0.07715
5094000000.0 -0.708 0.9796
5097000000.0 0.2964 1.142
5100000000.0 1.062 0.5322
5103000000.0 1.074 -0.4373
5106000000.0 0.3172 -1.079
5109000000.0 -0.6073 -0.9396
5112000000.0 -1.079 -0.1633
5116000000.0 -0.7948 0.7219
5119000000.0 0.07469 1.067
5122000000.0 0.8512 0.6413
5125000000.0 1.01 -0.2401
5128000000.0 0.4617 -0.9447
5131000000.0 -0.4126 -0.8963
5134000000.0 -0.9992 -0.2404
5138000000.0 -0.8436 0.558
5141000000.0 -0.09775 1.001
5144000000.0 0.7228 0.6553
5147000000.0 0.9603 -0.1191
5150000000.0 0.5108 -0.8418
5153000000.0 -0.3083 -0.8929
5156000000.0 -0.8802 -0.3096
5159000000.0 -0.7861 0.4593
5162000000.0 -0.1402 0.9092
5166000000.0 0.6035 0.6903
5169000000.0 0.8844 -0.03569
5172000000.0 0.542 -0.7366
5175000000.0 -0.2199 -0.9011
5178000000.0 -0.8372 -0.377
5181000000.0 -0.8394 0.3966
5184000000.0 -0.1996 0.8925
5188000000.0 0.5719 0.7237
5191000000.0 0.9305 -0.0242
5194000000.0 0.5556 -0.7374
5197000000.0 -0.24 -0.9013
5200000000.0 -0.8541 -0.4295
5203000000.0 -0.8199 0.4556
5206000000.0 -0.2142 0.9416
5209000000.0 0.6006 0.7745
5212000000.0 0.9685 0.01877
5216000000.0 0.6146 -0.7579
5219000000.0 -0.2053 -0.9511
5222000000.0 -0.8797 -0.4547
5225000000.0 -0.9039 0.4113
5228000000.0 -0.2675 0.9876
5231000000.0 0.579 0.8403
5234000000.0 1.048 0.0573
5238000000.0 0.7263 -0.7457
5241000000.0 -0.1196 -1.055
5244000000.0 -0.9045 -0.5651
5247000000.0 -1.006 0.3326
5250000000.0 -0.4181 1.026
5253000000.0 0.5155 0.9347
5256000000.0 1.083 0.2192
5259000000.0 0.854 -0.6824
5262000000.0 0.01699 -1.059
5266000000.0 -0.8227 -0.7217
5269000000.0 -1.08 0.1862
5272000000.0 -0.5587 0.9181
5275000000.0 0.3449 1.023
5278000000.0 1.025 0.3822
5281000000.0 0.9701 -0.5304
5284000000.0 0.237 -1.087
5288000000.0 -0.6767 -0.8841
5291000000.0 -1.124 -0.06461
5294000000.0 -0.751 0.8351
5297000000.0 0.1319 1.144
5300000000.0 0.954 0.6242
5303000000.0 1.078 -0.3174
5306000000.0 0.4812 -1.002
5309000000.0 -0.4604 -1.029
5312000000.0 -1.149 -0.3167
5316000000.0 -0.9837 0.6609
5319000000.0 -0.08346 1.133
5322000000.0 0.8224 0.8226
5325000000.0 1.146 -0.1383
5328000000.0 0.6366 -0.9728
5331000000.0 -0.2906 -1.088
5334000000.0 -1.038 -0.4717
5338000000.0 -1.045 0.4917
5341000000.0 -0.2686 1.12
5344000000.0 0.6703 0.9115
5347000000.0 1.102 0.07955
5350000000.0 0.7442 -0.8318
5353000000.0 -0.1481 -1.095
5356000000.0 -0.9612 -0.5698
5359000000.0 -1.046 0.3861
5362000000.0 -0.3467 1.039
5366000000.0 0.5541 0.8952
5369000000.0 1.072 0.139
5372000000.0 0.7723 -0.7606
5375000000.0 -0.07677 -1.066
5378000000.0 -0.8624 -0.5579
5381000000.0 -0.9824 0.3057
5384000000.0 -0.3289 0.9475
5388000000.0 0.511 0.8489
5391000000.0 0.9638 0.112
5394000000.0 0.6811 -0.701
5397000000.0 -0.1115 -0.9435
5400000000.0 -0.8022 -0.4798
5403000000.0 -0.8739 0.3249
5406000000.0 -0.3028 0.8541
5409000000.0 0.4608 0.7509
5412000000.0 0.8723 0.1044
5416000000.0 0.6028 -0.6498
5419000000.0 -0.07103 -0.8489
5422000000.0 -0.7502 -0.4569
5425000000.0 -0.8117 0.2706
5428000000.0 -0.2697 0.8485
5431000000.0 0.4947 0.7521
5434000000.0 0.8667 0.09883
5438000000.0 0.6009 -0.6377
5441000000.0 -0.1067 -0.8798
5444000000.0 -0.7553 -0.4647
5447000000.0 -0.8215 0.3201
5450000000.0 -0.2879 0.8404
5453000000.0 0.4668 0.7469
5456000000.0 0.8767 0.1348
5459000000.0 0.6433 -0.6466
5462000000.0 -0.05912 -0.893
5466000000.0 -0.7434 -0.514
5469000000.0 -0.9069 0.2626
5472000000.0 -0.3718 0.8735
5475000000.0 0.3934 0.8563
5478000000.0 0.8977 0.2768
5481000000.0 0.7777 -0.5606
5484000000.0 0.06769 -0.9524
5488000000.0 -0.6593 -0.6828
5491000000.0 -0.9895 0.1016
5494000000.0 -0.552 0.8631
5497000000.0 0.2354 0.955
5500000000.0 0.938 0.4053
5503000000.0 0.9119 -0.4661
5506000000.0 0.2387 -0.9773
5509000000.0 -0.6181 -0.8408
5512000000.0 -1.01 -0.07748
5516000000.0 -0.7436 0.7799
5519000000.0 0.1124 1.042
5522000000.0 0.8583 0.6106
5525000000.0 1.006 -0.2699
5528000000.0 0.4304 -0.9488
5531000000.0 -0.454 -0.9606
5534000000.0 -1.039 -0.2766
5538000000.0 -0.8643 0.5999
5541000000.0 -0.0916 1.099
5544000000.0 0.7608 0.7898
5547000000.0 1.059 -0.09478
5550000000.0 0.6608 -0.8963
5553000000.0 -0.2922 -1.046
5556000000.0 -0.9805 -0.4711
5559000000.0 -0.946 0.4692
5562000000.0 -0.2484 1.039
5566000000.0 0.6473 0.8445
5569000000.0 1.038 0.09712
5572000000.0 0.7275 -0.7407
5575000000.0 -0.1286 -1.05
5578000000.0 -0.8741 -0.5591
5581000000.0 -0.9607 0.3334
5584000000.0 -0.3507 0.9167
5588000000.0 0.4792 0.8704
5591000000.0 0.9404 0.2094
5594000000.0 0.7335 -0.633
5597000000.0 0.02314 -0.9791
5600000000.0 -0.7589 -0.5737
5603000000.0 -0.9341 0.1993
5606000000.0 -0.4073 0.8082
5609000000.0 0.3741 0.835
5612000000.0 0.8514 0.2223
5616000000.0 0.7504 -0.5175
5619000000.0 0.05553 -0.8836
5622000000.0 -0.652 -0.586
5625000000.0 -0.8412 0.1095
5628000000.0 -0.4406 0.7215
5631000000.0 0.2932 0.8178
5634000000.0 0.7806 0.2853
5638000000.0 0.6775 -0.4435
5641000000.0 0.1201 -0.8532
5644000000.0 -0.628 -0.5958
5647000000.0 -0.8575 0.08519
5650000000.0 -0.4459 0.7314
5653000000.0 0.2905 0.8201
5656000000.0 0.814 0.2872
5659000000.0 0.7472 -0.4575
5662000000.0 0.08636 -0.8765
5666000000.0 -0.6335 -0.6323
5669000000.0 -0.8831 0.113
5672000000.0 -0.4857 0.7615
5675000000.0 0.2939 0.8546
5678000000.0 0.8539 0.3011
5681000000.0 0.813 -0.466
5684000000.0 0.1011 -0.9129
5688000000.0 -0.675 -0.6776
5691000000.0 -0.9818 0.09432
5694000000.0 -0.5423 0.7916
5697000000.0 0.2719 0.9373
5700000000.0 0.9195 0.3387
5703000000.0 0.8762 -0.4736
5706000000.0 0.1791 -0.9953
5709000000.0 -0.6649 -0.7534
5712000000.0 -1.035 0.01364
5716000000.0 -0.665 0.8296
5719000000.0 0.2353 1.003
5722000000.0 0.94 0.4864
5725000000.0 1.007 -0.4219
5728000000.0 0.3013 -1.054
5731000000.0 -0.6173 -0.8828
5734000000.0 -1.097 -0.1214
5738000000.0 -0.8 0.7584
5741000000.0 0.09017 1.087
5744000000.0 0.8914 0.6215
5747000000.0 1.056 -0.2769
5750000000.0 0.4675 -1.001
5753000000.0 -0.4638 -1.002
5756000000.0 -1.083 -0.2866
5759000000.0 -0.929 0.679
5762000000.0 -0.07231 1.106
5766000000.0 0.8094 0.7579
5769000000.0 1.067 -0.144
5772000000.0 0.6196 -0.9362
5775000000.0 -0.3275 -1.073
5778000000.0 -1.027 -0.4594
5781000000.0 -1.002 0.4931
5784000000.0 -0.2841 1.064
5788000000.0 0.6731 0.8893
5791000000.0 1.098 0.05706
5794000000.0 0.7499 -0.7561
5797000000.0 -0.1024 -1.065
5800000000.0 -0.9198 -0.6131
5803000000.0 -1.037 0.305
5806000000.0 -0.4043 1.023
5809000000.0 0.5008 0.9312
5812000000.0 1.031 0.1949
5816000000.0 0.7995 -0.6787
5819000000.0 -0.02663 -1.053
5822000000.0 -0.8192 -0.6492
5825000000.0 -0.9969 0.1952
5828000000.0 -0.4596 0.8717
5831000000.0 0.3773 0.9153
5834000000.0 0.9768 0.2596
5838000000.0 0.8114 -0.5565
5841000000.0 0.09046 -0.9953
5844000000.0 -0.7098 -0.6874
5847000000.0 -0.9554 0.1231
5850000000.0 -0.496 0.8491
5853000000.0 0.3156 0.8813
5856000000.0 0.9057 0.3059
5859000000.0 0.7858 -0.4898
5862000000.0 0.1203 -0.9037
5866000000.0 -0.658 -0.6363
5869000000.0 -0.8951 0.07337
5872000000.0 -0.4865 0.759
5875000000.0 0.2972 0.8281
5878000000.0 0.8242 0.2925
5881000000.0 0.7341 -0.4273
5884000000.0 0.1481 -0.871
5888000000.0 -0.6117 -0.6161
5891000000.0 -0.9144 0.04485
5894000000.0 -0.5036 0.7213
5897000000.0 0.2905 0.8484
5900000000.0 0.8145 0.3379
5903000000.0 0.7549 -0.387
5906000000.0 0.2177 -0.8646
5909000000.0 -0.5303 -0.6645
5912000000.0 -0.8853 0.004392
5916000000.0 -0.5461 0.701
5919000000.0 0.1836 0.8551
5922000000.0 0.7641 0.4052
5925000000.0 0.786 -0.3763
5928000000.0 0.2722 -0.8545
5931000000.0 -0.4665 -0.7664
5934000000.0 -0.8726 -0.1236
5938000000.0 -0.6234 0.623
5941000000.0 0.09125 0.8979
5944000000.0 0.7343 0.5221
5947000000.0 0.8638 -0.2424
5950000000.0 0.3941 -0.8683
5953000000.0 -0.3691 -0.8423
5956000000.0 -0.8994 -0.2249
5959000000.0 -0.7737 0.5303
5962000000.0 -0.0926 0.9348
5966000000.0 0.6731 0.6604
5969000000.0 0.9464 -0.1118
5972000000.0 0.5174 -0.7826
5975000000.0 -0.2887 -0.9482
5978000000.0 -0.9037 -0.4006
5981000000.0 -0.9116 0.4367
5984000000.0 -0.2563 0.9612
5988000000.0 0.5702 0.7911
5991000000.0 1.031 0.05144
5994000000.0 0.686 -0.7428
5997000000.0 -0.1246 -0.9828
6000000000.0 -0.8591 -0.5312
6003000000.0 -0.9567 0.3172
6006000000.0 -0.3465 0.937
6009000000.0 0.5267 0.9092
6012000000.0 1.001 0.2093
6016000000.0 0.7586 -0.6553
6019000000.0 0.01202 -1.003
6022000000.0 -0.7722 -0.6305
6025000000.0 -0.9827 0.2015
6028000000.0 -0.4656 0.8651
6031000000.0 0.4043 0.9169
6034000000.0 0.9717 0.2819
6038000000.0 0.7853 -0.5636
6041000000.0 0.08614 -0.978
6044000000.0 -0.7036 -0.6868
6047000000.0 -0.9561 0.1158
6050000000.0 -0.5085 0.8047
6053000000.0 0.3249 0.8994
6056000000.0 0.8813 0.3182
6059000000.0 0.8236 -0.5079
6062000000.0 0.1401 -0.9263
6066000000.0 -0.6181 -0.6924
6069000000.0 -0.9392 0.05808
6072000000.0 -0.5218 0.7429
6075000000.0 0.2488 0.8762
6078000000.0 0.81 0.353
6081000000.0 0.7549 -0.4049
6084000000.0 0.1585 -0.8792
6088000000.0 -0.5652 -0.666
6091000000.0 -0.8723 0.02075
6094000000.0 -0.5565 0.6927
6097000000.0 0.1802 0.8751
6100000000.0 0.7806 0.3511
6103000000.0 0.7891 -0.3709
6106000000.0 0.2148 -0.8085
6109000000.0 -0.5297 -0.7023
6112000000.0 -0.8702 -0.04692
6116000000.0 -0.5474 0.6801
6119000000.0 0.1839 0.8497
6122000000.0 0.767 0.4004
6125000000.0 0.8015 -0.3259
6128000000.0 0.2517 -0.8313
6131000000.0 -0.4912 -0.7359
6134000000.0 -0.8453 -0.0897
6138000000.0 -0.575 0.6635
6141000000.0 0.1355 0.8721
6144000000.0 0.7753 0.4614
6147000000.0 0.8539 -0.3249
6150000000.0 0.3009 -0.8267
6153000000.0 -0.4531 -0.7589
6156000000.0 -0.8799 -0.1151
6159000000.0 -0.6738 0.6105
6162000000.0 0.03298 0.9098
6166000000.0 0.7316 0.5472
6169000000.0 0.9046 -0.25
6172000000.0 0.3867 -0.8668
6175000000.0 -0.3876 -0.8573
6178000000.0 -0.9166 -0.2022
6181000000.0 -0.7739 0.5558
6184000000.0 -0.02754 0.9719
6188000000.0 0.6984 0.6346
6191000000.0 0.9531 -0.1558
6194000000.0 0.494 -0.8069
6197000000.0 -0.3565 -0.8755
6200000000.0 -0.9289 -0.3035
6203000000.0 -0.8191 0.4861
6206000000.0 -0.1576 0.9426
6209000000.0 0.6216 0.7024
6212000000.0 0.9104 -0.04507
6216000000.0 0.537 -0.7639
6219000000.0 -0.2373 -0.9005
6222000000.0 -0.845 -0.4246
6225000000.0 -0.8524 0.3882
6228000000.0 -0.2304 0.8767
6231000000.0 0.5052 0.7215
6234000000.0 0.9251 0.04989
6238000000.0 0.6127 -0.6314
6241000000.0 -0.1122 -0.8744
6244000000.0 -0.7399 -0.4679
6247000000.0 -0.847 0.2576
6250000000.0 -0.3206 0.8381
6253000000.0 0.4023 0.7567
6256000000.0 0.8338 0.2023
6259000000.0 0.6552 -0.5331
6262000000.0 0.01647 -0.8402
6266000000.0 -0.6056 -0.552
6269000000.0 -0.8104 0.1281
