! Created with skrf 1.8.0 (http://scikit-rf.org).
# Hz S RI R 50.0 
!freq ReS11 ImS11
4000000000.0 0.3892 -1.447
4003000000.0 -0.8734 -1.192
4006000000.0 -1.523 -0.03496
4009000000.0 -0.9894 1.156
4012000000.0 0.2809 1.47
4016000000.0 1.342 0.7288
4019000000.0 1.402 -0.6001
4022000000.0 0.4406 -1.456
4025000000.0 -0.9247 -1.297
4028000000.0 -1.583 -0.05433
4031000000.0 -1.074 1.141
4034000000.0 0.2534 1.55
4038000000.0 1.334 0.7936
4041000000.0 1.499 -0.5931
4044000000.0 0.447 -1.524
4047000000.0 -0.8434 -1.307
4050000000.0 -1.55 -0.08098
4053000000.0 -1.061 1.116
4056000000.0 0.2449 1.595
4059000000.0 1.35 0.828
4062000000.0 1.477 -0.492
4066000000.0 0.54 -1.502
4069000000.0 -0.7937 -1.404
4072000000.0 -1.608 -0.2452
4075000000.0 -1.221 1.04
4078000000.0 0.01566 1.619
4081000000.0 1.295 1.021
4084000000.0 1.611 -0.3412
4088000000.0 0.7322 -1.491
4091000000.0 -0.661 -1.523
4094000000.0 -1.629 -0.4347
4097000000.0 -1.377 0.9366
4100000000.0 -0.1034 1.647
4103000000.0 1.163 1.141
4106000000.0 1.641 -0.1545
4109000000.0 0.8735 -1.334
4112000000.0 -0.4315 -1.483
4116000000.0 -1.426 -0.6452
4119000000.0 -1.38 0.6763
4122000000.0 -0.3911 1.456
4125000000.0 0.8311 1.269
4128000000.0 1.507 0.1896
4131000000.0 1.098 -0.989
4134000000.0 -0.04337 -1.497
4138000000.0 -1.147 -0.9753
4141000000.0 -1.511 0.2703
4144000000.0 -0.7788 1.309
4147000000.0 0.5168 1.422
4150000000.0 1.437 0.5743
4153000000.0 1.38 -0.6937
4156000000.0 0.3335 -1.561
4159000000.0 -0.9213 -1.232
4162000000.0 -1.541 -0.07655
4166000000.0 -1.095 1.117
4169000000.0 0.1575 1.511
4172000000.0 1.275 0.8487
4175000000.0 1.43 -0.3854
4178000000.0 0.6442 -1.39
4181000000.0 -0.6216 -1.385
4184000000.0 -1.467 -0.4158
4188000000.0 -1.304 0.7996
4191000000.0 -0.1934 1.525
4194000000.0 1.035 1.118
4197000000.0 1.55 -0.08099
4200000000.0 0.9408 -1.267
4203000000.0 -0.3742 -1.558
4206000000.0 -1.433 -0.7135
4209000000.0 -1.502 0.6898
4212000000.0 -0.4402 1.607
4216000000.0 1.013 1.387
4219000000.0 1.69 0.05202
4222000000.0 1.102 -1.307
4225000000.0 -0.3744 -1.701
4228000000.0 -1.553 -0.7595
4231000000.0 -1.576 0.7035
4234000000.0 -0.3582 1.665
4238000000.0 1.09 1.313
4241000000.0 1.714 -0.03543
4244000000.0 1.016 -1.379
4247000000.0 -0.4831 -1.602
4250000000.0 -1.551 -0.6255
4253000000.0 -1.457 0.8463
4256000000.0 -0.2426 1.664
4259000000.0 1.174 1.227
4262000000.0 1.618 -0.2324
4266000000.0 0.8251 -1.402
4269000000.0 -0.6184 -1.515
4272000000.0 -1.541 -0.4263
4275000000.0 -1.254 0.926
4278000000.0 -0.04611 1.553
4281000000.0 1.207 0.9911
4284000000.0 1.457 -0.3537
4288000000.0 0.6188 -1.342
4291000000.0 -0.6576 -1.319
4294000000.0 -1.381 -0.2831
4297000000.0 -1.056 0.8961
4300000000.0 0.01852 1.366
4303000000.0 1.055 0.8256
4306000000.0 1.297 -0.2838
4309000000.0 0.6163 -1.149
4312000000.0 -0.4809 -1.22
4316000000.0 -1.256 -0.4051
4319000000.0 -1.115 0.6562
4322000000.0 -0.2303 1.286
4325000000.0 0.8974 0.9825
4328000000.0 1.334 -0.0579
4331000000.0 0.8215 -1.044
4334000000.0 -0.2934 -1.301
4338000000.0 -1.186 -0.655
4341000000.0 -1.26 0.5343
4344000000.0 -0.3974 1.313
4347000000.0 0.7491 1.17
4350000000.0 1.411 0.1216
4353000000.0 0.9919 -0.9787
4356000000.0 -0.1054 -1.393
4359000000.0 -1.125 -0.8365
4362000000.0 -1.335 0.3566
4366000000.0 -0.5872 1.276
4369000000.0 0.5634 1.288
4372000000.0 1.375 0.4277
4375000000.0 1.222 -0.7787
4378000000.0 0.1522 -1.445
4381000000.0 -0.9778 -1.087
4384000000.0 -1.452 0.06433
4388000000.0 -0.9009 1.223
4391000000.0 0.337 1.476
4394000000.0 1.372 0.6489
4397000000.0 1.416 -0.6491
4400000000.0 0.379 -1.55
4403000000.0 -0.9499 -1.278
4406000000.0 -1.593 -0.08884
4409000000.0 -1.06 1.15
4412000000.0 0.2429 1.573
4416000000.0 1.368 0.7807
4419000000.0 1.461 -0.5902
4422000000.0 0.4417 -1.512
4425000000.0 -0.8665 -1.309
4428000000.0 -1.551 -0.1437
4431000000.0 -1.069 1.132
4434000000.0 0.2035 1.567
4438000000.0 1.331 0.8225
4441000000.0 1.451 -0.5333
4444000000.0 0.5002 -1.441
4447000000.0 -0.8229 -1.246
4450000000.0 -1.482 -0.1329
4453000000.0 -1.018 1.095
4456000000.0 0.246 1.476
4459000000.0 1.279 0.6776
4462000000.0 1.308 -0.5393
4466000000.0 0.3319 -1.354
4469000000.0 -0.8467 -1.079
4472000000.0 -1.358 0.01564
4475000000.0 -0.8231 1.05
4478000000.0 0.3401 1.243
4481000000.0 1.191 0.4889
4484000000.0 1.074 -0.6214
4488000000.0 0.2073 -1.233
4491000000.0 -0.8013 -0.8654
4494000000.0 -1.151 0.07988
4497000000.0 -0.6183 0.9643
4500000000.0 0.3733 1.107
4503000000.0 1.014 0.361
4506000000.0 0.9242 -0.5667
4509000000.0 0.09405 -1.108
4512000000.0 -0.7894 -0.7514
4516000000.0 -1.066 0.1338
4519000000.0 -0.5742 0.9466
4522000000.0 0.3739 1.031
4525000000.0 1.042 0.3489
4528000000.0 0.8913 -0.5945
4531000000.0 0.1094 -1.084
4534000000.0 -0.8062 -0.7473
4538000000.0 -1.09 0.1245
4541000000.0 -0.5902 0.9361
4544000000.0 0.3481 1.059
4547000000.0 1.016 0.4078
4550000000.0 0.9723 -0.5451
4553000000.0 0.1875 -1.106
4556000000.0 -0.7135 -0.8756
4559000000.0 -1.122 0.02769
4562000000.0 -0.7135 0.8716
4566000000.0 0.2382 1.134
4569000000.0 1.016 0.5394
4572000000.0 1.113 -0.441
4575000000.0 0.3606 -1.152
4578000000.0 -0.6611 -1.028
4581000000.0 -1.202 -0.1808
4584000000.0 -0.9346 0.8161
4588000000.0 0.04635 1.261
4591000000.0 1.018 0.7841
4594000000.0 1.228 -0.3059
4597000000.0 0.569 -1.158
4600000000.0 -0.5625 -1.176
4603000000.0 -1.266 -0.3416
4606000000.0 -1.098 0.7602
4609000000.0 -0.09146 1.327
4612000000.0 0.9853 0.9407
4616000000.0 1.345 -0.1516
4619000000.0 0.7459 -1.145
4622000000.0 -0.4122 -1.281
4625000000.0 -1.249 -0.5262
4628000000.0 -1.187 0.6612
4631000000.0 -0.269 1.346
4634000000.0 0.8816 1.074
4638000000.0 1.386 -0.0187
4641000000.0 0.8709 -1.107
4644000000.0 -0.2924 -1.34
4647000000.0 -1.248 -0.6373
4650000000.0 -1.248 0.5862
4653000000.0 -0.3343 1.31
4656000000.0 0.8291 1.1
4659000000.0 1.338 0.0009207
4662000000.0 0.8738 -1.033
4666000000.0 -0.28 -1.253
4669000000.0 -1.154 -0.6009
4672000000.0 -1.167 0.5141
4675000000.0 -0.2831 1.217
4678000000.0 0.7124 0.9903
4681000000.0 1.24 0.01853
4684000000.0 0.7531 -0.9032
4688000000.0 -0.2501 -1.177
4691000000.0 -1.083 -0.5269
4694000000.0 -1.058 0.4649
4697000000.0 -0.2732 1.124
4700000000.0 0.7206 0.9165
4703000000.0 1.13 -0.05116
4706000000.0 0.6878 -0.9227
4709000000.0 -0.262 -1.07
4712000000.0 -1.022 -0.4205
4716000000.0 -0.9548 0.5106
4719000000.0 -0.1819 1.069
4722000000.0 0.7249 0.7718
4725000000.0 1.043 -0.08917
4728000000.0 0.5885 -0.8458
4731000000.0 -0.2976 -0.9703
4734000000.0 -0.9308 -0.3872
4738000000.0 -0.846 0.5122
4741000000.0 -0.1159 0.9981
4744000000.0 0.6476 0.7392
4747000000.0 1.01 -0.03585
4750000000.0 0.5881 -0.8071
4753000000.0 -0.2567 -0.9877
4756000000.0 -0.9198 -0.447
4759000000.0 -0.9328 0.4494
4762000000.0 -0.2279 1.004
4766000000.0 0.6342 0.8207
4769000000.0 1.047 0.04993
4772000000.0 0.7043 -0.8141
4775000000.0 -0.1889 -1.049
4778000000.0 -0.923 -0.5205
4781000000.0 -1.034 0.3649
4784000000.0 -0.3584 1.039
4788000000.0 0.5379 0.9712
4791000000.0 1.092 0.1919
4794000000.0 0.851 -0.7473
4797000000.0 0.000279 -1.142
4800000000.0 -0.8879 -0.7504
4803000000.0 -1.131 0.217
4806000000.0 -0.5975 0.9755
4809000000.0 0.3914 1.11
4812000000.0 1.14 0.3931
4816000000.0 1.065 -0.5972
4819000000.0 0.212 -1.206
4822000000.0 -0.8069 -0.9785
4825000000.0 -1.28 0.01166
4828000000.0 -0.805 0.9923
4831000000.0 0.2603 1.296
4834000000.0 1.16 0.6228
4838000000.0 1.251 -0.506
4841000000.0 0.4101 -1.278
4844000000.0 -0.7248 -1.133
4847000000.0 -1.356 -0.1367
4850000000.0 -0.9634 0.973
4853000000.0 0.1193 1.358
4856000000.0 1.142 0.786
4859000000.0 1.33 -0.3727
4862000000.0 0.5389 -1.257
4866000000.0 -0.6365 -1.195
4869000000.0 -1.348 -0.2912
4872000000.0 -1.048 0.8589
4875000000.0 0.00711 1.357
4878000000.0 1.051 0.861
4881000000.0 1.328 -0.294
4884000000.0 0.5976 -1.194
4888000000.0 -0.5564 -1.205
4891000000.0 -1.245 -0.3378
4894000000.0 -0.9815 0.7655
4897000000.0 -0.03738 1.24
4900000000.0 0.9211 0.7834
4903000000.0 1.209 -0.2385
4906000000.0 0.5353 -1.052
4909000000.0 -0.4689 -1.039
4912000000.0 -1.054 -0.2969
4916000000.0 -0.9001 0.6255
4919000000.0 -0.07661 1.064
4922000000.0 0.7533 0.7086
4925000000.0 1.04 -0.1294
4928000000.0 0.5262 -0.8798
4931000000.0 -0.3236 -0.9292
4934000000.0 -0.914 -0.3239
4938000000.0 -0.839 0.5028
4941000000.0 -0.1308 0.9645
4944000000.0 0.6261 0.6903
4947000000.0 0.9523 -0.03095
4950000000.0 0.5624 -0.7759
4953000000.0 -0.2256 -0.9239
4956000000.0 -0.8762 -0.3711
4959000000.0 -0.8523 0.4561
4962000000.0 -0.1755 0.9322
4966000000.0 0.5967 0.7584
4969000000.0 0.9579 -0.00139
4972000000.0 0.5969 -0.7474
4975000000.0 -0.176 -0.9418
4978000000.0 -0.8567 -0.4562
4981000000.0 -0.8975 0.3547
4984000000.0 -0.2474 0.9264
4988000000.0 0.5878 0.8231
4991000000.0 0.984 0.09708
4994000000.0 0.7329 -0.7139
4997000000.0 -0.1038 -1.015
5000000000.0 -0.8775 -0.5907
5003000000.0 -1.017 0.304
5006000000.0 -0.4233 1.014
5009000000.0 0.5223 0.9647
5012000000.0 1.131 0.2194
5016000000.0 0.9184 -0.73
5019000000.0 0.03921 -1.184
5022000000.0 -0.8881 -0.7716
5025000000.0 -1.19 0.2086
5028000000.0 -0.5785 1.05
5031000000.0 0.4444 1.119
5034000000.0 1.147 0.3778
5038000000.0 1.046 -0.6685
5041000000.0 0.139 -1.238
5044000000.0 -0.875 -0.918
5047000000.0 -1.262 0.04201
5050000000.0 -0.7711 1.0
5053000000.0 0.2768 1.251
5056000000.0 1.141 0.596
5059000000.0 1.221 -0.5271
5062000000.0 0.3464 -1.263
5066000000.0 -0.7468 -1.085
5069000000.0 -1.291 -0.1078
5072000000.0 -0.9036 0.9339
5075000000.0 0.1655 1.297
5078000000.0 1.084 0.7199
5081000000.0 1.211 -0.3862
5084000000.0 0.5078 -1.182
5088000000.0 -0.579 -1.139
5091000000.0 -1.231 -0.2728
5094000000.0 -0.9869 0.7494
5097000000.0 -0.04104 1.185
5100000000.0 0.8723 0.8114
5103000000.0 1.188 -0.1274
5106000000.0 0.6169 -0.959
5109000000.0 -0.35 -1.09
5112000000.0 -1.087 -0.4282
5116000000.0 -1.025 0.5056
5119000000.0 -0.2331 1.088
5122000000.0 0.6746 0.8986
5125000000.0 1.094 0.06145
5128000000.0 0.7397 -0.7686
5131000000.0 -0.1043 -1.076
5134000000.0 -0.9087 -0.5559
5138000000.0 -1.019 0.3194
5141000000.0 -0.403 0.9718
5144000000.0 0.4769 0.8705
5147000000.0 1.002 0.1989
5150000000.0 0.7498 -0.6192
5153000000.0 0.0208 -0.9507
5156000000.0 -0.7296 -0.5893
5159000000.0 -0.9471 0.1733
5162000000.0 -0.4432 0.8069
5166000000.0 0.3431 0.8678
5169000000.0 0.8793 0.2684
5172000000.0 0.7579 -0.5125
5175000000.0 0.0976 -0.9104
5178000000.0 -0.6568 -0.6583
5181000000.0 -0.9241 0.09026
5184000000.0 -0.5271 0.7864
5188000000.0 0.3062 0.8584
5191000000.0 0.8747 0.3251
5194000000.0 0.7872 -0.4969
5197000000.0 0.1414 -0.9015
5200000000.0 -0.6674 -0.6695
5203000000.0 -0.9565 0.09763
5206000000.0 -0.5206 0.781
5209000000.0 0.2697 0.9023
5212000000.0 0.891 0.3325
5216000000.0 0.8219 -0.5004
5219000000.0 0.1376 -0.9402
5222000000.0 -0.672 -0.7098
5225000000.0 -0.9586 0.07776
5228000000.0 -0.5431 0.8171
5231000000.0 0.2664 0.9453
5234000000.0 0.9303 0.3931
5238000000.0 0.904 -0.4911
5241000000.0 0.1871 -1.003
5244000000.0 -0.6486 -0.785
5247000000.0 -1.026 -0.002296
5250000000.0 -0.6677 0.8141
5253000000.0 0.2172 1.022
5256000000.0 0.9346 0.46
5259000000.0 0.9611 -0.3956
5262000000.0 0.3156 -1.045
5266000000.0 -0.585 -0.9047
5269000000.0 -1.07 -0.1374
5272000000.0 -0.7971 0.7252
5275000000.0 0.05549 1.052
5278000000.0 0.8383 0.6455
5281000000.0 1.033 -0.2226
5284000000.0 0.5007 -0.9775
5288000000.0 -0.4228 -1.023
5291000000.0 -1.052 -0.3383
5294000000.0 -0.9775 0.5779
5297000000.0 -0.1774 1.079
5300000000.0 0.7281 0.8264
5303000000.0 1.135 -0.008727
5306000000.0 0.7147 -0.8611
5309000000.0 -0.1955 -1.119
5312000000.0 -1.011 -0.5913
5316000000.0 -1.06 0.3711
5319000000.0 -0.4167 1.102
5322000000.0 0.5237 0.9826
5325000000.0 1.127 0.2219
5328000000.0 0.8947 -0.7526
5331000000.0 0.06598 -1.128
5334000000.0 -0.8918 -0.7659
5338000000.0 -1.136 0.1884
5341000000.0 -0.5759 0.9694
5344000000.0 0.3609 1.083
5347000000.0 1.055 0.4119
5350000000.0 0.9858 -0.5986
5353000000.0 0.1896 -1.119
5356000000.0 -0.7342 -0.8497
5359000000.0 -1.133 -0.007142
5362000000.0 -0.703 0.9022
5366000000.0 0.2388 1.072
5369000000.0 1.015 0.5141
5372000000.0 1.042 -0.4199
5375000000.0 0.2971 -1.073
5378000000.0 -0.6385 -0.8946
5381000000.0 -1.057 -0.03759
5384000000.0 -0.6767 0.8196
5388000000.0 0.1694 1.025
5391000000.0 0.898 0.4786
5394000000.0 0.9094 -0.393
5397000000.0 0.2913 -0.9452
5400000000.0 -0.5732 -0.8199
5403000000.0 -0.945 -0.04511
5406000000.0 -0.6452 0.6881
5409000000.0 0.153 0.9268
5412000000.0 0.8253 0.4465
5416000000.0 0.8306 -0.3357
5419000000.0 0.2581 -0.8851
5422000000.0 -0.5219 -0.7336
5425000000.0 -0.8975 -0.04677
5428000000.0 -0.5785 0.6648
5431000000.0 0.1402 0.8748
5434000000.0 0.8006 0.4129
5438000000.0 0.8123 -0.3584
5441000000.0 0.1966 -0.861
5444000000.0 -0.539 -0.6909
5447000000.0 -0.8842 -0.01134
5450000000.0 -0.583 0.6698
5453000000.0 0.1816 0.8634
5456000000.0 0.7726 0.361
5459000000.0 0.8335 -0.3232
5462000000.0 0.2374 -0.8431
5466000000.0 -0.5101 -0.6897
5469000000.0 -0.886 -0.04644
5472000000.0 -0.5822 0.6215
5475000000.0 0.1267 0.8563
5478000000.0 0.7618 0.4885
5481000000.0 0.8548 -0.2729
5484000000.0 0.3383 -0.8184
5488000000.0 -0.4816 -0.825
5491000000.0 -0.9148 -0.194
5494000000.0 -0.7569 0.6288
5497000000.0 -0.01755 0.9364
5500000000.0 0.7513 0.6261
5503000000.0 0.9653 -0.152
5506000000.0 0.509 -0.8498
5509000000.0 -0.3125 -0.9146
5512000000.0 -0.9367 -0.334
5516000000.0 -0.873 0.4658
5519000000.0 -0.1808 0.9631
5522000000.0 0.6429 0.7706
5525000000.0 1.022 0.03131
5528000000.0 0.6975 -0.7781
5531000000.0 -0.1148 -0.9981
5534000000.0 -0.8873 -0.5385
5538000000.0 -0.9726 0.2918
5541000000.0 -0.3795 0.9983
5544000000.0 0.4723 0.9529
5547000000.0 1.029 0.2274
5550000000.0 0.823 -0.6621
5553000000.0 0.0734 -1.071
5556000000.0 -0.7886 -0.7412
5559000000.0 -1.07 0.1636
5562000000.0 -0.5386 0.9211
5566000000.0 0.3624 0.9913
5569000000.0 1.012 0.3541
5572000000.0 0.9419 -0.5169
5575000000.0 0.2048 -1.049
5578000000.0 -0.6361 -0.8103
5581000000.0 -1.054 -0.002523
5584000000.0 -0.6433 0.7712
5588000000.0 0.2009 0.9878
5591000000.0 0.8809 0.5015
5594000000.0 0.922 -0.361
5597000000.0 0.3307 -0.9318
5600000000.0 -0.515 -0.8462
5603000000.0 -0.9327 -0.1366
5606000000.0 -0.6994 0.631
5609000000.0 0.06676 0.9429
5612000000.0 0.7798 0.5428
5616000000.0 0.8914 -0.2224
5619000000.0 0.3915 -0.8424
5622000000.0 -0.406 -0.7988
5625000000.0 -0.8766 -0.1835
5628000000.0 -0.7185 0.5347
5631000000.0 -0.02445 0.8746
5634000000.0 0.6808 0.5713
5638000000.0 0.8624 -0.1737
5641000000.0 0.4044 -0.7568
5644000000.0 -0.3475 -0.8059
5647000000.0 -0.8245 -0.2492
5650000000.0 -0.7093 0.5019
5653000000.0 -0.01627 0.8473
5656000000.0 0.6456 0.5236
5659000000.0 0.8527 -0.1331
5662000000.0 0.4025 -0.7509
5666000000.0 -0.3365 -0.7963
5669000000.0 -0.8408 -0.2385
5672000000.0 -0.7129 0.5436
5675000000.0 -0.02246 0.8697
5678000000.0 0.6904 0.5568
5681000000.0 0.889 -0.1399
5684000000.0 0.4105 -0.7926
5688000000.0 -0.3677 -0.8519
5691000000.0 -0.8874 -0.2364
5694000000.0 -0.7518 0.5448
5697000000.0 -0.05845 0.9424
5700000000.0 0.7282 0.6265
5703000000.0 0.932 -0.1466
5706000000.0 0.4884 -0.8526
5709000000.0 -0.3442 -0.9337
5712000000.0 -0.9391 -0.291
5716000000.0 -0.8329 0.5313
5719000000.0 -0.1036 0.9761
5722000000.0 0.7612 0.708
5725000000.0 1.001 -0.07122
5728000000.0 0.5957 -0.852
5731000000.0 -0.2898 -1.035
5734000000.0 -0.9636 -0.3934
5738000000.0 -0.9134 0.4937
5741000000.0 -0.2554 1.035
5744000000.0 0.6683 0.8457
5747000000.0 1.076 0.03778
5750000000.0 0.7021 -0.8081
5753000000.0 -0.1622 -1.08
5756000000.0 -0.9316 -0.5828
5759000000.0 -1.012 0.3878
5762000000.0 -0.3963 1.033
5766000000.0 0.5551 0.9828
5769000000.0 1.08 0.2076
5772000000.0 0.8368 -0.6998
5775000000.0 0.008894 -1.115
5778000000.0 -0.8328 -0.6759
5781000000.0 -1.096 0.2087
5784000000.0 -0.5371 0.9673
5788000000.0 0.349 1.039
5791000000.0 1.01 0.3488
5794000000.0 0.9132 -0.563
5797000000.0 0.1977 -1.071
5800000000.0 -0.7228 -0.8405
5803000000.0 -1.079 0.05524
5806000000.0 -0.6565 0.8362
5809000000.0 0.22 1.075
5812000000.0 0.9558 0.5096
5816000000.0 0.9866 -0.4148
5819000000.0 0.2912 -0.999
5822000000.0 -0.5683 -0.8664
5825000000.0 -1.051 -0.1027
5828000000.0 -0.7206 0.7054
5831000000.0 0.05733 1.021
5834000000.0 0.83 0.5679
5838000000.0 0.9875 -0.2493
5841000000.0 0.3951 -0.9042
5844000000.0 -0.4731 -0.8972
5847000000.0 -0.9553 -0.2192
5850000000.0 -0.7491 0.627
5853000000.0 -0.001179 0.9868
5856000000.0 0.7409 0.6176
5859000000.0 0.9233 -0.19
5862000000.0 0.4018 -0.8673
5866000000.0 -0.395 -0.861
5869000000.0 -0.9203 -0.2335
5872000000.0 -0.7357 0.5733
5875000000.0 -0.01095 0.9343
5878000000.0 0.6815 0.5763
5881000000.0 0.8935 -0.1628
5884000000.0 0.4211 -0.7755
5888000000.0 -0.3117 -0.8168
5891000000.0 -0.8514 -0.2698
5894000000.0 -0.7024 0.5113
5897000000.0 -0.07001 0.869
5900000000.0 0.6252 0.5959
5903000000.0 0.8297 -0.1349
5906000000.0 0.45 -0.7291
5909000000.0 -0.3118 -0.8127
5912000000.0 -0.8148 -0.2524
5916000000.0 -0.7172 0.4514
5919000000.0 -0.143 0.8328
5922000000.0 0.5914 0.6203
5925000000.0 0.8809 -0.04318
5928000000.0 0.5211 -0.6943
5931000000.0 -0.1924 -0.8611
5934000000.0 -0.8058 -0.3353
5938000000.0 -0.7847 0.4237
5941000000.0 -0.2029 0.8442
5944000000.0 0.5076 0.6906
5947000000.0 0.8876 0.04544
5950000000.0 0.618 -0.6347
5953000000.0 -0.1121 -0.868
5956000000.0 -0.739 -0.4396
5959000000.0 -0.856 0.2654
5962000000.0 -0.3404 0.8669
5966000000.0 0.4379 0.8208
5969000000.0 0.9127 0.188
5972000000.0 0.7165 -0.5674
5975000000.0 0.01784 -0.9393
5978000000.0 -0.7037 -0.6164
5981000000.0 -0.9587 0.1354
5984000000.0 -0.5185 0.799
5988000000.0 0.3367 0.9293
5991000000.0 0.8993 0.3537
5994000000.0 0.8544 -0.4806
5997000000.0 0.1999 -0.937
6000000000.0 -0.6072 -0.749
6003000000.0 -0.9727 0.01657
6006000000.0 -0.6303 0.7662
6009000000.0 0.1788 0.9657
6012000000.0 0.8457 0.4858
6016000000.0 0.933 -0.3569
6019000000.0 0.2984 -0.9319
6022000000.0 -0.5185 -0.8458
6025000000.0 -1.018 -0.1207
6028000000.0 -0.7221 0.6928
6031000000.0 0.08295 0.9758
6034000000.0 0.794 0.5665
6038000000.0 1.0 -0.2328
6041000000.0 0.4242 -0.9365
6044000000.0 -0.4361 -0.8755
6047000000.0 -0.9694 -0.2052
6050000000.0 -0.7876 0.5913
6053000000.0 -0.04149 0.9706
6056000000.0 0.7571 0.6304
6059000000.0 0.9356 -0.1862
6062000000.0 0.4549 -0.8443
6066000000.0 -0.3502 -0.8733
6069000000.0 -0.9004 -0.2739
6072000000.0 -0.7599 0.51
6075000000.0 -0.05794 0.9221
6078000000.0 0.6605 0.6136
6081000000.0 0.9136 -0.1438
6084000000.0 0.4633 -0.772
6088000000.0 -0.2972 -0.8415
6091000000.0 -0.8455 -0.2825
6094000000.0 -0.7421 0.4556
6097000000.0 -0.1356 0.8624
6100000000.0 0.6201 0.66
6103000000.0 0.8566 -0.0965
6106000000.0 0.4647 -0.7343
6109000000.0 -0.2719 -0.8299
6112000000.0 -0.7998 -0.3337
6116000000.0 -0.7524 0.4219
6119000000.0 -0.138 0.8773
6122000000.0 0.5406 0.6699
6125000000.0 0.8613 -0.02034
6128000000.0 0.4858 -0.6808
6131000000.0 -0.219 -0.8195
6134000000.0 -0.7777 -0.3387
6138000000.0 -0.7692 0.3789
6141000000.0 -0.2026 0.8517
6144000000.0 0.5573 0.6574
6147000000.0 0.8466 0.01699
6150000000.0 0.5529 -0.6557
6153000000.0 -0.1623 -0.8296
6156000000.0 -0.76 -0.4027
6159000000.0 -0.7916 0.346
6162000000.0 -0.2618 0.8455
6166000000.0 0.4993 0.7288
6169000000.0 0.8917 0.08272
6172000000.0 0.5991 -0.6536
6175000000.0 -0.08982 -0.8998
6178000000.0 -0.793 -0.4802
6181000000.0 -0.8263 0.2947
6184000000.0 -0.3109 0.8606
6188000000.0 0.481 0.7825
6191000000.0 0.8942 0.1672
6194000000.0 0.6891 -0.614
6197000000.0 -0.02829 -0.8741
6200000000.0 -0.7411 -0.542
6203000000.0 -0.9143 0.2152
6206000000.0 -0.4218 0.8518
6209000000.0 0.3777 0.8591
6212000000.0 0.8977 0.249
6216000000.0 0.7208 -0.5281
6219000000.0 0.05893 -0.931
6222000000.0 -0.6562 -0.6204
6225000000.0 -0.8728 0.08443
6228000000.0 -0.4948 0.8182
6231000000.0 0.2401 0.8374
6234000000.0 0.8216 0.3058
6238000000.0 0.7538 -0.4345
6241000000.0 0.1561 -0.8765
6244000000.0 -0.5676 -0.6731
6247000000.0 -0.8491 0.005789
6250000000.0 -0.5396 0.633
6253000000.0 0.1592 0.8651
6256000000.0 0.7481 0.4105
6259000000.0 0.805 -0.2744
6262000000.0 0.2793 -0.765
6266000000.0 -0.4 -0.702
