! Created with skrf 1.8.0 (http://scikit-rf.org).
# Hz S RI R 50.0 
!freq ReS11 ImS11
4000000000.0 -0.2125 -1.494
4003000000.0 -1.316 -0.7961
4006000000.0 -1.392 0.5258
4009000000.0 -0.4653 1.493
4012000000.0 0.8406 1.296
4016000000.0 1.531 0.1397
4019000000.0 1.123 -1.109
4022000000.0 -0.2026 -1.579
4025000000.0 -1.347 -0.8246
4028000000.0 -1.555 0.5453
4031000000.0 -0.4976 1.527
4034000000.0 0.8645 1.364
4038000000.0 1.607 0.2074
4041000000.0 1.128 -1.148
4044000000.0 -0.2181 -1.669
4047000000.0 -1.37 -0.8877
4050000000.0 -1.511 0.5016
4053000000.0 -0.5701 1.566
4056000000.0 0.8209 1.419
4059000000.0 1.618 0.2939
4062000000.0 1.24 -1.077
4066000000.0 -0.06523 -1.675
4069000000.0 -1.32 -0.9818
4072000000.0 -1.596 0.3519
4075000000.0 -0.7412 1.476
4078000000.0 0.6138 1.522
4081000000.0 1.588 0.5044
4084000000.0 1.408 -0.923
4088000000.0 0.1974 -1.653
4091000000.0 -1.148 -1.177
4094000000.0 -1.653 0.1281
4097000000.0 -0.9454 1.351
4100000000.0 0.4515 1.597
4103000000.0 1.472 0.6652
4106000000.0 1.406 -0.6767
4109000000.0 0.3695 -1.499
4112000000.0 -0.8939 -1.244
4116000000.0 -1.522 -0.1359
4119000000.0 -1.086 1.044
4122000000.0 0.0603 1.506
4125000000.0 1.171 0.9212
4128000000.0 1.458 -0.3176
4131000000.0 0.7502 -1.292
4134000000.0 -0.4813 -1.383
4138000000.0 -1.379 -0.535
4141000000.0 -1.345 0.7056
4144000000.0 -0.3329 1.476
4147000000.0 0.9081 1.194
4150000000.0 1.508 0.06659
4153000000.0 1.054 -1.1
4156000000.0 -0.1748 -1.493
4159000000.0 -1.296 -0.8078
4162000000.0 -1.428 0.4462
4166000000.0 -0.5795 1.402
4169000000.0 0.6828 1.348
4172000000.0 1.456 0.3345
4175000000.0 1.198 -0.8943
4178000000.0 0.07888 -1.493
4181000000.0 -1.119 -1.034
4184000000.0 -1.514 0.1862
4188000000.0 -0.8197 1.273
4191000000.0 0.4768 1.453
4194000000.0 1.434 0.5639
4197000000.0 1.367 -0.7544
4200000000.0 0.2602 -1.575
4203000000.0 -1.022 -1.214
4206000000.0 -1.635 0.07358
4209000000.0 -0.9659 1.353
4212000000.0 0.478 1.585
4216000000.0 1.571 0.586
4219000000.0 1.435 -0.8896
4222000000.0 0.2286 -1.656
4225000000.0 -1.23 -1.187
4228000000.0 -1.677 0.2664
4231000000.0 -0.8218 1.44
4234000000.0 0.6768 1.499
4238000000.0 1.588 0.3353
4241000000.0 1.285 -1.031
4244000000.0 -0.08381 -1.611
4247000000.0 -1.326 -0.943
4250000000.0 -1.475 0.4801
4253000000.0 -0.5459 1.442
4256000000.0 0.8102 1.285
4259000000.0 1.522 0.1572
4262000000.0 1.044 -1.116
4266000000.0 -0.2161 -1.482
4269000000.0 -1.294 -0.7345
4272000000.0 -1.394 0.5511
4275000000.0 -0.3959 1.438
4278000000.0 0.9001 1.146
4281000000.0 1.444 0.02837
4284000000.0 0.9267 -1.073
4288000000.0 -0.273 -1.353
4291000000.0 -1.21 -0.674
4294000000.0 -1.248 0.5321
4297000000.0 -0.3839 1.291
4300000000.0 0.7135 1.106
4303000000.0 1.343 0.1372
4306000000.0 0.9396 -0.9226
4309000000.0 -0.1121 -1.304
4312000000.0 -1.028 -0.7172
4316000000.0 -1.276 0.2854
4319000000.0 -0.5712 1.212
4322000000.0 0.5174 1.196
4325000000.0 1.277 0.3755
4328000000.0 1.117 -0.7329
4331000000.0 0.1936 -1.383
4334000000.0 -0.9442 -1.014
4338000000.0 -1.391 0.06514
4341000000.0 -0.8123 1.14
4344000000.0 0.3124 1.398
4347000000.0 1.272 0.6601
4350000000.0 1.332 -0.58
4353000000.0 0.4038 -1.404
4356000000.0 -0.8621 -1.178
4359000000.0 -1.418 -0.1124
4362000000.0 -1.048 1.048
4366000000.0 0.1789 1.491
4369000000.0 1.232 0.8412
4372000000.0 1.437 -0.3938
4375000000.0 0.5946 -1.416
4378000000.0 -0.6883 -1.341
4381000000.0 -1.488 -0.3509
4384000000.0 -1.203 0.9857
4388000000.0 0.02534 1.586
4391000000.0 1.234 0.9994
4394000000.0 1.553 -0.3422
4397000000.0 0.7168 -1.415
4400000000.0 -0.6608 -1.456
4403000000.0 -1.518 -0.3411
4406000000.0 -1.262 1.036
4409000000.0 0.05703 1.58
4412000000.0 1.244 0.8986
4416000000.0 1.503 -0.3875
4419000000.0 0.6216 -1.395
4422000000.0 -0.7407 -1.289
4425000000.0 -1.507 -0.2383
4428000000.0 -1.062 1.016
4431000000.0 0.1401 1.425
4434000000.0 1.205 0.7735
4438000000.0 1.296 -0.4229
4441000000.0 0.4324 -1.318
4444000000.0 -0.7528 -1.116
4447000000.0 -1.351 -0.06715
4450000000.0 -0.8485 0.9753
4453000000.0 0.2506 1.273
4456000000.0 1.139 0.5707
4459000000.0 1.143 -0.5234
4462000000.0 0.2606 -1.242
4466000000.0 -0.7943 -0.9719
4469000000.0 -1.22 0.06747
4472000000.0 -0.6808 0.9543
4475000000.0 0.3468 1.155
4478000000.0 1.102 0.4354
4481000000.0 1.02 -0.595
4484000000.0 0.1537 -1.158
4488000000.0 -0.8062 -0.8108
4491000000.0 -1.14 0.08894
4494000000.0 -0.6385 0.9625
4497000000.0 0.3348 1.1
4500000000.0 1.072 0.4405
4503000000.0 0.9637 -0.5424
4506000000.0 0.1872 -1.105
4509000000.0 -0.7036 -0.8418
4512000000.0 -1.129 0.04608
4516000000.0 -0.7049 0.898
4519000000.0 0.2667 1.123
4522000000.0 1.035 0.5016
4525000000.0 1.047 -0.5224
4528000000.0 0.3005 -1.154
4531000000.0 -0.7106 -0.9427
4534000000.0 -1.191 -0.04333
4538000000.0 -0.8012 0.9071
4541000000.0 0.1792 1.18
4544000000.0 1.032 0.6395
4547000000.0 1.174 -0.4068
4550000000.0 0.4262 -1.153
4553000000.0 -0.6031 -1.094
4556000000.0 -1.245 -0.248
4559000000.0 -1.003 0.7722
4562000000.0 -0.0223 1.248
4566000000.0 0.9956 0.8474
4569000000.0 1.256 -0.2158
4572000000.0 0.686 -1.102
4575000000.0 -0.432 -1.241
4578000000.0 -1.256 -0.4714
4581000000.0 -1.175 0.6434
4584000000.0 -0.2288 1.328
4588000000.0 0.9039 1.033
4591000000.0 1.379 -0.03907
4594000000.0 0.8392 -1.076
4597000000.0 -0.279 -1.364
4600000000.0 -1.243 -0.6605
4603000000.0 -1.285 0.5543
4606000000.0 -0.3858 1.388
4609000000.0 0.7877 1.163
4612000000.0 1.418 0.1512
4616000000.0 0.9715 -1.02
4619000000.0 -0.1536 -1.405
4622000000.0 -1.179 -0.7409
4625000000.0 -1.317 0.4314
4628000000.0 -0.5066 1.292
4631000000.0 0.7067 1.188
4634000000.0 1.358 0.2098
4638000000.0 1.01 -0.9319
4641000000.0 -0.09348 -1.362
4644000000.0 -1.136 -0.7887
4647000000.0 -1.307 0.3923
4650000000.0 -0.4832 1.231
4653000000.0 0.6559 1.131
4656000000.0 1.293 0.1892
4659000000.0 0.9655 -0.8659
4662000000.0 -0.102 -1.271
4666000000.0 -1.024 -0.6627
4669000000.0 -1.161 0.3896
4672000000.0 -0.424 1.128
4675000000.0 0.6105 1.001
4678000000.0 1.145 0.1215
4681000000.0 0.8134 -0.8063
4684000000.0 -0.1004 -1.143
4688000000.0 -0.9109 -0.592
4691000000.0 -1.049 0.3428
4694000000.0 -0.3828 1.01
4697000000.0 0.5777 0.9489
4700000000.0 1.089 0.1061
4703000000.0 0.7657 -0.7845
4706000000.0 -0.1423 -1.084
4709000000.0 -0.9225 -0.5731
4712000000.0 -1.011 0.3797
4716000000.0 -0.3343 1.065
4719000000.0 0.59 0.9212
4722000000.0 1.068 0.1208
4725000000.0 0.768 -0.7644
4728000000.0 -0.1021 -1.058
4731000000.0 -0.8831 -0.5397
4734000000.0 -0.9871 0.3206
4738000000.0 -0.3949 0.9833
4741000000.0 0.4711 0.984
4744000000.0 1.044 0.2175
4747000000.0 0.866 -0.6596
4750000000.0 0.03413 -1.072
4753000000.0 -0.8165 -0.7201
4756000000.0 -1.106 0.1768
4759000000.0 -0.593 0.9515
4762000000.0 0.3679 1.091
4766000000.0 1.075 0.4296
4769000000.0 1.051 -0.549
4772000000.0 0.2213 -1.165
4775000000.0 -0.7381 -0.9246
4778000000.0 -1.201 0.001593
4781000000.0 -0.808 0.9172
4784000000.0 0.1854 1.203
4788000000.0 1.058 0.6129
4791000000.0 1.176 -0.4096
4794000000.0 0.4824 -1.176
4797000000.0 -0.6199 -1.129
4800000000.0 -1.271 -0.2439
4803000000.0 -0.983 0.7871
4806000000.0 -0.06615 1.277
4809000000.0 0.9579 0.8867
4812000000.0 1.305 -0.1756
4816000000.0 0.697 -1.145
4819000000.0 -0.4423 -1.26
4822000000.0 -1.283 -0.4956
4825000000.0 -1.22 0.6771
4828000000.0 -0.2195 1.395
4831000000.0 0.8974 1.062
4834000000.0 1.417 -0.01543
4838000000.0 0.8779 -1.099
4841000000.0 -0.3284 -1.37
4844000000.0 -1.289 -0.6362
4847000000.0 -1.275 0.5758
4850000000.0 -0.3519 1.339
4853000000.0 0.8085 1.117
4856000000.0 1.389 0.09391
4859000000.0 0.9453 -0.9877
4862000000.0 -0.1908 -1.35
4866000000.0 -1.156 -0.6943
4869000000.0 -1.245 0.4456
4872000000.0 -0.4526 1.234
4875000000.0 0.6733 1.105
4878000000.0 1.291 0.1443
4881000000.0 0.9076 -0.8804
4884000000.0 -0.1143 -1.244
4888000000.0 -1.024 -0.688
4891000000.0 -1.138 0.3437
4894000000.0 -0.4203 1.085
4897000000.0 0.5755 1.001
4900000000.0 1.096 0.1713
4903000000.0 0.7976 -0.7378
4906000000.0 -0.08125 -1.06
4909000000.0 -0.8552 -0.6163
4912000000.0 -0.9798 0.2442
4916000000.0 -0.4419 0.9192
4919000000.0 0.4308 0.8814
4922000000.0 0.9664 0.2433
4925000000.0 0.7856 -0.5931
4928000000.0 0.02984 -0.9441
4931000000.0 -0.7221 -0.6394
4934000000.0 -0.9327 0.1706
4938000000.0 -0.461 0.7969
4941000000.0 0.326 0.8721
4944000000.0 0.8876 0.2954
4947000000.0 0.8214 -0.514
4950000000.0 0.08687 -0.96
4953000000.0 -0.6477 -0.6934
4956000000.0 -0.9821 0.07696
4959000000.0 -0.5697 0.8078
4962000000.0 0.2926 0.943
4966000000.0 0.9354 0.3935
4969000000.0 0.9014 -0.4667
4972000000.0 0.2223 -0.9993
4975000000.0 -0.628 -0.7955
4978000000.0 -1.05 -0.006247
4981000000.0 -0.6624 0.8152
4984000000.0 0.2029 1.05
4988000000.0 0.9479 0.523
4991000000.0 1.019 -0.4258
4994000000.0 0.3466 -1.051
4997000000.0 -0.6054 -0.9723
5000000000.0 -1.129 -0.152
5003000000.0 -0.8743 0.7734
5006000000.0 0.06923 1.191
5009000000.0 0.9487 0.7358
5012000000.0 1.21 -0.2993
5016000000.0 0.5547 -1.105
5019000000.0 -0.5376 -1.152
5022000000.0 -1.225 -0.3061
5025000000.0 -1.055 0.7668
5028000000.0 -0.113 1.297
5031000000.0 0.9259 0.8707
5034000000.0 1.299 -0.1373
5038000000.0 0.7196 -1.095
5041000000.0 -0.3968 -1.207
5044000000.0 -1.21 -0.4983
5047000000.0 -1.128 0.6121
5050000000.0 -0.2593 1.306
5053000000.0 0.7721 1.02
5056000000.0 1.281 0.08048
5059000000.0 0.8939 -0.9834
5062000000.0 -0.1767 -1.268
5066000000.0 -1.077 -0.7194
5069000000.0 -1.241 0.3947
5072000000.0 -0.4591 1.225
5075000000.0 0.5895 1.093
5078000000.0 1.264 0.2372
5081000000.0 0.9827 -0.8127
5084000000.0 -0.01922 -1.246
5088000000.0 -0.9568 -0.7793
5091000000.0 -1.188 0.2135
5094000000.0 -0.5989 1.046
5097000000.0 0.4219 1.058
5100000000.0 1.088 0.3973
5103000000.0 0.9763 -0.5793
5106000000.0 0.2033 -1.07
5109000000.0 -0.6852 -0.814
5112000000.0 -1.064 -0.00391
5116000000.0 -0.6777 0.7949
5119000000.0 0.1897 1.061
5122000000.0 0.9168 0.5306
5125000000.0 0.9682 -0.439
5128000000.0 0.3216 -1.0
5131000000.0 -0.5422 -0.8559
5134000000.0 -0.9971 -0.1481
5138000000.0 -0.7093 0.6835
5141000000.0 0.09983 0.9897
5144000000.0 0.7886 0.537
5147000000.0 0.9247 -0.2321
5150000000.0 0.3752 -0.8178
5153000000.0 -0.4284 -0.7992
5156000000.0 -0.8938 -0.1625
5159000000.0 -0.7171 0.5757
5162000000.0 0.02278 0.8776
5166000000.0 0.743 0.576
5169000000.0 0.894 -0.1754
5172000000.0 0.412 -0.8029
5175000000.0 -0.3614 -0.8339
5178000000.0 -0.893 -0.2357
5181000000.0 -0.741 0.5577
5184000000.0 -0.01388 0.9233
5188000000.0 0.7278 0.6146
5191000000.0 0.8885 -0.1879
5194000000.0 0.4426 -0.8578
5197000000.0 -0.372 -0.8757
5200000000.0 -0.9374 -0.2647
5203000000.0 -0.7606 0.591
5206000000.0 -0.03716 0.9575
5209000000.0 0.7457 0.6349
5212000000.0 0.9738 -0.1817
5216000000.0 0.4673 -0.8865
5219000000.0 -0.3481 -0.9249
5222000000.0 -0.9873 -0.3019
5225000000.0 -0.8595 0.5666
5228000000.0 -0.1299 0.9969
5231000000.0 0.713 0.7495
5234000000.0 1.033 -0.09457
5238000000.0 0.5984 -0.8755
5241000000.0 -0.2919 -1.023
5244000000.0 -0.981 -0.426
5247000000.0 -0.9833 0.4796
5250000000.0 -0.2551 1.071
5253000000.0 0.6762 0.8856
5256000000.0 1.11 0.04842
5259000000.0 0.7612 -0.7892
5262000000.0 -0.169 -1.092
5266000000.0 -0.9215 -0.6175
5269000000.0 -1.03 0.337
5272000000.0 -0.4383 1.009
5275000000.0 0.508 0.9598
5278000000.0 1.081 0.2647
5281000000.0 0.9236 -0.64
5284000000.0 0.09245 -1.128
5288000000.0 -0.8035 -0.7846
5291000000.0 -1.127 0.09519
5294000000.0 -0.618 0.9349
5297000000.0 0.2993 1.065
5300000000.0 1.038 0.4741
5303000000.0 1.015 -0.4833
5306000000.0 0.3369 -1.123
5309000000.0 -0.6217 -0.973
5312000000.0 -1.136 -0.1104
5316000000.0 -0.8369 0.7825
5319000000.0 0.06154 1.16
5322000000.0 0.9581 0.6917
5325000000.0 1.13 -0.27
5328000000.0 0.5047 -1.029
5331000000.0 -0.4785 -1.034
5334000000.0 -1.098 -0.2867
5338000000.0 -0.9281 0.7061
5341000000.0 -0.07436 1.111
5344000000.0 0.8158 0.7501
5347000000.0 1.086 -0.1652
5350000000.0 0.5725 -0.9504
5353000000.0 -0.3639 -1.025
5356000000.0 -0.9836 -0.3396
5359000000.0 -0.895 0.5619
5362000000.0 -0.1298 1.043
5366000000.0 0.7413 0.7365
5369000000.0 1.04 -0.1322
5372000000.0 0.5525 -0.8777
5375000000.0 -0.3377 -0.9665
5378000000.0 -0.9838 -0.3249
5381000000.0 -0.8453 0.54
5384000000.0 -0.1214 0.9845
5388000000.0 0.7041 0.6891
5391000000.0 0.9518 -0.1191
5394000000.0 0.4814 -0.8014
5397000000.0 -0.3278 -0.8478
5400000000.0 -0.8499 -0.2755
5403000000.0 -0.7458 0.5027
5406000000.0 -0.04639 0.865
5409000000.0 0.6422 0.6011
5412000000.0 0.8748 -0.1404
5416000000.0 0.4279 -0.7594
5419000000.0 -0.3211 -0.7891
5422000000.0 -0.8173 -0.2546
5425000000.0 -0.7235 0.4717
5428000000.0 -0.04986 0.8523
5431000000.0 0.6546 0.6374
5434000000.0 0.8604 -0.1149
5438000000.0 0.4419 -0.7595
5441000000.0 -0.2973 -0.8595
5444000000.0 -0.8469 -0.2866
5447000000.0 -0.7529 0.5136
5450000000.0 -0.07851 0.8877
5453000000.0 0.6688 0.6504
5456000000.0 0.8916 -0.1022
5459000000.0 0.5153 -0.7665
5462000000.0 -0.2832 -0.8696
5466000000.0 -0.8563 -0.3744
5469000000.0 -0.8565 0.4133
5472000000.0 -0.221 0.9247
5475000000.0 0.6203 0.7564
5478000000.0 0.9406 0.05733
5481000000.0 0.6781 -0.7263
5484000000.0 -0.1427 -0.993
5488000000.0 -0.8412 -0.5271
5491000000.0 -0.9488 0.3254
5494000000.0 -0.3877 0.9365
5497000000.0 0.477 0.9216
5500000000.0 1.015 0.2056
5503000000.0 0.8108 -0.6539
5506000000.0 0.0136 -1.069
5509000000.0 -0.7906 -0.6767
5512000000.0 -1.036 0.1491
5516000000.0 -0.5802 0.8631
5519000000.0 0.3294 1.009
5522000000.0 0.9798 0.399
5525000000.0 0.9319 -0.5087
5528000000.0 0.2309 -1.053
5531000000.0 -0.6408 -0.8416
5534000000.0 -1.07 -0.04925
5538000000.0 -0.7221 0.782
5541000000.0 0.145 1.063
5544000000.0 0.9226 0.5521
5547000000.0 1.004 -0.3481
5550000000.0 0.3842 -1.002
5553000000.0 -0.4993 -0.9355
5556000000.0 -1.073 -0.2071
5559000000.0 -0.8114 0.6816
5562000000.0 0.02605 1.036
5566000000.0 0.8288 0.6711
5569000000.0 1.02 -0.2044
5572000000.0 0.4838 -0.8773
5575000000.0 -0.3827 -0.8973
5578000000.0 -0.953 -0.2814
5581000000.0 -0.8206 0.573
5584000000.0 -0.1122 0.9687
5588000000.0 0.6944 0.6604
5591000000.0 0.9001 -0.116
5594000000.0 0.4912 -0.7491
5597000000.0 -0.242 -0.8721
5600000000.0 -0.8388 -0.3387
5603000000.0 -0.788 0.4291
5606000000.0 -0.1235 0.8634
5609000000.0 0.571 0.6823
5612000000.0 0.8774 -0.005352
5616000000.0 0.5218 -0.6834
5619000000.0 -0.2052 -0.817
5622000000.0 -0.7576 -0.344
5625000000.0 -0.7442 0.3859
5628000000.0 -0.1657 0.8099
5631000000.0 0.5229 0.6572
5634000000.0 0.825 -0.01327
5638000000.0 0.5001 -0.6218
5641000000.0 -0.1856 -0.8092
5644000000.0 -0.7416 -0.3502
5647000000.0 -0.7397 0.3808
5650000000.0 -0.1937 0.8302
5653000000.0 0.5472 0.6748
5656000000.0 0.8826 0.01239
5659000000.0 0.5357 -0.6931
5662000000.0 -0.1949 -0.8599
5666000000.0 -0.8203 -0.3871
5669000000.0 -0.7941 0.388
5672000000.0 -0.2042 0.8802
5675000000.0 0.5726 0.7441
5678000000.0 0.9477 -0.002732
5681000000.0 0.5965 -0.7164
5684000000.0 -0.2066 -0.9585
5688000000.0 -0.8585 -0.4267
5691000000.0 -0.9422 0.3953
5694000000.0 -0.263 0.9508
5697000000.0 0.5545 0.8237
5700000000.0 1.017 0.1044
5703000000.0 0.7067 -0.7409
5706000000.0 -0.1275 -1.052
5709000000.0 -0.8699 -0.5541
5712000000.0 -1.031 0.3369
5716000000.0 -0.3544 1.011
5719000000.0 0.5455 0.9719
5722000000.0 1.068 0.1785
5725000000.0 0.8655 -0.701
5728000000.0 0.0002008 -1.112
5731000000.0 -0.8266 -0.7147
5734000000.0 -1.074 0.1862
5738000000.0 -0.5656 0.9481
5741000000.0 0.4265 1.091
5744000000.0 1.06 0.358
5747000000.0 0.943 -0.5562
5750000000.0 0.1571 -1.102
5753000000.0 -0.7625 -0.8395
5756000000.0 -1.139 0.04456
5759000000.0 -0.7081 0.8831
5762000000.0 0.2485 1.093
5766000000.0 0.9867 0.5295
5769000000.0 1.036 -0.4105
5772000000.0 0.3115 -1.056
5775000000.0 -0.6248 -0.9022
5778000000.0 -1.117 -0.1127
5781000000.0 -0.7459 0.7552
5784000000.0 0.07753 1.092
5788000000.0 0.901 0.5976
5791000000.0 1.018 -0.2824
5794000000.0 0.409 -0.9813
5797000000.0 -0.4583 -0.9494
5800000000.0 -1.047 -0.2457
5803000000.0 -0.8166 0.6582
5806000000.0 -0.01442 1.061
5809000000.0 0.8083 0.6459
5812000000.0 0.9963 -0.1889
5816000000.0 0.5009 -0.8778
5819000000.0 -0.366 -0.913
5822000000.0 -0.9413 -0.2922
5825000000.0 -0.8335 0.5215
5828000000.0 -0.06375 0.9402
5831000000.0 0.7301 0.6527
5834000000.0 0.9776 -0.0926
5838000000.0 0.4951 -0.7907
5841000000.0 -0.297 -0.8993
5844000000.0 -0.896 -0.2732
5847000000.0 -0.8102 0.5022
5850000000.0 -0.1041 0.9149
5853000000.0 0.6336 0.6668
5856000000.0 0.8791 -0.08796
5859000000.0 0.4992 -0.7696
5862000000.0 -0.2707 -0.8727
5866000000.0 -0.8344 -0.2981
5869000000.0 -0.7415 0.4791
5872000000.0 -0.1379 0.8325
5875000000.0 0.6094 0.6637
5878000000.0 0.8847 -0.09627
5881000000.0 0.5205 -0.7358
5884000000.0 -0.2642 -0.8497
5888000000.0 -0.8341 -0.335
5891000000.0 -0.7671 0.4433
5894000000.0 -0.138 0.8448
5897000000.0 0.5833 0.6391
5900000000.0 0.877 -0.02853
5903000000.0 0.5222 -0.7029
5906000000.0 -0.228 -0.8589
5909000000.0 -0.8062 -0.3988
5912000000.0 -0.7851 0.3795
5916000000.0 -0.223 0.8852
5919000000.0 0.5188 0.7003
5922000000.0 0.9053 0.03989
5925000000.0 0.6309 -0.6876
5928000000.0 -0.134 -0.908
5931000000.0 -0.782 -0.4745
5934000000.0 -0.892 0.2868
5938000000.0 -0.3391 0.856
5941000000.0 0.4694 0.8238
5944000000.0 0.9311 0.2033
5947000000.0 0.7215 -0.6011
5950000000.0 -0.01872 -0.9734
5953000000.0 -0.7432 -0.6163
5956000000.0 -0.9757 0.1386
5959000000.0 -0.466 0.8425
5962000000.0 0.3517 0.9293
5966000000.0 0.922 0.3071
5969000000.0 0.8285 -0.5066
5972000000.0 0.1556 -0.9715
5975000000.0 -0.6979 -0.7529
5978000000.0 -1.0 0.02539
5981000000.0 -0.6104 0.8035
5984000000.0 0.2558 0.9725
5988000000.0 0.9318 0.451
5991000000.0 0.9067 -0.4452
5994000000.0 0.2873 -0.9975
5997000000.0 -0.6126 -0.8452
6000000000.0 -1.041 -0.06808
6003000000.0 -0.6629 0.7571
6006000000.0 0.1505 0.9862
6009000000.0 0.8801 0.4706
6012000000.0 0.9303 -0.325
6016000000.0 0.3242 -0.9371
6019000000.0 -0.5051 -0.8131
6022000000.0 -0.9785 -0.1277
6025000000.0 -0.6727 0.6443
6028000000.0 0.114 0.9576
6031000000.0 0.8069 0.5299
6034000000.0 0.8794 -0.2636
6038000000.0 0.3242 -0.872
6041000000.0 -0.4698 -0.7966
6044000000.0 -0.9047 -0.155
6047000000.0 -0.7001 0.6123
6050000000.0 0.06957 0.8909
6053000000.0 0.7592 0.5235
6056000000.0 0.8552 -0.2234
6059000000.0 0.3424 -0.8374
6062000000.0 -0.4185 -0.7614
6066000000.0 -0.8727 -0.1514
6069000000.0 -0.6989 0.5845
6072000000.0 0.01588 0.8454
6075000000.0 0.6954 0.5133
6078000000.0 0.8364 -0.2194
6081000000.0 0.3447 -0.7829
6084000000.0 -0.3888 -0.7669
6088000000.0 -0.8226 -0.1893
6091000000.0 -0.6627 0.5348
6094000000.0 0.001714 0.8574
6097000000.0 0.6575 0.55
6100000000.0 0.8539 -0.1961
6103000000.0 0.3533 -0.7639
6106000000.0 -0.3761 -0.751
6109000000.0 -0.8524 -0.2246
6112000000.0 -0.7073 0.5406
6116000000.0 -0.02884 0.9112
6119000000.0 0.6811 0.6097
6122000000.0 0.8898 -0.1557
6125000000.0 0.4392 -0.8026
6128000000.0 -0.3457 -0.8474
6131000000.0 -0.906 -0.2799
6134000000.0 -0.7964 0.5423
6138000000.0 -0.0576 0.9413
6141000000.0 0.6999 0.6581
6144000000.0 0.9306 -0.1523
6147000000.0 0.508 -0.8474
6150000000.0 -0.3506 -0.8787
6153000000.0 -0.9207 -0.3268
6156000000.0 -0.8065 0.5166
6159000000.0 -0.1039 0.9702
6162000000.0 0.6723 0.7098
6166000000.0 0.9654 -0.04846
6169000000.0 0.559 -0.8211
6172000000.0 -0.2789 -0.9789
6175000000.0 -0.9103 -0.405
6178000000.0 -0.9017 0.4532
6181000000.0 -0.2144 1.004
6184000000.0 0.6318 0.8226
6188000000.0 0.9736 -0.03409
6191000000.0 0.614 -0.7968
6194000000.0 -0.2108 -0.9259
6197000000.0 -0.8867 -0.4579
6200000000.0 -0.8994 0.3605
6203000000.0 -0.2485 0.9167
6206000000.0 0.544 0.7802
6209000000.0 0.9262 0.06805
6212000000.0 0.6614 -0.634
6216000000.0 -0.132 -0.9116
6219000000.0 -0.7822 -0.5095
6222000000.0 -0.8797 0.3237
6225000000.0 -0.3099 0.8165
6228000000.0 0.4284 0.7648
6231000000.0 0.8522 0.1159
6234000000.0 0.6865 -0.5747
6238000000.0 -0.02355 -0.8755
6241000000.0 -0.6944 -0.5364
6244000000.0 -0.813 0.2133
6247000000.0 -0.3663 0.7966
6250000000.0 0.3466 0.7979
6253000000.0 0.8057 0.2321
6256000000.0 0.6829 -0.5224
6259000000.0 0.03098 -0.8055
6262000000.0 -0.6094 -0.5548
6266000000.0 -0.834 0.1135
