! Created with skrf 1.8.0 (http://scikit-rf.org).
# Hz S RI R 50.0 
!freq ReS11 ImS11
4000000000.0 -0.1956 -1.492
4003000000.0 -1.317 -0.763
4006000000.0 -1.43 0.5467
4009000000.0 -0.5321 1.488
4012000000.0 0.8277 1.317
4016000000.0 1.574 0.1577
4019000000.0 1.115 -1.112
4022000000.0 -0.1409 -1.574
4025000000.0 -1.316 -0.8832
4028000000.0 -1.563 0.5089
4031000000.0 -0.5746 1.541
4034000000.0 0.8875 1.44
4038000000.0 1.607 0.2042
4041000000.0 1.19 -1.122
4044000000.0 -0.1768 -1.642
4047000000.0 -1.395 -0.9343
4050000000.0 -1.572 0.4736
4053000000.0 -0.6191 1.566
4056000000.0 0.786 1.438
4059000000.0 1.612 0.3199
4062000000.0 1.291 -1.037
4066000000.0 0.02328 -1.65
4069000000.0 -1.251 -1.018
4072000000.0 -1.629 0.3133
4075000000.0 -0.8078 1.435
4078000000.0 0.6203 1.55
4081000000.0 1.61 0.5557
4084000000.0 1.374 -0.8526
4088000000.0 0.2401 -1.669
4091000000.0 -1.131 -1.236
4094000000.0 -1.709 0.1091
4097000000.0 -0.9502 1.345
4100000000.0 0.4185 1.577
4103000000.0 1.466 0.7064
4106000000.0 1.454 -0.6239
4109000000.0 0.3764 -1.522
4112000000.0 -0.8536 -1.278
4116000000.0 -1.509 -0.1788
4119000000.0 -1.124 1.046
4122000000.0 0.03726 1.511
4125000000.0 1.186 0.9411
4128000000.0 1.498 -0.2462
4131000000.0 0.7866 -1.287
4134000000.0 -0.4716 -1.452
4138000000.0 -1.378 -0.5818
4141000000.0 -1.377 0.6779
4144000000.0 -0.3613 1.499
4147000000.0 0.884 1.233
4150000000.0 1.53 0.1066
4153000000.0 1.053 -1.086
4156000000.0 -0.1211 -1.561
4159000000.0 -1.274 -0.8589
4162000000.0 -1.467 0.4274
4166000000.0 -0.6462 1.417
4169000000.0 0.6792 1.363
4172000000.0 1.429 0.363
4175000000.0 1.245 -0.8818
4178000000.0 0.1223 -1.503
4181000000.0 -1.092 -1.055
4184000000.0 -1.522 0.1491
4188000000.0 -0.8813 1.246
4191000000.0 0.4231 1.497
4194000000.0 1.423 0.6372
4197000000.0 1.416 -0.7109
4200000000.0 0.3504 -1.551
4203000000.0 -1.021 -1.231
4206000000.0 -1.632 -0.02307
4209000000.0 -1.007 1.322
4212000000.0 0.412 1.607
4216000000.0 1.538 0.6716
4219000000.0 1.463 -0.8137
4222000000.0 0.245 -1.681
4225000000.0 -1.145 -1.249
4228000000.0 -1.688 0.1782
4231000000.0 -0.8606 1.44
4234000000.0 0.6322 1.554
4238000000.0 1.618 0.4298
4241000000.0 1.286 -0.9866
4244000000.0 0.04309 -1.639
4247000000.0 -1.265 -0.9855
4250000000.0 -1.548 0.3878
4253000000.0 -0.638 1.461
4256000000.0 0.7124 1.364
4259000000.0 1.534 0.2228
4262000000.0 1.131 -1.079
4266000000.0 -0.1407 -1.526
4269000000.0 -1.277 -0.7884
4272000000.0 -1.411 0.4766
4275000000.0 -0.4453 1.396
4278000000.0 0.8771 1.195
4281000000.0 1.45 0.1153
4284000000.0 0.9586 -1.046
4288000000.0 -0.1918 -1.419
4291000000.0 -1.218 -0.7165
4294000000.0 -1.261 0.4661
4297000000.0 -0.4649 1.28
4300000000.0 0.6786 1.123
4303000000.0 1.326 0.1786
4306000000.0 0.9756 -0.8842
4309000000.0 -0.0435 -1.291
4312000000.0 -1.025 -0.7877
4316000000.0 -1.319 0.2389
4319000000.0 -0.6163 1.158
4322000000.0 0.439 1.242
4325000000.0 1.251 0.4389
4328000000.0 1.166 -0.6835
4331000000.0 0.2142 -1.372
4334000000.0 -0.895 -1.025
4338000000.0 -1.394 0.01107
4341000000.0 -0.9066 1.107
4344000000.0 0.2766 1.428
4347000000.0 1.263 0.6874
4350000000.0 1.323 -0.5325
4353000000.0 0.4285 -1.364
4356000000.0 -0.8167 -1.253
4359000000.0 -1.448 -0.1737
4362000000.0 -1.086 1.003
4366000000.0 0.06937 1.496
4369000000.0 1.242 0.8959
4372000000.0 1.455 -0.3119
4375000000.0 0.6798 -1.354
4378000000.0 -0.6283 -1.363
4381000000.0 -1.471 -0.4255
4384000000.0 -1.279 0.9391
4388000000.0 -0.1138 1.588
4391000000.0 1.171 1.055
4394000000.0 1.57 -0.2368
4397000000.0 0.8154 -1.359
4400000000.0 -0.5898 -1.474
4403000000.0 -1.515 -0.4609
4406000000.0 -1.301 0.9001
4409000000.0 -0.08841 1.593
4412000000.0 1.171 1.022
4416000000.0 1.54 -0.2717
4419000000.0 0.6829 -1.383
4422000000.0 -0.6548 -1.386
4425000000.0 -1.475 -0.3483
4428000000.0 -1.157 0.9192
4431000000.0 0.02873 1.457
4434000000.0 1.144 0.9119
4438000000.0 1.405 -0.3825
4441000000.0 0.5489 -1.276
4444000000.0 -0.6634 -1.206
4447000000.0 -1.354 -0.2177
4450000000.0 -0.9956 0.9317
4453000000.0 0.1254 1.312
4456000000.0 1.131 0.6927
4459000000.0 1.209 -0.4349
4462000000.0 0.4068 -1.209
4466000000.0 -0.7598 -0.9973
4469000000.0 -1.214 -0.04627
4472000000.0 -0.7911 0.9125
4475000000.0 0.2223 1.145
4478000000.0 1.085 0.5226
4481000000.0 1.081 -0.5365
4484000000.0 0.2464 -1.125
4488000000.0 -0.7426 -0.913
4491000000.0 -1.159 0.002903
4494000000.0 -0.6958 0.8648
4497000000.0 0.256 1.103
4500000000.0 1.05 0.475
4503000000.0 1.026 -0.4798
4506000000.0 0.275 -1.087
4509000000.0 -0.6792 -0.889
4512000000.0 -1.145 0.002185
4516000000.0 -0.7508 0.8392
4519000000.0 0.1907 1.125
4522000000.0 0.9977 0.5418
4525000000.0 1.088 -0.4371
4528000000.0 0.3611 -1.107
4531000000.0 -0.6763 -0.9692
4534000000.0 -1.197 -0.1361
4538000000.0 -0.8589 0.8111
4541000000.0 0.08935 1.206
4544000000.0 0.964 0.7043
4547000000.0 1.196 -0.3255
4550000000.0 0.4992 -1.114
4553000000.0 -0.5251 -1.119
4556000000.0 -1.213 -0.314
4559000000.0 -1.038 0.7124
4562000000.0 -0.09349 1.245
4566000000.0 0.9146 0.8837
4569000000.0 1.289 -0.1155
4572000000.0 0.7232 -1.095
4575000000.0 -0.364 -1.282
4578000000.0 -1.217 -0.5546
4581000000.0 -1.2 0.5925
4584000000.0 -0.3275 1.328
4588000000.0 0.8098 1.106
4591000000.0 1.383 0.0558
4594000000.0 0.9232 -1.03
4597000000.0 -0.2118 -1.372
4600000000.0 -1.212 -0.7515
4603000000.0 -1.354 0.4774
4606000000.0 -0.5082 1.344
4609000000.0 0.7067 1.231
4612000000.0 1.404 0.2131
4616000000.0 1.055 -0.9326
4619000000.0 -0.05506 -1.423
4622000000.0 -1.166 -0.8298
4625000000.0 -1.357 0.3349
4628000000.0 -0.5785 1.288
4631000000.0 0.6349 1.253
4634000000.0 1.345 0.2973
4638000000.0 1.094 -0.8842
4641000000.0 -0.008831 -1.38
4644000000.0 -1.07 -0.8696
4647000000.0 -1.318 0.2958
4650000000.0 -0.5941 1.211
4653000000.0 0.5813 1.194
4656000000.0 1.273 0.2984
4659000000.0 0.9831 -0.8133
4662000000.0 -0.008455 -1.23
4666000000.0 -0.9991 -0.7712
4669000000.0 -1.223 0.3098
4672000000.0 -0.505 1.092
4675000000.0 0.5472 1.053
4678000000.0 1.169 0.2317
4681000000.0 0.8808 -0.7484
4684000000.0 -0.01226 -1.124
4688000000.0 -0.8822 -0.6511
4691000000.0 -1.086 0.2842
4694000000.0 -0.4675 1.006
4697000000.0 0.4939 0.9784
4700000000.0 1.064 0.1824
4703000000.0 0.8341 -0.7124
4706000000.0 -0.04021 -1.06
4709000000.0 -0.8629 -0.643
4712000000.0 -1.089 0.3035
4716000000.0 -0.448 1.006
4719000000.0 0.5084 0.9265
4722000000.0 1.01 0.2107
4725000000.0 0.7927 -0.6779
4728000000.0 -0.05633 -1.059
4731000000.0 -0.8545 -0.659
4734000000.0 -1.027 0.2497
4738000000.0 -0.4755 0.9586
4741000000.0 0.3985 0.9745
4744000000.0 1.018 0.301
4747000000.0 0.9094 -0.6224
4750000000.0 0.1137 -1.1
4753000000.0 -0.7855 -0.7699
4756000000.0 -1.096 0.09366
4759000000.0 -0.6499 0.9036
4762000000.0 0.2841 1.088
4766000000.0 1.063 0.5019
4769000000.0 1.066 -0.5271
4772000000.0 0.307 -1.157
4775000000.0 -0.6728 -0.9397
4778000000.0 -1.217 -0.07862
4781000000.0 -0.8197 0.8676
4784000000.0 0.1327 1.187
4788000000.0 1.023 0.7099
4791000000.0 1.201 -0.3435
4794000000.0 0.5062 -1.135
4797000000.0 -0.5219 -1.165
4800000000.0 -1.243 -0.3303
4803000000.0 -1.076 0.7189
4806000000.0 -0.1256 1.264
4809000000.0 0.9082 0.8987
4812000000.0 1.294 -0.08277
4816000000.0 0.7737 -1.072
4819000000.0 -0.3138 -1.307
4822000000.0 -1.258 -0.5727
4825000000.0 -1.235 0.6069
4828000000.0 -0.353 1.369
4831000000.0 0.8521 1.131
4834000000.0 1.418 0.04948
4838000000.0 0.9418 -1.062
4841000000.0 -0.2191 -1.385
4844000000.0 -1.223 -0.7265
4847000000.0 -1.315 0.487
4850000000.0 -0.4481 1.339
4853000000.0 0.7628 1.179
4856000000.0 1.38 0.1782
4859000000.0 0.9884 -0.9579
4862000000.0 -0.09305 -1.361
4866000000.0 -1.114 -0.7803
4869000000.0 -1.288 0.3838
4872000000.0 -0.5171 1.232
4875000000.0 0.6112 1.17
4878000000.0 1.296 0.2542
4881000000.0 0.9937 -0.8535
4884000000.0 -0.008726 -1.254
4888000000.0 -1.016 -0.7274
4891000000.0 -1.206 0.2823
4894000000.0 -0.5306 1.086
4897000000.0 0.5072 1.064
4900000000.0 1.127 0.2751
4903000000.0 0.875 -0.6752
4906000000.0 0.02536 -1.082
4909000000.0 -0.8286 -0.6666
4912000000.0 -1.01 0.2206
4916000000.0 -0.4789 0.9094
4919000000.0 0.3986 0.9273
4922000000.0 0.9518 0.2582
4925000000.0 0.8206 -0.555
4928000000.0 0.1074 -0.9612
4931000000.0 -0.6963 -0.6469
4934000000.0 -0.941 0.07892
4938000000.0 -0.5282 0.7766
4941000000.0 0.2625 0.9126
4944000000.0 0.8735 0.3874
4947000000.0 0.8535 -0.4634
4950000000.0 0.1743 -0.9509
4953000000.0 -0.6267 -0.7501
4956000000.0 -0.9599 0.02469
4959000000.0 -0.6024 0.7776
4962000000.0 0.198 0.9589
4966000000.0 0.902 0.4508
4969000000.0 0.9253 -0.4177
4972000000.0 0.2926 -0.9836
4975000000.0 -0.5816 -0.8333
4978000000.0 -1.032 -0.08903
4981000000.0 -0.6987 0.7711
4984000000.0 0.1323 1.061
4988000000.0 0.9037 0.5602
4991000000.0 1.053 -0.3491
4994000000.0 0.4017 -1.023
4997000000.0 -0.5332 -1.004
5000000000.0 -1.139 -0.2409
5003000000.0 -0.9001 0.7316
5006000000.0 -0.00174 1.202
5009000000.0 0.9052 0.7841
5012000000.0 1.229 -0.2096
5016000000.0 0.6119 -1.087
5019000000.0 -0.4474 -1.164
5022000000.0 -1.193 -0.3816
5025000000.0 -1.074 0.7117
5028000000.0 -0.1593 1.295
5031000000.0 0.8787 0.9444
5034000000.0 1.298 -0.08769
5038000000.0 0.7892 -1.029
5041000000.0 -0.3303 -1.291
5044000000.0 -1.211 -0.5654
5047000000.0 -1.203 0.5168
5050000000.0 -0.3741 1.255
5053000000.0 0.7138 1.076
5056000000.0 1.315 0.1113
5059000000.0 0.9138 -0.9192
5062000000.0 -0.07624 -1.297
5066000000.0 -1.1 -0.751
5069000000.0 -1.249 0.3765
5072000000.0 -0.5637 1.21
5075000000.0 0.5271 1.187
5078000000.0 1.242 0.3146
5081000000.0 1.008 -0.709
5084000000.0 0.04242 -1.268
5088000000.0 -0.9001 -0.8581
5091000000.0 -1.196 0.1627
5094000000.0 -0.626 0.9988
5097000000.0 0.3622 1.115
5100000000.0 1.073 0.4626
5103000000.0 1.02 -0.5416
5106000000.0 0.2678 -1.09
5109000000.0 -0.663 -0.8966
5112000000.0 -1.084 -0.08058
5116000000.0 -0.749 0.8031
5119000000.0 0.146 1.019
5122000000.0 0.8749 0.5917
5125000000.0 1.002 -0.3227
5128000000.0 0.4007 -0.9513
5131000000.0 -0.4574 -0.9183
5134000000.0 -1.027 -0.1994
5138000000.0 -0.7713 0.6357
5141000000.0 -0.001787 0.9758
5144000000.0 0.763 0.5729
5147000000.0 0.9556 -0.1987
5150000000.0 0.4172 -0.8358
5153000000.0 -0.3709 -0.8829
5156000000.0 -0.8843 -0.2753
5159000000.0 -0.7526 0.5178
5162000000.0 -0.07141 0.922
5166000000.0 0.6284 0.6296
5169000000.0 0.9025 -0.1168
5172000000.0 0.4887 -0.7895
5175000000.0 -0.313 -0.8515
5178000000.0 -0.856 -0.316
5181000000.0 -0.777 0.5068
5184000000.0 -0.1028 0.9154
5188000000.0 0.6355 0.668
5191000000.0 0.937 -0.08799
5194000000.0 0.4826 -0.8219
5197000000.0 -0.3149 -0.8861
5200000000.0 -0.8928 -0.309
5203000000.0 -0.8138 0.4901
5206000000.0 -0.1152 0.9693
5209000000.0 0.6562 0.7283
5212000000.0 0.9796 -0.05868
5216000000.0 0.555 -0.8181
5219000000.0 -0.2987 -0.9358
5222000000.0 -0.962 -0.3922
5225000000.0 -0.8765 0.4701
5228000000.0 -0.1836 1.008
5231000000.0 0.6449 0.8025
5234000000.0 1.059 -0.008523
5238000000.0 0.6516 -0.7981
5241000000.0 -0.2165 -1.036
5244000000.0 -0.9152 -0.5148
5247000000.0 -0.9683 0.3896
5250000000.0 -0.3106 1.003
5253000000.0 0.5807 0.9404
5256000000.0 1.085 0.1541
5259000000.0 0.8071 -0.7595
5262000000.0 -0.0547 -1.088
5266000000.0 -0.8825 -0.669
5269000000.0 -1.097 0.2464
5272000000.0 -0.5179 0.9624
5275000000.0 0.427 1.028
5278000000.0 1.07 0.3353
5281000000.0 0.9624 -0.5971
5284000000.0 0.1532 -1.13
5288000000.0 -0.7132 -0.8314
5291000000.0 -1.155 -0.005375
5294000000.0 -0.7431 0.8748
5297000000.0 0.2057 1.122
5300000000.0 0.9611 0.5782
5303000000.0 1.078 -0.3575
5306000000.0 0.4126 -1.052
5309000000.0 -0.5728 -1.021
5312000000.0 -1.134 -0.2351
5316000000.0 -0.9163 0.7399
5319000000.0 -0.02781 1.146
5322000000.0 0.891 0.7755
5325000000.0 1.161 -0.175
5328000000.0 0.5974 -0.9869
5331000000.0 -0.3961 -1.078
5334000000.0 -1.073 -0.392
5338000000.0 -0.9721 0.5919
5341000000.0 -0.1823 1.128
5344000000.0 0.7493 0.8442
5347000000.0 1.135 -0.0594
5350000000.0 0.6766 -0.8507
5353000000.0 -0.2935 -1.088
5356000000.0 -1.004 -0.4512
5359000000.0 -0.9979 0.452
5362000000.0 -0.2622 1.038
5366000000.0 0.6327 0.8327
5369000000.0 1.04 0.07213
5372000000.0 0.6688 -0.8163
5375000000.0 -0.209 -1.036
5378000000.0 -0.8986 -0.4953
5381000000.0 -0.9211 0.3992
5384000000.0 -0.2804 0.9777
5388000000.0 0.597 0.7763
5391000000.0 0.963 0.01058
5394000000.0 0.5833 -0.7698
5397000000.0 -0.1932 -0.893
5400000000.0 -0.8415 -0.3933
5403000000.0 -0.8053 0.3958
5406000000.0 -0.199 0.9081
5409000000.0 0.5646 0.6982
5412000000.0 0.889 0.01246
5416000000.0 0.5439 -0.6948
5419000000.0 -0.1997 -0.848
5422000000.0 -0.8057 -0.3663
5425000000.0 -0.7801 0.3593
5428000000.0 -0.2016 0.8263
5431000000.0 0.5655 0.6959
5434000000.0 0.9065 -0.03637
5438000000.0 0.5369 -0.7069
5441000000.0 -0.2087 -0.8596
5444000000.0 -0.797 -0.3808
5447000000.0 -0.8071 0.3921
5450000000.0 -0.1738 0.8642
5453000000.0 0.5516 0.726
5456000000.0 0.9075 0.02047
5459000000.0 0.6111 -0.6955
5462000000.0 -0.1704 -0.8899
5466000000.0 -0.7978 -0.4803
5469000000.0 -0.8565 0.3222
5472000000.0 -0.3193 0.8762
5475000000.0 0.4875 0.8137
5478000000.0 0.9201 0.1406
5481000000.0 0.7339 -0.6181
5484000000.0 -0.002706 -0.9608
5488000000.0 -0.7852 -0.606
5491000000.0 -0.9668 0.1601
5494000000.0 -0.4841 0.8664
5497000000.0 0.3675 0.9722
5500000000.0 0.9752 0.3423
5503000000.0 0.8612 -0.5121
5506000000.0 0.1414 -1.015
5509000000.0 -0.7137 -0.7981
5512000000.0 -1.066 0.04034
5516000000.0 -0.6279 0.8153
5519000000.0 0.1919 1.04
5522000000.0 0.9259 0.5185
5525000000.0 0.9787 -0.4138
5528000000.0 0.34 -1.038
5531000000.0 -0.523 -0.9311
5534000000.0 -1.065 -0.1782
5538000000.0 -0.8432 0.7277
5541000000.0 0.04434 1.065
5544000000.0 0.8279 0.7062
5547000000.0 1.05 -0.2101
5550000000.0 0.5175 -0.962
5553000000.0 -0.3867 -0.9652
5556000000.0 -1.008 -0.3237
5559000000.0 -0.8937 0.5938
5562000000.0 -0.1327 1.049
5566000000.0 0.6789 0.7808
5569000000.0 1.061 -0.03461
5572000000.0 0.6303 -0.8271
5575000000.0 -0.2328 -0.9644
5578000000.0 -0.9123 -0.4062
5581000000.0 -0.9015 0.4438
5584000000.0 -0.2793 0.9498
5588000000.0 0.5546 0.7649
5591000000.0 0.9646 0.05619
5594000000.0 0.6148 -0.7051
5597000000.0 -0.1037 -0.9294
5600000000.0 -0.7859 -0.4802
5603000000.0 -0.8739 0.312
5606000000.0 -0.3107 0.8597
5609000000.0 0.4499 0.7651
5612000000.0 0.8519 0.1415
5616000000.0 0.6457 -0.5962
5619000000.0 -0.04702 -0.8492
5622000000.0 -0.6875 -0.5009
5625000000.0 -0.818 0.2462
5628000000.0 -0.3272 0.7852
5631000000.0 0.4129 0.7456
5634000000.0 0.8342 0.1497
5638000000.0 0.6171 -0.563
5641000000.0 -0.03164 -0.8467
5644000000.0 -0.6655 -0.4767
5647000000.0 -0.8064 0.2113
5650000000.0 -0.353 0.7822
5653000000.0 0.3968 0.7756
5656000000.0 0.832 0.1467
5659000000.0 0.6873 -0.5783
5662000000.0 -0.03033 -0.8504
5666000000.0 -0.7026 -0.536
5669000000.0 -0.8589 0.1989
5672000000.0 -0.384 0.8312
5675000000.0 0.3969 0.8183
5678000000.0 0.9139 0.1774
5681000000.0 0.7277 -0.5879
5684000000.0 -0.01515 -0.9618
5688000000.0 -0.76 -0.5835
5691000000.0 -0.9605 0.2153
5694000000.0 -0.4211 0.8953
5697000000.0 0.4306 0.9202
5700000000.0 0.99 0.2623
5703000000.0 0.833 -0.5954
5706000000.0 0.0635 -1.037
5709000000.0 -0.7768 -0.6898
5712000000.0 -1.044 0.1543
5716000000.0 -0.521 0.9099
5719000000.0 0.3671 0.9913
5722000000.0 1.031 0.3896
5725000000.0 0.9416 -0.5347
5728000000.0 0.1809 -1.065
5731000000.0 -0.6932 -0.8251
5734000000.0 -1.127 0.01997
5738000000.0 -0.7056 0.8554
5741000000.0 0.2343 1.086
5744000000.0 0.9985 0.5384
5747000000.0 1.099 -0.417
5750000000.0 0.3603 -1.077
5753000000.0 -0.5744 -0.9279
5756000000.0 -1.08 -0.1724
5759000000.0 -0.8115 0.7531
5762000000.0 0.06235 1.137
5766000000.0 0.8778 0.6861
5769000000.0 1.107 -0.2316
5772000000.0 0.4893 -1.002
5775000000.0 -0.4593 -1.017
5778000000.0 -1.062 -0.3485
5781000000.0 -0.9293 0.5955
5784000000.0 -0.1155 1.105
5788000000.0 0.7711 0.8118
5791000000.0 1.11 -0.08748
5794000000.0 0.5916 -0.8618
5797000000.0 -0.2853 -1.055
5800000000.0 -1.0 -0.4673
5803000000.0 -0.9818 0.4646
5806000000.0 -0.246 1.049
5809000000.0 0.6425 0.8397
5812000000.0 1.049 0.06904
5816000000.0 0.7049 -0.7901
5819000000.0 -0.1492 -1.032
5822000000.0 -0.9082 -0.5415
5825000000.0 -0.9462 0.3502
5828000000.0 -0.3322 0.9515
5831000000.0 0.5401 0.8431
5834000000.0 0.9751 0.1043
5838000000.0 0.7268 -0.6811
5841000000.0 -0.1053 -0.9709
5844000000.0 -0.7885 -0.5664
5847000000.0 -0.9017 0.322
5850000000.0 -0.3494 0.8695
5853000000.0 0.4712 0.8492
5856000000.0 0.8955 0.1729
5859000000.0 0.7102 -0.6019
5862000000.0 -0.05722 -0.9517
5866000000.0 -0.742 -0.5164
5869000000.0 -0.8873 0.2595
5872000000.0 -0.3544 0.8293
5875000000.0 0.4219 0.8362
5878000000.0 0.87 0.1561
5881000000.0 0.654 -0.5955
5884000000.0 -0.01874 -0.9195
5888000000.0 -0.6892 -0.5242
5891000000.0 -0.8477 0.2173
5894000000.0 -0.3414 0.792
5897000000.0 0.3574 0.8067
5900000000.0 0.8301 0.1767
5903000000.0 0.7067 -0.5262
5906000000.0 0.02683 -0.8465
5909000000.0 -0.6536 -0.5753
5912000000.0 -0.8798 0.1206
5916000000.0 -0.4324 0.7472
5919000000.0 0.3175 0.8294
5922000000.0 0.8372 0.3032
5925000000.0 0.7422 -0.4856
5928000000.0 0.131 -0.913
5931000000.0 -0.6178 -0.6736
5934000000.0 -0.9033 0.05316
5938000000.0 -0.5255 0.7081
5941000000.0 0.2387 0.8954
5944000000.0 0.8575 0.4055
5947000000.0 0.8507 -0.3434
5950000000.0 0.2677 -0.9083
5953000000.0 -0.5487 -0.7921
5956000000.0 -0.9397 -0.09774
5959000000.0 -0.6625 0.6861
5962000000.0 0.08263 0.9377
5966000000.0 0.7889 0.5639
5969000000.0 0.9603 -0.2578
5972000000.0 0.4582 -0.871
5975000000.0 -0.4216 -0.8871
5978000000.0 -0.9571 -0.2402
5981000000.0 -0.813 0.6003
5984000000.0 -0.06145 1.015
5988000000.0 0.743 0.7196
5991000000.0 1.019 -0.09694
5994000000.0 0.5698 -0.8306
5997000000.0 -0.2715 -0.9881
6000000000.0 -0.9614 -0.4116
6003000000.0 -0.9066 0.4767
6006000000.0 -0.1748 1.002
6009000000.0 0.6662 0.8218
6012000000.0 1.015 0.02944
6016000000.0 0.6673 -0.78
6019000000.0 -0.2051 -0.9864
6022000000.0 -0.8924 -0.4569
6025000000.0 -0.9282 0.3884
6028000000.0 -0.2716 0.9455
6031000000.0 0.521 0.7866
6034000000.0 0.9978 0.06947
6038000000.0 0.7051 -0.696
6041000000.0 -0.1313 -0.9642
6044000000.0 -0.8242 -0.5257
6047000000.0 -0.9216 0.2998
6050000000.0 -0.3495 0.9042
6053000000.0 0.4709 0.8398
6056000000.0 0.9294 0.1268
6059000000.0 0.6767 -0.6396
6062000000.0 -0.06428 -0.9134
6066000000.0 -0.7644 -0.5297
6069000000.0 -0.8541 0.2348
6072000000.0 -0.3348 0.8033
6075000000.0 0.4332 0.7635
6078000000.0 0.8686 0.156
6081000000.0 0.6538 -0.5618
6084000000.0 -0.02634 -0.8408
6088000000.0 -0.7026 -0.5412
6091000000.0 -0.837 0.2193
6094000000.0 -0.3969 0.7747
6097000000.0 0.3745 0.7417
6100000000.0 0.8403 0.1961
6103000000.0 0.6866 -0.54
6106000000.0 0.01934 -0.8882
6109000000.0 -0.6576 -0.5873
6112000000.0 -0.8678 0.1506
6116000000.0 -0.4126 0.784
6119000000.0 0.3271 0.7721
6122000000.0 0.8512 0.2108
6125000000.0 0.693 -0.5069
6128000000.0 0.06375 -0.9075
6131000000.0 -0.6549 -0.6242
6134000000.0 -0.8809 0.1147
6138000000.0 -0.4568 0.7746
6141000000.0 0.3161 0.8503
6144000000.0 0.8704 0.316
6147000000.0 0.769 -0.4737
6150000000.0 0.09526 -0.9341
6153000000.0 -0.6098 -0.6786
6156000000.0 -0.9311 0.06126
6159000000.0 -0.548 0.7859
6162000000.0 0.2353 0.9433
6166000000.0 0.858 0.4123
6169000000.0 0.865 -0.4343
6172000000.0 0.222 -0.9371
6175000000.0 -0.5802 -0.7623
6178000000.0 -0.969 -0.02271
6181000000.0 -0.641 0.7475
6184000000.0 0.1731 0.934
6188000000.0 0.8401 0.4543
6191000000.0 0.9162 -0.364
6194000000.0 0.3162 -0.9138
6197000000.0 -0.5093 -0.8001
6200000000.0 -0.9655 -0.08338
6203000000.0 -0.6821 0.6557
6206000000.0 0.0947 0.9533
6209000000.0 0.7406 0.5542
6212000000.0 0.9022 -0.2631
6216000000.0 0.3888 -0.8539
6219000000.0 -0.4114 -0.8356
6222000000.0 -0.898 -0.2314
6225000000.0 -0.7513 0.5437
6228000000.0 -0.006957 0.9263
6231000000.0 0.6649 0.6075
6234000000.0 0.8685 -0.141
6238000000.0 0.4834 -0.783
6241000000.0 -0.3056 -0.8238
6244000000.0 -0.8079 -0.3142
6247000000.0 -0.7339 0.4044
6250000000.0 -0.1393 0.8692
6253000000.0 0.5498 0.633
6256000000.0 0.8509 -0.04184
6259000000.0 0.5411 -0.6607
6262000000.0 -0.1769 -0.8095
6266000000.0 -0.7004 -0.3726
6269000000.0 -0.799 0.265
