! Created with skrf 1.8.0 (http://scikit-rf.org).
# Hz S RI R 50.0 
!freq ReS11 ImS11
4000000000.0 -0.1992 -1.504
4003000000.0 -1.28 -0.76
4006000000.0 -1.426 0.4976
4009000000.0 -0.4861 1.436
4012000000.0 0.7773 1.324
4016000000.0 1.552 0.1394
4019000000.0 1.082 -1.094
4022000000.0 -0.09978 -1.575
4025000000.0 -1.371 -0.9255
4028000000.0 -1.529 0.5033
4031000000.0 -0.6093 1.504
4034000000.0 0.8843 1.366
4038000000.0 1.602 0.212
4041000000.0 1.195 -1.133
4044000000.0 -0.162 -1.584
4047000000.0 -1.401 -0.844
4050000000.0 -1.553 0.4756
4053000000.0 -0.5896 1.503
4056000000.0 0.8069 1.414
4059000000.0 1.609 0.3365
4062000000.0 1.251 -1.05
4066000000.0 -0.008467 -1.63
4069000000.0 -1.244 -1.037
4072000000.0 -1.621 0.2631
4075000000.0 -0.7843 1.419
4078000000.0 0.6158 1.514
4081000000.0 1.588 0.5149
4084000000.0 1.386 -0.8879
4088000000.0 0.2337 -1.635
4091000000.0 -1.125 -1.202
4094000000.0 -1.658 0.1113
4097000000.0 -0.9734 1.325
4100000000.0 0.4218 1.575
4103000000.0 1.441 0.6554
4106000000.0 1.449 -0.6792
4109000000.0 0.3779 -1.484
4112000000.0 -0.8589 -1.281
4116000000.0 -1.491 -0.1754
4119000000.0 -1.098 1.027
4122000000.0 0.04644 1.487
4125000000.0 1.158 0.9617
4128000000.0 1.466 -0.2454
4131000000.0 0.7263 -1.307
4134000000.0 -0.456 -1.421
4138000000.0 -1.394 -0.5892
4141000000.0 -1.316 0.6702
4144000000.0 -0.3492 1.453
4147000000.0 0.8752 1.239
4150000000.0 1.498 0.1055
4153000000.0 1.077 -1.083
4156000000.0 -0.1591 -1.53
4159000000.0 -1.243 -0.8667
4162000000.0 -1.437 0.4227
4166000000.0 -0.6024 1.362
4169000000.0 0.6829 1.375
4172000000.0 1.42 0.3773
4175000000.0 1.215 -0.8941
4178000000.0 0.08098 -1.501
4181000000.0 -1.09 -1.061
4184000000.0 -1.514 0.1486
4188000000.0 -0.852 1.233
4191000000.0 0.3811 1.49
4194000000.0 1.424 0.5947
4197000000.0 1.384 -0.7383
4200000000.0 0.3228 -1.535
4203000000.0 -1.025 -1.245
4206000000.0 -1.621 0.02888
4209000000.0 -0.9776 1.282
4212000000.0 0.4137 1.614
4216000000.0 1.526 0.6739
4219000000.0 1.459 -0.8246
4222000000.0 0.2527 -1.653
4225000000.0 -1.171 -1.191
4228000000.0 -1.667 0.2233
4231000000.0 -0.827 1.43
4234000000.0 0.6409 1.538
4238000000.0 1.583 0.4388
4241000000.0 1.275 -1.006
4244000000.0 -0.005858 -1.613
4247000000.0 -1.23 -0.9815
4250000000.0 -1.554 0.4178
4253000000.0 -0.5926 1.432
4256000000.0 0.7515 1.318
4259000000.0 1.505 0.2398
4262000000.0 1.051 -1.07
4266000000.0 -0.1509 -1.54
4269000000.0 -1.253 -0.805
4272000000.0 -1.367 0.4982
4275000000.0 -0.4998 1.385
4278000000.0 0.8182 1.175
4281000000.0 1.447 0.1329
4284000000.0 0.9431 -1.074
4288000000.0 -0.2156 -1.369
4291000000.0 -1.186 -0.6858
4294000000.0 -1.285 0.4632
4297000000.0 -0.4116 1.255
4300000000.0 0.6709 1.102
4303000000.0 1.272 0.1942
4306000000.0 0.9447 -0.8592
4309000000.0 -0.04965 -1.294
4312000000.0 -1.005 -0.8108
4316000000.0 -1.239 0.2644
4319000000.0 -0.6325 1.111
4322000000.0 0.4609 1.201
4325000000.0 1.263 0.3985
4328000000.0 1.141 -0.6685
4331000000.0 0.2103 -1.328
4334000000.0 -0.9333 -1.017
4338000000.0 -1.389 0.02546
4341000000.0 -0.9121 1.098
4344000000.0 0.3018 1.392
4347000000.0 1.255 0.6828
4350000000.0 1.341 -0.5111
4353000000.0 0.443 -1.396
4356000000.0 -0.7694 -1.196
4359000000.0 -1.45 -0.1614
4362000000.0 -1.051 1.017
4366000000.0 0.0558 1.466
4369000000.0 1.206 0.8896
4372000000.0 1.429 -0.3476
4375000000.0 0.6451 -1.331
4378000000.0 -0.6243 -1.348
4381000000.0 -1.456 -0.3726
4384000000.0 -1.233 0.903
4388000000.0 -0.08145 1.513
4391000000.0 1.161 1.056
4394000000.0 1.536 -0.248
4397000000.0 0.7567 -1.375
4400000000.0 -0.5915 -1.445
4403000000.0 -1.534 -0.4059
4406000000.0 -1.285 0.9102
4409000000.0 -0.06249 1.56
4412000000.0 1.136 1.048
4416000000.0 1.509 -0.317
4419000000.0 0.6514 -1.37
4422000000.0 -0.6541 -1.358
4425000000.0 -1.43 -0.3309
4428000000.0 -1.133 0.9139
4431000000.0 0.04438 1.444
4434000000.0 1.133 0.8644
4438000000.0 1.342 -0.362
4441000000.0 0.5204 -1.286
4444000000.0 -0.6672 -1.207
4447000000.0 -1.299 -0.2039
4450000000.0 -0.9331 0.9165
4453000000.0 0.1165 1.309
4456000000.0 1.095 0.6854
4459000000.0 1.181 -0.4358
4462000000.0 0.3693 -1.2
4466000000.0 -0.7283 -1.02
4469000000.0 -1.204 -0.02182
4472000000.0 -0.765 0.9048
4475000000.0 0.2903 1.164
4478000000.0 1.055 0.512
4481000000.0 1.036 -0.4894
4484000000.0 0.2455 -1.122
4488000000.0 -0.759 -0.8945
4491000000.0 -1.144 0.03753
4494000000.0 -0.6919 0.9103
4497000000.0 0.2579 1.115
4500000000.0 1.031 0.4431
4503000000.0 0.9737 -0.4944
4506000000.0 0.2522 -1.074
4509000000.0 -0.6849 -0.8699
4512000000.0 -1.102 -0.0372
4516000000.0 -0.7134 0.8561
4519000000.0 0.2334 1.105
4522000000.0 1.022 0.5523
4525000000.0 1.043 -0.4354
4528000000.0 0.3723 -1.111
4531000000.0 -0.6299 -0.9854
4534000000.0 -1.157 -0.1157
4538000000.0 -0.83 0.8486
4541000000.0 0.1113 1.191
4544000000.0 0.981 0.6747
4547000000.0 1.141 -0.3314
4550000000.0 0.5147 -1.102
4553000000.0 -0.5431 -1.085
4556000000.0 -1.173 -0.3112
4559000000.0 -0.9826 0.7125
4562000000.0 -0.09639 1.256
4566000000.0 0.8973 0.8653
4569000000.0 1.252 -0.1407
4572000000.0 0.7167 -1.075
4575000000.0 -0.3802 -1.243
4578000000.0 -1.207 -0.512
4581000000.0 -1.176 0.6078
4584000000.0 -0.3106 1.289
4588000000.0 0.8235 1.091
4591000000.0 1.379 0.05969
4594000000.0 0.9112 -1.013
4597000000.0 -0.2151 -1.363
4600000000.0 -1.187 -0.7337
4603000000.0 -1.318 0.4782
4606000000.0 -0.4867 1.315
4609000000.0 0.735 1.185
4612000000.0 1.364 0.1996
4616000000.0 1.039 -0.9639
4619000000.0 -0.09975 -1.388
4622000000.0 -1.104 -0.8
4625000000.0 -1.351 0.3723
4628000000.0 -0.561 1.243
4631000000.0 0.6118 1.207
4634000000.0 1.32 0.286
4638000000.0 1.063 -0.8452
4641000000.0 -0.005238 -1.354
4644000000.0 -1.061 -0.8277
4647000000.0 -1.27 0.3208
4650000000.0 -0.5559 1.19
4653000000.0 0.5998 1.153
4656000000.0 1.241 0.2232
4659000000.0 0.9839 -0.8078
4662000000.0 -0.02596 -1.245
4666000000.0 -0.9752 -0.7538
4669000000.0 -1.203 0.2887
4672000000.0 -0.4834 1.083
4675000000.0 0.5727 1.01
4678000000.0 1.134 0.2127
4681000000.0 0.8535 -0.7483
4684000000.0 -0.03547 -1.141
4688000000.0 -0.8623 -0.66
4691000000.0 -1.049 0.2719
4694000000.0 -0.4253 1.012
4697000000.0 0.506 0.9778
4700000000.0 1.083 0.1888
4703000000.0 0.8197 -0.7435
4706000000.0 -0.07706 -1.106
4709000000.0 -0.8574 -0.6315
4712000000.0 -1.029 0.2878
4716000000.0 -0.4247 1.012
4719000000.0 0.5128 0.9345
4722000000.0 1.005 0.1867
4725000000.0 0.7927 -0.6928
4728000000.0 -0.05063 -1.053
4731000000.0 -0.8395 -0.6155
4734000000.0 -1.035 0.2436
4738000000.0 -0.4723 0.9425
4741000000.0 0.452 0.9738
4744000000.0 1.049 0.2747
4747000000.0 0.8733 -0.6086
4750000000.0 0.0953 -1.079
4753000000.0 -0.7626 -0.7413
4756000000.0 -1.086 0.08044
4759000000.0 -0.6181 0.9083
4762000000.0 0.3254 1.071
4766000000.0 1.074 0.4452
4769000000.0 1.025 -0.4993
4772000000.0 0.2847 -1.125
4775000000.0 -0.6817 -0.9367
4778000000.0 -1.203 -0.05991
4781000000.0 -0.837 0.8539
4784000000.0 0.1317 1.207
4788000000.0 1.023 0.6805
4791000000.0 1.167 -0.3392
4794000000.0 0.497 -1.142
4797000000.0 -0.527 -1.128
4800000000.0 -1.24 -0.3254
4803000000.0 -1.046 0.7022
4806000000.0 -0.1071 1.241
4809000000.0 0.93 0.9068
4812000000.0 1.279 -0.1165
4816000000.0 0.7577 -1.088
4819000000.0 -0.3523 -1.274
4822000000.0 -1.219 -0.5635
4825000000.0 -1.217 0.5918
4828000000.0 -0.3153 1.337
4831000000.0 0.8247 1.093
4834000000.0 1.417 0.06378
4838000000.0 0.9386 -1.044
4841000000.0 -0.2467 -1.398
4844000000.0 -1.225 -0.6922
4847000000.0 -1.297 0.5014
4850000000.0 -0.4305 1.332
4853000000.0 0.7302 1.159
4856000000.0 1.356 0.1665
4859000000.0 0.9934 -0.9452
4862000000.0 -0.09635 -1.37
4866000000.0 -1.115 -0.7723
4869000000.0 -1.272 0.3581
4872000000.0 -0.4837 1.23
4875000000.0 0.5852 1.149
4878000000.0 1.242 0.2296
4881000000.0 0.9616 -0.8318
4884000000.0 -0.01568 -1.264
4888000000.0 -0.959 -0.7373
4891000000.0 -1.172 0.2977
4894000000.0 -0.4979 1.112
4897000000.0 0.5138 1.02
4900000000.0 1.115 0.2311
4903000000.0 0.874 -0.7071
4906000000.0 0.004511 -1.089
4909000000.0 -0.808 -0.6667
4912000000.0 -1.018 0.2268
4916000000.0 -0.4786 0.8991
4919000000.0 0.395 0.9435
4922000000.0 0.9252 0.2601
4925000000.0 0.7804 -0.5394
4928000000.0 0.0811 -0.9413
4931000000.0 -0.6808 -0.6536
4934000000.0 -0.943 0.1215
4938000000.0 -0.4915 0.805
4941000000.0 0.2854 0.9009
4944000000.0 0.8763 0.3553
4947000000.0 0.8243 -0.4648
4950000000.0 0.1469 -0.9542
4953000000.0 -0.6212 -0.7228
4956000000.0 -0.9742 0.03239
4959000000.0 -0.5993 0.7493
4962000000.0 0.2024 0.9291
4966000000.0 0.8809 0.4344
4969000000.0 0.8952 -0.4242
4972000000.0 0.2411 -0.9844
4975000000.0 -0.5879 -0.8035
4978000000.0 -0.993 -0.04792
4981000000.0 -0.7136 0.7631
4984000000.0 0.1192 1.048
4988000000.0 0.9066 0.5855
4991000000.0 1.016 -0.3364
4994000000.0 0.411 -1.024
4997000000.0 -0.5114 -0.9997
5000000000.0 -1.116 -0.2325
5003000000.0 -0.8943 0.7078
5006000000.0 -0.005859 1.182
5009000000.0 0.9024 0.7754
5012000000.0 1.17 -0.218
5016000000.0 0.6066 -1.052
5019000000.0 -0.448 -1.166
5022000000.0 -1.208 -0.3796
5025000000.0 -1.059 0.6749
5028000000.0 -0.1593 1.285
5031000000.0 0.8995 0.9396
5034000000.0 1.252 -0.08301
5038000000.0 0.7821 -1.061
5041000000.0 -0.345 -1.253
5044000000.0 -1.173 -0.548
5047000000.0 -1.18 0.5499
5050000000.0 -0.3463 1.232
5053000000.0 0.7378 1.065
5056000000.0 1.304 0.1003
5059000000.0 0.9115 -0.9082
5062000000.0 -0.106 -1.301
5066000000.0 -1.059 -0.7567
5069000000.0 -1.224 0.3336
5072000000.0 -0.508 1.194
5075000000.0 0.5349 1.144
5078000000.0 1.235 0.3359
5081000000.0 0.9907 -0.7681
5084000000.0 0.06136 -1.207
5088000000.0 -0.876 -0.8393
5091000000.0 -1.205 0.1947
5094000000.0 -0.6355 0.9986
5097000000.0 0.3369 1.11
5100000000.0 1.061 0.4448
5103000000.0 1.023 -0.5232
5106000000.0 0.2491 -1.077
5109000000.0 -0.6697 -0.9093
5112000000.0 -1.102 -0.05529
5116000000.0 -0.7261 0.7575
5119000000.0 0.1572 1.031
5122000000.0 0.905 0.5397
5125000000.0 1.004 -0.3523
5128000000.0 0.3685 -0.9499
5131000000.0 -0.4496 -0.8806
5134000000.0 -0.9737 -0.162
5138000000.0 -0.7058 0.6537
5141000000.0 0.05647 0.9945
5144000000.0 0.7151 0.5848
5147000000.0 0.9374 -0.1644
5150000000.0 0.4468 -0.8292
5153000000.0 -0.3802 -0.8544
5156000000.0 -0.9093 -0.2348
5159000000.0 -0.7564 0.5236
5162000000.0 -0.07041 0.9047
5166000000.0 0.6501 0.6257
5169000000.0 0.8981 -0.1178
5172000000.0 0.4661 -0.7517
5175000000.0 -0.2828 -0.8429
5178000000.0 -0.8554 -0.3431
5181000000.0 -0.7802 0.4901
5184000000.0 -0.08297 0.9273
5188000000.0 0.6852 0.6722
5191000000.0 0.923 -0.1193
5194000000.0 0.4814 -0.8022
5197000000.0 -0.3074 -0.8761
5200000000.0 -0.8979 -0.3092
5203000000.0 -0.7916 0.5104
5206000000.0 -0.1125 0.9691
5209000000.0 0.6573 0.6829
5212000000.0 0.9546 -0.1116
5216000000.0 0.522 -0.8111
5219000000.0 -0.2903 -0.972
5222000000.0 -0.9444 -0.3834
5225000000.0 -0.8547 0.4581
5228000000.0 -0.1832 1.006
5231000000.0 0.6585 0.7946
5234000000.0 1.044 -0.004867
5238000000.0 0.6799 -0.7913
5241000000.0 -0.2165 -1.048
5244000000.0 -0.93 -0.5059
5247000000.0 -0.9857 0.3794
5250000000.0 -0.3401 1.006
5253000000.0 0.5737 0.9052
5256000000.0 1.059 0.1132
5259000000.0 0.8014 -0.7372
5262000000.0 -0.07809 -1.095
5266000000.0 -0.8679 -0.6527
5269000000.0 -1.087 0.2387
5272000000.0 -0.5092 0.9919
5275000000.0 0.4334 1.001
5278000000.0 1.055 0.3264
5281000000.0 0.9297 -0.5907
5284000000.0 0.151 -1.086
5288000000.0 -0.7463 -0.8382
5291000000.0 -1.096 0.04107
5294000000.0 -0.704 0.8727
5297000000.0 0.2056 1.109
5300000000.0 0.9612 0.5657
5303000000.0 1.068 -0.357
5306000000.0 0.3855 -1.073
5309000000.0 -0.5204 -1.002
5312000000.0 -1.158 -0.215
5316000000.0 -0.8784 0.7338
5319000000.0 0.00105 1.129
5322000000.0 0.866 0.7703
5325000000.0 1.151 -0.1978
5328000000.0 0.5766 -0.9767
5331000000.0 -0.4031 -1.085
5334000000.0 -1.085 -0.3641
5338000000.0 -0.9759 0.6037
5341000000.0 -0.1531 1.133
5344000000.0 0.7784 0.8437
5347000000.0 1.109 -0.06415
5350000000.0 0.6505 -0.8813
5353000000.0 -0.2956 -1.058
5356000000.0 -0.9822 -0.4463
5359000000.0 -0.9763 0.4851
5362000000.0 -0.2008 1.04
5366000000.0 0.6551 0.8319
5369000000.0 1.04 -0.01129
5372000000.0 0.651 -0.8301
5375000000.0 -0.1962 -1.012
5378000000.0 -0.895 -0.4798
5381000000.0 -0.9042 0.4233
5384000000.0 -0.2086 0.9516
5388000000.0 0.6329 0.7549
5391000000.0 0.9807 0.0002801
5394000000.0 0.5537 -0.7441
5397000000.0 -0.2238 -0.8661
5400000000.0 -0.8469 -0.3807
5403000000.0 -0.7849 0.4194
5406000000.0 -0.1655 0.8522
5409000000.0 0.5616 0.648
5412000000.0 0.8528 -0.03223
5416000000.0 0.5015 -0.6976
5419000000.0 -0.2224 -0.8234
5422000000.0 -0.7632 -0.3457
5425000000.0 -0.7692 0.4009
5428000000.0 -0.1685 0.8411
5431000000.0 0.5676 0.6628
5434000000.0 0.8806 -0.01498
5438000000.0 0.5179 -0.701
5441000000.0 -0.2393 -0.8756
5444000000.0 -0.8181 -0.3709
5447000000.0 -0.7753 0.4232
5450000000.0 -0.1833 0.8993
5453000000.0 0.5767 0.6966
5456000000.0 0.8934 -0.009423
5459000000.0 0.5859 -0.6597
5462000000.0 -0.1635 -0.8746
5466000000.0 -0.8036 -0.46
5469000000.0 -0.8548 0.3288
5472000000.0 -0.297 0.8776
5475000000.0 0.492 0.7845
5478000000.0 0.9501 0.1521
5481000000.0 0.7228 -0.6351
5484000000.0 0.008195 -0.959
5488000000.0 -0.7609 -0.6153
5491000000.0 -0.972 0.2026
5494000000.0 -0.4533 0.8782
5497000000.0 0.3766 0.9255
5500000000.0 0.9671 0.2874
5503000000.0 0.8621 -0.5215
5506000000.0 0.1265 -1.032
5509000000.0 -0.6915 -0.8085
5512000000.0 -1.052 0.06392
5516000000.0 -0.6278 0.8098
5519000000.0 0.2188 1.019
5522000000.0 0.9281 0.4741
5525000000.0 0.9796 -0.3885
5528000000.0 0.3329 -1.008
5531000000.0 -0.567 -0.9108
5534000000.0 -1.047 -0.1366
5538000000.0 -0.785 0.741
5541000000.0 0.02399 1.041
5544000000.0 0.8632 0.6556
5547000000.0 1.028 -0.2245
5550000000.0 0.5585 -0.9524
5553000000.0 -0.3819 -1.007
5556000000.0 -1.015 -0.3145
5559000000.0 -0.8986 0.6272
5562000000.0 -0.1332 1.054
5566000000.0 0.7496 0.7338
5569000000.0 1.055 -0.08151
5572000000.0 0.5731 -0.835
5575000000.0 -0.2887 -1.004
5578000000.0 -0.8968 -0.3829
5581000000.0 -0.8908 0.4172
5584000000.0 -0.2392 0.9386
5588000000.0 0.567 0.774
5591000000.0 0.9437 0.02647
5594000000.0 0.6186 -0.6934
5597000000.0 -0.1499 -0.8943
5600000000.0 -0.7732 -0.4414
5603000000.0 -0.812 0.3195
5606000000.0 -0.2895 0.8313
5609000000.0 0.4531 0.7576
5612000000.0 0.8767 0.1071
5616000000.0 0.6178 -0.6131
5619000000.0 -0.1023 -0.8423
5622000000.0 -0.7116 -0.4911
5625000000.0 -0.814 0.2351
5628000000.0 -0.2933 0.7742
5631000000.0 0.4028 0.7159
5634000000.0 0.8136 0.1442
5638000000.0 0.6427 -0.572
5641000000.0 -0.08161 -0.8318
5644000000.0 -0.6737 -0.4672
5647000000.0 -0.8315 0.2627
5650000000.0 -0.3079 0.7722
5653000000.0 0.429 0.7231
5656000000.0 0.8347 0.1468
5659000000.0 0.6438 -0.5434
5662000000.0 -0.04035 -0.8656
5666000000.0 -0.6991 -0.5192
5669000000.0 -0.8345 0.241
5672000000.0 -0.351 0.8218
5675000000.0 0.4292 0.8291
5678000000.0 0.9019 0.1871
5681000000.0 0.7151 -0.5987
5684000000.0 -0.01827 -0.9383
5688000000.0 -0.7726 -0.5631
5691000000.0 -0.9608 0.2585
5694000000.0 -0.4144 0.8786
5697000000.0 0.43 0.8969
5700000000.0 0.98 0.2366
5703000000.0 0.7814 -0.6177
5706000000.0 0.03035 -1.021
5709000000.0 -0.7755 -0.7069
5712000000.0 -1.074 0.1788
5716000000.0 -0.5781 0.8966
5719000000.0 0.4056 0.9944
5722000000.0 1.038 0.3422
5725000000.0 0.9227 -0.5287
5728000000.0 0.1398 -1.053
5731000000.0 -0.708 -0.8141
5734000000.0 -1.08 0.0212
5738000000.0 -0.6797 0.8714
5741000000.0 0.2291 1.097
5744000000.0 1.008 0.4899
5747000000.0 1.061 -0.4525
5750000000.0 0.3184 -1.093
5753000000.0 -0.6467 -0.9242
5756000000.0 -1.098 -0.07644
5759000000.0 -0.7981 0.7789
5762000000.0 0.09801 1.118
5766000000.0 0.9054 0.6619
5769000000.0 1.069 -0.2576
5772000000.0 0.4782 -0.9818
5775000000.0 -0.4759 -1.011
5778000000.0 -1.046 -0.2674
5781000000.0 -0.8955 0.611
5784000000.0 -0.09424 1.095
5788000000.0 0.7782 0.7688
5791000000.0 1.077 -0.0855
5794000000.0 0.5958 -0.9041
5797000000.0 -0.3115 -1.06
5800000000.0 -0.9927 -0.4277
5803000000.0 -0.9347 0.4834
5806000000.0 -0.2428 1.039
5809000000.0 0.6423 0.8582
5812000000.0 1.013 -0.001085
5816000000.0 0.6609 -0.7948
5819000000.0 -0.1735 -0.9879
5822000000.0 -0.8696 -0.493
5825000000.0 -0.9151 0.3596
5828000000.0 -0.3148 0.9616
5831000000.0 0.5403 0.8101
5834000000.0 0.9669 0.0953
5838000000.0 0.6738 -0.6823
5841000000.0 -0.09482 -0.9716
5844000000.0 -0.7954 -0.5238
5847000000.0 -0.875 0.3102
5850000000.0 -0.339 0.8989
5853000000.0 0.4543 0.809
5856000000.0 0.9483 0.1473
5859000000.0 0.6845 -0.637
5862000000.0 -0.05536 -0.9618
5866000000.0 -0.714 -0.5055
5869000000.0 -0.8394 0.2746
5872000000.0 -0.2995 0.8364
5875000000.0 0.4262 0.7642
5878000000.0 0.8936 0.1088
5881000000.0 0.654 -0.568
5884000000.0 -0.06541 -0.8682
5888000000.0 -0.686 -0.4936
5891000000.0 -0.8389 0.2459
5894000000.0 -0.3802 0.7858
5897000000.0 0.3825 0.7722
5900000000.0 0.8581 0.22
5903000000.0 0.6858 -0.5419
5906000000.0 0.0002678 -0.8637
5909000000.0 -0.6308 -0.5349
5912000000.0 -0.8508 0.1796
5916000000.0 -0.4144 0.7605
5919000000.0 0.3413 0.8408
5922000000.0 0.8109 0.2834
5925000000.0 0.7429 -0.4622
5928000000.0 0.106 -0.8737
5931000000.0 -0.6186 -0.656
5934000000.0 -0.921 0.09329
5938000000.0 -0.5085 0.7642
5941000000.0 0.2413 0.8797
5944000000.0 0.8322 0.3704
5947000000.0 0.8241 -0.3864
5950000000.0 0.2305 -0.8742
5953000000.0 -0.554 -0.7374
5956000000.0 -0.948 -0.08771
5959000000.0 -0.6459 0.6962
5962000000.0 0.1254 0.9333
5966000000.0 0.824 0.5212
5969000000.0 0.9165 -0.2621
5972000000.0 0.3412 -0.8654
5975000000.0 -0.4121 -0.9003
5978000000.0 -0.9537 -0.2347
5981000000.0 -0.7817 0.6041
5984000000.0 -0.05921 0.9977
5988000000.0 0.7214 0.6582
5991000000.0 0.9679 -0.1496
5994000000.0 0.5168 -0.8454
5997000000.0 -0.3245 -0.9824
6000000000.0 -0.9492 -0.3333
6003000000.0 -0.8617 0.5013
6006000000.0 -0.1404 0.9718
6009000000.0 0.6477 0.7591
6012000000.0 0.9907 -0.04497
6016000000.0 0.6202 -0.779
6019000000.0 -0.2391 -0.988
6022000000.0 -0.9133 -0.4272
6025000000.0 -0.8584 0.4053
6028000000.0 -0.2497 0.9276
6031000000.0 0.5907 0.7914
6034000000.0 0.9651 0.03114
6038000000.0 0.6737 -0.7089
6041000000.0 -0.1683 -0.9548
6044000000.0 -0.8233 -0.4457
6047000000.0 -0.8664 0.3374
6050000000.0 -0.2936 0.8785
6053000000.0 0.5022 0.7852
6056000000.0 0.8891 0.09328
6059000000.0 0.6319 -0.6108
6062000000.0 -0.1066 -0.9101
6066000000.0 -0.7613 -0.4653
6069000000.0 -0.8339 0.2649
6072000000.0 -0.2982 0.8319
6075000000.0 0.4686 0.7357
6078000000.0 0.8435 0.1241
6081000000.0 0.6261 -0.6055
6084000000.0 -0.05657 -0.8609
6088000000.0 -0.6932 -0.5
6091000000.0 -0.8424 0.2538
6094000000.0 -0.3419 0.784
6097000000.0 0.4116 0.7675
6100000000.0 0.8378 0.153
6103000000.0 0.6464 -0.5551
6106000000.0 -0.02842 -0.8498
6109000000.0 -0.6903 -0.5233
6112000000.0 -0.8416 0.1912
6116000000.0 -0.3771 0.781
6119000000.0 0.3837 0.7755
6122000000.0 0.8542 0.2105
6125000000.0 0.6856 -0.5599
6128000000.0 -0.004003 -0.8927
6131000000.0 -0.6777 -0.5652
6134000000.0 -0.8813 0.1682
6138000000.0 -0.4194 0.7576
6141000000.0 0.3356 0.824
6144000000.0 0.899 0.2434
6147000000.0 0.7265 -0.4953
6150000000.0 0.05887 -0.9247
6153000000.0 -0.6608 -0.6347
6156000000.0 -0.9094 0.0772
6159000000.0 -0.4929 0.7829
6162000000.0 0.2922 0.8978
6166000000.0 0.9038 0.3414
6169000000.0 0.8157 -0.4707
6172000000.0 0.1642 -0.9431
6175000000.0 -0.6402 -0.7021
6178000000.0 -0.9556 0.003768
6181000000.0 -0.5916 0.7536
6184000000.0 0.2326 0.9395
6188000000.0 0.8656 0.4153
6191000000.0 0.8469 -0.4111
6194000000.0 0.2732 -0.9224
6197000000.0 -0.5325 -0.7474
6200000000.0 -0.9497 -0.05113
6203000000.0 -0.6559 0.6937
6206000000.0 0.1205 0.9246
6209000000.0 0.8074 0.4837
6212000000.0 0.8834 -0.3002
6216000000.0 0.336 -0.8867
6219000000.0 -0.4252 -0.8302
6222000000.0 -0.924 -0.1686
6225000000.0 -0.693 0.5995
6228000000.0 0.003332 0.8981
6231000000.0 0.6907 0.5368
6234000000.0 0.8816 -0.1922
6238000000.0 0.4002 -0.7909
6241000000.0 -0.3283 -0.8216
6244000000.0 -0.828 -0.2793
6247000000.0 -0.7592 0.4527
6250000000.0 -0.07922 0.8643
6253000000.0 0.5692 0.632
6256000000.0 0.8467 -0.03663
6259000000.0 0.4988 -0.6522
6262000000.0 -0.1783 -0.8081
6266000000.0 -0.7366 -0.3694
