! Created with skrf 1.8.0 (http://scikit-rf.org).
# Hz S RI R 50.0 
!freq ReS11 ImS11
4000000000.0 -0.2183 -1.463
4003000000.0 -1.302 -0.7753
4006000000.0 -1.426 0.5784
4009000000.0 -0.5225 1.464
4012000000.0 0.8368 1.315
4016000000.0 1.54 0.1333
4019000000.0 1.075 -1.073
4022000000.0 -0.1701 -1.563
4025000000.0 -1.31 -0.8251
4028000000.0 -1.478 0.5291
4031000000.0 -0.5395 1.558
4034000000.0 0.8614 1.393
4038000000.0 1.596 0.1967
4041000000.0 1.143 -1.085
4044000000.0 -0.1952 -1.623
4047000000.0 -1.344 -0.8875
4050000000.0 -1.53 0.5002
4053000000.0 -0.5466 1.53
4056000000.0 0.8063 1.411
4059000000.0 1.612 0.2547
4062000000.0 1.181 -1.068
4066000000.0 -0.02876 -1.637
4069000000.0 -1.239 -1.058
4072000000.0 -1.617 0.32
4075000000.0 -0.7761 1.442
4078000000.0 0.5739 1.514
4081000000.0 1.571 0.4919
4084000000.0 1.395 -0.9034
4088000000.0 0.1813 -1.663
4091000000.0 -1.14 -1.166
4094000000.0 -1.676 0.1393
4097000000.0 -0.9546 1.351
4100000000.0 0.4488 1.57
4103000000.0 1.476 0.6377
4106000000.0 1.434 -0.6904
4109000000.0 0.3976 -1.511
4112000000.0 -0.87 -1.246
4116000000.0 -1.468 -0.1539
4119000000.0 -1.104 1.036
4122000000.0 0.09426 1.47
4125000000.0 1.159 0.9367
4128000000.0 1.451 -0.2612
4131000000.0 0.7157 -1.286
4134000000.0 -0.4823 -1.377
4138000000.0 -1.358 -0.5481
4141000000.0 -1.281 0.6904
4144000000.0 -0.3147 1.471
4147000000.0 0.9083 1.193
4150000000.0 1.504 0.06461
4153000000.0 1.056 -1.129
4156000000.0 -0.188 -1.49
4159000000.0 -1.286 -0.8495
4162000000.0 -1.43 0.4453
4166000000.0 -0.5864 1.397
4169000000.0 0.678 1.347
4172000000.0 1.459 0.3337
4175000000.0 1.206 -0.8789
4178000000.0 0.1086 -1.515
4181000000.0 -1.105 -1.04
4184000000.0 -1.501 0.1731
4188000000.0 -0.8726 1.237
4191000000.0 0.453 1.464
4194000000.0 1.428 0.5817
4197000000.0 1.388 -0.7406
4200000000.0 0.2788 -1.549
4203000000.0 -1.039 -1.24
4206000000.0 -1.63 0.04493
4209000000.0 -0.9403 1.309
4212000000.0 0.4731 1.586
4216000000.0 1.58 0.648
4219000000.0 1.453 -0.8585
4222000000.0 0.1788 -1.681
4225000000.0 -1.203 -1.16
4228000000.0 -1.649 0.2211
4231000000.0 -0.8073 1.444
4234000000.0 0.6592 1.517
4238000000.0 1.594 0.3763
4241000000.0 1.268 -1.028
4244000000.0 -0.09903 -1.572
4247000000.0 -1.331 -0.9264
4250000000.0 -1.481 0.4461
4253000000.0 -0.5443 1.465
4256000000.0 0.7983 1.314
4259000000.0 1.511 0.1753
4262000000.0 1.052 -1.078
4266000000.0 -0.2295 -1.459
4269000000.0 -1.323 -0.7398
4272000000.0 -1.338 0.5285
4275000000.0 -0.3663 1.393
4278000000.0 0.8307 1.147
4281000000.0 1.432 0.0521
4284000000.0 0.9047 -1.074
4288000000.0 -0.2407 -1.362
4291000000.0 -1.201 -0.6438
4294000000.0 -1.276 0.5323
4297000000.0 -0.4235 1.252
4300000000.0 0.7151 1.111
4303000000.0 1.311 0.1319
4306000000.0 0.9491 -0.9086
4309000000.0 -0.08685 -1.298
4312000000.0 -1.056 -0.7667
4316000000.0 -1.236 0.3006
4319000000.0 -0.5727 1.173
4322000000.0 0.5015 1.173
4325000000.0 1.292 0.4062
4328000000.0 1.143 -0.718
4331000000.0 0.1924 -1.335
4334000000.0 -0.9311 -1.023
4338000000.0 -1.419 0.04796
4341000000.0 -0.83 1.103
4344000000.0 0.3184 1.418
4347000000.0 1.266 0.6215
4350000000.0 1.312 -0.5954
4353000000.0 0.3603 -1.389
4356000000.0 -0.844 -1.179
4359000000.0 -1.461 -0.1224
4362000000.0 -1.042 1.024
4366000000.0 0.1234 1.478
4369000000.0 1.24 0.8624
4372000000.0 1.454 -0.4068
4375000000.0 0.61 -1.393
4378000000.0 -0.6731 -1.311
4381000000.0 -1.465 -0.3152
4384000000.0 -1.193 0.95
4388000000.0 -0.03148 1.553
4391000000.0 1.227 0.9784
4394000000.0 1.556 -0.3402
4397000000.0 0.7466 -1.427
4400000000.0 -0.6459 -1.438
4403000000.0 -1.538 -0.3651
4406000000.0 -1.26 0.9905
4409000000.0 0.02224 1.593
4412000000.0 1.247 0.9208
4416000000.0 1.451 -0.3864
4419000000.0 0.6304 -1.401
4422000000.0 -0.7325 -1.315
4425000000.0 -1.47 -0.2617
4428000000.0 -1.093 1.0
4431000000.0 0.1177 1.42
4434000000.0 1.19 0.7649
4438000000.0 1.325 -0.446
4441000000.0 0.464 -1.311
4444000000.0 -0.7341 -1.136
4447000000.0 -1.334 -0.1157
4450000000.0 -0.9333 0.9758
4453000000.0 0.203 1.257
4456000000.0 1.156 0.5865
4459000000.0 1.135 -0.5017
4462000000.0 0.2968 -1.216
4466000000.0 -0.7816 -0.9552
4469000000.0 -1.216 0.05436
4472000000.0 -0.6879 0.9504
4475000000.0 0.3128 1.132
4478000000.0 1.074 0.4511
4481000000.0 1.034 -0.5568
4484000000.0 0.1916 -1.134
4488000000.0 -0.7682 -0.8265
4491000000.0 -1.149 0.1029
4494000000.0 -0.6445 0.9581
4497000000.0 0.3341 1.078
4500000000.0 1.043 0.4554
4503000000.0 0.9402 -0.5483
4506000000.0 0.1848 -1.052
4509000000.0 -0.7031 -0.8541
4512000000.0 -1.12 0.01927
4516000000.0 -0.6786 0.8738
4519000000.0 0.2851 1.119
4522000000.0 1.02 0.5049
4525000000.0 1.054 -0.4936
4528000000.0 0.2899 -1.128
4531000000.0 -0.6935 -0.9474
4534000000.0 -1.188 -0.0496
4538000000.0 -0.7932 0.8654
4541000000.0 0.1575 1.193
4544000000.0 1.036 0.6346
4547000000.0 1.134 -0.3764
4550000000.0 0.4481 -1.149
4553000000.0 -0.5738 -1.089
4556000000.0 -1.223 -0.2569
4559000000.0 -1.0 0.7846
4562000000.0 -0.04414 1.238
4566000000.0 0.9573 0.8833
4569000000.0 1.256 -0.1882
4572000000.0 0.6952 -1.128
4575000000.0 -0.3998 -1.225
4578000000.0 -1.245 -0.4829
4581000000.0 -1.186 0.6195
4584000000.0 -0.2768 1.337
4588000000.0 0.89 1.057
4591000000.0 1.379 0.01645
4594000000.0 0.9261 -1.075
4597000000.0 -0.2393 -1.383
4600000000.0 -1.255 -0.6699
4603000000.0 -1.313 0.5194
4606000000.0 -0.4171 1.355
4609000000.0 0.7745 1.177
4612000000.0 1.396 0.1332
4616000000.0 0.997 -0.9941
4619000000.0 -0.1373 -1.406
4622000000.0 -1.162 -0.761
4625000000.0 -1.333 0.4194
4628000000.0 -0.5001 1.29
4631000000.0 0.6561 1.179
4634000000.0 1.338 0.2377
4638000000.0 1.01 -0.8972
4641000000.0 -0.05738 -1.368
4644000000.0 -1.096 -0.7734
4647000000.0 -1.282 0.405
4650000000.0 -0.5009 1.195
4653000000.0 0.6621 1.12
4656000000.0 1.265 0.159
4659000000.0 0.9222 -0.8569
4662000000.0 -0.09802 -1.21
4666000000.0 -1.02 -0.6847
4669000000.0 -1.128 0.3631
4672000000.0 -0.4125 1.14
4675000000.0 0.6131 1.008
4678000000.0 1.117 0.1928
4681000000.0 0.8186 -0.7869
4684000000.0 -0.1055 -1.12
4688000000.0 -0.9009 -0.6331
4691000000.0 -1.025 0.3267
4694000000.0 -0.3496 1.027
4697000000.0 0.558 0.951
4700000000.0 1.079 0.1467
4703000000.0 0.7666 -0.788
4706000000.0 -0.06731 -1.081
4709000000.0 -0.9176 -0.5487
4712000000.0 -1.018 0.3518
4716000000.0 -0.3669 1.022
4719000000.0 0.5669 0.9308
4722000000.0 1.04 0.1252
4725000000.0 0.7865 -0.7454
4728000000.0 -0.07361 -1.047
4731000000.0 -0.8647 -0.5895
4734000000.0 -0.9917 0.299
4738000000.0 -0.4021 0.965
4741000000.0 0.4682 0.9354
4744000000.0 1.063 0.2406
4747000000.0 0.8463 -0.6796
4750000000.0 0.03722 -1.104
4753000000.0 -0.8298 -0.7196
4756000000.0 -1.086 0.1796
4759000000.0 -0.6334 0.9559
4762000000.0 0.3537 1.076
4766000000.0 1.076 0.4469
4769000000.0 1.009 -0.5612
4772000000.0 0.2151 -1.164
4775000000.0 -0.7429 -0.9029
4778000000.0 -1.202 -0.02346
4781000000.0 -0.7829 0.8865
4784000000.0 0.1646 1.187
4788000000.0 1.039 0.6367
4791000000.0 1.167 -0.3745
4794000000.0 0.4609 -1.16
4797000000.0 -0.5873 -1.13
4800000000.0 -1.274 -0.2947
4803000000.0 -1.001 0.7603
4806000000.0 -0.05501 1.232
4809000000.0 0.9469 0.8573
4812000000.0 1.286 -0.1595
4816000000.0 0.6962 -1.125
4819000000.0 -0.4295 -1.298
4822000000.0 -1.247 -0.5169
4825000000.0 -1.192 0.6465
4828000000.0 -0.2621 1.364
4831000000.0 0.8995 1.063
4834000000.0 1.387 -0.04108
4838000000.0 0.8736 -1.108
4841000000.0 -0.3189 -1.384
4844000000.0 -1.261 -0.6542
4847000000.0 -1.289 0.5599
4850000000.0 -0.3924 1.334
4853000000.0 0.7964 1.159
4856000000.0 1.352 0.1024
4859000000.0 0.9231 -0.9772
4862000000.0 -0.176 -1.308
4866000000.0 -1.154 -0.6906
4869000000.0 -1.267 0.4374
4872000000.0 -0.4357 1.25
4875000000.0 0.6671 1.106
4878000000.0 1.261 0.1601
4881000000.0 0.9276 -0.856
4884000000.0 -0.08159 -1.246
4888000000.0 -0.9972 -0.6828
4891000000.0 -1.14 0.3392
4894000000.0 -0.4586 1.083
4897000000.0 0.5188 0.9844
4900000000.0 1.108 0.1981
4903000000.0 0.8322 -0.7209
4906000000.0 -0.02141 -1.052
4909000000.0 -0.8373 -0.674
4912000000.0 -1.01 0.2694
4916000000.0 -0.4082 0.9365
4919000000.0 0.4331 0.8883
4922000000.0 0.9547 0.2324
4925000000.0 0.7441 -0.5718
4928000000.0 0.04628 -0.9524
4931000000.0 -0.7262 -0.616
4934000000.0 -0.9181 0.1604
4938000000.0 -0.4777 0.8349
4941000000.0 0.3322 0.8977
4944000000.0 0.8937 0.2953
4947000000.0 0.8185 -0.5062
4950000000.0 0.1331 -0.9403
4953000000.0 -0.6497 -0.7142
4956000000.0 -0.9719 0.05745
4959000000.0 -0.5725 0.7686
4962000000.0 0.274 0.9394
4966000000.0 0.9077 0.3951
4969000000.0 0.8893 -0.4284
4972000000.0 0.1979 -0.9858
4975000000.0 -0.6605 -0.7858
4978000000.0 -1.028 -0.03821
4981000000.0 -0.6845 0.7937
4984000000.0 0.1945 1.045
4988000000.0 0.9219 0.5203
4991000000.0 1.017 -0.3805
4994000000.0 0.3683 -1.042
4997000000.0 -0.565 -0.9528
5000000000.0 -1.153 -0.1577
5003000000.0 -0.8742 0.7786
5006000000.0 0.03225 1.178
5009000000.0 0.9527 0.7316
5012000000.0 1.215 -0.2974
5016000000.0 0.5635 -1.128
5019000000.0 -0.5089 -1.15
5022000000.0 -1.242 -0.341
5025000000.0 -1.054 0.7133
5028000000.0 -0.1119 1.293
5031000000.0 0.9242 0.9047
5034000000.0 1.289 -0.155
5038000000.0 0.6976 -1.091
5041000000.0 -0.3953 -1.254
5044000000.0 -1.218 -0.5231
5047000000.0 -1.162 0.5628
5050000000.0 -0.2876 1.275
5053000000.0 0.7608 1.038
5056000000.0 1.308 0.06758
5059000000.0 0.8836 -0.9306
5062000000.0 -0.1459 -1.255
5066000000.0 -1.093 -0.668
5069000000.0 -1.241 0.3936
5072000000.0 -0.4619 1.172
5075000000.0 0.581 1.092
5078000000.0 1.244 0.247
5081000000.0 0.9624 -0.7909
5084000000.0 0.01129 -1.246
5088000000.0 -0.9163 -0.7366
5091000000.0 -1.17 0.2074
5094000000.0 -0.5534 1.026
5097000000.0 0.3925 1.09
5100000000.0 1.109 0.3994
5103000000.0 0.973 -0.5744
5106000000.0 0.1725 -1.085
5109000000.0 -0.6967 -0.8368
5112000000.0 -1.075 -0.03886
5116000000.0 -0.6806 0.7995
5119000000.0 0.1733 1.031
5122000000.0 0.8812 0.5168
5125000000.0 0.9379 -0.3443
5128000000.0 0.3362 -0.9604
5131000000.0 -0.5444 -0.8611
5134000000.0 -0.9912 -0.1493
5138000000.0 -0.7011 0.6617
5141000000.0 0.05577 0.9619
5144000000.0 0.7626 0.5409
5147000000.0 0.9201 -0.2733
5150000000.0 0.3442 -0.8642
5153000000.0 -0.4189 -0.8362
5156000000.0 -0.8673 -0.1976
5159000000.0 -0.7163 0.5691
5162000000.0 -0.03356 0.8914
5166000000.0 0.6967 0.5714
5169000000.0 0.8591 -0.1728
5172000000.0 0.4247 -0.8075
5175000000.0 -0.3522 -0.804
5178000000.0 -0.8346 -0.2543
5181000000.0 -0.7304 0.5578
5184000000.0 -0.02422 0.8997
5188000000.0 0.6836 0.6069
5191000000.0 0.8982 -0.1505
5194000000.0 0.4594 -0.8136
5197000000.0 -0.3965 -0.8485
5200000000.0 -0.9311 -0.2942
5203000000.0 -0.7667 0.558
5206000000.0 -0.05124 0.9688
5209000000.0 0.7531 0.6612
5212000000.0 0.9622 -0.1739
5216000000.0 0.4892 -0.838
5219000000.0 -0.3345 -0.9252
5222000000.0 -0.9521 -0.3081
5225000000.0 -0.8623 0.5529
5228000000.0 -0.1293 0.996
5231000000.0 0.7262 0.7501
5234000000.0 1.033 -0.04846
5238000000.0 0.6025 -0.8475
5241000000.0 -0.275 -1.028
5244000000.0 -0.9459 -0.4441
5247000000.0 -0.9494 0.4661
5250000000.0 -0.2562 1.073
5253000000.0 0.6476 0.8689
5256000000.0 1.098 0.06895
5259000000.0 0.7515 -0.796
5262000000.0 -0.1193 -1.057
5266000000.0 -0.8961 -0.604
5269000000.0 -1.044 0.2919
5272000000.0 -0.4481 1.003
5275000000.0 0.4711 1.012
5278000000.0 1.041 0.2547
5281000000.0 0.8947 -0.627
5284000000.0 0.08874 -1.106
5288000000.0 -0.7704 -0.815
5291000000.0 -1.132 0.09296
5294000000.0 -0.6469 0.9028
5297000000.0 0.2522 1.07
5300000000.0 1.007 0.4964
5303000000.0 1.061 -0.4429
5306000000.0 0.3167 -1.087
5309000000.0 -0.6158 -0.9555
5312000000.0 -1.094 -0.1421
5316000000.0 -0.8152 0.797
5319000000.0 0.0737 1.156
5322000000.0 0.8899 0.6722
5325000000.0 1.114 -0.2964
5328000000.0 0.5126 -1.011
5331000000.0 -0.4559 -1.043
5334000000.0 -1.125 -0.3101
5338000000.0 -0.9284 0.6527
5341000000.0 -0.06656 1.113
5344000000.0 0.7927 0.7518
5347000000.0 1.103 -0.1381
5350000000.0 0.5561 -0.9034
5353000000.0 -0.3403 -1.035
5356000000.0 -1.016 -0.4138
5359000000.0 -0.9264 0.553
5362000000.0 -0.1439 1.02
5366000000.0 0.717 0.7805
5369000000.0 1.03 -0.06749
5372000000.0 0.5589 -0.8268
5375000000.0 -0.3127 -0.9732
5378000000.0 -0.9127 -0.3427
5381000000.0 -0.8693 0.4996
5384000000.0 -0.1038 0.972
5388000000.0 0.6356 0.7072
5391000000.0 0.9156 -0.1111
5394000000.0 0.4717 -0.7803
5397000000.0 -0.3012 -0.9152
5400000000.0 -0.8728 -0.2898
5403000000.0 -0.7233 0.4942
5406000000.0 -0.07296 0.8808
5409000000.0 0.6018 0.6181
5412000000.0 0.8798 -0.09827
5416000000.0 0.4166 -0.7398
5419000000.0 -0.2911 -0.8267
5422000000.0 -0.8109 -0.2545
5425000000.0 -0.7309 0.4814
5428000000.0 -0.07693 0.8605
5431000000.0 0.6336 0.5926
5434000000.0 0.8467 -0.1016
5438000000.0 0.4552 -0.7623
5441000000.0 -0.2865 -0.8005
5444000000.0 -0.831 -0.2963
5447000000.0 -0.7544 0.4793
5450000000.0 -0.09463 0.9246
5453000000.0 0.621 0.6286
5456000000.0 0.8827 -0.07486
5459000000.0 0.5317 -0.7239
5462000000.0 -0.2366 -0.8828
5466000000.0 -0.8618 -0.3919
5469000000.0 -0.8082 0.4138
5472000000.0 -0.2042 0.913
5475000000.0 0.5379 0.7536
5478000000.0 0.9371 0.06426
5481000000.0 0.6652 -0.6947
5484000000.0 -0.09966 -0.9794
5488000000.0 -0.8472 -0.5754
5491000000.0 -0.9703 0.2785
5494000000.0 -0.393 0.8905
5497000000.0 0.4456 0.8904
5500000000.0 1.03 0.2118
5503000000.0 0.8464 -0.6169
5506000000.0 0.0363 -1.047
5509000000.0 -0.7631 -0.6999
5512000000.0 -1.017 0.1177
5516000000.0 -0.5575 0.8803
5519000000.0 0.2969 0.9945
5522000000.0 0.9763 0.4655
5525000000.0 0.9416 -0.4806
5528000000.0 0.2453 -1.015
5531000000.0 -0.5962 -0.8465
5534000000.0 -1.054 -0.1008
5538000000.0 -0.7581 0.8178
5541000000.0 0.1445 1.068
5544000000.0 0.8695 0.6133
5547000000.0 0.9913 -0.325
5550000000.0 0.4193 -0.9606
5553000000.0 -0.4939 -0.9748
5556000000.0 -1.068 -0.2154
5559000000.0 -0.8185 0.6602
5562000000.0 0.0004889 1.061
5566000000.0 0.7689 0.6744
5569000000.0 1.009 -0.1815
5572000000.0 0.4921 -0.8479
5575000000.0 -0.3414 -0.9375
5578000000.0 -0.9429 -0.3075
5581000000.0 -0.8241 0.5108
5584000000.0 -0.1383 0.9511
5588000000.0 0.6114 0.6792
5591000000.0 0.9513 -0.07633
5594000000.0 0.5467 -0.765
5597000000.0 -0.2422 -0.9006
5600000000.0 -0.7968 -0.342
5603000000.0 -0.7898 0.4373
5606000000.0 -0.1673 0.8624
5609000000.0 0.5467 0.6696
5612000000.0 0.8552 0.005074
5616000000.0 0.5387 -0.6361
5619000000.0 -0.1732 -0.8438
5622000000.0 -0.7426 -0.3636
5625000000.0 -0.7558 0.3726
5628000000.0 -0.2044 0.8247
5631000000.0 0.4689 0.6491
5634000000.0 0.8149 0.03423
5638000000.0 0.5321 -0.6107
5641000000.0 -0.1818 -0.7968
5644000000.0 -0.7488 -0.397
5647000000.0 -0.7604 0.3424
5650000000.0 -0.2056 0.8109
5653000000.0 0.5401 0.6705
5656000000.0 0.8769 0.01398
5659000000.0 0.5597 -0.6477
5662000000.0 -0.1406 -0.8625
5666000000.0 -0.775 -0.4107
5669000000.0 -0.8106 0.3673
5672000000.0 -0.2575 0.902
5675000000.0 0.541 0.7761
5678000000.0 0.9374 0.01909
5681000000.0 0.6392 -0.6994
5684000000.0 -0.1813 -0.944
5688000000.0 -0.8439 -0.4885
5691000000.0 -0.9143 0.3506
5694000000.0 -0.285 0.9436
5697000000.0 0.5301 0.8276
5700000000.0 1.001 0.09173
5703000000.0 0.7278 -0.7092
5706000000.0 -0.08335 -1.046
5709000000.0 -0.8717 -0.5952
5712000000.0 -1.02 0.2874
5716000000.0 -0.422 0.9973
5719000000.0 0.5063 0.9583
5722000000.0 1.026 0.2613
5725000000.0 0.8782 -0.6715
5728000000.0 0.01714 -1.068
5731000000.0 -0.8153 -0.728
5734000000.0 -1.088 0.2061
5738000000.0 -0.5745 0.9351
5741000000.0 0.3591 1.081
5744000000.0 1.058 0.374
5747000000.0 0.9561 -0.5849
5750000000.0 0.1773 -1.122
5753000000.0 -0.7527 -0.8409
5756000000.0 -1.107 0.03952
5759000000.0 -0.7317 0.8568
5762000000.0 0.234 1.102
5766000000.0 0.9688 0.5135
5769000000.0 1.038 -0.4129
5772000000.0 0.3253 -1.06
5775000000.0 -0.6116 -0.9151
5778000000.0 -1.119 -0.1339
5781000000.0 -0.8094 0.7311
5784000000.0 0.05875 1.071
5788000000.0 0.8633 0.637
5791000000.0 1.067 -0.227
5794000000.0 0.4369 -0.9507
5797000000.0 -0.4392 -0.977
5800000000.0 -1.033 -0.2414
5803000000.0 -0.8806 0.6361
5806000000.0 -0.04931 1.062
5809000000.0 0.7734 0.7079
5812000000.0 1.003 -0.1201
5816000000.0 0.5353 -0.849
5819000000.0 -0.3193 -0.9718
5822000000.0 -0.918 -0.3139
5825000000.0 -0.8139 0.5103
5828000000.0 -0.1192 0.9586
5831000000.0 0.6763 0.7068
5834000000.0 0.961 -0.05909
5838000000.0 0.5047 -0.7973
5841000000.0 -0.2599 -0.9414
5844000000.0 -0.8614 -0.3135
5847000000.0 -0.8076 0.4392
5850000000.0 -0.1801 0.8903
5853000000.0 0.6045 0.6881
5856000000.0 0.9176 -0.02102
5859000000.0 0.5236 -0.764
5862000000.0 -0.2272 -0.8635
5866000000.0 -0.7999 -0.341
5869000000.0 -0.7915 0.4241
5872000000.0 -0.1644 0.8834
5875000000.0 0.5823 0.6432
5878000000.0 0.8961 -0.03472
5881000000.0 0.4929 -0.6905
5884000000.0 -0.2157 -0.8293
5888000000.0 -0.744 -0.3508
5891000000.0 -0.766 0.406
5894000000.0 -0.1506 0.8479
5897000000.0 0.5464 0.6713
5900000000.0 0.8433 0.000327
5903000000.0 0.5666 -0.6769
5906000000.0 -0.1734 -0.8272
5909000000.0 -0.7643 -0.4263
5912000000.0 -0.8474 0.3196
5916000000.0 -0.3022 0.8288
5919000000.0 0.5006 0.7306
5922000000.0 0.8798 0.09892
5925000000.0 0.6152 -0.6079
5928000000.0 -0.1015 -0.9027
5931000000.0 -0.7184 -0.5181
5934000000.0 -0.8526 0.2558
5938000000.0 -0.3606 0.8344
5941000000.0 0.4213 0.8256
5944000000.0 0.9034 0.2208
5947000000.0 0.7376 -0.5609
5950000000.0 0.04993 -0.9169
5953000000.0 -0.7073 -0.671
5956000000.0 -0.9617 0.1025
5959000000.0 -0.5002 0.8163
5962000000.0 0.3273 0.9549
5966000000.0 0.9197 0.3712
5969000000.0 0.8969 -0.4797
5972000000.0 0.2088 -0.989
5975000000.0 -0.6303 -0.7461
5978000000.0 -1.008 -0.01316
5981000000.0 -0.6599 0.7381
5984000000.0 0.1713 0.9897
5988000000.0 0.8959 0.4913
5991000000.0 0.9356 -0.3576
5994000000.0 0.3437 -0.9721
5997000000.0 -0.5521 -0.8526
6000000000.0 -1.004 -0.1103
6003000000.0 -0.6938 0.7107
6006000000.0 0.0709 0.9753
6009000000.0 0.8266 0.5637
6012000000.0 0.9312 -0.2751
6016000000.0 0.401 -0.8915
6019000000.0 -0.4792 -0.8427
6022000000.0 -0.9647 -0.1689
6025000000.0 -0.7613 0.6489
6028000000.0 0.006255 0.9414
6031000000.0 0.7292 0.5765
6034000000.0 0.9218 -0.236
6038000000.0 0.4093 -0.8516
6041000000.0 -0.4122 -0.8267
6044000000.0 -0.9016 -0.21
6047000000.0 -0.7446 0.5617
6050000000.0 -0.03073 0.8951
6053000000.0 0.6898 0.5784
6056000000.0 0.8867 -0.1608
6059000000.0 0.4062 -0.7947
6062000000.0 -0.3513 -0.802
6066000000.0 -0.8532 -0.2175
6069000000.0 -0.7036 0.5237
6072000000.0 -0.03124 0.8414
6075000000.0 0.6307 0.5716
6078000000.0 0.841 -0.157
6081000000.0 0.4008 -0.7566
6084000000.0 -0.3054 -0.7949
6088000000.0 -0.7985 -0.2515
6091000000.0 -0.7162 0.4589
6094000000.0 -0.07385 0.8501
6097000000.0 0.6115 0.5978
6100000000.0 0.8466 -0.07991
6103000000.0 0.4431 -0.7298
6106000000.0 -0.2767 -0.79
6109000000.0 -0.8124 -0.2974
6112000000.0 -0.7242 0.4664
6116000000.0 -0.0821 0.8724
6119000000.0 0.6304 0.6524
6122000000.0 0.8971 -0.1016
6125000000.0 0.4807 -0.7658
6128000000.0 -0.2644 -0.8678
6131000000.0 -0.833 -0.3234
6134000000.0 -0.7914 0.4696
6138000000.0 -0.138 0.914
6141000000.0 0.6253 0.6879
6144000000.0 0.9278 -0.04532
6147000000.0 0.5606 -0.7289
6150000000.0 -0.2073 -0.9368
6153000000.0 -0.891 -0.4151
6156000000.0 -0.8609 0.3784
6159000000.0 -0.2421 0.9306
6162000000.0 0.5917 0.7581
6166000000.0 0.985 0.03388
6169000000.0 0.6535 -0.7377
6172000000.0 -0.2157 -0.9942
6175000000.0 -0.8636 -0.4978
6178000000.0 -0.9279 0.3663
6181000000.0 -0.2922 0.9571
6184000000.0 0.5329 0.8251
6188000000.0 0.9865 0.0936
6191000000.0 0.6831 -0.7108
6194000000.0 -0.09909 -0.9742
6197000000.0 -0.8169 -0.5323
6200000000.0 -0.935 0.317
6203000000.0 -0.3846 0.8865
6206000000.0 0.4491 0.8293
6209000000.0 0.913 0.1623
6212000000.0 0.7187 -0.6064
6216000000.0 -0.01074 -0.9024
6219000000.0 -0.7366 -0.599
6222000000.0 -0.8784 0.2065
6225000000.0 -0.4244 0.8324
6228000000.0 0.334 0.8125
6231000000.0 0.842 0.293
6234000000.0 0.7413 -0.4969
6238000000.0 0.09587 -0.8871
6241000000.0 -0.5756 -0.6203
6244000000.0 -0.8486 0.0758
6247000000.0 -0.4663 0.72
6250000000.0 0.2447 0.8078
6253000000.0 0.7983 0.3311
6256000000.0 0.7225 -0.35
6259000000.0 0.1755 -0.8087
6262000000.0 -0.5212 -0.6207
6266000000.0 -0.8322 -0.007922
