! Created with skrf 1.8.0 (http://scikit-rf.org).
# Hz S RI R 50.0 
!freq ReS11 ImS11
4000000000.0 -0.1645 -1.551
4003000000.0 -1.302 -0.7749
4006000000.0 -1.398 0.4558
4009000000.0 -0.5452 1.429
4012000000.0 0.7622 1.285
4016000000.0 1.514 0.2651
4019000000.0 1.124 -1.078
4022000000.0 -0.1246 -1.604
4025000000.0 -1.289 -0.9036
4028000000.0 -1.565 0.4904
4031000000.0 -0.5686 1.505
4034000000.0 0.7854 1.435
4038000000.0 1.595 0.241
4041000000.0 1.249 -1.104
4044000000.0 -0.109 -1.623
4047000000.0 -1.325 -0.9607
4050000000.0 -1.565 0.4446
4053000000.0 -0.6626 1.503
4056000000.0 0.7802 1.422
4059000000.0 1.628 0.3778
4062000000.0 1.322 -0.9695
4066000000.0 0.08836 -1.633
4069000000.0 -1.211 -1.062
4072000000.0 -1.617 0.3085
4075000000.0 -0.8335 1.459
4078000000.0 0.5895 1.564
4081000000.0 1.595 0.5695
4084000000.0 1.455 -0.8708
4088000000.0 0.2734 -1.655
4091000000.0 -1.14 -1.217
4094000000.0 -1.693 0.06827
4097000000.0 -1.002 1.335
4100000000.0 0.4165 1.607
4103000000.0 1.472 0.724
4106000000.0 1.457 -0.6518
4109000000.0 0.4493 -1.541
4112000000.0 -0.8399 -1.341
4116000000.0 -1.528 -0.223
4119000000.0 -1.123 1.012
4122000000.0 0.03569 1.482
4125000000.0 1.172 0.9799
4128000000.0 1.481 -0.2215
4131000000.0 0.8271 -1.246
4134000000.0 -0.4158 -1.425
4138000000.0 -1.397 -0.5978
4141000000.0 -1.348 0.6537
4144000000.0 -0.3709 1.475
4147000000.0 0.8542 1.272
4150000000.0 1.502 0.1379
4153000000.0 1.109 -1.073
4156000000.0 -0.121 -1.526
4159000000.0 -1.279 -0.8818
4162000000.0 -1.495 0.399
4166000000.0 -0.6711 1.359
4169000000.0 0.6201 1.385
4172000000.0 1.494 0.4066
4175000000.0 1.282 -0.8637
4178000000.0 0.1955 -1.493
4181000000.0 -1.016 -1.102
4184000000.0 -1.514 0.1005
4188000000.0 -0.8824 1.206
4191000000.0 0.3413 1.514
4194000000.0 1.377 0.6918
4197000000.0 1.447 -0.6976
4200000000.0 0.3734 -1.563
4203000000.0 -0.9788 -1.333
4206000000.0 -1.65 -0.08488
4209000000.0 -1.081 1.258
4212000000.0 0.3445 1.653
4216000000.0 1.511 0.7732
4219000000.0 1.509 -0.7461
4222000000.0 0.3299 -1.666
4225000000.0 -1.15 -1.313
4228000000.0 -1.7 0.09736
4231000000.0 -0.9169 1.426
4234000000.0 0.495 1.595
4238000000.0 1.551 0.5008
4241000000.0 1.38 -0.9012
4244000000.0 0.1043 -1.606
4247000000.0 -1.218 -1.049
4250000000.0 -1.592 0.3154
4253000000.0 -0.6703 1.419
4256000000.0 0.697 1.431
4259000000.0 1.558 0.3395
4262000000.0 1.151 -1.012
4266000000.0 -0.01804 -1.542
4269000000.0 -1.214 -0.8841
4272000000.0 -1.449 0.4521
4275000000.0 -0.524 1.39
4278000000.0 0.7493 1.24
4281000000.0 1.451 0.1885
4284000000.0 1.011 -0.9952
4288000000.0 -0.1171 -1.396
4291000000.0 -1.168 -0.7748
4294000000.0 -1.32 0.396
4297000000.0 -0.4899 1.282
4300000000.0 0.6687 1.148
4303000000.0 1.276 0.2533
4306000000.0 1.016 -0.8141
4309000000.0 0.0451 -1.315
4312000000.0 -0.9486 -0.8683
4316000000.0 -1.275 0.1996
4319000000.0 -0.7059 1.125
4322000000.0 0.4005 1.263
4325000000.0 1.211 0.5295
4328000000.0 1.183 -0.6249
4331000000.0 0.2771 -1.301
4334000000.0 -0.8284 -1.087
4338000000.0 -1.369 -0.02053
4341000000.0 -0.9129 1.051
4344000000.0 0.2137 1.412
4347000000.0 1.259 0.779
4350000000.0 1.366 -0.4802
4353000000.0 0.5305 -1.392
4356000000.0 -0.7022 -1.255
4359000000.0 -1.435 -0.2604
4362000000.0 -1.148 0.9583
4366000000.0 0.007291 1.474
4369000000.0 1.151 0.9606
4372000000.0 1.469 -0.2895
4375000000.0 0.6978 -1.339
4378000000.0 -0.5155 -1.411
4381000000.0 -1.444 -0.4857
4384000000.0 -1.308 0.8034
4388000000.0 -0.2026 1.569
4391000000.0 1.11 1.134
4394000000.0 1.587 -0.1279
4397000000.0 0.8845 -1.314
4400000000.0 -0.4858 -1.548
4403000000.0 -1.486 -0.5903
4406000000.0 -1.363 0.8008
4409000000.0 -0.1609 1.586
4412000000.0 1.116 1.113
4416000000.0 1.596 -0.1846
4419000000.0 0.8057 -1.332
4422000000.0 -0.4968 -1.452
4425000000.0 -1.423 -0.4906
4428000000.0 -1.25 0.8226
4431000000.0 -0.1039 1.503
4434000000.0 1.094 0.998
4438000000.0 1.421 -0.2626
4441000000.0 0.679 -1.257
4444000000.0 -0.5537 -1.271
4447000000.0 -1.345 -0.3399
4450000000.0 -1.054 0.8157
4453000000.0 0.007215 1.345
4456000000.0 1.055 0.791
4459000000.0 1.281 -0.3499
4462000000.0 0.4956 -1.217
4466000000.0 -0.6487 -1.076
4469000000.0 -1.227 -0.187
4472000000.0 -0.9051 0.8804
4475000000.0 0.1309 1.222
4478000000.0 1.018 0.6105
4481000000.0 1.07 -0.4104
4484000000.0 0.3604 -1.131
4488000000.0 -0.6229 -0.9799
4491000000.0 -1.158 -0.09659
4494000000.0 -0.7945 0.8567
4497000000.0 0.1581 1.123
4500000000.0 0.9793 0.569
4503000000.0 0.9934 -0.4281
4506000000.0 0.3282 -1.051
4509000000.0 -0.6029 -0.936
4512000000.0 -1.134 -0.1287
4516000000.0 -0.7839 0.7973
4519000000.0 0.131 1.131
4522000000.0 0.959 0.6032
4525000000.0 1.105 -0.3519
4528000000.0 0.4165 -1.075
4531000000.0 -0.5863 -1.011
4534000000.0 -1.156 -0.1924
4538000000.0 -0.911 0.8078
4541000000.0 0.01517 1.201
4544000000.0 0.9344 0.7702
4547000000.0 1.186 -0.2145
4550000000.0 0.6118 -1.056
4553000000.0 -0.4784 -1.126
4556000000.0 -1.17 -0.379
4559000000.0 -1.059 0.6369
4562000000.0 -0.1847 1.241
4566000000.0 0.8276 0.9596
4569000000.0 1.279 -0.00554
4572000000.0 0.7928 -0.9807
4575000000.0 -0.2563 -1.293
4578000000.0 -1.153 -0.61
4581000000.0 -1.232 0.5173
4584000000.0 -0.3995 1.283
4588000000.0 0.7128 1.158
4591000000.0 1.367 0.1723
4594000000.0 1.014 -0.9748
4597000000.0 -0.08549 -1.378
4600000000.0 -1.127 -0.8116
4603000000.0 -1.341 0.378
4606000000.0 -0.5769 1.275
4609000000.0 0.6198 1.274
4612000000.0 1.37 0.3151
4616000000.0 1.17 -0.8532
4619000000.0 0.01546 -1.414
4622000000.0 -1.071 -0.9164
4625000000.0 -1.39 0.2546
4628000000.0 -0.6888 1.204
4631000000.0 0.502 1.294
4634000000.0 1.329 0.419
4638000000.0 1.171 -0.7912
4641000000.0 0.123 -1.384
4644000000.0 -1.005 -0.949
4647000000.0 -1.334 0.1822
4650000000.0 -0.6797 1.144
4653000000.0 0.477 1.255
4656000000.0 1.262 0.412
4659000000.0 1.096 -0.7326
4662000000.0 0.08356 -1.266
4666000000.0 -0.9244 -0.8498
4669000000.0 -1.225 0.1688
4672000000.0 -0.5775 1.062
4675000000.0 0.4652 1.116
4678000000.0 1.126 0.3354
4681000000.0 0.9717 -0.6637
4684000000.0 0.06002 -1.123
4688000000.0 -0.8358 -0.7503
4691000000.0 -1.11 0.192
4694000000.0 -0.5698 0.9822
4697000000.0 0.4071 1.031
4700000000.0 1.078 0.3128
4703000000.0 0.8873 -0.6588
4706000000.0 0.04953 -1.109
4709000000.0 -0.8314 -0.7556
4712000000.0 -1.099 0.2286
4716000000.0 -0.4875 0.9758
4719000000.0 0.4229 0.9996
4722000000.0 1.052 0.283
4725000000.0 0.8769 -0.6578
4728000000.0 0.06835 -1.068
4731000000.0 -0.7856 -0.6901
4734000000.0 -1.045 0.1566
4738000000.0 -0.5209 0.9195
4741000000.0 0.3844 1.008
4744000000.0 1.02 0.3654
4747000000.0 0.9134 -0.5547
4750000000.0 0.16 -1.071
4753000000.0 -0.711 -0.8104
4756000000.0 -1.097 0.03617
4759000000.0 -0.678 0.9169
4762000000.0 0.2319 1.119
4766000000.0 1.019 0.5281
4769000000.0 1.064 -0.4377
4772000000.0 0.3319 -1.114
4775000000.0 -0.6373 -0.9931
4778000000.0 -1.198 -0.1421
4781000000.0 -0.8721 0.8607
4784000000.0 0.07208 1.208
4788000000.0 0.9758 0.7409
4791000000.0 1.189 -0.287
4794000000.0 0.5858 -1.111
4797000000.0 -0.4677 -1.162
4800000000.0 -1.2 -0.3889
4803000000.0 -1.063 0.6776
4806000000.0 -0.196 1.238
4809000000.0 0.8323 0.9931
4812000000.0 1.274 -0.0241
4816000000.0 0.8046 -1.015
4819000000.0 -0.2962 -1.288
4822000000.0 -1.196 -0.6448
4825000000.0 -1.271 0.5053
4828000000.0 -0.3923 1.307
4831000000.0 0.7973 1.178
4834000000.0 1.397 0.1318
4838000000.0 0.9985 -0.9965
4841000000.0 -0.1268 -1.398
4844000000.0 -1.163 -0.8093
4847000000.0 -1.337 0.3931
4850000000.0 -0.5659 1.303
4853000000.0 0.6449 1.234
4856000000.0 1.371 0.2567
4859000000.0 1.046 -0.8721
4862000000.0 -0.01081 -1.356
4866000000.0 -1.073 -0.8373
4869000000.0 -1.323 0.2887
4872000000.0 -0.6114 1.203
4875000000.0 0.5415 1.211
4878000000.0 1.313 0.351
4881000000.0 1.049 -0.7475
4884000000.0 0.04287 -1.28
4888000000.0 -0.9612 -0.8215
4891000000.0 -1.225 0.2124
4894000000.0 -0.6228 1.036
4897000000.0 0.4489 1.113
4900000000.0 1.104 0.3592
4903000000.0 0.9403 -0.6366
4906000000.0 0.09836 -1.113
4909000000.0 -0.7859 -0.7704
4912000000.0 -1.084 0.1511
4916000000.0 -0.569 0.8737
4919000000.0 0.3521 0.9437
4922000000.0 0.9749 0.3681
4925000000.0 0.8485 -0.5257
4928000000.0 0.1428 -0.9828
4931000000.0 -0.6092 -0.7252
4934000000.0 -0.9497 0.01608
4938000000.0 -0.5879 0.7548
4941000000.0 0.2271 0.9279
4944000000.0 0.8684 0.4045
4947000000.0 0.8593 -0.4133
4950000000.0 0.2445 -0.9291
4953000000.0 -0.5788 -0.7683
4956000000.0 -0.935 -0.05962
4959000000.0 -0.6658 0.701
4962000000.0 0.1553 0.9773
4966000000.0 0.8449 0.5139
4969000000.0 0.9422 -0.3533
4972000000.0 0.3212 -0.9477
4975000000.0 -0.5499 -0.8321
4978000000.0 -1.021 -0.1379
4981000000.0 -0.7535 0.7102
4984000000.0 0.06485 1.045
4988000000.0 0.8485 0.6412
4991000000.0 1.063 -0.2536
4994000000.0 0.4633 -0.993
4997000000.0 -0.4579 -1.002
5000000000.0 -1.104 -0.2781
5003000000.0 -0.9418 0.6579
5006000000.0 -0.09816 1.173
5009000000.0 0.8548 0.8619
5012000000.0 1.213 -0.1586
5016000000.0 0.6847 -1.05
5019000000.0 -0.3787 -1.208
5022000000.0 -1.181 -0.4843
5025000000.0 -1.126 0.6327
5028000000.0 -0.2485 1.279
5031000000.0 0.853 0.9725
5034000000.0 1.271 0.02769
5038000000.0 0.825 -0.9927
5041000000.0 -0.2181 -1.277
5044000000.0 -1.124 -0.6264
5047000000.0 -1.217 0.4445
5050000000.0 -0.4205 1.217
5053000000.0 0.667 1.138
5056000000.0 1.299 0.2147
5059000000.0 0.9901 -0.8607
5062000000.0 -0.02343 -1.348
5066000000.0 -1.039 -0.869
5069000000.0 -1.301 0.2638
5072000000.0 -0.6643 1.156
5075000000.0 0.5172 1.211
5078000000.0 1.253 0.3926
5081000000.0 1.061 -0.6944
5084000000.0 0.146 -1.24
5088000000.0 -0.8525 -0.8842
5091000000.0 -1.24 0.06524
5094000000.0 -0.7152 0.9704
5097000000.0 0.2723 1.115
5100000000.0 1.051 0.5427
5103000000.0 0.9877 -0.5033
5106000000.0 0.3356 -1.068
5109000000.0 -0.6066 -0.9195
5112000000.0 -1.113 -0.1201
5116000000.0 -0.7972 0.6892
5119000000.0 0.03716 1.07
5122000000.0 0.8689 0.6287
5125000000.0 1.03 -0.2476
5128000000.0 0.4745 -0.9103
5131000000.0 -0.4228 -0.9353
5134000000.0 -1.003 -0.2603
5138000000.0 -0.822 0.5584
5141000000.0 -0.06337 1.019
5144000000.0 0.6762 0.6525
5147000000.0 0.9768 -0.109
5150000000.0 0.4955 -0.7909
5153000000.0 -0.2777 -0.9041
5156000000.0 -0.884 -0.3298
5159000000.0 -0.8018 0.5104
5162000000.0 -0.1654 0.9235
5166000000.0 0.5956 0.6535
5169000000.0 0.9267 -0.04971
5172000000.0 0.5341 -0.7386
5175000000.0 -0.2302 -0.9153
5178000000.0 -0.8411 -0.3925
5181000000.0 -0.8331 0.421
5184000000.0 -0.1861 0.9232
5188000000.0 0.5806 0.6965
5191000000.0 0.9218 -0.01736
5194000000.0 0.5334 -0.7559
5197000000.0 -0.2216 -0.9014
5200000000.0 -0.8938 -0.4161
5203000000.0 -0.8684 0.4462
5206000000.0 -0.2042 0.952
5209000000.0 0.6252 0.7721
5212000000.0 0.9833 0.006308
5216000000.0 0.6134 -0.7715
5219000000.0 -0.1838 -0.9817
5222000000.0 -0.8673 -0.4661
5225000000.0 -0.9224 0.4048
5228000000.0 -0.2726 0.9698
5231000000.0 0.5944 0.8055
5234000000.0 1.034 0.07643
5238000000.0 0.7131 -0.7388
5241000000.0 -0.1521 -1.044
5244000000.0 -0.8947 -0.5551
5247000000.0 -1.01 0.3451
5250000000.0 -0.4078 1.004
5253000000.0 0.5249 0.9416
5256000000.0 1.072 0.1993
5259000000.0 0.8623 -0.6925
5262000000.0 0.001399 -1.068
5266000000.0 -0.8111 -0.7016
5269000000.0 -1.075 0.1619
5272000000.0 -0.583 0.9447
5275000000.0 0.3579 1.058
5278000000.0 1.043 0.416
5281000000.0 0.9744 -0.5323
5284000000.0 0.2276 -1.088
5288000000.0 -0.7004 -0.8991
5291000000.0 -1.146 -0.03426
5294000000.0 -0.7712 0.8079
5297000000.0 0.1127 1.137
5300000000.0 0.9488 0.6224
5303000000.0 1.111 -0.3015
5306000000.0 0.4581 -1.036
5309000000.0 -0.4805 -1.011
5312000000.0 -1.102 -0.3121
5316000000.0 -0.9229 0.6673
5319000000.0 -0.09795 1.172
5322000000.0 0.8003 0.8322
5325000000.0 1.18 -0.09849
5328000000.0 0.681 -0.941
5331000000.0 -0.3019 -1.106
5334000000.0 -1.055 -0.5398
5338000000.0 -1.022 0.5415
5341000000.0 -0.2858 1.076
5344000000.0 0.6806 0.9177
5347000000.0 1.133 0.04136
5350000000.0 0.755 -0.8359
5353000000.0 -0.1593 -1.114
5356000000.0 -0.9618 -0.5541
5359000000.0 -1.017 0.3795
5362000000.0 -0.3752 1.055
5366000000.0 0.5915 0.9292
5369000000.0 1.079 0.1284
5372000000.0 0.7664 -0.7524
5375000000.0 -0.09081 -1.049
5378000000.0 -0.8769 -0.5707
5381000000.0 -0.989 0.3438
5384000000.0 -0.3363 0.9649
5388000000.0 0.4695 0.8621
5391000000.0 0.9962 0.08842
5394000000.0 0.6694 -0.6713
5397000000.0 -0.08586 -0.9346
5400000000.0 -0.7973 -0.5167
5403000000.0 -0.8746 0.3072
5406000000.0 -0.2972 0.8729
5409000000.0 0.5046 0.7504
5412000000.0 0.8841 0.09435
5416000000.0 0.622 -0.6167
5419000000.0 -0.1334 -0.895
5422000000.0 -0.7387 -0.4806
5425000000.0 -0.8368 0.2985
5428000000.0 -0.2761 0.8583
5431000000.0 0.5014 0.7188
5434000000.0 0.8778 0.06938
5438000000.0 0.5924 -0.6076
5441000000.0 -0.104 -0.8926
5444000000.0 -0.7687 -0.4679
5447000000.0 -0.8168 0.3205
5450000000.0 -0.2913 0.8473
5453000000.0 0.4727 0.7655
5456000000.0 0.8701 0.1268
5459000000.0 0.6743 -0.6294
5462000000.0 -0.08574 -0.9317
5466000000.0 -0.7488 -0.5231
5469000000.0 -0.841 0.2231
5472000000.0 -0.3974 0.8114
5475000000.0 0.4083 0.8237
5478000000.0 0.9186 0.2634
5481000000.0 0.7607 -0.5702
5484000000.0 0.08424 -0.9695
5488000000.0 -0.715 -0.6333
5491000000.0 -0.9682 0.1123
5494000000.0 -0.5762 0.8232
5497000000.0 0.2779 1.007
5500000000.0 0.9888 0.4054
5503000000.0 0.9414 -0.4796
5506000000.0 0.2382 -1.008
5509000000.0 -0.6036 -0.8211
5512000000.0 -1.018 -0.0721
5516000000.0 -0.7516 0.7655
5519000000.0 0.0981 1.029
5522000000.0 0.8637 0.5995
5525000000.0 1.0 -0.304
5528000000.0 0.4327 -0.9269
5531000000.0 -0.4509 -1.011
5534000000.0 -1.037 -0.2719
5538000000.0 -0.8644 0.5962
5541000000.0 -0.0767 1.068
5544000000.0 0.7649 0.7622
5547000000.0 1.087 -0.1093
5550000000.0 0.6158 -0.8854
5553000000.0 -0.2816 -1.045
5556000000.0 -0.9782 -0.4485
5559000000.0 -0.9659 0.4703
5562000000.0 -0.242 0.9958
5566000000.0 0.6496 0.857
5569000000.0 1.061 0.05154
5572000000.0 0.7011 -0.7614
5575000000.0 -0.1443 -1.012
5578000000.0 -0.8904 -0.5503
5581000000.0 -0.9425 0.3214
5584000000.0 -0.3425 0.9309
5588000000.0 0.4836 0.8581
5591000000.0 0.9572 0.1592
5594000000.0 0.7695 -0.6092
5597000000.0 -0.000669 -0.9393
5600000000.0 -0.7488 -0.5598
5603000000.0 -0.8974 0.1783
5606000000.0 -0.4218 0.8024
5609000000.0 0.3516 0.8308
5612000000.0 0.8794 0.2559
5616000000.0 0.7073 -0.5296
5619000000.0 0.04988 -0.8881
5622000000.0 -0.6436 -0.608
5625000000.0 -0.8571 0.1351
5628000000.0 -0.4438 0.7356
5631000000.0 0.3097 0.816
5634000000.0 0.8079 0.2504
5638000000.0 0.7289 -0.4752
5641000000.0 0.1019 -0.8521
5644000000.0 -0.5837 -0.601
5647000000.0 -0.8518 0.09815
5650000000.0 -0.4524 0.7481
5653000000.0 0.2835 0.8131
5656000000.0 0.8184 0.2791
5659000000.0 0.7225 -0.4735
5662000000.0 0.08175 -0.8748
5666000000.0 -0.6322 -0.6099
5669000000.0 -0.8778 0.1118
5672000000.0 -0.4832 0.7639
5675000000.0 0.2764 0.8376
5678000000.0 0.8614 0.305
5681000000.0 0.8024 -0.5001
5684000000.0 0.1213 -0.9126
5688000000.0 -0.6624 -0.6946
5691000000.0 -0.9695 0.1192
5694000000.0 -0.5699 0.7994
5697000000.0 0.2945 0.9334
5700000000.0 0.9189 0.3655
5703000000.0 0.9171 -0.4896
5706000000.0 0.1999 -0.9982
5709000000.0 -0.6769 -0.743
5712000000.0 -1.049 0.01992
5716000000.0 -0.6483 0.7884
5719000000.0 0.2079 1.024
5722000000.0 0.9555 0.5192
5725000000.0 0.9732 -0.4259
5728000000.0 0.3036 -1.006
5731000000.0 -0.6068 -0.9205
5734000000.0 -1.08 -0.1242
5738000000.0 -0.8179 0.7631
5741000000.0 0.07007 1.083
5744000000.0 0.885 0.6414
5747000000.0 1.079 -0.3074
5750000000.0 0.4333 -1.025
5753000000.0 -0.4908 -1.008
5756000000.0 -1.075 -0.2524
5759000000.0 -0.8909 0.6508
5762000000.0 -0.08832 1.138
5766000000.0 0.7717 0.7652
5769000000.0 1.094 -0.1083
5772000000.0 0.6395 -0.9195
5775000000.0 -0.334 -1.073
5778000000.0 -1.04 -0.4472
5781000000.0 -0.9982 0.493
5784000000.0 -0.242 1.057
5788000000.0 0.6362 0.8906
5791000000.0 1.098 0.05131
5794000000.0 0.7363 -0.7959
5797000000.0 -0.1368 -1.094
5800000000.0 -0.9071 -0.5801
5803000000.0 -1.027 0.3434
5806000000.0 -0.4024 0.987
5809000000.0 0.5251 0.9232
5812000000.0 1.043 0.2155
5816000000.0 0.8038 -0.6727
5819000000.0 0.01702 -0.9906
5822000000.0 -0.7795 -0.657
5825000000.0 -1.028 0.2274
5828000000.0 -0.4798 0.881
5831000000.0 0.3868 0.9277
5834000000.0 0.9594 0.317
5838000000.0 0.8079 -0.5557
5841000000.0 0.08835 -0.9781
5844000000.0 -0.7045 -0.6403
5847000000.0 -0.9842 0.1141
5850000000.0 -0.5015 0.8251
5853000000.0 0.3301 0.8983
5856000000.0 0.8669 0.321
5859000000.0 0.8048 -0.5051
5862000000.0 0.1021 -0.9154
5866000000.0 -0.6305 -0.6691
5869000000.0 -0.9322 0.1279
5872000000.0 -0.4883 0.7742
5875000000.0 0.2737 0.8549
5878000000.0 0.8505 0.3176
5881000000.0 0.7445 -0.4919
5884000000.0 0.1333 -0.8492
5888000000.0 -0.5979 -0.6479
5891000000.0 -0.8786 0.0574
5894000000.0 -0.5291 0.7208
5897000000.0 0.2407 0.8127
5900000000.0 0.8125 0.3383
5903000000.0 0.7643 -0.4391
5906000000.0 0.1972 -0.847
5909000000.0 -0.5748 -0.6895
5912000000.0 -0.8548 -0.02255
5916000000.0 -0.5649 0.651
5919000000.0 0.1939 0.8627
5922000000.0 0.7695 0.3931
5925000000.0 0.8413 -0.342
5928000000.0 0.2438 -0.8358
5931000000.0 -0.5081 -0.7336
5934000000.0 -0.8927 -0.1096
5938000000.0 -0.6226 0.6045
5941000000.0 0.06237 0.8839
5944000000.0 0.7509 0.5214
5947000000.0 0.8985 -0.2397
5950000000.0 0.3943 -0.8242
5953000000.0 -0.3828 -0.8625
5956000000.0 -0.8917 -0.2154
5959000000.0 -0.7584 0.5425
5962000000.0 -0.06147 0.9564
5966000000.0 0.6906 0.659
5969000000.0 0.9389 -0.08353
5972000000.0 0.5344 -0.7911
5975000000.0 -0.2536 -0.935
5978000000.0 -0.9053 -0.3691
5981000000.0 -0.8948 0.4148
5984000000.0 -0.2329 0.9542
5988000000.0 0.6223 0.8007
5991000000.0 1.009 0.08028
5994000000.0 0.7022 -0.7533
5997000000.0 -0.139 -1.039
6000000000.0 -0.8602 -0.5506
6003000000.0 -0.9307 0.3056
6006000000.0 -0.3704 0.9487
6009000000.0 0.4917 0.8686
6012000000.0 0.9999 0.1484
6016000000.0 0.7844 -0.6235
6019000000.0 -0.02579 -0.9983
6022000000.0 -0.7773 -0.6419
6025000000.0 -0.9963 0.2009
6028000000.0 -0.4655 0.8859
6031000000.0 0.4157 0.9257
6034000000.0 0.9476 0.2976
6038000000.0 0.815 -0.5429
6041000000.0 0.09843 -0.9665
6044000000.0 -0.7139 -0.6517
6047000000.0 -0.9818 0.1101
6050000000.0 -0.5011 0.8416
6053000000.0 0.3227 0.9044
6056000000.0 0.8804 0.3266
6059000000.0 0.8368 -0.472
6062000000.0 0.128 -0.9362
6066000000.0 -0.6358 -0.705
6069000000.0 -0.8891 0.08342
6072000000.0 -0.5397 0.7443
6075000000.0 0.265 0.8632
6078000000.0 0.835 0.3557
6081000000.0 0.7842 -0.4274
6084000000.0 0.1703 -0.8603
6088000000.0 -0.5721 -0.678
6091000000.0 -0.8693 0.0312
6094000000.0 -0.5503 0.7051
6097000000.0 0.1672 0.8746
6100000000.0 0.7993 0.379
6103000000.0 0.8141 -0.3676
6106000000.0 0.1854 -0.8435
6109000000.0 -0.5227 -0.7154
6112000000.0 -0.8767 -0.02021
6116000000.0 -0.5755 0.6451
6119000000.0 0.1909 0.8445
6122000000.0 0.7782 0.4281
6125000000.0 0.7935 -0.3455
6128000000.0 0.2371 -0.8613
6131000000.0 -0.5123 -0.7196
6134000000.0 -0.8824 -0.0626
6138000000.0 -0.6079 0.6449
6141000000.0 0.1361 0.8521
6144000000.0 0.7683 0.5071
6147000000.0 0.8431 -0.2974
6150000000.0 0.3333 -0.8404
6153000000.0 -0.4306 -0.7786
6156000000.0 -0.8921 -0.1461
6159000000.0 -0.6511 0.5953
6162000000.0 0.0388 0.8976
6166000000.0 0.7646 0.5446
6169000000.0 0.9246 -0.2223
6172000000.0 0.3918 -0.8478
6175000000.0 -0.4332 -0.8713
6178000000.0 -0.9148 -0.2094
6181000000.0 -0.7535 0.5767
6184000000.0 -0.03527 0.9621
6188000000.0 0.7051 0.5991
6191000000.0 0.9595 -0.1725
6194000000.0 0.4453 -0.8215
6197000000.0 -0.3425 -0.9062
6200000000.0 -0.8867 -0.3119
6203000000.0 -0.7959 0.4992
6206000000.0 -0.08389 0.9268
6209000000.0 0.653 0.6998
6212000000.0 0.9083 -0.07669
6216000000.0 0.571 -0.7335
6219000000.0 -0.238 -0.8864
6222000000.0 -0.8182 -0.4188
6225000000.0 -0.8469 0.3542
6228000000.0 -0.2628 0.8745
6231000000.0 0.5211 0.7266
6234000000.0 0.9061 0.04355
6238000000.0 0.6226 -0.6596
6241000000.0 -0.1053 -0.864
6244000000.0 -0.7396 -0.4798
6247000000.0 -0.843 0.2627
6250000000.0 -0.3051 0.774
6253000000.0 0.4054 0.7681
6256000000.0 0.8111 0.1602
6259000000.0 0.6764 -0.5194
6262000000.0 0.05627 -0.8203
6266000000.0 -0.6184 -0.5794
