! Created with skrf 1.8.0 (http://scikit-rf.org).
# Hz S RI R 50.0 
!freq ReS11 ImS11
4000000000.0 -0.1847 -1.476
4003000000.0 -1.268 -0.7908
4006000000.0 -1.427 0.4803
4009000000.0 -0.526 1.401
4012000000.0 0.766 1.292
4016000000.0 1.545 0.253
4019000000.0 1.152 -1.084
4022000000.0 -0.1191 -1.6
4025000000.0 -1.332 -0.9064
4028000000.0 -1.555 0.4506
4031000000.0 -0.5685 1.478
4034000000.0 0.7982 1.374
4038000000.0 1.569 0.182
4041000000.0 1.187 -1.134
4044000000.0 -0.1199 -1.62
4047000000.0 -1.314 -0.9439
4050000000.0 -1.566 0.4616
4053000000.0 -0.6026 1.494
4056000000.0 0.7514 1.423
4059000000.0 1.626 0.2997
4062000000.0 1.262 -1.02
4066000000.0 0.02792 -1.625
4069000000.0 -1.226 -1.053
4072000000.0 -1.65 0.2735
4075000000.0 -0.8228 1.48
4078000000.0 0.5802 1.521
4081000000.0 1.576 0.5638
4084000000.0 1.408 -0.8725
4088000000.0 0.2227 -1.628
4091000000.0 -1.138 -1.225
4094000000.0 -1.66 0.07569
4097000000.0 -0.967 1.336
4100000000.0 0.3894 1.605
4103000000.0 1.46 0.6831
4106000000.0 1.501 -0.6311
4109000000.0 0.4089 -1.476
4112000000.0 -0.8233 -1.275
4116000000.0 -1.504 -0.187
4119000000.0 -1.11 1.003
4122000000.0 0.04544 1.491
4125000000.0 1.109 0.9371
4128000000.0 1.435 -0.2023
4131000000.0 0.7614 -1.241
4134000000.0 -0.4514 -1.399
4138000000.0 -1.361 -0.628
4141000000.0 -1.362 0.6322
4144000000.0 -0.3474 1.469
4147000000.0 0.8801 1.249
4150000000.0 1.499 0.1193
4153000000.0 1.044 -1.086
4156000000.0 -0.1715 -1.537
4159000000.0 -1.254 -0.8937
4162000000.0 -1.469 0.3797
4166000000.0 -0.6239 1.377
4169000000.0 0.6394 1.379
4172000000.0 1.422 0.3917
4175000000.0 1.249 -0.8319
4178000000.0 0.1507 -1.485
4181000000.0 -1.051 -1.066
4184000000.0 -1.522 0.1163
4188000000.0 -0.853 1.243
4191000000.0 0.3665 1.497
4194000000.0 1.424 0.6781
4197000000.0 1.401 -0.682
4200000000.0 0.3539 -1.57
4203000000.0 -0.9967 -1.24
4206000000.0 -1.614 -0.02159
4209000000.0 -1.068 1.269
4212000000.0 0.3646 1.629
4216000000.0 1.529 0.7286
4219000000.0 1.503 -0.7298
4222000000.0 0.2719 -1.651
4225000000.0 -1.156 -1.237
4228000000.0 -1.696 0.1579
4231000000.0 -0.9023 1.425
4234000000.0 0.5798 1.546
4238000000.0 1.586 0.5117
4241000000.0 1.288 -0.939
4244000000.0 0.0328 -1.608
4247000000.0 -1.232 -0.9998
4250000000.0 -1.552 0.3367
4253000000.0 -0.6434 1.423
4256000000.0 0.6974 1.384
4259000000.0 1.533 0.2546
4262000000.0 1.12 -1.019
4266000000.0 -0.0809 -1.487
4269000000.0 -1.269 -0.8591
4272000000.0 -1.414 0.4659
4275000000.0 -0.5143 1.391
4278000000.0 0.7587 1.204
4281000000.0 1.438 0.1369
4284000000.0 1.003 -1.026
4288000000.0 -0.1606 -1.351
4291000000.0 -1.177 -0.7228
4294000000.0 -1.32 0.4547
4297000000.0 -0.4671 1.274
4300000000.0 0.6541 1.113
4303000000.0 1.295 0.2201
4306000000.0 0.9915 -0.8533
4309000000.0 -0.005664 -1.282
4312000000.0 -1.03 -0.8432
4316000000.0 -1.238 0.2728
4319000000.0 -0.6651 1.1
4322000000.0 0.4549 1.222
4325000000.0 1.221 0.4841
4328000000.0 1.14 -0.628
4331000000.0 0.2764 -1.322
4334000000.0 -0.8715 -1.05
4338000000.0 -1.397 0.003322
4341000000.0 -0.9141 1.077
4344000000.0 0.2025 1.384
4347000000.0 1.228 0.7245
4350000000.0 1.316 -0.5111
4353000000.0 0.5017 -1.368
4356000000.0 -0.7517 -1.21
4359000000.0 -1.449 -0.223
4362000000.0 -1.087 0.9862
4366000000.0 0.07438 1.455
4369000000.0 1.158 0.8852
4372000000.0 1.427 -0.3195
4375000000.0 0.702 -1.311
4378000000.0 -0.5833 -1.388
4381000000.0 -1.445 -0.4358
4384000000.0 -1.25 0.8605
4388000000.0 -0.1581 1.533
4391000000.0 1.116 1.068
4394000000.0 1.546 -0.2099
4397000000.0 0.8349 -1.351
4400000000.0 -0.5239 -1.494
4403000000.0 -1.529 -0.5283
4406000000.0 -1.332 0.8594
4409000000.0 -0.1719 1.579
4412000000.0 1.136 1.089
4416000000.0 1.548 -0.2279
4419000000.0 0.7746 -1.325
4422000000.0 -0.5933 -1.425
4425000000.0 -1.431 -0.4141
4428000000.0 -1.214 0.8894
4431000000.0 -0.04725 1.457
4434000000.0 1.12 0.9287
4438000000.0 1.414 -0.2862
4441000000.0 0.581 -1.236
4444000000.0 -0.6086 -1.244
4447000000.0 -1.316 -0.2656
4450000000.0 -0.997 0.8947
4453000000.0 0.0354 1.31
4456000000.0 1.057 0.7338
4459000000.0 1.235 -0.3605
4462000000.0 0.4373 -1.201
4466000000.0 -0.677 -1.052
4469000000.0 -1.234 -0.09548
4472000000.0 -0.8073 0.8827
4475000000.0 0.2139 1.186
4478000000.0 1.017 0.5796
4481000000.0 1.078 -0.4596
4484000000.0 0.3107 -1.118
4488000000.0 -0.6681 -0.9179
4491000000.0 -1.161 -0.02379
4494000000.0 -0.7392 0.8672
4497000000.0 0.2067 1.083
4500000000.0 0.9971 0.5635
4503000000.0 1.0 -0.395
4506000000.0 0.3285 -1.064
4509000000.0 -0.6539 -0.8906
4512000000.0 -1.103 -0.08325
4516000000.0 -0.7531 0.8156
4519000000.0 0.1469 1.139
4522000000.0 0.993 0.5903
4525000000.0 1.064 -0.3772
4528000000.0 0.4101 -1.08
4531000000.0 -0.5855 -1.006
4534000000.0 -1.126 -0.1682
4538000000.0 -0.8617 0.7863
4541000000.0 0.05821 1.169
4544000000.0 0.9648 0.7213
4547000000.0 1.162 -0.2796
4550000000.0 0.5389 -1.076
4553000000.0 -0.5102 -1.118
4556000000.0 -1.172 -0.3352
4559000000.0 -1.012 0.6923
4562000000.0 -0.1281 1.232
4566000000.0 0.8744 0.9006
4569000000.0 1.294 -0.08097
4572000000.0 0.7741 -1.015
4575000000.0 -0.3254 -1.258
4578000000.0 -1.183 -0.5871
4581000000.0 -1.214 0.5406
4584000000.0 -0.3897 1.283
4588000000.0 0.7578 1.105
4591000000.0 1.385 0.1274
4594000000.0 0.9555 -0.9768
4597000000.0 -0.1323 -1.383
4600000000.0 -1.153 -0.7831
4603000000.0 -1.305 0.3814
4606000000.0 -0.5298 1.299
4609000000.0 0.6528 1.245
4612000000.0 1.361 0.2737
4616000000.0 1.064 -0.9044
4619000000.0 0.004836 -1.379
4622000000.0 -1.091 -0.8614
4625000000.0 -1.364 0.2791
4628000000.0 -0.6133 1.256
4631000000.0 0.5538 1.26
4634000000.0 1.347 0.3711
4638000000.0 1.109 -0.7966
4641000000.0 0.0525 -1.345
4644000000.0 -0.9836 -0.889
4647000000.0 -1.32 0.2317
4650000000.0 -0.6507 1.169
4653000000.0 0.4988 1.186
4656000000.0 1.247 0.3444
4659000000.0 1.027 -0.7756
4662000000.0 0.03235 -1.249
4666000000.0 -0.9477 -0.7609
4669000000.0 -1.189 0.263
4672000000.0 -0.5711 1.066
4675000000.0 0.4896 1.067
4678000000.0 1.099 0.2872
4681000000.0 0.8998 -0.7071
4684000000.0 0.01671 -1.158
4688000000.0 -0.846 -0.6998
4691000000.0 -1.077 0.2193
4694000000.0 -0.5054 0.9739
4697000000.0 0.4742 1.036
4700000000.0 1.094 0.2388
4703000000.0 0.8823 -0.6412
4706000000.0 0.0138 -1.054
4709000000.0 -0.8415 -0.6393
4712000000.0 -1.028 0.2147
4716000000.0 -0.4704 0.9686
4719000000.0 0.4649 0.9305
4722000000.0 1.046 0.2528
4725000000.0 0.8033 -0.6662
4728000000.0 0.00433 -1.048
4731000000.0 -0.8128 -0.6514
4734000000.0 -1.034 0.2135
4738000000.0 -0.4927 0.9645
4741000000.0 0.3902 0.98
4744000000.0 0.9843 0.3274
4747000000.0 0.9123 -0.5763
4750000000.0 0.148 -1.042
4753000000.0 -0.7598 -0.7817
4756000000.0 -1.079 0.06447
4759000000.0 -0.6507 0.888
4762000000.0 0.2609 1.089
4766000000.0 0.9982 0.5008
4769000000.0 1.067 -0.4645
4772000000.0 0.3183 -1.118
4775000000.0 -0.6652 -0.9462
4778000000.0 -1.19 -0.1006
4781000000.0 -0.8424 0.813
4784000000.0 0.0705 1.206
4788000000.0 0.9959 0.7222
4791000000.0 1.175 -0.275
4794000000.0 0.5325 -1.092
4797000000.0 -0.5052 -1.11
4800000000.0 -1.216 -0.3846
4803000000.0 -1.073 0.6701
4806000000.0 -0.1621 1.228
4809000000.0 0.8678 0.9197
4812000000.0 1.285 -0.08029
4816000000.0 0.7623 -1.018
4819000000.0 -0.3207 -1.282
4822000000.0 -1.197 -0.5838
4825000000.0 -1.244 0.5322
4828000000.0 -0.3457 1.316
4831000000.0 0.7822 1.125
4834000000.0 1.396 0.09593
4838000000.0 0.9458 -1.021
4841000000.0 -0.186 -1.399
4844000000.0 -1.191 -0.7503
4847000000.0 -1.327 0.4353
4850000000.0 -0.4599 1.294
4853000000.0 0.6972 1.212
4856000000.0 1.37 0.22
4859000000.0 1.029 -0.9003
4862000000.0 -0.05283 -1.346
4866000000.0 -1.063 -0.8097
4869000000.0 -1.273 0.3259
4872000000.0 -0.5859 1.185
4875000000.0 0.5754 1.164
4878000000.0 1.26 0.3038
4881000000.0 0.9978 -0.7796
4884000000.0 0.03685 -1.256
4888000000.0 -0.9552 -0.8034
4891000000.0 -1.172 0.2653
4894000000.0 -0.5619 1.05
4897000000.0 0.4607 1.044
4900000000.0 1.094 0.3019
4903000000.0 0.881 -0.6508
4906000000.0 0.06682 -1.08
4909000000.0 -0.7874 -0.7054
4912000000.0 -1.029 0.154
4916000000.0 -0.524 0.8897
4919000000.0 0.3697 0.9362
4922000000.0 0.9474 0.3084
4925000000.0 0.8363 -0.5124
4928000000.0 0.1174 -0.927
4931000000.0 -0.636 -0.6919
4934000000.0 -0.9659 0.0633
4938000000.0 -0.5556 0.7565
4941000000.0 0.22 0.9203
4944000000.0 0.867 0.3891
4947000000.0 0.8374 -0.4155
4950000000.0 0.1966 -0.9035
4953000000.0 -0.5831 -0.7602
4956000000.0 -0.9532 0.002622
4959000000.0 -0.6343 0.7286
4962000000.0 0.1989 0.9621
4966000000.0 0.8762 0.4694
4969000000.0 0.9031 -0.3594
4972000000.0 0.2677 -0.9785
4975000000.0 -0.5529 -0.8449
4978000000.0 -1.01 -0.1049
4981000000.0 -0.7394 0.7325
4984000000.0 0.112 1.028
4988000000.0 0.8742 0.6103
4991000000.0 1.034 -0.2956
4994000000.0 0.4516 -0.9863
4997000000.0 -0.4892 -0.9984
5000000000.0 -1.101 -0.251
5003000000.0 -0.9234 0.6747
5006000000.0 -0.06245 1.162
5009000000.0 0.8514 0.7997
5012000000.0 1.214 -0.1891
5016000000.0 0.6141 -1.047
5019000000.0 -0.3979 -1.189
5022000000.0 -1.177 -0.4375
5025000000.0 -1.096 0.6281
5028000000.0 -0.2104 1.243
5031000000.0 0.8596 0.9726
5034000000.0 1.267 -0.04941
5038000000.0 0.7971 -1.012
5041000000.0 -0.2619 -1.248
5044000000.0 -1.137 -0.5952
5047000000.0 -1.184 0.5217
5050000000.0 -0.4133 1.208
5053000000.0 0.7224 1.073
5056000000.0 1.282 0.1661
5059000000.0 0.9282 -0.8788
5062000000.0 -0.05126 -1.285
5066000000.0 -1.042 -0.7982
5069000000.0 -1.244 0.2982
5072000000.0 -0.5795 1.15
5075000000.0 0.5166 1.17
5078000000.0 1.232 0.3647
5081000000.0 1.025 -0.7054
5084000000.0 0.121 -1.247
5088000000.0 -0.8514 -0.8714
5091000000.0 -1.205 0.138
5094000000.0 -0.7084 0.9801
5097000000.0 0.2949 1.14
5100000000.0 1.078 0.51
5103000000.0 1.044 -0.5168
5106000000.0 0.2601 -1.119
5109000000.0 -0.639 -0.9243
5112000000.0 -1.07 -0.1334
5116000000.0 -0.7507 0.7597
5119000000.0 0.105 1.085
5122000000.0 0.8874 0.5851
5125000000.0 0.9883 -0.2812
5128000000.0 0.4165 -0.9234
5131000000.0 -0.4667 -0.9065
5134000000.0 -0.9828 -0.2217
5138000000.0 -0.7786 0.6109
5141000000.0 -0.0396 0.978
5144000000.0 0.701 0.6351
5147000000.0 0.9417 -0.182
5150000000.0 0.4774 -0.8252
5153000000.0 -0.3424 -0.8615
5156000000.0 -0.9004 -0.2893
5159000000.0 -0.7805 0.5092
5162000000.0 -0.1232 0.8735
5166000000.0 0.621 0.6431
5169000000.0 0.8794 -0.1008
5172000000.0 0.5225 -0.7523
5175000000.0 -0.2444 -0.8576
5178000000.0 -0.8305 -0.3437
5181000000.0 -0.8019 0.4456
5184000000.0 -0.1576 0.872
5188000000.0 0.6049 0.6961
5191000000.0 0.9424 -0.05068
5194000000.0 0.5653 -0.7776
5197000000.0 -0.2581 -0.8995
5200000000.0 -0.8583 -0.3507
5203000000.0 -0.8175 0.453
5206000000.0 -0.1652 0.9542
5209000000.0 0.6177 0.7181
5212000000.0 0.9669 -0.03964
5216000000.0 0.5938 -0.7927
5219000000.0 -0.2485 -0.9453
5222000000.0 -0.8817 -0.4182
5225000000.0 -0.9255 0.4179
5228000000.0 -0.248 1.008
5231000000.0 0.6096 0.8006
5234000000.0 1.013 0.04329
5238000000.0 0.674 -0.8009
5241000000.0 -0.1714 -1.033
5244000000.0 -0.8806 -0.5474
5247000000.0 -0.983 0.3686
5250000000.0 -0.3653 0.9957
5253000000.0 0.5517 0.9092
5256000000.0 1.061 0.1729
5259000000.0 0.8228 -0.6871
5262000000.0 -0.005097 -1.109
5266000000.0 -0.8651 -0.682
5269000000.0 -1.085 0.2026
5272000000.0 -0.5358 0.9451
5275000000.0 0.3913 1.032
5278000000.0 1.031 0.3905
5281000000.0 0.9594 -0.5748
5284000000.0 0.1812 -1.078
5288000000.0 -0.7263 -0.8593
5291000000.0 -1.124 -0.04972
5294000000.0 -0.729 0.8254
5297000000.0 0.1748 1.117
5300000000.0 0.9231 0.5932
5303000000.0 1.108 -0.3261
5306000000.0 0.4353 -1.036
5309000000.0 -0.5449 -1.014
5312000000.0 -1.097 -0.2481
5316000000.0 -0.9392 0.6798
5319000000.0 -0.07171 1.138
5322000000.0 0.8102 0.8018
5325000000.0 1.154 -0.1429
5328000000.0 0.6493 -0.9619
5331000000.0 -0.3577 -1.088
5334000000.0 -1.098 -0.4341
5338000000.0 -0.9998 0.5696
5341000000.0 -0.2248 1.087
5344000000.0 0.7079 0.8915
5347000000.0 1.082 0.02055
5350000000.0 0.7341 -0.837
5353000000.0 -0.2024 -1.072
5356000000.0 -0.9651 -0.5158
5359000000.0 -1.032 0.401
5362000000.0 -0.3223 1.044
5366000000.0 0.6277 0.8984
5369000000.0 1.073 0.05441
5372000000.0 0.7089 -0.7926
5375000000.0 -0.1626 -1.022
5378000000.0 -0.8764 -0.552
5381000000.0 -0.9564 0.3786
5384000000.0 -0.2992 0.9226
5388000000.0 0.5538 0.7849
5391000000.0 0.9664 0.05177
5394000000.0 0.6425 -0.7183
5397000000.0 -0.17 -0.9162
5400000000.0 -0.7937 -0.4637
5403000000.0 -0.8418 0.3574
5406000000.0 -0.2453 0.8583
5409000000.0 0.5167 0.7063
5412000000.0 0.8839 0.05067
5416000000.0 0.5775 -0.6486
5419000000.0 -0.1547 -0.7977
5422000000.0 -0.761 -0.4033
5425000000.0 -0.7921 0.3619
5428000000.0 -0.2117 0.865
5431000000.0 0.5302 0.697
5434000000.0 0.8957 0.03677
5438000000.0 0.5619 -0.6678
5441000000.0 -0.1849 -0.8747
5444000000.0 -0.789 -0.4364
5447000000.0 -0.8058 0.3543
5450000000.0 -0.2375 0.8339
5453000000.0 0.519 0.7553
5456000000.0 0.8973 0.08834
5459000000.0 0.6078 -0.6528
5462000000.0 -0.1116 -0.9401
5466000000.0 -0.7489 -0.476
5469000000.0 -0.8955 0.2756
5472000000.0 -0.3342 0.873
5475000000.0 0.4498 0.8109
5478000000.0 0.9379 0.2192
5481000000.0 0.7288 -0.572
5484000000.0 0.03788 -0.9841
5488000000.0 -0.7341 -0.6602
5491000000.0 -0.9719 0.1391
5494000000.0 -0.5206 0.8273
5497000000.0 0.3396 0.9526
5500000000.0 0.9475 0.3845
5503000000.0 0.9036 -0.4769
5506000000.0 0.2303 -0.9973
5509000000.0 -0.6251 -0.8035
5512000000.0 -1.03 0.008835
5516000000.0 -0.6748 0.7753
5519000000.0 0.126 1.037
5522000000.0 0.8972 0.5399
5525000000.0 0.9998 -0.3208
5528000000.0 0.4085 -0.9943
5531000000.0 -0.5305 -0.9199
5534000000.0 -1.048 -0.2398
5538000000.0 -0.8562 0.6573
5541000000.0 -0.06766 1.073
5544000000.0 0.8027 0.7449
5547000000.0 1.072 -0.1269
5550000000.0 0.5847 -0.9145
5553000000.0 -0.326 -1.039
5556000000.0 -0.9849 -0.4135
5559000000.0 -0.9407 0.5087
5562000000.0 -0.1993 1.05
5566000000.0 0.6404 0.8104
5569000000.0 1.029 0.006409
5572000000.0 0.6522 -0.7888
5575000000.0 -0.1563 -1.015
5578000000.0 -0.8815 -0.488
5581000000.0 -0.9474 0.3501
5584000000.0 -0.2866 0.9391
5588000000.0 0.5114 0.8381
5591000000.0 0.9694 0.1205
5594000000.0 0.6542 -0.6535
5597000000.0 -0.03259 -0.9062
5600000000.0 -0.7458 -0.5156
5603000000.0 -0.9049 0.2178
5606000000.0 -0.3455 0.8302
5609000000.0 0.3987 0.8009
5612000000.0 0.8745 0.1778
5616000000.0 0.6627 -0.5561
5619000000.0 0.005417 -0.8776
5622000000.0 -0.6815 -0.5463
5625000000.0 -0.8526 0.1765
5628000000.0 -0.4066 0.7568
5631000000.0 0.3456 0.768
5634000000.0 0.8109 0.188
5638000000.0 0.6641 -0.4965
5641000000.0 0.03272 -0.8394
5644000000.0 -0.6271 -0.5469
5647000000.0 -0.8238 0.1586
5650000000.0 -0.3867 0.7723
5653000000.0 0.3186 0.7841
5656000000.0 0.8243 0.2126
5659000000.0 0.724 -0.5226
5662000000.0 0.04984 -0.8665
5666000000.0 -0.6368 -0.5962
5669000000.0 -0.8794 0.1615
5672000000.0 -0.428 0.7736
5675000000.0 0.3255 0.8472
5678000000.0 0.8806 0.2311
5681000000.0 0.7282 -0.537
5684000000.0 0.06487 -0.9596
5688000000.0 -0.6775 -0.6054
5691000000.0 -0.947 0.1503
5694000000.0 -0.4774 0.8551
5697000000.0 0.3514 0.919
5700000000.0 0.9245 0.3287
5703000000.0 0.8897 -0.5213
5706000000.0 0.1189 -0.9844
5709000000.0 -0.7139 -0.7477
5712000000.0 -1.037 0.05321
5716000000.0 -0.5922 0.8452
5719000000.0 0.2887 0.997
5722000000.0 0.9936 0.4075
5725000000.0 0.9301 -0.4661
5728000000.0 0.219 -1.022
5731000000.0 -0.689 -0.8648
5734000000.0 -1.096 -0.02177
5738000000.0 -0.7453 0.7902
5741000000.0 0.1331 1.086
5744000000.0 0.9515 0.5709
5747000000.0 1.032 -0.3176
5750000000.0 0.4348 -1.037
5753000000.0 -0.528 -0.9836
5756000000.0 -1.101 -0.21
5759000000.0 -0.8765 0.6885
5762000000.0 -0.01659 1.104
5766000000.0 0.8195 0.7057
5769000000.0 1.101 -0.1593
5772000000.0 0.5762 -0.9512
5775000000.0 -0.3437 -1.055
5778000000.0 -1.02 -0.3856
5781000000.0 -0.9504 0.5119
5784000000.0 -0.2082 1.092
5788000000.0 0.6905 0.8485
5791000000.0 1.077 0.01711
5794000000.0 0.7097 -0.8238
5797000000.0 -0.1876 -1.044
5800000000.0 -0.9335 -0.5193
5803000000.0 -0.9629 0.3991
5806000000.0 -0.3178 1.008
5809000000.0 0.5696 0.8877
5812000000.0 1.039 0.1248
5816000000.0 0.7515 -0.6793
5819000000.0 -0.08008 -1.019
5822000000.0 -0.8233 -0.6028
5825000000.0 -0.9465 0.279
5828000000.0 -0.4037 0.9274
5831000000.0 0.4332 0.8678
5834000000.0 0.948 0.2438
5838000000.0 0.7505 -0.6038
5841000000.0 -0.002698 -0.9457
5844000000.0 -0.7826 -0.584
5847000000.0 -0.9482 0.1749
5850000000.0 -0.4354 0.8307
5853000000.0 0.4028 0.8724
5856000000.0 0.8862 0.2514
5859000000.0 0.7365 -0.5194
5862000000.0 0.06013 -0.9086
5866000000.0 -0.693 -0.5901
5869000000.0 -0.8837 0.1884
5872000000.0 -0.4057 0.7953
5875000000.0 0.3256 0.8363
5878000000.0 0.8195 0.2354
5881000000.0 0.7266 -0.4816
5884000000.0 0.02369 -0.864
5888000000.0 -0.6825 -0.5979
5891000000.0 -0.9146 0.1524
5894000000.0 -0.4284 0.7454
5897000000.0 0.3092 0.8189
5900000000.0 0.8333 0.2957
5903000000.0 0.7475 -0.4571
5906000000.0 0.1469 -0.8907
5909000000.0 -0.6104 -0.585
5912000000.0 -0.8757 0.06257
5916000000.0 -0.5143 0.743
5919000000.0 0.234 0.8275
5922000000.0 0.7879 0.3714
5925000000.0 0.7791 -0.4226
5928000000.0 0.207 -0.8449
5931000000.0 -0.5196 -0.6983
5934000000.0 -0.9098 -0.013
5938000000.0 -0.5871 0.6667
5941000000.0 0.149 0.9018
5944000000.0 0.8003 0.4728
5947000000.0 0.8802 -0.3044
5950000000.0 0.3079 -0.8532
5953000000.0 -0.4646 -0.7831
5956000000.0 -0.9186 -0.1794
5959000000.0 -0.7302 0.5662
5962000000.0 -0.005086 0.9384
5966000000.0 0.7175 0.6251
5969000000.0 0.9294 -0.1628
5972000000.0 0.5076 -0.8334
5975000000.0 -0.3512 -0.9272
5978000000.0 -0.9183 -0.3275
5981000000.0 -0.8187 0.5017
5984000000.0 -0.1949 0.9883
5988000000.0 0.6391 0.744
5991000000.0 1.03 -0.01025
5994000000.0 0.6322 -0.785
5997000000.0 -0.2091 -0.9901
6000000000.0 -0.9148 -0.4761
6003000000.0 -0.903 0.3948
6006000000.0 -0.3145 0.9742
6009000000.0 0.5837 0.8278
6012000000.0 0.9786 0.08399
6016000000.0 0.7069 -0.7323
6019000000.0 -0.09554 -0.9954
6022000000.0 -0.8215 -0.5415
6025000000.0 -0.9357 0.2697
6028000000.0 -0.3873 0.8871
6031000000.0 0.4661 0.8784
6034000000.0 0.9748 0.2009
6038000000.0 0.7355 -0.6084
6041000000.0 -0.0001082 -0.9648
6044000000.0 -0.7635 -0.5883
6047000000.0 -0.9515 0.1644
6050000000.0 -0.4306 0.8652
6053000000.0 0.3841 0.8518
6056000000.0 0.9037 0.2403
6059000000.0 0.755 -0.5337
6062000000.0 0.0506 -0.9268
6066000000.0 -0.68 -0.6168
6069000000.0 -0.9055 0.1627
6072000000.0 -0.4476 0.7911
6075000000.0 0.3262 0.8325
6078000000.0 0.8426 0.2712
6081000000.0 0.7441 -0.4875
6084000000.0 0.1138 -0.8714
6088000000.0 -0.6222 -0.5967
6091000000.0 -0.842 0.07624
6094000000.0 -0.4626 0.7251
6097000000.0 0.2798 0.8201
6100000000.0 0.7978 0.3202
6103000000.0 0.7249 -0.4376
6106000000.0 0.1256 -0.8237
6109000000.0 -0.5667 -0.634
6112000000.0 -0.867 0.03299
6116000000.0 -0.4901 0.6958
6119000000.0 0.2384 0.8338
6122000000.0 0.8007 0.3197
6125000000.0 0.755 -0.4109
6128000000.0 0.1476 -0.8524
6131000000.0 -0.5504 -0.6644
6134000000.0 -0.8622 -0.0009514
6138000000.0 -0.5513 0.7192
6141000000.0 0.1858 0.8539
6144000000.0 0.7985 0.3892
6147000000.0 0.8005 -0.4019
6150000000.0 0.2094 -0.8413
6153000000.0 -0.5187 -0.7481
6156000000.0 -0.9174 -0.0535
6159000000.0 -0.6162 0.697
6162000000.0 0.1332 0.8758
6166000000.0 0.7949 0.4944
6169000000.0 0.8719 -0.3173
6172000000.0 0.3142 -0.8789
6175000000.0 -0.4887 -0.8045
6178000000.0 -0.9481 -0.1259
6181000000.0 -0.705 0.6333
6184000000.0 0.05595 0.9242
6188000000.0 0.7484 0.5792
6191000000.0 0.9574 -0.2241
6194000000.0 0.425 -0.8282
6197000000.0 -0.4143 -0.8556
6200000000.0 -0.9131 -0.235
6203000000.0 -0.7764 0.5583
6206000000.0 -0.05134 0.9584
6209000000.0 0.694 0.6348
6212000000.0 0.9278 -0.1273
6216000000.0 0.5101 -0.8129
6219000000.0 -0.3005 -0.8545
6222000000.0 -0.8427 -0.3064
6225000000.0 -0.7651 0.4446
6228000000.0 -0.1626 0.8851
6231000000.0 0.6162 0.6911
6234000000.0 0.8899 -0.01189
6238000000.0 0.5636 -0.7127
6241000000.0 -0.1729 -0.8826
6244000000.0 -0.7819 -0.4112
6247000000.0 -0.7839 0.3567
6250000000.0 -0.2237 0.8112
6253000000.0 0.4448 0.7027
6256000000.0 0.8157 0.1026
6259000000.0 0.6122 -0.5911
6262000000.0 -0.02493 -0.8068
6266000000.0 -0.6821 -0.5013
