! Created with skrf 1.8.0 (http://scikit-rf.org).
# Hz S RI R 50.0 
!freq ReS11 ImS11
4000000000.0 -0.7126 -1.363
4003000000.0 -1.526 -0.2987
4006000000.0 -1.156 0.9588
4009000000.0 0.0406 1.535
4012000000.0 1.29 0.9581
4016000000.0 1.502 -0.4014
4019000000.0 0.6504 -1.437
4022000000.0 -0.7042 -1.423
4025000000.0 -1.579 -0.2989
4028000000.0 -1.255 1.046
4031000000.0 0.08413 1.651
4034000000.0 1.338 0.9885
4038000000.0 1.608 -0.4587
4041000000.0 0.6717 -1.511
4044000000.0 -0.8282 -1.496
4047000000.0 -1.678 -0.3048
4050000000.0 -1.239 1.078
4053000000.0 0.0481 1.68
4056000000.0 1.297 1.068
4059000000.0 1.606 -0.3747
4062000000.0 0.7465 -1.447
4066000000.0 -0.6591 -1.483
4069000000.0 -1.566 -0.4005
4072000000.0 -1.398 0.8892
4075000000.0 -0.1765 1.621
4078000000.0 1.119 1.174
4081000000.0 1.596 -0.1174
4084000000.0 0.9062 -1.296
4088000000.0 -0.4866 -1.539
4091000000.0 -1.436 -0.6734
4094000000.0 -1.418 0.7459
4097000000.0 -0.3601 1.599
4100000000.0 0.9733 1.241
4103000000.0 1.561 0.05144
4106000000.0 1.032 -1.162
4109000000.0 -0.2007 -1.501
4112000000.0 -1.237 -0.776
4116000000.0 -1.368 0.4381
4119000000.0 -0.5801 1.324
4122000000.0 0.6628 1.296
4125000000.0 1.384 0.3317
4128000000.0 1.178 -0.8196
4131000000.0 0.1597 -1.43
4134000000.0 -1.03 -1.031
4138000000.0 -1.411 0.09559
4141000000.0 -0.8677 1.188
4144000000.0 0.3712 1.417
4147000000.0 1.321 0.6223
4150000000.0 1.308 -0.6503
4153000000.0 0.3354 -1.42
4156000000.0 -0.9058 -1.186
4159000000.0 -1.469 -0.05846
4162000000.0 -0.9436 1.126
4166000000.0 0.2688 1.48
4169000000.0 1.31 0.6776
4172000000.0 1.33 -0.5873
4175000000.0 0.3881 -1.43
4178000000.0 -0.8972 -1.157
4181000000.0 -1.457 -0.02919
4184000000.0 -0.9581 1.162
4188000000.0 0.2734 1.471
4191000000.0 1.393 0.6128
4194000000.0 1.303 -0.703
4197000000.0 0.2213 -1.469
4200000000.0 -1.08 -1.088
4203000000.0 -1.51 0.177
4206000000.0 -0.7468 1.362
4209000000.0 0.6602 1.405
4212000000.0 1.494 0.3244
4216000000.0 1.14 -1.031
4219000000.0 -0.1789 -1.547
4222000000.0 -1.364 -0.7707
4225000000.0 -1.394 0.6175
4228000000.0 -0.3025 1.458
4231000000.0 0.9492 1.132
4234000000.0 1.472 -0.1115
4238000000.0 0.7221 -1.253
4241000000.0 -0.532 -1.331
4244000000.0 -1.351 -0.4055
4247000000.0 -1.138 0.7858
4250000000.0 -0.06338 1.385
4253000000.0 1.017 0.9023
4256000000.0 1.337 -0.2419
4259000000.0 0.6348 -1.208
4262000000.0 -0.5528 -1.243
4266000000.0 -1.336 -0.3635
4269000000.0 -1.077 0.8199
4272000000.0 -0.03741 1.375
4275000000.0 1.037 0.9298
4278000000.0 1.352 -0.2202
4281000000.0 0.6559 -1.231
4284000000.0 -0.5481 -1.263
4288000000.0 -1.294 -0.389
4291000000.0 -1.117 0.78
4294000000.0 -0.1234 1.356
4297000000.0 0.9496 0.9641
4300000000.0 1.344 -0.1439
4303000000.0 0.7396 -1.117
4306000000.0 -0.4186 -1.287
4309000000.0 -1.264 -0.5464
4312000000.0 -1.248 0.6193
4316000000.0 -0.2954 1.351
4319000000.0 0.8406 1.134
4322000000.0 1.423 0.0298
4325000000.0 0.97 -1.088
4328000000.0 -0.2646 -1.451
4331000000.0 -1.324 -0.7282
4334000000.0 -1.386 0.6175
4338000000.0 -0.4263 1.507
4341000000.0 0.9468 1.233
4344000000.0 1.609 0.04442
4347000000.0 0.9884 -1.265
4350000000.0 -0.4465 -1.529
4353000000.0 -1.423 -0.6108
4356000000.0 -1.419 0.8038
4359000000.0 -0.2043 1.564
4362000000.0 1.118 1.102
4366000000.0 1.541 -0.2191
4369000000.0 0.7599 -1.382
4372000000.0 -0.6377 -1.407
4375000000.0 -1.476 -0.3475
4378000000.0 -1.13 0.9803
4381000000.0 0.07361 1.492
4384000000.0 1.228 0.8009
4388000000.0 1.34 -0.482
4391000000.0 0.4272 -1.367
4394000000.0 -0.8422 -1.169
4397000000.0 -1.412 -0.007136
4400000000.0 -0.8162 1.092
4403000000.0 0.3692 1.285
4406000000.0 1.236 0.4821
4409000000.0 1.115 -0.6797
4412000000.0 0.1139 -1.321
4416000000.0 -0.9625 -0.8667
4419000000.0 -1.243 0.2302
4422000000.0 -0.6133 1.133
4425000000.0 0.5088 1.134
4428000000.0 1.204 0.2977
4431000000.0 0.9765 -0.7373
4434000000.0 0.02803 -1.224
4438000000.0 -0.9615 -0.7943
4441000000.0 -1.212 0.2336
4444000000.0 -0.5846 1.086
4447000000.0 0.4952 1.138
4450000000.0 1.197 0.3204
4453000000.0 1.045 -0.7544
4456000000.0 0.07943 -1.292
4459000000.0 -0.997 -0.8636
4462000000.0 -1.31 0.215
4466000000.0 -0.657 1.155
4469000000.0 0.4668 1.255
4472000000.0 1.274 0.4346
4475000000.0 1.147 -0.7288
4478000000.0 0.199 -1.377
4481000000.0 -0.9729 -1.013
4484000000.0 -1.373 0.1185
4488000000.0 -0.8035 1.159
4491000000.0 0.3607 1.36
4494000000.0 1.325 0.5623
4497000000.0 1.27 -0.6631
4500000000.0 0.2989 -1.426
4503000000.0 -0.8879 -1.124
4506000000.0 -1.416 0.01271
4509000000.0 -0.9532 1.094
4512000000.0 0.2875 1.427
4516000000.0 1.276 0.7086
4519000000.0 1.368 -0.5542
4522000000.0 0.4379 -1.426
4525000000.0 -0.8559 -1.217
4528000000.0 -1.496 -0.1451
4531000000.0 -1.043 1.066
4534000000.0 0.2148 1.476
4538000000.0 1.273 0.7639
4541000000.0 1.419 -0.5078
4544000000.0 0.4775 -1.432
4547000000.0 -0.7973 -1.239
4550000000.0 -1.46 -0.1734
4553000000.0 -1.023 1.012
4556000000.0 0.1721 1.443
4559000000.0 1.217 0.7249
4562000000.0 1.326 -0.4548
4566000000.0 0.4796 -1.34
4569000000.0 -0.74 -1.157
4572000000.0 -1.373 -0.1438
4575000000.0 -0.9584 1.007
4578000000.0 0.1855 1.344
4581000000.0 1.158 0.6776
4584000000.0 1.209 -0.4681
4588000000.0 0.3419 -1.255
4591000000.0 -0.7641 -1.021
4594000000.0 -1.263 -0.03751
4597000000.0 -0.7717 0.9997
4600000000.0 0.2965 1.21
4603000000.0 1.126 0.493
4606000000.0 1.043 -0.5854
4609000000.0 0.2179 -1.163
4612000000.0 -0.7914 -0.8495
4616000000.0 -1.126 0.09314
4619000000.0 -0.6061 0.9768
4622000000.0 0.3623 1.094
4625000000.0 1.078 0.3731
4628000000.0 0.9586 -0.607
4631000000.0 0.08925 -1.082
4634000000.0 -0.8395 -0.7815
4638000000.0 -1.11 0.1568
4641000000.0 -0.5595 0.9724
4644000000.0 0.4131 1.038
4647000000.0 1.093 0.2782
4650000000.0 0.9196 -0.6722
4653000000.0 0.05973 -1.168
4656000000.0 -0.8339 -0.7412
4659000000.0 -1.14 0.1942
4662000000.0 -0.5641 1.008
4666000000.0 0.4598 1.096
4669000000.0 1.136 0.3582
4672000000.0 0.9626 -0.6752
4675000000.0 0.08809 -1.204
4678000000.0 -0.8678 -0.8492
4681000000.0 -1.197 0.1382
4684000000.0 -0.6148 1.029
4688000000.0 0.3631 1.174
4691000000.0 1.164 0.4515
4694000000.0 1.144 -0.6212
4697000000.0 0.2447 -1.283
4700000000.0 -0.8822 -1.002
4703000000.0 -1.318 0.04152
4706000000.0 -0.8367 1.078
4709000000.0 0.3136 1.333
4712000000.0 1.269 0.6073
4716000000.0 1.251 -0.6333
4719000000.0 0.3048 -1.381
4722000000.0 -0.9076 -1.103
4725000000.0 -1.413 0.03838
4728000000.0 -0.862 1.13
4731000000.0 0.2995 1.331
4734000000.0 1.288 0.5708
4738000000.0 1.232 -0.6057
4741000000.0 0.268 -1.366
4744000000.0 -0.8872 -1.047
4747000000.0 -1.362 0.03784
4750000000.0 -0.8249 1.102
4753000000.0 0.3864 1.3
4756000000.0 1.234 0.5033
4759000000.0 1.124 -0.7159
4762000000.0 0.1437 -1.33
4766000000.0 -0.9288 -0.8797
4769000000.0 -1.258 0.2174
4772000000.0 -0.5684 1.088
4775000000.0 0.5302 1.116
4778000000.0 1.148 0.2515
4781000000.0 0.8724 -0.7704
4784000000.0 -0.09697 -1.116
4788000000.0 -0.9327 -0.5893
4791000000.0 -1.021 0.3888
4794000000.0 -0.3 0.9825
4797000000.0 0.5817 0.8228
4800000000.0 0.9845 0.05413
4803000000.0 0.5832 -0.7296
4806000000.0 -0.2095 -0.8887
4809000000.0 -0.8186 -0.383
4812000000.0 -0.8055 0.4637
4816000000.0 -0.131 0.9118
4819000000.0 0.63 0.6395
4822000000.0 0.8928 -0.1048
4825000000.0 0.4456 -0.7863
4828000000.0 -0.3507 -0.8513
4831000000.0 -0.8891 -0.2402
4834000000.0 -0.7157 0.5455
4838000000.0 0.01771 0.924
4841000000.0 0.7305 0.5695
4844000000.0 0.926 -0.2266
4847000000.0 0.4051 -0.8658
4850000000.0 -0.448 -0.8682
4853000000.0 -0.9739 -0.2268
4856000000.0 -0.7962 0.6482
4859000000.0 0.0343 1.047
4862000000.0 0.838 0.655
4866000000.0 1.038 -0.2581
4869000000.0 0.4739 -0.9915
4872000000.0 -0.5132 -0.9981
4875000000.0 -1.142 -0.2181
4878000000.0 -0.9173 0.7695
4881000000.0 0.03665 1.221
4884000000.0 0.9536 0.7458
4888000000.0 1.221 -0.3447
4891000000.0 0.5388 -1.178
4894000000.0 -0.6172 -1.142
4897000000.0 -1.305 -0.221
4900000000.0 -0.9864 0.9115
4903000000.0 0.08851 1.338
4906000000.0 1.101 0.7359
4909000000.0 1.258 -0.4196
4912000000.0 0.4489 -1.261
4916000000.0 -0.7071 -1.137
4919000000.0 -1.297 -0.1199
4922000000.0 -0.8987 0.9311
4925000000.0 0.1684 1.26
4928000000.0 1.092 0.642
4931000000.0 1.163 -0.4478
4934000000.0 0.3475 -1.173
4938000000.0 -0.725 -1.001
4941000000.0 -1.182 -0.05863
4944000000.0 -0.7642 0.8761
4947000000.0 0.1933 1.109
4950000000.0 0.996 0.4906
4953000000.0 1.018 -0.4668
4956000000.0 0.2626 -1.067
4959000000.0 -0.6495 -0.8346
4962000000.0 -1.03 0.01376
4966000000.0 -0.6289 0.806
4969000000.0 0.2359 0.9697
4972000000.0 0.9074 0.3503
4975000000.0 0.8552 -0.4621
4978000000.0 0.1297 -0.9323
4981000000.0 -0.6419 -0.6915
4984000000.0 -0.9131 0.06932
4988000000.0 -0.5235 0.7609
4991000000.0 0.2879 0.8697
4994000000.0 0.834 0.3362
4997000000.0 0.7722 -0.4682
5000000000.0 0.1224 -0.9178
5003000000.0 -0.653 -0.6565
5006000000.0 -0.884 0.0943
5009000000.0 -0.5165 0.7856
5012000000.0 0.3441 0.899
5016000000.0 0.871 0.3246
5019000000.0 0.8183 -0.5057
5022000000.0 0.1009 -0.9795
5025000000.0 -0.6966 -0.7048
5028000000.0 -1.023 0.142
5031000000.0 -0.4992 0.8706
5034000000.0 0.3614 0.9849
5038000000.0 1.016 0.3356
5041000000.0 0.9081 -0.5866
5044000000.0 0.1215 -1.069
5047000000.0 -0.7548 -0.782
5050000000.0 -1.141 0.1378
5053000000.0 -0.6523 0.9555
5056000000.0 0.3665 1.095
5059000000.0 1.094 0.4477
5062000000.0 1.047 -0.6043
5066000000.0 0.2376 -1.195
5069000000.0 -0.8228 -0.9167
5072000000.0 -1.282 0.07894
5075000000.0 -0.7496 1.01
5078000000.0 0.2883 1.238
5081000000.0 1.202 0.5246
5084000000.0 1.143 -0.5984
5088000000.0 0.2861 -1.261
5091000000.0 -0.7629 -1.009
5094000000.0 -1.268 -0.01755
5097000000.0 -0.8251 0.9523
5100000000.0 0.1709 1.228
5103000000.0 1.042 0.628
5106000000.0 1.169 -0.4348
5109000000.0 0.4194 -1.162
5112000000.0 -0.6366 -1.022
5116000000.0 -1.194 -0.2201
5119000000.0 -0.8953 0.7883
5122000000.0 0.04754 1.182
5125000000.0 0.9344 0.6956
5128000000.0 1.134 -0.2606
5131000000.0 0.5562 -0.994
5134000000.0 -0.4265 -1.042
5138000000.0 -1.045 -0.3397
5141000000.0 -0.8986 0.6401
5144000000.0 -0.1172 1.058
5147000000.0 0.7581 0.7462
5150000000.0 1.047 -0.06919
5153000000.0 0.6118 -0.8449
5156000000.0 -0.2914 -0.9934
5159000000.0 -0.8901 -0.4196
5162000000.0 -0.9056 0.4142
5166000000.0 -0.2289 0.9558
5169000000.0 0.5797 0.7881
5172000000.0 0.965 0.08011
5175000000.0 0.6775 -0.7072
5178000000.0 -0.1343 -0.9282
5181000000.0 -0.8284 -0.4947
5184000000.0 -0.8763 0.3268
5188000000.0 -0.2918 0.8891
5191000000.0 0.5191 0.7983
5194000000.0 0.939 0.08236
5197000000.0 0.6393 -0.656
5200000000.0 -0.1348 -0.9428
5203000000.0 -0.7897 -0.4762
5206000000.0 -0.8755 0.3166
5209000000.0 -0.282 0.8812
5212000000.0 0.5311 0.7856
5216000000.0 0.942 0.06847
5219000000.0 0.6483 -0.693
5222000000.0 -0.1496 -0.9311
5225000000.0 -0.8219 -0.4739
5228000000.0 -0.8623 0.3579
5231000000.0 -0.2838 0.923
5234000000.0 0.5509 0.8014
5238000000.0 0.9752 0.05373
5241000000.0 0.6298 -0.7217
5244000000.0 -0.1766 -0.986
5247000000.0 -0.8758 -0.485
5250000000.0 -0.9237 0.386
5253000000.0 -0.2774 0.9665
5256000000.0 0.5904 0.8288
5259000000.0 1.015 0.08831
5262000000.0 0.7039 -0.7244
5266000000.0 -0.1132 -1.018
5269000000.0 -0.8957 -0.5341
5272000000.0 -1.0 0.3355
5275000000.0 -0.3459 1.006
5278000000.0 0.5101 0.9228
5281000000.0 1.033 0.1612
5284000000.0 0.8231 -0.6922
5288000000.0 -0.007322 -1.068
5291000000.0 -0.8127 -0.6801
5294000000.0 -1.046 0.1847
5297000000.0 -0.5808 0.9417
5300000000.0 0.3628 1.014
5303000000.0 1.024 0.3808
5306000000.0 0.9695 -0.5357
5309000000.0 0.2351 -1.116
5312000000.0 -0.7201 -0.8825
5316000000.0 -1.111 -0.04348
5319000000.0 -0.7473 0.8394
5322000000.0 0.1735 1.125
5325000000.0 1.001 0.5876
5328000000.0 1.084 -0.3745
5331000000.0 0.4269 -1.069
5334000000.0 -0.5264 -1.0
5338000000.0 -1.131 -0.2455
5341000000.0 -0.9043 0.6817
5344000000.0 -0.05874 1.156
5347000000.0 0.8749 0.7871
5350000000.0 1.135 -0.1663
5353000000.0 0.6239 -0.9845
5356000000.0 -0.3549 -1.082
5359000000.0 -1.039 -0.3731
5362000000.0 -1.008 0.5559
5366000000.0 -0.2439 1.125
5369000000.0 0.7385 0.8665
5372000000.0 1.137 0.00976
5375000000.0 0.7025 -0.8853
5378000000.0 -0.2542 -1.116
5381000000.0 -1.023 -0.5185
5384000000.0 -1.028 0.4782
5388000000.0 -0.2765 1.083
5391000000.0 0.6261 0.8788
5394000000.0 1.072 0.05173
5397000000.0 0.7073 -0.7877
5400000000.0 -0.1938 -1.051
5403000000.0 -0.888 -0.5164
5406000000.0 -0.9451 0.3994
5409000000.0 -0.2697 0.9677
5412000000.0 0.5536 0.8299
5416000000.0 0.9607 0.04155
5419000000.0 0.6266 -0.7173
5422000000.0 -0.1794 -0.9493
5425000000.0 -0.819 -0.4829
5428000000.0 -0.8736 0.3741
5431000000.0 -0.2324 0.8769
5434000000.0 0.5315 0.763
5438000000.0 0.9396 0.03366
5441000000.0 0.5817 -0.7167
5444000000.0 -0.2119 -0.8975
5447000000.0 -0.7933 -0.3833
5450000000.0 -0.7471 0.396
5453000000.0 -0.1565 0.845
5456000000.0 0.5597 0.6779
5459000000.0 0.8407 -0.03834
5462000000.0 0.5205 -0.7008
5466000000.0 -0.1994 -0.8239
5469000000.0 -0.7721 -0.3813
5472000000.0 -0.7631 0.3844
5475000000.0 -0.1836 0.8311
5478000000.0 0.5324 0.6982
5481000000.0 0.8887 0.03096
5484000000.0 0.5666 -0.6598
5488000000.0 -0.1444 -0.8792
5491000000.0 -0.802 -0.4565
5494000000.0 -0.8534 0.325
5497000000.0 -0.2936 0.8631
5500000000.0 0.4496 0.79
5503000000.0 0.9355 0.1162
5506000000.0 0.6598 -0.613
5509000000.0 -0.05719 -0.9313
5512000000.0 -0.754 -0.5884
5516000000.0 -0.9272 0.1943
5519000000.0 -0.415 0.8504
5522000000.0 0.3916 0.9004
5525000000.0 0.925 0.2997
5528000000.0 0.8588 -0.5255
5531000000.0 0.1389 -1.01
5534000000.0 -0.6632 -0.7239
5538000000.0 -1.012 0.04913
5541000000.0 -0.6108 0.8346
5544000000.0 0.2131 1.013
5547000000.0 0.9093 0.4722
5550000000.0 0.9864 -0.3709
5553000000.0 0.298 -1.017
5556000000.0 -0.5897 -0.915
5559000000.0 -1.075 -0.1416
5562000000.0 -0.7893 0.7195
5566000000.0 0.03149 1.06
5569000000.0 0.8246 0.6557
5572000000.0 1.029 -0.229
5575000000.0 0.4987 -0.9505
5578000000.0 -0.3869 -0.9572
5581000000.0 -1.025 -0.2864
5584000000.0 -0.8428 0.5664
5588000000.0 -0.08467 1.043
5591000000.0 0.7243 0.7328
5594000000.0 1.018 -0.06566
5597000000.0 0.604 -0.837
5600000000.0 -0.2744 -0.9763
5603000000.0 -0.905 -0.4095
5606000000.0 -0.8647 0.4271
5609000000.0 -0.2364 0.9679
5612000000.0 0.5574 0.7677
5616000000.0 0.9626 0.04269
5619000000.0 0.6314 -0.7194
5622000000.0 -0.1582 -0.9194
5625000000.0 -0.796 -0.4793
5628000000.0 -0.8688 0.309
5631000000.0 -0.2817 0.8596
5634000000.0 0.4885 0.7689
5638000000.0 0.9135 0.09811
5641000000.0 0.6262 -0.6328
5644000000.0 -0.09297 -0.9092
5647000000.0 -0.7566 -0.4948
5650000000.0 -0.8483 0.2936
5653000000.0 -0.3016 0.8137
5656000000.0 0.434 0.7692
5659000000.0 0.8626 0.08765
5662000000.0 0.6158 -0.6297
5666000000.0 -0.07721 -0.8895
5669000000.0 -0.7513 -0.478
5672000000.0 -0.8249 0.2808
5675000000.0 -0.2792 0.8448
5678000000.0 0.482 0.7182
5681000000.0 0.8867 0.08959
5684000000.0 0.6208 -0.6457
5688000000.0 -0.1309 -0.8877
5691000000.0 -0.7745 -0.4902
5694000000.0 -0.8553 0.3232
5697000000.0 -0.3169 0.8512
5700000000.0 0.4954 0.7863
5703000000.0 0.9206 0.06256
5706000000.0 0.6385 -0.6658
5709000000.0 -0.1245 -0.9268
5712000000.0 -0.8255 -0.5008
5716000000.0 -0.9062 0.3066
5719000000.0 -0.3287 0.949
5722000000.0 0.5005 0.8446
5725000000.0 0.9805 0.1533
5728000000.0 0.7532 -0.687
5731000000.0 -0.08506 -1.017
5734000000.0 -0.8178 -0.5881
5738000000.0 -0.9831 0.217
5741000000.0 -0.4432 0.9422
5744000000.0 0.477 0.9594
5747000000.0 1.031 0.2528
5750000000.0 0.8511 -0.6247
5753000000.0 0.08156 -1.068
5756000000.0 -0.8177 -0.739
5759000000.0 -1.046 0.1159
5762000000.0 -0.5638 0.9415
5766000000.0 0.3692 1.033
5769000000.0 1.006 0.4086
5772000000.0 1.0 -0.5294
5775000000.0 0.2168 -1.089
5778000000.0 -0.6313 -0.8697
5781000000.0 -1.109 -0.0248
5784000000.0 -0.6951 0.8061
5788000000.0 0.1478 1.063
5791000000.0 0.9111 0.5554
5794000000.0 0.9804 -0.3476
5797000000.0 0.4014 -1.028
5800000000.0 -0.5344 -0.919
5803000000.0 -1.078 -0.1905
5806000000.0 -0.8277 0.6536
5809000000.0 -0.0007011 1.085
5812000000.0 0.8069 0.6686
5816000000.0 1.062 -0.2151
5819000000.0 0.5368 -0.9275
5822000000.0 -0.4033 -0.9523
5825000000.0 -0.9727 -0.2964
5828000000.0 -0.8829 0.5787
5831000000.0 -0.1193 1.031
5834000000.0 0.7289 0.7142
5838000000.0 1.019 -0.05435
5841000000.0 0.6055 -0.84
5844000000.0 -0.2431 -0.9605
5847000000.0 -0.922 -0.4249
5850000000.0 -0.9084 0.4419
5853000000.0 -0.2219 0.951
5856000000.0 0.6212 0.7827
5859000000.0 0.9592 0.03756
5862000000.0 0.609 -0.7512
5866000000.0 -0.2004 -0.9491
5869000000.0 -0.8157 -0.4314
5872000000.0 -0.8627 0.4054
5875000000.0 -0.2372 0.9131
5878000000.0 0.5578 0.7605
5881000000.0 0.9243 0.008415
5884000000.0 0.6007 -0.6723
5888000000.0 -0.1697 -0.8782
5891000000.0 -0.7864 -0.4236
5894000000.0 -0.7815 0.3551
5897000000.0 -0.2369 0.8198
5900000000.0 0.5343 0.6978
5903000000.0 0.8656 0.06603
5906000000.0 0.5782 -0.6357
5909000000.0 -0.1222 -0.8609
5912000000.0 -0.7674 -0.4756
5916000000.0 -0.804 0.2943
5919000000.0 -0.2953 0.8092
5922000000.0 0.4484 0.7262
5925000000.0 0.8632 0.1335
5928000000.0 0.6058 -0.612
5931000000.0 -0.07679 -0.8549
5934000000.0 -0.692 -0.522
5938000000.0 -0.8374 0.2599
5941000000.0 -0.3194 0.7901
5944000000.0 0.3774 0.7853
5947000000.0 0.8738 0.1835
5950000000.0 0.6588 -0.5076
5953000000.0 0.02256 -0.8826
5956000000.0 -0.6479 -0.5662
5959000000.0 -0.911 0.1531
5962000000.0 -0.4684 0.7563
5966000000.0 0.2899 0.8473
5969000000.0 0.8324 0.3392
5972000000.0 0.7881 -0.4161
5975000000.0 0.2044 -0.9091
5978000000.0 -0.6059 -0.7353
5981000000.0 -0.9246 -0.01777
5984000000.0 -0.6093 0.7089
5988000000.0 0.138 0.9269
5991000000.0 0.8148 0.4522
5994000000.0 0.9007 -0.3033
5997000000.0 0.347 -0.9052
6000000000.0 -0.5094 -0.8414
6003000000.0 -0.9455 -0.1565
6006000000.0 -0.7371 0.6434
6009000000.0 0.02464 0.9494
6012000000.0 0.7537 0.6096
6016000000.0 0.9783 -0.2008
6019000000.0 0.4643 -0.8744
6022000000.0 -0.3582 -0.9111
6025000000.0 -0.9596 -0.2931
6028000000.0 -0.8618 0.5816
6031000000.0 -0.1037 0.9797
6034000000.0 0.7124 0.7325
6038000000.0 0.986 -0.0917
6041000000.0 0.5387 -0.8235
6044000000.0 -0.3232 -0.9545
6047000000.0 -0.9353 -0.3967
6050000000.0 -0.8728 0.46
6053000000.0 -0.1904 0.9589
6056000000.0 0.6284 0.7798
6059000000.0 1.0 -0.04991
6062000000.0 0.5926 -0.7602
6066000000.0 -0.2117 -0.9717
6069000000.0 -0.8701 -0.4074
6072000000.0 -0.8554 0.3959
6075000000.0 -0.2125 0.922
6078000000.0 0.5675 0.757
6081000000.0 0.9436 0.03417
6084000000.0 0.602 -0.6809
6088000000.0 -0.1495 -0.9085
6091000000.0 -0.787 -0.4398
6094000000.0 -0.8476 0.3534
6097000000.0 -0.263 0.8661
6100000000.0 0.4758 0.7212
6103000000.0 0.8833 0.04499
6106000000.0 0.5904 -0.6401
6109000000.0 -0.1183 -0.8545
6112000000.0 -0.7284 -0.4651
6116000000.0 -0.8455 0.2855
6119000000.0 -0.2689 0.8064
6122000000.0 0.4671 0.7192
6125000000.0 0.8493 0.1061
6128000000.0 0.6248 -0.6078
6131000000.0 -0.1073 -0.8503
6134000000.0 -0.7079 -0.4614
6138000000.0 -0.8085 0.279
6141000000.0 -0.3001 0.7995
6144000000.0 0.4308 0.7428
6147000000.0 0.8451 0.1339
6150000000.0 0.6521 -0.5746
6153000000.0 -0.025 -0.8666
6156000000.0 -0.6536 -0.4984
6159000000.0 -0.847 0.203
6162000000.0 -0.3594 0.7765
6166000000.0 0.3566 0.8111
6169000000.0 0.8318 0.1955
6172000000.0 0.6776 -0.5558
6175000000.0 0.01737 -0.9045
6178000000.0 -0.6842 -0.5946
6181000000.0 -0.8815 0.1924
6184000000.0 -0.45 0.8126
6188000000.0 0.3306 0.845
6191000000.0 0.8819 0.2597
6194000000.0 0.7491 -0.4678
6197000000.0 0.1111 -0.8826
6200000000.0 -0.6486 -0.6636
6203000000.0 -0.9139 0.1147
6206000000.0 -0.5161 0.7738
6209000000.0 0.2613 0.8954
6212000000.0 0.8059 0.3301
6216000000.0 0.79 -0.4021
6219000000.0 0.1512 -0.9001
6222000000.0 -0.5958 -0.7222
6225000000.0 -0.883 -0.01358
6228000000.0 -0.5846 0.6794
6231000000.0 0.1445 0.8648
6234000000.0 0.7798 0.3994
6238000000.0 0.8343 -0.3487
6241000000.0 0.2727 -0.8411
6244000000.0 -0.4684 -0.721
6247000000.0 -0.8771 -0.1158
6250000000.0 -0.634 0.5786
6253000000.0 0.02128 0.848
6256000000.0 0.6758 0.4977
6259000000.0 0.7778 -0.1634
6262000000.0 0.3835 -0.7038
6266000000.0 -0.3304 -0.7628
6269000000.0 -0.7939 -0.2299
