! Created with skrf 1.8.0 (http://scikit-rf.org).
# Hz S RI R 50.0 
!freq ReS11 ImS11
4000000000.0 -0.1905 -1.487
4003000000.0 -1.286 -0.8263
4006000000.0 -1.448 0.4659
4009000000.0 -0.5675 1.373
4012000000.0 0.796 1.345
4016000000.0 1.536 0.2188
4019000000.0 1.123 -1.073
4022000000.0 -0.1014 -1.529
4025000000.0 -1.269 -0.8895
4028000000.0 -1.505 0.478
4031000000.0 -0.5534 1.459
4034000000.0 0.7987 1.4
4038000000.0 1.634 0.2452
4041000000.0 1.199 -1.11
4044000000.0 -0.07988 -1.636
4047000000.0 -1.342 -0.9256
4050000000.0 -1.533 0.4307
4053000000.0 -0.6737 1.493
4056000000.0 0.7287 1.414
4059000000.0 1.578 0.3392
4062000000.0 1.27 -1.023
4066000000.0 0.0641 -1.621
4069000000.0 -1.205 -1.066
4072000000.0 -1.617 0.264
4075000000.0 -0.8079 1.382
4078000000.0 0.5743 1.539
4081000000.0 1.562 0.5223
4084000000.0 1.418 -0.843
4088000000.0 0.2657 -1.645
4091000000.0 -1.139 -1.251
4094000000.0 -1.635 0.0611
4097000000.0 -1.017 1.337
4100000000.0 0.3706 1.587
4103000000.0 1.444 0.7342
4106000000.0 1.467 -0.6368
4109000000.0 0.4338 -1.503
4112000000.0 -0.8347 -1.279
4116000000.0 -1.493 -0.2149
4119000000.0 -1.104 0.9896
4122000000.0 0.008223 1.498
4125000000.0 1.134 0.9426
4128000000.0 1.458 -0.2342
4131000000.0 0.7925 -1.243
4134000000.0 -0.4328 -1.397
4138000000.0 -1.369 -0.5927
4141000000.0 -1.362 0.6547
4144000000.0 -0.4006 1.479
4147000000.0 0.8757 1.224
4150000000.0 1.497 0.1487
4153000000.0 1.08 -1.065
4156000000.0 -0.107 -1.514
4159000000.0 -1.246 -0.8813
4162000000.0 -1.435 0.3774
4166000000.0 -0.6534 1.377
4169000000.0 0.5996 1.391
4172000000.0 1.457 0.4222
4175000000.0 1.253 -0.8564
4178000000.0 0.1658 -1.512
4181000000.0 -1.039 -1.095
4184000000.0 -1.488 0.07163
4188000000.0 -0.9371 1.24
4191000000.0 0.3646 1.475
4194000000.0 1.383 0.6652
4197000000.0 1.413 -0.6413
4200000000.0 0.4103 -1.532
4203000000.0 -0.9428 -1.295
4206000000.0 -1.617 -0.03653
4209000000.0 -1.047 1.244
4212000000.0 0.3216 1.622
4216000000.0 1.485 0.7597
4219000000.0 1.535 -0.7425
4222000000.0 0.349 -1.659
4225000000.0 -1.097 -1.28
4228000000.0 -1.694 0.08862
4231000000.0 -0.9437 1.419
4234000000.0 0.5409 1.572
4238000000.0 1.538 0.4654
4241000000.0 1.337 -0.9161
4244000000.0 0.08919 -1.604
4247000000.0 -1.186 -1.004
4250000000.0 -1.538 0.3419
4253000000.0 -0.7131 1.412
4256000000.0 0.6775 1.39
4259000000.0 1.488 0.3141
4262000000.0 1.146 -0.9866
4266000000.0 -0.0754 -1.523
4269000000.0 -1.227 -0.8486
4272000000.0 -1.416 0.4384
4275000000.0 -0.5368 1.399
4278000000.0 0.7558 1.265
4281000000.0 1.445 0.1683
4284000000.0 1.0 -0.9877
4288000000.0 -0.1631 -1.367
4291000000.0 -1.206 -0.7506
4294000000.0 -1.289 0.4218
4297000000.0 -0.4938 1.236
4300000000.0 0.6554 1.164
4303000000.0 1.289 0.2605
4306000000.0 0.9983 -0.7734
4309000000.0 0.03633 -1.321
4312000000.0 -0.9941 -0.8526
4316000000.0 -1.264 0.1881
4319000000.0 -0.6648 1.149
4322000000.0 0.4189 1.245
4325000000.0 1.234 0.4913
4328000000.0 1.201 -0.6084
4331000000.0 0.2898 -1.35
4334000000.0 -0.8317 -1.117
4338000000.0 -1.372 -0.03137
4341000000.0 -0.8923 1.068
4344000000.0 0.2473 1.404
4347000000.0 1.228 0.7304
4350000000.0 1.398 -0.4613
4353000000.0 0.5108 -1.373
4356000000.0 -0.6972 -1.237
4359000000.0 -1.401 -0.2601
4362000000.0 -1.115 0.9666
4366000000.0 -0.006751 1.489
4369000000.0 1.137 0.9175
4372000000.0 1.471 -0.3127
4375000000.0 0.7168 -1.295
4378000000.0 -0.5374 -1.396
4381000000.0 -1.436 -0.4848
4384000000.0 -1.294 0.8075
4388000000.0 -0.2069 1.545
4391000000.0 1.078 1.126
4394000000.0 1.563 -0.1324
4397000000.0 0.8719 -1.3
4400000000.0 -0.5213 -1.516
4403000000.0 -1.521 -0.5394
4406000000.0 -1.381 0.8214
4409000000.0 -0.1942 1.595
4412000000.0 1.12 1.103
4416000000.0 1.546 -0.1885
4419000000.0 0.7902 -1.296
4422000000.0 -0.5371 -1.427
4425000000.0 -1.47 -0.468
4428000000.0 -1.241 0.8516
4431000000.0 -0.0782 1.421
4434000000.0 1.08 0.9766
4438000000.0 1.412 -0.2374
4441000000.0 0.6368 -1.237
4444000000.0 -0.5685 -1.251
4447000000.0 -1.335 -0.3088
4450000000.0 -1.051 0.8229
4453000000.0 0.02763 1.353
4456000000.0 1.067 0.7759
4459000000.0 1.231 -0.3476
4462000000.0 0.4723 -1.167
4466000000.0 -0.6242 -1.103
4469000000.0 -1.246 -0.141
4472000000.0 -0.8824 0.8798
4475000000.0 0.163 1.183
4478000000.0 0.9983 0.5899
4481000000.0 1.115 -0.4475
4484000000.0 0.327 -1.107
4488000000.0 -0.6602 -0.9315
4491000000.0 -1.142 -0.05364
4494000000.0 -0.784 0.8294
4497000000.0 0.1809 1.094
4500000000.0 0.9476 0.5925
4503000000.0 1.024 -0.3773
4506000000.0 0.3387 -1.014
4509000000.0 -0.6272 -0.9251
4512000000.0 -1.114 -0.09964
4516000000.0 -0.7915 0.8128
4519000000.0 0.1485 1.114
4522000000.0 0.9404 0.618
4525000000.0 1.086 -0.3703
4528000000.0 0.4028 -1.103
4531000000.0 -0.5703 -1.018
4534000000.0 -1.146 -0.2126
4538000000.0 -0.878 0.7615
4541000000.0 0.03935 1.182
4544000000.0 0.9125 0.7314
4547000000.0 1.166 -0.2453
4550000000.0 0.5771 -1.058
4553000000.0 -0.4566 -1.108
4556000000.0 -1.178 -0.3656
4559000000.0 -1.03 0.6463
4562000000.0 -0.1568 1.235
4566000000.0 0.8363 0.9436
4569000000.0 1.252 -0.05343
4572000000.0 0.7839 -1.02
4575000000.0 -0.2735 -1.258
4578000000.0 -1.127 -0.5962
4581000000.0 -1.212 0.5213
4584000000.0 -0.3746 1.268
4588000000.0 0.7204 1.134
4591000000.0 1.338 0.1661
4594000000.0 0.9682 -0.9544
4597000000.0 -0.1181 -1.408
4600000000.0 -1.108 -0.788
4603000000.0 -1.316 0.3873
4606000000.0 -0.5491 1.268
4609000000.0 0.6511 1.237
4612000000.0 1.364 0.3157
4616000000.0 1.112 -0.8501
4619000000.0 0.007515 -1.388
4622000000.0 -1.068 -0.9153
4625000000.0 -1.379 0.2784
4628000000.0 -0.6259 1.206
4631000000.0 0.5224 1.265
4634000000.0 1.335 0.3969
4638000000.0 1.117 -0.7767
4641000000.0 0.1003 -1.396
4644000000.0 -1.007 -0.907
4647000000.0 -1.368 0.182
4650000000.0 -0.6809 1.153
4653000000.0 0.4893 1.232
4656000000.0 1.246 0.3878
4659000000.0 1.059 -0.7345
4662000000.0 0.1087 -1.245
4666000000.0 -0.9213 -0.8185
4669000000.0 -1.206 0.1827
4672000000.0 -0.579 1.078
4675000000.0 0.4715 1.096
4678000000.0 1.114 0.3185
4681000000.0 0.9469 -0.6771
4684000000.0 0.05623 -1.139
4688000000.0 -0.8249 -0.7734
4691000000.0 -1.066 0.2266
4694000000.0 -0.5093 0.9631
4697000000.0 0.4222 1.014
4700000000.0 1.037 0.2963
4703000000.0 0.8481 -0.6599
4706000000.0 0.0407 -1.088
4709000000.0 -0.8202 -0.6973
4712000000.0 -1.029 0.2218
4716000000.0 -0.4915 0.9815
4719000000.0 0.4422 0.9605
4722000000.0 1.01 0.2782
4725000000.0 0.8432 -0.667
4728000000.0 0.04277 -1.056
4731000000.0 -0.7679 -0.7073
4734000000.0 -1.008 0.1871
4738000000.0 -0.503 0.8984
4741000000.0 0.3584 0.9872
4744000000.0 1.006 0.3291
4747000000.0 0.9072 -0.5171
4750000000.0 0.1266 -1.054
4753000000.0 -0.7251 -0.8053
4756000000.0 -1.084 0.05562
4759000000.0 -0.6553 0.8717
4762000000.0 0.2298 1.074
4766000000.0 1.007 0.5155
4769000000.0 1.026 -0.4548
4772000000.0 0.336 -1.111
4775000000.0 -0.6389 -0.9852
4778000000.0 -1.141 -0.113
4781000000.0 -0.8493 0.8498
4784000000.0 0.05875 1.174
4788000000.0 0.9601 0.737
4791000000.0 1.211 -0.265
4794000000.0 0.5881 -1.078
4797000000.0 -0.4834 -1.177
4800000000.0 -1.196 -0.3913
4803000000.0 -1.069 0.6655
4806000000.0 -0.1831 1.248
4809000000.0 0.848 0.9288
4812000000.0 1.253 -0.0553
4816000000.0 0.8011 -1.041
4819000000.0 -0.2865 -1.295
4822000000.0 -1.153 -0.6036
4825000000.0 -1.237 0.5345
4828000000.0 -0.3841 1.317
4831000000.0 0.782 1.136
4834000000.0 1.386 0.1087
4838000000.0 0.999 -0.982
4841000000.0 -0.1396 -1.413
4844000000.0 -1.157 -0.753
4847000000.0 -1.372 0.4263
4850000000.0 -0.5071 1.305
4853000000.0 0.6764 1.206
4856000000.0 1.38 0.2262
4859000000.0 1.055 -0.8955
4862000000.0 -0.009304 -1.348
4866000000.0 -1.063 -0.8348
4869000000.0 -1.29 0.2992
4872000000.0 -0.6186 1.192
4875000000.0 0.52 1.183
4878000000.0 1.278 0.3273
4881000000.0 1.023 -0.7557
4884000000.0 0.04115 -1.249
4888000000.0 -0.9397 -0.8089
4891000000.0 -1.153 0.2322
4894000000.0 -0.5593 1.039
4897000000.0 0.4539 1.074
4900000000.0 1.112 0.3467
4903000000.0 0.9378 -0.6386
4906000000.0 0.06583 -1.088
4909000000.0 -0.7969 -0.7558
4912000000.0 -1.048 0.1569
4916000000.0 -0.5557 0.8719
4919000000.0 0.3219 0.9506
4922000000.0 0.9407 0.3684
4925000000.0 0.8417 -0.4945
4928000000.0 0.1499 -0.9679
4931000000.0 -0.623 -0.7076
4934000000.0 -0.9555 0.05752
4938000000.0 -0.5884 0.7559
4941000000.0 0.222 0.8853
4944000000.0 0.8457 0.4156
4947000000.0 0.8481 -0.3973
4950000000.0 0.2418 -0.9106
4953000000.0 -0.5597 -0.7839
4956000000.0 -0.9456 -0.03612
4959000000.0 -0.663 0.7292
4962000000.0 0.1254 0.9742
4966000000.0 0.8573 0.4934
4969000000.0 0.9519 -0.3646
4972000000.0 0.312 -0.9217
4975000000.0 -0.5566 -0.8358
4978000000.0 -1.008 -0.1416
4981000000.0 -0.7423 0.6944
4984000000.0 0.08235 1.025
4988000000.0 0.8603 0.6134
4991000000.0 1.016 -0.2564
4994000000.0 0.4491 -0.9942
4997000000.0 -0.4699 -1.004
5000000000.0 -1.107 -0.2941
5003000000.0 -0.9374 0.6834
5006000000.0 -0.08904 1.143
5009000000.0 0.8803 0.8427
5012000000.0 1.191 -0.137
5016000000.0 0.6365 -1.024
5019000000.0 -0.3754 -1.18
5022000000.0 -1.166 -0.4415
5025000000.0 -1.115 0.6243
5028000000.0 -0.2399 1.254
5031000000.0 0.8083 0.9741
5034000000.0 1.278 -0.001243
5038000000.0 0.7932 -0.9873
5041000000.0 -0.22 -1.283
5044000000.0 -1.149 -0.6019
5047000000.0 -1.201 0.4843
5050000000.0 -0.4263 1.259
5053000000.0 0.6827 1.091
5056000000.0 1.318 0.191
5059000000.0 0.9672 -0.8557
5062000000.0 -0.02903 -1.278
5066000000.0 -0.9986 -0.8055
5069000000.0 -1.294 0.279
5072000000.0 -0.6001 1.133
5075000000.0 0.546 1.184
5078000000.0 1.235 0.39
5081000000.0 1.059 -0.6835
5084000000.0 0.1324 -1.233
5088000000.0 -0.8436 -0.8915
5091000000.0 -1.219 0.06231
5094000000.0 -0.7153 0.9343
5097000000.0 0.2573 1.163
5100000000.0 1.036 0.505
5103000000.0 1.036 -0.4795
5106000000.0 0.2799 -1.046
5109000000.0 -0.6295 -0.9281
5112000000.0 -1.066 -0.1321
5116000000.0 -0.7673 0.7287
5119000000.0 0.07724 1.074
5122000000.0 0.8331 0.5978
5125000000.0 1.016 -0.2646
5128000000.0 0.4292 -0.9158
5131000000.0 -0.4127 -0.9052
5134000000.0 -0.9869 -0.2271
5138000000.0 -0.7864 0.5684
5141000000.0 -0.05781 1.003
5144000000.0 0.7375 0.6476
5147000000.0 0.9442 -0.111
5150000000.0 0.518 -0.8219
5153000000.0 -0.3211 -0.8942
5156000000.0 -0.8622 -0.3226
5159000000.0 -0.792 0.4796
5162000000.0 -0.1353 0.9047
5166000000.0 0.6183 0.6897
5169000000.0 0.9239 -0.02055
5172000000.0 0.5245 -0.713
5175000000.0 -0.2489 -0.9081
5178000000.0 -0.8159 -0.3398
5181000000.0 -0.8026 0.4239
5184000000.0 -0.1714 0.9149
5188000000.0 0.5844 0.6844
5191000000.0 0.9372 -0.02987
5194000000.0 0.555 -0.7498
5197000000.0 -0.193 -0.9079
5200000000.0 -0.8631 -0.3865
5203000000.0 -0.8465 0.4587
5206000000.0 -0.1856 0.9067
5209000000.0 0.6157 0.732
5212000000.0 0.9437 -0.0181
5216000000.0 0.6146 -0.7538
5219000000.0 -0.2037 -0.9514
5222000000.0 -0.8669 -0.4647
5225000000.0 -0.9183 0.3926
5228000000.0 -0.2621 0.9627
5231000000.0 0.5705 0.8283
5234000000.0 1.019 0.06923
5238000000.0 0.7125 -0.7572
5241000000.0 -0.137 -1.038
5244000000.0 -0.8769 -0.5213
5247000000.0 -1.009 0.3338
5250000000.0 -0.4118 1.004
5253000000.0 0.5113 0.9433
5256000000.0 1.07 0.2062
5259000000.0 0.8305 -0.6909
5262000000.0 0.004514 -1.102
5266000000.0 -0.8314 -0.7199
5269000000.0 -1.109 0.1689
5272000000.0 -0.5649 0.9615
5275000000.0 0.3711 1.047
5278000000.0 1.01 0.4106
5281000000.0 0.995 -0.5362
5284000000.0 0.2401 -1.069
5288000000.0 -0.6674 -0.854
5291000000.0 -1.124 -0.04942
5294000000.0 -0.783 0.8085
5297000000.0 0.1504 1.134
5300000000.0 0.9425 0.6111
5303000000.0 1.093 -0.3062
5306000000.0 0.4561 -1.044
5309000000.0 -0.4877 -0.9695
5312000000.0 -1.126 -0.3014
5316000000.0 -0.9399 0.6663
5319000000.0 -0.06832 1.134
5322000000.0 0.8147 0.8202
5325000000.0 1.136 -0.1406
5328000000.0 0.6355 -0.9613
5331000000.0 -0.3226 -1.06
5334000000.0 -1.074 -0.4662
5338000000.0 -1.04 0.4622
5341000000.0 -0.2718 1.088
5344000000.0 0.6762 0.9258
5347000000.0 1.122 0.05252
5350000000.0 0.7527 -0.8549
5353000000.0 -0.1666 -1.099
5356000000.0 -0.9679 -0.5373
5359000000.0 -1.031 0.3759
5362000000.0 -0.3588 1.036
5366000000.0 0.5789 0.9224
5369000000.0 1.054 0.1469
5372000000.0 0.7739 -0.7394
5375000000.0 -0.09105 -1.031
5378000000.0 -0.8748 -0.5669
5381000000.0 -0.9623 0.3439
5384000000.0 -0.2925 0.9578
5388000000.0 0.5552 0.8539
5391000000.0 0.9411 0.0898
5394000000.0 0.6733 -0.6646
5397000000.0 -0.1297 -0.9235
5400000000.0 -0.7872 -0.4897
5403000000.0 -0.8779 0.3282
5406000000.0 -0.2606 0.8678
5409000000.0 0.5025 0.7668
5412000000.0 0.9076 0.06931
5416000000.0 0.6338 -0.6403
5419000000.0 -0.1285 -0.8842
5422000000.0 -0.7491 -0.4672
5425000000.0 -0.8128 0.3177
5428000000.0 -0.2637 0.8239
5431000000.0 0.4892 0.7385
5434000000.0 0.8625 0.05822
5438000000.0 0.6068 -0.5968
5441000000.0 -0.138 -0.865
5444000000.0 -0.755 -0.4428
5447000000.0 -0.845 0.3268
5450000000.0 -0.2678 0.8539
5453000000.0 0.4556 0.7367
5456000000.0 0.8727 0.1081
5459000000.0 0.6294 -0.6143
5462000000.0 -0.0776 -0.8576
5466000000.0 -0.716 -0.5252
5469000000.0 -0.8794 0.2474
5472000000.0 -0.373 0.8601
5475000000.0 0.3918 0.8294
5478000000.0 0.9161 0.2116
5481000000.0 0.7472 -0.564
5484000000.0 0.07956 -0.959
5488000000.0 -0.7102 -0.6359
5491000000.0 -0.9739 0.1176
5494000000.0 -0.5545 0.8237
5497000000.0 0.3049 0.9501
5500000000.0 0.9595 0.3799
5503000000.0 0.8966 -0.4524
5506000000.0 0.2236 -0.9628
5509000000.0 -0.6172 -0.8102
5512000000.0 -1.019 -0.07305
5516000000.0 -0.7142 0.7683
5519000000.0 0.1205 1.032
5522000000.0 0.9106 0.5438
5525000000.0 1.013 -0.2782
5528000000.0 0.4175 -0.9738
5531000000.0 -0.4688 -0.9931
5534000000.0 -1.028 -0.2448
5538000000.0 -0.8798 0.628
5541000000.0 -0.06658 1.061
5544000000.0 0.7721 0.7136
5547000000.0 1.033 -0.1221
5550000000.0 0.5644 -0.8722
5553000000.0 -0.304 -1.023
5556000000.0 -0.9828 -0.4092
5559000000.0 -0.9838 0.4837
5562000000.0 -0.2341 1.032
5566000000.0 0.6417 0.8306
5569000000.0 1.033 0.05463
5572000000.0 0.6811 -0.7581
5575000000.0 -0.1539 -1.015
5578000000.0 -0.8646 -0.5457
5581000000.0 -0.948 0.3236
5584000000.0 -0.3484 0.9277
5588000000.0 0.4521 0.8598
5591000000.0 0.9535 0.1766
5594000000.0 0.7421 -0.6472
5597000000.0 -0.02318 -0.921
5600000000.0 -0.7145 -0.6146
5603000000.0 -0.8986 0.1847
5606000000.0 -0.408 0.7985
5609000000.0 0.3685 0.8123
5612000000.0 0.8284 0.2181
5616000000.0 0.7009 -0.5223
5619000000.0 0.02146 -0.8695
5622000000.0 -0.6335 -0.5601
5625000000.0 -0.8126 0.1176
5628000000.0 -0.427 0.7249
5631000000.0 0.3106 0.7897
5634000000.0 0.8038 0.2414
5638000000.0 0.6951 -0.4769
5641000000.0 0.05921 -0.8118
5644000000.0 -0.62 -0.5715
5647000000.0 -0.8195 0.08517
5650000000.0 -0.4392 0.7366
5653000000.0 0.3098 0.7805
5656000000.0 0.8108 0.2619
5659000000.0 0.6832 -0.4828
5662000000.0 0.07916 -0.8727
5666000000.0 -0.6257 -0.5933
5669000000.0 -0.8853 0.1051
5672000000.0 -0.459 0.7662
5675000000.0 0.3272 0.8389
5678000000.0 0.858 0.2905
5681000000.0 0.7614 -0.5031
5684000000.0 0.1136 -0.903
5688000000.0 -0.6776 -0.6605
5691000000.0 -0.9658 0.08203
5694000000.0 -0.5261 0.8054
5697000000.0 0.3059 0.9478
5700000000.0 0.9373 0.3518
5703000000.0 0.8681 -0.4833
5706000000.0 0.1654 -1.016
5709000000.0 -0.6885 -0.7834
5712000000.0 -1.014 0.04417
5716000000.0 -0.6213 0.8176
5719000000.0 0.2149 1.021
5722000000.0 0.9363 0.4433
5725000000.0 0.9774 -0.4179
5728000000.0 0.2736 -1.006
5731000000.0 -0.5704 -0.884
5734000000.0 -1.087 -0.08206
5738000000.0 -0.8009 0.7729
5741000000.0 0.1015 1.071
5744000000.0 0.8857 0.6318
5747000000.0 1.06 -0.2915
5750000000.0 0.4325 -1.01
5753000000.0 -0.4515 -0.9943
5756000000.0 -1.06 -0.245
5759000000.0 -0.8817 0.6799
5762000000.0 -0.07425 1.109
5766000000.0 0.8288 0.7597
5769000000.0 1.128 -0.1208
5772000000.0 0.5622 -0.9254
5775000000.0 -0.3177 -1.054
5778000000.0 -1.034 -0.416
5781000000.0 -0.9741 0.481
5784000000.0 -0.2319 1.049
5788000000.0 0.6553 0.8404
5791000000.0 1.059 0.07801
5794000000.0 0.7702 -0.8083
5797000000.0 -0.1355 -1.083
5800000000.0 -0.907 -0.5393
5803000000.0 -1.012 0.3492
5806000000.0 -0.3523 1.008
5809000000.0 0.5208 0.8866
5812000000.0 1.054 0.1666
5816000000.0 0.8095 -0.6829
5819000000.0 0.002329 -1.028
5822000000.0 -0.7888 -0.591
5825000000.0 -1.003 0.2218
5828000000.0 -0.4375 0.8805
5831000000.0 0.4041 0.9364
5834000000.0 0.9734 0.2496
5838000000.0 0.8036 -0.592
5841000000.0 0.06739 -0.9862
5844000000.0 -0.7185 -0.6595
5847000000.0 -0.9645 0.1584
5850000000.0 -0.4818 0.8523
5853000000.0 0.3037 0.8842
5856000000.0 0.8917 0.2862
5859000000.0 0.768 -0.5098
5862000000.0 0.09029 -0.9259
5866000000.0 -0.6744 -0.6096
5869000000.0 -0.9199 0.1128
5872000000.0 -0.5088 0.7975
5875000000.0 0.3323 0.8531
5878000000.0 0.8382 0.3217
5881000000.0 0.758 -0.4686
5884000000.0 0.1119 -0.8897
5888000000.0 -0.6022 -0.6127
5891000000.0 -0.8546 0.07777
5894000000.0 -0.4871 0.7584
5897000000.0 0.2656 0.8445
5900000000.0 0.8176 0.323
5903000000.0 0.7453 -0.4037
5906000000.0 0.1772 -0.831
5909000000.0 -0.5489 -0.6568
5912000000.0 -0.8611 0.03905
5916000000.0 -0.5535 0.6755
5919000000.0 0.2002 0.8343
5922000000.0 0.7759 0.4201
5925000000.0 0.8065 -0.3646
5928000000.0 0.2271 -0.8476
5931000000.0 -0.4872 -0.7198
5934000000.0 -0.9224 -0.08324
5938000000.0 -0.6017 0.6501
5941000000.0 0.07487 0.8787
5944000000.0 0.7686 0.5127
5947000000.0 0.8706 -0.1968
5950000000.0 0.3392 -0.8302
5953000000.0 -0.3958 -0.8416
5956000000.0 -0.8914 -0.2357
5959000000.0 -0.7386 0.5404
5962000000.0 -0.0546 0.9544
5966000000.0 0.7179 0.6546
5969000000.0 0.9408 -0.1227
5972000000.0 0.5272 -0.7976
5975000000.0 -0.2693 -0.9308
5978000000.0 -0.8831 -0.3749
5981000000.0 -0.8686 0.4229
5984000000.0 -0.2478 0.9434
5988000000.0 0.6282 0.8012
5991000000.0 0.9875 0.007973
5994000000.0 0.6925 -0.7525
5997000000.0 -0.1392 -0.9993
6000000000.0 -0.8679 -0.5217
6003000000.0 -0.9568 0.3099
6006000000.0 -0.3386 0.9351
6009000000.0 0.5059 0.8467
6012000000.0 0.9753 0.1435
6016000000.0 0.7571 -0.6501
6019000000.0 -0.04145 -1.013
6022000000.0 -0.7894 -0.5984
6025000000.0 -0.9476 0.2238
6028000000.0 -0.4494 0.8729
6031000000.0 0.3917 0.8887
6034000000.0 0.9355 0.2509
6038000000.0 0.7905 -0.564
6041000000.0 0.09531 -0.9737
6044000000.0 -0.7119 -0.6605
6047000000.0 -0.9551 0.1345
6050000000.0 -0.4529 0.833
6053000000.0 0.3269 0.9095
6056000000.0 0.8979 0.3121
6059000000.0 0.7893 -0.5028
6062000000.0 0.08378 -0.9309
6066000000.0 -0.6403 -0.6447
6069000000.0 -0.9024 0.07502
6072000000.0 -0.4918 0.7545
6075000000.0 0.2532 0.854
6078000000.0 0.8377 0.3002
6081000000.0 0.7563 -0.4229
6084000000.0 0.1424 -0.872
6088000000.0 -0.5792 -0.6708
6091000000.0 -0.8428 0.04497
6094000000.0 -0.5079 0.6905
6097000000.0 0.2028 0.862
6100000000.0 0.7972 0.3556
6103000000.0 0.7741 -0.3813
6106000000.0 0.1625 -0.8473
6109000000.0 -0.5476 -0.6784
6112000000.0 -0.8493 -0.004432
6116000000.0 -0.5336 0.6828
6119000000.0 0.1628 0.8761
6122000000.0 0.7554 0.3951
6125000000.0 0.7971 -0.342
6128000000.0 0.2212 -0.8381
6131000000.0 -0.4998 -0.6978
6134000000.0 -0.8864 -0.06539
6138000000.0 -0.5808 0.6482
6141000000.0 0.1293 0.8865
6144000000.0 0.7689 0.4643
6147000000.0 0.8352 -0.3013
6150000000.0 0.303 -0.8525
6153000000.0 -0.4776 -0.7332
6156000000.0 -0.8708 -0.105
6159000000.0 -0.6613 0.6398
6162000000.0 0.07994 0.9174
6166000000.0 0.776 0.5485
6169000000.0 0.8934 -0.2693
6172000000.0 0.3514 -0.8747
6175000000.0 -0.4177 -0.8146
6178000000.0 -0.9203 -0.2244
6181000000.0 -0.7581 0.6009
6184000000.0 -0.01601 0.9454
6188000000.0 0.7345 0.6112
6191000000.0 0.9341 -0.1418
6194000000.0 0.4553 -0.8297
6197000000.0 -0.3138 -0.8615
6200000000.0 -0.917 -0.2235
6203000000.0 -0.7801 0.5187
6206000000.0 -0.142 0.9391
6209000000.0 0.6691 0.6698
6212000000.0 0.9055 -0.0627
6216000000.0 0.5274 -0.7559
6219000000.0 -0.2621 -0.8969
6222000000.0 -0.837 -0.3978
6225000000.0 -0.8312 0.402
6228000000.0 -0.2173 0.8931
6231000000.0 0.5353 0.7202
6234000000.0 0.8844 0.07291
6238000000.0 0.5838 -0.6773
6241000000.0 -0.1239 -0.8614
6244000000.0 -0.7251 -0.4559
6247000000.0 -0.7887 0.2447
6250000000.0 -0.2876 0.7924
6253000000.0 0.4223 0.721
6256000000.0 0.8276 0.1542
6259000000.0 0.6461 -0.5206
6262000000.0 0.03946 -0.8128
6266000000.0 -0.6121 -0.539
