! Created with skrf 1.8.0 (http://scikit-rf.org).
# Hz S RI R 50.0 
!freq ReS11 ImS11
4000000000.0 -0.2313 -1.475
4003000000.0 -1.307 -0.7325
4006000000.0 -1.369 0.5205
4009000000.0 -0.4991 1.418
4012000000.0 0.8406 1.268
4016000000.0 1.502 0.1246
4019000000.0 1.065 -1.144
4022000000.0 -0.1939 -1.59
4025000000.0 -1.36 -0.7445
4028000000.0 -1.512 0.5766
4031000000.0 -0.53 1.55
4034000000.0 0.9016 1.384
4038000000.0 1.592 0.1514
4041000000.0 1.103 -1.178
4044000000.0 -0.2354 -1.638
4047000000.0 -1.381 -0.8448
4050000000.0 -1.54 0.5678
4053000000.0 -0.5653 1.518
4056000000.0 0.7961 1.385
4059000000.0 1.586 0.2502
4062000000.0 1.179 -1.078
4066000000.0 -0.0444 -1.624
4069000000.0 -1.265 -0.9505
4072000000.0 -1.534 0.3376
4075000000.0 -0.74 1.474
4078000000.0 0.6406 1.44
4081000000.0 1.57 0.4814
4084000000.0 1.374 -0.9337
4088000000.0 0.1472 -1.652
4091000000.0 -1.215 -1.144
4094000000.0 -1.612 0.1648
4097000000.0 -0.8959 1.353
4100000000.0 0.4448 1.566
4103000000.0 1.444 0.6096
4106000000.0 1.423 -0.7217
4109000000.0 0.3695 -1.498
4112000000.0 -0.9114 -1.224
4116000000.0 -1.511 -0.1038
4119000000.0 -1.057 1.043
4122000000.0 0.1065 1.513
4125000000.0 1.156 0.8815
4128000000.0 1.462 -0.302
4131000000.0 0.7214 -1.293
4134000000.0 -0.5313 -1.386
4138000000.0 -1.391 -0.4834
4141000000.0 -1.276 0.6917
4144000000.0 -0.3045 1.466
4147000000.0 0.9244 1.149
4150000000.0 1.481 0.02866
4153000000.0 0.9854 -1.115
4156000000.0 -0.2369 -1.504
4159000000.0 -1.261 -0.8243
4162000000.0 -1.423 0.5125
4166000000.0 -0.5534 1.396
4169000000.0 0.689 1.317
4172000000.0 1.466 0.2984
4175000000.0 1.142 -0.9413
4178000000.0 0.03224 -1.486
4181000000.0 -1.15 -0.9871
4184000000.0 -1.49 0.2481
4188000000.0 -0.8023 1.287
4191000000.0 0.485 1.428
4194000000.0 1.464 0.5351
4197000000.0 1.343 -0.7717
4200000000.0 0.2343 -1.54
4203000000.0 -1.102 -1.17
4206000000.0 -1.615 0.1523
4209000000.0 -0.8999 1.342
4212000000.0 0.522 1.573
4216000000.0 1.573 0.5431
4219000000.0 1.411 -0.9322
4222000000.0 0.107 -1.651
4225000000.0 -1.251 -1.086
4228000000.0 -1.647 0.3638
4231000000.0 -0.6986 1.475
4234000000.0 0.7434 1.431
4238000000.0 1.589 0.2739
4241000000.0 1.165 -1.108
4244000000.0 -0.1189 -1.554
4247000000.0 -1.341 -0.8203
4250000000.0 -1.472 0.5499
4253000000.0 -0.4896 1.467
4256000000.0 0.8582 1.235
4259000000.0 1.48 0.09197
4262000000.0 0.9933 -1.135
4266000000.0 -0.2904 -1.411
4269000000.0 -1.294 -0.6343
4272000000.0 -1.342 0.584
4275000000.0 -0.332 1.426
4278000000.0 0.908 1.093
4281000000.0 1.416 -0.0207
4284000000.0 0.8184 -1.11
4288000000.0 -0.317 -1.29
4291000000.0 -1.233 -0.5802
4294000000.0 -1.21 0.5871
4297000000.0 -0.3384 1.275
4300000000.0 0.7931 1.031
4303000000.0 1.306 0.09735
4306000000.0 0.901 -0.9369
4309000000.0 -0.1356 -1.251
4312000000.0 -1.054 -0.7278
4316000000.0 -1.235 0.3526
4319000000.0 -0.5521 1.177
4322000000.0 0.5771 1.202
4325000000.0 1.258 0.3475
4328000000.0 1.061 -0.7776
4331000000.0 0.1276 -1.341
4334000000.0 -0.9554 -0.9436
4338000000.0 -1.384 0.1394
4341000000.0 -0.7678 1.141
4344000000.0 0.3902 1.346
4347000000.0 1.298 0.5558
4350000000.0 1.292 -0.6389
4353000000.0 0.3238 -1.415
4356000000.0 -0.8661 -1.141
4359000000.0 -1.462 -0.05317
4362000000.0 -0.9668 1.11
4366000000.0 0.2301 1.462
4369000000.0 1.241 0.7438
4372000000.0 1.391 -0.4648
4375000000.0 0.4968 -1.429
4378000000.0 -0.76 -1.284
4381000000.0 -1.512 -0.2179
4384000000.0 -1.124 1.032
4388000000.0 0.08493 1.543
4391000000.0 1.23 0.9145
4394000000.0 1.506 -0.3936
4397000000.0 0.6392 -1.442
4400000000.0 -0.789 -1.394
4403000000.0 -1.545 -0.2735
4406000000.0 -1.164 1.056
4409000000.0 0.1417 1.562
4412000000.0 1.29 0.8314
4416000000.0 1.408 -0.4946
4419000000.0 0.5103 -1.429
4422000000.0 -0.8161 -1.24
4425000000.0 -1.45 -0.144
4428000000.0 -0.9689 1.057
4431000000.0 0.2366 1.428
4434000000.0 1.24 0.673
4438000000.0 1.277 -0.5538
4441000000.0 0.3037 -1.289
4444000000.0 -0.8733 -1.028
4447000000.0 -1.31 0.01446
4450000000.0 -0.7578 1.028
4453000000.0 0.3516 1.24
4456000000.0 1.151 0.5078
4459000000.0 1.091 -0.6458
4462000000.0 0.2051 -1.223
4466000000.0 -0.8449 -0.8827
4469000000.0 -1.203 0.1691
4472000000.0 -0.6459 1.021
4475000000.0 0.4041 1.072
4478000000.0 1.086 0.3621
4481000000.0 0.9413 -0.6584
4484000000.0 0.1168 -1.2
4488000000.0 -0.85 -0.7755
4491000000.0 -1.104 0.1716
4494000000.0 -0.5821 0.9977
4497000000.0 0.3982 1.076
4500000000.0 1.108 0.3512
4503000000.0 0.9015 -0.6217
4506000000.0 0.1004 -1.105
4509000000.0 -0.789 -0.7775
4512000000.0 -1.111 0.1082
4516000000.0 -0.5918 0.9677
4519000000.0 0.3627 1.063
4522000000.0 1.054 0.4257
4525000000.0 1.012 -0.5758
4528000000.0 0.1805 -1.152
4531000000.0 -0.7474 -0.8838
4534000000.0 -1.198 0.008077
4538000000.0 -0.7433 0.9145
4541000000.0 0.2778 1.172
4544000000.0 1.067 0.5801
4547000000.0 1.128 -0.4291
4550000000.0 0.3895 -1.187
4553000000.0 -0.6841 -1.037
4556000000.0 -1.216 -0.16
4559000000.0 -0.9347 0.8271
4562000000.0 0.05075 1.272
4566000000.0 0.9881 0.7931
4569000000.0 1.256 -0.2477
4572000000.0 0.6117 -1.118
4575000000.0 -0.4983 -1.22
4578000000.0 -1.29 -0.394
4581000000.0 -1.15 0.7343
4584000000.0 -0.1677 1.363
4588000000.0 0.948 0.9841
4591000000.0 1.376 -0.1309
4594000000.0 0.7986 -1.125
4597000000.0 -0.3685 -1.369
4600000000.0 -1.261 -0.5323
4603000000.0 -1.271 0.5837
4606000000.0 -0.306 1.389
4609000000.0 0.8672 1.112
4612000000.0 1.381 0.005376
4616000000.0 0.9146 -1.051
4619000000.0 -0.2656 -1.393
4622000000.0 -1.203 -0.6608
4625000000.0 -1.265 0.5195
4628000000.0 -0.3929 1.278
4631000000.0 0.7953 1.134
4634000000.0 1.336 0.08539
4638000000.0 0.9564 -0.9735
4641000000.0 -0.1668 -1.319
4644000000.0 -1.107 -0.672
4647000000.0 -1.2 0.4599
4650000000.0 -0.3773 1.203
4653000000.0 0.7303 1.075
4656000000.0 1.294 0.06438
4659000000.0 0.8574 -0.9183
4662000000.0 -0.2178 -1.243
4666000000.0 -1.069 -0.5661
4669000000.0 -1.098 0.4759
4672000000.0 -0.3275 1.118
4675000000.0 0.696 0.9211
4678000000.0 1.138 0.04978
4681000000.0 0.7619 -0.843
4684000000.0 -0.1832 -1.097
4688000000.0 -0.9453 -0.5174
4691000000.0 -1.021 0.4381
4694000000.0 -0.2763 1.029
4697000000.0 0.6183 0.8888
4700000000.0 1.082 0.01305
4703000000.0 0.7062 -0.8023
4706000000.0 -0.2017 -1.03
4709000000.0 -0.921 -0.5018
4712000000.0 -0.9742 0.4275
4716000000.0 -0.2573 1.055
4719000000.0 0.6252 0.8726
4722000000.0 1.075 0.001026
4725000000.0 0.7099 -0.7964
4728000000.0 -0.1975 -1.039
4731000000.0 -0.8793 -0.5164
4734000000.0 -0.994 0.3579
4738000000.0 -0.341 1.008
4741000000.0 0.5615 0.896
4744000000.0 1.038 0.1517
4747000000.0 0.8068 -0.7382
4750000000.0 0.005723 -1.089
4753000000.0 -0.8685 -0.6565
4756000000.0 -1.068 0.228
4759000000.0 -0.5475 0.9994
4762000000.0 0.4303 1.037
4766000000.0 1.12 0.3578
4769000000.0 0.9857 -0.6102
4772000000.0 0.1433 -1.16
4775000000.0 -0.8123 -0.8704
4778000000.0 -1.179 0.06383
4781000000.0 -0.7359 0.9605
4784000000.0 0.2495 1.202
4788000000.0 1.109 0.5895
4791000000.0 1.185 -0.4598
4794000000.0 0.3942 -1.189
4797000000.0 -0.6759 -1.092
4800000000.0 -1.258 -0.2014
4803000000.0 -0.9649 0.8653
4806000000.0 0.02645 1.266
4809000000.0 1.005 0.8383
4812000000.0 1.305 -0.2595
4816000000.0 0.634 -1.18
4819000000.0 -0.52 -1.234
4822000000.0 -1.281 -0.4173
4825000000.0 -1.138 0.7482
4828000000.0 -0.1688 1.374
4831000000.0 0.9929 1.013
4834000000.0 1.361 -0.1158
4838000000.0 0.7886 -1.154
4841000000.0 -0.3599 -1.331
4844000000.0 -1.284 -0.5258
4847000000.0 -1.226 0.666
4850000000.0 -0.2777 1.337
4853000000.0 0.8579 1.035
4856000000.0 1.34 -0.01827
4859000000.0 0.8229 -1.034
4862000000.0 -0.2789 -1.307
4866000000.0 -1.159 -0.6052
4869000000.0 -1.179 0.5297
4872000000.0 -0.3485 1.216
4875000000.0 0.7387 1.007
4878000000.0 1.237 0.06071
4881000000.0 0.8351 -0.9282
4884000000.0 -0.198 -1.19
4888000000.0 -1.023 -0.6142
4891000000.0 -1.104 0.4231
4894000000.0 -0.3244 1.092
4897000000.0 0.5959 0.9287
4900000000.0 1.111 0.1006
4903000000.0 0.7392 -0.7763
4906000000.0 -0.1355 -1.039
4909000000.0 -0.9003 -0.5776
4912000000.0 -0.9655 0.3322
4916000000.0 -0.3489 0.927
4919000000.0 0.5007 0.8453
4922000000.0 0.9583 0.1506
4925000000.0 0.6991 -0.649
4928000000.0 -0.03511 -0.9271
4931000000.0 -0.7261 -0.5874
4934000000.0 -0.8862 0.2027
4938000000.0 -0.4179 0.8468
4941000000.0 0.4333 0.8458
4944000000.0 0.923 0.2311
4947000000.0 0.781 -0.5665
4950000000.0 0.05402 -0.9563
4953000000.0 -0.7221 -0.643
4956000000.0 -0.9543 0.1538
4959000000.0 -0.523 0.8254
4962000000.0 0.3193 0.9091
4966000000.0 0.9237 0.3504
4969000000.0 0.8563 -0.5471
4972000000.0 0.1306 -0.9937
4975000000.0 -0.6988 -0.7486
4978000000.0 -1.048 0.08423
4981000000.0 -0.6335 0.8684
4984000000.0 0.2781 1.026
4988000000.0 0.9692 0.4811
4991000000.0 0.9852 -0.4582
4994000000.0 0.2858 -1.075
4997000000.0 -0.6128 -0.9122
5000000000.0 -1.15 -0.09703
5003000000.0 -0.8284 0.84
5006000000.0 0.1206 1.174
5009000000.0 1.007 0.6416
5012000000.0 1.171 -0.3574
5016000000.0 0.4863 -1.147
5019000000.0 -0.5973 -1.142
5022000000.0 -1.278 -0.224
5025000000.0 -0.9712 0.8189
5028000000.0 0.01796 1.277
5031000000.0 0.9672 0.8299
5034000000.0 1.249 -0.2401
5038000000.0 0.605 -1.127
5041000000.0 -0.4552 -1.224
5044000000.0 -1.198 -0.4199
5047000000.0 -1.122 0.6817
5050000000.0 -0.2013 1.265
5053000000.0 0.8313 0.9218
5056000000.0 1.285 -0.003628
5059000000.0 0.7897 -1.027
5062000000.0 -0.2537 -1.242
5066000000.0 -1.091 -0.5993
5069000000.0 -1.156 0.5247
5072000000.0 -0.3647 1.215
5075000000.0 0.6795 1.026
5078000000.0 1.216 0.1532
5081000000.0 0.8741 -0.8653
5084000000.0 -0.05899 -1.2
5088000000.0 -0.9851 -0.6889
5091000000.0 -1.152 0.2984
5094000000.0 -0.4729 1.032
5097000000.0 0.4619 1.035
5100000000.0 1.073 0.2836
5103000000.0 0.8799 -0.6175
5106000000.0 0.1019 -1.098
5109000000.0 -0.7196 -0.7706
5112000000.0 -1.051 0.1446
5116000000.0 -0.5798 0.8663
5119000000.0 0.3043 0.9697
5122000000.0 0.9292 0.4418
5125000000.0 0.9053 -0.4606
5128000000.0 0.2086 -0.965
5131000000.0 -0.5754 -0.7875
5134000000.0 -0.9443 -0.03263
5138000000.0 -0.5981 0.7314
5141000000.0 0.1761 0.9342
5144000000.0 0.8452 0.4538
5147000000.0 0.8123 -0.329
5150000000.0 0.2894 -0.8767
5153000000.0 -0.5352 -0.7494
5156000000.0 -0.8904 -0.1087
5159000000.0 -0.6145 0.6189
5162000000.0 0.1089 0.8914
5166000000.0 0.7306 0.5073
5169000000.0 0.8297 -0.2661
5172000000.0 0.3218 -0.8112
5175000000.0 -0.4568 -0.7821
5178000000.0 -0.8947 -0.1321
5181000000.0 -0.6507 0.6448
5184000000.0 0.06664 0.9151
5188000000.0 0.7564 0.5017
5191000000.0 0.8752 -0.2639
5194000000.0 0.3272 -0.8793
5197000000.0 -0.469 -0.823
5200000000.0 -0.9576 -0.1703
5203000000.0 -0.7005 0.6198
5206000000.0 0.0616 0.9723
5209000000.0 0.7918 0.5514
5212000000.0 0.9503 -0.2662
5216000000.0 0.3871 -0.8848
5219000000.0 -0.4475 -0.8841
5222000000.0 -1.002 -0.2009
5225000000.0 -0.7972 0.6434
5228000000.0 -0.01671 1.036
5231000000.0 0.7817 0.6552
5234000000.0 1.013 -0.1852
5238000000.0 0.5083 -0.9122
5241000000.0 -0.4126 -0.9695
5244000000.0 -1.006 -0.3196
5247000000.0 -0.914 0.5598
5250000000.0 -0.1461 1.071
5253000000.0 0.7137 0.8026
5256000000.0 1.06 -0.06315
5259000000.0 0.664 -0.8648
5262000000.0 -0.2468 -1.08
5266000000.0 -0.994 -0.5188
5269000000.0 -0.9901 0.4282
5272000000.0 -0.3258 1.038
5275000000.0 0.5688 0.9077
5278000000.0 1.094 0.1143
5281000000.0 0.8194 -0.7424
5284000000.0 -0.02465 -1.069
5288000000.0 -0.8709 -0.6851
5291000000.0 -1.082 0.1914
5294000000.0 -0.5494 0.9704
5297000000.0 0.3899 1.052
5300000000.0 1.062 0.3737
5303000000.0 0.9581 -0.548
5306000000.0 0.2009 -1.099
5309000000.0 -0.7279 -0.8392
5312000000.0 -1.088 -0.03427
5316000000.0 -0.7447 0.8618
5319000000.0 0.2249 1.112
5322000000.0 0.9919 0.5624
5325000000.0 1.07 -0.4264
5328000000.0 0.348 -1.079
5331000000.0 -0.5755 -0.9532
5334000000.0 -1.111 -0.1476
5338000000.0 -0.8152 0.7564
5341000000.0 0.102 1.093
5344000000.0 0.9091 0.6398
5347000000.0 1.034 -0.2865
5350000000.0 0.4265 -0.9849
5353000000.0 -0.4978 -0.9592
5356000000.0 -1.013 -0.1973
5359000000.0 -0.7722 0.6452
5362000000.0 0.004613 1.057
5366000000.0 0.7894 0.6085
5369000000.0 0.9526 -0.2522
5372000000.0 0.4154 -0.8934
5375000000.0 -0.4866 -0.8434
5378000000.0 -0.9474 -0.1778
5381000000.0 -0.7212 0.6594
5384000000.0 0.04636 0.9392
5388000000.0 0.7804 0.512
5391000000.0 0.8663 -0.2698
5394000000.0 0.3188 -0.8402
5397000000.0 -0.4599 -0.7599
5400000000.0 -0.8805 -0.09719
5403000000.0 -0.6167 0.6125
5406000000.0 0.08543 0.8268
5409000000.0 0.7416 0.4427
5412000000.0 0.7952 -0.2928
5416000000.0 0.2627 -0.8034
5419000000.0 -0.4556 -0.7382
5422000000.0 -0.8439 -0.1313
5425000000.0 -0.6114 0.5923
5428000000.0 0.09751 0.875
5431000000.0 0.7297 0.4505
5434000000.0 0.8132 -0.2625
5438000000.0 0.3311 -0.8584
5441000000.0 -0.4608 -0.7571
5444000000.0 -0.8931 -0.09252
5447000000.0 -0.6407 0.6005
5450000000.0 0.04777 0.9248
5453000000.0 0.7641 0.5324
5456000000.0 0.8813 -0.2384
5459000000.0 0.3783 -0.8353
5462000000.0 -0.4507 -0.8521
5466000000.0 -0.9104 -0.2171
5469000000.0 -0.7596 0.572
5472000000.0 -0.04782 0.9708
5475000000.0 0.7222 0.6694
5478000000.0 0.9731 -0.1388
5481000000.0 0.5577 -0.8314
5484000000.0 -0.2782 -0.9739
5488000000.0 -0.9713 -0.3969
5491000000.0 -0.9401 0.4611
5494000000.0 -0.2032 1.006
5497000000.0 0.6753 0.8213
5500000000.0 1.047 0.08153
5503000000.0 0.7137 -0.7804
5506000000.0 -0.1457 -1.055
5509000000.0 -0.9248 -0.5422
5512000000.0 -1.016 0.3339
5516000000.0 -0.3871 0.9945
5519000000.0 0.5002 0.9325
5522000000.0 1.009 0.2226
5525000000.0 0.8405 -0.6931
5528000000.0 0.05109 -1.082
5531000000.0 -0.7847 -0.7565
5534000000.0 -1.086 0.1426
5538000000.0 -0.5558 0.9001
5541000000.0 0.322 1.01
5544000000.0 0.9628 0.3664
5547000000.0 0.9192 -0.5392
5550000000.0 0.1718 -1.067
5553000000.0 -0.7032 -0.7928
5556000000.0 -1.017 0.03369
5559000000.0 -0.6167 0.8063
5562000000.0 0.2072 0.9643
5566000000.0 0.8874 0.4359
5569000000.0 0.8862 -0.4207
5572000000.0 0.2197 -0.9255
5575000000.0 -0.5751 -0.7668
5578000000.0 -0.9453 -0.04092
5581000000.0 -0.6088 0.6603
5584000000.0 0.1387 0.8866
5588000000.0 0.7646 0.439
5591000000.0 0.8221 -0.2961
5594000000.0 0.2887 -0.8536
5597000000.0 -0.4617 -0.7042
5600000000.0 -0.8613 -0.0985
5603000000.0 -0.6276 0.6163
5606000000.0 0.1061 0.8337
5609000000.0 0.7174 0.4442
5612000000.0 0.7949 -0.2596
5616000000.0 0.2501 -0.7967
5619000000.0 -0.4227 -0.6992
5622000000.0 -0.7878 -0.05419
5625000000.0 -0.5983 0.5723
5628000000.0 0.09758 0.7784
5631000000.0 0.6745 0.4644
5634000000.0 0.7637 -0.2645
5638000000.0 0.2816 -0.7653
5641000000.0 -0.4503 -0.7288
5644000000.0 -0.841 -0.1011
5647000000.0 -0.6123 0.5727
5650000000.0 0.08304 0.8167
5653000000.0 0.7152 0.4615
5656000000.0 0.8268 -0.2727
5659000000.0 0.3115 -0.8548
5662000000.0 -0.4423 -0.7508
5666000000.0 -0.9378 -0.1558
5669000000.0 -0.6552 0.6148
5672000000.0 0.06041 0.942
5675000000.0 0.8097 0.5475
5678000000.0 0.8973 -0.2721
5681000000.0 0.3582 -0.9219
5684000000.0 -0.4745 -0.8702
5688000000.0 -0.9835 -0.1938
5691000000.0 -0.7835 0.6757
5694000000.0 -0.005493 1.042
5697000000.0 0.7953 0.632
5700000000.0 1.046 -0.2324
5703000000.0 0.4827 -0.9569
5706000000.0 -0.4097 -1.002
5709000000.0 -1.03 -0.2592
5712000000.0 -0.9046 0.6553
5716000000.0 -0.08017 1.083
5719000000.0 0.7752 0.7852
5722000000.0 1.09 -0.1243
5725000000.0 0.5821 -0.9469
5728000000.0 -0.3186 -1.08
5731000000.0 -1.025 -0.4067
5734000000.0 -0.9903 0.5316
5738000000.0 -0.2476 1.094
5741000000.0 0.7159 0.8698
5744000000.0 1.129 0.01257
5747000000.0 0.6997 -0.8852
5750000000.0 -0.204 -1.094
5753000000.0 -1.023 -0.5692
5756000000.0 -1.027 0.4022
5759000000.0 -0.3303 1.055
5762000000.0 0.5638 0.9191
5766000000.0 1.064 0.1446
5769000000.0 0.7799 -0.7296
5772000000.0 -0.07156 -1.088
5775000000.0 -0.8892 -0.6237
5778000000.0 -1.03 0.2713
5781000000.0 -0.4568 0.9622
5784000000.0 0.4934 0.9401
5788000000.0 1.037 0.2305
5791000000.0 0.8162 -0.6553
5794000000.0 0.02307 -1.072
5797000000.0 -0.7944 -0.6675
5800000000.0 -1.012 0.2149
5803000000.0 -0.5008 0.9148
5806000000.0 0.3917 0.9147
5809000000.0 0.9658 0.2923
5812000000.0 0.7719 -0.5649
5816000000.0 0.04887 -0.96
5819000000.0 -0.7048 -0.6397
5822000000.0 -0.9567 0.1743
5825000000.0 -0.3916 0.8332
5828000000.0 0.3982 0.8708
5831000000.0 0.8774 0.2511
5834000000.0 0.7222 -0.5725
5838000000.0 0.0444 -0.8642
5841000000.0 -0.7001 -0.5938
5844000000.0 -0.858 0.1897
5847000000.0 -0.398 0.7958
5850000000.0 0.4139 0.8382
5853000000.0 0.8447 0.1736
5856000000.0 0.6912 -0.5526
5859000000.0 0.0226 -0.8757
5862000000.0 -0.7167 -0.5504
5866000000.0 -0.8724 0.1805
5869000000.0 -0.3901 0.7923
5872000000.0 0.3943 0.8083
5875000000.0 0.8669 0.1754
5878000000.0 0.6811 -0.5877
5881000000.0 -0.01771 -0.9001
5884000000.0 -0.6776 -0.5474
5888000000.0 -0.8486 0.1885
5891000000.0 -0.3972 0.7997
5894000000.0 0.3801 0.8284
5897000000.0 0.884 0.2388
5900000000.0 0.701 -0.5374
5903000000.0 0.06099 -0.8954
5906000000.0 -0.6733 -0.6106
5909000000.0 -0.9258 0.1361
5912000000.0 -0.4711 0.7557
5916000000.0 0.2973 0.8896
5919000000.0 0.9071 0.3255
5922000000.0 0.8155 -0.5148
5925000000.0 0.132 -0.9347
5928000000.0 -0.6678 -0.6947
5931000000.0 -0.9659 0.06777
5934000000.0 -0.5732 0.7768
5938000000.0 0.243 0.9321
5941000000.0 0.8876 0.4189
5944000000.0 0.9251 -0.429
5947000000.0 0.192 -0.973
5950000000.0 -0.6302 -0.7935
5953000000.0 -1.008 -0.04393
5956000000.0 -0.6692 0.7549
5959000000.0 0.1882 0.9829
5962000000.0 0.8857 0.4902
5966000000.0 0.9178 -0.4087
5969000000.0 0.3069 -0.9716
5972000000.0 -0.5768 -0.8522
5975000000.0 -1.019 -0.05067
5978000000.0 -0.6946 0.7199
5981000000.0 0.154 1.022
5984000000.0 0.8895 0.4837
5988000000.0 0.9367 -0.4026
5991000000.0 0.2817 -0.9268
5994000000.0 -0.5888 -0.8184
5997000000.0 -0.9891 -0.02152
6000000000.0 -0.6296 0.7595
6003000000.0 0.1911 0.9583
6006000000.0 0.8281 0.4308
6009000000.0 0.8603 -0.3963
6012000000.0 0.2322 -0.8909
6016000000.0 -0.5799 -0.7006
6019000000.0 -0.8917 0.004356
6022000000.0 -0.5336 0.7115
6025000000.0 0.2261 0.8385
6028000000.0 0.8023 0.3577
6031000000.0 0.761 -0.4154
6034000000.0 0.1373 -0.8397
6038000000.0 -0.5652 -0.6376
6041000000.0 -0.8308 0.04988
6044000000.0 -0.4415 0.7019
6047000000.0 0.2328 0.7882
6050000000.0 0.7916 0.2991
6053000000.0 0.6908 -0.4274
6056000000.0 0.07519 -0.818
6059000000.0 -0.5888 -0.5807
6062000000.0 -0.8573 0.1175
6066000000.0 -0.3982 0.7484
6069000000.0 0.3041 0.7751
6072000000.0 0.8418 0.2617
6075000000.0 0.7114 -0.5046
6078000000.0 0.04875 -0.87
6081000000.0 -0.6412 -0.5782
6084000000.0 -0.8593 0.1285
6088000000.0 -0.4268 0.7962
6091000000.0 0.3458 0.804
6094000000.0 0.8774 0.2477
6097000000.0 0.7392 -0.5493
6100000000.0 0.03555 -0.9274
6103000000.0 -0.708 -0.6408
6106000000.0 -0.9821 0.1684
6109000000.0 -0.4523 0.8758
6112000000.0 0.4292 0.8972
6116000000.0 0.9821 0.2158
6119000000.0 0.7981 -0.6565
6122000000.0 -0.02596 -1.023
6125000000.0 -0.8501 -0.6186
6128000000.0 -0.9955 0.2672
6131000000.0 -0.3995 0.995
6134000000.0 0.5147 0.9171
6138000000.0 1.002 0.1336
6141000000.0 0.7315 -0.6996
6144000000.0 -0.08073 -1.047
6147000000.0 -0.8595 -0.553
6150000000.0 -0.9572 0.3139
6153000000.0 -0.32 0.9619
6156000000.0 0.5515 0.8485
6159000000.0 0.9909 0.08696
6162000000.0 0.658 -0.7616
6166000000.0 -0.1963 -0.9629
6169000000.0 -0.8648 -0.4556
6172000000.0 -0.8645 0.4204
6175000000.0 -0.208 0.9441
6178000000.0 0.5981 0.7333
6181000000.0 0.9511 0.02258
6184000000.0 0.5471 -0.7131
6188000000.0 -0.2407 -0.8861
6191000000.0 -0.8373 -0.343
6194000000.0 -0.7943 0.4606
6197000000.0 -0.1393 0.8756
6200000000.0 0.5992 0.6071
6203000000.0 0.8347 -0.07594
6206000000.0 0.4343 -0.6859
6209000000.0 -0.2603 -0.7745
6212000000.0 -0.7977 -0.251
6216000000.0 -0.6808 0.4772
6219000000.0 -0.04003 0.8093
6222000000.0 0.6447 0.499
6225000000.0 0.7829 -0.1918
6228000000.0 0.3141 -0.7498
6231000000.0 -0.3871 -0.7118
6234000000.0 -0.789 -0.1913
6238000000.0 -0.5867 0.5361
6241000000.0 0.09546 0.81
6244000000.0 0.7017 0.4166
6247000000.0 0.7725 -0.2726
6250000000.0 0.21 -0.803
6253000000.0 -0.4715 -0.6829
6256000000.0 -0.8114 -0.007161
6259000000.0 -0.4882 0.6383
6262000000.0 0.1865 0.8116
6266000000.0 0.7485 0.3164
