! Created with skrf 1.8.0 (http://scikit-rf.org).
# Hz S RI R 50.0 
!freq ReS11 ImS11
4000000000.0 -0.1715 -1.533
4003000000.0 -1.223 -0.8071
4006000000.0 -1.434 0.5344
4009000000.0 -0.5096 1.383
4012000000.0 0.7851 1.263
4016000000.0 1.566 0.2091
4019000000.0 1.172 -1.066
4022000000.0 -0.1762 -1.523
4025000000.0 -1.304 -0.8927
4028000000.0 -1.535 0.4735
4031000000.0 -0.6146 1.476
4034000000.0 0.8379 1.41
4038000000.0 1.627 0.2108
4041000000.0 1.203 -1.121
4044000000.0 -0.1241 -1.6
4047000000.0 -1.403 -0.897
4050000000.0 -1.585 0.4792
4053000000.0 -0.6341 1.519
4056000000.0 0.7143 1.401
4059000000.0 1.617 0.2916
4062000000.0 1.259 -1.034
4066000000.0 0.004454 -1.642
4069000000.0 -1.243 -1.053
4072000000.0 -1.574 0.2974
4075000000.0 -0.7981 1.425
4078000000.0 0.5999 1.558
4081000000.0 1.562 0.5324
4084000000.0 1.428 -0.8458
4088000000.0 0.2299 -1.658
4091000000.0 -1.108 -1.224
4094000000.0 -1.631 0.08493
4097000000.0 -0.9725 1.325
4100000000.0 0.4069 1.56
4103000000.0 1.42 0.7159
4106000000.0 1.45 -0.6409
4109000000.0 0.3991 -1.513
4112000000.0 -0.8374 -1.271
4116000000.0 -1.514 -0.2005
4119000000.0 -1.111 1.011
4122000000.0 0.0493 1.512
4125000000.0 1.144 0.9557
4128000000.0 1.444 -0.2342
4131000000.0 0.75 -1.281
4134000000.0 -0.4425 -1.409
4138000000.0 -1.382 -0.5867
4141000000.0 -1.347 0.6869
4144000000.0 -0.3863 1.47
4147000000.0 0.8664 1.223
4150000000.0 1.544 0.1241
4153000000.0 1.084 -1.083
4156000000.0 -0.1386 -1.51
4159000000.0 -1.211 -0.8631
4162000000.0 -1.474 0.3597
4166000000.0 -0.632 1.365
4169000000.0 0.629 1.371
4172000000.0 1.426 0.3967
4175000000.0 1.23 -0.8467
4178000000.0 0.1613 -1.502
4181000000.0 -1.045 -1.043
4184000000.0 -1.501 0.1482
4188000000.0 -0.8666 1.223
4191000000.0 0.3811 1.452
4194000000.0 1.414 0.634
4197000000.0 1.41 -0.6839
4200000000.0 0.3834 -1.565
4203000000.0 -0.9536 -1.24
4206000000.0 -1.625 -0.02095
4209000000.0 -1.051 1.299
4212000000.0 0.3614 1.59
4216000000.0 1.519 0.7464
4219000000.0 1.49 -0.78
4222000000.0 0.2735 -1.662
4225000000.0 -1.113 -1.242
4228000000.0 -1.689 0.1556
4231000000.0 -0.9065 1.403
4234000000.0 0.5703 1.561
4238000000.0 1.585 0.4909
4241000000.0 1.344 -0.9546
4244000000.0 0.04824 -1.604
4247000000.0 -1.232 -1.019
4250000000.0 -1.516 0.3527
4253000000.0 -0.6748 1.426
4256000000.0 0.7079 1.409
4259000000.0 1.514 0.2736
4262000000.0 1.144 -1.001
4266000000.0 -0.1035 -1.508
4269000000.0 -1.269 -0.8523
4272000000.0 -1.417 0.4791
4275000000.0 -0.528 1.375
4278000000.0 0.744 1.241
4281000000.0 1.421 0.1527
4284000000.0 1.008 -1.013
4288000000.0 -0.174 -1.383
4291000000.0 -1.183 -0.7369
4294000000.0 -1.28 0.4606
4297000000.0 -0.4849 1.232
4300000000.0 0.6647 1.131
4303000000.0 1.286 0.1972
4306000000.0 0.9574 -0.8335
4309000000.0 0.001085 -1.275
4312000000.0 -1.001 -0.8296
4316000000.0 -1.234 0.1885
4319000000.0 -0.6427 1.128
4322000000.0 0.4483 1.212
4325000000.0 1.243 0.4433
4328000000.0 1.177 -0.654
4331000000.0 0.2535 -1.342
4334000000.0 -0.8782 -1.056
4338000000.0 -1.383 -0.01971
4341000000.0 -0.9286 1.068
4344000000.0 0.263 1.408
4347000000.0 1.239 0.6992
4350000000.0 1.33 -0.493
4353000000.0 0.4744 -1.338
4356000000.0 -0.7504 -1.236
4359000000.0 -1.435 -0.2117
4362000000.0 -1.088 0.9885
4366000000.0 0.03296 1.454
4369000000.0 1.202 0.9168
4372000000.0 1.466 -0.3238
4375000000.0 0.661 -1.361
4378000000.0 -0.6148 -1.39
4381000000.0 -1.453 -0.4518
4384000000.0 -1.284 0.8624
4388000000.0 -0.1426 1.549
4391000000.0 1.124 1.095
4394000000.0 1.565 -0.211
4397000000.0 0.8534 -1.339
4400000000.0 -0.5456 -1.53
4403000000.0 -1.533 -0.5096
4406000000.0 -1.311 0.8759
4409000000.0 -0.1276 1.569
4412000000.0 1.144 1.08
4416000000.0 1.51 -0.2404
4419000000.0 0.7752 -1.357
4422000000.0 -0.5711 -1.403
4425000000.0 -1.441 -0.384
4428000000.0 -1.191 0.8531
4431000000.0 -0.06479 1.437
4434000000.0 1.085 0.9234
4438000000.0 1.376 -0.3071
4441000000.0 0.5935 -1.242
4444000000.0 -0.5938 -1.219
4447000000.0 -1.325 -0.256
4450000000.0 -0.9954 0.896
4453000000.0 0.06472 1.298
4456000000.0 1.08 0.763
4459000000.0 1.227 -0.3898
4462000000.0 0.4174 -1.158
4466000000.0 -0.6846 -1.046
4469000000.0 -1.208 -0.1211
4472000000.0 -0.8171 0.9123
4475000000.0 0.1901 1.182
4478000000.0 1.04 0.5634
4481000000.0 1.059 -0.4281
4484000000.0 0.3159 -1.086
4488000000.0 -0.6803 -0.9158
4491000000.0 -1.15 -0.01595
4494000000.0 -0.6906 0.8916
4497000000.0 0.2008 1.12
4500000000.0 1.009 0.5114
4503000000.0 0.9831 -0.4228
4506000000.0 0.2841 -1.055
4509000000.0 -0.6193 -0.8537
4512000000.0 -1.089 -0.08034
4516000000.0 -0.7566 0.8166
4519000000.0 0.1697 1.122
4522000000.0 0.9603 0.5944
4525000000.0 1.061 -0.3558
4528000000.0 0.37 -1.089
4531000000.0 -0.6013 -1.013
4534000000.0 -1.176 -0.1694
4538000000.0 -0.8689 0.7881
4541000000.0 0.07821 1.187
4544000000.0 0.963 0.705
4547000000.0 1.168 -0.2901
4550000000.0 0.5491 -1.084
4553000000.0 -0.4826 -1.14
4556000000.0 -1.195 -0.3483
4559000000.0 -1.054 0.678
4562000000.0 -0.1381 1.247
4566000000.0 0.8862 0.9148
4569000000.0 1.274 -0.08902
4572000000.0 0.7228 -1.035
4575000000.0 -0.2978 -1.251
4578000000.0 -1.177 -0.5634
4581000000.0 -1.196 0.5347
4584000000.0 -0.347 1.272
4588000000.0 0.7378 1.114
4591000000.0 1.363 0.1239
4594000000.0 0.9753 -0.9726
4597000000.0 -0.1513 -1.379
4600000000.0 -1.161 -0.7702
4603000000.0 -1.335 0.4162
4606000000.0 -0.5369 1.312
4609000000.0 0.6554 1.228
4612000000.0 1.358 0.2844
4616000000.0 1.06 -0.9253
4619000000.0 -0.01234 -1.396
4622000000.0 -1.088 -0.8713
4625000000.0 -1.345 0.3003
4628000000.0 -0.6094 1.242
4631000000.0 0.5469 1.238
4634000000.0 1.325 0.319
4638000000.0 1.102 -0.8046
4641000000.0 0.07261 -1.36
4644000000.0 -1.034 -0.8998
4647000000.0 -1.322 0.2439
4650000000.0 -0.6046 1.172
4653000000.0 0.5139 1.217
4656000000.0 1.242 0.3484
4659000000.0 1.028 -0.7567
4662000000.0 0.05624 -1.256
4666000000.0 -0.9601 -0.7679
4669000000.0 -1.193 0.2768
4672000000.0 -0.5606 1.085
4675000000.0 0.4762 1.07
4678000000.0 1.129 0.2545
4681000000.0 0.9285 -0.6711
4684000000.0 0.03112 -1.126
4688000000.0 -0.8522 -0.6884
4691000000.0 -1.077 0.2166
4694000000.0 -0.4914 0.9632
4697000000.0 0.4687 0.9968
4700000000.0 1.049 0.2803
4703000000.0 0.8647 -0.6813
4706000000.0 -0.02981 -1.093
4709000000.0 -0.8303 -0.6665
4712000000.0 -1.02 0.2675
4716000000.0 -0.4387 0.9403
4719000000.0 0.4776 0.9707
4722000000.0 1.05 0.2127
4725000000.0 0.8352 -0.6521
4728000000.0 0.03996 -1.05
4731000000.0 -0.7994 -0.6511
4734000000.0 -1.017 0.1959
4738000000.0 -0.459 0.9161
4741000000.0 0.3963 0.9856
4744000000.0 0.9977 0.3221
4747000000.0 0.8923 -0.6007
4750000000.0 0.1281 -1.056
4753000000.0 -0.7447 -0.7659
4756000000.0 -1.099 0.07015
4759000000.0 -0.6583 0.8987
4762000000.0 0.2732 1.099
4766000000.0 1.011 0.4763
4769000000.0 1.072 -0.4893
4772000000.0 0.2929 -1.1
4775000000.0 -0.6628 -0.9392
4778000000.0 -1.157 -0.1055
4781000000.0 -0.8654 0.8388
4784000000.0 0.09294 1.189
4788000000.0 0.9836 0.6845
4791000000.0 1.162 -0.2881
4794000000.0 0.5498 -1.098
4797000000.0 -0.4894 -1.109
4800000000.0 -1.209 -0.3461
4803000000.0 -1.033 0.6709
4806000000.0 -0.1354 1.247
4809000000.0 0.8817 0.9364
4812000000.0 1.268 -0.07265
4816000000.0 0.7682 -1.043
4819000000.0 -0.2921 -1.282
4822000000.0 -1.218 -0.5952
4825000000.0 -1.23 0.5555
4828000000.0 -0.3396 1.351
4831000000.0 0.7942 1.126
4834000000.0 1.379 0.09507
4838000000.0 0.9519 -1.008
4841000000.0 -0.2066 -1.402
4844000000.0 -1.181 -0.7424
4847000000.0 -1.307 0.4503
4850000000.0 -0.499 1.304
4853000000.0 0.6982 1.2
4856000000.0 1.354 0.2213
4859000000.0 1.01 -0.8988
4862000000.0 -0.06862 -1.34
4866000000.0 -1.051 -0.8062
4869000000.0 -1.321 0.3372
4872000000.0 -0.5485 1.222
4875000000.0 0.5616 1.172
4878000000.0 1.27 0.2856
4881000000.0 1.012 -0.7791
4884000000.0 0.003295 -1.232
4888000000.0 -0.9399 -0.7491
4891000000.0 -1.188 0.2357
4894000000.0 -0.5429 1.042
4897000000.0 0.4461 1.047
4900000000.0 1.114 0.2903
4903000000.0 0.8899 -0.6511
4906000000.0 0.03884 -1.087
4909000000.0 -0.8042 -0.7095
4912000000.0 -1.039 0.174
4916000000.0 -0.5536 0.8806
4919000000.0 0.3545 0.9547
4922000000.0 0.9215 0.2866
4925000000.0 0.8163 -0.5014
4928000000.0 0.1209 -0.946
4931000000.0 -0.6715 -0.7059
4934000000.0 -0.9331 0.06738
4938000000.0 -0.5509 0.7766
4941000000.0 0.2832 0.9158
4944000000.0 0.8608 0.4114
4947000000.0 0.8703 -0.4247
4950000000.0 0.1904 -0.9346
4953000000.0 -0.5828 -0.7605
4956000000.0 -0.9717 -0.008407
4959000000.0 -0.6339 0.7427
4962000000.0 0.1843 0.9701
4966000000.0 0.8618 0.4769
4969000000.0 0.9217 -0.3772
4972000000.0 0.3017 -0.9617
4975000000.0 -0.5524 -0.8384
4978000000.0 -1.006 -0.1115
4981000000.0 -0.7125 0.7311
4984000000.0 0.1112 1.035
4988000000.0 0.8536 0.5995
4991000000.0 1.025 -0.2699
4994000000.0 0.4632 -0.9872
4997000000.0 -0.5037 -0.9769
5000000000.0 -1.081 -0.2819
5003000000.0 -0.9091 0.6797
5006000000.0 -0.07052 1.168
5009000000.0 0.9114 0.8053
5012000000.0 1.189 -0.1696
5016000000.0 0.6442 -1.047
5019000000.0 -0.4204 -1.169
5022000000.0 -1.174 -0.4469
5025000000.0 -1.08 0.6466
5028000000.0 -0.1973 1.247
5031000000.0 0.8411 0.9682
5034000000.0 1.286 -0.07154
5038000000.0 0.8027 -0.9793
5041000000.0 -0.2566 -1.272
5044000000.0 -1.168 -0.6069
5047000000.0 -1.212 0.5141
5050000000.0 -0.3819 1.215
5053000000.0 0.7162 1.089
5056000000.0 1.298 0.1987
5059000000.0 0.9663 -0.8576
5062000000.0 -0.08162 -1.295
5066000000.0 -1.026 -0.7584
5069000000.0 -1.293 0.3103
5072000000.0 -0.5771 1.117
5075000000.0 0.5159 1.151
5078000000.0 1.234 0.3419
5081000000.0 1.045 -0.688
5084000000.0 0.1393 -1.228
5088000000.0 -0.896 -0.8708
5091000000.0 -1.209 0.1243
5094000000.0 -0.6874 0.9881
5097000000.0 0.295 1.127
5100000000.0 1.037 0.4958
5103000000.0 1.034 -0.4974
5106000000.0 0.2821 -1.057
5109000000.0 -0.6423 -0.8675
5112000000.0 -1.08 -0.09959
5116000000.0 -0.7505 0.7618
5119000000.0 0.1023 1.044
5122000000.0 0.843 0.5836
5125000000.0 0.9961 -0.2935
5128000000.0 0.4272 -0.921
5131000000.0 -0.474 -0.8816
5134000000.0 -0.9991 -0.2262
5138000000.0 -0.7749 0.6167
5141000000.0 -0.01181 0.9819
5144000000.0 0.7225 0.611
5147000000.0 0.9205 -0.1735
5150000000.0 0.4279 -0.8109
5153000000.0 -0.3468 -0.8689
5156000000.0 -0.8841 -0.2863
5159000000.0 -0.803 0.4644
5162000000.0 -0.0873 0.8934
5166000000.0 0.6494 0.6394
5169000000.0 0.8719 -0.07103
5172000000.0 0.5064 -0.7371
5175000000.0 -0.27 -0.8663
5178000000.0 -0.8428 -0.3465
5181000000.0 -0.7982 0.4513
5184000000.0 -0.1478 0.9166
5188000000.0 0.63 0.6787
5191000000.0 0.923 -0.04564
5194000000.0 0.5693 -0.7752
5197000000.0 -0.2486 -0.8842
5200000000.0 -0.8634 -0.3668
5203000000.0 -0.8551 0.4642
5206000000.0 -0.1571 0.9424
5209000000.0 0.6379 0.732
5212000000.0 1.001 -0.04939
5216000000.0 0.5905 -0.765
5219000000.0 -0.241 -0.94
5222000000.0 -0.9069 -0.4163
5225000000.0 -0.9389 0.4035
5228000000.0 -0.206 0.9485
5231000000.0 0.6259 0.8394
5234000000.0 1.022 0.04288
5238000000.0 0.6643 -0.7803
5241000000.0 -0.1744 -1.045
5244000000.0 -0.9068 -0.5444
5247000000.0 -1.015 0.36
5250000000.0 -0.3662 0.9934
5253000000.0 0.5529 0.9464
5256000000.0 1.067 0.1561
5259000000.0 0.8073 -0.7094
5262000000.0 -0.02966 -1.069
5266000000.0 -0.8336 -0.6783
5269000000.0 -1.066 0.1874
5272000000.0 -0.5248 0.9435
5275000000.0 0.3643 1.03
5278000000.0 1.034 0.3636
5281000000.0 0.9523 -0.5393
5284000000.0 0.2333 -1.096
5288000000.0 -0.679 -0.8373
5291000000.0 -1.1 -0.01744
5294000000.0 -0.7318 0.8502
5297000000.0 0.1697 1.109
5300000000.0 0.9353 0.6122
5303000000.0 1.091 -0.3296
5306000000.0 0.4383 -1.066
5309000000.0 -0.5371 -1.026
5312000000.0 -1.115 -0.2588
5316000000.0 -0.9024 0.6981
5319000000.0 -0.06195 1.172
5322000000.0 0.8089 0.7715
5325000000.0 1.168 -0.1727
5328000000.0 0.6154 -0.9554
5331000000.0 -0.3145 -1.092
5334000000.0 -1.062 -0.4203
5338000000.0 -0.9984 0.5462
5341000000.0 -0.2099 1.121
5344000000.0 0.6796 0.8618
5347000000.0 1.118 -0.04205
5350000000.0 0.7211 -0.8499
5353000000.0 -0.2104 -1.07
5356000000.0 -0.9619 -0.5373
5359000000.0 -1.006 0.4152
5362000000.0 -0.3311 1.053
5366000000.0 0.5997 0.8834
5369000000.0 1.077 0.07228
5372000000.0 0.6997 -0.767
5375000000.0 -0.1433 -1.06
5378000000.0 -0.9006 -0.4909
5381000000.0 -0.9474 0.3983
5384000000.0 -0.2885 0.9826
5388000000.0 0.5809 0.7916
5391000000.0 0.9702 0.07107
5394000000.0 0.6526 -0.7053
5397000000.0 -0.1828 -0.9247
5400000000.0 -0.7892 -0.4443
5403000000.0 -0.8359 0.3367
5406000000.0 -0.239 0.872
5409000000.0 0.5128 0.6971
5412000000.0 0.8565 0.0206
5416000000.0 0.5781 -0.6416
5419000000.0 -0.1431 -0.8533
5422000000.0 -0.7689 -0.383
5425000000.0 -0.7763 0.3475
5428000000.0 -0.2168 0.845
5431000000.0 0.5059 0.7023
5434000000.0 0.8745 0.03839
5438000000.0 0.5811 -0.6796
5441000000.0 -0.1685 -0.874
5444000000.0 -0.7494 -0.4004
5447000000.0 -0.8129 0.3532
5450000000.0 -0.2565 0.8335
5453000000.0 0.5182 0.6988
5456000000.0 0.8975 0.05951
5459000000.0 0.5984 -0.6113
5462000000.0 -0.1038 -0.8864
5466000000.0 -0.7776 -0.4909
5469000000.0 -0.8341 0.2877
5472000000.0 -0.3456 0.829
5475000000.0 0.395 0.7816
5478000000.0 0.9163 0.176
5481000000.0 0.742 -0.5954
5484000000.0 0.04498 -0.9387
5488000000.0 -0.7431 -0.6439
5491000000.0 -0.9916 0.1452
5494000000.0 -0.516 0.8402
5497000000.0 0.3388 0.9547
5500000000.0 0.9532 0.3475
5503000000.0 0.8575 -0.4832
5506000000.0 0.1819 -1.004
5509000000.0 -0.6481 -0.8015
5512000000.0 -1.009 -0.03021
5516000000.0 -0.7005 0.7887
5519000000.0 0.1572 1.013
5522000000.0 0.879 0.5144
5525000000.0 0.9883 -0.3118
5528000000.0 0.4147 -0.94
5531000000.0 -0.5026 -0.9195
5534000000.0 -1.007 -0.2021
5538000000.0 -0.8229 0.6577
5541000000.0 -0.05344 1.034
5544000000.0 0.8062 0.6896
5547000000.0 1.045 -0.1521
5550000000.0 0.5353 -0.8926
5553000000.0 -0.3284 -0.9951
5556000000.0 -1.0 -0.3962
5559000000.0 -0.928 0.525
5562000000.0 -0.1893 1.003
5566000000.0 0.6584 0.7985
5569000000.0 1.051 -0.03271
5572000000.0 0.657 -0.7894
5575000000.0 -0.2054 -0.9899
5578000000.0 -0.8586 -0.5033
5581000000.0 -0.913 0.317
5584000000.0 -0.3027 0.944
5588000000.0 0.4997 0.8367
5591000000.0 0.9626 0.1546
5594000000.0 0.6802 -0.6489
5597000000.0 -0.04946 -0.9204
5600000000.0 -0.7421 -0.519
5603000000.0 -0.887 0.253
5606000000.0 -0.3505 0.8479
5609000000.0 0.4271 0.7982
5612000000.0 0.8482 0.1677
5616000000.0 0.6817 -0.5462
5619000000.0 0.01215 -0.878
5622000000.0 -0.6672 -0.5379
5625000000.0 -0.8521 0.1875
5628000000.0 -0.3574 0.7601
5631000000.0 0.3441 0.7576
5634000000.0 0.8263 0.2194
5638000000.0 0.6548 -0.5138
5641000000.0 0.05011 -0.8121
5644000000.0 -0.6176 -0.5648
5647000000.0 -0.8242 0.1461
5650000000.0 -0.4018 0.7519
5653000000.0 0.3478 0.7814
5656000000.0 0.8412 0.2224
5659000000.0 0.656 -0.5006
5662000000.0 0.03315 -0.8731
5666000000.0 -0.6337 -0.5493
5669000000.0 -0.891 0.152
5672000000.0 -0.4575 0.796
5675000000.0 0.3894 0.8161
5678000000.0 0.8864 0.2305
5681000000.0 0.7738 -0.5305
5684000000.0 0.06493 -0.9276
5688000000.0 -0.7244 -0.6301
5691000000.0 -0.9353 0.1451
5694000000.0 -0.4853 0.8242
5697000000.0 0.339 0.9039
5700000000.0 0.9495 0.2934
5703000000.0 0.8678 -0.5311
5706000000.0 0.1018 -1.025
5709000000.0 -0.7177 -0.7165
5712000000.0 -1.035 0.07111
5716000000.0 -0.607 0.8711
5719000000.0 0.2671 1.02
5722000000.0 0.9691 0.4583
5725000000.0 0.9523 -0.4807
5728000000.0 0.2418 -1.024
5731000000.0 -0.6698 -0.8661
5734000000.0 -1.087 -0.037
5738000000.0 -0.7346 0.81
5741000000.0 0.1403 1.067
5744000000.0 0.9251 0.5943
5747000000.0 1.046 -0.3273
5750000000.0 0.4261 -1.017
5753000000.0 -0.5518 -0.9677
5756000000.0 -1.09 -0.2207
5759000000.0 -0.8572 0.7014
5762000000.0 -0.05063 1.103
5766000000.0 0.8531 0.7238
5769000000.0 1.102 -0.1785
5772000000.0 0.5425 -0.9529
5775000000.0 -0.3764 -1.059
5778000000.0 -1.022 -0.3509
5781000000.0 -0.9311 0.5799
5784000000.0 -0.1666 1.086
5788000000.0 0.7074 0.8211
5791000000.0 1.113 -0.008852
5794000000.0 0.6846 -0.8411
5797000000.0 -0.2059 -1.042
5800000000.0 -0.9556 -0.529
5803000000.0 -0.9926 0.3651
5806000000.0 -0.3331 1.007
5809000000.0 0.5575 0.9
5812000000.0 1.07 0.1354
5816000000.0 0.7474 -0.7096
5819000000.0 -0.06481 -1.025
5822000000.0 -0.8072 -0.5846
5825000000.0 -0.9458 0.3051
5828000000.0 -0.392 0.9239
5831000000.0 0.4575 0.8672
5834000000.0 0.9881 0.169
5838000000.0 0.7655 -0.6087
5841000000.0 0.01097 -1.003
5844000000.0 -0.762 -0.5659
5847000000.0 -0.9434 0.2057
5850000000.0 -0.4262 0.8594
5853000000.0 0.4061 0.8624
5856000000.0 0.9241 0.2038
5859000000.0 0.7694 -0.5657
5862000000.0 0.03716 -0.9154
5866000000.0 -0.6977 -0.6151
5869000000.0 -0.8988 0.1533
5872000000.0 -0.406 0.7888
5875000000.0 0.3519 0.8028
5878000000.0 0.8752 0.2244
5881000000.0 0.7212 -0.5055
5884000000.0 0.06248 -0.8879
5888000000.0 -0.6396 -0.6042
5891000000.0 -0.8522 0.1239
5894000000.0 -0.4242 0.7229
5897000000.0 0.3359 0.8136
5900000000.0 0.8046 0.2991
5903000000.0 0.7068 -0.45
5906000000.0 0.105 -0.8398
5909000000.0 -0.5861 -0.6364
5912000000.0 -0.8643 0.05059
5916000000.0 -0.5516 0.6922
5919000000.0 0.2292 0.8518
5922000000.0 0.7831 0.3429
5925000000.0 0.7759 -0.3789
5928000000.0 0.1995 -0.8701
5931000000.0 -0.5709 -0.6958
5934000000.0 -0.8856 -0.02389
5938000000.0 -0.5853 0.6737
5941000000.0 0.1323 0.8785
5944000000.0 0.7986 0.4715
5947000000.0 0.8672 -0.2882
5950000000.0 0.3411 -0.8622
5953000000.0 -0.4571 -0.7814
5956000000.0 -0.8808 -0.1778
5959000000.0 -0.699 0.5763
5962000000.0 -0.008488 0.948
5966000000.0 0.7334 0.6004
5969000000.0 0.9317 -0.1542
5972000000.0 0.4457 -0.849
5975000000.0 -0.3275 -0.9118
5978000000.0 -0.9257 -0.3436
5981000000.0 -0.8507 0.5079
5984000000.0 -0.1754 1.007
5988000000.0 0.6262 0.7432
5991000000.0 0.9595 -0.0002795
5994000000.0 0.6099 -0.8074
5997000000.0 -0.2045 -0.9654
6000000000.0 -0.9007 -0.4599
6003000000.0 -0.922 0.3945
6006000000.0 -0.2862 0.9494
6009000000.0 0.5606 0.8019
6012000000.0 0.9968 0.09135
6016000000.0 0.6799 -0.7044
6019000000.0 -0.09633 -0.9901
6022000000.0 -0.8223 -0.5614
6025000000.0 -0.952 0.2943
6028000000.0 -0.371 0.9022
6031000000.0 0.4542 0.8439
6034000000.0 0.9828 0.1802
6038000000.0 0.7446 -0.6252
6041000000.0 -0.02587 -0.9805
6044000000.0 -0.7656 -0.6036
6047000000.0 -0.9262 0.2282
6050000000.0 -0.4095 0.8406
6053000000.0 0.3988 0.8777
6056000000.0 0.9223 0.224
6059000000.0 0.7485 -0.5948
6062000000.0 0.0455 -0.9031
6066000000.0 -0.6749 -0.6213
6069000000.0 -0.8893 0.1568
6072000000.0 -0.4206 0.7861
6075000000.0 0.3566 0.8194
6078000000.0 0.8214 0.255
6081000000.0 0.7144 -0.5041
6084000000.0 0.09902 -0.8715
6088000000.0 -0.6211 -0.6044
6091000000.0 -0.8514 0.09072
6094000000.0 -0.4628 0.7248
6097000000.0 0.2616 0.8274
6100000000.0 0.8267 0.285
6103000000.0 0.7518 -0.4423
6106000000.0 0.08893 -0.8461
6109000000.0 -0.5714 -0.6199
6112000000.0 -0.8312 0.07684
6116000000.0 -0.4786 0.7023
6119000000.0 0.2531 0.8343
6122000000.0 0.7944 0.3013
6125000000.0 0.7394 -0.4086
6128000000.0 0.1415 -0.8635
6131000000.0 -0.5695 -0.6482
6134000000.0 -0.8524 0.0178
6138000000.0 -0.5405 0.6818
6141000000.0 0.1993 0.845
6144000000.0 0.7804 0.4002
6147000000.0 0.8163 -0.3396
6150000000.0 0.2051 -0.8692
6153000000.0 -0.5503 -0.7089
6156000000.0 -0.9215 -0.02393
6159000000.0 -0.6412 0.6889
6162000000.0 0.1328 0.9104
6166000000.0 0.8 0.4993
6169000000.0 0.8687 -0.3365
6172000000.0 0.2875 -0.9019
6175000000.0 -0.5173 -0.8493
6178000000.0 -0.9181 -0.0881
6181000000.0 -0.7157 0.6841
6184000000.0 0.06163 0.9873
6188000000.0 0.7662 0.5186
6191000000.0 0.9385 -0.2402
6194000000.0 0.4271 -0.9001
6197000000.0 -0.432 -0.8458
6200000000.0 -0.912 -0.2207
6203000000.0 -0.762 0.5844
6206000000.0 -0.02146 0.9437
6209000000.0 0.712 0.6298
6212000000.0 0.9003 -0.1718
6216000000.0 0.4802 -0.8025
6219000000.0 -0.3293 -0.893
6222000000.0 -0.8447 -0.3202
6225000000.0 -0.7927 0.4619
6228000000.0 -0.1362 0.8681
6231000000.0 0.5648 0.6796
6234000000.0 0.9026 0.002409
6238000000.0 0.5212 -0.6977
6241000000.0 -0.1955 -0.8613
6244000000.0 -0.7686 -0.4091
6247000000.0 -0.7808 0.3289
6250000000.0 -0.2635 0.8341
6253000000.0 0.4581 0.6915
6256000000.0 0.7963 0.09895
6259000000.0 0.5804 -0.5415
6262000000.0 -0.04453 -0.8372
6266000000.0 -0.6469 -0.5158
6269000000.0 -0.7779 0.1781
