! Created with skrf 1.8.0 (http://scikit-rf.org).
# Hz S RI R 50.0 
!freq ReS11 ImS11
4000000000.0 0.2759 -1.518
4003000000.0 -0.9753 -1.169
4006000000.0 -1.488 0.008785
4009000000.0 -0.9235 1.18
4012000000.0 0.3424 1.426
4016000000.0 1.331 0.6463
4019000000.0 1.357 -0.6234
4022000000.0 0.3815 -1.453
4025000000.0 -0.9708 -1.221
4028000000.0 -1.568 0.01064
4031000000.0 -0.9762 1.242
4034000000.0 0.3239 1.552
4038000000.0 1.401 0.7015
4041000000.0 1.458 -0.6254
4044000000.0 0.3466 -1.53
4047000000.0 -0.9697 -1.2
4050000000.0 -1.536 -0.07798
4053000000.0 -1.021 1.201
4056000000.0 0.2699 1.545
4059000000.0 1.371 0.7593
4062000000.0 1.489 -0.5664
4066000000.0 0.399 -1.55
4069000000.0 -0.868 -1.33
4072000000.0 -1.546 -0.1512
4075000000.0 -1.181 1.128
4078000000.0 0.1026 1.642
4081000000.0 1.333 0.9587
4084000000.0 1.563 -0.4083
4088000000.0 0.6825 -1.518
4091000000.0 -0.7427 -1.491
4094000000.0 -1.579 -0.3671
4097000000.0 -1.307 0.9923
4100000000.0 -0.05823 1.628
4103000000.0 1.229 1.067
4106000000.0 1.577 -0.2875
4109000000.0 0.7904 -1.331
4112000000.0 -0.4797 -1.467
4116000000.0 -1.446 -0.5654
4119000000.0 -1.354 0.7016
4122000000.0 -0.326 1.452
4125000000.0 0.884 1.226
4128000000.0 1.477 0.1362
4131000000.0 1.078 -1.016
4134000000.0 -0.07712 -1.469
4138000000.0 -1.197 -0.9287
4141000000.0 -1.478 0.3073
4144000000.0 -0.738 1.326
4147000000.0 0.5117 1.406
4150000000.0 1.428 0.5021
4153000000.0 1.331 -0.7678
4156000000.0 0.2933 -1.494
4159000000.0 -0.9598 -1.182
4162000000.0 -1.521 -0.01985
4166000000.0 -1.014 1.145
4169000000.0 0.2235 1.495
4172000000.0 1.27 0.7977
4175000000.0 1.438 -0.4337
4178000000.0 0.6011 -1.366
4181000000.0 -0.6575 -1.316
4184000000.0 -1.407 -0.3603
4188000000.0 -1.21 0.9199
4191000000.0 -0.1382 1.513
4194000000.0 1.088 1.114
4197000000.0 1.526 -0.1266
4200000000.0 0.8753 -1.276
4203000000.0 -0.4106 -1.566
4206000000.0 -1.487 -0.6863
4209000000.0 -1.464 0.7398
4212000000.0 -0.3141 1.614
4216000000.0 1.048 1.26
4219000000.0 1.693 -0.0288
4222000000.0 1.014 -1.344
4225000000.0 -0.4325 -1.673
4228000000.0 -1.605 -0.6869
4231000000.0 -1.463 0.8182
4234000000.0 -0.2871 1.685
4238000000.0 1.187 1.231
4241000000.0 1.68 -0.1726
4244000000.0 0.917 -1.435
4247000000.0 -0.5317 -1.557
4250000000.0 -1.573 -0.5146
4253000000.0 -1.334 0.9099
4256000000.0 -0.1498 1.634
4259000000.0 1.251 1.074
4262000000.0 1.584 -0.3258
4266000000.0 0.7043 -1.462
4269000000.0 -0.6848 -1.435
4272000000.0 -1.526 -0.3395
4275000000.0 -1.108 1.076
4278000000.0 0.1441 1.562
4281000000.0 1.235 0.8958
4284000000.0 1.425 -0.3813
4288000000.0 0.5437 -1.341
4291000000.0 -0.7497 -1.253
4294000000.0 -1.391 -0.2077
4297000000.0 -0.9843 0.9638
4300000000.0 0.08236 1.379
4303000000.0 1.095 0.7718
4306000000.0 1.276 -0.3533
4309000000.0 0.5601 -1.157
4312000000.0 -0.5932 -1.196
4316000000.0 -1.239 -0.3504
4319000000.0 -1.031 0.7433
4322000000.0 -0.1338 1.28
4325000000.0 0.9412 0.926
4328000000.0 1.303 -0.1031
4331000000.0 0.7645 -1.122
4334000000.0 -0.3184 -1.308
4338000000.0 -1.217 -0.5572
4341000000.0 -1.219 0.5773
4344000000.0 -0.2946 1.355
4347000000.0 0.85 1.152
4350000000.0 1.422 0.0632
4353000000.0 0.9545 -1.001
4356000000.0 -0.157 -1.383
4359000000.0 -1.161 -0.7954
4362000000.0 -1.349 0.3886
4366000000.0 -0.5632 1.288
4369000000.0 0.6338 1.269
4372000000.0 1.397 0.3466
4375000000.0 1.172 -0.8476
4378000000.0 0.1177 -1.44
4381000000.0 -1.026 -1.021
4384000000.0 -1.483 0.1432
4388000000.0 -0.8299 1.24
4391000000.0 0.4479 1.463
4394000000.0 1.414 0.6403
4397000000.0 1.375 -0.7264
4400000000.0 0.3367 -1.541
4403000000.0 -0.9992 -1.185
4406000000.0 -1.561 0.1458
4409000000.0 -0.9651 1.23
4412000000.0 0.3689 1.529
4416000000.0 1.42 0.7065
4419000000.0 1.455 -0.636
4422000000.0 0.3789 -1.525
4425000000.0 -0.9345 -1.226
4428000000.0 -1.563 -0.01797
4431000000.0 -0.9637 1.153
4434000000.0 0.314 1.459
4438000000.0 1.407 0.7149
4441000000.0 1.398 -0.6224
4444000000.0 0.35 -1.48
4447000000.0 -0.9012 -1.175
4450000000.0 -1.459 0.03373
4453000000.0 -0.8084 1.201
4456000000.0 0.3423 1.402
4459000000.0 1.305 0.5414
4462000000.0 1.263 -0.6741
4466000000.0 0.192 -1.373
4469000000.0 -0.89 -0.9977
4472000000.0 -1.324 0.1304
4475000000.0 -0.6816 1.081
4478000000.0 0.4347 1.19
4481000000.0 1.164 0.3884
4484000000.0 0.9958 -0.6995
4488000000.0 0.06457 -1.201
4491000000.0 -0.8879 -0.8205
4494000000.0 -1.158 0.2296
4497000000.0 -0.537 1.028
4500000000.0 0.4547 1.052
4503000000.0 1.04 0.2822
4506000000.0 0.8588 -0.648
4509000000.0 0.03017 -1.085
4512000000.0 -0.805 -0.712
4516000000.0 -1.041 0.2104
4519000000.0 -0.4952 0.95
4522000000.0 0.4304 0.9869
4525000000.0 1.053 0.2792
4528000000.0 0.864 -0.6327
4531000000.0 0.03372 -1.066
4534000000.0 -0.8313 -0.6998
4538000000.0 -1.085 0.2091
4541000000.0 -0.5442 0.9762
4544000000.0 0.4056 1.028
4547000000.0 1.076 0.3524
4550000000.0 0.9309 -0.5944
4553000000.0 0.1078 -1.109
4556000000.0 -0.7732 -0.8128
4559000000.0 -1.132 0.06587
4562000000.0 -0.6658 0.9106
4566000000.0 0.3636 1.107
4569000000.0 1.082 0.4599
4572000000.0 1.074 -0.5061
4575000000.0 0.3224 -1.151
4578000000.0 -0.6988 -0.9749
4581000000.0 -1.214 -0.08631
4584000000.0 -0.8312 0.9481
4588000000.0 0.1393 1.228
4591000000.0 1.057 0.7134
4594000000.0 1.22 -0.3343
4597000000.0 0.5237 -1.208
4600000000.0 -0.6057 -1.172
4603000000.0 -1.293 -0.3067
4606000000.0 -1.037 0.8129
4609000000.0 -0.03982 1.319
4612000000.0 1.009 0.9299
4616000000.0 1.314 -0.2175
4619000000.0 0.6887 -1.162
4622000000.0 -0.4503 -1.288
4625000000.0 -1.298 -0.4718
4628000000.0 -1.137 0.707
4631000000.0 -0.2005 1.363
4634000000.0 0.9365 1.014
4638000000.0 1.384 -0.1052
4641000000.0 0.8065 -1.112
4644000000.0 -0.3528 -1.311
4647000000.0 -1.242 -0.5643
4650000000.0 -1.22 0.6165
4653000000.0 -0.243 1.34
4656000000.0 0.8744 1.036
4659000000.0 1.345 -0.0395
4662000000.0 0.7994 -1.066
4666000000.0 -0.3413 -1.261
4669000000.0 -1.164 -0.5491
4672000000.0 -1.139 0.6083
4675000000.0 -0.1995 1.215
4678000000.0 0.7873 0.9338
4681000000.0 1.209 -0.03814
4684000000.0 0.7114 -0.9868
4688000000.0 -0.3192 -1.133
4691000000.0 -1.097 -0.4556
4694000000.0 -1.041 0.5532
4697000000.0 -0.1661 1.162
4700000000.0 0.7955 0.8469
4703000000.0 1.157 -0.07957
4706000000.0 0.653 -0.9641
4709000000.0 -0.3665 -1.044
4712000000.0 -1.016 -0.4106
4716000000.0 -0.9279 0.602
4719000000.0 -0.1211 1.094
4722000000.0 0.8051 0.742
4725000000.0 1.034 -0.1716
4728000000.0 0.5359 -0.8954
4731000000.0 -0.3568 -0.9106
4734000000.0 -0.9615 -0.298
4738000000.0 -0.8429 0.5436
4741000000.0 -0.1058 1.011
4744000000.0 0.7123 0.7123
4747000000.0 0.9976 -0.1037
4750000000.0 0.5633 -0.8384
4753000000.0 -0.3251 -0.9726
4756000000.0 -0.907 -0.3721
4759000000.0 -0.8912 0.4837
4762000000.0 -0.1849 1.015
4766000000.0 0.6716 0.8066
4769000000.0 1.075 -0.05296
4772000000.0 0.6757 -0.8479
4775000000.0 -0.2363 -1.034
4778000000.0 -0.9679 -0.51
4781000000.0 -1.019 0.4077
4784000000.0 -0.3347 1.025
4788000000.0 0.5995 0.9459
4791000000.0 1.119 0.1412
4794000000.0 0.825 -0.7478
4797000000.0 -0.0467 -1.143
4800000000.0 -0.9244 -0.6845
4803000000.0 -1.106 0.2607
4806000000.0 -0.5514 1.031
4809000000.0 0.421 1.099
4812000000.0 1.109 0.3753
4816000000.0 1.032 -0.6194
4819000000.0 0.1765 -1.205
4822000000.0 -0.8426 -0.9664
4825000000.0 -1.258 0.03426
4828000000.0 -0.7883 1.033
4831000000.0 0.3155 1.277
4834000000.0 1.183 0.6017
4838000000.0 1.231 -0.5489
4841000000.0 0.3645 -1.305
4844000000.0 -0.7905 -1.109
4847000000.0 -1.349 -0.1078
4850000000.0 -0.9361 1.004
4853000000.0 0.167 1.361
4856000000.0 1.116 0.7549
4859000000.0 1.317 -0.4366
4862000000.0 0.4921 -1.266
4866000000.0 -0.6684 -1.209
4869000000.0 -1.321 -0.2275
4872000000.0 -1.005 0.8975
4875000000.0 0.05704 1.356
4878000000.0 1.081 0.7759
4881000000.0 1.29 -0.3349
4884000000.0 0.5399 -1.189
4888000000.0 -0.6001 -1.14
4891000000.0 -1.23 -0.2694
4894000000.0 -0.9884 0.8146
4897000000.0 0.0471 1.252
4900000000.0 0.9379 0.7574
4903000000.0 1.171 -0.2683
4906000000.0 0.5331 -1.043
4909000000.0 -0.4788 -1.02
4912000000.0 -1.067 -0.237
4916000000.0 -0.8392 0.6779
4919000000.0 0.009584 1.073
4922000000.0 0.7814 0.6592
4925000000.0 0.991 -0.1787
4928000000.0 0.4861 -0.8941
4931000000.0 -0.3456 -0.919
4934000000.0 -0.9277 -0.3092
4938000000.0 -0.812 0.5014
4941000000.0 -0.1246 0.9698
4944000000.0 0.6531 0.6827
4947000000.0 0.9518 -0.09007
4950000000.0 0.5512 -0.7791
4953000000.0 -0.2384 -0.8784
4956000000.0 -0.8805 -0.3613
4959000000.0 -0.8279 0.441
4962000000.0 -0.1801 0.9352
4966000000.0 0.6187 0.7142
4969000000.0 0.9585 -0.02312
4972000000.0 0.5984 -0.7666
4975000000.0 -0.2421 -0.9391
4978000000.0 -0.8677 -0.3985
4981000000.0 -0.8716 0.394
4984000000.0 -0.2406 0.9384
4988000000.0 0.5737 0.8013
4991000000.0 1.001 0.06573
4994000000.0 0.6927 -0.7646
4997000000.0 -0.1268 -1.055
5000000000.0 -0.8683 -0.5718
5003000000.0 -1.032 0.3302
5006000000.0 -0.41 1.004
5009000000.0 0.532 0.98
5012000000.0 1.116 0.2162
5016000000.0 0.8838 -0.7281
5019000000.0 -0.04812 -1.157
5022000000.0 -0.951 -0.7338
5025000000.0 -1.173 0.2343
5028000000.0 -0.566 1.055
5031000000.0 0.4674 1.131
5034000000.0 1.178 0.3628
5038000000.0 1.022 -0.6864
5041000000.0 0.1355 -1.216
5044000000.0 -0.8728 -0.9104
5047000000.0 -1.254 0.1047
5050000000.0 -0.7536 1.024
5053000000.0 0.3479 1.234
5056000000.0 1.172 0.5897
5059000000.0 1.145 -0.5425
5062000000.0 0.3326 -1.273
5066000000.0 -0.7459 -1.056
5069000000.0 -1.328 -0.1257
5072000000.0 -0.8953 0.9534
5075000000.0 0.1144 1.328
5078000000.0 1.064 0.7098
5081000000.0 1.234 -0.3935
5084000000.0 0.5066 -1.188
5088000000.0 -0.6071 -1.095
5091000000.0 -1.232 -0.2763
5094000000.0 -0.946 0.7625
5097000000.0 -0.02164 1.196
5100000000.0 0.9034 0.767
5103000000.0 1.171 -0.1763
5106000000.0 0.6252 -0.9784
5109000000.0 -0.3223 -1.103
5112000000.0 -1.063 -0.4189
5116000000.0 -1.018 0.5505
5119000000.0 -0.2528 1.092
5122000000.0 0.6763 0.8448
5125000000.0 1.098 0.0361
5128000000.0 0.6771 -0.7944
5131000000.0 -0.1317 -1.032
5134000000.0 -0.9245 -0.5359
5138000000.0 -0.9701 0.3554
5141000000.0 -0.3471 0.9649
5144000000.0 0.4936 0.8505
5147000000.0 0.9696 0.1795
5150000000.0 0.7253 -0.6602
5153000000.0 -0.01984 -0.9419
5156000000.0 -0.7161 -0.5627
5159000000.0 -0.9103 0.1961
5162000000.0 -0.3932 0.8377
5166000000.0 0.3581 0.8434
5169000000.0 0.8795 0.2657
5172000000.0 0.7725 -0.5186
5175000000.0 0.08821 -0.9261
5178000000.0 -0.6543 -0.6337
5181000000.0 -0.9186 0.1148
5184000000.0 -0.475 0.8033
5188000000.0 0.3123 0.8622
5191000000.0 0.9089 0.2866
5194000000.0 0.7858 -0.4922
5197000000.0 0.07521 -0.9342
5200000000.0 -0.6642 -0.6358
5203000000.0 -0.9135 0.1082
5206000000.0 -0.4895 0.7707
5209000000.0 0.3315 0.8813
5212000000.0 0.9061 0.2945
5216000000.0 0.795 -0.5177
5219000000.0 0.1214 -0.9331
5222000000.0 -0.6696 -0.6749
5225000000.0 -0.9452 0.08312
5228000000.0 -0.5298 0.8061
5231000000.0 0.3078 0.9354
5234000000.0 0.8839 0.346
5238000000.0 0.8882 -0.4781
5241000000.0 0.1751 -0.9973
5244000000.0 -0.6748 -0.7738
5247000000.0 -1.028 0.009526
5250000000.0 -0.6157 0.8069
5253000000.0 0.2028 0.9915
5256000000.0 0.95 0.4912
5259000000.0 0.9772 -0.422
5262000000.0 0.2746 -1.027
5266000000.0 -0.6078 -0.8959
5269000000.0 -1.074 -0.1132
5272000000.0 -0.7499 0.78
5275000000.0 0.092 1.082
5278000000.0 0.8681 0.6217
5281000000.0 1.028 -0.2594
5284000000.0 0.4798 -0.9862
5288000000.0 -0.4335 -0.9963
5291000000.0 -1.032 -0.3159
5294000000.0 -0.9198 0.6018
5297000000.0 -0.1328 1.098
5300000000.0 0.7328 0.8384
5303000000.0 1.139 -0.01228
5306000000.0 0.6903 -0.8664
5309000000.0 -0.1901 -1.122
5312000000.0 -1.023 -0.5268
5316000000.0 -1.054 0.3767
5319000000.0 -0.4185 1.08
5322000000.0 0.5669 0.9948
5325000000.0 1.106 0.182
5328000000.0 0.8236 -0.751
5331000000.0 0.003861 -1.127
5334000000.0 -0.8996 -0.7148
5338000000.0 -1.13 0.2174
5341000000.0 -0.5587 0.984
5344000000.0 0.3882 1.054
5347000000.0 1.088 0.3936
5350000000.0 0.9482 -0.5809
5353000000.0 0.1629 -1.105
5356000000.0 -0.7319 -0.8594
5359000000.0 -1.126 0.01157
5362000000.0 -0.6821 0.8854
5366000000.0 0.2436 1.079
5369000000.0 1.002 0.4663
5372000000.0 0.9762 -0.4441
5375000000.0 0.2497 -1.037
5378000000.0 -0.6449 -0.8625
5381000000.0 -1.048 -0.02138
5384000000.0 -0.6945 0.8187
5388000000.0 0.2163 0.9898
5391000000.0 0.9018 0.4687
5394000000.0 0.9396 -0.3768
5397000000.0 0.2538 -0.9779
5400000000.0 -0.5885 -0.7841
5403000000.0 -0.9596 -0.05308
5406000000.0 -0.5949 0.7101
5409000000.0 0.1419 0.9353
5412000000.0 0.8335 0.4397
5416000000.0 0.8468 -0.3589
5419000000.0 0.2194 -0.8452
5422000000.0 -0.5513 -0.7213
5425000000.0 -0.9013 -0.03744
5428000000.0 -0.5586 0.6789
5431000000.0 0.1909 0.8697
5434000000.0 0.7829 0.4032
5438000000.0 0.7945 -0.3964
5441000000.0 0.1982 -0.8342
5444000000.0 -0.5439 -0.661
5447000000.0 -0.8284 0.03073
5450000000.0 -0.5197 0.6697
5453000000.0 0.187 0.8126
5456000000.0 0.7567 0.3754
5459000000.0 0.7553 -0.3929
5462000000.0 0.1952 -0.8232
5466000000.0 -0.5498 -0.7152
5469000000.0 -0.8699 -0.06864
5472000000.0 -0.5932 0.6487
5475000000.0 0.1401 0.8883
5478000000.0 0.7698 0.4902
5481000000.0 0.869 -0.2775
5484000000.0 0.3256 -0.8651
5488000000.0 -0.4427 -0.8053
5491000000.0 -0.9099 -0.1857
5494000000.0 -0.6963 0.589
5497000000.0 -0.0007487 0.9681
5500000000.0 0.7294 0.5948
5503000000.0 0.9401 -0.1703
5506000000.0 0.5012 -0.8664
5509000000.0 -0.3412 -0.9282
5512000000.0 -0.8973 -0.3365
5516000000.0 -0.8318 0.5097
5519000000.0 -0.1528 0.9881
5522000000.0 0.6526 0.7666
5525000000.0 1.03 0.001928
5528000000.0 0.6854 -0.7675
5531000000.0 -0.1529 -1.049
5534000000.0 -0.8871 -0.5721
5538000000.0 -0.9762 0.3498
5541000000.0 -0.386 0.9899
5544000000.0 0.5224 0.9504
5547000000.0 1.033 0.2402
5550000000.0 0.8558 -0.6466
5553000000.0 0.006644 -1.077
5556000000.0 -0.7825 -0.6885
5559000000.0 -1.033 0.1933
5562000000.0 -0.5052 0.9147
5566000000.0 0.3481 1.014
5569000000.0 0.9944 0.3637
5572000000.0 0.8845 -0.552
5575000000.0 0.1766 -1.022
5578000000.0 -0.6751 -0.7719
5581000000.0 -1.026 0.008523
5584000000.0 -0.6645 0.7741
5588000000.0 0.1905 1.002
5591000000.0 0.8699 0.4683
5594000000.0 0.8995 -0.3607
5597000000.0 0.3123 -0.9492
5600000000.0 -0.5218 -0.7983
5603000000.0 -0.9538 -0.1224
5606000000.0 -0.6796 0.6742
5609000000.0 0.07291 0.9049
5612000000.0 0.7798 0.5247
5616000000.0 0.8899 -0.257
5619000000.0 0.337 -0.8644
5622000000.0 -0.4037 -0.8036
5625000000.0 -0.9007 -0.2001
5628000000.0 -0.6986 0.5569
5631000000.0 -0.006075 0.8593
5634000000.0 0.6818 0.5409
5638000000.0 0.8382 -0.2002
5641000000.0 0.3943 -0.7571
5644000000.0 -0.3564 -0.7659
5647000000.0 -0.8331 -0.2229
5650000000.0 -0.6793 0.5051
5653000000.0 -0.03944 0.8225
5656000000.0 0.6597 0.5173
5659000000.0 0.8234 -0.1811
5662000000.0 0.3902 -0.7537
5666000000.0 -0.3606 -0.7637
5669000000.0 -0.8584 -0.2057
5672000000.0 -0.6988 0.5361
5675000000.0 -0.02066 0.8821
5678000000.0 0.6897 0.5639
5681000000.0 0.8637 -0.1632
5684000000.0 0.4058 -0.8119
5688000000.0 -0.4077 -0.8253
5691000000.0 -0.8835 -0.2003
5694000000.0 -0.7296 0.573
5697000000.0 -0.02152 0.9512
5700000000.0 0.7262 0.5985
5703000000.0 0.9621 -0.1937
5706000000.0 0.4648 -0.83
5709000000.0 -0.3756 -0.9073
5712000000.0 -0.936 -0.2598
5716000000.0 -0.8558 0.5552
5719000000.0 -0.0937 1.006
5722000000.0 0.6981 0.6995
5725000000.0 1.024 -0.1104
5728000000.0 0.5875 -0.8608
5731000000.0 -0.2633 -0.9811
5734000000.0 -0.9665 -0.3875
5738000000.0 -0.9488 0.5245
5741000000.0 -0.2038 1.008
5744000000.0 0.6701 0.7941
5747000000.0 1.049 0.03726
5750000000.0 0.6769 -0.8164
5753000000.0 -0.1838 -1.049
5756000000.0 -0.9189 -0.5579
5759000000.0 -1.011 0.3962
5762000000.0 -0.371 1.015
5766000000.0 0.5626 0.9287
5769000000.0 1.065 0.1657
5772000000.0 0.7915 -0.7344
5775000000.0 -0.02427 -1.07
5778000000.0 -0.8339 -0.6914
5781000000.0 -1.072 0.213
5784000000.0 -0.5316 0.9543
5788000000.0 0.4169 1.004
5791000000.0 1.033 0.3293
5794000000.0 0.9269 -0.558
5797000000.0 0.19 -1.053
5800000000.0 -0.7239 -0.8318
5803000000.0 -1.079 0.005837
5806000000.0 -0.682 0.8277
5809000000.0 0.1985 1.056
5812000000.0 0.9441 0.5108
5816000000.0 0.9758 -0.3919
5819000000.0 0.3084 -0.9783
5822000000.0 -0.5747 -0.8632
5825000000.0 -1.027 -0.1379
5828000000.0 -0.7507 0.7089
5831000000.0 0.08322 0.9952
5834000000.0 0.8504 0.5483
5838000000.0 0.9562 -0.2736
5841000000.0 0.4003 -0.9012
5844000000.0 -0.4509 -0.8569
5847000000.0 -0.9578 -0.2004
5850000000.0 -0.7116 0.6316
5853000000.0 -0.01147 0.9683
5856000000.0 0.7528 0.5739
5859000000.0 0.9197 -0.1918
5862000000.0 0.4671 -0.8725
5866000000.0 -0.4133 -0.8428
5869000000.0 -0.8985 -0.2253
5872000000.0 -0.7158 0.5528
5875000000.0 -0.0243 0.8945
5878000000.0 0.6935 0.5709
5881000000.0 0.8717 -0.1615
5884000000.0 0.426 -0.7799
5888000000.0 -0.3425 -0.8076
5891000000.0 -0.8416 -0.2558
5894000000.0 -0.7185 0.5021
5897000000.0 -0.02631 0.888
5900000000.0 0.6183 0.5947
5903000000.0 0.8462 -0.121
5906000000.0 0.4337 -0.7264
5909000000.0 -0.3236 -0.7927
5912000000.0 -0.8069 -0.2728
5916000000.0 -0.7602 0.4571
5919000000.0 -0.1273 0.8445
5922000000.0 0.6071 0.6224
5925000000.0 0.8582 -0.08315
5928000000.0 0.5136 -0.7219
5931000000.0 -0.2236 -0.8116
5934000000.0 -0.8286 -0.3361
5938000000.0 -0.7614 0.3894
5941000000.0 -0.2006 0.82
5944000000.0 0.5361 0.673
5947000000.0 0.8629 0.004939
5950000000.0 0.5833 -0.6254
5953000000.0 -0.1159 -0.8663
5956000000.0 -0.7381 -0.4651
5959000000.0 -0.8436 0.2737
5962000000.0 -0.3512 0.8239
5966000000.0 0.4232 0.7967
5969000000.0 0.9136 0.1644
5972000000.0 0.6981 -0.6139
5975000000.0 0.01047 -0.9374
5978000000.0 -0.6719 -0.5912
5981000000.0 -0.9339 0.1435
5984000000.0 -0.5106 0.8007
5988000000.0 0.3454 0.9095
5991000000.0 0.9085 0.3332
5994000000.0 0.858 -0.4886
5997000000.0 0.1637 -0.9531
6000000000.0 -0.6471 -0.7791
6003000000.0 -0.9628 0.01571
6006000000.0 -0.6322 0.7557
6009000000.0 0.2068 0.964
6012000000.0 0.8713 0.4842
6016000000.0 0.9234 -0.3705
6019000000.0 0.2865 -0.9152
6022000000.0 -0.5399 -0.8211
6025000000.0 -0.9743 -0.1199
6028000000.0 -0.7211 0.6799
6031000000.0 0.08806 0.9886
6034000000.0 0.811 0.5747
6038000000.0 0.9662 -0.2864
6041000000.0 0.4095 -0.904
6044000000.0 -0.439 -0.8488
6047000000.0 -0.9682 -0.2223
6050000000.0 -0.768 0.6139
6053000000.0 0.007131 0.9671
6056000000.0 0.7549 0.6091
6059000000.0 0.9431 -0.1785
6062000000.0 0.4563 -0.8378
6066000000.0 -0.3798 -0.8564
6069000000.0 -0.9069 -0.2437
6072000000.0 -0.749 0.5413
6075000000.0 -0.06298 0.8908
6078000000.0 0.6831 0.6195
6081000000.0 0.8902 -0.1224
6084000000.0 0.4652 -0.7558
6088000000.0 -0.3281 -0.799
6091000000.0 -0.8412 -0.2961
6094000000.0 -0.7208 0.4474
6097000000.0 -0.1004 0.8606
6100000000.0 0.6351 0.6026
6103000000.0 0.8911 -0.08561
6106000000.0 0.4419 -0.7221
6109000000.0 -0.2768 -0.8235
6112000000.0 -0.798 -0.2929
6116000000.0 -0.7416 0.4199
6119000000.0 -0.1155 0.8372
6122000000.0 0.5933 0.6203
6125000000.0 0.8668 -0.05311
6128000000.0 0.4857 -0.6941
6131000000.0 -0.2517 -0.8279
6134000000.0 -0.8057 -0.3207
6138000000.0 -0.7585 0.3993
6141000000.0 -0.1341 0.8612
6144000000.0 0.5723 0.6526
6147000000.0 0.8671 -0.02238
6150000000.0 0.5074 -0.6508
6153000000.0 -0.2112 -0.8574
6156000000.0 -0.7958 -0.4076
6159000000.0 -0.8126 0.3583
6162000000.0 -0.226 0.8372
6166000000.0 0.5041 0.7548
6169000000.0 0.8725 0.05299
6172000000.0 0.635 -0.683
6175000000.0 -0.1354 -0.901
6178000000.0 -0.776 -0.4818
6181000000.0 -0.8658 0.3143
6184000000.0 -0.36 0.8319
6188000000.0 0.4587 0.7885
6191000000.0 0.9375 0.1188
6194000000.0 0.6601 -0.6179
6197000000.0 -0.03391 -0.9283
6200000000.0 -0.7137 -0.5415
6203000000.0 -0.9068 0.2261
6206000000.0 -0.3519 0.8107
6209000000.0 0.3709 0.813
6212000000.0 0.8821 0.2345
6216000000.0 0.7142 -0.5571
6219000000.0 0.08275 -0.9238
6222000000.0 -0.671 -0.6091
6225000000.0 -0.8783 0.101
6228000000.0 -0.4579 0.759
6231000000.0 0.2675 0.824
6234000000.0 0.8284 0.3031
6238000000.0 0.7673 -0.4157
6241000000.0 0.1563 -0.8673
6244000000.0 -0.5782 -0.6586
6247000000.0 -0.855 0.003726
6250000000.0 -0.5314 0.6433
6253000000.0 0.1423 0.809
6256000000.0 0.7418 0.3884
6259000000.0 0.7944 -0.2864
6262000000.0 0.2577 -0.7824
