! Created with skrf 1.8.0 (http://scikit-rf.org).
# Hz S RI R 50.0 
!freq ReS11 ImS11
4000000000.0 -0.1818 -1.517
4003000000.0 -1.256 -0.8302
4006000000.0 -1.406 0.4635
4009000000.0 -0.4918 1.424
4012000000.0 0.8146 1.283
4016000000.0 1.464 0.2422
4019000000.0 1.141 -1.052
4022000000.0 -0.1583 -1.547
4025000000.0 -1.329 -0.9016
4028000000.0 -1.546 0.442
4031000000.0 -0.6156 1.543
4034000000.0 0.8138 1.375
4038000000.0 1.617 0.2289
4041000000.0 1.142 -1.07
4044000000.0 -0.1046 -1.618
4047000000.0 -1.348 -0.8848
4050000000.0 -1.562 0.4709
4053000000.0 -0.6042 1.464
4056000000.0 0.7331 1.387
4059000000.0 1.538 0.3167
4062000000.0 1.255 -1.023
4066000000.0 0.06525 -1.619
4069000000.0 -1.22 -0.9974
4072000000.0 -1.597 0.2507
4075000000.0 -0.7871 1.398
4078000000.0 0.5444 1.515
4081000000.0 1.518 0.5351
4084000000.0 1.409 -0.8214
4088000000.0 0.2395 -1.641
4091000000.0 -1.091 -1.215
4094000000.0 -1.633 0.11
4097000000.0 -0.9879 1.305
4100000000.0 0.3397 1.56
4103000000.0 1.438 0.6778
4106000000.0 1.447 -0.6622
4109000000.0 0.4035 -1.466
4112000000.0 -0.8395 -1.283
4116000000.0 -1.491 -0.1918
4119000000.0 -1.113 1.024
4122000000.0 0.02917 1.476
4125000000.0 1.133 0.9565
4128000000.0 1.452 -0.2375
4131000000.0 0.7919 -1.254
4134000000.0 -0.43 -1.412
4138000000.0 -1.379 -0.5807
4141000000.0 -1.307 0.6551
4144000000.0 -0.3656 1.466
4147000000.0 0.8649 1.208
4150000000.0 1.492 0.1111
4153000000.0 1.085 -1.066
4156000000.0 -0.1336 -1.5
4159000000.0 -1.206 -0.8688
4162000000.0 -1.454 0.4047
4166000000.0 -0.6311 1.363
4169000000.0 0.6658 1.367
4172000000.0 1.43 0.398
4175000000.0 1.234 -0.8934
4178000000.0 0.1568 -1.482
4181000000.0 -1.036 -1.08
4184000000.0 -1.462 0.09878
4188000000.0 -0.8667 1.196
4191000000.0 0.366 1.465
4194000000.0 1.394 0.6778
4197000000.0 1.39 -0.6467
4200000000.0 0.3622 -1.532
4203000000.0 -0.9513 -1.256
4206000000.0 -1.623 0.0002535
4209000000.0 -1.03 1.25
4212000000.0 0.3596 1.593
4216000000.0 1.493 0.6682
4219000000.0 1.501 -0.7544
4222000000.0 0.3353 -1.647
4225000000.0 -1.131 -1.265
4228000000.0 -1.663 0.1152
4231000000.0 -0.9047 1.432
4234000000.0 0.553 1.578
4238000000.0 1.573 0.5118
4241000000.0 1.315 -0.9695
4244000000.0 0.0467 -1.595
4247000000.0 -1.202 -1.012
4250000000.0 -1.577 0.3261
4253000000.0 -0.6896 1.42
4256000000.0 0.6561 1.407
4259000000.0 1.465 0.2854
4262000000.0 1.13 -1.001
4266000000.0 -0.106 -1.496
4269000000.0 -1.226 -0.8603
4272000000.0 -1.426 0.4665
4275000000.0 -0.4928 1.377
4278000000.0 0.7804 1.243
4281000000.0 1.426 0.1946
4284000000.0 0.9833 -1.019
4288000000.0 -0.1853 -1.384
4291000000.0 -1.165 -0.7217
4294000000.0 -1.295 0.424
4297000000.0 -0.477 1.221
4300000000.0 0.6481 1.141
4303000000.0 1.292 0.2423
4306000000.0 0.9996 -0.8061
4309000000.0 0.008618 -1.251
4312000000.0 -0.9892 -0.8148
4316000000.0 -1.254 0.2263
4319000000.0 -0.6461 1.097
4322000000.0 0.4156 1.253
4325000000.0 1.214 0.4928
4328000000.0 1.149 -0.6345
4331000000.0 0.2367 -1.324
4334000000.0 -0.8593 -1.056
4338000000.0 -1.393 -0.03767
4341000000.0 -0.8888 1.046
4344000000.0 0.258 1.374
4347000000.0 1.231 0.7076
4350000000.0 1.338 -0.4866
4353000000.0 0.5091 -1.348
4356000000.0 -0.7388 -1.227
4359000000.0 -1.424 -0.2392
4362000000.0 -1.086 0.9629
4366000000.0 0.03642 1.465
4369000000.0 1.147 0.8981
4372000000.0 1.439 -0.291
4375000000.0 0.6894 -1.319
4378000000.0 -0.5856 -1.385
4381000000.0 -1.458 -0.448
4384000000.0 -1.273 0.8677
4388000000.0 -0.1366 1.526
4391000000.0 1.141 1.091
4394000000.0 1.534 -0.1585
4397000000.0 0.8338 -1.313
4400000000.0 -0.5513 -1.504
4403000000.0 -1.476 -0.5342
4406000000.0 -1.343 0.851
4409000000.0 -0.1472 1.564
4412000000.0 1.13 1.049
4416000000.0 1.523 -0.1756
4419000000.0 0.7805 -1.312
4422000000.0 -0.5629 -1.388
4425000000.0 -1.475 -0.3796
4428000000.0 -1.191 0.8399
4431000000.0 -0.07004 1.447
4434000000.0 1.107 0.936
4438000000.0 1.387 -0.3094
4441000000.0 0.5716 -1.261
4444000000.0 -0.5935 -1.229
4447000000.0 -1.302 -0.3127
4450000000.0 -1.007 0.8277
4453000000.0 0.07007 1.34
4456000000.0 1.042 0.7739
4459000000.0 1.242 -0.4089
4462000000.0 0.4736 -1.185
4466000000.0 -0.64 -1.057
4469000000.0 -1.193 -0.1342
4472000000.0 -0.8302 0.8788
4475000000.0 0.1667 1.179
4478000000.0 1.014 0.5882
4481000000.0 1.081 -0.4668
4484000000.0 0.2869 -1.098
4488000000.0 -0.6766 -0.9316
4491000000.0 -1.099 -0.04267
4494000000.0 -0.7248 0.8417
4497000000.0 0.2024 1.1
4500000000.0 1.002 0.5189
4503000000.0 0.9927 -0.4015
4506000000.0 0.3029 -1.038
4509000000.0 -0.6043 -0.8826
4512000000.0 -1.092 -0.1042
4516000000.0 -0.7695 0.8034
4519000000.0 0.1574 1.125
4522000000.0 0.9784 0.604
4525000000.0 1.068 -0.3862
4528000000.0 0.4058 -1.074
4531000000.0 -0.6136 -0.9797
4534000000.0 -1.146 -0.1683
4538000000.0 -0.8496 0.7606
4541000000.0 0.03361 1.186
4544000000.0 0.9473 0.7235
4547000000.0 1.169 -0.2721
4550000000.0 0.5457 -1.071
4553000000.0 -0.4857 -1.119
4556000000.0 -1.191 -0.34
4559000000.0 -1.056 0.6392
4562000000.0 -0.1566 1.236
4566000000.0 0.8554 0.8723
4569000000.0 1.264 -0.06907
4572000000.0 0.7438 -1.035
4575000000.0 -0.2909 -1.242
4578000000.0 -1.167 -0.5789
4581000000.0 -1.206 0.5206
4584000000.0 -0.384 1.261
4588000000.0 0.7473 1.111
4591000000.0 1.354 0.1334
4594000000.0 0.9603 -0.9946
4597000000.0 -0.1331 -1.365
4600000000.0 -1.166 -0.7555
4603000000.0 -1.311 0.3872
4606000000.0 -0.5266 1.293
4609000000.0 0.6236 1.205
4612000000.0 1.368 0.276
4616000000.0 1.036 -0.8887
4619000000.0 -0.002562 -1.382
4622000000.0 -1.088 -0.8622
4625000000.0 -1.378 0.2993
4628000000.0 -0.6141 1.218
4631000000.0 0.5766 1.253
4634000000.0 1.313 0.3739
4638000000.0 1.101 -0.7787
4641000000.0 0.06635 -1.345
4644000000.0 -1.008 -0.8854
4647000000.0 -1.296 0.2261
4650000000.0 -0.6278 1.161
4653000000.0 0.5102 1.214
4656000000.0 1.248 0.3478
4659000000.0 1.022 -0.7666
4662000000.0 0.04926 -1.287
4666000000.0 -0.941 -0.7933
4669000000.0 -1.187 0.2048
4672000000.0 -0.5371 1.054
4675000000.0 0.4865 1.052
4678000000.0 1.127 0.2662
4681000000.0 0.923 -0.666
4684000000.0 0.03623 -1.138
4688000000.0 -0.8441 -0.6962
4691000000.0 -1.068 0.2021
4694000000.0 -0.5305 0.976
4697000000.0 0.451 1.011
4700000000.0 1.071 0.2608
4703000000.0 0.8373 -0.661
4706000000.0 -0.01128 -1.113
4709000000.0 -0.8434 -0.6956
4712000000.0 -1.064 0.2143
4716000000.0 -0.4749 0.9786
4719000000.0 0.4623 0.9708
4722000000.0 1.06 0.2476
4725000000.0 0.8205 -0.64
4728000000.0 0.004809 -1.04
4731000000.0 -0.7917 -0.6793
4734000000.0 -0.985 0.1906
4738000000.0 -0.4954 0.9318
4741000000.0 0.3866 0.9523
4744000000.0 0.9914 0.3187
4747000000.0 0.9025 -0.5701
4750000000.0 0.1523 -1.072
4753000000.0 -0.7678 -0.7861
4756000000.0 -1.063 0.04841
4759000000.0 -0.6512 0.9006
4762000000.0 0.2791 1.094
4766000000.0 1.023 0.5019
4769000000.0 0.9959 -0.4554
4772000000.0 0.3249 -1.094
4775000000.0 -0.6377 -0.971
4778000000.0 -1.17 -0.1272
4781000000.0 -0.8225 0.8269
4784000000.0 0.113 1.188
4788000000.0 0.9713 0.676
4791000000.0 1.159 -0.2939
4794000000.0 0.5394 -1.093
4797000000.0 -0.4831 -1.127
4800000000.0 -1.195 -0.3361
4803000000.0 -1.03 0.6425
4806000000.0 -0.1648 1.243
4809000000.0 0.8197 0.9294
4812000000.0 1.287 -0.05927
4816000000.0 0.7768 -1.046
4819000000.0 -0.2774 -1.28
4822000000.0 -1.194 -0.5778
4825000000.0 -1.24 0.5485
4828000000.0 -0.36 1.318
4831000000.0 0.7776 1.089
4834000000.0 1.379 0.125
4838000000.0 0.9526 -1.001
4841000000.0 -0.1609 -1.369
4844000000.0 -1.151 -0.7448
4847000000.0 -1.312 0.4268
4850000000.0 -0.488 1.277
4853000000.0 0.6789 1.19
4856000000.0 1.348 0.224
4859000000.0 1.011 -0.9109
4862000000.0 -0.05478 -1.355
4866000000.0 -1.047 -0.7968
4869000000.0 -1.297 0.3104
4872000000.0 -0.5654 1.191
4875000000.0 0.6048 1.147
4878000000.0 1.263 0.3019
4881000000.0 0.9937 -0.7997
4884000000.0 0.01426 -1.227
4888000000.0 -0.9462 -0.7962
4891000000.0 -1.169 0.2445
4894000000.0 -0.5478 1.039
4897000000.0 0.4596 1.058
4900000000.0 1.101 0.2974
4903000000.0 0.8855 -0.6553
4906000000.0 0.04718 -1.073
4909000000.0 -0.781 -0.7051
4912000000.0 -1.028 0.1716
4916000000.0 -0.5144 0.889
4919000000.0 0.3267 0.9124
4922000000.0 0.9537 0.3119
4925000000.0 0.8148 -0.4849
4928000000.0 0.124 -0.9361
4931000000.0 -0.6618 -0.6749
4934000000.0 -0.9514 0.08857
4938000000.0 -0.5437 0.7749
4941000000.0 0.2433 0.8912
4944000000.0 0.8745 0.3801
4947000000.0 0.8725 -0.4032
4950000000.0 0.196 -0.9366
4953000000.0 -0.6005 -0.7403
4956000000.0 -0.9812 -0.03371
4959000000.0 -0.6389 0.7333
4962000000.0 0.2054 0.948
4966000000.0 0.8446 0.4486
4969000000.0 0.9215 -0.3711
4972000000.0 0.3003 -0.964
4975000000.0 -0.5407 -0.8226
4978000000.0 -0.9737 -0.1114
4981000000.0 -0.7283 0.7244
4984000000.0 0.08834 1.019
4988000000.0 0.8574 0.6138
4991000000.0 1.037 -0.2588
4994000000.0 0.4605 -1.009
4997000000.0 -0.476 -0.9989
5000000000.0 -1.091 -0.2766
5003000000.0 -0.9087 0.6794
5006000000.0 -0.07773 1.155
5009000000.0 0.8652 0.7842
5012000000.0 1.199 -0.1809
5016000000.0 0.6617 -1.053
5019000000.0 -0.4042 -1.181
5022000000.0 -1.168 -0.4333
5025000000.0 -1.07 0.6398
5028000000.0 -0.1922 1.254
5031000000.0 0.8138 0.9797
5034000000.0 1.261 -0.02714
5038000000.0 0.7955 -1.005
5041000000.0 -0.2631 -1.257
5044000000.0 -1.127 -0.6298
5047000000.0 -1.203 0.4722
5050000000.0 -0.4029 1.196
5053000000.0 0.682 1.092
5056000000.0 1.258 0.1503
5059000000.0 0.969 -0.8623
5062000000.0 -0.0404 -1.28
5066000000.0 -1.034 -0.7803
5069000000.0 -1.258 0.2886
5072000000.0 -0.6172 1.134
5075000000.0 0.5043 1.158
5078000000.0 1.203 0.368
5081000000.0 1.03 -0.708
5084000000.0 0.07089 -1.229
5088000000.0 -0.8502 -0.8856
5091000000.0 -1.192 0.06996
5094000000.0 -0.6927 0.9963
5097000000.0 0.2953 1.124
5100000000.0 1.026 0.4826
5103000000.0 1.006 -0.5158
5106000000.0 0.2845 -1.059
5109000000.0 -0.6438 -0.9094
5112000000.0 -1.05 -0.104
5116000000.0 -0.768 0.7465
5119000000.0 0.08304 1.042
5122000000.0 0.8534 0.5911
5125000000.0 0.99 -0.2485
5128000000.0 0.3936 -0.9053
5131000000.0 -0.4612 -0.892
5134000000.0 -0.9768 -0.2126
5138000000.0 -0.7499 0.5831
5141000000.0 -0.02524 0.952
5144000000.0 0.7296 0.6163
5147000000.0 0.931 -0.139
5150000000.0 0.4611 -0.8294
5153000000.0 -0.3416 -0.8642
5156000000.0 -0.8512 -0.3021
5159000000.0 -0.7886 0.4496
5162000000.0 -0.1013 0.8986
5166000000.0 0.6071 0.6132
5169000000.0 0.8958 -0.06994
5172000000.0 0.5242 -0.7583
5175000000.0 -0.2437 -0.8577
5178000000.0 -0.8381 -0.3523
5181000000.0 -0.7966 0.4329
5184000000.0 -0.1563 0.8884
5188000000.0 0.6094 0.7135
5191000000.0 0.9351 -0.03074
5194000000.0 0.5255 -0.7327
5197000000.0 -0.2446 -0.8936
5200000000.0 -0.8629 -0.3835
5203000000.0 -0.8138 0.4666
5206000000.0 -0.1741 0.926
5209000000.0 0.6093 0.7126
5212000000.0 0.9516 -0.02279
5216000000.0 0.5962 -0.7693
5219000000.0 -0.2431 -0.9345
5222000000.0 -0.8934 -0.4156
5225000000.0 -0.885 0.4513
5228000000.0 -0.2365 0.9705
5231000000.0 0.6276 0.8364
5234000000.0 1.029 0.02758
5238000000.0 0.6908 -0.753
5241000000.0 -0.1539 -1.03
5244000000.0 -0.9095 -0.5298
5247000000.0 -1.001 0.348
5250000000.0 -0.3619 0.9982
5253000000.0 0.5142 0.9158
5256000000.0 1.068 0.1782
5259000000.0 0.8157 -0.689
5262000000.0 -0.01298 -1.073
5266000000.0 -0.8226 -0.7069
5269000000.0 -1.056 0.2039
5272000000.0 -0.5309 0.9287
5275000000.0 0.373 1.011
5278000000.0 1.024 0.3562
5281000000.0 0.9427 -0.5619
5284000000.0 0.2064 -1.066
5288000000.0 -0.6675 -0.8585
5291000000.0 -1.111 -0.044
5294000000.0 -0.7483 0.8355
5297000000.0 0.1529 1.083
5300000000.0 0.9551 0.6197
5303000000.0 1.066 -0.3278
5306000000.0 0.451 -1.035
5309000000.0 -0.4911 -1.027
5312000000.0 -1.128 -0.2844
5316000000.0 -0.9228 0.6528
5319000000.0 -0.07512 1.107
5322000000.0 0.8468 0.8141
5325000000.0 1.144 -0.1485
5328000000.0 0.629 -0.925
5331000000.0 -0.3236 -1.084
5334000000.0 -1.042 -0.4415
5338000000.0 -0.9909 0.4936
5341000000.0 -0.2247 1.112
5344000000.0 0.7111 0.8872
5347000000.0 1.094 0.01338
5350000000.0 0.7209 -0.8311
5353000000.0 -0.1927 -1.085
5356000000.0 -0.9144 -0.5372
5359000000.0 -0.9924 0.4326
5362000000.0 -0.3077 1.014
5366000000.0 0.6277 0.8749
5369000000.0 1.047 0.1177
5372000000.0 0.7238 -0.7605
5375000000.0 -0.1492 -1.043
5378000000.0 -0.8643 -0.5274
5381000000.0 -0.932 0.3442
5384000000.0 -0.2849 0.9404
5388000000.0 0.556 0.8444
5391000000.0 0.9742 0.1218
5394000000.0 0.6441 -0.6888
5397000000.0 -0.1383 -0.9187
5400000000.0 -0.8028 -0.4392
5403000000.0 -0.8643 0.348
5406000000.0 -0.2683 0.84
5409000000.0 0.5391 0.7036
5412000000.0 0.8765 0.04089
5416000000.0 0.6021 -0.643
5419000000.0 -0.1369 -0.8515
5422000000.0 -0.757 -0.4371
5425000000.0 -0.8 0.3377
5428000000.0 -0.2391 0.8147
5431000000.0 0.5171 0.7133
5434000000.0 0.8744 0.02175
5438000000.0 0.607 -0.6697
5441000000.0 -0.1367 -0.8628
5444000000.0 -0.7547 -0.428
5447000000.0 -0.8216 0.3567
5450000000.0 -0.2702 0.8533
5453000000.0 0.5038 0.7119
5456000000.0 0.8959 0.08267
5459000000.0 0.6453 -0.6191
5462000000.0 -0.1088 -0.8779
5466000000.0 -0.7808 -0.4991
5469000000.0 -0.8641 0.2767
5472000000.0 -0.3377 0.8178
5475000000.0 0.4338 0.8152
5478000000.0 0.9252 0.1763
5481000000.0 0.7499 -0.5831
5484000000.0 0.02987 -0.9308
5488000000.0 -0.7441 -0.6397
5491000000.0 -0.9905 0.1168
5494000000.0 -0.5077 0.8163
5497000000.0 0.3227 0.9464
5500000000.0 0.9166 0.3824
5503000000.0 0.8736 -0.5066
5506000000.0 0.2053 -1.016
5509000000.0 -0.6298 -0.7933
5512000000.0 -1.032 -0.0399
5516000000.0 -0.6936 0.7575
5519000000.0 0.145 1.034
5522000000.0 0.837 0.5508
5525000000.0 0.9857 -0.3161
5528000000.0 0.4011 -0.9851
5531000000.0 -0.4667 -0.9479
5534000000.0 -1.031 -0.2471
5538000000.0 -0.836 0.643
5541000000.0 -0.0395 1.038
5544000000.0 0.7739 0.7416
5547000000.0 1.051 -0.1008
5550000000.0 0.5885 -0.8883
5553000000.0 -0.3021 -1.001
5556000000.0 -0.9864 -0.4075
5559000000.0 -0.9356 0.5178
5562000000.0 -0.2138 1.04
5566000000.0 0.626 0.8095
5569000000.0 1.075 -0.01224
5572000000.0 0.6626 -0.7725
5575000000.0 -0.1965 -1.008
5578000000.0 -0.8803 -0.5275
5581000000.0 -0.9279 0.3691
5584000000.0 -0.2966 0.9314
5588000000.0 0.5131 0.8549
5591000000.0 0.9591 0.1268
5594000000.0 0.7061 -0.623
5597000000.0 -0.06879 -0.8947
5600000000.0 -0.7373 -0.5425
5603000000.0 -0.8715 0.2394
5606000000.0 -0.3845 0.7986
5609000000.0 0.3968 0.8099
5612000000.0 0.8277 0.2061
5616000000.0 0.7035 -0.5541
5619000000.0 0.001449 -0.8406
5622000000.0 -0.6483 -0.5624
5625000000.0 -0.8311 0.1766
5628000000.0 -0.3951 0.7368
5631000000.0 0.3287 0.768
5634000000.0 0.8265 0.2035
5638000000.0 0.6669 -0.4844
5641000000.0 0.04247 -0.8167
5644000000.0 -0.6159 -0.5439
5647000000.0 -0.8231 0.1602
5650000000.0 -0.3989 0.7189
5653000000.0 0.3388 0.7921
5656000000.0 0.822 0.2313
5659000000.0 0.6866 -0.4945
5662000000.0 0.03469 -0.8519
5666000000.0 -0.645 -0.5789
5669000000.0 -0.8562 0.1362
5672000000.0 -0.4186 0.7535
5675000000.0 0.3413 0.8193
5678000000.0 0.8627 0.2502
5681000000.0 0.7503 -0.549
5684000000.0 0.05975 -0.9211
5688000000.0 -0.6852 -0.6274
5691000000.0 -0.9426 0.1554
5694000000.0 -0.4725 0.8049
5697000000.0 0.3398 0.9349
5700000000.0 0.8978 0.3273
5703000000.0 0.8386 -0.5312
5706000000.0 0.09683 -0.9952
5709000000.0 -0.6962 -0.7233
5712000000.0 -1.025 0.07658
5716000000.0 -0.6027 0.8723
5719000000.0 0.2923 1.012
5722000000.0 0.9361 0.4523
5725000000.0 0.9809 -0.4641
5728000000.0 0.275 -1.037
5731000000.0 -0.6668 -0.8577
5734000000.0 -1.088 -0.07339
5738000000.0 -0.7519 0.7816
5741000000.0 0.145 1.085
5744000000.0 0.9326 0.6042
5747000000.0 1.07 -0.3301
5750000000.0 0.4292 -1.025
5753000000.0 -0.505 -0.9545
5756000000.0 -1.11 -0.2474
5759000000.0 -0.8593 0.675
5762000000.0 -0.01166 1.109
5766000000.0 0.8191 0.7646
5769000000.0 1.111 -0.165
5772000000.0 0.5784 -0.9278
5775000000.0 -0.3562 -1.045
5778000000.0 -1.017 -0.3953
5781000000.0 -0.968 0.553
5784000000.0 -0.2153 1.087
5788000000.0 0.667 0.8573
5791000000.0 1.073 0.02623
5794000000.0 0.6934 -0.8068
5797000000.0 -0.1664 -1.043
5800000000.0 -0.9346 -0.5442
5803000000.0 -1.004 0.3818
5806000000.0 -0.3477 1.022
5809000000.0 0.5856 0.9006
5812000000.0 1.033 0.145
5816000000.0 0.757 -0.7282
5819000000.0 -0.05986 -1.045
5822000000.0 -0.8207 -0.6013
5825000000.0 -0.9725 0.2568
5828000000.0 -0.4117 0.9066
5831000000.0 0.4089 0.8748
5834000000.0 0.9262 0.229
5838000000.0 0.8003 -0.5989
5841000000.0 0.01151 -0.9625
5844000000.0 -0.7257 -0.6357
5847000000.0 -0.9159 0.1815
5850000000.0 -0.4267 0.7977
5853000000.0 0.3819 0.8604
5856000000.0 0.8852 0.2442
5859000000.0 0.7262 -0.5754
5862000000.0 0.06713 -0.9264
5866000000.0 -0.7088 -0.6263
5869000000.0 -0.9092 0.1551
5872000000.0 -0.4313 0.7966
5875000000.0 0.3607 0.8222
5878000000.0 0.8799 0.2545
5881000000.0 0.716 -0.5253
5884000000.0 0.07191 -0.8612
5888000000.0 -0.6341 -0.5829
5891000000.0 -0.8795 0.122
5894000000.0 -0.4574 0.7345
5897000000.0 0.2888 0.8126
5900000000.0 0.8105 0.3072
5903000000.0 0.7255 -0.4186
5906000000.0 0.1051 -0.8843
5909000000.0 -0.5621 -0.639
5912000000.0 -0.8641 0.03129
5916000000.0 -0.5126 0.7135
5919000000.0 0.2412 0.8462
5922000000.0 0.7879 0.3637
5925000000.0 0.7262 -0.3422
5928000000.0 0.1964 -0.8712
5931000000.0 -0.5477 -0.7347
5934000000.0 -0.8815 -0.02601
5938000000.0 -0.604 0.6391
5941000000.0 0.1293 0.9043
5944000000.0 0.7583 0.465
5947000000.0 0.8527 -0.2624
5950000000.0 0.3277 -0.8378
5953000000.0 -0.4392 -0.8069
5956000000.0 -0.8943 -0.1777
5959000000.0 -0.7195 0.5699
5962000000.0 -0.03116 0.9203
5966000000.0 0.7281 0.6385
5969000000.0 0.9175 -0.1657
5972000000.0 0.4871 -0.7998
5975000000.0 -0.3144 -0.8933
5978000000.0 -0.9429 -0.3575
5981000000.0 -0.8338 0.4921
5984000000.0 -0.2048 0.9491
5988000000.0 0.6125 0.7501
5991000000.0 1.005 -0.002266
5994000000.0 0.6532 -0.8017
5997000000.0 -0.1731 -0.9851
6000000000.0 -0.883 -0.4718
6003000000.0 -0.9131 0.3718
6006000000.0 -0.3218 0.941
6009000000.0 0.564 0.8507
6012000000.0 0.9856 0.1245
6016000000.0 0.7199 -0.6816
6019000000.0 -0.07966 -0.9926
6022000000.0 -0.8196 -0.5714
6025000000.0 -0.9352 0.2677
6028000000.0 -0.3794 0.8838
6031000000.0 0.4423 0.8671
6034000000.0 0.9417 0.1975
6038000000.0 0.7523 -0.5775
6041000000.0 0.008975 -0.9644
6044000000.0 -0.7152 -0.6206
6047000000.0 -0.9527 0.1811
6050000000.0 -0.454 0.8493
6053000000.0 0.3909 0.8771
6056000000.0 0.8895 0.2461
6059000000.0 0.7506 -0.5432
6062000000.0 0.04766 -0.9109
6066000000.0 -0.6701 -0.6199
6069000000.0 -0.8844 0.1204
6072000000.0 -0.4497 0.7465
6075000000.0 0.3287 0.8291
6078000000.0 0.8313 0.2688
6081000000.0 0.7445 -0.4859
6084000000.0 0.08666 -0.8584
6088000000.0 -0.5978 -0.6232
6091000000.0 -0.8332 0.06989
6094000000.0 -0.4744 0.7229
6097000000.0 0.2316 0.8301
6100000000.0 0.7961 0.3255
6103000000.0 0.7585 -0.4324
6106000000.0 0.1109 -0.8511
6109000000.0 -0.5665 -0.6185
6112000000.0 -0.8358 0.0318
6116000000.0 -0.5268 0.707
6119000000.0 0.239 0.8231
6122000000.0 0.7948 0.3744
6125000000.0 0.7777 -0.3999
6128000000.0 0.18 -0.8852
6131000000.0 -0.5736 -0.6691
6134000000.0 -0.8799 0.0373
6138000000.0 -0.5241 0.6777
6141000000.0 0.2013 0.8437
6144000000.0 0.7812 0.4154
6147000000.0 0.8138 -0.3406
6150000000.0 0.2572 -0.8642
6153000000.0 -0.5152 -0.7298
6156000000.0 -0.9148 -0.04715
6159000000.0 -0.6209 0.6735
6162000000.0 0.09569 0.9112
6166000000.0 0.7926 0.508
6169000000.0 0.8668 -0.3212
6172000000.0 0.312 -0.8904
6175000000.0 -0.492 -0.8137
6178000000.0 -0.8945 -0.1393
6181000000.0 -0.7385 0.6247
6184000000.0 0.0526 0.9645
6188000000.0 0.7796 0.597
6191000000.0 0.9295 -0.2404
6194000000.0 0.4289 -0.881
6197000000.0 -0.406 -0.8305
6200000000.0 -0.9278 -0.2332
6203000000.0 -0.7416 0.5567
6206000000.0 -0.04226 0.9457
6209000000.0 0.6773 0.6001
6212000000.0 0.8895 -0.1185
6216000000.0 0.4815 -0.8012
6219000000.0 -0.2525 -0.8571
6222000000.0 -0.8254 -0.3206
6225000000.0 -0.8029 0.4261
6228000000.0 -0.1567 0.8762
6231000000.0 0.5983 0.6879
6234000000.0 0.8908 -0.03768
6238000000.0 0.5435 -0.7077
6241000000.0 -0.1511 -0.8382
6244000000.0 -0.7731 -0.4197
6247000000.0 -0.8036 0.2753
6250000000.0 -0.2718 0.8288
6253000000.0 0.4528 0.6917
6256000000.0 0.8153 0.1208
6259000000.0 0.6113 -0.5386
6262000000.0 -0.05298 -0.8256
6266000000.0 -0.6279 -0.5148
