! Created with skrf 1.8.0 (http://scikit-rf.org).
# Hz S RI R 50.0 
!freq ReS11 ImS11
4000000000.0 -0.2444 -1.477
4003000000.0 -1.273 -0.7653
4006000000.0 -1.363 0.5584
4009000000.0 -0.4431 1.447
4012000000.0 0.8204 1.241
4016000000.0 1.549 0.1771
4019000000.0 1.06 -1.105
4022000000.0 -0.1994 -1.589
4025000000.0 -1.338 -0.8198
4028000000.0 -1.484 0.5214
4031000000.0 -0.5254 1.519
4034000000.0 0.8293 1.353
4038000000.0 1.607 0.1741
4041000000.0 1.157 -1.151
4044000000.0 -0.152 -1.612
4047000000.0 -1.333 -0.8677
4050000000.0 -1.531 0.4991
4053000000.0 -0.595 1.542
4056000000.0 0.8163 1.407
4059000000.0 1.573 0.2271
4062000000.0 1.24 -1.035
4066000000.0 0.000873 -1.596
4069000000.0 -1.264 -0.9566
4072000000.0 -1.571 0.3154
4075000000.0 -0.7909 1.404
4078000000.0 0.6528 1.493
4081000000.0 1.557 0.5022
4084000000.0 1.394 -0.8945
4088000000.0 0.1958 -1.631
4091000000.0 -1.081 -1.215
4094000000.0 -1.667 0.1428
4097000000.0 -0.9376 1.324
4100000000.0 0.4108 1.559
4103000000.0 1.446 0.6602
4106000000.0 1.408 -0.6889
4109000000.0 0.4092 -1.502
4112000000.0 -0.8972 -1.249
4116000000.0 -1.476 -0.1452
4119000000.0 -1.077 1.038
4122000000.0 0.0778 1.471
4125000000.0 1.174 0.9182
4128000000.0 1.413 -0.285
4131000000.0 0.7505 -1.265
4134000000.0 -0.4677 -1.419
4138000000.0 -1.373 -0.551
4141000000.0 -1.336 0.6917
4144000000.0 -0.3333 1.473
4147000000.0 0.8906 1.187
4150000000.0 1.489 0.0854
4153000000.0 1.013 -1.111
4156000000.0 -0.1573 -1.499
4159000000.0 -1.255 -0.8313
4162000000.0 -1.444 0.4276
4166000000.0 -0.5944 1.399
4169000000.0 0.6888 1.359
4172000000.0 1.471 0.3826
4175000000.0 1.217 -0.8789
4178000000.0 0.1258 -1.474
4181000000.0 -1.104 -1.027
4184000000.0 -1.519 0.1494
4188000000.0 -0.8505 1.255
4191000000.0 0.4338 1.436
4194000000.0 1.422 0.6172
4197000000.0 1.35 -0.7627
4200000000.0 0.3218 -1.538
4203000000.0 -1.052 -1.222
4206000000.0 -1.589 0.06763
4209000000.0 -0.982 1.291
4212000000.0 0.464 1.575
4216000000.0 1.529 0.6121
4219000000.0 1.422 -0.8373
4222000000.0 0.2023 -1.655
4225000000.0 -1.176 -1.19
4228000000.0 -1.652 0.2278
4231000000.0 -0.8306 1.461
4234000000.0 0.6862 1.493
4238000000.0 1.567 0.419
4241000000.0 1.218 -1.036
4244000000.0 -0.02584 -1.564
4247000000.0 -1.275 -0.9133
4250000000.0 -1.5 0.4642
4253000000.0 -0.5742 1.458
4256000000.0 0.7882 1.319
4259000000.0 1.463 0.2026
4262000000.0 1.037 -1.077
4266000000.0 -0.16 -1.441
4269000000.0 -1.276 -0.7064
4272000000.0 -1.359 0.5147
4275000000.0 -0.3979 1.385
4278000000.0 0.8016 1.182
4281000000.0 1.409 0.07768
4284000000.0 0.8778 -1.068
4288000000.0 -0.2399 -1.352
4291000000.0 -1.193 -0.6719
4294000000.0 -1.247 0.4778
4297000000.0 -0.3818 1.265
4300000000.0 0.7221 1.093
4303000000.0 1.271 0.1495
4306000000.0 0.9552 -0.8791
4309000000.0 -0.05876 -1.275
4312000000.0 -0.9963 -0.7837
4316000000.0 -1.238 0.294
4319000000.0 -0.6038 1.114
4322000000.0 0.4416 1.187
4325000000.0 1.239 0.3994
4328000000.0 1.097 -0.7246
4331000000.0 0.1898 -1.341
4334000000.0 -0.8896 -0.9936
4338000000.0 -1.377 0.02279
4341000000.0 -0.8636 1.087
4344000000.0 0.3016 1.379
4347000000.0 1.266 0.647
4350000000.0 1.313 -0.5746
4353000000.0 0.4393 -1.394
4356000000.0 -0.7967 -1.17
4359000000.0 -1.441 -0.1327
4362000000.0 -1.049 1.017
4366000000.0 0.1436 1.418
4369000000.0 1.209 0.8232
4372000000.0 1.405 -0.4277
4375000000.0 0.5999 -1.355
4378000000.0 -0.6578 -1.328
4381000000.0 -1.498 -0.3531
4384000000.0 -1.192 0.9586
4388000000.0 -0.01677 1.538
4391000000.0 1.177 0.9967
4394000000.0 1.505 -0.3115
4397000000.0 0.7007 -1.431
4400000000.0 -0.6499 -1.459
4403000000.0 -1.549 -0.3805
4406000000.0 -1.239 0.9612
4409000000.0 -0.0295 1.523
4412000000.0 1.185 0.9654
4416000000.0 1.468 -0.3323
4419000000.0 0.6197 -1.398
4422000000.0 -0.6794 -1.303
4425000000.0 -1.451 -0.2294
4428000000.0 -1.09 0.957
4431000000.0 0.07798 1.421
4434000000.0 1.155 0.8136
4438000000.0 1.326 -0.4133
4441000000.0 0.4875 -1.289
4444000000.0 -0.747 -1.133
4447000000.0 -1.334 -0.125
4450000000.0 -0.9023 0.9583
4453000000.0 0.1789 1.262
4456000000.0 1.119 0.6373
4459000000.0 1.177 -0.5144
4462000000.0 0.2649 -1.237
4466000000.0 -0.7631 -0.9863
4469000000.0 -1.202 -0.009688
4472000000.0 -0.7252 0.9484
4475000000.0 0.286 1.16
4478000000.0 1.067 0.479
4481000000.0 1.023 -0.5777
4484000000.0 0.1756 -1.099
4488000000.0 -0.7471 -0.837
4491000000.0 -1.128 0.06278
4494000000.0 -0.6376 0.9472
4497000000.0 0.3076 1.071
4500000000.0 1.029 0.4197
4503000000.0 0.9685 -0.5384
4506000000.0 0.1813 -1.091
4509000000.0 -0.6994 -0.8328
4512000000.0 -1.127 0.005407
4516000000.0 -0.6787 0.8657
4519000000.0 0.2252 1.071
4522000000.0 1.036 0.5289
4525000000.0 1.064 -0.4239
4528000000.0 0.3123 -1.116
4531000000.0 -0.6923 -0.9587
4534000000.0 -1.144 -0.09422
4538000000.0 -0.8127 0.8556
4541000000.0 0.1244 1.176
4544000000.0 1.014 0.6607
4547000000.0 1.162 -0.3281
4550000000.0 0.437 -1.113
4553000000.0 -0.5644 -1.106
4556000000.0 -1.207 -0.2499
4559000000.0 -0.9819 0.778
4562000000.0 -0.02977 1.256
4566000000.0 0.9283 0.8752
4569000000.0 1.247 -0.1681
4572000000.0 0.6989 -1.094
4575000000.0 -0.3865 -1.251
4578000000.0 -1.229 -0.5099
4581000000.0 -1.186 0.636
4584000000.0 -0.2827 1.323
4588000000.0 0.8381 1.044
4591000000.0 1.351 0.02442
4594000000.0 0.9113 -1.057
4597000000.0 -0.2368 -1.385
4600000000.0 -1.219 -0.6872
4603000000.0 -1.337 0.4914
4606000000.0 -0.4374 1.336
4609000000.0 0.753 1.151
4612000000.0 1.384 0.15
4616000000.0 0.9959 -0.9955
4619000000.0 -0.1247 -1.367
4622000000.0 -1.151 -0.7696
4625000000.0 -1.295 0.413
4628000000.0 -0.5177 1.245
4631000000.0 0.6536 1.216
4634000000.0 1.335 0.2374
4638000000.0 1.037 -0.8602
4641000000.0 -0.05328 -1.364
4644000000.0 -1.082 -0.7973
4647000000.0 -1.267 0.3509
4650000000.0 -0.4708 1.172
4653000000.0 0.6089 1.116
4656000000.0 1.25 0.2133
4659000000.0 0.9532 -0.8495
4662000000.0 -0.06128 -1.222
4666000000.0 -0.9929 -0.676
4669000000.0 -1.133 0.3582
4672000000.0 -0.3957 1.12
4675000000.0 0.5745 1.004
4678000000.0 1.104 0.153
4681000000.0 0.79 -0.7843
4684000000.0 -0.04785 -1.094
4688000000.0 -0.9115 -0.6588
4691000000.0 -1.056 0.3372
4694000000.0 -0.4108 1.026
4697000000.0 0.5389 0.9464
4700000000.0 1.081 0.1716
4703000000.0 0.7927 -0.7553
4706000000.0 -0.1046 -1.035
4709000000.0 -0.8535 -0.5855
4712000000.0 -1.031 0.2991
4716000000.0 -0.3778 0.9727
4719000000.0 0.5535 0.9059
4722000000.0 1.017 0.1286
4725000000.0 0.7704 -0.7357
4728000000.0 -0.07782 -1.065
4731000000.0 -0.8358 -0.5949
4734000000.0 -1.004 0.2804
4738000000.0 -0.4376 0.982
4741000000.0 0.4555 0.95
4744000000.0 1.043 0.2306
4747000000.0 0.8141 -0.651
4750000000.0 0.05003 -1.067
4753000000.0 -0.7873 -0.7668
4756000000.0 -1.113 0.1544
4759000000.0 -0.6067 0.9513
4762000000.0 0.3231 1.049
4766000000.0 1.041 0.4368
4769000000.0 1.022 -0.5428
4772000000.0 0.2495 -1.123
4775000000.0 -0.7354 -0.9254
4778000000.0 -1.191 -0.05946
4781000000.0 -0.7866 0.8759
4784000000.0 0.1937 1.184
4788000000.0 1.04 0.6516
4791000000.0 1.185 -0.3979
4794000000.0 0.4653 -1.172
4797000000.0 -0.5772 -1.125
4800000000.0 -1.233 -0.2738
4803000000.0 -0.9897 0.7498
4806000000.0 -0.07052 1.266
4809000000.0 0.9269 0.8632
4812000000.0 1.281 -0.1331
4816000000.0 0.7297 -1.091
4819000000.0 -0.3825 -1.294
4822000000.0 -1.236 -0.5024
4825000000.0 -1.215 0.6525
4828000000.0 -0.2612 1.341
4831000000.0 0.8842 1.073
4834000000.0 1.384 0.01019
4838000000.0 0.8863 -1.091
4841000000.0 -0.2663 -1.349
4844000000.0 -1.224 -0.6614
4847000000.0 -1.297 0.5212
4850000000.0 -0.4115 1.318
4853000000.0 0.7591 1.13
4856000000.0 1.356 0.1077
4859000000.0 0.937 -0.9675
4862000000.0 -0.1697 -1.322
4866000000.0 -1.116 -0.699
4869000000.0 -1.271 0.3728
4872000000.0 -0.4528 1.233
4875000000.0 0.6182 1.098
4878000000.0 1.25 0.1879
4881000000.0 0.9443 -0.8414
4884000000.0 -0.07859 -1.24
4888000000.0 -0.9998 -0.7028
4891000000.0 -1.134 0.3122
4894000000.0 -0.4478 1.086
4897000000.0 0.5517 1.013
4900000000.0 1.109 0.1891
4903000000.0 0.8461 -0.7206
4906000000.0 -0.02605 -1.069
4909000000.0 -0.8329 -0.6255
4912000000.0 -1.013 0.2371
4916000000.0 -0.4518 0.9209
4919000000.0 0.4378 0.9205
4922000000.0 0.9357 0.2581
4925000000.0 0.7734 -0.5738
4928000000.0 0.04307 -0.9573
4931000000.0 -0.6836 -0.6382
4934000000.0 -0.9254 0.1334
4938000000.0 -0.4919 0.8023
4941000000.0 0.3301 0.8943
4944000000.0 0.8566 0.3156
4947000000.0 0.8411 -0.4814
4950000000.0 0.1609 -0.9371
4953000000.0 -0.6416 -0.706
4956000000.0 -0.9798 0.06068
4959000000.0 -0.5776 0.8032
4962000000.0 0.2543 0.9029
4966000000.0 0.9137 0.406
4969000000.0 0.8862 -0.4545
4972000000.0 0.2222 -0.9758
4975000000.0 -0.6244 -0.7875
4978000000.0 -1.034 -0.0432
4981000000.0 -0.6748 0.7658
4984000000.0 0.145 1.03
4988000000.0 0.8985 0.5287
4991000000.0 1.03 -0.3622
4994000000.0 0.3588 -1.013
4997000000.0 -0.5411 -0.9815
5000000000.0 -1.132 -0.1817
5003000000.0 -0.8726 0.759
5006000000.0 0.01371 1.183
5009000000.0 0.9332 0.7455
5012000000.0 1.199 -0.2521
5016000000.0 0.5717 -1.074
5019000000.0 -0.4942 -1.133
5022000000.0 -1.207 -0.3572
5025000000.0 -1.083 0.7052
5028000000.0 -0.1169 1.288
5031000000.0 0.9006 0.8921
5034000000.0 1.274 -0.1429
5038000000.0 0.7628 -1.081
5041000000.0 -0.3436 -1.25
5044000000.0 -1.189 -0.5184
5047000000.0 -1.173 0.5635
5050000000.0 -0.3353 1.251
5053000000.0 0.7799 1.031
5056000000.0 1.311 0.1037
5059000000.0 0.8948 -0.9109
5062000000.0 -0.1544 -1.293
5066000000.0 -1.091 -0.7091
5069000000.0 -1.266 0.3996
5072000000.0 -0.5036 1.174
5075000000.0 0.6162 1.138
5078000000.0 1.246 0.2689
5081000000.0 1.015 -0.8063
5084000000.0 0.05387 -1.264
5088000000.0 -0.926 -0.8046
5091000000.0 -1.167 0.1897
5094000000.0 -0.5978 1.01
5097000000.0 0.3905 1.059
5100000000.0 1.048 0.3921
5103000000.0 0.9806 -0.5229
5106000000.0 0.2151 -1.101
5109000000.0 -0.6798 -0.834
5112000000.0 -1.053 -0.008677
5116000000.0 -0.69 0.7965
5119000000.0 0.1678 1.03
5122000000.0 0.8933 0.505
5125000000.0 0.9288 -0.3511
5128000000.0 0.3329 -0.9367
5131000000.0 -0.5091 -0.8759
5134000000.0 -0.9672 -0.168
5138000000.0 -0.7287 0.6574
5141000000.0 0.06816 0.9603
5144000000.0 0.7712 0.5619
5147000000.0 0.8945 -0.2291
5150000000.0 0.3954 -0.816
5153000000.0 -0.4178 -0.8272
5156000000.0 -0.8826 -0.1804
5159000000.0 -0.7278 0.532
5162000000.0 -0.05235 0.8941
5166000000.0 0.6993 0.572
5169000000.0 0.8715 -0.1659
5172000000.0 0.4555 -0.7831
5175000000.0 -0.348 -0.8503
5178000000.0 -0.8703 -0.2562
5181000000.0 -0.7262 0.5173
5184000000.0 -0.04123 0.9088
5188000000.0 0.6945 0.6053
5191000000.0 0.9196 -0.1356
5194000000.0 0.4339 -0.7986
5197000000.0 -0.3325 -0.8317
5200000000.0 -0.9184 -0.2869
5203000000.0 -0.8025 0.5362
5206000000.0 -0.05442 0.9696
5209000000.0 0.7175 0.6741
5212000000.0 0.961 -0.1295
5216000000.0 0.5236 -0.8008
5219000000.0 -0.3219 -0.9225
5222000000.0 -0.9202 -0.3371
5225000000.0 -0.8646 0.5233
5228000000.0 -0.146 0.982
5231000000.0 0.6986 0.7622
5234000000.0 0.9936 -0.08403
5238000000.0 0.6179 -0.817
5241000000.0 -0.2364 -1.014
5244000000.0 -0.9606 -0.4655
5247000000.0 -0.9649 0.4338
5250000000.0 -0.288 1.023
5253000000.0 0.6256 0.863
5256000000.0 1.069 0.0905
5259000000.0 0.7649 -0.7679
5262000000.0 -0.1077 -1.056
5266000000.0 -0.9073 -0.6229
5269000000.0 -1.045 0.3087
5272000000.0 -0.4721 1.0
5275000000.0 0.456 1.006
5278000000.0 1.047 0.2913
5281000000.0 0.9049 -0.6167
5284000000.0 0.08769 -1.093
5288000000.0 -0.7788 -0.7992
5291000000.0 -1.125 0.07216
5294000000.0 -0.678 0.8817
5297000000.0 0.2406 1.1
5300000000.0 0.9965 0.5174
5303000000.0 1.042 -0.4294
5306000000.0 0.3543 -1.07
5309000000.0 -0.5792 -0.9482
5312000000.0 -1.122 -0.1398
5316000000.0 -0.8364 0.7549
5319000000.0 0.02758 1.145
5322000000.0 0.9189 0.7048
5325000000.0 1.12 -0.2301
5328000000.0 0.5292 -1.032
5331000000.0 -0.4738 -1.045
5334000000.0 -1.085 -0.3278
5338000000.0 -0.9542 0.6323
5341000000.0 -0.1366 1.111
5344000000.0 0.779 0.7912
5347000000.0 1.085 -0.0858
5350000000.0 0.5987 -0.8792
5353000000.0 -0.3335 -1.042
5356000000.0 -0.9863 -0.4242
5359000000.0 -0.9362 0.5108
5362000000.0 -0.1646 1.046
5366000000.0 0.6611 0.7777
5369000000.0 1.028 -0.06341
5372000000.0 0.6016 -0.817
5375000000.0 -0.2733 -0.9908
5378000000.0 -0.9139 -0.3757
5381000000.0 -0.8786 0.4675
5384000000.0 -0.1615 0.9692
5388000000.0 0.6782 0.7056
5391000000.0 0.9482 -0.09249
5394000000.0 0.513 -0.7508
5397000000.0 -0.2732 -0.8382
5400000000.0 -0.8332 -0.3096
5403000000.0 -0.7754 0.4532
5406000000.0 -0.1048 0.8688
5409000000.0 0.591 0.6462
5412000000.0 0.8524 -0.05547
5416000000.0 0.4811 -0.7187
5419000000.0 -0.2822 -0.8132
5422000000.0 -0.8219 -0.2943
5425000000.0 -0.7347 0.4359
5428000000.0 -0.08062 0.8875
5431000000.0 0.6422 0.5875
5434000000.0 0.8796 -0.09924
5438000000.0 0.4959 -0.7316
5441000000.0 -0.3031 -0.7988
5444000000.0 -0.8475 -0.2937
5447000000.0 -0.7702 0.447
5450000000.0 -0.1226 0.8988
5453000000.0 0.5961 0.679
5456000000.0 0.8939 -0.06635
5459000000.0 0.5426 -0.7362
5462000000.0 -0.2369 -0.8622
5466000000.0 -0.8219 -0.3925
5469000000.0 -0.8456 0.3762
5472000000.0 -0.2278 0.8829
5475000000.0 0.5289 0.7564
5478000000.0 0.9338 0.08803
5481000000.0 0.6839 -0.6655
5484000000.0 -0.08138 -0.9822
5488000000.0 -0.8103 -0.5403
5491000000.0 -0.946 0.2499
5494000000.0 -0.4279 0.9108
5497000000.0 0.4418 0.9178
5500000000.0 0.9565 0.2615
5503000000.0 0.823 -0.618
5506000000.0 0.09813 -1.032
5509000000.0 -0.7458 -0.7207
5512000000.0 -0.9929 0.1018
5516000000.0 -0.5973 0.8489
5519000000.0 0.2806 0.9813
5522000000.0 0.9524 0.4535
5525000000.0 0.9446 -0.4555
5528000000.0 0.2474 -1.001
5531000000.0 -0.6103 -0.8597
5534000000.0 -1.028 -0.07879
5538000000.0 -0.751 0.7012
5541000000.0 0.103 1.048
5544000000.0 0.8454 0.6429
5547000000.0 1.018 -0.2797
5550000000.0 0.4428 -0.9863
5553000000.0 -0.4711 -0.9608
5556000000.0 -1.06 -0.2036
5559000000.0 -0.8439 0.6431
5562000000.0 -0.04273 1.051
5566000000.0 0.7442 0.6823
5569000000.0 0.9874 -0.1197
5572000000.0 0.5377 -0.8745
5575000000.0 -0.3328 -0.9499
5578000000.0 -0.9206 -0.3793
5581000000.0 -0.8264 0.5013
5584000000.0 -0.1738 0.9551
5588000000.0 0.6494 0.7193
5591000000.0 0.9412 -0.05091
5594000000.0 0.5601 -0.7338
5597000000.0 -0.2081 -0.8768
5600000000.0 -0.769 -0.386
5603000000.0 -0.8062 0.3429
5606000000.0 -0.2144 0.8603
5609000000.0 0.5221 0.7085
5612000000.0 0.857 0.03751
5616000000.0 0.5639 -0.6388
5619000000.0 -0.1539 -0.869
5622000000.0 -0.7239 -0.4036
5625000000.0 -0.7674 0.3291
5628000000.0 -0.21 0.7958
5631000000.0 0.439 0.6876
5634000000.0 0.8187 0.03733
5638000000.0 0.5593 -0.6276
5641000000.0 -0.1225 -0.7966
5644000000.0 -0.7209 -0.3993
5647000000.0 -0.7505 0.313
5650000000.0 -0.2539 0.8024
5653000000.0 0.4659 0.6863
5656000000.0 0.8408 0.06024
5659000000.0 0.5861 -0.6267
5662000000.0 -0.1165 -0.8506
5666000000.0 -0.7691 -0.4324
5669000000.0 -0.8236 0.3355
5672000000.0 -0.2795 0.861
5675000000.0 0.4812 0.7807
5678000000.0 0.9083 0.07869
5681000000.0 0.6453 -0.6617
5684000000.0 -0.0961 -0.9438
5688000000.0 -0.8025 -0.5064
5691000000.0 -0.9188 0.2987
5694000000.0 -0.3511 0.9198
5697000000.0 0.4857 0.8752
5700000000.0 1.002 0.1421
5703000000.0 0.7443 -0.6855
5706000000.0 -0.03902 -1.011
5709000000.0 -0.8297 -0.5935
5712000000.0 -1.035 0.2457
5716000000.0 -0.4722 0.9632
5719000000.0 0.4477 0.9298
5722000000.0 1.048 0.2617
5725000000.0 0.8962 -0.6182
5728000000.0 0.07758 -1.063
5731000000.0 -0.7935 -0.7299
5734000000.0 -1.072 0.127
5738000000.0 -0.5977 0.9084
5741000000.0 0.3177 1.045
5744000000.0 0.9864 0.3944
5747000000.0 0.9966 -0.5103
5750000000.0 0.2585 -1.107
5753000000.0 -0.7122 -0.8317
5756000000.0 -1.117 -0.03538
5759000000.0 -0.7299 0.8573
5762000000.0 0.1733 1.09
5766000000.0 0.9198 0.5695
5769000000.0 1.064 -0.3528
5772000000.0 0.3601 -1.053
5775000000.0 -0.519 -0.9265
5778000000.0 -1.095 -0.2013
5781000000.0 -0.8631 0.7057
5784000000.0 -0.0329 1.099
5788000000.0 0.8539 0.6888
5791000000.0 1.074 -0.2017
5794000000.0 0.5381 -0.966
5797000000.0 -0.3687 -0.9683
5800000000.0 -1.0 -0.3179
5803000000.0 -0.8629 0.5409
5806000000.0 -0.1414 1.02
5809000000.0 0.7453 0.7293
5812000000.0 1.016 -0.1212
5816000000.0 0.5612 -0.8372
5819000000.0 -0.3041 -0.967
5822000000.0 -0.9161 -0.3852
5825000000.0 -0.8755 0.4822
5828000000.0 -0.1676 0.959
5831000000.0 0.6439 0.7465
5834000000.0 0.9271 -0.002702
5838000000.0 0.5909 -0.7305
5841000000.0 -0.205 -0.9253
5844000000.0 -0.8096 -0.4009
5847000000.0 -0.8461 0.3876
5850000000.0 -0.1942 0.8956
5853000000.0 0.5617 0.7159
5856000000.0 0.9007 0.01325
5859000000.0 0.5431 -0.7054
5862000000.0 -0.1979 -0.8813
5866000000.0 -0.7742 -0.4143
5869000000.0 -0.8247 0.3645
5872000000.0 -0.1978 0.8594
5875000000.0 0.5176 0.705
5878000000.0 0.8666 0.02609
5881000000.0 0.5646 -0.6959
5884000000.0 -0.1677 -0.8393
5888000000.0 -0.7683 -0.4084
5891000000.0 -0.7772 0.3347
5894000000.0 -0.2029 0.8169
5897000000.0 0.4744 0.7438
5900000000.0 0.8694 0.06369
5903000000.0 0.6002 -0.6393
5906000000.0 -0.08267 -0.8414
5909000000.0 -0.711 -0.4604
5912000000.0 -0.8596 0.2591
5916000000.0 -0.3182 0.8127
5919000000.0 0.4334 0.7364
5922000000.0 0.8586 0.1228
5925000000.0 0.7005 -0.5664
5928000000.0 -0.02593 -0.9176
5931000000.0 -0.6627 -0.5578
5934000000.0 -0.8829 0.174
5938000000.0 -0.4153 0.811
5941000000.0 0.3648 0.8424
5944000000.0 0.8864 0.2551
5947000000.0 0.7561 -0.499
5950000000.0 0.1296 -0.9253
5953000000.0 -0.638 -0.6776
5956000000.0 -0.9335 0.0671
5959000000.0 -0.569 0.7882
5962000000.0 0.2218 0.8952
5966000000.0 0.8709 0.439
5969000000.0 0.9103 -0.3719
5972000000.0 0.2655 -0.9387
5975000000.0 -0.5732 -0.7859
5978000000.0 -0.9574 -0.08181
5981000000.0 -0.7182 0.6984
5984000000.0 0.08684 0.9789
5988000000.0 0.8355 0.5585
5991000000.0 0.9533 -0.2844
5994000000.0 0.3981 -0.9331
5997000000.0 -0.4296 -0.8866
6000000000.0 -0.993 -0.2311
6003000000.0 -0.7871 0.635
6006000000.0 0.005976 0.9732
6009000000.0 0.7549 0.6159
6012000000.0 0.962 -0.1982
6016000000.0 0.456 -0.8806
6019000000.0 -0.3859 -0.8982
6022000000.0 -0.9283 -0.2608
6025000000.0 -0.8083 0.5578
6028000000.0 -0.06968 0.9635
6031000000.0 0.7028 0.6673
6034000000.0 0.9486 -0.1109
6038000000.0 0.5067 -0.8119
6041000000.0 -0.3037 -0.9138
6044000000.0 -0.8575 -0.3064
6047000000.0 -0.7746 0.4628
6050000000.0 -0.1374 0.8962
6053000000.0 0.6193 0.6528
6056000000.0 0.8935 -0.06824
6059000000.0 0.5008 -0.734
6062000000.0 -0.2589 -0.8388
6066000000.0 -0.8138 -0.3124
6069000000.0 -0.7247 0.4412
6072000000.0 -0.1164 0.8879
6075000000.0 0.5747 0.6556
6078000000.0 0.8707 -0.02969
6081000000.0 0.4859 -0.6953
6084000000.0 -0.2126 -0.7965
6088000000.0 -0.7667 -0.3359
6091000000.0 -0.7462 0.3972
6094000000.0 -0.1663 0.823
6097000000.0 0.5435 0.6381
6100000000.0 0.8543 -0.009886
6103000000.0 0.5268 -0.6999
6106000000.0 -0.1857 -0.8595
6109000000.0 -0.7675 -0.3595
6112000000.0 -0.7945 0.3475
6116000000.0 -0.229 0.8263
6119000000.0 0.536 0.7249
6122000000.0 0.9027 0.003488
6125000000.0 0.5825 -0.7002
6128000000.0 -0.1714 -0.8754
6131000000.0 -0.7861 -0.4054
6134000000.0 -0.8327 0.3546
6138000000.0 -0.2659 0.8898
6141000000.0 0.5278 0.7398
6144000000.0 0.9183 0.08217
6147000000.0 0.648 -0.6729
6150000000.0 -0.159 -0.9313
6153000000.0 -0.7731 -0.5052
6156000000.0 -0.9204 0.3251
6159000000.0 -0.3476 0.8716
6162000000.0 0.4822 0.8085
6166000000.0 0.9841 0.1424
6169000000.0 0.7343 -0.6098
6172000000.0 -0.01264 -0.9429
6175000000.0 -0.7698 -0.5694
6178000000.0 -0.9715 0.264
6181000000.0 -0.3954 0.9109
6184000000.0 0.4201 0.8482
6188000000.0 0.9181 0.2162
6191000000.0 0.7463 -0.6033
6194000000.0 0.01939 -0.9389
6197000000.0 -0.7174 -0.6476
6200000000.0 -0.8822 0.1711
6203000000.0 -0.4582 0.8101
6206000000.0 0.3509 0.8649
6209000000.0 0.8967 0.3192
6212000000.0 0.8048 -0.4863
6216000000.0 0.1346 -0.9159
6219000000.0 -0.6419 -0.6721
6222000000.0 -0.9087 0.07285
6225000000.0 -0.5227 0.7396
6228000000.0 0.1963 0.8724
6231000000.0 0.8265 0.3969
6234000000.0 0.7823 -0.366
6238000000.0 0.22 -0.8529
6241000000.0 -0.5089 -0.6932
6244000000.0 -0.8841 -0.05549
6247000000.0 -0.5594 0.6508
6250000000.0 0.1185 0.835
6253000000.0 0.7055 0.4707
6256000000.0 0.776 -0.2854
6259000000.0 0.3269 -0.7667
6262000000.0 -0.3906 -0.7244
