! Created with skrf 1.8.0 (http://scikit-rf.org).
# Hz S RI R 50.0 
!freq ReS11 ImS11
4000000000.0 -0.1894 -1.531
4003000000.0 -1.263 -0.7748
4006000000.0 -1.432 0.4845
4009000000.0 -0.4644 1.394
4012000000.0 0.7307 1.327
4016000000.0 1.555 0.2125
4019000000.0 1.162 -1.042
4022000000.0 -0.1119 -1.546
4025000000.0 -1.29 -0.9075
4028000000.0 -1.523 0.4377
4031000000.0 -0.5949 1.482
4034000000.0 0.792 1.409
4038000000.0 1.593 0.2232
4041000000.0 1.222 -1.119
4044000000.0 -0.1066 -1.636
4047000000.0 -1.325 -0.9271
4050000000.0 -1.552 0.4669
4053000000.0 -0.6431 1.495
4056000000.0 0.7953 1.443
4059000000.0 1.598 0.3219
4062000000.0 1.275 -1.022
4066000000.0 0.03347 -1.605
4069000000.0 -1.253 -1.061
4072000000.0 -1.621 0.2375
4075000000.0 -0.8667 1.407
4078000000.0 0.5862 1.56
4081000000.0 1.542 0.5232
4084000000.0 1.424 -0.8485
4088000000.0 0.2314 -1.66
4091000000.0 -1.124 -1.263
4094000000.0 -1.659 0.05407
4097000000.0 -0.9535 1.306
4100000000.0 0.3753 1.576
4103000000.0 1.465 0.7364
4106000000.0 1.439 -0.6417
4109000000.0 0.4443 -1.511
4112000000.0 -0.833 -1.294
4116000000.0 -1.507 -0.2168
4119000000.0 -1.127 1.0
4122000000.0 0.02053 1.508
4125000000.0 1.157 0.9587
4128000000.0 1.454 -0.2367
4131000000.0 0.7881 -1.253
4134000000.0 -0.4199 -1.421
4138000000.0 -1.359 -0.6144
4141000000.0 -1.375 0.6488
4144000000.0 -0.3898 1.447
4147000000.0 0.8691 1.252
4150000000.0 1.485 0.1305
4153000000.0 1.102 -1.061
4156000000.0 -0.1118 -1.495
4159000000.0 -1.223 -0.8791
4162000000.0 -1.471 0.4121
4166000000.0 -0.6548 1.396
4169000000.0 0.6153 1.347
4172000000.0 1.458 0.417
4175000000.0 1.251 -0.8527
4178000000.0 0.1483 -1.505
4181000000.0 -1.047 -1.088
4184000000.0 -1.531 0.09666
4188000000.0 -0.9017 1.206
4191000000.0 0.3694 1.505
4194000000.0 1.354 0.67
4197000000.0 1.401 -0.6539
4200000000.0 0.3986 -1.532
4203000000.0 -0.9826 -1.266
4206000000.0 -1.623 -0.00964
4209000000.0 -1.058 1.249
4212000000.0 0.3659 1.636
4216000000.0 1.506 0.7252
4219000000.0 1.532 -0.7446
4222000000.0 0.3753 -1.636
4225000000.0 -1.09 -1.271
4228000000.0 -1.697 0.1131
4231000000.0 -0.9393 1.413
4234000000.0 0.5305 1.579
4238000000.0 1.561 0.5324
4241000000.0 1.345 -0.9059
4244000000.0 0.1078 -1.623
4247000000.0 -1.207 -1.065
4250000000.0 -1.539 0.3387
4253000000.0 -0.6837 1.405
4256000000.0 0.6971 1.405
4259000000.0 1.48 0.3378
4262000000.0 1.155 -1.015
4266000000.0 -0.04863 -1.511
4269000000.0 -1.209 -0.8297
4272000000.0 -1.454 0.4333
4275000000.0 -0.5387 1.329
4278000000.0 0.7706 1.255
4281000000.0 1.413 0.1943
4284000000.0 1.018 -1.018
4288000000.0 -0.1282 -1.374
4291000000.0 -1.168 -0.7234
4294000000.0 -1.295 0.4465
4297000000.0 -0.4762 1.222
4300000000.0 0.6443 1.138
4303000000.0 1.267 0.2347
4306000000.0 1.017 -0.7878
4309000000.0 0.01136 -1.288
4312000000.0 -0.9835 -0.822
4316000000.0 -1.261 0.2185
4319000000.0 -0.6634 1.128
4322000000.0 0.4258 1.208
4325000000.0 1.262 0.4909
4328000000.0 1.187 -0.6085
4331000000.0 0.3089 -1.29
4334000000.0 -0.8131 -1.079
4338000000.0 -1.389 -0.07362
4341000000.0 -0.9541 1.027
4344000000.0 0.2238 1.378
4347000000.0 1.217 0.739
4350000000.0 1.341 -0.4647
4353000000.0 0.5242 -1.382
4356000000.0 -0.7381 -1.276
4359000000.0 -1.451 -0.254
4362000000.0 -1.129 0.9511
4366000000.0 -0.006177 1.481
4369000000.0 1.167 0.9256
4372000000.0 1.409 -0.2964
4375000000.0 0.7121 -1.337
4378000000.0 -0.5394 -1.387
4381000000.0 -1.473 -0.4333
4384000000.0 -1.301 0.7917
4388000000.0 -0.1291 1.542
4391000000.0 1.101 1.069
4394000000.0 1.545 -0.1512
4397000000.0 0.8582 -1.339
4400000000.0 -0.5004 -1.504
4403000000.0 -1.49 -0.5082
4406000000.0 -1.345 0.8539
4409000000.0 -0.1724 1.565
4412000000.0 1.119 1.094
4416000000.0 1.522 -0.1785
4419000000.0 0.7356 -1.305
4422000000.0 -0.5382 -1.429
4425000000.0 -1.445 -0.4349
4428000000.0 -1.227 0.8563
4431000000.0 -0.09883 1.494
4434000000.0 1.093 0.9824
4438000000.0 1.404 -0.2728
4441000000.0 0.6469 -1.231
4444000000.0 -0.5999 -1.256
4447000000.0 -1.3 -0.3012
4450000000.0 -1.063 0.8388
4453000000.0 0.05055 1.336
4456000000.0 1.037 0.7803
4459000000.0 1.254 -0.3384
4462000000.0 0.4672 -1.209
4466000000.0 -0.6231 -1.068
4469000000.0 -1.195 -0.1384
4472000000.0 -0.8862 0.8608
4475000000.0 0.169 1.223
4478000000.0 1.028 0.6147
4481000000.0 1.104 -0.4375
4484000000.0 0.3686 -1.087
4488000000.0 -0.6594 -0.9381
4491000000.0 -1.128 -0.07144
4494000000.0 -0.7719 0.8379
4497000000.0 0.1799 1.108
4500000000.0 0.9654 0.5514
4503000000.0 1.007 -0.403
4506000000.0 0.3494 -1.053
4509000000.0 -0.6366 -0.9204
4512000000.0 -1.111 -0.09182
4516000000.0 -0.7738 0.7832
4519000000.0 0.1181 1.102
4522000000.0 0.9381 0.608
4525000000.0 1.103 -0.3442
4528000000.0 0.3987 -1.064
4531000000.0 -0.597 -0.973
4534000000.0 -1.184 -0.1931
4538000000.0 -0.8827 0.8059
4541000000.0 0.02289 1.201
4544000000.0 0.9354 0.7536
4547000000.0 1.185 -0.2422
4550000000.0 0.5461 -1.054
4553000000.0 -0.4788 -1.127
4556000000.0 -1.162 -0.3895
4559000000.0 -1.046 0.6412
4562000000.0 -0.169 1.231
4566000000.0 0.8348 0.9281
4569000000.0 1.286 -0.04906
4572000000.0 0.7981 -1.027
4575000000.0 -0.2803 -1.265
4578000000.0 -1.143 -0.6153
4581000000.0 -1.193 0.4989
4584000000.0 -0.3915 1.27
4588000000.0 0.7286 1.112
4591000000.0 1.352 0.1491
4594000000.0 0.9866 -0.954
4597000000.0 -0.09182 -1.407
4600000000.0 -1.138 -0.7944
4603000000.0 -1.36 0.3948
4606000000.0 -0.5585 1.307
4609000000.0 0.6407 1.234
4612000000.0 1.373 0.2941
4616000000.0 1.104 -0.8817
4619000000.0 0.03386 -1.401
4622000000.0 -1.062 -0.9096
4625000000.0 -1.391 0.2582
4628000000.0 -0.6686 1.224
4631000000.0 0.5102 1.278
4634000000.0 1.317 0.3824
4638000000.0 1.121 -0.7897
4641000000.0 0.1031 -1.369
4644000000.0 -0.9771 -0.9056
4647000000.0 -1.325 0.2129
4650000000.0 -0.6564 1.15
4653000000.0 0.4586 1.239
4656000000.0 1.244 0.3801
4659000000.0 1.082 -0.7537
4662000000.0 0.1032 -1.274
4666000000.0 -0.9208 -0.8302
4669000000.0 -1.196 0.2214
4672000000.0 -0.5752 1.06
4675000000.0 0.4565 1.084
4678000000.0 1.079 0.2874
4681000000.0 0.9388 -0.67
4684000000.0 0.06145 -1.108
4688000000.0 -0.8196 -0.715
4691000000.0 -1.076 0.1955
4694000000.0 -0.5265 0.9866
4697000000.0 0.431 0.995
4700000000.0 1.048 0.2558
4703000000.0 0.8651 -0.6688
4706000000.0 0.06078 -1.069
4709000000.0 -0.8768 -0.676
4712000000.0 -1.074 0.2392
4716000000.0 -0.4596 0.942
4719000000.0 0.4532 0.9906
4722000000.0 1.012 0.2191
4725000000.0 0.8389 -0.6337
4728000000.0 0.03518 -1.011
4731000000.0 -0.8059 -0.7053
4734000000.0 -1.034 0.15
4738000000.0 -0.5095 0.9033
4741000000.0 0.3577 0.9787
4744000000.0 1.006 0.3342
4747000000.0 0.913 -0.5526
4750000000.0 0.1572 -1.069
4753000000.0 -0.7127 -0.7981
4756000000.0 -1.109 0.02916
4759000000.0 -0.6616 0.8807
4762000000.0 0.2106 1.124
4766000000.0 1.002 0.4965
4769000000.0 1.071 -0.4702
4772000000.0 0.3496 -1.124
4775000000.0 -0.6657 -0.9678
4778000000.0 -1.207 -0.1378
4781000000.0 -0.8667 0.8141
4784000000.0 0.06316 1.198
4788000000.0 0.9614 0.7334
4791000000.0 1.184 -0.2885
4794000000.0 0.5773 -1.11
4797000000.0 -0.4945 -1.154
4800000000.0 -1.21 -0.3921
4803000000.0 -1.015 0.6559
4806000000.0 -0.1854 1.254
4809000000.0 0.8483 0.9727
4812000000.0 1.261 -0.03446
4816000000.0 0.8138 -1.031
4819000000.0 -0.2724 -1.283
4822000000.0 -1.173 -0.6264
4825000000.0 -1.256 0.5485
4828000000.0 -0.3969 1.337
4831000000.0 0.7753 1.13
4834000000.0 1.366 0.1463
4838000000.0 0.9557 -0.993
4841000000.0 -0.139 -1.361
4844000000.0 -1.143 -0.7502
4847000000.0 -1.332 0.4083
4850000000.0 -0.5139 1.299
4853000000.0 0.6872 1.2
4856000000.0 1.345 0.2383
4859000000.0 1.067 -0.866
4862000000.0 -0.02329 -1.374
4866000000.0 -1.056 -0.8018
4869000000.0 -1.331 0.3053
4872000000.0 -0.5811 1.198
4875000000.0 0.5472 1.194
4878000000.0 1.276 0.3303
4881000000.0 1.036 -0.7815
4884000000.0 0.04385 -1.283
4888000000.0 -0.9302 -0.8204
4891000000.0 -1.196 0.218
4894000000.0 -0.5603 1.045
4897000000.0 0.4364 1.066
4900000000.0 1.077 0.3119
4903000000.0 0.9156 -0.6415
4906000000.0 0.09931 -1.12
4909000000.0 -0.7907 -0.7137
4912000000.0 -1.015 0.1326
4916000000.0 -0.5235 0.896
4919000000.0 0.3338 0.9592
4922000000.0 0.915 0.3552
4925000000.0 0.8592 -0.5069
4928000000.0 0.1508 -0.9684
4931000000.0 -0.6298 -0.7152
4934000000.0 -0.9565 0.05278
4938000000.0 -0.5525 0.7444
4941000000.0 0.2198 0.9411
4944000000.0 0.8417 0.4027
4947000000.0 0.8441 -0.3952
4950000000.0 0.2429 -0.9288
4953000000.0 -0.5675 -0.7585
4956000000.0 -0.9819 -0.07142
4959000000.0 -0.6621 0.7162
4962000000.0 0.1395 0.9324
4966000000.0 0.855 0.4787
4969000000.0 0.9311 -0.3431
4972000000.0 0.3183 -0.9377
4975000000.0 -0.5561 -0.8425
4978000000.0 -0.9899 -0.1112
4981000000.0 -0.7409 0.7284
4984000000.0 0.05743 1.034
4988000000.0 0.8503 0.6344
4991000000.0 1.007 -0.2754
4994000000.0 0.4612 -0.9701
4997000000.0 -0.4797 -1.006
5000000000.0 -1.082 -0.3088
5003000000.0 -0.9065 0.6361
5006000000.0 -0.1088 1.171
5009000000.0 0.8399 0.801
5012000000.0 1.2 -0.1299
5016000000.0 0.6746 -1.023
5019000000.0 -0.3915 -1.209
5022000000.0 -1.164 -0.4492
5025000000.0 -1.102 0.6121
5028000000.0 -0.2406 1.266
5031000000.0 0.8367 1.004
5034000000.0 1.272 0.008157
5038000000.0 0.8208 -1.003
5041000000.0 -0.2605 -1.265
5044000000.0 -1.125 -0.6253
5047000000.0 -1.204 0.4499
5050000000.0 -0.4429 1.248
5053000000.0 0.6813 1.072
5056000000.0 1.308 0.2133
5059000000.0 0.9962 -0.844
5062000000.0 -0.0521 -1.312
5066000000.0 -1.03 -0.8361
5069000000.0 -1.29 0.2782
5072000000.0 -0.6257 1.144
5075000000.0 0.4872 1.217
5078000000.0 1.227 0.3807
5081000000.0 1.084 -0.7226
5084000000.0 0.1351 -1.223
5088000000.0 -0.8612 -0.8798
5091000000.0 -1.213 0.08188
5094000000.0 -0.6849 0.9851
5097000000.0 0.2693 1.143
5100000000.0 1.044 0.4673
5103000000.0 1.062 -0.504
5106000000.0 0.2947 -1.052
5109000000.0 -0.6037 -0.9299
5112000000.0 -1.069 -0.1428
5116000000.0 -0.7869 0.7277
5119000000.0 0.07627 1.025
5122000000.0 0.8484 0.6362
5125000000.0 1.053 -0.2445
5128000000.0 0.4467 -0.9123
5131000000.0 -0.4688 -0.9287
5134000000.0 -0.948 -0.2384
5138000000.0 -0.812 0.5926
5141000000.0 -0.04913 0.9774
5144000000.0 0.7249 0.6653
5147000000.0 0.9564 -0.1242
5150000000.0 0.4833 -0.835
5153000000.0 -0.2986 -0.8783
5156000000.0 -0.8562 -0.3066
5159000000.0 -0.799 0.4697
5162000000.0 -0.1551 0.9077
5166000000.0 0.6304 0.6534
5169000000.0 0.9158 -0.03788
5172000000.0 0.5387 -0.7305
5175000000.0 -0.2172 -0.8761
5178000000.0 -0.8057 -0.3715
5181000000.0 -0.7941 0.4348
5184000000.0 -0.188 0.8931
5188000000.0 0.6041 0.7068
5191000000.0 0.9338 -0.01027
5194000000.0 0.5603 -0.7717
5197000000.0 -0.2495 -0.9106
5200000000.0 -0.8819 -0.3912
5203000000.0 -0.8585 0.4547
5206000000.0 -0.2038 0.9447
5209000000.0 0.6228 0.7353
5212000000.0 0.9835 -0.007503
5216000000.0 0.6154 -0.7745
5219000000.0 -0.2162 -0.9555
5222000000.0 -0.8767 -0.4388
5225000000.0 -0.9068 0.4005
5228000000.0 -0.2719 0.9929
5231000000.0 0.6002 0.8258
5234000000.0 1.042 0.05539
5238000000.0 0.6969 -0.7687
5241000000.0 -0.1391 -1.05
5244000000.0 -0.8806 -0.5516
5247000000.0 -1.014 0.333
5250000000.0 -0.3983 1.012
5253000000.0 0.5433 0.9525
5256000000.0 1.08 0.1831
5259000000.0 0.8327 -0.6855
5262000000.0 0.01521 -1.098
5266000000.0 -0.8409 -0.6851
5269000000.0 -1.077 0.1734
5272000000.0 -0.5642 0.9195
5275000000.0 0.358 1.02
5278000000.0 1.023 0.379
5281000000.0 0.9681 -0.5081
5284000000.0 0.2154 -1.085
5288000000.0 -0.656 -0.8978
5291000000.0 -1.091 -0.04719
5294000000.0 -0.7685 0.8298
5297000000.0 0.1463 1.133
5300000000.0 0.9419 0.6437
5303000000.0 1.094 -0.318
5306000000.0 0.4595 -1.018
5309000000.0 -0.4908 -1.046
5312000000.0 -1.117 -0.2919
5316000000.0 -0.915 0.6563
5319000000.0 -0.08924 1.125
5322000000.0 0.8475 0.8035
5325000000.0 1.156 -0.106
5328000000.0 0.657 -0.9052
5331000000.0 -0.3051 -1.069
5334000000.0 -1.039 -0.4527
5338000000.0 -1.026 0.4914
5341000000.0 -0.253 1.126
5344000000.0 0.6617 0.9144
5347000000.0 1.148 0.04934
5350000000.0 0.7355 -0.8231
5353000000.0 -0.1767 -1.088
5356000000.0 -0.9461 -0.5745
5359000000.0 -1.041 0.3947
5362000000.0 -0.3777 1.032
5366000000.0 0.5795 0.9345
5369000000.0 1.071 0.1247
5372000000.0 0.766 -0.7278
5375000000.0 -0.1392 -1.022
5378000000.0 -0.8865 -0.5508
5381000000.0 -0.9277 0.3469
5384000000.0 -0.326 0.9568
5388000000.0 0.5462 0.8443
5391000000.0 0.9596 0.1008
5394000000.0 0.6776 -0.6456
5397000000.0 -0.1474 -0.9096
5400000000.0 -0.8083 -0.4772
5403000000.0 -0.8554 0.3205
5406000000.0 -0.2868 0.8823
5409000000.0 0.5074 0.7481
5412000000.0 0.8942 0.06901
5416000000.0 0.5932 -0.6669
5419000000.0 -0.1223 -0.8549
5422000000.0 -0.7476 -0.4467
5425000000.0 -0.8232 0.3115
5428000000.0 -0.2678 0.8324
5431000000.0 0.4864 0.7049
5434000000.0 0.8347 0.08631
5438000000.0 0.5876 -0.6409
5441000000.0 -0.1507 -0.8758
5444000000.0 -0.7724 -0.4593
5447000000.0 -0.8625 0.2963
5450000000.0 -0.275 0.8557
5453000000.0 0.4691 0.7532
5456000000.0 0.8799 0.07208
5459000000.0 0.6302 -0.6183
5462000000.0 -0.07393 -0.8702
5466000000.0 -0.7146 -0.5277
5469000000.0 -0.9074 0.2635
5472000000.0 -0.3552 0.8566
5475000000.0 0.4211 0.847
5478000000.0 0.9118 0.2346
5481000000.0 0.7776 -0.5677
5484000000.0 0.05804 -0.9519
5488000000.0 -0.691 -0.6915
5491000000.0 -0.9864 0.1332
5494000000.0 -0.5333 0.8161
5497000000.0 0.2737 0.9533
5500000000.0 0.9207 0.3826
5503000000.0 0.8538 -0.4439
5506000000.0 0.2371 -0.9852
5509000000.0 -0.6299 -0.8028
5512000000.0 -1.01 -0.07317
5516000000.0 -0.7295 0.7283
5519000000.0 0.1337 1.02
5522000000.0 0.8177 0.6013
5525000000.0 1.013 -0.2667
5528000000.0 0.4255 -0.9635
5531000000.0 -0.4211 -0.9711
5534000000.0 -1.016 -0.2334
5538000000.0 -0.83 0.6041
5541000000.0 -0.09515 1.068
5544000000.0 0.749 0.7622
5547000000.0 1.069 -0.09346
5550000000.0 0.5921 -0.8637
5553000000.0 -0.2684 -1.024
5556000000.0 -0.9766 -0.4003
5559000000.0 -0.9587 0.4622
5562000000.0 -0.243 1.041
5566000000.0 0.6174 0.8167
5569000000.0 1.032 0.05292
5572000000.0 0.6816 -0.7687
5575000000.0 -0.1264 -1.013
5578000000.0 -0.8577 -0.5476
5581000000.0 -0.9505 0.2906
5584000000.0 -0.3443 0.9338
5588000000.0 0.4878 0.8422
5591000000.0 0.9492 0.1556
5594000000.0 0.7215 -0.6341
5597000000.0 -0.03848 -0.9411
5600000000.0 -0.7353 -0.5808
5603000000.0 -0.9137 0.1948
5606000000.0 -0.4117 0.8237
5609000000.0 0.3576 0.8081
5612000000.0 0.8618 0.2005
5616000000.0 0.7312 -0.5524
5619000000.0 0.04968 -0.8648
5622000000.0 -0.6245 -0.5913
5625000000.0 -0.8516 0.1248
5628000000.0 -0.4237 0.7413
5631000000.0 0.3017 0.8134
5634000000.0 0.8131 0.2495
5638000000.0 0.7062 -0.4783
5641000000.0 0.06991 -0.8328
5644000000.0 -0.6127 -0.572
5647000000.0 -0.8471 0.1177
5650000000.0 -0.4205 0.7296
5653000000.0 0.3035 0.7943
5656000000.0 0.8021 0.295
5659000000.0 0.7367 -0.4839
5662000000.0 0.06247 -0.8725
5666000000.0 -0.6606 -0.6069
5669000000.0 -0.8619 0.09872
5672000000.0 -0.4792 0.7722
5675000000.0 0.3182 0.8521
5678000000.0 0.8566 0.2481
5681000000.0 0.7734 -0.5151
5684000000.0 0.09441 -0.9144
5688000000.0 -0.6671 -0.6809
5691000000.0 -0.9294 0.108
5694000000.0 -0.5625 0.8122
5697000000.0 0.2811 0.9437
5700000000.0 0.9236 0.3397
5703000000.0 0.8651 -0.4982
5706000000.0 0.1576 -1.01
5709000000.0 -0.6789 -0.7782
5712000000.0 -1.031 0.04063
5716000000.0 -0.6316 0.8059
5719000000.0 0.2565 1.007
5722000000.0 0.9567 0.4683
5725000000.0 0.9584 -0.4198
5728000000.0 0.2909 -1.024
5731000000.0 -0.602 -0.9265
5734000000.0 -1.066 -0.09929
5738000000.0 -0.7648 0.753
5741000000.0 0.09307 1.092
5744000000.0 0.9054 0.6087
5747000000.0 1.042 -0.3162
5750000000.0 0.4756 -1.001
5753000000.0 -0.4578 -0.975
5756000000.0 -1.069 -0.2576
5759000000.0 -0.8934 0.6865
5762000000.0 -0.08838 1.139
5766000000.0 0.8018 0.7275
5769000000.0 1.091 -0.1417
5772000000.0 0.599 -0.9267
5775000000.0 -0.3564 -1.023
5778000000.0 -0.982 -0.4203
5781000000.0 -0.9736 0.4932
5784000000.0 -0.2347 1.094
5788000000.0 0.6815 0.8717
5791000000.0 1.08 0.0436
5794000000.0 0.7284 -0.7936
5797000000.0 -0.162 -1.075
5800000000.0 -0.8848 -0.5792
5803000000.0 -1.019 0.3387
5806000000.0 -0.3621 1.004
5809000000.0 0.5014 0.9209
5812000000.0 1.041 0.1721
5816000000.0 0.7741 -0.7107
5819000000.0 -0.04294 -1.032
5822000000.0 -0.8195 -0.6095
5825000000.0 -0.9811 0.2288
5828000000.0 -0.4537 0.8701
5831000000.0 0.4291 0.9607
5834000000.0 0.9778 0.2938
5838000000.0 0.7864 -0.5866
5841000000.0 0.05626 -0.9766
5844000000.0 -0.7228 -0.6543
5847000000.0 -0.9278 0.1461
5850000000.0 -0.4632 0.8405
5853000000.0 0.3386 0.8956
5856000000.0 0.8751 0.2998
5859000000.0 0.7388 -0.5321
5862000000.0 0.09309 -0.9427
5866000000.0 -0.6509 -0.6373
5869000000.0 -0.884 0.1271
5872000000.0 -0.4769 0.7794
5875000000.0 0.2946 0.8507
5878000000.0 0.8381 0.2768
5881000000.0 0.7679 -0.4443
5884000000.0 0.1138 -0.8882
5888000000.0 -0.5934 -0.6551
5891000000.0 -0.8637 0.05187
5894000000.0 -0.4694 0.7293
5897000000.0 0.2583 0.8139
5900000000.0 0.8056 0.3193
5903000000.0 0.749 -0.4229
5906000000.0 0.1892 -0.8506
5909000000.0 -0.5808 -0.6573
5912000000.0 -0.8743 0.02077
5916000000.0 -0.5426 0.6922
5919000000.0 0.1971 0.8201
5922000000.0 0.7908 0.3824
5925000000.0 0.8182 -0.3328
5928000000.0 0.2513 -0.8381
5931000000.0 -0.5226 -0.7522
5934000000.0 -0.8678 -0.09388
5938000000.0 -0.6241 0.6392
5941000000.0 0.08993 0.891
5944000000.0 0.7487 0.4996
5947000000.0 0.9005 -0.2278
5950000000.0 0.3553 -0.8218
5953000000.0 -0.386 -0.8433
5956000000.0 -0.8913 -0.2048
5959000000.0 -0.7407 0.5646
5962000000.0 -0.07478 0.9402
5966000000.0 0.6645 0.6189
5969000000.0 0.9296 -0.1002
5972000000.0 0.5005 -0.7936
5975000000.0 -0.2949 -0.9396
5978000000.0 -0.8961 -0.3567
5981000000.0 -0.8628 0.4445
5984000000.0 -0.2227 0.9747
5988000000.0 0.5952 0.7658
5991000000.0 0.9786 0.05083
5994000000.0 0.6982 -0.7567
5997000000.0 -0.1403 -0.9973
6000000000.0 -0.8473 -0.5336
6003000000.0 -0.9353 0.3175
6006000000.0 -0.3369 0.9372
6009000000.0 0.5056 0.8459
6012000000.0 0.9875 0.1554
6016000000.0 0.739 -0.6627
6019000000.0 -0.04651 -1.014
6022000000.0 -0.7803 -0.6042
6025000000.0 -0.9435 0.2253
6028000000.0 -0.4527 0.8997
6031000000.0 0.4126 0.8941
6034000000.0 0.9421 0.2417
6038000000.0 0.7895 -0.5675
6041000000.0 0.04438 -0.9484
6044000000.0 -0.724 -0.6524
6047000000.0 -0.9393 0.1411
6050000000.0 -0.4711 0.8252
6053000000.0 0.3358 0.8912
6056000000.0 0.8869 0.3092
6059000000.0 0.7846 -0.506
6062000000.0 0.101 -0.9295
6066000000.0 -0.6614 -0.6313
6069000000.0 -0.9194 0.09314
6072000000.0 -0.4893 0.7432
6075000000.0 0.281 0.8535
6078000000.0 0.8388 0.3344
6081000000.0 0.7569 -0.4324
6084000000.0 0.1567 -0.8467
6088000000.0 -0.5908 -0.6561
6091000000.0 -0.8496 0.03874
6094000000.0 -0.5108 0.6775
6097000000.0 0.2019 0.842
6100000000.0 0.7764 0.3384
6103000000.0 0.7464 -0.3816
6106000000.0 0.1652 -0.8263
6109000000.0 -0.525 -0.6705
6112000000.0 -0.8833 0.01203
6116000000.0 -0.5504 0.6699
6119000000.0 0.1881 0.8553
6122000000.0 0.7854 0.4273
6125000000.0 0.7947 -0.3343
6128000000.0 0.2 -0.8299
6131000000.0 -0.5108 -0.7063
6134000000.0 -0.8903 -0.03643
6138000000.0 -0.5697 0.6699
6141000000.0 0.1355 0.9005
6144000000.0 0.7686 0.4378
6147000000.0 0.8181 -0.319
6150000000.0 0.278 -0.8529
6153000000.0 -0.4745 -0.7423
6156000000.0 -0.9134 -0.1144
6159000000.0 -0.6823 0.6474
6162000000.0 0.07639 0.8948
6166000000.0 0.7552 0.5516
6169000000.0 0.8929 -0.2329
6172000000.0 0.3945 -0.8773
6175000000.0 -0.4134 -0.8362
6178000000.0 -0.923 -0.2062
6181000000.0 -0.7087 0.5978
6184000000.0 -0.02359 0.974
6188000000.0 0.7322 0.6257
6191000000.0 0.9322 -0.1552
6194000000.0 0.4213 -0.8491
6197000000.0 -0.3615 -0.8622
6200000000.0 -0.9143 -0.2929
6203000000.0 -0.7835 0.5
6206000000.0 -0.09765 0.9053
6209000000.0 0.6613 0.6735
6212000000.0 0.927 -0.05591
6216000000.0 0.5493 -0.7456
6219000000.0 -0.2416 -0.9197
6222000000.0 -0.8292 -0.363
6225000000.0 -0.8112 0.3972
6228000000.0 -0.2142 0.8839
6231000000.0 0.5202 0.7502
6234000000.0 0.8731 0.045
6238000000.0 0.5977 -0.6626
6241000000.0 -0.1228 -0.8882
6244000000.0 -0.7481 -0.4432
6247000000.0 -0.799 0.2848
6250000000.0 -0.3007 0.8175
6253000000.0 0.4009 0.7642
6256000000.0 0.8196 0.1533
6259000000.0 0.6494 -0.5144
6262000000.0 0.02385 -0.8111
6266000000.0 -0.5833 -0.5391
