! Created with skrf 1.8.0 (http://scikit-rf.org).
# Hz S RI R 50.0 
!freq ReS11 ImS11
4000000000.0 -0.5003 -1.436
4003000000.0 -1.375 -0.5188
4006000000.0 -1.303 0.7215
4009000000.0 -0.2768 1.523
4012000000.0 1.044 1.14
4016000000.0 1.575 -0.06266
4019000000.0 0.945 -1.271
4022000000.0 -0.4154 -1.508
4025000000.0 -1.487 -0.611
4028000000.0 -1.427 0.7771
4031000000.0 -0.2841 1.606
4034000000.0 1.065 1.224
4038000000.0 1.68 -0.07683
4041000000.0 0.9543 -1.346
4044000000.0 -0.4373 -1.577
4047000000.0 -1.479 -0.6835
4050000000.0 -1.438 0.7416
4053000000.0 -0.3469 1.602
4056000000.0 1.009 1.267
4059000000.0 1.615 0.01417
4062000000.0 1.046 -1.209
4066000000.0 -0.2665 -1.588
4069000000.0 -1.415 -0.8015
4072000000.0 -1.553 0.6082
4075000000.0 -0.554 1.515
4078000000.0 0.8579 1.429
4081000000.0 1.64 0.2386
4084000000.0 1.26 -1.107
4088000000.0 -0.05465 -1.63
4091000000.0 -1.309 -0.9925
4094000000.0 -1.575 0.3648
4097000000.0 -0.7325 1.495
4100000000.0 0.6457 1.491
4103000000.0 1.527 0.4409
4106000000.0 1.283 -0.9046
4109000000.0 0.1665 -1.543
4112000000.0 -1.056 -1.078
4116000000.0 -1.473 0.09886
4119000000.0 -0.9144 1.159
4122000000.0 0.2944 1.461
4125000000.0 1.261 0.7132
4128000000.0 1.39 -0.5094
4131000000.0 0.5198 -1.347
4134000000.0 -0.6851 -1.274
4138000000.0 -1.446 -0.2988
4141000000.0 -1.165 0.8761
4144000000.0 -0.04779 1.5
4147000000.0 1.105 1.023
4150000000.0 1.49 -0.1955
4153000000.0 0.8464 -1.239
4156000000.0 -0.4551 -1.463
4159000000.0 -1.366 -0.5445
4162000000.0 -1.361 0.7267
4166000000.0 -0.3043 1.459
4169000000.0 0.9047 1.159
4172000000.0 1.512 0.04125
4175000000.0 0.9758 -1.154
4178000000.0 -0.2401 -1.467
4181000000.0 -1.276 -0.724
4184000000.0 -1.403 0.551
4188000000.0 -0.4757 1.464
4191000000.0 0.8131 1.287
4194000000.0 1.532 0.1549
4197000000.0 1.089 -1.085
4200000000.0 -0.1898 -1.547
4203000000.0 -1.329 -0.8218
4206000000.0 -1.492 0.5776
4209000000.0 -0.4573 1.565
4212000000.0 0.9611 1.344
4216000000.0 1.637 0.01626
4219000000.0 0.9956 -1.288
4222000000.0 -0.4218 -1.604
4225000000.0 -1.535 -0.6352
4228000000.0 -1.352 0.8404
4231000000.0 -0.08434 1.601
4234000000.0 1.181 1.052
4238000000.0 1.54 -0.2715
4241000000.0 0.6951 -1.393
4244000000.0 -0.673 -1.381
4247000000.0 -1.465 -0.272
4250000000.0 -1.139 0.9576
4253000000.0 0.08318 1.47
4256000000.0 1.206 0.8497
4259000000.0 1.386 -0.4395
4262000000.0 0.4897 -1.352
4266000000.0 -0.7468 -1.219
4269000000.0 -1.424 -0.1596
4272000000.0 -0.992 1.011
4275000000.0 0.153 1.407
4278000000.0 1.191 0.7598
4281000000.0 1.306 -0.4773
4284000000.0 0.4304 -1.298
4288000000.0 -0.746 -1.122
4291000000.0 -1.372 -0.146
4294000000.0 -0.9502 0.916
4297000000.0 0.1284 1.297
4300000000.0 1.045 0.7705
4303000000.0 1.265 -0.32
4306000000.0 0.5416 -1.19
4309000000.0 -0.5836 -1.191
4312000000.0 -1.251 -0.3664
4316000000.0 -1.105 0.6975
4319000000.0 -0.1551 1.302
4322000000.0 0.8907 0.9599
4325000000.0 1.315 -0.08541
4328000000.0 0.8173 -1.075
4331000000.0 -0.3264 -1.342
4334000000.0 -1.25 -0.626
4338000000.0 -1.296 0.5846
4341000000.0 -0.3601 1.365
4344000000.0 0.857 1.171
4347000000.0 1.475 0.08231
4350000000.0 1.026 -1.094
4353000000.0 -0.2251 -1.471
4356000000.0 -1.286 -0.7673
4359000000.0 -1.408 0.4934
4362000000.0 -0.4683 1.463
4366000000.0 0.75 1.29
4369000000.0 1.507 0.2019
4372000000.0 1.106 -1.093
4375000000.0 -0.1101 -1.56
4378000000.0 -1.292 -0.8714
4381000000.0 -1.464 0.4524
4384000000.0 -0.5842 1.458
4388000000.0 0.8096 1.355
4391000000.0 1.55 0.1781
4394000000.0 1.085 -1.107
4397000000.0 -0.2106 -1.54
4400000000.0 -1.364 -0.7958
4403000000.0 -1.418 0.5987
4406000000.0 -0.3595 1.493
4409000000.0 0.9188 1.175
4412000000.0 1.479 -0.03805
4416000000.0 0.8409 -1.175
4419000000.0 -0.3985 -1.382
4422000000.0 -1.315 -0.501
4425000000.0 -1.175 0.7199
4428000000.0 -0.1318 1.342
4431000000.0 0.9552 0.9061
4434000000.0 1.277 -0.1782
4438000000.0 0.6385 -1.13
4441000000.0 -0.4744 -1.196
4444000000.0 -1.229 -0.3161
4447000000.0 -0.9639 0.7534
4450000000.0 0.006372 1.218
4453000000.0 0.9273 0.7616
4456000000.0 1.153 -0.3102
4459000000.0 0.5007 -1.095
4462000000.0 -0.5408 -1.057
4466000000.0 -1.161 -0.2389
4469000000.0 -0.889 0.7845
4472000000.0 0.04104 1.194
4475000000.0 0.95 0.6805
4478000000.0 1.142 -0.3428
4481000000.0 0.4356 -1.111
4484000000.0 -0.6069 -1.019
4488000000.0 -1.175 -0.1923
4491000000.0 -0.9212 0.7659
4494000000.0 0.04273 1.177
4497000000.0 0.9495 0.7438
4500000000.0 1.218 -0.2845
4503000000.0 0.4881 -1.045
4506000000.0 -0.4843 -1.091
4509000000.0 -1.155 -0.3181
4512000000.0 -0.9888 0.7232
4516000000.0 -0.09023 1.216
4519000000.0 0.9004 0.8568
4522000000.0 1.266 -0.1588
4525000000.0 0.6603 -1.081
4528000000.0 -0.3995 -1.224
4531000000.0 -1.189 -0.4903
4534000000.0 -1.122 0.6133
4538000000.0 -0.2615 1.282
4541000000.0 0.8327 1.016
4544000000.0 1.344 0.004507
4547000000.0 0.8516 -1.013
4550000000.0 -0.1971 -1.315
4553000000.0 -1.154 -0.6855
4556000000.0 -1.253 0.4747
4559000000.0 -0.454 1.28
4562000000.0 0.6677 1.163
4566000000.0 1.357 0.2056
4569000000.0 1.052 -0.903
4572000000.0 -0.02355 -1.38
4575000000.0 -1.088 -0.8561
4578000000.0 -1.356 0.2991
4581000000.0 -0.643 1.256
4584000000.0 0.5545 1.283
4588000000.0 1.372 0.366
4591000000.0 1.161 -0.825
4594000000.0 0.09572 -1.41
4597000000.0 -1.055 -0.9713
4600000000.0 -1.408 0.1989
4603000000.0 -0.7489 1.236
4606000000.0 0.4929 1.303
4609000000.0 1.355 0.4248
4612000000.0 1.166 -0.7411
4616000000.0 0.1314 -1.36
4619000000.0 -0.9801 -0.976
4622000000.0 -1.334 0.1897
4625000000.0 -0.6917 1.141
4628000000.0 0.4407 1.218
4631000000.0 1.249 0.4011
4634000000.0 1.097 -0.7043
4638000000.0 0.1047 -1.275
4641000000.0 -0.928 -0.8658
4644000000.0 -1.284 0.2072
4647000000.0 -0.5902 1.057
4650000000.0 0.4805 1.109
4653000000.0 1.138 0.3072
4656000000.0 0.946 -0.7213
4659000000.0 0.0387 -1.192
4662000000.0 -0.889 -0.7289
4666000000.0 -1.099 0.2353
4669000000.0 -0.4994 0.9787
4672000000.0 0.4562 0.9794
4675000000.0 1.071 0.2779
4678000000.0 0.8611 -0.6621
4681000000.0 0.02523 -1.116
4684000000.0 -0.8328 -0.6894
4688000000.0 -1.067 0.2137
4691000000.0 -0.5058 0.9342
4694000000.0 0.3989 0.9975
4697000000.0 1.025 0.2841
4700000000.0 0.9268 -0.6406
4703000000.0 0.07753 -1.109
4706000000.0 -0.805 -0.7255
4709000000.0 -1.11 0.1478
4712000000.0 -0.5835 0.967
4716000000.0 0.3831 1.04
4719000000.0 1.099 0.3939
4722000000.0 0.9583 -0.6211
4725000000.0 0.09755 -1.15
4728000000.0 -0.8051 -0.8151
4731000000.0 -1.152 0.05543
4734000000.0 -0.6729 0.9435
4738000000.0 0.2785 1.136
4741000000.0 1.028 0.5293
4744000000.0 1.016 -0.4679
4747000000.0 0.3339 -1.134
4750000000.0 -0.6769 -1.017
4753000000.0 -1.209 -0.1483
4756000000.0 -0.8901 0.8207
4759000000.0 0.1002 1.259
4762000000.0 1.013 0.7422
4766000000.0 1.233 -0.3096
4769000000.0 0.553 -1.18
4772000000.0 -0.5428 -1.194
4775000000.0 -1.291 -0.3306
4778000000.0 -1.068 0.78
4781000000.0 -0.1002 1.331
4784000000.0 0.9713 0.929
4788000000.0 1.377 -0.1298
4791000000.0 0.7491 -1.128
4794000000.0 -0.382 -1.345
4797000000.0 -1.286 -0.5705
4800000000.0 -1.246 0.6312
4803000000.0 -0.3052 1.328
4806000000.0 0.8196 1.091
4809000000.0 1.37 0.03234
4812000000.0 0.9004 -1.041
4816000000.0 -0.2119 -1.384
4819000000.0 -1.206 -0.6951
4822000000.0 -1.313 0.5085
4825000000.0 -0.4436 1.298
4828000000.0 0.7688 1.134
4831000000.0 1.392 0.1305
4834000000.0 0.9229 -0.9818
4838000000.0 -0.1736 -1.362
4841000000.0 -1.133 -0.6737
4844000000.0 -1.206 0.4786
4847000000.0 -0.398 1.219
4850000000.0 0.6929 1.022
4853000000.0 1.237 0.1155
4856000000.0 0.8435 -0.8936
4859000000.0 -0.13 -1.183
4862000000.0 -0.9483 -0.6302
4866000000.0 -1.064 0.3923
4869000000.0 -0.3544 1.064
4872000000.0 0.5919 0.952
4875000000.0 1.099 0.1431
4878000000.0 0.7804 -0.7789
4881000000.0 -0.1226 -1.065
4884000000.0 -0.8642 -0.5641
4888000000.0 -0.9606 0.3472
4891000000.0 -0.3192 0.9499
4894000000.0 0.549 0.876
4897000000.0 1.001 0.09555
4900000000.0 0.6727 -0.6959
4903000000.0 -0.1262 -0.9545
4906000000.0 -0.7829 -0.5209
4909000000.0 -0.8908 0.2929
4912000000.0 -0.2964 0.8936
4916000000.0 0.4844 0.8188
4919000000.0 0.9599 0.1099
4922000000.0 0.69 -0.6673
4925000000.0 -0.07488 -0.9421
4928000000.0 -0.7775 -0.5475
4931000000.0 -0.9029 0.2499
4934000000.0 -0.3938 0.8942
4938000000.0 0.4492 0.8927
4941000000.0 1.007 0.1998
4944000000.0 0.8139 -0.6614
4947000000.0 0.01971 -1.048
4950000000.0 -0.8132 -0.6815
4953000000.0 -1.06 0.2211
4956000000.0 -0.5268 0.9921
4959000000.0 0.4736 1.043
4962000000.0 1.118 0.3036
4966000000.0 0.9348 -0.7035
4969000000.0 0.06357 -1.187
4972000000.0 -0.8986 -0.7976
4975000000.0 -1.187 0.2009
4978000000.0 -0.5887 1.069
4981000000.0 0.4381 1.154
4984000000.0 1.178 0.3828
4988000000.0 1.064 -0.7073
4991000000.0 0.1467 -1.278
4994000000.0 -0.9198 -0.9148
4997000000.0 -1.313 0.1399
5000000000.0 -0.7112 1.101
5003000000.0 0.4058 1.246
5006000000.0 1.251 0.4379
5009000000.0 1.161 -0.6798
5012000000.0 0.1783 -1.292
5016000000.0 -0.898 -0.9585
5019000000.0 -1.298 0.1033
5022000000.0 -0.7441 1.092
5025000000.0 0.3919 1.227
5028000000.0 1.198 0.4494
5031000000.0 1.045 -0.6247
5034000000.0 0.1715 -1.19
5038000000.0 -0.8207 -0.8932
5041000000.0 -1.16 0.08639
5044000000.0 -0.6547 0.9201
5047000000.0 0.304 1.1
5050000000.0 1.004 0.4697
5053000000.0 0.9739 -0.4846
5056000000.0 0.195 -1.038
5059000000.0 -0.679 -0.803
5062000000.0 -1.011 0.03674
5066000000.0 -0.6171 0.8311
5069000000.0 0.275 0.9603
5072000000.0 0.9145 0.3648
5075000000.0 0.8671 -0.4694
5078000000.0 0.1401 -0.9178
5081000000.0 -0.6343 -0.6932
5084000000.0 -0.8998 0.1559
5088000000.0 -0.4589 0.7875
5091000000.0 0.3062 0.8485
5094000000.0 0.8371 0.2416
5097000000.0 0.7169 -0.5182
5100000000.0 0.002022 -0.8864
5103000000.0 -0.7226 -0.5233
5106000000.0 -0.8318 0.2344
5109000000.0 -0.3246 0.8356
5112000000.0 0.5074 0.7592
5116000000.0 0.8973 0.0721
5119000000.0 0.5976 -0.6725
5122000000.0 -0.2137 -0.905
5125000000.0 -0.8757 -0.393
5128000000.0 -0.8304 0.4451
5131000000.0 -0.1435 0.9858
5134000000.0 0.7057 0.6713
5138000000.0 1.008 -0.1292
5141000000.0 0.5433 -0.9001
5144000000.0 -0.4246 -0.9449
5147000000.0 -0.9793 -0.2557
5150000000.0 -0.8049 0.6384
5153000000.0 -0.0009484 1.046
5156000000.0 0.8485 0.6265
5159000000.0 1.024 -0.2914
5162000000.0 0.4322 -0.9602
5166000000.0 -0.5127 -0.937
5169000000.0 -1.061 -0.1606
5172000000.0 -0.7813 0.7277
5175000000.0 0.05666 1.067
5178000000.0 0.884 0.6599
5181000000.0 1.067 -0.3119
5184000000.0 0.4099 -1.005
5188000000.0 -0.5259 -0.9484
5191000000.0 -1.078 -0.1865
5194000000.0 -0.7845 0.7147
5197000000.0 0.0795 1.1
5200000000.0 0.877 0.6277
5203000000.0 1.032 -0.293
5206000000.0 0.3903 -1.007
5209000000.0 -0.5332 -0.9374
5212000000.0 -1.048 -0.163
5216000000.0 -0.7765 0.7256
5219000000.0 0.1115 1.058
5222000000.0 0.912 0.5648
5225000000.0 0.9879 -0.3491
5228000000.0 0.3054 -0.9831
5231000000.0 -0.5638 -0.8527
5234000000.0 -1.034 -0.07265
5238000000.0 -0.6787 0.7671
5241000000.0 0.2016 0.9593
5244000000.0 0.8731 0.4358
5247000000.0 0.8748 -0.474
5250000000.0 0.1399 -0.9817
5253000000.0 -0.69 -0.6984
5256000000.0 -0.9541 0.1223
5259000000.0 -0.4471 0.8728
5262000000.0 0.4117 0.8586
5266000000.0 0.9579 0.1917
5269000000.0 0.6971 -0.6419
5272000000.0 -0.1219 -0.9451
5275000000.0 -0.8296 -0.4693
5278000000.0 -0.8668 0.3891
5281000000.0 -0.2264 0.924
5284000000.0 0.6215 0.7062
5288000000.0 0.9753 -0.03567
5291000000.0 0.5421 -0.8063
5294000000.0 -0.3455 -0.9222
5297000000.0 -0.91 -0.319
5300000000.0 -0.8135 0.5674
5303000000.0 -0.04936 0.9479
5306000000.0 0.7167 0.6474
5309000000.0 0.9426 -0.1851
5312000000.0 0.5013 -0.863
5316000000.0 -0.3958 -0.9097
5319000000.0 -0.9887 -0.2526
5322000000.0 -0.8528 0.5906
5325000000.0 -0.02248 1.033
5328000000.0 0.7799 0.7331
5331000000.0 1.049 -0.1558
5334000000.0 0.5497 -0.9063
5338000000.0 -0.3912 -1.023
5341000000.0 -1.01 -0.3171
5344000000.0 -0.9059 0.6001
5347000000.0 -0.1371 1.058
5350000000.0 0.7396 0.7597
5353000000.0 1.123 -0.07508
5356000000.0 0.6417 -0.9257
5359000000.0 -0.2643 -1.067
5362000000.0 -1.018 -0.4921
5366000000.0 -1.0 0.466
5369000000.0 -0.2982 1.122
5372000000.0 0.6902 0.9229
5375000000.0 1.139 0.06278
5378000000.0 0.7689 -0.858
5381000000.0 -0.1717 -1.171
5384000000.0 -0.9888 -0.6007
5388000000.0 -1.078 0.3894
5391000000.0 -0.3864 1.122
5394000000.0 0.6037 0.9881
5397000000.0 1.127 0.1639
5400000000.0 0.8364 -0.7803
5403000000.0 -0.08833 -1.144
5406000000.0 -0.9773 -0.6413
5409000000.0 -1.08 0.3447
5412000000.0 -0.4343 1.051
5416000000.0 0.5618 0.9943
5419000000.0 1.089 0.1568
5422000000.0 0.8191 -0.7481
5425000000.0 -0.05515 -1.062
5428000000.0 -0.9009 -0.5799
5431000000.0 -1.006 0.3694
5434000000.0 -0.3379 0.9933
5438000000.0 0.5712 0.8665
5441000000.0 1.013 0.06533
5444000000.0 0.6862 -0.7556
5447000000.0 -0.1932 -0.9781
5450000000.0 -0.8659 -0.434
5453000000.0 -0.8636 0.4292
5456000000.0 -0.2041 0.9072
5459000000.0 0.5728 0.7095
5462000000.0 0.9123 -0.02699
5466000000.0 0.4965 -0.7098
5469000000.0 -0.261 -0.8456
5472000000.0 -0.7938 -0.2992
5475000000.0 -0.7423 0.4299
5478000000.0 -0.07298 0.8572
5481000000.0 0.6159 0.6152
5484000000.0 0.8988 -0.0887
5488000000.0 0.4614 -0.7321
5491000000.0 -0.2805 -0.8071
5494000000.0 -0.8052 -0.2394
5497000000.0 -0.7192 0.4548
5500000000.0 -0.09741 0.8596
5503000000.0 0.6443 0.616
5506000000.0 0.8496 -0.1369
5509000000.0 0.4751 -0.7674
5512000000.0 -0.2721 -0.8475
5516000000.0 -0.8506 -0.2906
5519000000.0 -0.7665 0.4554
5522000000.0 -0.1683 0.8791
5525000000.0 0.587 0.6996
5528000000.0 0.9183 -0.0142
5531000000.0 0.5907 -0.69
5534000000.0 -0.2235 -0.9367
5538000000.0 -0.8523 -0.4615
5541000000.0 -0.8776 0.4015
5544000000.0 -0.2697 0.938
5547000000.0 0.5322 0.8158
5550000000.0 1.006 0.1055
5553000000.0 0.72 -0.6973
5556000000.0 -0.08011 -1.006
5559000000.0 -0.8239 -0.5722
5562000000.0 -0.9565 0.2955
5566000000.0 -0.4427 0.9378
5569000000.0 0.4689 0.9014
5572000000.0 1.014 0.2293
5575000000.0 0.8277 -0.6217
5578000000.0 0.04974 -1.055
5581000000.0 -0.7913 -0.7146
5584000000.0 -1.037 0.1397
5588000000.0 -0.556 0.8653
5591000000.0 0.3031 1.004
5594000000.0 0.9657 0.3983
5597000000.0 0.9206 -0.4948
5600000000.0 0.2088 -1.028
5603000000.0 -0.6269 -0.8192
5606000000.0 -1.026 -0.00553
5609000000.0 -0.6698 0.8059
5612000000.0 0.1905 0.985
5616000000.0 0.868 0.5036
5619000000.0 0.9315 -0.3972
5622000000.0 0.3002 -0.9592
5625000000.0 -0.531 -0.8183
5628000000.0 -0.9758 -0.1155
5631000000.0 -0.6885 0.6637
5634000000.0 0.09389 0.9691
5638000000.0 0.81 0.5289
5641000000.0 0.8916 -0.295
5644000000.0 0.3532 -0.883
5647000000.0 -0.4495 -0.812
5650000000.0 -0.9129 -0.1315
5653000000.0 -0.6791 0.6161
5656000000.0 0.07364 0.9159
5659000000.0 0.7695 0.5266
5662000000.0 0.8641 -0.2616
5666000000.0 0.3184 -0.8655
5669000000.0 -0.4549 -0.7926
5672000000.0 -0.8839 -0.1087
5675000000.0 -0.6356 0.6222
5678000000.0 0.1053 0.8893
5681000000.0 0.7685 0.4706
5684000000.0 0.8432 -0.2882
5688000000.0 0.3144 -0.8732
5691000000.0 -0.5055 -0.7533
5694000000.0 -0.9123 -0.05033
5697000000.0 -0.6059 0.6868
5700000000.0 0.1375 0.9025
5703000000.0 0.7863 0.43
5706000000.0 0.8434 -0.3522
5709000000.0 0.2439 -0.9132
5712000000.0 -0.5812 -0.7618
5716000000.0 -0.9354 -0.01739
5719000000.0 -0.6431 0.7201
5722000000.0 0.1971 0.9291
5725000000.0 0.8351 0.4205
5728000000.0 0.9017 -0.3625
5731000000.0 0.2666 -0.9558
5734000000.0 -0.5828 -0.8065
5738000000.0 -1.007 -0.04336
5741000000.0 -0.6993 0.7283
5744000000.0 0.1191 0.9629
5747000000.0 0.8829 0.5387
5750000000.0 0.9849 -0.3479
5753000000.0 0.3566 -0.9745
5756000000.0 -0.5243 -0.8801
5759000000.0 -1.025 -0.1406
5762000000.0 -0.8017 0.694
5766000000.0 0.05721 1.093
5769000000.0 0.8207 0.6474
5772000000.0 1.076 -0.2346
5775000000.0 0.4788 -0.9502
5778000000.0 -0.4273 -0.9975
5781000000.0 -1.034 -0.2952
5784000000.0 -0.8934 0.627
5788000000.0 -0.1156 1.058
5791000000.0 0.7704 0.738
5794000000.0 1.106 -0.08987
5797000000.0 0.6638 -0.857
5800000000.0 -0.2681 -1.036
5803000000.0 -0.9874 -0.4546
5806000000.0 -0.962 0.4506
5809000000.0 -0.2772 1.033
5812000000.0 0.6473 0.8511
5816000000.0 1.068 0.07748
5819000000.0 0.7577 -0.7741
5822000000.0 -0.1277 -1.081
5825000000.0 -0.8975 -0.556
5828000000.0 -1.0 0.3025
5831000000.0 -0.3657 1.001
5834000000.0 0.5082 0.9341
5838000000.0 1.016 0.1496
5841000000.0 0.804 -0.6753
5844000000.0 0.03242 -1.031
5847000000.0 -0.806 -0.6497
5850000000.0 -1.004 0.1821
5853000000.0 -0.4798 0.8928
5856000000.0 0.3963 0.91
5859000000.0 0.9772 0.2542
5862000000.0 0.8024 -0.5656
5866000000.0 0.06059 -0.9968
5869000000.0 -0.7303 -0.6315
5872000000.0 -0.9439 0.148
5875000000.0 -0.451 0.8426
5878000000.0 0.3587 0.8781
5881000000.0 0.9044 0.254
5884000000.0 0.7596 -0.5194
5888000000.0 0.05959 -0.9134
5891000000.0 -0.6814 -0.6383
5894000000.0 -0.8811 0.1206
5897000000.0 -0.4391 0.7754
5900000000.0 0.3277 0.806
5903000000.0 0.7957 0.2709
5906000000.0 0.733 -0.5034
5909000000.0 0.08028 -0.8707
5912000000.0 -0.6301 -0.6384
5916000000.0 -0.8127 0.1425
5919000000.0 -0.4641 0.7347
5922000000.0 0.2914 0.8057
5925000000.0 0.798 0.3063
5928000000.0 0.7215 -0.4221
5931000000.0 0.1287 -0.8278
5934000000.0 -0.5291 -0.6585
5938000000.0 -0.852 0.06271
5941000000.0 -0.5119 0.7157
5944000000.0 0.2055 0.8289
5947000000.0 0.7755 0.3635
5950000000.0 0.7479 -0.3883
5953000000.0 0.2021 -0.8397
5956000000.0 -0.5302 -0.6795
5959000000.0 -0.8773 -0.03116
5962000000.0 -0.5868 0.6743
5966000000.0 0.1435 0.8602
5969000000.0 0.747 0.4609
5972000000.0 0.8514 -0.3152
5975000000.0 0.3201 -0.8278
5978000000.0 -0.4331 -0.7896
5981000000.0 -0.8953 -0.1736
5984000000.0 -0.7411 0.5923
5988000000.0 -0.02465 0.9306
5991000000.0 0.7106 0.6211
5994000000.0 0.9075 -0.1704
5997000000.0 0.4894 -0.8414
6000000000.0 -0.3369 -0.9145
6003000000.0 -0.9102 -0.3047
6006000000.0 -0.8108 0.504
6009000000.0 -0.1578 0.9395
6012000000.0 0.6368 0.7097
6016000000.0 0.975 -0.04415
6019000000.0 0.612 -0.7765
6022000000.0 -0.2416 -0.9394
6025000000.0 -0.9058 -0.4704
6028000000.0 -0.8851 0.3916
6031000000.0 -0.2887 0.935
6034000000.0 0.5946 0.828
6038000000.0 0.9632 0.07102
6041000000.0 0.686 -0.7357
6044000000.0 -0.1096 -0.9859
6047000000.0 -0.8228 -0.5268
6050000000.0 -0.9686 0.307
6053000000.0 -0.3433 0.9424
6056000000.0 0.5017 0.8524
6059000000.0 0.9846 0.1618
6062000000.0 0.7432 -0.6491
6066000000.0 -0.05572 -0.9612
6069000000.0 -0.778 -0.5732
6072000000.0 -0.9307 0.2944
6075000000.0 -0.3941 0.8951
6078000000.0 0.4379 0.8196
6081000000.0 0.9283 0.1856
6084000000.0 0.698 -0.5977
6088000000.0 -0.01583 -0.907
6091000000.0 -0.7316 -0.5653
6094000000.0 -0.9062 0.1956
6097000000.0 -0.4127 0.8159
6100000000.0 0.3715 0.8016
6103000000.0 0.8418 0.2177
6106000000.0 0.6866 -0.5342
6109000000.0 0.02297 -0.887
6112000000.0 -0.663 -0.5905
6116000000.0 -0.8705 0.1737
6119000000.0 -0.4008 0.7547
6122000000.0 0.3103 0.78
6125000000.0 0.856 0.2445
6128000000.0 0.705 -0.5194
6131000000.0 0.0942 -0.881
6134000000.0 -0.6495 -0.5792
6138000000.0 -0.8206 0.1155
6141000000.0 -0.4311 0.7475
6144000000.0 0.3045 0.7988
6147000000.0 0.8122 0.2245
6150000000.0 0.7203 -0.4601
6153000000.0 0.08427 -0.8227
6156000000.0 -0.597 -0.6064
6159000000.0 -0.8515 0.112
6162000000.0 -0.4567 0.7704
6166000000.0 0.2568 0.8377
6169000000.0 0.8647 0.3549
6172000000.0 0.755 -0.4556
6175000000.0 0.1299 -0.8688
6178000000.0 -0.5949 -0.6561
6181000000.0 -0.8933 0.02904
6184000000.0 -0.5504 0.7303
6188000000.0 0.2386 0.8646
6191000000.0 0.8403 0.3675
6194000000.0 0.7964 -0.397
6197000000.0 0.2111 -0.8793
6200000000.0 -0.5221 -0.7063
6203000000.0 -0.8749 -0.04898
6206000000.0 -0.568 0.6766
6209000000.0 0.1913 0.8924
6212000000.0 0.7953 0.4651
6216000000.0 0.8557 -0.3191
6219000000.0 0.2866 -0.8573
6222000000.0 -0.4782 -0.7773
6225000000.0 -0.9177 -0.1213
6228000000.0 -0.6167 0.6117
6231000000.0 0.06334 0.9042
6234000000.0 0.7249 0.4675
6238000000.0 0.8447 -0.2347
6241000000.0 0.4062 -0.8022
6244000000.0 -0.3573 -0.7891
6247000000.0 -0.8459 -0.191
6250000000.0 -0.7031 0.4882
6253000000.0 -0.02887 0.8387
6256000000.0 0.6227 0.5816
6259000000.0 0.807 -0.1129
6262000000.0 0.4474 -0.6666
6266000000.0 -0.2412 -0.796
6269000000.0 -0.7608 -0.3312
