! Created with skrf 1.8.0 (http://scikit-rf.org).
# Hz S RI R 50.0 
!freq ReS11 ImS11
4000000000.0 -0.2069 -1.495
4003000000.0 -1.303 -0.749
4006000000.0 -1.436 0.5174
4009000000.0 -0.4663 1.48
4012000000.0 0.8666 1.316
4016000000.0 1.571 0.1708
4019000000.0 1.123 -1.038
4022000000.0 -0.2032 -1.57
4025000000.0 -1.314 -0.873
4028000000.0 -1.519 0.4961
4031000000.0 -0.5263 1.562
4034000000.0 0.8466 1.372
4038000000.0 1.643 0.1735
4041000000.0 1.172 -1.142
4044000000.0 -0.1671 -1.602
4047000000.0 -1.384 -0.8678
4050000000.0 -1.561 0.5592
4053000000.0 -0.5731 1.493
4056000000.0 0.8143 1.448
4059000000.0 1.612 0.2371
4062000000.0 1.248 -1.019
4066000000.0 -0.0457 -1.604
4069000000.0 -1.29 -1.031
4072000000.0 -1.582 0.3145
4075000000.0 -0.7524 1.435
4078000000.0 0.6302 1.53
4081000000.0 1.589 0.528
4084000000.0 1.401 -0.9109
4088000000.0 0.1803 -1.673
4091000000.0 -1.159 -1.174
4094000000.0 -1.67 0.1694
4097000000.0 -0.9461 1.379
4100000000.0 0.4524 1.551
4103000000.0 1.478 0.6441
4106000000.0 1.409 -0.7011
4109000000.0 0.3881 -1.506
4112000000.0 -0.8865 -1.269
4116000000.0 -1.521 -0.1342
4119000000.0 -1.086 1.061
4122000000.0 0.06553 1.498
4125000000.0 1.181 0.9358
4128000000.0 1.455 -0.2742
4131000000.0 0.7305 -1.301
4134000000.0 -0.5096 -1.421
4138000000.0 -1.4 -0.5653
4141000000.0 -1.335 0.7104
4144000000.0 -0.3424 1.468
4147000000.0 0.8983 1.225
4150000000.0 1.532 0.05647
4153000000.0 1.061 -1.096
4156000000.0 -0.2069 -1.496
4159000000.0 -1.283 -0.8417
4162000000.0 -1.466 0.4509
4166000000.0 -0.5822 1.366
4169000000.0 0.6946 1.382
4172000000.0 1.469 0.336
4175000000.0 1.221 -0.9017
4178000000.0 0.1043 -1.522
4181000000.0 -1.107 -1.087
4184000000.0 -1.519 0.1487
4188000000.0 -0.8135 1.29
4191000000.0 0.452 1.468
4194000000.0 1.428 0.5779
4197000000.0 1.366 -0.7284
4200000000.0 0.2841 -1.538
4203000000.0 -1.08 -1.215
4206000000.0 -1.636 0.05417
4209000000.0 -0.9635 1.314
4212000000.0 0.4595 1.636
4216000000.0 1.532 0.6411
4219000000.0 1.453 -0.8636
4222000000.0 0.2204 -1.702
4225000000.0 -1.218 -1.201
4228000000.0 -1.68 0.2572
4231000000.0 -0.7765 1.482
4234000000.0 0.6756 1.489
4238000000.0 1.6 0.3666
4241000000.0 1.271 -1.057
4244000000.0 -0.05466 -1.607
4247000000.0 -1.302 -0.9322
4250000000.0 -1.494 0.4332
4253000000.0 -0.5487 1.478
4256000000.0 0.8397 1.318
4259000000.0 1.53 0.2157
4262000000.0 1.095 -1.09
4266000000.0 -0.2165 -1.512
4269000000.0 -1.324 -0.7426
4272000000.0 -1.388 0.5605
4275000000.0 -0.4172 1.394
4278000000.0 0.8535 1.132
4281000000.0 1.472 0.07267
4284000000.0 0.9308 -1.082
4288000000.0 -0.2274 -1.383
4291000000.0 -1.192 -0.6383
4294000000.0 -1.262 0.5349
4297000000.0 -0.3997 1.277
4300000000.0 0.7172 1.069
4303000000.0 1.295 0.1425
4306000000.0 0.971 -0.9065
4309000000.0 -0.08984 -1.277
4312000000.0 -1.063 -0.7698
4316000000.0 -1.249 0.3169
4319000000.0 -0.6235 1.181
4322000000.0 0.5152 1.212
4325000000.0 1.26 0.4478
4328000000.0 1.128 -0.7216
4331000000.0 0.1874 -1.375
4334000000.0 -0.9357 -1.028
4338000000.0 -1.37 0.06935
4341000000.0 -0.8567 1.122
4344000000.0 0.3256 1.392
4347000000.0 1.298 0.6475
4350000000.0 1.368 -0.5901
4353000000.0 0.3966 -1.383
4356000000.0 -0.8254 -1.2
4359000000.0 -1.44 -0.1487
4362000000.0 -1.056 1.066
4366000000.0 0.1487 1.498
4369000000.0 1.239 0.8585
4372000000.0 1.47 -0.4281
4375000000.0 0.5851 -1.394
4378000000.0 -0.7216 -1.343
4381000000.0 -1.504 -0.3328
4384000000.0 -1.219 0.9556
4388000000.0 -0.01571 1.557
4391000000.0 1.201 1.006
4394000000.0 1.558 -0.3103
4397000000.0 0.7252 -1.421
4400000000.0 -0.6508 -1.458
4403000000.0 -1.576 -0.3663
4406000000.0 -1.262 1.008
4409000000.0 0.003336 1.599
4412000000.0 1.234 0.9816
4416000000.0 1.518 -0.3983
4419000000.0 0.6401 -1.414
4422000000.0 -0.7354 -1.368
4425000000.0 -1.429 -0.2402
4428000000.0 -1.098 0.9817
4431000000.0 0.09011 1.455
4434000000.0 1.184 0.7907
4438000000.0 1.329 -0.4827
4441000000.0 0.4699 -1.264
4444000000.0 -0.7184 -1.146
4447000000.0 -1.334 -0.1013
4450000000.0 -0.8964 0.9879
4453000000.0 0.1946 1.313
4456000000.0 1.182 0.6501
4459000000.0 1.195 -0.497
4462000000.0 0.3045 -1.221
4466000000.0 -0.7734 -0.9465
4469000000.0 -1.24 0.02806
4472000000.0 -0.7365 0.9903
4475000000.0 0.3123 1.139
4478000000.0 1.074 0.4731
4481000000.0 1.03 -0.55
4484000000.0 0.1967 -1.137
4488000000.0 -0.7656 -0.8475
4491000000.0 -1.15 0.05448
4494000000.0 -0.6647 0.9121
4497000000.0 0.3202 1.092
4500000000.0 1.077 0.4517
4503000000.0 0.9975 -0.5071
4506000000.0 0.194 -1.074
4509000000.0 -0.7232 -0.8664
4512000000.0 -1.086 0.01818
4516000000.0 -0.7172 0.9002
4519000000.0 0.2798 1.108
4522000000.0 1.03 0.5232
4525000000.0 1.071 -0.4905
4528000000.0 0.3258 -1.163
4531000000.0 -0.7213 -0.9316
4534000000.0 -1.182 -0.06448
4538000000.0 -0.7977 0.8611
4541000000.0 0.1765 1.175
4544000000.0 1.022 0.6656
4547000000.0 1.156 -0.3562
4550000000.0 0.4417 -1.172
4553000000.0 -0.5961 -1.081
4556000000.0 -1.236 -0.2777
4559000000.0 -1.007 0.776
4562000000.0 -0.06729 1.29
4566000000.0 0.9638 0.8661
4569000000.0 1.295 -0.1849
4572000000.0 0.6907 -1.124
4575000000.0 -0.4051 -1.247
4578000000.0 -1.23 -0.4845
4581000000.0 -1.182 0.6338
4584000000.0 -0.2665 1.338
4588000000.0 0.8613 1.078
4591000000.0 1.384 0.004332
4594000000.0 0.91 -1.059
4597000000.0 -0.2501 -1.373
4600000000.0 -1.243 -0.6671
4603000000.0 -1.306 0.513
4606000000.0 -0.4189 1.357
4609000000.0 0.7873 1.181
4612000000.0 1.396 0.1338
4616000000.0 1.015 -0.9826
4619000000.0 -0.115 -1.398
4622000000.0 -1.16 -0.7575
4625000000.0 -1.311 0.4237
4628000000.0 -0.4993 1.314
4631000000.0 0.6813 1.217
4634000000.0 1.375 0.2056
4638000000.0 1.043 -0.9111
4641000000.0 -0.07668 -1.359
4644000000.0 -1.084 -0.7908
4647000000.0 -1.277 0.3609
4650000000.0 -0.5023 1.216
4653000000.0 0.6262 1.155
4656000000.0 1.251 0.2213
4659000000.0 0.9741 -0.8765
4662000000.0 -0.1159 -1.275
4666000000.0 -1.024 -0.6941
4669000000.0 -1.118 0.3438
4672000000.0 -0.4123 1.122
4675000000.0 0.5959 1.003
4678000000.0 1.161 0.181
4681000000.0 0.8523 -0.7836
4684000000.0 -0.08638 -1.137
4688000000.0 -0.947 -0.6381
4691000000.0 -1.097 0.3551
4694000000.0 -0.4291 1.032
4697000000.0 0.5629 0.9509
4700000000.0 1.064 0.1489
4703000000.0 0.7942 -0.7963
4706000000.0 -0.09569 -1.109
4709000000.0 -0.9271 -0.6157
4712000000.0 -1.034 0.3345
4716000000.0 -0.4089 1.046
4719000000.0 0.6041 0.9094
4722000000.0 1.075 0.1732
4725000000.0 0.7583 -0.7359
4728000000.0 -0.1032 -1.09
4731000000.0 -0.9001 -0.6286
4734000000.0 -1.037 0.302
4738000000.0 -0.4082 0.9727
4741000000.0 0.4691 0.9741
4744000000.0 1.032 0.2109
4747000000.0 0.8558 -0.6389
4750000000.0 0.05569 -1.086
4753000000.0 -0.8209 -0.7281
4756000000.0 -1.09 0.1393
4759000000.0 -0.6103 0.9387
4762000000.0 0.3623 1.084
4766000000.0 1.067 0.4366
4769000000.0 1.04 -0.5503
4772000000.0 0.2393 -1.147
4775000000.0 -0.7462 -0.9357
4778000000.0 -1.199 -0.04515
4781000000.0 -0.7859 0.8974
4784000000.0 0.2007 1.218
4788000000.0 1.027 0.6372
4791000000.0 1.194 -0.4087
4794000000.0 0.4893 -1.161
4797000000.0 -0.5681 -1.127
4800000000.0 -1.248 -0.2794
4803000000.0 -1.034 0.7683
4806000000.0 -0.07 1.287
4809000000.0 0.946 0.8644
4812000000.0 1.311 -0.1695
4816000000.0 0.7177 -1.143
4819000000.0 -0.3991 -1.286
4822000000.0 -1.267 -0.5078
4825000000.0 -1.223 0.6578
4828000000.0 -0.2707 1.353
4831000000.0 0.8847 1.086
4834000000.0 1.392 0.01254
4838000000.0 0.8819 -1.097
4841000000.0 -0.2902 -1.396
4844000000.0 -1.245 -0.6472
4847000000.0 -1.348 0.5578
4850000000.0 -0.3814 1.352
4853000000.0 0.7945 1.126
4856000000.0 1.378 0.115
4859000000.0 0.9341 -0.9891
4862000000.0 -0.1766 -1.336
4866000000.0 -1.151 -0.7036
4869000000.0 -1.247 0.4542
4872000000.0 -0.4651 1.266
4875000000.0 0.6789 1.131
4878000000.0 1.278 0.1752
4881000000.0 0.9271 -0.8275
4884000000.0 -0.06506 -1.257
4888000000.0 -1.013 -0.7062
4891000000.0 -1.174 0.3297
4894000000.0 -0.4288 1.103
4897000000.0 0.5562 1.026
4900000000.0 1.102 0.2008
4903000000.0 0.8344 -0.7213
4906000000.0 -0.03718 -1.098
4909000000.0 -0.8416 -0.6627
4912000000.0 -1.007 0.2295
4916000000.0 -0.4524 0.9378
4919000000.0 0.4468 0.9384
4922000000.0 0.9332 0.2299
4925000000.0 0.8126 -0.5687
4928000000.0 0.05465 -0.9763
4931000000.0 -0.6989 -0.6423
4934000000.0 -0.9417 0.1412
4938000000.0 -0.4948 0.8125
4941000000.0 0.3289 0.9031
4944000000.0 0.9208 0.3087
4947000000.0 0.8391 -0.4816
4950000000.0 0.1483 -0.9468
4953000000.0 -0.6311 -0.715
4956000000.0 -0.9787 0.0705
4959000000.0 -0.5676 0.7948
4962000000.0 0.2727 0.9723
4966000000.0 0.9213 0.3805
4969000000.0 0.909 -0.4399
4972000000.0 0.218 -0.9974
4975000000.0 -0.6306 -0.8178
4978000000.0 -1.017 -0.02423
4981000000.0 -0.708 0.7661
4984000000.0 0.1728 1.07
4988000000.0 0.9511 0.5526
4991000000.0 1.019 -0.3622
4994000000.0 0.4017 -1.048
4997000000.0 -0.5483 -0.9782
5000000000.0 -1.144 -0.1869
5003000000.0 -0.8751 0.7862
5006000000.0 0.02545 1.201
5009000000.0 0.9348 0.7511
5012000000.0 1.208 -0.25
5016000000.0 0.5602 -1.137
5019000000.0 -0.5096 -1.163
5022000000.0 -1.22 -0.3534
5025000000.0 -1.058 0.7432
5028000000.0 -0.09167 1.301
5031000000.0 0.9528 0.905
5034000000.0 1.313 -0.1407
5038000000.0 0.7104 -1.113
5041000000.0 -0.372 -1.257
5044000000.0 -1.196 -0.4971
5047000000.0 -1.186 0.5767
5050000000.0 -0.2972 1.276
5053000000.0 0.8034 1.036
5056000000.0 1.302 0.08617
5059000000.0 0.8829 -0.9751
5062000000.0 -0.1663 -1.308
5066000000.0 -1.099 -0.7143
5069000000.0 -1.257 0.3868
5072000000.0 -0.4916 1.205
5075000000.0 0.6146 1.131
5078000000.0 1.249 0.229
5081000000.0 0.9637 -0.7799
5084000000.0 0.04097 -1.275
5088000000.0 -0.9411 -0.8165
5091000000.0 -1.166 0.2104
5094000000.0 -0.5965 1.052
5097000000.0 0.4095 1.086
5100000000.0 1.074 0.4096
5103000000.0 1.002 -0.5728
5106000000.0 0.2153 -1.085
5109000000.0 -0.6903 -0.888
5112000000.0 -1.091 -0.02036
5116000000.0 -0.7324 0.8325
5119000000.0 0.1589 1.053
5122000000.0 0.8684 0.5234
5125000000.0 0.9808 -0.382
5128000000.0 0.3011 -0.9636
5131000000.0 -0.5254 -0.8641
5134000000.0 -0.9857 -0.1544
5138000000.0 -0.7033 0.7019
5141000000.0 0.03754 0.9943
5144000000.0 0.7678 0.5508
5147000000.0 0.9122 -0.2411
5150000000.0 0.367 -0.8679
5153000000.0 -0.3964 -0.8391
5156000000.0 -0.9051 -0.2043
5159000000.0 -0.7146 0.6069
5162000000.0 -0.002439 0.9112
5166000000.0 0.6976 0.579
5169000000.0 0.8933 -0.1755
5172000000.0 0.4307 -0.7843
5175000000.0 -0.3407 -0.8605
5178000000.0 -0.871 -0.2314
5181000000.0 -0.7636 0.5148
5184000000.0 -0.03524 0.8977
5188000000.0 0.6924 0.6261
5191000000.0 0.9349 -0.1557
5194000000.0 0.4462 -0.8126
5197000000.0 -0.393 -0.8583
5200000000.0 -0.872 -0.2522
5203000000.0 -0.8086 0.5496
5206000000.0 -0.06389 0.9445
5209000000.0 0.7333 0.6727
5212000000.0 0.9805 -0.1699
5216000000.0 0.5214 -0.8286
5219000000.0 -0.3382 -0.9624
5222000000.0 -0.9522 -0.3388
5225000000.0 -0.865 0.5134
5228000000.0 -0.1399 1.025
5231000000.0 0.6975 0.7718
5234000000.0 1.026 -0.0508
5238000000.0 0.626 -0.8664
5241000000.0 -0.2603 -1.015
5244000000.0 -0.983 -0.4277
5247000000.0 -0.9632 0.462
5250000000.0 -0.2652 1.043
5253000000.0 0.6486 0.8874
5256000000.0 1.08 0.06844
5259000000.0 0.7386 -0.8121
5262000000.0 -0.1002 -1.087
5266000000.0 -0.9495 -0.6332
5269000000.0 -1.059 0.3185
5272000000.0 -0.4495 1.0
5275000000.0 0.4725 1.034
5278000000.0 1.062 0.267
5281000000.0 0.9102 -0.6212
5284000000.0 0.09887 -1.124
5288000000.0 -0.7813 -0.8104
5291000000.0 -1.098 0.08771
5294000000.0 -0.6864 0.9115
5297000000.0 0.2452 1.115
5300000000.0 1.005 0.5438
5303000000.0 1.053 -0.4377
5306000000.0 0.3634 -1.072
5309000000.0 -0.6061 -0.9884
5312000000.0 -1.151 -0.1598
5316000000.0 -0.8523 0.7878
5319000000.0 0.02743 1.165
5322000000.0 0.9018 0.6995
5325000000.0 1.147 -0.2597
5328000000.0 0.5086 -1.036
5331000000.0 -0.4444 -1.058
5334000000.0 -1.087 -0.3403
5338000000.0 -0.9162 0.6222
5341000000.0 -0.08518 1.138
5344000000.0 0.809 0.8006
5347000000.0 1.103 -0.1248
5350000000.0 0.5954 -0.9359
5353000000.0 -0.3533 -1.029
5356000000.0 -1.043 -0.393
5359000000.0 -0.9469 0.5198
5362000000.0 -0.1882 1.061
5366000000.0 0.6951 0.7796
5369000000.0 1.071 -0.08631
5372000000.0 0.6105 -0.8491
5375000000.0 -0.2722 -0.9774
5378000000.0 -0.9643 -0.4144
5381000000.0 -0.8722 0.4894
5384000000.0 -0.1637 0.9697
5388000000.0 0.6674 0.714
5391000000.0 0.9579 -0.08334
5394000000.0 0.5217 -0.7985
5397000000.0 -0.2918 -0.8943
5400000000.0 -0.8957 -0.3119
5403000000.0 -0.7384 0.4579
5406000000.0 -0.09696 0.8923
5409000000.0 0.6246 0.6281
5412000000.0 0.8818 -0.1426
5416000000.0 0.4787 -0.7505
5419000000.0 -0.2596 -0.8285
5422000000.0 -0.842 -0.2803
5425000000.0 -0.7466 0.4686
5428000000.0 -0.1019 0.8664
5431000000.0 0.6412 0.637
5434000000.0 0.8993 -0.1109
5438000000.0 0.4821 -0.7513
5441000000.0 -0.2836 -0.8574
5444000000.0 -0.8405 -0.2785
5447000000.0 -0.7583 0.4297
5450000000.0 -0.1296 0.8873
5453000000.0 0.6295 0.6684
5456000000.0 0.9079 -0.08337
5459000000.0 0.5492 -0.7879
5462000000.0 -0.2184 -0.8965
5466000000.0 -0.8468 -0.4045
5469000000.0 -0.8273 0.3955
5472000000.0 -0.2088 0.9035
5475000000.0 0.5586 0.7675
5478000000.0 0.9503 0.03726
5481000000.0 0.6891 -0.6867
5484000000.0 -0.09378 -0.9813
5488000000.0 -0.8523 -0.5644
5491000000.0 -0.9823 0.2897
5494000000.0 -0.4271 0.9572
5497000000.0 0.4742 0.9236
5500000000.0 0.9806 0.2103
5503000000.0 0.8565 -0.6158
5506000000.0 0.03564 -1.054
5509000000.0 -0.7586 -0.7146
5512000000.0 -1.063 0.09861
5516000000.0 -0.5883 0.872
5519000000.0 0.3039 1.031
5522000000.0 0.9452 0.4218
5525000000.0 0.9536 -0.4876
5528000000.0 0.2627 -1.027
5531000000.0 -0.6198 -0.8928
5534000000.0 -1.094 -0.1071
5538000000.0 -0.7502 0.7078
5541000000.0 0.115 1.103
5544000000.0 0.8947 0.6193
5547000000.0 1.054 -0.3038
5550000000.0 0.4545 -0.9749
5553000000.0 -0.4743 -0.9515
5556000000.0 -1.063 -0.2494
5559000000.0 -0.8381 0.6183
5562000000.0 -0.04367 1.042
5566000000.0 0.7769 0.6961
5569000000.0 1.02 -0.1789
5572000000.0 0.5327 -0.88
5575000000.0 -0.323 -0.9684
5578000000.0 -0.9304 -0.347
5581000000.0 -0.8572 0.4963
5584000000.0 -0.1511 0.9651
5588000000.0 0.6506 0.7307
5591000000.0 0.9353 -0.1003
5594000000.0 0.5699 -0.7832
5597000000.0 -0.2333 -0.8683
5600000000.0 -0.8304 -0.3822
5603000000.0 -0.8294 0.3744
5606000000.0 -0.2123 0.8972
5609000000.0 0.5562 0.692
5612000000.0 0.855 0.02475
5616000000.0 0.563 -0.6692
5619000000.0 -0.1569 -0.8419
5622000000.0 -0.7365 -0.3854
5625000000.0 -0.7524 0.3273
5628000000.0 -0.2235 0.7985
5631000000.0 0.4858 0.6812
5634000000.0 0.8408 0.04547
5638000000.0 0.5498 -0.6491
5641000000.0 -0.1354 -0.8047
5644000000.0 -0.7428 -0.3994
5647000000.0 -0.801 0.3006
5650000000.0 -0.2504 0.7952
5653000000.0 0.49 0.6882
5656000000.0 0.8626 0.03416
5659000000.0 0.5798 -0.6751
5662000000.0 -0.1623 -0.828
5666000000.0 -0.7654 -0.4278
5669000000.0 -0.8142 0.3366
5672000000.0 -0.25 0.8618
5675000000.0 0.5452 0.7657
5678000000.0 0.9402 0.04967
5681000000.0 0.6587 -0.6877
5684000000.0 -0.1046 -0.942
5688000000.0 -0.8244 -0.5063
5691000000.0 -0.9228 0.3339
5694000000.0 -0.3507 0.978
5697000000.0 0.5422 0.8348
5700000000.0 1.011 0.1418
5703000000.0 0.7507 -0.7172
5706000000.0 -0.04455 -1.016
5709000000.0 -0.8386 -0.589
5712000000.0 -1.02 0.2636
5716000000.0 -0.4718 0.9763
5719000000.0 0.4682 0.919
5722000000.0 1.055 0.2772
5725000000.0 0.8803 -0.6465
5728000000.0 0.06718 -1.097
5731000000.0 -0.8222 -0.7928
5734000000.0 -1.083 0.127
5738000000.0 -0.6147 0.9469
5741000000.0 0.3397 1.034
5744000000.0 1.01 0.4334
5747000000.0 0.9588 -0.524
5750000000.0 0.2166 -1.095
5753000000.0 -0.7209 -0.8785
5756000000.0 -1.114 -0.02186
5759000000.0 -0.7387 0.8635
5762000000.0 0.1635 1.105
5766000000.0 0.9718 0.5557
5769000000.0 1.025 -0.4007
5772000000.0 0.3855 -1.061
5775000000.0 -0.556 -0.9559
5778000000.0 -1.081 -0.1604
5781000000.0 -0.8384 0.7259
5784000000.0 0.01269 1.088
5788000000.0 0.8145 0.6719
5791000000.0 1.061 -0.2299
5794000000.0 0.4922 -0.9741
5797000000.0 -0.4227 -0.9911
5800000000.0 -1.006 -0.3092
5803000000.0 -0.8927 0.5685
5806000000.0 -0.09805 0.996
5809000000.0 0.7623 0.7202
5812000000.0 1.026 -0.09774
5816000000.0 0.5822 -0.8642
5819000000.0 -0.3076 -0.9601
5822000000.0 -0.9121 -0.3922
5825000000.0 -0.8714 0.5032
5828000000.0 -0.1811 0.9838
5831000000.0 0.6279 0.7232
5834000000.0 0.9689 -0.02638
5838000000.0 0.5872 -0.7525
5841000000.0 -0.2305 -0.924
5844000000.0 -0.8703 -0.3918
5847000000.0 -0.8451 0.421
5850000000.0 -0.1881 0.9332
5853000000.0 0.6302 0.695
5856000000.0 0.9492 -0.01414
5859000000.0 0.5579 -0.7288
5862000000.0 -0.2017 -0.9014
5866000000.0 -0.8211 -0.4003
5869000000.0 -0.807 0.4074
5872000000.0 -0.2006 0.8915
5875000000.0 0.587 0.6851
5878000000.0 0.8682 -0.004597
5881000000.0 0.55 -0.6938
5884000000.0 -0.193 -0.849
5888000000.0 -0.8003 -0.3979
5891000000.0 -0.7688 0.3548
5894000000.0 -0.2223 0.8353
5897000000.0 0.5175 0.7308
5900000000.0 0.8708 0.04983
5903000000.0 0.6041 -0.6672
5906000000.0 -0.1301 -0.857
5909000000.0 -0.7488 -0.4531
5912000000.0 -0.8236 0.3013
5916000000.0 -0.2927 0.8371
5919000000.0 0.4553 0.7827
5922000000.0 0.8836 0.1384
5925000000.0 0.6509 -0.5909
5928000000.0 -0.01843 -0.9287
5931000000.0 -0.7359 -0.5497
5934000000.0 -0.8685 0.179
5938000000.0 -0.3961 0.8224
5941000000.0 0.3735 0.8319
5944000000.0 0.9245 0.2693
5947000000.0 0.8049 -0.5191
5950000000.0 0.08433 -0.9524
5953000000.0 -0.6481 -0.6895
5956000000.0 -0.9575 0.0735
5959000000.0 -0.5136 0.7846
5962000000.0 0.2635 0.9189
5966000000.0 0.886 0.4032
5969000000.0 0.8719 -0.3993
5972000000.0 0.2445 -0.9876
5975000000.0 -0.5706 -0.7979
5978000000.0 -1.005 -0.06724
5981000000.0 -0.7076 0.7553
5984000000.0 0.1282 1.028
5988000000.0 0.8709 0.5185
5991000000.0 0.9538 -0.3043
5994000000.0 0.3907 -0.9512
5997000000.0 -0.5009 -0.9089
6000000000.0 -1.031 -0.1894
6003000000.0 -0.7768 0.6449
6006000000.0 0.02034 1.017
6009000000.0 0.8051 0.6414
6012000000.0 0.9939 -0.2291
6016000000.0 0.4621 -0.8876
6019000000.0 -0.4125 -0.9142
6022000000.0 -0.9716 -0.2529
6025000000.0 -0.7833 0.5673
6028000000.0 -0.03379 0.9868
6031000000.0 0.6919 0.6505
6034000000.0 0.9336 -0.1287
6038000000.0 0.4513 -0.8278
6041000000.0 -0.3473 -0.8929
6044000000.0 -0.8752 -0.2748
6047000000.0 -0.7768 0.5181
6050000000.0 -0.08813 0.9101
6053000000.0 0.6676 0.6463
6056000000.0 0.9135 -0.1046
6059000000.0 0.4713 -0.7736
6062000000.0 -0.2923 -0.8386
6066000000.0 -0.8242 -0.2829
6069000000.0 -0.7378 0.4614
6072000000.0 -0.1336 0.8646
6075000000.0 0.595 0.6451
6078000000.0 0.8396 -0.05805
6081000000.0 0.4797 -0.7104
6084000000.0 -0.226 -0.8053
6088000000.0 -0.7815 -0.2939
6091000000.0 -0.7323 0.4202
6094000000.0 -0.1623 0.8476
6097000000.0 0.5729 0.655
6100000000.0 0.8627 -0.04485
6103000000.0 0.5189 -0.7178
6106000000.0 -0.2364 -0.8376
6109000000.0 -0.8048 -0.3587
6112000000.0 -0.8034 0.4017
6116000000.0 -0.1925 0.8749
6119000000.0 0.5324 0.7095
6122000000.0 0.9079 0.02744
6125000000.0 0.5645 -0.7115
6128000000.0 -0.232 -0.8804
6131000000.0 -0.8081 -0.3956
6134000000.0 -0.8164 0.3701
6138000000.0 -0.274 0.8783
6141000000.0 0.5644 0.7459
6144000000.0 0.9251 0.02353
6147000000.0 0.6351 -0.6914
6150000000.0 -0.1456 -0.9319
6153000000.0 -0.8368 -0.4879
6156000000.0 -0.8926 0.3261
6159000000.0 -0.3262 0.925
6162000000.0 0.4861 0.8094
6166000000.0 0.9576 0.13
6169000000.0 0.7059 -0.6701
6172000000.0 -0.0755 -0.9851
6175000000.0 -0.7927 -0.5581
6178000000.0 -0.9163 0.2806
6181000000.0 -0.3979 0.9229
6184000000.0 0.4672 0.8666
6188000000.0 0.9783 0.1865
6191000000.0 0.751 -0.6261
6194000000.0 -0.03578 -0.9569
6197000000.0 -0.7643 -0.6053
6200000000.0 -0.9474 0.2081
6203000000.0 -0.431 0.8775
6206000000.0 0.3887 0.8633
6209000000.0 0.8981 0.2767
6212000000.0 0.7954 -0.5393
6216000000.0 0.06924 -0.9307
6219000000.0 -0.6553 -0.669
6222000000.0 -0.9415 0.1033
6225000000.0 -0.5343 0.7712
6228000000.0 0.2605 0.8835
6231000000.0 0.8142 0.3179
6234000000.0 0.8378 -0.4165
6238000000.0 0.187 -0.9055
6241000000.0 -0.5392 -0.6797
6244000000.0 -0.8897 0.008088
6247000000.0 -0.567 0.6574
6250000000.0 0.1643 0.8681
6253000000.0 0.7216 0.4305
6256000000.0 0.7905 -0.3056
6259000000.0 0.2628 -0.7782
6262000000.0 -0.4575 -0.6944
6266000000.0 -0.8239 -0.1277
