! Created with skrf 1.8.0 (http://scikit-rf.org).
# Hz S RI R 50.0 
!freq ReS11 ImS11
4000000000.0 -0.1914 -1.487
4003000000.0 -1.253 -0.8246
4006000000.0 -1.442 0.5476
4009000000.0 -0.5131 1.342
4012000000.0 0.7818 1.311
4016000000.0 1.506 0.1609
4019000000.0 1.093 -1.102
4022000000.0 -0.1147 -1.557
4025000000.0 -1.307 -0.8542
4028000000.0 -1.47 0.4916
4031000000.0 -0.5396 1.538
4034000000.0 0.8454 1.363
4038000000.0 1.616 0.2477
4041000000.0 1.196 -1.125
4044000000.0 -0.1469 -1.628
4047000000.0 -1.394 -0.8969
4050000000.0 -1.541 0.468
4053000000.0 -0.6159 1.522
4056000000.0 0.7431 1.408
4059000000.0 1.586 0.3316
4062000000.0 1.241 -1.019
4066000000.0 -0.0008361 -1.607
4069000000.0 -1.256 -1.061
4072000000.0 -1.579 0.2924
4075000000.0 -0.7994 1.409
4078000000.0 0.6215 1.527
4081000000.0 1.528 0.4904
4084000000.0 1.405 -0.8736
4088000000.0 0.1862 -1.643
4091000000.0 -1.149 -1.232
4094000000.0 -1.624 0.09693
4097000000.0 -0.9593 1.339
4100000000.0 0.3826 1.558
4103000000.0 1.433 0.7103
4106000000.0 1.42 -0.6487
4109000000.0 0.4186 -1.487
4112000000.0 -0.8328 -1.264
4116000000.0 -1.54 -0.176
4119000000.0 -1.125 1.019
4122000000.0 0.0422 1.485
4125000000.0 1.15 0.9298
4128000000.0 1.441 -0.2605
4131000000.0 0.7809 -1.254
4134000000.0 -0.5132 -1.403
4138000000.0 -1.353 -0.5831
4141000000.0 -1.33 0.6618
4144000000.0 -0.3678 1.505
4147000000.0 0.8726 1.254
4150000000.0 1.501 0.141
4153000000.0 1.1 -1.088
4156000000.0 -0.1557 -1.493
4159000000.0 -1.235 -0.8527
4162000000.0 -1.45 0.4129
4166000000.0 -0.6258 1.402
4169000000.0 0.6612 1.337
4172000000.0 1.473 0.3863
4175000000.0 1.238 -0.8485
4178000000.0 0.1506 -1.475
4181000000.0 -1.065 -1.079
4184000000.0 -1.534 0.1186
4188000000.0 -0.87 1.242
4191000000.0 0.3948 1.434
4194000000.0 1.369 0.6099
4197000000.0 1.403 -0.6952
4200000000.0 0.3214 -1.554
4203000000.0 -0.9816 -1.236
4206000000.0 -1.637 0.001332
4209000000.0 -1.027 1.302
4212000000.0 0.3782 1.623
4216000000.0 1.531 0.6849
4219000000.0 1.481 -0.7723
4222000000.0 0.2777 -1.708
4225000000.0 -1.17 -1.211
4228000000.0 -1.663 0.1841
4231000000.0 -0.8508 1.427
4234000000.0 0.6486 1.551
4238000000.0 1.564 0.4532
4241000000.0 1.305 -0.9836
4244000000.0 0.005039 -1.607
4247000000.0 -1.257 -0.9907
4250000000.0 -1.539 0.3933
4253000000.0 -0.6554 1.432
4256000000.0 0.7342 1.331
4259000000.0 1.518 0.2225
4262000000.0 1.125 -1.013
4266000000.0 -0.1473 -1.502
4269000000.0 -1.259 -0.7897
4272000000.0 -1.375 0.4778
4275000000.0 -0.4553 1.346
4278000000.0 0.8335 1.191
4281000000.0 1.421 0.1686
4284000000.0 0.9669 -1.014
4288000000.0 -0.1844 -1.361
4291000000.0 -1.208 -0.7267
4294000000.0 -1.283 0.4723
4297000000.0 -0.4279 1.251
4300000000.0 0.6868 1.109
4303000000.0 1.32 0.1454
4306000000.0 0.9573 -0.8347
4309000000.0 -0.03477 -1.283
4312000000.0 -1.005 -0.8154
4316000000.0 -1.247 0.2674
4319000000.0 -0.6636 1.113
4322000000.0 0.4387 1.239
4325000000.0 1.214 0.4277
4328000000.0 1.15 -0.6343
4331000000.0 0.2474 -1.317
4334000000.0 -0.8897 -1.052
4338000000.0 -1.395 0.02477
4341000000.0 -0.8478 1.055
4344000000.0 0.2634 1.382
4347000000.0 1.216 0.6589
4350000000.0 1.322 -0.5546
4353000000.0 0.4356 -1.356
4356000000.0 -0.7469 -1.218
4359000000.0 -1.47 -0.2189
4362000000.0 -1.082 0.9656
4366000000.0 0.08464 1.479
4369000000.0 1.19 0.8702
4372000000.0 1.438 -0.3429
4375000000.0 0.6778 -1.334
4378000000.0 -0.6349 -1.361
4381000000.0 -1.47 -0.396
4384000000.0 -1.245 0.9022
4388000000.0 -0.08675 1.573
4391000000.0 1.113 1.077
4394000000.0 1.564 -0.2146
4397000000.0 0.7963 -1.392
4400000000.0 -0.5819 -1.502
4403000000.0 -1.488 -0.4827
4406000000.0 -1.326 0.9175
4409000000.0 -0.0821 1.552
4412000000.0 1.177 1.044
4416000000.0 1.547 -0.2993
4419000000.0 0.7218 -1.35
4422000000.0 -0.5903 -1.404
4425000000.0 -1.412 -0.3342
4428000000.0 -1.17 0.9114
4431000000.0 0.004769 1.466
4434000000.0 1.134 0.874
4438000000.0 1.383 -0.3463
4441000000.0 0.5253 -1.259
4444000000.0 -0.6265 -1.24
4447000000.0 -1.347 -0.2162
4450000000.0 -0.9613 0.891
4453000000.0 0.1403 1.296
4456000000.0 1.096 0.7121
4459000000.0 1.206 -0.4556
4462000000.0 0.3873 -1.202
4466000000.0 -0.6707 -1.042
4469000000.0 -1.226 -0.08103
4472000000.0 -0.7922 0.9112
4475000000.0 0.2213 1.153
4478000000.0 1.057 0.5204
4481000000.0 1.083 -0.4784
4484000000.0 0.2691 -1.125
4488000000.0 -0.7151 -0.8735
4491000000.0 -1.14 -0.03488
4494000000.0 -0.7235 0.8731
4497000000.0 0.2386 1.089
4500000000.0 1.007 0.518
4503000000.0 0.9858 -0.4445
4506000000.0 0.2599 -1.078
4509000000.0 -0.6696 -0.8851
4512000000.0 -1.098 -0.05346
4516000000.0 -0.7582 0.8394
4519000000.0 0.1983 1.113
4522000000.0 1.021 0.5863
4525000000.0 1.067 -0.4144
4528000000.0 0.3531 -1.117
4531000000.0 -0.6164 -0.9883
4534000000.0 -1.164 -0.13
4538000000.0 -0.8435 0.7907
4541000000.0 0.07121 1.187
4544000000.0 0.9755 0.6934
4547000000.0 1.161 -0.3207
4550000000.0 0.5129 -1.132
4553000000.0 -0.505 -1.083
4556000000.0 -1.203 -0.2973
4559000000.0 -1.036 0.7016
4562000000.0 -0.1029 1.244
4566000000.0 0.8961 0.8945
4569000000.0 1.263 -0.1088
4572000000.0 0.7293 -1.075
4575000000.0 -0.3555 -1.287
4578000000.0 -1.188 -0.5825
4581000000.0 -1.216 0.5766
4584000000.0 -0.3336 1.294
4588000000.0 0.8033 1.075
4591000000.0 1.367 0.1115
4594000000.0 0.9421 -0.9905
4597000000.0 -0.1974 -1.351
4600000000.0 -1.187 -0.7328
4603000000.0 -1.323 0.4318
4606000000.0 -0.5057 1.302
4609000000.0 0.7167 1.223
4612000000.0 1.385 0.2418
4616000000.0 1.056 -0.9317
4619000000.0 -0.05514 -1.392
4622000000.0 -1.13 -0.8509
4625000000.0 -1.356 0.3524
4628000000.0 -0.5757 1.251
4631000000.0 0.5917 1.241
4634000000.0 1.34 0.3296
4638000000.0 1.038 -0.8262
4641000000.0 0.02157 -1.343
4644000000.0 -1.026 -0.856
4647000000.0 -1.341 0.2648
4650000000.0 -0.5972 1.174
4653000000.0 0.5478 1.186
4656000000.0 1.263 0.2959
4659000000.0 0.9764 -0.804
4662000000.0 0.01478 -1.252
4666000000.0 -0.9634 -0.7611
4669000000.0 -1.165 0.2863
4672000000.0 -0.4835 1.085
4675000000.0 0.5285 1.063
4678000000.0 1.104 0.2577
4681000000.0 0.8858 -0.702
4684000000.0 -0.03796 -1.122
4688000000.0 -0.9064 -0.6545
4691000000.0 -1.099 0.2741
4694000000.0 -0.4555 1.016
4697000000.0 0.487 0.9878
4700000000.0 1.059 0.2155
4703000000.0 0.8435 -0.6926
4706000000.0 -0.02979 -1.105
4709000000.0 -0.846 -0.6452
4712000000.0 -1.056 0.3031
4716000000.0 -0.4357 0.9573
4719000000.0 0.5135 0.958
4722000000.0 1.049 0.1701
4725000000.0 0.8103 -0.7246
4728000000.0 -0.0335 -1.04
4731000000.0 -0.8577 -0.6638
4734000000.0 -1.006 0.2484
4738000000.0 -0.4646 0.9188
4741000000.0 0.4015 0.9841
4744000000.0 1.005 0.2972
4747000000.0 0.8707 -0.6131
4750000000.0 0.1424 -1.078
4753000000.0 -0.7778 -0.7708
4756000000.0 -1.116 0.1043
4759000000.0 -0.6619 0.8997
4762000000.0 0.2922 1.077
4766000000.0 1.065 0.4506
4769000000.0 1.034 -0.4845
4772000000.0 0.3095 -1.093
4775000000.0 -0.6678 -0.9565
4778000000.0 -1.178 -0.0867
4781000000.0 -0.8254 0.8601
4784000000.0 0.1231 1.212
4788000000.0 0.9978 0.666
4791000000.0 1.206 -0.3429
4794000000.0 0.5203 -1.115
4797000000.0 -0.5273 -1.135
4800000000.0 -1.231 -0.3166
4803000000.0 -1.023 0.7164
4806000000.0 -0.1173 1.232
4809000000.0 0.8755 0.9287
4812000000.0 1.321 -0.1074
4816000000.0 0.7661 -1.057
4819000000.0 -0.3268 -1.287
4822000000.0 -1.21 -0.5751
4825000000.0 -1.23 0.5674
4828000000.0 -0.353 1.32
4831000000.0 0.8109 1.113
4834000000.0 1.384 0.07706
4838000000.0 0.9358 -1.013
4841000000.0 -0.1814 -1.362
4844000000.0 -1.213 -0.7071
4847000000.0 -1.308 0.4727
4850000000.0 -0.4651 1.309
4853000000.0 0.7342 1.16
4856000000.0 1.38 0.1822
4859000000.0 0.9994 -0.9107
4862000000.0 -0.08024 -1.346
4866000000.0 -1.1 -0.7671
4869000000.0 -1.261 0.3553
4872000000.0 -0.5574 1.228
4875000000.0 0.592 1.122
4878000000.0 1.277 0.2558
4881000000.0 1.003 -0.7793
4884000000.0 -0.01815 -1.254
4888000000.0 -0.9358 -0.7709
4891000000.0 -1.196 0.2793
4894000000.0 -0.5306 1.087
4897000000.0 0.4833 1.062
4900000000.0 1.113 0.2877
4903000000.0 0.8817 -0.6555
4906000000.0 0.02303 -1.088
4909000000.0 -0.825 -0.7072
4912000000.0 -1.008 0.1639
4916000000.0 -0.4777 0.8696
4919000000.0 0.3783 0.9397
4922000000.0 0.9676 0.279
4925000000.0 0.8202 -0.5308
4928000000.0 0.09357 -0.9328
4931000000.0 -0.6834 -0.7019
4934000000.0 -0.9374 0.09277
4938000000.0 -0.5219 0.7577
4941000000.0 0.2439 0.916
4944000000.0 0.8644 0.3705
4947000000.0 0.8297 -0.4592
4950000000.0 0.1971 -0.9321
4953000000.0 -0.6068 -0.7336
4956000000.0 -0.9626 -0.02258
4959000000.0 -0.6181 0.783
4962000000.0 0.2175 0.9419
4966000000.0 0.8847 0.4384
4969000000.0 0.9009 -0.4126
4972000000.0 0.2417 -0.9765
4975000000.0 -0.5798 -0.83
4978000000.0 -1.033 -0.09991
4981000000.0 -0.7069 0.7188
4984000000.0 0.1077 1.024
4988000000.0 0.8896 0.5807
4991000000.0 1.002 -0.3414
4994000000.0 0.435 -1.019
4997000000.0 -0.5032 -1.016
5000000000.0 -1.083 -0.234
5003000000.0 -0.9057 0.7214
5006000000.0 -0.03307 1.172
5009000000.0 0.8948 0.7802
5012000000.0 1.188 -0.1836
5016000000.0 0.6502 -1.061
5019000000.0 -0.4655 -1.152
5022000000.0 -1.184 -0.4204
5025000000.0 -1.084 0.6582
5028000000.0 -0.1691 1.278
5031000000.0 0.8699 0.9294
5034000000.0 1.272 -0.06013
5038000000.0 0.744 -1.056
5041000000.0 -0.3015 -1.271
5044000000.0 -1.153 -0.5665
5047000000.0 -1.192 0.5368
5050000000.0 -0.3688 1.257
5053000000.0 0.7115 1.135
5056000000.0 1.259 0.1494
5059000000.0 0.9284 -0.8904
5062000000.0 -0.1206 -1.31
5066000000.0 -1.061 -0.7744
5069000000.0 -1.253 0.3354
5072000000.0 -0.5522 1.165
5075000000.0 0.5578 1.155
5078000000.0 1.22 0.3033
5081000000.0 1.029 -0.7471
5084000000.0 0.1015 -1.257
5088000000.0 -0.8837 -0.8474
5091000000.0 -1.196 0.1875
5094000000.0 -0.675 0.9695
5097000000.0 0.3333 1.146
5100000000.0 1.01 0.4491
5103000000.0 1.003 -0.4951
5106000000.0 0.2859 -1.066
5109000000.0 -0.6371 -0.8836
5112000000.0 -1.101 -0.06968
5116000000.0 -0.7126 0.7353
5119000000.0 0.1282 1.068
5122000000.0 0.8555 0.5907
5125000000.0 1.015 -0.2873
5128000000.0 0.3875 -0.9319
5131000000.0 -0.4771 -0.8678
5134000000.0 -1.006 -0.196
5138000000.0 -0.7495 0.6133
5141000000.0 -0.007243 0.9772
5144000000.0 0.7545 0.6098
5147000000.0 0.928 -0.1723
5150000000.0 0.4061 -0.8302
5153000000.0 -0.3425 -0.8465
5156000000.0 -0.8347 -0.2681
5159000000.0 -0.7402 0.5205
5162000000.0 -0.09195 0.9076
5166000000.0 0.6366 0.622
5169000000.0 0.8628 -0.05819
5172000000.0 0.472 -0.748
5175000000.0 -0.2853 -0.8362
5178000000.0 -0.8319 -0.3363
5181000000.0 -0.8002 0.4814
5184000000.0 -0.1198 0.9118
5188000000.0 0.6345 0.662
5191000000.0 0.9046 -0.07653
5194000000.0 0.5142 -0.7752
5197000000.0 -0.2825 -0.8976
5200000000.0 -0.899 -0.3337
5203000000.0 -0.8088 0.4601
5206000000.0 -0.1203 0.9587
5209000000.0 0.6478 0.6998
5212000000.0 0.9683 -0.07273
5216000000.0 0.5434 -0.8025
5219000000.0 -0.2599 -0.9672
5222000000.0 -0.9113 -0.3924
5225000000.0 -0.9087 0.4675
5228000000.0 -0.2042 0.9561
5231000000.0 0.6535 0.7781
5234000000.0 1.008 0.01147
5238000000.0 0.7 -0.8088
5241000000.0 -0.1986 -1.021
5244000000.0 -0.9058 -0.5057
5247000000.0 -0.9864 0.4111
5250000000.0 -0.334 1.016
5253000000.0 0.5799 0.9138
5256000000.0 1.102 0.156
5259000000.0 0.803 -0.727
5262000000.0 -0.04347 -1.08
5266000000.0 -0.8519 -0.6308
5269000000.0 -1.094 0.2554
5272000000.0 -0.5209 0.967
5275000000.0 0.4049 1.035
5278000000.0 1.037 0.3278
5281000000.0 0.919 -0.5489
5284000000.0 0.1561 -1.127
5288000000.0 -0.7111 -0.8134
5291000000.0 -1.116 0.02209
5294000000.0 -0.7357 0.8627
5297000000.0 0.1563 1.098
5300000000.0 0.9732 0.5609
5303000000.0 1.089 -0.3818
5306000000.0 0.4195 -1.043
5309000000.0 -0.5328 -1.012
5312000000.0 -1.106 -0.2496
5316000000.0 -0.9175 0.7134
5319000000.0 -0.01394 1.174
5322000000.0 0.8387 0.7661
5325000000.0 1.162 -0.1993
5328000000.0 0.5943 -1.012
5331000000.0 -0.4009 -1.076
5334000000.0 -1.072 -0.4019
5338000000.0 -0.9785 0.5734
5341000000.0 -0.1912 1.142
5344000000.0 0.7282 0.8117
5347000000.0 1.118 0.0005118
5350000000.0 0.6876 -0.9065
5353000000.0 -0.2664 -1.056
5356000000.0 -0.9917 -0.4793
5359000000.0 -0.9981 0.4596
5362000000.0 -0.2637 1.032
5366000000.0 0.634 0.8564
5369000000.0 1.044 0.07127
5372000000.0 0.7032 -0.7732
5375000000.0 -0.1638 -1.017
5378000000.0 -0.8544 -0.4789
5381000000.0 -0.9144 0.4269
5384000000.0 -0.2208 0.9651
5388000000.0 0.6046 0.756
5391000000.0 0.9826 -0.01421
5394000000.0 0.6062 -0.7535
5397000000.0 -0.2062 -0.9272
5400000000.0 -0.817 -0.4155
5403000000.0 -0.7841 0.368
5406000000.0 -0.2056 0.8948
5409000000.0 0.535 0.691
5412000000.0 0.868 0.005904
5416000000.0 0.5348 -0.6706
5419000000.0 -0.1927 -0.8569
5422000000.0 -0.7886 -0.3733
5425000000.0 -0.7659 0.3651
5428000000.0 -0.1921 0.8665
5431000000.0 0.5393 0.6902
5434000000.0 0.8773 -0.0135
5438000000.0 0.5492 -0.682
5441000000.0 -0.2034 -0.8856
5444000000.0 -0.81 -0.3849
5447000000.0 -0.8195 0.413
5450000000.0 -0.2214 0.8569
5453000000.0 0.561 0.7335
5456000000.0 0.9117 0.02359
5459000000.0 0.5964 -0.6669
5462000000.0 -0.1354 -0.847
5466000000.0 -0.7855 -0.4675
5469000000.0 -0.87 0.3132
5472000000.0 -0.3412 0.8589
5475000000.0 0.473 0.8205
5478000000.0 0.9213 0.1631
5481000000.0 0.7204 -0.6436
5484000000.0 -0.007943 -0.9367
5488000000.0 -0.746 -0.6233
5491000000.0 -0.9442 0.1986
5494000000.0 -0.5045 0.8611
5497000000.0 0.3438 0.9216
5500000000.0 0.9606 0.3466
5503000000.0 0.8406 -0.5192
5506000000.0 0.1733 -1.011
5509000000.0 -0.6663 -0.7678
5512000000.0 -1.029 0.008662
5516000000.0 -0.6543 0.7816
5519000000.0 0.1883 1.042
5522000000.0 0.9068 0.5049
5525000000.0 1.01 -0.3728
5528000000.0 0.3504 -0.9836
5531000000.0 -0.5248 -0.9222
5534000000.0 -1.056 -0.2254
5538000000.0 -0.8328 0.6741
5541000000.0 0.006447 1.063
5544000000.0 0.8165 0.6643
5547000000.0 1.028 -0.145
5550000000.0 0.527 -0.9227
5553000000.0 -0.3792 -0.9962
5556000000.0 -0.9902 -0.3783
5559000000.0 -0.8924 0.5425
5562000000.0 -0.1557 1.051
5566000000.0 0.7132 0.7794
5569000000.0 1.043 -0.02725
5572000000.0 0.6055 -0.8037
5575000000.0 -0.199 -0.9693
5578000000.0 -0.9111 -0.4376
5581000000.0 -0.9123 0.3589
5584000000.0 -0.2749 0.9201
5588000000.0 0.5368 0.7902
5591000000.0 0.9478 0.0926
5594000000.0 0.658 -0.6525
5597000000.0 -0.1275 -0.9164
5600000000.0 -0.7776 -0.4418
5603000000.0 -0.8398 0.2925
5606000000.0 -0.3254 0.8438
5609000000.0 0.4342 0.7501
5612000000.0 0.852 0.1319
5616000000.0 0.6666 -0.5845
5619000000.0 -0.01987 -0.8498
5622000000.0 -0.7127 -0.5048
5625000000.0 -0.8281 0.2138
5628000000.0 -0.3421 0.76
5631000000.0 0.3963 0.751
5634000000.0 0.8117 0.1731
5638000000.0 0.6415 -0.5229
5641000000.0 -0.01074 -0.8346
5644000000.0 -0.6633 -0.5038
5647000000.0 -0.8051 0.1875
5650000000.0 -0.3522 0.7736
5653000000.0 0.3837 0.7477
5656000000.0 0.8275 0.1769
5659000000.0 0.6453 -0.5429
5662000000.0 -0.01 -0.8607
5666000000.0 -0.6759 -0.522
5669000000.0 -0.8754 0.1972
5672000000.0 -0.3756 0.8164
5675000000.0 0.3881 0.7954
5678000000.0 0.8953 0.2108
5681000000.0 0.7221 -0.5957
5684000000.0 0.01457 -0.9453
5688000000.0 -0.7292 -0.6042
5691000000.0 -0.9465 0.1777
5694000000.0 -0.4765 0.8501
5697000000.0 0.3672 0.8973
5700000000.0 0.9828 0.264
5703000000.0 0.8343 -0.5874
5706000000.0 0.09685 -1.019
5709000000.0 -0.7294 -0.7103
5712000000.0 -1.032 0.1412
5716000000.0 -0.5663 0.9003
5719000000.0 0.3387 1.0
5722000000.0 0.9976 0.3808
5725000000.0 0.9147 -0.5177
5728000000.0 0.2012 -1.067
5731000000.0 -0.7035 -0.8208
5734000000.0 -1.082 0.003619
5738000000.0 -0.6993 0.8616
5741000000.0 0.1959 1.077
5744000000.0 0.9451 0.5376
5747000000.0 1.067 -0.3952
5750000000.0 0.3817 -1.005
5753000000.0 -0.5931 -0.9649
5756000000.0 -1.107 -0.1804
5759000000.0 -0.8255 0.7158
5762000000.0 0.006575 1.13
5766000000.0 0.8524 0.6749
5769000000.0 1.11 -0.2067
5772000000.0 0.5332 -0.9521
5775000000.0 -0.395 -1.034
5778000000.0 -1.056 -0.3515
5781000000.0 -0.8995 0.6137
5784000000.0 -0.1191 1.084
5788000000.0 0.7324 0.8147
5791000000.0 1.101 -0.08001
5794000000.0 0.6183 -0.9015
5797000000.0 -0.2567 -1.002
5800000000.0 -0.944 -0.4317
5803000000.0 -0.9901 0.4105
5806000000.0 -0.2994 1.019
5809000000.0 0.5956 0.8575
5812000000.0 1.032 0.06203
5816000000.0 0.6967 -0.7095
5819000000.0 -0.1223 -1.008
5822000000.0 -0.8577 -0.5169
5825000000.0 -0.9362 0.3249
5828000000.0 -0.3229 0.9492
5831000000.0 0.4884 0.8458
5834000000.0 0.973 0.1139
5838000000.0 0.7198 -0.6213
5841000000.0 -0.03544 -0.953
5844000000.0 -0.7704 -0.5828
5847000000.0 -0.928 0.2144
5850000000.0 -0.3635 0.8611
5853000000.0 0.4487 0.8362
5856000000.0 0.9008 0.1892
5859000000.0 0.6932 -0.5628
5862000000.0 -0.02368 -0.9124
5866000000.0 -0.7308 -0.5418
5869000000.0 -0.8824 0.2111
5872000000.0 -0.3489 0.812
5875000000.0 0.3993 0.7835
5878000000.0 0.8732 0.1652
5881000000.0 0.6836 -0.5266
5884000000.0 0.02943 -0.8875
5888000000.0 -0.677 -0.5648
5891000000.0 -0.8395 0.1713
5894000000.0 -0.3836 0.7726
5897000000.0 0.3821 0.797
5900000000.0 0.8355 0.2327
5903000000.0 0.7005 -0.5109
5906000000.0 0.0739 -0.8445
5909000000.0 -0.6621 -0.6094
5912000000.0 -0.8679 0.115
5916000000.0 -0.4531 0.7428
5919000000.0 0.2543 0.8352
5922000000.0 0.8386 0.3064
5925000000.0 0.7742 -0.458
5928000000.0 0.108 -0.8657
5931000000.0 -0.5778 -0.6857
5934000000.0 -0.9045 0.0056
5938000000.0 -0.5779 0.7121
5941000000.0 0.1644 0.8888
5944000000.0 0.8035 0.3955
5947000000.0 0.8268 -0.3786
5950000000.0 0.2552 -0.8741
5953000000.0 -0.483 -0.7599
5956000000.0 -0.9089 -0.135
5959000000.0 -0.6816 0.6069
5962000000.0 0.07088 0.9569
5966000000.0 0.7592 0.5856
5969000000.0 0.9391 -0.2018
5972000000.0 0.4062 -0.8598
5975000000.0 -0.3767 -0.8803
5978000000.0 -0.9417 -0.2874
5981000000.0 -0.8177 0.5516
5984000000.0 -0.1098 1.022
5988000000.0 0.6908 0.7097
5991000000.0 0.9991 -0.06545
5994000000.0 0.5984 -0.8219
5997000000.0 -0.296 -0.9765
6000000000.0 -0.93 -0.4119
6003000000.0 -0.8949 0.4364
6006000000.0 -0.2085 0.9603
6009000000.0 0.6044 0.7846
6012000000.0 1.011 0.01847
6016000000.0 0.6668 -0.7546
6019000000.0 -0.1615 -0.967
6022000000.0 -0.8733 -0.4802
6025000000.0 -0.9289 0.3614
6028000000.0 -0.2973 0.956
6031000000.0 0.5167 0.815
6034000000.0 0.9775 0.1335
6038000000.0 0.7033 -0.6597
6041000000.0 -0.07687 -0.9354
6044000000.0 -0.7662 -0.5467
6047000000.0 -0.903 0.2677
6050000000.0 -0.3547 0.8919
6053000000.0 0.4379 0.8166
6056000000.0 0.8995 0.1597
6059000000.0 0.7016 -0.5686
6062000000.0 -0.01053 -0.9487
6066000000.0 -0.7124 -0.5556
6069000000.0 -0.8689 0.2317
6072000000.0 -0.3704 0.7886
6075000000.0 0.3731 0.8005
6078000000.0 0.8854 0.202
6081000000.0 0.6863 -0.5658
6084000000.0 0.01777 -0.8502
6088000000.0 -0.6633 -0.5568
6091000000.0 -0.8304 0.1488
6094000000.0 -0.3639 0.7821
6097000000.0 0.3373 0.7645
6100000000.0 0.7939 0.2289
6103000000.0 0.6946 -0.4834
6106000000.0 0.05862 -0.8464
6109000000.0 -0.6335 -0.5635
6112000000.0 -0.8713 0.1306
6116000000.0 -0.4143 0.7375
6119000000.0 0.3505 0.7879
6122000000.0 0.8303 0.246
6125000000.0 0.7194 -0.4864
6128000000.0 0.09282 -0.8753
6131000000.0 -0.633 -0.6382
6134000000.0 -0.8911 0.0965
6138000000.0 -0.4956 0.733
6141000000.0 0.2515 0.8625
6144000000.0 0.8128 0.3013
6147000000.0 0.7931 -0.4589
6150000000.0 0.1338 -0.8737
6153000000.0 -0.6095 -0.6751
6156000000.0 -0.9066 0.02819
6159000000.0 -0.5679 0.733
6162000000.0 0.1949 0.9112
6166000000.0 0.8414 0.3918
6169000000.0 0.8598 -0.3816
6172000000.0 0.2206 -0.9168
6175000000.0 -0.5624 -0.7859
6178000000.0 -0.9529 -0.02899
6181000000.0 -0.6296 0.6963
6184000000.0 0.1302 0.9698
6188000000.0 0.8387 0.4893
6191000000.0 0.8969 -0.3433
6194000000.0 0.3388 -0.9134
6197000000.0 -0.4992 -0.8296
6200000000.0 -0.9207 -0.1078
6203000000.0 -0.7104 0.6256
6206000000.0 0.02771 0.92
6209000000.0 0.7219 0.5547
6212000000.0 0.909 -0.2093
6216000000.0 0.4162 -0.8377
6219000000.0 -0.4089 -0.8545
6222000000.0 -0.914 -0.2287
6225000000.0 -0.7569 0.5289
6228000000.0 -0.0696 0.8732
6231000000.0 0.6578 0.6342
6234000000.0 0.862 -0.08635
6238000000.0 0.4869 -0.7161
6241000000.0 -0.2441 -0.805
6244000000.0 -0.8258 -0.3303
6247000000.0 -0.7322 0.419
6250000000.0 -0.1779 0.8002
6253000000.0 0.5266 0.6624
6256000000.0 0.8232 0.01181
6259000000.0 0.5306 -0.6282
6262000000.0 -0.1153 -0.8014
6266000000.0 -0.7061 -0.418
