! Created with skrf 1.8.0 (http://scikit-rf.org).
# Hz S RI R 50.0 
!freq ReS11 ImS11
4000000000.0 -0.4603 -1.44
4003000000.0 -1.407 -0.5235
4006000000.0 -1.322 0.7747
4009000000.0 -0.2594 1.513
4012000000.0 0.9736 1.183
4016000000.0 1.556 -0.03961
4019000000.0 0.8927 -1.292
4022000000.0 -0.4356 -1.514
4025000000.0 -1.464 -0.5847
4028000000.0 -1.443 0.7714
4031000000.0 -0.3103 1.636
4034000000.0 1.09 1.202
4038000000.0 1.684 -0.09559
4041000000.0 0.9508 -1.305
4044000000.0 -0.4779 -1.597
4047000000.0 -1.52 -0.6724
4050000000.0 -1.442 0.7839
4053000000.0 -0.2974 1.603
4056000000.0 1.061 1.241
4059000000.0 1.65 -0.01777
4062000000.0 1.004 -1.195
4066000000.0 -0.3463 -1.592
4069000000.0 -1.448 -0.7802
4072000000.0 -1.545 0.5952
4075000000.0 -0.5303 1.572
4078000000.0 0.8701 1.381
4081000000.0 1.617 0.2073
4084000000.0 1.229 -1.06
4088000000.0 -0.1004 -1.65
4091000000.0 -1.333 -1.004
4094000000.0 -1.582 0.4001
4097000000.0 -0.7078 1.485
4100000000.0 0.6696 1.446
4103000000.0 1.564 0.3966
4106000000.0 1.313 -0.8633
4109000000.0 0.1377 -1.499
4112000000.0 -1.084 -1.114
4116000000.0 -1.492 0.09315
4119000000.0 -0.8879 1.195
4122000000.0 0.3043 1.443
4125000000.0 1.267 0.6868
4128000000.0 1.349 -0.5172
4131000000.0 0.5079 -1.374
4134000000.0 -0.7631 -1.26
4138000000.0 -1.432 -0.2866
4141000000.0 -1.145 0.8913
4144000000.0 -0.06188 1.49
4147000000.0 1.156 0.9715
4150000000.0 1.483 -0.1953
4153000000.0 0.7719 -1.28
4156000000.0 -0.469 -1.429
4159000000.0 -1.378 -0.5393
4162000000.0 -1.317 0.7642
4166000000.0 -0.2788 1.466
4169000000.0 0.9889 1.148
4172000000.0 1.495 0.01382
4175000000.0 0.958 -1.152
4178000000.0 -0.294 -1.441
4181000000.0 -1.292 -0.693
4184000000.0 -1.407 0.5945
4188000000.0 -0.4287 1.434
4191000000.0 0.8443 1.252
4194000000.0 1.531 0.1123
4197000000.0 1.064 -1.142
4200000000.0 -0.2435 -1.55
4203000000.0 -1.379 -0.7511
4206000000.0 -1.462 0.6336
4209000000.0 -0.4396 1.566
4212000000.0 1.007 1.261
4216000000.0 1.651 -0.02896
4219000000.0 0.9627 -1.354
4222000000.0 -0.5051 -1.572
4225000000.0 -1.573 -0.5475
4228000000.0 -1.348 0.8931
4231000000.0 -0.08781 1.592
4234000000.0 1.25 0.9948
4238000000.0 1.555 -0.38
4241000000.0 0.6259 -1.388
4244000000.0 -0.7326 -1.322
4247000000.0 -1.501 -0.1958
4250000000.0 -1.064 1.004
4253000000.0 0.1301 1.446
4256000000.0 1.205 0.7459
4259000000.0 1.357 -0.5
4262000000.0 0.4421 -1.347
4266000000.0 -0.8216 -1.19
4269000000.0 -1.437 -0.1003
4272000000.0 -0.9337 1.03
4275000000.0 0.2192 1.402
4278000000.0 1.196 0.6853
4281000000.0 1.238 -0.5381
4284000000.0 0.3982 -1.29
4288000000.0 -0.7925 -1.132
4291000000.0 -1.338 -0.1269
4294000000.0 -0.9266 0.9603
4297000000.0 0.1691 1.322
4300000000.0 1.111 0.7037
4303000000.0 1.213 -0.3898
4306000000.0 0.5043 -1.216
4309000000.0 -0.6413 -1.159
4312000000.0 -1.245 -0.3061
4316000000.0 -1.064 0.783
4319000000.0 -0.09633 1.319
4322000000.0 0.9564 0.9309
4325000000.0 1.34 -0.1173
4328000000.0 0.7617 -1.116
4331000000.0 -0.3726 -1.345
4334000000.0 -1.289 -0.5618
4338000000.0 -1.271 0.6258
4341000000.0 -0.2944 1.434
4344000000.0 0.8972 1.16
4347000000.0 1.477 0.03696
4350000000.0 0.9336 -1.151
4353000000.0 -0.2707 -1.467
4356000000.0 -1.32 -0.7337
4359000000.0 -1.394 0.5836
4362000000.0 -0.4063 1.446
4366000000.0 0.8772 1.254
4369000000.0 1.523 0.1034
4372000000.0 1.034 -1.114
4375000000.0 -0.2067 -1.509
4378000000.0 -1.377 -0.7827
4381000000.0 -1.452 0.5594
4384000000.0 -0.4767 1.489
4388000000.0 0.9091 1.292
4391000000.0 1.558 0.07537
4394000000.0 1.042 -1.18
4397000000.0 -0.2963 -1.527
4400000000.0 -1.407 -0.6674
4403000000.0 -1.323 0.6855
4406000000.0 -0.2588 1.478
4409000000.0 1.016 1.101
4412000000.0 1.471 -0.1352
4416000000.0 0.75 -1.208
4419000000.0 -0.5255 -1.323
4422000000.0 -1.321 -0.381
4425000000.0 -1.094 0.8049
4428000000.0 -0.03847 1.336
4431000000.0 0.9987 0.8001
4434000000.0 1.246 -0.3164
4438000000.0 0.5095 -1.13
4441000000.0 -0.6105 -1.138
4444000000.0 -1.214 -0.2156
4447000000.0 -0.9139 0.8215
4450000000.0 0.09404 1.233
4453000000.0 1.011 0.6704
4456000000.0 1.16 -0.372
4459000000.0 0.3827 -1.117
4462000000.0 -0.6554 -1.033
4466000000.0 -1.192 -0.1286
4469000000.0 -0.8377 0.8639
4472000000.0 0.1395 1.169
4475000000.0 1.049 0.6183
4478000000.0 1.122 -0.3876
4481000000.0 0.3623 -1.118
4484000000.0 -0.6943 -0.9967
4488000000.0 -1.199 -0.1226
4491000000.0 -0.8829 0.8274
4494000000.0 0.1041 1.183
4497000000.0 1.01 0.6598
4500000000.0 1.173 -0.3742
4503000000.0 0.4553 -1.115
4506000000.0 -0.5607 -1.053
4509000000.0 -1.223 -0.2506
4512000000.0 -0.9244 0.7893
4516000000.0 0.002917 1.246
4519000000.0 0.984 0.8011
4522000000.0 1.257 -0.2528
4525000000.0 0.612 -1.122
4528000000.0 -0.4722 -1.186
4531000000.0 -1.248 -0.3923
4534000000.0 -1.114 0.7254
4538000000.0 -0.1594 1.323
4541000000.0 0.9069 0.9569
4544000000.0 1.331 -0.07471
4547000000.0 0.7961 -1.076
4550000000.0 -0.3417 -1.307
4553000000.0 -1.212 -0.6121
4556000000.0 -1.239 0.575
4559000000.0 -0.3584 1.308
4562000000.0 0.7807 1.111
4566000000.0 1.37 0.1148
4569000000.0 0.9781 -1.005
4572000000.0 -0.1713 -1.394
4575000000.0 -1.165 -0.7912
4578000000.0 -1.325 0.4064
4581000000.0 -0.5683 1.326
4584000000.0 0.667 1.26
4588000000.0 1.373 0.264
4591000000.0 1.107 -0.9036
4594000000.0 -0.03609 -1.424
4597000000.0 -1.139 -0.885
4600000000.0 -1.38 0.3273
4603000000.0 -0.6157 1.289
4606000000.0 0.635 1.258
4609000000.0 1.378 0.2909
4612000000.0 1.092 -0.8906
4616000000.0 -0.00746 -1.38
4619000000.0 -1.059 -0.8337
4622000000.0 -1.291 0.3047
4625000000.0 -0.5564 1.211
4628000000.0 0.5687 1.195
4631000000.0 1.249 0.2583
4634000000.0 0.967 -0.8306
4638000000.0 -0.008894 -1.26
4641000000.0 -1.022 -0.749
4644000000.0 -1.221 0.2884
4647000000.0 -0.4663 1.105
4650000000.0 0.5488 1.063
4653000000.0 1.182 0.2095
4656000000.0 0.8692 -0.7951
4659000000.0 -0.07559 -1.168
4662000000.0 -0.9605 -0.6187
4666000000.0 -1.062 0.3278
4669000000.0 -0.3938 1.049
4672000000.0 0.5958 0.9275
4675000000.0 1.112 0.1613
4678000000.0 0.814 -0.7105
4681000000.0 -0.08874 -1.076
4684000000.0 -0.8982 -0.6345
4688000000.0 -1.02 0.3272
4691000000.0 -0.4161 1.034
4694000000.0 0.502 0.9784
4697000000.0 1.105 0.2117
4700000000.0 0.8512 -0.7437
4703000000.0 -0.06133 -1.115
4706000000.0 -0.8956 -0.7193
4709000000.0 -1.089 0.2782
4712000000.0 -0.475 1.03
4716000000.0 0.48 1.037
4719000000.0 1.112 0.2686
4722000000.0 0.9172 -0.6943
4725000000.0 0.04266 -1.128
4728000000.0 -0.8476 -0.7777
4731000000.0 -1.148 0.1754
4734000000.0 -0.6159 0.9904
4738000000.0 0.3731 1.09
4741000000.0 1.09 0.4393
4744000000.0 1.063 -0.6027
4747000000.0 0.2371 -1.197
4750000000.0 -0.7596 -0.9574
4753000000.0 -1.244 -0.05465
4756000000.0 -0.8323 0.937
4759000000.0 0.2254 1.257
4762000000.0 1.136 0.6641
4766000000.0 1.246 -0.4074
4769000000.0 0.4809 -1.236
4772000000.0 -0.6708 -1.151
4775000000.0 -1.343 -0.2459
4778000000.0 -1.029 0.8704
4781000000.0 0.03833 1.364
4784000000.0 1.083 0.8564
4788000000.0 1.378 -0.273
4791000000.0 0.648 -1.236
4794000000.0 -0.5338 -1.285
4797000000.0 -1.37 -0.4253
4800000000.0 -1.158 0.8036
4803000000.0 -0.1558 1.347
4806000000.0 0.9289 0.9747
4809000000.0 1.384 -0.08153
4812000000.0 0.7798 -1.12
4816000000.0 -0.3884 -1.343
4819000000.0 -1.275 -0.5332
4822000000.0 -1.238 0.6793
4825000000.0 -0.2147 1.354
4828000000.0 0.9178 1.017
4831000000.0 1.362 -0.05967
4834000000.0 0.7832 -1.11
4838000000.0 -0.3703 -1.254
4841000000.0 -1.199 -0.5153
4844000000.0 -1.111 0.6182
4847000000.0 -0.1887 1.222
4850000000.0 0.8349 0.9125
4853000000.0 1.213 -0.08907
4856000000.0 0.6614 -0.9666
4859000000.0 -0.3336 -1.086
4862000000.0 -1.03 -0.4454
4866000000.0 -0.967 0.5436
4869000000.0 -0.1807 1.071
4872000000.0 0.6889 0.8244
4875000000.0 1.056 -0.07598
4878000000.0 0.6117 -0.8594
4881000000.0 -0.2749 -0.9732
4884000000.0 -0.9371 -0.3657
4888000000.0 -0.8949 0.4886
4891000000.0 -0.138 0.9684
4894000000.0 0.6912 0.7246
4897000000.0 0.9756 -0.05659
4900000000.0 0.5623 -0.799
4903000000.0 -0.2775 -0.902
4906000000.0 -0.8929 -0.341
4909000000.0 -0.8454 0.4681
4912000000.0 -0.149 0.9135
4916000000.0 0.6313 0.7094
4919000000.0 0.9569 -0.04809
4922000000.0 0.5501 -0.7845
4925000000.0 -0.266 -0.9244
4928000000.0 -0.8769 -0.4024
4931000000.0 -0.8904 0.4555
4934000000.0 -0.2158 0.9819
4938000000.0 0.6325 0.8065
4941000000.0 1.04 0.007728
4944000000.0 0.6958 -0.792
4947000000.0 -0.2137 -1.053
4950000000.0 -0.9684 -0.5088
4953000000.0 -1.039 0.4453
4956000000.0 -0.2851 1.122
4959000000.0 0.691 0.954
4962000000.0 1.184 0.03496
4966000000.0 0.7895 -0.9155
4969000000.0 -0.2239 -1.192
4972000000.0 -1.073 -0.5898
4975000000.0 -1.15 0.5022
4978000000.0 -0.3555 1.224
4981000000.0 0.7501 1.058
4984000000.0 1.287 0.08141
4988000000.0 0.8538 -0.9757
4991000000.0 -0.1979 -1.298
4994000000.0 -1.125 -0.6503
4997000000.0 -1.211 0.4666
5000000000.0 -0.4045 1.254
5003000000.0 0.7545 1.097
5006000000.0 1.286 0.09881
5009000000.0 0.8956 -0.9542
5012000000.0 -0.1587 -1.275
5016000000.0 -1.131 -0.6404
5019000000.0 -1.196 0.4805
5022000000.0 -0.3367 1.191
5025000000.0 0.7252 0.9759
5028000000.0 1.205 0.0757
5031000000.0 0.7923 -0.8864
5034000000.0 -0.2214 -1.139
5038000000.0 -0.9981 -0.5082
5041000000.0 -1.006 0.4483
5044000000.0 -0.2837 1.048
5047000000.0 0.6105 0.8321
5050000000.0 1.016 0.04186
5053000000.0 0.6296 -0.7769
5056000000.0 -0.1877 -0.962
5059000000.0 -0.8612 -0.4494
5062000000.0 -0.8738 0.3999
5066000000.0 -0.1649 0.9134
5069000000.0 0.6117 0.7272
5072000000.0 0.9507 -0.06095
5075000000.0 0.5098 -0.7605
5078000000.0 -0.3222 -0.8576
5081000000.0 -0.865 -0.274
5084000000.0 -0.6933 0.5405
5088000000.0 -0.005676 0.9141
5091000000.0 0.7206 0.5305
5094000000.0 0.8396 -0.2664
5097000000.0 0.2964 -0.8421
5100000000.0 -0.5154 -0.7511
5103000000.0 -0.9136 -0.07017
5106000000.0 -0.5601 0.7358
5109000000.0 0.239 0.8949
5112000000.0 0.8591 0.4005
5116000000.0 0.8042 -0.4802
5119000000.0 0.1186 -0.9495
5122000000.0 -0.7321 -0.6798
5125000000.0 -1.036 0.1839
5128000000.0 -0.4993 0.9485
5131000000.0 0.4029 0.9418
5134000000.0 1.037 0.2207
5138000000.0 0.8026 -0.6715
5141000000.0 -0.05169 -1.062
5144000000.0 -0.9157 -0.6167
5147000000.0 -1.033 0.3514
5150000000.0 -0.3492 1.025
5153000000.0 0.5998 0.9619
5156000000.0 1.09 0.1105
5159000000.0 0.7604 -0.7953
5162000000.0 -0.1173 -1.093
5166000000.0 -0.9592 -0.5543
5169000000.0 -1.055 0.3864
5172000000.0 -0.3405 1.013
5175000000.0 0.5993 0.9145
5178000000.0 1.048 0.1415
5181000000.0 0.7787 -0.7389
5184000000.0 -0.1084 -1.065
5188000000.0 -0.8974 -0.558
5191000000.0 -1.019 0.372
5194000000.0 -0.3447 1.011
5197000000.0 0.58 0.8873
5200000000.0 1.047 0.1009
5203000000.0 0.7486 -0.7457
5206000000.0 -0.1152 -1.04
5209000000.0 -0.8928 -0.5368
5212000000.0 -0.9625 0.3585
5216000000.0 -0.3099 0.9876
5219000000.0 0.5685 0.8339
5222000000.0 0.9931 0.03928
5225000000.0 0.658 -0.7521
5228000000.0 -0.2037 -0.9691
5231000000.0 -0.8828 -0.4455
5234000000.0 -0.8846 0.4538
5238000000.0 -0.1675 0.9764
5241000000.0 0.6907 0.7079
5244000000.0 0.9639 -0.11
5247000000.0 0.5097 -0.8607
5250000000.0 -0.3927 -0.8953
5253000000.0 -0.9359 -0.2392
5256000000.0 -0.7306 0.5997
5259000000.0 0.05512 0.9533
5262000000.0 0.8203 0.5402
5266000000.0 0.9089 -0.3207
5269000000.0 0.2657 -0.9263
5272000000.0 -0.5837 -0.79
5275000000.0 -0.952 -0.01574
5278000000.0 -0.5976 0.7413
5281000000.0 0.1943 0.9292
5284000000.0 0.8814 0.384
5288000000.0 0.8417 -0.4514
5291000000.0 0.202 -0.9542
5294000000.0 -0.6511 -0.7213
5297000000.0 -1.004 0.04523
5300000000.0 -0.5832 0.8106
5303000000.0 0.301 0.9659
5306000000.0 0.9289 0.3702
5309000000.0 0.9117 -0.5192
5312000000.0 0.2056 -1.019
5316000000.0 -0.6819 -0.7876
5319000000.0 -1.044 0.04594
5322000000.0 -0.6595 0.8334
5325000000.0 0.2594 1.052
5328000000.0 0.9524 0.4883
5331000000.0 0.9894 -0.4518
5334000000.0 0.2951 -1.062
5338000000.0 -0.6328 -0.8861
5341000000.0 -1.119 -0.0889
5344000000.0 -0.7643 0.8225
5347000000.0 0.126 1.114
5350000000.0 0.9733 0.6314
5353000000.0 1.064 -0.3377
5356000000.0 0.4423 -1.025
5359000000.0 -0.5206 -1.009
5362000000.0 -1.128 -0.2467
5366000000.0 -0.9198 0.737
5369000000.0 -0.04674 1.136
5372000000.0 0.8519 0.7838
5375000000.0 1.167 -0.1669
5378000000.0 0.5908 -0.9965
5381000000.0 -0.4191 -1.08
5384000000.0 -1.121 -0.3879
5388000000.0 -0.971 0.6216
5391000000.0 -0.1253 1.165
5394000000.0 0.8038 0.836
5397000000.0 1.146 -0.1101
5400000000.0 0.63 -0.9513
5403000000.0 -0.3332 -1.082
5406000000.0 -1.069 -0.3833
5409000000.0 -0.9541 0.5746
5412000000.0 -0.1708 1.1
5416000000.0 0.7348 0.8058
5419000000.0 1.066 -0.08516
5422000000.0 0.6185 -0.8947
5425000000.0 -0.2941 -1.012
5428000000.0 -0.974 -0.3835
5431000000.0 -0.9074 0.5441
5434000000.0 -0.1254 1.037
5438000000.0 0.7496 0.691
5441000000.0 0.986 -0.1286
5444000000.0 0.4894 -0.8702
5447000000.0 -0.3345 -0.8921
5450000000.0 -0.9133 -0.2408
5453000000.0 -0.7085 0.5735
5456000000.0 -0.01953 0.9121
5459000000.0 0.687 0.5412
5462000000.0 0.8455 -0.2058
5466000000.0 0.3314 -0.8047
5469000000.0 -0.4146 -0.7824
5472000000.0 -0.8344 -0.1334
5475000000.0 -0.6217 0.5643
5478000000.0 0.03074 0.8525
5481000000.0 0.6827 0.5063
5484000000.0 0.8261 -0.2207
5488000000.0 0.3311 -0.8105
5491000000.0 -0.4275 -0.7363
5494000000.0 -0.8631 -0.1525
5497000000.0 -0.6354 0.5634
5500000000.0 0.07101 0.863
5503000000.0 0.715 0.497
5506000000.0 0.8634 -0.2202
5509000000.0 0.3657 -0.8274
5512000000.0 -0.4051 -0.8055
5516000000.0 -0.8572 -0.1822
5519000000.0 -0.7438 0.5701
5522000000.0 -0.004095 0.8931
5525000000.0 0.6704 0.5897
5528000000.0 0.9227 -0.1287
5531000000.0 0.4894 -0.8115
5534000000.0 -0.304 -0.9297
5538000000.0 -0.887 -0.3461
5541000000.0 -0.8562 0.4964
5544000000.0 -0.1761 0.9632
5547000000.0 0.6381 0.7885
5550000000.0 1.019 -0.01015
5553000000.0 0.6812 -0.7893
5556000000.0 -0.1899 -1.004
5559000000.0 -0.9217 -0.4983
5562000000.0 -0.9791 0.3535
5566000000.0 -0.3135 0.9871
5569000000.0 0.5663 0.8786
5572000000.0 1.016 0.1587
5575000000.0 0.7963 -0.7077
5578000000.0 -0.0469 -1.04
5581000000.0 -0.778 -0.6353
5584000000.0 -1.036 0.194
5588000000.0 -0.4651 0.9526
5591000000.0 0.4086 0.9539
5594000000.0 1.005 0.2835
5597000000.0 0.8766 -0.5622
5600000000.0 0.1216 -1.043
5603000000.0 -0.702 -0.7782
5606000000.0 -0.9946 0.1108
5609000000.0 -0.5918 0.8546
5612000000.0 0.3034 0.9727
5616000000.0 0.9315 0.4049
5619000000.0 0.8856 -0.4418
5622000000.0 0.2016 -0.9755
5625000000.0 -0.5888 -0.7874
5628000000.0 -0.9684 -0.006341
5631000000.0 -0.6072 0.752
5634000000.0 0.1956 0.9528
5638000000.0 0.8276 0.4649
5641000000.0 0.8668 -0.3455
5644000000.0 0.2705 -0.9001
5647000000.0 -0.5441 -0.7401
5650000000.0 -0.9076 -0.0317
5653000000.0 -0.6155 0.6785
5656000000.0 0.1544 0.9107
5659000000.0 0.7778 0.4367
5662000000.0 0.855 -0.3378
5666000000.0 0.2467 -0.8809
5669000000.0 -0.5276 -0.7444
5672000000.0 -0.8866 -0.02758
5675000000.0 -0.5776 0.681
5678000000.0 0.1952 0.8716
5681000000.0 0.7612 0.3707
5684000000.0 0.8092 -0.3827
5688000000.0 0.1923 -0.882
5691000000.0 -0.5242 -0.7067
5694000000.0 -0.9003 0.02028
5697000000.0 -0.5424 0.7234
5700000000.0 0.2154 0.9009
5703000000.0 0.8039 0.3454
5706000000.0 0.8243 -0.4638
5709000000.0 0.1737 -0.8919
5712000000.0 -0.6383 -0.7136
5716000000.0 -0.9375 0.04998
5719000000.0 -0.5691 0.7958
5722000000.0 0.2554 0.9628
5725000000.0 0.8691 0.3891
5728000000.0 0.8601 -0.412
5731000000.0 0.2241 -0.9678
5734000000.0 -0.6566 -0.7594
5738000000.0 -1.0 -0.02073
5741000000.0 -0.6592 0.7922
5744000000.0 0.1939 1.043
5747000000.0 0.9203 0.4929
5750000000.0 0.935 -0.4111
5753000000.0 0.2937 -0.9923
5756000000.0 -0.5767 -0.8448
5759000000.0 -1.034 -0.0982
5762000000.0 -0.7689 0.7597
5766000000.0 0.07809 1.058
5769000000.0 0.8819 0.6231
5772000000.0 1.014 -0.2657
5775000000.0 0.4248 -0.963
5778000000.0 -0.4711 -0.9557
5781000000.0 -1.005 -0.258
5784000000.0 -0.8738 0.6305
5788000000.0 -0.05334 1.068
5791000000.0 0.7938 0.7386
5794000000.0 1.063 -0.1269
5797000000.0 0.5655 -0.9093
5800000000.0 -0.3154 -1.055
5803000000.0 -1.013 -0.4127
5806000000.0 -0.97 0.5202
5809000000.0 -0.1719 1.092
5812000000.0 0.6699 0.8572
5816000000.0 1.091 0.0272
5819000000.0 0.646 -0.8104
5822000000.0 -0.1665 -1.052
5825000000.0 -0.9493 -0.5247
5828000000.0 -0.9896 0.3409
5831000000.0 -0.3506 0.9867
5834000000.0 0.5426 0.8976
5838000000.0 1.047 0.1608
5841000000.0 0.7834 -0.7038
5844000000.0 -0.06868 -1.039
5847000000.0 -0.8187 -0.5776
5850000000.0 -0.9922 0.2204
5853000000.0 -0.4157 0.9344
5856000000.0 0.452 0.9209
5859000000.0 1.01 0.2068
5862000000.0 0.7301 -0.6677
5866000000.0 0.002896 -0.9893
5869000000.0 -0.7597 -0.5941
5872000000.0 -0.9611 0.1724
5875000000.0 -0.4151 0.8583
5878000000.0 0.3882 0.8737
5881000000.0 0.871 0.2311
5884000000.0 0.7563 -0.5391
5888000000.0 0.02256 -0.9124
5891000000.0 -0.7053 -0.6026
5894000000.0 -0.8648 0.1911
5897000000.0 -0.4215 0.7801
5900000000.0 0.3524 0.8125
5903000000.0 0.863 0.2335
5906000000.0 0.7115 -0.5002
5909000000.0 0.03351 -0.8701
5912000000.0 -0.6758 -0.5656
5916000000.0 -0.8594 0.1538
5919000000.0 -0.4143 0.78
5922000000.0 0.3075 0.7884
5925000000.0 0.7941 0.2945
5928000000.0 0.7261 -0.4968
5931000000.0 0.05115 -0.8388
5934000000.0 -0.584 -0.6226
5938000000.0 -0.8318 0.07468
5941000000.0 -0.4715 0.7065
5944000000.0 0.2526 0.8542
5947000000.0 0.8078 0.3025
5950000000.0 0.7658 -0.3845
5953000000.0 0.1866 -0.8201
5956000000.0 -0.5738 -0.669
5959000000.0 -0.8761 0.004319
5962000000.0 -0.5753 0.6567
5966000000.0 0.1575 0.848
5969000000.0 0.7949 0.4604
5972000000.0 0.8361 -0.2913
5975000000.0 0.3002 -0.862
5978000000.0 -0.4737 -0.7969
5981000000.0 -0.9158 -0.152
5984000000.0 -0.7269 0.582
5988000000.0 0.0322 0.951
5991000000.0 0.7266 0.589
5994000000.0 0.9457 -0.1745
5997000000.0 0.4075 -0.8545
6000000000.0 -0.3779 -0.8991
6003000000.0 -0.9229 -0.2771
6006000000.0 -0.801 0.5245
6009000000.0 -0.1353 0.9523
6012000000.0 0.6657 0.7258
6016000000.0 0.9747 -0.06342
6019000000.0 0.5775 -0.7881
6022000000.0 -0.2556 -0.9559
6025000000.0 -0.8933 -0.4194
6028000000.0 -0.9384 0.4036
6031000000.0 -0.2301 0.9726
6034000000.0 0.5741 0.7891
6038000000.0 0.9639 0.04454
6041000000.0 0.6506 -0.7247
6044000000.0 -0.1319 -0.989
6047000000.0 -0.8547 -0.5129
6050000000.0 -0.9408 0.3474
6053000000.0 -0.3502 0.9234
6056000000.0 0.5273 0.8515
6059000000.0 0.9831 0.1324
6062000000.0 0.7115 -0.6949
6066000000.0 -0.07488 -0.9739
6069000000.0 -0.7931 -0.5441
6072000000.0 -0.9357 0.2514
6075000000.0 -0.3636 0.8783
6078000000.0 0.4262 0.8351
6081000000.0 0.9022 0.1455
6084000000.0 0.7231 -0.628
6088000000.0 -0.03231 -0.9362
6091000000.0 -0.7062 -0.5422
6094000000.0 -0.8903 0.1858
6097000000.0 -0.3789 0.7944
6100000000.0 0.3851 0.7798
6103000000.0 0.85 0.1758
6106000000.0 0.7134 -0.5444
6109000000.0 -0.00413 -0.8768
6112000000.0 -0.6799 -0.5421
6116000000.0 -0.8657 0.1636
6119000000.0 -0.3791 0.7587
6122000000.0 0.3615 0.8049
6125000000.0 0.8104 0.2009
6128000000.0 0.6617 -0.5278
6131000000.0 0.01817 -0.8392
6134000000.0 -0.6661 -0.5543
6138000000.0 -0.8139 0.151
6141000000.0 -0.413 0.738
6144000000.0 0.3152 0.7726
6147000000.0 0.8397 0.2271
6150000000.0 0.6932 -0.4749
6153000000.0 0.04989 -0.8346
6156000000.0 -0.6095 -0.5743
6159000000.0 -0.8362 0.1243
6162000000.0 -0.45 0.7308
6166000000.0 0.2799 0.8099
6169000000.0 0.7825 0.2847
6172000000.0 0.7598 -0.4424
6175000000.0 0.1105 -0.8457
6178000000.0 -0.6079 -0.6449
6181000000.0 -0.874 0.03902
6184000000.0 -0.5154 0.7432
6188000000.0 0.2647 0.8834
6191000000.0 0.8387 0.3724
6194000000.0 0.8508 -0.4146
6197000000.0 0.1847 -0.878
6200000000.0 -0.5844 -0.6914
6203000000.0 -0.9219 -0.004362
6206000000.0 -0.6015 0.681
6209000000.0 0.1537 0.8916
6212000000.0 0.811 0.4224
6216000000.0 0.8291 -0.3265
6219000000.0 0.2538 -0.8157
6222000000.0 -0.4853 -0.7396
6225000000.0 -0.9306 -0.1147
6228000000.0 -0.6176 0.5967
6231000000.0 0.09469 0.867
6234000000.0 0.7578 0.4862
6238000000.0 0.8465 -0.2683
6241000000.0 0.3503 -0.7851
6244000000.0 -0.4055 -0.7613
6247000000.0 -0.8223 -0.2018
6250000000.0 -0.6896 0.531
6253000000.0 -0.03189 0.8206
6256000000.0 0.6235 0.5642
6259000000.0 0.876 -0.1182
6262000000.0 0.4158 -0.7086
6266000000.0 -0.2517 -0.7565
