! Created with skrf 1.8.0 (http://scikit-rf.org).
# Hz S RI R 50.0 
!freq ReS11 ImS11
4000000000.0 -0.1675 -1.467
4003000000.0 -1.261 -0.7675
4006000000.0 -1.414 0.4748
4009000000.0 -0.4875 1.394
4012000000.0 0.7799 1.315
4016000000.0 1.489 0.141
4019000000.0 1.093 -1.026
4022000000.0 -0.1311 -1.6
4025000000.0 -1.329 -0.8808
4028000000.0 -1.507 0.5175
4031000000.0 -0.6352 1.515
4034000000.0 0.8363 1.39
4038000000.0 1.61 0.228
4041000000.0 1.205 -1.13
4044000000.0 -0.1464 -1.626
4047000000.0 -1.321 -0.9111
4050000000.0 -1.57 0.4767
4053000000.0 -0.6619 1.487
4056000000.0 0.771 1.446
4059000000.0 1.629 0.3173
4062000000.0 1.208 -1.028
4066000000.0 -0.006039 -1.624
4069000000.0 -1.281 -1.065
4072000000.0 -1.571 0.3082
4075000000.0 -0.811 1.39
4078000000.0 0.5838 1.508
4081000000.0 1.543 0.5403
4084000000.0 1.406 -0.8713
4088000000.0 0.251 -1.641
4091000000.0 -1.138 -1.213
4094000000.0 -1.617 0.05784
4097000000.0 -0.9837 1.295
4100000000.0 0.3801 1.576
4103000000.0 1.46 0.7137
4106000000.0 1.466 -0.6178
4109000000.0 0.4331 -1.477
4112000000.0 -0.8199 -1.291
4116000000.0 -1.506 -0.1736
4119000000.0 -1.125 0.9813
4122000000.0 0.02891 1.443
4125000000.0 1.131 0.9538
4128000000.0 1.46 -0.2269
4131000000.0 0.7932 -1.258
4134000000.0 -0.4026 -1.414
4138000000.0 -1.36 -0.5578
4141000000.0 -1.336 0.655
4144000000.0 -0.4007 1.437
4147000000.0 0.8433 1.232
4150000000.0 1.507 0.1238
4153000000.0 1.083 -1.095
4156000000.0 -0.1664 -1.478
4159000000.0 -1.232 -0.8543
4162000000.0 -1.451 0.4082
4166000000.0 -0.6423 1.353
4169000000.0 0.6136 1.342
4172000000.0 1.402 0.3681
4175000000.0 1.224 -0.8278
4178000000.0 0.1522 -1.48
4181000000.0 -1.031 -1.069
4184000000.0 -1.51 0.1004
4188000000.0 -0.8983 1.232
4191000000.0 0.3959 1.465
4194000000.0 1.38 0.691
4197000000.0 1.409 -0.6948
4200000000.0 0.3998 -1.519
4203000000.0 -0.9738 -1.24
4206000000.0 -1.624 0.009478
4209000000.0 -1.018 1.26
4212000000.0 0.3537 1.592
4216000000.0 1.526 0.6972
4219000000.0 1.514 -0.7639
4222000000.0 0.2996 -1.643
4225000000.0 -1.147 -1.219
4228000000.0 -1.686 0.1252
4231000000.0 -0.8826 1.407
4234000000.0 0.5637 1.57
4238000000.0 1.572 0.4559
4241000000.0 1.31 -0.9308
4244000000.0 0.0371 -1.579
4247000000.0 -1.231 -1.016
4250000000.0 -1.569 0.3828
4253000000.0 -0.682 1.381
4256000000.0 0.7335 1.349
4259000000.0 1.514 0.2667
4262000000.0 1.109 -1.013
4266000000.0 -0.08045 -1.488
4269000000.0 -1.25 -0.8477
4272000000.0 -1.415 0.4334
4275000000.0 -0.5144 1.411
4278000000.0 0.7804 1.213
4281000000.0 1.416 0.1433
4284000000.0 0.9697 -1.024
4288000000.0 -0.1684 -1.39
4291000000.0 -1.154 -0.7032
4294000000.0 -1.235 0.4369
4297000000.0 -0.4746 1.24
4300000000.0 0.6044 1.125
4303000000.0 1.28 0.2414
4306000000.0 0.9679 -0.8269
4309000000.0 -0.02285 -1.248
4312000000.0 -0.9995 -0.8315
4316000000.0 -1.273 0.2502
4319000000.0 -0.6513 1.126
4322000000.0 0.4012 1.22
4325000000.0 1.236 0.4632
4328000000.0 1.159 -0.6416
4331000000.0 0.2624 -1.307
4334000000.0 -0.8513 -1.055
4338000000.0 -1.368 -0.02878
4341000000.0 -0.8773 1.072
4344000000.0 0.2193 1.365
4347000000.0 1.255 0.7144
4350000000.0 1.32 -0.4901
4353000000.0 0.4459 -1.368
4356000000.0 -0.7625 -1.25
4359000000.0 -1.441 -0.2159
4362000000.0 -1.077 0.9557
4366000000.0 0.0326 1.468
4369000000.0 1.149 0.921
4372000000.0 1.459 -0.3406
4375000000.0 0.6965 -1.291
4378000000.0 -0.5717 -1.419
4381000000.0 -1.428 -0.4285
4384000000.0 -1.242 0.8609
4388000000.0 -0.1118 1.511
4391000000.0 1.13 1.084
4394000000.0 1.554 -0.1928
4397000000.0 0.7989 -1.338
4400000000.0 -0.5399 -1.482
4403000000.0 -1.49 -0.4865
4406000000.0 -1.335 0.8531
4409000000.0 -0.1367 1.572
4412000000.0 1.154 1.061
4416000000.0 1.546 -0.2129
4419000000.0 0.7439 -1.325
4422000000.0 -0.5638 -1.425
4425000000.0 -1.412 -0.4045
4428000000.0 -1.182 0.8653
4431000000.0 -0.05687 1.427
4434000000.0 1.101 0.9226
4438000000.0 1.382 -0.301
4441000000.0 0.5851 -1.265
4444000000.0 -0.6072 -1.227
4447000000.0 -1.316 -0.2808
4450000000.0 -1.022 0.8849
4453000000.0 0.06981 1.333
4456000000.0 1.066 0.7604
4459000000.0 1.231 -0.3769
4462000000.0 0.4046 -1.22
4466000000.0 -0.6836 -1.047
4469000000.0 -1.217 -0.1279
4472000000.0 -0.8202 0.895
4475000000.0 0.1984 1.194
4478000000.0 1.006 0.5816
4481000000.0 1.053 -0.4805
4484000000.0 0.2676 -1.09
4488000000.0 -0.6779 -0.9163
4491000000.0 -1.111 -0.02744
4494000000.0 -0.7275 0.8733
4497000000.0 0.2413 1.109
4500000000.0 0.9794 0.5481
4503000000.0 0.9976 -0.4272
4506000000.0 0.3091 -1.05
4509000000.0 -0.6563 -0.8864
4512000000.0 -1.078 -0.06105
4516000000.0 -0.7377 0.8017
4519000000.0 0.1318 1.148
4522000000.0 0.9272 0.5795
4525000000.0 1.09 -0.4205
4528000000.0 0.3749 -1.076
4531000000.0 -0.5866 -0.975
4534000000.0 -1.152 -0.1624
4538000000.0 -0.8594 0.7921
4541000000.0 0.06992 1.153
4544000000.0 0.9421 0.7406
4547000000.0 1.176 -0.2697
4550000000.0 0.5381 -1.087
4553000000.0 -0.4764 -1.138
4556000000.0 -1.139 -0.3401
4559000000.0 -1.019 0.6842
4562000000.0 -0.1443 1.238
4566000000.0 0.8709 0.8889
4569000000.0 1.249 -0.09332
4572000000.0 0.7459 -1.028
4575000000.0 -0.2739 -1.241
4578000000.0 -1.176 -0.5681
4581000000.0 -1.218 0.5243
4584000000.0 -0.3565 1.288
4588000000.0 0.7533 1.132
4591000000.0 1.327 0.1161
4594000000.0 0.961 -0.9853
4597000000.0 -0.1282 -1.378
4600000000.0 -1.137 -0.7728
4603000000.0 -1.306 0.3959
4606000000.0 -0.5211 1.307
4609000000.0 0.6611 1.236
4612000000.0 1.373 0.2844
4616000000.0 1.057 -0.8956
4619000000.0 -0.00696 -1.375
4622000000.0 -1.122 -0.8671
4625000000.0 -1.328 0.3277
4628000000.0 -0.6489 1.226
4631000000.0 0.5572 1.251
4634000000.0 1.332 0.3552
4638000000.0 1.112 -0.8001
4641000000.0 0.04121 -1.372
4644000000.0 -1.021 -0.8985
4647000000.0 -1.318 0.2579
4650000000.0 -0.6139 1.177
4653000000.0 0.5124 1.182
4656000000.0 1.238 0.3135
4659000000.0 0.9989 -0.7689
4662000000.0 0.0405 -1.206
4666000000.0 -0.9503 -0.7822
4669000000.0 -1.19 0.2287
4672000000.0 -0.5079 1.07
4675000000.0 0.4636 1.106
4678000000.0 1.136 0.2885
4681000000.0 0.9119 -0.7041
4684000000.0 0.01046 -1.094
4688000000.0 -0.9053 -0.7347
4691000000.0 -1.078 0.2428
4694000000.0 -0.4986 0.9855
4697000000.0 0.455 1.02
4700000000.0 1.059 0.2325
4703000000.0 0.8327 -0.6497
4706000000.0 -0.02487 -1.075
4709000000.0 -0.8519 -0.685
4712000000.0 -1.033 0.2313
4716000000.0 -0.4735 0.9372
4719000000.0 0.4918 0.9514
4722000000.0 1.023 0.2493
4725000000.0 0.8214 -0.6831
4728000000.0 0.007634 -1.069
4731000000.0 -0.7921 -0.6581
4734000000.0 -1.029 0.1629
4738000000.0 -0.4968 0.9312
4741000000.0 0.3997 0.959
4744000000.0 1.002 0.3004
4747000000.0 0.9077 -0.583
4750000000.0 0.1424 -1.057
4753000000.0 -0.7134 -0.7791
4756000000.0 -1.083 0.04698
4759000000.0 -0.6581 0.8967
4762000000.0 0.2677 1.088
4766000000.0 1.011 0.5043
4769000000.0 1.049 -0.4718
4772000000.0 0.3079 -1.117
4775000000.0 -0.647 -0.9794
4778000000.0 -1.168 -0.1065
4781000000.0 -0.8524 0.8297
4784000000.0 0.0968 1.184
4788000000.0 1.006 0.7098
4791000000.0 1.176 -0.2955
4794000000.0 0.5299 -1.128
4797000000.0 -0.4998 -1.13
4800000000.0 -1.199 -0.3367
4803000000.0 -1.026 0.6981
4806000000.0 -0.1634 1.239
4809000000.0 0.8611 0.9386
4812000000.0 1.289 -0.0468
4816000000.0 0.7703 -1.02
4819000000.0 -0.2895 -1.275
4822000000.0 -1.191 -0.5969
4825000000.0 -1.221 0.5408
4828000000.0 -0.349 1.324
4831000000.0 0.8167 1.125
4834000000.0 1.407 0.1375
4838000000.0 0.9632 -1.026
4841000000.0 -0.1895 -1.396
4844000000.0 -1.175 -0.7395
4847000000.0 -1.307 0.4368
4850000000.0 -0.5037 1.313
4853000000.0 0.7068 1.177
4856000000.0 1.333 0.1952
4859000000.0 1.021 -0.9264
4862000000.0 -0.07263 -1.356
4866000000.0 -1.04 -0.8156
4869000000.0 -1.298 0.333
4872000000.0 -0.5575 1.222
4875000000.0 0.5818 1.18
4878000000.0 1.217 0.3135
4881000000.0 1.012 -0.8097
4884000000.0 0.03803 -1.266
4888000000.0 -0.9571 -0.8091
4891000000.0 -1.167 0.2269
4894000000.0 -0.5712 1.03
4897000000.0 0.4804 1.05
4900000000.0 1.088 0.2996
4903000000.0 0.9213 -0.6345
4906000000.0 0.05499 -1.091
4909000000.0 -0.7747 -0.7293
4912000000.0 -1.006 0.1545
4916000000.0 -0.4953 0.8895
4919000000.0 0.3572 0.9452
4922000000.0 0.9195 0.321
4925000000.0 0.8132 -0.5136
4928000000.0 0.104 -0.9412
4931000000.0 -0.6553 -0.6873
4934000000.0 -0.9339 0.06118
4938000000.0 -0.5653 0.7529
4941000000.0 0.2372 0.9191
4944000000.0 0.8474 0.3863
4947000000.0 0.8485 -0.4197
4950000000.0 0.1939 -0.9412
4953000000.0 -0.5673 -0.7453
4956000000.0 -0.9596 0.003737
4959000000.0 -0.6278 0.7536
4962000000.0 0.1495 0.9446
4966000000.0 0.8504 0.4614
4969000000.0 0.9156 -0.3958
4972000000.0 0.2955 -0.9593
4975000000.0 -0.5282 -0.8269
4978000000.0 -1.017 -0.1215
4981000000.0 -0.7266 0.7172
4984000000.0 0.08032 1.027
4988000000.0 0.8317 0.5777
4991000000.0 1.02 -0.2783
4994000000.0 0.4521 -1.016
4997000000.0 -0.4749 -1.012
5000000000.0 -1.067 -0.251
5003000000.0 -0.9015 0.686
5006000000.0 -0.0764 1.182
5009000000.0 0.8579 0.7976
5012000000.0 1.219 -0.1536
5016000000.0 0.622 -1.036
5019000000.0 -0.4044 -1.165
5022000000.0 -1.162 -0.4582
5025000000.0 -1.091 0.6383
5028000000.0 -0.1899 1.22
5031000000.0 0.8385 0.9444
5034000000.0 1.277 -0.03972
5038000000.0 0.7945 -0.999
5041000000.0 -0.281 -1.275
5044000000.0 -1.139 -0.6124
5047000000.0 -1.188 0.4931
5050000000.0 -0.3858 1.233
5053000000.0 0.7168 1.097
5056000000.0 1.273 0.1424
5059000000.0 0.9692 -0.8765
5062000000.0 -0.07489 -1.294
5066000000.0 -1.056 -0.7868
5069000000.0 -1.273 0.2987
5072000000.0 -0.5489 1.146
5075000000.0 0.5021 1.154
5078000000.0 1.207 0.3362
5081000000.0 1.035 -0.7036
5084000000.0 0.1105 -1.212
5088000000.0 -0.8833 -0.8741
5091000000.0 -1.205 0.1377
5094000000.0 -0.6859 0.9528
5097000000.0 0.3048 1.119
5100000000.0 1.049 0.4712
5103000000.0 1.018 -0.4905
5106000000.0 0.2677 -1.093
5109000000.0 -0.6213 -0.9228
5112000000.0 -1.087 -0.08101
5116000000.0 -0.7576 0.7542
5119000000.0 0.09667 1.057
5122000000.0 0.8453 0.592
5125000000.0 1.007 -0.2744
5128000000.0 0.4371 -0.9458
5131000000.0 -0.4386 -0.9025
5134000000.0 -0.9389 -0.2396
5138000000.0 -0.7509 0.6354
5141000000.0 -0.01955 0.9831
5144000000.0 0.7074 0.6131
5147000000.0 0.9311 -0.1348
5150000000.0 0.4556 -0.7889
5153000000.0 -0.3205 -0.8897
5156000000.0 -0.8592 -0.2952
5159000000.0 -0.7636 0.5037
5162000000.0 -0.0878 0.9087
5166000000.0 0.6111 0.6534
5169000000.0 0.903 -0.04957
5172000000.0 0.5064 -0.7322
5175000000.0 -0.2733 -0.8428
5178000000.0 -0.8506 -0.3127
5181000000.0 -0.7628 0.443
5184000000.0 -0.1649 0.8724
5188000000.0 0.6235 0.6805
5191000000.0 0.9043 -0.0543
5194000000.0 0.5179 -0.748
5197000000.0 -0.2313 -0.8886
5200000000.0 -0.863 -0.3668
5203000000.0 -0.8255 0.4463
5206000000.0 -0.1748 0.9492
5209000000.0 0.6111 0.7091
5212000000.0 0.9816 -0.05203
5216000000.0 0.5916 -0.7956
5219000000.0 -0.2305 -0.9457
5222000000.0 -0.8758 -0.4231
5225000000.0 -0.8915 0.4316
5228000000.0 -0.239 0.9981
5231000000.0 0.6035 0.8147
5234000000.0 1.027 0.05757
5238000000.0 0.69 -0.7732
5241000000.0 -0.1557 -1.047
5244000000.0 -0.8784 -0.5218
5247000000.0 -0.9771 0.3615
5250000000.0 -0.3732 0.9834
5253000000.0 0.5735 0.9189
5256000000.0 1.047 0.1873
5259000000.0 0.8218 -0.7087
5262000000.0 -0.00752 -1.078
5266000000.0 -0.8561 -0.7051
5269000000.0 -1.053 0.1935
5272000000.0 -0.4998 0.9268
5275000000.0 0.3668 1.02
5278000000.0 1.054 0.3791
5281000000.0 0.9426 -0.5484
5284000000.0 0.2024 -1.072
5288000000.0 -0.7018 -0.8286
5291000000.0 -1.086 -0.01809
5294000000.0 -0.7542 0.8419
5297000000.0 0.1585 1.121
5300000000.0 0.9465 0.5804
5303000000.0 1.079 -0.331
5306000000.0 0.4258 -1.027
5309000000.0 -0.5322 -1.034
5312000000.0 -1.098 -0.238
5316000000.0 -0.9052 0.6919
5319000000.0 -0.04015 1.157
5322000000.0 0.8341 0.7788
5325000000.0 1.159 -0.1209
5328000000.0 0.6468 -0.9494
5331000000.0 -0.3542 -1.098
5334000000.0 -1.04 -0.4129
5338000000.0 -0.9838 0.5119
5341000000.0 -0.2119 1.086
5344000000.0 0.6881 0.8717
5347000000.0 1.135 0.03953
5350000000.0 0.7001 -0.842
5353000000.0 -0.2115 -1.071
5356000000.0 -0.9584 -0.4747
5359000000.0 -0.9932 0.4074
5362000000.0 -0.2819 1.047
5366000000.0 0.6017 0.866
5369000000.0 1.027 0.117
5372000000.0 0.7148 -0.7418
5375000000.0 -0.1534 -1.006
5378000000.0 -0.8748 -0.5186
5381000000.0 -0.938 0.3766
5384000000.0 -0.2904 0.9561
5388000000.0 0.538 0.8159
5391000000.0 0.9671 0.06011
5394000000.0 0.6255 -0.7004
5397000000.0 -0.162 -0.9023
5400000000.0 -0.7972 -0.4213
5403000000.0 -0.8228 0.3466
5406000000.0 -0.2262 0.848
5409000000.0 0.5196 0.7058
5412000000.0 0.8963 0.03174
5416000000.0 0.5581 -0.6573
5419000000.0 -0.1214 -0.8796
5422000000.0 -0.7345 -0.3739
5425000000.0 -0.7733 0.3506
5428000000.0 -0.2518 0.8233
5431000000.0 0.5251 0.7068
5434000000.0 0.8552 0.03082
5438000000.0 0.5933 -0.636
5441000000.0 -0.1776 -0.8546
5444000000.0 -0.809 -0.4108
5447000000.0 -0.8079 0.3409
5450000000.0 -0.2192 0.8436
5453000000.0 0.5235 0.6978
5456000000.0 0.8548 0.04617
5459000000.0 0.6351 -0.632
5462000000.0 -0.09376 -0.8652
5466000000.0 -0.7288 -0.4951
5469000000.0 -0.8914 0.2859
5472000000.0 -0.3328 0.835
5475000000.0 0.428 0.8134
5478000000.0 0.8856 0.1889
5481000000.0 0.7349 -0.6099
5484000000.0 0.0458 -0.934
5488000000.0 -0.696 -0.6642
5491000000.0 -0.9938 0.1291
5494000000.0 -0.5123 0.8248
5497000000.0 0.3251 0.9051
5500000000.0 0.9216 0.3426
5503000000.0 0.8904 -0.4821
5506000000.0 0.1807 -0.9755
5509000000.0 -0.6444 -0.7939
5512000000.0 -1.036 -0.01054
5516000000.0 -0.6638 0.769
5519000000.0 0.1446 1.024
5522000000.0 0.905 0.5595
5525000000.0 0.9653 -0.2746
5528000000.0 0.3838 -0.9705
5531000000.0 -0.4659 -0.9311
5534000000.0 -1.024 -0.1889
5538000000.0 -0.8309 0.6262
5541000000.0 -0.06441 1.073
5544000000.0 0.7866 0.7437
5547000000.0 1.034 -0.1149
5550000000.0 0.5821 -0.886
5553000000.0 -0.3361 -1.001
5556000000.0 -0.9847 -0.3641
5559000000.0 -0.9291 0.503
5562000000.0 -0.1788 0.9979
5566000000.0 0.6361 0.7947
5569000000.0 1.029 0.009216
5572000000.0 0.6396 -0.7981
5575000000.0 -0.1888 -0.9987
5578000000.0 -0.87 -0.4665
5581000000.0 -0.9347 0.3667
5584000000.0 -0.2997 0.9203
5588000000.0 0.5287 0.8019
5591000000.0 0.946 0.1177
5594000000.0 0.6913 -0.6575
5597000000.0 -0.07504 -0.9413
5600000000.0 -0.7624 -0.5711
5603000000.0 -0.8647 0.2291
5606000000.0 -0.365 0.8578
5609000000.0 0.422 0.7764
5612000000.0 0.8681 0.19
5616000000.0 0.6744 -0.5468
5619000000.0 -0.005613 -0.8566
5622000000.0 -0.6841 -0.5471
5625000000.0 -0.7985 0.1858
5628000000.0 -0.3769 0.7314
5631000000.0 0.3335 0.764
5634000000.0 0.8169 0.1925
5638000000.0 0.6835 -0.4979
5641000000.0 0.02962 -0.8279
5644000000.0 -0.6305 -0.5431
5647000000.0 -0.7858 0.1479
5650000000.0 -0.3872 0.7508
5653000000.0 0.3282 0.7849
5656000000.0 0.8403 0.2323
5659000000.0 0.6754 -0.4957
5662000000.0 0.04877 -0.8814
5666000000.0 -0.6623 -0.5969
5669000000.0 -0.8528 0.1562
5672000000.0 -0.4228 0.7522
5675000000.0 0.3344 0.8241
5678000000.0 0.8729 0.2665
5681000000.0 0.7455 -0.5111
5684000000.0 0.04764 -0.9295
5688000000.0 -0.6838 -0.6334
5691000000.0 -0.9654 0.1168
5694000000.0 -0.4887 0.8346
5697000000.0 0.3534 0.9019
5700000000.0 0.9196 0.2885
5703000000.0 0.8437 -0.5241
5706000000.0 0.147 -1.005
5709000000.0 -0.7168 -0.7484
5712000000.0 -1.019 0.07746
5716000000.0 -0.5883 0.8316
5719000000.0 0.2866 0.9974
5722000000.0 0.9749 0.4314
5725000000.0 0.9316 -0.4574
5728000000.0 0.2489 -1.041
5731000000.0 -0.6555 -0.8557
5734000000.0 -1.085 -0.04308
5738000000.0 -0.7213 0.7911
5741000000.0 0.145 1.053
5744000000.0 0.9273 0.5527
5747000000.0 1.064 -0.3189
5750000000.0 0.4349 -0.9975
5753000000.0 -0.5265 -0.9781
5756000000.0 -1.054 -0.2044
5759000000.0 -0.8387 0.7017
5762000000.0 -0.05256 1.122
5766000000.0 0.8294 0.7229
5769000000.0 1.071 -0.1983
5772000000.0 0.5554 -0.9732
5775000000.0 -0.3834 -1.008
5778000000.0 -0.9885 -0.3865
5781000000.0 -0.9722 0.5274
5784000000.0 -0.1941 1.067
5788000000.0 0.6975 0.8243
5791000000.0 1.075 0.003088
5794000000.0 0.6851 -0.8413
5797000000.0 -0.195 -1.07
5800000000.0 -0.9324 -0.5283
5803000000.0 -1.001 0.4044
5806000000.0 -0.327 0.9946
5809000000.0 0.5788 0.8769
5812000000.0 1.051 0.1533
5816000000.0 0.7257 -0.6994
5819000000.0 -0.05114 -1.001
5822000000.0 -0.8312 -0.5892
5825000000.0 -0.9903 0.2379
5828000000.0 -0.3911 0.9102
5831000000.0 0.4393 0.8806
5834000000.0 0.9551 0.1935
5838000000.0 0.7459 -0.5867
5841000000.0 0.008883 -0.9515
5844000000.0 -0.7331 -0.5921
5847000000.0 -0.9357 0.2086
5850000000.0 -0.4198 0.8228
5853000000.0 0.3553 0.8412
5856000000.0 0.9104 0.2209
5859000000.0 0.7283 -0.5362
5862000000.0 0.03028 -0.8914
5866000000.0 -0.6802 -0.5964
5869000000.0 -0.8642 0.1473
5872000000.0 -0.4227 0.7747
5875000000.0 0.3309 0.8136
5878000000.0 0.8291 0.2398
5881000000.0 0.7099 -0.5131
5884000000.0 0.05459 -0.8615
5888000000.0 -0.6253 -0.599
5891000000.0 -0.8466 0.1313
5894000000.0 -0.4158 0.7317
5897000000.0 0.2891 0.8062
5900000000.0 0.7992 0.2595
5903000000.0 0.7502 -0.498
5906000000.0 0.1014 -0.8504
5909000000.0 -0.5833 -0.608
5912000000.0 -0.8833 0.05927
5916000000.0 -0.5041 0.71
5919000000.0 0.2306 0.8328
5922000000.0 0.7969 0.3412
5925000000.0 0.7907 -0.367
5928000000.0 0.2103 -0.8613
5931000000.0 -0.5277 -0.687
5934000000.0 -0.9122 -0.02474
5938000000.0 -0.5921 0.647
5941000000.0 0.1369 0.866
5944000000.0 0.7596 0.4409
5947000000.0 0.835 -0.2736
5950000000.0 0.2991 -0.8079
5953000000.0 -0.4307 -0.7815
5956000000.0 -0.8913 -0.1758
5959000000.0 -0.7184 0.5789
5962000000.0 0.005214 0.9755
5966000000.0 0.7128 0.5802
5969000000.0 0.9457 -0.1489
5972000000.0 0.4782 -0.808
5975000000.0 -0.2915 -0.9249
5978000000.0 -0.9477 -0.3034
5981000000.0 -0.8159 0.4901
5984000000.0 -0.1859 0.9471
5988000000.0 0.6462 0.7458
5991000000.0 0.9869 -0.02561
5994000000.0 0.6239 -0.7714
5997000000.0 -0.1955 -0.9937
6000000000.0 -0.895 -0.4868
6003000000.0 -0.9144 0.3561
6006000000.0 -0.2799 0.9637
6009000000.0 0.5588 0.8468
6012000000.0 0.9988 0.09399
6016000000.0 0.7176 -0.6971
6019000000.0 -0.08362 -1.01
6022000000.0 -0.803 -0.5542
6025000000.0 -0.9567 0.2718
6028000000.0 -0.362 0.8844
6031000000.0 0.4476 0.8651
6034000000.0 0.9582 0.1977
6038000000.0 0.7201 -0.6179
6041000000.0 -0.00483 -0.9518
6044000000.0 -0.7498 -0.6023
6047000000.0 -0.9489 0.1947
6050000000.0 -0.4419 0.8494
6053000000.0 0.3938 0.846
6056000000.0 0.904 0.2664
6059000000.0 0.7696 -0.5385
6062000000.0 0.01056 -0.8884
6066000000.0 -0.6834 -0.5988
6069000000.0 -0.8983 0.1599
6072000000.0 -0.4521 0.771
6075000000.0 0.335 0.8466
6078000000.0 0.8388 0.2653
6081000000.0 0.7274 -0.4901
6084000000.0 0.06469 -0.8596
6088000000.0 -0.6189 -0.5977
6091000000.0 -0.8515 0.08802
6094000000.0 -0.4573 0.7286
6097000000.0 0.2743 0.8256
6100000000.0 0.7851 0.3037
6103000000.0 0.7344 -0.4262
6106000000.0 0.1213 -0.8551
6109000000.0 -0.5655 -0.6182
6112000000.0 -0.865 0.0622
6116000000.0 -0.4838 0.7093
6119000000.0 0.2446 0.8094
6122000000.0 0.7931 0.3493
6125000000.0 0.7721 -0.4011
6128000000.0 0.1462 -0.8486
6131000000.0 -0.537 -0.6499
6134000000.0 -0.88 0.03593
6138000000.0 -0.5259 0.6962
6141000000.0 0.2153 0.8667
6144000000.0 0.7692 0.4042
6147000000.0 0.8075 -0.3647
6150000000.0 0.2145 -0.8624
6153000000.0 -0.5673 -0.7629
6156000000.0 -0.9263 -0.02201
6159000000.0 -0.609 0.675
6162000000.0 0.1138 0.9031
6166000000.0 0.7757 0.4632
6169000000.0 0.8661 -0.3131
6172000000.0 0.3437 -0.8806
6175000000.0 -0.5005 -0.8242
6178000000.0 -0.9409 -0.1369
6181000000.0 -0.6965 0.6383
6184000000.0 0.05075 0.9282
6188000000.0 0.7698 0.5539
6191000000.0 0.8807 -0.2463
6194000000.0 0.3739 -0.8674
6197000000.0 -0.4011 -0.8509
6200000000.0 -0.8993 -0.2078
6203000000.0 -0.7272 0.5851
6206000000.0 -0.03032 0.9645
6209000000.0 0.6751 0.6587
6212000000.0 0.8745 -0.1259
6216000000.0 0.4402 -0.7873
6219000000.0 -0.2978 -0.851
6222000000.0 -0.8436 -0.3011
6225000000.0 -0.7718 0.4519
6228000000.0 -0.1614 0.8882
6231000000.0 0.5892 0.6713
6234000000.0 0.8861 -0.02846
6238000000.0 0.517 -0.6741
6241000000.0 -0.188 -0.8518
6244000000.0 -0.7275 -0.3826
6247000000.0 -0.7722 0.3278
6250000000.0 -0.2569 0.8111
6253000000.0 0.4292 0.717
6256000000.0 0.8144 0.1023
6259000000.0 0.6154 -0.5487
6262000000.0 -0.0136 -0.8329
6266000000.0 -0.6549 -0.4491
