! Created with skrf 1.8.0 (http://scikit-rf.org).
# Hz S RI R 50.0 
!freq ReS11 ImS11
4000000000.0 -0.1406 -1.497
4003000000.0 -1.267 -0.8168
4006000000.0 -1.404 0.4574
4009000000.0 -0.5499 1.412
4012000000.0 0.7885 1.304
4016000000.0 1.524 0.2245
4019000000.0 1.13 -1.03
4022000000.0 -0.06395 -1.574
4025000000.0 -1.281 -0.9217
4028000000.0 -1.448 0.4244
4031000000.0 -0.6009 1.471
4034000000.0 0.7572 1.389
4038000000.0 1.575 0.2627
4041000000.0 1.194 -1.115
4044000000.0 -0.1243 -1.619
4047000000.0 -1.341 -0.9348
4050000000.0 -1.521 0.4394
4053000000.0 -0.6437 1.481
4056000000.0 0.723 1.442
4059000000.0 1.57 0.2967
4062000000.0 1.282 -0.9898
4066000000.0 0.06094 -1.574
4069000000.0 -1.23 -1.071
4072000000.0 -1.574 0.2609
4075000000.0 -0.8194 1.415
4078000000.0 0.5612 1.54
4081000000.0 1.536 0.5592
4084000000.0 1.446 -0.8215
4088000000.0 0.2425 -1.636
4091000000.0 -1.1 -1.236
4094000000.0 -1.636 0.0842
4097000000.0 -0.9882 1.272
4100000000.0 0.346 1.564
4103000000.0 1.433 0.7101
4106000000.0 1.445 -0.6211
4109000000.0 0.5203 -1.481
4112000000.0 -0.8434 -1.282
4116000000.0 -1.492 -0.2126
4119000000.0 -1.112 1.005
4122000000.0 -0.02464 1.487
4125000000.0 1.119 0.9598
4128000000.0 1.448 -0.1802
4131000000.0 0.8046 -1.231
4134000000.0 -0.3985 -1.393
4138000000.0 -1.318 -0.6449
4141000000.0 -1.31 0.6429
4144000000.0 -0.3745 1.448
4147000000.0 0.8172 1.235
4150000000.0 1.478 0.1624
4153000000.0 1.092 -1.037
4156000000.0 -0.1135 -1.49
4159000000.0 -1.246 -0.8974
4162000000.0 -1.481 0.366
4166000000.0 -0.6755 1.359
4169000000.0 0.6121 1.372
4172000000.0 1.433 0.4113
4175000000.0 1.231 -0.8362
4178000000.0 0.1455 -1.482
4181000000.0 -1.016 -1.106
4184000000.0 -1.468 0.08057
4188000000.0 -0.9015 1.228
4191000000.0 0.3533 1.477
4194000000.0 1.39 0.6373
4197000000.0 1.393 -0.6527
4200000000.0 0.4059 -1.537
4203000000.0 -0.9116 -1.289
4206000000.0 -1.583 -0.05206
4209000000.0 -1.042 1.258
4212000000.0 0.2877 1.633
4216000000.0 1.456 0.7586
4219000000.0 1.511 -0.6918
4222000000.0 0.3567 -1.643
4225000000.0 -1.099 -1.266
4228000000.0 -1.67 0.08166
4231000000.0 -0.922 1.392
4234000000.0 0.5386 1.56
4238000000.0 1.574 0.5564
4241000000.0 1.368 -0.9109
4244000000.0 0.09974 -1.61
4247000000.0 -1.196 -1.043
4250000000.0 -1.544 0.3374
4253000000.0 -0.7021 1.401
4256000000.0 0.6312 1.418
4259000000.0 1.514 0.339
4262000000.0 1.138 -0.9916
4266000000.0 -0.06339 -1.473
4269000000.0 -1.206 -0.9183
4272000000.0 -1.414 0.3825
4275000000.0 -0.5688 1.388
4278000000.0 0.72 1.245
4281000000.0 1.436 0.181
4284000000.0 1.043 -0.9561
4288000000.0 -0.1339 -1.421
4291000000.0 -1.158 -0.8024
4294000000.0 -1.285 0.3833
4297000000.0 -0.5038 1.234
4300000000.0 0.6102 1.179
4303000000.0 1.275 0.2709
4306000000.0 1.015 -0.8089
4309000000.0 0.06278 -1.266
4312000000.0 -0.9559 -0.856
4316000000.0 -1.285 0.1871
4319000000.0 -0.7086 1.086
4322000000.0 0.4179 1.249
4325000000.0 1.187 0.4833
4328000000.0 1.175 -0.6618
4331000000.0 0.306 -1.302
4334000000.0 -0.8134 -1.071
4338000000.0 -1.394 -0.07397
4341000000.0 -0.9487 1.021
4344000000.0 0.2136 1.356
4347000000.0 1.211 0.7208
4350000000.0 1.326 -0.4836
4353000000.0 0.5184 -1.348
4356000000.0 -0.6987 -1.247
4359000000.0 -1.438 -0.2593
4362000000.0 -1.146 0.9639
4366000000.0 -0.02373 1.459
4369000000.0 1.098 0.9499
4372000000.0 1.438 -0.2633
4375000000.0 0.7263 -1.272
4378000000.0 -0.5281 -1.386
4381000000.0 -1.421 -0.4977
4384000000.0 -1.276 0.8223
4388000000.0 -0.1929 1.555
4391000000.0 1.049 1.146
4394000000.0 1.576 -0.1437
4397000000.0 0.8741 -1.297
4400000000.0 -0.4806 -1.506
4403000000.0 -1.51 -0.5745
4406000000.0 -1.332 0.7921
4409000000.0 -0.1845 1.538
4412000000.0 1.099 1.143
4416000000.0 1.521 -0.2043
4419000000.0 0.8008 -1.279
4422000000.0 -0.5023 -1.428
4425000000.0 -1.434 -0.4666
4428000000.0 -1.243 0.8281
4431000000.0 -0.124 1.461
4434000000.0 1.074 1.014
4438000000.0 1.411 -0.222
4441000000.0 0.6788 -1.226
4444000000.0 -0.5559 -1.253
4447000000.0 -1.313 -0.3307
4450000000.0 -1.076 0.8132
4453000000.0 -0.03802 1.34
4456000000.0 1.027 0.7898
4459000000.0 1.275 -0.3383
4462000000.0 0.5188 -1.17
4466000000.0 -0.6132 -1.051
4469000000.0 -1.24 -0.1464
4472000000.0 -0.8749 0.8058
4475000000.0 0.1311 1.174
4478000000.0 1.005 0.6021
4481000000.0 1.106 -0.3837
4484000000.0 0.3461 -1.126
4488000000.0 -0.6428 -0.9291
4491000000.0 -1.133 -0.1069
4494000000.0 -0.7996 0.8599
4497000000.0 0.1594 1.094
4500000000.0 0.9863 0.5713
4503000000.0 1.003 -0.3639
4506000000.0 0.3508 -1.038
4509000000.0 -0.5958 -0.9278
4512000000.0 -1.098 -0.1332
4516000000.0 -0.77 0.7881
4519000000.0 0.09573 1.111
4522000000.0 0.9296 0.6053
4525000000.0 1.085 -0.3233
4528000000.0 0.4131 -1.07
4531000000.0 -0.542 -0.9716
4534000000.0 -1.101 -0.1946
4538000000.0 -0.8816 0.7566
4541000000.0 0.01399 1.161
4544000000.0 0.9276 0.7512
4547000000.0 1.165 -0.2549
4550000000.0 0.5399 -1.041
4553000000.0 -0.4124 -1.1
4556000000.0 -1.156 -0.3778
4559000000.0 -1.058 0.6236
4562000000.0 -0.1963 1.205
4566000000.0 0.8235 0.9129
4569000000.0 1.238 -0.0712
4572000000.0 0.7858 -1.004
4575000000.0 -0.2553 -1.246
4578000000.0 -1.125 -0.6115
4581000000.0 -1.207 0.4765
4584000000.0 -0.4093 1.231
4588000000.0 0.7074 1.138
4591000000.0 1.326 0.1697
4594000000.0 0.999 -0.9259
4597000000.0 -0.07998 -1.357
4600000000.0 -1.143 -0.8002
4603000000.0 -1.328 0.3524
4606000000.0 -0.5764 1.252
4609000000.0 0.605 1.233
4612000000.0 1.351 0.3052
4616000000.0 1.106 -0.8469
4619000000.0 0.061 -1.392
4622000000.0 -1.057 -0.9074
4625000000.0 -1.365 0.2375
4628000000.0 -0.6772 1.212
4631000000.0 0.5126 1.298
4634000000.0 1.308 0.401
4638000000.0 1.124 -0.7707
4641000000.0 0.1473 -1.374
4644000000.0 -0.967 -0.9056
4647000000.0 -1.318 0.1814
4650000000.0 -0.669 1.139
4653000000.0 0.4946 1.219
4656000000.0 1.219 0.3935
4659000000.0 1.071 -0.7172
4662000000.0 0.122 -1.244
4666000000.0 -0.9176 -0.8396
4669000000.0 -1.17 0.1723
4672000000.0 -0.592 1.05
4675000000.0 0.4221 1.083
4678000000.0 1.119 0.3485
4681000000.0 0.9037 -0.6226
4684000000.0 0.08196 -1.11
4688000000.0 -0.8167 -0.7713
4691000000.0 -1.097 0.1971
4694000000.0 -0.5381 0.9648
4697000000.0 0.3956 1.053
4700000000.0 1.07 0.311
4703000000.0 0.8892 -0.6211
4706000000.0 0.078 -1.09
4709000000.0 -0.8132 -0.6704
4712000000.0 -1.057 0.2019
4716000000.0 -0.4836 0.9469
4719000000.0 0.4326 0.9703
4722000000.0 1.037 0.2755
4725000000.0 0.8565 -0.6483
4728000000.0 0.03282 -1.036
4731000000.0 -0.7877 -0.7014
4734000000.0 -1.039 0.1831
4738000000.0 -0.5282 0.8925
4741000000.0 0.3435 1.002
4744000000.0 0.9853 0.345
4747000000.0 0.9153 -0.5312
4750000000.0 0.1788 -1.044
4753000000.0 -0.7135 -0.8263
4756000000.0 -1.086 0.03216
4759000000.0 -0.6585 0.8637
4762000000.0 0.2613 1.085
4766000000.0 1.019 0.5265
4769000000.0 1.026 -0.4356
4772000000.0 0.342 -1.086
4775000000.0 -0.6299 -0.9523
4778000000.0 -1.144 -0.1191
4781000000.0 -0.8747 0.7922
4784000000.0 0.05444 1.168
4788000000.0 0.9402 0.7319
4791000000.0 1.148 -0.2613
4794000000.0 0.5725 -1.077
4797000000.0 -0.4595 -1.155
4800000000.0 -1.185 -0.3976
4803000000.0 -1.033 0.6308
4806000000.0 -0.1843 1.223
4809000000.0 0.8351 0.9744
4812000000.0 1.282 -0.02113
4816000000.0 0.8195 -1.005
4819000000.0 -0.2494 -1.291
4822000000.0 -1.176 -0.6388
4825000000.0 -1.227 0.5106
4828000000.0 -0.4019 1.304
4831000000.0 0.754 1.146
4834000000.0 1.374 0.163
4838000000.0 0.9908 -0.9693
4841000000.0 -0.1313 -1.389
4844000000.0 -1.152 -0.774
4847000000.0 -1.344 0.4019
4850000000.0 -0.5529 1.293
4853000000.0 0.6659 1.201
4856000000.0 1.337 0.2604
4859000000.0 1.065 -0.8357
4862000000.0 0.002216 -1.36
4866000000.0 -1.052 -0.8554
4869000000.0 -1.297 0.2805
4872000000.0 -0.5755 1.173
4875000000.0 0.551 1.182
4878000000.0 1.247 0.3321
4881000000.0 1.008 -0.7586
4884000000.0 0.04776 -1.235
4888000000.0 -0.9177 -0.8
4891000000.0 -1.186 0.2021
4894000000.0 -0.5607 1.021
4897000000.0 0.4432 1.08
4900000000.0 1.095 0.3184
4903000000.0 0.9006 -0.6176
4906000000.0 0.08991 -1.074
4909000000.0 -0.7608 -0.7587
4912000000.0 -1.041 0.1315
4916000000.0 -0.5313 0.8885
4919000000.0 0.2985 0.9432
4922000000.0 0.8991 0.3565
4925000000.0 0.8177 -0.4448
4928000000.0 0.168 -0.9587
4931000000.0 -0.6192 -0.7249
4934000000.0 -0.9452 0.04204
4938000000.0 -0.5959 0.7618
4941000000.0 0.2116 0.9231
4944000000.0 0.8316 0.438
4947000000.0 0.8324 -0.3908
4950000000.0 0.2503 -0.9233
4953000000.0 -0.5308 -0.7432
4956000000.0 -0.9636 -0.07305
4959000000.0 -0.6605 0.6989
4962000000.0 0.1481 0.9619
4966000000.0 0.8323 0.4822
4969000000.0 0.9386 -0.3288
4972000000.0 0.3251 -0.9314
4975000000.0 -0.5291 -0.8595
4978000000.0 -0.9976 -0.143
4981000000.0 -0.7335 0.6838
4984000000.0 0.07134 1.035
4988000000.0 0.8334 0.6193
4991000000.0 1.029 -0.2594
4994000000.0 0.4745 -0.9698
4997000000.0 -0.4509 -1.012
5000000000.0 -1.069 -0.295
5003000000.0 -0.9166 0.6357
5006000000.0 -0.1009 1.148
5009000000.0 0.8238 0.8334
5012000000.0 1.196 -0.13
5016000000.0 0.6837 -1.012
5019000000.0 -0.3702 -1.159
5022000000.0 -1.156 -0.479
5025000000.0 -1.104 0.626
5028000000.0 -0.245 1.234
5031000000.0 0.7908 1.001
5034000000.0 1.292 0.01129
5038000000.0 0.8398 -0.9747
5041000000.0 -0.2299 -1.245
5044000000.0 -1.105 -0.6533
5047000000.0 -1.217 0.4719
5050000000.0 -0.4031 1.233
5053000000.0 0.6777 1.122
5056000000.0 1.294 0.2399
5059000000.0 0.9805 -0.8436
5062000000.0 -0.01721 -1.278
5066000000.0 -0.9947 -0.8146
5069000000.0 -1.27 0.2672
5072000000.0 -0.599 1.155
5075000000.0 0.512 1.187
5078000000.0 1.182 0.3713
5081000000.0 1.056 -0.6419
5084000000.0 0.1311 -1.252
5088000000.0 -0.8436 -0.9011
5091000000.0 -1.183 0.05533
5094000000.0 -0.6887 0.959
5097000000.0 0.2917 1.147
5100000000.0 1.022 0.4942
5103000000.0 1.016 -0.4333
5106000000.0 0.3292 -1.07
5109000000.0 -0.6148 -0.9467
5112000000.0 -1.069 -0.1195
5116000000.0 -0.7764 0.6836
5119000000.0 0.05228 1.093
5122000000.0 0.841 0.6214
5125000000.0 0.9914 -0.2724
5128000000.0 0.4554 -0.8859
5131000000.0 -0.4334 -0.9114
5134000000.0 -0.9283 -0.2291
5138000000.0 -0.8089 0.5471
5141000000.0 -0.05476 0.9623
5144000000.0 0.7283 0.675
5147000000.0 0.9577 -0.1292
5150000000.0 0.5197 -0.7988
5153000000.0 -0.3202 -0.8627
5156000000.0 -0.856 -0.3153
5159000000.0 -0.7817 0.4506
5162000000.0 -0.1264 0.8754
5166000000.0 0.5952 0.6733
5169000000.0 0.89 -0.05869
5172000000.0 0.5448 -0.7186
5175000000.0 -0.2243 -0.8837
5178000000.0 -0.7964 -0.3854
5181000000.0 -0.7821 0.3912
5184000000.0 -0.1787 0.9103
5188000000.0 0.5734 0.7097
5191000000.0 0.9153 -0.02751
5194000000.0 0.5664 -0.7314
5197000000.0 -0.2251 -0.8876
5200000000.0 -0.8169 -0.3841
5203000000.0 -0.829 0.4283
5206000000.0 -0.1923 0.896
5209000000.0 0.5879 0.7401
5212000000.0 0.9789 0.02438
5216000000.0 0.634 -0.7288
5219000000.0 -0.1815 -0.9482
5222000000.0 -0.8688 -0.4492
5225000000.0 -0.9111 0.4072
5228000000.0 -0.2503 0.9601
5231000000.0 0.5564 0.8299
5234000000.0 0.99 0.07475
5238000000.0 0.6792 -0.7129
5241000000.0 -0.1345 -1.031
5244000000.0 -0.8916 -0.5496
5247000000.0 -1.018 0.3214
5250000000.0 -0.3922 1.006
5253000000.0 0.502 0.9314
5256000000.0 1.06 0.2185
5259000000.0 0.8418 -0.6961
5262000000.0 0.01799 -1.082
5266000000.0 -0.8017 -0.7019
5269000000.0 -1.061 0.1531
5272000000.0 -0.583 0.9432
5275000000.0 0.3388 1.038
5278000000.0 1.031 0.3913
5281000000.0 0.9689 -0.5106
5284000000.0 0.241 -1.068
5288000000.0 -0.6406 -0.8885
5291000000.0 -1.092 -0.06293
5294000000.0 -0.7586 0.7897
5297000000.0 0.1271 1.13
5300000000.0 0.922 0.6447
5303000000.0 1.072 -0.2942
5306000000.0 0.5094 -1.028
5309000000.0 -0.4745 -1.059
5312000000.0 -1.101 -0.313
5316000000.0 -0.9445 0.649
5319000000.0 -0.07496 1.148
5322000000.0 0.775 0.8134
5325000000.0 1.143 -0.08105
5328000000.0 0.64 -0.9457
5331000000.0 -0.3071 -1.1
5334000000.0 -1.073 -0.4822
5338000000.0 -1.013 0.4672
5341000000.0 -0.2825 1.097
5344000000.0 0.6584 0.8866
5347000000.0 1.106 0.05495
5350000000.0 0.7579 -0.8123
5353000000.0 -0.1447 -1.066
5356000000.0 -0.9281 -0.5739
5359000000.0 -1.012 0.3419
5362000000.0 -0.3861 1.016
5366000000.0 0.5568 0.917
5369000000.0 1.054 0.1426
5372000000.0 0.7692 -0.7148
5375000000.0 -0.09603 -1.026
5378000000.0 -0.8571 -0.5654
5381000000.0 -0.9602 0.2912
5384000000.0 -0.3473 0.9232
5388000000.0 0.5315 0.8489
5391000000.0 0.9647 0.117
5394000000.0 0.6788 -0.6787
5397000000.0 -0.09501 -0.9077
5400000000.0 -0.7589 -0.4848
5403000000.0 -0.869 0.2627
5406000000.0 -0.3055 0.8449
5409000000.0 0.4561 0.7285
5412000000.0 0.8569 0.09394
5416000000.0 0.6085 -0.587
5419000000.0 -0.07937 -0.8302
5422000000.0 -0.7422 -0.4653
5425000000.0 -0.8228 0.3015
5428000000.0 -0.2548 0.8048
5431000000.0 0.4753 0.7109
5434000000.0 0.8457 0.08959
5438000000.0 0.6276 -0.5993
5441000000.0 -0.09827 -0.886
5444000000.0 -0.7225 -0.4549
5447000000.0 -0.8287 0.276
5450000000.0 -0.2829 0.8333
5453000000.0 0.4596 0.7431
5456000000.0 0.8796 0.1328
5459000000.0 0.6275 -0.6111
5462000000.0 -0.08531 -0.8882
5466000000.0 -0.7202 -0.5078
5469000000.0 -0.8723 0.2147
5472000000.0 -0.3965 0.8263
5475000000.0 0.3664 0.8206
5478000000.0 0.9308 0.2374
5481000000.0 0.7518 -0.5591
5484000000.0 0.06236 -0.9445
5488000000.0 -0.6852 -0.6707
5491000000.0 -0.9462 0.07357
5494000000.0 -0.5178 0.826
5497000000.0 0.2677 0.98
5500000000.0 0.9208 0.4066
5503000000.0 0.9068 -0.4391
5506000000.0 0.2467 -1.001
5509000000.0 -0.5968 -0.8367
5512000000.0 -1.031 -0.08071
5516000000.0 -0.724 0.7017
5519000000.0 0.09293 1.013
5522000000.0 0.8753 0.584
5525000000.0 0.9768 -0.2911
5528000000.0 0.3987 -0.9377
5531000000.0 -0.4278 -0.9635
5534000000.0 -0.9846 -0.2752
5538000000.0 -0.8852 0.5906
5541000000.0 -0.1051 1.059
5544000000.0 0.7542 0.7444
5547000000.0 1.087 -0.07542
5550000000.0 0.603 -0.8731
5553000000.0 -0.296 -1.044
5556000000.0 -0.9538 -0.4334
5559000000.0 -0.9483 0.4512
5562000000.0 -0.2531 1.014
5566000000.0 0.591 0.8299
5569000000.0 1.018 0.05522
5572000000.0 0.7056 -0.748
5575000000.0 -0.15 -1.022
5578000000.0 -0.8606 -0.5287
5581000000.0 -0.9441 0.3459
5584000000.0 -0.3544 0.9267
5588000000.0 0.4605 0.8175
5591000000.0 0.9453 0.1547
5594000000.0 0.7235 -0.5976
5597000000.0 0.009578 -0.9511
5600000000.0 -0.722 -0.5897
5603000000.0 -0.8894 0.1721
5606000000.0 -0.4257 0.7712
5609000000.0 0.3485 0.8248
5612000000.0 0.8689 0.2524
5616000000.0 0.6966 -0.5154
5619000000.0 0.05116 -0.8718
5622000000.0 -0.6058 -0.5933
5625000000.0 -0.8472 0.1209
5628000000.0 -0.4379 0.7348
5631000000.0 0.3001 0.7745
5634000000.0 0.8166 0.2895
5638000000.0 0.7083 -0.4338
5641000000.0 0.06063 -0.837
5644000000.0 -0.5822 -0.6005
5647000000.0 -0.8232 0.1029
5650000000.0 -0.4386 0.7192
5653000000.0 0.2839 0.8116
5656000000.0 0.8102 0.2935
5659000000.0 0.7173 -0.4634
5662000000.0 0.1142 -0.8663
5666000000.0 -0.5982 -0.6123
5669000000.0 -0.8645 0.1173
5672000000.0 -0.4706 0.7506
5675000000.0 0.2917 0.8386
5678000000.0 0.8609 0.2883
5681000000.0 0.7748 -0.4656
5684000000.0 0.09615 -0.9381
5688000000.0 -0.6753 -0.6744
5691000000.0 -0.9553 0.09536
5694000000.0 -0.5171 0.7656
5697000000.0 0.2737 0.9276
5700000000.0 0.8927 0.379
5703000000.0 0.8429 -0.479
5706000000.0 0.1913 -0.96
5709000000.0 -0.6444 -0.7457
5712000000.0 -1.012 -0.0143
5716000000.0 -0.6214 0.7859
5719000000.0 0.2219 1.013
5722000000.0 0.925 0.4804
5725000000.0 0.9519 -0.4481
5728000000.0 0.3127 -1.01
5731000000.0 -0.5665 -0.9008
5734000000.0 -1.075 -0.1115
5738000000.0 -0.7555 0.7524
5741000000.0 0.08295 1.087
5744000000.0 0.8957 0.6403
5747000000.0 1.074 -0.2891
5750000000.0 0.4539 -0.9998
5753000000.0 -0.4744 -1.003
5756000000.0 -1.085 -0.2867
5759000000.0 -0.9199 0.6531
5762000000.0 -0.1062 1.09
5766000000.0 0.7648 0.7598
5769000000.0 1.098 -0.08242
5772000000.0 0.6069 -0.9208
5775000000.0 -0.3004 -1.052
5778000000.0 -0.9896 -0.4288
5781000000.0 -0.9766 0.4951
5784000000.0 -0.2789 1.02
5788000000.0 0.6265 0.8794
5791000000.0 1.042 0.05591
5794000000.0 0.7579 -0.7761
5797000000.0 -0.1328 -1.049
5800000000.0 -0.9088 -0.5826
5803000000.0 -0.9976 0.336
5806000000.0 -0.3991 0.9906
5809000000.0 0.5144 0.8968
5812000000.0 0.9616 0.2047
5816000000.0 0.8013 -0.6338
5819000000.0 -0.01685 -1.011
5822000000.0 -0.7956 -0.6241
5825000000.0 -0.9576 0.1838
5828000000.0 -0.475 0.882
5831000000.0 0.3829 0.9232
5834000000.0 0.9465 0.3021
5838000000.0 0.8299 -0.5467
5841000000.0 0.07811 -0.9317
5844000000.0 -0.6769 -0.6549
5847000000.0 -0.9355 0.1097
5850000000.0 -0.489 0.8083
5853000000.0 0.308 0.8882
5856000000.0 0.8846 0.319
5859000000.0 0.781 -0.4889
5862000000.0 0.1438 -0.9065
5866000000.0 -0.6204 -0.6372
5869000000.0 -0.8911 0.08028
5872000000.0 -0.515 0.7806
5875000000.0 0.3013 0.8641
5878000000.0 0.8513 0.3174
5881000000.0 0.7402 -0.4783
5884000000.0 0.1033 -0.8691
5888000000.0 -0.6031 -0.6459
5891000000.0 -0.8354 0.02796
5894000000.0 -0.5157 0.6903
5897000000.0 0.2413 0.8298
5900000000.0 0.7686 0.3405
5903000000.0 0.7351 -0.3749
5906000000.0 0.1803 -0.8508
5909000000.0 -0.5368 -0.6679
5912000000.0 -0.8536 -0.02131
5916000000.0 -0.5559 0.6744
5919000000.0 0.145 0.8629
5922000000.0 0.7549 0.4139
5925000000.0 0.8058 -0.327
5928000000.0 0.2479 -0.7912
5931000000.0 -0.4628 -0.7134
5934000000.0 -0.8592 -0.1027
5938000000.0 -0.6396 0.633
5941000000.0 0.0607 0.8811
5944000000.0 0.729 0.5177
5947000000.0 0.8625 -0.2175
5950000000.0 0.3879 -0.7915
5953000000.0 -0.3811 -0.8451
5956000000.0 -0.8786 -0.2316
5959000000.0 -0.7319 0.5322
5962000000.0 -0.08287 0.9132
5966000000.0 0.6528 0.632
5969000000.0 0.9492 -0.09082
5972000000.0 0.5292 -0.78
5975000000.0 -0.2596 -0.9079
5978000000.0 -0.8803 -0.3806
5981000000.0 -0.8628 0.4425
5984000000.0 -0.234 0.9539
5988000000.0 0.6064 0.8107
5991000000.0 1.023 0.06417
5994000000.0 0.6891 -0.7219
5997000000.0 -0.1339 -0.9949
6000000000.0 -0.8499 -0.521
6003000000.0 -0.923 0.3186
6006000000.0 -0.3421 0.9116
6009000000.0 0.4784 0.8587
6012000000.0 0.9702 0.2208
6016000000.0 0.7983 -0.6159
6019000000.0 -0.008785 -0.9966
6022000000.0 -0.7661 -0.6497
6025000000.0 -0.9374 0.2093
6028000000.0 -0.4642 0.8611
6031000000.0 0.3781 0.8845
6034000000.0 0.925 0.272
6038000000.0 0.7951 -0.5264
6041000000.0 0.07203 -0.9745
6044000000.0 -0.6751 -0.6821
6047000000.0 -0.9382 0.146
6050000000.0 -0.5249 0.8118
6053000000.0 0.307 0.8971
6056000000.0 0.8766 0.3132
6059000000.0 0.7838 -0.4868
6062000000.0 0.1439 -0.9181
6066000000.0 -0.6355 -0.6792
6069000000.0 -0.8906 0.07835
6072000000.0 -0.5208 0.724
6075000000.0 0.2686 0.845
6078000000.0 0.8019 0.3374
6081000000.0 0.7565 -0.385
6084000000.0 0.1799 -0.8611
6088000000.0 -0.5651 -0.6826
6091000000.0 -0.8469 0.03408
6094000000.0 -0.5362 0.6703
6097000000.0 0.1966 0.8229
6100000000.0 0.7623 0.3814
6103000000.0 0.7792 -0.3465
6106000000.0 0.1888 -0.8293
6109000000.0 -0.5232 -0.6976
6112000000.0 -0.8724 -0.01438
6116000000.0 -0.5765 0.6383
6119000000.0 0.1695 0.8523
6122000000.0 0.7514 0.4192
6125000000.0 0.7869 -0.3198
6128000000.0 0.2197 -0.8414
6131000000.0 -0.4582 -0.7025
6134000000.0 -0.8456 -0.05137
6138000000.0 -0.6199 0.5942
6141000000.0 0.1259 0.8706
6144000000.0 0.7516 0.4402
6147000000.0 0.7956 -0.2796
6150000000.0 0.3192 -0.8593
6153000000.0 -0.4429 -0.7798
6156000000.0 -0.8856 -0.1312
6159000000.0 -0.6595 0.5964
6162000000.0 0.03097 0.9056
6166000000.0 0.7716 0.5284
6169000000.0 0.8924 -0.2126
6172000000.0 0.3874 -0.8375
6175000000.0 -0.3694 -0.8367
6178000000.0 -0.8854 -0.1933
6181000000.0 -0.7558 0.5552
6184000000.0 -0.01848 0.9214
6188000000.0 0.7101 0.6322
6191000000.0 0.9061 -0.1791
6194000000.0 0.4531 -0.795
6197000000.0 -0.3396 -0.8942
6200000000.0 -0.892 -0.2978
6203000000.0 -0.7919 0.541
6206000000.0 -0.1039 0.8983
6209000000.0 0.6374 0.7056
6212000000.0 0.9059 -0.04996
6216000000.0 0.5631 -0.7385
6219000000.0 -0.2021 -0.8948
6222000000.0 -0.7955 -0.407
6225000000.0 -0.816 0.3835
6228000000.0 -0.219 0.9144
6231000000.0 0.5584 0.7569
6234000000.0 0.8611 0.09271
6238000000.0 0.6085 -0.6341
6241000000.0 -0.1173 -0.8659
6244000000.0 -0.7459 -0.5074
6247000000.0 -0.8146 0.2597
6250000000.0 -0.32 0.7949
6253000000.0 0.391 0.7462
6256000000.0 0.8035 0.1802
6259000000.0 0.6554 -0.4846
6262000000.0 0.02004 -0.8188
6266000000.0 -0.5371 -0.5792
6269000000.0 -0.7699 0.1016
