! Created with skrf 1.8.0 (http://scikit-rf.org).
# Hz S RI R 50.0 
!freq ReS11 ImS11
4000000000.0 1.141 -1.148
4003000000.0 -0.1668 -1.503
4006000000.0 -1.299 -0.8404
4009000000.0 -1.436 0.4906
4012000000.0 -0.5179 1.404
4016000000.0 0.7612 1.274
4019000000.0 1.522 0.2034
4022000000.0 1.088 -1.084
4025000000.0 -0.1246 -1.513
4028000000.0 -1.301 -0.8042
4031000000.0 -1.432 0.5272
4034000000.0 -0.5103 1.458
4038000000.0 0.8059 1.273
4041000000.0 1.5 0.1139
4044000000.0 1.066 -1.071
4047000000.0 -0.2139 -1.51
4050000000.0 -1.291 -0.7809
4053000000.0 -1.424 0.5192
4056000000.0 -0.4819 1.414
4059000000.0 0.8451 1.28
4062000000.0 1.523 0.1564
4066000000.0 1.105 -1.069
4069000000.0 -0.1459 -1.556
4072000000.0 -1.315 -0.8674
4075000000.0 -1.527 0.4973
4078000000.0 -0.611 1.508
4081000000.0 0.8012 1.415
4084000000.0 1.597 0.2463
4088000000.0 1.195 -1.118
4091000000.0 -0.1206 -1.651
4094000000.0 -1.335 -0.966
4097000000.0 -1.585 0.4588
4100000000.0 -0.677 1.489
4103000000.0 0.7562 1.45
4106000000.0 1.583 0.3182
4109000000.0 1.253 -0.981
4112000000.0 0.05855 -1.565
4116000000.0 -1.152 -1.018
4119000000.0 -1.534 0.2155
4122000000.0 -0.827 1.304
4125000000.0 0.4724 1.461
4128000000.0 1.383 0.5833
4131000000.0 1.353 -0.6405
4134000000.0 0.4108 -1.479
4138000000.0 -0.8692 -1.296
4141000000.0 -1.531 -0.1682
4144000000.0 -1.132 1.064
4147000000.0 0.09095 1.534
4150000000.0 1.234 0.9183
4153000000.0 1.528 -0.3299
4156000000.0 0.7366 -1.366
4159000000.0 -0.5966 -1.434
4162000000.0 -1.469 -0.447
4166000000.0 -1.317 0.7785
4169000000.0 -0.2328 1.52
4172000000.0 0.9926 1.144
4175000000.0 1.533 0.005745
4178000000.0 0.9567 -1.135
4181000000.0 -0.2435 -1.503
4184000000.0 -1.269 -0.7904
4188000000.0 -1.444 0.471
4191000000.0 -0.624 1.398
4194000000.0 0.7098 1.381
4197000000.0 1.488 0.3859
4200000000.0 1.278 -0.891
4203000000.0 0.1366 -1.596
4206000000.0 -1.136 -1.132
4209000000.0 -1.593 0.1688
4212000000.0 -0.8947 1.363
4216000000.0 0.4694 1.603
4219000000.0 1.56 0.5994
4222000000.0 1.483 -0.8353
4225000000.0 0.2586 -1.66
4228000000.0 -1.158 -1.275
4231000000.0 -1.733 0.1173
4234000000.0 -0.9479 1.447
4238000000.0 0.5296 1.659
4241000000.0 1.612 0.6285
4244000000.0 1.454 -0.8919
4247000000.0 0.2468 -1.71
4250000000.0 -1.24 -1.238
4253000000.0 -1.718 0.1846
4256000000.0 -0.9204 1.456
4259000000.0 0.6006 1.639
4262000000.0 1.626 0.4957
4266000000.0 1.407 -0.9904
4269000000.0 0.06293 -1.696
4272000000.0 -1.314 -1.057
4275000000.0 -1.611 0.4044
4278000000.0 -0.7095 1.494
4281000000.0 0.7609 1.451
4284000000.0 1.551 0.2796
4288000000.0 1.161 -1.079
4291000000.0 -0.1618 -1.515
4294000000.0 -1.24 -0.8219
4297000000.0 -1.366 0.4446
4300000000.0 -0.4962 1.34
4303000000.0 0.7137 1.191
4306000000.0 1.377 0.2122
4309000000.0 1.038 -0.9091
4312000000.0 -0.05246 -1.339
4316000000.0 -1.081 -0.7909
4319000000.0 -1.327 0.2935
4322000000.0 -0.5979 1.205
4325000000.0 0.5672 1.23
4328000000.0 1.295 0.3627
4331000000.0 1.108 -0.7768
4334000000.0 0.116 -1.334
4338000000.0 -0.9776 -0.9362
4341000000.0 -1.372 0.1629
4344000000.0 -0.7658 1.153
4347000000.0 0.391 1.318
4350000000.0 1.273 0.5523
4353000000.0 1.218 -0.6177
4356000000.0 0.295 -1.364
4359000000.0 -0.8738 -1.069
4362000000.0 -1.395 -0.02865
4366000000.0 -0.9383 1.006
4369000000.0 0.1765 1.367
4372000000.0 1.177 0.7559
4375000000.0 1.353 -0.4379
4378000000.0 0.5298 -1.296
4381000000.0 -0.664 -1.293
4384000000.0 -1.416 -0.3267
4388000000.0 -1.193 0.8811
4391000000.0 -0.05788 1.496
4394000000.0 1.115 1.024
4397000000.0 1.508 -0.1832
4400000000.0 0.8158 -1.318
4403000000.0 -0.498 -1.458
4406000000.0 -1.441 -0.5374
4409000000.0 -1.371 0.7655
4412000000.0 -0.2625 1.556
4416000000.0 1.053 1.187
4419000000.0 1.57 -0.06777
4422000000.0 1.002 -1.245
4425000000.0 -0.3938 -1.532
4428000000.0 -1.394 -0.6972
4431000000.0 -1.437 0.6753
4434000000.0 -0.3685 1.511
4438000000.0 0.9338 1.263
4441000000.0 1.583 0.05569
4444000000.0 1.027 -1.184
4447000000.0 -0.2983 -1.537
4450000000.0 -1.375 -0.7733
4453000000.0 -1.422 0.6334
4456000000.0 -0.38 1.497
4459000000.0 0.9572 1.213
4462000000.0 1.535 -0.003975
4466000000.0 0.9212 -1.177
4469000000.0 -0.3403 -1.418
4472000000.0 -1.323 -0.5508
4475000000.0 -1.23 0.6706
4478000000.0 -0.2463 1.378
4481000000.0 0.9146 1.003
4484000000.0 1.291 -0.1289
4488000000.0 0.6845 -1.113
4491000000.0 -0.428 -1.176
4494000000.0 -1.206 -0.3992
4497000000.0 -1.016 0.6997
4500000000.0 -0.09645 1.237
4503000000.0 0.8379 0.8262
4506000000.0 1.107 -0.1694
4509000000.0 0.5348 -0.9927
4512000000.0 -0.4151 -1.027
4516000000.0 -1.036 -0.3073
4519000000.0 -0.904 0.6814
4522000000.0 -0.02829 1.102
4525000000.0 0.8299 0.6603
4528000000.0 1.051 -0.236
4531000000.0 0.4861 -0.9439
4534000000.0 -0.451 -0.9656
4538000000.0 -1.036 -0.2535
4541000000.0 -0.8633 0.6636
4544000000.0 -0.01097 1.065
4547000000.0 0.8425 0.6664
4550000000.0 1.058 -0.2154
4553000000.0 0.5108 -0.949
4556000000.0 -0.4096 -0.9863
4559000000.0 -1.041 -0.3113
4562000000.0 -0.8976 0.6066
4566000000.0 -0.1173 1.102
4569000000.0 0.7726 0.8001
4572000000.0 1.114 -0.09007
4575000000.0 0.6646 -0.9338
4578000000.0 -0.3083 -1.124
4581000000.0 -1.068 -0.4956
4584000000.0 -1.072 0.5271
4588000000.0 -0.2843 1.182
4591000000.0 0.7454 0.9731
4594000000.0 1.259 0.03967
4597000000.0 0.8237 -0.9415
4600000000.0 -0.1748 -1.249
4603000000.0 -1.071 -0.6354
4606000000.0 -1.207 0.4317
4609000000.0 -0.4543 1.206
4612000000.0 0.6563 1.14
4616000000.0 1.329 0.1966
4619000000.0 0.9972 -0.8882
4622000000.0 -0.04497 -1.336
4625000000.0 -1.076 -0.8119
4628000000.0 -1.307 0.2645
4631000000.0 -0.6061 1.214
4634000000.0 0.5618 1.249
4638000000.0 1.337 0.3719
4641000000.0 1.14 -0.8447
4644000000.0 0.09615 -1.387
4647000000.0 -1.003 -0.9446
4650000000.0 -1.378 0.1806
4653000000.0 -0.7104 1.188
4656000000.0 0.502 1.307
4659000000.0 1.335 0.4353
4662000000.0 1.153 -0.7463
4666000000.0 0.1196 -1.33
4669000000.0 -0.9263 -0.9142
4672000000.0 -1.308 0.1556
4675000000.0 -0.6784 1.109
4678000000.0 0.4146 1.217
4681000000.0 1.206 0.4092
4684000000.0 1.047 -0.7014
4688000000.0 0.1131 -1.215
4691000000.0 -0.9019 -0.8714
4694000000.0 -1.213 0.151
4697000000.0 -0.6116 1.052
4700000000.0 0.4345 1.108
4703000000.0 1.156 0.346
4706000000.0 0.954 -0.6974
4709000000.0 0.007285 -1.178
4712000000.0 -0.8557 -0.7343
4716000000.0 -1.105 0.2594
4719000000.0 -0.4798 0.9974
4722000000.0 0.4859 0.9823
4725000000.0 1.051 0.2279
4728000000.0 0.7615 -0.6618
4731000000.0 -0.005567 -1.032
4734000000.0 -0.8286 -0.6224
4738000000.0 -0.9561 0.2866
4741000000.0 -0.4125 0.9152
4744000000.0 0.4727 0.8701
4747000000.0 0.9778 0.1948
4750000000.0 0.7505 -0.6235
4753000000.0 -0.05353 -0.9789
4756000000.0 -0.8016 -0.5966
4759000000.0 -0.9786 0.2455
4762000000.0 -0.4238 0.91
4766000000.0 0.4455 0.8954
4769000000.0 0.9957 0.2418
4772000000.0 0.7969 -0.6448
4775000000.0 0.05584 -1.021
4778000000.0 -0.7922 -0.6916
4781000000.0 -1.048 0.1569
4784000000.0 -0.5049 0.9096
4788000000.0 0.381 1.018
4791000000.0 1.021 0.3701
4794000000.0 0.933 -0.5512
4797000000.0 0.1752 -1.1
4800000000.0 -0.7222 -0.8454
4803000000.0 -1.08 0.004852
4806000000.0 -0.7014 0.849
4809000000.0 0.1919 1.114
4812000000.0 1.006 0.5873
4816000000.0 1.12 -0.4196
4819000000.0 0.4217 -1.133
4822000000.0 -0.6303 -1.03
4825000000.0 -1.237 -0.1931
4828000000.0 -0.968 0.8205
4831000000.0 0.01807 1.248
4834000000.0 1.04 0.8002
4838000000.0 1.264 -0.2788
4841000000.0 0.5926 -1.171
4844000000.0 -0.5222 -1.243
4847000000.0 -1.317 -0.3537
4850000000.0 -1.12 0.7595
4853000000.0 -0.1195 1.347
4856000000.0 0.9714 0.9493
4859000000.0 1.337 -0.1537
4862000000.0 0.7355 -1.154
4866000000.0 -0.4263 -1.307
4869000000.0 -1.298 -0.4845
4872000000.0 -1.186 0.6875
4875000000.0 -0.2212 1.346
4878000000.0 0.9208 1.032
4881000000.0 1.372 -0.1062
4884000000.0 0.7908 -1.107
4888000000.0 -0.3388 -1.288
4891000000.0 -1.246 -0.4953
4894000000.0 -1.138 0.625
4897000000.0 -0.22 1.265
4900000000.0 0.8159 0.9188
4903000000.0 1.236 -0.07999
4906000000.0 0.7174 -0.9928
4909000000.0 -0.2888 -1.164
4912000000.0 -1.031 -0.4899
4916000000.0 -1.006 0.5212
4919000000.0 -0.2356 1.085
4922000000.0 0.6892 0.8415
4925000000.0 1.053 0.04529
4928000000.0 0.6679 -0.796
4931000000.0 -0.1813 -1.026
4934000000.0 -0.8806 -0.4782
4938000000.0 -0.9438 0.3632
4941000000.0 -0.2804 0.9394
4944000000.0 0.5357 0.8073
4947000000.0 0.9469 0.08542
4950000000.0 0.6576 -0.7032
4953000000.0 -0.1213 -0.9663
4956000000.0 -0.8324 -0.5089
4959000000.0 -0.8783 0.2922
4962000000.0 -0.3079 0.9054
4966000000.0 0.4773 0.8184
4969000000.0 0.9525 0.1161
4972000000.0 0.6845 -0.6675
4975000000.0 -0.05979 -0.9562
4978000000.0 -0.7941 -0.5383
4981000000.0 -0.9003 0.2735
4984000000.0 -0.3668 0.8934
4988000000.0 0.4498 0.8454
4991000000.0 0.9614 0.2074
4994000000.0 0.7635 -0.6197
4997000000.0 0.0008178 -1.006
5000000000.0 -0.781 -0.6903
5003000000.0 -1.032 0.1838
5006000000.0 -0.5408 0.9353
5009000000.0 0.3883 0.9907
5012000000.0 1.068 0.3362
5016000000.0 0.946 -0.613
5019000000.0 0.1281 -1.136
5022000000.0 -0.8032 -0.8715
5025000000.0 -1.19 0.09829
5028000000.0 -0.6914 0.9809
5031000000.0 0.3243 1.153
5034000000.0 1.129 0.4806
5038000000.0 1.105 -0.5569
5041000000.0 0.2778 -1.222
5044000000.0 -0.773 -0.9926
5047000000.0 -1.25 -0.04714
5050000000.0 -0.8427 0.9168
5053000000.0 0.179 1.248
5056000000.0 1.063 0.6921
5059000000.0 1.218 -0.4032
5062000000.0 0.4977 -1.203
5066000000.0 -0.6374 -1.155
5069000000.0 -1.294 -0.2646
5072000000.0 -0.9982 0.8403
5075000000.0 0.002142 1.314
5078000000.0 1.04 0.8641
5081000000.0 1.272 -0.2545
5084000000.0 0.6256 -1.114
5088000000.0 -0.4808 -1.226
5091000000.0 -1.22 -0.4098
5094000000.0 -1.054 0.6741
5097000000.0 -0.1714 1.215
5100000000.0 0.815 0.8733
5103000000.0 1.183 -0.04193
5106000000.0 0.7466 -0.9513
5109000000.0 -0.2258 -1.126
5112000000.0 -0.9846 -0.5286
5116000000.0 -1.049 0.4027
5119000000.0 -0.3642 1.044
5122000000.0 0.5829 0.95
5125000000.0 1.077 0.1586
5128000000.0 0.8125 -0.7555
5131000000.0 -0.05835 -1.073
5134000000.0 -0.7999 -0.6358
5138000000.0 -1.039 0.2573
5141000000.0 -0.4362 0.9141
5144000000.0 0.4024 0.9529
5147000000.0 0.9576 0.2566
5150000000.0 0.8032 -0.5472
5153000000.0 0.06639 -0.9599
5156000000.0 -0.6727 -0.6752
5159000000.0 -0.9346 0.1101
5162000000.0 -0.5364 0.7712
5166000000.0 0.2785 0.9008
5169000000.0 0.8662 0.3432
5172000000.0 0.7995 -0.4507
5175000000.0 0.1849 -0.8884
5178000000.0 -0.6008 -0.7208
5181000000.0 -0.9174 0.01771
5184000000.0 -0.5638 0.7288
5188000000.0 0.1837 0.8978
5191000000.0 0.8244 0.4267
5194000000.0 0.8693 -0.4227
5197000000.0 0.2139 -0.9187
5200000000.0 -0.5958 -0.7278
5203000000.0 -0.9385 -0.0005767
5206000000.0 -0.5876 0.7264
5209000000.0 0.2307 0.9156
5212000000.0 0.8508 0.407
5216000000.0 0.8491 -0.4123
5219000000.0 0.1979 -0.9127
5222000000.0 -0.6223 -0.7778
5225000000.0 -0.9967 0.001877
5228000000.0 -0.6245 0.7489
5231000000.0 0.195 0.956
5234000000.0 0.8976 0.4756
5238000000.0 0.9207 -0.4264
5241000000.0 0.2951 -0.9681
5244000000.0 -0.5897 -0.8501
5247000000.0 -1.022 -0.0659
5250000000.0 -0.7186 0.7387
5253000000.0 0.1279 1.049
5256000000.0 0.8984 0.5544
5259000000.0 1.003 -0.3364
5262000000.0 0.3958 -0.9705
5266000000.0 -0.511 -0.924
5269000000.0 -1.05 -0.2123
5272000000.0 -0.8177 0.6839
5275000000.0 -0.003071 1.05
5278000000.0 0.8126 0.7453
5281000000.0 1.056 -0.1524
5284000000.0 0.5891 -0.9139
5288000000.0 -0.3406 -1.042
5291000000.0 -1.019 -0.422
5294000000.0 -0.9719 0.555
5297000000.0 -0.2541 1.095
5300000000.0 0.6643 0.8706
5303000000.0 1.135 0.03915
5306000000.0 0.7643 -0.8296
5309000000.0 -0.08454 -1.114
5312000000.0 -0.9521 -0.668
5316000000.0 -1.112 0.3255
5319000000.0 -0.4795 1.049
5322000000.0 0.5005 1.053
5325000000.0 1.115 0.3123
5328000000.0 0.9529 -0.6674
5331000000.0 0.1088 -1.146
5334000000.0 -0.8321 -0.8308
5338000000.0 -1.15 0.1033
5341000000.0 -0.6496 0.9699
5344000000.0 0.318 1.117
5347000000.0 1.035 0.4695
5350000000.0 1.045 -0.4928
5353000000.0 0.292 -1.104
5356000000.0 -0.6912 -0.8784
5359000000.0 -1.142 -0.07667
5362000000.0 -0.7803 0.8338
5366000000.0 0.1654 1.102
5369000000.0 0.9463 0.5818
5372000000.0 1.06 -0.3776
5375000000.0 0.3515 -1.032
5378000000.0 -0.5732 -0.932
5381000000.0 -1.063 -0.1754
5384000000.0 -0.744 0.7507
5388000000.0 0.08065 1.045
5391000000.0 0.8909 0.5803
5394000000.0 0.9508 -0.3281
5397000000.0 0.3793 -0.9587
5400000000.0 -0.5167 -0.8509
5403000000.0 -0.9851 -0.1302
5406000000.0 -0.6882 0.6562
5409000000.0 0.06561 0.962
5412000000.0 0.8008 0.4978
5416000000.0 0.8738 -0.3058
5419000000.0 0.314 -0.8516
5422000000.0 -0.483 -0.7858
5425000000.0 -0.893 -0.1039
5428000000.0 -0.6398 0.6154
5431000000.0 0.1106 0.8761
5434000000.0 0.7421 0.4587
5438000000.0 0.86 -0.265
5441000000.0 0.2713 -0.8298
5444000000.0 -0.4722 -0.7381
5447000000.0 -0.8803 -0.08774
5450000000.0 -0.5914 0.6032
5453000000.0 0.1345 0.889
5456000000.0 0.7269 0.4501
5459000000.0 0.7989 -0.3044
5462000000.0 0.2605 -0.8216
5466000000.0 -0.4712 -0.7315
5469000000.0 -0.8991 -0.1132
5472000000.0 -0.6513 0.5853
5475000000.0 0.05003 0.8856
5478000000.0 0.7341 0.5293
5481000000.0 0.8982 -0.2177
5484000000.0 0.3843 -0.8236
5488000000.0 -0.361 -0.829
5491000000.0 -0.9155 -0.2258
5494000000.0 -0.7798 0.5666
5497000000.0 -0.06875 0.9413
5500000000.0 0.6921 0.673
5503000000.0 0.9342 -0.1416
5506000000.0 0.546 -0.7846
5509000000.0 -0.2748 -0.9624
5512000000.0 -0.9093 -0.3698
5516000000.0 -0.8794 0.4596
5519000000.0 -0.267 0.9654
5522000000.0 0.5945 0.7838
5525000000.0 1.006 0.07029
5528000000.0 0.6874 -0.7349
5531000000.0 -0.09907 -1.007
5534000000.0 -0.8279 -0.5716
5538000000.0 -1.036 0.2594
5541000000.0 -0.4412 0.9419
5544000000.0 0.4325 0.9365
5547000000.0 1.034 0.2855
5550000000.0 0.8829 -0.5925
5553000000.0 0.08174 -1.045
5556000000.0 -0.7573 -0.7739
5559000000.0 -1.071 0.06354
5562000000.0 -0.5987 0.8796
5566000000.0 0.2757 1.033
5569000000.0 0.97 0.4329
5572000000.0 0.9733 -0.4558
5575000000.0 0.26 -1.01
5578000000.0 -0.6012 -0.8776
5581000000.0 -1.015 -0.08116
5584000000.0 -0.7236 0.7339
5588000000.0 0.1037 1.012
5591000000.0 0.8547 0.5379
5594000000.0 0.9711 -0.3058
5597000000.0 0.3977 -0.9238
5600000000.0 -0.4821 -0.8572
5603000000.0 -0.9591 -0.1945
5606000000.0 -0.742 0.6139
5609000000.0 -0.03387 0.9631
5612000000.0 0.7339 0.6089
5616000000.0 0.9217 -0.1862
5619000000.0 0.4246 -0.8206
5622000000.0 -0.3831 -0.8585
5625000000.0 -0.8602 -0.2461
5628000000.0 -0.7686 0.5272
5631000000.0 -0.06817 0.8981
5634000000.0 0.6607 0.6052
5638000000.0 0.8669 -0.109
5641000000.0 0.4639 -0.7492
5644000000.0 -0.3093 -0.8356
5647000000.0 -0.8349 -0.2548
5650000000.0 -0.7345 0.4743
5653000000.0 -0.1011 0.8312
5656000000.0 0.6258 0.5861
5659000000.0 0.8567 -0.1
5662000000.0 0.4478 -0.7524
5666000000.0 -0.2809 -0.8119
5669000000.0 -0.8396 -0.2727
5672000000.0 -0.7333 0.4885
5675000000.0 -0.08829 0.8798
5678000000.0 0.6281 0.6287
5681000000.0 0.9024 -0.1238
5684000000.0 0.482 -0.7779
5688000000.0 -0.3021 -0.8605
5691000000.0 -0.8785 -0.2493
5694000000.0 -0.7722 0.4873
5697000000.0 -0.07311 0.9401
5700000000.0 0.6794 0.6742
5703000000.0 0.9636 -0.1001
5706000000.0 0.5361 -0.8344
5709000000.0 -0.2915 -0.9558
5712000000.0 -0.9067 -0.348
5716000000.0 -0.8511 0.497
5719000000.0 -0.1441 0.9899
5722000000.0 0.689 0.7475
5725000000.0 1.013 -0.0659
5728000000.0 0.6078 -0.8166
5731000000.0 -0.2527 -1.004
5734000000.0 -0.9292 -0.4719
5738000000.0 -0.9621 0.419
5741000000.0 -0.2343 1.012
5744000000.0 0.6352 0.8617
5747000000.0 1.079 0.0821
5750000000.0 0.7638 -0.7873
5753000000.0 -0.1164 -1.095
5756000000.0 -0.9113 -0.5856
5759000000.0 -1.062 0.3252
5762000000.0 -0.4289 1.0
5766000000.0 0.5017 0.9811
5769000000.0 1.048 0.2342
5772000000.0 0.8631 -0.6595
5775000000.0 0.03837 -1.119
5778000000.0 -0.8104 -0.754
5781000000.0 -1.084 0.1617
5784000000.0 -0.6207 0.9192
5788000000.0 0.3225 1.045
5791000000.0 1.017 0.4358
5794000000.0 0.9686 -0.5022
5797000000.0 0.2239 -1.067
5800000000.0 -0.6896 -0.864
5803000000.0 -1.065 -0.03876
5806000000.0 -0.7485 0.8242
5809000000.0 0.1719 1.028
5812000000.0 0.9206 0.544
5816000000.0 0.9836 -0.3194
5819000000.0 0.3384 -1.018
5822000000.0 -0.5256 -0.8996
5825000000.0 -1.02 -0.1963
5828000000.0 -0.7732 0.6782
5831000000.0 0.03924 1.016
5834000000.0 0.7941 0.6019
5838000000.0 0.9777 -0.2279
5841000000.0 0.4522 -0.9117
5844000000.0 -0.3923 -0.9096
5847000000.0 -0.9272 -0.2465
5850000000.0 -0.8089 0.572
5853000000.0 -0.03616 0.9585
5856000000.0 0.7373 0.6358
5859000000.0 0.9642 -0.156
5862000000.0 0.4317 -0.8076
5866000000.0 -0.31 -0.8947
5869000000.0 -0.8707 -0.249
5872000000.0 -0.7626 0.4966
5875000000.0 -0.1138 0.9308
5878000000.0 0.6818 0.6368
5881000000.0 0.9398 -0.1013
5884000000.0 0.493 -0.7313
5888000000.0 -0.3229 -0.8419
5891000000.0 -0.8483 -0.2853
5894000000.0 -0.7404 0.4702
5897000000.0 -0.1165 0.8403
5900000000.0 0.5835 0.6007
5903000000.0 0.8555 -0.05233
5906000000.0 0.4936 -0.74
5909000000.0 -0.255 -0.8292
5912000000.0 -0.7913 -0.3282
5916000000.0 -0.7563 0.4215
5919000000.0 -0.1559 0.8351
5922000000.0 0.5647 0.6605
5925000000.0 0.8435 -0.01735
5928000000.0 0.5239 -0.6904
5931000000.0 -0.1932 -0.8101
5934000000.0 -0.7814 -0.3883
5938000000.0 -0.7808 0.3621
5941000000.0 -0.2167 0.855
5944000000.0 0.4773 0.733
5947000000.0 0.9006 0.04738
5950000000.0 0.5945 -0.6451
5953000000.0 -0.0948 -0.8787
5956000000.0 -0.7537 -0.5065
5959000000.0 -0.8407 0.2435
5962000000.0 -0.3908 0.8399
5966000000.0 0.3806 0.7935
5969000000.0 0.928 0.2237
5972000000.0 0.7222 -0.5409
5975000000.0 0.07727 -0.9561
5978000000.0 -0.659 -0.6314
5981000000.0 -0.9427 0.08054
5984000000.0 -0.5178 0.7827
5988000000.0 0.2854 0.9231
5991000000.0 0.8845 0.382
5994000000.0 0.8489 -0.4212
5997000000.0 0.2062 -0.9354
6000000000.0 -0.6273 -0.7994
6003000000.0 -0.9691 -0.05115
6006000000.0 -0.6336 0.7458
6009000000.0 0.1341 0.9495
6012000000.0 0.8539 0.4952
6016000000.0 0.9562 -0.3281
6019000000.0 0.3746 -0.9232
6022000000.0 -0.5343 -0.8515
6025000000.0 -0.9647 -0.1581
6028000000.0 -0.7402 0.6354
6031000000.0 -0.003529 1.011
6034000000.0 0.7664 0.6293
6038000000.0 0.9666 -0.2381
6041000000.0 0.4426 -0.8733
6044000000.0 -0.3725 -0.8924
6047000000.0 -0.9701 -0.257
6050000000.0 -0.821 0.5449
6053000000.0 -0.04873 0.9902
6056000000.0 0.7112 0.6507
6059000000.0 0.9817 -0.1601
6062000000.0 0.5135 -0.85
6066000000.0 -0.3397 -0.8857
6069000000.0 -0.9125 -0.2963
6072000000.0 -0.7783 0.4987
6075000000.0 -0.09901 0.9153
6078000000.0 0.6556 0.6579
6081000000.0 0.9274 -0.0682
6084000000.0 0.5038 -0.7527
6088000000.0 -0.251 -0.8685
6091000000.0 -0.8132 -0.3287
6094000000.0 -0.7872 0.4417
6097000000.0 -0.13 0.8787
6100000000.0 0.5758 0.6787
6103000000.0 0.9063 -0.0408
6106000000.0 0.5224 -0.7033
6109000000.0 -0.2488 -0.8464
6112000000.0 -0.8034 -0.3734
6116000000.0 -0.7496 0.3844
6119000000.0 -0.1634 0.8634
6122000000.0 0.5454 0.6534
6125000000.0 0.8428 -0.02901
6128000000.0 0.5207 -0.6732
6131000000.0 -0.195 -0.8673
6134000000.0 -0.7737 -0.3985
6138000000.0 -0.7762 0.3964
6141000000.0 -0.2047 0.8543
6144000000.0 0.5129 0.703
6147000000.0 0.87 0.02795
6150000000.0 0.5813 -0.6641
6153000000.0 -0.145 -0.8634
6156000000.0 -0.7977 -0.4749
6159000000.0 -0.8417 0.3123
6162000000.0 -0.2841 0.858
6166000000.0 0.4949 0.7316
6169000000.0 0.9014 0.09748
6172000000.0 0.6457 -0.5909
6175000000.0 -0.09295 -0.8833
6178000000.0 -0.7918 -0.4882
6181000000.0 -0.8925 0.2865
6184000000.0 -0.3678 0.8414
6188000000.0 0.4495 0.8062
6191000000.0 0.9197 0.1855
6194000000.0 0.7415 -0.5912
6197000000.0 0.00197 -0.9422
6200000000.0 -0.7148 -0.5719
6203000000.0 -0.902 0.2058
6206000000.0 -0.4549 0.829
6209000000.0 0.3314 0.8372
6212000000.0 0.8746 0.2826
6216000000.0 0.7487 -0.5338
6219000000.0 0.0875 -0.9098
6222000000.0 -0.6573 -0.6504
6225000000.0 -0.906 0.08602
6228000000.0 -0.5134 0.7496
6231000000.0 0.2357 0.8572
6234000000.0 0.8367 0.3762
6238000000.0 0.7648 -0.3836
6241000000.0 0.1683 -0.8317
6244000000.0 -0.5137 -0.7025
6247000000.0 -0.8777 -0.01982
6250000000.0 -0.5467 0.6124
6253000000.0 0.1132 0.8293
6256000000.0 0.6963 0.4467
6259000000.0 0.7817 -0.2414
6262000000.0 0.334 -0.769
