! Created with skrf 1.8.0 (http://scikit-rf.org).
# Hz S RI R 50.0 
!freq ReS11 ImS11
4000000000.0 -0.1791 -1.482
4003000000.0 -1.251 -0.801
4006000000.0 -1.466 0.5421
4009000000.0 -0.5478 1.442
4012000000.0 0.824 1.311
4016000000.0 1.515 0.2274
4019000000.0 1.139 -1.051
4022000000.0 -0.09446 -1.565
4025000000.0 -1.299 -0.8761
4028000000.0 -1.559 0.4914
4031000000.0 -0.5876 1.523
4034000000.0 0.8029 1.391
4038000000.0 1.638 0.2291
4041000000.0 1.207 -1.068
4044000000.0 -0.1304 -1.616
4047000000.0 -1.355 -0.9297
4050000000.0 -1.556 0.4927
4053000000.0 -0.6129 1.509
4056000000.0 0.8034 1.466
4059000000.0 1.57 0.2804
4062000000.0 1.272 -1.017
4066000000.0 0.02445 -1.613
4069000000.0 -1.248 -1.059
4072000000.0 -1.571 0.3131
4075000000.0 -0.8191 1.441
4078000000.0 0.5482 1.534
4081000000.0 1.538 0.5674
4084000000.0 1.399 -0.8783
4088000000.0 0.2303 -1.636
4091000000.0 -1.128 -1.189
4094000000.0 -1.651 0.1086
4097000000.0 -0.9755 1.277
4100000000.0 0.3762 1.605
4103000000.0 1.443 0.6961
4106000000.0 1.46 -0.6465
4109000000.0 0.4216 -1.488
4112000000.0 -0.8461 -1.265
4116000000.0 -1.507 -0.1742
4119000000.0 -1.085 1.019
4122000000.0 0.04415 1.472
4125000000.0 1.115 0.9225
4128000000.0 1.429 -0.2123
4131000000.0 0.7739 -1.264
4134000000.0 -0.4532 -1.393
4138000000.0 -1.38 -0.5737
4141000000.0 -1.332 0.6791
4144000000.0 -0.4001 1.452
4147000000.0 0.8648 1.239
4150000000.0 1.531 0.137
4153000000.0 1.074 -1.055
4156000000.0 -0.1243 -1.529
4159000000.0 -1.239 -0.8582
4162000000.0 -1.493 0.3803
4166000000.0 -0.6455 1.354
4169000000.0 0.6689 1.365
4172000000.0 1.486 0.3912
4175000000.0 1.266 -0.8403
4178000000.0 0.1492 -1.489
4181000000.0 -1.05 -1.071
4184000000.0 -1.503 0.1147
4188000000.0 -0.9043 1.22
4191000000.0 0.38 1.497
4194000000.0 1.417 0.6588
4197000000.0 1.412 -0.6895
4200000000.0 0.3784 -1.531
4203000000.0 -0.9694 -1.262
4206000000.0 -1.639 -0.04883
4209000000.0 -1.043 1.273
4212000000.0 0.3769 1.639
4216000000.0 1.506 0.7128
4219000000.0 1.486 -0.768
4222000000.0 0.3539 -1.637
4225000000.0 -1.168 -1.278
4228000000.0 -1.7 0.1643
4231000000.0 -0.9019 1.42
4234000000.0 0.5431 1.557
4238000000.0 1.6 0.4536
4241000000.0 1.339 -0.946
4244000000.0 0.09024 -1.59
4247000000.0 -1.244 -1.009
4250000000.0 -1.522 0.3253
4253000000.0 -0.6563 1.404
4256000000.0 0.7124 1.38
4259000000.0 1.519 0.2986
4262000000.0 1.139 -1.025
4266000000.0 -0.09227 -1.494
4269000000.0 -1.256 -0.8707
4272000000.0 -1.406 0.4413
4275000000.0 -0.4854 1.389
4278000000.0 0.7774 1.231
4281000000.0 1.429 0.1642
4284000000.0 1.012 -1.03
4288000000.0 -0.1508 -1.363
4291000000.0 -1.194 -0.7002
4294000000.0 -1.295 0.4231
4297000000.0 -0.4787 1.273
4300000000.0 0.6504 1.16
4303000000.0 1.276 0.2017
4306000000.0 0.9735 -0.8551
4309000000.0 0.02682 -1.281
4312000000.0 -0.9812 -0.8351
4316000000.0 -1.266 0.1872
4319000000.0 -0.6481 1.089
4322000000.0 0.4354 1.222
4325000000.0 1.271 0.4689
4328000000.0 1.172 -0.6564
4331000000.0 0.2607 -1.331
4334000000.0 -0.8479 -1.069
4338000000.0 -1.403 -0.02302
4341000000.0 -0.8901 1.075
4344000000.0 0.1982 1.4
4347000000.0 1.226 0.7059
4350000000.0 1.346 -0.4911
4353000000.0 0.4447 -1.402
4356000000.0 -0.7628 -1.265
4359000000.0 -1.431 -0.2186
4362000000.0 -1.086 0.9575
4366000000.0 0.04628 1.476
4369000000.0 1.163 0.8933
4372000000.0 1.451 -0.3011
4375000000.0 0.7263 -1.332
4378000000.0 -0.5485 -1.443
4381000000.0 -1.435 -0.4435
4384000000.0 -1.252 0.867
4388000000.0 -0.1531 1.586
4391000000.0 1.149 1.095
4394000000.0 1.572 -0.1562
4397000000.0 0.8283 -1.318
4400000000.0 -0.5474 -1.488
4403000000.0 -1.509 -0.5059
4406000000.0 -1.369 0.8486
4409000000.0 -0.1371 1.574
4412000000.0 1.175 1.096
4416000000.0 1.527 -0.2026
4419000000.0 0.7604 -1.334
4422000000.0 -0.5969 -1.414
4425000000.0 -1.444 -0.3934
4428000000.0 -1.19 0.8762
4431000000.0 -0.05264 1.461
4434000000.0 1.129 0.9281
4438000000.0 1.384 -0.3104
4441000000.0 0.6267 -1.273
4444000000.0 -0.5831 -1.192
4447000000.0 -1.331 -0.2817
4450000000.0 -1.027 0.908
4453000000.0 0.06855 1.362
4456000000.0 1.065 0.7369
4459000000.0 1.22 -0.3643
4462000000.0 0.4285 -1.193
4466000000.0 -0.6697 -1.059
4469000000.0 -1.245 -0.08912
4472000000.0 -0.8346 0.8924
4475000000.0 0.1995 1.223
4478000000.0 1.02 0.5674
4481000000.0 1.044 -0.4705
4484000000.0 0.3317 -1.084
4488000000.0 -0.6772 -0.9136
4491000000.0 -1.141 -0.05939
4494000000.0 -0.7418 0.8509
4497000000.0 0.2017 1.127
4500000000.0 0.9964 0.5322
4503000000.0 1.004 -0.4542
4506000000.0 0.281 -1.052
4509000000.0 -0.6504 -0.9152
4512000000.0 -1.118 -0.08404
4516000000.0 -0.7753 0.8119
4519000000.0 0.1288 1.124
4522000000.0 0.9558 0.5875
4525000000.0 1.067 -0.3607
4528000000.0 0.3981 -1.088
4531000000.0 -0.6075 -0.9858
4534000000.0 -1.177 -0.1616
4538000000.0 -0.8821 0.8108
4541000000.0 0.06985 1.177
4544000000.0 0.9647 0.7337
4547000000.0 1.156 -0.2951
4550000000.0 0.5518 -1.096
4553000000.0 -0.5066 -1.093
4556000000.0 -1.161 -0.3358
4559000000.0 -1.056 0.6677
4562000000.0 -0.1518 1.267
4566000000.0 0.8345 0.9081
4569000000.0 1.26 -0.07897
4572000000.0 0.7716 -1.04
4575000000.0 -0.3268 -1.239
4578000000.0 -1.182 -0.5784
4581000000.0 -1.193 0.5429
4584000000.0 -0.3703 1.286
4588000000.0 0.7784 1.102
4591000000.0 1.345 0.09938
4594000000.0 0.9673 -0.9777
4597000000.0 -0.1359 -1.38
4600000000.0 -1.154 -0.7699
4603000000.0 -1.311 0.4073
4606000000.0 -0.5322 1.271
4609000000.0 0.6862 1.241
4612000000.0 1.358 0.2796
4616000000.0 1.094 -0.9273
4619000000.0 0.01292 -1.405
4622000000.0 -1.097 -0.8594
4625000000.0 -1.369 0.2929
4628000000.0 -0.6296 1.253
4631000000.0 0.5484 1.275
4634000000.0 1.292 0.3766
4638000000.0 1.144 -0.8343
4641000000.0 0.07401 -1.37
4644000000.0 -1.067 -0.9203
4647000000.0 -1.341 0.2543
4650000000.0 -0.6361 1.193
4653000000.0 0.5217 1.225
4656000000.0 1.283 0.3322
4659000000.0 1.014 -0.7781
4662000000.0 0.05866 -1.266
4666000000.0 -0.9434 -0.8081
4669000000.0 -1.176 0.2271
4672000000.0 -0.5658 1.088
4675000000.0 0.5192 1.088
4678000000.0 1.139 0.3034
4681000000.0 0.9314 -0.7201
4684000000.0 0.01159 -1.139
4688000000.0 -0.8512 -0.6914
4691000000.0 -1.069 0.2422
4694000000.0 -0.4984 0.9721
4697000000.0 0.4521 0.9789
4700000000.0 1.08 0.2271
4703000000.0 0.8645 -0.688
4706000000.0 0.02269 -1.098
4709000000.0 -0.8321 -0.6748
4712000000.0 -1.07 0.2303
4716000000.0 -0.4678 0.972
4719000000.0 0.4825 0.9628
4722000000.0 1.064 0.2325
4725000000.0 0.8311 -0.6489
4728000000.0 0.01026 -1.028
4731000000.0 -0.7944 -0.7027
4734000000.0 -1.052 0.2089
4738000000.0 -0.5203 0.9296
4741000000.0 0.399 0.9645
4744000000.0 1.019 0.321
4747000000.0 0.8904 -0.5774
4750000000.0 0.1383 -1.07
4753000000.0 -0.743 -0.7823
4756000000.0 -1.083 0.06472
4759000000.0 -0.6454 0.9113
4762000000.0 0.2701 1.078
4766000000.0 1.033 0.5189
4769000000.0 1.052 -0.4626
4772000000.0 0.3134 -1.113
4775000000.0 -0.6881 -0.9581
4778000000.0 -1.192 -0.1226
4781000000.0 -0.8512 0.8282
4784000000.0 0.09062 1.215
4788000000.0 0.986 0.7234
4791000000.0 1.163 -0.2911
4794000000.0 0.5606 -1.102
4797000000.0 -0.5036 -1.164
4800000000.0 -1.206 -0.3582
4803000000.0 -1.041 0.6901
4806000000.0 -0.1469 1.229
4809000000.0 0.8642 0.9163
4812000000.0 1.292 -0.0556
4816000000.0 0.8086 -1.027
4819000000.0 -0.3054 -1.307
4822000000.0 -1.199 -0.5906
4825000000.0 -1.242 0.5747
4828000000.0 -0.3694 1.311
4831000000.0 0.7879 1.119
4834000000.0 1.385 0.09153
4838000000.0 0.9537 -1.013
4841000000.0 -0.1778 -1.386
4844000000.0 -1.197 -0.7705
4847000000.0 -1.343 0.4205
4850000000.0 -0.4814 1.306
4853000000.0 0.6908 1.198
4856000000.0 1.379 0.2288
4859000000.0 1.041 -0.8871
4862000000.0 -0.04192 -1.349
4866000000.0 -1.062 -0.8181
4869000000.0 -1.307 0.3472
4872000000.0 -0.5507 1.209
4875000000.0 0.5875 1.165
4878000000.0 1.273 0.2764
4881000000.0 1.024 -0.7744
4884000000.0 0.04924 -1.249
4888000000.0 -0.9789 -0.7685
4891000000.0 -1.191 0.2376
4894000000.0 -0.5676 1.054
4897000000.0 0.4625 1.077
4900000000.0 1.088 0.3032
4903000000.0 0.9254 -0.6683
4906000000.0 0.06498 -1.065
4909000000.0 -0.7979 -0.7071
4912000000.0 -1.025 0.1617
4916000000.0 -0.5087 0.8853
4919000000.0 0.3502 0.9442
4922000000.0 0.9328 0.3193
4925000000.0 0.8434 -0.5204
4928000000.0 0.1023 -0.9825
4931000000.0 -0.661 -0.687
4934000000.0 -0.9781 0.05583
4938000000.0 -0.5727 0.7636
4941000000.0 0.258 0.9146
4944000000.0 0.8802 0.3805
4947000000.0 0.8547 -0.4233
4950000000.0 0.238 -0.9416
4953000000.0 -0.5772 -0.7517
4956000000.0 -0.9619 -0.03027
4959000000.0 -0.6102 0.7383
4962000000.0 0.162 0.9839
4966000000.0 0.8741 0.4813
4969000000.0 0.9401 -0.3618
4972000000.0 0.3076 -0.9604
4975000000.0 -0.5812 -0.8582
4978000000.0 -1.007 -0.1216
4981000000.0 -0.7274 0.7335
4984000000.0 0.08412 1.034
4988000000.0 0.8715 0.6333
4991000000.0 1.029 -0.3022
4994000000.0 0.4754 -0.9978
4997000000.0 -0.5051 -1.004
5000000000.0 -1.098 -0.2799
5003000000.0 -0.9028 0.6896
5006000000.0 -0.07637 1.173
5009000000.0 0.8806 0.8264
5012000000.0 1.208 -0.1677
5016000000.0 0.6648 -1.055
5019000000.0 -0.3778 -1.175
5022000000.0 -1.201 -0.4497
5025000000.0 -1.1 0.6408
5028000000.0 -0.218 1.233
5031000000.0 0.8448 0.9504
5034000000.0 1.282 -0.01062
5038000000.0 0.8195 -1.0
5041000000.0 -0.2729 -1.265
5044000000.0 -1.15 -0.5901
5047000000.0 -1.203 0.4944
5050000000.0 -0.3955 1.23
5053000000.0 0.6771 1.09
5056000000.0 1.276 0.1899
5059000000.0 0.9358 -0.9108
5062000000.0 -0.09549 -1.304
5066000000.0 -1.082 -0.7708
5069000000.0 -1.258 0.3151
5072000000.0 -0.5793 1.14
5075000000.0 0.5108 1.173
5078000000.0 1.222 0.3828
5081000000.0 1.05 -0.7337
5084000000.0 0.1169 -1.282
5088000000.0 -0.8726 -0.8772
5091000000.0 -1.175 0.1495
5094000000.0 -0.6894 0.9976
5097000000.0 0.3046 1.151
5100000000.0 1.034 0.5223
5103000000.0 1.026 -0.4902
5106000000.0 0.2875 -1.027
5109000000.0 -0.6244 -0.8962
5112000000.0 -1.104 -0.1062
5116000000.0 -0.7817 0.7359
5119000000.0 0.1011 1.072
5122000000.0 0.8568 0.5894
5125000000.0 1.013 -0.2663
5128000000.0 0.406 -0.9442
5131000000.0 -0.4403 -0.9126
5134000000.0 -0.9698 -0.259
5138000000.0 -0.7889 0.6083
5141000000.0 -0.03199 0.9508
5144000000.0 0.741 0.6416
5147000000.0 0.9243 -0.1534
5150000000.0 0.4513 -0.7994
5153000000.0 -0.3477 -0.8873
5156000000.0 -0.91 -0.3
5159000000.0 -0.7731 0.4638
5162000000.0 -0.1056 0.903
5166000000.0 0.6158 0.6241
5169000000.0 0.9048 -0.06308
5172000000.0 0.5367 -0.7347
5175000000.0 -0.2449 -0.8744
5178000000.0 -0.8526 -0.3506
5181000000.0 -0.8167 0.4656
5184000000.0 -0.1524 0.9155
5188000000.0 0.6209 0.6959
5191000000.0 0.9437 -0.02374
5194000000.0 0.5401 -0.7465
5197000000.0 -0.2937 -0.8765
5200000000.0 -0.8867 -0.3439
5203000000.0 -0.857 0.459
5206000000.0 -0.1519 0.9391
5209000000.0 0.6005 0.7302
5212000000.0 0.9764 -0.0403
5216000000.0 0.5672 -0.7952
5219000000.0 -0.2548 -0.9612
5222000000.0 -0.8714 -0.4363
5225000000.0 -0.885 0.4382
5228000000.0 -0.2432 1.001
5231000000.0 0.6035 0.7906
5234000000.0 1.045 0.0406
5238000000.0 0.661 -0.7779
5241000000.0 -0.1386 -1.029
5244000000.0 -0.893 -0.5406
5247000000.0 -0.9964 0.3756
5250000000.0 -0.3741 1.008
5253000000.0 0.5265 0.9382
5256000000.0 1.078 0.1922
5259000000.0 0.8064 -0.7149
5262000000.0 -0.0143 -1.08
5266000000.0 -0.8316 -0.726
5269000000.0 -1.063 0.1979
5272000000.0 -0.5473 0.9626
5275000000.0 0.3932 1.009
5278000000.0 1.038 0.3655
5281000000.0 0.9548 -0.5402
5284000000.0 0.2045 -1.129
5288000000.0 -0.7071 -0.8841
5291000000.0 -1.111 -0.05271
5294000000.0 -0.7432 0.8666
5297000000.0 0.1397 1.11
5300000000.0 0.9845 0.6182
5303000000.0 1.088 -0.3413
5306000000.0 0.4594 -1.015
5309000000.0 -0.5103 -1.028
5312000000.0 -1.139 -0.2387
5316000000.0 -0.9189 0.6942
5319000000.0 -0.08397 1.132
5322000000.0 0.8602 0.7948
5325000000.0 1.15 -0.1338
5328000000.0 0.6279 -0.9844
5331000000.0 -0.3347 -1.094
5334000000.0 -1.049 -0.4384
5338000000.0 -1.026 0.5072
5341000000.0 -0.2534 1.119
5344000000.0 0.7417 0.8623
5347000000.0 1.119 0.03636
5350000000.0 0.6982 -0.8143
5353000000.0 -0.183 -1.096
5356000000.0 -0.974 -0.5099
5359000000.0 -1.016 0.4236
5362000000.0 -0.3072 1.041
5366000000.0 0.608 0.883
5369000000.0 1.053 0.07913
5372000000.0 0.7389 -0.7793
5375000000.0 -0.1529 -1.011
5378000000.0 -0.8819 -0.53
5381000000.0 -0.9824 0.3529
5384000000.0 -0.293 0.9551
5388000000.0 0.5379 0.8345
5391000000.0 0.9714 0.05785
5394000000.0 0.677 -0.7233
5397000000.0 -0.1528 -0.9191
5400000000.0 -0.8178 -0.4476
5403000000.0 -0.8551 0.354
5406000000.0 -0.2396 0.8814
5409000000.0 0.5315 0.7217
5412000000.0 0.8858 0.04013
5416000000.0 0.6032 -0.6708
5419000000.0 -0.1631 -0.8445
5422000000.0 -0.745 -0.3885
5425000000.0 -0.851 0.3676
5428000000.0 -0.2358 0.846
5431000000.0 0.5317 0.6872
5434000000.0 0.8806 0.04093
5438000000.0 0.6015 -0.6665
5441000000.0 -0.177 -0.8824
5444000000.0 -0.7764 -0.433
5447000000.0 -0.8284 0.3493
5450000000.0 -0.2272 0.8544
5453000000.0 0.4871 0.7289
5456000000.0 0.8787 0.07677
5459000000.0 0.6322 -0.6363
5462000000.0 -0.1034 -0.8943
5466000000.0 -0.7333 -0.5031
5469000000.0 -0.899 0.2592
5472000000.0 -0.368 0.8858
5475000000.0 0.4524 0.8155
5478000000.0 0.919 0.1787
5481000000.0 0.7431 -0.6081
5484000000.0 0.02823 -0.9399
5488000000.0 -0.7073 -0.6627
5491000000.0 -0.959 0.159
5494000000.0 -0.5537 0.8428
5497000000.0 0.3241 0.9651
5500000000.0 0.9701 0.3459
5503000000.0 0.9164 -0.488
5506000000.0 0.2074 -0.9868
5509000000.0 -0.642 -0.8008
5512000000.0 -1.035 0.006546
5516000000.0 -0.6918 0.7892
5519000000.0 0.168 1.043
5522000000.0 0.8783 0.579
5525000000.0 1.01 -0.3355
5528000000.0 0.4021 -0.9621
5531000000.0 -0.4898 -0.9405
5534000000.0 -1.05 -0.2517
5538000000.0 -0.8555 0.6591
5541000000.0 -0.02997 1.087
5544000000.0 0.8069 0.7108
5547000000.0 1.052 -0.1598
5550000000.0 0.5613 -0.9111
5553000000.0 -0.3566 -1.008
5556000000.0 -0.9832 -0.3861
5559000000.0 -0.9302 0.5084
5562000000.0 -0.2301 1.03
5566000000.0 0.6709 0.8279
5569000000.0 1.057 0.03955
5572000000.0 0.6448 -0.7858
5575000000.0 -0.1693 -1.032
5578000000.0 -0.8735 -0.5167
5581000000.0 -0.9074 0.3446
5584000000.0 -0.2928 0.9345
5588000000.0 0.5109 0.8265
5591000000.0 0.9335 0.1301
5594000000.0 0.6815 -0.6151
5597000000.0 -0.06509 -0.927
5600000000.0 -0.7424 -0.5594
5603000000.0 -0.8927 0.2328
5606000000.0 -0.3724 0.8473
5609000000.0 0.4125 0.8241
5612000000.0 0.8616 0.1664
5616000000.0 0.6699 -0.5473
5619000000.0 0.0122 -0.8669
5622000000.0 -0.6544 -0.5652
5625000000.0 -0.8538 0.1672
5628000000.0 -0.3789 0.7296
5631000000.0 0.3356 0.803
5634000000.0 0.8238 0.2116
5638000000.0 0.6954 -0.4978
5641000000.0 0.03426 -0.8348
5644000000.0 -0.6221 -0.5569
5647000000.0 -0.8052 0.1459
5650000000.0 -0.4026 0.7536
5653000000.0 0.3431 0.7803
5656000000.0 0.7969 0.2186
5659000000.0 0.7073 -0.4933
5662000000.0 0.06786 -0.8734
5666000000.0 -0.6599 -0.584
5669000000.0 -0.8679 0.1513
5672000000.0 -0.4525 0.7919
5675000000.0 0.343 0.8453
5678000000.0 0.8596 0.2176
5681000000.0 0.7753 -0.5444
5684000000.0 0.08964 -0.928
5688000000.0 -0.7073 -0.6322
5691000000.0 -0.9904 0.1369
5694000000.0 -0.5009 0.8297
5697000000.0 0.3527 0.891
5700000000.0 0.939 0.31
5703000000.0 0.8667 -0.5765
5706000000.0 0.1453 -1.002
5709000000.0 -0.7228 -0.7491
5712000000.0 -1.066 0.07489
5716000000.0 -0.5916 0.855
5719000000.0 0.2805 1.015
5722000000.0 0.9531 0.4498
5725000000.0 0.9802 -0.4934
5728000000.0 0.2325 -1.051
5731000000.0 -0.6731 -0.8786
5734000000.0 -1.064 -0.06383
5738000000.0 -0.7465 0.7966
5741000000.0 0.1371 1.052
5744000000.0 0.9517 0.5882
5747000000.0 1.057 -0.3295
5750000000.0 0.4356 -1.022
5753000000.0 -0.5177 -0.9602
5756000000.0 -1.067 -0.214
5759000000.0 -0.8661 0.6892
5762000000.0 -0.02998 1.128
5766000000.0 0.8339 0.741
5769000000.0 1.089 -0.1675
5772000000.0 0.5253 -0.9604
5775000000.0 -0.3529 -1.038
5778000000.0 -1.056 -0.3766
5781000000.0 -0.9789 0.5412
5784000000.0 -0.1838 1.059
5788000000.0 0.7092 0.841
5791000000.0 1.092 0.01973
5794000000.0 0.7384 -0.8382
5797000000.0 -0.2036 -1.054
5800000000.0 -0.9262 -0.5192
5803000000.0 -0.9915 0.399
5806000000.0 -0.3209 0.9861
5809000000.0 0.6023 0.8932
5812000000.0 1.009 0.164
5816000000.0 0.7784 -0.7252
5819000000.0 -0.06573 -1.023
5822000000.0 -0.8347 -0.5622
5825000000.0 -0.99 0.2598
5828000000.0 -0.403 0.8994
5831000000.0 0.4569 0.9082
5834000000.0 0.9927 0.2173
5838000000.0 0.7738 -0.6208
5841000000.0 -0.017 -0.9694
5844000000.0 -0.7381 -0.6143
5847000000.0 -0.918 0.1908
5850000000.0 -0.4515 0.8334
5853000000.0 0.3993 0.8562
5856000000.0 0.8975 0.2403
5859000000.0 0.7517 -0.5488
5862000000.0 0.04185 -0.9078
5866000000.0 -0.6909 -0.5903
5869000000.0 -0.8767 0.1609
5872000000.0 -0.4225 0.8008
5875000000.0 0.3239 0.8214
5878000000.0 0.8501 0.2348
5881000000.0 0.7207 -0.4989
5884000000.0 0.03908 -0.8912
5888000000.0 -0.6173 -0.598
5891000000.0 -0.8581 0.1065
5894000000.0 -0.4349 0.7035
5897000000.0 0.293 0.8162
5900000000.0 0.8154 0.2839
5903000000.0 0.737 -0.4732
5906000000.0 0.1289 -0.8303
5909000000.0 -0.5809 -0.6364
5912000000.0 -0.8586 0.06454
5916000000.0 -0.4972 0.6747
5919000000.0 0.2462 0.8278
5922000000.0 0.8055 0.3717
5925000000.0 0.8075 -0.3693
5928000000.0 0.2193 -0.8216
5931000000.0 -0.5459 -0.7259
5934000000.0 -0.9063 -0.006842
5938000000.0 -0.6068 0.6415
5941000000.0 0.1169 0.853
5944000000.0 0.7644 0.503
5947000000.0 0.8974 -0.2609
5950000000.0 0.3389 -0.8485
5953000000.0 -0.4354 -0.7883
5956000000.0 -0.9152 -0.1651
5959000000.0 -0.696 0.5799
5962000000.0 0.02508 0.9598
5966000000.0 0.7244 0.6161
5969000000.0 0.9145 -0.1381
5972000000.0 0.4874 -0.8313
5975000000.0 -0.3291 -0.9385
5978000000.0 -0.8994 -0.3532
5981000000.0 -0.8336 0.4784
5984000000.0 -0.1547 0.9906
5988000000.0 0.6572 0.792
5991000000.0 1.017 -0.02802
5994000000.0 0.6271 -0.7773
5997000000.0 -0.1984 -1.013
6000000000.0 -0.9261 -0.5083
6003000000.0 -0.9049 0.4118
6006000000.0 -0.311 0.9399
6009000000.0 0.5474 0.8322
6012000000.0 1.003 0.1184
6016000000.0 0.7267 -0.7148
6019000000.0 -0.09932 -1.009
6022000000.0 -0.8247 -0.5745
6025000000.0 -0.9645 0.2708
6028000000.0 -0.4241 0.9032
6031000000.0 0.4428 0.8749
6034000000.0 0.9709 0.2099
6038000000.0 0.7693 -0.6082
6041000000.0 -0.01297 -0.9624
6044000000.0 -0.7687 -0.6059
6047000000.0 -0.9543 0.2004
6050000000.0 -0.4549 0.8661
6053000000.0 0.3509 0.8729
6056000000.0 0.9121 0.2428
6059000000.0 0.7664 -0.5553
6062000000.0 0.03676 -0.8845
6066000000.0 -0.6619 -0.5985
6069000000.0 -0.9169 0.1222
6072000000.0 -0.4466 0.7763
6075000000.0 0.3081 0.8202
6078000000.0 0.8224 0.2609
6081000000.0 0.7371 -0.4909
6084000000.0 0.09623 -0.8644
6088000000.0 -0.591 -0.612
6091000000.0 -0.8669 0.0851
6094000000.0 -0.4446 0.7299
6097000000.0 0.2646 0.7936
6100000000.0 0.7677 0.3061
6103000000.0 0.7643 -0.452
6106000000.0 0.1603 -0.854
6109000000.0 -0.5626 -0.6169
6112000000.0 -0.8677 0.04757
6116000000.0 -0.5087 0.6877
6119000000.0 0.2329 0.8495
6122000000.0 0.8253 0.3196
6125000000.0 0.7743 -0.4069
6128000000.0 0.1722 -0.889
6131000000.0 -0.5752 -0.6573
6134000000.0 -0.9053 0.03545
6138000000.0 -0.5476 0.7186
6141000000.0 0.2059 0.8715
6144000000.0 0.7893 0.393
6147000000.0 0.8002 -0.3641
6150000000.0 0.2362 -0.8852
6153000000.0 -0.5091 -0.7299
6156000000.0 -0.9027 -0.02784
6159000000.0 -0.6152 0.6858
6162000000.0 0.1252 0.9186
6166000000.0 0.7641 0.4731
6169000000.0 0.8888 -0.3085
6172000000.0 0.3161 -0.8689
6175000000.0 -0.5056 -0.8022
6178000000.0 -0.9211 -0.1353
6181000000.0 -0.6809 0.6226
6184000000.0 0.06008 0.9606
6188000000.0 0.7784 0.5829
6191000000.0 0.9272 -0.261
6194000000.0 0.4145 -0.8531
6197000000.0 -0.4358 -0.8231
6200000000.0 -0.9506 -0.2403
6203000000.0 -0.738 0.5518
6206000000.0 -0.03797 0.9543
6209000000.0 0.669 0.583
6212000000.0 0.9356 -0.1362
6216000000.0 0.4929 -0.7951
6219000000.0 -0.3064 -0.8989
6222000000.0 -0.8386 -0.3453
6225000000.0 -0.7524 0.4675
6228000000.0 -0.1666 0.9059
6231000000.0 0.5786 0.6866
6234000000.0 0.9214 -0.03256
6238000000.0 0.5586 -0.7066
6241000000.0 -0.1687 -0.8865
6244000000.0 -0.7565 -0.4112
6247000000.0 -0.8067 0.2919
6250000000.0 -0.2466 0.8017
6253000000.0 0.4574 0.7188
6256000000.0 0.8393 0.1192
6259000000.0 0.6184 -0.559
6262000000.0 -0.02392 -0.8405
6266000000.0 -0.6475 -0.5172
