! Created with skrf 1.8.0 (http://scikit-rf.org).
# Hz S RI R 50.0 
!freq ReS11 ImS11
4000000000.0 -0.1576 -1.48
4003000000.0 -1.266 -0.816
4006000000.0 -1.462 0.4647
4009000000.0 -0.5167 1.436
4012000000.0 0.7531 1.283
4016000000.0 1.458 0.2626
4019000000.0 1.109 -1.049
4022000000.0 -0.135 -1.547
4025000000.0 -1.28 -0.8701
4028000000.0 -1.539 0.4126
4031000000.0 -0.5759 1.492
4034000000.0 0.8157 1.393
4038000000.0 1.585 0.211
4041000000.0 1.216 -1.117
4044000000.0 -0.1052 -1.588
4047000000.0 -1.336 -0.9422
4050000000.0 -1.527 0.4372
4053000000.0 -0.6565 1.455
4056000000.0 0.7485 1.411
4059000000.0 1.563 0.3178
4062000000.0 1.247 -1.017
4066000000.0 0.03293 -1.606
4069000000.0 -1.205 -1.028
4072000000.0 -1.609 0.2512
4075000000.0 -0.8152 1.412
4078000000.0 0.5449 1.561
4081000000.0 1.561 0.5485
4084000000.0 1.375 -0.8389
4088000000.0 0.2139 -1.638
4091000000.0 -1.108 -1.204
4094000000.0 -1.661 0.06841
4097000000.0 -0.9992 1.303
4100000000.0 0.3901 1.557
4103000000.0 1.458 0.7053
4106000000.0 1.443 -0.6132
4109000000.0 0.42 -1.448
4112000000.0 -0.8123 -1.297
4116000000.0 -1.507 -0.2018
4119000000.0 -1.089 1.003
4122000000.0 0.04127 1.497
4125000000.0 1.123 0.966
4128000000.0 1.441 -0.2452
4131000000.0 0.7569 -1.249
4134000000.0 -0.4258 -1.431
4138000000.0 -1.371 -0.5866
4141000000.0 -1.344 0.6582
4144000000.0 -0.3889 1.427
4147000000.0 0.8971 1.242
4150000000.0 1.479 0.1284
4153000000.0 1.025 -1.045
4156000000.0 -0.1176 -1.515
4159000000.0 -1.242 -0.8681
4162000000.0 -1.446 0.3734
4166000000.0 -0.6514 1.35
4169000000.0 0.6056 1.353
4172000000.0 1.424 0.4011
4175000000.0 1.227 -0.8662
4178000000.0 0.1423 -1.504
4181000000.0 -1.039 -1.05
4184000000.0 -1.49 0.1197
4188000000.0 -0.8884 1.214
4191000000.0 0.3533 1.484
4194000000.0 1.4 0.6701
4197000000.0 1.413 -0.6512
4200000000.0 0.3734 -1.519
4203000000.0 -0.9748 -1.27
4206000000.0 -1.627 -0.04388
4209000000.0 -1.021 1.265
4212000000.0 0.3278 1.618
4216000000.0 1.474 0.7249
4219000000.0 1.504 -0.7586
4222000000.0 0.3502 -1.638
4225000000.0 -1.094 -1.236
4228000000.0 -1.671 0.1508
4231000000.0 -0.8992 1.413
4234000000.0 0.5871 1.568
4238000000.0 1.53 0.5131
4241000000.0 1.344 -0.9301
4244000000.0 0.02754 -1.624
4247000000.0 -1.23 -1.005
4250000000.0 -1.562 0.3231
4253000000.0 -0.6803 1.393
4256000000.0 0.7023 1.386
4259000000.0 1.494 0.2748
4262000000.0 1.114 -0.9846
4266000000.0 -0.1107 -1.506
4269000000.0 -1.242 -0.8549
4272000000.0 -1.372 0.4445
4275000000.0 -0.4852 1.36
4278000000.0 0.7478 1.222
4281000000.0 1.419 0.1525
4284000000.0 1.016 -1.007
4288000000.0 -0.127 -1.383
4291000000.0 -1.164 -0.689
4294000000.0 -1.273 0.4435
4297000000.0 -0.468 1.239
4300000000.0 0.6675 1.148
4303000000.0 1.313 0.2465
4306000000.0 0.9809 -0.8433
4309000000.0 0.007117 -1.344
4312000000.0 -0.9852 -0.8395
4316000000.0 -1.303 0.2028
4319000000.0 -0.6911 1.07
4322000000.0 0.4073 1.221
4325000000.0 1.209 0.4769
4328000000.0 1.178 -0.6537
4331000000.0 0.2775 -1.293
4334000000.0 -0.8527 -1.096
4338000000.0 -1.376 -0.04106
4341000000.0 -0.9146 1.043
4344000000.0 0.2371 1.38
4347000000.0 1.226 0.7431
4350000000.0 1.315 -0.4638
4353000000.0 0.463 -1.362
4356000000.0 -0.7409 -1.26
4359000000.0 -1.406 -0.2424
4362000000.0 -1.092 0.9533
4366000000.0 0.04658 1.438
4369000000.0 1.198 0.8912
4372000000.0 1.431 -0.308
4375000000.0 0.7029 -1.312
4378000000.0 -0.5874 -1.384
4381000000.0 -1.466 -0.4625
4384000000.0 -1.292 0.8273
4388000000.0 -0.1534 1.534
4391000000.0 1.117 1.071
4394000000.0 1.547 -0.1681
4397000000.0 0.8209 -1.323
4400000000.0 -0.5185 -1.5
4403000000.0 -1.503 -0.5107
4406000000.0 -1.305 0.8493
4409000000.0 -0.1888 1.57
4412000000.0 1.157 1.094
4416000000.0 1.539 -0.2121
4419000000.0 0.7574 -1.312
4422000000.0 -0.6023 -1.399
4425000000.0 -1.403 -0.4021
4428000000.0 -1.186 0.8629
4431000000.0 -0.05972 1.487
4434000000.0 1.082 0.9423
4438000000.0 1.39 -0.2777
4441000000.0 0.6245 -1.231
4444000000.0 -0.6035 -1.274
4447000000.0 -1.302 -0.2819
4450000000.0 -1.021 0.888
4453000000.0 0.07532 1.301
4456000000.0 1.081 0.7384
4459000000.0 1.23 -0.3871
4462000000.0 0.478 -1.191
4466000000.0 -0.6576 -1.045
4469000000.0 -1.227 -0.1071
4472000000.0 -0.8053 0.8296
4475000000.0 0.1719 1.21
4478000000.0 1.044 0.6214
4481000000.0 1.068 -0.4218
4484000000.0 0.3337 -1.112
4488000000.0 -0.6577 -0.9317
4491000000.0 -1.132 -0.03306
4494000000.0 -0.7624 0.8641
4497000000.0 0.2056 1.12
4500000000.0 0.9901 0.5423
4503000000.0 1.007 -0.4148
4506000000.0 0.3151 -1.063
4509000000.0 -0.6321 -0.9021
4512000000.0 -1.1 -0.106
4516000000.0 -0.7724 0.792
4519000000.0 0.1589 1.109
4522000000.0 0.9558 0.6085
4525000000.0 1.071 -0.3625
4528000000.0 0.3957 -1.056
4531000000.0 -0.5892 -1.013
4534000000.0 -1.148 -0.1844
4538000000.0 -0.8626 0.7752
4541000000.0 0.06338 1.17
4544000000.0 0.9325 0.7591
4547000000.0 1.168 -0.2395
4550000000.0 0.5615 -1.078
4553000000.0 -0.4785 -1.098
4556000000.0 -1.153 -0.3471
4559000000.0 -1.027 0.6865
4562000000.0 -0.1456 1.213
4566000000.0 0.8319 0.9268
4569000000.0 1.26 -0.06675
4572000000.0 0.7863 -1.004
4575000000.0 -0.2669 -1.242
4578000000.0 -1.161 -0.573
4581000000.0 -1.253 0.5157
4584000000.0 -0.3597 1.271
4588000000.0 0.7282 1.101
4591000000.0 1.362 0.1491
4594000000.0 0.9585 -0.9704
4597000000.0 -0.1314 -1.368
4600000000.0 -1.169 -0.7716
4603000000.0 -1.326 0.3993
4606000000.0 -0.5478 1.285
4609000000.0 0.6711 1.241
4612000000.0 1.364 0.2781
4616000000.0 1.069 -0.8745
4619000000.0 -0.0166 -1.398
4622000000.0 -1.084 -0.8727
4625000000.0 -1.351 0.2931
4628000000.0 -0.6678 1.196
4631000000.0 0.5248 1.244
4634000000.0 1.319 0.3543
4638000000.0 1.127 -0.7826
4641000000.0 0.07074 -1.341
4644000000.0 -0.9917 -0.9149
4647000000.0 -1.313 0.2387
4650000000.0 -0.6587 1.168
4653000000.0 0.5161 1.197
4656000000.0 1.219 0.3458
4659000000.0 1.058 -0.7532
4662000000.0 0.05633 -1.259
4666000000.0 -0.9325 -0.8117
4669000000.0 -1.183 0.2339
4672000000.0 -0.5606 1.05
4675000000.0 0.517 1.076
4678000000.0 1.108 0.2902
4681000000.0 0.9264 -0.6694
4684000000.0 0.03008 -1.076
4688000000.0 -0.8502 -0.7121
4691000000.0 -1.094 0.2118
4694000000.0 -0.5062 0.9626
4697000000.0 0.4648 1.024
4700000000.0 1.057 0.2753
4703000000.0 0.8904 -0.6766
4706000000.0 0.02699 -1.065
4709000000.0 -0.8303 -0.6937
4712000000.0 -1.039 0.2258
4716000000.0 -0.4522 0.9515
4719000000.0 0.4867 0.935
4722000000.0 1.014 0.2468
4725000000.0 0.8218 -0.624
4728000000.0 0.02328 -1.047
4731000000.0 -0.8174 -0.6581
4734000000.0 -1.017 0.1715
4738000000.0 -0.4969 0.8925
4741000000.0 0.3879 0.9466
4744000000.0 1.018 0.3368
4747000000.0 0.8721 -0.5596
4750000000.0 0.1506 -1.085
4753000000.0 -0.7021 -0.7871
4756000000.0 -1.048 0.07512
4759000000.0 -0.6562 0.8513
4762000000.0 0.2306 1.051
4766000000.0 1.014 0.5154
4769000000.0 1.05 -0.4233
4772000000.0 0.3213 -1.101
4775000000.0 -0.6381 -0.9458
4778000000.0 -1.176 -0.08079
4781000000.0 -0.8409 0.8327
4784000000.0 0.08383 1.169
4788000000.0 0.9773 0.7138
4791000000.0 1.19 -0.299
4794000000.0 0.5235 -1.059
4797000000.0 -0.4765 -1.133
4800000000.0 -1.207 -0.3789
4803000000.0 -1.038 0.6895
4806000000.0 -0.1779 1.238
4809000000.0 0.8528 0.948
4812000000.0 1.275 -0.03971
4816000000.0 0.7907 -1.026
4819000000.0 -0.3174 -1.264
4822000000.0 -1.179 -0.5975
4825000000.0 -1.231 0.5368
4828000000.0 -0.3555 1.307
4831000000.0 0.7716 1.153
4834000000.0 1.393 0.1257
4838000000.0 0.9907 -1.005
4841000000.0 -0.1734 -1.382
4844000000.0 -1.152 -0.7618
4847000000.0 -1.32 0.4014
4850000000.0 -0.4864 1.286
4853000000.0 0.6524 1.202
4856000000.0 1.362 0.2186
4859000000.0 1.015 -0.8724
4862000000.0 -0.04565 -1.344
4866000000.0 -1.067 -0.8166
4869000000.0 -1.282 0.2945
4872000000.0 -0.5608 1.193
4875000000.0 0.5517 1.172
4878000000.0 1.233 0.3135
4881000000.0 0.9996 -0.7508
4884000000.0 0.03156 -1.26
4888000000.0 -0.9565 -0.7842
4891000000.0 -1.187 0.2014
4894000000.0 -0.5434 1.032
4897000000.0 0.4716 1.08
4900000000.0 1.103 0.3175
4903000000.0 0.9009 -0.6268
4906000000.0 0.04631 -1.097
4909000000.0 -0.7682 -0.7127
4912000000.0 -1.028 0.1313
4916000000.0 -0.5311 0.8735
4919000000.0 0.3449 0.9233
4922000000.0 0.9226 0.3353
4925000000.0 0.7853 -0.5067
4928000000.0 0.1264 -0.9432
4931000000.0 -0.629 -0.6933
4934000000.0 -0.9417 0.05544
4938000000.0 -0.5613 0.7837
4941000000.0 0.2355 0.8946
4944000000.0 0.8455 0.3836
4947000000.0 0.8284 -0.4079
4950000000.0 0.2329 -0.9218
4953000000.0 -0.5743 -0.7343
4956000000.0 -0.9556 -0.01937
4959000000.0 -0.6262 0.7385
4962000000.0 0.16 0.9368
4966000000.0 0.8603 0.4805
4969000000.0 0.9221 -0.363
4972000000.0 0.2994 -0.946
4975000000.0 -0.5332 -0.847
4978000000.0 -0.9886 -0.1099
4981000000.0 -0.7151 0.7136
4984000000.0 0.1149 1.015
4988000000.0 0.8591 0.6163
4991000000.0 1.015 -0.2742
4994000000.0 0.4472 -0.9888
4997000000.0 -0.4576 -0.9842
5000000000.0 -1.081 -0.2673
5003000000.0 -0.9136 0.6687
5006000000.0 -0.06299 1.147
5009000000.0 0.8623 0.7638
5012000000.0 1.194 -0.1437
5016000000.0 0.637 -1.002
5019000000.0 -0.3843 -1.17
5022000000.0 -1.166 -0.474
5025000000.0 -1.099 0.628
5028000000.0 -0.2415 1.245
5031000000.0 0.8413 0.9609
5034000000.0 1.292 -0.006798
5038000000.0 0.8218 -1.002
5041000000.0 -0.23 -1.271
5044000000.0 -1.145 -0.6072
5047000000.0 -1.195 0.4748
5050000000.0 -0.3737 1.195
5053000000.0 0.6589 1.126
5056000000.0 1.284 0.1723
5059000000.0 0.981 -0.8614
5062000000.0 -0.04204 -1.339
5066000000.0 -0.9841 -0.8124
5069000000.0 -1.245 0.295
5072000000.0 -0.6328 1.151
5075000000.0 0.477 1.15
5078000000.0 1.204 0.3463
5081000000.0 1.022 -0.6839
5084000000.0 0.1461 -1.249
5088000000.0 -0.8689 -0.8855
5091000000.0 -1.174 0.0967
5094000000.0 -0.7007 0.9751
5097000000.0 0.3214 1.127
5100000000.0 1.013 0.4921
5103000000.0 1.037 -0.4655
5106000000.0 0.2994 -1.092
5109000000.0 -0.6342 -0.9184
5112000000.0 -1.038 -0.1272
5116000000.0 -0.7472 0.727
5119000000.0 0.06973 1.053
5122000000.0 0.855 0.6324
5125000000.0 1.001 -0.2558
5128000000.0 0.4211 -0.9358
5131000000.0 -0.4472 -0.9471
5134000000.0 -0.9811 -0.2239
5138000000.0 -0.7669 0.6079
5141000000.0 -0.0388 0.9405
5144000000.0 0.6923 0.6671
5147000000.0 0.9557 -0.1509
5150000000.0 0.4428 -0.7914
5153000000.0 -0.3104 -0.8903
5156000000.0 -0.8645 -0.315
5159000000.0 -0.7659 0.4781
5162000000.0 -0.162 0.8949
5166000000.0 0.6048 0.6657
5169000000.0 0.8951 -0.05468
5172000000.0 0.5142 -0.7433
5175000000.0 -0.2439 -0.8909
5178000000.0 -0.8101 -0.3503
5181000000.0 -0.7747 0.4387
5184000000.0 -0.1582 0.8844
5188000000.0 0.6047 0.6929
5191000000.0 0.9143 -0.03881
5194000000.0 0.5282 -0.7669
5197000000.0 -0.2622 -0.9059
5200000000.0 -0.8287 -0.3931
5203000000.0 -0.8565 0.4265
5206000000.0 -0.1869 0.9417
5209000000.0 0.6241 0.7301
5212000000.0 0.9572 -0.007839
5216000000.0 0.5992 -0.7773
5219000000.0 -0.2336 -0.9485
5222000000.0 -0.8896 -0.451
5225000000.0 -0.8985 0.4442
5228000000.0 -0.2336 0.9674
5231000000.0 0.5918 0.8263
5234000000.0 1.037 0.08456
5238000000.0 0.7021 -0.7674
5241000000.0 -0.1497 -1.025
5244000000.0 -0.9207 -0.5226
5247000000.0 -0.9712 0.3473
5250000000.0 -0.3495 0.9809
5253000000.0 0.5326 0.947
5256000000.0 1.06 0.2095
5259000000.0 0.8232 -0.6889
5262000000.0 0.01266 -1.083
5266000000.0 -0.8489 -0.6948
5269000000.0 -1.04 0.1957
5272000000.0 -0.5551 0.9351
5275000000.0 0.3693 0.9952
5278000000.0 1.017 0.3541
5281000000.0 0.9464 -0.5389
5284000000.0 0.2341 -1.072
5288000000.0 -0.6765 -0.8597
5291000000.0 -1.114 -0.05269
5294000000.0 -0.7243 0.8464
5297000000.0 0.1457 1.093
5300000000.0 0.9405 0.6081
5303000000.0 1.083 -0.3431
5306000000.0 0.4681 -1.037
5309000000.0 -0.5082 -0.9914
5312000000.0 -1.084 -0.25
5316000000.0 -0.8993 0.6675
5319000000.0 -0.09367 1.136
5322000000.0 0.8473 0.7882
5325000000.0 1.142 -0.1306
5328000000.0 0.6371 -0.949
5331000000.0 -0.3332 -1.115
5334000000.0 -1.036 -0.4456
5338000000.0 -1.03 0.4959
5341000000.0 -0.2162 1.053
5344000000.0 0.6887 0.8928
5347000000.0 1.107 0.02138
5350000000.0 0.7054 -0.8045
5353000000.0 -0.1958 -1.092
5356000000.0 -0.9455 -0.5413
5359000000.0 -0.9951 0.4292
5362000000.0 -0.3261 1.015
5366000000.0 0.5813 0.9027
5369000000.0 1.049 0.07711
5372000000.0 0.7246 -0.7887
5375000000.0 -0.1306 -1.013
5378000000.0 -0.8601 -0.5102
5381000000.0 -0.9395 0.3416
5384000000.0 -0.2987 0.9487
5388000000.0 0.511 0.8016
5391000000.0 0.955 0.08466
5394000000.0 0.6518 -0.6947
5397000000.0 -0.1327 -0.9025
5400000000.0 -0.7776 -0.4371
5403000000.0 -0.8496 0.3141
5406000000.0 -0.2515 0.8545
5409000000.0 0.4869 0.731
5412000000.0 0.8843 0.05891
5416000000.0 0.56 -0.657
5419000000.0 -0.1334 -0.8418
5422000000.0 -0.7392 -0.3788
5425000000.0 -0.8203 0.32
5428000000.0 -0.2561 0.847
5431000000.0 0.5224 0.7167
5434000000.0 0.8409 0.04634
5438000000.0 0.5816 -0.6631
5441000000.0 -0.1453 -0.8461
5444000000.0 -0.7893 -0.4462
5447000000.0 -0.7999 0.3177
5450000000.0 -0.2574 0.8207
5453000000.0 0.4731 0.7625
5456000000.0 0.8772 0.1148
5459000000.0 0.6026 -0.6289
5462000000.0 -0.09644 -0.8882
5466000000.0 -0.7514 -0.4919
5469000000.0 -0.8755 0.2571
5472000000.0 -0.4053 0.8018
5475000000.0 0.3927 0.8253
5478000000.0 0.9258 0.2041
5481000000.0 0.7737 -0.5621
5484000000.0 0.06872 -0.9511
5488000000.0 -0.7178 -0.6725
5491000000.0 -0.9597 0.09374
5494000000.0 -0.5568 0.8321
5497000000.0 0.3231 0.9375
5500000000.0 0.9279 0.3607
5503000000.0 0.9022 -0.4836
5506000000.0 0.1886 -1.002
5509000000.0 -0.6223 -0.8063
5512000000.0 -1.064 -0.04773
5516000000.0 -0.7171 0.7776
5519000000.0 0.1201 0.9903
5522000000.0 0.8904 0.5871
5525000000.0 1.0 -0.2923
5528000000.0 0.4423 -0.9492
5531000000.0 -0.4811 -0.9486
5534000000.0 -0.9926 -0.2534
5538000000.0 -0.8694 0.6472
5541000000.0 -0.06791 1.047
5544000000.0 0.733 0.7253
5547000000.0 1.059 -0.1394
5550000000.0 0.606 -0.8816
5553000000.0 -0.342 -1.047
5556000000.0 -0.9861 -0.4212
5559000000.0 -0.9425 0.4757
5562000000.0 -0.2354 1.053
5566000000.0 0.6433 0.8135
5569000000.0 1.065 0.01455
5572000000.0 0.6808 -0.7809
5575000000.0 -0.1823 -1.002
5578000000.0 -0.8559 -0.5094
5581000000.0 -0.9216 0.3215
5584000000.0 -0.3194 0.9402
5588000000.0 0.4684 0.8235
5591000000.0 0.9126 0.1514
5594000000.0 0.7188 -0.6664
5597000000.0 -0.0375 -0.9445
5600000000.0 -0.754 -0.5477
5603000000.0 -0.8796 0.2183
5606000000.0 -0.3981 0.8116
5609000000.0 0.3553 0.8029
5612000000.0 0.8423 0.2029
5616000000.0 0.708 -0.5319
5619000000.0 0.02056 -0.8533
5622000000.0 -0.6433 -0.5674
5625000000.0 -0.8412 0.1315
5628000000.0 -0.393 0.7123
5631000000.0 0.338 0.75
5634000000.0 0.8353 0.2359
5638000000.0 0.6789 -0.4982
5641000000.0 0.05387 -0.8351
5644000000.0 -0.6155 -0.5758
5647000000.0 -0.8063 0.1348
5650000000.0 -0.4322 0.7436
5653000000.0 0.3109 0.784
5656000000.0 0.8234 0.1996
5659000000.0 0.7328 -0.4604
5662000000.0 0.05052 -0.8543
5666000000.0 -0.6451 -0.5763
5669000000.0 -0.8725 0.1289
5672000000.0 -0.4434 0.814
5675000000.0 0.3225 0.8133
5678000000.0 0.8561 0.2802
5681000000.0 0.7568 -0.5138
5684000000.0 0.09688 -0.9401
5688000000.0 -0.6796 -0.6415
5691000000.0 -0.9466 0.1268
5694000000.0 -0.5045 0.8216
5697000000.0 0.3224 0.8872
5700000000.0 0.917 0.3204
5703000000.0 0.8491 -0.4993
5706000000.0 0.1448 -1.017
5709000000.0 -0.6877 -0.7531
5712000000.0 -1.037 0.03289
5716000000.0 -0.6279 0.8267
5719000000.0 0.2976 1.007
5722000000.0 0.9484 0.4664
5725000000.0 0.9452 -0.4413
5728000000.0 0.2688 -1.025
5731000000.0 -0.6277 -0.8699
5734000000.0 -1.066 -0.05906
5738000000.0 -0.7569 0.7793
5741000000.0 0.1369 1.09
5744000000.0 0.9181 0.5977
5747000000.0 1.059 -0.3235
5750000000.0 0.4239 -0.9958
5753000000.0 -0.5208 -1.031
5756000000.0 -1.078 -0.2353
5759000000.0 -0.8944 0.6672
5762000000.0 -0.08751 1.128
5766000000.0 0.8187 0.7223
5769000000.0 1.114 -0.1463
5772000000.0 0.5748 -0.9626
5775000000.0 -0.3529 -1.044
5778000000.0 -0.9991 -0.4077
5781000000.0 -0.9475 0.4822
5784000000.0 -0.2173 1.085
5788000000.0 0.6643 0.8289
5791000000.0 1.061 0.02816
5794000000.0 0.7093 -0.8191
5797000000.0 -0.2049 -1.042
5800000000.0 -0.9009 -0.5228
5803000000.0 -0.9728 0.3837
5806000000.0 -0.3424 1.011
5809000000.0 0.5323 0.8889
5812000000.0 1.029 0.1515
5816000000.0 0.7384 -0.6727
5819000000.0 -0.07622 -1.02
5822000000.0 -0.8152 -0.5942
5825000000.0 -0.9914 0.2496
5828000000.0 -0.3714 0.9163
5831000000.0 0.419 0.9085
5834000000.0 0.9858 0.2038
5838000000.0 0.7641 -0.5962
5841000000.0 0.02759 -1.001
5844000000.0 -0.6929 -0.624
5847000000.0 -0.9306 0.1432
5850000000.0 -0.4313 0.8288
5853000000.0 0.3457 0.8705
5856000000.0 0.8854 0.2626
5859000000.0 0.7523 -0.5214
5862000000.0 0.05885 -0.9389
5866000000.0 -0.6639 -0.6327
5869000000.0 -0.8754 0.1137
5872000000.0 -0.4547 0.749
5875000000.0 0.3242 0.8128
5878000000.0 0.8656 0.2801
5881000000.0 0.7396 -0.4933
5884000000.0 0.09405 -0.9135
5888000000.0 -0.5996 -0.6053
5891000000.0 -0.8173 0.1025
5894000000.0 -0.4882 0.7235
5897000000.0 0.2511 0.8106
5900000000.0 0.8219 0.3162
5903000000.0 0.7481 -0.4512
5906000000.0 0.1085 -0.8111
5909000000.0 -0.5586 -0.6115
5912000000.0 -0.8739 0.05674
5916000000.0 -0.5132 0.6903
5919000000.0 0.1881 0.8435
5922000000.0 0.7768 0.3489
5925000000.0 0.8089 -0.3649
5928000000.0 0.2191 -0.8639
5931000000.0 -0.5013 -0.7078
5934000000.0 -0.9356 -0.06972
5938000000.0 -0.6029 0.6732
5941000000.0 0.108 0.8807
5944000000.0 0.749 0.4916
5947000000.0 0.8779 -0.2597
5950000000.0 0.3573 -0.8705
5953000000.0 -0.4299 -0.7744
5956000000.0 -0.9147 -0.1955
5959000000.0 -0.7205 0.5721
5962000000.0 -0.02274 0.9334
5966000000.0 0.6934 0.6157
5969000000.0 0.9551 -0.1363
5972000000.0 0.4736 -0.8047
5975000000.0 -0.3082 -0.9048
5978000000.0 -0.9224 -0.3517
5981000000.0 -0.8527 0.4669
5984000000.0 -0.1999 0.95
5988000000.0 0.5924 0.7726
5991000000.0 1.02 0.006232
5994000000.0 0.6567 -0.7594
5997000000.0 -0.1736 -0.9695
6000000000.0 -0.8814 -0.4691
6003000000.0 -0.9225 0.3691
6006000000.0 -0.293 0.9324
6009000000.0 0.5274 0.8161
6012000000.0 0.9833 0.122
6016000000.0 0.7374 -0.6932
6019000000.0 -0.05644 -0.9912
6022000000.0 -0.8076 -0.5767
6025000000.0 -0.9479 0.2428
6028000000.0 -0.3952 0.8894
6031000000.0 0.406 0.8967
6034000000.0 0.9543 0.2066
6038000000.0 0.7447 -0.596
6041000000.0 0.02302 -0.9641
6044000000.0 -0.723 -0.6144
6047000000.0 -0.9169 0.1631
6050000000.0 -0.4655 0.8318
6053000000.0 0.3257 0.8834
6056000000.0 0.9027 0.2648
6059000000.0 0.7746 -0.5341
6062000000.0 0.077 -0.8975
6066000000.0 -0.6494 -0.6598
6069000000.0 -0.9018 0.112
6072000000.0 -0.4548 0.7687
6075000000.0 0.3273 0.8349
6078000000.0 0.8404 0.3115
6081000000.0 0.7481 -0.4303
6084000000.0 0.09641 -0.8453
6088000000.0 -0.6021 -0.6522
6091000000.0 -0.8766 0.06597
6094000000.0 -0.4969 0.6661
6097000000.0 0.2457 0.8036
6100000000.0 0.806 0.3292
6103000000.0 0.752 -0.4276
6106000000.0 0.1789 -0.835
6109000000.0 -0.5286 -0.6473
6112000000.0 -0.8708 0.02395
6116000000.0 -0.5208 0.6856
6119000000.0 0.2138 0.8168
6122000000.0 0.7705 0.3429
6125000000.0 0.7475 -0.3849
6128000000.0 0.2126 -0.8163
6131000000.0 -0.5733 -0.666
6134000000.0 -0.869 -0.01832
6138000000.0 -0.5589 0.656
6141000000.0 0.1658 0.8644
6144000000.0 0.7821 0.4301
6147000000.0 0.8134 -0.3459
6150000000.0 0.2801 -0.8427
6153000000.0 -0.484 -0.7269
6156000000.0 -0.9167 -0.05415
6159000000.0 -0.638 0.6528
6162000000.0 0.1059 0.8984
6166000000.0 0.7593 0.4788
6169000000.0 0.8887 -0.2999
6172000000.0 0.3329 -0.8812
6175000000.0 -0.4774 -0.8141
6178000000.0 -0.9144 -0.1205
6181000000.0 -0.7191 0.6546
6184000000.0 0.04144 0.9337
6188000000.0 0.7307 0.5963
6191000000.0 0.9069 -0.1734
6194000000.0 0.4291 -0.8314
6197000000.0 -0.3844 -0.8482
6200000000.0 -0.9078 -0.293
6203000000.0 -0.7465 0.5166
6206000000.0 -0.06592 0.9522
6209000000.0 0.6927 0.6471
6212000000.0 0.9082 -0.09349
6216000000.0 0.5174 -0.78
6219000000.0 -0.2894 -0.8551
6222000000.0 -0.8363 -0.3383
6225000000.0 -0.813 0.4399
6228000000.0 -0.1816 0.8848
6231000000.0 0.5564 0.715
6234000000.0 0.9169 -0.004323
6238000000.0 0.5706 -0.6752
6241000000.0 -0.1689 -0.8639
6244000000.0 -0.7823 -0.4374
6247000000.0 -0.7987 0.3311
6250000000.0 -0.2716 0.7926
6253000000.0 0.4437 0.7115
6256000000.0 0.8025 0.1383
6259000000.0 0.651 -0.5542
6262000000.0 -0.02243 -0.823
6266000000.0 -0.6053 -0.5178
