! Created with skrf 1.8.0 (http://scikit-rf.org).
# Hz S RI R 50.0 
!freq ReS11 ImS11
4000000000.0 -0.2643 -1.528
4003000000.0 -1.333 -0.7321
4006000000.0 -1.422 0.5421
4009000000.0 -0.4342 1.469
4012000000.0 0.8732 1.304
4016000000.0 1.51 0.1675
4019000000.0 1.072 -1.155
4022000000.0 -0.2139 -1.581
4025000000.0 -1.351 -0.7951
4028000000.0 -1.529 0.5372
4031000000.0 -0.5091 1.528
4034000000.0 0.9178 1.368
4038000000.0 1.646 0.1846
4041000000.0 1.185 -1.199
4044000000.0 -0.2008 -1.617
4047000000.0 -1.417 -0.8315
4050000000.0 -1.542 0.546
4053000000.0 -0.5834 1.508
4056000000.0 0.805 1.321
4059000000.0 1.605 0.2322
4062000000.0 1.174 -1.074
4066000000.0 -0.07784 -1.629
4069000000.0 -1.276 -1.001
4072000000.0 -1.609 0.3936
4075000000.0 -0.7652 1.491
4078000000.0 0.631 1.512
4081000000.0 1.573 0.4612
4084000000.0 1.375 -0.9225
4088000000.0 0.134 -1.633
4091000000.0 -1.127 -1.147
4094000000.0 -1.625 0.1677
4097000000.0 -0.8952 1.371
4100000000.0 0.4504 1.566
4103000000.0 1.466 0.6206
4106000000.0 1.411 -0.7532
4109000000.0 0.3543 -1.509
4112000000.0 -0.9194 -1.261
4116000000.0 -1.507 -0.1061
4119000000.0 -1.089 1.07
4122000000.0 0.1057 1.49
4125000000.0 1.182 0.8933
4128000000.0 1.479 -0.2795
4131000000.0 0.6982 -1.302
4134000000.0 -0.5187 -1.39
4138000000.0 -1.389 -0.4952
4141000000.0 -1.279 0.7045
4144000000.0 -0.2803 1.461
4147000000.0 0.9198 1.188
4150000000.0 1.512 0.02989
4153000000.0 0.9945 -1.142
4156000000.0 -0.2048 -1.483
4159000000.0 -1.265 -0.8436
4162000000.0 -1.416 0.4735
4166000000.0 -0.5725 1.414
4169000000.0 0.6874 1.317
4172000000.0 1.489 0.302
4175000000.0 1.169 -0.9153
4178000000.0 0.06867 -1.49
4181000000.0 -1.118 -0.9874
4184000000.0 -1.516 0.2018
4188000000.0 -0.7951 1.307
4191000000.0 0.5174 1.462
4194000000.0 1.465 0.5578
4197000000.0 1.343 -0.7932
4200000000.0 0.2174 -1.535
4203000000.0 -1.069 -1.161
4206000000.0 -1.592 0.108
4209000000.0 -0.932 1.383
4212000000.0 0.5214 1.597
4216000000.0 1.603 0.5412
4219000000.0 1.388 -0.8979
4222000000.0 0.1072 -1.67
4225000000.0 -1.256 -1.118
4228000000.0 -1.612 0.3346
4231000000.0 -0.7412 1.477
4234000000.0 0.7461 1.465
4238000000.0 1.603 0.3207
4241000000.0 1.183 -1.093
4244000000.0 -0.1172 -1.568
4247000000.0 -1.342 -0.8552
4250000000.0 -1.485 0.5491
4253000000.0 -0.4769 1.479
4256000000.0 0.8577 1.261
4259000000.0 1.503 0.05238
4262000000.0 1.001 -1.126
4266000000.0 -0.2659 -1.454
4269000000.0 -1.324 -0.6871
4272000000.0 -1.35 0.6014
4275000000.0 -0.3446 1.413
4278000000.0 0.8707 1.109
4281000000.0 1.438 0.003675
4284000000.0 0.8771 -1.114
4288000000.0 -0.283 -1.343
4291000000.0 -1.226 -0.5888
4294000000.0 -1.243 0.587
4297000000.0 -0.3715 1.274
4300000000.0 0.7748 1.059
4303000000.0 1.301 0.09502
4306000000.0 0.8933 -0.9416
4309000000.0 -0.1348 -1.271
4312000000.0 -1.054 -0.7508
4316000000.0 -1.223 0.3762
4319000000.0 -0.5662 1.177
4322000000.0 0.5244 1.189
4325000000.0 1.277 0.3829
4328000000.0 1.12 -0.7647
4331000000.0 0.1143 -1.367
4334000000.0 -0.9397 -0.943
4338000000.0 -1.379 0.1414
4341000000.0 -0.8041 1.158
4344000000.0 0.385 1.397
4347000000.0 1.299 0.6255
4350000000.0 1.288 -0.649
4353000000.0 0.3073 -1.401
4356000000.0 -0.8942 -1.17
4359000000.0 -1.448 -0.04076
4362000000.0 -0.98 1.084
4366000000.0 0.2133 1.476
4369000000.0 1.274 0.7883
4372000000.0 1.456 -0.4715
4375000000.0 0.5355 -1.425
4378000000.0 -0.7421 -1.256
4381000000.0 -1.499 -0.2343
4384000000.0 -1.142 1.022
4388000000.0 0.06039 1.525
4391000000.0 1.252 0.9452
4394000000.0 1.528 -0.4176
4397000000.0 0.6063 -1.45
4400000000.0 -0.7139 -1.385
4403000000.0 -1.565 -0.2925
4406000000.0 -1.159 1.057
4409000000.0 0.1201 1.575
4412000000.0 1.278 0.8711
4416000000.0 1.462 -0.4543
4419000000.0 0.5098 -1.435
4422000000.0 -0.8038 -1.293
4425000000.0 -1.481 -0.1596
4428000000.0 -0.9867 1.015
4431000000.0 0.207 1.44
4434000000.0 1.245 0.6773
4438000000.0 1.274 -0.5411
4441000000.0 0.3579 -1.275
4444000000.0 -0.8089 -1.073
4447000000.0 -1.315 -0.02938
4450000000.0 -0.8251 1.02
4453000000.0 0.3213 1.241
4456000000.0 1.184 0.5167
4459000000.0 1.093 -0.5929
4462000000.0 0.2043 -1.229
4466000000.0 -0.8478 -0.8821
4469000000.0 -1.205 0.1262
4472000000.0 -0.6695 1.005
4475000000.0 0.3923 1.125
4478000000.0 1.1 0.358
4481000000.0 0.9787 -0.62
4484000000.0 0.131 -1.171
4488000000.0 -0.8293 -0.7673
4491000000.0 -1.11 0.14
4494000000.0 -0.5573 0.9654
4497000000.0 0.4206 1.1
4500000000.0 1.086 0.3551
4503000000.0 0.9131 -0.6169
4506000000.0 0.1238 -1.101
4509000000.0 -0.7972 -0.792
4512000000.0 -1.155 0.1172
4516000000.0 -0.6194 0.9452
4519000000.0 0.3245 1.102
4522000000.0 1.065 0.4715
4525000000.0 1.027 -0.5564
4528000000.0 0.2424 -1.162
4531000000.0 -0.7434 -0.9159
4534000000.0 -1.209 0.0002234
4538000000.0 -0.7928 0.9354
4541000000.0 0.226 1.177
4544000000.0 1.051 0.5732
4547000000.0 1.164 -0.4376
4550000000.0 0.3996 -1.141
4553000000.0 -0.6428 -1.075
4556000000.0 -1.254 -0.1848
4559000000.0 -0.963 0.8381
4562000000.0 0.01054 1.274
4566000000.0 0.9875 0.8001
4569000000.0 1.26 -0.2544
4572000000.0 0.6457 -1.144
4575000000.0 -0.486 -1.213
4578000000.0 -1.253 -0.4313
4581000000.0 -1.155 0.7152
4584000000.0 -0.1721 1.337
4588000000.0 0.9403 1.024
4591000000.0 1.367 -0.05049
4594000000.0 0.8307 -1.113
4597000000.0 -0.3249 -1.352
4600000000.0 -1.258 -0.6034
4603000000.0 -1.288 0.6224
4606000000.0 -0.3463 1.354
4609000000.0 0.8858 1.117
4612000000.0 1.427 0.04685
4616000000.0 0.9329 -1.072
4619000000.0 -0.2239 -1.374
4622000000.0 -1.238 -0.6704
4625000000.0 -1.28 0.5156
4628000000.0 -0.4529 1.32
4631000000.0 0.7742 1.163
4634000000.0 1.387 0.1092
4638000000.0 0.9427 -0.9559
4641000000.0 -0.1305 -1.32
4644000000.0 -1.145 -0.7205
4647000000.0 -1.233 0.4466
4650000000.0 -0.4223 1.244
4653000000.0 0.7186 1.088
4656000000.0 1.277 0.1322
4659000000.0 0.8514 -0.9358
4662000000.0 -0.154 -1.258
4666000000.0 -1.042 -0.5726
4669000000.0 -1.134 0.4436
4672000000.0 -0.3528 1.101
4675000000.0 0.6396 0.9338
4678000000.0 1.136 0.08575
4681000000.0 0.7364 -0.8224
4684000000.0 -0.1864 -1.11
4688000000.0 -0.9512 -0.5278
4691000000.0 -1.01 0.3875
4694000000.0 -0.3372 1.055
4697000000.0 0.6355 0.9089
4700000000.0 1.105 0.08012
4703000000.0 0.7107 -0.8191
4706000000.0 -0.1808 -1.054
4709000000.0 -0.9388 -0.5104
4712000000.0 -0.9577 0.4046
4716000000.0 -0.3049 1.065
4719000000.0 0.621 0.869
4722000000.0 1.067 0.06734
4725000000.0 0.7287 -0.7816
4728000000.0 -0.1469 -1.034
4731000000.0 -0.9281 -0.5209
4734000000.0 -1.003 0.3569
4738000000.0 -0.3635 1.006
4741000000.0 0.5643 0.933
4744000000.0 1.051 0.2104
4747000000.0 0.8208 -0.7327
4750000000.0 -0.01493 -1.09
4753000000.0 -0.8716 -0.7343
4756000000.0 -1.111 0.2338
4759000000.0 -0.5646 0.9932
4762000000.0 0.4199 1.061
4766000000.0 1.12 0.3834
4769000000.0 1.0 -0.6181
4772000000.0 0.1807 -1.149
4775000000.0 -0.8262 -0.8738
4778000000.0 -1.221 0.07027
4781000000.0 -0.7452 0.9608
4784000000.0 0.2529 1.223
4788000000.0 1.085 0.5778
4791000000.0 1.166 -0.4711
4794000000.0 0.3936 -1.202
4797000000.0 -0.6259 -1.097
4800000000.0 -1.261 -0.1981
4803000000.0 -0.9691 0.824
4806000000.0 0.000985 1.284
4809000000.0 0.9853 0.8321
4812000000.0 1.261 -0.2338
4816000000.0 0.6707 -1.175
4819000000.0 -0.462 -1.258
4822000000.0 -1.309 -0.4546
4825000000.0 -1.158 0.7312
4828000000.0 -0.1748 1.372
4831000000.0 0.9663 0.9991
4834000000.0 1.405 -0.09705
4838000000.0 0.8001 -1.153
4841000000.0 -0.3566 -1.348
4844000000.0 -1.28 -0.5895
4847000000.0 -1.214 0.6461
4850000000.0 -0.2754 1.349
4853000000.0 0.8697 1.079
4856000000.0 1.366 0.01725
4859000000.0 0.8547 -1.034
4862000000.0 -0.2629 -1.347
4866000000.0 -1.17 -0.6229
4869000000.0 -1.207 0.4943
4872000000.0 -0.3575 1.268
4875000000.0 0.7295 1.071
4878000000.0 1.272 0.06869
4881000000.0 0.8354 -0.926
4884000000.0 -0.1724 -1.212
4888000000.0 -1.033 -0.6232
4891000000.0 -1.098 0.4031
4894000000.0 -0.3583 1.112
4897000000.0 0.5841 0.9787
4900000000.0 1.083 0.1289
4903000000.0 0.7629 -0.7888
4906000000.0 -0.1119 -1.015
4909000000.0 -0.8638 -0.5712
4912000000.0 -0.9697 0.3076
4916000000.0 -0.3703 0.9452
4919000000.0 0.4922 0.8746
4922000000.0 0.9489 0.1658
4925000000.0 0.7185 -0.6363
4928000000.0 -0.03647 -0.9299
4931000000.0 -0.7597 -0.5809
4934000000.0 -0.9129 0.1905
4938000000.0 -0.4163 0.8472
4941000000.0 0.3977 0.8643
4944000000.0 0.8909 0.252
4947000000.0 0.7893 -0.537
4950000000.0 0.07731 -0.9342
4953000000.0 -0.7071 -0.6541
4956000000.0 -0.9743 0.1008
4959000000.0 -0.5093 0.8342
4962000000.0 0.3269 0.9278
4966000000.0 0.9634 0.3262
4969000000.0 0.8884 -0.5181
4972000000.0 0.1416 -1.023
4975000000.0 -0.6838 -0.7651
4978000000.0 -1.05 0.02254
4981000000.0 -0.6278 0.834
4984000000.0 0.2172 1.04
4988000000.0 0.9671 0.4916
4991000000.0 1.007 -0.4468
4994000000.0 0.3046 -1.075
4997000000.0 -0.6548 -0.9377
5000000000.0 -1.148 -0.09963
5003000000.0 -0.8102 0.8232
5006000000.0 0.11 1.162
5009000000.0 1.031 0.6834
5012000000.0 1.184 -0.362
5016000000.0 0.487 -1.161
5019000000.0 -0.57 -1.142
5022000000.0 -1.243 -0.2522
5025000000.0 -1.002 0.7945
5028000000.0 -0.01904 1.301
5031000000.0 0.9733 0.8455
5034000000.0 1.3 -0.2321
5038000000.0 0.6439 -1.1
5041000000.0 -0.4651 -1.242
5044000000.0 -1.221 -0.4546
5047000000.0 -1.134 0.6578
5050000000.0 -0.2409 1.312
5053000000.0 0.8155 0.9937
5056000000.0 1.295 0.004848
5059000000.0 0.8278 -1.019
5062000000.0 -0.2193 -1.274
5066000000.0 -1.122 -0.6409
5069000000.0 -1.187 0.4589
5072000000.0 -0.4244 1.175
5075000000.0 0.6765 1.082
5078000000.0 1.238 0.1443
5081000000.0 0.924 -0.8403
5084000000.0 -0.05936 -1.212
5088000000.0 -0.9762 -0.7403
5091000000.0 -1.145 0.2546
5094000000.0 -0.5214 1.032
5097000000.0 0.4489 1.056
5100000000.0 1.083 0.2913
5103000000.0 0.9004 -0.6259
5106000000.0 0.1242 -1.094
5109000000.0 -0.7744 -0.7719
5112000000.0 -1.059 0.04106
5116000000.0 -0.6055 0.8371
5119000000.0 0.2538 1.013
5122000000.0 0.9479 0.4519
5125000000.0 0.9338 -0.4245
5128000000.0 0.2531 -1.001
5131000000.0 -0.5909 -0.8119
5134000000.0 -0.9851 -0.03064
5138000000.0 -0.636 0.7596
5141000000.0 0.1309 0.9378
5144000000.0 0.837 0.4545
5147000000.0 0.86 -0.2966
5150000000.0 0.2861 -0.8976
5153000000.0 -0.472 -0.7718
5156000000.0 -0.933 -0.117
5159000000.0 -0.6537 0.6349
5162000000.0 0.08028 0.8743
5166000000.0 0.7501 0.5177
5169000000.0 0.8639 -0.2553
5172000000.0 0.3292 -0.8316
5175000000.0 -0.4682 -0.7847
5178000000.0 -0.9026 -0.1514
5181000000.0 -0.6845 0.5804
5184000000.0 0.04474 0.923
5188000000.0 0.7327 0.5539
5191000000.0 0.928 -0.2413
5194000000.0 0.3815 -0.8635
5197000000.0 -0.422 -0.8377
5200000000.0 -0.9479 -0.1493
5203000000.0 -0.7588 0.6541
5206000000.0 0.06179 0.9719
5209000000.0 0.7759 0.5695
5212000000.0 0.9373 -0.2376
5216000000.0 0.4123 -0.8908
5219000000.0 -0.4328 -0.882
5222000000.0 -0.9784 -0.2228
5225000000.0 -0.8125 0.6144
5228000000.0 -0.05259 1.019
5231000000.0 0.7821 0.6687
5234000000.0 1.019 -0.1647
5238000000.0 0.5151 -0.9307
5241000000.0 -0.3845 -0.9968
5244000000.0 -0.9874 -0.3556
5247000000.0 -0.933 0.5482
5250000000.0 -0.1871 1.077
5253000000.0 0.715 0.8195
5256000000.0 1.082 -0.04288
5259000000.0 0.6852 -0.8605
5262000000.0 -0.2198 -1.04
5266000000.0 -0.9681 -0.5141
5269000000.0 -1.016 0.4034
5272000000.0 -0.3655 1.042
5275000000.0 0.549 0.965
5278000000.0 1.079 0.2025
5281000000.0 0.8302 -0.7103
5284000000.0 0.009396 -1.109
5288000000.0 -0.851 -0.7199
5291000000.0 -1.097 0.1623
5294000000.0 -0.5755 0.9881
5297000000.0 0.3338 1.061
5300000000.0 1.025 0.3839
5303000000.0 0.9973 -0.5206
5306000000.0 0.2045 -1.102
5309000000.0 -0.694 -0.8894
5312000000.0 -1.155 -0.0374
5316000000.0 -0.7547 0.8537
5319000000.0 0.1953 1.138
5322000000.0 0.9904 0.5695
5325000000.0 1.078 -0.3258
5328000000.0 0.4279 -1.053
5331000000.0 -0.5595 -0.9838
5334000000.0 -1.099 -0.1786
5338000000.0 -0.8063 0.7508
5341000000.0 0.05401 1.111
5344000000.0 0.8595 0.6691
5347000000.0 1.048 -0.2583
5350000000.0 0.4431 -0.9579
5353000000.0 -0.4671 -0.9307
5356000000.0 -1.028 -0.2707
5359000000.0 -0.8389 0.6382
5362000000.0 0.009858 1.035
5366000000.0 0.7746 0.6578
5369000000.0 1.005 -0.2206
5372000000.0 0.418 -0.9179
5375000000.0 -0.4327 -0.8903
5378000000.0 -0.9588 -0.1812
5381000000.0 -0.7518 0.6195
5384000000.0 0.03809 0.9541
5388000000.0 0.7513 0.5645
5391000000.0 0.8841 -0.2553
5394000000.0 0.3381 -0.8298
5397000000.0 -0.4267 -0.8099
5400000000.0 -0.8628 -0.1842
5403000000.0 -0.643 0.6116
5406000000.0 0.02102 0.8641
5409000000.0 0.711 0.5137
5412000000.0 0.837 -0.2386
5416000000.0 0.304 -0.8259
5419000000.0 -0.415 -0.7693
5422000000.0 -0.84 -0.1255
5425000000.0 -0.6407 0.593
5428000000.0 0.04905 0.8765
5431000000.0 0.7226 0.4993
5434000000.0 0.8356 -0.2698
5438000000.0 0.3663 -0.8226
5441000000.0 -0.4348 -0.8086
5444000000.0 -0.8867 -0.1836
5447000000.0 -0.6814 0.6049
5450000000.0 0.04556 0.9233
5453000000.0 0.703 0.5963
5456000000.0 0.9114 -0.2124
5459000000.0 0.4052 -0.8209
5462000000.0 -0.3834 -0.8525
5466000000.0 -0.9204 -0.2398
5469000000.0 -0.7677 0.5208
5472000000.0 -0.1015 0.9588
5475000000.0 0.6531 0.6447
5478000000.0 0.9586 -0.07329
5481000000.0 0.5943 -0.8109
5484000000.0 -0.2355 -0.9514
5488000000.0 -0.934 -0.4392
5491000000.0 -0.9215 0.3844
5494000000.0 -0.2592 0.9856
5497000000.0 0.5885 0.8433
5500000000.0 1.051 0.08232
5503000000.0 0.7278 -0.7683
5506000000.0 -0.1021 -1.06
5509000000.0 -0.8567 -0.6394
5512000000.0 -1.027 0.2722
5516000000.0 -0.4667 0.973
5519000000.0 0.4603 0.9949
5522000000.0 1.046 0.2684
5525000000.0 0.8433 -0.6229
5528000000.0 0.0902 -1.079
5531000000.0 -0.7669 -0.7609
5534000000.0 -1.071 0.1002
5538000000.0 -0.5896 0.8595
5541000000.0 0.3088 1.016
5544000000.0 0.9913 0.4733
5547000000.0 0.9305 -0.4581
5550000000.0 0.2317 -1.029
5553000000.0 -0.6447 -0.8163
5556000000.0 -1.055 -0.03359
5559000000.0 -0.6787 0.7933
5562000000.0 0.1607 1.0
5566000000.0 0.8936 0.4949
5569000000.0 0.916 -0.3706
5572000000.0 0.2976 -0.9233
5575000000.0 -0.5491 -0.823
5578000000.0 -0.9694 -0.1258
5581000000.0 -0.702 0.6551
5584000000.0 0.1024 0.9114
5588000000.0 0.7699 0.5131
5591000000.0 0.8733 -0.242
5594000000.0 0.3434 -0.8349
5597000000.0 -0.4144 -0.764
5600000000.0 -0.863 -0.1641
5603000000.0 -0.6683 0.5619
5606000000.0 0.009597 0.8505
5609000000.0 0.6684 0.5276
5612000000.0 0.8135 -0.2171
5616000000.0 0.3498 -0.7696
5619000000.0 -0.3886 -0.7181
5622000000.0 -0.7959 -0.1856
5625000000.0 -0.6376 0.5178
5628000000.0 0.009711 0.8301
5631000000.0 0.653 0.4923
5634000000.0 0.8203 -0.1786
5638000000.0 0.3616 -0.7379
5641000000.0 -0.3753 -0.7543
5644000000.0 -0.8484 -0.1807
5647000000.0 -0.6535 0.5309
5650000000.0 0.01297 0.8392
5653000000.0 0.6622 0.5374
5656000000.0 0.8412 -0.1717
5659000000.0 0.3775 -0.8129
5662000000.0 -0.3715 -0.821
5666000000.0 -0.8687 -0.2152
5669000000.0 -0.7357 0.5721
5672000000.0 -0.01587 0.9355
5675000000.0 0.7421 0.6311
5678000000.0 0.9542 -0.205
5681000000.0 0.456 -0.8627
5684000000.0 -0.3642 -0.9168
5688000000.0 -0.9604 -0.2611
5691000000.0 -0.8303 0.5944
5694000000.0 -0.07051 1.021
5697000000.0 0.759 0.6798
5700000000.0 1.043 -0.1051
5703000000.0 0.5519 -0.9017
5706000000.0 -0.3025 -1.012
5709000000.0 -1.045 -0.3518
5712000000.0 -0.9523 0.5277
5716000000.0 -0.1844 1.065
5719000000.0 0.7152 0.786
5722000000.0 1.077 -0.02576
5725000000.0 0.6833 -0.8881
5728000000.0 -0.2294 -1.104
5731000000.0 -0.9789 -0.5349
5734000000.0 -1.027 0.4188
5738000000.0 -0.3368 1.058
5741000000.0 0.604 0.9555
5744000000.0 1.146 0.1309
5747000000.0 0.7982 -0.8086
5750000000.0 -0.1032 -1.117
5753000000.0 -0.8857 -0.6621
5756000000.0 -1.085 0.2823
5759000000.0 -0.4662 1.042
5762000000.0 0.506 0.9801
5766000000.0 1.063 0.2414
5769000000.0 0.9028 -0.6852
5772000000.0 0.04556 -1.087
5775000000.0 -0.8145 -0.7547
5778000000.0 -1.103 0.1806
5781000000.0 -0.5826 0.9314
5784000000.0 0.3515 1.013
5788000000.0 0.9917 0.395
5791000000.0 0.917 -0.5466
5794000000.0 0.1441 -1.025
5797000000.0 -0.7113 -0.7719
5800000000.0 -1.044 0.06458
5803000000.0 -0.5923 0.8498
5806000000.0 0.2845 0.9811
5809000000.0 0.9594 0.4195
5812000000.0 0.932 -0.4524
5816000000.0 0.1821 -0.9633
5819000000.0 -0.6163 -0.7417
5822000000.0 -0.9981 0.01511
5825000000.0 -0.5754 0.7334
5828000000.0 0.2318 0.876
5831000000.0 0.8376 0.3589
5834000000.0 0.8003 -0.42
5838000000.0 0.2059 -0.9073
5841000000.0 -0.5942 -0.73
5844000000.0 -0.8855 0.0251
5847000000.0 -0.5742 0.7132
5850000000.0 0.2369 0.9086
5853000000.0 0.8041 0.3772
5856000000.0 0.7743 -0.4127
5859000000.0 0.1717 -0.8505
5862000000.0 -0.5835 -0.663
5866000000.0 -0.8733 0.02599
5869000000.0 -0.518 0.7195
5872000000.0 0.242 0.8646
5875000000.0 0.8244 0.3401
5878000000.0 0.7635 -0.4068
5881000000.0 0.1688 -0.8521
5884000000.0 -0.5626 -0.6439
5888000000.0 -0.8778 0.0368
5891000000.0 -0.5711 0.6868
5894000000.0 0.2185 0.8665
5897000000.0 0.8219 0.3901
5900000000.0 0.814 -0.353
5903000000.0 0.2263 -0.8629
5906000000.0 -0.5326 -0.7358
5909000000.0 -0.9173 -0.03371
5912000000.0 -0.6341 0.6881
5916000000.0 0.1385 0.9165
5919000000.0 0.7945 0.4613
5922000000.0 0.9048 -0.2976
5925000000.0 0.3071 -0.8594
5928000000.0 -0.5218 -0.8142
5931000000.0 -0.9453 -0.1355
5934000000.0 -0.7115 0.6391
5938000000.0 0.07856 0.9605
5941000000.0 0.7879 0.5751
5944000000.0 0.9555 -0.2391
5947000000.0 0.4148 -0.8898
5950000000.0 -0.4048 -0.9108
5953000000.0 -0.9632 -0.2536
5956000000.0 -0.7957 0.5883
5959000000.0 -0.03226 1.019
5962000000.0 0.7601 0.688
5966000000.0 1.032 -0.1308
5969000000.0 0.5417 -0.9034
5972000000.0 -0.3393 -0.9724
5975000000.0 -0.988 -0.3401
5978000000.0 -0.8581 0.5505
5981000000.0 -0.1631 1.022
5984000000.0 0.6965 0.7581
5988000000.0 1.017 -0.1277
5991000000.0 0.5788 -0.8428
5994000000.0 -0.2909 -0.9868
5997000000.0 -0.9372 -0.3684
6000000000.0 -0.8795 0.4882
6003000000.0 -0.1197 0.9669
6006000000.0 0.6535 0.709
6009000000.0 0.966 -0.08572
6012000000.0 0.5231 -0.7904
6016000000.0 -0.2542 -0.925
6019000000.0 -0.8704 -0.3101
6022000000.0 -0.8097 0.4696
6025000000.0 -0.1137 0.9123
6028000000.0 0.6255 0.6353
6031000000.0 0.8852 -0.08497
6034000000.0 0.4694 -0.7266
6038000000.0 -0.2756 -0.8081
6041000000.0 -0.8277 -0.2742
6044000000.0 -0.7342 0.4473
6047000000.0 -0.09501 0.8618
6050000000.0 0.6134 0.6157
6053000000.0 0.8364 -0.07918
6056000000.0 0.4171 -0.7452
6059000000.0 -0.2905 -0.7847
6062000000.0 -0.7808 -0.256
6066000000.0 -0.6712 0.4799
6069000000.0 -0.06202 0.8474
6072000000.0 0.6248 0.5734
6075000000.0 0.8532 -0.1055
6078000000.0 0.4473 -0.7617
6081000000.0 -0.3125 -0.8064
6084000000.0 -0.8221 -0.2493
6088000000.0 -0.7131 0.4935
6091000000.0 -0.0701 0.8868
6094000000.0 0.6456 0.575
6097000000.0 0.8686 -0.1339
6100000000.0 0.4503 -0.78
6103000000.0 -0.3507 -0.8499
6106000000.0 -0.9037 -0.2794
6109000000.0 -0.7574 0.5443
6112000000.0 -0.07119 0.9687
6116000000.0 0.7402 0.6729
6119000000.0 0.9716 -0.1555
6122000000.0 0.4749 -0.8699
6125000000.0 -0.4007 -0.9189
6128000000.0 -0.949 -0.2954
6131000000.0 -0.8289 0.6148
6134000000.0 -0.03985 1.05
6138000000.0 0.7691 0.6605
6141000000.0 1.01 -0.2063
6144000000.0 0.4725 -0.9075
6147000000.0 -0.4284 -0.9287
6150000000.0 -0.9919 -0.263
6153000000.0 -0.8012 0.5979
6156000000.0 -0.03445 1.017
6159000000.0 0.7857 0.6126
6162000000.0 1.01 -0.2262
6166000000.0 0.469 -0.9401
6169000000.0 -0.4109 -0.9029
6172000000.0 -0.9773 -0.2468
6175000000.0 -0.8137 0.6548
6178000000.0 0.02332 1.014
6181000000.0 0.7566 0.5982
6184000000.0 0.9477 -0.2471
6188000000.0 0.4004 -0.8653
6191000000.0 -0.4196 -0.8552
6194000000.0 -0.8961 -0.1632
6197000000.0 -0.677 0.6208
6200000000.0 0.06228 0.9012
6203000000.0 0.7347 0.5291
6206000000.0 0.848 -0.2156
6209000000.0 0.3306 -0.8006
6212000000.0 -0.4353 -0.7561
6216000000.0 -0.8293 -0.1033
6219000000.0 -0.5971 0.5986
6222000000.0 0.1213 0.8267
6225000000.0 0.6876 0.4307
6228000000.0 0.8111 -0.2578
6231000000.0 0.2694 -0.8488
6234000000.0 -0.4632 -0.6772
6238000000.0 -0.8288 -0.03191
6241000000.0 -0.5784 0.6093
6244000000.0 0.1527 0.8054
6247000000.0 0.7419 0.3847
6250000000.0 0.759 -0.3832
6253000000.0 0.1859 -0.8118
6256000000.0 -0.4988 -0.612
6259000000.0 -0.8304 0.05808
6262000000.0 -0.444 0.6707
6266000000.0 0.2664 0.7969
6269000000.0 0.7739 0.2977
