! Created with skrf 1.8.0 (http://scikit-rf.org).
# Hz S RI R 50.0 
!freq ReS11 ImS11
4000000000.0 -0.178 -1.446
4003000000.0 -1.284 -0.754
4006000000.0 -1.423 0.4752
4009000000.0 -0.5549 1.439
4012000000.0 0.7927 1.312
4016000000.0 1.554 0.2384
4019000000.0 1.147 -1.042
4022000000.0 -0.1082 -1.606
4025000000.0 -1.267 -0.8669
4028000000.0 -1.545 0.4467
4031000000.0 -0.5967 1.484
4034000000.0 0.7986 1.387
4038000000.0 1.638 0.2779
4041000000.0 1.173 -1.112
4044000000.0 -0.1386 -1.646
4047000000.0 -1.345 -0.9312
4050000000.0 -1.576 0.4147
4053000000.0 -0.6774 1.445
4056000000.0 0.7825 1.404
4059000000.0 1.565 0.3515
4062000000.0 1.271 -1.011
4066000000.0 0.06993 -1.681
4069000000.0 -1.196 -1.055
4072000000.0 -1.594 0.2964
4075000000.0 -0.8202 1.432
4078000000.0 0.5695 1.58
4081000000.0 1.545 0.5726
4084000000.0 1.425 -0.8273
4088000000.0 0.2386 -1.618
4091000000.0 -1.103 -1.256
4094000000.0 -1.634 0.05961
4097000000.0 -1.025 1.292
4100000000.0 0.3502 1.625
4103000000.0 1.427 0.6954
4106000000.0 1.428 -0.604
4109000000.0 0.4616 -1.47
4112000000.0 -0.8529 -1.327
4116000000.0 -1.521 -0.2014
4119000000.0 -1.168 0.9926
4122000000.0 0.009657 1.488
4125000000.0 1.141 0.9719
4128000000.0 1.472 -0.2303
4131000000.0 0.8131 -1.231
4134000000.0 -0.4436 -1.382
4138000000.0 -1.358 -0.6189
4141000000.0 -1.362 0.6212
4144000000.0 -0.3934 1.485
4147000000.0 0.8414 1.238
4150000000.0 1.503 0.1017
4153000000.0 1.082 -1.046
4156000000.0 -0.1131 -1.535
4159000000.0 -1.234 -0.8567
4162000000.0 -1.492 0.3752
4166000000.0 -0.675 1.377
4169000000.0 0.6043 1.39
4172000000.0 1.471 0.4031
4175000000.0 1.265 -0.8518
4178000000.0 0.143 -1.477
4181000000.0 -1.037 -1.079
4184000000.0 -1.496 0.09749
4188000000.0 -0.9092 1.211
4191000000.0 0.3754 1.524
4194000000.0 1.404 0.6914
4197000000.0 1.418 -0.663
4200000000.0 0.3921 -1.528
4203000000.0 -0.9647 -1.284
4206000000.0 -1.637 -0.06669
4209000000.0 -1.092 1.225
4212000000.0 0.3199 1.636
4216000000.0 1.504 0.7026
4219000000.0 1.515 -0.7188
4222000000.0 0.3491 -1.67
4225000000.0 -1.116 -1.271
4228000000.0 -1.681 0.0967
4231000000.0 -0.9308 1.402
4234000000.0 0.5396 1.593
4238000000.0 1.556 0.5321
4241000000.0 1.387 -0.9038
4244000000.0 0.101 -1.614
4247000000.0 -1.216 -1.017
4250000000.0 -1.574 0.3193
4253000000.0 -0.7032 1.392
4256000000.0 0.7165 1.449
4259000000.0 1.52 0.3344
4262000000.0 1.179 -0.9638
4266000000.0 -0.06217 -1.517
4269000000.0 -1.234 -0.8868
4272000000.0 -1.435 0.4272
4275000000.0 -0.5637 1.393
4278000000.0 0.7331 1.263
4281000000.0 1.448 0.1969
4284000000.0 1.005 -0.9831
4288000000.0 -0.1318 -1.416
4291000000.0 -1.15 -0.7758
4294000000.0 -1.276 0.4212
4297000000.0 -0.5105 1.216
4300000000.0 0.6339 1.134
4303000000.0 1.287 0.2226
4306000000.0 1.02 -0.8243
4309000000.0 0.02634 -1.263
4312000000.0 -0.9682 -0.84
4316000000.0 -1.275 0.196
4319000000.0 -0.6958 1.097
4322000000.0 0.4206 1.273
4325000000.0 1.236 0.5161
4328000000.0 1.168 -0.5998
4331000000.0 0.3139 -1.32
4334000000.0 -0.8261 -1.085
4338000000.0 -1.414 -0.09558
4341000000.0 -0.9499 1.077
4344000000.0 0.1965 1.398
4347000000.0 1.192 0.7601
4350000000.0 1.376 -0.4757
4353000000.0 0.4888 -1.338
4356000000.0 -0.6911 -1.259
4359000000.0 -1.425 -0.2433
4362000000.0 -1.086 0.9571
4366000000.0 0.02331 1.436
4369000000.0 1.135 0.9195
4372000000.0 1.421 -0.2584
4375000000.0 0.7027 -1.327
4378000000.0 -0.5365 -1.414
4381000000.0 -1.421 -0.4812
4384000000.0 -1.297 0.8351
4388000000.0 -0.1959 1.502
4391000000.0 1.095 1.131
4394000000.0 1.581 -0.116
4397000000.0 0.8816 -1.313
4400000000.0 -0.4717 -1.526
4403000000.0 -1.49 -0.5911
4406000000.0 -1.352 0.8105
4409000000.0 -0.2107 1.58
4412000000.0 1.123 1.134
4416000000.0 1.549 -0.1669
4419000000.0 0.8148 -1.301
4422000000.0 -0.528 -1.404
4425000000.0 -1.452 -0.466
4428000000.0 -1.245 0.8193
4431000000.0 -0.1046 1.468
4434000000.0 1.054 0.9611
4438000000.0 1.403 -0.2438
4441000000.0 0.6671 -1.244
4444000000.0 -0.5532 -1.29
4447000000.0 -1.347 -0.344
4450000000.0 -1.063 0.8583
4453000000.0 0.0387 1.31
4456000000.0 1.052 0.798
4459000000.0 1.266 -0.3369
4462000000.0 0.5052 -1.177
4466000000.0 -0.6319 -1.092
4469000000.0 -1.219 -0.1884
4472000000.0 -0.8789 0.837
4475000000.0 0.1445 1.204
4478000000.0 1.027 0.6266
4481000000.0 1.078 -0.4316
4484000000.0 0.348 -1.096
4488000000.0 -0.6439 -0.9246
4491000000.0 -1.127 -0.09591
4494000000.0 -0.7639 0.8367
4497000000.0 0.1679 1.117
4500000000.0 0.987 0.5537
4503000000.0 1.034 -0.3946
4506000000.0 0.3418 -1.038
4509000000.0 -0.5986 -0.8851
4512000000.0 -1.11 -0.1122
4516000000.0 -0.7712 0.8081
4519000000.0 0.1393 1.109
4522000000.0 0.9542 0.6323
4525000000.0 1.08 -0.3429
4528000000.0 0.4282 -1.058
4531000000.0 -0.5505 -0.9953
4534000000.0 -1.155 -0.2261
4538000000.0 -0.8761 0.7681
4541000000.0 -0.0005071 1.156
4544000000.0 0.9243 0.7375
4547000000.0 1.166 -0.2619
4550000000.0 0.5764 -1.058
4553000000.0 -0.478 -1.145
4556000000.0 -1.167 -0.3935
4559000000.0 -1.033 0.6577
4562000000.0 -0.2062 1.212
4566000000.0 0.8365 0.935
4569000000.0 1.25 -0.03651
4572000000.0 0.7996 -1.016
4575000000.0 -0.2729 -1.254
4578000000.0 -1.138 -0.5996
4581000000.0 -1.225 0.4883
4584000000.0 -0.4026 1.254
4588000000.0 0.7125 1.15
4591000000.0 1.359 0.168
4594000000.0 1.01 -0.9237
4597000000.0 -0.1076 -1.362
4600000000.0 -1.141 -0.8168
4603000000.0 -1.351 0.364
4606000000.0 -0.582 1.262
4609000000.0 0.6004 1.258
4612000000.0 1.379 0.3263
4616000000.0 1.097 -0.8721
4619000000.0 0.03445 -1.408
4622000000.0 -1.047 -0.9007
4625000000.0 -1.398 0.2342
4628000000.0 -0.6606 1.216
4631000000.0 0.5211 1.317
4634000000.0 1.304 0.4228
4638000000.0 1.121 -0.7831
4641000000.0 0.1097 -1.355
4644000000.0 -0.9992 -0.9436
4647000000.0 -1.351 0.1737
4650000000.0 -0.6553 1.149
4653000000.0 0.4521 1.255
4656000000.0 1.265 0.371
4659000000.0 1.048 -0.711
4662000000.0 0.08797 -1.268
4666000000.0 -0.9233 -0.8673
4669000000.0 -1.226 0.1943
4672000000.0 -0.6121 1.042
4675000000.0 0.4592 1.12
4678000000.0 1.146 0.3289
4681000000.0 0.9473 -0.6778
4684000000.0 0.08782 -1.13
4688000000.0 -0.8479 -0.7719
4691000000.0 -1.097 0.1914
4694000000.0 -0.5615 0.9759
4697000000.0 0.4159 0.9911
4700000000.0 1.043 0.3167
4703000000.0 0.8892 -0.6282
4706000000.0 0.08138 -1.094
4709000000.0 -0.8182 -0.6957
4712000000.0 -1.082 0.2153
4716000000.0 -0.4946 0.9727
4719000000.0 0.4445 0.987
4722000000.0 1.032 0.2909
4725000000.0 0.8334 -0.6264
4728000000.0 0.02771 -1.025
4731000000.0 -0.7714 -0.7214
4734000000.0 -1.012 0.1643
4738000000.0 -0.5129 0.874
4741000000.0 0.3859 0.9589
4744000000.0 1.026 0.363
4747000000.0 0.9067 -0.5008
4750000000.0 0.1868 -1.025
4753000000.0 -0.7015 -0.8187
4756000000.0 -1.065 0.03159
4759000000.0 -0.7043 0.8293
4762000000.0 0.2196 1.056
4766000000.0 0.9941 0.5312
4769000000.0 1.013 -0.4426
4772000000.0 0.3393 -1.09
4775000000.0 -0.6577 -0.9691
4778000000.0 -1.15 -0.1337
4781000000.0 -0.89 0.7921
4784000000.0 0.06214 1.202
4788000000.0 0.9636 0.7193
4791000000.0 1.197 -0.2756
4794000000.0 0.5704 -1.102
4797000000.0 -0.4793 -1.152
4800000000.0 -1.171 -0.3655
4803000000.0 -1.053 0.6522
4806000000.0 -0.1808 1.237
4809000000.0 0.8597 0.9498
4812000000.0 1.278 -0.0249
4816000000.0 0.7961 -1.055
4819000000.0 -0.269 -1.293
4822000000.0 -1.17 -0.6182
4825000000.0 -1.27 0.5346
4828000000.0 -0.4047 1.329
4831000000.0 0.7545 1.147
4834000000.0 1.387 0.1314
4838000000.0 1.004 -0.9877
4841000000.0 -0.133 -1.39
4844000000.0 -1.164 -0.7727
4847000000.0 -1.324 0.4106
4850000000.0 -0.5243 1.284
4853000000.0 0.6499 1.214
4856000000.0 1.345 0.2612
4859000000.0 1.066 -0.8651
4862000000.0 -0.001069 -1.378
4866000000.0 -1.061 -0.8569
4869000000.0 -1.286 0.279
4872000000.0 -0.619 1.196
4875000000.0 0.5531 1.219
4878000000.0 1.277 0.332
4881000000.0 1.029 -0.7573
4884000000.0 0.04299 -1.275
4888000000.0 -0.9299 -0.8075
4891000000.0 -1.173 0.225
4894000000.0 -0.5468 1.049
4897000000.0 0.4233 1.069
4900000000.0 1.108 0.324
4903000000.0 0.9429 -0.6392
4906000000.0 0.0886 -1.109
4909000000.0 -0.7598 -0.7246
4912000000.0 -1.05 0.1429
4916000000.0 -0.5541 0.8662
4919000000.0 0.3269 0.9562
4922000000.0 0.9229 0.3516
4925000000.0 0.8379 -0.4985
4928000000.0 0.1614 -0.9684
4931000000.0 -0.6278 -0.6944
4934000000.0 -0.9399 0.01204
4938000000.0 -0.5532 0.7341
4941000000.0 0.2123 0.9087
4944000000.0 0.8518 0.3975
4947000000.0 0.8518 -0.396
4950000000.0 0.235 -0.9003
4953000000.0 -0.5812 -0.7711
4956000000.0 -0.9788 -0.04536
4959000000.0 -0.6515 0.7306
4962000000.0 0.1645 0.9919
4966000000.0 0.8749 0.499
4969000000.0 0.9258 -0.3426
4972000000.0 0.3283 -0.9498
4975000000.0 -0.5495 -0.8552
4978000000.0 -1.038 -0.1055
4981000000.0 -0.7764 0.6928
4984000000.0 0.04464 1.027
4988000000.0 0.8471 0.6079
4991000000.0 1.009 -0.252
4994000000.0 0.4621 -0.9918
4997000000.0 -0.4688 -1.018
5000000000.0 -1.064 -0.2844
5003000000.0 -0.9457 0.6383
5006000000.0 -0.08396 1.158
5009000000.0 0.846 0.8041
5012000000.0 1.192 -0.1143
5016000000.0 0.6768 -1.038
5019000000.0 -0.3747 -1.176
5022000000.0 -1.176 -0.47
5025000000.0 -1.091 0.5988
5028000000.0 -0.227 1.262
5031000000.0 0.8189 1.006
5034000000.0 1.306 -0.001004
5038000000.0 0.8342 -0.9927
5041000000.0 -0.2702 -1.241
5044000000.0 -1.107 -0.6187
5047000000.0 -1.215 0.4629
5050000000.0 -0.407 1.236
5053000000.0 0.6712 1.127
5056000000.0 1.273 0.1888
5059000000.0 0.9617 -0.8285
5062000000.0 -0.009203 -1.31
5066000000.0 -1.031 -0.8084
5069000000.0 -1.282 0.2487
5072000000.0 -0.6044 1.165
5075000000.0 0.4921 1.192
5078000000.0 1.216 0.3706
5081000000.0 1.054 -0.6723
5084000000.0 0.1546 -1.223
5088000000.0 -0.8505 -0.8858
5091000000.0 -1.21 0.08929
5094000000.0 -0.7197 0.9697
5097000000.0 0.2845 1.135
5100000000.0 1.022 0.4778
5103000000.0 1.046 -0.4658
5106000000.0 0.323 -1.118
5109000000.0 -0.5612 -0.9341
5112000000.0 -1.052 -0.1058
5116000000.0 -0.773 0.7562
5119000000.0 0.05443 1.07
5122000000.0 0.8186 0.6583
5125000000.0 1.036 -0.223
5128000000.0 0.484 -0.9002
5131000000.0 -0.4479 -0.9407
5134000000.0 -0.9823 -0.2434
5138000000.0 -0.834 0.5839
5141000000.0 -0.07536 0.9621
5144000000.0 0.6757 0.6598
5147000000.0 0.9195 -0.1624
5150000000.0 0.4973 -0.7982
5153000000.0 -0.3003 -0.8932
5156000000.0 -0.8583 -0.3234
5159000000.0 -0.7882 0.4709
5162000000.0 -0.1408 0.9108
5166000000.0 0.606 0.675
5169000000.0 0.9145 -0.05857
5172000000.0 0.5287 -0.7058
5175000000.0 -0.2378 -0.9042
5178000000.0 -0.8241 -0.3703
5181000000.0 -0.8366 0.4303
5184000000.0 -0.1765 0.9003
5188000000.0 0.5633 0.6725
5191000000.0 0.912 -0.01836
5194000000.0 0.537 -0.7243
5197000000.0 -0.2434 -0.8949
5200000000.0 -0.8595 -0.437
5203000000.0 -0.846 0.4053
5206000000.0 -0.1725 0.9277
5209000000.0 0.6158 0.7458
5212000000.0 0.9448 0.001889
5216000000.0 0.6073 -0.7942
5219000000.0 -0.2017 -0.957
5222000000.0 -0.8781 -0.4409
5225000000.0 -0.9063 0.4026
5228000000.0 -0.3027 0.9802
5231000000.0 0.5841 0.8161
5234000000.0 1.032 0.06652
5238000000.0 0.7069 -0.7702
5241000000.0 -0.1294 -1.013
5244000000.0 -0.8915 -0.5692
5247000000.0 -1.025 0.3244
5250000000.0 -0.4078 0.9933
5253000000.0 0.5342 0.9331
5256000000.0 1.063 0.2242
5259000000.0 0.8603 -0.6749
5262000000.0 0.01662 -1.08
5266000000.0 -0.827 -0.7362
5269000000.0 -1.054 0.1587
5272000000.0 -0.5694 0.956
5275000000.0 0.3567 1.041
5278000000.0 1.051 0.3968
5281000000.0 0.9695 -0.5341
5284000000.0 0.2564 -1.074
5288000000.0 -0.6463 -0.889
5291000000.0 -1.118 -0.0566
5294000000.0 -0.7846 0.822
5297000000.0 0.1212 1.11
5300000000.0 0.9449 0.6485
5303000000.0 1.064 -0.3
5306000000.0 0.464 -1.04
5309000000.0 -0.4974 -1.014
5312000000.0 -1.102 -0.3054
5316000000.0 -0.9389 0.6842
5319000000.0 -0.1153 1.163
5322000000.0 0.8312 0.8168
5325000000.0 1.155 -0.09493
5328000000.0 0.6382 -0.9368
5331000000.0 -0.3022 -1.131
5334000000.0 -1.057 -0.4468
5338000000.0 -1.02 0.4697
5341000000.0 -0.2589 1.14
5344000000.0 0.6974 0.9235
5347000000.0 1.134 0.05183
5350000000.0 0.7571 -0.8155
5353000000.0 -0.1759 -1.089
5356000000.0 -0.9272 -0.5589
5359000000.0 -1.035 0.3794
5362000000.0 -0.3579 1.009
5366000000.0 0.5589 0.9198
5369000000.0 1.058 0.1461
5372000000.0 0.747 -0.7323
5375000000.0 -0.1152 -1.054
5378000000.0 -0.8614 -0.5728
5381000000.0 -0.9863 0.3195
5384000000.0 -0.3484 0.9317
5388000000.0 0.5238 0.8348
5391000000.0 0.9563 0.1137
5394000000.0 0.6831 -0.6851
5397000000.0 -0.1271 -0.9357
5400000000.0 -0.8037 -0.4708
5403000000.0 -0.8685 0.3096
5406000000.0 -0.2841 0.8694
5409000000.0 0.4638 0.7572
5412000000.0 0.8967 0.05937
5416000000.0 0.6193 -0.6201
5419000000.0 -0.1029 -0.867
5422000000.0 -0.7676 -0.4363
5425000000.0 -0.8214 0.3165
5428000000.0 -0.2823 0.808
5431000000.0 0.4862 0.7439
5434000000.0 0.8623 0.08081
5438000000.0 0.6082 -0.6298
5441000000.0 -0.1236 -0.8728
5444000000.0 -0.7395 -0.4699
5447000000.0 -0.8327 0.335
5450000000.0 -0.2722 0.8423
5453000000.0 0.4786 0.7819
5456000000.0 0.8661 0.1022
5459000000.0 0.6392 -0.6068
5462000000.0 -0.04871 -0.8827
5466000000.0 -0.7307 -0.5181
5469000000.0 -0.8869 0.2332
5472000000.0 -0.3875 0.8323
5475000000.0 0.4169 0.8404
5478000000.0 0.8584 0.2611
5481000000.0 0.7622 -0.5605
5484000000.0 0.07622 -0.9885
5488000000.0 -0.709 -0.6899
5491000000.0 -1.026 0.08505
5494000000.0 -0.527 0.7969
5497000000.0 0.2668 0.9584
5500000000.0 0.9244 0.3934
5503000000.0 0.8953 -0.4364
5506000000.0 0.2315 -0.9781
5509000000.0 -0.5634 -0.8395
5512000000.0 -1.027 -0.06251
5516000000.0 -0.7204 0.7304
5519000000.0 0.1031 1.035
5522000000.0 0.8571 0.6078
5525000000.0 1.015 -0.281
5528000000.0 0.4394 -0.9073
5531000000.0 -0.4402 -0.9291
5534000000.0 -0.9915 -0.2844
5538000000.0 -0.8778 0.6018
5541000000.0 -0.08131 1.079
5544000000.0 0.7737 0.755
5547000000.0 1.066 -0.1164
5550000000.0 0.6381 -0.8662
5553000000.0 -0.2922 -1.011
5556000000.0 -0.9632 -0.4118
5559000000.0 -0.9381 0.4753
5562000000.0 -0.2417 1.005
5566000000.0 0.6373 0.8333
5569000000.0 1.074 0.06261
5572000000.0 0.697 -0.7472
5575000000.0 -0.1443 -0.9704
5578000000.0 -0.8459 -0.5415
5581000000.0 -0.9322 0.3381
5584000000.0 -0.3597 0.9513
5588000000.0 0.4728 0.8462
5591000000.0 0.9673 0.1822
5594000000.0 0.7286 -0.622
5597000000.0 -0.006975 -0.9447
5600000000.0 -0.7347 -0.5838
5603000000.0 -0.9133 0.1979
5606000000.0 -0.3936 0.8519
5609000000.0 0.3647 0.8118
5612000000.0 0.8627 0.2237
5616000000.0 0.7221 -0.5191
5619000000.0 0.06058 -0.8589
5622000000.0 -0.6383 -0.5812
5625000000.0 -0.8646 0.1131
5628000000.0 -0.4047 0.7331
5631000000.0 0.298 0.7937
5634000000.0 0.7863 0.2631
5638000000.0 0.7083 -0.4756
5641000000.0 0.1261 -0.8371
5644000000.0 -0.5904 -0.5847
5647000000.0 -0.8348 0.1087
5650000000.0 -0.4563 0.7214
5653000000.0 0.2927 0.7876
5656000000.0 0.8265 0.2726
5659000000.0 0.7158 -0.4459
5662000000.0 0.1172 -0.8513
5666000000.0 -0.624 -0.5978
5669000000.0 -0.8717 0.1017
5672000000.0 -0.4504 0.7471
5675000000.0 0.2933 0.8538
5678000000.0 0.8596 0.2884
5681000000.0 0.7778 -0.4831
5684000000.0 0.1175 -0.936
5688000000.0 -0.6356 -0.6661
5691000000.0 -0.9471 0.06366
5694000000.0 -0.5409 0.7793
5697000000.0 0.2987 0.921
5700000000.0 0.9268 0.3798
5703000000.0 0.8654 -0.469
5706000000.0 0.2035 -0.9922
5709000000.0 -0.6647 -0.7739
5712000000.0 -0.9963 0.05623
5716000000.0 -0.6366 0.8515
5719000000.0 0.256 1.051
5722000000.0 0.9496 0.4911
5725000000.0 0.9946 -0.43
5728000000.0 0.2938 -1.017
5731000000.0 -0.5956 -0.8717
5734000000.0 -1.064 -0.1165
5738000000.0 -0.7796 0.7512
5741000000.0 0.09914 1.105
5744000000.0 0.8953 0.6174
5747000000.0 1.072 -0.2738
5750000000.0 0.4615 -1.007
5753000000.0 -0.4788 -1.011
5756000000.0 -1.089 -0.2659
5759000000.0 -0.8975 0.6686
5762000000.0 -0.06291 1.101
5766000000.0 0.796 0.742
5769000000.0 1.106 -0.1376
5772000000.0 0.6119 -0.9171
5775000000.0 -0.3272 -1.059
5778000000.0 -1.024 -0.3919
5781000000.0 -0.9638 0.5081
5784000000.0 -0.2797 1.077
5788000000.0 0.662 0.8764
5791000000.0 1.112 0.03923
5794000000.0 0.7399 -0.812
5797000000.0 -0.1299 -1.093
5800000000.0 -0.9028 -0.5608
5803000000.0 -1.021 0.3287
5806000000.0 -0.3695 0.9837
5809000000.0 0.5115 0.949
5812000000.0 1.021 0.2005
5816000000.0 0.7774 -0.7008
5819000000.0 -0.005887 -1.028
5822000000.0 -0.8169 -0.6239
5825000000.0 -0.9674 0.1782
5828000000.0 -0.4818 0.8924
5831000000.0 0.3841 0.9014
5834000000.0 0.9596 0.2767
5838000000.0 0.8025 -0.5587
5841000000.0 0.04879 -0.9659
5844000000.0 -0.6851 -0.6599
5847000000.0 -0.9655 0.106
5850000000.0 -0.5071 0.8277
5853000000.0 0.3046 0.9041
5856000000.0 0.887 0.3088
5859000000.0 0.793 -0.454
5862000000.0 0.09243 -0.8933
5866000000.0 -0.6055 -0.6604
5869000000.0 -0.9073 0.08245
5872000000.0 -0.5309 0.7604
5875000000.0 0.3073 0.8361
5878000000.0 0.8308 0.308
5881000000.0 0.741 -0.4611
5884000000.0 0.1143 -0.8497
5888000000.0 -0.6295 -0.63
5891000000.0 -0.8707 0.09853
5894000000.0 -0.5324 0.7176
5897000000.0 0.2182 0.8407
5900000000.0 0.7953 0.349
5903000000.0 0.7708 -0.4131
5906000000.0 0.1763 -0.8257
5909000000.0 -0.559 -0.667
5912000000.0 -0.8478 0.01977
5916000000.0 -0.565 0.6817
5919000000.0 0.1915 0.8511
5922000000.0 0.7586 0.4291
5925000000.0 0.8102 -0.3564
5928000000.0 0.2329 -0.8093
5931000000.0 -0.4702 -0.7167
5934000000.0 -0.8382 -0.08678
5938000000.0 -0.6235 0.6569
5941000000.0 0.07844 0.8961
5944000000.0 0.7707 0.5331
5947000000.0 0.8754 -0.2556
5950000000.0 0.374 -0.8241
5953000000.0 -0.3984 -0.8241
5956000000.0 -0.9173 -0.2087
5959000000.0 -0.7531 0.5253
5962000000.0 -0.1109 0.92
5966000000.0 0.6894 0.6537
5969000000.0 0.9584 -0.09599
5972000000.0 0.5457 -0.7748
5975000000.0 -0.2348 -0.9042
5978000000.0 -0.9052 -0.4036
5981000000.0 -0.8814 0.429
5984000000.0 -0.2426 0.9578
5988000000.0 0.5978 0.8088
5991000000.0 1.007 0.03944
5994000000.0 0.6693 -0.7344
5997000000.0 -0.1348 -1.003
6000000000.0 -0.8689 -0.5718
6003000000.0 -0.9553 0.3033
6006000000.0 -0.3604 0.934
6009000000.0 0.4835 0.8919
6012000000.0 0.9852 0.1631
6016000000.0 0.7711 -0.6627
6019000000.0 -0.009 -1.042
6022000000.0 -0.7758 -0.6078
6025000000.0 -0.9708 0.2056
6028000000.0 -0.4583 0.8867
6031000000.0 0.3936 0.8964
6034000000.0 0.9412 0.2761
6038000000.0 0.7999 -0.5571
6041000000.0 0.08392 -0.9563
6044000000.0 -0.6846 -0.6938
6047000000.0 -0.9528 0.1243
6050000000.0 -0.5075 0.8346
6053000000.0 0.2985 0.9026
6056000000.0 0.8732 0.3216
6059000000.0 0.8093 -0.4792
6062000000.0 0.1311 -0.9039
6066000000.0 -0.6302 -0.6489
6069000000.0 -0.9065 0.04662
6072000000.0 -0.5129 0.7493
6075000000.0 0.2698 0.8446
6078000000.0 0.8348 0.3464
6081000000.0 0.7525 -0.4062
6084000000.0 0.1709 -0.8581
6088000000.0 -0.5755 -0.6696
6091000000.0 -0.8627 -3.716e-05
6094000000.0 -0.5342 0.676
6097000000.0 0.1899 0.8375
6100000000.0 0.7864 0.3507
6103000000.0 0.7899 -0.3725
6106000000.0 0.2047 -0.8148
6109000000.0 -0.5227 -0.6718
6112000000.0 -0.8394 -0.02898
6116000000.0 -0.5372 0.6796
6119000000.0 0.1687 0.8661
6122000000.0 0.7552 0.4171
6125000000.0 0.7883 -0.3554
6128000000.0 0.2388 -0.8403
6131000000.0 -0.5149 -0.7074
6134000000.0 -0.877 -0.05434
6138000000.0 -0.5893 0.6444
6141000000.0 0.1071 0.8629
6144000000.0 0.7398 0.4666
6147000000.0 0.829 -0.29
6150000000.0 0.3217 -0.8455
6153000000.0 -0.4507 -0.754
6156000000.0 -0.9164 -0.09946
6159000000.0 -0.6783 0.6106
6162000000.0 0.05526 0.9084
6166000000.0 0.7381 0.5365
6169000000.0 0.9175 -0.2228
6172000000.0 0.3881 -0.8487
6175000000.0 -0.4038 -0.8428
6178000000.0 -0.9487 -0.2149
6181000000.0 -0.7296 0.5653
6184000000.0 -0.02351 0.9543
6188000000.0 0.7058 0.6074
6191000000.0 0.9368 -0.1602
6194000000.0 0.4515 -0.8516
6197000000.0 -0.3455 -0.8842
6200000000.0 -0.8985 -0.3077
6203000000.0 -0.7842 0.5223
6206000000.0 -0.1176 0.9219
6209000000.0 0.6332 0.6603
6212000000.0 0.9184 -0.0619
6216000000.0 0.5671 -0.7553
6219000000.0 -0.2673 -0.9128
6222000000.0 -0.8208 -0.3816
6225000000.0 -0.8315 0.4204
6228000000.0 -0.2371 0.8951
6231000000.0 0.5282 0.7376
6234000000.0 0.8897 0.06469
6238000000.0 0.5935 -0.655
6241000000.0 -0.09163 -0.8694
6244000000.0 -0.7388 -0.4759
6247000000.0 -0.8268 0.2653
6250000000.0 -0.3229 0.7936
6253000000.0 0.3727 0.7244
6256000000.0 0.8062 0.1691
6259000000.0 0.6582 -0.4834
6262000000.0 0.03229 -0.8494
6266000000.0 -0.6203 -0.5356
