! Created with skrf 1.8.0 (http://scikit-rf.org).
# Hz S RI R 50.0 
!freq ReS11 ImS11
4000000000.0 -0.3026 -1.493
4003000000.0 -1.269 -0.7486
4006000000.0 -1.408 0.555
4009000000.0 -0.401 1.414
4012000000.0 0.8213 1.207
4016000000.0 1.543 0.1108
4019000000.0 1.072 -1.069
4022000000.0 -0.2081 -1.549
4025000000.0 -1.366 -0.8139
4028000000.0 -1.485 0.5589
4031000000.0 -0.4822 1.518
4034000000.0 0.8699 1.354
4038000000.0 1.611 0.1348
4041000000.0 1.074 -1.177
4044000000.0 -0.2623 -1.652
4047000000.0 -1.368 -0.8197
4050000000.0 -1.556 0.5663
4053000000.0 -0.5349 1.542
4056000000.0 0.8762 1.377
4059000000.0 1.604 0.2511
4062000000.0 1.212 -1.089
4066000000.0 -0.09836 -1.61
4069000000.0 -1.303 -0.964
4072000000.0 -1.585 0.4073
4075000000.0 -0.7384 1.454
4078000000.0 0.6394 1.472
4081000000.0 1.568 0.4363
4084000000.0 1.349 -0.9261
4088000000.0 0.1532 -1.615
4091000000.0 -1.186 -1.139
4094000000.0 -1.596 0.1792
4097000000.0 -0.9043 1.373
4100000000.0 0.4756 1.534
4103000000.0 1.469 0.5831
4106000000.0 1.392 -0.7459
4109000000.0 0.3226 -1.508
4112000000.0 -0.8673 -1.252
4116000000.0 -1.511 -0.1145
4119000000.0 -1.059 1.054
4122000000.0 0.1041 1.466
4125000000.0 1.156 0.8776
4128000000.0 1.446 -0.3559
4131000000.0 0.7009 -1.286
4134000000.0 -0.5449 -1.37
4138000000.0 -1.36 -0.5029
4141000000.0 -1.26 0.7546
4144000000.0 -0.2832 1.463
4147000000.0 0.9612 1.134
4150000000.0 1.499 0.09767
4153000000.0 0.9942 -1.116
4156000000.0 -0.2267 -1.495
4159000000.0 -1.268 -0.7795
4162000000.0 -1.421 0.4561
4166000000.0 -0.5573 1.426
4169000000.0 0.7489 1.31
4172000000.0 1.49 0.2853
4175000000.0 1.169 -0.9308
4178000000.0 0.06152 -1.484
4181000000.0 -1.091 -0.9828
4184000000.0 -1.486 0.22
4188000000.0 -0.7654 1.307
4191000000.0 0.5325 1.431
4194000000.0 1.439 0.5121
4197000000.0 1.331 -0.809
4200000000.0 0.2106 -1.544
4203000000.0 -1.074 -1.178
4206000000.0 -1.612 0.1799
4209000000.0 -0.8788 1.365
4212000000.0 0.5834 1.537
4216000000.0 1.566 0.5348
4219000000.0 1.385 -0.9223
4222000000.0 0.04421 -1.667
4225000000.0 -1.257 -1.075
4228000000.0 -1.63 0.3363
4231000000.0 -0.6587 1.536
4234000000.0 0.7851 1.419
4238000000.0 1.592 0.2585
4241000000.0 1.099 -1.098
4244000000.0 -0.1607 -1.569
4247000000.0 -1.32 -0.7899
4250000000.0 -1.456 0.5787
4253000000.0 -0.4414 1.471
4256000000.0 0.8804 1.241
4259000000.0 1.471 0.05704
4262000000.0 0.9951 -1.14
4266000000.0 -0.318 -1.453
4269000000.0 -1.326 -0.6336
4272000000.0 -1.306 0.6237
4275000000.0 -0.3077 1.415
4278000000.0 0.925 1.063
4281000000.0 1.395 -0.01574
4284000000.0 0.8271 -1.106
4288000000.0 -0.3527 -1.344
4291000000.0 -1.236 -0.5682
4294000000.0 -1.206 0.571
4297000000.0 -0.3077 1.321
4300000000.0 0.7825 1.048
4303000000.0 1.292 0.03797
4306000000.0 0.8519 -0.9365
4309000000.0 -0.157 -1.274
4312000000.0 -1.088 -0.6963
4316000000.0 -1.214 0.3699
4319000000.0 -0.4828 1.202
4322000000.0 0.5727 1.189
4325000000.0 1.295 0.3061
4328000000.0 1.088 -0.7814
4331000000.0 0.09794 -1.316
4334000000.0 -0.9764 -0.937
4338000000.0 -1.381 0.1327
4341000000.0 -0.7626 1.175
4344000000.0 0.3898 1.343
4347000000.0 1.302 0.5477
4350000000.0 1.273 -0.6666
4353000000.0 0.2701 -1.395
4356000000.0 -0.9121 -1.122
4359000000.0 -1.46 -0.04575
4362000000.0 -0.9548 1.103
4366000000.0 0.2531 1.465
4369000000.0 1.255 0.7581
4372000000.0 1.391 -0.5287
4375000000.0 0.5 -1.394
4378000000.0 -0.7795 -1.279
4381000000.0 -1.473 -0.1943
4384000000.0 -1.129 1.037
4388000000.0 0.1177 1.55
4391000000.0 1.285 0.8579
4394000000.0 1.504 -0.4472
4397000000.0 0.6018 -1.48
4400000000.0 -0.7785 -1.357
4403000000.0 -1.565 -0.2366
4406000000.0 -1.125 1.098
4409000000.0 0.1552 1.562
4412000000.0 1.304 0.8399
4416000000.0 1.434 -0.5215
4419000000.0 0.4506 -1.441
4422000000.0 -0.8366 -1.201
4425000000.0 -1.444 -0.06818
4428000000.0 -0.9478 1.096
4431000000.0 0.288 1.379
4434000000.0 1.211 0.6587
4438000000.0 1.24 -0.5596
4441000000.0 0.2862 -1.307
4444000000.0 -0.838 -1.015
4447000000.0 -1.313 0.04394
4450000000.0 -0.779 1.034
4453000000.0 0.3272 1.23
4456000000.0 1.146 0.463
4459000000.0 1.043 -0.6583
4462000000.0 0.1205 -1.227
4466000000.0 -0.8571 -0.8419
4469000000.0 -1.177 0.136
4472000000.0 -0.6191 0.9972
4475000000.0 0.4527 1.069
4478000000.0 1.103 0.3404
4481000000.0 0.9605 -0.6719
4484000000.0 0.08451 -1.114
4488000000.0 -0.8364 -0.7454
4491000000.0 -1.146 0.1976
4494000000.0 -0.5203 1.025
4497000000.0 0.4413 1.056
4500000000.0 1.088 0.3093
4503000000.0 0.86 -0.6209
4506000000.0 0.08546 -1.112
4509000000.0 -0.8106 -0.7525
4512000000.0 -1.112 0.1351
4516000000.0 -0.6177 0.9545
4519000000.0 0.33 1.099
4522000000.0 1.091 0.4105
4525000000.0 1.005 -0.583
4528000000.0 0.1989 -1.175
4531000000.0 -0.8016 -0.8884
4534000000.0 -1.171 0.02995
4538000000.0 -0.709 0.9412
4541000000.0 0.2898 1.161
4544000000.0 1.078 0.5728
4547000000.0 1.125 -0.4598
4550000000.0 0.3757 -1.174
4553000000.0 -0.6559 -1.038
4556000000.0 -1.249 -0.1479
4559000000.0 -0.9367 0.8496
4562000000.0 0.06344 1.268
4566000000.0 1.026 0.782
4569000000.0 1.279 -0.2752
4572000000.0 0.593 -1.178
4575000000.0 -0.5134 -1.209
4578000000.0 -1.266 -0.3831
4581000000.0 -1.114 0.7497
4584000000.0 -0.1186 1.342
4588000000.0 0.9708 0.9694
4591000000.0 1.4 -0.1037
4594000000.0 0.7926 -1.126
4597000000.0 -0.3947 -1.321
4600000000.0 -1.293 -0.5435
4603000000.0 -1.23 0.6439
4606000000.0 -0.2977 1.388
4609000000.0 0.8575 1.088
4612000000.0 1.393 -0.01976
4616000000.0 0.8959 -1.088
4619000000.0 -0.3002 -1.372
4622000000.0 -1.241 -0.647
4625000000.0 -1.283 0.5528
4628000000.0 -0.3942 1.311
4631000000.0 0.7894 1.11
4634000000.0 1.35 0.06852
4638000000.0 0.8903 -0.9958
4641000000.0 -0.1911 -1.322
4644000000.0 -1.149 -0.6408
4647000000.0 -1.219 0.5025
4650000000.0 -0.3482 1.243
4653000000.0 0.7446 1.035
4656000000.0 1.25 0.00462
4659000000.0 0.7968 -0.933
4662000000.0 -0.2397 -1.215
4666000000.0 -1.075 -0.5556
4669000000.0 -1.071 0.4662
4672000000.0 -0.2893 1.138
4675000000.0 0.7107 0.8995
4678000000.0 1.133 0.04887
4681000000.0 0.7244 -0.8559
4684000000.0 -0.2339 -1.094
4688000000.0 -0.9817 -0.4506
4691000000.0 -0.9703 0.4322
4694000000.0 -0.2814 1.048
4697000000.0 0.6625 0.8603
4700000000.0 1.086 0.01394
4703000000.0 0.6663 -0.8095
4706000000.0 -0.206 -1.052
4709000000.0 -0.9747 -0.4813
4712000000.0 -0.9945 0.4234
4716000000.0 -0.2728 1.064
4719000000.0 0.6758 0.8485
4722000000.0 1.053 0.0385
4725000000.0 0.7158 -0.7867
4728000000.0 -0.223 -1.038
4731000000.0 -0.8964 -0.5096
4734000000.0 -0.9915 0.3799
4738000000.0 -0.318 1.002
4741000000.0 0.5889 0.9131
4744000000.0 1.066 0.1472
4747000000.0 0.7897 -0.714
4750000000.0 -0.07291 -1.089
4753000000.0 -0.858 -0.7041
4756000000.0 -1.109 0.2615
4759000000.0 -0.5408 0.9945
4762000000.0 0.445 1.074
4766000000.0 1.128 0.3594
4769000000.0 0.991 -0.6481
4772000000.0 0.1439 -1.191
4775000000.0 -0.8026 -0.8319
4778000000.0 -1.196 0.06822
4781000000.0 -0.7149 1.001
4784000000.0 0.2868 1.222
4788000000.0 1.116 0.5511
4791000000.0 1.147 -0.4871
4794000000.0 0.3646 -1.201
4797000000.0 -0.6714 -1.101
4800000000.0 -1.262 -0.1581
4803000000.0 -0.9389 0.8489
4806000000.0 0.05182 1.267
4809000000.0 1.043 0.7727
4812000000.0 1.279 -0.2515
4816000000.0 0.6175 -1.164
4819000000.0 -0.5194 -1.238
4822000000.0 -1.3 -0.3863
4825000000.0 -1.139 0.7572
4828000000.0 -0.1639 1.381
4831000000.0 0.972 0.9965
4834000000.0 1.395 -0.1445
4838000000.0 0.7615 -1.144
4841000000.0 -0.4042 -1.313
4844000000.0 -1.291 -0.5013
4847000000.0 -1.209 0.6656
4850000000.0 -0.2379 1.344
4853000000.0 0.8673 1.054
4856000000.0 1.339 -0.05571
4859000000.0 0.8081 -1.046
4862000000.0 -0.3054 -1.288
4866000000.0 -1.144 -0.5861
4869000000.0 -1.18 0.5347
4872000000.0 -0.3294 1.249
4875000000.0 0.7622 1.008
4878000000.0 1.239 0.05229
4881000000.0 0.8185 -0.9398
4884000000.0 -0.2094 -1.217
4888000000.0 -1.02 -0.5641
4891000000.0 -1.104 0.4583
4894000000.0 -0.3282 1.111
4897000000.0 0.627 0.9158
4900000000.0 1.077 0.0263
4903000000.0 0.7292 -0.7618
4906000000.0 -0.1475 -1.034
4909000000.0 -0.8813 -0.5324
4912000000.0 -0.9607 0.3346
4916000000.0 -0.3193 0.9146
4919000000.0 0.5397 0.8344
4922000000.0 0.9368 0.1348
4925000000.0 0.7218 -0.6533
4928000000.0 -0.05358 -0.9355
4931000000.0 -0.7723 -0.5463
4934000000.0 -0.8907 0.239
4938000000.0 -0.4003 0.8478
4941000000.0 0.3981 0.8657
4944000000.0 0.9277 0.2165
4947000000.0 0.7646 -0.5692
4950000000.0 0.04047 -0.9572
4953000000.0 -0.6996 -0.624
4956000000.0 -0.9356 0.1416
4959000000.0 -0.5071 0.8612
4962000000.0 0.3394 0.9183
4966000000.0 0.9392 0.2961
4969000000.0 0.8594 -0.5622
4972000000.0 0.1239 -1.024
4975000000.0 -0.7303 -0.7508
4978000000.0 -1.025 0.1015
4981000000.0 -0.6092 0.8641
4984000000.0 0.2696 1.037
4988000000.0 0.9763 0.4557
4991000000.0 1.004 -0.4752
4994000000.0 0.2717 -1.054
4997000000.0 -0.685 -0.9083
5000000000.0 -1.155 -0.04263
5003000000.0 -0.8039 0.8531
5006000000.0 0.1361 1.19
5009000000.0 1.028 0.6453
5012000000.0 1.148 -0.3871
5016000000.0 0.4698 -1.16
5019000000.0 -0.6033 -1.09
5022000000.0 -1.274 -0.2179
5025000000.0 -0.9718 0.8331
5028000000.0 0.02734 1.273
5031000000.0 1.035 0.7821
5034000000.0 1.263 -0.2575
5038000000.0 0.6242 -1.146
5041000000.0 -0.4934 -1.175
5044000000.0 -1.211 -0.3802
5047000000.0 -1.059 0.7002
5050000000.0 -0.1636 1.255
5053000000.0 0.8831 0.9465
5056000000.0 1.275 -0.03392
5059000000.0 0.7518 -1.018
5062000000.0 -0.3057 -1.225
5066000000.0 -1.135 -0.5717
5069000000.0 -1.164 0.4783
5072000000.0 -0.3715 1.187
5075000000.0 0.6744 1.03
5078000000.0 1.253 0.1217
5081000000.0 0.8631 -0.8455
5084000000.0 -0.1059 -1.17
5088000000.0 -0.9805 -0.6691
5091000000.0 -1.103 0.3221
5094000000.0 -0.4762 1.065
5097000000.0 0.4618 1.008
5100000000.0 1.076 0.2653
5103000000.0 0.8958 -0.6498
5106000000.0 0.07912 -1.079
5109000000.0 -0.7799 -0.7009
5112000000.0 -1.048 0.09444
5116000000.0 -0.5872 0.8582
5119000000.0 0.2745 0.9557
5122000000.0 0.9134 0.3884
5125000000.0 0.8764 -0.4913
5128000000.0 0.2068 -0.9826
5131000000.0 -0.6142 -0.7487
5134000000.0 -0.962 -0.004226
5138000000.0 -0.5835 0.7167
5141000000.0 0.1671 0.9184
5144000000.0 0.8479 0.4313
5147000000.0 0.8434 -0.3441
5150000000.0 0.2384 -0.8913
5153000000.0 -0.5659 -0.7246
5156000000.0 -0.8892 -0.06307
5159000000.0 -0.618 0.649
5162000000.0 0.1384 0.9004
5166000000.0 0.7662 0.4485
5169000000.0 0.8199 -0.2977
5172000000.0 0.2925 -0.8667
5175000000.0 -0.4942 -0.7725
5178000000.0 -0.8959 -0.1048
5181000000.0 -0.639 0.6704
5184000000.0 0.1054 0.9135
5188000000.0 0.7644 0.4766
5191000000.0 0.8736 -0.2932
5194000000.0 0.303 -0.8756
5197000000.0 -0.488 -0.8004
5200000000.0 -0.9595 -0.08922
5203000000.0 -0.6544 0.6645
5206000000.0 0.06555 0.9564
5209000000.0 0.8115 0.5279
5212000000.0 0.9367 -0.314
5216000000.0 0.3373 -0.9283
5219000000.0 -0.4868 -0.871
5222000000.0 -0.9858 -0.153
5225000000.0 -0.7754 0.647
5228000000.0 0.02579 1.017
5231000000.0 0.8116 0.6576
5234000000.0 1.022 -0.2288
5238000000.0 0.4912 -0.921
5241000000.0 -0.41 -0.9903
5244000000.0 -0.994 -0.2977
5247000000.0 -0.8666 0.5901
5250000000.0 -0.1206 1.068
5253000000.0 0.7422 0.7674
5256000000.0 1.083 -0.1187
5259000000.0 0.635 -0.8751
5262000000.0 -0.2635 -1.084
5266000000.0 -0.9759 -0.4716
5269000000.0 -0.9991 0.4447
5272000000.0 -0.3183 1.058
5275000000.0 0.6197 0.9313
5278000000.0 1.093 0.1128
5281000000.0 0.7811 -0.7432
5284000000.0 -0.06665 -1.098
5288000000.0 -0.8825 -0.6556
5291000000.0 -1.077 0.2646
5294000000.0 -0.506 0.9811
5297000000.0 0.4483 1.031
5300000000.0 1.06 0.3537
5303000000.0 0.9721 -0.6027
5306000000.0 0.1496 -1.112
5309000000.0 -0.7442 -0.8505
5312000000.0 -1.147 0.03875
5316000000.0 -0.7119 0.8855
5319000000.0 0.2627 1.094
5322000000.0 1.026 0.4991
5325000000.0 1.038 -0.4664
5328000000.0 0.3254 -1.088
5331000000.0 -0.6218 -0.9119
5334000000.0 -1.143 -0.07837
5338000000.0 -0.7574 0.8046
5341000000.0 0.1598 1.089
5344000000.0 0.9033 0.593
5347000000.0 1.001 -0.3547
5350000000.0 0.3698 -0.9812
5353000000.0 -0.5455 -0.9016
5356000000.0 -1.063 -0.14
5359000000.0 -0.7551 0.7054
5362000000.0 0.1098 1.023
5366000000.0 0.8725 0.5477
5369000000.0 0.9342 -0.2959
5372000000.0 0.3174 -0.9198
5375000000.0 -0.4902 -0.7936
5378000000.0 -0.9578 -0.0901
5381000000.0 -0.6341 0.6927
5384000000.0 0.1644 0.9178
5388000000.0 0.7791 0.4756
5391000000.0 0.8347 -0.3394
5394000000.0 0.2459 -0.8679
5397000000.0 -0.5337 -0.7221
5400000000.0 -0.8741 -0.01745
5403000000.0 -0.5516 0.6528
5406000000.0 0.1626 0.8587
5409000000.0 0.7407 0.3955
5412000000.0 0.7858 -0.3247
5416000000.0 0.2252 -0.8041
5419000000.0 -0.5079 -0.709
5422000000.0 -0.8611 -0.04471
5425000000.0 -0.569 0.6289
5428000000.0 0.1644 0.865
5431000000.0 0.7911 0.4199
5434000000.0 0.8189 -0.3407
5438000000.0 0.2719 -0.8425
5441000000.0 -0.531 -0.7176
5444000000.0 -0.8996 -0.04064
5447000000.0 -0.6352 0.6775
5450000000.0 0.1323 0.9119
5453000000.0 0.7967 0.4801
5456000000.0 0.8518 -0.3239
5459000000.0 0.3118 -0.8782
5462000000.0 -0.4466 -0.8092
5466000000.0 -0.9375 -0.2139
5469000000.0 -0.7495 0.618
5472000000.0 -0.01427 0.9755
5475000000.0 0.7405 0.6483
5478000000.0 0.9562 -0.15
5481000000.0 0.5151 -0.8741
5484000000.0 -0.347 -0.9609
5488000000.0 -0.9571 -0.3602
5491000000.0 -0.9073 0.541
5494000000.0 -0.1874 1.008
5497000000.0 0.671 0.809
5500000000.0 1.057 -0.02306
5503000000.0 0.6669 -0.8137
5506000000.0 -0.205 -1.069
5509000000.0 -0.9178 -0.5356
5512000000.0 -0.9805 0.3814
5516000000.0 -0.3121 1.013
5519000000.0 0.5259 0.922
5522000000.0 1.058 0.1642
5525000000.0 0.8006 -0.7149
5528000000.0 -0.0582 -1.081
5531000000.0 -0.837 -0.6354
5534000000.0 -1.055 0.2523
5538000000.0 -0.4912 0.9439
5541000000.0 0.4245 0.9952
5544000000.0 1.029 0.3282
5547000000.0 0.8771 -0.5997
5550000000.0 0.0676 -1.038
5553000000.0 -0.7203 -0.6946
5556000000.0 -1.044 0.1623
5559000000.0 -0.5569 0.861
5562000000.0 0.2976 0.9948
5566000000.0 0.9015 0.3608
5569000000.0 0.8877 -0.5079
5572000000.0 0.1726 -0.9671
5575000000.0 -0.6362 -0.724
5578000000.0 -0.9378 0.04453
5581000000.0 -0.5582 0.7157
5584000000.0 0.1917 0.8652
5588000000.0 0.8058 0.3681
5591000000.0 0.773 -0.3918
5594000000.0 0.1903 -0.8206
5597000000.0 -0.5138 -0.6779
5600000000.0 -0.8671 -0.0006358
5603000000.0 -0.5257 0.6203
5606000000.0 0.2048 0.8089
5609000000.0 0.716 0.3655
5612000000.0 0.7522 -0.3598
5616000000.0 0.1914 -0.7856
5619000000.0 -0.5047 -0.6441
5622000000.0 -0.8076 0.02365
5625000000.0 -0.5254 0.6192
5628000000.0 0.1801 0.7831
5631000000.0 0.7272 0.3608
5634000000.0 0.7488 -0.353
5638000000.0 0.1961 -0.8052
5641000000.0 -0.517 -0.657
5644000000.0 -0.8101 -0.0248
5647000000.0 -0.5481 0.6632
5650000000.0 0.1498 0.8337
5653000000.0 0.7867 0.3812
5656000000.0 0.789 -0.376
5659000000.0 0.2241 -0.8701
5662000000.0 -0.5418 -0.71
5666000000.0 -0.9241 -0.02294
5669000000.0 -0.595 0.7146
5672000000.0 0.1726 0.9455
5675000000.0 0.8471 0.46
5678000000.0 0.8917 -0.3932
5681000000.0 0.2332 -0.9457
5684000000.0 -0.5771 -0.8205
5688000000.0 -0.9978 -0.09419
5691000000.0 -0.7134 0.7865
5694000000.0 0.1853 1.045
5697000000.0 0.9017 0.5632
5700000000.0 1.003 -0.3614
5703000000.0 0.3924 -1.011
5706000000.0 -0.5451 -0.9359
5709000000.0 -1.091 -0.16
5712000000.0 -0.8359 0.758
5716000000.0 0.06923 1.116
5719000000.0 0.8753 0.656
5722000000.0 1.059 -0.2664
5725000000.0 0.4772 -0.9862
5728000000.0 -0.4286 -1.008
5731000000.0 -1.094 -0.317
5734000000.0 -0.9382 0.6317
5738000000.0 -0.08484 1.125
5741000000.0 0.827 0.7896
5744000000.0 1.123 -0.1119
5747000000.0 0.6144 -0.9232
5750000000.0 -0.3546 -1.118
5753000000.0 -1.047 -0.4168
5756000000.0 -0.961 0.5301
5759000000.0 -0.1891 1.087
5762000000.0 0.7077 0.8711
5766000000.0 1.084 -0.04264
5769000000.0 0.6918 -0.8505
5772000000.0 -0.2392 -1.043
5775000000.0 -0.9512 -0.4698
5778000000.0 -0.967 0.4116
5781000000.0 -0.2653 1.037
5784000000.0 0.6219 0.837
5788000000.0 1.012 0.03455
5791000000.0 0.6781 -0.7648
5794000000.0 -0.1417 -1.032
5797000000.0 -0.8717 -0.5004
5800000000.0 -0.9131 0.3936
5803000000.0 -0.2997 0.9402
5806000000.0 0.5263 0.8009
5809000000.0 0.958 0.0556
5812000000.0 0.6341 -0.6815
5816000000.0 -0.1943 -0.939
5819000000.0 -0.8547 -0.438
5822000000.0 -0.8538 0.3684
5825000000.0 -0.2181 0.8902
5828000000.0 0.5512 0.7466
5831000000.0 0.8966 0.01012
5834000000.0 0.579 -0.6871
5838000000.0 -0.1842 -0.8952
5841000000.0 -0.788 -0.4031
5844000000.0 -0.8299 0.4001
5847000000.0 -0.1589 0.8796
5850000000.0 0.5583 0.6726
5853000000.0 0.8928 -0.01739
5856000000.0 0.5227 -0.6729
5859000000.0 -0.2165 -0.8278
5862000000.0 -0.819 -0.3454
5866000000.0 -0.7715 0.4197
5869000000.0 -0.1482 0.8763
5872000000.0 0.6013 0.6897
5875000000.0 0.9172 -0.06423
5878000000.0 0.5388 -0.7443
5881000000.0 -0.2211 -0.8242
5884000000.0 -0.8287 -0.3404
5888000000.0 -0.8146 0.385
5891000000.0 -0.164 0.8806
5894000000.0 0.5791 0.7182
5897000000.0 0.9236 -0.01594
5900000000.0 0.5692 -0.7452
5903000000.0 -0.2297 -0.9122
5906000000.0 -0.8432 -0.4173
5909000000.0 -0.8177 0.413
5912000000.0 -0.1994 0.8905
5916000000.0 0.555 0.7923
5919000000.0 0.9537 0.03815
5922000000.0 0.6466 -0.7348
5925000000.0 -0.185 -0.9697
5928000000.0 -0.8601 -0.4643
5931000000.0 -0.9079 0.3534
5934000000.0 -0.3031 0.9311
5938000000.0 0.5663 0.8498
5941000000.0 1.002 0.08836
5944000000.0 0.6978 -0.7057
5947000000.0 -0.106 -1.012
5950000000.0 -0.8489 -0.5428
5953000000.0 -0.9614 0.3259
5956000000.0 -0.3597 0.9753
5959000000.0 0.553 0.869
5962000000.0 1.028 0.1172
5966000000.0 0.7031 -0.7126
5969000000.0 -0.118 -1.01
5972000000.0 -0.8631 -0.5366
5975000000.0 -0.9559 0.3344
5978000000.0 -0.3203 0.9535
5981000000.0 0.5631 0.8218
5984000000.0 0.99 0.05051
5988000000.0 0.6638 -0.7464
5991000000.0 -0.1947 -0.9733
5994000000.0 -0.8434 -0.4578
5997000000.0 -0.8523 0.389
6000000000.0 -0.2126 0.9019
6003000000.0 0.5763 0.6859
6006000000.0 0.8938 -0.02239
6009000000.0 0.517 -0.716
6012000000.0 -0.265 -0.8424
6016000000.0 -0.8044 -0.2886
6019000000.0 -0.7224 0.4057
6022000000.0 -0.07964 0.8319
6025000000.0 0.6137 0.5758
6028000000.0 0.8132 -0.1094
6031000000.0 0.4317 -0.7293
6034000000.0 -0.3017 -0.7871
6038000000.0 -0.7828 -0.2249
6041000000.0 -0.6686 0.4683
6044000000.0 -0.02638 0.8205
6047000000.0 0.6472 0.5238
6050000000.0 0.8062 -0.1909
6053000000.0 0.3626 -0.7322
6056000000.0 -0.3925 -0.7626
6059000000.0 -0.842 -0.1469
6062000000.0 -0.6447 0.5639
6066000000.0 0.04161 0.8554
6069000000.0 0.7365 0.5244
6072000000.0 0.8625 -0.2572
6075000000.0 0.3327 -0.819
6078000000.0 -0.4559 -0.8006
6081000000.0 -0.922 -0.1171
6084000000.0 -0.6588 0.6582
6088000000.0 0.09376 0.9439
6091000000.0 0.7816 0.5152
6094000000.0 0.938 -0.3145
6097000000.0 0.2992 -0.9439
6100000000.0 -0.5509 -0.8326
6103000000.0 -0.9967 -0.1011
6106000000.0 -0.7139 0.7539
6109000000.0 0.1532 1.03
6112000000.0 0.942 0.5406
6116000000.0 0.9761 -0.402
6119000000.0 0.2469 -1.058
6122000000.0 -0.6888 -0.8074
6125000000.0 -1.072 0.03133
6128000000.0 -0.6618 0.8398
6131000000.0 0.2748 1.008
6134000000.0 0.9787 0.432
6138000000.0 0.8691 -0.5507
6141000000.0 0.1165 -1.043
6144000000.0 -0.7418 -0.7118
6147000000.0 -0.9605 0.1491
6150000000.0 -0.4696 0.8466
6153000000.0 0.3617 0.925
6156000000.0 0.9341 0.2476
6159000000.0 0.7737 -0.539
6162000000.0 -0.00435 -0.9331
6166000000.0 -0.7233 -0.5735
6169000000.0 -0.8884 0.2291
6172000000.0 -0.3572 0.8001
6175000000.0 0.4177 0.7904
6178000000.0 0.891 0.1443
6181000000.0 0.6264 -0.6239
6184000000.0 -0.07919 -0.8623
6188000000.0 -0.7078 -0.4571
6191000000.0 -0.7694 0.2904
6194000000.0 -0.2265 0.8081
6197000000.0 0.4716 0.6705
6200000000.0 0.8259 0.02926
6203000000.0 0.5288 -0.6507
6206000000.0 -0.1661 -0.7729
6209000000.0 -0.726 -0.362
6212000000.0 -0.7119 0.3632
6216000000.0 -0.1181 0.7838
6219000000.0 0.5375 0.5678
6222000000.0 0.7838 -0.09339
6225000000.0 0.4309 -0.6864
6228000000.0 -0.2404 -0.7637
6231000000.0 -0.786 -0.2902
6234000000.0 -0.6861 0.468
6238000000.0 -0.0342 0.8444
6241000000.0 0.6313 0.5537
6244000000.0 0.7977 -0.1476
6247000000.0 0.3727 -0.7576
6250000000.0 -0.3759 -0.7504
6253000000.0 -0.8193 -0.1762
6256000000.0 -0.6162 0.5331
6259000000.0 0.02404 0.8289
6262000000.0 0.6645 0.5017
6266000000.0 0.7627 -0.207
6269000000.0 0.29 -0.7417
