! Created with skrf 1.8.0 (http://scikit-rf.org).
# Hz S RI R 50.0 
!freq ReS11 ImS11
4000000000.0 -0.1748 -1.492
4003000000.0 -1.295 -0.8314
4006000000.0 -1.389 0.4718
4009000000.0 -0.5348 1.427
4012000000.0 0.777 1.322
4016000000.0 1.563 0.2667
4019000000.0 1.144 -1.073
4022000000.0 -0.08365 -1.547
4025000000.0 -1.271 -0.9103
4028000000.0 -1.559 0.4815
4031000000.0 -0.6174 1.495
4034000000.0 0.7977 1.417
4038000000.0 1.585 0.2529
4041000000.0 1.184 -1.025
4044000000.0 -0.09664 -1.654
4047000000.0 -1.273 -0.9472
4050000000.0 -1.538 0.457
4053000000.0 -0.5885 1.465
4056000000.0 0.7147 1.451
4059000000.0 1.624 0.3126
4062000000.0 1.269 -0.9891
4066000000.0 0.02484 -1.629
4069000000.0 -1.19 -1.081
4072000000.0 -1.597 0.2758
4075000000.0 -0.8717 1.414
4078000000.0 0.5462 1.56
4081000000.0 1.566 0.5543
4084000000.0 1.404 -0.8331
4088000000.0 0.251 -1.616
4091000000.0 -1.13 -1.189
4094000000.0 -1.702 0.08391
4097000000.0 -1.034 1.289
4100000000.0 0.3572 1.513
4103000000.0 1.46 0.7092
4106000000.0 1.472 -0.6363
4109000000.0 0.459 -1.53
4112000000.0 -0.8385 -1.294
4116000000.0 -1.499 -0.1941
4119000000.0 -1.121 1.003
4122000000.0 -0.001423 1.494
4125000000.0 1.133 0.965
4128000000.0 1.481 -0.2187
4131000000.0 0.7908 -1.28
4134000000.0 -0.4532 -1.411
4138000000.0 -1.359 -0.5984
4141000000.0 -1.333 0.6544
4144000000.0 -0.3795 1.468
4147000000.0 0.8583 1.269
4150000000.0 1.508 0.1578
4153000000.0 1.11 -1.028
4156000000.0 -0.1197 -1.536
4159000000.0 -1.254 -0.8936
4162000000.0 -1.45 0.3596
4166000000.0 -0.6681 1.369
4169000000.0 0.6155 1.37
4172000000.0 1.448 0.4189
4175000000.0 1.235 -0.8409
4178000000.0 0.1516 -1.496
4181000000.0 -1.028 -1.083
4184000000.0 -1.508 0.09597
4188000000.0 -0.9081 1.239
4191000000.0 0.3483 1.469
4194000000.0 1.378 0.7071
4197000000.0 1.435 -0.6858
4200000000.0 0.3926 -1.544
4203000000.0 -0.9366 -1.262
4206000000.0 -1.61 -0.06868
4209000000.0 -1.082 1.264
4212000000.0 0.3563 1.644
4216000000.0 1.514 0.7402
4219000000.0 1.548 -0.7246
4222000000.0 0.3585 -1.628
4225000000.0 -1.057 -1.28
4228000000.0 -1.729 0.08612
4231000000.0 -0.9353 1.368
4234000000.0 0.5423 1.572
4238000000.0 1.538 0.5273
4241000000.0 1.331 -0.8978
4244000000.0 0.09192 -1.587
4247000000.0 -1.197 -1.077
4250000000.0 -1.547 0.3055
4253000000.0 -0.7136 1.378
4256000000.0 0.6839 1.394
4259000000.0 1.501 0.3137
4262000000.0 1.21 -0.9685
4266000000.0 -0.04025 -1.481
4269000000.0 -1.197 -0.8655
4272000000.0 -1.397 0.4498
4275000000.0 -0.5043 1.367
4278000000.0 0.7135 1.291
4281000000.0 1.407 0.1573
4284000000.0 1.001 -1.012
4288000000.0 -0.1568 -1.394
4291000000.0 -1.171 -0.7469
4294000000.0 -1.265 0.4464
4297000000.0 -0.5062 1.211
4300000000.0 0.6385 1.145
4303000000.0 1.295 0.2593
4306000000.0 1.043 -0.8071
4309000000.0 0.01596 -1.293
4312000000.0 -0.9998 -0.8466
4316000000.0 -1.244 0.2174
4319000000.0 -0.6674 1.098
4322000000.0 0.4319 1.237
4325000000.0 1.193 0.4871
4328000000.0 1.193 -0.6131
4331000000.0 0.2695 -1.316
4334000000.0 -0.8134 -1.105
4338000000.0 -1.398 -0.08232
4341000000.0 -0.9281 1.037
4344000000.0 0.1994 1.375
4347000000.0 1.234 0.7575
4350000000.0 1.349 -0.4742
4353000000.0 0.459 -1.347
4356000000.0 -0.7026 -1.291
4359000000.0 -1.395 -0.249
4362000000.0 -1.093 0.9559
4366000000.0 1.372e-05 1.488
4369000000.0 1.11 0.9518
4372000000.0 1.458 -0.2752
4375000000.0 0.7223 -1.293
4378000000.0 -0.5626 -1.393
4381000000.0 -1.455 -0.4546
4384000000.0 -1.277 0.7961
4388000000.0 -0.1938 1.503
4391000000.0 1.077 1.113
4394000000.0 1.559 -0.124
4397000000.0 0.8862 -1.303
4400000000.0 -0.4711 -1.492
4403000000.0 -1.507 -0.5522
4406000000.0 -1.35 0.8062
4409000000.0 -0.1829 1.563
4412000000.0 1.109 1.101
4416000000.0 1.543 -0.2018
4419000000.0 0.7639 -1.332
4422000000.0 -0.5027 -1.449
4425000000.0 -1.427 -0.4672
4428000000.0 -1.247 0.839
4431000000.0 -0.1086 1.431
4434000000.0 1.088 0.9732
4438000000.0 1.386 -0.2557
4441000000.0 0.6558 -1.244
4444000000.0 -0.5496 -1.228
4447000000.0 -1.325 -0.3187
4450000000.0 -1.051 0.8249
4453000000.0 0.03052 1.319
4456000000.0 1.043 0.7975
4459000000.0 1.264 -0.3404
4462000000.0 0.5036 -1.183
4466000000.0 -0.6345 -1.051
4469000000.0 -1.201 -0.1439
4472000000.0 -0.8255 0.8555
4475000000.0 0.1366 1.201
4478000000.0 0.9934 0.6203
4481000000.0 1.133 -0.4188
4484000000.0 0.3474 -1.097
4488000000.0 -0.6401 -0.9533
4491000000.0 -1.144 -0.04525
4494000000.0 -0.7626 0.8223
4497000000.0 0.1635 1.113
4500000000.0 0.9727 0.5926
4503000000.0 1.009 -0.3894
4506000000.0 0.3629 -1.03
4509000000.0 -0.5872 -0.9243
4512000000.0 -1.088 -0.1092
4516000000.0 -0.7932 0.7617
4519000000.0 0.1349 1.115
4522000000.0 0.9319 0.6044
4525000000.0 1.093 -0.3406
4528000000.0 0.4414 -1.061
4531000000.0 -0.5586 -1.017
4534000000.0 -1.144 -0.2081
4538000000.0 -0.8942 0.7522
4541000000.0 0.004953 1.195
4544000000.0 0.9166 0.7398
4547000000.0 1.175 -0.2487
4550000000.0 0.58 -1.042
4553000000.0 -0.4567 -1.111
4556000000.0 -1.149 -0.4094
4559000000.0 -1.065 0.6371
4562000000.0 -0.177 1.252
4566000000.0 0.8475 0.9321
4569000000.0 1.267 -0.06323
4572000000.0 0.7768 -1.001
4575000000.0 -0.2735 -1.256
4578000000.0 -1.159 -0.6
4581000000.0 -1.214 0.5111
4584000000.0 -0.4109 1.247
4588000000.0 0.7338 1.15
4591000000.0 1.344 0.1608
4594000000.0 0.9964 -0.9473
4597000000.0 -0.07719 -1.376
4600000000.0 -1.108 -0.8068
4603000000.0 -1.354 0.3747
4606000000.0 -0.5799 1.294
4609000000.0 0.6355 1.245
4612000000.0 1.363 0.3161
4616000000.0 1.11 -0.8697
4619000000.0 0.04338 -1.385
4622000000.0 -1.072 -0.9021
4625000000.0 -1.367 0.2737
4628000000.0 -0.678 1.193
4631000000.0 0.5219 1.278
4634000000.0 1.339 0.392
4638000000.0 1.138 -0.7687
4641000000.0 0.1059 -1.346
4644000000.0 -1.007 -0.9286
4647000000.0 -1.355 0.1703
4650000000.0 -0.6698 1.163
4653000000.0 0.4659 1.243
4656000000.0 1.259 0.3671
4659000000.0 1.055 -0.7465
4662000000.0 0.08023 -1.266
4666000000.0 -0.9151 -0.8117
4669000000.0 -1.185 0.1863
4672000000.0 -0.5614 1.018
4675000000.0 0.4314 1.082
4678000000.0 1.087 0.3116
4681000000.0 0.9242 -0.6585
4684000000.0 0.05823 -1.113
4688000000.0 -0.8343 -0.7429
4691000000.0 -1.063 0.1825
4694000000.0 -0.5153 0.9715
4697000000.0 0.4001 1.022
4700000000.0 1.064 0.2968
4703000000.0 0.8692 -0.6638
4706000000.0 0.08281 -1.102
4709000000.0 -0.8267 -0.6874
4712000000.0 -1.041 0.208
4716000000.0 -0.4912 0.9586
4719000000.0 0.4089 0.9702
4722000000.0 1.007 0.2465
4725000000.0 0.8629 -0.6516
4728000000.0 0.04809 -1.068
4731000000.0 -0.801 -0.6827
4734000000.0 -1.015 0.181
4738000000.0 -0.5258 0.9095
4741000000.0 0.3756 0.9787
4744000000.0 0.9949 0.3232
4747000000.0 0.8869 -0.5429
4750000000.0 0.1722 -1.077
4753000000.0 -0.7088 -0.8075
4756000000.0 -1.074 0.03875
4759000000.0 -0.6751 0.8897
4762000000.0 0.2103 1.094
4766000000.0 0.9854 0.523
4769000000.0 1.048 -0.4339
4772000000.0 0.3432 -1.097
4775000000.0 -0.6415 -0.9888
4778000000.0 -1.177 -0.1487
4781000000.0 -0.8468 0.8187
4784000000.0 0.07181 1.209
4788000000.0 0.9538 0.7363
4791000000.0 1.187 -0.2493
4794000000.0 0.5806 -1.078
4797000000.0 -0.4698 -1.134
4800000000.0 -1.181 -0.3854
4803000000.0 -1.025 0.6275
4806000000.0 -0.1796 1.23
4809000000.0 0.8545 0.9662
4812000000.0 1.263 -0.02769
4816000000.0 0.8223 -1.014
4819000000.0 -0.2824 -1.287
4822000000.0 -1.165 -0.6408
4825000000.0 -1.271 0.5111
4828000000.0 -0.4235 1.305
4831000000.0 0.7427 1.146
4834000000.0 1.4 0.1694
4838000000.0 0.97 -0.981
4841000000.0 -0.1479 -1.374
4844000000.0 -1.163 -0.7851
4847000000.0 -1.352 0.4138
4850000000.0 -0.5206 1.314
4853000000.0 0.6482 1.204
4856000000.0 1.379 0.2613
4859000000.0 1.039 -0.8808
4862000000.0 -0.02514 -1.362
4866000000.0 -1.08 -0.821
4869000000.0 -1.333 0.2922
4872000000.0 -0.5868 1.2
4875000000.0 0.5492 1.203
4878000000.0 1.245 0.3618
4881000000.0 1.049 -0.7412
4884000000.0 0.04323 -1.271
4888000000.0 -0.9411 -0.8309
4891000000.0 -1.211 0.2016
4894000000.0 -0.5637 1.036
4897000000.0 0.4263 1.099
4900000000.0 1.099 0.3228
4903000000.0 0.909 -0.6225
4906000000.0 0.1237 -1.106
4909000000.0 -0.7758 -0.7432
4912000000.0 -1.061 0.1266
4916000000.0 -0.5679 0.8693
4919000000.0 0.2989 0.9666
4922000000.0 0.9425 0.3526
4925000000.0 0.8378 -0.48
4928000000.0 0.1595 -0.9624
4931000000.0 -0.6477 -0.7318
4934000000.0 -0.9311 0.04745
4938000000.0 -0.5367 0.7415
4941000000.0 0.2374 0.9226
4944000000.0 0.8529 0.4245
4947000000.0 0.8623 -0.38
4950000000.0 0.2376 -0.9185
4953000000.0 -0.5534 -0.7704
4956000000.0 -0.971 -0.05136
4959000000.0 -0.6551 0.7401
4962000000.0 0.1502 0.9744
4966000000.0 0.8437 0.4748
4969000000.0 0.9238 -0.3591
4972000000.0 0.3071 -0.969
4975000000.0 -0.5436 -0.8626
4978000000.0 -1.015 -0.1151
4981000000.0 -0.746 0.7058
4984000000.0 0.05649 1.03
4988000000.0 0.8335 0.5979
4991000000.0 1.029 -0.2681
4994000000.0 0.4692 -0.9672
4997000000.0 -0.4569 -1.005
5000000000.0 -1.096 -0.2897
5003000000.0 -0.9407 0.6649
5006000000.0 -0.111 1.178
5009000000.0 0.8435 0.8332
5012000000.0 1.181 -0.14
5016000000.0 0.6577 -1.031
5019000000.0 -0.3734 -1.183
5022000000.0 -1.135 -0.4665
5025000000.0 -1.106 0.6161
5028000000.0 -0.2421 1.24
5031000000.0 0.8073 0.9698
5034000000.0 1.279 -0.01054
5038000000.0 0.8469 -0.9963
5041000000.0 -0.2158 -1.255
5044000000.0 -1.123 -0.6707
5047000000.0 -1.228 0.4225
5050000000.0 -0.4273 1.208
5053000000.0 0.6657 1.094
5056000000.0 1.287 0.2003
5059000000.0 0.9638 -0.8647
5062000000.0 -0.05454 -1.284
5066000000.0 -0.9984 -0.828
5069000000.0 -1.284 0.2539
5072000000.0 -0.5989 1.15
5075000000.0 0.5048 1.178
5078000000.0 1.25 0.3838
5081000000.0 1.069 -0.71
5084000000.0 0.1505 -1.215
5088000000.0 -0.8298 -0.8968
5091000000.0 -1.177 0.08747
5094000000.0 -0.7105 0.9429
5097000000.0 0.2681 1.124
5100000000.0 1.031 0.4968
5103000000.0 0.9935 -0.4653
5106000000.0 0.3216 -1.098
5109000000.0 -0.583 -0.9189
5112000000.0 -1.081 -0.1407
5116000000.0 -0.7786 0.7781
5119000000.0 0.02057 1.081
5122000000.0 0.857 0.6168
5125000000.0 1.042 -0.2491
5128000000.0 0.434 -0.9238
5131000000.0 -0.4174 -0.9703
5134000000.0 -0.9379 -0.2497
5138000000.0 -0.807 0.5784
5141000000.0 -0.05094 0.9779
5144000000.0 0.708 0.6515
5147000000.0 0.9288 -0.1252
5150000000.0 0.4913 -0.7914
5153000000.0 -0.3068 -0.8833
5156000000.0 -0.8572 -0.3204
5159000000.0 -0.7714 0.4477
5162000000.0 -0.1365 0.9298
5166000000.0 0.6014 0.6831
5169000000.0 0.904 -0.04979
5172000000.0 0.5625 -0.7623
5175000000.0 -0.2248 -0.8818
5178000000.0 -0.826 -0.3937
5181000000.0 -0.8321 0.4061
5184000000.0 -0.1795 0.9239
5188000000.0 0.5868 0.7185
5191000000.0 0.9275 -0.02761
5194000000.0 0.5756 -0.7468
5197000000.0 -0.2058 -0.8826
5200000000.0 -0.8351 -0.3986
5203000000.0 -0.8455 0.4194
5206000000.0 -0.2054 0.9515
5209000000.0 0.6138 0.7433
5212000000.0 0.981 0.0342
5216000000.0 0.6068 -0.745
5219000000.0 -0.1861 -0.9817
5222000000.0 -0.9028 -0.4466
5225000000.0 -0.9056 0.3772
5228000000.0 -0.2626 0.9773
5231000000.0 0.6059 0.8306
5234000000.0 1.037 0.07716
5238000000.0 0.7247 -0.7589
5241000000.0 -0.1377 -1.028
5244000000.0 -0.8835 -0.5411
5247000000.0 -1.018 0.328
5250000000.0 -0.3964 0.989
5253000000.0 0.513 0.9393
5256000000.0 1.055 0.2208
5259000000.0 0.825 -0.6695
5262000000.0 0.009441 -1.069
5266000000.0 -0.8275 -0.7059
5269000000.0 -1.071 0.1964
5272000000.0 -0.5611 0.9447
5275000000.0 0.3628 1.037
5278000000.0 1.007 0.3908
5281000000.0 0.971 -0.5382
5284000000.0 0.2555 -1.082
5288000000.0 -0.6962 -0.8786
5291000000.0 -1.151 -0.05106
5294000000.0 -0.7878 0.8004
5297000000.0 0.09682 1.1
5300000000.0 0.9361 0.6457
5303000000.0 1.087 -0.3038
5306000000.0 0.4691 -1.048
5309000000.0 -0.4914 -1.036
5312000000.0 -1.114 -0.3089
5316000000.0 -0.9521 0.653
5319000000.0 -0.1154 1.161
5322000000.0 0.8184 0.8205
5325000000.0 1.14 -0.1072
5328000000.0 0.6548 -0.9604
5331000000.0 -0.3031 -1.112
5334000000.0 -1.038 -0.4718
5338000000.0 -1.031 0.5013
5341000000.0 -0.2796 1.117
5344000000.0 0.6665 0.8903
5347000000.0 1.115 0.0717
5350000000.0 0.7434 -0.817
5353000000.0 -0.1508 -1.082
5356000000.0 -0.9334 -0.5513
5359000000.0 -1.022 0.3632
5362000000.0 -0.3707 1.017
5366000000.0 0.5898 0.9049
5369000000.0 1.051 0.105
5372000000.0 0.7632 -0.7283
5375000000.0 -0.09816 -1.035
5378000000.0 -0.8835 -0.5345
5381000000.0 -0.9462 0.3033
5384000000.0 -0.3612 0.9124
5388000000.0 0.4906 0.8647
5391000000.0 0.9816 0.1323
5394000000.0 0.6472 -0.6627
5397000000.0 -0.103 -0.9766
5400000000.0 -0.7951 -0.4868
5403000000.0 -0.876 0.3102
5406000000.0 -0.2855 0.8674
5409000000.0 0.4821 0.737
5412000000.0 0.8629 0.08271
5416000000.0 0.5871 -0.6438
5419000000.0 -0.1006 -0.8724
5422000000.0 -0.7415 -0.4731
5425000000.0 -0.8079 0.2875
5428000000.0 -0.2792 0.8255
5431000000.0 0.4918 0.7349
5434000000.0 0.8634 0.0888
5438000000.0 0.6044 -0.6371
5441000000.0 -0.1021 -0.876
5444000000.0 -0.7526 -0.432
5447000000.0 -0.857 0.3536
5450000000.0 -0.2652 0.8248
5453000000.0 0.4845 0.7355
5456000000.0 0.8706 0.1211
5459000000.0 0.665 -0.6394
5462000000.0 -0.07465 -0.8877
5466000000.0 -0.7498 -0.5352
5469000000.0 -0.8614 0.2467
5472000000.0 -0.3774 0.8355
5475000000.0 0.3719 0.814
5478000000.0 0.9011 0.2525
5481000000.0 0.7394 -0.5515
5484000000.0 0.06903 -0.9096
5488000000.0 -0.7049 -0.6776
5491000000.0 -0.962 0.09527
5494000000.0 -0.5361 0.8101
5497000000.0 0.28 0.9461
5500000000.0 0.8798 0.4004
5503000000.0 0.9156 -0.4539
5506000000.0 0.2567 -0.9855
5509000000.0 -0.6097 -0.8078
5512000000.0 -1.018 -0.04001
5516000000.0 -0.7143 0.7827
5519000000.0 0.127 1.001
5522000000.0 0.8758 0.595
5525000000.0 1.017 -0.2656
5528000000.0 0.4491 -0.9783
5531000000.0 -0.435 -0.9126
5534000000.0 -1.017 -0.2678
5538000000.0 -0.8823 0.6234
5541000000.0 -0.08668 1.055
5544000000.0 0.7562 0.7406
5547000000.0 1.051 -0.08389
5550000000.0 0.5972 -0.8828
5553000000.0 -0.3107 -1.038
5556000000.0 -0.9898 -0.4404
5559000000.0 -0.9522 0.4361
5562000000.0 -0.2562 1.023
5566000000.0 0.5934 0.8365
5569000000.0 1.063 0.05208
5572000000.0 0.7187 -0.7706
5575000000.0 -0.1515 -0.9916
5578000000.0 -0.855 -0.5276
5581000000.0 -0.941 0.3172
5584000000.0 -0.3459 0.9297
5588000000.0 0.4999 0.8435
5591000000.0 0.9575 0.1681
5594000000.0 0.7092 -0.6092
5597000000.0 -0.01875 -0.9515
5600000000.0 -0.7202 -0.583
5603000000.0 -0.9006 0.1834
5606000000.0 -0.4162 0.8372
5609000000.0 0.353 0.8104
5612000000.0 0.8536 0.2514
5616000000.0 0.6926 -0.5057
5619000000.0 0.04817 -0.9088
5622000000.0 -0.6237 -0.5914
5625000000.0 -0.8531 0.1419
5628000000.0 -0.4367 0.7322
5631000000.0 0.299 0.808
5634000000.0 0.8025 0.2667
5638000000.0 0.7098 -0.4403
5641000000.0 0.08282 -0.838
5644000000.0 -0.6014 -0.5795
5647000000.0 -0.8357 0.07654
5650000000.0 -0.4386 0.7182
5653000000.0 0.3075 0.8164
5656000000.0 0.7949 0.2831
5659000000.0 0.7385 -0.4485
5662000000.0 0.08546 -0.8614
5666000000.0 -0.6078 -0.6138
5669000000.0 -0.8909 0.1109
5672000000.0 -0.4679 0.7889
5675000000.0 0.2985 0.8479
5678000000.0 0.8516 0.3026
5681000000.0 0.7991 -0.4916
5684000000.0 0.113 -0.9197
5688000000.0 -0.6598 -0.6794
5691000000.0 -0.9731 0.06851
5694000000.0 -0.5135 0.796
5697000000.0 0.2865 0.9139
5700000000.0 0.92 0.3594
5703000000.0 0.8778 -0.5238
5706000000.0 0.1772 -0.9939
5709000000.0 -0.6796 -0.7717
5712000000.0 -1.014 0.02451
5716000000.0 -0.658 0.8357
5719000000.0 0.2259 1.023
5722000000.0 0.9545 0.4999
5725000000.0 0.9566 -0.4209
5728000000.0 0.2855 -1.013
5731000000.0 -0.6226 -0.8825
5734000000.0 -1.082 -0.1155
5738000000.0 -0.7916 0.7607
5741000000.0 0.09089 1.061
5744000000.0 0.9254 0.6201
5747000000.0 1.064 -0.2932
5750000000.0 0.4259 -1.013
5753000000.0 -0.4653 -0.9921
5756000000.0 -1.083 -0.2817
5759000000.0 -0.8885 0.6371
5762000000.0 -0.08684 1.122
5766000000.0 0.7794 0.7347
5769000000.0 1.117 -0.1341
5772000000.0 0.6263 -0.9302
5775000000.0 -0.3106 -1.099
5778000000.0 -1.017 -0.4163
5781000000.0 -0.9853 0.5162
5784000000.0 -0.2133 1.072
5788000000.0 0.6888 0.8833
5791000000.0 1.062 0.07367
5794000000.0 0.7126 -0.8064
5797000000.0 -0.1242 -1.05
5800000000.0 -0.9298 -0.5748
5803000000.0 -1.003 0.3363
5806000000.0 -0.4145 0.9967
5809000000.0 0.5076 0.9255
5812000000.0 1.02 0.1811
5816000000.0 0.7924 -0.6622
5819000000.0 -0.002731 -1.055
5822000000.0 -0.7992 -0.6637
5825000000.0 -0.9743 0.2393
5828000000.0 -0.493 0.8789
5831000000.0 0.3664 0.9358
5834000000.0 0.9566 0.2953
5838000000.0 0.8154 -0.5617
5841000000.0 0.06656 -0.963
5844000000.0 -0.6997 -0.6304
5847000000.0 -0.9438 0.1434
5850000000.0 -0.4936 0.8121
5853000000.0 0.3294 0.8917
5856000000.0 0.9028 0.3016
5859000000.0 0.7928 -0.4877
5862000000.0 0.09637 -0.918
5866000000.0 -0.6343 -0.6316
5869000000.0 -0.9045 0.09415
5872000000.0 -0.4897 0.7749
5875000000.0 0.2745 0.8475
5878000000.0 0.844 0.3139
5881000000.0 0.7882 -0.4737
5884000000.0 0.1089 -0.8704
5888000000.0 -0.6195 -0.6315
5891000000.0 -0.8626 0.06309
5894000000.0 -0.5034 0.7456
5897000000.0 0.238 0.8278
5900000000.0 0.7896 0.3139
5903000000.0 0.7374 -0.4193
5906000000.0 0.1506 -0.8416
5909000000.0 -0.5459 -0.6725
5912000000.0 -0.8594 0.01369
5916000000.0 -0.5457 0.6715
5919000000.0 0.1999 0.8492
5922000000.0 0.7683 0.4017
5925000000.0 0.7661 -0.3401
5928000000.0 0.2761 -0.8609
5931000000.0 -0.4847 -0.7222
5934000000.0 -0.889 -0.09311
5938000000.0 -0.6132 0.5805
5941000000.0 0.0581 0.8952
5944000000.0 0.7279 0.48
5947000000.0 0.8719 -0.2243
5950000000.0 0.3685 -0.8325
5953000000.0 -0.3927 -0.8132
5956000000.0 -0.9065 -0.2211
5959000000.0 -0.7579 0.5409
5962000000.0 -0.06629 0.9298
5966000000.0 0.6929 0.6686
5969000000.0 0.9454 -0.0725
5972000000.0 0.5377 -0.7687
5975000000.0 -0.2576 -0.9202
5978000000.0 -0.8837 -0.3984
5981000000.0 -0.8835 0.4197
5984000000.0 -0.2105 0.9494
5988000000.0 0.6174 0.8056
5991000000.0 0.998 0.05295
5994000000.0 0.6885 -0.7351
5997000000.0 -0.1276 -0.9779
6000000000.0 -0.8975 -0.5454
6003000000.0 -0.9731 0.3152
6006000000.0 -0.3731 0.9189
6009000000.0 0.4786 0.8443
6012000000.0 0.9826 0.1744
6016000000.0 0.7609 -0.674
6019000000.0 -0.02618 -1.009
6022000000.0 -0.7791 -0.6203
6025000000.0 -0.9861 0.1954
6028000000.0 -0.4406 0.8719
6031000000.0 0.418 0.8863
6034000000.0 0.9459 0.2448
6038000000.0 0.8075 -0.5689
6041000000.0 0.05856 -0.961
6044000000.0 -0.7195 -0.6711
6047000000.0 -0.9668 0.09511
6050000000.0 -0.5144 0.7908
6053000000.0 0.3 0.897
6056000000.0 0.8756 0.3343
6059000000.0 0.8038 -0.4941
6062000000.0 0.1288 -0.9361
6066000000.0 -0.6449 -0.66
6069000000.0 -0.9148 0.07861
6072000000.0 -0.492 0.7494
6075000000.0 0.2645 0.8724
6078000000.0 0.8357 0.3195
6081000000.0 0.7646 -0.4028
6084000000.0 0.1556 -0.8711
6088000000.0 -0.555 -0.6826
6091000000.0 -0.8582 0.03353
6094000000.0 -0.5332 0.6587
6097000000.0 0.2091 0.8498
6100000000.0 0.7701 0.3472
6103000000.0 0.791 -0.3351
6106000000.0 0.1869 -0.809
6109000000.0 -0.5205 -0.6702
6112000000.0 -0.8938 -0.005962
6116000000.0 -0.5388 0.6582
6119000000.0 0.1367 0.8579
6122000000.0 0.7604 0.3892
6125000000.0 0.7922 -0.3303
6128000000.0 0.2269 -0.8333
6131000000.0 -0.5012 -0.7086
6134000000.0 -0.8585 -0.04768
6138000000.0 -0.5688 0.6362
6141000000.0 0.1023 0.8575
6144000000.0 0.7495 0.4478
6147000000.0 0.836 -0.3018
6150000000.0 0.3077 -0.8563
6153000000.0 -0.4677 -0.7903
6156000000.0 -0.8847 -0.1201
6159000000.0 -0.6694 0.618
6162000000.0 0.04695 0.9283
6166000000.0 0.7802 0.5287
6169000000.0 0.9092 -0.1988
6172000000.0 0.3936 -0.8753
6175000000.0 -0.4126 -0.8509
6178000000.0 -0.9144 -0.2211
6181000000.0 -0.7258 0.5775
6184000000.0 -0.0336 0.9618
6188000000.0 0.6955 0.6327
6191000000.0 0.9308 -0.1897
6194000000.0 0.4751 -0.8056
6197000000.0 -0.3314 -0.8942
6200000000.0 -0.9021 -0.2826
6203000000.0 -0.8034 0.5017
6206000000.0 -0.09313 0.9321
6209000000.0 0.6313 0.6786
6212000000.0 0.914 -0.07139
6216000000.0 0.5419 -0.7684
6219000000.0 -0.2452 -0.9106
6222000000.0 -0.8339 -0.367
6225000000.0 -0.8034 0.3872
6228000000.0 -0.2504 0.8632
6231000000.0 0.5112 0.7261
6234000000.0 0.9045 0.07247
6238000000.0 0.6297 -0.6197
6241000000.0 -0.1015 -0.8681
6244000000.0 -0.7568 -0.4653
6247000000.0 -0.8351 0.2844
6250000000.0 -0.3246 0.775
6253000000.0 0.3951 0.7829
6256000000.0 0.8241 0.1973
6259000000.0 0.6581 -0.5489
6262000000.0 0.03324 -0.8105
6266000000.0 -0.6013 -0.5462
