! Created with skrf 1.8.0 (http://scikit-rf.org).
# Hz S RI R 50.0 
!freq ReS11 ImS11
4000000000.0 -0.1791 -1.528
4003000000.0 -1.247 -0.8316
4006000000.0 -1.387 0.5123
4009000000.0 -0.5184 1.413
4012000000.0 0.7727 1.26
4016000000.0 1.529 0.2226
4019000000.0 1.146 -1.04
4022000000.0 -0.1059 -1.571
4025000000.0 -1.312 -0.8651
4028000000.0 -1.493 0.5007
4031000000.0 -0.5906 1.478
4034000000.0 0.7763 1.373
4038000000.0 1.597 0.2648
4041000000.0 1.181 -1.125
4044000000.0 -0.1353 -1.629
4047000000.0 -1.378 -0.911
4050000000.0 -1.551 0.4619
4053000000.0 -0.6172 1.475
4056000000.0 0.7857 1.424
4059000000.0 1.596 0.2756
4062000000.0 1.234 -1.023
4066000000.0 -0.01035 -1.637
4069000000.0 -1.247 -1.047
4072000000.0 -1.644 0.3229
4075000000.0 -0.8116 1.417
4078000000.0 0.5934 1.551
4081000000.0 1.555 0.5524
4084000000.0 1.43 -0.8551
4088000000.0 0.2185 -1.68
4091000000.0 -1.09 -1.235
4094000000.0 -1.632 0.06077
4097000000.0 -0.9628 1.324
4100000000.0 0.3874 1.595
4103000000.0 1.425 0.6699
4106000000.0 1.437 -0.6478
4109000000.0 0.4371 -1.501
4112000000.0 -0.8591 -1.264
4116000000.0 -1.512 -0.192
4119000000.0 -1.129 1.029
4122000000.0 0.0302 1.495
4125000000.0 1.132 0.9512
4128000000.0 1.438 -0.2424
4131000000.0 0.7808 -1.27
4134000000.0 -0.4571 -1.428
4138000000.0 -1.372 -0.561
4141000000.0 -1.3 0.6277
4144000000.0 -0.3816 1.466
4147000000.0 0.8437 1.235
4150000000.0 1.542 0.1491
4153000000.0 1.068 -1.081
4156000000.0 -0.1277 -1.505
4159000000.0 -1.252 -0.8728
4162000000.0 -1.472 0.3822
4166000000.0 -0.6598 1.376
4169000000.0 0.6299 1.38
4172000000.0 1.437 0.3988
4175000000.0 1.244 -0.8539
4178000000.0 0.1417 -1.455
4181000000.0 -1.068 -1.062
4184000000.0 -1.512 0.1135
4188000000.0 -0.9089 1.229
4191000000.0 0.3693 1.484
4194000000.0 1.428 0.6496
4197000000.0 1.408 -0.6175
4200000000.0 0.399 -1.524
4203000000.0 -0.9545 -1.271
4206000000.0 -1.643 -0.0334
4209000000.0 -1.069 1.24
4212000000.0 0.3344 1.623
4216000000.0 1.506 0.755
4219000000.0 1.513 -0.7778
4222000000.0 0.333 -1.64
4225000000.0 -1.147 -1.28
4228000000.0 -1.673 0.1324
4231000000.0 -0.9119 1.391
4234000000.0 0.592 1.566
4238000000.0 1.568 0.5018
4241000000.0 1.364 -0.9266
4244000000.0 0.03476 -1.649
4247000000.0 -1.248 -1.017
4250000000.0 -1.551 0.3728
4253000000.0 -0.6564 1.373
4256000000.0 0.684 1.375
4259000000.0 1.484 0.2527
4262000000.0 1.13 -1.049
4266000000.0 -0.0738 -1.516
4269000000.0 -1.237 -0.8133
4272000000.0 -1.422 0.4836
4275000000.0 -0.5185 1.385
4278000000.0 0.7252 1.226
4281000000.0 1.386 0.1637
4284000000.0 1.014 -0.9743
4288000000.0 -0.1754 -1.397
4291000000.0 -1.158 -0.7091
4294000000.0 -1.27 0.4344
4297000000.0 -0.4836 1.241
4300000000.0 0.658 1.134
4303000000.0 1.289 0.2568
4306000000.0 0.9701 -0.8243
4309000000.0 -0.02135 -1.31
4312000000.0 -0.9825 -0.818
4316000000.0 -1.258 0.1994
4319000000.0 -0.6706 1.101
4322000000.0 0.4255 1.227
4325000000.0 1.197 0.481
4328000000.0 1.163 -0.6687
4331000000.0 0.2685 -1.292
4334000000.0 -0.8445 -1.071
4338000000.0 -1.385 -0.03597
4341000000.0 -0.9026 1.064
4344000000.0 0.2322 1.402
4347000000.0 1.221 0.7255
4350000000.0 1.368 -0.4782
4353000000.0 0.4732 -1.375
4356000000.0 -0.7414 -1.234
4359000000.0 -1.428 -0.2216
4362000000.0 -1.095 0.9611
4366000000.0 0.0506 1.456
4369000000.0 1.174 0.909
4372000000.0 1.47 -0.2853
4375000000.0 0.7351 -1.334
4378000000.0 -0.545 -1.366
4381000000.0 -1.418 -0.4205
4384000000.0 -1.303 0.8408
4388000000.0 -0.146 1.522
4391000000.0 1.111 1.086
4394000000.0 1.555 -0.1557
4397000000.0 0.8723 -1.373
4400000000.0 -0.5361 -1.482
4403000000.0 -1.489 -0.5495
4406000000.0 -1.355 0.8554
4409000000.0 -0.1286 1.625
4412000000.0 1.148 1.116
4416000000.0 1.545 -0.2197
4419000000.0 0.7821 -1.328
4422000000.0 -0.5427 -1.411
4425000000.0 -1.47 -0.4569
4428000000.0 -1.197 0.8871
4431000000.0 -0.0446 1.441
4434000000.0 1.091 0.9097
4438000000.0 1.395 -0.2715
4441000000.0 0.5744 -1.27
4444000000.0 -0.5868 -1.248
4447000000.0 -1.348 -0.2964
4450000000.0 -1.034 0.8395
4453000000.0 0.05985 1.315
4456000000.0 1.106 0.7442
4459000000.0 1.247 -0.3705
4462000000.0 0.4681 -1.2
4466000000.0 -0.6653 -1.068
4469000000.0 -1.265 -0.1248
4472000000.0 -0.8478 0.8814
4475000000.0 0.1715 1.178
4478000000.0 1.034 0.5969
4481000000.0 1.064 -0.4523
4484000000.0 0.3033 -1.117
4488000000.0 -0.6614 -0.9308
4491000000.0 -1.15 -0.04486
4494000000.0 -0.7568 0.8572
4497000000.0 0.2173 1.095
4500000000.0 0.9907 0.5223
4503000000.0 1.006 -0.4334
4506000000.0 0.3084 -1.049
4509000000.0 -0.6387 -0.9288
4512000000.0 -1.106 -0.1034
4516000000.0 -0.7738 0.8307
4519000000.0 0.1444 1.108
4522000000.0 0.9848 0.5979
4525000000.0 1.084 -0.3588
4528000000.0 0.3996 -1.104
4531000000.0 -0.5949 -0.9899
4534000000.0 -1.154 -0.1694
4538000000.0 -0.8641 0.7772
4541000000.0 0.05232 1.176
4544000000.0 0.9292 0.7336
4547000000.0 1.167 -0.2534
4550000000.0 0.5751 -1.077
4553000000.0 -0.4809 -1.112
4556000000.0 -1.18 -0.358
4559000000.0 -1.029 0.6656
4562000000.0 -0.135 1.229
4566000000.0 0.858 0.9117
4569000000.0 1.273 -0.06432
4572000000.0 0.7695 -1.027
4575000000.0 -0.3011 -1.291
4578000000.0 -1.172 -0.5929
4581000000.0 -1.188 0.5377
4584000000.0 -0.374 1.296
4588000000.0 0.7752 1.111
4591000000.0 1.396 0.1547
4594000000.0 0.9866 -0.9701
4597000000.0 -0.1182 -1.382
4600000000.0 -1.141 -0.7779
4603000000.0 -1.361 0.3804
4606000000.0 -0.5629 1.276
4609000000.0 0.6714 1.227
4612000000.0 1.373 0.2607
4616000000.0 1.105 -0.8788
4619000000.0 -0.009531 -1.401
4622000000.0 -1.081 -0.8765
4625000000.0 -1.364 0.2777
4628000000.0 -0.631 1.226
4631000000.0 0.5766 1.264
4634000000.0 1.327 0.3356
4638000000.0 1.092 -0.8006
4641000000.0 0.08006 -1.367
4644000000.0 -0.9845 -0.9275
4647000000.0 -1.343 0.2267
4650000000.0 -0.6531 1.165
4653000000.0 0.504 1.211
4656000000.0 1.265 0.3559
4659000000.0 1.044 -0.7591
4662000000.0 0.04277 -1.264
4666000000.0 -0.9628 -0.8404
4669000000.0 -1.222 0.2428
4672000000.0 -0.5798 1.061
4675000000.0 0.4883 1.104
4678000000.0 1.126 0.2821
4681000000.0 0.8597 -0.6949
4684000000.0 0.04466 -1.146
4688000000.0 -0.852 -0.7143
4691000000.0 -1.07 0.2154
4694000000.0 -0.5102 0.9818
4697000000.0 0.4877 1.0
4700000000.0 1.026 0.284
4703000000.0 0.8729 -0.6674
4706000000.0 -0.007174 -1.095
4709000000.0 -0.8503 -0.6749
4712000000.0 -1.028 0.2282
4716000000.0 -0.4706 0.9657
4719000000.0 0.4659 0.9813
4722000000.0 1.043 0.2122
4725000000.0 0.829 -0.6654
4728000000.0 0.02522 -1.051
4731000000.0 -0.8134 -0.6728
4734000000.0 -1.005 0.1699
4738000000.0 -0.5055 0.9241
4741000000.0 0.3625 0.9654
4744000000.0 1.036 0.3267
4747000000.0 0.887 -0.5939
4750000000.0 0.1362 -1.057
4753000000.0 -0.7257 -0.8009
4756000000.0 -1.091 0.06379
4759000000.0 -0.6402 0.8858
4762000000.0 0.2872 1.078
4766000000.0 1.026 0.4861
4769000000.0 1.047 -0.4446
4772000000.0 0.3234 -1.117
4775000000.0 -0.6637 -0.9585
4778000000.0 -1.15 -0.1104
4781000000.0 -0.8552 0.8276
4784000000.0 0.07609 1.2
4788000000.0 0.962 0.6841
4791000000.0 1.192 -0.3014
4794000000.0 0.5453 -1.102
4797000000.0 -0.4807 -1.152
4800000000.0 -1.195 -0.3598
4803000000.0 -1.005 0.7057
4806000000.0 -0.1643 1.242
4809000000.0 0.844 0.9327
4812000000.0 1.293 -0.06585
4816000000.0 0.7956 -1.035
4819000000.0 -0.2732 -1.307
4822000000.0 -1.199 -0.6089
4825000000.0 -1.252 0.5338
4828000000.0 -0.3864 1.333
4831000000.0 0.7762 1.149
4834000000.0 1.372 0.1213
4838000000.0 0.9703 -1.0
4841000000.0 -0.1635 -1.392
4844000000.0 -1.187 -0.7698
4847000000.0 -1.309 0.437
4850000000.0 -0.4982 1.285
4853000000.0 0.662 1.201
4856000000.0 1.352 0.2143
4859000000.0 1.045 -0.9022
4862000000.0 -0.02887 -1.357
4866000000.0 -1.09 -0.7917
4869000000.0 -1.308 0.2948
4872000000.0 -0.5673 1.208
4875000000.0 0.5467 1.186
4878000000.0 1.253 0.3067
4881000000.0 1.002 -0.7824
4884000000.0 0.01901 -1.267
4888000000.0 -0.9451 -0.8104
4891000000.0 -1.173 0.2482
4894000000.0 -0.534 1.054
4897000000.0 0.4573 1.09
4900000000.0 1.087 0.3107
4903000000.0 0.9298 -0.6559
4906000000.0 0.07061 -1.098
4909000000.0 -0.8099 -0.724
4912000000.0 -1.025 0.1742
4916000000.0 -0.5064 0.9032
4919000000.0 0.3624 0.9683
4922000000.0 0.918 0.3101
4925000000.0 0.8344 -0.4971
4928000000.0 0.1257 -0.9547
4931000000.0 -0.6377 -0.6934
4934000000.0 -0.9477 0.03824
4938000000.0 -0.5618 0.7651
4941000000.0 0.225 0.9253
4944000000.0 0.8519 0.3767
4947000000.0 0.8447 -0.4193
4950000000.0 0.2303 -0.9237
4953000000.0 -0.5641 -0.7665
4956000000.0 -0.9565 -0.0416
4959000000.0 -0.6235 0.7594
4962000000.0 0.1644 0.9556
4966000000.0 0.8504 0.4832
4969000000.0 0.9166 -0.3801
4972000000.0 0.2861 -0.97
4975000000.0 -0.5549 -0.8471
4978000000.0 -0.9983 -0.1159
4981000000.0 -0.749 0.7178
4984000000.0 0.0633 1.047
4988000000.0 0.8522 0.5985
4991000000.0 1.01 -0.2842
4994000000.0 0.4419 -0.9802
4997000000.0 -0.4812 -0.9957
5000000000.0 -1.075 -0.2565
5003000000.0 -0.9238 0.6702
5006000000.0 -0.07937 1.145
5009000000.0 0.872 0.7797
5012000000.0 1.216 -0.1701
5016000000.0 0.6412 -1.027
5019000000.0 -0.3872 -1.166
5022000000.0 -1.199 -0.444
5025000000.0 -1.077 0.6243
5028000000.0 -0.2122 1.258
5031000000.0 0.8272 0.959
5034000000.0 1.296 -0.02185
5038000000.0 0.8161 -0.9738
5041000000.0 -0.2627 -1.249
5044000000.0 -1.117 -0.6146
5047000000.0 -1.185 0.4631
5050000000.0 -0.3878 1.237
5053000000.0 0.6876 1.116
5056000000.0 1.28 0.1898
5059000000.0 0.9806 -0.863
5062000000.0 -0.06939 -1.296
5066000000.0 -1.061 -0.7767
5069000000.0 -1.269 0.2913
5072000000.0 -0.601 1.148
5075000000.0 0.5108 1.157
5078000000.0 1.231 0.3569
5081000000.0 1.04 -0.6964
5084000000.0 0.1273 -1.236
5088000000.0 -0.8611 -0.8803
5091000000.0 -1.224 0.07687
5094000000.0 -0.6783 0.9699
5097000000.0 0.2636 1.118
5100000000.0 1.037 0.5116
5103000000.0 1.079 -0.4862
5106000000.0 0.3088 -1.081
5109000000.0 -0.6177 -0.8994
5112000000.0 -1.081 -0.103
5116000000.0 -0.7972 0.745
5119000000.0 0.07763 1.031
5122000000.0 0.8401 0.6154
5125000000.0 1.031 -0.2464
5128000000.0 0.4309 -0.9314
5131000000.0 -0.4171 -0.8982
5134000000.0 -0.9803 -0.2187
5138000000.0 -0.775 0.587
5141000000.0 -0.02601 0.9732
5144000000.0 0.7097 0.6676
5147000000.0 0.9463 -0.1652
5150000000.0 0.4596 -0.7934
5153000000.0 -0.3357 -0.8673
5156000000.0 -0.8862 -0.3101
5159000000.0 -0.7788 0.4808
5162000000.0 -0.1321 0.9019
5166000000.0 0.6144 0.6703
5169000000.0 0.9122 -0.08291
5172000000.0 0.5044 -0.7328
5175000000.0 -0.26 -0.8805
5178000000.0 -0.852 -0.3463
5181000000.0 -0.7835 0.4156
5184000000.0 -0.1546 0.9134
5188000000.0 0.5886 0.6818
5191000000.0 0.9135 -0.06071
5194000000.0 0.5499 -0.7631
5197000000.0 -0.2577 -0.9149
5200000000.0 -0.8611 -0.3843
5203000000.0 -0.8064 0.4712
5206000000.0 -0.1553 0.9323
5209000000.0 0.6269 0.734
5212000000.0 0.9988 -0.02497
5216000000.0 0.5999 -0.7616
5219000000.0 -0.2255 -0.9597
5222000000.0 -0.8869 -0.4365
5225000000.0 -0.8791 0.4192
5228000000.0 -0.2315 0.9673
5231000000.0 0.5942 0.8314
5234000000.0 1.04 0.06039
5238000000.0 0.7095 -0.7577
5241000000.0 -0.1515 -1.034
5244000000.0 -0.9041 -0.571
5247000000.0 -0.9936 0.3661
5250000000.0 -0.3567 1.007
5253000000.0 0.5093 0.9139
5256000000.0 1.091 0.2134
5259000000.0 0.8119 -0.7093
5262000000.0 -0.00493 -1.076
5266000000.0 -0.847 -0.7003
5269000000.0 -1.064 0.1819
5272000000.0 -0.5553 0.9464
5275000000.0 0.3907 1.028
5278000000.0 1.026 0.4257
5281000000.0 0.9469 -0.5511
5284000000.0 0.2297 -1.094
5288000000.0 -0.7006 -0.8236
5291000000.0 -1.126 -0.006277
5294000000.0 -0.7731 0.8212
5297000000.0 0.1512 1.074
5300000000.0 0.9489 0.6074
5303000000.0 1.086 -0.3116
5306000000.0 0.4522 -1.035
5309000000.0 -0.4779 -1.011
5312000000.0 -1.097 -0.3027
5316000000.0 -0.9403 0.6596
5319000000.0 -0.07884 1.146
5322000000.0 0.7959 0.7789
5325000000.0 1.13 -0.1417
5328000000.0 0.6284 -0.9716
5331000000.0 -0.3316 -1.107
5334000000.0 -1.041 -0.4001
5338000000.0 -1.044 0.5322
5341000000.0 -0.2102 1.09
5344000000.0 0.7043 0.8907
5347000000.0 1.103 0.00309
5350000000.0 0.7262 -0.8219
5353000000.0 -0.1906 -1.084
5356000000.0 -0.9772 -0.5294
5359000000.0 -1.017 0.4009
5362000000.0 -0.3202 1.014
5366000000.0 0.5862 0.8668
5369000000.0 1.082 0.09475
5372000000.0 0.7215 -0.748
5375000000.0 -0.1343 -1.021
5378000000.0 -0.8693 -0.5276
5381000000.0 -0.981 0.3636
5384000000.0 -0.3068 0.956
5388000000.0 0.5503 0.8197
5391000000.0 1.001 0.07322
5394000000.0 0.6474 -0.7216
5397000000.0 -0.1317 -0.9494
5400000000.0 -0.7902 -0.4694
5403000000.0 -0.8488 0.3135
5406000000.0 -0.2462 0.879
5409000000.0 0.5278 0.7052
5412000000.0 0.8726 0.08166
5416000000.0 0.5806 -0.6554
5419000000.0 -0.1349 -0.8819
5422000000.0 -0.7701 -0.4178
5425000000.0 -0.8215 0.3268
5428000000.0 -0.2461 0.8526
5431000000.0 0.516 0.7109
5434000000.0 0.8645 0.07587
5438000000.0 0.6031 -0.629
5441000000.0 -0.1307 -0.836
5444000000.0 -0.7681 -0.4233
5447000000.0 -0.8268 0.3702
5450000000.0 -0.2771 0.8578
5453000000.0 0.4936 0.7448
5456000000.0 0.8813 0.08223
5459000000.0 0.6207 -0.6467
5462000000.0 -0.1062 -0.8831
5466000000.0 -0.7735 -0.5136
5469000000.0 -0.89 0.2645
5472000000.0 -0.356 0.8136
5475000000.0 0.4348 0.8261
5478000000.0 0.8939 0.1746
5481000000.0 0.7458 -0.608
5484000000.0 0.03551 -0.9827
5488000000.0 -0.6952 -0.6442
5491000000.0 -0.9712 0.1591
5494000000.0 -0.5639 0.8345
5497000000.0 0.3017 0.9381
5500000000.0 0.9139 0.4164
5503000000.0 0.9094 -0.4945
5506000000.0 0.1898 -0.9792
5509000000.0 -0.6506 -0.7766
5512000000.0 -1.042 -0.02733
5516000000.0 -0.6822 0.7703
5519000000.0 0.145 1.059
5522000000.0 0.8796 0.5546
5525000000.0 0.9801 -0.2857
5528000000.0 0.4179 -0.9573
5531000000.0 -0.4953 -0.9318
5534000000.0 -1.052 -0.2234
5538000000.0 -0.8304 0.6298
5541000000.0 -0.062 1.098
5544000000.0 0.7607 0.7322
5547000000.0 1.039 -0.1305
5550000000.0 0.5912 -0.8775
5553000000.0 -0.3291 -1.013
5556000000.0 -0.9845 -0.3846
5559000000.0 -0.9609 0.5128
5562000000.0 -0.2428 1.043
5566000000.0 0.6561 0.8234
5569000000.0 1.006 0.0198
5572000000.0 0.6395 -0.7793
5575000000.0 -0.1621 -1.01
5578000000.0 -0.856 -0.5035
5581000000.0 -0.9253 0.359
5584000000.0 -0.3036 0.9016
5588000000.0 0.4928 0.8476
5591000000.0 0.9461 0.1331
5594000000.0 0.6994 -0.6443
5597000000.0 -0.02501 -0.9442
5600000000.0 -0.7091 -0.5391
5603000000.0 -0.8906 0.2281
5606000000.0 -0.3895 0.8291
5609000000.0 0.4117 0.783
5612000000.0 0.8596 0.193
5616000000.0 0.7135 -0.5428
5619000000.0 0.01127 -0.8599
5622000000.0 -0.6698 -0.5745
5625000000.0 -0.8375 0.1667
5628000000.0 -0.3941 0.7319
5631000000.0 0.3018 0.7962
5634000000.0 0.7943 0.2371
5638000000.0 0.6908 -0.4932
5641000000.0 0.05719 -0.8359
5644000000.0 -0.5891 -0.558
5647000000.0 -0.8297 0.1159
5650000000.0 -0.4223 0.7191
5653000000.0 0.3211 0.7959
5656000000.0 0.8178 0.217
5659000000.0 0.6989 -0.5091
5662000000.0 0.04232 -0.8625
5666000000.0 -0.6345 -0.5681
5669000000.0 -0.87 0.1205
5672000000.0 -0.4254 0.7706
5675000000.0 0.3153 0.8539
5678000000.0 0.84 0.2706
5681000000.0 0.7569 -0.5059
5684000000.0 0.08015 -0.9295
5688000000.0 -0.6867 -0.6562
5691000000.0 -0.9449 0.1312
5694000000.0 -0.4979 0.8114
5697000000.0 0.3296 0.9045
5700000000.0 0.9275 0.3301
5703000000.0 0.7939 -0.5245
5706000000.0 0.1515 -1.023
5709000000.0 -0.7114 -0.7555
5712000000.0 -1.051 0.06763
5716000000.0 -0.6003 0.8521
5719000000.0 0.2419 1.041
5722000000.0 0.9523 0.4441
5725000000.0 0.9072 -0.4551
5728000000.0 0.252 -1.024
5731000000.0 -0.6288 -0.8628
5734000000.0 -1.069 -0.07607
5738000000.0 -0.812 0.7574
5741000000.0 0.1205 1.078
5744000000.0 0.9101 0.5932
5747000000.0 1.05 -0.3381
5750000000.0 0.4135 -1.044
5753000000.0 -0.5157 -0.9948
5756000000.0 -1.052 -0.2314
5759000000.0 -0.874 0.728
5762000000.0 -0.04903 1.128
5766000000.0 0.8172 0.7452
5769000000.0 1.086 -0.1266
5772000000.0 0.5957 -0.9227
5775000000.0 -0.3727 -1.053
5778000000.0 -1.032 -0.3605
5781000000.0 -0.9804 0.5424
5784000000.0 -0.2482 1.083
5788000000.0 0.685 0.8509
5791000000.0 1.063 0.001362
5794000000.0 0.7057 -0.8115
5797000000.0 -0.1916 -1.054
5800000000.0 -0.9416 -0.5236
5803000000.0 -1.002 0.3927
5806000000.0 -0.3645 0.9784
5809000000.0 0.5651 0.8739
5812000000.0 1.066 0.1395
5816000000.0 0.7398 -0.7039
5819000000.0 -0.05672 -0.995
5822000000.0 -0.8248 -0.5891
5825000000.0 -0.9813 0.2462
5828000000.0 -0.4004 0.9168
5831000000.0 0.4368 0.8948
5834000000.0 0.9375 0.2455
5838000000.0 0.7884 -0.5915
5841000000.0 0.05442 -0.9528
5844000000.0 -0.7128 -0.6212
5847000000.0 -0.9336 0.1755
5850000000.0 -0.4301 0.8376
5853000000.0 0.366 0.9011
5856000000.0 0.8974 0.2463
5859000000.0 0.761 -0.5241
5862000000.0 0.06168 -0.8926
5866000000.0 -0.7073 -0.6017
5869000000.0 -0.9026 0.1245
5872000000.0 -0.4352 0.7866
5875000000.0 0.3411 0.7822
5878000000.0 0.841 0.2776
5881000000.0 0.7351 -0.4859
5884000000.0 0.05993 -0.8841
5888000000.0 -0.6334 -0.6116
5891000000.0 -0.8632 0.1051
5894000000.0 -0.4568 0.7354
5897000000.0 0.2718 0.804
5900000000.0 0.7783 0.2791
5903000000.0 0.7213 -0.4427
5906000000.0 0.1353 -0.8456
5909000000.0 -0.576 -0.6319
5912000000.0 -0.827 0.01854
5916000000.0 -0.5131 0.7067
5919000000.0 0.2087 0.8272
5922000000.0 0.7807 0.369
5925000000.0 0.7857 -0.3547
5928000000.0 0.223 -0.857
5931000000.0 -0.5334 -0.6865
5934000000.0 -0.8907 -0.02894
5938000000.0 -0.5939 0.6569
5941000000.0 0.1049 0.8978
5944000000.0 0.7529 0.4761
5947000000.0 0.8658 -0.2829
5950000000.0 0.3192 -0.8425
5953000000.0 -0.3926 -0.8219
5956000000.0 -0.8951 -0.1977
5959000000.0 -0.7422 0.5746
5962000000.0 -0.01713 0.9185
5966000000.0 0.7154 0.6524
5969000000.0 0.9578 -0.1221
5972000000.0 0.4998 -0.8313
5975000000.0 -0.3169 -0.9147
5978000000.0 -0.8867 -0.3421
5981000000.0 -0.8554 0.4838
5984000000.0 -0.1975 0.9624
5988000000.0 0.6241 0.7637
5991000000.0 1.031 0.02574
5994000000.0 0.6404 -0.7553
5997000000.0 -0.1796 -0.9889
6000000000.0 -0.8782 -0.503
6003000000.0 -0.9427 0.4081
6006000000.0 -0.326 0.9366
6009000000.0 0.5125 0.8588
6012000000.0 1.002 0.1338
6016000000.0 0.7308 -0.6694
6019000000.0 -0.05468 -1.014
6022000000.0 -0.7989 -0.5669
6025000000.0 -0.9371 0.252
6028000000.0 -0.3972 0.9072
6031000000.0 0.4583 0.8699
6034000000.0 0.9363 0.2216
6038000000.0 0.7646 -0.5987
6041000000.0 0.005103 -0.9522
6044000000.0 -0.72 -0.6126
6047000000.0 -0.9642 0.1606
6050000000.0 -0.4311 0.8286
6053000000.0 0.3588 0.8982
6056000000.0 0.8639 0.2594
6059000000.0 0.7749 -0.5297
6062000000.0 0.0547 -0.8987
6066000000.0 -0.6791 -0.6313
6069000000.0 -0.8755 0.1565
6072000000.0 -0.486 0.7638
6075000000.0 0.2802 0.8296
6078000000.0 0.8014 0.2303
6081000000.0 0.7561 -0.4689
6084000000.0 0.08109 -0.866
6088000000.0 -0.5942 -0.5898
6091000000.0 -0.8551 0.08973
6094000000.0 -0.4795 0.7366
6097000000.0 0.2272 0.8269
6100000000.0 0.7935 0.3284
6103000000.0 0.7089 -0.4078
6106000000.0 0.1586 -0.8614
6109000000.0 -0.5682 -0.6568
6112000000.0 -0.8465 0.009017
6116000000.0 -0.496 0.6773
6119000000.0 0.2167 0.8394
6122000000.0 0.7876 0.3439
6125000000.0 0.7783 -0.3787
6128000000.0 0.179 -0.8582
6131000000.0 -0.5486 -0.6907
6134000000.0 -0.8955 0.01121
6138000000.0 -0.5669 0.6749
6141000000.0 0.2175 0.8786
6144000000.0 0.7641 0.3862
6147000000.0 0.8273 -0.366
6150000000.0 0.261 -0.8478
6153000000.0 -0.5129 -0.734
6156000000.0 -0.9066 -0.08684
6159000000.0 -0.5823 0.6634
6162000000.0 0.1018 0.9196
6166000000.0 0.796 0.4984
6169000000.0 0.8809 -0.2874
6172000000.0 0.3248 -0.8701
6175000000.0 -0.4662 -0.8433
6178000000.0 -0.9306 -0.1584
6181000000.0 -0.7307 0.6411
6184000000.0 0.04367 0.9264
6188000000.0 0.7776 0.5678
6191000000.0 0.9117 -0.2039
6194000000.0 0.4319 -0.8564
6197000000.0 -0.403 -0.841
6200000000.0 -0.9169 -0.2308
6203000000.0 -0.7473 0.5478
6206000000.0 -0.07939 0.9165
6209000000.0 0.7004 0.6661
6212000000.0 0.9286 -0.105
6216000000.0 0.4867 -0.797
6219000000.0 -0.2894 -0.8908
6222000000.0 -0.8397 -0.3456
6225000000.0 -0.7927 0.438
6228000000.0 -0.137 0.8938
6231000000.0 0.5405 0.6711
6234000000.0 0.9227 -0.007981
6238000000.0 0.573 -0.6807
6241000000.0 -0.1532 -0.8893
6244000000.0 -0.7733 -0.4036
6247000000.0 -0.8172 0.2548
6250000000.0 -0.2718 0.8268
6253000000.0 0.4281 0.7197
6256000000.0 0.8218 0.1199
6259000000.0 0.6043 -0.5373
6262000000.0 -0.004033 -0.8085
6266000000.0 -0.625 -0.5227
