! Created with skrf 1.8.0 (http://scikit-rf.org).
# Hz S RI R 50.0 
!freq ReS11 ImS11
4000000000.0 -0.1897 -1.485
4003000000.0 -1.282 -0.7437
4006000000.0 -1.38 0.5248
4009000000.0 -0.4529 1.417
4012000000.0 0.7838 1.272
4016000000.0 1.497 0.2116
4019000000.0 1.082 -1.117
4022000000.0 -0.1474 -1.519
4025000000.0 -1.334 -0.854
4028000000.0 -1.544 0.5275
4031000000.0 -0.5656 1.538
4034000000.0 0.8534 1.378
4038000000.0 1.604 0.1987
4041000000.0 1.181 -1.129
4044000000.0 -0.1262 -1.602
4047000000.0 -1.382 -0.8962
4050000000.0 -1.523 0.5153
4053000000.0 -0.5526 1.536
4056000000.0 0.8095 1.384
4059000000.0 1.609 0.253
4062000000.0 1.19 -1.025
4066000000.0 -0.008999 -1.605
4069000000.0 -1.273 -1.051
4072000000.0 -1.594 0.2895
4075000000.0 -0.7733 1.411
4078000000.0 0.6297 1.518
4081000000.0 1.568 0.4927
4084000000.0 1.352 -0.8658
4088000000.0 0.1744 -1.613
4091000000.0 -1.136 -1.208
4094000000.0 -1.658 0.1173
4097000000.0 -0.9007 1.325
4100000000.0 0.4508 1.589
4103000000.0 1.462 0.6851
4106000000.0 1.418 -0.6579
4109000000.0 0.3825 -1.512
4112000000.0 -0.8433 -1.266
4116000000.0 -1.516 -0.1781
4119000000.0 -1.072 1.028
4122000000.0 0.06423 1.501
4125000000.0 1.168 0.9159
4128000000.0 1.445 -0.2671
4131000000.0 0.7678 -1.271
4134000000.0 -0.4853 -1.408
4138000000.0 -1.378 -0.5768
4141000000.0 -1.29 0.686
4144000000.0 -0.3409 1.449
4147000000.0 0.9068 1.2
4150000000.0 1.5 0.07515
4153000000.0 1.044 -1.1
4156000000.0 -0.1581 -1.501
4159000000.0 -1.273 -0.8341
4162000000.0 -1.485 0.4223
4166000000.0 -0.5961 1.391
4169000000.0 0.671 1.371
4172000000.0 1.446 0.3806
4175000000.0 1.2 -0.8679
4178000000.0 0.08846 -1.502
4181000000.0 -1.073 -1.048
4184000000.0 -1.528 0.1599
4188000000.0 -0.8355 1.267
4191000000.0 0.4181 1.465
4194000000.0 1.402 0.6095
4197000000.0 1.371 -0.7088
4200000000.0 0.3341 -1.541
4203000000.0 -1.023 -1.228
4206000000.0 -1.615 0.02581
4209000000.0 -0.9742 1.296
4212000000.0 0.4147 1.594
4216000000.0 1.527 0.6524
4219000000.0 1.458 -0.8085
4222000000.0 0.2542 -1.659
4225000000.0 -1.196 -1.203
4228000000.0 -1.642 0.2015
4231000000.0 -0.8402 1.431
4234000000.0 0.6485 1.53
4238000000.0 1.592 0.3868
4241000000.0 1.297 -1.03
4244000000.0 -0.02456 -1.581
4247000000.0 -1.26 -0.9824
4250000000.0 -1.546 0.4505
4253000000.0 -0.5471 1.404
4256000000.0 0.7645 1.36
4259000000.0 1.53 0.2064
4262000000.0 1.054 -1.066
4266000000.0 -0.1621 -1.516
4269000000.0 -1.258 -0.7765
4272000000.0 -1.378 0.4935
4275000000.0 -0.4575 1.393
4278000000.0 0.8428 1.208
4281000000.0 1.423 0.09097
4284000000.0 0.956 -1.048
4288000000.0 -0.1883 -1.383
4291000000.0 -1.184 -0.6822
4294000000.0 -1.275 0.512
4297000000.0 -0.4007 1.295
4300000000.0 0.7084 1.098
4303000000.0 1.283 0.1679
4306000000.0 0.9494 -0.887
4309000000.0 -0.03824 -1.266
4312000000.0 -1.011 -0.7737
4316000000.0 -1.26 0.2635
4319000000.0 -0.6174 1.152
4322000000.0 0.4948 1.216
4325000000.0 1.232 0.4334
4328000000.0 1.155 -0.6978
4331000000.0 0.1972 -1.327
4334000000.0 -0.9061 -1.018
4338000000.0 -1.399 0.007211
4341000000.0 -0.8459 1.111
4344000000.0 0.3163 1.388
4347000000.0 1.276 0.6665
4350000000.0 1.351 -0.5655
4353000000.0 0.4087 -1.397
4356000000.0 -0.7843 -1.218
4359000000.0 -1.476 -0.1434
4362000000.0 -1.087 1.04
4366000000.0 0.1045 1.442
4369000000.0 1.223 0.8614
4372000000.0 1.453 -0.3972
4375000000.0 0.6221 -1.35
4378000000.0 -0.6257 -1.351
4381000000.0 -1.462 -0.3773
4384000000.0 -1.222 0.9181
4388000000.0 -0.086 1.526
4391000000.0 1.177 1.034
4394000000.0 1.578 -0.253
4397000000.0 0.7275 -1.403
4400000000.0 -0.6178 -1.474
4403000000.0 -1.553 -0.4327
4406000000.0 -1.271 0.9815
4409000000.0 -0.02378 1.588
4412000000.0 1.215 0.9753
4416000000.0 1.503 -0.3429
4419000000.0 0.6713 -1.365
4422000000.0 -0.671 -1.349
4425000000.0 -1.482 -0.3116
4428000000.0 -1.126 0.9839
4431000000.0 0.1011 1.422
4434000000.0 1.183 0.8181
4438000000.0 1.335 -0.3967
4441000000.0 0.5043 -1.267
4444000000.0 -0.7029 -1.156
4447000000.0 -1.334 -0.1695
4450000000.0 -0.9462 0.9065
4453000000.0 0.1768 1.285
4456000000.0 1.102 0.6728
4459000000.0 1.193 -0.4842
4462000000.0 0.2991 -1.228
4466000000.0 -0.736 -0.9822
4469000000.0 -1.227 -0.03584
4472000000.0 -0.7616 0.9585
4475000000.0 0.2561 1.176
4478000000.0 1.078 0.4652
4481000000.0 1.008 -0.524
4484000000.0 0.2353 -1.132
4488000000.0 -0.7418 -0.8823
4491000000.0 -1.135 0.0335
4494000000.0 -0.6539 0.9146
4497000000.0 0.2726 1.086
4500000000.0 1.033 0.4843
4503000000.0 0.9685 -0.5225
4506000000.0 0.2379 -1.053
4509000000.0 -0.711 -0.855
4512000000.0 -1.115 0.03576
4516000000.0 -0.6933 0.8849
4519000000.0 0.2139 1.093
4522000000.0 0.9901 0.5455
4525000000.0 1.083 -0.4545
4528000000.0 0.3191 -1.125
4531000000.0 -0.6509 -0.964
4534000000.0 -1.158 -0.1169
4538000000.0 -0.8342 0.833
4541000000.0 0.1101 1.191
4544000000.0 0.9985 0.6897
4547000000.0 1.159 -0.3599
4550000000.0 0.4755 -1.118
4553000000.0 -0.5497 -1.106
4556000000.0 -1.203 -0.3086
4559000000.0 -0.9918 0.7403
4562000000.0 -0.06297 1.238
4566000000.0 0.906 0.8868
4569000000.0 1.281 -0.1424
4572000000.0 0.6902 -1.082
4575000000.0 -0.3809 -1.26
4578000000.0 -1.224 -0.5263
4581000000.0 -1.216 0.6303
4584000000.0 -0.2835 1.307
4588000000.0 0.8171 1.088
4591000000.0 1.371 0.03296
4594000000.0 0.9218 -1.027
4597000000.0 -0.1954 -1.404
4600000000.0 -1.217 -0.686
4603000000.0 -1.301 0.4884
4606000000.0 -0.4766 1.313
4609000000.0 0.7436 1.19
4612000000.0 1.41 0.1712
4616000000.0 1.009 -0.9483
4619000000.0 -0.1278 -1.386
4622000000.0 -1.147 -0.7524
4625000000.0 -1.348 0.393
4628000000.0 -0.5504 1.259
4631000000.0 0.6485 1.205
4634000000.0 1.347 0.2368
4638000000.0 1.056 -0.8806
4641000000.0 -0.02865 -1.332
4644000000.0 -1.066 -0.8061
4647000000.0 -1.317 0.3283
4650000000.0 -0.5351 1.211
4653000000.0 0.6153 1.169
4656000000.0 1.245 0.2472
4659000000.0 0.9627 -0.8363
4662000000.0 -0.06332 -1.245
4666000000.0 -1.001 -0.7181
4669000000.0 -1.162 0.3358
4672000000.0 -0.4391 1.101
4675000000.0 0.5605 1.028
4678000000.0 1.158 0.2067
4681000000.0 0.8396 -0.7215
4684000000.0 -0.06448 -1.092
4688000000.0 -0.9091 -0.656
4691000000.0 -1.08 0.3176
4694000000.0 -0.451 1.021
4697000000.0 0.5587 0.9719
4700000000.0 1.103 0.2291
4703000000.0 0.8214 -0.7357
4706000000.0 -0.04364 -1.095
4709000000.0 -0.8604 -0.6011
4712000000.0 -1.049 0.33
4716000000.0 -0.3798 0.9951
4719000000.0 0.5475 0.9264
4722000000.0 1.067 0.1482
4725000000.0 0.7677 -0.7408
4728000000.0 -0.04632 -1.04
4731000000.0 -0.8453 -0.6167
4734000000.0 -1.007 0.2523
4738000000.0 -0.4466 0.9622
4741000000.0 0.4591 0.9432
4744000000.0 1.047 0.2365
4747000000.0 0.8786 -0.6105
4750000000.0 0.06468 -1.071
4753000000.0 -0.777 -0.7468
4756000000.0 -1.078 0.1138
4759000000.0 -0.6368 0.9271
4762000000.0 0.3299 1.088
4766000000.0 1.041 0.4545
4769000000.0 1.005 -0.5169
4772000000.0 0.2319 -1.134
4775000000.0 -0.7082 -0.9517
4778000000.0 -1.196 -0.07809
4781000000.0 -0.7935 0.8812
4784000000.0 0.123 1.2
4788000000.0 1.028 0.689
4791000000.0 1.158 -0.3756
4794000000.0 0.4868 -1.117
4797000000.0 -0.5629 -1.135
4800000000.0 -1.258 -0.298
4803000000.0 -1.006 0.7172
4806000000.0 -0.1061 1.266
4809000000.0 0.9138 0.9011
4812000000.0 1.289 -0.1313
4816000000.0 0.7345 -1.102
4819000000.0 -0.3736 -1.301
4822000000.0 -1.219 -0.5368
4825000000.0 -1.231 0.6221
4828000000.0 -0.3111 1.348
4831000000.0 0.8691 1.091
4834000000.0 1.423 0.01758
4838000000.0 0.9018 -1.088
4841000000.0 -0.2275 -1.391
4844000000.0 -1.241 -0.7037
4847000000.0 -1.309 0.5253
4850000000.0 -0.4329 1.333
4853000000.0 0.7484 1.184
4856000000.0 1.352 0.1229
4859000000.0 0.9579 -0.9663
4862000000.0 -0.158 -1.348
4866000000.0 -1.119 -0.7357
4869000000.0 -1.276 0.3755
4872000000.0 -0.4912 1.206
4875000000.0 0.6377 1.153
4878000000.0 1.295 0.1956
4881000000.0 0.9527 -0.8021
4884000000.0 -0.05964 -1.246
4888000000.0 -0.9916 -0.7299
4891000000.0 -1.146 0.3183
4894000000.0 -0.4925 1.079
4897000000.0 0.5018 1.016
4900000000.0 1.12 0.2317
4903000000.0 0.8506 -0.709
4906000000.0 -0.04093 -1.105
4909000000.0 -0.8341 -0.6516
4912000000.0 -1.023 0.2297
4916000000.0 -0.4401 0.8923
4919000000.0 0.3932 0.9349
4922000000.0 0.9358 0.2584
4925000000.0 0.7946 -0.5337
4928000000.0 0.07412 -0.9452
4931000000.0 -0.691 -0.6585
4934000000.0 -0.9213 0.1243
4938000000.0 -0.5137 0.7936
4941000000.0 0.3032 0.8901
4944000000.0 0.8724 0.3559
4947000000.0 0.8179 -0.4526
4950000000.0 0.1557 -0.928
4953000000.0 -0.6257 -0.7283
4956000000.0 -0.9372 0.02643
4959000000.0 -0.5863 0.7584
4962000000.0 0.2553 0.9595
4966000000.0 0.8844 0.406
4969000000.0 0.9124 -0.4304
4972000000.0 0.2546 -0.9765
4975000000.0 -0.611 -0.8291
4978000000.0 -1.009 -0.06407
4981000000.0 -0.6785 0.771
4984000000.0 0.1564 1.05
4988000000.0 0.9317 0.5631
4991000000.0 1.012 -0.3498
4994000000.0 0.382 -1.022
4997000000.0 -0.5727 -0.9672
5000000000.0 -1.132 -0.2049
5003000000.0 -0.8595 0.7351
5006000000.0 0.003447 1.201
5009000000.0 0.9205 0.794
5012000000.0 1.188 -0.2237
5016000000.0 0.6013 -1.103
5019000000.0 -0.4563 -1.174
5022000000.0 -1.231 -0.3756
5025000000.0 -1.06 0.7076
5028000000.0 -0.1513 1.273
5031000000.0 0.891 0.9178
5034000000.0 1.282 -0.09316
5038000000.0 0.7528 -1.029
5041000000.0 -0.3203 -1.237
5044000000.0 -1.18 -0.5363
5047000000.0 -1.181 0.5504
5050000000.0 -0.3109 1.228
5053000000.0 0.7408 1.068
5056000000.0 1.299 0.1007
5059000000.0 0.9073 -0.9221
5062000000.0 -0.1246 -1.296
5066000000.0 -1.064 -0.7107
5069000000.0 -1.214 0.3658
5072000000.0 -0.5432 1.193
5075000000.0 0.5526 1.154
5078000000.0 1.225 0.2335
5081000000.0 1.012 -0.742
5084000000.0 0.02931 -1.229
5088000000.0 -0.8914 -0.8233
5091000000.0 -1.178 0.1771
5094000000.0 -0.6018 0.9834
5097000000.0 0.3867 1.07
5100000000.0 1.076 0.4507
5103000000.0 1.011 -0.5106
5106000000.0 0.2548 -1.07
5109000000.0 -0.6722 -0.8718
5112000000.0 -1.097 -0.0541
5116000000.0 -0.7017 0.7826
5119000000.0 0.1611 1.042
5122000000.0 0.8755 0.5476
5125000000.0 1.01 -0.3249
5128000000.0 0.3474 -0.967
5131000000.0 -0.4884 -0.8572
5134000000.0 -0.9863 -0.1462
5138000000.0 -0.7873 0.6217
5141000000.0 0.01768 0.9651
5144000000.0 0.7565 0.6121
5147000000.0 0.902 -0.2013
5150000000.0 0.4127 -0.8376
5153000000.0 -0.3892 -0.8122
5156000000.0 -0.8637 -0.2339
5159000000.0 -0.7583 0.5387
5162000000.0 -0.05358 0.9029
5166000000.0 0.6707 0.5788
5169000000.0 0.9282 -0.1512
5172000000.0 0.4326 -0.7986
5175000000.0 -0.3214 -0.8426
5178000000.0 -0.8697 -0.2968
5181000000.0 -0.7507 0.4871
5184000000.0 -0.06448 0.9285
5188000000.0 0.6542 0.6532
5191000000.0 0.9287 -0.1201
5194000000.0 0.4789 -0.7815
5197000000.0 -0.3283 -0.8816
5200000000.0 -0.9176 -0.2819
5203000000.0 -0.7844 0.5048
5206000000.0 -0.1202 0.953
5209000000.0 0.6916 0.669
5212000000.0 0.9604 -0.1114
5216000000.0 0.5231 -0.8133
5219000000.0 -0.31 -0.9332
5222000000.0 -0.9221 -0.3495
5225000000.0 -0.8679 0.4957
5228000000.0 -0.1664 1.011
5231000000.0 0.6861 0.7933
5234000000.0 1.025 -0.02763
5238000000.0 0.6305 -0.8326
5241000000.0 -0.207 -1.022
5244000000.0 -0.9496 -0.4688
5247000000.0 -0.9873 0.4458
5250000000.0 -0.2937 1.021
5253000000.0 0.6037 0.8673
5256000000.0 1.078 0.09654
5259000000.0 0.7779 -0.7595
5262000000.0 -0.0794 -1.088
5266000000.0 -0.8993 -0.6235
5269000000.0 -1.058 0.2428
5272000000.0 -0.4774 0.9977
5275000000.0 0.4478 1.006
5278000000.0 1.071 0.2864
5281000000.0 0.9235 -0.61
5284000000.0 0.1051 -1.094
5288000000.0 -0.7592 -0.8097
5291000000.0 -1.103 0.04107
5294000000.0 -0.7033 0.864
5297000000.0 0.2013 1.121
5300000000.0 0.9871 0.5413
5303000000.0 1.042 -0.4192
5306000000.0 0.375 -1.072
5309000000.0 -0.6088 -0.9822
5312000000.0 -1.131 -0.1489
5316000000.0 -0.8699 0.7458
5319000000.0 -0.01653 1.119
5322000000.0 0.9118 0.7214
5325000000.0 1.134 -0.2189
5328000000.0 0.5425 -0.994
5331000000.0 -0.4042 -1.068
5334000000.0 -1.113 -0.3641
5338000000.0 -0.9602 0.6134
5341000000.0 -0.1581 1.132
5344000000.0 0.7644 0.8092
5347000000.0 1.11 -0.08307
5350000000.0 0.6311 -0.9181
5353000000.0 -0.3057 -1.055
5356000000.0 -0.9872 -0.4075
5359000000.0 -0.934 0.5136
5362000000.0 -0.2282 1.062
5366000000.0 0.6737 0.7989
5369000000.0 1.065 -0.00538
5372000000.0 0.6351 -0.835
5375000000.0 -0.2461 -1.003
5378000000.0 -0.8941 -0.4065
5381000000.0 -0.9 0.4645
5384000000.0 -0.2403 0.9716
5388000000.0 0.6391 0.7148
5391000000.0 0.9311 -0.04318
5394000000.0 0.5741 -0.7359
5397000000.0 -0.2478 -0.884
5400000000.0 -0.8341 -0.3311
5403000000.0 -0.7912 0.4428
5406000000.0 -0.1278 0.863
5409000000.0 0.559 0.6538
5412000000.0 0.8668 -0.02898
5416000000.0 0.5151 -0.7281
5419000000.0 -0.2526 -0.8231
5422000000.0 -0.7782 -0.3375
5425000000.0 -0.75 0.416
5428000000.0 -0.128 0.8573
5431000000.0 0.5918 0.6528
5434000000.0 0.8497 -0.05376
5438000000.0 0.4933 -0.7479
5441000000.0 -0.2544 -0.8459
5444000000.0 -0.8228 -0.3481
5447000000.0 -0.7659 0.4463
5450000000.0 -0.1573 0.8665
5453000000.0 0.5765 0.6774
5456000000.0 0.902 -0.01124
5459000000.0 0.5504 -0.7027
5462000000.0 -0.1902 -0.8853
5466000000.0 -0.8228 -0.3958
5469000000.0 -0.8423 0.3913
5472000000.0 -0.2571 0.9121
5475000000.0 0.4996 0.7813
5478000000.0 0.9425 0.119
5481000000.0 0.7142 -0.6504
5484000000.0 -0.06092 -0.9618
5488000000.0 -0.7895 -0.5838
5491000000.0 -0.9623 0.2595
5494000000.0 -0.4536 0.9029
5497000000.0 0.3724 0.9469
5500000000.0 0.987 0.2963
5503000000.0 0.8387 -0.5442
5506000000.0 0.1102 -1.027
5509000000.0 -0.6966 -0.7566
5512000000.0 -1.044 0.04656
5516000000.0 -0.6447 0.8138
5519000000.0 0.2197 1.039
5522000000.0 0.9112 0.4965
5525000000.0 0.9771 -0.4242
5528000000.0 0.3037 -1.003
5531000000.0 -0.5498 -0.8882
5534000000.0 -1.062 -0.1486
5538000000.0 -0.7832 0.7496
5541000000.0 0.05622 1.093
5544000000.0 0.8567 0.6505
5547000000.0 1.025 -0.2444
5550000000.0 0.4592 -0.9173
5553000000.0 -0.4382 -0.9818
5556000000.0 -1.023 -0.2819
5559000000.0 -0.8795 0.6239
5562000000.0 -0.0846 1.065
5566000000.0 0.7507 0.7406
5569000000.0 1.018 -0.07202
5572000000.0 0.579 -0.8424
5575000000.0 -0.3055 -0.9655
5578000000.0 -0.9312 -0.4003
5581000000.0 -0.8483 0.4539
5584000000.0 -0.1856 0.9247
5588000000.0 0.5968 0.7575
5591000000.0 0.943 -0.01648
5594000000.0 0.5921 -0.7014
5597000000.0 -0.1613 -0.9171
5600000000.0 -0.7922 -0.4293
5603000000.0 -0.8152 0.3195
5606000000.0 -0.2653 0.8511
5609000000.0 0.4863 0.6849
5612000000.0 0.8567 0.07503
5616000000.0 0.6146 -0.6123
5619000000.0 -0.1166 -0.8368
5622000000.0 -0.7128 -0.4349
5625000000.0 -0.7933 0.2895
5628000000.0 -0.259 0.8121
5631000000.0 0.4547 0.7042
5634000000.0 0.8236 0.1185
5638000000.0 0.5862 -0.5876
5641000000.0 -0.09384 -0.835
5644000000.0 -0.6982 -0.437
5647000000.0 -0.8069 0.2583
5650000000.0 -0.2859 0.7977
5653000000.0 0.4079 0.7207
5656000000.0 0.8602 0.09655
5659000000.0 0.6296 -0.5668
5662000000.0 -0.05226 -0.8656
5666000000.0 -0.7122 -0.4931
5669000000.0 -0.856 0.2922
5672000000.0 -0.3449 0.8448
5675000000.0 0.4598 0.7877
5678000000.0 0.9088 0.1352
5681000000.0 0.6807 -0.6237
5684000000.0 -0.0276 -0.9484
5688000000.0 -0.7487 -0.5537
5691000000.0 -0.962 0.2564
5694000000.0 -0.3915 0.9232
5697000000.0 0.449 0.9171
5700000000.0 0.9735 0.2041
5703000000.0 0.7822 -0.6657
5706000000.0 0.01345 -1.028
5709000000.0 -0.7857 -0.6316
5712000000.0 -1.026 0.1778
5716000000.0 -0.4793 0.9258
5719000000.0 0.3511 0.9916
5722000000.0 1.029 0.3235
5725000000.0 0.9105 -0.5789
5728000000.0 0.1207 -1.058
5731000000.0 -0.7688 -0.7978
5734000000.0 -1.113 0.08019
5738000000.0 -0.6548 0.88
5741000000.0 0.2396 1.074
5744000000.0 0.9878 0.4676
5747000000.0 1.019 -0.4698
5750000000.0 0.3117 -1.067
5753000000.0 -0.6321 -0.9057
5756000000.0 -1.12 -0.0996
5759000000.0 -0.785 0.7823
5762000000.0 0.09171 1.11
5766000000.0 0.9327 0.599
5769000000.0 1.033 -0.2922
5772000000.0 0.4321 -1.011
5775000000.0 -0.4791 -1.002
5778000000.0 -1.091 -0.2514
5781000000.0 -0.873 0.6692
5784000000.0 -0.06643 1.099
5788000000.0 0.8057 0.6891
5791000000.0 1.084 -0.1061
5794000000.0 0.5628 -0.8994
5797000000.0 -0.3064 -1.038
5800000000.0 -1.019 -0.3645
5803000000.0 -0.9158 0.4701
5806000000.0 -0.1713 1.037
5809000000.0 0.6739 0.8226
5812000000.0 1.034 -0.01946
5816000000.0 0.6254 -0.796
5819000000.0 -0.2486 -0.9781
5822000000.0 -0.8794 -0.43
5825000000.0 -0.9168 0.3825
5828000000.0 -0.2686 0.9254
5831000000.0 0.5941 0.7991
5834000000.0 0.9706 0.06397
5838000000.0 0.6561 -0.7079
5841000000.0 -0.1671 -0.9565
5844000000.0 -0.8407 -0.477
5847000000.0 -0.8686 0.3376
5850000000.0 -0.2727 0.8965
5853000000.0 0.4751 0.7814
5856000000.0 0.9067 0.09038
5859000000.0 0.6355 -0.6641
5862000000.0 -0.1385 -0.8994
5866000000.0 -0.7934 -0.4648
5869000000.0 -0.8688 0.3137
5872000000.0 -0.2844 0.8197
5875000000.0 0.5089 0.7601
5878000000.0 0.8613 0.08772
5881000000.0 0.6302 -0.6499
5884000000.0 -0.1057 -0.8604
5888000000.0 -0.7183 -0.4697
5891000000.0 -0.8274 0.2743
5894000000.0 -0.3218 0.8278
5897000000.0 0.4363 0.7593
5900000000.0 0.8472 0.1288
5903000000.0 0.6236 -0.529
5906000000.0 -0.05219 -0.8486
5909000000.0 -0.6952 -0.525
5912000000.0 -0.8451 0.2055
5916000000.0 -0.3618 0.7636
5919000000.0 0.367 0.834
5922000000.0 0.8442 0.2316
5925000000.0 0.7206 -0.533
5928000000.0 0.03348 -0.8699
5931000000.0 -0.6479 -0.6038
5934000000.0 -0.8983 0.1082
5938000000.0 -0.4787 0.7919
5941000000.0 0.2785 0.8724
5944000000.0 0.828 0.3593
5947000000.0 0.8169 -0.4158
5950000000.0 0.1875 -0.9216
5953000000.0 -0.5894 -0.716
5956000000.0 -0.9189 -0.03754
5959000000.0 -0.6153 0.7131
5962000000.0 0.1181 0.9538
5966000000.0 0.8235 0.4847
5969000000.0 0.9172 -0.3084
5972000000.0 0.3359 -0.9225
5975000000.0 -0.4941 -0.8641
5978000000.0 -0.9577 -0.1598
5981000000.0 -0.7459 0.6816
5984000000.0 -0.00809 1.019
5988000000.0 0.7845 0.6369
5991000000.0 1.002 -0.2042
5994000000.0 0.4778 -0.8982
5997000000.0 -0.3856 -0.9273
6000000000.0 -1.007 -0.2998
6003000000.0 -0.8125 0.5382
6006000000.0 -0.1088 0.9987
6009000000.0 0.687 0.719
6012000000.0 1.0 -0.121
6016000000.0 0.5224 -0.805
6019000000.0 -0.2982 -0.9719
6022000000.0 -0.9159 -0.3819
6025000000.0 -0.85 0.474
6028000000.0 -0.167 0.9593
6031000000.0 0.6327 0.7328
6034000000.0 0.9683 -0.01415
6038000000.0 0.602 -0.7423
6041000000.0 -0.2117 -0.9221
6044000000.0 -0.8352 -0.4105
6047000000.0 -0.8583 0.3759
6050000000.0 -0.2374 0.9047
6053000000.0 0.5593 0.723
6056000000.0 0.9027 0.03234
6059000000.0 0.5941 -0.7005
6062000000.0 -0.1612 -0.9052
6066000000.0 -0.7906 -0.4328
6069000000.0 -0.8181 0.37
6072000000.0 -0.2321 0.8421
6075000000.0 0.4855 0.7036
6078000000.0 0.8622 0.07552
6081000000.0 0.574 -0.613
6084000000.0 -0.1132 -0.8602
6088000000.0 -0.7548 -0.4477
6091000000.0 -0.8217 0.2873
6094000000.0 -0.3023 0.8159
6097000000.0 0.434 0.7147
6100000000.0 0.8266 0.09349
6103000000.0 0.5824 -0.5948
6106000000.0 -0.08041 -0.8551
6109000000.0 -0.7 -0.4772
6112000000.0 -0.8219 0.2269
6116000000.0 -0.3145 0.8245
6119000000.0 0.4471 0.7604
6122000000.0 0.8827 0.1518
6125000000.0 0.6599 -0.5679
6128000000.0 -0.03532 -0.8936
6131000000.0 -0.723 -0.525
6134000000.0 -0.8835 0.2101
6138000000.0 -0.3671 0.844
6141000000.0 0.373 0.8109
6144000000.0 0.8832 0.1899
6147000000.0 0.6871 -0.5761
6150000000.0 0.03651 -0.9336
6153000000.0 -0.6928 -0.6005
6156000000.0 -0.9332 0.1793
6159000000.0 -0.4418 0.8219
6162000000.0 0.363 0.8571
6166000000.0 0.9116 0.2859
6169000000.0 0.7918 -0.5236
6172000000.0 0.06452 -0.968
6175000000.0 -0.6759 -0.6802
6178000000.0 -0.9408 0.115
6181000000.0 -0.5052 0.803
6184000000.0 0.2956 0.9449
6188000000.0 0.9298 0.3348
6191000000.0 0.8469 -0.5088
6194000000.0 0.1641 -0.9517
6197000000.0 -0.6232 -0.749
6200000000.0 -0.9678 0.04473
6203000000.0 -0.6055 0.7378
6206000000.0 0.2165 0.9297
6209000000.0 0.8219 0.4365
6212000000.0 0.8487 -0.3922
6216000000.0 0.2997 -0.8935
6219000000.0 -0.5041 -0.7534
6222000000.0 -0.8929 -0.09113
6225000000.0 -0.6621 0.6601
6228000000.0 0.05154 0.9093
6231000000.0 0.7352 0.4741
6234000000.0 0.8772 -0.262
6238000000.0 0.3642 -0.8139
6241000000.0 -0.3919 -0.7986
6244000000.0 -0.8678 -0.1881
6247000000.0 -0.7185 0.5597
6250000000.0 -0.03169 0.8473
6253000000.0 0.6207 0.5567
6256000000.0 0.8201 -0.09911
6259000000.0 0.452 -0.6987
6262000000.0 -0.2374 -0.7648
6266000000.0 -0.7695 -0.2898
