! Created with skrf 1.8.0 (http://scikit-rf.org).
# Hz S RI R 50.0 
!freq ReS11 ImS11
4000000000.0 -0.3235 -1.467
4003000000.0 -1.353 -0.7087
4006000000.0 -1.402 0.5857
4009000000.0 -0.4117 1.474
4012000000.0 0.8521 1.274
4016000000.0 1.504 0.07178
4019000000.0 1.068 -1.131
4022000000.0 -0.2276 -1.506
4025000000.0 -1.327 -0.8171
4028000000.0 -1.474 0.5685
4031000000.0 -0.4885 1.531
4034000000.0 0.9151 1.375
4038000000.0 1.652 0.1279
4041000000.0 1.127 -1.218
4044000000.0 -0.2316 -1.596
4047000000.0 -1.384 -0.8404
4050000000.0 -1.536 0.5407
4053000000.0 -0.4989 1.551
4056000000.0 0.8446 1.368
4059000000.0 1.562 0.2082
4062000000.0 1.183 -1.084
4066000000.0 -0.05943 -1.597
4069000000.0 -1.273 -0.9855
4072000000.0 -1.542 0.4177
4075000000.0 -0.7004 1.456
4078000000.0 0.6475 1.462
4081000000.0 1.59 0.4159
4084000000.0 1.351 -0.919
4088000000.0 0.1321 -1.672
4091000000.0 -1.187 -1.162
4094000000.0 -1.648 0.1551
4097000000.0 -0.9056 1.368
4100000000.0 0.4626 1.549
4103000000.0 1.46 0.6193
4106000000.0 1.4 -0.6704
4109000000.0 0.3673 -1.502
4112000000.0 -0.9092 -1.202
4116000000.0 -1.491 -0.129
4119000000.0 -1.053 1.06
4122000000.0 0.08723 1.473
4125000000.0 1.152 0.872
4128000000.0 1.434 -0.3151
4131000000.0 0.6826 -1.321
4134000000.0 -0.5228 -1.405
4138000000.0 -1.406 -0.4877
4141000000.0 -1.297 0.725
4144000000.0 -0.255 1.464
4147000000.0 0.9354 1.19
4150000000.0 1.535 0.04716
4153000000.0 1.012 -1.15
4156000000.0 -0.234 -1.49
4159000000.0 -1.303 -0.7523
4162000000.0 -1.438 0.4954
4166000000.0 -0.5618 1.401
4169000000.0 0.7499 1.302
4172000000.0 1.488 0.2842
4175000000.0 1.151 -0.9281
4178000000.0 0.03633 -1.486
4181000000.0 -1.142 -0.9694
4184000000.0 -1.491 0.2256
4188000000.0 -0.7784 1.325
4191000000.0 0.5074 1.428
4194000000.0 1.45 0.5223
4197000000.0 1.327 -0.797
4200000000.0 0.1917 -1.568
4203000000.0 -1.074 -1.139
4206000000.0 -1.613 0.1451
4209000000.0 -0.8795 1.358
4212000000.0 0.5129 1.572
4216000000.0 1.608 0.529
4219000000.0 1.385 -0.9491
4222000000.0 0.06267 -1.665
4225000000.0 -1.296 -1.086
4228000000.0 -1.644 0.3376
4231000000.0 -0.7016 1.528
4234000000.0 0.7438 1.456
4238000000.0 1.627 0.2395
4241000000.0 1.145 -1.079
4244000000.0 -0.1668 -1.543
4247000000.0 -1.341 -0.8109
4250000000.0 -1.447 0.525
4253000000.0 -0.456 1.439
4256000000.0 0.9027 1.216
4259000000.0 1.487 0.04228
4262000000.0 0.9558 -1.138
4266000000.0 -0.3054 -1.43
4269000000.0 -1.304 -0.6505
4272000000.0 -1.32 0.669
4275000000.0 -0.3397 1.412
4278000000.0 0.9474 1.108
4281000000.0 1.387 -0.03323
4284000000.0 0.8464 -1.124
4288000000.0 -0.3195 -1.345
4291000000.0 -1.211 -0.5526
4294000000.0 -1.188 0.5975
4297000000.0 -0.3033 1.306
4300000000.0 0.7974 1.057
4303000000.0 1.314 0.04904
4306000000.0 0.8876 -0.9355
4309000000.0 -0.1441 -1.269
4312000000.0 -1.098 -0.72
4316000000.0 -1.253 0.3466
4319000000.0 -0.5553 1.199
4322000000.0 0.6054 1.147
4325000000.0 1.3 0.3375
4328000000.0 1.088 -0.7748
4331000000.0 0.1139 -1.334
4334000000.0 -0.9795 -0.9428
4338000000.0 -1.386 0.1231
4341000000.0 -0.7519 1.189
4344000000.0 0.4126 1.359
4347000000.0 1.333 0.5902
4350000000.0 1.278 -0.6599
4353000000.0 0.3061 -1.42
4356000000.0 -0.8947 -1.145
4359000000.0 -1.491 -0.01132
4362000000.0 -0.9758 1.089
4366000000.0 0.2727 1.463
4369000000.0 1.282 0.73
4372000000.0 1.397 -0.5198
4375000000.0 0.5171 -1.408
4378000000.0 -0.7801 -1.329
4381000000.0 -1.547 -0.2216
4384000000.0 -1.107 1.04
4388000000.0 0.08119 1.566
4391000000.0 1.291 0.8998
4394000000.0 1.493 -0.458
4397000000.0 0.6083 -1.485
4400000000.0 -0.7949 -1.384
4403000000.0 -1.594 -0.2199
4406000000.0 -1.125 1.095
4409000000.0 0.1311 1.578
4412000000.0 1.335 0.8462
4416000000.0 1.468 -0.532
4419000000.0 0.4645 -1.47
4422000000.0 -0.823 -1.229
4425000000.0 -1.485 -0.08222
4428000000.0 -0.9348 1.099
4431000000.0 0.2578 1.405
4434000000.0 1.234 0.6304
4438000000.0 1.22 -0.5526
4441000000.0 0.2841 -1.293
4444000000.0 -0.858 -1.033
4447000000.0 -1.319 0.01543
4450000000.0 -0.7887 1.061
4453000000.0 0.3414 1.257
4456000000.0 1.16 0.46
4459000000.0 1.091 -0.6569
4462000000.0 0.1655 -1.177
4466000000.0 -0.8363 -0.8579
4469000000.0 -1.189 0.1561
4472000000.0 -0.5808 1.025
4475000000.0 0.44 1.123
4478000000.0 1.125 0.3257
4481000000.0 0.9476 -0.7031
4484000000.0 0.06153 -1.135
4488000000.0 -0.8439 -0.793
4491000000.0 -1.1 0.1936
4494000000.0 -0.5352 0.9981
4497000000.0 0.4243 1.028
4500000000.0 1.075 0.3269
4503000000.0 0.9147 -0.614
4506000000.0 0.07842 -1.136
4509000000.0 -0.8316 -0.8054
4512000000.0 -1.099 0.1244
4516000000.0 -0.6116 0.9551
4519000000.0 0.3615 1.091
4522000000.0 1.074 0.4046
4525000000.0 1.021 -0.5549
4528000000.0 0.169 -1.163
4531000000.0 -0.792 -0.8917
4534000000.0 -1.212 0.03618
4538000000.0 -0.7449 0.9685
4541000000.0 0.29 1.199
4544000000.0 1.093 0.571
4547000000.0 1.132 -0.5104
4550000000.0 0.3843 -1.186
4553000000.0 -0.6877 -1.053
4556000000.0 -1.229 -0.1346
4559000000.0 -0.9075 0.8486
4562000000.0 0.09328 1.295
4566000000.0 1.023 0.7712
4569000000.0 1.29 -0.2849
4572000000.0 0.609 -1.173
4575000000.0 -0.5339 -1.204
4578000000.0 -1.281 -0.3841
4581000000.0 -1.132 0.7427
4584000000.0 -0.1453 1.367
4588000000.0 0.9831 0.9622
4591000000.0 1.386 -0.1395
4594000000.0 0.7693 -1.133
4597000000.0 -0.3548 -1.337
4600000000.0 -1.301 -0.5591
4603000000.0 -1.272 0.6726
4606000000.0 -0.2802 1.416
4609000000.0 0.8821 1.093
4612000000.0 1.371 0.01463
4616000000.0 0.8803 -1.078
4619000000.0 -0.2677 -1.402
4622000000.0 -1.224 -0.6251
4625000000.0 -1.276 0.5726
4628000000.0 -0.3525 1.322
4631000000.0 0.788 1.082
4634000000.0 1.368 0.06979
4638000000.0 0.8852 -1.013
4641000000.0 -0.2315 -1.333
4644000000.0 -1.158 -0.6865
4647000000.0 -1.209 0.5114
4650000000.0 -0.3646 1.261
4653000000.0 0.7486 1.055
4656000000.0 1.262 0.06366
4659000000.0 0.8094 -0.9229
4662000000.0 -0.2309 -1.194
4666000000.0 -1.077 -0.552
4669000000.0 -1.055 0.4902
4672000000.0 -0.2809 1.145
4675000000.0 0.7435 0.9145
4678000000.0 1.143 0.03374
4681000000.0 0.7071 -0.8436
4684000000.0 -0.2172 -1.1
4688000000.0 -1.006 -0.4701
4691000000.0 -1.013 0.4614
4694000000.0 -0.2839 1.056
4697000000.0 0.6643 0.8747
4700000000.0 1.089 0.02388
4703000000.0 0.6967 -0.8504
4706000000.0 -0.2504 -1.079
4709000000.0 -1.0 -0.4868
4712000000.0 -0.9813 0.4731
4716000000.0 -0.2844 1.044
4719000000.0 0.6653 0.8444
4722000000.0 1.065 0.002733
4725000000.0 0.6949 -0.7719
4728000000.0 -0.2144 -1.085
4731000000.0 -0.9632 -0.5265
4734000000.0 -0.9839 0.3923
4738000000.0 -0.3419 1.031
4741000000.0 0.5567 0.8834
4744000000.0 1.063 0.1384
4747000000.0 0.8072 -0.7169
4750000000.0 -0.06672 -1.101
4753000000.0 -0.8531 -0.6842
4756000000.0 -1.076 0.2478
4759000000.0 -0.5156 1.017
4762000000.0 0.4575 1.064
4766000000.0 1.122 0.3507
4769000000.0 0.9971 -0.6245
4772000000.0 0.1359 -1.174
4775000000.0 -0.846 -0.8655
4778000000.0 -1.24 0.06278
4781000000.0 -0.7307 0.9743
4784000000.0 0.2923 1.2
4788000000.0 1.102 0.5582
4791000000.0 1.165 -0.4716
4794000000.0 0.3625 -1.203
4797000000.0 -0.6926 -1.067
4800000000.0 -1.304 -0.1984
4803000000.0 -0.9266 0.865
4806000000.0 0.04869 1.269
4809000000.0 1.031 0.8055
4812000000.0 1.275 -0.2817
4816000000.0 0.6113 -1.191
4819000000.0 -0.5344 -1.213
4822000000.0 -1.295 -0.3932
4825000000.0 -1.147 0.7377
4828000000.0 -0.1309 1.364
4831000000.0 0.9754 0.981
4834000000.0 1.39 -0.1524
4838000000.0 0.7833 -1.196
4841000000.0 -0.446 -1.355
4844000000.0 -1.294 -0.5339
4847000000.0 -1.208 0.6849
4850000000.0 -0.2546 1.371
4853000000.0 0.9005 1.022
4856000000.0 1.363 -0.06859
4859000000.0 0.8162 -1.052
4862000000.0 -0.3011 -1.285
4866000000.0 -1.182 -0.5747
4869000000.0 -1.202 0.5308
4872000000.0 -0.2986 1.269
4875000000.0 0.7495 0.9963
4878000000.0 1.221 0.0254
4881000000.0 0.7992 -0.9523
4884000000.0 -0.2298 -1.216
4888000000.0 -1.043 -0.5844
4891000000.0 -1.097 0.4406
4894000000.0 -0.3344 1.105
4897000000.0 0.6507 0.9182
4900000000.0 1.11 0.0546
4903000000.0 0.724 -0.7869
4906000000.0 -0.139 -1.075
4909000000.0 -0.8825 -0.5344
4912000000.0 -0.9264 0.3425
4916000000.0 -0.3247 0.9462
4919000000.0 0.5256 0.844
4922000000.0 0.9614 0.1308
4925000000.0 0.7129 -0.6383
4928000000.0 -0.07823 -0.9258
4931000000.0 -0.7683 -0.5478
4934000000.0 -0.9129 0.2303
4938000000.0 -0.3896 0.8303
4941000000.0 0.4062 0.8472
4944000000.0 0.9043 0.2249
4947000000.0 0.7625 -0.5807
4950000000.0 0.06115 -0.9543
4953000000.0 -0.7195 -0.6592
4956000000.0 -0.9473 0.1654
4959000000.0 -0.5001 0.8605
4962000000.0 0.3702 0.9351
4966000000.0 0.95 0.3078
4969000000.0 0.8588 -0.5545
4972000000.0 0.09279 -1.016
4975000000.0 -0.7325 -0.7408
4978000000.0 -1.039 0.06922
4981000000.0 -0.6099 0.8902
4984000000.0 0.2779 1.023
4988000000.0 0.9899 0.471
4991000000.0 1.002 -0.4901
4994000000.0 0.2679 -1.088
4997000000.0 -0.6875 -0.9506
5000000000.0 -1.169 -0.06479
5003000000.0 -0.7883 0.8689
5006000000.0 0.1518 1.201
5009000000.0 1.038 0.671
5012000000.0 1.189 -0.3895
5016000000.0 0.4786 -1.156
5019000000.0 -0.6399 -1.118
5022000000.0 -1.26 -0.209
5025000000.0 -1.004 0.8377
5028000000.0 0.01393 1.293
5031000000.0 1.029 0.8058
5034000000.0 1.307 -0.2844
5038000000.0 0.6155 -1.14
5041000000.0 -0.5126 -1.209
5044000000.0 -1.251 -0.3766
5047000000.0 -1.082 0.681
5050000000.0 -0.1348 1.286
5053000000.0 0.85 0.9775
5056000000.0 1.274 -0.0695
5059000000.0 0.7839 -1.028
5062000000.0 -0.2996 -1.299
5066000000.0 -1.152 -0.6063
5069000000.0 -1.2 0.5019
5072000000.0 -0.3609 1.205
5075000000.0 0.7271 1.049
5078000000.0 1.243 0.1443
5081000000.0 0.8361 -0.8777
5084000000.0 -0.1154 -1.213
5088000000.0 -0.9707 -0.705
5091000000.0 -1.114 0.3444
5094000000.0 -0.4658 1.073
5097000000.0 0.5121 1.029
5100000000.0 1.078 0.2819
5103000000.0 0.8256 -0.6583
5106000000.0 0.06629 -1.099
5109000000.0 -0.7686 -0.7765
5112000000.0 -1.025 0.1291
5116000000.0 -0.5706 0.8606
5119000000.0 0.3112 0.9559
5122000000.0 0.8912 0.3536
5125000000.0 0.9138 -0.4996
5128000000.0 0.1946 -0.9633
5131000000.0 -0.6265 -0.7995
5134000000.0 -0.9988 0.005458
5138000000.0 -0.6304 0.7281
5141000000.0 0.1663 0.9411
5144000000.0 0.8484 0.4075
5147000000.0 0.8616 -0.4065
5150000000.0 0.2653 -0.9192
5153000000.0 -0.5529 -0.7519
5156000000.0 -0.8937 -0.08814
5159000000.0 -0.614 0.6668
5162000000.0 0.1246 0.8931
5166000000.0 0.7544 0.4801
5169000000.0 0.8352 -0.3346
5172000000.0 0.2728 -0.829
5175000000.0 -0.4965 -0.7408
5178000000.0 -0.8784 -0.1118
5181000000.0 -0.6287 0.641
5184000000.0 0.1144 0.916
5188000000.0 0.8019 0.5195
5191000000.0 0.854 -0.3034
5194000000.0 0.3196 -0.8709
5197000000.0 -0.4891 -0.7995
5200000000.0 -0.9605 -0.1033
5203000000.0 -0.6637 0.6854
5206000000.0 0.1082 0.9606
5209000000.0 0.8386 0.5483
5212000000.0 0.9205 -0.3151
5216000000.0 0.3418 -0.9402
5219000000.0 -0.4788 -0.8765
5222000000.0 -1.013 -0.1839
5225000000.0 -0.7749 0.6527
5228000000.0 0.01091 1.038
5231000000.0 0.8063 0.6474
5234000000.0 1.016 -0.234
5238000000.0 0.4736 -0.9357
5241000000.0 -0.4136 -0.985
5244000000.0 -1.026 -0.2923
5247000000.0 -0.9118 0.5951
5250000000.0 -0.1229 1.08
5253000000.0 0.7583 0.7775
5256000000.0 1.08 -0.08614
5259000000.0 0.6414 -0.9002
5262000000.0 -0.2599 -1.068
5266000000.0 -0.9924 -0.4477
5269000000.0 -0.9751 0.4583
5272000000.0 -0.2806 1.049
5275000000.0 0.617 0.9122
5278000000.0 1.076 0.1067
5281000000.0 0.7959 -0.7724
5284000000.0 -0.07206 -1.072
5288000000.0 -0.9011 -0.6777
5291000000.0 -1.081 0.2336
5294000000.0 -0.5276 0.9866
5297000000.0 0.4207 1.035
5300000000.0 1.065 0.3596
5303000000.0 0.9798 -0.583
5306000000.0 0.1518 -1.108
5309000000.0 -0.7727 -0.8711
5312000000.0 -1.149 0.03622
5316000000.0 -0.6752 0.9034
5319000000.0 0.2201 1.103
5322000000.0 1.012 0.5505
5325000000.0 1.052 -0.4178
5328000000.0 0.3196 -1.11
5331000000.0 -0.6171 -0.9178
5334000000.0 -1.118 -0.09652
5338000000.0 -0.788 0.7999
5341000000.0 0.1572 1.072
5344000000.0 0.9225 0.5727
5347000000.0 1.032 -0.3591
5350000000.0 0.3657 -1.022
5353000000.0 -0.5474 -0.8849
5356000000.0 -1.023 -0.1449
5359000000.0 -0.7462 0.7307
5362000000.0 0.04054 1.007
5366000000.0 0.8305 0.5809
5369000000.0 0.9436 -0.31
5372000000.0 0.3509 -0.9415
5375000000.0 -0.5085 -0.824
5378000000.0 -0.9465 -0.09382
5381000000.0 -0.6595 0.6757
5384000000.0 0.1636 0.9199
5388000000.0 0.7988 0.462
5391000000.0 0.8568 -0.3216
5394000000.0 0.2437 -0.85
5397000000.0 -0.5327 -0.7493
5400000000.0 -0.8898 -0.05353
5403000000.0 -0.5608 0.6322
5406000000.0 0.1608 0.8604
5409000000.0 0.7582 0.3929
5412000000.0 0.7844 -0.3013
5416000000.0 0.232 -0.8085
5419000000.0 -0.4947 -0.6976
5422000000.0 -0.868 -0.06742
5425000000.0 -0.5796 0.6441
5428000000.0 0.1311 0.8804
5431000000.0 0.7657 0.411
5434000000.0 0.825 -0.3541
5438000000.0 0.2334 -0.867
5441000000.0 -0.5213 -0.7608
5444000000.0 -0.8952 -0.0694
5447000000.0 -0.6477 0.6851
5450000000.0 0.1066 0.9203
5453000000.0 0.7922 0.4853
5456000000.0 0.8855 -0.3147
5459000000.0 0.3339 -0.8841
5462000000.0 -0.4586 -0.8579
5466000000.0 -0.9445 -0.203
5469000000.0 -0.7398 0.5983
5472000000.0 -0.01676 0.9575
5475000000.0 0.7651 0.59
5478000000.0 0.9912 -0.1705
5481000000.0 0.4981 -0.8552
5484000000.0 -0.3678 -0.9492
5488000000.0 -0.9669 -0.3497
5491000000.0 -0.9104 0.4988
5494000000.0 -0.1844 1.064
5497000000.0 0.6672 0.8196
5500000000.0 1.067 -0.001839
5503000000.0 0.6923 -0.8315
5506000000.0 -0.2208 -1.091
5509000000.0 -0.9692 -0.5015
5512000000.0 -0.9708 0.4056
5516000000.0 -0.3422 0.9945
5519000000.0 0.5753 0.9171
5522000000.0 1.027 0.1535
5525000000.0 0.821 -0.6958
5528000000.0 -0.01809 -1.056
5531000000.0 -0.8553 -0.6854
5534000000.0 -1.064 0.2498
5538000000.0 -0.4842 0.9709
5541000000.0 0.4341 0.9937
5544000000.0 1.021 0.2938
5547000000.0 0.8885 -0.5837
5550000000.0 0.1045 -1.044
5553000000.0 -0.7249 -0.7382
5556000000.0 -1.04 0.1119
5559000000.0 -0.5513 0.8698
5562000000.0 0.3 0.9238
5566000000.0 0.9195 0.3665
5569000000.0 0.8701 -0.5022
5572000000.0 0.1779 -0.9575
5575000000.0 -0.6455 -0.7145
5578000000.0 -0.9472 0.06983
5581000000.0 -0.5551 0.7241
5584000000.0 0.231 0.8857
5588000000.0 0.7948 0.3949
5591000000.0 0.8029 -0.372
5594000000.0 0.2148 -0.8323
5597000000.0 -0.5458 -0.6769
5600000000.0 -0.8302 0.0008533
5603000000.0 -0.5579 0.637
5606000000.0 0.1614 0.8102
5609000000.0 0.7421 0.3997
5612000000.0 0.7192 -0.3623
5616000000.0 0.2114 -0.7794
5619000000.0 -0.4914 -0.631
5622000000.0 -0.82 -0.02063
5625000000.0 -0.5084 0.6114
5628000000.0 0.1788 0.8009
5631000000.0 0.7088 0.378
5634000000.0 0.7546 -0.3457
5638000000.0 0.212 -0.7894
5641000000.0 -0.4846 -0.6514
5644000000.0 -0.8405 -0.008179
5647000000.0 -0.536 0.6447
5650000000.0 0.1952 0.8519
5653000000.0 0.7785 0.3886
5656000000.0 0.8027 -0.3617
5659000000.0 0.2436 -0.8637
5662000000.0 -0.5595 -0.7086
5666000000.0 -0.9148 -0.0184
5669000000.0 -0.6235 0.7062
5672000000.0 0.1687 0.931
5675000000.0 0.8714 0.464
5678000000.0 0.9288 -0.3672
5681000000.0 0.276 -0.9549
5684000000.0 -0.5681 -0.8331
5688000000.0 -1.004 -0.06535
5691000000.0 -0.7177 0.7524
5694000000.0 0.1478 1.04
5697000000.0 0.8845 0.5647
5700000000.0 1.009 -0.3469
5703000000.0 0.3353 -1.013
5706000000.0 -0.5158 -0.9384
5709000000.0 -1.089 -0.1976
5712000000.0 -0.8352 0.7136
5716000000.0 0.01836 1.114
5719000000.0 0.9205 0.7008
5722000000.0 1.064 -0.2271
5725000000.0 0.4478 -0.9971
5728000000.0 -0.4392 -1.012
5731000000.0 -1.078 -0.3142
5734000000.0 -0.9489 0.6366
5738000000.0 -0.08179 1.128
5741000000.0 0.8561 0.7899
5744000000.0 1.109 -0.1167
5747000000.0 0.6025 -0.9217
5750000000.0 -0.3356 -1.047
5753000000.0 -1.025 -0.4038
5756000000.0 -0.9756 0.5442
5759000000.0 -0.2313 1.117
5762000000.0 0.7183 0.8544
5766000000.0 1.115 0.002441
5769000000.0 0.711 -0.8443
5772000000.0 -0.2093 -1.08
5775000000.0 -0.9496 -0.4914
5778000000.0 -0.9926 0.4205
5781000000.0 -0.3069 1.041
5784000000.0 0.6134 0.8823
5788000000.0 1.07 0.05516
5791000000.0 0.7077 -0.7732
5794000000.0 -0.129 -1.028
5797000000.0 -0.8923 -0.4963
5800000000.0 -0.9728 0.357
5803000000.0 -0.2786 0.9675
5806000000.0 0.5173 0.8173
5809000000.0 0.9527 0.08207
5812000000.0 0.6522 -0.7188
5816000000.0 -0.1243 -0.9359
5819000000.0 -0.821 -0.4971
5822000000.0 -0.8736 0.3443
5825000000.0 -0.273 0.8921
5828000000.0 0.5454 0.72
5831000000.0 0.9369 0.05708
5834000000.0 0.5587 -0.6653
5838000000.0 -0.1788 -0.889
5841000000.0 -0.8024 -0.4133
5844000000.0 -0.8387 0.389
5847000000.0 -0.1808 0.8862
5850000000.0 0.5566 0.682
5853000000.0 0.9078 0.002819
5856000000.0 0.5459 -0.6888
5859000000.0 -0.2263 -0.8216
5862000000.0 -0.7956 -0.3272
5866000000.0 -0.7949 0.3856
5869000000.0 -0.1724 0.8945
5872000000.0 0.5584 0.7016
5875000000.0 0.9173 -0.03041
5878000000.0 0.5397 -0.7101
5881000000.0 -0.2224 -0.8684
5884000000.0 -0.8227 -0.3599
5888000000.0 -0.811 0.4149
5891000000.0 -0.1873 0.878
5894000000.0 0.5988 0.7467
5897000000.0 0.9001 -0.002979
5900000000.0 0.5844 -0.7238
5903000000.0 -0.1988 -0.9095
5906000000.0 -0.8414 -0.4402
5909000000.0 -0.8823 0.3981
5912000000.0 -0.2568 0.9217
5916000000.0 0.5807 0.8149
5919000000.0 0.9778 0.06418
5922000000.0 0.6595 -0.742
5925000000.0 -0.1411 -0.9954
5928000000.0 -0.8722 -0.523
5931000000.0 -0.9187 0.3567
5934000000.0 -0.3353 0.9557
5938000000.0 0.513 0.8659
5941000000.0 1.003 0.1463
5944000000.0 0.71 -0.7058
5947000000.0 -0.09028 -1.017
5950000000.0 -0.8341 -0.591
5953000000.0 -0.9992 0.295
5956000000.0 -0.3892 0.9763
5959000000.0 0.5104 0.9012
5962000000.0 1.038 0.1093
5966000000.0 0.7426 -0.7062
5969000000.0 -0.08289 -1.037
5972000000.0 -0.8205 -0.5666
5975000000.0 -0.9856 0.3268
5978000000.0 -0.3478 0.9368
5981000000.0 0.5206 0.8727
5984000000.0 0.9852 0.09083
5988000000.0 0.6917 -0.7116
5991000000.0 -0.1223 -0.9461
5994000000.0 -0.8522 -0.4712
5997000000.0 -0.8727 0.3644
6000000000.0 -0.2556 0.9318
6003000000.0 0.5637 0.7238
6006000000.0 0.8904 0.01407
6009000000.0 0.5735 -0.7138
6012000000.0 -0.2306 -0.8156
6016000000.0 -0.7991 -0.3437
6019000000.0 -0.7392 0.416
6022000000.0 -0.1316 0.8288
6025000000.0 0.5786 0.5938
6028000000.0 0.8302 -0.06128
6031000000.0 0.4502 -0.7184
6034000000.0 -0.3098 -0.7788
6038000000.0 -0.7978 -0.2563
6041000000.0 -0.6941 0.4576
6044000000.0 -0.04028 0.8216
6047000000.0 0.6194 0.5705
6050000000.0 0.8211 -0.1363
6053000000.0 0.3998 -0.7334
6056000000.0 -0.3205 -0.7802
6059000000.0 -0.8484 -0.1981
6062000000.0 -0.6836 0.5209
6066000000.0 -0.01339 0.8848
6069000000.0 0.6962 0.5389
6072000000.0 0.8699 -0.2189
6075000000.0 0.3868 -0.8257
6078000000.0 -0.4472 -0.8309
6081000000.0 -0.93 -0.1838
6084000000.0 -0.715 0.6264
6088000000.0 0.02045 0.9484
6091000000.0 0.7765 0.5381
6094000000.0 0.9508 -0.2557
6097000000.0 0.3654 -0.911
6100000000.0 -0.4796 -0.859
6103000000.0 -1.024 -0.1182
6106000000.0 -0.7338 0.7179
6109000000.0 0.1044 1.06
6112000000.0 0.9006 0.5273
6116000000.0 0.9859 -0.3714
6119000000.0 0.3239 -1.01
6122000000.0 -0.6183 -0.8752
6125000000.0 -1.051 -0.0288
6128000000.0 -0.6668 0.8261
6131000000.0 0.2216 1.044
6134000000.0 0.9795 0.4459
6138000000.0 0.9046 -0.4831
6141000000.0 0.1994 -1.008
6144000000.0 -0.6917 -0.7307
6147000000.0 -1.032 0.06426
6150000000.0 -0.5209 0.8333
6153000000.0 0.3119 0.9122
6156000000.0 0.9296 0.3276
6159000000.0 0.7771 -0.5074
6162000000.0 0.06104 -0.9623
6166000000.0 -0.6963 -0.6233
6169000000.0 -0.8995 0.1704
6172000000.0 -0.4343 0.8005
6175000000.0 0.3911 0.814
6178000000.0 0.8539 0.225
6181000000.0 0.6666 -0.5748
6184000000.0 -0.04656 -0.8735
6188000000.0 -0.7166 -0.4713
6191000000.0 -0.784 0.2851
6194000000.0 -0.2915 0.7514
6197000000.0 0.4375 0.6666
6200000000.0 0.8537 0.05491
6203000000.0 0.5551 -0.5896
6206000000.0 -0.1467 -0.8111
6209000000.0 -0.7038 -0.3773
6212000000.0 -0.7108 0.3649
6216000000.0 -0.1911 0.7939
6219000000.0 0.5092 0.6433
6222000000.0 0.8196 -0.03949
6225000000.0 0.456 -0.6643
6228000000.0 -0.2615 -0.7767
6231000000.0 -0.7121 -0.3154
6234000000.0 -0.7145 0.3878
6238000000.0 -0.1413 0.8315
6241000000.0 0.5656 0.5676
6244000000.0 0.7954 -0.09818
6247000000.0 0.412 -0.7014
6250000000.0 -0.3063 -0.7594
6253000000.0 -0.796 -0.2173
6256000000.0 -0.6625 0.5013
6259000000.0 -0.01911 0.8116
6262000000.0 0.6436 0.5166
6266000000.0 0.8089 -0.2068
6269000000.0 0.3559 -0.7313
