! Created with skrf 1.8.0 (http://scikit-rf.org).
# Hz S RI R 50.0 
!freq ReS11 ImS11
4000000000.0 -0.1669 -1.515
4003000000.0 -1.259 -0.8491
4006000000.0 -1.442 0.4637
4009000000.0 -0.5254 1.416
4012000000.0 0.7685 1.287
4016000000.0 1.563 0.2555
4019000000.0 1.108 -1.033
4022000000.0 -0.1134 -1.566
4025000000.0 -1.307 -0.9179
4028000000.0 -1.529 0.4688
4031000000.0 -0.6152 1.491
4034000000.0 0.8392 1.399
4038000000.0 1.586 0.2487
4041000000.0 1.192 -1.108
4044000000.0 -0.0939 -1.559
4047000000.0 -1.31 -0.9123
4050000000.0 -1.582 0.439
4053000000.0 -0.6099 1.459
4056000000.0 0.7659 1.447
4059000000.0 1.565 0.3201
4062000000.0 1.295 -1.013
4066000000.0 0.02819 -1.62
4069000000.0 -1.217 -1.034
4072000000.0 -1.601 0.2989
4075000000.0 -0.8224 1.403
4078000000.0 0.5455 1.513
4081000000.0 1.569 0.551
4084000000.0 1.431 -0.877
4088000000.0 0.2342 -1.622
4091000000.0 -1.104 -1.25
4094000000.0 -1.649 0.03239
4097000000.0 -0.9617 1.328
4100000000.0 0.3643 1.599
4103000000.0 1.398 0.705
4106000000.0 1.49 -0.649
4109000000.0 0.4694 -1.532
4112000000.0 -0.809 -1.295
4116000000.0 -1.476 -0.2328
4119000000.0 -1.144 0.9962
4122000000.0 0.004611 1.509
4125000000.0 1.121 0.9523
4128000000.0 1.483 -0.1984
4131000000.0 0.801 -1.226
4134000000.0 -0.4397 -1.385
4138000000.0 -1.374 -0.5869
4141000000.0 -1.339 0.6484
4144000000.0 -0.3845 1.473
4147000000.0 0.8623 1.237
4150000000.0 1.528 0.1257
4153000000.0 1.056 -1.091
4156000000.0 -0.1123 -1.529
4159000000.0 -1.259 -0.8825
4162000000.0 -1.465 0.3703
4166000000.0 -0.676 1.336
4169000000.0 0.5943 1.391
4172000000.0 1.462 0.4082
4175000000.0 1.233 -0.853
4178000000.0 0.1826 -1.463
4181000000.0 -1.048 -1.082
4184000000.0 -1.511 0.1013
4188000000.0 -0.8988 1.223
4191000000.0 0.3435 1.478
4194000000.0 1.414 0.6236
4197000000.0 1.403 -0.6668
4200000000.0 0.3712 -1.536
4203000000.0 -0.9753 -1.301
4206000000.0 -1.671 -0.07628
4209000000.0 -1.064 1.223
4212000000.0 0.3414 1.633
4216000000.0 1.478 0.7189
4219000000.0 1.515 -0.7497
4222000000.0 0.3285 -1.642
4225000000.0 -1.116 -1.299
4228000000.0 -1.689 0.1082
4231000000.0 -0.9295 1.398
4234000000.0 0.5191 1.546
4238000000.0 1.542 0.5065
4241000000.0 1.348 -0.923
4244000000.0 0.1028 -1.619
4247000000.0 -1.211 -1.042
4250000000.0 -1.528 0.3149
4253000000.0 -0.6706 1.429
4256000000.0 0.6558 1.412
4259000000.0 1.462 0.3389
4262000000.0 1.163 -0.9988
4266000000.0 -0.07772 -1.529
4269000000.0 -1.215 -0.8556
4272000000.0 -1.447 0.426
4275000000.0 -0.5182 1.402
4278000000.0 0.7711 1.256
4281000000.0 1.44 0.2112
4284000000.0 1.017 -0.9819
4288000000.0 -0.1128 -1.364
4291000000.0 -1.152 -0.7818
4294000000.0 -1.264 0.4301
4297000000.0 -0.495 1.24
4300000000.0 0.63 1.144
4303000000.0 1.307 0.2375
4306000000.0 1.017 -0.8063
4309000000.0 0.06145 -1.274
4312000000.0 -0.9539 -0.8349
4316000000.0 -1.285 0.1606
4319000000.0 -0.6662 1.1
4322000000.0 0.3968 1.265
4325000000.0 1.245 0.4912
4328000000.0 1.175 -0.6502
4331000000.0 0.2805 -1.347
4334000000.0 -0.8166 -1.047
4338000000.0 -1.385 -0.05644
4341000000.0 -0.9245 1.051
4344000000.0 0.2211 1.4
4347000000.0 1.163 0.7249
4350000000.0 1.369 -0.4647
4353000000.0 0.4733 -1.364
4356000000.0 -0.7334 -1.266
4359000000.0 -1.426 -0.2524
4362000000.0 -1.125 0.94
4366000000.0 0.01867 1.475
4369000000.0 1.15 0.935
4372000000.0 1.461 -0.3356
4375000000.0 0.7242 -1.313
4378000000.0 -0.5748 -1.391
4381000000.0 -1.436 -0.4736
4384000000.0 -1.291 0.8566
4388000000.0 -0.1806 1.519
4391000000.0 1.095 1.117
4394000000.0 1.547 -0.1155
4397000000.0 0.8753 -1.327
4400000000.0 -0.5026 -1.491
4403000000.0 -1.471 -0.5672
4406000000.0 -1.37 0.8201
4409000000.0 -0.2271 1.569
4412000000.0 1.122 1.127
4416000000.0 1.561 -0.1633
4419000000.0 0.8007 -1.267
4422000000.0 -0.5323 -1.402
4425000000.0 -1.392 -0.4464
4428000000.0 -1.216 0.8285
4431000000.0 -0.07755 1.474
4434000000.0 1.063 0.9905
4438000000.0 1.388 -0.2496
4441000000.0 0.6533 -1.224
4444000000.0 -0.5581 -1.273
4447000000.0 -1.299 -0.3211
4450000000.0 -1.051 0.8687
4453000000.0 0.0218 1.321
4456000000.0 1.027 0.7698
4459000000.0 1.222 -0.3503
4462000000.0 0.4957 -1.183
4466000000.0 -0.6075 -1.073
4469000000.0 -1.239 -0.1417
4472000000.0 -0.8666 0.8509
4475000000.0 0.1151 1.204
4478000000.0 1.006 0.5922
4481000000.0 1.102 -0.4085
4484000000.0 0.3365 -1.118
4488000000.0 -0.6396 -0.939
4491000000.0 -1.147 -0.09304
4494000000.0 -0.7774 0.8553
4497000000.0 0.1927 1.099
4500000000.0 1.002 0.5718
4503000000.0 1.023 -0.3906
4506000000.0 0.329 -1.086
4509000000.0 -0.6108 -0.8993
4512000000.0 -1.103 -0.09234
4516000000.0 -0.7804 0.8129
4519000000.0 0.1129 1.11
4522000000.0 0.9556 0.6077
4525000000.0 1.099 -0.3408
4528000000.0 0.403 -1.088
4531000000.0 -0.5644 -0.9926
4534000000.0 -1.17 -0.1849
4538000000.0 -0.885 0.771
4541000000.0 0.01564 1.177
4544000000.0 0.9135 0.7469
4547000000.0 1.178 -0.2412
4550000000.0 0.5456 -1.045
4553000000.0 -0.4517 -1.158
4556000000.0 -1.167 -0.3555
4559000000.0 -1.052 0.6455
4562000000.0 -0.1694 1.242
4566000000.0 0.8326 0.9366
4569000000.0 1.27 -0.0274
4572000000.0 0.7855 -0.9733
4575000000.0 -0.2864 -1.266
4578000000.0 -1.159 -0.6416
4581000000.0 -1.236 0.5017
4584000000.0 -0.3845 1.25
4588000000.0 0.7563 1.147
4591000000.0 1.353 0.1576
4594000000.0 1.01 -0.9389
4597000000.0 -0.1078 -1.372
4600000000.0 -1.134 -0.7788
4603000000.0 -1.337 0.3806
4606000000.0 -0.5636 1.256
4609000000.0 0.6265 1.275
4612000000.0 1.358 0.3312
4616000000.0 1.104 -0.85
4619000000.0 0.03014 -1.403
4622000000.0 -1.077 -0.8969
4625000000.0 -1.353 0.2293
4628000000.0 -0.6662 1.208
4631000000.0 0.4829 1.293
4634000000.0 1.305 0.4045
4638000000.0 1.132 -0.766
4641000000.0 0.09699 -1.358
4644000000.0 -1.024 -0.9362
4647000000.0 -1.334 0.1536
4650000000.0 -0.6893 1.169
4653000000.0 0.4647 1.269
4656000000.0 1.262 0.3812
4659000000.0 1.066 -0.7216
4662000000.0 0.0687 -1.29
4666000000.0 -0.8973 -0.8173
4669000000.0 -1.21 0.1922
4672000000.0 -0.5836 1.046
4675000000.0 0.4539 1.091
4678000000.0 1.1 0.3108
4681000000.0 0.9252 -0.7041
4684000000.0 0.07117 -1.127
4688000000.0 -0.8171 -0.7339
4691000000.0 -1.1 0.1758
4694000000.0 -0.5382 0.9615
4697000000.0 0.4392 0.9978
4700000000.0 1.037 0.3201
4703000000.0 0.8847 -0.642
4706000000.0 0.0447 -1.088
4709000000.0 -0.8417 -0.7155
4712000000.0 -1.054 0.194
4716000000.0 -0.4698 0.9489
4719000000.0 0.4417 0.9756
4722000000.0 1.054 0.2559
4725000000.0 0.8377 -0.6411
4728000000.0 0.01752 -1.045
4731000000.0 -0.792 -0.6848
4734000000.0 -1.015 0.1902
4738000000.0 -0.5131 0.884
4741000000.0 0.4099 0.9731
4744000000.0 0.9886 0.3246
4747000000.0 0.892 -0.5527
4750000000.0 0.1323 -1.07
4753000000.0 -0.6984 -0.7853
4756000000.0 -1.076 0.03474
4759000000.0 -0.7023 0.8763
4762000000.0 0.2295 1.116
4766000000.0 1.013 0.542
4769000000.0 1.045 -0.4112
4772000000.0 0.3502 -1.11
4775000000.0 -0.6102 -0.9835
4778000000.0 -1.168 -0.1371
4781000000.0 -0.8277 0.82
4784000000.0 0.04896 1.202
4788000000.0 0.9689 0.6964
4791000000.0 1.183 -0.2802
4794000000.0 0.5638 -1.07
4797000000.0 -0.47 -1.145
4800000000.0 -1.216 -0.3776
4803000000.0 -1.051 0.6255
4806000000.0 -0.173 1.219
4809000000.0 0.8518 0.9514
4812000000.0 1.271 -0.04431
4816000000.0 0.8084 -1.004
4819000000.0 -0.278 -1.296
4822000000.0 -1.188 -0.6134
4825000000.0 -1.242 0.5179
4828000000.0 -0.3891 1.311
4831000000.0 0.7655 1.171
4834000000.0 1.377 0.1301
4838000000.0 0.9955 -0.984
4841000000.0 -0.1454 -1.375
4844000000.0 -1.17 -0.7724
4847000000.0 -1.327 0.4177
4850000000.0 -0.5141 1.272
4853000000.0 0.6468 1.217
4856000000.0 1.335 0.2329
4859000000.0 1.053 -0.8809
4862000000.0 -0.03215 -1.369
4866000000.0 -1.06 -0.8292
4869000000.0 -1.303 0.2971
4872000000.0 -0.5854 1.173
4875000000.0 0.5453 1.175
4878000000.0 1.257 0.314
4881000000.0 1.023 -0.7481
4884000000.0 0.04115 -1.273
4888000000.0 -0.9375 -0.8058
4891000000.0 -1.206 0.1976
4894000000.0 -0.5707 1.039
4897000000.0 0.4655 1.068
4900000000.0 1.112 0.3289
4903000000.0 0.939 -0.6298
4906000000.0 0.1144 -1.132
4909000000.0 -0.7772 -0.7454
4912000000.0 -1.02 0.138
4916000000.0 -0.5519 0.8732
4919000000.0 0.3295 0.9438
4922000000.0 0.9239 0.3315
4925000000.0 0.8374 -0.4962
4928000000.0 0.1595 -0.9291
4931000000.0 -0.6541 -0.7382
4934000000.0 -0.9434 0.04499
4938000000.0 -0.5802 0.7588
4941000000.0 0.2014 0.9111
4944000000.0 0.841 0.3868
4947000000.0 0.8811 -0.3936
4950000000.0 0.2216 -0.9187
4953000000.0 -0.5849 -0.7761
4956000000.0 -0.9715 -0.0464
4959000000.0 -0.6651 0.699
4962000000.0 0.1604 0.9379
4966000000.0 0.836 0.5027
4969000000.0 0.9247 -0.3306
4972000000.0 0.3207 -0.9316
4975000000.0 -0.5495 -0.8542
4978000000.0 -1.019 -0.1488
4981000000.0 -0.7496 0.7033
4984000000.0 0.05545 1.025
4988000000.0 0.8482 0.594
4991000000.0 1.031 -0.27
4994000000.0 0.4803 -0.9466
4997000000.0 -0.4907 -0.9914
5000000000.0 -1.099 -0.3006
5003000000.0 -0.9049 0.7148
5006000000.0 -0.1034 1.157
5009000000.0 0.8447 0.8364
5012000000.0 1.189 -0.1521
5016000000.0 0.6624 -1.025
5019000000.0 -0.3749 -1.171
5022000000.0 -1.159 -0.4808
5025000000.0 -1.093 0.6139
5028000000.0 -0.2194 1.234
5031000000.0 0.8136 0.9821
5034000000.0 1.29 -0.01132
5038000000.0 0.8091 -0.9899
5041000000.0 -0.2293 -1.274
5044000000.0 -1.131 -0.6105
5047000000.0 -1.191 0.4602
5050000000.0 -0.425 1.218
5053000000.0 0.6811 1.108
5056000000.0 1.305 0.1905
5059000000.0 1.011 -0.8741
5062000000.0 -0.009742 -1.297
5066000000.0 -1.003 -0.8175
5069000000.0 -1.273 0.2905
5072000000.0 -0.6063 1.116
5075000000.0 0.4969 1.158
5078000000.0 1.236 0.3783
5081000000.0 1.065 -0.7163
5084000000.0 0.1412 -1.206
5088000000.0 -0.8123 -0.8752
5091000000.0 -1.187 0.09456
5094000000.0 -0.7081 0.9176
5097000000.0 0.2579 1.15
5100000000.0 1.028 0.5479
5103000000.0 0.9823 -0.4575
5106000000.0 0.3182 -1.065
5109000000.0 -0.608 -0.9069
5112000000.0 -1.108 -0.1395
5116000000.0 -0.799 0.7217
5119000000.0 0.1037 1.05
5122000000.0 0.8745 0.6196
5125000000.0 1.036 -0.2623
5128000000.0 0.4664 -0.9029
5131000000.0 -0.443 -0.9353
5134000000.0 -0.9725 -0.2722
5138000000.0 -0.8171 0.6152
5141000000.0 -0.09535 0.9768
5144000000.0 0.7021 0.6623
5147000000.0 0.9627 -0.1102
5150000000.0 0.4905 -0.8034
5153000000.0 -0.303 -0.8794
5156000000.0 -0.8591 -0.3099
5159000000.0 -0.7893 0.4757
5162000000.0 -0.1258 0.8908
5166000000.0 0.6296 0.6552
5169000000.0 0.912 -0.02782
5172000000.0 0.5376 -0.7445
5175000000.0 -0.2284 -0.8823
5178000000.0 -0.8208 -0.3663
5181000000.0 -0.8392 0.4539
5184000000.0 -0.1708 0.8885
5188000000.0 0.5666 0.6962
5191000000.0 0.9667 -0.04654
5194000000.0 0.5512 -0.7499
5197000000.0 -0.2449 -0.9243
5200000000.0 -0.8497 -0.3996
5203000000.0 -0.8312 0.4491
5206000000.0 -0.1919 0.9291
5209000000.0 0.6066 0.7453
5212000000.0 0.9651 -0.006145
5216000000.0 0.602 -0.7485
5219000000.0 -0.2132 -0.9642
5222000000.0 -0.887 -0.4358
5225000000.0 -0.933 0.4006
5228000000.0 -0.2582 0.9839
5231000000.0 0.6115 0.8387
5234000000.0 1.03 0.08132
5238000000.0 0.7166 -0.7558
5241000000.0 -0.1564 -1.04
5244000000.0 -0.8853 -0.5635
5247000000.0 -0.988 0.3507
5250000000.0 -0.4015 0.9777
5253000000.0 0.5288 0.9038
5256000000.0 1.053 0.2077
5259000000.0 0.8263 -0.6717
5262000000.0 0.01904 -1.096
5266000000.0 -0.8157 -0.6929
5269000000.0 -1.09 0.194
5272000000.0 -0.5556 0.9331
5275000000.0 0.3372 1.057
5278000000.0 1.044 0.4075
5281000000.0 0.9431 -0.5027
5284000000.0 0.1979 -1.089
5288000000.0 -0.6787 -0.8983
5291000000.0 -1.092 -0.05219
5294000000.0 -0.7832 0.8006
5297000000.0 0.132 1.116
5300000000.0 0.9327 0.6413
5303000000.0 1.081 -0.2948
5306000000.0 0.4641 -1.027
5309000000.0 -0.4598 -1.016
5312000000.0 -1.07 -0.3247
5316000000.0 -0.9315 0.6509
5319000000.0 -0.07932 1.139
5322000000.0 0.8119 0.8012
5325000000.0 1.137 -0.1066
5328000000.0 0.6604 -0.9274
5331000000.0 -0.2885 -1.097
5334000000.0 -1.032 -0.4518
5338000000.0 -1.036 0.5032
5341000000.0 -0.2406 1.124
5344000000.0 0.6576 0.8771
5347000000.0 1.153 0.03362
5350000000.0 0.7484 -0.8365
5353000000.0 -0.1625 -1.081
5356000000.0 -0.9328 -0.543
5359000000.0 -1.051 0.399
5362000000.0 -0.3759 1.063
5366000000.0 0.5836 0.9067
5369000000.0 1.05 0.1048
5372000000.0 0.747 -0.7442
5375000000.0 -0.08908 -1.03
5378000000.0 -0.86 -0.57
5381000000.0 -0.9566 0.3412
5384000000.0 -0.3243 0.937
5388000000.0 0.5268 0.8178
5391000000.0 0.9543 0.1384
5394000000.0 0.6822 -0.691
5397000000.0 -0.1294 -0.9184
5400000000.0 -0.8261 -0.4753
5403000000.0 -0.8793 0.3173
5406000000.0 -0.2919 0.8527
5409000000.0 0.468 0.7439
5412000000.0 0.8533 0.06601
5416000000.0 0.6221 -0.6439
5419000000.0 -0.1041 -0.8816
5422000000.0 -0.7619 -0.4625
5425000000.0 -0.8323 0.3014
5428000000.0 -0.2408 0.8346
5431000000.0 0.4903 0.7323
5434000000.0 0.8493 0.09449
5438000000.0 0.6056 -0.6262
5441000000.0 -0.1306 -0.8658
5444000000.0 -0.7638 -0.4422
5447000000.0 -0.8268 0.3354
5450000000.0 -0.2734 0.8325
5453000000.0 0.4712 0.7493
5456000000.0 0.8877 0.0938
5459000000.0 0.6085 -0.6355
5462000000.0 -0.07063 -0.906
5466000000.0 -0.7297 -0.5516
5469000000.0 -0.8573 0.2401
5472000000.0 -0.3862 0.8179
5475000000.0 0.423 0.8172
5478000000.0 0.8963 0.229
5481000000.0 0.7713 -0.556
5484000000.0 0.06005 -0.9659
5488000000.0 -0.6678 -0.661
5491000000.0 -0.9757 0.0916
5494000000.0 -0.5064 0.8184
5497000000.0 0.2864 0.9666
5500000000.0 0.9207 0.3975
5503000000.0 0.9184 -0.4529
5506000000.0 0.2039 -1.013
5509000000.0 -0.6168 -0.8267
5512000000.0 -1.031 -0.03814
5516000000.0 -0.7365 0.7528
5519000000.0 0.1098 1.029
5522000000.0 0.8675 0.6119
5525000000.0 1.012 -0.2876
5528000000.0 0.446 -0.9464
5531000000.0 -0.4826 -0.9763
5534000000.0 -1.015 -0.2781
5538000000.0 -0.8566 0.6031
5541000000.0 -0.07136 1.065
5544000000.0 0.7219 0.7434
5547000000.0 1.069 -0.08819
5550000000.0 0.6173 -0.8764
5553000000.0 -0.2768 -1.015
5556000000.0 -0.9568 -0.4213
5559000000.0 -0.954 0.4884
5562000000.0 -0.2543 1.019
5566000000.0 0.6357 0.8315
5569000000.0 0.9887 0.05536
5572000000.0 0.6857 -0.7605
5575000000.0 -0.1243 -1.002
5578000000.0 -0.8921 -0.5525
5581000000.0 -0.953 0.3376
5584000000.0 -0.3589 0.952
5588000000.0 0.5048 0.8467
5591000000.0 0.925 0.1794
5594000000.0 0.7208 -0.6082
5597000000.0 -0.03296 -0.9556
5600000000.0 -0.7315 -0.5785
5603000000.0 -0.8939 0.1717
5606000000.0 -0.4025 0.8136
5609000000.0 0.3749 0.8301
5612000000.0 0.8616 0.2412
5616000000.0 0.7159 -0.5161
5619000000.0 0.02922 -0.8514
5622000000.0 -0.6275 -0.5751
5625000000.0 -0.8153 0.1179
5628000000.0 -0.4416 0.7309
5631000000.0 0.3206 0.7985
5634000000.0 0.7964 0.2646
5638000000.0 0.7021 -0.4502
5641000000.0 0.08132 -0.8212
5644000000.0 -0.6151 -0.5709
5647000000.0 -0.8519 0.09404
5650000000.0 -0.4358 0.7354
5653000000.0 0.2946 0.7894
5656000000.0 0.812 0.2999
5659000000.0 0.6996 -0.4717
5662000000.0 0.09557 -0.8629
5666000000.0 -0.6548 -0.6134
5669000000.0 -0.883 0.1061
5672000000.0 -0.4747 0.7513
5675000000.0 0.2952 0.8403
5678000000.0 0.8437 0.3074
5681000000.0 0.7584 -0.488
5684000000.0 0.09583 -0.9093
5688000000.0 -0.6662 -0.6756
5691000000.0 -0.968 0.08154
5694000000.0 -0.5214 0.8352
5697000000.0 0.3263 0.9287
5700000000.0 0.9296 0.3523
5703000000.0 0.8836 -0.4864
5706000000.0 0.1666 -1.014
5709000000.0 -0.6841 -0.7775
5712000000.0 -1.03 0.01863
5716000000.0 -0.6525 0.8027
5719000000.0 0.2486 0.9982
5722000000.0 0.9312 0.4451
5725000000.0 0.9581 -0.433
5728000000.0 0.3277 -1.026
5731000000.0 -0.5939 -0.8826
5734000000.0 -1.063 -0.1134
5738000000.0 -0.7616 0.752
5741000000.0 0.1017 1.098
5744000000.0 0.8977 0.6077
5747000000.0 1.079 -0.3067
5750000000.0 0.4487 -1.0
5753000000.0 -0.4782 -1.012
5756000000.0 -1.103 -0.2737
5759000000.0 -0.9047 0.6707
5762000000.0 -0.08079 1.102
5766000000.0 0.814 0.7565
5769000000.0 1.128 -0.1208
5772000000.0 0.633 -0.9253
5775000000.0 -0.3466 -1.064
5778000000.0 -1.052 -0.4621
5781000000.0 -0.978 0.5114
5784000000.0 -0.2675 1.073
5788000000.0 0.6611 0.8308
5791000000.0 1.091 0.04475
5794000000.0 0.7122 -0.7797
5797000000.0 -0.1484 -1.1
5800000000.0 -0.9585 -0.5892
5803000000.0 -1.018 0.364
5806000000.0 -0.3651 0.959
5809000000.0 0.502 0.933
5812000000.0 1.058 0.1863
5816000000.0 0.787 -0.675
5819000000.0 -0.01 -1.055
5822000000.0 -0.7817 -0.6295
5825000000.0 -0.9815 0.2219
5828000000.0 -0.4598 0.8756
5831000000.0 0.4097 0.9193
5834000000.0 0.9394 0.263
5838000000.0 0.8202 -0.591
5841000000.0 0.05464 -0.955
5844000000.0 -0.7046 -0.6588
5847000000.0 -0.9711 0.1406
5850000000.0 -0.4899 0.7994
5853000000.0 0.3293 0.8829
5856000000.0 0.8782 0.3008
5859000000.0 0.788 -0.5028
5862000000.0 0.06813 -0.9299
5866000000.0 -0.6667 -0.6753
5869000000.0 -0.8969 0.1096
5872000000.0 -0.4905 0.7584
5875000000.0 0.3261 0.8647
5878000000.0 0.8436 0.3141
5881000000.0 0.7751 -0.4386
5884000000.0 0.08542 -0.8736
5888000000.0 -0.6121 -0.6169
5891000000.0 -0.8597 0.06898
5894000000.0 -0.4882 0.7123
5897000000.0 0.2514 0.8271
5900000000.0 0.8101 0.3032
5903000000.0 0.7315 -0.3874
5906000000.0 0.1939 -0.8464
5909000000.0 -0.5578 -0.6639
5912000000.0 -0.8518 0.003994
5916000000.0 -0.5455 0.669
5919000000.0 0.1522 0.8274
5922000000.0 0.7688 0.4036
5925000000.0 0.8041 -0.3347
5928000000.0 0.2304 -0.8246
5931000000.0 -0.5001 -0.7203
5934000000.0 -0.8761 -0.09286
5938000000.0 -0.6437 0.6641
5941000000.0 0.1179 0.8743
5944000000.0 0.7471 0.5178
5947000000.0 0.8452 -0.2457
5950000000.0 0.3578 -0.8486
5953000000.0 -0.3906 -0.8353
5956000000.0 -0.8774 -0.2262
5959000000.0 -0.7421 0.5247
5962000000.0 -0.04857 0.9192
5966000000.0 0.6886 0.6303
5969000000.0 0.9265 -0.0781
5972000000.0 0.5237 -0.7766
5975000000.0 -0.2769 -0.9176
5978000000.0 -0.8964 -0.3753
5981000000.0 -0.8542 0.4485
5984000000.0 -0.2207 0.967
5988000000.0 0.6259 0.777
5991000000.0 0.9986 0.06099
5994000000.0 0.68 -0.7357
5997000000.0 -0.1418 -0.9926
6000000000.0 -0.8569 -0.5495
6003000000.0 -0.9139 0.3161
6006000000.0 -0.3407 0.8989
6009000000.0 0.4655 0.8709
6012000000.0 0.9799 0.1782
6016000000.0 0.7467 -0.6596
6019000000.0 -0.02655 -1.006
6022000000.0 -0.7939 -0.5891
6025000000.0 -0.9538 0.2105
6028000000.0 -0.4509 0.892
6031000000.0 0.4061 0.8991
6034000000.0 0.9377 0.2746
6038000000.0 0.8081 -0.5762
6041000000.0 0.06765 -0.9706
6044000000.0 -0.7039 -0.6452
6047000000.0 -0.9366 0.1192
6050000000.0 -0.5076 0.7929
6053000000.0 0.3057 0.9063
6056000000.0 0.8907 0.3274
6059000000.0 0.7883 -0.4843
6062000000.0 0.1136 -0.9184
6066000000.0 -0.6502 -0.6607
6069000000.0 -0.8924 0.07887
6072000000.0 -0.475 0.7352
6075000000.0 0.2705 0.8251
6078000000.0 0.8204 0.3329
6081000000.0 0.7613 -0.4245
6084000000.0 0.1351 -0.856
6088000000.0 -0.5641 -0.6614
6091000000.0 -0.8651 0.01208
6094000000.0 -0.5136 0.7011
6097000000.0 0.2171 0.8091
6100000000.0 0.7495 0.3681
6103000000.0 0.7876 -0.3673
6106000000.0 0.1879 -0.8559
6109000000.0 -0.5366 -0.6822
6112000000.0 -0.8503 -0.0001617
6116000000.0 -0.5643 0.6669
6119000000.0 0.1934 0.8363
6122000000.0 0.7557 0.3833
6125000000.0 0.7969 -0.3581
6128000000.0 0.2343 -0.8497
6131000000.0 -0.4975 -0.7053
6134000000.0 -0.8668 -0.02343
6138000000.0 -0.6115 0.6528
6141000000.0 0.1404 0.8519
6144000000.0 0.743 0.4709
6147000000.0 0.8265 -0.3209
6150000000.0 0.2915 -0.8523
6153000000.0 -0.476 -0.7475
6156000000.0 -0.9153 -0.1328
6159000000.0 -0.6425 0.6103
6162000000.0 0.05532 0.8949
6166000000.0 0.752 0.5396
6169000000.0 0.8954 -0.229
6172000000.0 0.3857 -0.8606
6175000000.0 -0.4465 -0.8155
6178000000.0 -0.9302 -0.2023
6181000000.0 -0.7727 0.5752
6184000000.0 -0.02662 0.9326
6188000000.0 0.7344 0.642
6191000000.0 0.9219 -0.189
6194000000.0 0.473 -0.8366
6197000000.0 -0.3397 -0.9025
6200000000.0 -0.8752 -0.3039
6203000000.0 -0.7838 0.5412
6206000000.0 -0.138 0.9535
6209000000.0 0.6379 0.7089
6212000000.0 0.9112 -0.05975
6216000000.0 0.5451 -0.8106
6219000000.0 -0.2411 -0.8779
6222000000.0 -0.8437 -0.4072
6225000000.0 -0.8149 0.4131
6228000000.0 -0.2082 0.8893
6231000000.0 0.5422 0.7574
6234000000.0 0.8768 0.05111
6238000000.0 0.6187 -0.6666
6241000000.0 -0.09621 -0.9031
6244000000.0 -0.6989 -0.4545
6247000000.0 -0.84 0.2503
6250000000.0 -0.3243 0.7915
6253000000.0 0.3895 0.7547
6256000000.0 0.8422 0.179
6259000000.0 0.6168 -0.4894
6262000000.0 0.04771 -0.813
6266000000.0 -0.6303 -0.5257
6269000000.0 -0.8176 0.1079
