! Created with skrf 1.8.0 (http://scikit-rf.org).
# Hz S RI R 50.0 
!freq ReS11 ImS11
4000000000.0 -0.1382 -1.503
4003000000.0 -1.276 -0.7689
4006000000.0 -1.468 0.551
4009000000.0 -0.4923 1.427
4012000000.0 0.7762 1.313
4016000000.0 1.495 0.2131
4019000000.0 1.121 -1.064
4022000000.0 -0.1263 -1.604
4025000000.0 -1.309 -0.8879
4028000000.0 -1.549 0.4097
4031000000.0 -0.5847 1.543
4034000000.0 0.8012 1.398
4038000000.0 1.606 0.2572
4041000000.0 1.187 -1.096
4044000000.0 -0.1598 -1.605
4047000000.0 -1.37 -0.9529
4050000000.0 -1.559 0.4259
4053000000.0 -0.5803 1.5
4056000000.0 0.7291 1.397
4059000000.0 1.564 0.2906
4062000000.0 1.228 -1.057
4066000000.0 -0.03241 -1.616
4069000000.0 -1.223 -1.016
4072000000.0 -1.588 0.2825
4075000000.0 -0.8129 1.441
4078000000.0 0.5681 1.556
4081000000.0 1.514 0.5566
4084000000.0 1.404 -0.9078
4088000000.0 0.2515 -1.651
4091000000.0 -1.11 -1.21
4094000000.0 -1.671 0.07742
4097000000.0 -0.9882 1.338
4100000000.0 0.4018 1.566
4103000000.0 1.444 0.6897
4106000000.0 1.454 -0.6265
4109000000.0 0.4532 -1.501
4112000000.0 -0.8555 -1.266
4116000000.0 -1.532 -0.184
4119000000.0 -1.113 0.9911
4122000000.0 0.04266 1.517
4125000000.0 1.132 0.9396
4128000000.0 1.448 -0.2438
4131000000.0 0.7852 -1.251
4134000000.0 -0.4575 -1.373
4138000000.0 -1.377 -0.5767
4141000000.0 -1.336 0.6613
4144000000.0 -0.4054 1.453
4147000000.0 0.8717 1.241
4150000000.0 1.52 0.0977
4153000000.0 1.093 -1.066
4156000000.0 -0.1017 -1.518
4159000000.0 -1.263 -0.8711
4162000000.0 -1.461 0.4024
4166000000.0 -0.642 1.364
4169000000.0 0.6229 1.359
4172000000.0 1.438 0.4203
4175000000.0 1.21 -0.8604
4178000000.0 0.158 -1.488
4181000000.0 -1.034 -1.054
4184000000.0 -1.512 0.1085
4188000000.0 -0.8836 1.228
4191000000.0 0.3917 1.505
4194000000.0 1.383 0.6596
4197000000.0 1.38 -0.6631
4200000000.0 0.394 -1.56
4203000000.0 -0.9513 -1.244
4206000000.0 -1.655 -0.06478
4209000000.0 -1.075 1.266
4212000000.0 0.3752 1.636
4216000000.0 1.535 0.7126
4219000000.0 1.498 -0.7363
4222000000.0 0.3257 -1.662
4225000000.0 -1.157 -1.251
4228000000.0 -1.677 0.1347
4231000000.0 -0.9176 1.444
4234000000.0 0.5668 1.542
4238000000.0 1.549 0.5155
4241000000.0 1.318 -0.9546
4244000000.0 0.05991 -1.615
4247000000.0 -1.223 -0.996
4250000000.0 -1.553 0.3388
4253000000.0 -0.6112 1.424
4256000000.0 0.6784 1.375
4259000000.0 1.513 0.2873
4262000000.0 1.137 -1.023
4266000000.0 -0.06264 -1.517
4269000000.0 -1.251 -0.8499
4272000000.0 -1.445 0.4776
4275000000.0 -0.5284 1.383
4278000000.0 0.776 1.249
4281000000.0 1.397 0.165
4284000000.0 0.9948 -0.9841
4288000000.0 -0.1707 -1.381
4291000000.0 -1.157 -0.7214
4294000000.0 -1.3 0.4328
4297000000.0 -0.4713 1.241
4300000000.0 0.6553 1.143
4303000000.0 1.263 0.2287
4306000000.0 0.9606 -0.8536
4309000000.0 0.01224 -1.295
4312000000.0 -0.9803 -0.8094
4316000000.0 -1.281 0.2329
4319000000.0 -0.6593 1.096
4322000000.0 0.4004 1.209
4325000000.0 1.218 0.4653
4328000000.0 1.163 -0.6642
4331000000.0 0.2993 -1.291
4334000000.0 -0.8831 -1.089
4338000000.0 -1.404 -0.03589
4341000000.0 -0.9411 1.091
4344000000.0 0.2086 1.396
4347000000.0 1.246 0.7068
4350000000.0 1.342 -0.4879
4353000000.0 0.49 -1.362
4356000000.0 -0.752 -1.236
4359000000.0 -1.435 -0.2313
4362000000.0 -1.094 0.9703
4366000000.0 0.03849 1.498
4369000000.0 1.163 0.9093
4372000000.0 1.421 -0.2892
4375000000.0 0.6968 -1.304
4378000000.0 -0.5918 -1.369
4381000000.0 -1.446 -0.4404
4384000000.0 -1.297 0.8743
4388000000.0 -0.1637 1.545
4391000000.0 1.105 1.065
4394000000.0 1.574 -0.1548
4397000000.0 0.8118 -1.316
4400000000.0 -0.5328 -1.488
4403000000.0 -1.509 -0.5082
4406000000.0 -1.334 0.8313
4409000000.0 -0.1753 1.589
4412000000.0 1.135 1.08
4416000000.0 1.546 -0.2427
4419000000.0 0.7311 -1.318
4422000000.0 -0.5405 -1.392
4425000000.0 -1.436 -0.3927
4428000000.0 -1.189 0.8956
4431000000.0 -0.04656 1.458
4434000000.0 1.098 0.955
4438000000.0 1.401 -0.2628
4441000000.0 0.6066 -1.257
4444000000.0 -0.6039 -1.215
4447000000.0 -1.309 -0.2827
4450000000.0 -1.034 0.8829
4453000000.0 0.04506 1.288
4456000000.0 1.049 0.7651
4459000000.0 1.243 -0.3891
4462000000.0 0.4227 -1.167
4466000000.0 -0.662 -1.086
4469000000.0 -1.248 -0.1211
4472000000.0 -0.8386 0.8906
4475000000.0 0.1541 1.182
4478000000.0 1.007 0.5898
4481000000.0 1.055 -0.4478
4484000000.0 0.3078 -1.12
4488000000.0 -0.6721 -0.908
4491000000.0 -1.152 -0.04278
4494000000.0 -0.7495 0.8634
4497000000.0 0.2047 1.107
4500000000.0 1.004 0.5355
4503000000.0 1.033 -0.4247
4506000000.0 0.3131 -1.031
4509000000.0 -0.6336 -0.9001
4512000000.0 -1.11 -0.08136
4516000000.0 -0.771 0.8114
4519000000.0 0.1647 1.118
4522000000.0 0.9489 0.5932
4525000000.0 1.082 -0.3842
4528000000.0 0.402 -1.08
4531000000.0 -0.5677 -1.007
4534000000.0 -1.177 -0.1681
4538000000.0 -0.8669 0.7813
4541000000.0 0.06518 1.202
4544000000.0 0.9427 0.7051
4547000000.0 1.173 -0.2708
4550000000.0 0.5578 -1.066
4553000000.0 -0.4786 -1.135
4556000000.0 -1.177 -0.3561
4559000000.0 -1.006 0.6965
4562000000.0 -0.1457 1.236
4566000000.0 0.8573 0.9312
4569000000.0 1.253 -0.08602
4572000000.0 0.7584 -1.022
4575000000.0 -0.3082 -1.269
4578000000.0 -1.167 -0.5925
4581000000.0 -1.231 0.5447
4584000000.0 -0.3707 1.291
4588000000.0 0.7596 1.105
4591000000.0 1.347 0.1468
4594000000.0 0.9826 -0.9629
4597000000.0 -0.1375 -1.363
4600000000.0 -1.159 -0.7658
4603000000.0 -1.347 0.3987
4606000000.0 -0.526 1.298
4609000000.0 0.6547 1.241
4612000000.0 1.386 0.2705
4616000000.0 1.096 -0.8705
4619000000.0 -0.03328 -1.392
4622000000.0 -1.059 -0.8707
4625000000.0 -1.381 0.3359
4628000000.0 -0.6198 1.23
4631000000.0 0.5535 1.279
4634000000.0 1.353 0.3634
4638000000.0 1.104 -0.8109
4641000000.0 0.07419 -1.344
4644000000.0 -1.031 -0.9003
4647000000.0 -1.335 0.221
4650000000.0 -0.6434 1.171
4653000000.0 0.5464 1.213
4656000000.0 1.267 0.3354
4659000000.0 1.012 -0.7579
4662000000.0 0.03089 -1.28
4666000000.0 -0.9401 -0.8012
4669000000.0 -1.199 0.2545
4672000000.0 -0.5593 1.05
4675000000.0 0.4932 1.086
4678000000.0 1.136 0.2748
4681000000.0 0.8851 -0.6935
4684000000.0 0.01589 -1.171
4688000000.0 -0.8751 -0.7347
4691000000.0 -1.081 0.1908
4694000000.0 -0.5113 0.9716
4697000000.0 0.4608 0.9833
4700000000.0 1.07 0.2758
4703000000.0 0.8832 -0.6681
4706000000.0 0.01101 -1.08
4709000000.0 -0.8359 -0.6969
4712000000.0 -1.051 0.2484
4716000000.0 -0.4543 1.002
4719000000.0 0.4656 0.9909
4722000000.0 1.042 0.2495
4725000000.0 0.7931 -0.6686
4728000000.0 0.002107 -1.025
4731000000.0 -0.7846 -0.6781
4734000000.0 -1.055 0.2107
4738000000.0 -0.5044 0.8994
4741000000.0 0.3699 0.9651
4744000000.0 0.9953 0.3373
4747000000.0 0.9272 -0.5569
4750000000.0 0.1448 -1.051
4753000000.0 -0.7016 -0.7993
4756000000.0 -1.072 0.07929
4759000000.0 -0.6668 0.9033
4762000000.0 0.2397 1.057
4766000000.0 1.015 0.4759
4769000000.0 1.052 -0.4678
4772000000.0 0.3365 -1.134
4775000000.0 -0.6283 -0.9435
4778000000.0 -1.165 -0.1289
4781000000.0 -0.8305 0.8234
4784000000.0 0.06226 1.161
4788000000.0 0.9736 0.7029
4791000000.0 1.204 -0.2944
4794000000.0 0.554 -1.103
4797000000.0 -0.4913 -1.129
4800000000.0 -1.205 -0.3613
4803000000.0 -1.033 0.6646
4806000000.0 -0.1426 1.24
4809000000.0 0.859 0.9383
4812000000.0 1.269 -0.08322
4816000000.0 0.8051 -1.037
4819000000.0 -0.3003 -1.296
4822000000.0 -1.2 -0.6095
4825000000.0 -1.241 0.5485
4828000000.0 -0.3393 1.304
4831000000.0 0.7822 1.159
4834000000.0 1.365 0.1066
4838000000.0 0.9531 -0.9883
4841000000.0 -0.1701 -1.367
4844000000.0 -1.168 -0.7659
4847000000.0 -1.341 0.4477
4850000000.0 -0.4947 1.274
4853000000.0 0.6558 1.211
4856000000.0 1.354 0.2209
4859000000.0 1.015 -0.9444
4862000000.0 -0.03705 -1.336
4866000000.0 -1.067 -0.8246
4869000000.0 -1.31 0.3176
4872000000.0 -0.5839 1.206
4875000000.0 0.5462 1.17
4878000000.0 1.243 0.3045
4881000000.0 0.9988 -0.7986
4884000000.0 0.01507 -1.269
4888000000.0 -0.9071 -0.7838
4891000000.0 -1.174 0.2153
4894000000.0 -0.5667 1.063
4897000000.0 0.4681 1.092
4900000000.0 1.078 0.2827
4903000000.0 0.913 -0.6674
4906000000.0 0.06341 -1.093
4909000000.0 -0.7826 -0.7485
4912000000.0 -1.049 0.122
4916000000.0 -0.5539 0.9029
4919000000.0 0.3541 0.9477
4922000000.0 0.9142 0.3352
4925000000.0 0.8317 -0.508
4928000000.0 0.09633 -0.9536
4931000000.0 -0.6588 -0.6957
4934000000.0 -0.9314 0.04254
4938000000.0 -0.5348 0.7694
4941000000.0 0.2281 0.9096
4944000000.0 0.8715 0.3734
4947000000.0 0.8512 -0.4281
4950000000.0 0.2147 -0.9285
4953000000.0 -0.5766 -0.7519
4956000000.0 -0.9522 -0.005256
4959000000.0 -0.6511 0.7373
4962000000.0 0.18 0.9522
4966000000.0 0.888 0.4962
4969000000.0 0.923 -0.3641
4972000000.0 0.2997 -0.9542
4975000000.0 -0.5713 -0.8342
4978000000.0 -1.001 -0.1002
4981000000.0 -0.7495 0.7406
4984000000.0 0.08375 1.056
4988000000.0 0.8514 0.6073
4991000000.0 1.039 -0.2815
4994000000.0 0.4444 -0.9968
4997000000.0 -0.482 -0.9813
5000000000.0 -1.098 -0.264
5003000000.0 -0.9098 0.6841
5006000000.0 -0.0502 1.187
5009000000.0 0.8609 0.7967
5012000000.0 1.185 -0.1719
5016000000.0 0.6526 -1.037
5019000000.0 -0.3898 -1.161
5022000000.0 -1.195 -0.446
5025000000.0 -1.127 0.6332
5028000000.0 -0.2221 1.263
5031000000.0 0.8465 0.9666
5034000000.0 1.256 -0.03732
5038000000.0 0.8095 -0.9801
5041000000.0 -0.2597 -1.26
5044000000.0 -1.116 -0.5995
5047000000.0 -1.202 0.5004
5050000000.0 -0.4117 1.247
5053000000.0 0.6817 1.11
5056000000.0 1.251 0.1709
5059000000.0 0.9644 -0.92
5062000000.0 -0.03477 -1.31
5066000000.0 -1.044 -0.7776
5069000000.0 -1.29 0.2718
5072000000.0 -0.5939 1.15
5075000000.0 0.512 1.202
5078000000.0 1.258 0.3194
5081000000.0 1.041 -0.7491
5084000000.0 0.1169 -1.25
5088000000.0 -0.8527 -0.892
5091000000.0 -1.176 0.1206
5094000000.0 -0.6721 0.9823
5097000000.0 0.292 1.142
5100000000.0 1.067 0.4832
5103000000.0 1.037 -0.4884
5106000000.0 0.2854 -1.094
5109000000.0 -0.623 -0.8919
5112000000.0 -1.066 -0.07914
5116000000.0 -0.7778 0.7335
5119000000.0 0.1073 1.045
5122000000.0 0.8703 0.5836
5125000000.0 1.006 -0.2805
5128000000.0 0.4373 -0.9263
5131000000.0 -0.411 -0.9354
5134000000.0 -0.9728 -0.2344
5138000000.0 -0.8008 0.5878
5141000000.0 -0.03102 0.9787
5144000000.0 0.7284 0.6402
5147000000.0 0.9033 -0.2001
5150000000.0 0.4963 -0.7938
5153000000.0 -0.2927 -0.8598
5156000000.0 -0.872 -0.313
5159000000.0 -0.7802 0.4671
5162000000.0 -0.1047 0.9018
5166000000.0 0.6155 0.6512
5169000000.0 0.9049 -0.08384
5172000000.0 0.5161 -0.7517
5175000000.0 -0.2615 -0.8691
5178000000.0 -0.8348 -0.35
5181000000.0 -0.8066 0.4401
5184000000.0 -0.1663 0.9264
5188000000.0 0.6333 0.6828
5191000000.0 0.9366 -0.03426
5194000000.0 0.516 -0.7679
5197000000.0 -0.2311 -0.9144
5200000000.0 -0.8527 -0.3644
5203000000.0 -0.8362 0.4545
5206000000.0 -0.1551 0.939
5209000000.0 0.6237 0.7281
5212000000.0 0.952 -0.002174
5216000000.0 0.5911 -0.8018
5219000000.0 -0.2532 -0.951
5222000000.0 -0.9026 -0.4464
5225000000.0 -0.8707 0.443
5228000000.0 -0.2281 0.9855
5231000000.0 0.6341 0.8322
5234000000.0 1.006 0.03371
5238000000.0 0.6535 -0.77
5241000000.0 -0.1493 -1.026
5244000000.0 -0.8972 -0.5416
5247000000.0 -1.008 0.3613
5250000000.0 -0.3753 1.031
5253000000.0 0.5519 0.9152
5256000000.0 1.046 0.1829
5259000000.0 0.7957 -0.6967
5262000000.0 -0.01784 -1.065
5266000000.0 -0.8423 -0.6807
5269000000.0 -1.1 0.1712
5272000000.0 -0.5453 0.9571
5275000000.0 0.3705 1.025
5278000000.0 1.034 0.3811
5281000000.0 0.979 -0.5286
5284000000.0 0.191 -1.096
5288000000.0 -0.6858 -0.832
5291000000.0 -1.127 -0.02529
5294000000.0 -0.7603 0.8353
5297000000.0 0.1472 1.098
5300000000.0 0.9633 0.6009
5303000000.0 1.096 -0.3131
5306000000.0 0.468 -1.034
5309000000.0 -0.511 -1.003
5312000000.0 -1.103 -0.2538
5316000000.0 -0.9128 0.6822
5319000000.0 -0.04619 1.146
5322000000.0 0.849 0.7919
5325000000.0 1.145 -0.1264
5328000000.0 0.6316 -0.9489
5331000000.0 -0.3287 -1.08
5334000000.0 -1.072 -0.4267
5338000000.0 -0.9973 0.5387
5341000000.0 -0.2393 1.121
5344000000.0 0.7004 0.8664
5347000000.0 1.14 0.03285
5350000000.0 0.7324 -0.8611
5353000000.0 -0.2028 -1.079
5356000000.0 -0.932 -0.5303
5359000000.0 -0.9948 0.3716
5362000000.0 -0.3187 1.02
5366000000.0 0.6118 0.8809
5369000000.0 1.033 0.1017
5372000000.0 0.7325 -0.7438
5375000000.0 -0.1318 -1.021
5378000000.0 -0.916 -0.5432
5381000000.0 -0.9425 0.3663
5384000000.0 -0.3008 0.9662
5388000000.0 0.5448 0.817
5391000000.0 0.9596 0.08717
5394000000.0 0.6344 -0.6944
5397000000.0 -0.1536 -0.9241
5400000000.0 -0.7997 -0.4372
5403000000.0 -0.8292 0.3823
5406000000.0 -0.239 0.9001
5409000000.0 0.4946 0.7242
5412000000.0 0.8798 0.03988
5416000000.0 0.6077 -0.6272
5419000000.0 -0.1486 -0.8495
5422000000.0 -0.7722 -0.4093
5425000000.0 -0.7963 0.3257
5428000000.0 -0.2449 0.834
5431000000.0 0.5187 0.6761
5434000000.0 0.8851 0.04449
5438000000.0 0.5968 -0.6563
5441000000.0 -0.1544 -0.8775
5444000000.0 -0.7726 -0.4142
5447000000.0 -0.8198 0.3456
5450000000.0 -0.2544 0.8642
5453000000.0 0.495 0.7268
5456000000.0 0.8864 0.09108
5459000000.0 0.6294 -0.6325
5462000000.0 -0.1151 -0.9287
5466000000.0 -0.7526 -0.4965
5469000000.0 -0.8582 0.2764
5472000000.0 -0.3598 0.8663
5475000000.0 0.4287 0.8193
5478000000.0 0.8765 0.2147
5481000000.0 0.7677 -0.585
5484000000.0 0.0387 -0.9898
5488000000.0 -0.7545 -0.6322
5491000000.0 -0.9601 0.1361
5494000000.0 -0.5115 0.8749
5497000000.0 0.3029 0.9721
5500000000.0 0.9341 0.3828
5503000000.0 0.8746 -0.4757
5506000000.0 0.197 -0.975
5509000000.0 -0.6308 -0.7966
5512000000.0 -1.067 -0.02772
5516000000.0 -0.7184 0.7945
5519000000.0 0.122 1.043
5522000000.0 0.9019 0.542
5525000000.0 0.9956 -0.3349
5528000000.0 0.4521 -0.9976
5531000000.0 -0.4709 -0.9416
5534000000.0 -1.053 -0.2398
5538000000.0 -0.8589 0.6179
5541000000.0 -0.02164 1.059
5544000000.0 0.7952 0.7482
5547000000.0 1.057 -0.1532
5550000000.0 0.5802 -0.9205
5553000000.0 -0.3086 -1.035
5556000000.0 -0.9829 -0.4108
5559000000.0 -0.9477 0.5083
5562000000.0 -0.2259 1.037
5566000000.0 0.6752 0.8208
5569000000.0 1.037 0.03346
5572000000.0 0.6738 -0.787
5575000000.0 -0.1775 -1.01
5578000000.0 -0.8694 -0.4951
5581000000.0 -0.9407 0.356
5584000000.0 -0.3255 0.9303
5588000000.0 0.5117 0.8605
5591000000.0 0.9538 0.131
5594000000.0 0.7111 -0.6611
5597000000.0 -0.02824 -0.9426
5600000000.0 -0.7492 -0.5297
5603000000.0 -0.8633 0.215
5606000000.0 -0.3909 0.8119
5609000000.0 0.4135 0.7843
5612000000.0 0.8383 0.1834
5616000000.0 0.6811 -0.5559
5619000000.0 0.009346 -0.8596
5622000000.0 -0.656 -0.5584
5625000000.0 -0.8285 0.192
5628000000.0 -0.4012 0.737
5631000000.0 0.3397 0.7883
5634000000.0 0.803 0.2238
5638000000.0 0.6603 -0.4861
5641000000.0 0.02601 -0.8098
5644000000.0 -0.6332 -0.5561
5647000000.0 -0.8325 0.1448
5650000000.0 -0.3999 0.7382
5653000000.0 0.3018 0.7735
5656000000.0 0.7947 0.23
5659000000.0 0.6957 -0.5161
5662000000.0 0.05109 -0.8574
5666000000.0 -0.6264 -0.5719
5669000000.0 -0.8928 0.1566
5672000000.0 -0.455 0.7698
5675000000.0 0.3397 0.8295
5678000000.0 0.8821 0.2654
5681000000.0 0.7465 -0.5247
5684000000.0 0.07014 -0.9052
5688000000.0 -0.6729 -0.6696
5691000000.0 -0.9711 0.1234
5694000000.0 -0.5159 0.8214
5697000000.0 0.3158 0.9261
5700000000.0 0.9398 0.3089
5703000000.0 0.875 -0.4909
5706000000.0 0.1383 -0.9922
5709000000.0 -0.7037 -0.7441
5712000000.0 -1.029 0.05546
5716000000.0 -0.5843 0.8472
5719000000.0 0.2492 0.9831
5722000000.0 0.9745 0.4582
5725000000.0 0.9443 -0.4674
5728000000.0 0.2702 -1.032
5731000000.0 -0.652 -0.8513
5734000000.0 -1.086 -0.05177
5738000000.0 -0.7579 0.7791
5741000000.0 0.1147 1.082
5744000000.0 0.935 0.6015
5747000000.0 1.061 -0.3001
5750000000.0 0.4251 -0.9957
5753000000.0 -0.5162 -1.012
5756000000.0 -1.093 -0.2153
5759000000.0 -0.8782 0.7066
5762000000.0 -0.03307 1.094
5766000000.0 0.8601 0.7462
5769000000.0 1.11 -0.1864
5772000000.0 0.5926 -0.9298
5775000000.0 -0.3357 -1.038
5778000000.0 -1.021 -0.389
5781000000.0 -0.9513 0.5227
5784000000.0 -0.2194 1.085
5788000000.0 0.6905 0.8536
5791000000.0 1.102 -0.006688
5794000000.0 0.6912 -0.8056
5797000000.0 -0.1661 -1.069
5800000000.0 -0.9312 -0.5113
5803000000.0 -0.9938 0.3923
5806000000.0 -0.3614 1.014
5809000000.0 0.5588 0.8979
5812000000.0 1.034 0.1408
5816000000.0 0.7566 -0.7169
5819000000.0 -0.04858 -1.027
5822000000.0 -0.8242 -0.5777
5825000000.0 -0.9828 0.2564
5828000000.0 -0.3896 0.8955
5831000000.0 0.4646 0.8982
5834000000.0 0.9621 0.2062
5838000000.0 0.7661 -0.6059
5841000000.0 -0.008972 -0.9584
5844000000.0 -0.7275 -0.6165
5847000000.0 -0.9476 0.1726
5850000000.0 -0.4122 0.8381
5853000000.0 0.365 0.8556
5856000000.0 0.8852 0.254
5859000000.0 0.7673 -0.5375
5862000000.0 0.06444 -0.9056
5866000000.0 -0.6546 -0.6004
5869000000.0 -0.9134 0.1311
5872000000.0 -0.4017 0.7652
5875000000.0 0.3188 0.8522
5878000000.0 0.866 0.2323
5881000000.0 0.711 -0.5108
5884000000.0 0.0733 -0.8824
5888000000.0 -0.6223 -0.6035
5891000000.0 -0.8836 0.1245
5894000000.0 -0.4413 0.7351
5897000000.0 0.295 0.8152
5900000000.0 0.8046 0.2706
5903000000.0 0.7322 -0.4779
5906000000.0 0.1232 -0.82
5909000000.0 -0.5898 -0.6201
5912000000.0 -0.8729 0.0505
5916000000.0 -0.5315 0.7156
5919000000.0 0.1948 0.8365
5922000000.0 0.7909 0.3473
5925000000.0 0.7991 -0.3993
5928000000.0 0.1978 -0.8427
5931000000.0 -0.5437 -0.7183
5934000000.0 -0.902 -0.0288
5938000000.0 -0.5887 0.6445
5941000000.0 0.1243 0.8953
5944000000.0 0.7596 0.4679
5947000000.0 0.8399 -0.2612
5950000000.0 0.297 -0.8293
5953000000.0 -0.4351 -0.7931
5956000000.0 -0.9225 -0.2056
5959000000.0 -0.7191 0.5718
5962000000.0 -0.03275 0.9409
5966000000.0 0.7155 0.6102
5969000000.0 0.934 -0.1328
5972000000.0 0.4781 -0.8414
5975000000.0 -0.317 -0.9122
5978000000.0 -0.9053 -0.3079
5981000000.0 -0.8354 0.4853
5984000000.0 -0.164 0.9876
5988000000.0 0.6383 0.7565
5991000000.0 0.9772 0.0151
5994000000.0 0.6369 -0.7713
5997000000.0 -0.1973 -0.9889
6000000000.0 -0.8733 -0.4952
6003000000.0 -0.9473 0.3687
6006000000.0 -0.302 0.9398
6009000000.0 0.5594 0.8172
6012000000.0 0.9723 0.1432
6016000000.0 0.7368 -0.6951
6019000000.0 -0.1038 -1.007
6022000000.0 -0.8267 -0.5605
6025000000.0 -0.9539 0.2509
6028000000.0 -0.3853 0.9056
6031000000.0 0.4306 0.864
6034000000.0 0.9513 0.2116
6038000000.0 0.7439 -0.6125
6041000000.0 0.02312 -0.993
6044000000.0 -0.7347 -0.6317
6047000000.0 -0.9402 0.2171
6050000000.0 -0.4413 0.8386
6053000000.0 0.3673 0.8705
6056000000.0 0.882 0.2635
6059000000.0 0.7641 -0.5393
6062000000.0 0.05291 -0.8864
6066000000.0 -0.6688 -0.6146
6069000000.0 -0.8917 0.1217
6072000000.0 -0.4756 0.7818
6075000000.0 0.3018 0.8356
6078000000.0 0.8227 0.281
6081000000.0 0.7368 -0.5023
6084000000.0 0.08668 -0.8524
6088000000.0 -0.5975 -0.6079
6091000000.0 -0.8339 0.08325
6094000000.0 -0.4799 0.6997
6097000000.0 0.228 0.8168
6100000000.0 0.7937 0.3092
6103000000.0 0.7733 -0.4455
6106000000.0 0.1681 -0.8581
6109000000.0 -0.5802 -0.6346
6112000000.0 -0.8467 0.05888
6116000000.0 -0.5129 0.673
6119000000.0 0.2188 0.819
6122000000.0 0.8196 0.3356
6125000000.0 0.7797 -0.386
6128000000.0 0.1799 -0.8822
6131000000.0 -0.5761 -0.6754
6134000000.0 -0.8761 0.02879
6138000000.0 -0.5607 0.6962
6141000000.0 0.1663 0.871
6144000000.0 0.7812 0.3796
6147000000.0 0.8114 -0.3241
6150000000.0 0.2771 -0.8694
6153000000.0 -0.5407 -0.7436
6156000000.0 -0.8939 -0.08737
6159000000.0 -0.6043 0.6541
6162000000.0 0.1096 0.9297
6166000000.0 0.8116 0.4818
6169000000.0 0.8767 -0.329
6172000000.0 0.3316 -0.8839
6175000000.0 -0.4773 -0.8176
6178000000.0 -0.9334 -0.1272
6181000000.0 -0.7206 0.6576
6184000000.0 0.04136 0.9417
6188000000.0 0.7527 0.5514
6191000000.0 0.9177 -0.2615
6194000000.0 0.4013 -0.8635
6197000000.0 -0.4235 -0.8245
6200000000.0 -0.9221 -0.2491
6203000000.0 -0.7349 0.5684
6206000000.0 -0.06928 0.9471
6209000000.0 0.6758 0.6294
6212000000.0 0.9403 -0.1001
6216000000.0 0.4815 -0.7695
6219000000.0 -0.2961 -0.8616
6222000000.0 -0.8652 -0.3248
6225000000.0 -0.8055 0.4055
6228000000.0 -0.1553 0.8983
6231000000.0 0.5936 0.6863
6234000000.0 0.9161 -0.01569
6238000000.0 0.5525 -0.6931
6241000000.0 -0.1825 -0.8568
6244000000.0 -0.771 -0.3802
6247000000.0 -0.7964 0.3085
6250000000.0 -0.2697 0.8268
6253000000.0 0.4463 0.7057
6256000000.0 0.8354 0.1319
6259000000.0 0.6218 -0.5547
6262000000.0 -0.0365 -0.8484
6266000000.0 -0.6427 -0.5155
