! Created with skrf 1.8.0 (http://scikit-rf.org).
# Hz S RI R 50.0 
!freq ReS11 ImS11
4000000000.0 -0.5161 -1.436
4003000000.0 -1.442 -0.4735
4006000000.0 -1.304 0.8109
4009000000.0 -0.1745 1.477
4012000000.0 1.082 1.081
4016000000.0 1.521 -0.1786
4019000000.0 0.8708 -1.329
4022000000.0 -0.5479 -1.504
4025000000.0 -1.459 -0.5503
4028000000.0 -1.367 0.9008
4031000000.0 -0.1808 1.621
4034000000.0 1.172 1.174
4038000000.0 1.674 -0.1534
4041000000.0 0.8384 -1.391
4044000000.0 -0.5543 -1.548
4047000000.0 -1.588 -0.5407
4050000000.0 -1.412 0.8343
4053000000.0 -0.238 1.636
4056000000.0 1.138 1.225
4059000000.0 1.629 -0.1027
4062000000.0 0.9725 -1.314
4066000000.0 -0.4355 -1.556
4069000000.0 -1.461 -0.6842
4072000000.0 -1.472 0.7335
4075000000.0 -0.4636 1.572
4078000000.0 0.9812 1.325
4081000000.0 1.618 0.1534
4084000000.0 1.128 -1.153
4088000000.0 -0.1894 -1.601
4091000000.0 -1.363 -0.9324
4094000000.0 -1.515 0.4965
4097000000.0 -0.6572 1.473
4100000000.0 0.7349 1.409
4103000000.0 1.55 0.3126
4106000000.0 1.199 -0.9725
4109000000.0 0.06989 -1.524
4112000000.0 -1.105 -1.013
4116000000.0 -1.462 0.1978
4119000000.0 -0.8299 1.236
4122000000.0 0.4288 1.411
4125000000.0 1.297 0.6392
4128000000.0 1.311 -0.6128
4131000000.0 0.4266 -1.385
4134000000.0 -0.76 -1.208
4138000000.0 -1.432 -0.2031
4141000000.0 -1.096 0.9888
4144000000.0 0.02474 1.489
4147000000.0 1.169 0.9199
4150000000.0 1.459 -0.2809
4153000000.0 0.68 -1.306
4156000000.0 -0.5669 -1.358
4159000000.0 -1.445 -0.4331
4162000000.0 -1.26 0.8252
4166000000.0 -0.1558 1.499
4169000000.0 1.021 1.084
4172000000.0 1.475 -0.163
4175000000.0 0.817 -1.227
4178000000.0 -0.426 -1.412
4181000000.0 -1.394 -0.5761
4184000000.0 -1.3 0.7307
4188000000.0 -0.2633 1.467
4191000000.0 0.9992 1.132
4194000000.0 1.523 -0.03244
4197000000.0 0.9202 -1.272
4200000000.0 -0.4181 -1.496
4203000000.0 -1.494 -0.5821
4206000000.0 -1.374 0.7925
4209000000.0 -0.1961 1.589
4212000000.0 1.168 1.133
4216000000.0 1.598 -0.2734
4219000000.0 0.7301 -1.443
4222000000.0 -0.7434 -1.453
4225000000.0 -1.589 -0.3225
4228000000.0 -1.138 1.123
4231000000.0 0.1842 1.549
4234000000.0 1.321 0.7946
4238000000.0 1.403 -0.6086
4241000000.0 0.3841 -1.478
4244000000.0 -0.9395 -1.153
4247000000.0 -1.447 0.01687
4250000000.0 -0.8429 1.181
4253000000.0 0.3946 1.379
4256000000.0 1.334 0.5315
4259000000.0 1.216 -0.7042
4262000000.0 0.1798 -1.437
4266000000.0 -0.9619 -1.017
4269000000.0 -1.398 0.1288
4272000000.0 -0.7589 1.167
4275000000.0 0.4067 1.314
4278000000.0 1.312 0.5026
4281000000.0 1.173 -0.7088
4284000000.0 0.1549 -1.323
4288000000.0 -0.956 -0.9711
4291000000.0 -1.292 0.08272
4294000000.0 -0.7553 1.107
4297000000.0 0.3573 1.268
4300000000.0 1.199 0.5294
4303000000.0 1.173 -0.5698
4306000000.0 0.3006 -1.28
4309000000.0 -0.708 -1.038
4312000000.0 -1.296 -0.1221
4316000000.0 -0.9163 0.9529
4319000000.0 0.08254 1.328
4322000000.0 1.154 0.8051
4325000000.0 1.299 -0.3558
4328000000.0 0.5794 -1.239
4331000000.0 -0.5953 -1.247
4334000000.0 -1.366 -0.3988
4338000000.0 -1.163 0.8843
4341000000.0 -0.04821 1.49
4344000000.0 1.127 0.9821
4347000000.0 1.465 -0.2453
4350000000.0 0.732 -1.315
4353000000.0 -0.5696 -1.392
4356000000.0 -1.424 -0.4482
4359000000.0 -1.237 0.892
4362000000.0 -0.1063 1.526
4366000000.0 1.116 1.045
4369000000.0 1.52 -0.2358
4372000000.0 0.7748 -1.358
4375000000.0 -0.5761 -1.477
4378000000.0 -1.501 -0.4482
4381000000.0 -1.267 0.8974
4384000000.0 -0.07501 1.543
4388000000.0 1.187 0.9984
4391000000.0 1.516 -0.3344
4394000000.0 0.6521 -1.419
4397000000.0 -0.7384 -1.346
4400000000.0 -1.496 -0.2262
4403000000.0 -1.091 1.031
4406000000.0 0.1634 1.447
4409000000.0 1.263 0.7221
4412000000.0 1.319 -0.5297
4416000000.0 0.3166 -1.381
4419000000.0 -0.855 -1.056
4422000000.0 -1.309 0.02381
4425000000.0 -0.7702 1.052
4428000000.0 0.3436 1.27
4431000000.0 1.169 0.4373
4434000000.0 1.077 -0.6472
4438000000.0 0.174 -1.223
4441000000.0 -0.8886 -0.8592
4444000000.0 -1.195 0.1706
4447000000.0 -0.6202 1.024
4450000000.0 0.4546 1.138
4453000000.0 1.148 0.3506
4456000000.0 0.9944 -0.7137
4459000000.0 0.05827 -1.196
4462000000.0 -0.9062 -0.7934
4466000000.0 -1.211 0.2057
4469000000.0 -0.5845 1.058
4472000000.0 0.4749 1.126
4475000000.0 1.157 0.3518
4478000000.0 0.9648 -0.7283
4481000000.0 0.03921 -1.193
4484000000.0 -0.9224 -0.8409
4488000000.0 -1.235 0.1841
4491000000.0 -0.6322 1.072
4494000000.0 0.4222 1.209
4497000000.0 1.212 0.4297
4500000000.0 1.097 -0.6622
4503000000.0 0.1849 -1.228
4506000000.0 -0.853 -0.9325
4509000000.0 -1.26 0.06846
4512000000.0 -0.7926 1.028
4516000000.0 0.2841 1.24
4519000000.0 1.2 0.5634
4522000000.0 1.23 -0.5498
4525000000.0 0.3495 -1.283
4528000000.0 -0.795 -1.063
4531000000.0 -1.341 -0.1129
4534000000.0 -0.9411 0.9948
4538000000.0 0.1873 1.368
4541000000.0 1.158 0.7499
4544000000.0 1.311 -0.4182
4547000000.0 0.5168 -1.303
4550000000.0 -0.6447 -1.242
4553000000.0 -1.374 -0.3032
4556000000.0 -1.06 0.8894
4559000000.0 -0.02255 1.41
4562000000.0 1.1 0.9358
4566000000.0 1.376 -0.2593
4569000000.0 0.6599 -1.246
4572000000.0 -0.5255 -1.322
4575000000.0 -1.353 -0.3955
4578000000.0 -1.204 0.7923
4581000000.0 -0.1236 1.435
4584000000.0 1.021 0.9999
4588000000.0 1.417 -0.1626
4591000000.0 0.7687 -1.218
4594000000.0 -0.4631 -1.331
4597000000.0 -1.329 -0.4804
4600000000.0 -1.172 0.7467
4603000000.0 -0.1496 1.383
4606000000.0 0.986 0.9421
4609000000.0 1.362 -0.1652
4612000000.0 0.6956 -1.145
4616000000.0 -0.4583 -1.226
4619000000.0 -1.248 -0.3963
4622000000.0 -1.078 0.7075
4625000000.0 -0.09429 1.274
4628000000.0 0.9464 0.8606
4631000000.0 1.23 -0.1822
4634000000.0 0.593 -1.066
4638000000.0 -0.4678 -1.102
4641000000.0 -1.161 -0.3229
4644000000.0 -0.9546 0.7226
4647000000.0 -0.03216 1.161
4650000000.0 0.9293 0.7511
4653000000.0 1.11 -0.2549
4656000000.0 0.5223 -1.028
4659000000.0 -0.5185 -0.9936
4662000000.0 -1.085 -0.2322
4666000000.0 -0.8526 0.7369
4669000000.0 0.01738 1.109
4672000000.0 0.8604 0.6447
4675000000.0 1.078 -0.2938
4678000000.0 0.4564 -0.9712
4681000000.0 -0.5111 -0.9669
4684000000.0 -1.066 -0.2181
4688000000.0 -0.8734 0.6635
4691000000.0 -0.02244 1.075
4694000000.0 0.8527 0.7103
4697000000.0 1.107 -0.1853
4700000000.0 0.5589 -0.9841
4703000000.0 -0.416 -1.079
4706000000.0 -1.109 -0.363
4709000000.0 -0.9667 0.6927
4712000000.0 -0.1248 1.172
4716000000.0 0.8488 0.8668
4719000000.0 1.15 -0.1191
4722000000.0 0.6729 -0.9952
4725000000.0 -0.3597 -1.176
4728000000.0 -1.153 -0.4648
4731000000.0 -1.11 0.6006
4734000000.0 -0.2716 1.21
4738000000.0 0.7782 0.9765
4741000000.0 1.263 0.02418
4744000000.0 0.8548 -0.961
4747000000.0 -0.2042 -1.274
4750000000.0 -1.08 -0.6674
4753000000.0 -1.272 0.4315
4756000000.0 -0.4661 1.246
4759000000.0 0.6954 1.153
4762000000.0 1.355 0.2231
4766000000.0 1.039 -0.902
4769000000.0 -0.03979 -1.434
4772000000.0 -1.134 -0.8557
4775000000.0 -1.361 0.3139
4778000000.0 -0.6034 1.272
4781000000.0 0.5898 1.319
4784000000.0 1.397 0.3473
4788000000.0 1.145 -0.8366
4791000000.0 0.07724 -1.398
4794000000.0 -1.075 -0.9477
4797000000.0 -1.389 0.2588
4800000000.0 -0.6977 1.242
4803000000.0 0.5274 1.274
4806000000.0 1.294 0.3773
4809000000.0 1.071 -0.7532
4812000000.0 0.07155 -1.333
4816000000.0 -0.9663 -0.894
4819000000.0 -1.284 0.2407
4822000000.0 -0.6111 1.124
4825000000.0 0.5032 1.154
4828000000.0 1.202 0.303
4831000000.0 0.9809 -0.7558
4834000000.0 0.01386 -1.202
4838000000.0 -0.9198 -0.7251
4841000000.0 -1.108 0.2615
4844000000.0 -0.4728 1.025
4847000000.0 0.5101 0.9575
4850000000.0 1.068 0.188
4853000000.0 0.7909 -0.7028
4856000000.0 -0.06395 -1.053
4859000000.0 -0.8316 -0.5702
4862000000.0 -0.924 0.3222
4866000000.0 -0.3435 0.8963
4869000000.0 0.5057 0.8178
4872000000.0 0.9209 0.08574
4875000000.0 0.6626 -0.6366
4878000000.0 -0.1254 -0.9435
4881000000.0 -0.8357 -0.4854
4884000000.0 -0.8837 0.3339
4888000000.0 -0.2952 0.9328
4891000000.0 0.5399 0.7602
4894000000.0 0.9617 0.03146
4897000000.0 0.6318 -0.745
4900000000.0 -0.162 -0.9454
4903000000.0 -0.8809 -0.4254
4906000000.0 -0.9029 0.3938
4909000000.0 -0.2605 0.9994
4912000000.0 0.6233 0.7902
4916000000.0 1.022 0.007338
4919000000.0 0.6547 -0.7937
4922000000.0 -0.231 -1.014
4925000000.0 -0.9684 -0.483
4928000000.0 -0.9843 0.4661
4931000000.0 -0.2416 1.091
4934000000.0 0.6806 0.9033
4938000000.0 1.163 0.032
4941000000.0 0.7737 -0.9321
4944000000.0 -0.2493 -1.195
4947000000.0 -1.091 -0.5275
4950000000.0 -1.12 0.5744
4953000000.0 -0.2595 1.267
4956000000.0 0.8679 1.014
4959000000.0 1.304 -0.06062
4962000000.0 0.7516 -1.096
4966000000.0 -0.4036 -1.262
4969000000.0 -1.254 -0.4327
4972000000.0 -1.122 0.703
4975000000.0 -0.1167 1.291
4978000000.0 0.951 0.8675
4981000000.0 1.248 -0.1917
4984000000.0 0.5739 -1.093
4988000000.0 -0.5032 -1.139
4991000000.0 -1.183 -0.2727
4994000000.0 -0.9476 0.7416
4997000000.0 0.02069 1.147
5000000000.0 0.926 0.6529
5003000000.0 1.058 -0.3082
5006000000.0 0.3893 -0.9757
5009000000.0 -0.5353 -0.9299
5012000000.0 -1.025 -0.1339
5016000000.0 -0.7018 0.767
5019000000.0 0.157 0.9749
5022000000.0 0.8489 0.4665
5025000000.0 0.8672 -0.4059
5028000000.0 0.2065 -0.8988
5031000000.0 -0.6003 -0.6903
5034000000.0 -0.8647 0.06093
5038000000.0 -0.4703 0.7269
5041000000.0 0.2926 0.8081
5044000000.0 0.8336 0.2672
5047000000.0 0.6955 -0.5498
5050000000.0 0.007517 -0.8629
5053000000.0 -0.6761 -0.5434
5056000000.0 -0.8662 0.2429
5059000000.0 -0.3196 0.8638
5062000000.0 0.4642 0.7678
5066000000.0 0.9042 0.06665
5069000000.0 0.6195 -0.712
5072000000.0 -0.1701 -0.9778
5075000000.0 -0.8928 -0.4273
5078000000.0 -0.919 0.4645
5081000000.0 -0.1865 1.03
5084000000.0 0.7459 0.7938
5088000000.0 1.087 -0.1285
5091000000.0 0.5678 -0.9629
5094000000.0 -0.4387 -1.043
5097000000.0 -1.055 -0.286
5100000000.0 -0.9092 0.6645
5103000000.0 -0.01272 1.134
5106000000.0 0.8721 0.7545
5109000000.0 1.141 -0.1875
5112000000.0 0.5111 -1.01
5116000000.0 -0.5094 -1.107
5119000000.0 -1.152 -0.2654
5122000000.0 -0.9822 0.7082
5125000000.0 -0.029 1.206
5128000000.0 0.9089 0.7254
5131000000.0 1.181 -0.2346
5134000000.0 0.5397 -1.077
5138000000.0 -0.4709 -1.063
5141000000.0 -1.138 -0.3016
5144000000.0 -0.9468 0.7129
5147000000.0 -0.08264 1.094
5150000000.0 0.8128 0.7524
5153000000.0 1.108 -0.1729
5156000000.0 0.5737 -0.9581
5159000000.0 -0.3588 -1.036
5162000000.0 -1.025 -0.3736
5166000000.0 -0.916 0.5301
5169000000.0 -0.1628 1.012
5172000000.0 0.7217 0.7702
5175000000.0 1.055 -0.04991
5178000000.0 0.6147 -0.8343
5181000000.0 -0.254 -0.9886
5184000000.0 -0.9094 -0.424
5188000000.0 -0.882 0.4694
5191000000.0 -0.2313 0.9712
5194000000.0 0.6284 0.7732
5197000000.0 0.9905 -0.007281
5200000000.0 0.6039 -0.7596
5203000000.0 -0.2235 -0.9638
5206000000.0 -0.9103 -0.4007
5209000000.0 -0.8482 0.4562
5212000000.0 -0.15 0.9404
5216000000.0 0.6219 0.6866
5219000000.0 0.9541 -0.08511
5222000000.0 0.5261 -0.784
5225000000.0 -0.2955 -0.9161
5228000000.0 -0.9008 -0.3229
5231000000.0 -0.7884 0.5086
5234000000.0 -0.07464 0.947
5238000000.0 0.7275 0.6527
5241000000.0 0.966 -0.1864
5244000000.0 0.4495 -0.8511
5247000000.0 -0.3868 -0.8789
5250000000.0 -0.9385 -0.2037
5253000000.0 -0.7421 0.602
5256000000.0 0.002962 0.9818
5259000000.0 0.7929 0.5788
5262000000.0 0.942 -0.2553
5266000000.0 0.3795 -0.9227
5269000000.0 -0.4979 -0.8924
5272000000.0 -0.9903 -0.1622
5275000000.0 -0.7705 0.6517
5278000000.0 0.03785 1.003
5281000000.0 0.8495 0.6046
5284000000.0 0.9782 -0.2634
5288000000.0 0.4308 -0.9477
5291000000.0 -0.4423 -0.9556
5294000000.0 -1.014 -0.2173
5297000000.0 -0.8178 0.6109
5300000000.0 -0.05712 1.071
5303000000.0 0.7693 0.735
5306000000.0 1.062 -0.157
5309000000.0 0.5459 -0.9229
5312000000.0 -0.3764 -1.036
5316000000.0 -1.016 -0.4198
5319000000.0 -0.9637 0.5583
5322000000.0 -0.202 1.081
5325000000.0 0.7046 0.8451
5328000000.0 1.119 0.02208
5331000000.0 0.7292 -0.8734
5334000000.0 -0.1683 -1.121
5338000000.0 -0.9964 -0.555
5341000000.0 -1.109 0.4038
5344000000.0 -0.3852 1.049
5347000000.0 0.57 0.9989
5350000000.0 1.153 0.2129
5353000000.0 0.8922 -0.7044
5356000000.0 -0.003177 -1.134
5359000000.0 -0.8649 -0.7308
5362000000.0 -1.151 0.156
5366000000.0 -0.5693 0.9897
5369000000.0 0.4318 1.066
5372000000.0 1.115 0.378
5375000000.0 1.007 -0.6001
5378000000.0 0.1726 -1.142
5381000000.0 -0.7967 -0.8389
5384000000.0 -1.151 0.08732
5388000000.0 -0.664 0.9627
5391000000.0 0.3131 1.077
5394000000.0 1.038 0.4498
5397000000.0 0.969 -0.5417
5400000000.0 0.1947 -1.089
5403000000.0 -0.7003 -0.8002
5406000000.0 -1.03 0.03229
5409000000.0 -0.6312 0.8299
5412000000.0 0.243 1.04
5416000000.0 0.9431 0.452
5419000000.0 0.9394 -0.4554
5422000000.0 0.1999 -0.965
5425000000.0 -0.6564 -0.7401
5428000000.0 -0.995 0.0516
5431000000.0 -0.5537 0.7771
5434000000.0 0.2668 0.9257
5438000000.0 0.8749 0.3339
5441000000.0 0.8213 -0.4955
5444000000.0 0.1181 -0.9444
5447000000.0 -0.6774 -0.6485
5450000000.0 -0.8766 0.1394
5453000000.0 -0.4716 0.7305
5456000000.0 0.2946 0.822
5459000000.0 0.8274 0.2385
5462000000.0 0.716 -0.5223
5466000000.0 0.08025 -0.8472
5469000000.0 -0.6403 -0.5741
5472000000.0 -0.8457 0.1235
5475000000.0 -0.458 0.7329
5478000000.0 0.3426 0.7885
5481000000.0 0.8197 0.2842
5484000000.0 0.7133 -0.4826
5488000000.0 0.04955 -0.8817
5491000000.0 -0.6459 -0.6193
5494000000.0 -0.8348 0.09807
5497000000.0 -0.4857 0.738
5500000000.0 0.2998 0.8242
5503000000.0 0.8235 0.3207
5506000000.0 0.7983 -0.4884
5509000000.0 0.1299 -0.9155
5512000000.0 -0.6042 -0.6834
5516000000.0 -0.9428 0.04898
5519000000.0 -0.5649 0.7223
5522000000.0 0.1608 0.921
5525000000.0 0.8265 0.4659
5528000000.0 0.9202 -0.356
5531000000.0 0.2669 -0.9273
5534000000.0 -0.5256 -0.814
5538000000.0 -0.9723 -0.1551
5541000000.0 -0.7319 0.6631
5544000000.0 -0.004361 1.007
5547000000.0 0.7804 0.6399
5550000000.0 0.9803 -0.2011
5553000000.0 0.519 -0.9254
5556000000.0 -0.3986 -0.9545
5559000000.0 -0.9958 -0.3057
5562000000.0 -0.8881 0.547
5566000000.0 -0.1325 1.021
5569000000.0 0.6878 0.7819
5572000000.0 1.102 -0.04818
5575000000.0 0.6616 -0.8382
5578000000.0 -0.2459 -1.04
5581000000.0 -0.932 -0.4817
5584000000.0 -0.9275 0.4249
5588000000.0 -0.292 0.9965
5591000000.0 0.555 0.873
5594000000.0 1.041 0.1163
5597000000.0 0.736 -0.7227
5600000000.0 -0.09542 -1.011
5603000000.0 -0.833 -0.5846
5606000000.0 -1.001 0.2809
5609000000.0 -0.4055 0.9018
5612000000.0 0.4511 0.8617
5616000000.0 0.9704 0.2261
5619000000.0 0.7844 -0.5646
5622000000.0 0.01766 -0.9698
5625000000.0 -0.7177 -0.6235
5628000000.0 -0.9613 0.1669
5631000000.0 -0.4499 0.8413
5634000000.0 0.3428 0.8481
5638000000.0 0.8802 0.2654
5641000000.0 0.7623 -0.5229
5644000000.0 0.09006 -0.9016
5647000000.0 -0.6503 -0.6162
5650000000.0 -0.8941 0.1009
5653000000.0 -0.4566 0.7727
5656000000.0 0.3143 0.8376
5659000000.0 0.847 0.2489
5662000000.0 0.7535 -0.4994
5666000000.0 0.08677 -0.8886
5669000000.0 -0.6572 -0.6138
5672000000.0 -0.878 0.1364
5675000000.0 -0.4307 0.7707
5678000000.0 0.3267 0.8163
5681000000.0 0.856 0.2613
5684000000.0 0.7381 -0.5389
5688000000.0 0.04252 -0.9005
5691000000.0 -0.659 -0.6162
5694000000.0 -0.9127 0.1506
5697000000.0 -0.4255 0.802
5700000000.0 0.3795 0.8379
5703000000.0 0.8861 0.2202
5706000000.0 0.7555 -0.5769
5709000000.0 0.03498 -0.9386
5712000000.0 -0.7188 -0.6285
5716000000.0 -0.9273 0.1602
5719000000.0 -0.4588 0.8257
5722000000.0 0.3805 0.8864
5725000000.0 0.9649 0.259
5728000000.0 0.8113 -0.5642
5731000000.0 0.1002 -0.9989
5734000000.0 -0.7308 -0.7089
5738000000.0 -1.01 0.1167
5741000000.0 -0.5273 0.8687
5744000000.0 0.33 0.9808
5747000000.0 0.9571 0.3911
5750000000.0 0.8921 -0.5266
5753000000.0 0.1599 -1.036
5756000000.0 -0.6879 -0.8046
5759000000.0 -1.065 0.008238
5762000000.0 -0.6603 0.8211
5766000000.0 0.1908 1.035
5769000000.0 0.9458 0.4901
5772000000.0 0.9998 -0.3819
5775000000.0 0.3404 -1.067
5778000000.0 -0.5458 -0.9139
5781000000.0 -1.033 -0.1396
5784000000.0 -0.7693 0.7268
5788000000.0 0.0192 1.074
5791000000.0 0.8651 0.6382
5794000000.0 1.046 -0.2619
5797000000.0 0.5027 -0.9521
5800000000.0 -0.3958 -0.9567
5803000000.0 -1.031 -0.3025
5806000000.0 -0.9138 0.6114
5809000000.0 -0.1083 1.07
5812000000.0 0.7365 0.7245
5816000000.0 1.039 -0.07948
5819000000.0 0.6114 -0.8589
5822000000.0 -0.2875 -1.001
5825000000.0 -0.9647 -0.443
5828000000.0 -0.9471 0.4781
5831000000.0 -0.2627 0.9901
5834000000.0 0.5992 0.8333
5838000000.0 1.024 0.03312
5841000000.0 0.7068 -0.7811
5844000000.0 -0.1191 -1.02
5847000000.0 -0.8598 -0.5072
5850000000.0 -0.9765 0.3504
5853000000.0 -0.3364 0.9494
5856000000.0 0.5322 0.8266
5859000000.0 0.9848 0.1225
5862000000.0 0.6978 -0.6853
5866000000.0 -0.1155 -0.9776
5869000000.0 -0.7673 -0.5503
5872000000.0 -0.9393 0.3036
5875000000.0 -0.3435 0.8677
5878000000.0 0.4598 0.8035
5881000000.0 0.9037 0.1543
5884000000.0 0.6428 -0.6213
5888000000.0 -0.06543 -0.9031
5891000000.0 -0.7282 -0.5077
5894000000.0 -0.8452 0.2672
5897000000.0 -0.3649 0.8318
5900000000.0 0.4479 0.774
5903000000.0 0.8365 0.153
5906000000.0 0.6653 -0.5693
5909000000.0 -0.05476 -0.8676
5912000000.0 -0.6757 -0.4999
5916000000.0 -0.8392 0.2083
5919000000.0 -0.3427 0.7704
5922000000.0 0.3801 0.7855
5925000000.0 0.8059 0.1958
5928000000.0 0.6654 -0.5345
5931000000.0 0.0182 -0.85
5934000000.0 -0.6388 -0.58
5938000000.0 -0.8045 0.1664
5941000000.0 -0.4154 0.7463
5944000000.0 0.3165 0.8156
5947000000.0 0.8083 0.2473
5950000000.0 0.7528 -0.4575
5953000000.0 0.1142 -0.8618
5956000000.0 -0.6145 -0.6505
5959000000.0 -0.8622 0.0503
5962000000.0 -0.5297 0.6921
5966000000.0 0.2063 0.8693
5969000000.0 0.8009 0.4064
5972000000.0 0.8151 -0.3535
5975000000.0 0.2371 -0.8548
5978000000.0 -0.5183 -0.7462
5981000000.0 -0.9157 -0.08753
5984000000.0 -0.6664 0.6415
5988000000.0 0.1021 0.9306
5991000000.0 0.7951 0.5465
5994000000.0 0.9274 -0.2462
5997000000.0 0.4101 -0.8751
6000000000.0 -0.4216 -0.883
6003000000.0 -0.929 -0.2014
6006000000.0 -0.7727 0.579
6009000000.0 -0.06186 0.9543
6012000000.0 0.6979 0.6594
6016000000.0 0.9757 -0.1249
6019000000.0 0.5189 -0.8356
6022000000.0 -0.3117 -0.9485
6025000000.0 -0.9349 -0.353
6028000000.0 -0.8915 0.4858
6031000000.0 -0.1647 0.9812
6034000000.0 0.6476 0.752
6038000000.0 1.018 -0.02356
6041000000.0 0.6349 -0.7681
6044000000.0 -0.2084 -0.9671
6047000000.0 -0.8856 -0.4579
6050000000.0 -0.9212 0.4105
6053000000.0 -0.267 0.9611
6056000000.0 0.5432 0.7929
6059000000.0 0.949 0.0494
6062000000.0 0.6334 -0.7236
6066000000.0 -0.1281 -0.9604
6069000000.0 -0.8397 -0.4907
6072000000.0 -0.8857 0.3164
6075000000.0 -0.3095 0.8938
6078000000.0 0.5017 0.7733
6081000000.0 0.9236 0.0958
6084000000.0 0.6851 -0.6571
6088000000.0 -0.08889 -0.9235
6091000000.0 -0.7334 -0.5005
6094000000.0 -0.8715 0.2936
6097000000.0 -0.3315 0.8386
6100000000.0 0.4367 0.7864
6103000000.0 0.8789 0.1249
6106000000.0 0.6867 -0.6152
6109000000.0 -0.0653 -0.8745
6112000000.0 -0.6996 -0.5233
6116000000.0 -0.845 0.2193
6119000000.0 -0.3736 0.7831
6122000000.0 0.4246 0.7589
6125000000.0 0.8443 0.1549
6128000000.0 0.6544 -0.5469
6131000000.0 -0.04117 -0.8326
6134000000.0 -0.688 -0.5035
6138000000.0 -0.8333 0.2511
6141000000.0 -0.3632 0.7858
6144000000.0 0.3644 0.7634
6147000000.0 0.8477 0.1642
6150000000.0 0.6657 -0.518
6153000000.0 0.03394 -0.8125
6156000000.0 -0.6665 -0.5656
6159000000.0 -0.8417 0.1335
6162000000.0 -0.4054 0.7785
6166000000.0 0.3364 0.8137
6169000000.0 0.8472 0.2462
6172000000.0 0.7219 -0.5231
6175000000.0 0.1084 -0.8642
6178000000.0 -0.6425 -0.5823
6181000000.0 -0.9063 0.102
6184000000.0 -0.4828 0.746
6188000000.0 0.2897 0.8572
6191000000.0 0.8534 0.3383
6194000000.0 0.7792 -0.4574
6197000000.0 0.1461 -0.8997
6200000000.0 -0.6248 -0.6787
6203000000.0 -0.8953 0.03519
6206000000.0 -0.555 0.7189
6209000000.0 0.2208 0.8842
6212000000.0 0.8033 0.4264
6216000000.0 0.8195 -0.3695
6219000000.0 0.2081 -0.8654
6222000000.0 -0.5181 -0.7313
6225000000.0 -0.8859 -0.05737
6228000000.0 -0.6071 0.6424
6231000000.0 0.1051 0.8994
6234000000.0 0.7512 0.493
6238000000.0 0.8392 -0.3037
6241000000.0 0.3028 -0.8166
6244000000.0 -0.4278 -0.7535
6247000000.0 -0.8621 -0.1322
6250000000.0 -0.6388 0.5427
6253000000.0 0.01313 0.8306
6256000000.0 0.6269 0.5415
6259000000.0 0.8363 -0.1478
6262000000.0 0.4124 -0.6751
