! Created with skrf 1.8.0 (http://scikit-rf.org).
# Hz S RI R 50.0 
!freq ReS11 ImS11
4000000000.0 -0.163 -1.477
4003000000.0 -1.247 -0.813
4006000000.0 -1.465 0.4832
4009000000.0 -0.5179 1.408
4012000000.0 0.7602 1.289
4016000000.0 1.557 0.2312
4019000000.0 1.15 -1.056
4022000000.0 -0.08986 -1.536
4025000000.0 -1.248 -0.9189
4028000000.0 -1.498 0.4499
4031000000.0 -0.6279 1.462
4034000000.0 0.7965 1.401
4038000000.0 1.664 0.2901
4041000000.0 1.206 -1.104
4044000000.0 -0.1045 -1.648
4047000000.0 -1.304 -0.9303
4050000000.0 -1.593 0.4006
4053000000.0 -0.6554 1.442
4056000000.0 0.7089 1.419
4059000000.0 1.589 0.3955
4062000000.0 1.247 -1.022
4066000000.0 0.03582 -1.555
4069000000.0 -1.21 -1.017
4072000000.0 -1.608 0.2114
4075000000.0 -0.8414 1.383
4078000000.0 0.5495 1.534
4081000000.0 1.532 0.5485
4084000000.0 1.476 -0.8164
4088000000.0 0.2486 -1.62
4091000000.0 -1.063 -1.236
4094000000.0 -1.663 0.07658
4097000000.0 -0.9999 1.32
4100000000.0 0.3617 1.534
4103000000.0 1.428 0.6999
4106000000.0 1.393 -0.6
4109000000.0 0.4431 -1.506
4112000000.0 -0.8289 -1.276
4116000000.0 -1.481 -0.2276
4119000000.0 -1.142 0.9856
4122000000.0 -0.0052 1.481
4125000000.0 1.118 0.9441
4128000000.0 1.467 -0.2276
4131000000.0 0.8048 -1.228
4134000000.0 -0.4339 -1.405
4138000000.0 -1.359 -0.5804
4141000000.0 -1.316 0.6406
4144000000.0 -0.3562 1.441
4147000000.0 0.8296 1.24
4150000000.0 1.505 0.1451
4153000000.0 1.074 -1.052
4156000000.0 -0.1044 -1.503
4159000000.0 -1.23 -0.8688
4162000000.0 -1.451 0.3723
4166000000.0 -0.6416 1.386
4169000000.0 0.6066 1.353
4172000000.0 1.437 0.4182
4175000000.0 1.258 -0.8523
4178000000.0 0.1781 -1.503
4181000000.0 -1.012 -1.088
4184000000.0 -1.465 0.1028
4188000000.0 -0.9007 1.206
4191000000.0 0.3364 1.46
4194000000.0 1.366 0.6339
4197000000.0 1.422 -0.6615
4200000000.0 0.3914 -1.518
4203000000.0 -0.9588 -1.297
4206000000.0 -1.618 -0.05583
4209000000.0 -1.124 1.245
4212000000.0 0.2961 1.625
4216000000.0 1.492 0.7459
4219000000.0 1.501 -0.7333
4222000000.0 0.3538 -1.645
4225000000.0 -1.053 -1.244
4228000000.0 -1.655 0.07519
4231000000.0 -0.919 1.358
4234000000.0 0.5115 1.53
4238000000.0 1.571 0.5212
4241000000.0 1.363 -0.916
4244000000.0 0.09642 -1.586
4247000000.0 -1.235 -1.065
4250000000.0 -1.565 0.2749
4253000000.0 -0.6773 1.397
4256000000.0 0.6731 1.379
4259000000.0 1.484 0.3404
4262000000.0 1.174 -0.976
4266000000.0 -0.01652 -1.486
4269000000.0 -1.197 -0.8976
4272000000.0 -1.426 0.4468
4275000000.0 -0.521 1.356
4278000000.0 0.7503 1.24
4281000000.0 1.411 0.1979
4284000000.0 1.021 -0.9418
4288000000.0 -0.1128 -1.364
4291000000.0 -1.139 -0.7383
4294000000.0 -1.265 0.4135
4297000000.0 -0.4729 1.229
4300000000.0 0.5962 1.148
4303000000.0 1.268 0.283
4306000000.0 1.004 -0.8058
4309000000.0 0.04153 -1.285
4312000000.0 -0.9453 -0.829
4316000000.0 -1.279 0.2016
4319000000.0 -0.6628 1.09
4322000000.0 0.3898 1.227
4325000000.0 1.176 0.4977
4328000000.0 1.173 -0.618
4331000000.0 0.2646 -1.3
4334000000.0 -0.8339 -1.08
4338000000.0 -1.393 -0.04061
4341000000.0 -0.9546 1.025
4344000000.0 0.1676 1.358
4347000000.0 1.192 0.7275
4350000000.0 1.379 -0.5075
4353000000.0 0.5176 -1.337
4356000000.0 -0.7013 -1.23
4359000000.0 -1.422 -0.2578
4362000000.0 -1.09 0.9214
4366000000.0 -0.0208 1.439
4369000000.0 1.094 0.9326
4372000000.0 1.431 -0.2611
4375000000.0 0.739 -1.29
4378000000.0 -0.5377 -1.399
4381000000.0 -1.427 -0.4646
4384000000.0 -1.313 0.7955
4388000000.0 -0.218 1.504
4391000000.0 1.091 1.107
4394000000.0 1.555 -0.1459
4397000000.0 0.8699 -1.293
4400000000.0 -0.4492 -1.484
4403000000.0 -1.452 -0.5632
4406000000.0 -1.362 0.831
4409000000.0 -0.1571 1.555
4412000000.0 1.124 1.108
4416000000.0 1.536 -0.1484
4419000000.0 0.8171 -1.304
4422000000.0 -0.535 -1.409
4425000000.0 -1.42 -0.4706
4428000000.0 -1.243 0.8355
4431000000.0 -0.1275 1.463
4434000000.0 1.037 0.9513
4438000000.0 1.41 -0.2436
4441000000.0 0.6667 -1.227
4444000000.0 -0.5425 -1.247
4447000000.0 -1.323 -0.3079
4450000000.0 -1.041 0.8273
4453000000.0 0.009342 1.325
4456000000.0 1.028 0.8068
4459000000.0 1.238 -0.322
4462000000.0 0.5134 -1.192
4466000000.0 -0.607 -1.035
4469000000.0 -1.223 -0.1879
4472000000.0 -0.8568 0.858
4475000000.0 0.1157 1.211
4478000000.0 0.9872 0.6147
4481000000.0 1.106 -0.4032
4484000000.0 0.3607 -1.073
4488000000.0 -0.634 -0.9612
4491000000.0 -1.134 -0.05955
4494000000.0 -0.7753 0.8001
4497000000.0 0.171 1.102
4500000000.0 0.9487 0.5668
4503000000.0 1.038 -0.3941
4506000000.0 0.3377 -1.026
4509000000.0 -0.6007 -0.9153
4512000000.0 -1.099 -0.1135
4516000000.0 -0.7936 0.7728
4519000000.0 0.09421 1.092
4522000000.0 0.9553 0.6038
4525000000.0 1.066 -0.3525
4528000000.0 0.4007 -1.056
4531000000.0 -0.5506 -1.027
4534000000.0 -1.156 -0.2136
4538000000.0 -0.8844 0.7636
4541000000.0 0.00393 1.153
4544000000.0 0.8932 0.7269
4547000000.0 1.16 -0.2107
4550000000.0 0.5577 -1.019
4553000000.0 -0.4399 -1.105
4556000000.0 -1.151 -0.3803
4559000000.0 -1.036 0.6249
4562000000.0 -0.1678 1.232
4566000000.0 0.8377 0.9083
4569000000.0 1.272 -0.04017
4572000000.0 0.7741 -0.9971
4575000000.0 -0.2511 -1.264
4578000000.0 -1.138 -0.5927
4581000000.0 -1.213 0.4867
4584000000.0 -0.3784 1.258
4588000000.0 0.7218 1.131
4591000000.0 1.344 0.1661
4594000000.0 0.9745 -0.9185
4597000000.0 -0.08138 -1.394
4600000000.0 -1.131 -0.7874
4603000000.0 -1.352 0.3652
4606000000.0 -0.5597 1.265
4609000000.0 0.6152 1.245
4612000000.0 1.362 0.343
4616000000.0 1.112 -0.8306
4619000000.0 0.05005 -1.364
4622000000.0 -1.029 -0.898
4625000000.0 -1.369 0.2578
4628000000.0 -0.6814 1.218
4631000000.0 0.4945 1.263
4634000000.0 1.286 0.382
4638000000.0 1.121 -0.7618
4641000000.0 0.127 -1.347
4644000000.0 -0.9524 -0.9062
4647000000.0 -1.337 0.1707
4650000000.0 -0.7009 1.151
4653000000.0 0.4563 1.222
4656000000.0 1.216 0.3983
4659000000.0 1.051 -0.7197
4662000000.0 0.0859 -1.257
4666000000.0 -0.9217 -0.8334
4669000000.0 -1.187 0.2071
4672000000.0 -0.5851 1.051
4675000000.0 0.4158 1.087
4678000000.0 1.107 0.3191
4681000000.0 0.9286 -0.6573
4684000000.0 0.0817 -1.128
4688000000.0 -0.8296 -0.7362
4691000000.0 -1.104 0.1783
4694000000.0 -0.5118 0.9511
4697000000.0 0.4371 1.043
4700000000.0 1.064 0.3101
4703000000.0 0.9008 -0.6528
4706000000.0 0.07155 -1.114
4709000000.0 -0.834 -0.6728
4712000000.0 -1.064 0.1943
4716000000.0 -0.4951 0.9297
4719000000.0 0.4501 0.9628
4722000000.0 1.043 0.2719
4725000000.0 0.8346 -0.6067
4728000000.0 0.06446 -1.05
4731000000.0 -0.7842 -0.6866
4734000000.0 -1.06 0.1484
4738000000.0 -0.5158 0.8944
4741000000.0 0.3528 0.9561
4744000000.0 1.014 0.3339
4747000000.0 0.94 -0.5527
4750000000.0 0.1743 -1.017
4753000000.0 -0.6734 -0.8168
4756000000.0 -1.077 0.02699
4759000000.0 -0.6806 0.8739
4762000000.0 0.2367 1.074
4766000000.0 0.9924 0.5127
4769000000.0 1.031 -0.4171
4772000000.0 0.2987 -1.121
4775000000.0 -0.623 -0.9714
4778000000.0 -1.134 -0.1564
4781000000.0 -0.8706 0.8047
4784000000.0 0.04093 1.148
4788000000.0 0.9505 0.7256
4791000000.0 1.171 -0.2607
4794000000.0 0.5594 -1.086
4797000000.0 -0.4637 -1.132
4800000000.0 -1.175 -0.4049
4803000000.0 -1.029 0.6204
4806000000.0 -0.1636 1.229
4809000000.0 0.8371 0.9461
4812000000.0 1.295 -0.009763
4816000000.0 0.7962 -0.9886
4819000000.0 -0.2632 -1.295
4822000000.0 -1.177 -0.6321
4825000000.0 -1.246 0.5047
4828000000.0 -0.4112 1.283
4831000000.0 0.7528 1.133
4834000000.0 1.387 0.142
4838000000.0 1.003 -0.9746
4841000000.0 -0.1442 -1.389
4844000000.0 -1.168 -0.7699
4847000000.0 -1.319 0.3868
4850000000.0 -0.5104 1.274
4853000000.0 0.6411 1.212
4856000000.0 1.346 0.2605
4859000000.0 1.049 -0.8499
4862000000.0 -0.03599 -1.36
4866000000.0 -1.056 -0.8405
4869000000.0 -1.334 0.2566
4872000000.0 -0.5964 1.171
4875000000.0 0.538 1.171
4878000000.0 1.211 0.3167
4881000000.0 1.023 -0.734
4884000000.0 0.07054 -1.23
4888000000.0 -0.8971 -0.816
4891000000.0 -1.198 0.2229
4894000000.0 -0.5881 1.034
4897000000.0 0.4393 1.111
4900000000.0 1.105 0.3279
4903000000.0 0.9252 -0.6437
4906000000.0 0.08047 -1.09
4909000000.0 -0.7727 -0.7361
4912000000.0 -1.039 0.119
4916000000.0 -0.5456 0.8657
4919000000.0 0.3075 0.9517
4922000000.0 0.9433 0.3481
4925000000.0 0.8552 -0.5241
4928000000.0 0.1516 -0.9585
4931000000.0 -0.6282 -0.7361
4934000000.0 -0.9302 0.0497
4938000000.0 -0.5725 0.7365
4941000000.0 0.2161 0.916
4944000000.0 0.8558 0.4154
4947000000.0 0.8667 -0.3847
4950000000.0 0.2468 -0.9088
4953000000.0 -0.5528 -0.7653
4956000000.0 -0.9646 -0.04598
4959000000.0 -0.6383 0.717
4962000000.0 0.1501 0.9569
4966000000.0 0.8618 0.4809
4969000000.0 0.9176 -0.3538
4972000000.0 0.3258 -0.9218
4975000000.0 -0.5472 -0.848
4978000000.0 -1.016 -0.1248
4981000000.0 -0.7311 0.7078
4984000000.0 0.06966 1.02
4988000000.0 0.8354 0.6385
4991000000.0 1.036 -0.2465
4994000000.0 0.4691 -0.9609
4997000000.0 -0.4601 -1.006
5000000000.0 -1.055 -0.2879
5003000000.0 -0.9395 0.647
5006000000.0 -0.07851 1.151
5009000000.0 0.867 0.816
5012000000.0 1.173 -0.1517
5016000000.0 0.6786 -1.005
5019000000.0 -0.3736 -1.207
5022000000.0 -1.133 -0.4499
5025000000.0 -1.082 0.5641
5028000000.0 -0.2315 1.221
5031000000.0 0.8098 0.9863
5034000000.0 1.282 0.01052
5038000000.0 0.8195 -0.9868
5041000000.0 -0.2256 -1.275
5044000000.0 -1.114 -0.6451
5047000000.0 -1.222 0.4382
5050000000.0 -0.4422 1.204
5053000000.0 0.6484 1.128
5056000000.0 1.283 0.2139
5059000000.0 0.9761 -0.863
5062000000.0 -0.003906 -1.288
5066000000.0 -1.007 -0.8228
5069000000.0 -1.258 0.2362
5072000000.0 -0.6257 1.093
5075000000.0 0.4956 1.2
5078000000.0 1.23 0.3891
5081000000.0 1.093 -0.6749
5084000000.0 0.1596 -1.218
5088000000.0 -0.8004 -0.911
5091000000.0 -1.215 0.07832
5094000000.0 -0.6983 0.9192
5097000000.0 0.262 1.141
5100000000.0 1.057 0.5216
5103000000.0 1.016 -0.4421
5106000000.0 0.2854 -1.065
5109000000.0 -0.5745 -0.9401
5112000000.0 -1.103 -0.1028
5116000000.0 -0.778 0.7277
5119000000.0 0.04849 1.059
5122000000.0 0.8765 0.6305
5125000000.0 1.015 -0.2369
5128000000.0 0.4244 -0.9085
5131000000.0 -0.4445 -0.9443
5134000000.0 -0.9629 -0.2451
5138000000.0 -0.7863 0.5818
5141000000.0 -0.0642 0.9531
5144000000.0 0.6855 0.6521
5147000000.0 0.9514 -0.1031
5150000000.0 0.4846 -0.7925
5153000000.0 -0.3055 -0.8954
5156000000.0 -0.8682 -0.3444
5159000000.0 -0.7799 0.4663
5162000000.0 -0.1274 0.846
5166000000.0 0.6018 0.6552
5169000000.0 0.8987 -0.01485
5172000000.0 0.562 -0.7059
5175000000.0 -0.2083 -0.8914
5178000000.0 -0.8323 -0.3648
5181000000.0 -0.79 0.4316
5184000000.0 -0.1847 0.925
5188000000.0 0.5732 0.7259
5191000000.0 0.9 -0.0269
5194000000.0 0.5707 -0.7173
5197000000.0 -0.2115 -0.898
5200000000.0 -0.8517 -0.4136
5203000000.0 -0.8454 0.4076
5206000000.0 -0.2119 0.9285
5209000000.0 0.6098 0.7397
5212000000.0 0.9829 -0.01974
5216000000.0 0.6169 -0.7278
5219000000.0 -0.1971 -0.9529
5222000000.0 -0.8572 -0.4537
5225000000.0 -0.9095 0.4141
5228000000.0 -0.2759 0.9501
5231000000.0 0.565 0.8325
5234000000.0 1.005 0.0873
5238000000.0 0.7159 -0.7375
5241000000.0 -0.09821 -1.045
5244000000.0 -0.8461 -0.5547
5247000000.0 -1.022 0.312
5250000000.0 -0.3663 0.973
5253000000.0 0.4852 0.925
5256000000.0 1.028 0.2138
5259000000.0 0.8099 -0.6669
5262000000.0 0.02611 -1.032
5266000000.0 -0.8479 -0.7021
5269000000.0 -1.069 0.1341
5272000000.0 -0.5931 0.9163
5275000000.0 0.3685 1.029
5278000000.0 1.009 0.4296
5281000000.0 0.9747 -0.5191
5284000000.0 0.229 -1.085
5288000000.0 -0.6678 -0.8928
5291000000.0 -1.106 -0.07032
5294000000.0 -0.7511 0.8208
5297000000.0 0.11 1.13
5300000000.0 0.9002 0.5909
5303000000.0 1.084 -0.3037
5306000000.0 0.4698 -1.026
5309000000.0 -0.4759 -1.032
5312000000.0 -1.07 -0.2902
5316000000.0 -0.955 0.6568
5319000000.0 -0.1219 1.143
5322000000.0 0.8277 0.8374
5325000000.0 1.165 -0.0974
5328000000.0 0.6495 -0.9434
5331000000.0 -0.2954 -1.104
5334000000.0 -1.011 -0.4865
5338000000.0 -0.9976 0.4666
5341000000.0 -0.2768 1.105
5344000000.0 0.6623 0.9173
5347000000.0 1.12 0.07683
5350000000.0 0.6986 -0.8127
5353000000.0 -0.1441 -1.081
5356000000.0 -0.9353 -0.5438
5359000000.0 -1.025 0.3738
5362000000.0 -0.3644 1.008
5366000000.0 0.5575 0.9287
5369000000.0 1.045 0.1497
5372000000.0 0.7898 -0.7592
5375000000.0 -0.05513 -1.033
5378000000.0 -0.8728 -0.5377
5381000000.0 -0.9581 0.3473
5384000000.0 -0.3575 0.9352
5388000000.0 0.5068 0.8229
5391000000.0 0.9461 0.1046
5394000000.0 0.6701 -0.6773
5397000000.0 -0.1002 -0.9458
5400000000.0 -0.7832 -0.498
5403000000.0 -0.8693 0.3079
5406000000.0 -0.2853 0.8155
5409000000.0 0.4661 0.7383
5412000000.0 0.8877 0.0667
5416000000.0 0.6131 -0.6127
5419000000.0 -0.05914 -0.8625
5422000000.0 -0.7493 -0.4528
5425000000.0 -0.7857 0.2831
5428000000.0 -0.3058 0.8206
5431000000.0 0.4579 0.7411
5434000000.0 0.8341 0.05726
5438000000.0 0.6034 -0.6143
5441000000.0 -0.1137 -0.8933
5444000000.0 -0.7349 -0.4661
5447000000.0 -0.8291 0.2988
5450000000.0 -0.3095 0.8305
5453000000.0 0.4774 0.7713
5456000000.0 0.8851 0.1177
5459000000.0 0.6455 -0.5991
5462000000.0 -0.06106 -0.8851
5466000000.0 -0.7097 -0.5298
5469000000.0 -0.853 0.2157
5472000000.0 -0.3956 0.8147
5475000000.0 0.4262 0.8555
5478000000.0 0.8854 0.1979
5481000000.0 0.7527 -0.533
5484000000.0 0.08392 -0.932
5488000000.0 -0.6704 -0.6747
5491000000.0 -0.9714 0.1152
5494000000.0 -0.5662 0.8128
5497000000.0 0.2503 0.9614
5500000000.0 0.9336 0.3925
5503000000.0 0.8924 -0.4281
5506000000.0 0.2429 -0.9622
5509000000.0 -0.5895 -0.8348
5512000000.0 -1.002 -0.09233
5516000000.0 -0.7434 0.7534
5519000000.0 0.1245 1.043
5522000000.0 0.7977 0.5999
5525000000.0 0.9909 -0.2887
5528000000.0 0.4409 -0.9274
5531000000.0 -0.4369 -0.947
5534000000.0 -1.004 -0.2517
5538000000.0 -0.8847 0.5964
5541000000.0 -0.0985 1.12
5544000000.0 0.7185 0.7539
5547000000.0 1.062 -0.1075
5550000000.0 0.6222 -0.8725
5553000000.0 -0.2968 -1.009
5556000000.0 -0.9548 -0.4155
5559000000.0 -0.946 0.4542
5562000000.0 -0.2451 0.9931
5566000000.0 0.6118 0.8156
5569000000.0 1.002 0.08563
5572000000.0 0.6962 -0.7798
5575000000.0 -0.1198 -0.9973
5578000000.0 -0.87 -0.5468
5581000000.0 -0.9266 0.3375
5584000000.0 -0.3498 0.8956
5588000000.0 0.4484 0.8351
5591000000.0 0.9381 0.1768
5594000000.0 0.7459 -0.6072
5597000000.0 -0.01537 -0.9378
5600000000.0 -0.6954 -0.5635
5603000000.0 -0.9031 0.2005
5606000000.0 -0.4364 0.8197
5609000000.0 0.3692 0.8154
5612000000.0 0.869 0.2248
5616000000.0 0.7221 -0.4882
5619000000.0 0.06386 -0.868
5622000000.0 -0.6384 -0.5722
5625000000.0 -0.826 0.1292
5628000000.0 -0.4159 0.6954
5631000000.0 0.2938 0.7728
5634000000.0 0.7891 0.2794
5638000000.0 0.7183 -0.434
5641000000.0 0.0873 -0.8448
5644000000.0 -0.5916 -0.6
5647000000.0 -0.8198 0.09746
5650000000.0 -0.4378 0.7071
5653000000.0 0.2726 0.8052
5656000000.0 0.7898 0.2602
5659000000.0 0.7244 -0.4862
5662000000.0 0.07577 -0.8669
5666000000.0 -0.613 -0.5856
5669000000.0 -0.8822 0.1051
5672000000.0 -0.4597 0.7496
5675000000.0 0.2764 0.828
5678000000.0 0.8431 0.2891
5681000000.0 0.7586 -0.473
5684000000.0 0.1136 -0.9035
5688000000.0 -0.6211 -0.6855
5691000000.0 -0.9348 0.08709
5694000000.0 -0.5489 0.7894
5697000000.0 0.2749 0.8992
5700000000.0 0.9305 0.3373
5703000000.0 0.8517 -0.4679
5706000000.0 0.169 -0.9893
5709000000.0 -0.6556 -0.7615
5712000000.0 -1.026 0.0187
5716000000.0 -0.6258 0.8194
5719000000.0 0.2453 1.027
5722000000.0 0.9063 0.4869
5725000000.0 0.9627 -0.4049
5728000000.0 0.3009 -1.015
5731000000.0 -0.5832 -0.8952
5734000000.0 -1.033 -0.1059
5738000000.0 -0.7606 0.7543
5741000000.0 0.1184 1.072
5744000000.0 0.8899 0.6228
5747000000.0 1.042 -0.2814
5750000000.0 0.4734 -0.9895
5753000000.0 -0.4868 -1.004
5756000000.0 -1.082 -0.2506
5759000000.0 -0.9196 0.6409
5762000000.0 -0.04971 1.112
5766000000.0 0.8073 0.773
5769000000.0 1.078 -0.1258
5772000000.0 0.61 -0.8983
5775000000.0 -0.2928 -1.076
5778000000.0 -1.014 -0.4419
5781000000.0 -0.9774 0.4856
5784000000.0 -0.2391 1.045
5788000000.0 0.6268 0.8717
5791000000.0 1.108 0.07485
5794000000.0 0.7005 -0.7832
5797000000.0 -0.1264 -1.033
5800000000.0 -0.8953 -0.5574
5803000000.0 -1.014 0.3281
5806000000.0 -0.3664 0.9872
5809000000.0 0.4858 0.8997
5812000000.0 1.027 0.1825
5816000000.0 0.7978 -0.6807
5819000000.0 -0.0101 -1.019
5822000000.0 -0.8053 -0.6195
5825000000.0 -1.006 0.2051
5828000000.0 -0.4561 0.8516
5831000000.0 0.3892 0.9219
5834000000.0 0.9322 0.254
5838000000.0 0.8062 -0.5547
5841000000.0 0.0649 -0.9419
5844000000.0 -0.7027 -0.6279
5847000000.0 -0.9504 0.09984
5850000000.0 -0.4998 0.8102
5853000000.0 0.3377 0.9276
5856000000.0 0.8572 0.3165
5859000000.0 0.8029 -0.4885
5862000000.0 0.1035 -0.9162
5866000000.0 -0.6461 -0.633
5869000000.0 -0.9122 0.1
5872000000.0 -0.4876 0.6923
5875000000.0 0.2508 0.8385
5878000000.0 0.8034 0.2875
5881000000.0 0.7538 -0.44
5884000000.0 0.1337 -0.8447
5888000000.0 -0.6214 -0.6225
5891000000.0 -0.8692 0.08229
5894000000.0 -0.4827 0.7061
5897000000.0 0.2474 0.8272
5900000000.0 0.7975 0.3317
5903000000.0 0.7453 -0.3837
5906000000.0 0.1914 -0.8402
5909000000.0 -0.5271 -0.6529
5912000000.0 -0.8599 -0.01556
5916000000.0 -0.5033 0.6509
5919000000.0 0.1512 0.8234
5922000000.0 0.7788 0.4148
5925000000.0 0.7824 -0.3559
5928000000.0 0.2623 -0.8183
5931000000.0 -0.4844 -0.7072
5934000000.0 -0.8655 -0.08548
5938000000.0 -0.6144 0.5901
5941000000.0 0.08165 0.9088
5944000000.0 0.7177 0.4979
5947000000.0 0.8762 -0.2342
5950000000.0 0.3794 -0.8137
5953000000.0 -0.3989 -0.8389
5956000000.0 -0.8877 -0.2399
5959000000.0 -0.7788 0.5414
5962000000.0 -0.07822 0.9146
5966000000.0 0.6367 0.6593
5969000000.0 0.9439 -0.09179
5972000000.0 0.5226 -0.8181
5975000000.0 -0.271 -0.9284
5978000000.0 -0.8845 -0.3916
5981000000.0 -0.8503 0.4278
5984000000.0 -0.2253 0.951
5988000000.0 0.5888 0.8039
5991000000.0 0.9938 0.04992
5994000000.0 0.6809 -0.7348
5997000000.0 -0.1299 -0.9879
6000000000.0 -0.8442 -0.5351
6003000000.0 -0.9423 0.3034
6006000000.0 -0.332 0.9264
6009000000.0 0.4723 0.8789
6012000000.0 0.9427 0.2182
6016000000.0 0.7564 -0.6247
6019000000.0 -0.01132 -1.002
6022000000.0 -0.7665 -0.6028
6025000000.0 -0.9542 0.1931
6028000000.0 -0.4661 0.8662
6031000000.0 0.3959 0.8859
6034000000.0 0.9355 0.28
6038000000.0 0.7817 -0.5545
6041000000.0 0.1105 -0.9701
6044000000.0 -0.6922 -0.6805
6047000000.0 -0.9225 0.1407
6050000000.0 -0.5255 0.7798
6053000000.0 0.2848 0.8848
6056000000.0 0.8536 0.3238
6059000000.0 0.7951 -0.4862
6062000000.0 0.1167 -0.9126
6066000000.0 -0.6171 -0.6454
6069000000.0 -0.8778 0.07139
6072000000.0 -0.4949 0.7312
6075000000.0 0.2193 0.8539
6078000000.0 0.8084 0.3307
6081000000.0 0.7748 -0.4276
6084000000.0 0.1606 -0.836
6088000000.0 -0.5538 -0.6683
6091000000.0 -0.8709 0.03599
6094000000.0 -0.509 0.668
6097000000.0 0.1983 0.8179
6100000000.0 0.7534 0.3819
6103000000.0 0.7491 -0.3767
6106000000.0 0.1804 -0.8346
6109000000.0 -0.5094 -0.6814
6112000000.0 -0.8627 -0.01524
6116000000.0 -0.5461 0.6348
6119000000.0 0.171 0.85
6122000000.0 0.7528 0.4055
6125000000.0 0.7999 -0.3166
6128000000.0 0.2619 -0.7995
6131000000.0 -0.5095 -0.7425
6134000000.0 -0.8717 -0.07965
6138000000.0 -0.6145 0.6141
6141000000.0 0.1162 0.8866
6144000000.0 0.7452 0.4341
6147000000.0 0.8118 -0.2823
6150000000.0 0.2641 -0.8364
6153000000.0 -0.4199 -0.7792
6156000000.0 -0.893 -0.1313
6159000000.0 -0.6463 0.5968
6162000000.0 0.05399 0.8945
6166000000.0 0.7487 0.5368
6169000000.0 0.8855 -0.2439
6172000000.0 0.3822 -0.8598
6175000000.0 -0.4109 -0.8582
6178000000.0 -0.9359 -0.2053
6181000000.0 -0.7674 0.5618
6184000000.0 -0.0294 0.9434
6188000000.0 0.6913 0.5945
6191000000.0 0.9228 -0.1684
6194000000.0 0.4968 -0.8033
6197000000.0 -0.3629 -0.861
6200000000.0 -0.877 -0.3123
6203000000.0 -0.7637 0.4774
6206000000.0 -0.1541 0.9091
6209000000.0 0.6393 0.6981
6212000000.0 0.9561 -0.04383
6216000000.0 0.5604 -0.7514
6219000000.0 -0.2096 -0.8673
6222000000.0 -0.8103 -0.395
6225000000.0 -0.84 0.3686
6228000000.0 -0.1958 0.8988
6231000000.0 0.5377 0.7492
6234000000.0 0.8746 0.0447
6238000000.0 0.6173 -0.6349
6241000000.0 -0.1076 -0.8438
6244000000.0 -0.6963 -0.4631
6247000000.0 -0.8166 0.2513
6250000000.0 -0.3238 0.7772
6253000000.0 0.4015 0.7772
6256000000.0 0.8263 0.1711
6259000000.0 0.6526 -0.5257
6262000000.0 0.02725 -0.8067
6266000000.0 -0.5902 -0.5598
