! Created with skrf 1.8.0 (http://scikit-rf.org).
# Hz S RI R 50.0 
!freq ReS11 ImS11
4000000000.0 1.586 0.5907
4003000000.0 1.403 -0.8839
4006000000.0 0.1028 -1.652
4009000000.0 -1.202 -1.086
4012000000.0 -1.58 0.2653
4016000000.0 -0.7417 1.347
4019000000.0 0.6146 1.424
4022000000.0 1.468 0.3257
4025000000.0 1.235 -0.9249
4028000000.0 -0.02739 -1.532
4031000000.0 -1.207 -0.889
4034000000.0 -1.417 0.405
4038000000.0 -0.4961 1.362
4041000000.0 0.7803 1.235
4044000000.0 1.406 0.09298
4047000000.0 0.9252 -1.002
4050000000.0 -0.231 -1.362
4053000000.0 -1.19 -0.6378
4056000000.0 -1.251 0.5836
4059000000.0 -0.401 1.333
4062000000.0 0.8865 1.063
4066000000.0 1.416 -0.005787
4069000000.0 0.8686 -1.132
4072000000.0 -0.332 -1.394
4075000000.0 -1.354 -0.5972
4078000000.0 -1.297 0.7071
4081000000.0 -0.2458 1.497
4084000000.0 1.03 1.124
4088000000.0 1.533 -0.1608
4091000000.0 0.8138 -1.322
4094000000.0 -0.5414 -1.457
4097000000.0 -1.518 -0.4763
4100000000.0 -1.315 0.92
4103000000.0 -0.1444 1.572
4106000000.0 1.184 1.053
4109000000.0 1.54 -0.2922
4112000000.0 0.7633 -1.383
4116000000.0 -0.584 -1.447
4119000000.0 -1.468 -0.4545
4122000000.0 -1.306 0.8427
4125000000.0 -0.2207 1.513
4128000000.0 1.018 1.117
4131000000.0 1.521 -0.06809
4134000000.0 0.8968 -1.232
4138000000.0 -0.3619 -1.495
4141000000.0 -1.399 -0.6862
4144000000.0 -1.41 0.6276
4147000000.0 -0.4411 1.492
4150000000.0 0.8748 1.312
4153000000.0 1.556 0.1512
4156000000.0 1.112 -1.105
4159000000.0 -0.0992 -1.553
4162000000.0 -1.251 -0.9175
4166000000.0 -1.469 0.3747
4169000000.0 -0.6504 1.35
4172000000.0 0.6163 1.376
4175000000.0 1.418 0.4278
4178000000.0 1.282 -0.7998
4181000000.0 0.1964 -1.466
4184000000.0 -0.9477 -1.127
4188000000.0 -1.502 -0.01348
4191000000.0 -0.9649 1.157
4194000000.0 0.2461 1.519
4197000000.0 1.305 0.8407
4200000000.0 1.472 -0.4774
4203000000.0 0.5769 -1.466
4206000000.0 -0.7523 -1.379
4209000000.0 -1.576 -0.3308
4212000000.0 -1.273 1.03
4216000000.0 -0.009846 1.642
4219000000.0 1.243 1.08
4222000000.0 1.641 -0.3103
4225000000.0 0.7568 -1.499
4228000000.0 -0.6543 -1.559
4231000000.0 -1.644 -0.4688
4234000000.0 -1.406 0.9818
4238000000.0 -0.1091 1.749
4241000000.0 1.288 1.143
4244000000.0 1.682 -0.284
4247000000.0 0.877 -1.493
4250000000.0 -0.6505 -1.602
4253000000.0 -1.676 -0.4788
4256000000.0 -1.449 0.9856
4259000000.0 -0.08446 1.763
4262000000.0 1.36 1.123
4266000000.0 1.719 -0.3862
4269000000.0 0.7826 -1.596
4272000000.0 -0.792 -1.56
4275000000.0 -1.693 -0.3257
4278000000.0 -1.271 1.143
4281000000.0 0.1277 1.649
4284000000.0 1.417 0.8681
4288000000.0 1.575 -0.5965
4291000000.0 0.4431 -1.556
4294000000.0 -0.9134 -1.294
4297000000.0 -1.536 -0.08951
4300000000.0 -0.9523 1.127
4303000000.0 0.2817 1.438
4306000000.0 1.308 0.6651
4309000000.0 1.271 -0.5494
4312000000.0 0.3586 -1.333
4316000000.0 -0.7954 -1.113
4319000000.0 -1.355 -0.1096
4322000000.0 -0.9754 0.9953
4325000000.0 0.1798 1.323
4328000000.0 1.154 0.7055
4331000000.0 1.249 -0.4461
4334000000.0 0.4848 -1.272
4338000000.0 -0.664 -1.171
4341000000.0 -1.375 -0.2266
4344000000.0 -1.04 0.9111
4347000000.0 0.06033 1.408
4350000000.0 1.127 0.8501
4353000000.0 1.334 -0.3304
4356000000.0 0.5966 -1.24
4359000000.0 -0.5693 -1.223
4362000000.0 -1.318 -0.3883
4366000000.0 -1.144 0.769
4369000000.0 -0.1287 1.368
4372000000.0 0.9373 0.9913
4375000000.0 1.389 -0.06714
4378000000.0 0.8122 -1.117
4381000000.0 -0.3243 -1.374
4384000000.0 -1.28 -0.6311
4388000000.0 -1.318 0.5678
4391000000.0 -0.4342 1.37
4394000000.0 0.8232 1.228
4397000000.0 1.492 0.1614
4400000000.0 1.069 -0.9952
4403000000.0 -0.1282 -1.51
4406000000.0 -1.256 -0.8676
4409000000.0 -1.458 0.4281
4412000000.0 -0.6099 1.423
4416000000.0 0.7133 1.374
4419000000.0 1.519 0.3461
4422000000.0 1.202 -0.9505
4425000000.0 0.05991 -1.561
4428000000.0 -1.181 -1.02
4431000000.0 -1.544 0.2591
4434000000.0 -0.7879 1.372
4438000000.0 0.5595 1.488
4441000000.0 1.476 0.5105
4444000000.0 1.333 -0.8632
4447000000.0 0.1586 -1.592
4450000000.0 -1.123 -1.165
4453000000.0 -1.597 0.1547
4456000000.0 -0.8432 1.314
4459000000.0 0.539 1.486
4462000000.0 1.471 0.5052
4466000000.0 1.288 -0.8577
4469000000.0 0.1322 -1.524
4472000000.0 -1.105 -1.017
4475000000.0 -1.467 0.2358
4478000000.0 -0.6877 1.295
4481000000.0 0.585 1.31
4484000000.0 1.362 0.3126
4488000000.0 1.092 -0.8462
4491000000.0 -0.004307 -1.346
4494000000.0 -1.049 -0.8176
4497000000.0 -1.232 0.3161
4500000000.0 -0.4784 1.168
4503000000.0 0.5622 1.033
4506000000.0 1.164 0.1774
4509000000.0 0.8572 -0.7679
4512000000.0 -0.09942 -1.129
4516000000.0 -0.9632 -0.6217
4519000000.0 -1.045 0.3529
4522000000.0 -0.3654 1.016
4525000000.0 0.5936 0.9196
4528000000.0 1.098 0.07096
4531000000.0 0.7699 -0.8082
4534000000.0 -0.1566 -1.045
4538000000.0 -0.911 -0.5244
4541000000.0 -0.9623 0.3934
4544000000.0 -0.3336 0.9919
4547000000.0 0.607 0.8546
4550000000.0 1.054 0.0826
4553000000.0 0.7355 -0.7966
4556000000.0 -0.1553 -1.066
4559000000.0 -0.9005 -0.5397
4562000000.0 -1.017 0.3488
4566000000.0 -0.3567 1.031
4569000000.0 0.5411 0.9474
4572000000.0 1.077 0.1751
4575000000.0 0.8104 -0.7568
4578000000.0 -0.0663 -1.15
4581000000.0 -0.9154 -0.6484
4584000000.0 -1.12 0.2841
4588000000.0 -0.5 1.065
4591000000.0 0.5002 1.094
4594000000.0 1.153 0.2918
4597000000.0 0.9673 -0.7251
4600000000.0 0.08832 -1.224
4603000000.0 -0.9183 -0.863
4606000000.0 -1.239 0.1717
4609000000.0 -0.6811 1.088
4612000000.0 0.3877 1.182
4616000000.0 1.203 0.4347
4619000000.0 1.158 -0.6237
4622000000.0 0.2355 -1.275
4625000000.0 -0.8634 -0.999
4628000000.0 -1.305 0.01376
4631000000.0 -0.8326 1.037
4634000000.0 0.2574 1.316
4638000000.0 1.19 0.625
4641000000.0 1.273 -0.53
4644000000.0 0.3757 -1.295
4647000000.0 -0.813 -1.139
4650000000.0 -1.382 -0.1163
4653000000.0 -0.9421 1.012
4656000000.0 0.2258 1.387
4659000000.0 1.183 0.7181
4662000000.0 1.27 -0.4737
4666000000.0 0.4235 -1.317
4669000000.0 -0.7547 -1.135
4672000000.0 -1.311 -0.1296
4675000000.0 -0.9117 0.9584
4678000000.0 0.1653 1.313
4681000000.0 1.094 0.6753
4684000000.0 1.206 -0.4188
4688000000.0 0.4085 -1.222
4691000000.0 -0.7062 -1.055
4694000000.0 -1.252 -0.06302
4697000000.0 -0.8736 0.9095
4700000000.0 0.2106 1.18
4703000000.0 1.077 0.5864
4706000000.0 1.103 -0.4773
4709000000.0 0.297 -1.132
4712000000.0 -0.7134 -0.9
4716000000.0 -1.147 0.03589
4719000000.0 -0.6986 0.9196
4722000000.0 0.2858 1.077
4725000000.0 0.9588 0.4247
4728000000.0 0.9352 -0.5319
4731000000.0 0.1727 -1.043
4734000000.0 -0.6804 -0.7485
4738000000.0 -0.9912 0.08263
4741000000.0 -0.5712 0.8396
4744000000.0 0.2757 0.9193
4747000000.0 0.905 0.3369
4750000000.0 0.8582 -0.5029
4753000000.0 0.1528 -1.004
4756000000.0 -0.6494 -0.7172
4759000000.0 -1.004 0.07688
4762000000.0 -0.5672 0.8286
4766000000.0 0.2696 0.9575
4769000000.0 0.9398 0.3693
4772000000.0 0.8569 -0.5183
4775000000.0 0.1878 -1.011
4778000000.0 -0.6545 -0.7778
4781000000.0 -1.012 0.0397
4784000000.0 -0.6199 0.8317
4788000000.0 0.2424 1.011
4791000000.0 0.9393 0.4782
4794000000.0 0.9868 -0.4189
4797000000.0 0.3131 -1.03
4800000000.0 -0.591 -0.8899
4803000000.0 -1.045 -0.1253
4806000000.0 -0.7777 0.7557
4809000000.0 0.06823 1.109
4812000000.0 0.9076 0.6716
4816000000.0 1.105 -0.262
4819000000.0 0.5288 -1.067
4822000000.0 -0.4978 -1.098
4825000000.0 -1.17 -0.3381
4828000000.0 -1.036 0.7188
4831000000.0 -0.08625 1.221
4834000000.0 0.9128 0.8991
4838000000.0 1.268 -0.1309
4841000000.0 0.7238 -1.106
4844000000.0 -0.4074 -1.258
4847000000.0 -1.209 -0.4738
4850000000.0 -1.177 0.6243
4853000000.0 -0.2365 1.31
4856000000.0 0.8621 1.04
4859000000.0 1.367 0.003391
4862000000.0 0.8663 -1.054
4866000000.0 -0.2591 -1.346
4869000000.0 -1.223 -0.6398
4872000000.0 -1.284 0.5614
4875000000.0 -0.3589 1.342
4878000000.0 0.8087 1.094
4881000000.0 1.383 0.06091
4884000000.0 0.9189 -1.038
4888000000.0 -0.2163 -1.349
4891000000.0 -1.177 -0.6662
4894000000.0 -1.233 0.496
4897000000.0 -0.371 1.273
4900000000.0 0.7502 1.026
4903000000.0 1.255 0.06555
4906000000.0 0.8197 -0.9149
4909000000.0 -0.1895 -1.156
4912000000.0 -0.999 -0.5658
4916000000.0 -1.083 0.4155
4919000000.0 -0.3223 1.083
4922000000.0 0.5874 0.939
4925000000.0 1.066 0.1262
4928000000.0 0.7538 -0.729
4931000000.0 -0.09458 -1.038
4934000000.0 -0.8382 -0.55
4938000000.0 -0.9362 0.2764
4941000000.0 -0.3773 0.9218
4944000000.0 0.4676 0.8689
4947000000.0 0.9507 0.161
4950000000.0 0.7168 -0.579
4953000000.0 -0.0289 -0.9638
4956000000.0 -0.7593 -0.5608
4959000000.0 -0.9176 0.2602
4962000000.0 -0.3899 0.8609
4966000000.0 0.4387 0.8508
4969000000.0 0.92 0.1963
4972000000.0 0.7476 -0.5858
4975000000.0 0.007658 -0.9169
4978000000.0 -0.7492 -0.6044
4981000000.0 -0.93 0.1694
4984000000.0 -0.4569 0.8168
4988000000.0 0.3761 0.8832
4991000000.0 0.9271 0.2488
4994000000.0 0.82 -0.5375
4997000000.0 0.08444 -0.9524
5000000000.0 -0.7113 -0.7104
5003000000.0 -1.027 0.1106
5006000000.0 -0.5723 0.8774
5009000000.0 0.3111 1.023
5012000000.0 0.986 0.4081
5016000000.0 0.9568 -0.5482
5019000000.0 0.2061 -1.141
5022000000.0 -0.7524 -0.8715
5025000000.0 -1.149 0.01465
5028000000.0 -0.7311 0.9239
5031000000.0 0.2449 1.157
5034000000.0 1.071 0.5504
5038000000.0 1.114 -0.4645
5041000000.0 0.3633 -1.146
5044000000.0 -0.6826 -1.031
5047000000.0 -1.215 -0.1142
5050000000.0 -0.9159 0.8833
5053000000.0 0.08055 1.246
5056000000.0 1.034 0.7386
5059000000.0 1.226 -0.2946
5062000000.0 0.5613 -1.147
5066000000.0 -0.5932 -1.179
5069000000.0 -1.28 -0.3237
5072000000.0 -1.066 0.7762
5075000000.0 -0.06299 1.321
5078000000.0 0.952 0.9143
5081000000.0 1.274 -0.1989
5084000000.0 0.6704 -1.07
5088000000.0 -0.4107 -1.21
5091000000.0 -1.17 -0.4673
5094000000.0 -1.092 0.6083
5097000000.0 -0.2487 1.218
5100000000.0 0.7795 0.8922
5103000000.0 1.167 0.003422
5106000000.0 0.7681 -0.9028
5109000000.0 -0.1711 -1.144
5112000000.0 -0.9727 -0.5758
5116000000.0 -1.085 0.3705
5119000000.0 -0.4193 1.042
5122000000.0 0.5622 0.9778
5125000000.0 1.103 0.2082
5128000000.0 0.8384 -0.7094
5131000000.0 0.01424 -1.057
5134000000.0 -0.8334 -0.7372
5138000000.0 -1.048 0.2217
5141000000.0 -0.5136 0.9076
5144000000.0 0.3555 0.9477
5147000000.0 0.9444 0.3139
5150000000.0 0.8495 -0.4831
5153000000.0 0.1326 -0.983
5156000000.0 -0.6654 -0.6952
5159000000.0 -0.9679 0.0157
5162000000.0 -0.5807 0.7395
5166000000.0 0.2454 0.9154
5169000000.0 0.8545 0.3965
5172000000.0 0.8443 -0.4035
5175000000.0 0.2625 -0.8849
5178000000.0 -0.5242 -0.7214
5181000000.0 -0.9139 -0.06155
5184000000.0 -0.641 0.7036
5188000000.0 0.1544 0.925
5191000000.0 0.8113 0.4423
5194000000.0 0.8439 -0.3437
5197000000.0 0.272 -0.8853
5200000000.0 -0.5462 -0.7575
5203000000.0 -0.9173 -0.03918
5206000000.0 -0.5888 0.7033
5209000000.0 0.1473 0.9196
5212000000.0 0.8022 0.4558
5216000000.0 0.8877 -0.3891
5219000000.0 0.2361 -0.8957
5222000000.0 -0.5533 -0.7725
5225000000.0 -0.988 -0.04778
5228000000.0 -0.6653 0.6897
5231000000.0 0.1406 0.9851
5234000000.0 0.8412 0.493
5238000000.0 0.9208 -0.3536
5241000000.0 0.2984 -0.9456
5244000000.0 -0.5373 -0.839
5247000000.0 -1.032 -0.09577
5250000000.0 -0.7671 0.7297
5253000000.0 0.08852 1.02
5256000000.0 0.8635 0.5922
5259000000.0 1.028 -0.2887
5262000000.0 0.4287 -0.9632
5266000000.0 -0.4818 -0.9574
5269000000.0 -1.026 -0.2074
5272000000.0 -0.8588 0.615
5275000000.0 -0.02289 1.077
5278000000.0 0.7862 0.723
5281000000.0 1.067 -0.1461
5284000000.0 0.625 -0.8988
5288000000.0 -0.2968 -1.014
5291000000.0 -1.008 -0.45
5294000000.0 -0.9859 0.4765
5297000000.0 -0.2592 1.064
5300000000.0 0.679 0.9413
5303000000.0 1.133 0.06699
5306000000.0 0.789 -0.772
5309000000.0 -0.09263 -1.123
5312000000.0 -0.9105 -0.6717
5316000000.0 -1.085 0.2531
5319000000.0 -0.4901 1.021
5322000000.0 0.4567 1.071
5325000000.0 1.107 0.3244
5328000000.0 0.9545 -0.6338
5331000000.0 0.143 -1.143
5334000000.0 -0.7974 -0.819
5338000000.0 -1.164 0.03807
5341000000.0 -0.6539 0.9098
5344000000.0 0.2631 1.105
5347000000.0 1.021 0.5001
5350000000.0 1.049 -0.4532
5353000000.0 0.3139 -1.086
5356000000.0 -0.6246 -0.9498
5359000000.0 -1.138 -0.09892
5362000000.0 -0.8051 0.7979
5366000000.0 0.1053 1.145
5369000000.0 0.9316 0.6023
5372000000.0 1.049 -0.3126
5375000000.0 0.4502 -1.047
5378000000.0 -0.549 -0.9569
5381000000.0 -1.061 -0.1821
5384000000.0 -0.8109 0.6859
5388000000.0 0.05388 1.076
5391000000.0 0.8456 0.62
5394000000.0 0.9872 -0.2719
5397000000.0 0.3821 -0.9293
5400000000.0 -0.443 -0.8846
5403000000.0 -0.9326 -0.1772
5406000000.0 -0.7303 0.6442
5409000000.0 0.01264 0.9472
5412000000.0 0.7536 0.5627
5416000000.0 0.8981 -0.21
5419000000.0 0.3827 -0.8582
5422000000.0 -0.4126 -0.8098
5425000000.0 -0.8969 -0.174
5428000000.0 -0.6475 0.603
5431000000.0 0.03778 0.9024
5434000000.0 0.7373 0.5119
5438000000.0 0.8795 -0.2473
5441000000.0 0.3355 -0.8267
5444000000.0 -0.4638 -0.7503
5447000000.0 -0.8628 -0.1165
5450000000.0 -0.6261 0.6102
5453000000.0 0.09802 0.8379
5456000000.0 0.7432 0.4543
5459000000.0 0.8456 -0.2469
5462000000.0 0.3026 -0.8171
5466000000.0 -0.4133 -0.7793
5469000000.0 -0.8729 -0.1304
5472000000.0 -0.6424 0.5545
5475000000.0 0.02011 0.8951
5478000000.0 0.6751 0.5305
5481000000.0 0.8663 -0.1538
5484000000.0 0.4173 -0.8331
5488000000.0 -0.3633 -0.8577
5491000000.0 -0.9095 -0.2519
5494000000.0 -0.7855 0.5191
5497000000.0 -0.1329 0.9289
5500000000.0 0.6725 0.6838
5503000000.0 0.9995 -0.0489
5506000000.0 0.5841 -0.7713
5509000000.0 -0.2244 -0.9255
5512000000.0 -0.8889 -0.3958
5516000000.0 -0.8562 0.4267
5519000000.0 -0.2771 0.9678
5522000000.0 0.553 0.7724
5525000000.0 0.9807 0.0821
5528000000.0 0.7212 -0.721
5531000000.0 -0.02321 -1.009
5534000000.0 -0.8846 -0.6192
5538000000.0 -1.004 0.2282
5541000000.0 -0.4587 0.9181
5544000000.0 0.4053 0.9889
5547000000.0 0.978 0.2825
5550000000.0 0.8803 -0.5846
5553000000.0 0.1426 -1.041
5556000000.0 -0.7162 -0.7798
5559000000.0 -1.029 0.02854
5562000000.0 -0.6436 0.8602
5566000000.0 0.2466 1.035
5569000000.0 0.9609 0.4554
5572000000.0 0.9903 -0.432
5575000000.0 0.3062 -0.996
5578000000.0 -0.589 -0.8183
5581000000.0 -1.037 -0.09536
5584000000.0 -0.7348 0.7395
5588000000.0 0.1077 1.025
5591000000.0 0.7985 0.5637
5594000000.0 0.9762 -0.2537
5597000000.0 0.3769 -0.8997
5600000000.0 -0.4266 -0.8702
5603000000.0 -0.9373 -0.2413
5606000000.0 -0.7748 0.5598
5609000000.0 -0.03316 0.9463
5612000000.0 0.7281 0.6525
5616000000.0 0.9161 -0.1569
5619000000.0 0.4534 -0.8053
5622000000.0 -0.3569 -0.8647
5625000000.0 -0.8543 -0.2648
5628000000.0 -0.78 0.4803
5631000000.0 -0.1244 0.8979
5634000000.0 0.6168 0.642
5638000000.0 0.8857 -0.08206
5641000000.0 0.475 -0.7223
5644000000.0 -0.2567 -0.8178
5647000000.0 -0.8094 -0.2988
5650000000.0 -0.7542 0.4545
5653000000.0 -0.1381 0.8642
5656000000.0 0.6034 0.6287
5659000000.0 0.8466 -0.07714
5662000000.0 0.474 -0.7282
5666000000.0 -0.2608 -0.8196
5669000000.0 -0.8064 -0.3197
5672000000.0 -0.7553 0.4586
5675000000.0 -0.08549 0.8775
5678000000.0 0.6084 0.6369
5681000000.0 0.8904 -0.08032
5684000000.0 0.4921 -0.7849
5688000000.0 -0.3121 -0.8538
5691000000.0 -0.8396 -0.305
5694000000.0 -0.7844 0.4458
5697000000.0 -0.1121 0.9286
5700000000.0 0.6413 0.666
5703000000.0 0.9468 -0.09587
5706000000.0 0.5354 -0.7855
5709000000.0 -0.2759 -0.934
5712000000.0 -0.8911 -0.389
5716000000.0 -0.8799 0.4865
5719000000.0 -0.1618 0.9822
5722000000.0 0.6627 0.7741
5725000000.0 1.003 0.003239
5728000000.0 0.5977 -0.7914
5731000000.0 -0.241 -0.9906
5734000000.0 -0.9164 -0.4538
5738000000.0 -0.9735 0.4014
5741000000.0 -0.3153 0.9811
5744000000.0 0.5767 0.8715
5747000000.0 1.085 0.1122
5750000000.0 0.7879 -0.7479
5753000000.0 -0.07743 -1.064
5756000000.0 -0.8591 -0.6439
5759000000.0 -1.017 0.2621
5762000000.0 -0.4679 0.9732
5766000000.0 0.4854 1.018
5769000000.0 1.038 0.2903
5772000000.0 0.8769 -0.6451
5775000000.0 0.07597 -1.096
5778000000.0 -0.7646 -0.743
5781000000.0 -1.101 0.1357
5784000000.0 -0.5877 0.9041
5788000000.0 0.3319 1.053
5791000000.0 0.9862 0.4411
5794000000.0 0.971 -0.5055
5797000000.0 0.2346 -1.034
5800000000.0 -0.6801 -0.8781
5803000000.0 -1.077 -0.04686
5806000000.0 -0.6896 0.8139
5809000000.0 0.1396 1.061
5812000000.0 0.9239 0.5806
5816000000.0 1.03 -0.3741
5819000000.0 0.3708 -0.993
5822000000.0 -0.5255 -0.9141
5825000000.0 -1.035 -0.1885
5828000000.0 -0.7948 0.6443
5831000000.0 0.01977 1.039
5834000000.0 0.7705 0.6937
5838000000.0 0.9964 -0.1838
5841000000.0 0.4863 -0.8789
5844000000.0 -0.3798 -0.9492
5847000000.0 -0.9668 -0.2859
5850000000.0 -0.836 0.5905
5853000000.0 -0.07645 0.9496
5856000000.0 0.6942 0.6863
5859000000.0 0.9471 -0.1459
5862000000.0 0.4853 -0.8176
5866000000.0 -0.3262 -0.9078
5869000000.0 -0.8762 -0.298
5872000000.0 -0.8106 0.4929
5875000000.0 -0.09639 0.8963
5878000000.0 0.6348 0.6171
5881000000.0 0.9002 -0.1229
5884000000.0 0.4977 -0.7505
5888000000.0 -0.2613 -0.8463
5891000000.0 -0.8166 -0.2885
5894000000.0 -0.7462 0.4532
5897000000.0 -0.156 0.8638
5900000000.0 0.5861 0.5876
5903000000.0 0.859 -0.05187
5906000000.0 0.543 -0.716
5909000000.0 -0.2465 -0.8056
5912000000.0 -0.7801 -0.3457
5916000000.0 -0.7656 0.3877
5919000000.0 -0.1233 0.8362
5922000000.0 0.5348 0.6597
5925000000.0 0.86 0.02678
5928000000.0 0.5526 -0.6504
5931000000.0 -0.1577 -0.8249
5934000000.0 -0.7675 -0.4108
5938000000.0 -0.7903 0.331
5941000000.0 -0.243 0.8203
5944000000.0 0.4639 0.7119
5947000000.0 0.8732 0.1224
5950000000.0 0.6377 -0.62
5953000000.0 -0.03396 -0.8816
5956000000.0 -0.7138 -0.5255
5959000000.0 -0.8546 0.2195
5962000000.0 -0.3608 0.8029
5966000000.0 0.3722 0.7991
5969000000.0 0.8571 0.2529
5972000000.0 0.7597 -0.5323
5975000000.0 0.04911 -0.9176
5978000000.0 -0.6697 -0.6576
5981000000.0 -0.9287 0.08579
5984000000.0 -0.5261 0.7904
5988000000.0 0.2449 0.9102
5991000000.0 0.8851 0.4214
5994000000.0 0.8398 -0.4373
5997000000.0 0.2434 -0.9633
6000000000.0 -0.5737 -0.8063
6003000000.0 -0.975 -0.05286
6006000000.0 -0.657 0.7095
6009000000.0 0.0935 0.9392
6012000000.0 0.8098 0.5429
6016000000.0 0.9225 -0.3073
6019000000.0 0.3419 -0.9142
6022000000.0 -0.4714 -0.8765
6025000000.0 -0.9732 -0.1875
6028000000.0 -0.7622 0.6229
6031000000.0 0.006596 0.9988
6034000000.0 0.7631 0.6189
6038000000.0 0.9405 -0.1906
6041000000.0 0.4576 -0.9063
6044000000.0 -0.382 -0.9083
6047000000.0 -0.9334 -0.2739
6050000000.0 -0.8079 0.5506
6053000000.0 -0.07887 0.9639
6056000000.0 0.6985 0.6654
6059000000.0 0.9612 -0.106
6062000000.0 0.5428 -0.8352
6066000000.0 -0.3193 -0.9101
6069000000.0 -0.8827 -0.331
6072000000.0 -0.7977 0.4662
6075000000.0 -0.133 0.9196
6078000000.0 0.6338 0.6718
6081000000.0 0.9083 -0.07286
6084000000.0 0.5136 -0.7269
6088000000.0 -0.2443 -0.8818
6091000000.0 -0.8365 -0.3647
6094000000.0 -0.7846 0.4262
6097000000.0 -0.1545 0.8543
6100000000.0 0.5742 0.68
6103000000.0 0.9 -0.02197
6106000000.0 0.5275 -0.6749
6109000000.0 -0.2173 -0.8691
6112000000.0 -0.7472 -0.3572
6116000000.0 -0.7801 0.3531
6119000000.0 -0.1662 0.873
6122000000.0 0.5268 0.6528
6125000000.0 0.8422 0.03443
6128000000.0 0.5456 -0.6679
6131000000.0 -0.1258 -0.8319
6134000000.0 -0.7733 -0.3697
6138000000.0 -0.7773 0.3296
6141000000.0 -0.1952 0.8347
6144000000.0 0.5148 0.6895
6147000000.0 0.8536 0.04243
6150000000.0 0.5603 -0.6319
6153000000.0 -0.1108 -0.8765
6156000000.0 -0.7619 -0.4614
6159000000.0 -0.7841 0.312
6162000000.0 -0.2806 0.8144
6166000000.0 0.4612 0.7403
6169000000.0 0.8795 0.1178
6172000000.0 0.6743 -0.6159
6175000000.0 -0.05882 -0.916
6178000000.0 -0.748 -0.5359
6181000000.0 -0.8659 0.2538
6184000000.0 -0.3634 0.8002
6188000000.0 0.4373 0.808
6191000000.0 0.9041 0.1886
6194000000.0 0.7089 -0.5628
6197000000.0 0.01145 -0.9164
6200000000.0 -0.683 -0.5666
6203000000.0 -0.9024 0.1868
6206000000.0 -0.4327 0.7997
6209000000.0 0.3579 0.8828
6212000000.0 0.8771 0.2732
6216000000.0 0.7499 -0.485
6219000000.0 0.1103 -0.9134
6222000000.0 -0.6196 -0.6805
6225000000.0 -0.906 0.04864
6228000000.0 -0.5197 0.7567
6231000000.0 0.2186 0.8685
6234000000.0 0.8245 0.3414
6238000000.0 0.8189 -0.3588
6241000000.0 0.2033 -0.8541
6244000000.0 -0.5062 -0.6892
6247000000.0 -0.8285 -0.05893
6250000000.0 -0.5976 0.6302
6253000000.0 0.1076 0.8539
6256000000.0 0.7026 0.4264
6259000000.0 0.7876 -0.2591
6262000000.0 0.3514 -0.755
