! Created with skrf 1.8.0 (http://scikit-rf.org).
# Hz S RI R 50.0 
!freq ReS11 ImS11
4000000000.0 -0.2212 -1.466
4003000000.0 -1.267 -0.7283
4006000000.0 -1.383 0.5497
4009000000.0 -0.4607 1.422
4012000000.0 0.8006 1.23
4016000000.0 1.509 0.1467
4019000000.0 1.068 -1.127
4022000000.0 -0.1287 -1.567
4025000000.0 -1.306 -0.8476
4028000000.0 -1.481 0.5289
4031000000.0 -0.5542 1.506
4034000000.0 0.8285 1.32
4038000000.0 1.581 0.1753
4041000000.0 1.173 -1.124
4044000000.0 -0.1628 -1.613
4047000000.0 -1.373 -0.8469
4050000000.0 -1.59 0.5068
4053000000.0 -0.583 1.546
4056000000.0 0.7861 1.406
4059000000.0 1.609 0.2663
4062000000.0 1.241 -1.06
4066000000.0 -0.03121 -1.616
4069000000.0 -1.247 -1.025
4072000000.0 -1.55 0.3217
4075000000.0 -0.7734 1.442
4078000000.0 0.6076 1.532
4081000000.0 1.56 0.4948
4084000000.0 1.381 -0.8502
4088000000.0 0.1875 -1.626
4091000000.0 -1.156 -1.198
4094000000.0 -1.669 0.1373
4097000000.0 -0.9348 1.341
4100000000.0 0.3794 1.551
4103000000.0 1.483 0.6633
4106000000.0 1.463 -0.6525
4109000000.0 0.4202 -1.49
4112000000.0 -0.8834 -1.268
4116000000.0 -1.514 -0.1681
4119000000.0 -1.06 1.01
4122000000.0 0.03257 1.499
4125000000.0 1.166 0.8954
4128000000.0 1.442 -0.2971
4131000000.0 0.7384 -1.238
4134000000.0 -0.4871 -1.349
4138000000.0 -1.379 -0.5375
4141000000.0 -1.281 0.6873
4144000000.0 -0.3443 1.443
4147000000.0 0.9254 1.194
4150000000.0 1.522 0.0861
4153000000.0 1.059 -1.102
4156000000.0 -0.1925 -1.497
4159000000.0 -1.284 -0.7896
4162000000.0 -1.396 0.4559
4166000000.0 -0.5878 1.405
4169000000.0 0.6592 1.312
4172000000.0 1.445 0.3058
4175000000.0 1.19 -0.8623
4178000000.0 0.1013 -1.479
4181000000.0 -1.054 -1.053
4184000000.0 -1.471 0.1431
4188000000.0 -0.852 1.252
4191000000.0 0.4723 1.448
4194000000.0 1.414 0.5847
4197000000.0 1.357 -0.7331
4200000000.0 0.3359 -1.548
4203000000.0 -1.037 -1.227
4206000000.0 -1.619 0.05092
4209000000.0 -0.9723 1.283
4212000000.0 0.4383 1.602
4216000000.0 1.572 0.6391
4219000000.0 1.411 -0.8346
4222000000.0 0.1748 -1.657
4225000000.0 -1.155 -1.176
4228000000.0 -1.678 0.2775
4231000000.0 -0.8216 1.453
4234000000.0 0.6805 1.484
4238000000.0 1.575 0.3536
4241000000.0 1.26 -1.007
4244000000.0 -0.03041 -1.569
4247000000.0 -1.266 -0.9233
4250000000.0 -1.48 0.4882
4253000000.0 -0.5484 1.475
4256000000.0 0.8018 1.345
4259000000.0 1.467 0.1849
4262000000.0 1.021 -1.105
4266000000.0 -0.1967 -1.493
4269000000.0 -1.317 -0.75
4272000000.0 -1.378 0.5493
4275000000.0 -0.4237 1.41
4278000000.0 0.8403 1.179
4281000000.0 1.432 0.05043
4284000000.0 0.9427 -1.077
4288000000.0 -0.2692 -1.38
4291000000.0 -1.192 -0.6394
4294000000.0 -1.246 0.5003
4297000000.0 -0.3643 1.254
4300000000.0 0.7264 1.095
4303000000.0 1.29 0.1458
4306000000.0 0.9005 -0.8791
4309000000.0 -0.07037 -1.271
4312000000.0 -1.045 -0.7631
4316000000.0 -1.246 0.2969
4319000000.0 -0.5762 1.131
4322000000.0 0.4719 1.209
4325000000.0 1.238 0.3701
4328000000.0 1.089 -0.6947
4331000000.0 0.1739 -1.318
4334000000.0 -0.9151 -0.9999
4338000000.0 -1.353 0.06738
4341000000.0 -0.8546 1.111
4344000000.0 0.3191 1.37
4347000000.0 1.255 0.6637
4350000000.0 1.306 -0.573
4353000000.0 0.3724 -1.382
4356000000.0 -0.8448 -1.183
4359000000.0 -1.432 -0.1443
4362000000.0 -1.039 1.012
4366000000.0 0.128 1.451
4369000000.0 1.207 0.8245
4372000000.0 1.441 -0.4025
4375000000.0 0.6033 -1.337
4378000000.0 -0.6859 -1.351
4381000000.0 -1.453 -0.3443
4384000000.0 -1.201 0.921
4388000000.0 -0.03518 1.558
4391000000.0 1.207 0.9912
4394000000.0 1.553 -0.303
4397000000.0 0.7184 -1.4
4400000000.0 -0.6378 -1.453
4403000000.0 -1.533 -0.3727
4406000000.0 -1.242 0.9356
4409000000.0 -0.00368 1.556
4412000000.0 1.222 0.9639
4416000000.0 1.473 -0.3883
4419000000.0 0.6148 -1.363
4422000000.0 -0.6935 -1.316
4425000000.0 -1.414 -0.2538
4428000000.0 -1.098 0.9928
4431000000.0 0.08096 1.45
4434000000.0 1.184 0.7856
4438000000.0 1.31 -0.4308
4441000000.0 0.4588 -1.292
4444000000.0 -0.7284 -1.13
4447000000.0 -1.295 -0.1289
4450000000.0 -0.9048 0.9402
4453000000.0 0.1968 1.297
4456000000.0 1.137 0.6122
4459000000.0 1.148 -0.5052
4462000000.0 0.2783 -1.205
4466000000.0 -0.7602 -0.9719
4469000000.0 -1.201 0.00682
4472000000.0 -0.7438 0.9645
4475000000.0 0.3194 1.124
4478000000.0 1.078 0.4564
4481000000.0 1.019 -0.5396
4484000000.0 0.1911 -1.139
4488000000.0 -0.7758 -0.8325
4491000000.0 -1.111 0.07587
4494000000.0 -0.6568 0.935
4497000000.0 0.297 1.098
4500000000.0 1.044 0.4653
4503000000.0 0.9722 -0.5097
4506000000.0 0.2196 -1.08
4509000000.0 -0.7125 -0.8378
4512000000.0 -1.112 -0.005306
4516000000.0 -0.6937 0.8886
4519000000.0 0.241 1.105
4522000000.0 1.012 0.4902
4525000000.0 1.043 -0.4923
4528000000.0 0.2946 -1.123
4531000000.0 -0.6765 -0.9176
4534000000.0 -1.151 -0.06663
4538000000.0 -0.819 0.8514
4541000000.0 0.1561 1.172
4544000000.0 0.9988 0.6365
4547000000.0 1.144 -0.3557
4550000000.0 0.4427 -1.116
4553000000.0 -0.5628 -1.082
4556000000.0 -1.205 -0.28
4559000000.0 -0.9801 0.7689
4562000000.0 -0.03971 1.252
4566000000.0 0.9331 0.8594
4569000000.0 1.283 -0.1812
4572000000.0 0.6975 -1.098
4575000000.0 -0.3712 -1.208
4578000000.0 -1.234 -0.4623
4581000000.0 -1.159 0.6331
4584000000.0 -0.2705 1.305
4588000000.0 0.8533 1.052
4591000000.0 1.37 0.01717
4594000000.0 0.8801 -1.056
4597000000.0 -0.2476 -1.385
4600000000.0 -1.223 -0.6466
4603000000.0 -1.298 0.5293
4606000000.0 -0.4511 1.342
4609000000.0 0.7453 1.183
4612000000.0 1.402 0.1256
4616000000.0 0.9724 -0.9662
4619000000.0 -0.103 -1.358
4622000000.0 -1.159 -0.7496
4625000000.0 -1.314 0.3916
4628000000.0 -0.4991 1.283
4631000000.0 0.6728 1.21
4634000000.0 1.33 0.2333
4638000000.0 1.017 -0.9144
4641000000.0 -0.09537 -1.335
4644000000.0 -1.1 -0.7774
4647000000.0 -1.27 0.3634
4650000000.0 -0.5051 1.201
4653000000.0 0.6004 1.14
4656000000.0 1.228 0.2168
4659000000.0 0.911 -0.8705
4662000000.0 -0.08858 -1.203
4666000000.0 -0.9574 -0.6942
4669000000.0 -1.152 0.3475
4672000000.0 -0.4115 1.076
4675000000.0 0.5818 1.003
4678000000.0 1.129 0.1401
4681000000.0 0.8371 -0.7547
4684000000.0 -0.07459 -1.117
4688000000.0 -0.9038 -0.6071
4691000000.0 -1.053 0.3348
4694000000.0 -0.4056 0.9973
4697000000.0 0.5196 0.9539
4700000000.0 1.058 0.1543
4703000000.0 0.792 -0.7231
4706000000.0 -0.1044 -1.083
4709000000.0 -0.9223 -0.5785
4712000000.0 -1.062 0.333
4716000000.0 -0.3769 1.027
4719000000.0 0.537 0.8989
4722000000.0 1.03 0.1529
4725000000.0 0.7503 -0.7338
4728000000.0 -0.09177 -1.064
4731000000.0 -0.8664 -0.5823
4734000000.0 -1.012 0.2759
4738000000.0 -0.4187 0.9484
4741000000.0 0.4811 0.9555
4744000000.0 1.037 0.2151
4747000000.0 0.823 -0.6312
4750000000.0 0.03266 -1.075
4753000000.0 -0.809 -0.7308
4756000000.0 -1.094 0.1597
4759000000.0 -0.5841 0.9144
4762000000.0 0.3521 1.062
4766000000.0 1.051 0.4319
4769000000.0 1.021 -0.5449
4772000000.0 0.2338 -1.158
4775000000.0 -0.7358 -0.9085
4778000000.0 -1.18 -0.02406
4781000000.0 -0.8029 0.9088
4784000000.0 0.1753 1.168
4788000000.0 1.035 0.6034
4791000000.0 1.179 -0.382
4794000000.0 0.4893 -1.164
4797000000.0 -0.5957 -1.125
4800000000.0 -1.243 -0.2819
4803000000.0 -0.9916 0.7519
4806000000.0 -0.05857 1.241
4809000000.0 0.9476 0.8707
4812000000.0 1.318 -0.1647
4816000000.0 0.7029 -1.093
4819000000.0 -0.3876 -1.282
4822000000.0 -1.263 -0.5352
4825000000.0 -1.202 0.6316
4828000000.0 -0.2917 1.336
4831000000.0 0.871 1.079
4834000000.0 1.387 -0.005252
4838000000.0 0.8778 -1.077
4841000000.0 -0.2777 -1.36
4844000000.0 -1.256 -0.6796
4847000000.0 -1.27 0.5407
4850000000.0 -0.3875 1.313
4853000000.0 0.7916 1.121
4856000000.0 1.345 0.1262
4859000000.0 0.9519 -0.971
4862000000.0 -0.1625 -1.326
4866000000.0 -1.137 -0.7033
4869000000.0 -1.25 0.4482
4872000000.0 -0.4505 1.203
4875000000.0 0.6749 1.091
4878000000.0 1.234 0.1905
4881000000.0 0.91 -0.8722
4884000000.0 -0.05891 -1.215
4888000000.0 -1.01 -0.6765
4891000000.0 -1.133 0.3297
4894000000.0 -0.4296 1.066
4897000000.0 0.5277 1.018
4900000000.0 1.127 0.2125
4903000000.0 0.8014 -0.7119
4906000000.0 -0.03838 -1.089
4909000000.0 -0.8221 -0.6331
4912000000.0 -0.9834 0.2278
4916000000.0 -0.4106 0.9188
4919000000.0 0.3985 0.9365
4922000000.0 0.9355 0.2443
4925000000.0 0.7591 -0.5606
4928000000.0 0.03295 -0.9359
4931000000.0 -0.7152 -0.6542
4934000000.0 -0.938 0.1493
4938000000.0 -0.4904 0.8131
4941000000.0 0.3055 0.8847
4944000000.0 0.8852 0.3358
4947000000.0 0.8078 -0.5069
4950000000.0 0.1199 -0.9366
4953000000.0 -0.6388 -0.6878
4956000000.0 -0.9724 0.03351
4959000000.0 -0.5757 0.7648
4962000000.0 0.2611 0.9464
4966000000.0 0.9027 0.3945
4969000000.0 0.9026 -0.4596
4972000000.0 0.224 -0.9933
4975000000.0 -0.6381 -0.8088
4978000000.0 -1.037 -0.01192
4981000000.0 -0.6773 0.7755
4984000000.0 0.178 1.023
4988000000.0 0.9176 0.5356
4991000000.0 0.9838 -0.3744
4994000000.0 0.3693 -1.026
4997000000.0 -0.5495 -0.964
5000000000.0 -1.127 -0.1847
5003000000.0 -0.8821 0.753
5006000000.0 0.01185 1.172
5009000000.0 0.9439 0.7466
5012000000.0 1.19 -0.2531
5016000000.0 0.552 -1.094
5019000000.0 -0.4991 -1.147
5022000000.0 -1.193 -0.3335
5025000000.0 -1.073 0.7349
5028000000.0 -0.1137 1.28
5031000000.0 0.9335 0.9055
5034000000.0 1.284 -0.1228
5038000000.0 0.7251 -1.055
5041000000.0 -0.3712 -1.207
5044000000.0 -1.213 -0.519
5047000000.0 -1.175 0.5616
5050000000.0 -0.3235 1.267
5053000000.0 0.8007 1.013
5056000000.0 1.284 0.08648
5059000000.0 0.8802 -0.9188
5062000000.0 -0.1581 -1.259
5066000000.0 -1.076 -0.7395
5069000000.0 -1.22 0.3701
5072000000.0 -0.4692 1.179
5075000000.0 0.5966 1.116
5078000000.0 1.249 0.2618
5081000000.0 0.9666 -0.7651
5084000000.0 0.04701 -1.188
5088000000.0 -0.8809 -0.815
5091000000.0 -1.148 0.1935
5094000000.0 -0.6255 1.05
5097000000.0 0.4009 1.056
5100000000.0 1.043 0.3837
5103000000.0 0.9636 -0.5625
5106000000.0 0.1753 -1.081
5109000000.0 -0.6858 -0.8683
5112000000.0 -1.074 -0.005279
5116000000.0 -0.6882 0.7978
5119000000.0 0.2086 0.9946
5122000000.0 0.8676 0.5197
5125000000.0 0.9563 -0.3307
5128000000.0 0.3152 -0.9253
5131000000.0 -0.5057 -0.8751
5134000000.0 -0.9456 -0.1511
5138000000.0 -0.7215 0.6542
5141000000.0 0.05568 0.9615
5144000000.0 0.744 0.5825
5147000000.0 0.9221 -0.2471
5150000000.0 0.3853 -0.8448
5153000000.0 -0.3825 -0.8122
5156000000.0 -0.8577 -0.2025
5159000000.0 -0.7189 0.5824
5162000000.0 -0.01071 0.8983
5166000000.0 0.6919 0.5933
5169000000.0 0.8873 -0.1575
5172000000.0 0.4074 -0.8105
5175000000.0 -0.3366 -0.8196
5178000000.0 -0.8624 -0.2194
5181000000.0 -0.7523 0.5013
5184000000.0 -0.07044 0.9022
5188000000.0 0.6401 0.6282
5191000000.0 0.8836 -0.1685
5194000000.0 0.4536 -0.7935
5197000000.0 -0.365 -0.8745
5200000000.0 -0.8875 -0.2422
5203000000.0 -0.7926 0.5396
5206000000.0 -0.06899 0.9578
5209000000.0 0.7058 0.6565
5212000000.0 0.9657 -0.1332
5216000000.0 0.5076 -0.838
5219000000.0 -0.3438 -0.919
5222000000.0 -0.9357 -0.3338
5225000000.0 -0.8617 0.5241
5228000000.0 -0.1457 1.006
5231000000.0 0.6819 0.7379
5234000000.0 1.05 -0.06854
5238000000.0 0.6109 -0.8306
5241000000.0 -0.2548 -1.029
5244000000.0 -0.9487 -0.4448
5247000000.0 -0.9545 0.4547
5250000000.0 -0.2388 1.037
5253000000.0 0.6115 0.8697
5256000000.0 1.087 0.07725
5259000000.0 0.7519 -0.7812
5262000000.0 -0.1154 -1.072
5266000000.0 -0.8995 -0.605
5269000000.0 -1.048 0.3157
5272000000.0 -0.4453 1.014
5275000000.0 0.47 0.9855
5278000000.0 1.056 0.2921
5281000000.0 0.8868 -0.6315
5284000000.0 0.09993 -1.081
5288000000.0 -0.8025 -0.7742
5291000000.0 -1.095 0.07415
5294000000.0 -0.6816 0.9005
5297000000.0 0.2169 1.095
5300000000.0 1.005 0.5083
5303000000.0 1.014 -0.4172
5306000000.0 0.3409 -1.047
5309000000.0 -0.6222 -0.9772
5312000000.0 -1.11 -0.1649
5316000000.0 -0.8628 0.7631
5319000000.0 0.06136 1.146
5322000000.0 0.8917 0.6621
5325000000.0 1.089 -0.2708
5328000000.0 0.5278 -1.014
5331000000.0 -0.4554 -1.038
5334000000.0 -1.106 -0.3124
5338000000.0 -0.9439 0.633
5341000000.0 -0.08192 1.101
5344000000.0 0.7733 0.7693
5347000000.0 1.078 -0.08202
5350000000.0 0.5865 -0.9336
5353000000.0 -0.3179 -1.04
5356000000.0 -1.003 -0.3663
5359000000.0 -0.9409 0.5374
5362000000.0 -0.1704 1.04
5366000000.0 0.6916 0.7868
5369000000.0 1.03 -0.06653
5372000000.0 0.5979 -0.8191
5375000000.0 -0.2923 -0.9697
5378000000.0 -0.9285 -0.3832
5381000000.0 -0.8491 0.5057
5384000000.0 -0.1513 0.9553
5388000000.0 0.6688 0.6672
5391000000.0 0.9592 -0.07575
5394000000.0 0.486 -0.7802
5397000000.0 -0.2975 -0.8594
5400000000.0 -0.8173 -0.3029
5403000000.0 -0.7574 0.4667
5406000000.0 -0.09736 0.8663
5409000000.0 0.6061 0.6172
5412000000.0 0.8675 -0.09008
5416000000.0 0.4283 -0.7264
5419000000.0 -0.3006 -0.8034
5422000000.0 -0.8289 -0.3114
5425000000.0 -0.7044 0.4528
5428000000.0 -0.1063 0.8401
5431000000.0 0.6114 0.661
5434000000.0 0.8789 -0.1133
5438000000.0 0.479 -0.7424
5441000000.0 -0.2797 -0.8196
5444000000.0 -0.8427 -0.3116
5447000000.0 -0.7718 0.4484
5450000000.0 -0.1077 0.8921
5453000000.0 0.6238 0.6354
5456000000.0 0.8904 -0.009423
5459000000.0 0.5395 -0.7093
5462000000.0 -0.2415 -0.9034
5466000000.0 -0.8327 -0.4164
5469000000.0 -0.8397 0.4222
5472000000.0 -0.2686 0.9126
5475000000.0 0.5589 0.7775
5478000000.0 0.9712 0.09769
5481000000.0 0.6857 -0.6802
5484000000.0 -0.08279 -0.9654
5488000000.0 -0.7939 -0.5336
5491000000.0 -0.9598 0.2838
5494000000.0 -0.3979 0.94
5497000000.0 0.4343 0.8976
5500000000.0 1.019 0.2366
5503000000.0 0.8339 -0.595
5506000000.0 0.0895 -1.012
5509000000.0 -0.7364 -0.7199
5512000000.0 -1.048 0.1251
5516000000.0 -0.5787 0.8657
5519000000.0 0.296 0.9887
5522000000.0 0.9411 0.432
5525000000.0 0.934 -0.4634
5528000000.0 0.2734 -1.022
5531000000.0 -0.6284 -0.8573
5534000000.0 -1.079 -0.08282
5538000000.0 -0.7433 0.7619
5541000000.0 0.09286 1.052
5544000000.0 0.8846 0.6026
5547000000.0 0.9954 -0.2725
5550000000.0 0.428 -0.9728
5553000000.0 -0.4836 -0.9315
5556000000.0 -1.038 -0.2533
5559000000.0 -0.8318 0.6481
5562000000.0 -0.03022 1.029
5566000000.0 0.7674 0.6879
5569000000.0 1.021 -0.123
5572000000.0 0.5397 -0.8519
5575000000.0 -0.3263 -0.9237
5578000000.0 -0.9009 -0.3132
5581000000.0 -0.8404 0.4974
5584000000.0 -0.146 0.9337
5588000000.0 0.6148 0.7024
5591000000.0 0.9303 -0.06226
5594000000.0 0.5614 -0.7544
5597000000.0 -0.2296 -0.8979
5600000000.0 -0.8389 -0.3869
5603000000.0 -0.7962 0.3501
5606000000.0 -0.1802 0.8559
5609000000.0 0.5349 0.6852
5612000000.0 0.8589 0.01394
5616000000.0 0.5171 -0.6296
5619000000.0 -0.1552 -0.8322
5622000000.0 -0.7284 -0.404
5625000000.0 -0.7386 0.3215
5628000000.0 -0.2057 0.8062
5631000000.0 0.472 0.6829
5634000000.0 0.8092 0.05036
5638000000.0 0.5294 -0.6183
5641000000.0 -0.1555 -0.7943
5644000000.0 -0.7408 -0.3758
5647000000.0 -0.7698 0.3254
5650000000.0 -0.2198 0.8067
5653000000.0 0.4906 0.6846
5656000000.0 0.8661 0.05639
5659000000.0 0.5929 -0.6315
5662000000.0 -0.1546 -0.8537
5666000000.0 -0.7644 -0.4468
5669000000.0 -0.8349 0.3198
5672000000.0 -0.2374 0.8798
5675000000.0 0.5181 0.7351
5678000000.0 0.945 0.06192
5681000000.0 0.6152 -0.6852
5684000000.0 -0.1182 -0.9427
5688000000.0 -0.8288 -0.4753
5691000000.0 -0.9251 0.3275
5694000000.0 -0.3357 0.9263
5697000000.0 0.5573 0.8614
5700000000.0 1.002 0.1241
5703000000.0 0.7656 -0.6707
5706000000.0 -0.06433 -1.035
5709000000.0 -0.8366 -0.5992
5712000000.0 -0.9987 0.2693
5716000000.0 -0.4099 0.9547
5719000000.0 0.4542 0.9808
5722000000.0 1.052 0.238
5725000000.0 0.8471 -0.6615
5728000000.0 0.05357 -1.075
5731000000.0 -0.8134 -0.7493
5734000000.0 -1.062 0.1445
5738000000.0 -0.598 0.9399
5741000000.0 0.3386 1.031
5744000000.0 1.02 0.4362
5747000000.0 0.9763 -0.5313
5750000000.0 0.2282 -1.084
5753000000.0 -0.692 -0.8379
5756000000.0 -1.132 -0.02079
5759000000.0 -0.7263 0.8483
5762000000.0 0.1827 1.093
5766000000.0 0.9699 0.5576
5769000000.0 1.038 -0.3927
5772000000.0 0.3849 -1.075
5775000000.0 -0.5835 -0.9436
5778000000.0 -1.09 -0.1792
5781000000.0 -0.7999 0.7257
5784000000.0 -0.01644 1.046
5788000000.0 0.8595 0.6612
5791000000.0 1.032 -0.2043
5794000000.0 0.506 -0.9444
5797000000.0 -0.4277 -0.9753
5800000000.0 -0.9736 -0.3185
5803000000.0 -0.8553 0.5791
5806000000.0 -0.09536 1.048
5809000000.0 0.7323 0.7411
5812000000.0 1.003 -0.07739
5816000000.0 0.5524 -0.8286
5819000000.0 -0.3012 -0.9481
5822000000.0 -0.9252 -0.3787
5825000000.0 -0.8959 0.4802
5828000000.0 -0.1396 0.9776
5831000000.0 0.6159 0.7212
5834000000.0 0.9394 -0.04
5838000000.0 0.5709 -0.7481
5841000000.0 -0.2048 -0.9143
5844000000.0 -0.821 -0.3936
5847000000.0 -0.8126 0.4458
5850000000.0 -0.1908 0.8988
5853000000.0 0.5775 0.6998
5856000000.0 0.9046 -0.01005
5859000000.0 0.5651 -0.7027
5862000000.0 -0.2337 -0.8422
5866000000.0 -0.8318 -0.3763
5869000000.0 -0.7744 0.4082
5872000000.0 -0.2119 0.8463
5875000000.0 0.5556 0.6702
5878000000.0 0.8558 -0.01394
5881000000.0 0.5506 -0.6729
5884000000.0 -0.1881 -0.8537
5888000000.0 -0.7802 -0.3943
5891000000.0 -0.779 0.3235
5894000000.0 -0.2002 0.8392
5897000000.0 0.5137 0.6915
5900000000.0 0.8569 0.0185
5903000000.0 0.5746 -0.6447
5906000000.0 -0.1426 -0.9011
5909000000.0 -0.7704 -0.4236
5912000000.0 -0.8286 0.2627
5916000000.0 -0.2938 0.8192
5919000000.0 0.4685 0.771
5922000000.0 0.877 0.1336
5925000000.0 0.6522 -0.5739
5928000000.0 -0.0606 -0.8954
5931000000.0 -0.712 -0.5383
5934000000.0 -0.8704 0.206
5938000000.0 -0.4345 0.8003
5941000000.0 0.382 0.825
5944000000.0 0.8967 0.2454
5947000000.0 0.7813 -0.5309
5950000000.0 0.06779 -0.9295
5953000000.0 -0.6695 -0.6592
5956000000.0 -0.9452 0.08106
5959000000.0 -0.5533 0.7844
5962000000.0 0.258 0.9295
5966000000.0 0.9009 0.398
5969000000.0 0.8602 -0.4288
5972000000.0 0.257 -0.9631
5975000000.0 -0.577 -0.7896
5978000000.0 -0.972 -0.05957
5981000000.0 -0.6855 0.7165
5984000000.0 0.1455 0.9997
5988000000.0 0.8392 0.5422
5991000000.0 0.9668 -0.3079
5994000000.0 0.3452 -0.9601
5997000000.0 -0.5136 -0.8984
6000000000.0 -0.99 -0.1564
6003000000.0 -0.7982 0.6677
6006000000.0 0.02453 1.002
6009000000.0 0.7955 0.5895
6012000000.0 0.9631 -0.221
6016000000.0 0.4173 -0.8714
6019000000.0 -0.4339 -0.9051
6022000000.0 -0.9349 -0.2397
6025000000.0 -0.7702 0.5912
6028000000.0 -0.04943 0.9498
6031000000.0 0.6865 0.6431
6034000000.0 0.931 -0.1643
6038000000.0 0.4628 -0.8059
6041000000.0 -0.3347 -0.8476
6044000000.0 -0.8882 -0.2977
6047000000.0 -0.7558 0.5113
6050000000.0 -0.08925 0.8916
6053000000.0 0.6426 0.6354
6056000000.0 0.8839 -0.1072
6059000000.0 0.4615 -0.7702
6062000000.0 -0.2846 -0.8204
6066000000.0 -0.8183 -0.2793
6069000000.0 -0.7182 0.4602
6072000000.0 -0.06987 0.8585
6075000000.0 0.5928 0.6271
6078000000.0 0.8587 -0.07393
6081000000.0 0.4561 -0.7069
6084000000.0 -0.2657 -0.7964
6088000000.0 -0.7997 -0.2996
6091000000.0 -0.7366 0.444
6094000000.0 -0.1274 0.8169
6097000000.0 0.5719 0.6275
6100000000.0 0.8571 -0.0464
6103000000.0 0.5134 -0.6871
6106000000.0 -0.2244 -0.8274
6109000000.0 -0.791 -0.3467
6112000000.0 -0.7646 0.4015
6116000000.0 -0.1745 0.8537
6119000000.0 0.5594 0.674
6122000000.0 0.8763 -0.03062
6125000000.0 0.5564 -0.7092
6128000000.0 -0.2028 -0.8881
6131000000.0 -0.8031 -0.3906
6134000000.0 -0.8145 0.3707
6138000000.0 -0.2449 0.9054
6141000000.0 0.5687 0.7166
6144000000.0 0.9507 0.04647
6147000000.0 0.6336 -0.6775
6150000000.0 -0.1543 -0.9388
6153000000.0 -0.8342 -0.4855
6156000000.0 -0.8811 0.3349
6159000000.0 -0.2911 0.9158
6162000000.0 0.5279 0.8204
6166000000.0 0.9174 0.09567
6169000000.0 0.6843 -0.6692
6172000000.0 -0.07727 -0.9538
6175000000.0 -0.8229 -0.5115
6178000000.0 -0.9408 0.2891
6181000000.0 -0.375 0.8831
6184000000.0 0.4287 0.8687
6188000000.0 0.9488 0.1982
6191000000.0 0.7328 -0.6338
6194000000.0 0.01128 -0.9606
6197000000.0 -0.7604 -0.5989
6200000000.0 -0.9383 0.2172
6203000000.0 -0.392 0.8932
6206000000.0 0.3931 0.8585
6209000000.0 0.8934 0.2584
6212000000.0 0.774 -0.5221
6216000000.0 0.05247 -0.9306
6219000000.0 -0.6689 -0.6424
6222000000.0 -0.9071 0.1158
6225000000.0 -0.4844 0.7667
6228000000.0 0.2786 0.8544
6231000000.0 0.8007 0.3533
6234000000.0 0.7945 -0.4412
6238000000.0 0.1729 -0.8902
6241000000.0 -0.5535 -0.6877
6244000000.0 -0.8499 0.007121
6247000000.0 -0.5435 0.6576
6250000000.0 0.1608 0.8153
6253000000.0 0.7208 0.4253
6256000000.0 0.7357 -0.3032
6259000000.0 0.2454 -0.7567
6262000000.0 -0.4459 -0.7
