! Created with skrf 1.8.0 (http://scikit-rf.org).
# Hz S RI R 50.0 
!freq ReS11 ImS11
4000000000.0 -0.1891 -1.519
4003000000.0 -1.306 -0.7967
4006000000.0 -1.412 0.4655
4009000000.0 -0.5736 1.394
4012000000.0 0.7379 1.321
4016000000.0 1.481 0.2144
4019000000.0 1.112 -1.046
4022000000.0 -0.08938 -1.566
4025000000.0 -1.294 -0.97
4028000000.0 -1.551 0.4682
4031000000.0 -0.559 1.493
4034000000.0 0.7716 1.402
4038000000.0 1.587 0.2262
4041000000.0 1.216 -1.1
4044000000.0 -0.1069 -1.61
4047000000.0 -1.294 -0.9809
4050000000.0 -1.553 0.4452
4053000000.0 -0.6482 1.456
4056000000.0 0.7106 1.406
4059000000.0 1.602 0.3384
4062000000.0 1.294 -0.9739
4066000000.0 0.03946 -1.625
4069000000.0 -1.196 -1.05
4072000000.0 -1.618 0.2974
4075000000.0 -0.8462 1.393
4078000000.0 0.5689 1.578
4081000000.0 1.522 0.5582
4084000000.0 1.421 -0.8517
4088000000.0 0.2913 -1.645
4091000000.0 -1.102 -1.217
4094000000.0 -1.667 0.08994
4097000000.0 -0.9622 1.288
4100000000.0 0.3697 1.585
4103000000.0 1.417 0.7346
4106000000.0 1.454 -0.6561
4109000000.0 0.4508 -1.489
4112000000.0 -0.8464 -1.278
4116000000.0 -1.525 -0.227
4119000000.0 -1.127 0.9945
4122000000.0 0.0266 1.479
4125000000.0 1.122 0.9773
4128000000.0 1.446 -0.2182
4131000000.0 0.7668 -1.233
4134000000.0 -0.401 -1.415
4138000000.0 -1.355 -0.6121
4141000000.0 -1.312 0.623
4144000000.0 -0.3929 1.43
4147000000.0 0.8487 1.264
4150000000.0 1.489 0.1619
4153000000.0 1.064 -1.038
4156000000.0 -0.08254 -1.509
4159000000.0 -1.201 -0.8857
4162000000.0 -1.48 0.3471
4166000000.0 -0.6615 1.361
4169000000.0 0.6412 1.364
4172000000.0 1.454 0.4232
4175000000.0 1.227 -0.823
4178000000.0 0.17 -1.467
4181000000.0 -1.001 -1.092
4184000000.0 -1.511 0.09838
4188000000.0 -0.8945 1.208
4191000000.0 0.3453 1.48
4194000000.0 1.358 0.681
4197000000.0 1.416 -0.6781
4200000000.0 0.4114 -1.522
4203000000.0 -0.9672 -1.312
4206000000.0 -1.591 -0.08196
4209000000.0 -1.064 1.223
4212000000.0 0.3258 1.624
4216000000.0 1.445 0.7445
4219000000.0 1.521 -0.7153
4222000000.0 0.3246 -1.661
4225000000.0 -1.121 -1.264
4228000000.0 -1.665 0.1055
4231000000.0 -0.9081 1.395
4234000000.0 0.5397 1.571
4238000000.0 1.552 0.5459
4241000000.0 1.344 -0.897
4244000000.0 0.1016 -1.618
4247000000.0 -1.211 -1.055
4250000000.0 -1.558 0.3054
4253000000.0 -0.6521 1.377
4256000000.0 0.6891 1.407
4259000000.0 1.504 0.3307
4262000000.0 1.215 -0.9585
4266000000.0 -0.06239 -1.508
4269000000.0 -1.233 -0.8904
4272000000.0 -1.406 0.4155
4275000000.0 -0.5108 1.339
4278000000.0 0.771 1.245
4281000000.0 1.399 0.2081
4284000000.0 1.021 -0.9856
4288000000.0 -0.1345 -1.39
4291000000.0 -1.103 -0.7447
4294000000.0 -1.318 0.4293
4297000000.0 -0.4926 1.249
4300000000.0 0.6312 1.142
4303000000.0 1.227 0.2359
4306000000.0 1.0 -0.8187
4309000000.0 0.04818 -1.265
4312000000.0 -0.9686 -0.8229
4316000000.0 -1.257 0.1775
4319000000.0 -0.6861 1.121
4322000000.0 0.3884 1.238
4325000000.0 1.217 0.486
4328000000.0 1.143 -0.6097
4331000000.0 0.2857 -1.301
4334000000.0 -0.8186 -1.051
4338000000.0 -1.383 -0.05306
4341000000.0 -0.9186 1.014
4344000000.0 0.1992 1.377
4347000000.0 1.187 0.7343
4350000000.0 1.34 -0.5001
4353000000.0 0.4901 -1.338
4356000000.0 -0.7125 -1.237
4359000000.0 -1.406 -0.2732
4362000000.0 -1.083 0.9294
4366000000.0 -0.003139 1.436
4369000000.0 1.085 0.9126
4372000000.0 1.426 -0.3009
4375000000.0 0.7348 -1.288
4378000000.0 -0.5185 -1.403
4381000000.0 -1.41 -0.4797
4384000000.0 -1.296 0.8195
4388000000.0 -0.219 1.511
4391000000.0 1.089 1.097
4394000000.0 1.548 -0.1403
4397000000.0 0.8617 -1.297
4400000000.0 -0.4651 -1.525
4403000000.0 -1.474 -0.5411
4406000000.0 -1.352 0.8042
4409000000.0 -0.2013 1.545
4412000000.0 1.095 1.122
4416000000.0 1.558 -0.1825
4419000000.0 0.7782 -1.294
4422000000.0 -0.5445 -1.39
4425000000.0 -1.422 -0.4662
4428000000.0 -1.23 0.8367
4431000000.0 -0.1087 1.459
4434000000.0 1.074 0.9496
4438000000.0 1.406 -0.2455
4441000000.0 0.6927 -1.245
4444000000.0 -0.561 -1.235
4447000000.0 -1.311 -0.3355
4450000000.0 -1.038 0.8488
4453000000.0 -0.006986 1.326
4456000000.0 1.038 0.7922
4459000000.0 1.268 -0.319
4462000000.0 0.4862 -1.182
4466000000.0 -0.6335 -1.089
4469000000.0 -1.222 -0.1897
4472000000.0 -0.8796 0.8536
4475000000.0 0.1602 1.169
4478000000.0 0.9898 0.6316
4481000000.0 1.079 -0.3952
4484000000.0 0.3461 -1.095
4488000000.0 -0.658 -0.9265
4491000000.0 -1.126 -0.0751
4494000000.0 -0.7588 0.8228
4497000000.0 0.1657 1.092
4500000000.0 0.9625 0.5675
4503000000.0 1.028 -0.3904
4506000000.0 0.339 -1.041
4509000000.0 -0.6078 -0.9246
4512000000.0 -1.104 -0.09714
4516000000.0 -0.7834 0.7694
4519000000.0 0.09185 1.109
4522000000.0 0.9584 0.6139
4525000000.0 1.07 -0.349
4528000000.0 0.3949 -1.044
4531000000.0 -0.5808 -1.009
4534000000.0 -1.13 -0.2046
4538000000.0 -0.865 0.7418
4541000000.0 0.02799 1.182
4544000000.0 0.9329 0.7306
4547000000.0 1.151 -0.2391
4550000000.0 0.56 -1.065
4553000000.0 -0.422 -1.136
4556000000.0 -1.152 -0.3774
4559000000.0 -1.032 0.6449
4562000000.0 -0.1698 1.206
4566000000.0 0.8486 0.9128
4569000000.0 1.258 -0.06722
4572000000.0 0.8011 -1.003
4575000000.0 -0.2868 -1.248
4578000000.0 -1.144 -0.6128
4581000000.0 -1.217 0.4982
4584000000.0 -0.4154 1.272
4588000000.0 0.7137 1.123
4591000000.0 1.332 0.1648
4594000000.0 0.9839 -0.9314
4597000000.0 -0.09709 -1.343
4600000000.0 -1.125 -0.8048
4603000000.0 -1.308 0.3577
4606000000.0 -0.5634 1.244
4609000000.0 0.6213 1.287
4612000000.0 1.349 0.3044
4616000000.0 1.081 -0.8675
4619000000.0 0.0493 -1.396
4622000000.0 -1.05 -0.8833
4625000000.0 -1.364 0.2249
4628000000.0 -0.6695 1.207
4631000000.0 0.5207 1.299
4634000000.0 1.337 0.408
4638000000.0 1.155 -0.7382
4641000000.0 0.1019 -1.36
4644000000.0 -0.9862 -0.9318
4647000000.0 -1.341 0.1625
4650000000.0 -0.6909 1.137
4653000000.0 0.4694 1.231
4656000000.0 1.2 0.4053
4659000000.0 1.065 -0.7218
4662000000.0 0.1074 -1.253
4666000000.0 -0.8983 -0.8137
4669000000.0 -1.187 0.1768
4672000000.0 -0.6049 1.037
4675000000.0 0.4311 1.081
4678000000.0 1.143 0.3172
4681000000.0 0.9578 -0.6774
4684000000.0 0.07845 -1.1
4688000000.0 -0.8232 -0.7466
4691000000.0 -1.101 0.1952
4694000000.0 -0.5198 0.9879
4697000000.0 0.4637 1.013
4700000000.0 1.057 0.3023
4703000000.0 0.8637 -0.6382
4706000000.0 0.06585 -1.077
4709000000.0 -0.8154 -0.7102
4712000000.0 -1.03 0.1852
4716000000.0 -0.4962 0.9736
4719000000.0 0.4482 0.9431
4722000000.0 1.046 0.2831
4725000000.0 0.8438 -0.612
4728000000.0 0.03626 -1.021
4731000000.0 -0.7802 -0.6785
4734000000.0 -1.016 0.1559
4738000000.0 -0.5104 0.8761
4741000000.0 0.3633 0.9624
4744000000.0 0.9632 0.3494
4747000000.0 0.9331 -0.5484
4750000000.0 0.1511 -1.022
4753000000.0 -0.7228 -0.7966
4756000000.0 -1.044 0.05335
4759000000.0 -0.6618 0.8559
4762000000.0 0.2627 1.07
4766000000.0 1.001 0.5009
4769000000.0 1.056 -0.4212
4772000000.0 0.336 -1.104
4775000000.0 -0.6391 -0.9758
4778000000.0 -1.168 -0.125
4781000000.0 -0.8744 0.8159
4784000000.0 0.04178 1.18
4788000000.0 0.9695 0.7435
4791000000.0 1.158 -0.2671
4794000000.0 0.5512 -1.077
4797000000.0 -0.4655 -1.125
4800000000.0 -1.186 -0.3746
4803000000.0 -1.02 0.6667
4806000000.0 -0.1942 1.226
4809000000.0 0.8356 0.9222
4812000000.0 1.294 -0.03271
4816000000.0 0.8134 -1.008
4819000000.0 -0.2703 -1.294
4822000000.0 -1.16 -0.6402
4825000000.0 -1.246 0.524
4828000000.0 -0.4285 1.303
4831000000.0 0.7482 1.136
4834000000.0 1.369 0.1517
4838000000.0 0.9827 -0.9879
4841000000.0 -0.131 -1.392
4844000000.0 -1.159 -0.7626
4847000000.0 -1.316 0.404
4850000000.0 -0.5084 1.277
4853000000.0 0.6524 1.221
4856000000.0 1.341 0.2636
4859000000.0 1.054 -0.892
4862000000.0 0.01467 -1.36
4866000000.0 -1.053 -0.8221
4869000000.0 -1.316 0.3044
4872000000.0 -0.6047 1.181
4875000000.0 0.4929 1.19
4878000000.0 1.26 0.3272
4881000000.0 1.026 -0.7733
4884000000.0 0.05671 -1.256
4888000000.0 -0.892 -0.8081
4891000000.0 -1.202 0.211
4894000000.0 -0.5748 1.026
4897000000.0 0.4505 1.108
4900000000.0 1.12 0.3467
4903000000.0 0.9108 -0.6358
4906000000.0 0.07311 -1.084
4909000000.0 -0.7731 -0.7362
4912000000.0 -1.028 0.1215
4916000000.0 -0.5412 0.8438
4919000000.0 0.3029 0.9608
4922000000.0 0.9243 0.3331
4925000000.0 0.8345 -0.4835
4928000000.0 0.1205 -0.9443
4931000000.0 -0.6396 -0.727
4934000000.0 -0.9424 0.03079
4938000000.0 -0.5689 0.7568
4941000000.0 0.2168 0.8901
4944000000.0 0.8427 0.4272
4947000000.0 0.829 -0.3812
4950000000.0 0.2294 -0.9172
4953000000.0 -0.5477 -0.7467
4956000000.0 -0.9561 -0.02986
4959000000.0 -0.6326 0.6991
4962000000.0 0.1482 0.9847
4966000000.0 0.839 0.488
4969000000.0 0.9237 -0.3368
4972000000.0 0.3223 -0.948
4975000000.0 -0.5202 -0.8537
4978000000.0 -1.011 -0.1329
4981000000.0 -0.7335 0.6882
4984000000.0 0.04587 1.033
4988000000.0 0.8215 0.607
4991000000.0 1.027 -0.2578
4994000000.0 0.4689 -0.9722
4997000000.0 -0.469 -1.001
5000000000.0 -1.08 -0.2717
5003000000.0 -0.909 0.6447
5006000000.0 -0.09139 1.125
5009000000.0 0.8405 0.8276
5012000000.0 1.216 -0.1202
5016000000.0 0.6721 -1.024
5019000000.0 -0.3787 -1.154
5022000000.0 -1.127 -0.4698
5025000000.0 -1.111 0.6011
5028000000.0 -0.2675 1.23
5031000000.0 0.8234 0.9857
5034000000.0 1.257 -0.002406
5038000000.0 0.8002 -0.9834
5041000000.0 -0.2437 -1.262
5044000000.0 -1.114 -0.6494
5047000000.0 -1.216 0.4557
5050000000.0 -0.4336 1.204
5053000000.0 0.6635 1.133
5056000000.0 1.267 0.2241
5059000000.0 1.004 -0.8481
5062000000.0 -0.02183 -1.316
5066000000.0 -1.013 -0.7961
5069000000.0 -1.27 0.2631
5072000000.0 -0.5863 1.142
5075000000.0 0.4679 1.194
5078000000.0 1.183 0.3756
5081000000.0 1.071 -0.7096
5084000000.0 0.1626 -1.243
5088000000.0 -0.8332 -0.9001
5091000000.0 -1.219 0.08293
5094000000.0 -0.7046 0.9542
5097000000.0 0.2639 1.122
5100000000.0 1.017 0.515
5103000000.0 1.026 -0.4398
5106000000.0 0.3176 -1.041
5109000000.0 -0.6062 -0.8964
5112000000.0 -1.078 -0.07989
5116000000.0 -0.8053 0.7376
5119000000.0 0.04793 1.027
5122000000.0 0.8489 0.6308
5125000000.0 0.9995 -0.2772
5128000000.0 0.4699 -0.9594
5131000000.0 -0.4187 -0.9121
5134000000.0 -0.9436 -0.2345
5138000000.0 -0.7967 0.6065
5141000000.0 -0.06057 0.9458
5144000000.0 0.6878 0.6919
5147000000.0 0.9614 -0.1162
5150000000.0 0.4966 -0.7852
5153000000.0 -0.2884 -0.8539
5156000000.0 -0.8553 -0.3416
5159000000.0 -0.8101 0.452
5162000000.0 -0.1427 0.904
5166000000.0 0.6239 0.6894
5169000000.0 0.8857 -0.04231
5172000000.0 0.5074 -0.7024
5175000000.0 -0.2355 -0.8604
5178000000.0 -0.8469 -0.3714
5181000000.0 -0.8476 0.407
5184000000.0 -0.1617 0.8671
5188000000.0 0.594 0.6874
5191000000.0 0.9035 -0.01648
5194000000.0 0.5727 -0.7135
5197000000.0 -0.2251 -0.8914
5200000000.0 -0.8648 -0.4238
5203000000.0 -0.8472 0.4306
5206000000.0 -0.2139 0.9198
5209000000.0 0.6121 0.7459
5212000000.0 0.9494 -0.007923
5216000000.0 0.6214 -0.7637
5219000000.0 -0.2083 -0.9811
5222000000.0 -0.8846 -0.4544
5225000000.0 -0.9245 0.4299
5228000000.0 -0.2683 0.9552
5231000000.0 0.5728 0.823
5234000000.0 1.016 0.08018
5238000000.0 0.6861 -0.735
5241000000.0 -0.1369 -1.006
5244000000.0 -0.8631 -0.5874
5247000000.0 -0.9772 0.3259
5250000000.0 -0.3906 0.9602
5253000000.0 0.4903 0.9396
5256000000.0 1.041 0.1985
5259000000.0 0.8265 -0.7093
5262000000.0 0.01401 -1.063
5266000000.0 -0.807 -0.6893
5269000000.0 -1.093 0.1662
5272000000.0 -0.567 0.9197
5275000000.0 0.3622 1.025
5278000000.0 1.016 0.4067
5281000000.0 0.9882 -0.5236
5284000000.0 0.2357 -1.067
5288000000.0 -0.6417 -0.8601
5291000000.0 -1.068 -0.06454
5294000000.0 -0.7595 0.7967
5297000000.0 0.1604 1.111
5300000000.0 0.9238 0.6434
5303000000.0 1.08 -0.2929
5306000000.0 0.4631 -1.001
5309000000.0 -0.472 -1.042
5312000000.0 -1.105 -0.2802
5316000000.0 -0.9021 0.6479
5319000000.0 -0.05231 1.143
5322000000.0 0.8027 0.8188
5325000000.0 1.116 -0.1033
5328000000.0 0.6571 -0.9465
5331000000.0 -0.3418 -1.093
5334000000.0 -1.014 -0.4682
5338000000.0 -1.016 0.4782
5341000000.0 -0.2512 1.128
5344000000.0 0.6298 0.8705
5347000000.0 1.108 0.04394
5350000000.0 0.7693 -0.8408
5353000000.0 -0.1465 -1.088
5356000000.0 -0.9413 -0.5641
5359000000.0 -1.039 0.3678
5362000000.0 -0.3514 1.027
5366000000.0 0.5485 0.9186
5369000000.0 1.069 0.1552
5372000000.0 0.7412 -0.7542
5375000000.0 -0.08955 -1.043
5378000000.0 -0.8468 -0.5702
5381000000.0 -0.972 0.3429
5384000000.0 -0.3262 0.962
5388000000.0 0.5012 0.8436
5391000000.0 0.9767 0.0926
5394000000.0 0.6716 -0.6509
5397000000.0 -0.101 -0.9702
5400000000.0 -0.7668 -0.4659
5403000000.0 -0.8239 0.3246
5406000000.0 -0.2868 0.8518
5409000000.0 0.4758 0.7448
5412000000.0 0.8644 0.07419
5416000000.0 0.6004 -0.6257
5419000000.0 -0.09585 -0.8566
5422000000.0 -0.7454 -0.4549
5425000000.0 -0.8258 0.3041
5428000000.0 -0.272 0.8191
5431000000.0 0.4495 0.7367
5434000000.0 0.8676 0.07615
5438000000.0 0.5919 -0.5991
5441000000.0 -0.1399 -0.8642
5444000000.0 -0.7478 -0.4421
5447000000.0 -0.8289 0.2834
5450000000.0 -0.291 0.8542
5453000000.0 0.4515 0.7401
5456000000.0 0.8736 0.1388
5459000000.0 0.6348 -0.5921
5462000000.0 -0.0355 -0.9138
5466000000.0 -0.7324 -0.5195
5469000000.0 -0.8551 0.2228
5472000000.0 -0.3786 0.8205
5475000000.0 0.3668 0.7912
5478000000.0 0.876 0.2293
5481000000.0 0.7781 -0.535
5484000000.0 0.0649 -0.9658
5488000000.0 -0.6739 -0.6657
5491000000.0 -0.9511 0.121
5494000000.0 -0.5548 0.8459
5497000000.0 0.2889 1.0
5500000000.0 0.873 0.3707
5503000000.0 0.922 -0.4342
5506000000.0 0.2568 -0.9718
5509000000.0 -0.6099 -0.8613
5512000000.0 -0.9948 -0.05849
5516000000.0 -0.7129 0.7035
5519000000.0 0.06608 1.041
5522000000.0 0.8619 0.5841
5525000000.0 0.9908 -0.2896
5528000000.0 0.4178 -0.9283
5531000000.0 -0.4484 -0.9843
5534000000.0 -1.002 -0.2365
5538000000.0 -0.8652 0.552
5541000000.0 -0.1369 1.061
5544000000.0 0.7754 0.7324
5547000000.0 1.063 -0.1008
5550000000.0 0.6331 -0.8784
5553000000.0 -0.3014 -1.022
5556000000.0 -0.9239 -0.4548
5559000000.0 -0.9392 0.4699
5562000000.0 -0.2474 1.06
5566000000.0 0.6094 0.8388
5569000000.0 1.031 0.05076
5572000000.0 0.7096 -0.7394
5575000000.0 -0.1249 -0.9933
5578000000.0 -0.8488 -0.525
5581000000.0 -0.9515 0.3379
5584000000.0 -0.3674 0.9045
5588000000.0 0.4765 0.8423
5591000000.0 0.9301 0.1817
5594000000.0 0.7138 -0.6127
5597000000.0 -0.007923 -0.9318
5600000000.0 -0.7065 -0.5888
5603000000.0 -0.9048 0.1518
5606000000.0 -0.3909 0.806
5609000000.0 0.343 0.8032
5612000000.0 0.817 0.2318
5616000000.0 0.7059 -0.4843
5619000000.0 0.05806 -0.899
5622000000.0 -0.6364 -0.5495
5625000000.0 -0.8688 0.14
5628000000.0 -0.4221 0.7467
5631000000.0 0.3026 0.8061
5634000000.0 0.7852 0.26
5638000000.0 0.7158 -0.4548
5641000000.0 0.08534 -0.8127
5644000000.0 -0.6093 -0.5976
5647000000.0 -0.8275 0.08559
5650000000.0 -0.4427 0.7174
5653000000.0 0.2939 0.7998
5656000000.0 0.7913 0.2745
5659000000.0 0.7061 -0.459
5662000000.0 0.06488 -0.8381
5666000000.0 -0.605 -0.6015
5669000000.0 -0.8522 0.1034
5672000000.0 -0.4722 0.7328
5675000000.0 0.3173 0.8416
5678000000.0 0.8581 0.2929
5681000000.0 0.7619 -0.4764
5684000000.0 0.1428 -0.9148
5688000000.0 -0.6386 -0.6475
5691000000.0 -0.9271 0.07845
5694000000.0 -0.507 0.7746
5697000000.0 0.318 0.9171
5700000000.0 0.9031 0.3637
5703000000.0 0.8834 -0.4957
5706000000.0 0.1676 -1.001
5709000000.0 -0.65 -0.7934
5712000000.0 -1.033 0.0276
5716000000.0 -0.6117 0.8226
5719000000.0 0.2094 0.9979
5722000000.0 0.9265 0.4749
5725000000.0 0.9284 -0.4067
5728000000.0 0.3119 -1.004
5731000000.0 -0.5913 -0.8828
5734000000.0 -1.087 -0.1198
5738000000.0 -0.7651 0.7366
5741000000.0 0.08463 1.075
5744000000.0 0.8794 0.6108
5747000000.0 1.039 -0.2954
5750000000.0 0.4635 -1.011
5753000000.0 -0.4905 -0.9857
5756000000.0 -1.064 -0.2599
5759000000.0 -0.9135 0.6288
5762000000.0 -0.07951 1.12
5766000000.0 0.7976 0.7656
5769000000.0 1.075 -0.1193
5772000000.0 0.6054 -0.9139
5775000000.0 -0.2981 -1.08
5778000000.0 -0.9574 -0.4228
5781000000.0 -0.9789 0.5033
5784000000.0 -0.1939 1.051
5788000000.0 0.6855 0.8833
5791000000.0 1.091 0.06697
5794000000.0 0.7451 -0.7814
5797000000.0 -0.1416 -1.068
5800000000.0 -0.9267 -0.5637
5803000000.0 -1.019 0.3529
5806000000.0 -0.3959 0.977
5809000000.0 0.4981 0.8893
5812000000.0 1.025 0.1856
5816000000.0 0.7734 -0.6754
5819000000.0 -0.006537 -1.012
5822000000.0 -0.8103 -0.6429
5825000000.0 -1.025 0.255
5828000000.0 -0.4632 0.8844
5831000000.0 0.4179 0.9084
5834000000.0 0.9591 0.2762
5838000000.0 0.8097 -0.567
5841000000.0 0.09755 -0.9601
5844000000.0 -0.7231 -0.6387
5847000000.0 -0.9729 0.1263
5850000000.0 -0.5098 0.8064
5853000000.0 0.3284 0.8918
5856000000.0 0.8832 0.3075
5859000000.0 0.7892 -0.4959
5862000000.0 0.1225 -0.8736
5866000000.0 -0.6316 -0.6172
5869000000.0 -0.8811 0.1135
5872000000.0 -0.4943 0.7414
5875000000.0 0.2739 0.831
5878000000.0 0.8069 0.3013
5881000000.0 0.739 -0.4454
5884000000.0 0.1074 -0.8547
5888000000.0 -0.6244 -0.6499
5891000000.0 -0.858 0.05877
5894000000.0 -0.4429 0.7035
5897000000.0 0.2187 0.8208
5900000000.0 0.7851 0.3125
5903000000.0 0.7497 -0.3979
5906000000.0 0.1528 -0.8185
5909000000.0 -0.5682 -0.6431
5912000000.0 -0.8655 -0.005444
5916000000.0 -0.5603 0.6596
5919000000.0 0.1843 0.8315
5922000000.0 0.7586 0.3944
5925000000.0 0.7972 -0.3249
5928000000.0 0.2586 -0.8212
5931000000.0 -0.4861 -0.7453
5934000000.0 -0.8704 -0.0906
5938000000.0 -0.6337 0.6046
5941000000.0 0.08387 0.8574
5944000000.0 0.7154 0.5293
5947000000.0 0.8285 -0.2168
5950000000.0 0.393 -0.7937
5953000000.0 -0.4048 -0.8017
5956000000.0 -0.8954 -0.2413
5959000000.0 -0.7719 0.524
5962000000.0 -0.08193 0.9419
5966000000.0 0.665 0.6296
5969000000.0 0.9252 -0.1286
5972000000.0 0.5266 -0.7666
5975000000.0 -0.2817 -0.9093
5978000000.0 -0.8697 -0.3773
5981000000.0 -0.8623 0.4182
5984000000.0 -0.22 0.9616
5988000000.0 0.6194 0.7965
5991000000.0 1.003 0.04387
5994000000.0 0.6656 -0.7451
5997000000.0 -0.119 -0.9906
6000000000.0 -0.8406 -0.5202
6003000000.0 -0.9288 0.3153
6006000000.0 -0.393 0.9225
6009000000.0 0.4917 0.8682
6012000000.0 0.9814 0.173
6016000000.0 0.7648 -0.6549
6019000000.0 -0.02754 -1.007
6022000000.0 -0.7966 -0.6299
6025000000.0 -0.9532 0.1974
6028000000.0 -0.4437 0.8694
6031000000.0 0.379 0.8907
6034000000.0 0.9435 0.2759
6038000000.0 0.7927 -0.5606
6041000000.0 0.06181 -0.9536
6044000000.0 -0.6705 -0.6628
6047000000.0 -0.9383 0.08114
6050000000.0 -0.5137 0.8271
6053000000.0 0.3324 0.8747
6056000000.0 0.8866 0.3238
6059000000.0 0.7775 -0.4807
6062000000.0 0.1063 -0.9172
6066000000.0 -0.6305 -0.6641
6069000000.0 -0.9001 0.06731
6072000000.0 -0.497 0.7514
6075000000.0 0.225 0.8622
6078000000.0 0.8276 0.3421
6081000000.0 0.7498 -0.427
6084000000.0 0.1742 -0.8569
6088000000.0 -0.569 -0.6465
6091000000.0 -0.868 0.04011
6094000000.0 -0.5237 0.6646
6097000000.0 0.1893 0.8463
6100000000.0 0.7916 0.3772
6103000000.0 0.7761 -0.4082
6106000000.0 0.1871 -0.8217
6109000000.0 -0.5075 -0.6825
6112000000.0 -0.8558 -0.0235
6116000000.0 -0.5436 0.6649
6119000000.0 0.1314 0.8388
6122000000.0 0.7838 0.4239
6125000000.0 0.8069 -0.3324
6128000000.0 0.2503 -0.8234
6131000000.0 -0.484 -0.7012
6134000000.0 -0.8647 -0.07437
6138000000.0 -0.5653 0.6507
6141000000.0 0.1291 0.871
6144000000.0 0.7658 0.4467
6147000000.0 0.8246 -0.2837
6150000000.0 0.3204 -0.8362
6153000000.0 -0.47 -0.7828
6156000000.0 -0.901 -0.1429
6159000000.0 -0.6597 0.6169
6162000000.0 0.05325 0.8952
6166000000.0 0.7451 0.5393
6169000000.0 0.9025 -0.2497
6172000000.0 0.4224 -0.8445
6175000000.0 -0.42 -0.8545
6178000000.0 -0.9243 -0.232
6181000000.0 -0.7504 0.5781
6184000000.0 -0.01658 0.9291
6188000000.0 0.7046 0.6272
6191000000.0 0.9334 -0.1784
6194000000.0 0.4906 -0.8089
6197000000.0 -0.3268 -0.8613
6200000000.0 -0.8797 -0.2919
6203000000.0 -0.8131 0.5016
6206000000.0 -0.1285 0.9245
6209000000.0 0.6353 0.6805
6212000000.0 0.9008 -0.06449
6216000000.0 0.5497 -0.7548
6219000000.0 -0.2467 -0.8978
6222000000.0 -0.8336 -0.3766
6225000000.0 -0.8191 0.3783
6228000000.0 -0.2221 0.895
6231000000.0 0.4989 0.7274
6234000000.0 0.861 0.03101
6238000000.0 0.6149 -0.6223
6241000000.0 -0.1286 -0.8588
6244000000.0 -0.689 -0.4644
6247000000.0 -0.8232 0.2649
6250000000.0 -0.3483 0.7829
6253000000.0 0.3918 0.7531
6256000000.0 0.8513 0.1453
6259000000.0 0.6502 -0.521
6262000000.0 0.03096 -0.8345
6266000000.0 -0.6154 -0.5221
