! Created with skrf 1.8.0 (http://scikit-rf.org).
# Hz S RI R 50.0 
!freq ReS11 ImS11
4000000000.0 -0.1886 -1.427
4003000000.0 -1.264 -0.8114
4006000000.0 -1.451 0.5052
4009000000.0 -0.5132 1.411
4012000000.0 0.7909 1.278
4016000000.0 1.528 0.2347
4019000000.0 1.133 -1.087
4022000000.0 -0.123 -1.552
4025000000.0 -1.315 -0.8741
4028000000.0 -1.524 0.4894
4031000000.0 -0.5674 1.54
4034000000.0 0.8053 1.366
4038000000.0 1.59 0.2027
4041000000.0 1.205 -1.079
4044000000.0 -0.1362 -1.627
4047000000.0 -1.314 -0.9007
4050000000.0 -1.529 0.475
4053000000.0 -0.6476 1.473
4056000000.0 0.7924 1.412
4059000000.0 1.637 0.3481
4062000000.0 1.278 -1.019
4066000000.0 0.001358 -1.611
4069000000.0 -1.245 -1.048
4072000000.0 -1.556 0.2595
4075000000.0 -0.7962 1.401
4078000000.0 0.5629 1.498
4081000000.0 1.563 0.5356
4084000000.0 1.383 -0.842
4088000000.0 0.2448 -1.638
4091000000.0 -1.114 -1.193
4094000000.0 -1.64 0.06794
4097000000.0 -0.9997 1.318
4100000000.0 0.3716 1.561
4103000000.0 1.427 0.703
4106000000.0 1.407 -0.6076
4109000000.0 0.4462 -1.497
4112000000.0 -0.8249 -1.27
4116000000.0 -1.475 -0.1798
4119000000.0 -1.119 0.9821
4122000000.0 0.004194 1.484
4125000000.0 1.136 0.9565
4128000000.0 1.465 -0.2338
4131000000.0 0.7636 -1.252
4134000000.0 -0.435 -1.395
4138000000.0 -1.366 -0.5946
4141000000.0 -1.308 0.6538
4144000000.0 -0.3474 1.471
4147000000.0 0.8527 1.221
4150000000.0 1.466 0.1528
4153000000.0 1.067 -1.075
4156000000.0 -0.1239 -1.54
4159000000.0 -1.26 -0.8961
4162000000.0 -1.427 0.3582
4166000000.0 -0.6411 1.357
4169000000.0 0.6355 1.349
4172000000.0 1.456 0.3842
4175000000.0 1.265 -0.8667
4178000000.0 0.1687 -1.48
4181000000.0 -1.033 -1.062
4184000000.0 -1.5 0.1084
4188000000.0 -0.9148 1.232
4191000000.0 0.3639 1.451
4194000000.0 1.379 0.6608
4197000000.0 1.41 -0.678
4200000000.0 0.3811 -1.523
4203000000.0 -0.9703 -1.25
4206000000.0 -1.63 -0.02649
4209000000.0 -1.059 1.26
4212000000.0 0.346 1.61
4216000000.0 1.551 0.735
4219000000.0 1.511 -0.7443
4222000000.0 0.3328 -1.659
4225000000.0 -1.128 -1.235
4228000000.0 -1.685 0.0972
4231000000.0 -0.9216 1.397
4234000000.0 0.525 1.535
4238000000.0 1.544 0.4964
4241000000.0 1.371 -0.9394
4244000000.0 0.07961 -1.587
4247000000.0 -1.203 -1.043
4250000000.0 -1.528 0.3349
4253000000.0 -0.6981 1.407
4256000000.0 0.6716 1.38
4259000000.0 1.497 0.3075
4262000000.0 1.129 -1.024
4266000000.0 -0.08308 -1.504
4269000000.0 -1.199 -0.8323
4272000000.0 -1.416 0.4373
4275000000.0 -0.5059 1.37
4278000000.0 0.7576 1.246
4281000000.0 1.413 0.1576
4284000000.0 0.9914 -1.002
4288000000.0 -0.1828 -1.406
4291000000.0 -1.14 -0.7186
4294000000.0 -1.307 0.4186
4297000000.0 -0.4578 1.238
4300000000.0 0.6672 1.149
4303000000.0 1.262 0.2269
4306000000.0 0.9708 -0.8556
4309000000.0 0.0009615 -1.291
4312000000.0 -0.981 -0.8236
4316000000.0 -1.281 0.2219
4319000000.0 -0.653 1.126
4322000000.0 0.4193 1.204
4325000000.0 1.241 0.4812
4328000000.0 1.155 -0.65
4331000000.0 0.2697 -1.29
4334000000.0 -0.8834 -1.06
4338000000.0 -1.379 -0.04765
4341000000.0 -0.887 1.063
4344000000.0 0.2146 1.35
4347000000.0 1.217 0.7187
4350000000.0 1.337 -0.4496
4353000000.0 0.4736 -1.369
4356000000.0 -0.7432 -1.218
4359000000.0 -1.461 -0.2267
4362000000.0 -1.078 0.9829
4366000000.0 0.0286 1.467
4369000000.0 1.155 0.8866
4372000000.0 1.468 -0.2907
4375000000.0 0.6978 -1.318
4378000000.0 -0.558 -1.401
4381000000.0 -1.457 -0.439
4384000000.0 -1.259 0.8365
4388000000.0 -0.1404 1.513
4391000000.0 1.123 1.111
4394000000.0 1.561 -0.1658
4397000000.0 0.895 -1.337
4400000000.0 -0.5208 -1.515
4403000000.0 -1.479 -0.4862
4406000000.0 -1.377 0.8269
4409000000.0 -0.1793 1.566
4412000000.0 1.131 1.082
4416000000.0 1.507 -0.2194
4419000000.0 0.7348 -1.334
4422000000.0 -0.532 -1.408
4425000000.0 -1.439 -0.4657
4428000000.0 -1.198 0.8434
4431000000.0 -0.05454 1.461
4434000000.0 1.054 0.9062
4438000000.0 1.409 -0.2603
4441000000.0 0.5773 -1.235
4444000000.0 -0.567 -1.218
4447000000.0 -1.319 -0.2989
4450000000.0 -0.9926 0.8738
4453000000.0 0.05923 1.316
4456000000.0 1.086 0.7577
4459000000.0 1.231 -0.3769
4462000000.0 0.475 -1.213
4466000000.0 -0.6572 -1.06
4469000000.0 -1.217 -0.1484
4472000000.0 -0.8338 0.8512
4475000000.0 0.1961 1.177
4478000000.0 1.017 0.5862
4481000000.0 1.076 -0.4449
4484000000.0 0.3195 -1.118
4488000000.0 -0.6833 -0.924
4491000000.0 -1.135 -0.03548
4494000000.0 -0.7538 0.8574
4497000000.0 0.1954 1.13
4500000000.0 0.9544 0.5315
4503000000.0 1.027 -0.4124
4506000000.0 0.3235 -1.068
4509000000.0 -0.6464 -0.8946
4512000000.0 -1.079 -0.07371
4516000000.0 -0.7785 0.7769
4519000000.0 0.1585 1.103
4522000000.0 0.9309 0.6007
4525000000.0 1.101 -0.3625
4528000000.0 0.3952 -1.06
4531000000.0 -0.5975 -0.9863
4534000000.0 -1.14 -0.1681
4538000000.0 -0.8721 0.7793
4541000000.0 0.04061 1.165
4544000000.0 0.9209 0.7085
4547000000.0 1.156 -0.2559
4550000000.0 0.5536 -1.069
4553000000.0 -0.4682 -1.116
4556000000.0 -1.159 -0.3442
4559000000.0 -1.031 0.6511
4562000000.0 -0.1446 1.218
4566000000.0 0.83 0.9057
4569000000.0 1.254 -0.04682
4572000000.0 0.7476 -1.012
4575000000.0 -0.2861 -1.259
4578000000.0 -1.134 -0.5865
4581000000.0 -1.21 0.5247
4584000000.0 -0.3763 1.284
4588000000.0 0.7504 1.112
4591000000.0 1.373 0.1432
4594000000.0 0.9493 -0.9487
4597000000.0 -0.1296 -1.367
4600000000.0 -1.138 -0.7776
4603000000.0 -1.314 0.3645
4606000000.0 -0.5562 1.262
4609000000.0 0.641 1.254
4612000000.0 1.353 0.2997
4616000000.0 1.096 -0.8656
4619000000.0 -0.002259 -1.369
4622000000.0 -1.04 -0.871
4625000000.0 -1.349 0.2894
4628000000.0 -0.6417 1.233
4631000000.0 0.5241 1.285
4634000000.0 1.317 0.3776
4638000000.0 1.115 -0.7982
4641000000.0 0.1093 -1.369
4644000000.0 -0.9862 -0.914
4647000000.0 -1.314 0.2149
4650000000.0 -0.6493 1.214
4653000000.0 0.4584 1.208
4656000000.0 1.258 0.3475
4659000000.0 1.029 -0.7247
4662000000.0 0.06489 -1.284
4666000000.0 -0.9569 -0.7989
4669000000.0 -1.22 0.1919
4672000000.0 -0.566 1.051
4675000000.0 0.4566 1.066
4678000000.0 1.15 0.3052
4681000000.0 0.9131 -0.6854
4684000000.0 0.03411 -1.099
4688000000.0 -0.8674 -0.7162
4691000000.0 -1.112 0.1967
4694000000.0 -0.52 0.9805
4697000000.0 0.469 0.9897
4700000000.0 1.071 0.249
4703000000.0 0.8278 -0.6601
4706000000.0 0.007567 -1.085
4709000000.0 -0.8184 -0.7045
4712000000.0 -1.046 0.2261
4716000000.0 -0.4594 0.949
4719000000.0 0.444 0.9752
4722000000.0 0.9972 0.2414
4725000000.0 0.8198 -0.659
4728000000.0 0.0354 -1.027
4731000000.0 -0.7897 -0.6569
4734000000.0 -1.032 0.1993
4738000000.0 -0.48 0.8738
4741000000.0 0.3849 0.9533
4744000000.0 1.002 0.3288
4747000000.0 0.9192 -0.5809
4750000000.0 0.1366 -1.058
4753000000.0 -0.7086 -0.7985
4756000000.0 -1.137 0.02824
4759000000.0 -0.6568 0.9076
4762000000.0 0.2662 1.081
4766000000.0 1.015 0.5197
4769000000.0 1.055 -0.4668
4772000000.0 0.3389 -1.083
4775000000.0 -0.632 -0.9585
4778000000.0 -1.171 -0.1356
4781000000.0 -0.8147 0.8364
4784000000.0 0.108 1.175
4788000000.0 0.9632 0.7014
4791000000.0 1.156 -0.2809
4794000000.0 0.5215 -1.072
4797000000.0 -0.4703 -1.129
4800000000.0 -1.2 -0.3619
4803000000.0 -1.035 0.6504
4806000000.0 -0.1648 1.23
4809000000.0 0.8416 0.9423
4812000000.0 1.293 -0.03761
4816000000.0 0.7923 -1.06
4819000000.0 -0.306 -1.304
4822000000.0 -1.162 -0.6171
4825000000.0 -1.253 0.5374
4828000000.0 -0.3742 1.322
4831000000.0 0.7647 1.144
4834000000.0 1.363 0.1284
4838000000.0 0.9745 -0.9747
4841000000.0 -0.1486 -1.381
4844000000.0 -1.168 -0.7603
4847000000.0 -1.331 0.4161
4850000000.0 -0.5032 1.308
4853000000.0 0.6667 1.186
4856000000.0 1.344 0.2356
4859000000.0 1.033 -0.9043
4862000000.0 -0.07975 -1.368
4866000000.0 -1.086 -0.8054
4869000000.0 -1.287 0.3119
4872000000.0 -0.5746 1.158
4875000000.0 0.5414 1.165
4878000000.0 1.272 0.3072
4881000000.0 0.9975 -0.7682
4884000000.0 0.02151 -1.262
4888000000.0 -0.9462 -0.8037
4891000000.0 -1.182 0.21
4894000000.0 -0.5416 1.045
4897000000.0 0.4688 1.091
4900000000.0 1.104 0.3124
4903000000.0 0.9053 -0.6408
4906000000.0 0.05422 -1.091
4909000000.0 -0.8053 -0.7322
4912000000.0 -1.051 0.149
4916000000.0 -0.5215 0.8598
4919000000.0 0.3517 0.9236
4922000000.0 0.9434 0.3249
4925000000.0 0.8298 -0.4895
4928000000.0 0.1243 -0.9537
4931000000.0 -0.6569 -0.6848
4934000000.0 -0.9409 0.06453
4938000000.0 -0.5657 0.7527
4941000000.0 0.2298 0.902
4944000000.0 0.8588 0.3764
4947000000.0 0.8446 -0.3952
4950000000.0 0.191 -0.9222
4953000000.0 -0.5901 -0.7683
4956000000.0 -0.919 -0.03175
4959000000.0 -0.6376 0.7056
4962000000.0 0.1628 0.9562
4966000000.0 0.869 0.4394
4969000000.0 0.895 -0.3801
4972000000.0 0.296 -0.9406
4975000000.0 -0.5362 -0.8336
4978000000.0 -0.9825 -0.1222
4981000000.0 -0.7288 0.6986
4984000000.0 0.09806 1.042
4988000000.0 0.8668 0.6094
4991000000.0 1.038 -0.2827
4994000000.0 0.4679 -0.9859
4997000000.0 -0.4712 -0.9922
5000000000.0 -1.091 -0.2768
5003000000.0 -0.926 0.657
5006000000.0 -0.08692 1.153
5009000000.0 0.854 0.8217
5012000000.0 1.183 -0.1621
5016000000.0 0.6446 -1.037
5019000000.0 -0.3871 -1.175
5022000000.0 -1.195 -0.4391
5025000000.0 -1.088 0.6269
5028000000.0 -0.197 1.216
5031000000.0 0.8174 0.9632
5034000000.0 1.27 -0.01635
5038000000.0 0.8052 -1.006
5041000000.0 -0.269 -1.241
5044000000.0 -1.151 -0.6276
5047000000.0 -1.214 0.4889
5050000000.0 -0.419 1.217
5053000000.0 0.6815 1.068
5056000000.0 1.243 0.1601
5059000000.0 0.9583 -0.8665
5062000000.0 -0.04235 -1.249
5066000000.0 -1.027 -0.7837
5069000000.0 -1.271 0.2584
5072000000.0 -0.5828 1.143
5075000000.0 0.5097 1.157
5078000000.0 1.223 0.3714
5081000000.0 1.058 -0.6787
5084000000.0 0.1455 -1.228
5088000000.0 -0.8708 -0.89
5091000000.0 -1.194 0.108
5094000000.0 -0.6888 0.9718
5097000000.0 0.2966 1.115
5100000000.0 1.04 0.5049
5103000000.0 0.9942 -0.4641
5106000000.0 0.3329 -1.085
5109000000.0 -0.6268 -0.8888
5112000000.0 -1.038 -0.1075
5116000000.0 -0.7798 0.7367
5119000000.0 0.06834 1.028
5122000000.0 0.8031 0.615
5125000000.0 0.9946 -0.2346
5128000000.0 0.4141 -0.9144
5131000000.0 -0.4118 -0.9273
5134000000.0 -0.9674 -0.2536
5138000000.0 -0.8038 0.5732
5141000000.0 -0.04121 0.9875
5144000000.0 0.7264 0.6172
5147000000.0 0.914 -0.1638
5150000000.0 0.4865 -0.843
5153000000.0 -0.3118 -0.8543
5156000000.0 -0.8401 -0.2967
5159000000.0 -0.7511 0.4683
5162000000.0 -0.1329 0.9209
5166000000.0 0.6147 0.6809
5169000000.0 0.8924 -0.06382
5172000000.0 0.525 -0.759
5175000000.0 -0.2207 -0.8546
5178000000.0 -0.8429 -0.3542
5181000000.0 -0.81 0.4014
5184000000.0 -0.1484 0.9105
5188000000.0 0.6122 0.6767
5191000000.0 0.9183 -0.05332
5194000000.0 0.548 -0.7286
5197000000.0 -0.2414 -0.9132
5200000000.0 -0.8674 -0.3615
5203000000.0 -0.8503 0.4466
5206000000.0 -0.1893 0.9568
5209000000.0 0.5901 0.7022
5212000000.0 0.9723 -0.01814
5216000000.0 0.61 -0.7657
5219000000.0 -0.2054 -0.9346
5222000000.0 -0.8875 -0.4326
5225000000.0 -0.8915 0.4035
5228000000.0 -0.2451 0.975
5231000000.0 0.6141 0.8145
5234000000.0 1.018 0.04442
5238000000.0 0.6859 -0.7644
5241000000.0 -0.1478 -1.028
5244000000.0 -0.8844 -0.5419
5247000000.0 -0.9746 0.3632
5250000000.0 -0.3784 1.006
5253000000.0 0.5252 0.9191
5256000000.0 1.053 0.1555
5259000000.0 0.8117 -0.6891
5262000000.0 -0.01853 -1.054
5266000000.0 -0.8282 -0.6867
5269000000.0 -1.076 0.1966
5272000000.0 -0.5295 0.9303
5275000000.0 0.3385 1.019
5278000000.0 1.015 0.4038
5281000000.0 0.9512 -0.5261
5284000000.0 0.2086 -1.077
5288000000.0 -0.6482 -0.8461
5291000000.0 -1.087 -0.04408
5294000000.0 -0.7407 0.8337
5297000000.0 0.1622 1.086
5300000000.0 0.9356 0.6003
5303000000.0 1.078 -0.3123
5306000000.0 0.4484 -1.046
5309000000.0 -0.5111 -1.021
5312000000.0 -1.1 -0.2822
5316000000.0 -0.9304 0.6737
5319000000.0 -0.08795 1.121
5322000000.0 0.85 0.8332
5325000000.0 1.129 -0.1265
5328000000.0 0.6357 -0.9518
5331000000.0 -0.3335 -1.076
5334000000.0 -1.052 -0.4474
5338000000.0 -1.006 0.5132
5341000000.0 -0.2155 1.098
5344000000.0 0.6854 0.8496
5347000000.0 1.118 0.03145
5350000000.0 0.7146 -0.8464
5353000000.0 -0.1803 -1.086
5356000000.0 -0.9504 -0.5292
5359000000.0 -0.9802 0.4335
5362000000.0 -0.3377 1.027
5366000000.0 0.5873 0.8916
5369000000.0 1.035 0.1135
5372000000.0 0.7414 -0.7801
5375000000.0 -0.175 -0.9992
5378000000.0 -0.8715 -0.5294
5381000000.0 -0.9564 0.3765
5384000000.0 -0.3389 0.9689
5388000000.0 0.5733 0.8121
5391000000.0 0.9586 0.04448
5394000000.0 0.6339 -0.6668
5397000000.0 -0.1336 -0.9378
5400000000.0 -0.7744 -0.4561
5403000000.0 -0.8173 0.3234
5406000000.0 -0.2545 0.8674
5409000000.0 0.4977 0.7212
5412000000.0 0.8779 0.09433
5416000000.0 0.5868 -0.6388
5419000000.0 -0.1358 -0.8506
5422000000.0 -0.7824 -0.4519
5425000000.0 -0.799 0.2936
5428000000.0 -0.2324 0.8682
5431000000.0 0.4899 0.7201
5434000000.0 0.8935 0.04575
5438000000.0 0.6019 -0.6262
5441000000.0 -0.14 -0.8379
5444000000.0 -0.736 -0.4309
5447000000.0 -0.8188 0.3096
5450000000.0 -0.2472 0.8445
5453000000.0 0.4726 0.7444
5456000000.0 0.8987 0.07786
5459000000.0 0.624 -0.6469
5462000000.0 -0.1006 -0.902
5466000000.0 -0.7371 -0.5069
5469000000.0 -0.8631 0.2631
5472000000.0 -0.3666 0.8218
5475000000.0 0.4445 0.8141
5478000000.0 0.8862 0.1952
5481000000.0 0.7678 -0.5749
5484000000.0 0.08951 -0.9413
5488000000.0 -0.7231 -0.6596
5491000000.0 -0.9529 0.09288
5494000000.0 -0.5378 0.8165
5497000000.0 0.302 0.9789
5500000000.0 0.9066 0.3771
5503000000.0 0.9027 -0.5234
5506000000.0 0.2336 -0.9556
5509000000.0 -0.6339 -0.778
5512000000.0 -1.029 -0.06033
5516000000.0 -0.7058 0.7364
5519000000.0 0.1267 1.029
5522000000.0 0.8801 0.5709
5525000000.0 0.9832 -0.3144
5528000000.0 0.3957 -0.9457
5531000000.0 -0.4464 -0.9342
5534000000.0 -1.043 -0.2207
5538000000.0 -0.8524 0.6113
5541000000.0 -0.05914 1.058
5544000000.0 0.7793 0.745
5547000000.0 1.036 -0.1288
5550000000.0 0.5629 -0.8901
5553000000.0 -0.2838 -0.9993
5556000000.0 -0.9574 -0.424
5559000000.0 -0.9521 0.4899
5562000000.0 -0.2349 0.9985
5566000000.0 0.6358 0.7858
5569000000.0 1.051 0.002229
5572000000.0 0.6632 -0.7686
5575000000.0 -0.2129 -1.006
5578000000.0 -0.8532 -0.4944
5581000000.0 -0.9097 0.328
5584000000.0 -0.325 0.9486
5588000000.0 0.4994 0.8347
5591000000.0 0.9655 0.1147
5594000000.0 0.7054 -0.6237
5597000000.0 -0.0391 -0.9415
5600000000.0 -0.7531 -0.5513
5603000000.0 -0.8844 0.2298
5606000000.0 -0.3875 0.8138
5609000000.0 0.3874 0.8175
5612000000.0 0.8656 0.2206
5616000000.0 0.6778 -0.5067
5619000000.0 0.01134 -0.868
5622000000.0 -0.6391 -0.5648
5625000000.0 -0.8276 0.1372
5628000000.0 -0.3891 0.7348
5631000000.0 0.3227 0.7906
5634000000.0 0.8221 0.2622
5638000000.0 0.6765 -0.4749
5641000000.0 0.05915 -0.8455
5644000000.0 -0.6331 -0.5588
5647000000.0 -0.8266 0.1655
5650000000.0 -0.4345 0.7221
5653000000.0 0.3088 0.7808
5656000000.0 0.8116 0.2517
5659000000.0 0.696 -0.4807
5662000000.0 0.06426 -0.8528
5666000000.0 -0.6126 -0.5875
5669000000.0 -0.8623 0.1221
5672000000.0 -0.4575 0.7776
5675000000.0 0.3057 0.8166
5678000000.0 0.8766 0.2901
5681000000.0 0.7789 -0.5044
5684000000.0 0.0878 -0.947
5688000000.0 -0.6675 -0.6409
5691000000.0 -0.9132 0.1124
5694000000.0 -0.5131 0.8187
5697000000.0 0.3033 0.9248
5700000000.0 0.9574 0.3164
5703000000.0 0.834 -0.5223
5706000000.0 0.179 -1.006
5709000000.0 -0.6917 -0.7594
5712000000.0 -1.041 0.07987
5716000000.0 -0.6282 0.81
5719000000.0 0.2276 1.009
5722000000.0 0.9265 0.451
5725000000.0 0.9675 -0.4688
5728000000.0 0.2446 -1.039
5731000000.0 -0.6358 -0.8392
5734000000.0 -1.072 -0.073
5738000000.0 -0.7528 0.761
5741000000.0 0.09079 1.097
5744000000.0 0.9278 0.5952
5747000000.0 1.056 -0.3129
5750000000.0 0.4478 -0.972
5753000000.0 -0.4544 -0.9913
5756000000.0 -1.11 -0.2375
5759000000.0 -0.8522 0.6833
5762000000.0 -0.03117 1.088
5766000000.0 0.8355 0.7405
5769000000.0 1.119 -0.1475
5772000000.0 0.5572 -0.92
5775000000.0 -0.3185 -1.054
5778000000.0 -1.013 -0.4029
5781000000.0 -0.9759 0.5104
5784000000.0 -0.2173 1.053
5788000000.0 0.6661 0.8127
5791000000.0 1.11 0.03936
5794000000.0 0.7249 -0.8146
5797000000.0 -0.1996 -1.044
5800000000.0 -0.888 -0.5338
5803000000.0 -0.9978 0.3567
5806000000.0 -0.3498 0.9827
5809000000.0 0.5508 0.9008
5812000000.0 1.024 0.1489
5816000000.0 0.7707 -0.6974
5819000000.0 -0.0706 -1.048
5822000000.0 -0.8411 -0.591
5825000000.0 -0.9912 0.2657
5828000000.0 -0.4432 0.881
5831000000.0 0.4143 0.898
5834000000.0 0.9312 0.2265
5838000000.0 0.7542 -0.5896
5841000000.0 0.01693 -0.9564
5844000000.0 -0.7122 -0.6228
5847000000.0 -0.9283 0.1726
5850000000.0 -0.4564 0.8108
5853000000.0 0.3392 0.8603
5856000000.0 0.8926 0.254
5859000000.0 0.7444 -0.5622
5862000000.0 0.02156 -0.9432
5866000000.0 -0.6944 -0.5787
5869000000.0 -0.8542 0.1528
5872000000.0 -0.4614 0.7808
5875000000.0 0.3036 0.823
5878000000.0 0.8285 0.2708
5881000000.0 0.7381 -0.4548
5884000000.0 0.07417 -0.8541
5888000000.0 -0.6372 -0.6144
5891000000.0 -0.8418 0.08977
5894000000.0 -0.479 0.7167
5897000000.0 0.2767 0.842
5900000000.0 0.8036 0.3002
5903000000.0 0.746 -0.4504
5906000000.0 0.1284 -0.85
5909000000.0 -0.5672 -0.6549
5912000000.0 -0.8457 0.02144
5916000000.0 -0.5172 0.7076
5919000000.0 0.2273 0.8424
5922000000.0 0.792 0.3785
5925000000.0 0.8013 -0.3521
5928000000.0 0.2129 -0.8516
5931000000.0 -0.4993 -0.7158
5934000000.0 -0.878 -0.06294
5938000000.0 -0.6271 0.6266
5941000000.0 0.1236 0.865
5944000000.0 0.7264 0.4883
5947000000.0 0.8364 -0.2874
5950000000.0 0.3297 -0.8253
5953000000.0 -0.3974 -0.7816
5956000000.0 -0.9105 -0.2057
5959000000.0 -0.7179 0.5641
5962000000.0 -0.0401 0.9563
5966000000.0 0.6929 0.6083
5969000000.0 0.9423 -0.1341
5972000000.0 0.498 -0.8249
5975000000.0 -0.3082 -0.8959
5978000000.0 -0.8958 -0.3328
5981000000.0 -0.8554 0.4684
5984000000.0 -0.1665 0.9662
5988000000.0 0.6135 0.7273
5991000000.0 0.9821 0.002568
5994000000.0 0.6318 -0.7762
5997000000.0 -0.1646 -0.9902
6000000000.0 -0.8829 -0.5134
6003000000.0 -0.9284 0.3407
6006000000.0 -0.3134 0.9359
6009000000.0 0.5407 0.8475
6012000000.0 0.9661 0.1413
6016000000.0 0.7395 -0.6613
6019000000.0 -0.05207 -1.026
6022000000.0 -0.7896 -0.5507
6025000000.0 -0.9743 0.2624
6028000000.0 -0.4182 0.9166
6031000000.0 0.4332 0.8651
6034000000.0 0.9596 0.2095
6038000000.0 0.7551 -0.5979
6041000000.0 0.02001 -0.9389
6044000000.0 -0.7333 -0.6006
6047000000.0 -0.9261 0.1639
6050000000.0 -0.4822 0.8219
6053000000.0 0.3625 0.8896
6056000000.0 0.9075 0.2899
6059000000.0 0.7551 -0.5162
6062000000.0 0.0753 -0.8995
6066000000.0 -0.6631 -0.6327
6069000000.0 -0.9151 0.1106
6072000000.0 -0.4759 0.765
6075000000.0 0.2899 0.8464
6078000000.0 0.812 0.2851
6081000000.0 0.7629 -0.4632
6084000000.0 0.1387 -0.8658
6088000000.0 -0.5815 -0.6141
6091000000.0 -0.8558 0.0747
6094000000.0 -0.4928 0.6763
6097000000.0 0.2585 0.85
6100000000.0 0.7496 0.2997
6103000000.0 0.7481 -0.4063
6106000000.0 0.1423 -0.8352
6109000000.0 -0.5451 -0.6257
6112000000.0 -0.8497 0.0131
6116000000.0 -0.4971 0.6818
6119000000.0 0.2003 0.8242
6122000000.0 0.7856 0.3847
6125000000.0 0.756 -0.3929
6128000000.0 0.2005 -0.8288
6131000000.0 -0.5515 -0.6657
6134000000.0 -0.8736 -0.01996
6138000000.0 -0.5519 0.6709
6141000000.0 0.16 0.8409
6144000000.0 0.7579 0.438
6147000000.0 0.8264 -0.3112
6150000000.0 0.2523 -0.8786
6153000000.0 -0.4915 -0.7379
6156000000.0 -0.8788 -0.08097
6159000000.0 -0.6547 0.6451
6162000000.0 0.06633 0.9158
6166000000.0 0.7696 0.5147
6169000000.0 0.8725 -0.2932
6172000000.0 0.3071 -0.8488
6175000000.0 -0.4322 -0.826
6178000000.0 -0.9488 -0.1665
6181000000.0 -0.7285 0.63
6184000000.0 0.02945 0.9639
6188000000.0 0.7648 0.5825
6191000000.0 0.8977 -0.2241
6194000000.0 0.4402 -0.8526
6197000000.0 -0.4002 -0.8511
6200000000.0 -0.8946 -0.2523
6203000000.0 -0.7916 0.5106
6206000000.0 -0.07139 0.9343
6209000000.0 0.6695 0.6511
6212000000.0 0.9131 -0.09496
6216000000.0 0.4896 -0.7863
6219000000.0 -0.2717 -0.8928
6222000000.0 -0.8405 -0.3557
6225000000.0 -0.8035 0.4287
6228000000.0 -0.1901 0.8885
6231000000.0 0.5565 0.716
6234000000.0 0.8955 0.0235
6238000000.0 0.5996 -0.6593
6241000000.0 -0.1347 -0.858
6244000000.0 -0.7625 -0.4321
6247000000.0 -0.7905 0.2638
6250000000.0 -0.2924 0.7766
6253000000.0 0.4249 0.7289
6256000000.0 0.8348 0.1039
6259000000.0 0.6328 -0.566
6262000000.0 -0.02728 -0.8001
6266000000.0 -0.6128 -0.5099
6269000000.0 -0.8005 0.1397
