! Created with skrf 1.8.0 (http://scikit-rf.org).
# Hz S RI R 50.0 
!freq ReS11 ImS11
4000000000.0 -0.2105 -1.44
4003000000.0 -1.27 -0.7515
4006000000.0 -1.392 0.517
4009000000.0 -0.4542 1.429
4012000000.0 0.8174 1.261
4016000000.0 1.499 0.1361
4019000000.0 1.071 -1.101
4022000000.0 -0.1809 -1.526
4025000000.0 -1.35 -0.8785
4028000000.0 -1.511 0.5414
4031000000.0 -0.5039 1.521
4034000000.0 0.8331 1.41
4038000000.0 1.592 0.1543
4041000000.0 1.1 -1.15
4044000000.0 -0.1601 -1.632
4047000000.0 -1.377 -0.8892
4050000000.0 -1.551 0.4865
4053000000.0 -0.5891 1.466
4056000000.0 0.7837 1.38
4059000000.0 1.584 0.2935
4062000000.0 1.153 -1.072
4066000000.0 -0.05784 -1.652
4069000000.0 -1.231 -1.016
4072000000.0 -1.585 0.3329
4075000000.0 -0.7478 1.45
4078000000.0 0.6183 1.505
4081000000.0 1.568 0.4412
4084000000.0 1.362 -0.9173
4088000000.0 0.1718 -1.658
4091000000.0 -1.15 -1.124
4094000000.0 -1.586 0.1559
4097000000.0 -0.9423 1.329
4100000000.0 0.4067 1.519
4103000000.0 1.419 0.6535
4106000000.0 1.394 -0.6917
4109000000.0 0.3851 -1.449
4112000000.0 -0.8591 -1.254
4116000000.0 -1.487 -0.1402
4119000000.0 -1.049 1.064
4122000000.0 0.08011 1.48
4125000000.0 1.141 0.8992
4128000000.0 1.402 -0.2852
4131000000.0 0.7318 -1.297
4134000000.0 -0.4763 -1.368
4138000000.0 -1.378 -0.5452
4141000000.0 -1.285 0.6996
4144000000.0 -0.2898 1.457
4147000000.0 0.8831 1.199
4150000000.0 1.52 0.0905
4153000000.0 1.016 -1.117
4156000000.0 -0.1922 -1.506
4159000000.0 -1.278 -0.8185
4162000000.0 -1.418 0.4267
4166000000.0 -0.5593 1.376
4169000000.0 0.6928 1.326
4172000000.0 1.451 0.332
4175000000.0 1.206 -0.8967
4178000000.0 0.08224 -1.473
4181000000.0 -1.118 -0.987
4184000000.0 -1.458 0.1961
4188000000.0 -0.8195 1.269
4191000000.0 0.4554 1.44
4194000000.0 1.422 0.569
4197000000.0 1.35 -0.7516
4200000000.0 0.3039 -1.506
4203000000.0 -1.022 -1.185
4206000000.0 -1.615 0.09939
4209000000.0 -0.9576 1.325
4212000000.0 0.4984 1.586
4216000000.0 1.573 0.5674
4219000000.0 1.456 -0.8657
4222000000.0 0.1647 -1.655
4225000000.0 -1.229 -1.148
4228000000.0 -1.615 0.2557
4231000000.0 -0.7793 1.489
4234000000.0 0.7169 1.5
4238000000.0 1.577 0.3322
4241000000.0 1.198 -1.087
4244000000.0 -0.08014 -1.614
4247000000.0 -1.278 -0.8599
4250000000.0 -1.454 0.4985
4253000000.0 -0.5459 1.455
4256000000.0 0.8014 1.263
4259000000.0 1.533 0.1223
4262000000.0 1.002 -1.073
4266000000.0 -0.2623 -1.467
4269000000.0 -1.262 -0.7356
4272000000.0 -1.351 0.5833
4275000000.0 -0.3709 1.381
4278000000.0 0.871 1.144
4281000000.0 1.439 0.02181
4284000000.0 0.8984 -1.036
4288000000.0 -0.2757 -1.313
4291000000.0 -1.22 -0.5893
4294000000.0 -1.226 0.5623
4297000000.0 -0.3453 1.29
4300000000.0 0.7454 1.065
4303000000.0 1.303 0.1123
4306000000.0 0.9048 -0.9123
4309000000.0 -0.08955 -1.285
4312000000.0 -1.008 -0.7274
4316000000.0 -1.261 0.2934
4319000000.0 -0.5652 1.184
4322000000.0 0.5293 1.188
4325000000.0 1.243 0.3908
4328000000.0 1.081 -0.7186
4331000000.0 0.1645 -1.319
4334000000.0 -0.9216 -1.018
4338000000.0 -1.398 0.09821
4341000000.0 -0.7974 1.14
4344000000.0 0.3463 1.377
4347000000.0 1.276 0.6188
4350000000.0 1.287 -0.6194
4353000000.0 0.3527 -1.36
4356000000.0 -0.8669 -1.157
4359000000.0 -1.388 -0.1388
4362000000.0 -0.999 1.062
4366000000.0 0.1946 1.445
4369000000.0 1.229 0.8055
4372000000.0 1.392 -0.4463
4375000000.0 0.5524 -1.384
4378000000.0 -0.7204 -1.295
4381000000.0 -1.47 -0.28
4384000000.0 -1.17 0.9851
4388000000.0 0.04783 1.48
4391000000.0 1.209 0.9413
4394000000.0 1.519 -0.3463
4397000000.0 0.672 -1.413
4400000000.0 -0.6814 -1.411
4403000000.0 -1.518 -0.342
4406000000.0 -1.208 1.042
4409000000.0 0.06195 1.542
4412000000.0 1.254 0.9174
4416000000.0 1.469 -0.3929
4419000000.0 0.564 -1.404
4422000000.0 -0.761 -1.275
4425000000.0 -1.449 -0.2394
4428000000.0 -1.03 0.9908
4431000000.0 0.1554 1.404
4434000000.0 1.191 0.7506
4438000000.0 1.274 -0.4735
4441000000.0 0.4266 -1.282
4444000000.0 -0.7633 -1.116
4447000000.0 -1.327 -0.04203
4450000000.0 -0.8862 0.9699
4453000000.0 0.2584 1.259
4456000000.0 1.148 0.597
4459000000.0 1.129 -0.5343
4462000000.0 0.2616 -1.23
4466000000.0 -0.8016 -0.9061
4469000000.0 -1.194 0.03505
4472000000.0 -0.6814 0.9865
4475000000.0 0.3602 1.12
4478000000.0 1.095 0.4283
4481000000.0 0.9931 -0.59
4484000000.0 0.1174 -1.16
4488000000.0 -0.8131 -0.7963
4491000000.0 -1.123 0.1317
4494000000.0 -0.6157 0.9178
4497000000.0 0.3746 1.092
4500000000.0 1.042 0.4133
4503000000.0 0.9592 -0.5577
4506000000.0 0.1917 -1.074
4509000000.0 -0.7555 -0.8351
4512000000.0 -1.136 0.0361
4516000000.0 -0.6246 0.9096
4519000000.0 0.279 1.078
4522000000.0 1.034 0.4887
4525000000.0 1.052 -0.5175
4528000000.0 0.2653 -1.136
4531000000.0 -0.7176 -0.9195
4534000000.0 -1.148 -0.05152
4538000000.0 -0.7668 0.9224
4541000000.0 0.2071 1.199
4544000000.0 1.053 0.6077
4547000000.0 1.163 -0.4093
4550000000.0 0.4227 -1.154
4553000000.0 -0.6275 -1.052
4556000000.0 -1.222 -0.2364
4559000000.0 -0.976 0.8096
4562000000.0 0.001977 1.258
4566000000.0 0.9698 0.8386
4569000000.0 1.28 -0.2234
4572000000.0 0.6404 -1.097
4575000000.0 -0.4442 -1.247
4578000000.0 -1.232 -0.4816
4581000000.0 -1.15 0.6633
4584000000.0 -0.2047 1.322
4588000000.0 0.921 1.016
4591000000.0 1.357 -0.03845
4594000000.0 0.8414 -1.073
4597000000.0 -0.286 -1.35
4600000000.0 -1.227 -0.6342
4603000000.0 -1.293 0.558
4606000000.0 -0.3721 1.364
4609000000.0 0.8156 1.136
4612000000.0 1.401 0.08815
4616000000.0 0.9515 -1.011
4619000000.0 -0.1913 -1.386
4622000000.0 -1.183 -0.7243
4625000000.0 -1.321 0.4877
4628000000.0 -0.4856 1.281
4631000000.0 0.7125 1.159
4634000000.0 1.351 0.1773
4638000000.0 0.9705 -0.9102
4641000000.0 -0.09791 -1.336
4644000000.0 -1.121 -0.7448
4647000000.0 -1.254 0.4076
4650000000.0 -0.4438 1.23
4653000000.0 0.6723 1.101
4656000000.0 1.241 0.1744
4659000000.0 0.8983 -0.8874
4662000000.0 -0.1316 -1.227
4666000000.0 -1.037 -0.6396
4669000000.0 -1.122 0.4029
4672000000.0 -0.3591 1.115
4675000000.0 0.6525 0.9509
4678000000.0 1.134 0.1388
4681000000.0 0.7942 -0.7886
4684000000.0 -0.1557 -1.107
4688000000.0 -0.9521 -0.5715
4691000000.0 -1.04 0.3893
4694000000.0 -0.3555 1.034
4697000000.0 0.5976 0.9349
4700000000.0 1.069 0.1078
4703000000.0 0.7816 -0.8061
4706000000.0 -0.1396 -1.065
4709000000.0 -0.9316 -0.5597
4712000000.0 -0.9991 0.3726
4716000000.0 -0.3264 1.003
4719000000.0 0.5653 0.8967
4722000000.0 1.047 0.1231
4725000000.0 0.7456 -0.7618
4728000000.0 -0.1435 -1.062
4731000000.0 -0.8903 -0.5486
4734000000.0 -0.9831 0.3152
4738000000.0 -0.4057 0.9775
4741000000.0 0.5199 0.919
4744000000.0 1.026 0.1965
4747000000.0 0.7913 -0.6931
4750000000.0 0.03751 -1.101
4753000000.0 -0.8269 -0.7554
4756000000.0 -1.066 0.1823
4759000000.0 -0.5639 0.961
4762000000.0 0.3844 1.061
4766000000.0 1.076 0.3672
4769000000.0 0.9948 -0.5717
4772000000.0 0.2027 -1.146
4775000000.0 -0.7725 -0.9145
4778000000.0 -1.214 0.01167
4781000000.0 -0.7633 0.9313
4784000000.0 0.21 1.195
4788000000.0 1.067 0.6281
4791000000.0 1.148 -0.4134
4794000000.0 0.4476 -1.188
4797000000.0 -0.6291 -1.104
4800000000.0 -1.243 -0.2416
4803000000.0 -0.9625 0.7574
4806000000.0 -0.02712 1.263
4809000000.0 0.9508 0.8637
4812000000.0 1.295 -0.1718
4816000000.0 0.6894 -1.102
4819000000.0 -0.4183 -1.253
4822000000.0 -1.278 -0.4482
4825000000.0 -1.17 0.6838
4828000000.0 -0.2228 1.356
4831000000.0 0.9103 1.044
4834000000.0 1.391 -0.05294
4838000000.0 0.8406 -1.101
4841000000.0 -0.3055 -1.351
4844000000.0 -1.236 -0.6189
4847000000.0 -1.272 0.5643
4850000000.0 -0.3404 1.35
4853000000.0 0.8244 1.085
4856000000.0 1.354 0.08788
4859000000.0 0.9099 -1.013
4862000000.0 -0.2266 -1.298
4866000000.0 -1.128 -0.6795
4869000000.0 -1.2 0.4735
4872000000.0 -0.3711 1.245
4875000000.0 0.6993 1.058
4878000000.0 1.252 0.148
4881000000.0 0.8987 -0.8572
4884000000.0 -0.1252 -1.204
4888000000.0 -1.01 -0.6602
4891000000.0 -1.116 0.3565
4894000000.0 -0.4054 1.068
4897000000.0 0.5764 0.9909
4900000000.0 1.07 0.1599
4903000000.0 0.7996 -0.7482
4906000000.0 -0.06818 -1.05
4909000000.0 -0.861 -0.6083
4912000000.0 -0.9564 0.2682
4916000000.0 -0.3797 0.9076
4919000000.0 0.4337 0.8692
4922000000.0 0.96 0.1906
4925000000.0 0.7488 -0.619
4928000000.0 0.01817 -0.9338
4931000000.0 -0.701 -0.6011
4934000000.0 -0.9264 0.1906
4938000000.0 -0.4518 0.8047
4941000000.0 0.3643 0.8807
4944000000.0 0.8736 0.2817
4947000000.0 0.8062 -0.5181
4950000000.0 0.09632 -0.9615
4953000000.0 -0.6806 -0.6995
4956000000.0 -0.9631 0.07322
4959000000.0 -0.5665 0.8039
4962000000.0 0.2791 0.9165
4966000000.0 0.9255 0.3556
4969000000.0 0.8659 -0.4803
4972000000.0 0.1937 -0.9819
4975000000.0 -0.6728 -0.812
4978000000.0 -1.023 0.0102
4981000000.0 -0.6439 0.8026
4984000000.0 0.2143 1.045
4988000000.0 0.9436 0.4984
4991000000.0 1.002 -0.4033
4994000000.0 0.3496 -1.055
4997000000.0 -0.6048 -0.9337
5000000000.0 -1.11 -0.1793
5003000000.0 -0.861 0.7633
5006000000.0 0.06515 1.179
5009000000.0 0.9635 0.6972
5012000000.0 1.172 -0.2853
5016000000.0 0.5482 -1.145
5019000000.0 -0.5648 -1.111
5022000000.0 -1.226 -0.3042
5025000000.0 -1.047 0.7683
5028000000.0 -0.07198 1.282
5031000000.0 0.9586 0.883
5034000000.0 1.251 -0.1582
5038000000.0 0.6844 -1.092
5041000000.0 -0.4242 -1.204
5044000000.0 -1.173 -0.4747
5047000000.0 -1.143 0.6072
5050000000.0 -0.2662 1.256
5053000000.0 0.7648 0.9881
5056000000.0 1.26 0.03022
5059000000.0 0.8637 -0.9984
5062000000.0 -0.2019 -1.298
5066000000.0 -1.121 -0.6458
5069000000.0 -1.2 0.4321
5072000000.0 -0.4435 1.202
5075000000.0 0.6551 1.073
5078000000.0 1.227 0.2253
5081000000.0 0.9344 -0.8147
5084000000.0 0.001645 -1.209
5088000000.0 -0.9303 -0.7262
5091000000.0 -1.187 0.2536
5094000000.0 -0.5671 1.022
5097000000.0 0.4091 1.03
5100000000.0 1.055 0.3797
5103000000.0 0.9403 -0.5951
5106000000.0 0.1348 -1.072
5109000000.0 -0.7049 -0.8051
5112000000.0 -1.087 0.002095
5116000000.0 -0.6169 0.8285
5119000000.0 0.2094 1.008
5122000000.0 0.8981 0.4681
5125000000.0 0.919 -0.3988
5128000000.0 0.2792 -0.9672
5131000000.0 -0.5313 -0.8302
5134000000.0 -0.9476 -0.1275
5138000000.0 -0.6447 0.7084
5141000000.0 0.1079 0.9554
5144000000.0 0.7685 0.5043
5147000000.0 0.8892 -0.2928
5150000000.0 0.3261 -0.8358
5153000000.0 -0.4143 -0.8106
5156000000.0 -0.9071 -0.1412
5159000000.0 -0.6873 0.5601
5162000000.0 0.01231 0.8396
5166000000.0 0.7136 0.5717
5169000000.0 0.8743 -0.2017
5172000000.0 0.3908 -0.8321
5175000000.0 -0.3816 -0.8259
5178000000.0 -0.8717 -0.1839
5181000000.0 -0.7053 0.588
5184000000.0 -0.000816 0.8982
5188000000.0 0.7265 0.5939
5191000000.0 0.9037 -0.1611
5194000000.0 0.3853 -0.8267
5197000000.0 -0.4129 -0.8325
5200000000.0 -0.9081 -0.2155
5203000000.0 -0.7558 0.5995
5206000000.0 -0.01256 0.9798
5209000000.0 0.7464 0.6497
5212000000.0 0.9527 -0.1933
5216000000.0 0.4765 -0.8896
5219000000.0 -0.3909 -0.9106
5222000000.0 -0.958 -0.2794
5225000000.0 -0.8323 0.5761
5228000000.0 -0.08655 0.9951
5231000000.0 0.7113 0.7052
5234000000.0 1.039 -0.1093
5238000000.0 0.5781 -0.8686
5241000000.0 -0.3017 -1.006
5244000000.0 -0.9885 -0.3955
5247000000.0 -0.9294 0.4913
5250000000.0 -0.2355 1.048
5253000000.0 0.6552 0.8569
5256000000.0 1.053 0.04204
5259000000.0 0.7239 -0.7862
5262000000.0 -0.1717 -1.074
5266000000.0 -0.9264 -0.5655
5269000000.0 -1.037 0.3256
5272000000.0 -0.4125 1.048
5275000000.0 0.4997 0.9415
5278000000.0 1.057 0.2323
5281000000.0 0.8724 -0.6682
5284000000.0 0.07519 -1.095
5288000000.0 -0.8212 -0.7735
5291000000.0 -1.1 0.1471
5294000000.0 -0.5807 0.9301
5297000000.0 0.3078 1.082
5300000000.0 1.041 0.4596
5303000000.0 1.027 -0.487
5306000000.0 0.2815 -1.077
5309000000.0 -0.6434 -0.9268
5312000000.0 -1.114 -0.1035
5316000000.0 -0.7939 0.7767
5319000000.0 0.1281 1.146
5322000000.0 0.9379 0.6551
5325000000.0 1.107 -0.3529
5328000000.0 0.4271 -1.059
5331000000.0 -0.5059 -1.01
5334000000.0 -1.115 -0.229
5338000000.0 -0.8685 0.6524
5341000000.0 -0.05298 1.116
5344000000.0 0.8385 0.7287
5347000000.0 1.092 -0.1769
5350000000.0 0.5357 -0.9245
5353000000.0 -0.4081 -1.036
5356000000.0 -1.034 -0.2961
5359000000.0 -0.8806 0.5756
5362000000.0 -0.0677 1.027
5366000000.0 0.7535 0.7203
5369000000.0 1.005 -0.1468
5372000000.0 0.5083 -0.8784
5375000000.0 -0.346 -0.9294
5378000000.0 -0.9102 -0.291
5381000000.0 -0.812 0.5278
5384000000.0 -0.08822 0.9705
5388000000.0 0.7101 0.638
5391000000.0 0.9195 -0.1469
5394000000.0 0.4523 -0.8373
5397000000.0 -0.3392 -0.842
5400000000.0 -0.8462 -0.2417
5403000000.0 -0.7058 0.5161
5406000000.0 -0.01904 0.8559
5409000000.0 0.6669 0.5586
5412000000.0 0.8252 -0.1769
5416000000.0 0.3596 -0.7626
5419000000.0 -0.3397 -0.7997
5422000000.0 -0.8395 -0.2163
5425000000.0 -0.6854 0.517
5428000000.0 -0.05268 0.8839
5431000000.0 0.6989 0.5504
5434000000.0 0.8887 -0.1612
5438000000.0 0.4104 -0.7704
5441000000.0 -0.3554 -0.8157
5444000000.0 -0.8285 -0.2399
5447000000.0 -0.7445 0.5341
5450000000.0 -0.07311 0.9017
5453000000.0 0.6506 0.5923
5456000000.0 0.9141 -0.121
5459000000.0 0.448 -0.7727
5462000000.0 -0.2795 -0.8453
5466000000.0 -0.8548 -0.2904
5469000000.0 -0.8152 0.4831
5472000000.0 -0.1797 0.9352
5475000000.0 0.6028 0.7392
5478000000.0 0.9488 0.03985
5481000000.0 0.6231 -0.7293
5484000000.0 -0.1745 -0.9723
5488000000.0 -0.8328 -0.4823
5491000000.0 -0.954 0.3259
5494000000.0 -0.3475 0.9512
5497000000.0 0.5439 0.8703
5500000000.0 1.043 0.2034
5503000000.0 0.8151 -0.6709
5506000000.0 0.002948 -1.042
5509000000.0 -0.8114 -0.6768
5512000000.0 -1.024 0.171
5516000000.0 -0.5401 0.9171
5519000000.0 0.3508 1.006
5522000000.0 0.9629 0.3263
5525000000.0 0.919 -0.5163
5528000000.0 0.1556 -1.034
5531000000.0 -0.6603 -0.7959
5534000000.0 -1.022 -0.01902
5538000000.0 -0.6745 0.7983
5541000000.0 0.1385 1.063
5544000000.0 0.9428 0.5184
5547000000.0 1.0 -0.3644
5550000000.0 0.3235 -1.005
5553000000.0 -0.5327 -0.8916
5556000000.0 -1.014 -0.1316
5559000000.0 -0.7579 0.6882
5562000000.0 0.05428 1.001
5566000000.0 0.8197 0.6006
5569000000.0 0.9412 -0.262
5572000000.0 0.4251 -0.9005
5575000000.0 -0.4327 -0.8946
5578000000.0 -0.9515 -0.2256
5581000000.0 -0.7709 0.6005
5584000000.0 -0.05021 0.9459
5588000000.0 0.6757 0.6417
5591000000.0 0.9096 -0.1474
5594000000.0 0.453 -0.773
5597000000.0 -0.3088 -0.8131
5600000000.0 -0.826 -0.2749
5603000000.0 -0.7516 0.4656
5606000000.0 -0.09164 0.8511
5609000000.0 0.5789 0.6146
5612000000.0 0.8536 -0.0785
5616000000.0 0.4452 -0.7014
5619000000.0 -0.2377 -0.7848
5622000000.0 -0.7751 -0.283
5625000000.0 -0.6948 0.4143
5628000000.0 -0.1188 0.8099
5631000000.0 0.5752 0.6023
5634000000.0 0.8227 -0.05805
5638000000.0 0.4552 -0.6842
5641000000.0 -0.2555 -0.7731
5644000000.0 -0.7677 -0.2973
5647000000.0 -0.7138 0.4247
5650000000.0 -0.1377 0.8237
5653000000.0 0.5739 0.6349
5656000000.0 0.8612 -0.07905
5659000000.0 0.488 -0.7034
5662000000.0 -0.264 -0.8366
5666000000.0 -0.8157 -0.33
5669000000.0 -0.8085 0.4416
5672000000.0 -0.155 0.9176
5675000000.0 0.6239 0.6919
5678000000.0 0.927 -0.03117
5681000000.0 0.5531 -0.7783
5684000000.0 -0.2816 -0.9552
5688000000.0 -0.8996 -0.4011
5691000000.0 -0.9116 0.4421
5694000000.0 -0.2477 0.9775
5697000000.0 0.6289 0.7687
5700000000.0 1.032 0.01443
5703000000.0 0.6685 -0.7774
5706000000.0 -0.1844 -1.017
5709000000.0 -0.9299 -0.5003
5712000000.0 -0.9987 0.3915
5716000000.0 -0.3208 1.018
5719000000.0 0.5948 0.8848
5722000000.0 1.084 0.1318
5725000000.0 0.7594 -0.7389
5728000000.0 -0.08794 -1.091
5731000000.0 -0.9058 -0.658
5734000000.0 -1.068 0.2646
5738000000.0 -0.4463 0.9981
5741000000.0 0.4712 1.004
5744000000.0 1.084 0.285
5747000000.0 0.9385 -0.6133
5750000000.0 0.08324 -1.118
5753000000.0 -0.8196 -0.7537
5756000000.0 -1.078 0.1323
5759000000.0 -0.6155 0.8915
5762000000.0 0.3234 1.057
5766000000.0 1.016 0.4096
5769000000.0 0.9809 -0.54
5772000000.0 0.2521 -1.084
5775000000.0 -0.6818 -0.8947
5778000000.0 -1.103 -0.05436
5781000000.0 -0.7005 0.8269
5784000000.0 0.2032 1.081
5788000000.0 0.9349 0.5284
5791000000.0 0.9906 -0.3628
5794000000.0 0.3703 -0.9972
5797000000.0 -0.5321 -0.917
5800000000.0 -1.023 -0.1737
5803000000.0 -0.7543 0.7156
5806000000.0 0.07032 1.011
5809000000.0 0.8116 0.6139
5812000000.0 0.949 -0.2692
5816000000.0 0.4207 -0.9277
5819000000.0 -0.4191 -0.8359
5822000000.0 -0.986 -0.2114
5825000000.0 -0.7502 0.6085
5828000000.0 0.04358 0.9627
5831000000.0 0.7571 0.5987
5834000000.0 0.9168 -0.2116
5838000000.0 0.4041 -0.8194
5841000000.0 -0.3747 -0.8246
5844000000.0 -0.8971 -0.2008
5847000000.0 -0.7087 0.5399
5850000000.0 -0.01018 0.9241
5853000000.0 0.6763 0.5552
5856000000.0 0.8831 -0.1745
5859000000.0 0.4278 -0.802
5862000000.0 -0.3637 -0.8319
5866000000.0 -0.8375 -0.219
5869000000.0 -0.7166 0.5292
5872000000.0 -0.01352 0.8586
5875000000.0 0.6874 0.5436
5878000000.0 0.8547 -0.1556
5881000000.0 0.3943 -0.7925
5884000000.0 -0.3618 -0.7958
5888000000.0 -0.8345 -0.2228
5891000000.0 -0.6717 0.5248
5894000000.0 -0.02841 0.8776
5897000000.0 0.6406 0.5675
5900000000.0 0.8271 -0.1667
5903000000.0 0.4619 -0.7751
5906000000.0 -0.2965 -0.8363
5909000000.0 -0.8121 -0.298
5912000000.0 -0.7421 0.4684
5916000000.0 -0.1111 0.8961
5919000000.0 0.5959 0.677
5922000000.0 0.8978 -0.04938
5925000000.0 0.5328 -0.7612
5928000000.0 -0.2234 -0.8846
5931000000.0 -0.8225 -0.3797
5934000000.0 -0.8399 0.388
5938000000.0 -0.251 0.8786
5941000000.0 0.5315 0.7546
5944000000.0 0.9406 0.08244
5947000000.0 0.657 -0.6626
5950000000.0 -0.1112 -0.9377
5953000000.0 -0.821 -0.5196
5956000000.0 -0.9421 0.2782
5959000000.0 -0.3594 0.9134
5962000000.0 0.4534 0.8617
5966000000.0 0.9655 0.2215
5969000000.0 0.7548 -0.6253
5972000000.0 0.02983 -1.029
5975000000.0 -0.7582 -0.627
5978000000.0 -0.9327 0.1824
5981000000.0 -0.5185 0.8724
5984000000.0 0.3633 0.9483
5988000000.0 0.9677 0.3198
5991000000.0 0.8693 -0.5732
5994000000.0 0.1351 -1.007
5997000000.0 -0.7038 -0.7319
6000000000.0 -1.005 0.09896
6003000000.0 -0.5428 0.8195
6006000000.0 0.3141 0.9537
6009000000.0 0.939 0.3602
6012000000.0 0.8526 -0.4785
6016000000.0 0.1789 -0.9262
6019000000.0 -0.6574 -0.7206
6022000000.0 -0.9426 0.06745
6025000000.0 -0.554 0.7476
6028000000.0 0.258 0.9056
6031000000.0 0.8426 0.3865
6034000000.0 0.8084 -0.42
6038000000.0 0.1958 -0.8804
6041000000.0 -0.569 -0.6775
6044000000.0 -0.8961 0.03909
6047000000.0 -0.5352 0.6958
6050000000.0 0.1898 0.8359
6053000000.0 0.7918 0.3426
6056000000.0 0.7607 -0.3981
6059000000.0 0.156 -0.8523
6062000000.0 -0.5419 -0.6457
6066000000.0 -0.837 0.06093
6069000000.0 -0.518 0.6674
6072000000.0 0.1948 0.8098
6075000000.0 0.7657 0.3474
6078000000.0 0.718 -0.3606
6081000000.0 0.1715 -0.8041
6084000000.0 -0.5269 -0.6537
6088000000.0 -0.8421 0.01272
6091000000.0 -0.5203 0.6579
6094000000.0 0.1701 0.8231
6097000000.0 0.756 0.3708
6100000000.0 0.8004 -0.3568
6103000000.0 0.2093 -0.8542
6106000000.0 -0.517 -0.7201
6109000000.0 -0.8638 -0.02465
6112000000.0 -0.5817 0.6538
6116000000.0 0.1687 0.9128
6119000000.0 0.825 0.4397
6122000000.0 0.8328 -0.3638
6125000000.0 0.2472 -0.8929
6128000000.0 -0.5509 -0.7592
6131000000.0 -0.9338 -0.05461
6134000000.0 -0.6467 0.7245
6138000000.0 0.1492 0.934
6141000000.0 0.8087 0.4848
6144000000.0 0.8979 -0.3587
6147000000.0 0.2843 -0.8972
6150000000.0 -0.5386 -0.8095
6153000000.0 -0.9617 -0.08618
6156000000.0 -0.6567 0.74
6159000000.0 0.1302 0.9872
6162000000.0 0.8311 0.5128
6166000000.0 0.9338 -0.3339
6169000000.0 0.3474 -0.9253
6172000000.0 -0.5361 -0.8673
6175000000.0 -0.9948 -0.1257
6178000000.0 -0.7158 0.7195
6181000000.0 0.0402 0.9647
6184000000.0 0.8382 0.5386
6188000000.0 0.9381 -0.2756
6191000000.0 0.3627 -0.9086
6194000000.0 -0.4571 -0.8573
6197000000.0 -0.9424 -0.1607
6200000000.0 -0.7636 0.6119
6203000000.0 0.01517 0.9462
6206000000.0 0.7653 0.5563
6209000000.0 0.917 -0.1831
6212000000.0 0.4292 -0.8316
6216000000.0 -0.3754 -0.8448
6219000000.0 -0.8821 -0.2286
6222000000.0 -0.7275 0.5366
6225000000.0 -0.03894 0.8918
6228000000.0 0.6776 0.5446
6231000000.0 0.8524 -0.1391
6234000000.0 0.4321 -0.7528
6238000000.0 -0.3078 -0.7767
6241000000.0 -0.8057 -0.2285
6244000000.0 -0.7383 0.4697
6247000000.0 -0.07017 0.8415
6250000000.0 0.6284 0.5668
6253000000.0 0.8269 -0.1168
6256000000.0 0.4277 -0.6798
6259000000.0 -0.2876 -0.7751
6262000000.0 -0.7654 -0.2919
6266000000.0 -0.698 0.4119
