! Created with skrf 1.8.0 (http://scikit-rf.org).
# Hz S RI R 50.0 
!freq ReS11 ImS11
4000000000.0 -0.2458 -1.489
4003000000.0 -1.297 -0.7569
4006000000.0 -1.338 0.5641
4009000000.0 -0.4328 1.386
4012000000.0 0.8301 1.26
4016000000.0 1.533 0.1167
4019000000.0 1.049 -1.107
4022000000.0 -0.2484 -1.542
4025000000.0 -1.364 -0.8324
4028000000.0 -1.475 0.5611
4031000000.0 -0.4825 1.536
4034000000.0 0.9445 1.376
4038000000.0 1.634 0.1635
4041000000.0 1.094 -1.185
4044000000.0 -0.2465 -1.594
4047000000.0 -1.396 -0.8152
4050000000.0 -1.532 0.5578
4053000000.0 -0.5601 1.518
4056000000.0 0.8526 1.314
4059000000.0 1.595 0.2343
4062000000.0 1.208 -1.101
4066000000.0 -0.1125 -1.634
4069000000.0 -1.297 -0.9414
4072000000.0 -1.544 0.385
4075000000.0 -0.7106 1.505
4078000000.0 0.6527 1.506
4081000000.0 1.557 0.4454
4084000000.0 1.323 -0.9377
4088000000.0 0.1315 -1.611
4091000000.0 -1.146 -1.121
4094000000.0 -1.612 0.1792
4097000000.0 -0.9168 1.376
4100000000.0 0.4451 1.532
4103000000.0 1.481 0.643
4106000000.0 1.397 -0.7151
4109000000.0 0.3643 -1.479
4112000000.0 -0.9048 -1.208
4116000000.0 -1.5 -0.1086
4119000000.0 -0.9973 1.049
4122000000.0 0.1402 1.444
4125000000.0 1.166 0.8899
4128000000.0 1.448 -0.3131
4131000000.0 0.6874 -1.268
4134000000.0 -0.531 -1.365
4138000000.0 -1.406 -0.4846
4141000000.0 -1.262 0.7079
4144000000.0 -0.2972 1.44
4147000000.0 0.9173 1.174
4150000000.0 1.472 0.02549
4153000000.0 1.03 -1.139
4156000000.0 -0.2274 -1.508
4159000000.0 -1.281 -0.7842
4162000000.0 -1.414 0.4674
4166000000.0 -0.5108 1.425
4169000000.0 0.7333 1.297
4172000000.0 1.472 0.2829
4175000000.0 1.158 -0.944
4178000000.0 0.06452 -1.487
4181000000.0 -1.125 -0.9745
4184000000.0 -1.478 0.2702
4188000000.0 -0.7699 1.313
4191000000.0 0.5468 1.437
4194000000.0 1.443 0.522
4197000000.0 1.285 -0.8116
4200000000.0 0.2081 -1.574
4203000000.0 -1.115 -1.153
4206000000.0 -1.577 0.1307
4209000000.0 -0.8679 1.381
4212000000.0 0.5336 1.515
4216000000.0 1.586 0.5417
4219000000.0 1.338 -0.927
4222000000.0 0.07406 -1.682
4225000000.0 -1.295 -1.095
4228000000.0 -1.598 0.3605
4231000000.0 -0.6898 1.495
4234000000.0 0.7288 1.438
4238000000.0 1.59 0.2434
4241000000.0 1.16 -1.12
4244000000.0 -0.1607 -1.577
4247000000.0 -1.334 -0.7582
4250000000.0 -1.431 0.5355
4253000000.0 -0.3938 1.46
4256000000.0 0.8958 1.273
4259000000.0 1.504 0.03846
4262000000.0 0.9275 -1.123
4266000000.0 -0.2731 -1.463
4269000000.0 -1.321 -0.6382
4272000000.0 -1.284 0.6576
4275000000.0 -0.3171 1.443
4278000000.0 0.9237 1.111
4281000000.0 1.414 -0.02341
4284000000.0 0.8259 -1.124
4288000000.0 -0.3271 -1.322
4291000000.0 -1.231 -0.5801
4294000000.0 -1.225 0.5841
4297000000.0 -0.3213 1.265
4300000000.0 0.8034 1.031
4303000000.0 1.285 0.05592
4306000000.0 0.8658 -0.976
4309000000.0 -0.1536 -1.264
4312000000.0 -1.042 -0.726
4316000000.0 -1.245 0.3678
4319000000.0 -0.5119 1.148
4322000000.0 0.5572 1.157
4325000000.0 1.263 0.3682
4328000000.0 1.06 -0.7883
4331000000.0 0.08267 -1.338
4334000000.0 -0.9742 -0.9758
4338000000.0 -1.367 0.1554
4341000000.0 -0.7881 1.16
4344000000.0 0.4388 1.363
4347000000.0 1.283 0.5491
4350000000.0 1.254 -0.6568
4353000000.0 0.2757 -1.401
4356000000.0 -0.8787 -1.148
4359000000.0 -1.484 -0.02436
4362000000.0 -0.9647 1.145
4366000000.0 0.248 1.462
4369000000.0 1.26 0.7433
4372000000.0 1.391 -0.5001
4375000000.0 0.4866 -1.411
4378000000.0 -0.7616 -1.285
4381000000.0 -1.487 -0.2087
4384000000.0 -1.117 1.028
4388000000.0 0.1283 1.561
4391000000.0 1.276 0.8947
4394000000.0 1.502 -0.4569
4397000000.0 0.5811 -1.472
4400000000.0 -0.7927 -1.351
4403000000.0 -1.566 -0.2344
4406000000.0 -1.11 1.096
4409000000.0 0.1747 1.528
4412000000.0 1.332 0.7534
4416000000.0 1.439 -0.5219
4419000000.0 0.4207 -1.429
4422000000.0 -0.8163 -1.192
4425000000.0 -1.427 -0.08223
4428000000.0 -0.9152 1.1
4431000000.0 0.275 1.379
4434000000.0 1.22 0.6503
4438000000.0 1.247 -0.5966
4441000000.0 0.3172 -1.276
4444000000.0 -0.7964 -1.02
4447000000.0 -1.314 0.03302
4450000000.0 -0.7644 1.041
4453000000.0 0.3595 1.237
4456000000.0 1.177 0.4371
4459000000.0 1.049 -0.6342
4462000000.0 0.1428 -1.227
4466000000.0 -0.8791 -0.8435
4469000000.0 -1.173 0.1801
4472000000.0 -0.6118 1.055
4475000000.0 0.4193 1.081
4478000000.0 1.108 0.3332
4481000000.0 0.9413 -0.6775
4484000000.0 0.05349 -1.186
4488000000.0 -0.8481 -0.7346
4491000000.0 -1.132 0.2062
4494000000.0 -0.5194 1.022
4497000000.0 0.4431 1.073
4500000000.0 1.096 0.3159
4503000000.0 0.9147 -0.6316
4506000000.0 0.04696 -1.11
4509000000.0 -0.8314 -0.7766
4512000000.0 -1.116 0.13
4516000000.0 -0.6134 0.9504
4519000000.0 0.3473 1.092
4522000000.0 1.096 0.4093
4525000000.0 1.021 -0.5812
4528000000.0 0.2018 -1.172
4531000000.0 -0.7638 -0.8852
4534000000.0 -1.212 0.06729
4538000000.0 -0.7303 0.9517
4541000000.0 0.28 1.195
4544000000.0 1.108 0.5516
4547000000.0 1.115 -0.4905
4550000000.0 0.3297 -1.169
4553000000.0 -0.6776 -1.014
4556000000.0 -1.224 -0.1406
4559000000.0 -0.9003 0.8707
4562000000.0 0.08394 1.27
4566000000.0 1.017 0.7754
4569000000.0 1.276 -0.3107
4572000000.0 0.5954 -1.172
4575000000.0 -0.5337 -1.227
4578000000.0 -1.276 -0.3577
4581000000.0 -1.138 0.733
4584000000.0 -0.1445 1.362
4588000000.0 0.9721 0.9811
4591000000.0 1.415 -0.1049
4594000000.0 0.7866 -1.177
4597000000.0 -0.3951 -1.344
4600000000.0 -1.29 -0.5283
4603000000.0 -1.243 0.649
4606000000.0 -0.2835 1.366
4609000000.0 0.8991 1.078
4612000000.0 1.418 0.003374
4616000000.0 0.8913 -1.095
4619000000.0 -0.2847 -1.363
4622000000.0 -1.214 -0.6383
4625000000.0 -1.26 0.5818
4628000000.0 -0.3662 1.321
4631000000.0 0.8069 1.093
4634000000.0 1.348 0.04357
4638000000.0 0.8965 -1.016
4641000000.0 -0.1882 -1.294
4644000000.0 -1.164 -0.6116
4647000000.0 -1.209 0.5085
4650000000.0 -0.3494 1.257
4653000000.0 0.7642 1.04
4656000000.0 1.253 0.05387
4659000000.0 0.8228 -0.9226
4662000000.0 -0.2417 -1.204
4666000000.0 -1.077 -0.5184
4669000000.0 -1.089 0.5166
4672000000.0 -0.3222 1.159
4675000000.0 0.7113 0.8693
4678000000.0 1.121 0.05863
4681000000.0 0.7151 -0.8359
4684000000.0 -0.2641 -1.081
4688000000.0 -1.0 -0.4956
4691000000.0 -0.9817 0.4394
4694000000.0 -0.2496 1.063
4697000000.0 0.6436 0.8699
4700000000.0 1.036 -0.01074
4703000000.0 0.6545 -0.844
4706000000.0 -0.2285 -1.034
4709000000.0 -0.9732 -0.4882
4712000000.0 -0.9742 0.4606
4716000000.0 -0.2581 1.068
4719000000.0 0.6541 0.8667
4722000000.0 1.062 0.02482
4725000000.0 0.6909 -0.8195
4728000000.0 -0.1892 -1.03
4731000000.0 -0.9274 -0.4848
4734000000.0 -1.015 0.405
4738000000.0 -0.3321 0.9935
4741000000.0 0.5801 0.9164
4744000000.0 1.045 0.1218
4747000000.0 0.8062 -0.7407
4750000000.0 -0.05128 -1.109
4753000000.0 -0.8714 -0.678
4756000000.0 -1.09 0.2594
4759000000.0 -0.5 1.004
4762000000.0 0.426 1.041
4766000000.0 1.128 0.3305
4769000000.0 0.9535 -0.678
4772000000.0 0.118 -1.171
4775000000.0 -0.8006 -0.8512
4778000000.0 -1.205 0.07417
4781000000.0 -0.72 0.9779
4784000000.0 0.3119 1.178
4788000000.0 1.098 0.5535
4791000000.0 1.15 -0.5096
4794000000.0 0.356 -1.187
4797000000.0 -0.6767 -1.048
4800000000.0 -1.297 -0.159
4803000000.0 -0.9289 0.8297
4806000000.0 0.03584 1.291
4809000000.0 1.03 0.803
4812000000.0 1.282 -0.2819
4816000000.0 0.6249 -1.17
4819000000.0 -0.5288 -1.235
4822000000.0 -1.32 -0.3839
4825000000.0 -1.147 0.7544
4828000000.0 -0.1218 1.38
4831000000.0 0.9789 0.9782
4834000000.0 1.408 -0.1602
4838000000.0 0.7489 -1.16
4841000000.0 -0.3923 -1.32
4844000000.0 -1.299 -0.5216
4847000000.0 -1.212 0.6651
4850000000.0 -0.2403 1.363
4853000000.0 0.8966 1.02
4856000000.0 1.346 -0.04085
4859000000.0 0.8121 -1.053
4862000000.0 -0.3063 -1.301
4866000000.0 -1.155 -0.5427
4869000000.0 -1.164 0.5209
4872000000.0 -0.3107 1.243
4875000000.0 0.7471 1.011
4878000000.0 1.233 0.02793
4881000000.0 0.7939 -0.902
4884000000.0 -0.2245 -1.179
4888000000.0 -1.036 -0.566
4891000000.0 -1.051 0.445
4894000000.0 -0.3185 1.101
4897000000.0 0.6682 0.9024
4900000000.0 1.07 0.0809
4903000000.0 0.7429 -0.7888
4906000000.0 -0.1626 -1.007
4909000000.0 -0.875 -0.535
4912000000.0 -0.9004 0.355
4916000000.0 -0.3164 0.9339
4919000000.0 0.4984 0.8299
4922000000.0 0.978 0.1415
4925000000.0 0.6819 -0.672
4928000000.0 -0.05908 -0.9361
4931000000.0 -0.7662 -0.5249
4934000000.0 -0.8985 0.2499
4938000000.0 -0.3625 0.8353
4941000000.0 0.4131 0.8417
4944000000.0 0.9108 0.2158
4947000000.0 0.767 -0.5773
4950000000.0 0.04054 -0.945
4953000000.0 -0.7295 -0.6234
4956000000.0 -0.9518 0.1722
4959000000.0 -0.45 0.8747
4962000000.0 0.3622 0.9215
4966000000.0 0.9511 0.286
4969000000.0 0.8575 -0.5428
4972000000.0 0.1115 -1.001
4975000000.0 -0.7192 -0.7271
4978000000.0 -1.033 0.07244
4981000000.0 -0.5892 0.8797
4984000000.0 0.3238 1.027
4988000000.0 0.982 0.4229
4991000000.0 0.9655 -0.4685
4994000000.0 0.2877 -1.079
4997000000.0 -0.6673 -0.9404
5000000000.0 -1.161 -0.04817
5003000000.0 -0.8087 0.8679
5006000000.0 0.1737 1.185
5009000000.0 1.042 0.6503
5012000000.0 1.168 -0.3987
5016000000.0 0.436 -1.162
5019000000.0 -0.6005 -1.073
5022000000.0 -1.245 -0.2059
5025000000.0 -0.9955 0.8286
5028000000.0 0.0423 1.284
5031000000.0 1.023 0.7906
5034000000.0 1.271 -0.2673
5038000000.0 0.6022 -1.14
5041000000.0 -0.4693 -1.199
5044000000.0 -1.274 -0.3765
5047000000.0 -1.086 0.6836
5050000000.0 -0.1611 1.266
5053000000.0 0.8888 0.946
5056000000.0 1.298 -0.0673
5059000000.0 0.7849 -1.033
5062000000.0 -0.2866 -1.271
5066000000.0 -1.122 -0.5752
5069000000.0 -1.149 0.5032
5072000000.0 -0.3206 1.218
5075000000.0 0.729 0.9831
5078000000.0 1.233 0.1569
5081000000.0 0.8297 -0.8662
5084000000.0 -0.1205 -1.188
5088000000.0 -1.011 -0.6554
5091000000.0 -1.126 0.3492
5094000000.0 -0.4627 1.073
5097000000.0 0.4762 0.9676
5100000000.0 1.07 0.2435
5103000000.0 0.86 -0.6591
5106000000.0 0.05602 -1.074
5109000000.0 -0.7955 -0.7329
5112000000.0 -0.9984 0.09072
5116000000.0 -0.5685 0.8377
5119000000.0 0.3057 0.9357
5122000000.0 0.9253 0.3397
5125000000.0 0.8805 -0.4553
5128000000.0 0.1969 -0.9695
5131000000.0 -0.6264 -0.7684
5134000000.0 -0.9448 -0.00469
5138000000.0 -0.6041 0.7369
5141000000.0 0.2275 0.9255
5144000000.0 0.8179 0.42
5147000000.0 0.8651 -0.3792
5150000000.0 0.2349 -0.8689
5153000000.0 -0.5021 -0.7162
5156000000.0 -0.8981 -0.0354
5159000000.0 -0.5926 0.6753
5162000000.0 0.1529 0.8733
5166000000.0 0.778 0.4334
5169000000.0 0.7955 -0.3101
5172000000.0 0.2775 -0.8313
5175000000.0 -0.4553 -0.7737
5178000000.0 -0.9326 -0.06918
5181000000.0 -0.616 0.6505
5184000000.0 0.1338 0.9071
5188000000.0 0.7859 0.4708
5191000000.0 0.873 -0.3161
5194000000.0 0.3222 -0.8846
5197000000.0 -0.5284 -0.8211
5200000000.0 -0.9578 -0.09531
5203000000.0 -0.6886 0.6913
5206000000.0 0.09934 0.9649
5209000000.0 0.8351 0.5387
5212000000.0 0.9376 -0.3219
5216000000.0 0.3539 -0.9078
5219000000.0 -0.4839 -0.8391
5222000000.0 -0.9812 -0.1434
5225000000.0 -0.777 0.697
5228000000.0 0.02866 1.004
5231000000.0 0.7858 0.6325
5234000000.0 1.009 -0.2389
5238000000.0 0.4683 -0.9398
5241000000.0 -0.4085 -0.9726
5244000000.0 -1.034 -0.288
5247000000.0 -0.8756 0.5963
5250000000.0 -0.1169 1.083
5253000000.0 0.7661 0.7721
5256000000.0 1.071 -0.09185
5259000000.0 0.6051 -0.8966
5262000000.0 -0.3125 -1.065
5266000000.0 -1.006 -0.4709
5269000000.0 -0.9898 0.456
5272000000.0 -0.289 1.05
5275000000.0 0.6125 0.8945
5278000000.0 1.093 0.1079
5281000000.0 0.7745 -0.7659
5284000000.0 -0.06187 -1.072
5288000000.0 -0.8983 -0.6582
5291000000.0 -1.095 0.2473
5294000000.0 -0.5294 0.9946
5297000000.0 0.4668 1.025
5300000000.0 1.064 0.3323
5303000000.0 0.9372 -0.6094
5306000000.0 0.172 -1.101
5309000000.0 -0.7661 -0.836
5312000000.0 -1.13 0.06237
5316000000.0 -0.6963 0.9182
5319000000.0 0.2436 1.105
5322000000.0 1.033 0.4908
5325000000.0 1.014 -0.4548
5328000000.0 0.2804 -1.089
5331000000.0 -0.6328 -0.9147
5334000000.0 -1.098 -0.07473
5338000000.0 -0.7475 0.8142
5341000000.0 0.1305 1.085
5344000000.0 0.9298 0.5542
5347000000.0 1.012 -0.3659
5350000000.0 0.3472 -1.01
5353000000.0 -0.578 -0.9098
5356000000.0 -1.022 -0.1199
5359000000.0 -0.7549 0.694
5362000000.0 0.1287 0.9987
5366000000.0 0.8345 0.5236
5369000000.0 0.9749 -0.3569
5372000000.0 0.3392 -0.9253
5375000000.0 -0.5238 -0.8295
5378000000.0 -0.9814 -0.08522
5381000000.0 -0.6693 0.7051
5384000000.0 0.1436 0.9179
5388000000.0 0.8149 0.4578
5391000000.0 0.8254 -0.3418
5394000000.0 0.2311 -0.8395
5397000000.0 -0.5055 -0.7234
5400000000.0 -0.8784 -0.00542
5403000000.0 -0.5372 0.6493
5406000000.0 0.1686 0.8214
5409000000.0 0.7717 0.382
5412000000.0 0.7466 -0.3694
5416000000.0 0.1994 -0.824
5419000000.0 -0.5243 -0.6771
5422000000.0 -0.891 -0.01188
5425000000.0 -0.542 0.6673
5428000000.0 0.1804 0.8523
5431000000.0 0.757 0.4067
5434000000.0 0.8046 -0.3667
5438000000.0 0.2538 -0.8596
5441000000.0 -0.5061 -0.7262
5444000000.0 -0.8863 -0.01666
5447000000.0 -0.6336 0.6915
5450000000.0 0.1083 0.9288
5453000000.0 0.8012 0.4617
5456000000.0 0.8754 -0.3181
5459000000.0 0.338 -0.8892
5462000000.0 -0.4445 -0.7979
5466000000.0 -0.9335 -0.1794
5469000000.0 -0.7321 0.6207
5472000000.0 0.02413 0.9759
5475000000.0 0.7647 0.6412
5478000000.0 0.961 -0.1942
5481000000.0 0.5058 -0.8783
5484000000.0 -0.3594 -0.9615
5488000000.0 -0.9498 -0.327
5491000000.0 -0.8884 0.5405
5494000000.0 -0.1474 1.048
5497000000.0 0.7111 0.7906
5500000000.0 1.063 -0.06001
5503000000.0 0.6665 -0.8549
5506000000.0 -0.1641 -1.007
5509000000.0 -0.9158 -0.5029
5512000000.0 -0.9817 0.4058
5516000000.0 -0.319 1.009
5519000000.0 0.6 0.8904
5522000000.0 1.028 0.1147
5525000000.0 0.7612 -0.7164
5528000000.0 -0.04278 -1.077
5531000000.0 -0.8793 -0.664
5534000000.0 -1.052 0.2741
5538000000.0 -0.4546 0.9583
5541000000.0 0.4589 0.9727
5544000000.0 1.004 0.2666
5547000000.0 0.8429 -0.5903
5550000000.0 0.04641 -1.007
5553000000.0 -0.7678 -0.7325
5556000000.0 -0.9864 0.138
5559000000.0 -0.5236 0.8364
5562000000.0 0.3625 0.9329
5566000000.0 0.9189 0.3409
5569000000.0 0.8281 -0.5032
5572000000.0 0.1262 -0.9469
5575000000.0 -0.6486 -0.7075
5578000000.0 -0.9351 0.05502
5581000000.0 -0.5187 0.7322
5584000000.0 0.2376 0.8768
5588000000.0 0.8153 0.3682
5591000000.0 0.7711 -0.4063
5594000000.0 0.1496 -0.8441
5597000000.0 -0.564 -0.6392
5600000000.0 -0.8346 0.005483
5603000000.0 -0.4783 0.6601
5606000000.0 0.1911 0.8047
5609000000.0 0.7671 0.3494
5612000000.0 0.7192 -0.3918
5616000000.0 0.1567 -0.7904
5619000000.0 -0.5128 -0.6089
5622000000.0 -0.7933 0.01087
5625000000.0 -0.4764 0.645
5628000000.0 0.1996 0.8021
5631000000.0 0.7107 0.3135
5634000000.0 0.7374 -0.3888
5638000000.0 0.1704 -0.7933
5641000000.0 -0.5201 -0.6221
5644000000.0 -0.8253 0.0447
5647000000.0 -0.5054 0.6615
5650000000.0 0.2279 0.8284
5653000000.0 0.8119 0.3521
5656000000.0 0.777 -0.3775
5659000000.0 0.2117 -0.8577
5662000000.0 -0.5752 -0.724
5666000000.0 -0.9252 0.02005
5669000000.0 -0.5623 0.7331
5672000000.0 0.2023 0.9053
5675000000.0 0.8778 0.4476
5678000000.0 0.9101 -0.4396
5681000000.0 0.2453 -0.977
5684000000.0 -0.6162 -0.7974
5688000000.0 -1.019 -0.03667
5691000000.0 -0.6794 0.7942
5694000000.0 0.1706 1.027
5697000000.0 0.9055 0.5055
5700000000.0 1.006 -0.3719
5703000000.0 0.3466 -1.031
5706000000.0 -0.5946 -0.914
5709000000.0 -1.089 -0.1123
5712000000.0 -0.7948 0.7387
5716000000.0 0.06786 1.117
5719000000.0 0.918 0.6412
5722000000.0 1.075 -0.3022
5725000000.0 0.4591 -1.019
5728000000.0 -0.5094 -1.024
5731000000.0 -1.09 -0.2537
5734000000.0 -0.9118 0.6852
5738000000.0 -0.0657 1.101
5741000000.0 0.8572 0.7505
5744000000.0 1.115 -0.1894
5747000000.0 0.563 -0.993
5750000000.0 -0.3821 -1.082
5753000000.0 -1.06 -0.3918
5756000000.0 -0.9799 0.5862
5759000000.0 -0.1618 1.077
5762000000.0 0.7333 0.8308
5766000000.0 1.077 -0.06021
5769000000.0 0.5962 -0.8681
5772000000.0 -0.3025 -1.063
5775000000.0 -0.9851 -0.4215
5778000000.0 -0.9333 0.4725
5781000000.0 -0.2109 1.01
5784000000.0 0.6761 0.8136
5788000000.0 1.028 -0.01486
5791000000.0 0.6373 -0.794
5794000000.0 -0.2291 -0.9807
5797000000.0 -0.8982 -0.453
5800000000.0 -0.9008 0.422
5803000000.0 -0.2508 0.9759
5806000000.0 0.5915 0.7644
5809000000.0 0.9704 0.008603
5812000000.0 0.5705 -0.7204
5816000000.0 -0.2519 -0.9232
5819000000.0 -0.839 -0.4027
5822000000.0 -0.8205 0.4571
5825000000.0 -0.1333 0.9002
5828000000.0 0.5842 0.6522
5831000000.0 0.9021 -0.04551
5834000000.0 0.5328 -0.7236
5838000000.0 -0.2574 -0.873
5841000000.0 -0.8304 -0.3155
5844000000.0 -0.7809 0.4308
5847000000.0 -0.1182 0.8754
5850000000.0 0.6069 0.6236
5853000000.0 0.8886 -0.1162
5856000000.0 0.4513 -0.7448
5859000000.0 -0.2872 -0.8232
5862000000.0 -0.8356 -0.2761
5866000000.0 -0.7606 0.4767
5869000000.0 -0.0718 0.8909
5872000000.0 0.6422 0.6254
5875000000.0 0.888 -0.1176
5878000000.0 0.4486 -0.7588
5881000000.0 -0.3416 -0.8118
5884000000.0 -0.9081 -0.304
5888000000.0 -0.7501 0.5138
5891000000.0 -0.08687 0.9275
5894000000.0 0.647 0.6365
5897000000.0 0.9147 -0.1024
5900000000.0 0.5095 -0.7821
5903000000.0 -0.3037 -0.8751
5906000000.0 -0.9304 -0.3437
5909000000.0 -0.8491 0.4694
5912000000.0 -0.1266 0.9723
5916000000.0 0.6372 0.7282
5919000000.0 1.005 -0.04154
5922000000.0 0.557 -0.8156
5925000000.0 -0.2617 -0.9713
5928000000.0 -0.8988 -0.3989
5931000000.0 -0.8926 0.4482
5934000000.0 -0.198 0.9914
5938000000.0 0.6514 0.7664
5941000000.0 1.002 -0.03576
5944000000.0 0.6049 -0.7829
5947000000.0 -0.2299 -1.017
5950000000.0 -0.9412 -0.4221
5953000000.0 -0.9246 0.4354
5956000000.0 -0.1785 0.9977
5959000000.0 0.6639 0.7809
5962000000.0 0.9976 -0.001163
5966000000.0 0.6151 -0.8034
5969000000.0 -0.2695 -0.9931
5972000000.0 -0.9351 -0.3653
5975000000.0 -0.8606 0.493
5978000000.0 -0.1759 0.9806
5981000000.0 0.6839 0.7187
5984000000.0 0.9684 -0.09327
5988000000.0 0.5226 -0.7983
5991000000.0 -0.3423 -0.8818
5994000000.0 -0.9303 -0.3036
5997000000.0 -0.76 0.5553
6000000000.0 -0.04818 0.905
6003000000.0 0.6905 0.6019
6006000000.0 0.8728 -0.1965
6009000000.0 0.3858 -0.8011
6012000000.0 -0.4298 -0.7672
6016000000.0 -0.834 -0.1565
6019000000.0 -0.6167 0.5682
6022000000.0 0.03378 0.8191
6025000000.0 0.6782 0.4713
6028000000.0 0.7831 -0.2418
6031000000.0 0.2597 -0.7721
6034000000.0 -0.4551 -0.7049
6038000000.0 -0.8035 -0.08928
6041000000.0 -0.5798 0.6238
6044000000.0 0.1358 0.817
6047000000.0 0.7303 0.4026
6050000000.0 0.7396 -0.3217
6053000000.0 0.2009 -0.8497
6056000000.0 -0.5233 -0.7039
6059000000.0 -0.8592 -0.01315
6062000000.0 -0.557 0.6472
6066000000.0 0.1956 0.8425
6069000000.0 0.7995 0.3683
6072000000.0 0.8057 -0.4115
6075000000.0 0.2088 -0.9196
6078000000.0 -0.6043 -0.7296
6081000000.0 -0.9555 0.06895
6084000000.0 -0.5749 0.7711
6088000000.0 0.2609 0.9006
6091000000.0 0.8903 0.3973
6094000000.0 0.8388 -0.5241
6097000000.0 0.1492 -0.9576
6100000000.0 -0.7073 -0.7282
6103000000.0 -1.01 0.1
6106000000.0 -0.5619 0.9032
6109000000.0 0.3906 0.9724
6112000000.0 0.991 0.3111
6116000000.0 0.889 -0.602
6119000000.0 0.03788 -1.072
6122000000.0 -0.8262 -0.7051
6125000000.0 -1.018 0.2299
6128000000.0 -0.451 0.9466
6131000000.0 0.4684 0.9189
6134000000.0 1.021 0.1807
6138000000.0 0.73 -0.6426
6141000000.0 -0.05369 -1.016
6144000000.0 -0.848 -0.5307
6147000000.0 -0.9267 0.3099
6150000000.0 -0.3259 0.896
6153000000.0 0.5477 0.7599
6156000000.0 0.9153 0.09166
6159000000.0 0.6374 -0.6821
6162000000.0 -0.179 -0.9138
6166000000.0 -0.8115 -0.4295
6169000000.0 -0.8238 0.3849
6172000000.0 -0.1981 0.8815
6175000000.0 0.561 0.6672
6178000000.0 0.8506 -0.0558
6181000000.0 0.4993 -0.7034
6184000000.0 -0.2432 -0.8096
6188000000.0 -0.7946 -0.3212
6191000000.0 -0.6931 0.4165
6194000000.0 -0.05849 0.8097
6197000000.0 0.5782 0.5573
6200000000.0 0.8038 -0.1291
6203000000.0 0.3788 -0.7146
6206000000.0 -0.3459 -0.7506
6209000000.0 -0.7726 -0.1787
6212000000.0 -0.6384 0.4867
6216000000.0 -0.01297 0.8235
6219000000.0 0.6675 0.4834
6222000000.0 0.7481 -0.2262
6225000000.0 0.2912 -0.7632
6228000000.0 -0.4215 -0.6604
6231000000.0 -0.7739 -0.1191
6234000000.0 -0.5978 0.5623
6238000000.0 0.09138 0.8198
6241000000.0 0.7224 0.4286
6244000000.0 0.7805 -0.3202
6247000000.0 0.2421 -0.7974
6250000000.0 -0.4891 -0.659
6253000000.0 -0.807 -0.04519
6256000000.0 -0.5433 0.6307
6259000000.0 0.1755 0.8047
6262000000.0 0.7381 0.3409
6266000000.0 0.7465 -0.3283
6269000000.0 0.2204 -0.7887
