! Created with skrf 1.8.0 (http://scikit-rf.org).
# Hz S RI R 50.0 
!freq ReS11 ImS11
4000000000.0 -0.1983 -1.491
4003000000.0 -1.257 -0.8099
4006000000.0 -1.461 0.5358
4009000000.0 -0.5016 1.373
4012000000.0 0.8098 1.321
4016000000.0 1.531 0.2414
4019000000.0 1.157 -1.021
4022000000.0 -0.09229 -1.548
4025000000.0 -1.279 -0.8842
4028000000.0 -1.464 0.4808
4031000000.0 -0.5648 1.477
4034000000.0 0.8242 1.382
4038000000.0 1.619 0.2461
4041000000.0 1.184 -1.092
4044000000.0 -0.08797 -1.62
4047000000.0 -1.353 -0.9136
4050000000.0 -1.533 0.4727
4053000000.0 -0.6256 1.474
4056000000.0 0.7415 1.397
4059000000.0 1.589 0.315
4062000000.0 1.244 -1.028
4066000000.0 0.03502 -1.617
4069000000.0 -1.202 -1.07
4072000000.0 -1.603 0.271
4075000000.0 -0.8337 1.423
4078000000.0 0.5644 1.535
4081000000.0 1.551 0.5315
4084000000.0 1.406 -0.8878
4088000000.0 0.2473 -1.664
4091000000.0 -1.089 -1.237
4094000000.0 -1.654 0.08386
4097000000.0 -0.9924 1.308
4100000000.0 0.3736 1.565
4103000000.0 1.441 0.7271
4106000000.0 1.427 -0.6425
4109000000.0 0.415 -1.495
4112000000.0 -0.8593 -1.271
4116000000.0 -1.486 -0.1813
4119000000.0 -1.114 0.9799
4122000000.0 0.03895 1.482
4125000000.0 1.133 0.981
4128000000.0 1.447 -0.2325
4131000000.0 0.7897 -1.252
4134000000.0 -0.4371 -1.419
4138000000.0 -1.363 -0.597
4141000000.0 -1.342 0.642
4144000000.0 -0.3739 1.44
4147000000.0 0.851 1.229
4150000000.0 1.522 0.1176
4153000000.0 1.044 -1.065
4156000000.0 -0.1097 -1.493
4159000000.0 -1.211 -0.8773
4162000000.0 -1.481 0.4055
4166000000.0 -0.649 1.338
4169000000.0 0.6227 1.373
4172000000.0 1.43 0.4239
4175000000.0 1.24 -0.8395
4178000000.0 0.1366 -1.486
4181000000.0 -1.045 -1.078
4184000000.0 -1.508 0.1161
4188000000.0 -0.8874 1.19
4191000000.0 0.3666 1.474
4194000000.0 1.377 0.6575
4197000000.0 1.388 -0.6784
4200000000.0 0.3478 -1.528
4203000000.0 -0.967 -1.262
4206000000.0 -1.613 -0.06861
4209000000.0 -1.045 1.237
4212000000.0 0.3576 1.633
4216000000.0 1.463 0.7132
4219000000.0 1.511 -0.76
4222000000.0 0.3146 -1.638
4225000000.0 -1.115 -1.268
4228000000.0 -1.67 0.1076
4231000000.0 -0.9148 1.404
4234000000.0 0.5523 1.576
4238000000.0 1.544 0.5013
4241000000.0 1.364 -0.8743
4244000000.0 0.0882 -1.591
4247000000.0 -1.221 -0.9877
4250000000.0 -1.559 0.3237
4253000000.0 -0.6778 1.385
4256000000.0 0.6681 1.409
4259000000.0 1.539 0.3114
4262000000.0 1.156 -0.9769
4266000000.0 -0.07882 -1.5
4269000000.0 -1.225 -0.8296
4272000000.0 -1.409 0.4325
4275000000.0 -0.4971 1.368
4278000000.0 0.7346 1.221
4281000000.0 1.419 0.1785
4284000000.0 0.9964 -1.012
4288000000.0 -0.1529 -1.388
4291000000.0 -1.164 -0.7232
4294000000.0 -1.295 0.4115
4297000000.0 -0.4604 1.245
4300000000.0 0.6768 1.148
4303000000.0 1.265 0.2374
4306000000.0 1.016 -0.8075
4309000000.0 -0.01057 -1.266
4312000000.0 -0.9708 -0.8095
4316000000.0 -1.282 0.2373
4319000000.0 -0.6545 1.105
4322000000.0 0.4229 1.226
4325000000.0 1.225 0.4715
4328000000.0 1.138 -0.6492
4331000000.0 0.2662 -1.318
4334000000.0 -0.8336 -1.061
4338000000.0 -1.389 -0.01659
4341000000.0 -0.9279 1.045
4344000000.0 0.2181 1.362
4347000000.0 1.214 0.72
4350000000.0 1.317 -0.4865
4353000000.0 0.4555 -1.357
4356000000.0 -0.7021 -1.221
4359000000.0 -1.438 -0.205
4362000000.0 -1.122 0.9571
4366000000.0 0.04524 1.435
4369000000.0 1.145 0.9013
4372000000.0 1.436 -0.2963
4375000000.0 0.7077 -1.285
4378000000.0 -0.593 -1.394
4381000000.0 -1.45 -0.4634
4384000000.0 -1.266 0.8228
4388000000.0 -0.1442 1.513
4391000000.0 1.078 1.09
4394000000.0 1.563 -0.129
4397000000.0 0.8418 -1.316
4400000000.0 -0.5412 -1.52
4403000000.0 -1.492 -0.5156
4406000000.0 -1.351 0.8456
4409000000.0 -0.1729 1.568
4412000000.0 1.117 1.109
4416000000.0 1.548 -0.1843
4419000000.0 0.7697 -1.326
4422000000.0 -0.5628 -1.433
4425000000.0 -1.423 -0.4234
4428000000.0 -1.189 0.8748
4431000000.0 -0.04912 1.421
4434000000.0 1.09 0.9397
4438000000.0 1.41 -0.2609
4441000000.0 0.6263 -1.23
4444000000.0 -0.597 -1.262
4447000000.0 -1.322 -0.3195
4450000000.0 -1.026 0.8747
4453000000.0 0.06315 1.331
4456000000.0 1.05 0.7546
4459000000.0 1.249 -0.365
4462000000.0 0.4614 -1.178
4466000000.0 -0.6542 -1.051
4469000000.0 -1.231 -0.1274
4472000000.0 -0.8455 0.8771
4475000000.0 0.1531 1.197
4478000000.0 1.021 0.5791
4481000000.0 1.062 -0.4233
4484000000.0 0.2975 -1.132
4488000000.0 -0.6776 -0.9301
4491000000.0 -1.134 -0.07597
4494000000.0 -0.7636 0.8427
4497000000.0 0.207 1.124
4500000000.0 0.9676 0.5231
4503000000.0 1.01 -0.4022
4506000000.0 0.2913 -1.031
4509000000.0 -0.6149 -0.8927
4512000000.0 -1.103 -0.1177
4516000000.0 -0.7709 0.7992
4519000000.0 0.122 1.114
4522000000.0 0.9544 0.5962
4525000000.0 1.04 -0.3873
4528000000.0 0.3995 -1.054
4531000000.0 -0.5965 -1.034
4534000000.0 -1.173 -0.1815
4538000000.0 -0.859 0.7615
4541000000.0 0.03163 1.176
4544000000.0 0.9433 0.7263
4547000000.0 1.154 -0.267
4550000000.0 0.5552 -1.049
4553000000.0 -0.4833 -1.123
4556000000.0 -1.15 -0.3526
4559000000.0 -1.035 0.6641
4562000000.0 -0.1626 1.226
4566000000.0 0.8561 0.923
4569000000.0 1.267 -0.03329
4572000000.0 0.7753 -1.03
4575000000.0 -0.2866 -1.259
4578000000.0 -1.18 -0.5792
4581000000.0 -1.201 0.5269
4584000000.0 -0.3611 1.262
4588000000.0 0.7419 1.113
4591000000.0 1.327 0.1311
4594000000.0 0.9722 -0.9705
4597000000.0 -0.1316 -1.348
4600000000.0 -1.146 -0.7576
4603000000.0 -1.327 0.4012
4606000000.0 -0.5266 1.267
4609000000.0 0.6538 1.254
4612000000.0 1.343 0.275
4616000000.0 1.091 -0.8804
4619000000.0 0.01791 -1.393
4622000000.0 -1.066 -0.8728
4625000000.0 -1.356 0.2314
4628000000.0 -0.6248 1.216
4631000000.0 0.5466 1.267
4634000000.0 1.341 0.3753
4638000000.0 1.097 -0.805
4641000000.0 0.03895 -1.361
4644000000.0 -0.9803 -0.8923
4647000000.0 -1.299 0.2324
4650000000.0 -0.6701 1.143
4653000000.0 0.5159 1.217
4656000000.0 1.227 0.3915
4659000000.0 1.049 -0.7601
4662000000.0 0.06945 -1.27
4666000000.0 -0.9346 -0.8476
4669000000.0 -1.175 0.1993
4672000000.0 -0.5434 1.084
4675000000.0 0.4751 1.069
4678000000.0 1.124 0.3077
4681000000.0 0.923 -0.654
4684000000.0 0.02771 -1.127
4688000000.0 -0.8649 -0.7287
4691000000.0 -1.077 0.2286
4694000000.0 -0.5235 0.9799
4697000000.0 0.4325 1.019
4700000000.0 1.035 0.2731
4703000000.0 0.8565 -0.6498
4706000000.0 -0.009263 -1.073
4709000000.0 -0.8179 -0.6967
4712000000.0 -1.035 0.2542
4716000000.0 -0.4844 0.9421
4719000000.0 0.4791 0.953
4722000000.0 1.048 0.2819
4725000000.0 0.8239 -0.6507
4728000000.0 0.0338 -1.019
4731000000.0 -0.7849 -0.6797
4734000000.0 -1.037 0.2068
4738000000.0 -0.5206 0.9014
4741000000.0 0.3611 0.9634
4744000000.0 0.9903 0.3094
4747000000.0 0.9 -0.5763
4750000000.0 0.151 -1.053
4753000000.0 -0.722 -0.8192
4756000000.0 -1.09 0.05483
4759000000.0 -0.66 0.9004
4762000000.0 0.2558 1.082
4766000000.0 1.021 0.5001
4769000000.0 1.03 -0.4812
4772000000.0 0.2881 -1.123
4775000000.0 -0.6282 -0.9537
4778000000.0 -1.163 -0.09381
4781000000.0 -0.8489 0.823
4784000000.0 0.08127 1.176
4788000000.0 0.9674 0.6999
4791000000.0 1.158 -0.2863
4794000000.0 0.5783 -1.095
4797000000.0 -0.4892 -1.16
4800000000.0 -1.179 -0.3758
4803000000.0 -1.043 0.6363
4806000000.0 -0.1664 1.227
4809000000.0 0.8555 0.9307
4812000000.0 1.266 -0.04471
4816000000.0 0.8087 -1.022
4819000000.0 -0.2756 -1.303
4822000000.0 -1.183 -0.6095
4825000000.0 -1.248 0.5354
4828000000.0 -0.3979 1.301
4831000000.0 0.7874 1.13
4834000000.0 1.396 0.1132
4838000000.0 0.9482 -1.02
4841000000.0 -0.1583 -1.392
4844000000.0 -1.161 -0.7603
4847000000.0 -1.312 0.4234
4850000000.0 -0.5274 1.306
4853000000.0 0.6655 1.195
4856000000.0 1.333 0.2243
4859000000.0 1.033 -0.8766
4862000000.0 -0.03754 -1.331
4866000000.0 -1.079 -0.8316
4869000000.0 -1.264 0.2828
4872000000.0 -0.5432 1.219
4875000000.0 0.5679 1.163
4878000000.0 1.255 0.2745
4881000000.0 0.9894 -0.7805
4884000000.0 0.03251 -1.24
4888000000.0 -0.9294 -0.7856
4891000000.0 -1.185 0.2252
4894000000.0 -0.5563 1.058
4897000000.0 0.4646 1.065
4900000000.0 1.106 0.3146
4903000000.0 0.915 -0.6498
4906000000.0 0.05003 -1.089
4909000000.0 -0.8083 -0.7228
4912000000.0 -1.017 0.1439
4916000000.0 -0.5283 0.8667
4919000000.0 0.3331 0.9609
4922000000.0 0.9282 0.3343
4925000000.0 0.8083 -0.5063
4928000000.0 0.1312 -0.9478
4931000000.0 -0.6196 -0.6931
4934000000.0 -0.9206 0.06907
4938000000.0 -0.5395 0.7709
4941000000.0 0.2276 0.932
4944000000.0 0.8186 0.3964
4947000000.0 0.8641 -0.3972
4950000000.0 0.221 -0.8989
4953000000.0 -0.5736 -0.7481
4956000000.0 -0.9476 -0.01471
4959000000.0 -0.6181 0.7082
4962000000.0 0.1743 0.9405
4966000000.0 0.8439 0.447
4969000000.0 0.9019 -0.3355
4972000000.0 0.3191 -0.9471
4975000000.0 -0.5364 -0.843
4978000000.0 -0.9587 -0.09269
4981000000.0 -0.741 0.6906
4984000000.0 0.06369 1.036
4988000000.0 0.8491 0.595
4991000000.0 0.9935 -0.2544
4994000000.0 0.4439 -0.9958
4997000000.0 -0.4936 -1.003
5000000000.0 -1.088 -0.2616
5003000000.0 -0.8964 0.6669
5006000000.0 -0.07192 1.146
5009000000.0 0.8636 0.806
5012000000.0 1.174 -0.1683
5016000000.0 0.6264 -1.048
5019000000.0 -0.4107 -1.171
5022000000.0 -1.154 -0.453
5025000000.0 -1.102 0.6509
5028000000.0 -0.2149 1.223
5031000000.0 0.8417 0.979
5034000000.0 1.269 -0.05257
5038000000.0 0.7679 -0.9911
5041000000.0 -0.2572 -1.243
5044000000.0 -1.131 -0.6115
5047000000.0 -1.196 0.473
5050000000.0 -0.3912 1.254
5053000000.0 0.6848 1.106
5056000000.0 1.293 0.1984
5059000000.0 0.9634 -0.8691
5062000000.0 -0.05169 -1.275
5066000000.0 -1.0 -0.815
5069000000.0 -1.264 0.2795
5072000000.0 -0.5788 1.122
5075000000.0 0.5113 1.183
5078000000.0 1.203 0.3604
5081000000.0 1.063 -0.6854
5084000000.0 0.1283 -1.208
5088000000.0 -0.8541 -0.9007
5091000000.0 -1.209 0.1231
5094000000.0 -0.6718 0.9489
5097000000.0 0.298 1.136
5100000000.0 1.028 0.5066
5103000000.0 1.017 -0.489
5106000000.0 0.3208 -1.086
5109000000.0 -0.6519 -0.9148
5112000000.0 -1.056 -0.08791
5116000000.0 -0.7762 0.75
5119000000.0 0.06041 1.047
5122000000.0 0.898 0.6149
5125000000.0 1.029 -0.2718
5128000000.0 0.4399 -0.9279
5131000000.0 -0.4312 -0.8812
5134000000.0 -0.9571 -0.1959
5138000000.0 -0.7862 0.6063
5141000000.0 -0.04248 0.9711
5144000000.0 0.706 0.6408
5147000000.0 0.9542 -0.1517
5150000000.0 0.502 -0.7978
5153000000.0 -0.3002 -0.8691
5156000000.0 -0.8728 -0.3155
5159000000.0 -0.7821 0.476
5162000000.0 -0.12 0.9057
5166000000.0 0.6163 0.668
5169000000.0 0.9089 -0.04457
5172000000.0 0.5236 -0.7429
5175000000.0 -0.2585 -0.8669
5178000000.0 -0.8655 -0.3611
5181000000.0 -0.837 0.43
5184000000.0 -0.1687 0.9021
5188000000.0 0.5997 0.6989
5191000000.0 0.9189 -0.05287
5194000000.0 0.5486 -0.7564
5197000000.0 -0.2459 -0.8862
5200000000.0 -0.8437 -0.3629
5203000000.0 -0.8257 0.4402
5206000000.0 -0.1779 0.9285
5209000000.0 0.6116 0.7284
5212000000.0 0.9565 -0.03059
5216000000.0 0.5933 -0.7653
5219000000.0 -0.2174 -0.9588
5222000000.0 -0.8982 -0.443
5225000000.0 -0.882 0.4078
5228000000.0 -0.2686 0.9723
5231000000.0 0.6001 0.7884
5234000000.0 1.04 0.0644
5238000000.0 0.6749 -0.757
5241000000.0 -0.1293 -1.045
5244000000.0 -0.9052 -0.5544
5247000000.0 -0.9863 0.3407
5250000000.0 -0.379 1.019
5253000000.0 0.5176 0.9368
5256000000.0 1.062 0.1795
5259000000.0 0.8402 -0.6837
5262000000.0 -0.01799 -1.101
5266000000.0 -0.8103 -0.7006
5269000000.0 -1.086 0.1549
5272000000.0 -0.5678 0.9444
5275000000.0 0.352 1.017
5278000000.0 1.027 0.3956
5281000000.0 0.9747 -0.536
5284000000.0 0.1933 -1.074
5288000000.0 -0.682 -0.8601
5291000000.0 -1.118 -0.0274
5294000000.0 -0.7538 0.8064
5297000000.0 0.1387 1.085
5300000000.0 0.9508 0.6345
5303000000.0 1.074 -0.3218
5306000000.0 0.4493 -1.034
5309000000.0 -0.4964 -1.028
5312000000.0 -1.113 -0.3002
5316000000.0 -0.9199 0.6873
5319000000.0 -0.06332 1.144
5322000000.0 0.8388 0.8131
5325000000.0 1.15 -0.1268
5328000000.0 0.614 -0.9424
5331000000.0 -0.3405 -1.092
5334000000.0 -1.075 -0.4387
5338000000.0 -1.018 0.5248
5341000000.0 -0.241 1.132
5344000000.0 0.6711 0.8926
5347000000.0 1.129 0.02897
5350000000.0 0.7456 -0.8348
5353000000.0 -0.1784 -1.086
5356000000.0 -0.967 -0.5624
5359000000.0 -1.04 0.4185
5362000000.0 -0.3126 1.024
5366000000.0 0.6146 0.8921
5369000000.0 1.072 0.1151
5372000000.0 0.708 -0.7323
5375000000.0 -0.1375 -1.02
5378000000.0 -0.8723 -0.5416
5381000000.0 -0.9522 0.3587
5384000000.0 -0.2871 0.9443
5388000000.0 0.5443 0.8124
5391000000.0 0.9564 0.1152
5394000000.0 0.6171 -0.6766
5397000000.0 -0.1241 -0.9346
5400000000.0 -0.7483 -0.4626
5403000000.0 -0.8495 0.3444
5406000000.0 -0.2428 0.8485
5409000000.0 0.4809 0.7227
5412000000.0 0.8402 0.05075
5416000000.0 0.5697 -0.6344
5419000000.0 -0.1371 -0.8473
5422000000.0 -0.7577 -0.4076
5425000000.0 -0.7869 0.3355
5428000000.0 -0.2649 0.82
5431000000.0 0.5207 0.7158
5434000000.0 0.8563 0.03711
5438000000.0 0.5947 -0.6632
5441000000.0 -0.1413 -0.8393
5444000000.0 -0.7433 -0.4171
5447000000.0 -0.838 0.3062
5450000000.0 -0.2958 0.8381
5453000000.0 0.4752 0.731
5456000000.0 0.8562 0.06519
5459000000.0 0.6226 -0.64
5462000000.0 -0.0902 -0.8815
5466000000.0 -0.7661 -0.519
5469000000.0 -0.8474 0.2669
5472000000.0 -0.332 0.8361
5475000000.0 0.4253 0.822
5478000000.0 0.9173 0.2112
5481000000.0 0.7435 -0.5784
5484000000.0 0.0444 -0.9406
5488000000.0 -0.6801 -0.6649
5491000000.0 -0.9749 0.1405
5494000000.0 -0.5446 0.8241
5497000000.0 0.2861 0.9388
5500000000.0 0.9789 0.3759
5503000000.0 0.9098 -0.4937
5506000000.0 0.2269 -0.9862
5509000000.0 -0.5903 -0.8293
5512000000.0 -1.029 -0.05833
5516000000.0 -0.681 0.7462
5519000000.0 0.1062 1.056
5522000000.0 0.8778 0.5574
5525000000.0 1.019 -0.3078
5528000000.0 0.4329 -0.9645
5531000000.0 -0.464 -0.9267
5534000000.0 -1.003 -0.2347
5538000000.0 -0.857 0.6144
5541000000.0 -0.05901 1.072
5544000000.0 0.754 0.7388
5547000000.0 1.069 -0.1011
5550000000.0 0.5976 -0.8832
5553000000.0 -0.2914 -1.048
5556000000.0 -0.9584 -0.3842
5559000000.0 -0.9333 0.4961
5562000000.0 -0.1875 1.035
5566000000.0 0.6371 0.8004
5569000000.0 1.003 0.03034
5572000000.0 0.6689 -0.7583
5575000000.0 -0.1582 -1.016
5578000000.0 -0.8442 -0.5269
5581000000.0 -0.9186 0.3241
5584000000.0 -0.3255 0.9297
5588000000.0 0.5178 0.8201
5591000000.0 0.9361 0.1303
5594000000.0 0.6922 -0.652
5597000000.0 -0.07241 -0.9258
5600000000.0 -0.7444 -0.5475
5603000000.0 -0.8855 0.2291
5606000000.0 -0.3849 0.8298
5609000000.0 0.3943 0.8031
5612000000.0 0.875 0.2072
5616000000.0 0.6759 -0.5283
5619000000.0 0.01981 -0.8432
5622000000.0 -0.6382 -0.5637
5625000000.0 -0.8534 0.1501
5628000000.0 -0.4069 0.7451
5631000000.0 0.3251 0.7902
5634000000.0 0.8019 0.2452
5638000000.0 0.6844 -0.4914
5641000000.0 0.03394 -0.8196
5644000000.0 -0.6163 -0.5608
5647000000.0 -0.8346 0.1294
5650000000.0 -0.4225 0.7087
5653000000.0 0.3213 0.789
5656000000.0 0.8133 0.2545
5659000000.0 0.7367 -0.4897
5662000000.0 0.05541 -0.8345
5666000000.0 -0.6549 -0.6001
5669000000.0 -0.8788 0.1451
5672000000.0 -0.4117 0.7535
5675000000.0 0.3269 0.822
5678000000.0 0.8694 0.2806
5681000000.0 0.7622 -0.5156
5684000000.0 0.07361 -0.9125
5688000000.0 -0.6856 -0.6544
5691000000.0 -0.9313 0.1173
5694000000.0 -0.5208 0.8195
5697000000.0 0.3571 0.9186
5700000000.0 0.922 0.3398
5703000000.0 0.8516 -0.5065
5706000000.0 0.1457 -0.9959
5709000000.0 -0.6786 -0.7698
5712000000.0 -1.025 0.06503
5716000000.0 -0.6165 0.8502
5719000000.0 0.2857 0.9907
5722000000.0 0.9334 0.4655
5725000000.0 0.9714 -0.4653
5728000000.0 0.2761 -1.046
5731000000.0 -0.62 -0.8793
5734000000.0 -1.071 -0.07468
5738000000.0 -0.7598 0.8154
5741000000.0 0.1138 1.07
5744000000.0 0.886 0.597
5747000000.0 1.068 -0.293
5750000000.0 0.4183 -1.016
5753000000.0 -0.5207 -0.9703
5756000000.0 -1.106 -0.2576
5759000000.0 -0.8734 0.6801
5762000000.0 -0.03714 1.141
5766000000.0 0.84 0.7177
5769000000.0 1.071 -0.1476
5772000000.0 0.5628 -0.927
5775000000.0 -0.3453 -1.027
5778000000.0 -0.9963 -0.4011
5781000000.0 -0.9531 0.5489
5784000000.0 -0.251 1.027
5788000000.0 0.7373 0.8555
5791000000.0 1.058 0.0009121
5794000000.0 0.6996 -0.8112
5797000000.0 -0.1682 -1.079
5800000000.0 -0.9442 -0.5471
5803000000.0 -0.9888 0.336
5806000000.0 -0.3547 1.033
5809000000.0 0.5337 0.8909
5812000000.0 1.032 0.1393
5816000000.0 0.7293 -0.6849
5819000000.0 -0.04945 -1.008
5822000000.0 -0.8314 -0.5847
5825000000.0 -1.002 0.2306
5828000000.0 -0.4175 0.8816
5831000000.0 0.4115 0.8866
5834000000.0 0.9596 0.238
5838000000.0 0.7825 -0.5979
5841000000.0 0.0235 -0.9737
5844000000.0 -0.7369 -0.648
5847000000.0 -0.9427 0.1741
5850000000.0 -0.4364 0.8116
5853000000.0 0.3738 0.8565
5856000000.0 0.9013 0.2464
5859000000.0 0.7344 -0.5398
5862000000.0 0.0102 -0.9328
5866000000.0 -0.6471 -0.658
5869000000.0 -0.8861 0.1499
5872000000.0 -0.4322 0.7581
5875000000.0 0.3247 0.7951
5878000000.0 0.8471 0.2692
5881000000.0 0.7397 -0.5106
5884000000.0 0.06976 -0.8437
5888000000.0 -0.6033 -0.6338
5891000000.0 -0.8746 0.09842
5894000000.0 -0.4737 0.7378
5897000000.0 0.2703 0.8185
5900000000.0 0.8149 0.3053
5903000000.0 0.7409 -0.4129
5906000000.0 0.171 -0.8613
5909000000.0 -0.542 -0.6443
5912000000.0 -0.8565 0.0276
5916000000.0 -0.5292 0.7027
5919000000.0 0.2352 0.8527
5922000000.0 0.7731 0.3515
5925000000.0 0.7699 -0.3687
5928000000.0 0.2144 -0.8578
5931000000.0 -0.5444 -0.7206
5934000000.0 -0.8729 -0.04736
5938000000.0 -0.6074 0.6448
5941000000.0 0.1345 0.8873
5944000000.0 0.7211 0.4833
5947000000.0 0.8549 -0.2567
5950000000.0 0.343 -0.8598
5953000000.0 -0.4315 -0.8072
5956000000.0 -0.8814 -0.2146
5959000000.0 -0.7092 0.5506
5962000000.0 -0.05015 0.9518
5966000000.0 0.713 0.6146
5969000000.0 0.9636 -0.1599
5972000000.0 0.4911 -0.8357
5975000000.0 -0.3026 -0.9147
5978000000.0 -0.9268 -0.3637
5981000000.0 -0.8582 0.4807
5984000000.0 -0.2061 0.9822
5988000000.0 0.6233 0.7623
5991000000.0 0.9857 0.02029
5994000000.0 0.6594 -0.7513
5997000000.0 -0.1475 -0.9558
6000000000.0 -0.8607 -0.4998
6003000000.0 -0.9348 0.3431
6006000000.0 -0.3468 0.9431
6009000000.0 0.5325 0.8415
6012000000.0 1.002 0.1439
6016000000.0 0.7283 -0.6543
6019000000.0 -0.05399 -0.9979
6022000000.0 -0.8219 -0.5839
6025000000.0 -0.9323 0.2484
6028000000.0 -0.3959 0.8739
6031000000.0 0.4365 0.8735
6034000000.0 0.9335 0.2171
6038000000.0 0.7581 -0.5863
6041000000.0 0.03474 -0.9788
6044000000.0 -0.7215 -0.6321
6047000000.0 -0.932 0.1593
6050000000.0 -0.4528 0.8234
6053000000.0 0.3254 0.8634
6056000000.0 0.8772 0.2543
6059000000.0 0.7702 -0.5113
6062000000.0 0.06203 -0.9288
6066000000.0 -0.6824 -0.6249
6069000000.0 -0.8982 0.1229
6072000000.0 -0.4658 0.7491
6075000000.0 0.2796 0.8577
6078000000.0 0.8381 0.3119
6081000000.0 0.7506 -0.4625
6084000000.0 0.1011 -0.8371
6088000000.0 -0.5894 -0.6266
6091000000.0 -0.8616 0.0808
6094000000.0 -0.5001 0.6998
6097000000.0 0.2569 0.8124
6100000000.0 0.7841 0.3045
6103000000.0 0.7562 -0.4256
6106000000.0 0.147 -0.8334
6109000000.0 -0.5835 -0.6505
6112000000.0 -0.846 0.04171
6116000000.0 -0.5374 0.6769
6119000000.0 0.1916 0.8323
6122000000.0 0.7928 0.3759
6125000000.0 0.8058 -0.3847
6128000000.0 0.1989 -0.8547
6131000000.0 -0.5374 -0.6704
6134000000.0 -0.8683 -0.01581
6138000000.0 -0.5707 0.6446
6141000000.0 0.1865 0.8616
6144000000.0 0.7954 0.4083
6147000000.0 0.8118 -0.3109
6150000000.0 0.2599 -0.8742
6153000000.0 -0.4958 -0.7466
6156000000.0 -0.9008 -0.05301
6159000000.0 -0.634 0.6582
6162000000.0 0.1163 0.8919
6166000000.0 0.7897 0.5271
6169000000.0 0.8979 -0.2508
6172000000.0 0.3548 -0.8709
6175000000.0 -0.4649 -0.8124
6178000000.0 -0.9178 -0.1696
6181000000.0 -0.6836 0.6333
6184000000.0 0.03827 0.9651
6188000000.0 0.7324 0.571
6191000000.0 0.9012 -0.2503
6194000000.0 0.4488 -0.8529
6197000000.0 -0.3819 -0.8423
6200000000.0 -0.9487 -0.2545
6203000000.0 -0.7866 0.5402
6206000000.0 -0.06718 0.9356
6209000000.0 0.6653 0.6361
6212000000.0 0.8941 -0.08484
6216000000.0 0.5361 -0.7592
6219000000.0 -0.2531 -0.8986
6222000000.0 -0.832 -0.346
6225000000.0 -0.8011 0.4284
6228000000.0 -0.1644 0.8753
6231000000.0 0.5387 0.6737
6234000000.0 0.9095 0.04198
6238000000.0 0.5726 -0.6759
6241000000.0 -0.1667 -0.8752
6244000000.0 -0.7568 -0.4142
6247000000.0 -0.7893 0.3047
6250000000.0 -0.2903 0.7761
6253000000.0 0.4139 0.7159
6256000000.0 0.8241 0.1261
6259000000.0 0.6379 -0.5474
6262000000.0 -0.0009509 -0.8163
6266000000.0 -0.6338 -0.4977
