! Created with skrf 1.8.0 (http://scikit-rf.org).
# Hz S RI R 50.0 
!freq ReS11 ImS11
4000000000.0 -0.1996 -1.455
4003000000.0 -1.252 -0.7777
4006000000.0 -1.484 0.5036
4009000000.0 -0.5437 1.421
4012000000.0 0.7777 1.291
4016000000.0 1.504 0.1875
4019000000.0 1.106 -1.042
4022000000.0 -0.08773 -1.543
4025000000.0 -1.34 -0.9055
4028000000.0 -1.531 0.5234
4031000000.0 -0.5958 1.519
4034000000.0 0.7919 1.395
4038000000.0 1.581 0.2492
4041000000.0 1.211 -1.102
4044000000.0 -0.1214 -1.652
4047000000.0 -1.344 -0.9396
4050000000.0 -1.544 0.4906
4053000000.0 -0.6084 1.502
4056000000.0 0.7704 1.432
4059000000.0 1.601 0.3043
4062000000.0 1.259 -1.031
4066000000.0 0.04277 -1.626
4069000000.0 -1.209 -1.048
4072000000.0 -1.571 0.2852
4075000000.0 -0.8392 1.419
4078000000.0 0.5883 1.521
4081000000.0 1.566 0.5017
4084000000.0 1.382 -0.8674
4088000000.0 0.2192 -1.584
4091000000.0 -1.131 -1.218
4094000000.0 -1.618 0.108
4097000000.0 -0.9825 1.287
4100000000.0 0.362 1.568
4103000000.0 1.434 0.7081
4106000000.0 1.463 -0.6767
4109000000.0 0.4342 -1.49
4112000000.0 -0.8601 -1.285
4116000000.0 -1.515 -0.1829
4119000000.0 -1.093 0.9825
4122000000.0 0.06185 1.464
4125000000.0 1.132 0.9516
4128000000.0 1.47 -0.2426
4131000000.0 0.7473 -1.231
4134000000.0 -0.4539 -1.418
4138000000.0 -1.357 -0.5953
4141000000.0 -1.316 0.6776
4144000000.0 -0.3617 1.445
4147000000.0 0.8818 1.257
4150000000.0 1.492 0.1112
4153000000.0 1.054 -1.068
4156000000.0 -0.1326 -1.494
4159000000.0 -1.237 -0.868
4162000000.0 -1.445 0.381
4166000000.0 -0.6262 1.354
4169000000.0 0.6157 1.389
4172000000.0 1.449 0.3836
4175000000.0 1.234 -0.8411
4178000000.0 0.123 -1.489
4181000000.0 -1.022 -1.052
4184000000.0 -1.491 0.1352
4188000000.0 -0.8666 1.231
4191000000.0 0.3719 1.456
4194000000.0 1.422 0.6414
4197000000.0 1.397 -0.6946
4200000000.0 0.347 -1.523
4203000000.0 -0.9829 -1.268
4206000000.0 -1.646 -0.03902
4209000000.0 -1.01 1.266
4212000000.0 0.3623 1.622
4216000000.0 1.492 0.6841
4219000000.0 1.489 -0.764
4222000000.0 0.3019 -1.675
4225000000.0 -1.16 -1.254
4228000000.0 -1.706 0.1377
4231000000.0 -0.9067 1.408
4234000000.0 0.5782 1.546
4238000000.0 1.558 0.4971
4241000000.0 1.337 -0.9377
4244000000.0 0.07093 -1.606
4247000000.0 -1.245 -1.012
4250000000.0 -1.54 0.3409
4253000000.0 -0.6748 1.394
4256000000.0 0.7163 1.343
4259000000.0 1.525 0.2578
4262000000.0 1.132 -1.035
4266000000.0 -0.1191 -1.479
4269000000.0 -1.255 -0.8353
4272000000.0 -1.388 0.4851
4275000000.0 -0.5142 1.358
4278000000.0 0.7615 1.229
4281000000.0 1.445 0.1402
4284000000.0 0.9719 -1.01
4288000000.0 -0.1611 -1.368
4291000000.0 -1.211 -0.7339
4294000000.0 -1.241 0.4396
4297000000.0 -0.4416 1.266
4300000000.0 0.6737 1.153
4303000000.0 1.252 0.215
4306000000.0 0.9759 -0.827
4309000000.0 -0.03274 -1.253
4312000000.0 -0.963 -0.8409
4316000000.0 -1.293 0.231
4319000000.0 -0.6349 1.12
4322000000.0 0.4126 1.21
4325000000.0 1.247 0.4501
4328000000.0 1.163 -0.6536
4331000000.0 0.2316 -1.29
4334000000.0 -0.8641 -1.059
4338000000.0 -1.355 -0.03654
4341000000.0 -0.9021 1.046
4344000000.0 0.2317 1.4
4347000000.0 1.245 0.7193
4350000000.0 1.336 -0.5182
4353000000.0 0.4734 -1.328
4356000000.0 -0.7364 -1.232
4359000000.0 -1.445 -0.2139
4362000000.0 -1.084 0.9491
4366000000.0 0.03564 1.433
4369000000.0 1.141 0.9047
4372000000.0 1.457 -0.314
4375000000.0 0.6984 -1.35
4378000000.0 -0.5873 -1.365
4381000000.0 -1.453 -0.4574
4384000000.0 -1.224 0.838
4388000000.0 -0.15 1.501
4391000000.0 1.136 1.06
4394000000.0 1.574 -0.2228
4397000000.0 0.815 -1.361
4400000000.0 -0.5111 -1.5
4403000000.0 -1.51 -0.4713
4406000000.0 -1.31 0.8931
4409000000.0 -0.1154 1.599
4412000000.0 1.13 1.044
4416000000.0 1.508 -0.2173
4419000000.0 0.7669 -1.352
4422000000.0 -0.6009 -1.401
4425000000.0 -1.435 -0.3909
4428000000.0 -1.16 0.8665
4431000000.0 -0.03339 1.446
4434000000.0 1.102 0.8868
4438000000.0 1.38 -0.2876
4441000000.0 0.5553 -1.262
4444000000.0 -0.6019 -1.238
4447000000.0 -1.307 -0.2898
4450000000.0 -0.9868 0.882
4453000000.0 0.07932 1.314
4456000000.0 1.07 0.6959
4459000000.0 1.209 -0.4237
4462000000.0 0.4199 -1.194
4466000000.0 -0.6324 -1.04
4469000000.0 -1.222 -0.1187
4472000000.0 -0.7998 0.8904
4475000000.0 0.1976 1.163
4478000000.0 1.007 0.5643
4481000000.0 1.053 -0.4605
4484000000.0 0.2647 -1.119
4488000000.0 -0.6769 -0.9045
4491000000.0 -1.111 -0.04231
4494000000.0 -0.7191 0.8754
4497000000.0 0.2179 1.106
4500000000.0 0.9941 0.5275
4503000000.0 1.032 -0.427
4506000000.0 0.2718 -1.077
4509000000.0 -0.6491 -0.8831
4512000000.0 -1.085 -0.06186
4516000000.0 -0.7639 0.8296
4519000000.0 0.1672 1.102
4522000000.0 0.9629 0.5725
4525000000.0 1.07 -0.4104
4528000000.0 0.3889 -1.117
4531000000.0 -0.5899 -0.984
4534000000.0 -1.131 -0.1444
4538000000.0 -0.8773 0.777
4541000000.0 0.05523 1.173
4544000000.0 0.9586 0.7575
4547000000.0 1.159 -0.2681
4550000000.0 0.5274 -1.081
4553000000.0 -0.4846 -1.119
4556000000.0 -1.18 -0.3255
4559000000.0 -1.002 0.6836
4562000000.0 -0.1286 1.224
4566000000.0 0.8445 0.9042
4569000000.0 1.281 -0.08904
4572000000.0 0.7695 -1.033
4575000000.0 -0.325 -1.246
4578000000.0 -1.138 -0.5784
4581000000.0 -1.234 0.5602
4584000000.0 -0.3487 1.274
4588000000.0 0.7661 1.107
4591000000.0 1.355 0.1068
4594000000.0 0.9625 -0.9942
4597000000.0 -0.151 -1.353
4600000000.0 -1.15 -0.7855
4603000000.0 -1.317 0.3974
4606000000.0 -0.526 1.296
4609000000.0 0.6768 1.226
4612000000.0 1.384 0.2354
4616000000.0 1.038 -0.9149
4619000000.0 -0.01991 -1.376
4622000000.0 -1.092 -0.8628
4625000000.0 -1.347 0.3134
4628000000.0 -0.6053 1.224
4631000000.0 0.5826 1.249
4634000000.0 1.325 0.3423
4638000000.0 1.092 -0.8116
4641000000.0 0.04382 -1.345
4644000000.0 -1.027 -0.8904
4647000000.0 -1.317 0.236
4650000000.0 -0.5999 1.156
4653000000.0 0.5302 1.208
4656000000.0 1.246 0.3061
4659000000.0 1.015 -0.7446
4662000000.0 0.05109 -1.25
4666000000.0 -0.9487 -0.793
4669000000.0 -1.205 0.2325
4672000000.0 -0.5115 1.048
4675000000.0 0.5047 1.076
4678000000.0 1.139 0.285
4681000000.0 0.9022 -0.6961
4684000000.0 0.03567 -1.15
4688000000.0 -0.8198 -0.7063
4691000000.0 -1.061 0.2014
4694000000.0 -0.497 0.9705
4697000000.0 0.4417 1.0
4700000000.0 1.076 0.2588
4703000000.0 0.8385 -0.6797
4706000000.0 0.01986 -1.086
4709000000.0 -0.85 -0.6691
4712000000.0 -1.058 0.262
4716000000.0 -0.4678 0.9572
4719000000.0 0.4534 0.9637
4722000000.0 1.028 0.2232
4725000000.0 0.818 -0.672
4728000000.0 -0.0337 -1.039
4731000000.0 -0.7541 -0.6555
4734000000.0 -1.041 0.2117
4738000000.0 -0.5156 0.9039
4741000000.0 0.4332 0.9586
4744000000.0 1.024 0.319
4747000000.0 0.8896 -0.5809
4750000000.0 0.1251 -1.031
4753000000.0 -0.7367 -0.7921
4756000000.0 -1.081 0.0592
4759000000.0 -0.66 0.8974
4762000000.0 0.2746 1.084
4766000000.0 0.9989 0.5111
4769000000.0 1.041 -0.4689
4772000000.0 0.296 -1.125
4775000000.0 -0.6552 -0.9546
4778000000.0 -1.162 -0.1052
4781000000.0 -0.8361 0.8269
4784000000.0 0.09592 1.187
4788000000.0 0.9793 0.6702
4791000000.0 1.183 -0.3063
4794000000.0 0.5405 -1.137
4797000000.0 -0.5276 -1.115
4800000000.0 -1.214 -0.3476
4803000000.0 -1.025 0.6741
4806000000.0 -0.1537 1.244
4809000000.0 0.8526 0.9238
4812000000.0 1.297 -0.07298
4816000000.0 0.7677 -1.045
4819000000.0 -0.3041 -1.306
4822000000.0 -1.173 -0.5907
4825000000.0 -1.249 0.56
4828000000.0 -0.3521 1.311
4831000000.0 0.7901 1.11
4834000000.0 1.371 0.1015
4838000000.0 0.9425 -1.021
4841000000.0 -0.1721 -1.369
4844000000.0 -1.167 -0.7442
4847000000.0 -1.327 0.4397
4850000000.0 -0.4806 1.307
4853000000.0 0.6968 1.156
4856000000.0 1.316 0.2016
4859000000.0 1.019 -0.9303
4862000000.0 -0.05058 -1.345
4866000000.0 -1.069 -0.7888
4869000000.0 -1.29 0.3234
4872000000.0 -0.5553 1.225
4875000000.0 0.5577 1.166
4878000000.0 1.244 0.2629
4881000000.0 0.9892 -0.8418
4884000000.0 0.009577 -1.257
4888000000.0 -0.9473 -0.7746
4891000000.0 -1.157 0.2726
4894000000.0 -0.5596 1.052
4897000000.0 0.4716 1.047
4900000000.0 1.084 0.2909
4903000000.0 0.8992 -0.6766
4906000000.0 0.02932 -1.074
4909000000.0 -0.7914 -0.7029
4912000000.0 -1.03 0.1724
4916000000.0 -0.523 0.8519
4919000000.0 0.3263 0.9373
4922000000.0 0.9391 0.317
4925000000.0 0.8274 -0.487
4928000000.0 0.1385 -0.9463
4931000000.0 -0.6469 -0.6639
4934000000.0 -0.9522 0.07557
4938000000.0 -0.5327 0.7945
4941000000.0 0.234 0.8863
4944000000.0 0.8497 0.3922
4947000000.0 0.8576 -0.4217
4950000000.0 0.2193 -0.9375
4953000000.0 -0.5703 -0.7413
4956000000.0 -0.9541 0.004052
4959000000.0 -0.6138 0.7472
4962000000.0 0.1741 0.9825
4966000000.0 0.8659 0.4853
4969000000.0 0.8991 -0.3874
4972000000.0 0.2819 -0.9417
4975000000.0 -0.5463 -0.8407
4978000000.0 -0.9916 -0.09881
4981000000.0 -0.726 0.7197
4984000000.0 0.08076 1.037
4988000000.0 0.868 0.5916
4991000000.0 1.021 -0.271
4994000000.0 0.4247 -1.004
4997000000.0 -0.4966 -0.9914
5000000000.0 -1.093 -0.2404
5003000000.0 -0.8951 0.6943
5006000000.0 -0.02364 1.146
5009000000.0 0.8586 0.7852
5012000000.0 1.2 -0.187
5016000000.0 0.6314 -1.055
5019000000.0 -0.417 -1.175
5022000000.0 -1.162 -0.4199
5025000000.0 -1.095 0.6315
5028000000.0 -0.1957 1.261
5031000000.0 0.8659 0.9806
5034000000.0 1.276 -0.07456
5038000000.0 0.7711 -0.9971
5041000000.0 -0.2734 -1.247
5044000000.0 -1.132 -0.6131
5047000000.0 -1.198 0.5047
5050000000.0 -0.386 1.212
5053000000.0 0.7092 1.08
5056000000.0 1.325 0.1493
5059000000.0 0.9512 -0.8881
5062000000.0 -0.05958 -1.283
5066000000.0 -1.04 -0.7716
5069000000.0 -1.272 0.3096
5072000000.0 -0.5661 1.129
5075000000.0 0.5563 1.139
5078000000.0 1.225 0.3656
5081000000.0 1.005 -0.7222
5084000000.0 0.09874 -1.247
5088000000.0 -0.835 -0.8784
5091000000.0 -1.203 0.1281
5094000000.0 -0.7059 0.9452
5097000000.0 0.3231 1.146
5100000000.0 1.035 0.4307
5103000000.0 1.016 -0.5125
5106000000.0 0.2828 -1.068
5109000000.0 -0.5878 -0.8972
5112000000.0 -1.114 -0.08383
5116000000.0 -0.7515 0.7748
5119000000.0 0.09254 1.021
5122000000.0 0.8784 0.5869
5125000000.0 0.9754 -0.2833
5128000000.0 0.42 -0.91
5131000000.0 -0.4554 -0.8717
5134000000.0 -0.9747 -0.2386
5138000000.0 -0.7569 0.6185
5141000000.0 0.002469 0.9564
5144000000.0 0.7249 0.6318
5147000000.0 0.9561 -0.1473
5150000000.0 0.477 -0.8347
5153000000.0 -0.349 -0.8417
5156000000.0 -0.8366 -0.2657
5159000000.0 -0.7858 0.5022
5162000000.0 -0.1028 0.9476
5166000000.0 0.6382 0.6235
5169000000.0 0.8833 -0.06644
5172000000.0 0.4888 -0.7412
5175000000.0 -0.2791 -0.8382
5178000000.0 -0.8437 -0.3425
5181000000.0 -0.7979 0.4484
5184000000.0 -0.1422 0.9023
5188000000.0 0.6198 0.699
5191000000.0 0.9039 -0.04876
5194000000.0 0.5357 -0.7421
5197000000.0 -0.2815 -0.8737
5200000000.0 -0.8653 -0.3773
5203000000.0 -0.8282 0.4705
5206000000.0 -0.1717 0.9413
5209000000.0 0.6338 0.7031
5212000000.0 0.9449 -0.05208
5216000000.0 0.5793 -0.774
5219000000.0 -0.2505 -0.9393
5222000000.0 -0.8985 -0.4405
5225000000.0 -0.8934 0.4437
5228000000.0 -0.2471 0.9735
5231000000.0 0.6074 0.8305
5234000000.0 1.017 0.06841
5238000000.0 0.6858 -0.7817
5241000000.0 -0.1557 -1.017
5244000000.0 -0.8848 -0.5572
5247000000.0 -1.021 0.3736
5250000000.0 -0.3662 0.9987
5253000000.0 0.5497 0.9168
5256000000.0 1.065 0.1526
5259000000.0 0.8042 -0.7197
5262000000.0 -0.01804 -1.09
5266000000.0 -0.852 -0.684
5269000000.0 -1.06 0.191
5272000000.0 -0.518 0.9578
5275000000.0 0.3816 1.012
5278000000.0 1.005 0.3628
5281000000.0 0.9525 -0.5339
5284000000.0 0.1805 -1.086
5288000000.0 -0.6882 -0.8461
5291000000.0 -1.075 -0.02917
5294000000.0 -0.7559 0.8594
5297000000.0 0.1437 1.086
5300000000.0 0.9566 0.581
5303000000.0 1.072 -0.3638
5306000000.0 0.4472 -1.057
5309000000.0 -0.5218 -1.021
5312000000.0 -1.112 -0.2221
5316000000.0 -0.9106 0.6607
5319000000.0 -0.0575 1.136
5322000000.0 0.8501 0.7965
5325000000.0 1.151 -0.1438
5328000000.0 0.5749 -0.9602
5331000000.0 -0.3416 -1.073
5334000000.0 -1.066 -0.4065
5338000000.0 -1.011 0.5326
5341000000.0 -0.2128 1.122
5344000000.0 0.7022 0.8502
5347000000.0 1.11 0.003558
5350000000.0 0.6939 -0.8791
5353000000.0 -0.2199 -1.084
5356000000.0 -0.9416 -0.5109
5359000000.0 -0.9812 0.4406
5362000000.0 -0.2868 1.02
5366000000.0 0.6264 0.8991
5369000000.0 1.052 0.05744
5372000000.0 0.7064 -0.7906
5375000000.0 -0.1366 -1.022
5378000000.0 -0.8874 -0.5168
5381000000.0 -0.9564 0.387
5384000000.0 -0.2789 0.9359
5388000000.0 0.5629 0.8132
5391000000.0 0.9468 0.07339
5394000000.0 0.6327 -0.7197
5397000000.0 -0.1722 -0.9086
5400000000.0 -0.837 -0.4326
5403000000.0 -0.8094 0.3336
5406000000.0 -0.2464 0.8542
5409000000.0 0.5287 0.6877
5412000000.0 0.8855 0.03455
5416000000.0 0.5755 -0.6756
5419000000.0 -0.161 -0.8249
5422000000.0 -0.7512 -0.4298
5425000000.0 -0.7857 0.3309
5428000000.0 -0.2353 0.8157
5431000000.0 0.514 0.7116
5434000000.0 0.8684 0.05328
5438000000.0 0.5651 -0.6343
5441000000.0 -0.1527 -0.8375
5444000000.0 -0.7512 -0.4131
5447000000.0 -0.799 0.3389
5450000000.0 -0.2343 0.8442
5453000000.0 0.5179 0.7004
5456000000.0 0.8792 0.0566
5459000000.0 0.5855 -0.6673
5462000000.0 -0.1284 -0.9032
5466000000.0 -0.7948 -0.4701
5469000000.0 -0.8712 0.2862
5472000000.0 -0.334 0.8574
5475000000.0 0.4351 0.8068
5478000000.0 0.9387 0.1897
5481000000.0 0.7485 -0.5742
5484000000.0 0.006016 -0.9738
5488000000.0 -0.7143 -0.6714
5491000000.0 -0.9536 0.1324
5494000000.0 -0.5197 0.8208
5497000000.0 0.307 0.9789
5500000000.0 0.9479 0.3806
5503000000.0 0.8666 -0.5031
5506000000.0 0.1782 -1.015
5509000000.0 -0.6217 -0.7833
5512000000.0 -1.012 -0.0001835
5516000000.0 -0.678 0.7652
5519000000.0 0.1772 0.9862
5522000000.0 0.8786 0.517
5525000000.0 0.9689 -0.3618
5528000000.0 0.4077 -0.9455
5531000000.0 -0.4889 -0.923
5534000000.0 -1.042 -0.2436
5538000000.0 -0.8244 0.6383
5541000000.0 -0.06518 1.095
5544000000.0 0.7804 0.7317
5547000000.0 1.051 -0.1692
5550000000.0 0.5639 -0.9028
5553000000.0 -0.3513 -1.002
5556000000.0 -1.016 -0.3707
5559000000.0 -0.9104 0.5111
5562000000.0 -0.1895 1.037
5566000000.0 0.6436 0.7895
5569000000.0 1.025 0.002597
5572000000.0 0.6277 -0.7976
5575000000.0 -0.1406 -1.004
5578000000.0 -0.894 -0.4822
5581000000.0 -0.9033 0.3584
5584000000.0 -0.2697 0.9447
5588000000.0 0.5284 0.7852
5591000000.0 0.966 0.09028
5594000000.0 0.6914 -0.6646
5597000000.0 -0.06332 -0.9672
5600000000.0 -0.7268 -0.5372
5603000000.0 -0.8732 0.2408
5606000000.0 -0.3549 0.8
5609000000.0 0.4128 0.8004
5612000000.0 0.8617 0.1786
5616000000.0 0.6637 -0.5542
5619000000.0 -0.03724 -0.818
5622000000.0 -0.653 -0.508
5625000000.0 -0.8144 0.1605
5628000000.0 -0.3906 0.7669
5631000000.0 0.3388 0.7684
5634000000.0 0.7934 0.1777
5638000000.0 0.6733 -0.505
5641000000.0 0.03511 -0.8294
5644000000.0 -0.6271 -0.5346
5647000000.0 -0.8355 0.1661
5650000000.0 -0.3887 0.732
5653000000.0 0.3338 0.7698
5656000000.0 0.7913 0.2227
5659000000.0 0.6812 -0.527
5662000000.0 0.03586 -0.8456
5666000000.0 -0.6616 -0.5295
5669000000.0 -0.8707 0.1505
5672000000.0 -0.3974 0.8011
5675000000.0 0.346 0.8055
5678000000.0 0.876 0.2389
5681000000.0 0.7438 -0.5143
5684000000.0 0.0399 -0.9208
5688000000.0 -0.7098 -0.6284
5691000000.0 -0.9444 0.1588
5694000000.0 -0.4886 0.8513
5697000000.0 0.3715 0.9465
5700000000.0 0.9434 0.3395
5703000000.0 0.8254 -0.5597
5706000000.0 0.1039 -0.9987
5709000000.0 -0.7223 -0.7329
5712000000.0 -1.02 0.08674
5716000000.0 -0.5825 0.8427
5719000000.0 0.3084 1.008
5722000000.0 0.9735 0.4446
5725000000.0 0.9476 -0.4761
5728000000.0 0.2769 -1.039
5731000000.0 -0.6908 -0.842
5734000000.0 -1.054 -0.03963
5738000000.0 -0.7243 0.796
5741000000.0 0.1484 1.071
5744000000.0 0.9511 0.5524
5747000000.0 1.048 -0.3495
5750000000.0 0.3837 -1.044
5753000000.0 -0.5019 -0.9705
5756000000.0 -1.084 -0.2137
5759000000.0 -0.8622 0.7009
5762000000.0 0.004476 1.104
5766000000.0 0.8431 0.7479
5769000000.0 1.082 -0.169
5772000000.0 0.5736 -0.9396
5775000000.0 -0.3683 -1.034
5778000000.0 -1.022 -0.3546
5781000000.0 -0.9662 0.5533
5784000000.0 -0.1541 1.091
5788000000.0 0.6951 0.7679
5791000000.0 1.047 0.0007662
5794000000.0 0.6865 -0.814
5797000000.0 -0.1889 -1.035
5800000000.0 -0.962 -0.4967
5803000000.0 -0.989 0.415
5806000000.0 -0.322 1.046
5809000000.0 0.5694 0.8739
5812000000.0 1.036 0.1156
5816000000.0 0.7771 -0.6986
5819000000.0 -0.09727 -1.028
5822000000.0 -0.8708 -0.5742
5825000000.0 -0.9408 0.2562
5828000000.0 -0.3999 0.9303
5831000000.0 0.4654 0.8841
5834000000.0 0.9565 0.1952
5838000000.0 0.7515 -0.6024
5841000000.0 -0.001693 -0.9511
5844000000.0 -0.75 -0.5734
5847000000.0 -0.9231 0.1943
5850000000.0 -0.4115 0.8286
5853000000.0 0.3694 0.8778
5856000000.0 0.9026 0.2309
5859000000.0 0.7125 -0.5545
5862000000.0 0.02402 -0.9286
5866000000.0 -0.6907 -0.5895
5869000000.0 -0.9063 0.1797
5872000000.0 -0.4136 0.8508
5875000000.0 0.3369 0.7837
5878000000.0 0.8531 0.2469
5881000000.0 0.7097 -0.4959
5884000000.0 0.05562 -0.8209
5888000000.0 -0.6288 -0.5628
5891000000.0 -0.8373 0.1465
5894000000.0 -0.4187 0.7594
5897000000.0 0.2837 0.7945
5900000000.0 0.8338 0.2792
5903000000.0 0.6573 -0.4574
5906000000.0 0.1065 -0.8438
5909000000.0 -0.5918 -0.6537
5912000000.0 -0.8657 0.09489
5916000000.0 -0.4943 0.6991
5919000000.0 0.2739 0.8396
5922000000.0 0.7844 0.3174
5925000000.0 0.7855 -0.3837
5928000000.0 0.1785 -0.8549
5931000000.0 -0.5645 -0.6915
5934000000.0 -0.8794 -0.0142
5938000000.0 -0.5823 0.6714
5941000000.0 0.1249 0.8819
5944000000.0 0.7951 0.4416
5947000000.0 0.8428 -0.3071
5950000000.0 0.3353 -0.8388
5953000000.0 -0.4562 -0.8111
5956000000.0 -0.8893 -0.1341
5959000000.0 -0.6878 0.6167
5962000000.0 0.0004291 0.9272
5966000000.0 0.727 0.6182
5969000000.0 0.9269 -0.1507
5972000000.0 0.4386 -0.8494
5975000000.0 -0.3311 -0.8896
5978000000.0 -0.9329 -0.3098
5981000000.0 -0.8397 0.4943
5984000000.0 -0.1263 0.9624
5988000000.0 0.653 0.7505
5991000000.0 0.9819 -0.01402
5994000000.0 0.6304 -0.7701
5997000000.0 -0.2116 -0.968
6000000000.0 -0.8912 -0.4897
6003000000.0 -0.8941 0.3941
6006000000.0 -0.266 0.9353
6009000000.0 0.5355 0.8158
6012000000.0 1.0 0.08049
6016000000.0 0.6846 -0.71
6019000000.0 -0.1201 -1.005
6022000000.0 -0.8309 -0.5271
6025000000.0 -0.9334 0.2771
6028000000.0 -0.3674 0.9213
6031000000.0 0.4811 0.8487
6034000000.0 0.9486 0.1705
6038000000.0 0.7243 -0.6475
6041000000.0 -0.0003066 -0.9615
6044000000.0 -0.7565 -0.5973
6047000000.0 -0.9123 0.2594
6050000000.0 -0.4216 0.8331
6053000000.0 0.3964 0.8758
6056000000.0 0.9016 0.2235
6059000000.0 0.7265 -0.561
6062000000.0 0.005611 -0.9153
6066000000.0 -0.665 -0.5805
6069000000.0 -0.883 0.1658
6072000000.0 -0.4554 0.7741
6075000000.0 0.326 0.8086
6078000000.0 0.8321 0.2584
6081000000.0 0.7061 -0.5061
6084000000.0 0.06378 -0.8725
6088000000.0 -0.6281 -0.6103
6091000000.0 -0.8544 0.1206
6094000000.0 -0.4619 0.7347
6097000000.0 0.2825 0.8071
6100000000.0 0.7979 0.2811
6103000000.0 0.7367 -0.4418
6106000000.0 0.1345 -0.8538
6109000000.0 -0.5955 -0.6179
6112000000.0 -0.8473 0.0433
6116000000.0 -0.492 0.7044
6119000000.0 0.2419 0.8196
6122000000.0 0.7987 0.306
6125000000.0 0.7734 -0.4158
6128000000.0 0.1506 -0.8423
6131000000.0 -0.5616 -0.6642
6134000000.0 -0.8664 0.0522
6138000000.0 -0.5316 0.7001
6141000000.0 0.2071 0.8962
6144000000.0 0.7827 0.3467
6147000000.0 0.8175 -0.4148
6150000000.0 0.2167 -0.8556
6153000000.0 -0.5455 -0.7222
6156000000.0 -0.9127 -0.01805
6159000000.0 -0.6236 0.6869
6162000000.0 0.1486 0.9256
6166000000.0 0.8053 0.4291
6169000000.0 0.8754 -0.3104
6172000000.0 0.3086 -0.8715
6175000000.0 -0.4722 -0.8043
6178000000.0 -0.9239 -0.1128
6181000000.0 -0.6957 0.6502
6184000000.0 0.06322 0.9128
6188000000.0 0.7902 0.5527
6191000000.0 0.891 -0.2637
6194000000.0 0.378 -0.8621
6197000000.0 -0.4441 -0.838
6200000000.0 -0.8911 -0.1767
6203000000.0 -0.7398 0.5691
6206000000.0 -0.06583 0.9304
6209000000.0 0.7048 0.5917
6212000000.0 0.9196 -0.1414
6216000000.0 0.4387 -0.8294
6219000000.0 -0.3142 -0.8952
6222000000.0 -0.8752 -0.2746
6225000000.0 -0.7653 0.4899
6228000000.0 -0.1637 0.9174
6231000000.0 0.6122 0.6494
6234000000.0 0.8999 -0.08082
6238000000.0 0.5397 -0.6984
6241000000.0 -0.1926 -0.8703
6244000000.0 -0.7914 -0.3858
6247000000.0 -0.7766 0.3516
6250000000.0 -0.2209 0.8331
6253000000.0 0.4476 0.7419
6256000000.0 0.8271 0.08342
6259000000.0 0.5903 -0.5653
6262000000.0 -0.04343 -0.8214
6266000000.0 -0.656 -0.4605
