! Created with skrf 1.8.0 (http://scikit-rf.org).
# Hz S RI R 50.0 
!freq ReS11 ImS11
4000000000.0 -0.4549 -1.405
4003000000.0 -1.45 -0.5302
4006000000.0 -1.292 0.769
4009000000.0 -0.1865 1.518
4012000000.0 1.067 1.091
4016000000.0 1.595 -0.1416
4019000000.0 0.8813 -1.322
4022000000.0 -0.4702 -1.542
4025000000.0 -1.418 -0.5702
4028000000.0 -1.419 0.8156
4031000000.0 -0.2167 1.613
4034000000.0 1.088 1.167
4038000000.0 1.644 -0.1469
4041000000.0 0.9115 -1.368
4044000000.0 -0.5187 -1.559
4047000000.0 -1.557 -0.5574
4050000000.0 -1.429 0.8023
4053000000.0 -0.2248 1.566
4056000000.0 1.025 1.26
4059000000.0 1.641 -0.02464
4062000000.0 1.01 -1.271
4066000000.0 -0.3411 -1.574
4069000000.0 -1.432 -0.7315
4072000000.0 -1.531 0.6169
4075000000.0 -0.4605 1.589
4078000000.0 0.8814 1.327
4081000000.0 1.656 0.2111
4084000000.0 1.17 -1.12
4088000000.0 -0.1138 -1.631
4091000000.0 -1.317 -0.9541
4094000000.0 -1.533 0.4512
4097000000.0 -0.6638 1.496
4100000000.0 0.7175 1.445
4103000000.0 1.501 0.3619
4106000000.0 1.261 -0.8963
4109000000.0 0.1103 -1.554
4112000000.0 -1.086 -1.056
4116000000.0 -1.496 0.1215
4119000000.0 -0.8549 1.191
4122000000.0 0.3595 1.425
4125000000.0 1.287 0.6657
4128000000.0 1.334 -0.5334
4131000000.0 0.4608 -1.337
4134000000.0 -0.7722 -1.255
4138000000.0 -1.465 -0.2441
4141000000.0 -1.127 0.9458
4144000000.0 -0.001389 1.487
4147000000.0 1.132 0.963
4150000000.0 1.452 -0.2546
4153000000.0 0.7803 -1.283
4156000000.0 -0.5297 -1.422
4159000000.0 -1.4 -0.5273
4162000000.0 -1.273 0.7778
4166000000.0 -0.2234 1.455
4169000000.0 1.022 1.12
4172000000.0 1.502 -0.03936
4175000000.0 0.8974 -1.174
4178000000.0 -0.3319 -1.435
4181000000.0 -1.335 -0.6865
4184000000.0 -1.336 0.6089
4188000000.0 -0.3775 1.459
4191000000.0 0.8964 1.226
4194000000.0 1.52 0.05557
4197000000.0 0.9843 -1.18
4200000000.0 -0.3002 -1.533
4203000000.0 -1.404 -0.7255
4206000000.0 -1.432 0.6612
4209000000.0 -0.3228 1.569
4212000000.0 1.057 1.234
4216000000.0 1.581 -0.1282
4219000000.0 0.9015 -1.358
4222000000.0 -0.5621 -1.526
4225000000.0 -1.576 -0.4187
4228000000.0 -1.276 0.987
4231000000.0 -0.02973 1.619
4234000000.0 1.28 0.9301
4238000000.0 1.473 -0.4667
4241000000.0 0.4956 -1.474
4244000000.0 -0.7883 -1.294
4247000000.0 -1.454 -0.1298
4250000000.0 -1.002 1.097
4253000000.0 0.2136 1.44
4256000000.0 1.256 0.6742
4259000000.0 1.324 -0.5443
4262000000.0 0.3775 -1.336
4266000000.0 -0.857 -1.139
4269000000.0 -1.425 -0.05513
4272000000.0 -0.9143 1.122
4275000000.0 0.3018 1.375
4278000000.0 1.234 0.5829
4281000000.0 1.269 -0.6092
4284000000.0 0.3172 -1.358
4288000000.0 -0.8013 -1.101
4291000000.0 -1.325 -0.06426
4294000000.0 -0.8507 1.025
4297000000.0 0.2356 1.307
4300000000.0 1.154 0.6419
4303000000.0 1.208 -0.4387
4306000000.0 0.4329 -1.21
4309000000.0 -0.6375 -1.168
4312000000.0 -1.261 -0.249
4316000000.0 -1.001 0.8371
4319000000.0 -0.0538 1.285
4322000000.0 0.9897 0.9071
4325000000.0 1.35 -0.189
4328000000.0 0.7123 -1.172
4331000000.0 -0.479 -1.359
4334000000.0 -1.32 -0.5159
4338000000.0 -1.254 0.7374
4341000000.0 -0.2341 1.399
4344000000.0 0.9419 1.11
4347000000.0 1.459 -0.05371
4350000000.0 0.9053 -1.202
4353000000.0 -0.4052 -1.473
4356000000.0 -1.412 -0.6047
4359000000.0 -1.377 0.6991
4362000000.0 -0.3626 1.478
4366000000.0 0.9769 1.176
4369000000.0 1.54 -0.005487
4372000000.0 0.9414 -1.201
4375000000.0 -0.3413 -1.492
4378000000.0 -1.379 -0.6508
4381000000.0 -1.399 0.6848
4384000000.0 -0.3376 1.528
4388000000.0 0.9918 1.202
4391000000.0 1.527 -0.0432
4394000000.0 0.8862 -1.246
4397000000.0 -0.4674 -1.464
4400000000.0 -1.442 -0.5784
4403000000.0 -1.248 0.8089
4406000000.0 -0.1356 1.462
4409000000.0 1.114 0.9546
4412000000.0 1.386 -0.2639
4416000000.0 0.634 -1.283
4419000000.0 -0.6454 -1.252
4422000000.0 -1.322 -0.2514
4425000000.0 -1.007 0.8887
4428000000.0 0.09619 1.326
4431000000.0 1.071 0.7164
4434000000.0 1.207 -0.4044
4438000000.0 0.4118 -1.186
4441000000.0 -0.6897 -1.043
4444000000.0 -1.214 -0.08642
4447000000.0 -0.8353 0.8894
4450000000.0 0.2166 1.206
4453000000.0 1.058 0.5798
4456000000.0 1.091 -0.5075
4459000000.0 0.2618 -1.135
4462000000.0 -0.7286 -0.9396
4466000000.0 -1.17 -0.0157
4469000000.0 -0.7474 0.9106
4472000000.0 0.2295 1.186
4475000000.0 1.069 0.509
4478000000.0 1.094 -0.5349
4481000000.0 0.2928 -1.178
4484000000.0 -0.7378 -0.9136
4488000000.0 -1.219 -0.03065
4491000000.0 -0.7565 0.9395
4494000000.0 0.2126 1.177
4497000000.0 1.096 0.5702
4500000000.0 1.152 -0.4497
4503000000.0 0.3723 -1.134
4506000000.0 -0.6545 -1.003
4509000000.0 -1.224 -0.1532
4512000000.0 -0.8936 0.8679
4516000000.0 0.09314 1.257
4519000000.0 1.029 0.7542
4522000000.0 1.241 -0.3268
4525000000.0 0.5513 -1.212
4528000000.0 -0.5921 -1.196
4531000000.0 -1.272 -0.3084
4534000000.0 -1.062 0.7966
4538000000.0 -0.05153 1.313
4541000000.0 0.9977 0.8931
4544000000.0 1.335 -0.1856
4547000000.0 0.7048 -1.142
4550000000.0 -0.4125 -1.293
4553000000.0 -1.287 -0.4942
4556000000.0 -1.195 0.6729
4559000000.0 -0.2534 1.34
4562000000.0 0.8684 1.07
4566000000.0 1.396 0.02461
4569000000.0 0.889 -1.064
4572000000.0 -0.2664 -1.391
4575000000.0 -1.221 -0.6858
4578000000.0 -1.285 0.5143
4581000000.0 -0.3933 1.354
4584000000.0 0.803 1.182
4588000000.0 1.441 0.1304
4591000000.0 0.9812 -1.005
4594000000.0 -0.1459 -1.397
4597000000.0 -1.223 -0.7484
4600000000.0 -1.338 0.4644
4603000000.0 -0.4285 1.332
4606000000.0 0.7392 1.171
4609000000.0 1.378 0.1571
4612000000.0 0.974 -0.9538
4616000000.0 -0.1551 -1.362
4619000000.0 -1.116 -0.7173
4622000000.0 -1.26 0.4566
4625000000.0 -0.4418 1.22
4628000000.0 0.7259 1.087
4631000000.0 1.252 0.1208
4634000000.0 0.8829 -0.9418
4638000000.0 -0.1658 -1.225
4641000000.0 -1.033 -0.6203
4644000000.0 -1.141 0.482
4647000000.0 -0.3448 1.145
4650000000.0 0.6857 0.9956
4653000000.0 1.219 0.07196
4656000000.0 0.75 -0.8742
4659000000.0 -0.2109 -1.097
4662000000.0 -1.0 -0.5436
4666000000.0 -1.042 0.4289
4669000000.0 -0.2578 1.06
4672000000.0 0.6734 0.9064
4675000000.0 1.05 0.009508
4678000000.0 0.6993 -0.8394
4681000000.0 -0.2372 -1.043
4684000000.0 -0.9592 -0.4959
4688000000.0 -0.9596 0.4396
4691000000.0 -0.2792 1.049
4694000000.0 0.6542 0.8739
4697000000.0 1.1 0.1035
4700000000.0 0.7197 -0.8476
4703000000.0 -0.1228 -1.131
4706000000.0 -0.9527 -0.5677
4709000000.0 -1.092 0.3961
4712000000.0 -0.3657 1.104
4716000000.0 0.6614 0.9878
4719000000.0 1.173 0.1465
4722000000.0 0.8288 -0.8072
4725000000.0 -0.08524 -1.192
4728000000.0 -0.9745 -0.6743
4731000000.0 -1.17 0.2996
4734000000.0 -0.48 1.073
4738000000.0 0.5073 1.078
4741000000.0 1.146 0.3155
4744000000.0 1.019 -0.691
4747000000.0 0.1014 -1.215
4750000000.0 -0.9254 -0.9196
4753000000.0 -1.264 0.09888
4756000000.0 -0.7259 1.048
4759000000.0 0.333 1.257
4762000000.0 1.187 0.5656
4766000000.0 1.174 -0.5676
4769000000.0 0.2936 -1.295
4772000000.0 -0.8205 -1.095
4775000000.0 -1.356 -0.06288
4778000000.0 -0.9334 1.021
4781000000.0 0.1907 1.357
4784000000.0 1.198 0.7122
4788000000.0 1.306 -0.4697
4791000000.0 0.5037 -1.269
4794000000.0 -0.7078 -1.23
4797000000.0 -1.387 -0.2182
4800000000.0 -1.051 0.928
4803000000.0 0.01498 1.365
4806000000.0 1.096 0.8249
4809000000.0 1.33 -0.3371
4812000000.0 0.5917 -1.242
4816000000.0 -0.6104 -1.224
4819000000.0 -1.351 -0.2923
4822000000.0 -1.06 0.853
4825000000.0 0.004755 1.361
4828000000.0 1.032 0.8182
4831000000.0 1.299 -0.306
4834000000.0 0.528 -1.194
4838000000.0 -0.5941 -1.123
4841000000.0 -1.232 -0.2597
4844000000.0 -0.9478 0.8037
4847000000.0 0.038 1.204
4850000000.0 0.9513 0.6805
4853000000.0 1.125 -0.3055
4856000000.0 0.4617 -1.013
4859000000.0 -0.5434 -0.9637
4862000000.0 -1.045 -0.2024
4866000000.0 -0.798 0.7042
4869000000.0 0.05465 1.025
4872000000.0 0.8421 0.5804
4875000000.0 0.9645 -0.2878
4878000000.0 0.3947 -0.9352
4881000000.0 -0.4953 -0.8633
4884000000.0 -0.9744 -0.1577
4888000000.0 -0.7432 0.662
4891000000.0 0.08682 0.9444
4894000000.0 0.7377 0.5217
4897000000.0 0.9075 -0.305
4900000000.0 0.3433 -0.9064
4903000000.0 -0.4951 -0.8184
4906000000.0 -0.9447 -0.141
4909000000.0 -0.6903 0.6327
4912000000.0 0.09306 0.9712
4916000000.0 0.8312 0.5327
4919000000.0 0.8884 -0.2989
4922000000.0 0.3551 -0.9237
4925000000.0 -0.497 -0.8407
4928000000.0 -0.9909 -0.1595
4931000000.0 -0.7599 0.6755
4934000000.0 0.02766 1.035
4938000000.0 0.8471 0.6375
4941000000.0 1.034 -0.2604
4944000000.0 0.4311 -0.9952
4947000000.0 -0.5106 -1.02
4950000000.0 -1.105 -0.236
4953000000.0 -0.8818 0.7333
4956000000.0 0.0303 1.199
4959000000.0 0.9616 0.7015
4962000000.0 1.192 -0.3106
4966000000.0 0.527 -1.151
4969000000.0 -0.583 -1.122
4972000000.0 -1.265 -0.2244
4975000000.0 -0.9739 0.8383
4978000000.0 0.05604 1.29
4981000000.0 1.057 0.7472
4984000000.0 1.247 -0.347
4988000000.0 0.4813 -1.181
4991000000.0 -0.6328 -1.135
4994000000.0 -1.268 -0.189
4997000000.0 -0.9602 0.8866
5000000000.0 0.0883 1.275
5003000000.0 1.071 0.7153
5006000000.0 1.204 -0.3745
5009000000.0 0.4338 -1.168
5012000000.0 -0.6345 -1.046
5016000000.0 -1.198 -0.1302
5019000000.0 -0.841 0.8597
5022000000.0 0.1479 1.152
5025000000.0 0.9804 0.5748
5028000000.0 1.026 -0.4227
5031000000.0 0.2814 -1.054
5034000000.0 -0.6019 -0.8319
5038000000.0 -0.9891 0.004676
5041000000.0 -0.5968 0.7641
5044000000.0 0.234 0.9567
5047000000.0 0.8255 0.3868
5050000000.0 0.8277 -0.4598
5053000000.0 0.1668 -0.8924
5056000000.0 -0.609 -0.6676
5059000000.0 -0.9112 0.07406
5062000000.0 -0.479 0.7744
5066000000.0 0.3178 0.8332
5069000000.0 0.8539 0.2464
5072000000.0 0.6938 -0.5542
5075000000.0 -0.04673 -0.9118
5078000000.0 -0.735 -0.4849
5081000000.0 -0.8374 0.2964
5084000000.0 -0.2576 0.8645
5088000000.0 0.5441 0.7332
5091000000.0 0.9125 -0.002123
5094000000.0 0.5331 -0.7699
5097000000.0 -0.2887 -0.9148
5100000000.0 -0.8847 -0.3014
5103000000.0 -0.7802 0.5517
5106000000.0 -0.03311 1.011
5109000000.0 0.7832 0.6846
5112000000.0 1.05 -0.2468
5116000000.0 0.4668 -0.9516
5119000000.0 -0.5003 -0.9498
5122000000.0 -1.056 -0.1825
5125000000.0 -0.8178 0.7474
5128000000.0 0.1015 1.124
5131000000.0 0.9224 0.6258
5134000000.0 1.051 -0.397
5138000000.0 0.3274 -1.063
5141000000.0 -0.6153 -0.9384
5144000000.0 -1.134 -0.04197
5147000000.0 -0.7326 0.8441
5150000000.0 0.2062 1.115
5153000000.0 0.9926 0.5311
5156000000.0 1.03 -0.4583
5159000000.0 0.3263 -1.071
5162000000.0 -0.6412 -0.8935
5166000000.0 -1.122 -0.07886
5169000000.0 -0.7248 0.7956
5172000000.0 0.1327 1.089
5175000000.0 0.9163 0.5576
5178000000.0 1.032 -0.3941
5181000000.0 0.3078 -1.007
5184000000.0 -0.5768 -0.8945
5188000000.0 -1.022 -0.1146
5191000000.0 -0.713 0.742
5194000000.0 0.1104 1.023
5197000000.0 0.8505 0.5492
5200000000.0 0.9596 -0.346
5203000000.0 0.3153 -0.9576
5206000000.0 -0.5452 -0.8447
5209000000.0 -1.018 -0.07518
5212000000.0 -0.693 0.714
5216000000.0 0.1793 0.9687
5219000000.0 0.8547 0.4766
5222000000.0 0.8827 -0.3682
5225000000.0 0.2277 -0.9353
5228000000.0 -0.6034 -0.7617
5231000000.0 -0.9656 0.02132
5234000000.0 -0.5484 0.7952
5238000000.0 0.2658 0.9065
5241000000.0 0.8901 0.3413
5244000000.0 0.8333 -0.5006
5247000000.0 0.06462 -0.9601
5250000000.0 -0.7102 -0.6075
5253000000.0 -0.9618 0.201
5256000000.0 -0.4176 0.868
5259000000.0 0.4495 0.8485
5262000000.0 0.9383 0.1653
5266000000.0 0.6978 -0.6363
5269000000.0 -0.06498 -0.9769
5272000000.0 -0.8403 -0.5299
5275000000.0 -0.9239 0.3192
5278000000.0 -0.3101 0.9475
5281000000.0 0.5315 0.8368
5284000000.0 0.9885 0.1018
5288000000.0 0.6567 -0.7182
5291000000.0 -0.1317 -0.9851
5294000000.0 -0.8688 -0.5125
5297000000.0 -0.9762 0.3397
5300000000.0 -0.3375 0.9926
5303000000.0 0.5327 0.9141
5306000000.0 1.033 0.1578
5309000000.0 0.7695 -0.7289
5312000000.0 -0.07289 -1.043
5316000000.0 -0.8618 -0.6439
5319000000.0 -1.038 0.2724
5322000000.0 -0.4783 0.9728
5325000000.0 0.4694 1.003
5328000000.0 1.088 0.2539
5331000000.0 0.8771 -0.656
5334000000.0 0.07674 -1.113
5338000000.0 -0.8035 -0.771
5341000000.0 -1.086 0.1225
5344000000.0 -0.6093 0.9203
5347000000.0 0.3296 1.074
5350000000.0 1.045 0.4356
5353000000.0 1.012 -0.5095
5356000000.0 0.2412 -1.134
5359000000.0 -0.6981 -0.9086
5362000000.0 -1.126 -0.07768
5366000000.0 -0.7783 0.8534
5369000000.0 0.1386 1.156
5372000000.0 0.9886 0.5754
5375000000.0 1.067 -0.4039
5378000000.0 0.4 -1.097
5381000000.0 -0.6009 -0.9842
5384000000.0 -1.149 -0.1464
5388000000.0 -0.8777 0.7716
5391000000.0 0.09157 1.151
5394000000.0 0.9448 0.6909
5397000000.0 1.079 -0.3001
5400000000.0 0.4279 -1.012
5403000000.0 -0.4803 -0.9728
5406000000.0 -1.097 -0.2418
5409000000.0 -0.8404 0.6998
5412000000.0 0.0007685 1.058
5416000000.0 0.8402 0.635
5419000000.0 0.9875 -0.2617
5422000000.0 0.434 -0.9376
5425000000.0 -0.4849 -0.93
5428000000.0 -1.035 -0.1917
5431000000.0 -0.7584 0.6792
5434000000.0 0.05551 1.018
5438000000.0 0.8042 0.5581
5441000000.0 0.9232 -0.3157
5444000000.0 0.3158 -0.9084
5447000000.0 -0.5251 -0.7891
5450000000.0 -0.9109 -0.07176
5453000000.0 -0.6269 0.6886
5456000000.0 0.1381 0.8714
5459000000.0 0.7435 0.4321
5462000000.0 0.8087 -0.3621
5466000000.0 0.2434 -0.8118
5469000000.0 -0.5103 -0.684
5472000000.0 -0.8815 -0.02716
5475000000.0 -0.5298 0.6306
5478000000.0 0.1873 0.8378
5481000000.0 0.7258 0.3782
5484000000.0 0.785 -0.3827
5488000000.0 0.2137 -0.8234
5491000000.0 -0.4994 -0.6942
5494000000.0 -0.8582 -0.02509
5497000000.0 -0.5578 0.649
5500000000.0 0.1264 0.863
5503000000.0 0.7652 0.4355
5506000000.0 0.7931 -0.2898
5509000000.0 0.3017 -0.8805
5512000000.0 -0.4791 -0.7537
5516000000.0 -0.9003 -0.1322
5519000000.0 -0.6574 0.625
5522000000.0 0.08537 0.9124
5525000000.0 0.7843 0.5265
5528000000.0 0.9281 -0.266
5531000000.0 0.4076 -0.847
5534000000.0 -0.4065 -0.8703
5538000000.0 -0.9205 -0.2829
5541000000.0 -0.8272 0.5865
5544000000.0 -0.08727 1.016
5547000000.0 0.7118 0.6984
5550000000.0 1.041 -0.08097
5553000000.0 0.6009 -0.8362
5556000000.0 -0.268 -0.9734
5559000000.0 -0.959 -0.4343
5562000000.0 -0.9541 0.434
5566000000.0 -0.2449 1.016
5569000000.0 0.6191 0.8344
5572000000.0 1.04 0.08753
5575000000.0 0.7403 -0.7767
5578000000.0 -0.1102 -1.036
5581000000.0 -0.8868 -0.5834
5584000000.0 -0.9875 0.3274
5588000000.0 -0.4199 0.9654
5591000000.0 0.4599 0.9337
5594000000.0 1.003 0.2256
5597000000.0 0.8119 -0.6232
5600000000.0 0.0333 -1.012
5603000000.0 -0.7749 -0.6826
5606000000.0 -1.007 0.1516
5609000000.0 -0.5016 0.8598
5612000000.0 0.3442 0.9713
5616000000.0 0.9274 0.3319
5619000000.0 0.8508 -0.525
5622000000.0 0.1252 -0.9595
5625000000.0 -0.6584 -0.7317
5628000000.0 -0.9527 0.04917
5631000000.0 -0.5618 0.7771
5634000000.0 0.2493 0.886
5638000000.0 0.8517 0.3853
5641000000.0 0.8227 -0.4364
5644000000.0 0.1664 -0.9185
5647000000.0 -0.5732 -0.6936
5650000000.0 -0.8834 0.00883
5653000000.0 -0.5531 0.7327
5656000000.0 0.2031 0.889
5659000000.0 0.8298 0.3681
5662000000.0 0.7971 -0.4255
5666000000.0 0.1674 -0.8541
5669000000.0 -0.5676 -0.691
5672000000.0 -0.8786 0.05972
5675000000.0 -0.5291 0.7432
5678000000.0 0.2469 0.8465
5681000000.0 0.8441 0.3364
5684000000.0 0.7585 -0.4242
5688000000.0 0.1137 -0.8963
5691000000.0 -0.6111 -0.6461
5694000000.0 -0.8929 0.05494
5697000000.0 -0.503 0.7724
5700000000.0 0.2879 0.8578
5703000000.0 0.8677 0.3319
5706000000.0 0.7851 -0.4913
5709000000.0 0.1179 -0.9301
5712000000.0 -0.6497 -0.6678
5716000000.0 -0.9431 0.09135
5719000000.0 -0.5461 0.7913
5722000000.0 0.2863 0.9272
5725000000.0 0.9156 0.3559
5728000000.0 0.8338 -0.5107
5731000000.0 0.1242 -0.9664
5734000000.0 -0.6858 -0.7383
5738000000.0 -1.019 0.07497
5741000000.0 -0.596 0.8243
5744000000.0 0.2399 1.017
5747000000.0 0.9377 0.4023
5750000000.0 0.928 -0.4398
5753000000.0 0.2316 -1.01
5756000000.0 -0.6177 -0.8392
5759000000.0 -1.074 -0.0504
5762000000.0 -0.7076 0.7391
5766000000.0 0.1536 1.068
5769000000.0 0.9216 0.5595
5772000000.0 1.012 -0.324
5775000000.0 0.3634 -0.9878
5778000000.0 -0.5196 -0.9171
5781000000.0 -1.037 -0.1952
5784000000.0 -0.8689 0.6719
5788000000.0 0.006277 1.084
5791000000.0 0.8101 0.7274
5794000000.0 1.079 -0.1883
5797000000.0 0.5702 -0.9396
5800000000.0 -0.4007 -1.022
5803000000.0 -1.017 -0.3821
5806000000.0 -0.9347 0.5396
5809000000.0 -0.1832 1.069
5812000000.0 0.7119 0.8107
5816000000.0 1.081 -0.01309
5819000000.0 0.6498 -0.8127
5822000000.0 -0.2087 -1.071
5825000000.0 -0.9484 -0.5141
5828000000.0 -0.9561 0.4178
5831000000.0 -0.2968 1.02
5834000000.0 0.5778 0.8799
5838000000.0 1.038 0.08905
5841000000.0 0.725 -0.7228
5844000000.0 -0.09837 -1.02
5847000000.0 -0.8631 -0.5637
5850000000.0 -0.9345 0.3046
5853000000.0 -0.3804 0.9027
5856000000.0 0.4559 0.8546
5859000000.0 0.9736 0.1713
5862000000.0 0.7237 -0.6283
5866000000.0 -0.03649 -0.9567
5869000000.0 -0.7381 -0.5574
5872000000.0 -0.9452 0.2235
5875000000.0 -0.4206 0.8502
5878000000.0 0.4378 0.8616
5881000000.0 0.8902 0.1808
5884000000.0 0.7286 -0.5418
5888000000.0 0.02872 -0.9102
5891000000.0 -0.7139 -0.5724
5894000000.0 -0.8648 0.2087
5897000000.0 -0.4095 0.7936
5900000000.0 0.3863 0.7883
5903000000.0 0.8834 0.2041
5906000000.0 0.6874 -0.5445
5909000000.0 0.02585 -0.8954
5912000000.0 -0.6531 -0.545
5916000000.0 -0.8366 0.1462
5919000000.0 -0.3916 0.7562
5922000000.0 0.3497 0.7935
5925000000.0 0.8213 0.2315
5928000000.0 0.698 -0.4798
5931000000.0 0.03379 -0.8321
5934000000.0 -0.6286 -0.5962
5938000000.0 -0.8492 0.1072
5941000000.0 -0.449 0.7273
5944000000.0 0.2548 0.8006
5947000000.0 0.7922 0.2939
5950000000.0 0.7849 -0.4181
5953000000.0 0.1289 -0.8752
5956000000.0 -0.542 -0.6523
5959000000.0 -0.838 0.01543
5962000000.0 -0.5407 0.6733
5966000000.0 0.1972 0.8716
5969000000.0 0.7873 0.4487
5972000000.0 0.8385 -0.321
5975000000.0 0.2986 -0.8859
5978000000.0 -0.48 -0.7787
5981000000.0 -0.9048 -0.1373
5984000000.0 -0.6941 0.6508
5988000000.0 0.03976 0.9283
5991000000.0 0.7534 0.5638
5994000000.0 0.9203 -0.2188
5997000000.0 0.4209 -0.8462
6000000000.0 -0.3736 -0.8875
6003000000.0 -0.9148 -0.2742
6006000000.0 -0.7894 0.5431
6009000000.0 -0.1097 0.9324
6012000000.0 0.6869 0.6945
6016000000.0 0.989 -0.09578
6019000000.0 0.5414 -0.8119
6022000000.0 -0.2506 -0.9403
6025000000.0 -0.9162 -0.4007
6028000000.0 -0.882 0.4434
6031000000.0 -0.208 0.9685
6034000000.0 0.6023 0.7839
6038000000.0 1.015 0.03531
6041000000.0 0.6474 -0.7682
6044000000.0 -0.1827 -0.9954
6047000000.0 -0.8778 -0.483
6050000000.0 -0.9127 0.3549
6053000000.0 -0.3172 0.9157
6056000000.0 0.5413 0.8087
6059000000.0 0.9682 0.09918
6062000000.0 0.7125 -0.6842
6066000000.0 -0.1191 -0.9951
6069000000.0 -0.8303 -0.5232
6072000000.0 -0.9159 0.316
6075000000.0 -0.3506 0.8787
6078000000.0 0.4725 0.8137
6081000000.0 0.9427 0.135
6084000000.0 0.6659 -0.6422
6088000000.0 -0.06097 -0.9122
6091000000.0 -0.7324 -0.5642
6094000000.0 -0.8512 0.2534
6097000000.0 -0.3632 0.7993
6100000000.0 0.4235 0.794
6103000000.0 0.8625 0.1868
6106000000.0 0.6548 -0.5567
6109000000.0 -0.02051 -0.8812
6112000000.0 -0.6982 -0.5681
6116000000.0 -0.8475 0.1977
6119000000.0 -0.3711 0.7914
6122000000.0 0.399 0.7816
6125000000.0 0.8318 0.1795
6128000000.0 0.6793 -0.5407
6131000000.0 -0.004712 -0.8742
6134000000.0 -0.6274 -0.516
6138000000.0 -0.8319 0.1512
6141000000.0 -0.4099 0.7472
6144000000.0 0.3587 0.7396
6147000000.0 0.8305 0.1964
6150000000.0 0.675 -0.4906
6153000000.0 0.001261 -0.8386
6156000000.0 -0.6193 -0.5759
6159000000.0 -0.8486 0.1408
6162000000.0 -0.4486 0.7409
6166000000.0 0.3196 0.818
6169000000.0 0.8527 0.2684
6172000000.0 0.7178 -0.4615
6175000000.0 0.1158 -0.8857
6178000000.0 -0.6048 -0.6591
6181000000.0 -0.8954 0.08365
6184000000.0 -0.5077 0.7432
6188000000.0 0.2541 0.8746
6191000000.0 0.8538 0.3508
6194000000.0 0.7972 -0.4316
6197000000.0 0.1474 -0.8889
6200000000.0 -0.5571 -0.695
6203000000.0 -0.8923 0.006332
6206000000.0 -0.547 0.7458
6209000000.0 0.1909 0.8898
6212000000.0 0.7951 0.4371
6216000000.0 0.8134 -0.3678
6219000000.0 0.2491 -0.8686
6222000000.0 -0.4917 -0.7455
6225000000.0 -0.8797 -0.07071
6228000000.0 -0.6151 0.6248
6231000000.0 0.11 0.8929
6234000000.0 0.7538 0.4762
6238000000.0 0.8355 -0.2794
6241000000.0 0.337 -0.8089
6244000000.0 -0.4051 -0.7863
6247000000.0 -0.8464 -0.1734
6250000000.0 -0.6729 0.5036
6253000000.0 -0.02154 0.8456
6256000000.0 0.6339 0.533
6259000000.0 0.8131 -0.1307
6262000000.0 0.4532 -0.6782
