! Created with skrf 1.8.0 (http://scikit-rf.org).
# Hz S RI R 50.0 
!freq ReS11 ImS11
4000000000.0 1.472 -0.5937
4003000000.0 0.4322 -1.51
4006000000.0 -0.8502 -1.298
4009000000.0 -1.526 -0.1452
4012000000.0 -1.031 1.136
4016000000.0 0.2162 1.441
4019000000.0 1.294 0.7072
4022000000.0 1.329 -0.5661
4025000000.0 0.3565 -1.424
4028000000.0 -0.9226 -1.23
4031000000.0 -1.48 -0.0594
4034000000.0 -0.9226 1.133
4038000000.0 0.3517 1.477
4041000000.0 1.32 0.6602
4044000000.0 1.338 -0.6802
4047000000.0 0.3014 -1.461
4050000000.0 -0.9134 -1.145
4053000000.0 -1.479 0.05197
4056000000.0 -0.8482 1.203
4059000000.0 0.4086 1.368
4062000000.0 1.352 0.5594
4066000000.0 1.308 -0.6974
4069000000.0 0.2788 -1.446
4072000000.0 -0.9981 -1.164
4075000000.0 -1.542 0.06123
4078000000.0 -0.9176 1.223
4081000000.0 0.43 1.545
4084000000.0 1.464 0.6733
4088000000.0 1.417 -0.764
4091000000.0 0.3252 -1.619
4094000000.0 -1.071 -1.228
4097000000.0 -1.613 0.06316
4100000000.0 -0.9807 1.346
4103000000.0 0.4448 1.562
4106000000.0 1.449 0.6616
4109000000.0 1.45 -0.701
4112000000.0 0.3048 -1.555
4116000000.0 -0.963 -1.217
4119000000.0 -1.556 -0.04253
4122000000.0 -1.038 1.167
4125000000.0 0.2053 1.534
4128000000.0 1.274 0.8223
4131000000.0 1.504 -0.4481
4134000000.0 0.5996 -1.429
4138000000.0 -0.6911 -1.38
4141000000.0 -1.485 -0.3605
4144000000.0 -1.247 0.9198
4147000000.0 -0.1063 1.533
4150000000.0 1.104 1.103
4153000000.0 1.569 -0.1462
4156000000.0 0.8724 -1.265
4159000000.0 -0.3989 -1.497
4162000000.0 -1.404 -0.6751
4166000000.0 -1.395 0.6091
4169000000.0 -0.3941 1.488
4172000000.0 0.8386 1.273
4175000000.0 1.507 0.1967
4178000000.0 1.129 -1.015
4181000000.0 -0.05655 -1.534
4184000000.0 -1.121 -0.9505
4188000000.0 -1.465 0.2477
4191000000.0 -0.7853 1.262
4194000000.0 0.5228 1.461
4197000000.0 1.456 0.5578
4200000000.0 1.371 -0.7186
4203000000.0 0.303 -1.554
4206000000.0 -0.9942 -1.312
4209000000.0 -1.627 -0.02835
4212000000.0 -1.096 1.244
4216000000.0 0.298 1.657
4219000000.0 1.462 0.8524
4222000000.0 1.584 -0.6186
4225000000.0 0.4988 -1.644
4228000000.0 -0.9463 -1.419
4231000000.0 -1.732 -0.1278
4234000000.0 -1.168 1.25
4238000000.0 0.2162 1.685
4241000000.0 1.474 0.896
4244000000.0 1.612 -0.6259
4247000000.0 0.5494 -1.66
4250000000.0 -0.9814 -1.441
4253000000.0 -1.728 -0.1089
4256000000.0 -1.161 1.251
4259000000.0 0.2725 1.682
4262000000.0 1.527 0.8181
4266000000.0 1.533 -0.7063
4269000000.0 0.3513 -1.685
4272000000.0 -1.115 -1.34
4275000000.0 -1.716 0.06585
4278000000.0 -1.017 1.398
4281000000.0 0.5051 1.584
4284000000.0 1.546 0.5689
4288000000.0 1.328 -0.8941
4291000000.0 0.1033 -1.538
4294000000.0 -1.144 -1.02
4297000000.0 -1.496 0.2602
4300000000.0 -0.6918 1.259
4303000000.0 0.5383 1.316
4306000000.0 1.348 0.4124
4309000000.0 1.137 -0.7951
4312000000.0 0.146 -1.358
4316000000.0 -0.9545 -0.9628
4319000000.0 -1.328 0.1188
4322000000.0 -0.7382 1.134
4325000000.0 0.3824 1.271
4328000000.0 1.268 0.5603
4331000000.0 1.198 -0.64
4334000000.0 0.2477 -1.32
4338000000.0 -0.8671 -1.027
4341000000.0 -1.367 -0.03439
4344000000.0 -0.8941 1.028
4347000000.0 0.2465 1.371
4350000000.0 1.181 0.6786
4353000000.0 1.298 -0.5232
4356000000.0 0.4289 -1.311
4359000000.0 -0.6985 -1.146
4362000000.0 -1.331 -0.2183
4366000000.0 -1.047 0.9114
4369000000.0 0.0544 1.389
4372000000.0 1.111 0.8767
4375000000.0 1.384 -0.2445
4378000000.0 0.6852 -1.246
4381000000.0 -0.4865 -1.332
4384000000.0 -1.349 -0.4582
4388000000.0 -1.28 0.7441
4391000000.0 -0.2445 1.453
4394000000.0 0.9745 1.161
4397000000.0 1.528 -0.03167
4400000000.0 0.9256 -1.191
4403000000.0 -0.3203 -1.492
4406000000.0 -1.375 -0.7043
4409000000.0 -1.418 0.5982
4412000000.0 -0.4384 1.482
4416000000.0 0.8957 1.287
4419000000.0 1.574 0.1289
4422000000.0 1.089 -1.135
4425000000.0 -0.2001 -1.532
4428000000.0 -1.318 -0.8298
4431000000.0 -1.512 0.4508
4434000000.0 -0.6224 1.469
4438000000.0 0.7785 1.385
4441000000.0 1.569 0.2752
4444000000.0 1.18 -1.055
4447000000.0 -0.06771 -1.604
4450000000.0 -1.291 -0.9085
4453000000.0 -1.515 0.422
4456000000.0 -0.5817 1.448
4459000000.0 0.7857 1.358
4462000000.0 1.538 0.2676
4466000000.0 1.13 -1.057
4469000000.0 -0.1509 -1.506
4472000000.0 -1.26 -0.7914
4475000000.0 -1.38 0.5043
4478000000.0 -0.4312 1.363
4481000000.0 0.7885 1.155
4484000000.0 1.363 0.1019
4488000000.0 0.9125 -0.9881
4491000000.0 -0.2434 -1.267
4494000000.0 -1.149 -0.5721
4497000000.0 -1.143 0.5106
4500000000.0 -0.2983 1.175
4503000000.0 0.7237 0.8862
4506000000.0 1.181 -0.01717
4509000000.0 0.681 -0.9303
4512000000.0 -0.2616 -1.079
4516000000.0 -1.007 -0.4447
4519000000.0 -0.9791 0.4918
4522000000.0 -0.2149 1.073
4525000000.0 0.7236 0.82
4528000000.0 1.092 -0.06253
4531000000.0 0.5959 -0.9052
4534000000.0 -0.3391 -1.017
4538000000.0 -1.017 -0.4014
4541000000.0 -0.9102 0.5445
4544000000.0 -0.1486 1.07
4547000000.0 0.7421 0.7766
4550000000.0 1.055 -0.07501
4553000000.0 0.5927 -0.8722
4556000000.0 -0.2929 -1.041
4559000000.0 -1.012 -0.4288
4562000000.0 -0.9783 0.4928
4566000000.0 -0.241 1.063
4569000000.0 0.6878 0.8837
4572000000.0 1.116 0.02764
4575000000.0 0.7373 -0.8676
4578000000.0 -0.197 -1.102
4581000000.0 -1.022 -0.5659
4584000000.0 -1.078 0.4055
4588000000.0 -0.3828 1.111
4591000000.0 0.6265 1.015
4594000000.0 1.198 0.1702
4597000000.0 0.9152 -0.8548
4600000000.0 -0.08327 -1.268
4603000000.0 -1.034 -0.7598
4606000000.0 -1.23 0.3188
4609000000.0 -0.5514 1.135
4612000000.0 0.5363 1.17
4616000000.0 1.267 0.3232
4619000000.0 1.066 -0.7804
4622000000.0 0.03893 -1.297
4625000000.0 -0.9712 -0.9262
4628000000.0 -1.332 0.1793
4631000000.0 -0.7247 1.17
4634000000.0 0.4276 1.305
4638000000.0 1.269 0.4734
4641000000.0 1.196 -0.6745
4644000000.0 0.2212 -1.359
4647000000.0 -0.8918 -1.019
4650000000.0 -1.391 0.07876
4653000000.0 -0.8299 1.09
4656000000.0 0.3364 1.34
4659000000.0 1.247 0.5515
4662000000.0 1.232 -0.6353
4666000000.0 0.2618 -1.336
4669000000.0 -0.8504 -1.011
4672000000.0 -1.326 0.02778
4675000000.0 -0.8066 1.066
4678000000.0 0.3032 1.275
4681000000.0 1.158 0.537
4684000000.0 1.126 -0.571
4688000000.0 0.2604 -1.201
4691000000.0 -0.7955 -0.9259
4694000000.0 -1.241 0.04933
4697000000.0 -0.7656 0.9781
4700000000.0 0.3025 1.193
4703000000.0 1.113 0.423
4706000000.0 1.024 -0.5657
4709000000.0 0.125 -1.169
4712000000.0 -0.7988 -0.7957
4716000000.0 -1.124 0.1335
4719000000.0 -0.5599 0.9782
4722000000.0 0.4161 0.9896
4725000000.0 1.022 0.2698
4728000000.0 0.8611 -0.6009
4731000000.0 0.04931 -1.051
4734000000.0 -0.7635 -0.7012
4738000000.0 -1.026 0.1936
4741000000.0 -0.4695 0.9005
4744000000.0 0.3744 0.8913
4747000000.0 0.9416 0.2436
4750000000.0 0.7854 -0.5738
4753000000.0 0.0565 -0.989
4756000000.0 -0.719 -0.6452
4759000000.0 -0.9415 0.1393
4762000000.0 -0.4646 0.8925
4766000000.0 0.3933 0.9381
4769000000.0 0.9873 0.3023
4772000000.0 0.8415 -0.5541
4775000000.0 0.1023 -1.026
4778000000.0 -0.7405 -0.7151
4781000000.0 -1.025 0.1098
4784000000.0 -0.5858 0.8883
4788000000.0 0.2979 1.052
4791000000.0 0.9691 0.4171
4794000000.0 0.9734 -0.4921
4797000000.0 0.2549 -1.084
4800000000.0 -0.6581 -0.8619
4803000000.0 -1.068 -0.07326
4806000000.0 -0.7694 0.8054
4809000000.0 0.1466 1.134
4812000000.0 0.9676 0.6108
4816000000.0 1.113 -0.3456
4819000000.0 0.4728 -1.085
4822000000.0 -0.5598 -1.052
4825000000.0 -1.186 -0.2473
4828000000.0 -0.9866 0.7799
4831000000.0 -0.02027 1.268
4834000000.0 0.9709 0.8575
4838000000.0 1.286 -0.2192
4841000000.0 0.6644 -1.134
4844000000.0 -0.452 -1.253
4847000000.0 -1.232 -0.4099
4850000000.0 -1.143 0.6853
4853000000.0 -0.194 1.356
4856000000.0 0.932 0.9813
4859000000.0 1.343 -0.06017
4862000000.0 0.7945 -1.113
4866000000.0 -0.3558 -1.336
4869000000.0 -1.239 -0.5865
4872000000.0 -1.234 0.5994
4875000000.0 -0.2946 1.361
4878000000.0 0.8719 1.082
4881000000.0 1.389 -0.0236
4884000000.0 0.844 -1.052
4888000000.0 -0.3021 -1.317
4891000000.0 -1.223 -0.5687
4894000000.0 -1.193 0.5643
4897000000.0 -0.2852 1.275
4900000000.0 0.7687 1.003
4903000000.0 1.24 -0.0195
4906000000.0 0.749 -0.9138
4909000000.0 -0.2221 -1.159
4912000000.0 -1.055 -0.5066
4916000000.0 -1.047 0.4564
4919000000.0 -0.2954 1.085
4922000000.0 0.6251 0.8589
4925000000.0 1.062 0.0842
4928000000.0 0.6954 -0.7725
4931000000.0 -0.1346 -1.02
4934000000.0 -0.8748 -0.4959
4938000000.0 -0.8916 0.3264
4941000000.0 -0.3643 0.9279
4944000000.0 0.4837 0.845
4947000000.0 0.9855 0.1313
4950000000.0 0.7007 -0.6794
4953000000.0 -0.06397 -0.9413
4956000000.0 -0.7644 -0.5356
4959000000.0 -0.9228 0.2626
4962000000.0 -0.3554 0.8967
4966000000.0 0.4724 0.8188
4969000000.0 0.8741 0.1629
4972000000.0 0.7111 -0.6171
4975000000.0 -0.03252 -0.9425
4978000000.0 -0.7454 -0.5859
4981000000.0 -0.9306 0.2318
4984000000.0 -0.418 0.8986
4988000000.0 0.4132 0.8613
4991000000.0 0.9767 0.2168
4994000000.0 0.8049 -0.5874
4997000000.0 0.06208 -1.008
5000000000.0 -0.7702 -0.6722
5003000000.0 -1.022 0.1554
5006000000.0 -0.5568 0.9117
5009000000.0 0.3792 1.036
5012000000.0 1.039 0.3688
5016000000.0 0.952 -0.5636
5019000000.0 0.1892 -1.093
5022000000.0 -0.7742 -0.8607
5025000000.0 -1.165 0.04335
5028000000.0 -0.7097 0.946
5031000000.0 0.2811 1.161
5034000000.0 1.082 0.5297
5038000000.0 1.107 -0.5149
5041000000.0 0.2996 -1.164
5044000000.0 -0.7088 -1.02
5047000000.0 -1.247 -0.05607
5050000000.0 -0.8793 0.8785
5053000000.0 0.1142 1.247
5056000000.0 1.078 0.6874
5059000000.0 1.227 -0.3478
5062000000.0 0.5012 -1.197
5066000000.0 -0.5775 -1.167
5069000000.0 -1.255 -0.2851
5072000000.0 -1.02 0.8274
5075000000.0 -0.02568 1.311
5078000000.0 0.9983 0.8399
5081000000.0 1.295 -0.2375
5084000000.0 0.6497 -1.151
5088000000.0 -0.4457 -1.188
5091000000.0 -1.185 -0.4399
5094000000.0 -1.079 0.6363
5097000000.0 -0.1742 1.215
5100000000.0 0.7924 0.9079
5103000000.0 1.181 0.01248
5106000000.0 0.7435 -0.9366
5109000000.0 -0.1925 -1.105
5112000000.0 -0.9739 -0.612
5116000000.0 -1.101 0.4394
5119000000.0 -0.3733 1.059
5122000000.0 0.5623 0.9546
5125000000.0 1.067 0.1842
5128000000.0 0.7978 -0.7054
5131000000.0 -0.03859 -1.07
5134000000.0 -0.8343 -0.6731
5138000000.0 -1.025 0.2034
5141000000.0 -0.4532 0.9102
5144000000.0 0.3873 1.005
5147000000.0 0.9455 0.2802
5150000000.0 0.8244 -0.551
5153000000.0 0.1359 -0.9748
5156000000.0 -0.6669 -0.7135
5159000000.0 -0.958 0.06134
5162000000.0 -0.5582 0.7834
5166000000.0 0.2229 0.9311
5169000000.0 0.8221 0.3757
5172000000.0 0.8187 -0.3961
5175000000.0 0.2226 -0.8959
5178000000.0 -0.5609 -0.739
5181000000.0 -0.935 -0.0221
5184000000.0 -0.5851 0.7395
5188000000.0 0.1805 0.9026
5191000000.0 0.8142 0.4012
5194000000.0 0.8342 -0.3719
5197000000.0 0.2578 -0.927
5200000000.0 -0.5591 -0.752
5203000000.0 -0.9532 -0.01733
5206000000.0 -0.6236 0.722
5209000000.0 0.1691 0.9093
5212000000.0 0.8345 0.4393
5216000000.0 0.8489 -0.3927
5219000000.0 0.2405 -0.9528
5222000000.0 -0.5777 -0.7721
5225000000.0 -0.9827 -0.02729
5228000000.0 -0.6458 0.7382
5231000000.0 0.1689 0.9611
5234000000.0 0.8643 0.4795
5238000000.0 0.9141 -0.3764
5241000000.0 0.2992 -0.9791
5244000000.0 -0.5452 -0.8397
5247000000.0 -1.042 -0.08841
5250000000.0 -0.7484 0.7602
5253000000.0 0.1062 1.027
5256000000.0 0.882 0.5751
5259000000.0 0.9962 -0.3109
5262000000.0 0.395 -0.9725
5266000000.0 -0.4897 -0.9562
5269000000.0 -1.027 -0.2035
5272000000.0 -0.8395 0.6557
5275000000.0 -0.01813 1.079
5278000000.0 0.815 0.7122
5281000000.0 1.064 -0.1495
5284000000.0 0.5881 -0.8977
5288000000.0 -0.3251 -1.02
5291000000.0 -1.003 -0.3856
5294000000.0 -0.993 0.5064
5297000000.0 -0.2848 1.092
5300000000.0 0.6659 0.9028
5303000000.0 1.112 0.05027
5306000000.0 0.8126 -0.8091
5309000000.0 -0.1051 -1.123
5312000000.0 -0.9418 -0.6691
5316000000.0 -1.092 0.3019
5319000000.0 -0.5105 1.06
5322000000.0 0.4531 1.035
5325000000.0 1.113 0.3397
5328000000.0 0.947 -0.652
5331000000.0 0.1187 -1.105
5334000000.0 -0.8139 -0.8482
5338000000.0 -1.137 0.05912
5341000000.0 -0.63 0.9442
5344000000.0 0.2914 1.099
5347000000.0 1.02 0.4829
5350000000.0 1.005 -0.4659
5353000000.0 0.2988 -1.107
5356000000.0 -0.6559 -0.9384
5359000000.0 -1.121 -0.09505
5362000000.0 -0.7747 0.8187
5366000000.0 0.143 1.12
5369000000.0 0.9411 0.6284
5372000000.0 1.078 -0.3691
5375000000.0 0.3747 -1.045
5378000000.0 -0.5328 -0.9717
5381000000.0 -1.095 -0.1775
5384000000.0 -0.7812 0.7374
5388000000.0 0.06505 1.073
5391000000.0 0.8814 0.5831
5394000000.0 0.9964 -0.2867
5397000000.0 0.3804 -0.9126
5400000000.0 -0.4848 -0.8641
5403000000.0 -0.9634 -0.1494
5406000000.0 -0.7258 0.6382
5409000000.0 0.06038 0.9417
5412000000.0 0.7601 0.5383
5416000000.0 0.906 -0.273
5419000000.0 0.363 -0.846
5422000000.0 -0.4572 -0.7902
5425000000.0 -0.9088 -0.1747
5428000000.0 -0.6716 0.608
5431000000.0 0.06449 0.9019
5434000000.0 0.7504 0.4944
5438000000.0 0.8627 -0.3047
5441000000.0 0.295 -0.8191
5444000000.0 -0.4525 -0.7621
5447000000.0 -0.8663 -0.09254
5450000000.0 -0.6259 0.6157
5453000000.0 0.1087 0.8678
5456000000.0 0.7579 0.4465
5459000000.0 0.8159 -0.3179
5462000000.0 0.2949 -0.8174
5466000000.0 -0.4163 -0.7389
5469000000.0 -0.8449 -0.1272
5472000000.0 -0.6735 0.5788
5475000000.0 0.06524 0.9082
5478000000.0 0.7172 0.5389
5481000000.0 0.8515 -0.1969
5484000000.0 0.3881 -0.7994
5488000000.0 -0.3848 -0.8397
5491000000.0 -0.9094 -0.2466
5494000000.0 -0.7718 0.5206
5497000000.0 -0.06582 0.9189
5500000000.0 0.6586 0.6872
5503000000.0 0.9393 -0.07722
5506000000.0 0.5342 -0.7777
5509000000.0 -0.2886 -0.9526
5512000000.0 -0.8944 -0.3779
5516000000.0 -0.9276 0.4062
5519000000.0 -0.2597 0.9637
5522000000.0 0.5789 0.8205
5525000000.0 1.014 0.1045
5528000000.0 0.7021 -0.6892
5531000000.0 -0.06959 -1.009
5534000000.0 -0.8244 -0.5928
5538000000.0 -0.9883 0.2559
5541000000.0 -0.4461 0.9413
5544000000.0 0.4188 0.9184
5547000000.0 1.019 0.2889
5550000000.0 0.8669 -0.599
5553000000.0 0.1094 -1.073
5556000000.0 -0.7537 -0.7967
5559000000.0 -1.072 0.09086
5562000000.0 -0.5963 0.8725
5566000000.0 0.2328 1.036
5569000000.0 0.9401 0.4848
5572000000.0 0.9321 -0.4529
5575000000.0 0.2544 -1.025
5578000000.0 -0.5657 -0.841
5581000000.0 -1.037 -0.06068
5584000000.0 -0.7148 0.7354
5588000000.0 0.1002 1.035
5591000000.0 0.8428 0.5416
5594000000.0 0.9518 -0.2738
5597000000.0 0.3879 -0.9249
5600000000.0 -0.4628 -0.8797
5603000000.0 -0.975 -0.1928
5606000000.0 -0.7795 0.6239
5609000000.0 0.009893 0.9525
5612000000.0 0.6988 0.6215
5616000000.0 0.9396 -0.1339
5619000000.0 0.4503 -0.8004
5622000000.0 -0.33 -0.8274
5625000000.0 -0.8902 -0.2459
5628000000.0 -0.7408 0.5132
5631000000.0 -0.08646 0.894
5634000000.0 0.6105 0.6274
5638000000.0 0.8593 -0.08175
5641000000.0 0.4634 -0.749
5644000000.0 -0.2931 -0.8411
5647000000.0 -0.8248 -0.3016
5650000000.0 -0.7223 0.4489
5653000000.0 -0.1305 0.8509
5656000000.0 0.6195 0.6183
5659000000.0 0.854 -0.07804
5662000000.0 0.4507 -0.7142
5666000000.0 -0.2799 -0.818
5669000000.0 -0.8249 -0.2925
5672000000.0 -0.7614 0.4614
5675000000.0 -0.1131 0.8832
5678000000.0 0.6167 0.6226
5681000000.0 0.9024 -0.08181
5684000000.0 0.4706 -0.7627
5688000000.0 -0.3191 -0.8648
5691000000.0 -0.8884 -0.3014
5694000000.0 -0.7868 0.5154
5697000000.0 -0.1056 0.9058
5700000000.0 0.671 0.6809
5703000000.0 0.9618 -0.08573
5706000000.0 0.5427 -0.8012
5709000000.0 -0.3031 -0.9318
5712000000.0 -0.8981 -0.3527
5716000000.0 -0.8557 0.4832
5719000000.0 -0.2175 0.9668
5722000000.0 0.65 0.7406
5725000000.0 1.048 -0.009242
5728000000.0 0.6332 -0.8262
5731000000.0 -0.2223 -1.035
5734000000.0 -0.918 -0.4633
5738000000.0 -0.9777 0.4099
5741000000.0 -0.3157 1.012
5744000000.0 0.6 0.8721
5747000000.0 1.086 0.1198
5750000000.0 0.7561 -0.7771
5753000000.0 -0.09398 -1.077
5756000000.0 -0.8943 -0.5973
5759000000.0 -1.047 0.3011
5762000000.0 -0.4277 0.9804
5766000000.0 0.4593 0.9934
5769000000.0 1.06 0.25
5772000000.0 0.8701 -0.6492
5775000000.0 0.03788 -1.093
5778000000.0 -0.7625 -0.7519
5781000000.0 -1.073 0.1139
5784000000.0 -0.5786 0.909
5788000000.0 0.3078 1.056
5791000000.0 1.002 0.4255
5794000000.0 0.9472 -0.5249
5797000000.0 0.2414 -1.059
5800000000.0 -0.6446 -0.8521
5803000000.0 -1.091 -0.0543
5806000000.0 -0.6942 0.7992
5809000000.0 0.1759 1.019
5812000000.0 0.9223 0.5657
5816000000.0 1.038 -0.3403
5819000000.0 0.3542 -0.9899
5822000000.0 -0.5242 -0.9037
5825000000.0 -0.9808 -0.1418
5828000000.0 -0.8069 0.6475
5831000000.0 -0.004837 1.049
5834000000.0 0.7987 0.6572
5838000000.0 0.9964 -0.2173
5841000000.0 0.4715 -0.8836
5844000000.0 -0.4126 -0.9066
5847000000.0 -0.9627 -0.2683
5850000000.0 -0.8131 0.5803
5853000000.0 -0.03857 0.9716
5856000000.0 0.7208 0.6228
5859000000.0 0.9326 -0.1252
5862000000.0 0.4694 -0.845
5866000000.0 -0.3497 -0.892
5869000000.0 -0.8994 -0.2699
5872000000.0 -0.8133 0.5076
5875000000.0 -0.1044 0.9136
5878000000.0 0.6622 0.6268
5881000000.0 0.8714 -0.1164
5884000000.0 0.4802 -0.774
5888000000.0 -0.2947 -0.8182
5891000000.0 -0.8245 -0.2857
5894000000.0 -0.7479 0.4708
5897000000.0 -0.09868 0.8367
5900000000.0 0.6156 0.6185
5903000000.0 0.8572 -0.05417
5906000000.0 0.4789 -0.7085
5909000000.0 -0.2208 -0.828
5912000000.0 -0.7918 -0.3482
5916000000.0 -0.745 0.3749
5919000000.0 -0.1789 0.8574
5922000000.0 0.5574 0.6727
5925000000.0 0.8551 -0.01026
5928000000.0 0.5275 -0.6684
5931000000.0 -0.1846 -0.8236
5934000000.0 -0.7642 -0.4071
5938000000.0 -0.7831 0.3296
5941000000.0 -0.2343 0.8212
5944000000.0 0.477 0.726
5947000000.0 0.8652 0.07075
5950000000.0 0.5947 -0.6219
5953000000.0 -0.07047 -0.8742
5956000000.0 -0.7589 -0.5072
5959000000.0 -0.8684 0.2217
5962000000.0 -0.3855 0.803
5966000000.0 0.4045 0.8073
5969000000.0 0.886 0.2488
5972000000.0 0.7408 -0.5623
5975000000.0 0.06609 -0.9215
5978000000.0 -0.6661 -0.6498
5981000000.0 -0.9151 0.1134
5984000000.0 -0.5289 0.809
5988000000.0 0.2623 0.9432
5991000000.0 0.8698 0.3652
5994000000.0 0.8743 -0.4132
5997000000.0 0.2068 -0.9375
6000000000.0 -0.5767 -0.7877
6003000000.0 -0.9703 -0.05623
6006000000.0 -0.6853 0.6997
6009000000.0 0.1332 0.9887
6012000000.0 0.8169 0.517
6016000000.0 0.9274 -0.31
6019000000.0 0.3694 -0.9188
6022000000.0 -0.4749 -0.8619
6025000000.0 -1.007 -0.1688
6028000000.0 -0.7497 0.6514
6031000000.0 0.02078 0.9918
6034000000.0 0.7682 0.6322
6038000000.0 0.9468 -0.2118
6041000000.0 0.4473 -0.8928
6044000000.0 -0.3787 -0.9262
6047000000.0 -0.9402 -0.264
6050000000.0 -0.8015 0.5528
6053000000.0 -0.04737 0.9841
6056000000.0 0.6925 0.6838
6059000000.0 0.9718 -0.1287
6062000000.0 0.5027 -0.8076
6066000000.0 -0.3366 -0.9021
6069000000.0 -0.8957 -0.3041
6072000000.0 -0.8129 0.5226
6075000000.0 -0.101 0.9317
6078000000.0 0.6527 0.6784
6081000000.0 0.9274 -0.0931
6084000000.0 0.5011 -0.7736
6088000000.0 -0.2481 -0.8848
6091000000.0 -0.8565 -0.347
6094000000.0 -0.7522 0.4194
6097000000.0 -0.1369 0.888
6100000000.0 0.5572 0.6578
6103000000.0 0.8687 -0.02122
6106000000.0 0.535 -0.6828
6109000000.0 -0.2065 -0.8404
6112000000.0 -0.7648 -0.3454
6116000000.0 -0.7615 0.3919
6119000000.0 -0.1644 0.8443
6122000000.0 0.5103 0.6685
6125000000.0 0.8398 0.03081
6128000000.0 0.523 -0.6892
6131000000.0 -0.1812 -0.8197
6134000000.0 -0.7589 -0.3642
6138000000.0 -0.7858 0.357
6141000000.0 -0.2149 0.8296
6144000000.0 0.5217 0.6791
6147000000.0 0.8357 0.01502
6150000000.0 0.5905 -0.6294
6153000000.0 -0.1157 -0.8331
6156000000.0 -0.7578 -0.4461
6159000000.0 -0.8139 0.273
6162000000.0 -0.283 0.8536
6166000000.0 0.476 0.7458
6169000000.0 0.9182 0.1206
6172000000.0 0.6355 -0.6089
6175000000.0 -0.06931 -0.8979
6178000000.0 -0.7422 -0.5235
6181000000.0 -0.8734 0.2806
6184000000.0 -0.332 0.8498
6188000000.0 0.4386 0.7965
6191000000.0 0.8882 0.1703
6194000000.0 0.7335 -0.6025
6197000000.0 -0.03 -0.899
6200000000.0 -0.7392 -0.5966
6203000000.0 -0.8807 0.191
6206000000.0 -0.4246 0.8017
6209000000.0 0.3352 0.8475
6212000000.0 0.8539 0.2749
6216000000.0 0.7651 -0.5173
6219000000.0 0.08907 -0.8844
6222000000.0 -0.6314 -0.6676
6225000000.0 -0.8608 0.07265
6228000000.0 -0.5297 0.7106
6231000000.0 0.2684 0.8782
6234000000.0 0.8124 0.353
6238000000.0 0.8027 -0.4033
6241000000.0 0.2004 -0.8614
6244000000.0 -0.5401 -0.7093
6247000000.0 -0.8742 -0.02734
6250000000.0 -0.5825 0.6623
6253000000.0 0.109 0.8577
6256000000.0 0.6938 0.4748
6259000000.0 0.7796 -0.2446
6262000000.0 0.2926 -0.7562
