! Created with skrf 1.8.0 (http://scikit-rf.org).
# Hz S RI R 50.0 
!freq ReS11 ImS11
4000000000.0 -0.1906 -1.519
4003000000.0 -1.254 -0.8059
4006000000.0 -1.452 0.5297
4009000000.0 -0.4942 1.429
4012000000.0 0.8183 1.322
4016000000.0 1.589 0.1857
4019000000.0 1.17 -1.111
4022000000.0 -0.1437 -1.608
4025000000.0 -1.326 -0.833
4028000000.0 -1.489 0.4804
4031000000.0 -0.5641 1.508
4034000000.0 0.8221 1.387
4038000000.0 1.637 0.199
4041000000.0 1.219 -1.11
4044000000.0 -0.1615 -1.639
4047000000.0 -1.379 -0.931
4050000000.0 -1.594 0.4917
4053000000.0 -0.6168 1.501
4056000000.0 0.8128 1.448
4059000000.0 1.603 0.2392
4062000000.0 1.26 -1.081
4066000000.0 0.01397 -1.648
4069000000.0 -1.272 -1.05
4072000000.0 -1.584 0.3493
4075000000.0 -0.7943 1.453
4078000000.0 0.6351 1.539
4081000000.0 1.59 0.5136
4084000000.0 1.419 -0.8976
4088000000.0 0.1916 -1.665
4091000000.0 -1.151 -1.261
4094000000.0 -1.699 0.1155
4097000000.0 -0.9598 1.365
4100000000.0 0.4406 1.597
4103000000.0 1.458 0.671
4106000000.0 1.43 -0.666
4109000000.0 0.4125 -1.556
4112000000.0 -0.8715 -1.272
4116000000.0 -1.52 -0.166
4119000000.0 -1.099 1.006
4122000000.0 0.08075 1.524
4125000000.0 1.162 0.9396
4128000000.0 1.46 -0.2537
4131000000.0 0.744 -1.273
4134000000.0 -0.4765 -1.452
4138000000.0 -1.397 -0.5654
4141000000.0 -1.372 0.6926
4144000000.0 -0.3236 1.477
4147000000.0 0.9113 1.242
4150000000.0 1.522 0.1038
4153000000.0 1.053 -1.103
4156000000.0 -0.1658 -1.523
4159000000.0 -1.276 -0.8677
4162000000.0 -1.474 0.4234
4166000000.0 -0.614 1.391
4169000000.0 0.6731 1.372
4172000000.0 1.452 0.372
4175000000.0 1.212 -0.9072
4178000000.0 0.1105 -1.548
4181000000.0 -1.092 -1.055
4184000000.0 -1.526 0.1374
4188000000.0 -0.8556 1.252
4191000000.0 0.3881 1.456
4194000000.0 1.452 0.6563
4197000000.0 1.414 -0.7147
4200000000.0 0.3131 -1.618
4203000000.0 -1.03 -1.245
4206000000.0 -1.64 0.001228
4209000000.0 -1.005 1.283
4212000000.0 0.4158 1.647
4216000000.0 1.559 0.6721
4219000000.0 1.472 -0.8265
4222000000.0 0.2204 -1.668
4225000000.0 -1.182 -1.214
4228000000.0 -1.693 0.2132
4231000000.0 -0.8745 1.465
4234000000.0 0.64 1.533
4238000000.0 1.595 0.4135
4241000000.0 1.277 -1.035
4244000000.0 0.02617 -1.596
4247000000.0 -1.28 -0.9646
4250000000.0 -1.537 0.4267
4253000000.0 -0.5885 1.466
4256000000.0 0.7438 1.326
4259000000.0 1.514 0.2197
4262000000.0 1.107 -1.062
4266000000.0 -0.1463 -1.512
4269000000.0 -1.257 -0.7871
4272000000.0 -1.417 0.5355
4275000000.0 -0.4424 1.419
4278000000.0 0.8574 1.223
4281000000.0 1.422 0.086
4284000000.0 0.9355 -1.026
4288000000.0 -0.209 -1.385
4291000000.0 -1.159 -0.6848
4294000000.0 -1.291 0.4795
4297000000.0 -0.4559 1.302
4300000000.0 0.7012 1.101
4303000000.0 1.275 0.1819
4306000000.0 0.9538 -0.9043
4309000000.0 -0.04657 -1.298
4312000000.0 -1.03 -0.7746
4316000000.0 -1.282 0.2572
4319000000.0 -0.6056 1.142
4322000000.0 0.4762 1.236
4325000000.0 1.247 0.4322
4328000000.0 1.127 -0.6846
4331000000.0 0.1923 -1.357
4334000000.0 -0.9266 -1.073
4338000000.0 -1.385 0.03075
4341000000.0 -0.8907 1.071
4344000000.0 0.2612 1.387
4347000000.0 1.277 0.6974
4350000000.0 1.373 -0.5391
4353000000.0 0.4503 -1.402
4356000000.0 -0.8426 -1.238
4359000000.0 -1.488 -0.1388
4362000000.0 -1.072 1.017
4366000000.0 0.1137 1.48
4369000000.0 1.194 0.8763
4372000000.0 1.465 -0.4051
4375000000.0 0.6539 -1.356
4378000000.0 -0.6268 -1.378
4381000000.0 -1.474 -0.3682
4384000000.0 -1.281 0.9445
4388000000.0 -0.07896 1.558
4391000000.0 1.154 1.043
4394000000.0 1.586 -0.2753
4397000000.0 0.7424 -1.397
4400000000.0 -0.6304 -1.464
4403000000.0 -1.544 -0.4375
4406000000.0 -1.297 0.9474
4409000000.0 -0.07806 1.591
4412000000.0 1.185 1.017
4416000000.0 1.52 -0.3137
4419000000.0 0.6681 -1.361
4422000000.0 -0.6441 -1.376
4425000000.0 -1.465 -0.3591
4428000000.0 -1.143 0.9385
4431000000.0 0.03892 1.46
4434000000.0 1.144 0.8349
4438000000.0 1.38 -0.4054
4441000000.0 0.513 -1.291
4444000000.0 -0.6998 -1.181
4447000000.0 -1.378 -0.1788
4450000000.0 -0.96 0.9516
4453000000.0 0.1719 1.283
4456000000.0 1.115 0.6792
4459000000.0 1.215 -0.453
4462000000.0 0.3499 -1.207
4466000000.0 -0.7307 -0.9983
4469000000.0 -1.23 -0.0472
4472000000.0 -0.7571 0.9457
4475000000.0 0.2502 1.149
4478000000.0 1.058 0.5099
4481000000.0 1.078 -0.5353
4484000000.0 0.2405 -1.117
4488000000.0 -0.7412 -0.8933
4491000000.0 -1.148 -0.007759
4494000000.0 -0.7087 0.9154
4497000000.0 0.2569 1.141
4500000000.0 1.077 0.4915
4503000000.0 0.9813 -0.5077
4506000000.0 0.2508 -1.084
4509000000.0 -0.7095 -0.8851
4512000000.0 -1.123 -0.03372
4516000000.0 -0.7453 0.8604
4519000000.0 0.229 1.136
4522000000.0 1.04 0.5525
4525000000.0 1.091 -0.4324
4528000000.0 0.3381 -1.121
4531000000.0 -0.6521 -0.9925
4534000000.0 -1.187 -0.119
4538000000.0 -0.8624 0.8464
4541000000.0 0.07213 1.196
4544000000.0 1.002 0.7012
4547000000.0 1.179 -0.3208
4550000000.0 0.4944 -1.145
4553000000.0 -0.5229 -1.137
4556000000.0 -1.223 -0.2793
4559000000.0 -1.001 0.7592
4562000000.0 -0.101 1.249
4566000000.0 0.8988 0.8981
4569000000.0 1.271 -0.1434
4572000000.0 0.726 -1.072
4575000000.0 -0.3725 -1.262
4578000000.0 -1.228 -0.5338
4581000000.0 -1.203 0.6004
4584000000.0 -0.326 1.305
4588000000.0 0.8288 1.081
4591000000.0 1.418 0.06
4594000000.0 0.9069 -1.029
4597000000.0 -0.2158 -1.399
4600000000.0 -1.213 -0.72
4603000000.0 -1.332 0.4867
4606000000.0 -0.4691 1.334
4609000000.0 0.7119 1.218
4612000000.0 1.421 0.1924
4616000000.0 1.047 -0.9574
4619000000.0 -0.07949 -1.41
4622000000.0 -1.132 -0.8377
4625000000.0 -1.331 0.3495
4628000000.0 -0.5752 1.287
4631000000.0 0.6473 1.253
4634000000.0 1.36 0.2832
4638000000.0 1.078 -0.8717
4641000000.0 -0.04697 -1.377
4644000000.0 -1.073 -0.8302
4647000000.0 -1.308 0.2962
4650000000.0 -0.5596 1.222
4653000000.0 0.5794 1.188
4656000000.0 1.269 0.2814
4659000000.0 1.009 -0.8206
4662000000.0 -0.0146 -1.231
4666000000.0 -1.003 -0.7452
4669000000.0 -1.186 0.3165
4672000000.0 -0.4927 1.116
4675000000.0 0.526 1.069
4678000000.0 1.136 0.2068
4681000000.0 0.8829 -0.7141
4684000000.0 -0.01583 -1.117
4688000000.0 -0.9073 -0.6495
4691000000.0 -1.088 0.2838
4694000000.0 -0.4356 1.002
4697000000.0 0.5072 0.9895
4700000000.0 1.099 0.1605
4703000000.0 0.7997 -0.7045
4706000000.0 -0.06001 -1.096
4709000000.0 -0.8783 -0.6347
4712000000.0 -1.04 0.2722
4716000000.0 -0.3977 0.9805
4719000000.0 0.5491 0.9582
4722000000.0 1.048 0.1639
4725000000.0 0.7944 -0.7207
4728000000.0 -0.04329 -1.083
4731000000.0 -0.8495 -0.6449
4734000000.0 -1.012 0.2925
4738000000.0 -0.4502 0.9835
4741000000.0 0.4321 0.9734
4744000000.0 1.004 0.2859
4747000000.0 0.8862 -0.605
4750000000.0 0.1111 -1.097
4753000000.0 -0.7985 -0.7784
4756000000.0 -1.098 0.09124
4759000000.0 -0.5965 0.9157
4762000000.0 0.3334 1.093
4766000000.0 1.068 0.491
4769000000.0 1.058 -0.5145
4772000000.0 0.3041 -1.131
4775000000.0 -0.7249 -0.9665
4778000000.0 -1.197 -0.05603
4781000000.0 -0.8418 0.9017
4784000000.0 0.1339 1.228
4788000000.0 1.022 0.6629
4791000000.0 1.199 -0.3161
4794000000.0 0.5218 -1.127
4797000000.0 -0.5823 -1.134
4800000000.0 -1.283 -0.3207
4803000000.0 -0.9861 0.6918
4806000000.0 -0.1337 1.27
4809000000.0 0.9397 0.8962
4812000000.0 1.308 -0.1233
4816000000.0 0.7389 -1.101
4819000000.0 -0.3817 -1.289
4822000000.0 -1.24 -0.5445
4825000000.0 -1.239 0.6079
4828000000.0 -0.3132 1.356
4831000000.0 0.8551 1.106
4834000000.0 1.409 0.04847
4838000000.0 0.9166 -1.083
4841000000.0 -0.2384 -1.396
4844000000.0 -1.216 -0.6982
4847000000.0 -1.317 0.5059
4850000000.0 -0.4396 1.332
4853000000.0 0.775 1.164
4856000000.0 1.39 0.1661
4859000000.0 0.9998 -0.9497
4862000000.0 -0.1067 -1.384
4866000000.0 -1.131 -0.7754
4869000000.0 -1.306 0.3757
4872000000.0 -0.4961 1.239
4875000000.0 0.6418 1.16
4878000000.0 1.257 0.2409
4881000000.0 0.95 -0.841
4884000000.0 -0.05966 -1.28
4888000000.0 -0.9763 -0.7586
4891000000.0 -1.169 0.3079
4894000000.0 -0.4632 1.084
4897000000.0 0.499 1.018
4900000000.0 1.103 0.2654
4903000000.0 0.8601 -0.6909
4906000000.0 -0.02833 -1.1
4909000000.0 -0.8218 -0.6769
4912000000.0 -1.014 0.2289
4916000000.0 -0.4859 0.9294
4919000000.0 0.4017 0.9212
4922000000.0 0.9764 0.281
4925000000.0 0.796 -0.5334
4928000000.0 0.06742 -0.9422
4931000000.0 -0.6846 -0.6761
4934000000.0 -0.9557 0.1099
4938000000.0 -0.508 0.7667
4941000000.0 0.3071 0.9001
4944000000.0 0.8601 0.3481
4947000000.0 0.8501 -0.4589
4950000000.0 0.1647 -0.9559
4953000000.0 -0.5976 -0.7282
4956000000.0 -0.975 0.0418
4959000000.0 -0.6205 0.7855
4962000000.0 0.2389 0.9594
4966000000.0 0.8924 0.4464
4969000000.0 0.9234 -0.4463
4972000000.0 0.2687 -0.9808
4975000000.0 -0.5899 -0.8417
4978000000.0 -1.029 -0.05327
4981000000.0 -0.7164 0.7665
4984000000.0 0.1357 1.017
4988000000.0 0.9044 0.5821
4991000000.0 1.054 -0.3296
4994000000.0 0.3927 -1.014
4997000000.0 -0.5292 -1.001
5000000000.0 -1.129 -0.1946
5003000000.0 -0.8964 0.7622
5006000000.0 -0.01466 1.201
5009000000.0 0.923 0.7823
5012000000.0 1.208 -0.2408
5016000000.0 0.6206 -1.091
5019000000.0 -0.443 -1.168
5022000000.0 -1.211 -0.3815
5025000000.0 -1.076 0.6817
5028000000.0 -0.1505 1.309
5031000000.0 0.8918 0.9151
5034000000.0 1.281 -0.05701
5038000000.0 0.7662 -1.092
5041000000.0 -0.3244 -1.273
5044000000.0 -1.164 -0.566
5047000000.0 -1.214 0.5463
5050000000.0 -0.3635 1.25
5053000000.0 0.7686 1.08
5056000000.0 1.284 0.1367
5059000000.0 0.9429 -0.9041
5062000000.0 -0.09671 -1.317
5066000000.0 -1.117 -0.7389
5069000000.0 -1.259 0.3604
5072000000.0 -0.5449 1.219
5075000000.0 0.539 1.132
5078000000.0 1.201 0.325
5081000000.0 1.026 -0.7614
5084000000.0 0.01931 -1.231
5088000000.0 -0.9026 -0.87
5091000000.0 -1.229 0.1972
5094000000.0 -0.6277 1.005
5097000000.0 0.3357 1.118
5100000000.0 1.051 0.4352
5103000000.0 1.001 -0.5345
5106000000.0 0.2402 -1.069
5109000000.0 -0.6468 -0.8456
5112000000.0 -1.098 -0.03154
5116000000.0 -0.7231 0.7765
5119000000.0 0.1441 1.054
5122000000.0 0.9071 0.5905
5125000000.0 1.003 -0.3018
5128000000.0 0.3503 -0.9675
5131000000.0 -0.4632 -0.8962
5134000000.0 -1.005 -0.2085
5138000000.0 -0.7422 0.6208
5141000000.0 0.02917 0.9674
5144000000.0 0.7709 0.6071
5147000000.0 0.9081 -0.2022
5150000000.0 0.4284 -0.8359
5153000000.0 -0.3442 -0.8243
5156000000.0 -0.8764 -0.2307
5159000000.0 -0.7149 0.5443
5162000000.0 -0.07141 0.9177
5166000000.0 0.6725 0.6546
5169000000.0 0.8952 -0.139
5172000000.0 0.48 -0.7459
5175000000.0 -0.3213 -0.8397
5178000000.0 -0.8626 -0.3078
5181000000.0 -0.7423 0.4881
5184000000.0 -0.1142 0.9036
5188000000.0 0.6433 0.658
5191000000.0 0.924 -0.09929
5194000000.0 0.4932 -0.7783
5197000000.0 -0.3364 -0.8424
5200000000.0 -0.8548 -0.3209
5203000000.0 -0.8291 0.5237
5206000000.0 -0.1128 0.9454
5209000000.0 0.7079 0.7165
5212000000.0 0.9722 -0.1151
5216000000.0 0.5339 -0.8176
5219000000.0 -0.2907 -0.9489
5222000000.0 -0.9334 -0.3835
5225000000.0 -0.8861 0.4736
5228000000.0 -0.1955 0.9895
5231000000.0 0.6817 0.7735
5234000000.0 1.042 -0.03132
5238000000.0 0.6335 -0.8274
5241000000.0 -0.2021 -1.026
5244000000.0 -0.9552 -0.5071
5247000000.0 -1.007 0.4062
5250000000.0 -0.3242 1.04
5253000000.0 0.608 0.8949
5256000000.0 1.092 0.112
5259000000.0 0.7888 -0.7586
5262000000.0 -0.03396 -1.089
5266000000.0 -0.9037 -0.6551
5269000000.0 -1.098 0.2353
5272000000.0 -0.51 0.9896
5275000000.0 0.4522 1.028
5278000000.0 1.049 0.3303
5281000000.0 0.926 -0.6119
5284000000.0 0.1126 -1.124
5288000000.0 -0.7557 -0.8291
5291000000.0 -1.083 0.03682
5294000000.0 -0.7261 0.8637
5297000000.0 0.2056 1.118
5300000000.0 1.006 0.5749
5303000000.0 1.059 -0.4131
5306000000.0 0.4026 -1.084
5309000000.0 -0.5941 -0.999
5312000000.0 -1.098 -0.2121
5316000000.0 -0.8715 0.7117
5319000000.0 0.01457 1.164
5322000000.0 0.8823 0.7312
5325000000.0 1.164 -0.2075
5328000000.0 0.5439 -1.028
5331000000.0 -0.3842 -1.092
5334000000.0 -1.093 -0.3743
5338000000.0 -0.9834 0.6197
5341000000.0 -0.1511 1.133
5344000000.0 0.7645 0.8368
5347000000.0 1.097 -0.05084
5350000000.0 0.6393 -0.9171
5353000000.0 -0.2807 -1.071
5356000000.0 -0.998 -0.4378
5359000000.0 -0.9729 0.4658
5362000000.0 -0.2244 1.071
5366000000.0 0.6499 0.8367
5369000000.0 1.068 0.002338
5372000000.0 0.6634 -0.8074
5375000000.0 -0.2306 -1.022
5378000000.0 -0.9176 -0.474
5381000000.0 -0.9156 0.4696
5384000000.0 -0.2096 0.9907
5388000000.0 0.6032 0.7552
5391000000.0 0.98 -0.03204
5394000000.0 0.5926 -0.7461
5397000000.0 -0.2316 -0.9143
5400000000.0 -0.8299 -0.3458
5403000000.0 -0.7977 0.4228
5406000000.0 -0.1789 0.8998
5409000000.0 0.5781 0.7003
5412000000.0 0.8812 -0.02966
5416000000.0 0.5106 -0.6945
5419000000.0 -0.2251 -0.8556
5422000000.0 -0.7824 -0.3354
5425000000.0 -0.788 0.4265
5428000000.0 -0.1382 0.8431
5431000000.0 0.576 0.6461
5434000000.0 0.8492 -0.02423
5438000000.0 0.5214 -0.6969
5441000000.0 -0.2175 -0.8463
5444000000.0 -0.7964 -0.3668
5447000000.0 -0.789 0.4098
5450000000.0 -0.1855 0.9041
5453000000.0 0.5635 0.7024
5456000000.0 0.8759 -0.02074
5459000000.0 0.5625 -0.6729
5462000000.0 -0.1568 -0.911
5466000000.0 -0.8189 -0.43
5469000000.0 -0.8623 0.3497
5472000000.0 -0.2768 0.9191
5475000000.0 0.4966 0.7992
5478000000.0 0.9538 0.1559
5481000000.0 0.6995 -0.6471
5484000000.0 -0.05368 -0.981
5488000000.0 -0.7583 -0.6128
5491000000.0 -1.006 0.1753
5494000000.0 -0.4608 0.9045
5497000000.0 0.3659 0.9556
5500000000.0 0.9716 0.2935
5503000000.0 0.8701 -0.5759
5506000000.0 0.1317 -1.022
5509000000.0 -0.7101 -0.7743
5512000000.0 -1.033 0.03902
5516000000.0 -0.6333 0.8447
5519000000.0 0.193 1.039
5522000000.0 0.9326 0.4867
5525000000.0 1.013 -0.3684
5528000000.0 0.3362 -1.025
5531000000.0 -0.555 -0.9077
5534000000.0 -1.05 -0.2044
5538000000.0 -0.8083 0.7303
5541000000.0 -0.008821 1.074
5544000000.0 0.8361 0.7021
5547000000.0 1.052 -0.2176
5550000000.0 0.5179 -0.9358
5553000000.0 -0.4211 -1.001
5556000000.0 -1.014 -0.3352
5559000000.0 -0.899 0.5697
5562000000.0 -0.1459 1.017
5566000000.0 0.7353 0.7408
5569000000.0 1.043 -0.1085
5572000000.0 0.6023 -0.8475
5575000000.0 -0.2719 -0.9903
5578000000.0 -0.9328 -0.4419
5581000000.0 -0.8869 0.4308
5584000000.0 -0.2273 0.9505
5588000000.0 0.561 0.7622
5591000000.0 0.9496 0.04353
5594000000.0 0.6206 -0.683
5597000000.0 -0.1183 -0.9188
5600000000.0 -0.8089 -0.4568
5603000000.0 -0.8407 0.3127
5606000000.0 -0.2772 0.87
5609000000.0 0.5069 0.7486
5612000000.0 0.8524 0.09501
5616000000.0 0.6212 -0.6136
5619000000.0 -0.0986 -0.8657
5622000000.0 -0.7059 -0.4628
5625000000.0 -0.8095 0.2401
5628000000.0 -0.2953 0.7823
5631000000.0 0.4434 0.7194
5634000000.0 0.8191 0.1066
5638000000.0 0.6403 -0.5683
5641000000.0 -0.05752 -0.8374
5644000000.0 -0.6807 -0.4513
5647000000.0 -0.8133 0.2401
5650000000.0 -0.3325 0.8098
5653000000.0 0.4059 0.7259
5656000000.0 0.8385 0.1652
5659000000.0 0.648 -0.5599
5662000000.0 -0.05188 -0.8836
5666000000.0 -0.7295 -0.5114
5669000000.0 -0.8326 0.2505
5672000000.0 -0.3517 0.843
5675000000.0 0.4055 0.7978
5678000000.0 0.9044 0.1553
5681000000.0 0.6951 -0.6239
5684000000.0 -0.01277 -0.9416
5688000000.0 -0.7813 -0.5912
5691000000.0 -0.9469 0.2439
5694000000.0 -0.4377 0.8973
5697000000.0 0.4289 0.906
5700000000.0 0.9782 0.2289
5703000000.0 0.8211 -0.633
5706000000.0 0.01972 -1.024
5709000000.0 -0.7769 -0.6962
5712000000.0 -1.032 0.1781
5716000000.0 -0.5576 0.9306
5719000000.0 0.3636 0.9929
5722000000.0 1.005 0.3596
5725000000.0 0.9288 -0.5645
5728000000.0 0.151 -1.076
5731000000.0 -0.7343 -0.7846
5734000000.0 -1.101 0.02418
5738000000.0 -0.6597 0.8635
5741000000.0 0.2583 1.091
5744000000.0 0.9819 0.4894
5747000000.0 1.02 -0.4198
5750000000.0 0.3419 -1.071
5753000000.0 -0.6255 -0.9465
5756000000.0 -1.138 -0.123
5759000000.0 -0.8149 0.7784
5762000000.0 0.1009 1.105
5766000000.0 0.9094 0.6707
5769000000.0 1.143 -0.2959
5772000000.0 0.4593 -1.008
5775000000.0 -0.4698 -1.037
5778000000.0 -1.062 -0.3042
5781000000.0 -0.8812 0.6508
5784000000.0 -0.1041 1.061
5788000000.0 0.7679 0.7507
5791000000.0 1.088 -0.1012
5794000000.0 0.5759 -0.8888
5797000000.0 -0.2876 -1.066
5800000000.0 -0.9925 -0.4258
5803000000.0 -0.9504 0.5044
5806000000.0 -0.2207 1.033
5809000000.0 0.6705 0.8439
5812000000.0 1.076 0.03084
5816000000.0 0.6668 -0.788
5819000000.0 -0.158 -0.9866
5822000000.0 -0.8915 -0.488
5825000000.0 -0.9291 0.3569
5828000000.0 -0.2754 0.9489
5831000000.0 0.5675 0.8413
5834000000.0 0.9591 0.09775
5838000000.0 0.7032 -0.6759
5841000000.0 -0.1412 -0.9572
5844000000.0 -0.8049 -0.538
5847000000.0 -0.9062 0.2951
5850000000.0 -0.3266 0.8902
5853000000.0 0.488 0.7965
5856000000.0 0.9454 0.1194
5859000000.0 0.702 -0.6395
5862000000.0 -0.04436 -0.9208
5866000000.0 -0.7257 -0.4829
5869000000.0 -0.8293 0.2763
5872000000.0 -0.3087 0.8346
5875000000.0 0.4849 0.763
5878000000.0 0.8906 0.09824
5881000000.0 0.6699 -0.6352
5884000000.0 -0.07034 -0.8381
5888000000.0 -0.689 -0.51
5891000000.0 -0.8406 0.2468
5894000000.0 -0.3584 0.785
5897000000.0 0.4037 0.7659
5900000000.0 0.8508 0.1664
5903000000.0 0.6721 -0.567
5906000000.0 0.01323 -0.877
5909000000.0 -0.6554 -0.6069
5912000000.0 -0.834 0.1856
5916000000.0 -0.3734 0.787
5919000000.0 0.3455 0.8389
5922000000.0 0.8539 0.2713
5925000000.0 0.7424 -0.498
5928000000.0 0.07479 -0.9136
5931000000.0 -0.6093 -0.655
5934000000.0 -0.9329 0.06562
5938000000.0 -0.5034 0.7453
5941000000.0 0.2582 0.8879
5944000000.0 0.8202 0.3515
5947000000.0 0.8286 -0.3982
5950000000.0 0.2425 -0.9063
5953000000.0 -0.5719 -0.7367
5956000000.0 -0.9557 -0.04454
5959000000.0 -0.6455 0.6996
5962000000.0 0.1196 0.9664
5966000000.0 0.8199 0.5114
5969000000.0 0.9109 -0.281
5972000000.0 0.3741 -0.8652
5975000000.0 -0.4221 -0.8972
5978000000.0 -0.941 -0.226
5981000000.0 -0.7884 0.6466
5984000000.0 -0.01944 1.02
5988000000.0 0.7467 0.6934
5991000000.0 1.01 -0.1578
5994000000.0 0.5259 -0.893
5997000000.0 -0.3314 -0.9621
6000000000.0 -0.9533 -0.3697
6003000000.0 -0.8819 0.5416
6006000000.0 -0.1565 0.9993
6009000000.0 0.6736 0.739
6012000000.0 0.9947 -0.0462
6016000000.0 0.602 -0.7917
6019000000.0 -0.2351 -0.9673
6022000000.0 -0.9005 -0.4161
6025000000.0 -0.8793 0.4352
6028000000.0 -0.2453 0.9654
6031000000.0 0.5813 0.7901
6034000000.0 1.002 0.04784
6038000000.0 0.6402 -0.7353
6041000000.0 -0.1321 -0.9444
6044000000.0 -0.8244 -0.4689
6047000000.0 -0.8813 0.3645
6050000000.0 -0.2817 0.9201
6053000000.0 0.5087 0.7948
6056000000.0 0.9253 0.09438
6059000000.0 0.6442 -0.6428
6062000000.0 -0.1002 -0.8988
6066000000.0 -0.7608 -0.4846
6069000000.0 -0.8413 0.2794
6072000000.0 -0.3011 0.8631
6075000000.0 0.4685 0.7788
6078000000.0 0.8862 0.1135
6081000000.0 0.6501 -0.5841
6084000000.0 -0.06135 -0.8383
6088000000.0 -0.6905 -0.5038
6091000000.0 -0.8246 0.2303
6094000000.0 -0.3226 0.7667
6097000000.0 0.4314 0.7669
6100000000.0 0.8349 0.1503
6103000000.0 0.6556 -0.5617
6106000000.0 -0.02215 -0.8291
6109000000.0 -0.7019 -0.5248
6112000000.0 -0.8265 0.2119
6116000000.0 -0.3642 0.8035
6119000000.0 0.4337 0.7891
6122000000.0 0.8408 0.1819
6125000000.0 0.7267 -0.5696
6128000000.0 0.01815 -0.883
6131000000.0 -0.7158 -0.5554
6134000000.0 -0.8698 0.1753
6138000000.0 -0.4384 0.7978
6141000000.0 0.3763 0.8438
6144000000.0 0.8464 0.2611
6147000000.0 0.7675 -0.4921
6150000000.0 0.063 -0.9395
6153000000.0 -0.6803 -0.6574
6156000000.0 -0.9071 0.05744
6159000000.0 -0.4859 0.8171
6162000000.0 0.2988 0.926
6166000000.0 0.9153 0.3485
6169000000.0 0.8181 -0.4962
6172000000.0 0.1921 -0.9403
6175000000.0 -0.6097 -0.7316
6178000000.0 -0.9998 0.03993
6181000000.0 -0.5416 0.7621
6184000000.0 0.2154 0.9492
6188000000.0 0.896 0.4375
6191000000.0 0.8821 -0.4213
6194000000.0 0.2141 -0.9198
6197000000.0 -0.586 -0.7513
6200000000.0 -0.9478 -0.07085
6203000000.0 -0.6522 0.7258
6206000000.0 0.1536 0.9619
6209000000.0 0.8042 0.5017
6212000000.0 0.9064 -0.2888
6216000000.0 0.3447 -0.837
6219000000.0 -0.4363 -0.8189
6222000000.0 -0.9361 -0.1815
6225000000.0 -0.6995 0.5852
6228000000.0 -0.004017 0.9471
6231000000.0 0.6949 0.5683
6234000000.0 0.9104 -0.15
6238000000.0 0.3862 -0.7548
6241000000.0 -0.3558 -0.8247
6244000000.0 -0.8618 -0.2592
6247000000.0 -0.7362 0.4551
6250000000.0 -0.1048 0.8419
6253000000.0 0.5773 0.5978
6256000000.0 0.8413 -0.07744
6259000000.0 0.459 -0.6658
6262000000.0 -0.1844 -0.7925
6266000000.0 -0.742 -0.3757
6269000000.0 -0.7809 0.3539
