! Created with skrf 1.8.0 (http://scikit-rf.org).
# Hz S RI R 50.0 
!freq ReS11 ImS11
4000000000.0 -0.1603 -1.513
4003000000.0 -1.234 -0.8393
4006000000.0 -1.458 0.4998
4009000000.0 -0.5271 1.414
4012000000.0 0.7825 1.284
4016000000.0 1.506 0.2395
4019000000.0 1.082 -1.064
4022000000.0 -0.07841 -1.553
4025000000.0 -1.313 -0.9127
4028000000.0 -1.493 0.4569
4031000000.0 -0.5928 1.481
4034000000.0 0.7953 1.388
4038000000.0 1.589 0.2445
4041000000.0 1.17 -1.102
4044000000.0 -0.1372 -1.599
4047000000.0 -1.327 -0.9295
4050000000.0 -1.573 0.4197
4053000000.0 -0.6637 1.53
4056000000.0 0.7706 1.427
4059000000.0 1.553 0.331
4062000000.0 1.278 -0.9853
4066000000.0 0.02661 -1.664
4069000000.0 -1.198 -1.078
4072000000.0 -1.598 0.2546
4075000000.0 -0.8513 1.377
4078000000.0 0.5758 1.508
4081000000.0 1.566 0.5547
4084000000.0 1.453 -0.8215
4088000000.0 0.243 -1.669
4091000000.0 -1.108 -1.212
4094000000.0 -1.646 0.08436
4097000000.0 -0.9639 1.29
4100000000.0 0.3769 1.521
4103000000.0 1.413 0.7149
4106000000.0 1.421 -0.6239
4109000000.0 0.4615 -1.516
4112000000.0 -0.8466 -1.29
4116000000.0 -1.512 -0.2062
4119000000.0 -1.119 0.9952
4122000000.0 0.000699 1.49
4125000000.0 1.142 0.9484
4128000000.0 1.429 -0.2156
4131000000.0 0.7754 -1.246
4134000000.0 -0.4232 -1.422
4138000000.0 -1.319 -0.6119
4141000000.0 -1.349 0.6454
4144000000.0 -0.4226 1.435
4147000000.0 0.8767 1.236
4150000000.0 1.496 0.1634
4153000000.0 1.083 -1.051
4156000000.0 -0.1234 -1.493
4159000000.0 -1.232 -0.8912
4162000000.0 -1.472 0.3694
4166000000.0 -0.653 1.353
4169000000.0 0.6095 1.373
4172000000.0 1.444 0.4111
4175000000.0 1.274 -0.8175
4178000000.0 0.1666 -1.481
4181000000.0 -1.038 -1.071
4184000000.0 -1.468 0.06047
4188000000.0 -0.8743 1.202
4191000000.0 0.3564 1.449
4194000000.0 1.389 0.6791
4197000000.0 1.394 -0.6529
4200000000.0 0.3893 -1.508
4203000000.0 -0.9809 -1.291
4206000000.0 -1.602 -0.08134
4209000000.0 -1.032 1.255
4212000000.0 0.3765 1.617
4216000000.0 1.508 0.7683
4219000000.0 1.503 -0.7195
4222000000.0 0.3456 -1.658
4225000000.0 -1.12 -1.29
4228000000.0 -1.653 0.123
4231000000.0 -0.9572 1.423
4234000000.0 0.5733 1.571
4238000000.0 1.572 0.5451
4241000000.0 1.374 -0.9277
4244000000.0 0.09965 -1.608
4247000000.0 -1.193 -1.044
4250000000.0 -1.545 0.3198
4253000000.0 -0.6995 1.362
4256000000.0 0.6766 1.405
4259000000.0 1.502 0.2931
4262000000.0 1.157 -1.002
4266000000.0 -0.05027 -1.528
4269000000.0 -1.199 -0.8483
4272000000.0 -1.447 0.4756
4275000000.0 -0.5217 1.367
4278000000.0 0.7677 1.264
4281000000.0 1.432 0.2253
4284000000.0 1.001 -1.003
4288000000.0 -0.13 -1.407
4291000000.0 -1.143 -0.735
4294000000.0 -1.254 0.4163
4297000000.0 -0.4966 1.226
4300000000.0 0.6562 1.166
4303000000.0 1.264 0.2139
4306000000.0 1.05 -0.8101
4309000000.0 0.0167 -1.299
4312000000.0 -0.9616 -0.8395
4316000000.0 -1.248 0.2077
4319000000.0 -0.6948 1.076
4322000000.0 0.4137 1.239
4325000000.0 1.207 0.4778
4328000000.0 1.15 -0.6391
4331000000.0 0.2804 -1.304
4334000000.0 -0.8068 -1.035
4338000000.0 -1.391 -0.04638
4341000000.0 -0.936 1.038
4344000000.0 0.2025 1.419
4347000000.0 1.202 0.7057
4350000000.0 1.371 -0.4903
4353000000.0 0.4963 -1.326
4356000000.0 -0.7203 -1.265
4359000000.0 -1.457 -0.239
4362000000.0 -1.12 0.9524
4366000000.0 0.02738 1.461
4369000000.0 1.144 0.9073
4372000000.0 1.449 -0.2976
4375000000.0 0.7343 -1.341
4378000000.0 -0.5477 -1.369
4381000000.0 -1.437 -0.4329
4384000000.0 -1.299 0.8144
4388000000.0 -0.1745 1.508
4391000000.0 1.077 1.096
4394000000.0 1.562 -0.1204
4397000000.0 0.8392 -1.293
4400000000.0 -0.5026 -1.484
4403000000.0 -1.473 -0.5289
4406000000.0 -1.336 0.8259
4409000000.0 -0.1551 1.582
4412000000.0 1.102 1.063
4416000000.0 1.523 -0.1695
4419000000.0 0.8296 -1.295
4422000000.0 -0.5057 -1.421
4425000000.0 -1.429 -0.4913
4428000000.0 -1.225 0.8407
4431000000.0 -0.1017 1.469
4434000000.0 1.066 0.9676
4438000000.0 1.376 -0.2868
4441000000.0 0.6572 -1.241
4444000000.0 -0.595 -1.255
4447000000.0 -1.325 -0.3166
4450000000.0 -1.057 0.8054
4453000000.0 0.0474 1.33
4456000000.0 1.047 0.7652
4459000000.0 1.262 -0.3718
4462000000.0 0.4632 -1.146
4466000000.0 -0.6264 -1.086
4469000000.0 -1.243 -0.1529
4472000000.0 -0.8527 0.8431
4475000000.0 0.16 1.165
4478000000.0 1.019 0.6116
4481000000.0 1.07 -0.4262
4484000000.0 0.3206 -1.095
4488000000.0 -0.6348 -0.9277
4491000000.0 -1.132 -0.04694
4494000000.0 -0.7592 0.8169
4497000000.0 0.1503 1.089
4500000000.0 0.9672 0.5533
4503000000.0 1.003 -0.3619
4506000000.0 0.3206 -1.067
4509000000.0 -0.6146 -0.9312
4512000000.0 -1.089 -0.0871
4516000000.0 -0.7746 0.7929
4519000000.0 0.1187 1.113
4522000000.0 0.973 0.6043
4525000000.0 1.072 -0.3436
4528000000.0 0.4068 -1.071
4531000000.0 -0.5634 -1.011
4534000000.0 -1.154 -0.2002
4538000000.0 -0.8794 0.7475
4541000000.0 0.01062 1.187
4544000000.0 0.92 0.738
4547000000.0 1.131 -0.2427
4550000000.0 0.5555 -1.05
4553000000.0 -0.471 -1.105
4556000000.0 -1.159 -0.3685
4559000000.0 -1.027 0.6674
4562000000.0 -0.1703 1.215
4566000000.0 0.8131 0.9233
4569000000.0 1.282 -0.04017
4572000000.0 0.7607 -1.023
4575000000.0 -0.2816 -1.251
4578000000.0 -1.153 -0.6
4581000000.0 -1.202 0.5178
4584000000.0 -0.4152 1.269
4588000000.0 0.7424 1.133
4591000000.0 1.333 0.1587
4594000000.0 0.9995 -0.9311
4597000000.0 -0.1038 -1.37
4600000000.0 -1.134 -0.803
4603000000.0 -1.348 0.3674
4606000000.0 -0.5784 1.293
4609000000.0 0.6122 1.217
4612000000.0 1.342 0.2833
4616000000.0 1.096 -0.861
4619000000.0 0.04956 -1.394
4622000000.0 -1.036 -0.8885
4625000000.0 -1.357 0.2398
4628000000.0 -0.6604 1.201
4631000000.0 0.5152 1.278
4634000000.0 1.315 0.4073
4638000000.0 1.116 -0.7823
4641000000.0 0.1103 -1.346
4644000000.0 -0.9809 -0.9308
4647000000.0 -1.341 0.2078
4650000000.0 -0.6722 1.15
4653000000.0 0.4855 1.214
4656000000.0 1.245 0.3613
4659000000.0 1.049 -0.7493
4662000000.0 0.06196 -1.292
4666000000.0 -0.9109 -0.8304
4669000000.0 -1.213 0.1963
4672000000.0 -0.5702 1.026
4675000000.0 0.4617 1.084
4678000000.0 1.111 0.3077
4681000000.0 0.9335 -0.666
4684000000.0 0.048 -1.15
4688000000.0 -0.8575 -0.7401
4691000000.0 -1.096 0.2007
4694000000.0 -0.5447 0.9687
4697000000.0 0.4215 1.001
4700000000.0 1.044 0.2985
4703000000.0 0.8332 -0.6459
4706000000.0 0.02924 -1.098
4709000000.0 -0.8126 -0.7291
4712000000.0 -1.034 0.2064
4716000000.0 -0.4869 0.9404
4719000000.0 0.4505 1.003
4722000000.0 1.021 0.283
4725000000.0 0.825 -0.625
4728000000.0 0.01703 -1.069
4731000000.0 -0.8044 -0.6727
4734000000.0 -1.02 0.1711
4738000000.0 -0.528 0.9167
4741000000.0 0.3562 0.9511
4744000000.0 0.9858 0.3482
4747000000.0 0.9124 -0.5693
4750000000.0 0.1711 -1.066
4753000000.0 -0.7348 -0.7871
4756000000.0 -1.095 0.04628
4759000000.0 -0.6661 0.8458
4762000000.0 0.2535 1.078
4766000000.0 0.9842 0.5222
4769000000.0 1.06 -0.4412
4772000000.0 0.3087 -1.107
4775000000.0 -0.6139 -0.9924
4778000000.0 -1.12 -0.1172
4781000000.0 -0.8442 0.8245
4784000000.0 0.0638 1.218
4788000000.0 0.9529 0.7244
4791000000.0 1.18 -0.2478
4794000000.0 0.5564 -1.062
4797000000.0 -0.4639 -1.116
4800000000.0 -1.193 -0.354
4803000000.0 -1.051 0.6467
4806000000.0 -0.1662 1.241
4809000000.0 0.8351 0.9572
4812000000.0 1.269 -0.03299
4816000000.0 0.7913 -0.9893
4819000000.0 -0.2492 -1.274
4822000000.0 -1.172 -0.5988
4825000000.0 -1.231 0.5302
4828000000.0 -0.3766 1.304
4831000000.0 0.7588 1.121
4834000000.0 1.367 0.1397
4838000000.0 0.9612 -0.9801
4841000000.0 -0.147 -1.408
4844000000.0 -1.149 -0.7999
4847000000.0 -1.332 0.4183
4850000000.0 -0.5154 1.284
4853000000.0 0.6503 1.193
4856000000.0 1.347 0.2284
4859000000.0 1.05 -0.8553
4862000000.0 -0.05264 -1.354
4866000000.0 -1.054 -0.8455
4869000000.0 -1.287 0.2744
4872000000.0 -0.6061 1.194
4875000000.0 0.5574 1.189
4878000000.0 1.229 0.3297
4881000000.0 1.037 -0.7664
4884000000.0 0.04981 -1.259
4888000000.0 -0.8957 -0.8282
4891000000.0 -1.236 0.2262
4894000000.0 -0.5932 1.036
4897000000.0 0.437 1.088
4900000000.0 1.091 0.313
4903000000.0 0.9002 -0.6282
4906000000.0 0.07597 -1.087
4909000000.0 -0.7848 -0.724
4912000000.0 -1.03 0.1591
4916000000.0 -0.5268 0.8719
4919000000.0 0.3361 0.9747
4922000000.0 0.9449 0.3544
4925000000.0 0.8344 -0.4757
4928000000.0 0.1356 -0.934
4931000000.0 -0.6056 -0.681
4934000000.0 -0.9347 0.04389
4938000000.0 -0.5772 0.7502
4941000000.0 0.2318 0.9237
4944000000.0 0.8128 0.4327
4947000000.0 0.8775 -0.3848
4950000000.0 0.2251 -0.9149
4953000000.0 -0.5729 -0.7582
4956000000.0 -0.931 -0.04751
4959000000.0 -0.6525 0.7174
4962000000.0 0.1575 0.9473
4966000000.0 0.8503 0.5112
4969000000.0 0.9503 -0.3475
4972000000.0 0.3169 -0.9436
4975000000.0 -0.5177 -0.861
4978000000.0 -1.001 -0.1402
4981000000.0 -0.7578 0.6887
4984000000.0 0.06017 1.007
4988000000.0 0.8433 0.5913
4991000000.0 1.033 -0.2607
4994000000.0 0.4522 -0.9955
4997000000.0 -0.4466 -1.01
5000000000.0 -1.06 -0.3123
5003000000.0 -0.9391 0.6456
5006000000.0 -0.07666 1.172
5009000000.0 0.8614 0.8301
5012000000.0 1.192 -0.1383
5016000000.0 0.6426 -1.008
5019000000.0 -0.3892 -1.169
5022000000.0 -1.181 -0.4697
5025000000.0 -1.112 0.6073
5028000000.0 -0.2212 1.258
5031000000.0 0.7928 0.9711
5034000000.0 1.302 -0.00366
5038000000.0 0.8323 -0.9887
5041000000.0 -0.2375 -1.258
5044000000.0 -1.118 -0.6199
5047000000.0 -1.19 0.4651
5050000000.0 -0.4165 1.233
5053000000.0 0.6526 1.111
5056000000.0 1.288 0.2086
5059000000.0 0.9677 -0.824
5062000000.0 -0.02643 -1.295
5066000000.0 -1.021 -0.797
5069000000.0 -1.267 0.3054
5072000000.0 -0.5808 1.123
5075000000.0 0.4888 1.182
5078000000.0 1.248 0.3869
5081000000.0 1.05 -0.6963
5084000000.0 0.1479 -1.264
5088000000.0 -0.8459 -0.8688
5091000000.0 -1.201 0.09808
5094000000.0 -0.6898 0.9558
5097000000.0 0.3044 1.132
5100000000.0 1.008 0.4955
5103000000.0 1.001 -0.4499
5106000000.0 0.3452 -1.069
5109000000.0 -0.6175 -0.926
5112000000.0 -1.071 -0.1266
5116000000.0 -0.7774 0.7472
5119000000.0 0.06608 1.051
5122000000.0 0.8648 0.6479
5125000000.0 1.0 -0.254
5128000000.0 0.4717 -0.9376
5131000000.0 -0.4231 -0.9001
5134000000.0 -0.931 -0.2438
5138000000.0 -0.8097 0.584
5141000000.0 -0.03337 0.9715
5144000000.0 0.6936 0.6715
5147000000.0 0.9799 -0.1107
5150000000.0 0.491 -0.7948
5153000000.0 -0.3192 -0.8612
5156000000.0 -0.846 -0.3306
5159000000.0 -0.7668 0.4738
5162000000.0 -0.1265 0.893
5166000000.0 0.5976 0.6531
5169000000.0 0.929 -0.04219
5172000000.0 0.5166 -0.734
5175000000.0 -0.241 -0.8896
5178000000.0 -0.8314 -0.3629
5181000000.0 -0.814 0.415
5184000000.0 -0.1537 0.9194
5188000000.0 0.5985 0.7246
5191000000.0 0.9157 -0.03117
5194000000.0 0.5661 -0.7464
5197000000.0 -0.2501 -0.9034
5200000000.0 -0.8538 -0.3834
5203000000.0 -0.8446 0.4438
5206000000.0 -0.1754 0.9428
5209000000.0 0.5896 0.7327
5212000000.0 0.9688 -0.005838
5216000000.0 0.58 -0.7789
5219000000.0 -0.2293 -0.9557
5222000000.0 -0.8781 -0.4595
5225000000.0 -0.9121 0.4087
5228000000.0 -0.251 0.9653
5231000000.0 0.5943 0.83
5234000000.0 1.033 0.07828
5238000000.0 0.7029 -0.7386
5241000000.0 -0.12 -1.038
5244000000.0 -0.9041 -0.5655
5247000000.0 -1.006 0.339
5250000000.0 -0.3911 0.9904
5253000000.0 0.521 0.8974
5256000000.0 1.045 0.2134
5259000000.0 0.8129 -0.6834
5262000000.0 0.02126 -1.092
5266000000.0 -0.8165 -0.7055
5269000000.0 -1.059 0.1826
5272000000.0 -0.5575 0.9262
5275000000.0 0.3374 1.026
5278000000.0 1.018 0.3993
5281000000.0 0.9629 -0.5128
5284000000.0 0.2423 -1.065
5288000000.0 -0.6813 -0.8569
5291000000.0 -1.097 -0.0797
5294000000.0 -0.7507 0.8086
5297000000.0 0.1253 1.094
5300000000.0 0.917 0.6372
5303000000.0 1.073 -0.3012
5306000000.0 0.4475 -1.0
5309000000.0 -0.4955 -1.055
5312000000.0 -1.075 -0.283
5316000000.0 -0.9454 0.6313
5319000000.0 -0.1163 1.167
5322000000.0 0.8237 0.8037
5325000000.0 1.128 -0.1352
5328000000.0 0.6631 -0.9077
5331000000.0 -0.3198 -1.113
5334000000.0 -1.051 -0.4414
5338000000.0 -1.023 0.5324
5341000000.0 -0.2694 1.097
5344000000.0 0.6523 0.8924
5347000000.0 1.113 0.03103
5350000000.0 0.7593 -0.8039
5353000000.0 -0.1471 -1.077
5356000000.0 -0.9322 -0.5678
5359000000.0 -1.023 0.3988
5362000000.0 -0.3485 1.042
5366000000.0 0.5599 0.9106
5369000000.0 1.047 0.1265
5372000000.0 0.7402 -0.7221
5375000000.0 -0.1158 -1.058
5378000000.0 -0.8965 -0.5553
5381000000.0 -0.9515 0.3456
5384000000.0 -0.3118 0.9474
5388000000.0 0.5239 0.8296
5391000000.0 0.9555 0.09672
5394000000.0 0.6413 -0.6788
5397000000.0 -0.1528 -0.9068
5400000000.0 -0.8123 -0.4629
5403000000.0 -0.857 0.3075
5406000000.0 -0.2803 0.8396
5409000000.0 0.504 0.7274
5412000000.0 0.8959 0.07873
5416000000.0 0.5977 -0.5876
5419000000.0 -0.1367 -0.881
5422000000.0 -0.7265 -0.4406
5425000000.0 -0.7973 0.3029
5428000000.0 -0.2386 0.8171
5431000000.0 0.4653 0.7035
5434000000.0 0.8638 0.08986
5438000000.0 0.5845 -0.6334
5441000000.0 -0.1425 -0.8605
5444000000.0 -0.7596 -0.4465
5447000000.0 -0.8285 0.3205
5450000000.0 -0.2709 0.8566
5453000000.0 0.4634 0.7262
5456000000.0 0.8738 0.08483
5459000000.0 0.6102 -0.628
5462000000.0 -0.1059 -0.8818
5466000000.0 -0.7415 -0.5355
5469000000.0 -0.8874 0.2617
5472000000.0 -0.3814 0.8659
5475000000.0 0.3898 0.8568
5478000000.0 0.878 0.2452
5481000000.0 0.7474 -0.5413
5484000000.0 0.07237 -0.9289
5488000000.0 -0.7382 -0.6804
5491000000.0 -0.9381 0.09698
5494000000.0 -0.5567 0.8399
5497000000.0 0.2956 0.9393
5500000000.0 0.9013 0.3891
5503000000.0 0.8987 -0.4385
5506000000.0 0.2049 -0.9938
5509000000.0 -0.5802 -0.8038
5512000000.0 -1.042 -0.06917
5516000000.0 -0.6931 0.7275
5519000000.0 0.1094 1.026
5522000000.0 0.8656 0.5905
5525000000.0 1.006 -0.3044
5528000000.0 0.4136 -0.9606
5531000000.0 -0.4482 -0.9442
5534000000.0 -1.016 -0.2834
5538000000.0 -0.8533 0.6108
5541000000.0 -0.1006 1.036
5544000000.0 0.7434 0.7559
5547000000.0 1.034 -0.1493
5550000000.0 0.625 -0.868
5553000000.0 -0.2679 -0.9994
5556000000.0 -0.9632 -0.444
5559000000.0 -0.9395 0.4693
5562000000.0 -0.2384 1.047
5566000000.0 0.5934 0.8125
5569000000.0 1.037 0.04344
5572000000.0 0.6946 -0.7539
5575000000.0 -0.1383 -0.9907
5578000000.0 -0.8477 -0.5398
5581000000.0 -0.9506 0.3384
5584000000.0 -0.3677 0.9393
5588000000.0 0.4772 0.8492
5591000000.0 0.9708 0.1513
5594000000.0 0.7277 -0.5954
5597000000.0 -0.02404 -0.9055
5600000000.0 -0.7426 -0.5809
5603000000.0 -0.9131 0.2175
5606000000.0 -0.416 0.8043
5609000000.0 0.3566 0.8213
5612000000.0 0.8644 0.1982
5616000000.0 0.6912 -0.5366
5619000000.0 0.04195 -0.8521
5622000000.0 -0.631 -0.5897
5625000000.0 -0.8569 0.1481
5628000000.0 -0.4166 0.7299
5631000000.0 0.3114 0.7601
5634000000.0 0.7748 0.2635
5638000000.0 0.6997 -0.4892
5641000000.0 0.08744 -0.8336
5644000000.0 -0.5775 -0.5678
5647000000.0 -0.8234 0.1098
5650000000.0 -0.4208 0.7092
5653000000.0 0.3222 0.7865
5656000000.0 0.7824 0.2484
5659000000.0 0.7271 -0.4561
5662000000.0 0.06797 -0.856
5666000000.0 -0.5951 -0.5968
5669000000.0 -0.8485 0.1266
5672000000.0 -0.4327 0.742
5675000000.0 0.3164 0.8413
5678000000.0 0.8493 0.297
5681000000.0 0.7696 -0.5089
5684000000.0 0.08942 -0.9232
5688000000.0 -0.666 -0.6441
5691000000.0 -0.9501 0.1206
5694000000.0 -0.519 0.8084
5697000000.0 0.2726 0.9241
5700000000.0 0.9026 0.368
5703000000.0 0.8867 -0.524
5706000000.0 0.1838 -0.9952
5709000000.0 -0.6719 -0.7627
5712000000.0 -1.015 0.02394
5716000000.0 -0.6047 0.8422
5719000000.0 0.2329 1.026
5722000000.0 0.9138 0.4609
5725000000.0 0.9602 -0.4327
5728000000.0 0.312 -1.02
5731000000.0 -0.6135 -0.9044
5734000000.0 -1.082 -0.1181
5738000000.0 -0.7592 0.7266
5741000000.0 0.09668 1.089
5744000000.0 0.9128 0.6155
5747000000.0 1.035 -0.298
5750000000.0 0.457 -1.03
5753000000.0 -0.4765 -1.011
5756000000.0 -1.047 -0.248
5759000000.0 -0.8882 0.622
5762000000.0 -0.05007 1.114
5766000000.0 0.7973 0.7512
5769000000.0 1.084 -0.1156
5772000000.0 0.5749 -0.9335
5775000000.0 -0.3459 -1.04
5778000000.0 -1.023 -0.4195
5781000000.0 -0.9704 0.5139
5784000000.0 -0.233 1.064
5788000000.0 0.6614 0.8532
5791000000.0 1.068 0.02439
5794000000.0 0.7467 -0.8042
5797000000.0 -0.1404 -1.09
5800000000.0 -0.9373 -0.5612
5803000000.0 -1.007 0.3391
5806000000.0 -0.3553 0.9867
5809000000.0 0.5428 0.906
5812000000.0 1.022 0.1757
5816000000.0 0.7941 -0.6865
5819000000.0 -0.03542 -1.045
5822000000.0 -0.797 -0.5769
5825000000.0 -0.9616 0.2555
5828000000.0 -0.4498 0.8827
5831000000.0 0.4038 0.9184
5834000000.0 0.954 0.2461
5838000000.0 0.787 -0.5831
5841000000.0 0.0665 -0.9763
5844000000.0 -0.6948 -0.6295
5847000000.0 -0.9433 0.1355
5850000000.0 -0.4862 0.805
5853000000.0 0.3448 0.8957
5856000000.0 0.8899 0.2699
5859000000.0 0.7754 -0.497
5862000000.0 0.08501 -0.9036
5866000000.0 -0.6283 -0.6225
5869000000.0 -0.9071 0.1046
5872000000.0 -0.4798 0.7511
5875000000.0 0.2953 0.8558
5878000000.0 0.8414 0.2665
5881000000.0 0.745 -0.4303
5884000000.0 0.1025 -0.8893
5888000000.0 -0.5704 -0.6306
5891000000.0 -0.867 0.09067
5894000000.0 -0.5 0.7206
5897000000.0 0.2345 0.8259
5900000000.0 0.7925 0.33
5903000000.0 0.7104 -0.4065
5906000000.0 0.1627 -0.841
5909000000.0 -0.5672 -0.6405
5912000000.0 -0.8577 0.008787
5916000000.0 -0.5559 0.6643
5919000000.0 0.1705 0.8789
5922000000.0 0.7655 0.3752
5925000000.0 0.7814 -0.362
5928000000.0 0.2496 -0.8482
5931000000.0 -0.5261 -0.7359
5934000000.0 -0.8682 -0.0812
5938000000.0 -0.5747 0.6496
5941000000.0 0.07902 0.8955
5944000000.0 0.7445 0.4757
5947000000.0 0.8608 -0.2366
5950000000.0 0.3551 -0.8052
5953000000.0 -0.4007 -0.8089
5956000000.0 -0.8872 -0.2146
5959000000.0 -0.7467 0.5514
5962000000.0 -0.06806 0.9579
5966000000.0 0.6853 0.6359
5969000000.0 0.9265 -0.07536
5972000000.0 0.4853 -0.7766
5975000000.0 -0.2849 -0.941
5978000000.0 -0.8864 -0.3932
5981000000.0 -0.8406 0.4425
5984000000.0 -0.2193 0.941
5988000000.0 0.5834 0.7751
5991000000.0 0.9797 0.03508
5994000000.0 0.6822 -0.7906
5997000000.0 -0.1573 -0.9744
6000000000.0 -0.8499 -0.5247
6003000000.0 -0.9466 0.3161
6006000000.0 -0.3581 0.9262
6009000000.0 0.4743 0.8616
6012000000.0 0.9659 0.1584
6016000000.0 0.761 -0.6342
6019000000.0 -0.04 -0.9909
6022000000.0 -0.8038 -0.6177
6025000000.0 -0.9302 0.2178
6028000000.0 -0.4195 0.8685
6031000000.0 0.4054 0.8704
6034000000.0 0.9172 0.2658
6038000000.0 0.8058 -0.5569
6041000000.0 0.03157 -0.9609
6044000000.0 -0.6975 -0.6591
6047000000.0 -0.9537 0.1452
6050000000.0 -0.4982 0.8223
6053000000.0 0.3219 0.8656
6056000000.0 0.9226 0.3182
6059000000.0 0.7978 -0.4796
6062000000.0 0.1062 -0.8905
6066000000.0 -0.6323 -0.6617
6069000000.0 -0.9143 0.05048
6072000000.0 -0.4994 0.7596
6075000000.0 0.2569 0.8558
6078000000.0 0.8288 0.3014
6081000000.0 0.7601 -0.4202
6084000000.0 0.1404 -0.8642
6088000000.0 -0.5813 -0.653
6091000000.0 -0.8761 0.0391
6094000000.0 -0.5183 0.6922
6097000000.0 0.1976 0.8322
6100000000.0 0.7869 0.3493
6103000000.0 0.774 -0.3814
6106000000.0 0.174 -0.822
6109000000.0 -0.5469 -0.6824
6112000000.0 -0.863 -0.00761
6116000000.0 -0.5063 0.6337
6119000000.0 0.1887 0.8305
6122000000.0 0.7748 0.4023
6125000000.0 0.7703 -0.3636
6128000000.0 0.2527 -0.8292
6131000000.0 -0.5278 -0.6937
6134000000.0 -0.867 -0.04526
6138000000.0 -0.5731 0.6219
6141000000.0 0.1482 0.8551
6144000000.0 0.7437 0.4125
6147000000.0 0.8402 -0.2977
6150000000.0 0.2761 -0.833
6153000000.0 -0.4721 -0.7573
6156000000.0 -0.8728 -0.1011
6159000000.0 -0.6589 0.6271
6162000000.0 0.08691 0.9035
6166000000.0 0.7479 0.5187
6169000000.0 0.8945 -0.2545
6172000000.0 0.3585 -0.8466
6175000000.0 -0.4348 -0.8641
6178000000.0 -0.9213 -0.1928
6181000000.0 -0.7689 0.5844
6184000000.0 -0.01058 0.9146
6188000000.0 0.723 0.5918
6191000000.0 0.9225 -0.1747
6194000000.0 0.4599 -0.827
6197000000.0 -0.3333 -0.8392
6200000000.0 -0.9092 -0.2602
6203000000.0 -0.7769 0.496
6206000000.0 -0.1221 0.9392
6209000000.0 0.6629 0.6702
6212000000.0 0.9298 -0.03356
6216000000.0 0.5211 -0.7505
6219000000.0 -0.2427 -0.8853
6222000000.0 -0.8441 -0.3788
6225000000.0 -0.8219 0.3917
6228000000.0 -0.2053 0.8909
6231000000.0 0.53 0.7158
6234000000.0 0.8969 0.08836
6238000000.0 0.6128 -0.6358
6241000000.0 -0.1098 -0.8606
6244000000.0 -0.7191 -0.4643
6247000000.0 -0.8089 0.3074
6250000000.0 -0.3452 0.789
6253000000.0 0.4115 0.7395
6256000000.0 0.82 0.1847
6259000000.0 0.6557 -0.4912
6262000000.0 0.01184 -0.8389
6266000000.0 -0.6155 -0.5509
6269000000.0 -0.7687 0.08441
