! Created with skrf 1.8.0 (http://scikit-rf.org).
# Hz S RI R 50.0 
!freq ReS11 ImS11
4000000000.0 -0.3426 -1.484
4003000000.0 -1.335 -0.6252
4006000000.0 -1.356 0.6552
4009000000.0 -0.4112 1.481
4012000000.0 0.86 1.19
4016000000.0 1.558 0.03867
4019000000.0 1.053 -1.225
4022000000.0 -0.3196 -1.539
4025000000.0 -1.376 -0.7307
4028000000.0 -1.504 0.6523
4031000000.0 -0.4409 1.541
4034000000.0 0.9451 1.312
4038000000.0 1.69 0.06989
4041000000.0 1.115 -1.266
4044000000.0 -0.3226 -1.615
4047000000.0 -1.441 -0.7568
4050000000.0 -1.547 0.613
4053000000.0 -0.4619 1.566
4056000000.0 0.9072 1.334
4059000000.0 1.563 0.1232
4062000000.0 1.155 -1.129
4066000000.0 -0.1686 -1.64
4069000000.0 -1.364 -0.9155
4072000000.0 -1.577 0.4621
4075000000.0 -0.6966 1.507
4078000000.0 0.7367 1.454
4081000000.0 1.57 0.3869
4084000000.0 1.304 -1.024
4088000000.0 0.07139 -1.693
4091000000.0 -1.206 -1.112
4094000000.0 -1.621 0.2804
4097000000.0 -0.8684 1.41
4100000000.0 0.522 1.53
4103000000.0 1.502 0.5585
4106000000.0 1.382 -0.7922
4109000000.0 0.2781 -1.561
4112000000.0 -0.9672 -1.185
4116000000.0 -1.494 -0.04545
4119000000.0 -0.9989 1.107
4122000000.0 0.184 1.475
4125000000.0 1.212 0.7956
4128000000.0 1.425 -0.3806
4131000000.0 0.6432 -1.301
4134000000.0 -0.5788 -1.357
4138000000.0 -1.42 -0.4582
4141000000.0 -1.281 0.784
4144000000.0 -0.2194 1.499
4147000000.0 0.995 1.118
4150000000.0 1.52 -0.03751
4153000000.0 0.9443 -1.175
4156000000.0 -0.275 -1.484
4159000000.0 -1.336 -0.6962
4162000000.0 -1.412 0.5559
4166000000.0 -0.4552 1.449
4169000000.0 0.7952 1.274
4172000000.0 1.492 0.219
4175000000.0 1.096 -1.013
4178000000.0 -0.05938 -1.502
4181000000.0 -1.165 -0.9225
4184000000.0 -1.476 0.321
4188000000.0 -0.666 1.369
4191000000.0 0.6118 1.414
4194000000.0 1.49 0.4095
4197000000.0 1.286 -0.917
4200000000.0 0.1217 -1.594
4203000000.0 -1.236 -1.067
4206000000.0 -1.611 0.3005
4209000000.0 -0.7409 1.454
4212000000.0 0.6715 1.503
4216000000.0 1.615 0.3784
4219000000.0 1.292 -1.032
4222000000.0 -0.08688 -1.66
4225000000.0 -1.356 -0.9527
4228000000.0 -1.594 0.5501
4231000000.0 -0.5256 1.544
4234000000.0 0.9009 1.355
4238000000.0 1.62 0.08701
4241000000.0 1.024 -1.228
4244000000.0 -0.345 -1.496
4247000000.0 -1.432 -0.6464
4250000000.0 -1.361 0.6797
4253000000.0 -0.3092 1.499
4256000000.0 1.02 1.1
4259000000.0 1.471 -0.09661
4262000000.0 0.8523 -1.23
4266000000.0 -0.4402 -1.384
4269000000.0 -1.389 -0.5201
4272000000.0 -1.209 0.7757
4275000000.0 -0.1753 1.427
4278000000.0 1.044 1.015
4281000000.0 1.395 -0.1707
4284000000.0 0.7001 -1.189
4288000000.0 -0.453 -1.263
4291000000.0 -1.265 -0.434
4294000000.0 -1.136 0.6937
4297000000.0 -0.1878 1.321
4300000000.0 0.8781 0.9685
4303000000.0 1.299 -0.05129
4306000000.0 0.8014 -1.007
4309000000.0 -0.2874 -1.271
4312000000.0 -1.162 -0.6086
4316000000.0 -1.184 0.4874
4319000000.0 -0.4327 1.246
4322000000.0 0.6771 1.109
4325000000.0 1.272 0.1963
4328000000.0 1.003 -0.8943
4331000000.0 -0.04415 -1.359
4334000000.0 -1.064 -0.8561
4338000000.0 -1.368 0.3361
4341000000.0 -0.6642 1.24
4344000000.0 0.5495 1.338
4347000000.0 1.399 0.423
4350000000.0 1.188 -0.8171
4353000000.0 0.1578 -1.461
4356000000.0 -1.012 -1.053
4359000000.0 -1.483 0.1305
4362000000.0 -0.8644 1.219
4366000000.0 0.4365 1.424
4369000000.0 1.336 0.5653
4372000000.0 1.322 -0.7154
4375000000.0 0.3094 -1.486
4378000000.0 -0.9745 -1.198
4381000000.0 -1.538 -0.0301
4384000000.0 -0.9922 1.183
4388000000.0 0.324 1.526
4391000000.0 1.407 0.7193
4394000000.0 1.436 -0.6725
4397000000.0 0.3534 -1.54
4400000000.0 -0.9772 -1.235
4403000000.0 -1.582 0.01906
4406000000.0 -0.9527 1.287
4409000000.0 0.4187 1.505
4412000000.0 1.415 0.5584
4416000000.0 1.313 -0.7774
4419000000.0 0.2031 -1.482
4422000000.0 -1.017 -1.062
4425000000.0 -1.429 0.1661
4428000000.0 -0.7335 1.239
4431000000.0 0.4993 1.269
4434000000.0 1.319 0.3829
4438000000.0 1.107 -0.7794
4441000000.0 0.0346 -1.281
4444000000.0 -1.02 -0.8244
4447000000.0 -1.28 0.3042
4450000000.0 -0.5043 1.184
4453000000.0 0.5847 1.118
4456000000.0 1.23 0.2373
4459000000.0 0.8971 -0.8121
4462000000.0 -0.09618 -1.229
4466000000.0 -1.017 -0.6848
4469000000.0 -1.149 0.3612
4472000000.0 -0.4056 1.123
4475000000.0 0.6359 0.9969
4478000000.0 1.17 0.1067
4481000000.0 0.8059 -0.8153
4484000000.0 -0.1423 -1.181
4488000000.0 -0.9853 -0.5995
4491000000.0 -1.097 0.366
4494000000.0 -0.3747 1.085
4497000000.0 0.5984 0.9964
4500000000.0 1.166 0.1346
4503000000.0 0.8248 -0.7872
4506000000.0 -0.09831 -1.143
4509000000.0 -0.9596 -0.6766
4512000000.0 -1.114 0.3589
4516000000.0 -0.4862 1.064
4519000000.0 0.5408 1.078
4522000000.0 1.146 0.2529
4525000000.0 0.9446 -0.7356
4528000000.0 0.01207 -1.209
4531000000.0 -0.9417 -0.7662
4534000000.0 -1.195 0.2028
4538000000.0 -0.6136 1.086
4541000000.0 0.4282 1.194
4544000000.0 1.198 0.3942
4547000000.0 1.082 -0.64
4550000000.0 0.2157 -1.242
4553000000.0 -0.8174 -0.9593
4556000000.0 -1.283 0.01236
4559000000.0 -0.7973 1.014
4562000000.0 0.2649 1.26
4566000000.0 1.131 0.6285
4569000000.0 1.246 -0.4701
4572000000.0 0.4083 -1.278
4575000000.0 -0.7097 -1.164
4578000000.0 -1.341 -0.1649
4581000000.0 -1.036 0.9357
4584000000.0 0.07315 1.395
4588000000.0 1.136 0.8363
4591000000.0 1.384 -0.3293
4594000000.0 0.6158 -1.27
4597000000.0 -0.6186 -1.285
4600000000.0 -1.371 -0.3512
4603000000.0 -1.126 0.8869
4606000000.0 -0.05229 1.392
4609000000.0 1.065 0.9369
4612000000.0 1.393 -0.2353
4616000000.0 0.6839 -1.229
4619000000.0 -0.4937 -1.278
4622000000.0 -1.288 -0.3887
4625000000.0 -1.102 0.756
4628000000.0 -0.1359 1.381
4631000000.0 0.974 0.9416
4634000000.0 1.318 -0.186
4638000000.0 0.6919 -1.128
4641000000.0 -0.4865 -1.24
4644000000.0 -1.251 -0.4377
4647000000.0 -1.051 0.7223
4650000000.0 -0.1093 1.272
4653000000.0 0.9503 0.8392
4656000000.0 1.214 -0.194
4659000000.0 0.5938 -1.06
4662000000.0 -0.4711 -1.119
4666000000.0 -1.14 -0.313
4669000000.0 -0.962 0.6499
4672000000.0 -0.03812 1.176
4675000000.0 0.846 0.7482
4678000000.0 1.062 -0.1889
4681000000.0 0.5349 -1.007
4684000000.0 -0.3843 -1.011
4688000000.0 -1.039 -0.3391
4691000000.0 -0.8598 0.6466
4694000000.0 -0.07043 1.066
4697000000.0 0.8097 0.6852
4700000000.0 1.069 -0.1465
4703000000.0 0.5498 -0.9521
4706000000.0 -0.4289 -1.008
4709000000.0 -1.028 -0.2987
4712000000.0 -0.8855 0.6136
4716000000.0 -0.04721 1.113
4719000000.0 0.79 0.7219
4722000000.0 1.077 -0.1733
4725000000.0 0.5313 -0.9098
4728000000.0 -0.374 -1.028
4731000000.0 -1.042 -0.3581
4734000000.0 -0.9355 0.5468
4738000000.0 -0.1542 1.07
4741000000.0 0.7337 0.8454
4744000000.0 1.101 -0.01887
4747000000.0 0.7194 -0.8941
4750000000.0 -0.1945 -1.095
4753000000.0 -0.9934 -0.5564
4756000000.0 -1.057 0.4332
4759000000.0 -0.3924 1.125
4762000000.0 0.6482 1.001
4766000000.0 1.208 0.1582
4769000000.0 0.9176 -0.8212
4772000000.0 -0.03141 -1.211
4775000000.0 -0.9686 -0.7527
4778000000.0 -1.221 0.2732
4781000000.0 -0.5666 1.101
4784000000.0 0.4835 1.186
4788000000.0 1.211 0.4221
4791000000.0 1.114 -0.6937
4794000000.0 0.2234 -1.285
4797000000.0 -0.8664 -0.9887
4800000000.0 -1.333 0.01783
4803000000.0 -0.8071 1.042
4806000000.0 0.2459 1.284
4809000000.0 1.169 0.6289
4812000000.0 1.264 -0.5051
4816000000.0 0.4385 -1.326
4819000000.0 -0.7496 -1.17
4822000000.0 -1.392 -0.1984
4825000000.0 -1.039 0.9511
4828000000.0 0.1174 1.422
4831000000.0 1.161 0.8039
4834000000.0 1.362 -0.3815
4838000000.0 0.537 -1.299
4841000000.0 -0.6867 -1.231
4844000000.0 -1.367 -0.2771
4847000000.0 -1.064 0.8793
4850000000.0 0.02152 1.342
4853000000.0 1.064 0.8529
4856000000.0 1.317 -0.2817
4859000000.0 0.5988 -1.178
4862000000.0 -0.5439 -1.176
4866000000.0 -1.248 -0.327
4869000000.0 -1.022 0.7217
4872000000.0 -0.0674 1.248
4875000000.0 0.9282 0.8281
4878000000.0 1.201 -0.1988
4881000000.0 0.603 -1.056
4884000000.0 -0.4195 -1.11
4888000000.0 -1.09 -0.365
4891000000.0 -0.9176 0.6421
4894000000.0 -0.09696 1.107
4897000000.0 0.7832 0.7492
4900000000.0 1.045 -0.1632
4903000000.0 0.5715 -0.8789
4906000000.0 -0.3363 -0.9561
4909000000.0 -0.9753 -0.3297
4912000000.0 -0.8373 0.5403
4916000000.0 -0.1265 0.9592
4919000000.0 0.6701 0.7343
4922000000.0 0.9685 -0.03521
4925000000.0 0.5786 -0.7965
4928000000.0 -0.2438 -0.894
4931000000.0 -0.8423 -0.3226
4934000000.0 -0.8229 0.414
4938000000.0 -0.211 0.8937
4941000000.0 0.5852 0.7569
4944000000.0 0.9439 0.01994
4947000000.0 0.6442 -0.7074
4950000000.0 -0.1733 -0.9998
4953000000.0 -0.8597 -0.4817
4956000000.0 -0.9485 0.3516
4959000000.0 -0.2779 0.965
4962000000.0 0.5721 0.8598
4966000000.0 1.049 0.1324
4969000000.0 0.7403 -0.7385
4972000000.0 -0.1075 -1.049
4975000000.0 -0.9151 -0.604
4978000000.0 -1.072 0.3116
4981000000.0 -0.4242 1.039
4984000000.0 0.5047 1.003
4988000000.0 1.118 0.2656
4991000000.0 0.9072 -0.6944
4994000000.0 0.04197 -1.174
4997000000.0 -0.8908 -0.7849
5000000000.0 -1.192 0.1801
5003000000.0 -0.6326 1.067
5006000000.0 0.3891 1.185
5009000000.0 1.179 0.4336
5012000000.0 1.114 -0.6397
5016000000.0 0.1932 -1.293
5019000000.0 -0.849 -0.9816
5022000000.0 -1.317 0.07899
5025000000.0 -0.7838 1.059
5028000000.0 0.3086 1.273
5031000000.0 1.19 0.5716
5034000000.0 1.217 -0.5471
5038000000.0 0.325 -1.299
5041000000.0 -0.7715 -1.04
5044000000.0 -1.27 -0.1085
5047000000.0 -0.8895 0.9167
5050000000.0 0.1278 1.251
5053000000.0 1.06 0.7455
5056000000.0 1.211 -0.3609
5059000000.0 0.5124 -1.194
5062000000.0 -0.5385 -1.124
5066000000.0 -1.229 -0.2779
5069000000.0 -0.9658 0.7515
5072000000.0 -0.05138 1.252
5075000000.0 0.9439 0.8503
5078000000.0 1.186 -0.1742
5081000000.0 0.635 -1.011
5084000000.0 -0.3894 -1.095
5088000000.0 -1.074 -0.4031
5091000000.0 -0.9488 0.5514
5094000000.0 -0.1791 1.121
5097000000.0 0.7316 0.8051
5100000000.0 1.085 -0.009167
5103000000.0 0.6365 -0.8046
5106000000.0 -0.2062 -1.007
5109000000.0 -0.9304 -0.4923
5112000000.0 -0.8962 0.3487
5116000000.0 -0.3239 0.9524
5119000000.0 0.5436 0.8347
5122000000.0 0.9673 0.1072
5125000000.0 0.6722 -0.6913
5128000000.0 -0.1043 -0.9853
5131000000.0 -0.8114 -0.5208
5134000000.0 -0.8954 0.3144
5138000000.0 -0.3108 0.875
5141000000.0 0.4509 0.7776
5144000000.0 0.9138 0.1296
5147000000.0 0.6802 -0.6044
5150000000.0 -0.07757 -0.8801
5153000000.0 -0.7217 -0.4908
5156000000.0 -0.8715 0.2671
5159000000.0 -0.3388 0.8253
5162000000.0 0.4557 0.7724
5166000000.0 0.8753 0.1068
5169000000.0 0.6386 -0.633
5172000000.0 -0.09724 -0.8965
5175000000.0 -0.7592 -0.5065
5178000000.0 -0.8769 0.2889
5181000000.0 -0.333 0.8683
5184000000.0 0.4639 0.8085
5188000000.0 0.9416 0.1357
5191000000.0 0.6955 -0.6473
5194000000.0 -0.07403 -0.9655
5197000000.0 -0.812 -0.5344
5200000000.0 -0.9281 0.2717
5203000000.0 -0.3755 0.9258
5206000000.0 0.4972 0.856
5209000000.0 0.9804 0.18
5212000000.0 0.7804 -0.688
5216000000.0 -0.06257 -1.033
5219000000.0 -0.8149 -0.6305
5222000000.0 -1.01 0.2259
5225000000.0 -0.4696 0.938
5228000000.0 0.4336 0.9672
5231000000.0 1.043 0.2765
5234000000.0 0.8834 -0.5956
5238000000.0 0.08521 -1.072
5241000000.0 -0.792 -0.7371
5244000000.0 -1.104 0.1071
5247000000.0 -0.63 0.9131
5250000000.0 0.3098 1.034
5253000000.0 1.038 0.416
5256000000.0 0.992 -0.5173
5259000000.0 0.2502 -1.094
5262000000.0 -0.6688 -0.8889
5266000000.0 -1.127 -0.03796
5269000000.0 -0.7407 0.8358
5272000000.0 0.133 1.09
5275000000.0 0.9277 0.6316
5278000000.0 1.043 -0.3437
5281000000.0 0.4081 -1.02
5284000000.0 -0.5227 -0.9657
5288000000.0 -1.094 -0.2153
5291000000.0 -0.8604 0.7231
5294000000.0 -0.02053 1.137
5297000000.0 0.8262 0.7532
5300000000.0 1.096 -0.2145
5303000000.0 0.5548 -0.9876
5306000000.0 -0.3833 -1.037
5309000000.0 -1.054 -0.3765
5312000000.0 -0.9333 0.6121
5316000000.0 -0.101 1.073
5319000000.0 0.7843 0.7749
5322000000.0 1.056 -0.1335
5325000000.0 0.5795 -0.9022
5328000000.0 -0.3836 -1.023
5331000000.0 -1.006 -0.3181
5334000000.0 -0.8925 0.5801
5338000000.0 -0.0426 1.036
5341000000.0 0.7577 0.6714
5344000000.0 0.9654 -0.1461
5347000000.0 0.4745 -0.8642
5350000000.0 -0.4049 -0.9329
5353000000.0 -0.9226 -0.2274
5356000000.0 -0.7423 0.6259
5359000000.0 0.02868 0.9173
5362000000.0 0.7567 0.5645
5366000000.0 0.8702 -0.2517
5369000000.0 0.3192 -0.8565
5372000000.0 -0.4793 -0.7771
5375000000.0 -0.9139 -0.09297
5378000000.0 -0.5977 0.6536
5381000000.0 0.1235 0.8803
5384000000.0 0.7893 0.4047
5388000000.0 0.7919 -0.3413
5391000000.0 0.187 -0.8548
5394000000.0 -0.5428 -0.6874
5397000000.0 -0.8715 0.02626
5400000000.0 -0.5233 0.6724
5403000000.0 0.1959 0.8631
5406000000.0 0.7866 0.354
5409000000.0 0.7853 -0.3876
5412000000.0 0.2143 -0.875
5416000000.0 -0.5811 -0.7057
5419000000.0 -0.9069 -0.02195
5422000000.0 -0.5845 0.6831
5425000000.0 0.1778 0.9589
5428000000.0 0.8241 0.4689
5431000000.0 0.8925 -0.3764
5434000000.0 0.2733 -0.964
5438000000.0 -0.5771 -0.8314
5441000000.0 -1.031 -0.06163
5444000000.0 -0.706 0.7231
5447000000.0 0.1468 1.034
5450000000.0 0.916 0.5662
5453000000.0 1.023 -0.3659
5456000000.0 0.338 -0.9803
5459000000.0 -0.5368 -0.9258
5462000000.0 -1.059 -0.1544
5466000000.0 -0.808 0.7372
5469000000.0 0.05925 1.109
5472000000.0 0.874 0.6878
5475000000.0 1.064 -0.2604
5478000000.0 0.4498 -0.9951
5481000000.0 -0.4682 -1.044
5484000000.0 -1.131 -0.2492
5488000000.0 -0.9015 0.6848
5491000000.0 -0.0341 1.112
5494000000.0 0.8637 0.704
5497000000.0 1.101 -0.2187
5500000000.0 0.5503 -1.012
5503000000.0 -0.4877 -1.008
5506000000.0 -1.075 -0.2525
5509000000.0 -0.8568 0.7184
5512000000.0 -0.004427 1.091
5516000000.0 0.8506 0.6313
5519000000.0 1.016 -0.243
5522000000.0 0.4174 -0.9633
5525000000.0 -0.4456 -0.881
5528000000.0 -0.966 -0.2024
5531000000.0 -0.7113 0.6382
5534000000.0 0.06695 0.9671
5538000000.0 0.7565 0.5129
5541000000.0 0.9072 -0.2988
5544000000.0 0.2473 -0.8663
5547000000.0 -0.535 -0.7429
5550000000.0 -0.8516 -0.02807
5553000000.0 -0.5651 0.6329
5556000000.0 0.1505 0.8229
5559000000.0 0.7831 0.3535
5562000000.0 0.7338 -0.3766
5566000000.0 0.1173 -0.8123
5569000000.0 -0.5479 -0.5686
5572000000.0 -0.7951 0.09072
5575000000.0 -0.4138 0.6834
5578000000.0 0.3 0.7373
5581000000.0 0.7818 0.2153
5584000000.0 0.6292 -0.4727
5588000000.0 0.01507 -0.795
5591000000.0 -0.6318 -0.5009
5594000000.0 -0.8047 0.1701
5597000000.0 -0.3408 0.7531
5600000000.0 0.416 0.7554
5603000000.0 0.8294 0.1955
5606000000.0 0.6623 -0.5914
5609000000.0 -0.03496 -0.8956
5612000000.0 -0.751 -0.5481
5616000000.0 -0.8726 0.2418
5619000000.0 -0.3434 0.8568
5622000000.0 0.4792 0.8405
5625000000.0 0.9671 0.161
5628000000.0 0.7263 -0.6792
5631000000.0 -0.07464 -0.9751
5634000000.0 -0.828 -0.5796
5638000000.0 -0.9984 0.2887
5641000000.0 -0.4123 0.9601
5644000000.0 0.5242 0.916
5647000000.0 1.052 0.1675
5650000000.0 0.788 -0.7245
5653000000.0 -0.08214 -1.092
5656000000.0 -0.9039 -0.6323
5659000000.0 -1.093 0.3303
5662000000.0 -0.437 1.028
5666000000.0 0.5522 0.9742
5669000000.0 1.112 0.1668
5672000000.0 0.8404 -0.7583
5675000000.0 -0.09729 -1.113
5678000000.0 -0.9547 -0.6096
5681000000.0 -1.059 0.3685
5684000000.0 -0.3502 1.033
5688000000.0 0.6281 0.9275
5691000000.0 1.129 0.07595
5694000000.0 0.7016 -0.8032
5697000000.0 -0.1863 -1.067
5700000000.0 -0.9587 -0.4638
5703000000.0 -0.9571 0.439
5706000000.0 -0.1967 1.035
5709000000.0 0.6708 0.7538
5712000000.0 1.017 -0.05612
5716000000.0 0.5787 -0.8237
5719000000.0 -0.3442 -0.9346
5722000000.0 -0.9329 -0.3033
5725000000.0 -0.79 0.5426
5728000000.0 -0.0252 0.9633
5731000000.0 0.7466 0.5969
5734000000.0 0.924 -0.2225
5738000000.0 0.3621 -0.8691
5741000000.0 -0.4876 -0.7963
5744000000.0 -0.9549 -0.08829
5747000000.0 -0.6272 0.7085
5750000000.0 0.1248 0.9286
5753000000.0 0.8298 0.4129
5756000000.0 0.8309 -0.4461
5759000000.0 0.1831 -0.9011
5762000000.0 -0.6589 -0.6849
5766000000.0 -0.9437 0.08982
5769000000.0 -0.4719 0.8226
5772000000.0 0.3243 0.9039
5775000000.0 0.913 0.2777
5778000000.0 0.7894 -0.5791
5781000000.0 0.04373 -0.9538
5784000000.0 -0.7237 -0.6154
5788000000.0 -0.9762 0.1733
5791000000.0 -0.4558 0.8842
5794000000.0 0.4059 0.9119
5797000000.0 0.956 0.2417
5800000000.0 0.8349 -0.5957
5803000000.0 0.02401 -1.002
5806000000.0 -0.8005 -0.6642
5809000000.0 -1.026 0.191
5812000000.0 -0.4618 0.9349
5816000000.0 0.4477 0.9303
5819000000.0 1.013 0.2634
5822000000.0 0.8525 -0.6091
5825000000.0 0.07986 -1.047
5828000000.0 -0.7948 -0.6841
5831000000.0 -1.004 0.2211
5834000000.0 -0.5439 0.9095
5838000000.0 0.3423 0.9953
5841000000.0 1.004 0.3456
5844000000.0 0.8925 -0.5782
5847000000.0 0.1319 -1.053
5850000000.0 -0.7667 -0.7563
5853000000.0 -1.071 0.08365
5856000000.0 -0.5873 0.8832
5859000000.0 0.3289 1.036
5862000000.0 1.01 0.4182
5866000000.0 0.9136 -0.5375
5869000000.0 0.1695 -1.063
5872000000.0 -0.7257 -0.7364
5875000000.0 -1.036 0.09024
5878000000.0 -0.5973 0.8391
5881000000.0 0.3011 0.9844
5884000000.0 0.9751 0.3647
5888000000.0 0.8701 -0.4949
5891000000.0 0.1432 -1.003
5894000000.0 -0.6754 -0.7098
5897000000.0 -0.9611 0.08997
5900000000.0 -0.5336 0.7958
5903000000.0 0.3201 0.916
5906000000.0 0.9101 0.3239
5909000000.0 0.8024 -0.4958
5912000000.0 0.05436 -0.921
5916000000.0 -0.6974 -0.6186
5919000000.0 -0.8949 0.1149
5922000000.0 -0.4368 0.7705
5925000000.0 0.3475 0.8291
5928000000.0 0.828 0.2288
5931000000.0 0.683 -0.5192
5934000000.0 0.02181 -0.8568
5938000000.0 -0.6267 -0.4999
5941000000.0 -0.8237 0.1635
5944000000.0 -0.4288 0.7612
5947000000.0 0.3403 0.7843
5950000000.0 0.8168 0.2156
5953000000.0 0.6632 -0.5061
5956000000.0 0.0214 -0.8049
5959000000.0 -0.6185 -0.5548
5962000000.0 -0.8367 0.1505
5966000000.0 -0.4243 0.7486
5969000000.0 0.3112 0.7659
5972000000.0 0.8025 0.2427
5975000000.0 0.7349 -0.4748
5978000000.0 0.09997 -0.8549
5981000000.0 -0.6001 -0.6465
5984000000.0 -0.9032 0.08638
5988000000.0 -0.492 0.7347
5991000000.0 0.2498 0.8114
5994000000.0 0.8464 0.3819
5997000000.0 0.8037 -0.4209
6000000000.0 0.1946 -0.9004
6003000000.0 -0.5816 -0.6979
6006000000.0 -0.9245 -0.01034
6009000000.0 -0.5867 0.7085
6012000000.0 0.1942 0.8932
6016000000.0 0.8359 0.4265
6019000000.0 0.8685 -0.3544
6022000000.0 0.2826 -0.9292
6025000000.0 -0.5202 -0.8014
6028000000.0 -0.9598 -0.1089
6031000000.0 -0.7032 0.6558
6034000000.0 0.08108 0.9781
6038000000.0 0.8134 0.562
6041000000.0 0.9622 -0.2605
6044000000.0 0.3994 -0.8945
6047000000.0 -0.447 -0.8578
6050000000.0 -0.9873 -0.184
6053000000.0 -0.7576 0.6458
6056000000.0 0.0003131 1.009
6059000000.0 0.7902 0.6346
6062000000.0 1.015 -0.2277
6066000000.0 0.4413 -0.9092
6069000000.0 -0.4326 -0.9057
6072000000.0 -0.9855 -0.2673
6075000000.0 -0.772 0.6076
6078000000.0 -0.04487 0.9884
6081000000.0 0.7551 0.6148
6084000000.0 0.9633 -0.2047
6088000000.0 0.4465 -0.8514
6091000000.0 -0.386 -0.8693
6094000000.0 -0.9532 -0.2364
6097000000.0 -0.7723 0.5366
6100000000.0 -0.04757 0.9676
6103000000.0 0.6803 0.6263
6106000000.0 0.9205 -0.1561
6109000000.0 0.4234 -0.816
6112000000.0 -0.3578 -0.833
6116000000.0 -0.8628 -0.2672
6119000000.0 -0.7289 0.5196
6122000000.0 -0.02688 0.8579
6125000000.0 0.6707 0.5863
6128000000.0 0.8511 -0.1694
6131000000.0 0.3963 -0.7293
6134000000.0 -0.3225 -0.8006
6138000000.0 -0.8022 -0.2249
6141000000.0 -0.707 0.5179
6144000000.0 -0.03285 0.8323
6147000000.0 0.6393 0.5292
6150000000.0 0.8309 -0.1464
6153000000.0 0.4437 -0.7193
6156000000.0 -0.2839 -0.7631
6159000000.0 -0.7688 -0.2295
6162000000.0 -0.6853 0.4625
6166000000.0 -0.055 0.8392
6169000000.0 0.6118 0.5607
6172000000.0 0.8283 -0.1079
6175000000.0 0.4439 -0.7362
6178000000.0 -0.2714 -0.8087
6181000000.0 -0.7998 -0.2325
6184000000.0 -0.7069 0.4511
6188000000.0 -0.07479 0.8565
6191000000.0 0.611 0.6259
6194000000.0 0.8654 -0.06859
6197000000.0 0.4538 -0.7145
6200000000.0 -0.2753 -0.8188
6203000000.0 -0.8064 -0.2876
6206000000.0 -0.7579 0.438
6209000000.0 -0.1339 0.8739
6212000000.0 0.6122 0.6604
6216000000.0 0.8889 -0.05383
6219000000.0 0.5096 -0.7091
6222000000.0 -0.2027 -0.8483
6225000000.0 -0.8056 -0.3632
6228000000.0 -0.7791 0.41
6231000000.0 -0.2033 0.8378
6234000000.0 0.5464 0.6833
6238000000.0 0.8692 0.04553
6241000000.0 0.57 -0.6515
6244000000.0 -0.1631 -0.845
6247000000.0 -0.7418 -0.4245
6250000000.0 -0.7898 0.2948
6253000000.0 -0.264 0.7908
6256000000.0 0.4352 0.7043
6259000000.0 0.7925 0.1438
6262000000.0 0.599 -0.5533
6266000000.0 -0.03198 -0.8155
