! Created with skrf 1.8.0 (http://scikit-rf.org).
# Hz S RI R 50.0 
!freq ReS11 ImS11
4000000000.0 -0.1892 -1.496
4003000000.0 -1.234 -0.8022
4006000000.0 -1.399 0.4535
4009000000.0 -0.5123 1.444
4012000000.0 0.8022 1.325
4016000000.0 1.51 0.1769
4019000000.0 1.131 -1.056
4022000000.0 -0.1543 -1.622
4025000000.0 -1.354 -0.8502
4028000000.0 -1.53 0.5321
4031000000.0 -0.5786 1.491
4034000000.0 0.8457 1.413
4038000000.0 1.609 0.2178
4041000000.0 1.144 -1.123
4044000000.0 -0.1655 -1.681
4047000000.0 -1.397 -0.9118
4050000000.0 -1.526 0.4818
4053000000.0 -0.6426 1.498
4056000000.0 0.7782 1.392
4059000000.0 1.564 0.338
4062000000.0 1.225 -1.022
4066000000.0 0.02236 -1.629
4069000000.0 -1.244 -1.055
4072000000.0 -1.607 0.3044
4075000000.0 -0.8311 1.415
4078000000.0 0.6005 1.54
4081000000.0 1.576 0.5266
4084000000.0 1.372 -0.8668
4088000000.0 0.2777 -1.672
4091000000.0 -1.134 -1.185
4094000000.0 -1.652 0.117
4097000000.0 -1.011 1.333
4100000000.0 0.4201 1.583
4103000000.0 1.422 0.7158
4106000000.0 1.478 -0.6742
4109000000.0 0.4493 -1.526
4112000000.0 -0.8647 -1.295
4116000000.0 -1.524 -0.2098
4119000000.0 -1.125 1.016
4122000000.0 0.01228 1.496
4125000000.0 1.156 0.9476
4128000000.0 1.471 -0.2518
4131000000.0 0.774 -1.252
4134000000.0 -0.4498 -1.412
4138000000.0 -1.366 -0.6084
4141000000.0 -1.365 0.6472
4144000000.0 -0.3834 1.473
4147000000.0 0.8785 1.233
4150000000.0 1.543 0.1244
4153000000.0 1.056 -1.097
4156000000.0 -0.1217 -1.52
4159000000.0 -1.239 -0.8526
4162000000.0 -1.44 0.3833
4166000000.0 -0.6461 1.383
4169000000.0 0.6353 1.354
4172000000.0 1.488 0.3572
4175000000.0 1.238 -0.8421
4178000000.0 0.1158 -1.492
4181000000.0 -1.069 -1.059
4184000000.0 -1.511 0.08451
4188000000.0 -0.8944 1.285
4191000000.0 0.4186 1.474
4194000000.0 1.404 0.6411
4197000000.0 1.431 -0.7069
4200000000.0 0.3419 -1.559
4203000000.0 -0.9953 -1.277
4206000000.0 -1.637 -0.006393
4209000000.0 -1.057 1.275
4212000000.0 0.3931 1.645
4216000000.0 1.54 0.7011
4219000000.0 1.527 -0.7868
4222000000.0 0.3 -1.661
4225000000.0 -1.174 -1.214
4228000000.0 -1.69 0.1539
4231000000.0 -0.9113 1.442
4234000000.0 0.5605 1.57
4238000000.0 1.614 0.4628
4241000000.0 1.339 -0.9524
4244000000.0 0.01129 -1.614
4247000000.0 -1.245 -1.014
4250000000.0 -1.584 0.3547
4253000000.0 -0.6347 1.42
4256000000.0 0.7377 1.343
4259000000.0 1.522 0.2262
4262000000.0 1.131 -1.031
4266000000.0 -0.1559 -1.483
4269000000.0 -1.289 -0.8101
4272000000.0 -1.401 0.4849
4275000000.0 -0.4619 1.422
4278000000.0 0.7739 1.242
4281000000.0 1.483 0.1143
4284000000.0 1.0 -1.077
4288000000.0 -0.1673 -1.379
4291000000.0 -1.172 -0.7404
4294000000.0 -1.265 0.4978
4297000000.0 -0.4779 1.262
4300000000.0 0.665 1.143
4303000000.0 1.344 0.1744
4306000000.0 0.9759 -0.8619
4309000000.0 -0.04112 -1.301
4312000000.0 -1.02 -0.8226
4316000000.0 -1.256 0.2392
4319000000.0 -0.671 1.128
4322000000.0 0.4604 1.227
4325000000.0 1.257 0.5121
4328000000.0 1.17 -0.6468
4331000000.0 0.2534 -1.372
4334000000.0 -0.8595 -1.046
4338000000.0 -1.406 -0.005253
4341000000.0 -0.9006 1.053
4344000000.0 0.2434 1.386
4347000000.0 1.255 0.6954
4350000000.0 1.334 -0.5518
4353000000.0 0.4837 -1.369
4356000000.0 -0.7766 -1.253
4359000000.0 -1.459 -0.1849
4362000000.0 -1.084 0.9598
4366000000.0 0.09698 1.496
4369000000.0 1.167 0.9231
4372000000.0 1.449 -0.358
4375000000.0 0.6807 -1.322
4378000000.0 -0.6027 -1.407
4381000000.0 -1.471 -0.4034
4384000000.0 -1.25 0.8722
4388000000.0 -0.1428 1.517
4391000000.0 1.163 1.085
4394000000.0 1.549 -0.198
4397000000.0 0.8237 -1.392
4400000000.0 -0.5863 -1.488
4403000000.0 -1.519 -0.4827
4406000000.0 -1.34 0.901
4409000000.0 -0.08491 1.579
4412000000.0 1.166 1.05
4416000000.0 1.55 -0.2452
4419000000.0 0.7715 -1.374
4422000000.0 -0.6225 -1.409
4425000000.0 -1.409 -0.398
4428000000.0 -1.168 0.9252
4431000000.0 -0.02724 1.466
4434000000.0 1.11 0.9181
4438000000.0 1.395 -0.3302
4441000000.0 0.5953 -1.251
4444000000.0 -0.6263 -1.201
4447000000.0 -1.351 -0.217
4450000000.0 -1.03 0.9015
4453000000.0 0.1039 1.33
4456000000.0 1.095 0.6995
4459000000.0 1.236 -0.4181
4462000000.0 0.3668 -1.195
4466000000.0 -0.7211 -1.055
4469000000.0 -1.246 -0.09845
4472000000.0 -0.83 0.8975
4475000000.0 0.1636 1.173
4478000000.0 1.061 0.5424
4481000000.0 1.077 -0.4902
4484000000.0 0.2864 -1.148
4488000000.0 -0.7225 -0.9224
4491000000.0 -1.166 -0.0221
4494000000.0 -0.7472 0.8749
4497000000.0 0.2471 1.108
4500000000.0 0.9922 0.4998
4503000000.0 1.004 -0.4456
4506000000.0 0.2772 -1.097
4509000000.0 -0.6707 -0.9191
4512000000.0 -1.11 -0.05442
4516000000.0 -0.7636 0.8263
4519000000.0 0.1837 1.102
4522000000.0 1.0 0.5989
4525000000.0 1.072 -0.3968
4528000000.0 0.3584 -1.088
4531000000.0 -0.6162 -0.9965
4534000000.0 -1.183 -0.1334
4538000000.0 -0.8717 0.8138
4541000000.0 0.07622 1.185
4544000000.0 0.9622 0.7056
4547000000.0 1.183 -0.2789
4550000000.0 0.5217 -1.083
4553000000.0 -0.5146 -1.103
4556000000.0 -1.175 -0.3438
4559000000.0 -1.023 0.6893
4562000000.0 -0.1547 1.232
4566000000.0 0.8671 0.8978
4569000000.0 1.268 -0.0824
4572000000.0 0.7795 -1.026
4575000000.0 -0.337 -1.284
4578000000.0 -1.19 -0.5789
4581000000.0 -1.202 0.5745
4584000000.0 -0.333 1.311
4588000000.0 0.787 1.116
4591000000.0 1.368 0.1229
4594000000.0 0.9483 -1.003
4597000000.0 -0.1479 -1.366
4600000000.0 -1.174 -0.7461
4603000000.0 -1.326 0.4369
4606000000.0 -0.526 1.304
4609000000.0 0.7015 1.192
4612000000.0 1.364 0.2685
4616000000.0 1.085 -0.895
4619000000.0 -0.04308 -1.406
4622000000.0 -1.122 -0.8737
4625000000.0 -1.374 0.3278
4628000000.0 -0.6151 1.239
4631000000.0 0.5764 1.258
4634000000.0 1.331 0.3291
4638000000.0 1.101 -0.8446
4641000000.0 0.0516 -1.392
4644000000.0 -1.033 -0.8712
4647000000.0 -1.332 0.2549
4650000000.0 -0.6194 1.19
4653000000.0 0.5319 1.185
4656000000.0 1.287 0.2832
4659000000.0 0.9959 -0.8009
4662000000.0 0.02646 -1.247
4666000000.0 -0.9959 -0.7696
4669000000.0 -1.171 0.288
4672000000.0 -0.5107 1.097
4675000000.0 0.5391 1.075
4678000000.0 1.127 0.2647
4681000000.0 0.9044 -0.6993
4684000000.0 0.004913 -1.127
4688000000.0 -0.9018 -0.6572
4691000000.0 -1.085 0.2453
4694000000.0 -0.464 1.02
4697000000.0 0.4622 1.005
4700000000.0 1.095 0.2155
4703000000.0 0.8321 -0.6743
4706000000.0 -0.01105 -1.089
4709000000.0 -0.8426 -0.6554
4712000000.0 -1.072 0.2628
4716000000.0 -0.4463 0.9903
4719000000.0 0.4965 0.9309
4722000000.0 1.052 0.2008
4725000000.0 0.8089 -0.6522
4728000000.0 -0.03269 -1.081
4731000000.0 -0.8493 -0.6466
4734000000.0 -1.043 0.2558
4738000000.0 -0.4887 0.944
4741000000.0 0.4188 0.9702
4744000000.0 1.01 0.3076
4747000000.0 0.8877 -0.6046
4750000000.0 0.1167 -1.046
4753000000.0 -0.7648 -0.787
4756000000.0 -1.109 0.08379
4759000000.0 -0.6431 0.924
4762000000.0 0.2949 1.12
4766000000.0 1.034 0.4967
4769000000.0 1.048 -0.5006
4772000000.0 0.2972 -1.127
4775000000.0 -0.7207 -0.97
4778000000.0 -1.175 -0.1173
4781000000.0 -0.837 0.8513
4784000000.0 0.1115 1.189
4788000000.0 0.9898 0.7047
4791000000.0 1.188 -0.3168
4794000000.0 0.5151 -1.123
4797000000.0 -0.5328 -1.129
4800000000.0 -1.235 -0.3399
4803000000.0 -1.047 0.6925
4806000000.0 -0.1614 1.246
4809000000.0 0.8888 0.9358
4812000000.0 1.297 -0.05534
4816000000.0 0.7871 -1.08
4819000000.0 -0.3158 -1.306
4822000000.0 -1.249 -0.58
4825000000.0 -1.242 0.5765
4828000000.0 -0.3605 1.345
4831000000.0 0.8463 1.119
4834000000.0 1.402 0.08616
4838000000.0 0.9403 -1.019
4841000000.0 -0.1806 -1.416
4844000000.0 -1.191 -0.7327
4847000000.0 -1.338 0.464
4850000000.0 -0.4712 1.325
4853000000.0 0.7011 1.249
4856000000.0 1.383 0.1865
4859000000.0 1.023 -0.9196
4862000000.0 -0.08989 -1.391
4866000000.0 -1.087 -0.8092
4869000000.0 -1.272 0.3333
4872000000.0 -0.5278 1.216
4875000000.0 0.58 1.165
4878000000.0 1.273 0.2666
4881000000.0 1.001 -0.8274
4884000000.0 -0.01274 -1.266
4888000000.0 -0.9567 -0.7681
4891000000.0 -1.176 0.255
4894000000.0 -0.5121 1.046
4897000000.0 0.5021 1.079
4900000000.0 1.099 0.3081
4903000000.0 0.92 -0.6698
4906000000.0 0.0269 -1.097
4909000000.0 -0.7845 -0.6909
4912000000.0 -1.052 0.176
4916000000.0 -0.4816 0.8943
4919000000.0 0.3805 0.9616
4922000000.0 0.9559 0.319
4925000000.0 0.8088 -0.5335
4928000000.0 0.1314 -0.9561
4931000000.0 -0.6537 -0.6941
4934000000.0 -0.9304 0.1026
4938000000.0 -0.554 0.7991
4941000000.0 0.2544 0.8987
4944000000.0 0.8747 0.384
4947000000.0 0.8576 -0.4488
4950000000.0 0.1902 -0.9363
4953000000.0 -0.5872 -0.7439
4956000000.0 -0.9604 -0.000741
4959000000.0 -0.6416 0.7553
4962000000.0 0.2012 0.9485
4966000000.0 0.8789 0.4734
4969000000.0 0.9149 -0.3957
4972000000.0 0.2834 -0.9593
4975000000.0 -0.5758 -0.8382
4978000000.0 -1.053 -0.08459
4981000000.0 -0.7234 0.7344
4984000000.0 0.09045 1.064
4988000000.0 0.8794 0.6021
4991000000.0 1.053 -0.3129
4994000000.0 0.4296 -1.003
4997000000.0 -0.5132 -0.994
5000000000.0 -1.081 -0.2556
5003000000.0 -0.8932 0.6944
5006000000.0 -0.04148 1.188
5009000000.0 0.8937 0.7983
5012000000.0 1.199 -0.1777
5016000000.0 0.6308 -1.057
5019000000.0 -0.4327 -1.174
5022000000.0 -1.211 -0.4462
5025000000.0 -1.101 0.6592
5028000000.0 -0.2197 1.28
5031000000.0 0.8848 0.9889
5034000000.0 1.264 -0.06065
5038000000.0 0.7919 -1.046
5041000000.0 -0.2834 -1.256
5044000000.0 -1.167 -0.5478
5047000000.0 -1.2 0.5037
5050000000.0 -0.3746 1.215
5053000000.0 0.7072 1.118
5056000000.0 1.306 0.1547
5059000000.0 0.9207 -0.8882
5062000000.0 -0.1125 -1.291
5066000000.0 -1.04 -0.7807
5069000000.0 -1.286 0.3215
5072000000.0 -0.5947 1.162
5075000000.0 0.5473 1.164
5078000000.0 1.231 0.3341
5081000000.0 1.011 -0.7665
5084000000.0 0.08565 -1.282
5088000000.0 -0.8683 -0.8591
5091000000.0 -1.23 0.1207
5094000000.0 -0.6679 0.9881
5097000000.0 0.3393 1.109
5100000000.0 1.06 0.4597
5103000000.0 1.022 -0.5174
5106000000.0 0.2716 -1.072
5109000000.0 -0.6325 -0.8919
5112000000.0 -1.077 -0.09185
5116000000.0 -0.7897 0.7506
5119000000.0 0.09612 1.088
5122000000.0 0.8696 0.6222
5125000000.0 1.01 -0.3208
5128000000.0 0.4237 -0.9094
5131000000.0 -0.4448 -0.9086
5134000000.0 -0.9864 -0.2362
5138000000.0 -0.7961 0.5807
5141000000.0 -0.004643 0.9816
5144000000.0 0.7491 0.6431
5147000000.0 0.947 -0.2001
5150000000.0 0.4867 -0.8148
5153000000.0 -0.3503 -0.8512
5156000000.0 -0.8621 -0.2811
5159000000.0 -0.7363 0.4766
5162000000.0 -0.1013 0.8974
5166000000.0 0.6267 0.6314
5169000000.0 0.9284 -0.08487
5172000000.0 0.5016 -0.7652
5175000000.0 -0.2789 -0.8872
5178000000.0 -0.8388 -0.3421
5181000000.0 -0.8032 0.4761
5184000000.0 -0.132 0.8937
5188000000.0 0.6463 0.6872
5191000000.0 0.9302 -0.08711
5194000000.0 0.4881 -0.7648
5197000000.0 -0.2972 -0.9203
5200000000.0 -0.8593 -0.3674
5203000000.0 -0.8408 0.4786
5206000000.0 -0.132 0.9555
5209000000.0 0.6404 0.721
5212000000.0 0.9743 -0.06543
5216000000.0 0.5616 -0.8031
5219000000.0 -0.2562 -0.9352
5222000000.0 -0.9175 -0.4348
5225000000.0 -0.901 0.4551
5228000000.0 -0.2367 0.991
5231000000.0 0.6536 0.8173
5234000000.0 1.054 0.02871
5238000000.0 0.6638 -0.8231
5241000000.0 -0.1782 -1.031
5244000000.0 -0.9066 -0.5255
5247000000.0 -1.009 0.3719
5250000000.0 -0.3597 1.001
5253000000.0 0.549 0.9214
5256000000.0 1.059 0.1489
5259000000.0 0.8108 -0.7266
5262000000.0 -0.04571 -1.062
5266000000.0 -0.8353 -0.6782
5269000000.0 -1.093 0.2352
5272000000.0 -0.5078 0.9592
5275000000.0 0.3737 1.015
5278000000.0 1.036 0.3489
5281000000.0 0.9381 -0.5636
5284000000.0 0.1876 -1.127
5288000000.0 -0.7176 -0.861
5291000000.0 -1.122 -0.003689
5294000000.0 -0.7469 0.8557
5297000000.0 0.1541 1.117
5300000000.0 0.9764 0.5926
5303000000.0 1.069 -0.3759
5306000000.0 0.4571 -1.07
5309000000.0 -0.5302 -1.006
5312000000.0 -1.125 -0.2511
5316000000.0 -0.9322 0.6998
5319000000.0 -0.05797 1.177
5322000000.0 0.8441 0.7586
5325000000.0 1.137 -0.137
5328000000.0 0.6197 -0.9682
5331000000.0 -0.3536 -1.09
5334000000.0 -1.07 -0.4043
5338000000.0 -1.023 0.5645
5341000000.0 -0.1878 1.109
5344000000.0 0.7418 0.8487
5347000000.0 1.128 0.0154
5350000000.0 0.6834 -0.8563
5353000000.0 -0.2239 -1.131
5356000000.0 -0.9556 -0.5294
5359000000.0 -1.036 0.4182
5362000000.0 -0.305 1.051
5366000000.0 0.6134 0.9007
5369000000.0 1.039 0.09027
5372000000.0 0.7328 -0.7806
5375000000.0 -0.1763 -1.047
5378000000.0 -0.8962 -0.4886
5381000000.0 -0.9322 0.3952
5384000000.0 -0.2569 0.9687
5388000000.0 0.5601 0.7808
5391000000.0 0.9465 0.07178
5394000000.0 0.6245 -0.7154
5397000000.0 -0.161 -0.9178
5400000000.0 -0.7751 -0.4087
5403000000.0 -0.8221 0.3701
5406000000.0 -0.2186 0.8644
5409000000.0 0.5484 0.7173
5412000000.0 0.8883 0.03246
5416000000.0 0.5732 -0.6875
5419000000.0 -0.1826 -0.8876
5422000000.0 -0.7637 -0.396
5425000000.0 -0.8078 0.3657
5428000000.0 -0.2068 0.8174
5431000000.0 0.557 0.6897
5434000000.0 0.8655 0.03643
5438000000.0 0.5605 -0.6775
5441000000.0 -0.1549 -0.8577
5444000000.0 -0.813 -0.3908
5447000000.0 -0.8152 0.3536
5450000000.0 -0.2419 0.8375
5453000000.0 0.5471 0.7302
5456000000.0 0.9037 0.0377
5459000000.0 0.6452 -0.6959
5462000000.0 -0.1103 -0.9026
5466000000.0 -0.7497 -0.475
5469000000.0 -0.8462 0.2796
5472000000.0 -0.3283 0.8723
5475000000.0 0.4813 0.8138
5478000000.0 0.9066 0.1902
5481000000.0 0.7531 -0.5943
5484000000.0 0.01584 -0.9802
5488000000.0 -0.7557 -0.6591
5491000000.0 -0.965 0.1732
5494000000.0 -0.4923 0.8412
5497000000.0 0.3246 0.9554
5500000000.0 0.9507 0.3102
5503000000.0 0.8981 -0.5233
5506000000.0 0.1649 -0.9856
5509000000.0 -0.6595 -0.783
5512000000.0 -1.025 -0.03557
5516000000.0 -0.6487 0.8063
5519000000.0 0.1638 1.025
5522000000.0 0.9086 0.5532
5525000000.0 1.008 -0.3672
5528000000.0 0.407 -0.9942
5531000000.0 -0.4914 -0.9009
5534000000.0 -1.067 -0.2426
5538000000.0 -0.8466 0.6544
5541000000.0 -0.02612 1.081
5544000000.0 0.8115 0.6931
5547000000.0 1.086 -0.1777
5550000000.0 0.57 -0.9467
5553000000.0 -0.3082 -1.01
5556000000.0 -1.01 -0.3705
5559000000.0 -0.9405 0.5268
5562000000.0 -0.1856 1.042
5566000000.0 0.6725 0.8155
5569000000.0 1.048 0.005396
5572000000.0 0.6401 -0.8053
5575000000.0 -0.1946 -1.003
5578000000.0 -0.9256 -0.4739
5581000000.0 -0.9221 0.3533
5584000000.0 -0.2952 0.9727
5588000000.0 0.5539 0.8059
5591000000.0 0.9608 0.1032
5594000000.0 0.6893 -0.6759
5597000000.0 -0.0747 -0.9589
5600000000.0 -0.7841 -0.5101
5603000000.0 -0.8781 0.258
5606000000.0 -0.344 0.8458
5609000000.0 0.4344 0.77
5612000000.0 0.8831 0.1365
5616000000.0 0.6667 -0.5495
5619000000.0 -0.03423 -0.8862
5622000000.0 -0.6625 -0.5331
5625000000.0 -0.8117 0.2124
5628000000.0 -0.3594 0.7718
5631000000.0 0.3734 0.7581
5634000000.0 0.7792 0.1887
5638000000.0 0.6558 -0.5265
5641000000.0 0.01925 -0.8134
5644000000.0 -0.643 -0.516
5647000000.0 -0.8123 0.1633
5650000000.0 -0.3768 0.7654
5653000000.0 0.353 0.7922
5656000000.0 0.8219 0.2181
5659000000.0 0.6806 -0.5148
5662000000.0 0.004279 -0.8812
5666000000.0 -0.66 -0.5704
5669000000.0 -0.8691 0.2038
5672000000.0 -0.3912 0.8118
5675000000.0 0.3639 0.8383
5678000000.0 0.9142 0.2051
5681000000.0 0.7587 -0.5706
5684000000.0 0.02814 -0.9578
5688000000.0 -0.7124 -0.6121
5691000000.0 -0.9332 0.1641
5694000000.0 -0.4913 0.8762
5697000000.0 0.3437 0.9137
5700000000.0 0.953 0.2857
5703000000.0 0.8485 -0.5523
5706000000.0 0.09405 -1.016
5709000000.0 -0.7237 -0.7381
5712000000.0 -1.015 0.1033
5716000000.0 -0.5682 0.8653
5719000000.0 0.2865 0.9995
5722000000.0 0.9788 0.4029
5725000000.0 0.9467 -0.5207
5728000000.0 0.2544 -1.074
5731000000.0 -0.664 -0.8159
5734000000.0 -1.095 -0.05161
5738000000.0 -0.6876 0.8258
5741000000.0 0.1682 1.114
5744000000.0 0.9162 0.5513
5747000000.0 1.055 -0.3673
5750000000.0 0.3826 -1.055
5753000000.0 -0.5653 -0.9636
5756000000.0 -1.119 -0.1657
5759000000.0 -0.8783 0.7088
5762000000.0 0.004817 1.15
5766000000.0 0.8596 0.726
5769000000.0 1.138 -0.2372
5772000000.0 0.5674 -0.975
5775000000.0 -0.3779 -1.037
5778000000.0 -1.063 -0.3557
5781000000.0 -0.9514 0.6193
5784000000.0 -0.1582 1.064
5788000000.0 0.7533 0.8118
5791000000.0 1.088 -0.04483
5794000000.0 0.6827 -0.8606
5797000000.0 -0.2355 -1.074
5800000000.0 -0.9523 -0.4819
5803000000.0 -0.9741 0.4368
5806000000.0 -0.2935 1.055
5809000000.0 0.5893 0.8741
5812000000.0 1.06 0.09202
5816000000.0 0.7292 -0.7375
5819000000.0 -0.09702 -1.026
5822000000.0 -0.8661 -0.5959
5825000000.0 -0.9805 0.2734
5828000000.0 -0.3934 0.9656
5831000000.0 0.4483 0.8661
5834000000.0 0.9495 0.2014
5838000000.0 0.6969 -0.6199
5841000000.0 -0.01834 -0.9835
5844000000.0 -0.7601 -0.5762
5847000000.0 -0.9604 0.2174
5850000000.0 -0.4173 0.8615
5853000000.0 0.4054 0.8549
5856000000.0 0.9274 0.2066
5859000000.0 0.7353 -0.5732
5862000000.0 0.01505 -0.919
5866000000.0 -0.6923 -0.59
5869000000.0 -0.8969 0.1559
5872000000.0 -0.405 0.8419
5875000000.0 0.3755 0.8176
5878000000.0 0.8462 0.2161
5881000000.0 0.7095 -0.5375
5884000000.0 0.0001738 -0.8719
5888000000.0 -0.6503 -0.5567
5891000000.0 -0.8484 0.139
5894000000.0 -0.3955 0.7916
5897000000.0 0.3391 0.8039
5900000000.0 0.8185 0.2871
5903000000.0 0.7147 -0.4898
5906000000.0 0.03134 -0.8567
5909000000.0 -0.5961 -0.651
5912000000.0 -0.8866 0.07016
5916000000.0 -0.4706 0.7315
5919000000.0 0.2515 0.8354
5922000000.0 0.7873 0.3182
5925000000.0 0.7532 -0.4262
5928000000.0 0.1654 -0.8791
5931000000.0 -0.547 -0.6481
5934000000.0 -0.9261 0.002524
5938000000.0 -0.5438 0.6994
5941000000.0 0.1654 0.8698
5944000000.0 0.788 0.439
5947000000.0 0.8752 -0.3485
5950000000.0 0.2973 -0.8602
5953000000.0 -0.4729 -0.7959
5956000000.0 -0.926 -0.134
5959000000.0 -0.7015 0.6218
5962000000.0 0.03908 0.9452
5966000000.0 0.7518 0.5687
5969000000.0 0.9246 -0.1836
5972000000.0 0.4508 -0.8529
5975000000.0 -0.3407 -0.9238
5978000000.0 -0.9593 -0.2956
5981000000.0 -0.8317 0.5331
5984000000.0 -0.1293 0.9767
5988000000.0 0.6681 0.7516
5991000000.0 1.013 -0.05943
5994000000.0 0.5899 -0.8067
5997000000.0 -0.2706 -0.9834
6000000000.0 -0.9227 -0.4348
6003000000.0 -0.9294 0.4209
6006000000.0 -0.2412 0.9944
6009000000.0 0.5786 0.8269
6012000000.0 1.018 0.08071
6016000000.0 0.7123 -0.7201
6019000000.0 -0.1199 -0.9827
6022000000.0 -0.8573 -0.53
6025000000.0 -0.9503 0.3106
6028000000.0 -0.3455 0.9358
6031000000.0 0.4862 0.8482
6034000000.0 0.9786 0.1554
6038000000.0 0.7024 -0.6488
6041000000.0 -0.05267 -0.9588
6044000000.0 -0.7601 -0.5943
6047000000.0 -0.936 0.2234
6050000000.0 -0.4211 0.8603
6053000000.0 0.4334 0.847
6056000000.0 0.9123 0.2119
6059000000.0 0.7112 -0.5702
6062000000.0 0.01701 -0.9002
6066000000.0 -0.71 -0.6008
6069000000.0 -0.8982 0.1832
6072000000.0 -0.4156 0.8036
6075000000.0 0.3381 0.8177
6078000000.0 0.862 0.2349
6081000000.0 0.7135 -0.5109
6084000000.0 0.06153 -0.8442
6088000000.0 -0.6083 -0.5728
6091000000.0 -0.8548 0.1195
6094000000.0 -0.4196 0.7416
6097000000.0 0.3088 0.8119
6100000000.0 0.8354 0.2637
6103000000.0 0.7163 -0.4603
6106000000.0 0.0753 -0.8621
6109000000.0 -0.6009 -0.6026
6112000000.0 -0.8721 0.0834
6116000000.0 -0.4642 0.7162
6119000000.0 0.2488 0.828
6122000000.0 0.8361 0.3103
6125000000.0 0.7796 -0.4608
6128000000.0 0.1335 -0.8669
6131000000.0 -0.5915 -0.6618
6134000000.0 -0.8954 0.06338
6138000000.0 -0.5363 0.7357
6141000000.0 0.2345 0.8698
6144000000.0 0.8067 0.3797
6147000000.0 0.7969 -0.4142
6150000000.0 0.1734 -0.8937
6153000000.0 -0.5966 -0.724
6156000000.0 -0.9105 -0.0403
6159000000.0 -0.6346 0.7188
6162000000.0 0.1668 0.9095
6166000000.0 0.844 0.4682
6169000000.0 0.8645 -0.3477
6172000000.0 0.3104 -0.8913
6175000000.0 -0.5191 -0.7753
6178000000.0 -0.9303 -0.0782
6181000000.0 -0.7049 0.6796
6184000000.0 0.1277 0.9597
6188000000.0 0.7866 0.5553
6191000000.0 0.912 -0.2585
6194000000.0 0.3491 -0.8836
6197000000.0 -0.4583 -0.8227
6200000000.0 -0.9368 -0.196
6203000000.0 -0.7704 0.5789
6206000000.0 0.008112 0.9574
6209000000.0 0.7303 0.5751
6212000000.0 0.8974 -0.2062
6216000000.0 0.448 -0.8421
6219000000.0 -0.3578 -0.8687
6222000000.0 -0.8226 -0.2737
6225000000.0 -0.7661 0.5017
6228000000.0 -0.09097 0.8959
6231000000.0 0.5988 0.6669
6234000000.0 0.8993 -0.03837
6238000000.0 0.4966 -0.7089
6241000000.0 -0.2033 -0.8824
6244000000.0 -0.8146 -0.405
6247000000.0 -0.8063 0.3539
6250000000.0 -0.2122 0.8364
6253000000.0 0.4877 0.7092
6256000000.0 0.8385 0.08967
6259000000.0 0.5926 -0.5855
6262000000.0 -0.05924 -0.8073
6266000000.0 -0.6573 -0.4598
