! Created with skrf 1.8.0 (http://scikit-rf.org).
# Hz S RI R 50.0 
!freq ReS11 ImS11
4000000000.0 -0.1447 -1.51
4003000000.0 -1.294 -0.8487
4006000000.0 -1.392 0.4803
4009000000.0 -0.5657 1.453
4012000000.0 0.7652 1.309
4016000000.0 1.51 0.2124
4019000000.0 1.136 -1.056
4022000000.0 -0.1067 -1.568
4025000000.0 -1.298 -0.8793
4028000000.0 -1.569 0.4984
4031000000.0 -0.6055 1.484
4034000000.0 0.8091 1.374
4038000000.0 1.63 0.2544
4041000000.0 1.184 -1.116
4044000000.0 -0.0869 -1.641
4047000000.0 -1.36 -0.9416
4050000000.0 -1.528 0.4397
4053000000.0 -0.626 1.495
4056000000.0 0.7189 1.438
4059000000.0 1.636 0.3163
4062000000.0 1.312 -1.054
4066000000.0 0.04821 -1.608
4069000000.0 -1.231 -1.079
4072000000.0 -1.595 0.3046
4075000000.0 -0.7863 1.448
4078000000.0 0.6142 1.571
4081000000.0 1.548 0.5542
4084000000.0 1.43 -0.8268
4088000000.0 0.2527 -1.653
4091000000.0 -1.109 -1.256
4094000000.0 -1.683 0.08595
4097000000.0 -0.9523 1.319
4100000000.0 0.3785 1.594
4103000000.0 1.442 0.6946
4106000000.0 1.468 -0.63
4109000000.0 0.4418 -1.5
4112000000.0 -0.8453 -1.318
4116000000.0 -1.507 -0.1882
4119000000.0 -1.114 1.024
4122000000.0 0.02732 1.505
4125000000.0 1.127 0.95
4128000000.0 1.494 -0.2614
4131000000.0 0.7857 -1.246
4134000000.0 -0.4586 -1.42
4138000000.0 -1.383 -0.5741
4141000000.0 -1.357 0.659
4144000000.0 -0.3703 1.44
4147000000.0 0.8484 1.224
4150000000.0 1.474 0.1106
4153000000.0 1.093 -1.073
4156000000.0 -0.1332 -1.542
4159000000.0 -1.227 -0.8805
4162000000.0 -1.439 0.4025
4166000000.0 -0.6468 1.386
4169000000.0 0.6383 1.379
4172000000.0 1.432 0.386
4175000000.0 1.211 -0.8383
4178000000.0 0.1592 -1.525
4181000000.0 -1.062 -1.091
4184000000.0 -1.502 0.1062
4188000000.0 -0.8759 1.246
4191000000.0 0.3541 1.535
4194000000.0 1.399 0.6492
4197000000.0 1.421 -0.6877
4200000000.0 0.3706 -1.543
4203000000.0 -0.9959 -1.295
4206000000.0 -1.643 -0.03984
4209000000.0 -1.049 1.288
4212000000.0 0.3951 1.643
4216000000.0 1.531 0.7507
4219000000.0 1.523 -0.7501
4222000000.0 0.2862 -1.723
4225000000.0 -1.149 -1.249
4228000000.0 -1.694 0.1268
4231000000.0 -0.8807 1.402
4234000000.0 0.5852 1.543
4238000000.0 1.599 0.5201
4241000000.0 1.339 -0.9633
4244000000.0 0.07928 -1.599
4247000000.0 -1.222 -1.03
4250000000.0 -1.554 0.351
4253000000.0 -0.6988 1.408
4256000000.0 0.7078 1.407
4259000000.0 1.502 0.3014
4262000000.0 1.156 -1.012
4266000000.0 -0.123 -1.52
4269000000.0 -1.24 -0.8362
4272000000.0 -1.428 0.462
4275000000.0 -0.5425 1.418
4278000000.0 0.7815 1.227
4281000000.0 1.422 0.1683
4284000000.0 1.004 -1.032
4288000000.0 -0.1878 -1.387
4291000000.0 -1.16 -0.7342
4294000000.0 -1.268 0.4125
4297000000.0 -0.4671 1.278
4300000000.0 0.6659 1.141
4303000000.0 1.27 0.2366
4306000000.0 0.9848 -0.8316
4309000000.0 -0.01916 -1.331
4312000000.0 -0.9828 -0.8297
4316000000.0 -1.285 0.2204
4319000000.0 -0.6583 1.153
4322000000.0 0.4362 1.243
4325000000.0 1.217 0.475
4328000000.0 1.205 -0.6294
4331000000.0 0.257 -1.331
4334000000.0 -0.8465 -1.072
4338000000.0 -1.39 -0.04161
4341000000.0 -0.9113 1.071
4344000000.0 0.2155 1.413
4347000000.0 1.231 0.7186
4350000000.0 1.326 -0.4642
4353000000.0 0.4724 -1.354
4356000000.0 -0.7385 -1.226
4359000000.0 -1.444 -0.2353
4362000000.0 -1.104 0.942
4366000000.0 0.05213 1.477
4369000000.0 1.143 0.9248
4372000000.0 1.44 -0.3114
4375000000.0 0.7101 -1.319
4378000000.0 -0.5682 -1.392
4381000000.0 -1.484 -0.4652
4384000000.0 -1.294 0.8465
4388000000.0 -0.1351 1.575
4391000000.0 1.113 1.081
4394000000.0 1.568 -0.1621
4397000000.0 0.8436 -1.327
4400000000.0 -0.5182 -1.515
4403000000.0 -1.493 -0.522
4406000000.0 -1.343 0.8849
4409000000.0 -0.1453 1.59
4412000000.0 1.164 1.081
4416000000.0 1.543 -0.2537
4419000000.0 0.7614 -1.336
4422000000.0 -0.5655 -1.405
4425000000.0 -1.455 -0.404
4428000000.0 -1.187 0.879
4431000000.0 -0.07414 1.457
4434000000.0 1.099 0.9816
4438000000.0 1.417 -0.2865
4441000000.0 0.6035 -1.255
4444000000.0 -0.6053 -1.246
4447000000.0 -1.336 -0.2721
4450000000.0 -1.019 0.8892
4453000000.0 0.06413 1.333
4456000000.0 1.039 0.7856
4459000000.0 1.246 -0.3638
4462000000.0 0.429 -1.191
4466000000.0 -0.6612 -1.084
4469000000.0 -1.254 -0.1608
4472000000.0 -0.821 0.8782
4475000000.0 0.1836 1.191
4478000000.0 1.015 0.5813
4481000000.0 1.055 -0.4486
4484000000.0 0.2988 -1.139
4488000000.0 -0.6588 -0.9236
4491000000.0 -1.131 -0.03444
4494000000.0 -0.7514 0.8578
4497000000.0 0.2041 1.087
4500000000.0 0.9929 0.5468
4503000000.0 1.014 -0.4467
4506000000.0 0.3154 -1.058
4509000000.0 -0.6359 -0.913
4512000000.0 -1.128 -0.0866
4516000000.0 -0.7694 0.8081
4519000000.0 0.1501 1.13
4522000000.0 0.9668 0.5814
4525000000.0 1.084 -0.3606
4528000000.0 0.4016 -1.094
4531000000.0 -0.5787 -1.011
4534000000.0 -1.172 -0.1557
4538000000.0 -0.8615 0.7833
4541000000.0 0.07901 1.168
4544000000.0 0.9478 0.7234
4547000000.0 1.194 -0.2728
4550000000.0 0.5782 -1.085
4553000000.0 -0.4906 -1.122
4556000000.0 -1.169 -0.359
4559000000.0 -1.04 0.6758
4562000000.0 -0.1508 1.23
4566000000.0 0.8571 0.901
4569000000.0 1.248 -0.0613
4572000000.0 0.756 -1.034
4575000000.0 -0.2969 -1.273
4578000000.0 -1.17 -0.5845
4581000000.0 -1.211 0.5574
4584000000.0 -0.396 1.285
4588000000.0 0.7731 1.12
4591000000.0 1.337 0.157
4594000000.0 0.9782 -0.9678
4597000000.0 -0.163 -1.392
4600000000.0 -1.149 -0.7727
4603000000.0 -1.337 0.3935
4606000000.0 -0.5525 1.296
4609000000.0 0.6364 1.275
4612000000.0 1.382 0.2947
4616000000.0 1.091 -0.8825
4619000000.0 0.02011 -1.403
4622000000.0 -1.082 -0.868
4625000000.0 -1.396 0.2766
4628000000.0 -0.6433 1.23
4631000000.0 0.5767 1.297
4634000000.0 1.307 0.3728
4638000000.0 1.127 -0.803
4641000000.0 0.07312 -1.396
4644000000.0 -1.022 -0.9168
4647000000.0 -1.33 0.2159
4650000000.0 -0.6525 1.197
4653000000.0 0.4834 1.234
4656000000.0 1.247 0.3371
4659000000.0 1.034 -0.7407
4662000000.0 0.06211 -1.244
4666000000.0 -0.9705 -0.8263
4669000000.0 -1.205 0.2345
4672000000.0 -0.5589 1.063
4675000000.0 0.467 1.105
4678000000.0 1.131 0.3006
4681000000.0 0.9266 -0.6798
4684000000.0 0.0547 -1.159
4688000000.0 -0.8369 -0.6977
4691000000.0 -1.111 0.2063
4694000000.0 -0.5435 0.9945
4697000000.0 0.4621 1.021
4700000000.0 1.055 0.2494
4703000000.0 0.8841 -0.6287
4706000000.0 0.007793 -1.087
4709000000.0 -0.8572 -0.7012
4712000000.0 -1.058 0.2469
4716000000.0 -0.4739 0.9675
4719000000.0 0.463 0.9898
4722000000.0 1.005 0.2032
4725000000.0 0.8316 -0.6584
4728000000.0 0.01778 -1.033
4731000000.0 -0.7865 -0.6959
4734000000.0 -1.074 0.2131
4738000000.0 -0.4782 0.9006
4741000000.0 0.4142 0.9592
4744000000.0 1.002 0.34
4747000000.0 0.9167 -0.5649
4750000000.0 0.1205 -1.097
4753000000.0 -0.7335 -0.7758
4756000000.0 -1.089 0.05501
4759000000.0 -0.6706 0.8918
4762000000.0 0.2689 1.085
4766000000.0 1.017 0.4925
4769000000.0 1.044 -0.453
4772000000.0 0.3367 -1.116
4775000000.0 -0.6556 -0.9462
4778000000.0 -1.187 -0.131
4781000000.0 -0.8611 0.8421
4784000000.0 0.1042 1.165
4788000000.0 0.9738 0.7136
4791000000.0 1.214 -0.2824
4794000000.0 0.5517 -1.118
4797000000.0 -0.5084 -1.165
4800000000.0 -1.201 -0.351
4803000000.0 -1.045 0.6697
4806000000.0 -0.1729 1.229
4809000000.0 0.8761 0.943
4812000000.0 1.28 -0.06567
4816000000.0 0.8137 -1.045
4819000000.0 -0.2971 -1.306
4822000000.0 -1.194 -0.6235
4825000000.0 -1.27 0.5505
4828000000.0 -0.3652 1.333
4831000000.0 0.7783 1.131
4834000000.0 1.4 0.1045
4838000000.0 0.9533 -1.011
4841000000.0 -0.1614 -1.39
4844000000.0 -1.158 -0.7342
4847000000.0 -1.325 0.4133
4850000000.0 -0.527 1.286
4853000000.0 0.678 1.217
4856000000.0 1.353 0.2442
4859000000.0 1.012 -0.9044
4862000000.0 -0.06302 -1.37
4866000000.0 -1.084 -0.8439
4869000000.0 -1.336 0.3077
4872000000.0 -0.5735 1.192
4875000000.0 0.5791 1.213
4878000000.0 1.257 0.3054
4881000000.0 1.032 -0.7795
4884000000.0 0.01586 -1.237
4888000000.0 -0.9556 -0.7969
4891000000.0 -1.176 0.2462
4894000000.0 -0.5528 1.055
4897000000.0 0.4823 1.056
4900000000.0 1.102 0.3006
4903000000.0 0.9036 -0.6137
4906000000.0 0.05291 -1.103
4909000000.0 -0.7859 -0.7374
4912000000.0 -1.051 0.1577
4916000000.0 -0.5254 0.8609
4919000000.0 0.3431 0.9331
4922000000.0 0.9589 0.3423
4925000000.0 0.8197 -0.4887
4928000000.0 0.1206 -0.9484
4931000000.0 -0.6302 -0.7079
4934000000.0 -0.9381 0.06677
4938000000.0 -0.545 0.7496
4941000000.0 0.232 0.9091
4944000000.0 0.8491 0.4023
4947000000.0 0.8601 -0.4277
4950000000.0 0.2065 -0.9441
4953000000.0 -0.6065 -0.7434
4956000000.0 -0.9564 -0.01877
4959000000.0 -0.6301 0.7296
4962000000.0 0.1601 0.972
4966000000.0 0.8536 0.5042
4969000000.0 0.939 -0.3759
4972000000.0 0.3043 -0.9476
4975000000.0 -0.5735 -0.8457
4978000000.0 -1.022 -0.0929
4981000000.0 -0.732 0.7335
4984000000.0 0.08765 1.046
4988000000.0 0.8718 0.6013
4991000000.0 1.027 -0.27
4994000000.0 0.4501 -0.995
4997000000.0 -0.4748 -0.9922
5000000000.0 -1.088 -0.2739
5003000000.0 -0.9481 0.6739
5006000000.0 -0.04387 1.17
5009000000.0 0.8744 0.7866
5012000000.0 1.194 -0.1717
5016000000.0 0.6677 -1.043
5019000000.0 -0.4135 -1.174
5022000000.0 -1.169 -0.436
5025000000.0 -1.107 0.641
5028000000.0 -0.2021 1.248
5031000000.0 0.8473 0.9993
5034000000.0 1.275 -0.006065
5038000000.0 0.7999 -1.015
5041000000.0 -0.2922 -1.273
5044000000.0 -1.167 -0.6186
5047000000.0 -1.214 0.5012
5050000000.0 -0.4162 1.232
5053000000.0 0.6786 1.122
5056000000.0 1.293 0.206
5059000000.0 0.9513 -0.8459
5062000000.0 -0.05625 -1.318
5066000000.0 -1.04 -0.7928
5069000000.0 -1.247 0.3025
5072000000.0 -0.602 1.141
5075000000.0 0.5245 1.227
5078000000.0 1.239 0.3499
5081000000.0 1.056 -0.6941
5084000000.0 0.1439 -1.272
5088000000.0 -0.8563 -0.8776
5091000000.0 -1.197 0.09958
5094000000.0 -0.69 0.9717
5097000000.0 0.2737 1.125
5100000000.0 1.073 0.4876
5103000000.0 1.035 -0.4659
5106000000.0 0.2567 -1.069
5109000000.0 -0.6594 -0.8984
5112000000.0 -1.077 -0.07513
5116000000.0 -0.7382 0.7659
5119000000.0 0.09968 1.073
5122000000.0 0.8815 0.6061
5125000000.0 1.005 -0.281
5128000000.0 0.4359 -0.9446
5131000000.0 -0.4298 -0.9405
5134000000.0 -0.9311 -0.2342
5138000000.0 -0.7643 0.5721
5141000000.0 -0.05529 0.9951
5144000000.0 0.6996 0.6155
5147000000.0 0.9709 -0.1504
5150000000.0 0.4622 -0.8038
5153000000.0 -0.3242 -0.8858
5156000000.0 -0.8591 -0.304
5159000000.0 -0.768 0.4724
5162000000.0 -0.09164 0.9166
5166000000.0 0.6305 0.6794
5169000000.0 0.8899 -0.08159
5172000000.0 0.5192 -0.7306
5175000000.0 -0.2345 -0.8573
5178000000.0 -0.8531 -0.338
5181000000.0 -0.8145 0.4548
5184000000.0 -0.1652 0.9061
5188000000.0 0.6019 0.6843
5191000000.0 0.9188 -0.04196
5194000000.0 0.535 -0.7317
5197000000.0 -0.2688 -0.8996
5200000000.0 -0.8839 -0.3809
5203000000.0 -0.8512 0.4408
5206000000.0 -0.1594 0.9478
5209000000.0 0.6047 0.7411
5212000000.0 0.9685 -0.01575
5216000000.0 0.5949 -0.7581
5219000000.0 -0.2228 -0.9522
5222000000.0 -0.8975 -0.4353
5225000000.0 -0.8908 0.4143
5228000000.0 -0.2325 0.9878
5231000000.0 0.619 0.8349
5234000000.0 1.047 0.04049
5238000000.0 0.7073 -0.7819
5241000000.0 -0.1576 -1.048
5244000000.0 -0.9069 -0.5508
5247000000.0 -1.011 0.339
5250000000.0 -0.3825 0.9937
5253000000.0 0.5415 0.9182
5256000000.0 1.058 0.1604
5259000000.0 0.809 -0.6898
5262000000.0 -0.01793 -1.099
5266000000.0 -0.8367 -0.6703
5269000000.0 -1.096 0.1663
5272000000.0 -0.5725 0.9562
5275000000.0 0.3668 1.03
5278000000.0 1.015 0.3935
5281000000.0 0.9681 -0.5509
5284000000.0 0.2068 -1.109
5288000000.0 -0.706 -0.8611
5291000000.0 -1.125 -0.03676
5294000000.0 -0.7657 0.8479
5297000000.0 0.1616 1.125
5300000000.0 0.9669 0.6135
5303000000.0 1.06 -0.3356
5306000000.0 0.464 -1.061
5309000000.0 -0.5063 -1.032
5312000000.0 -1.113 -0.2567
5316000000.0 -0.9169 0.6716
5319000000.0 -0.1025 1.162
5322000000.0 0.8355 0.8135
5325000000.0 1.15 -0.1196
5328000000.0 0.6401 -0.9429
5331000000.0 -0.2972 -1.117
5334000000.0 -1.057 -0.4323
5338000000.0 -1.027 0.5345
5341000000.0 -0.2166 1.109
5344000000.0 0.6803 0.8871
5347000000.0 1.137 0.04361
5350000000.0 0.7419 -0.8541
5353000000.0 -0.2075 -1.099
5356000000.0 -0.9387 -0.5277
5359000000.0 -1.002 0.4039
5362000000.0 -0.3161 1.039
5366000000.0 0.6127 0.9359
5369000000.0 1.072 0.1203
5372000000.0 0.7407 -0.7674
5375000000.0 -0.1417 -1.006
5378000000.0 -0.9015 -0.5497
5381000000.0 -0.9638 0.3657
5384000000.0 -0.3198 0.9894
5388000000.0 0.5464 0.7996
5391000000.0 0.9931 0.07026
5394000000.0 0.6407 -0.716
5397000000.0 -0.1478 -0.9256
5400000000.0 -0.8282 -0.4705
5403000000.0 -0.8479 0.3303
5406000000.0 -0.2519 0.851
5409000000.0 0.5186 0.742
5412000000.0 0.9024 0.06306
5416000000.0 0.5801 -0.6467
5419000000.0 -0.1599 -0.845
5422000000.0 -0.7521 -0.4202
5425000000.0 -0.815 0.3346
5428000000.0 -0.2291 0.8403
5431000000.0 0.515 0.7191
5434000000.0 0.8988 0.0327
5438000000.0 0.5853 -0.6625
5441000000.0 -0.1695 -0.8684
5444000000.0 -0.7681 -0.4162
5447000000.0 -0.835 0.3341
5450000000.0 -0.2849 0.8524
5453000000.0 0.5207 0.6911
5456000000.0 0.8729 0.0778
5459000000.0 0.5929 -0.651
5462000000.0 -0.1166 -0.9082
5466000000.0 -0.7397 -0.4864
5469000000.0 -0.8753 0.2846
5472000000.0 -0.3519 0.8789
5475000000.0 0.4339 0.8026
5478000000.0 0.9139 0.2213
5481000000.0 0.7244 -0.5736
5484000000.0 0.0331 -0.9452
5488000000.0 -0.7173 -0.6818
5491000000.0 -0.9821 0.09933
5494000000.0 -0.5295 0.8372
5497000000.0 0.3111 0.9562
5500000000.0 0.914 0.3829
5503000000.0 0.9152 -0.4814
5506000000.0 0.2217 -1.012
5509000000.0 -0.6311 -0.8126
5512000000.0 -0.9896 -0.05265
5516000000.0 -0.6976 0.7899
5519000000.0 0.1367 1.006
5522000000.0 0.8655 0.5655
5525000000.0 0.9999 -0.2865
5528000000.0 0.4167 -0.973
5531000000.0 -0.4809 -0.9469
5534000000.0 -1.043 -0.2598
5538000000.0 -0.8575 0.6213
5541000000.0 -0.07209 1.089
5544000000.0 0.7912 0.6903
5547000000.0 1.048 -0.1303
5550000000.0 0.5733 -0.9273
5553000000.0 -0.3171 -1.045
5556000000.0 -0.943 -0.4081
5559000000.0 -0.9597 0.5255
5562000000.0 -0.2194 1.038
5566000000.0 0.6654 0.824
5569000000.0 1.041 0.03019
5572000000.0 0.6551 -0.7839
5575000000.0 -0.1679 -1.014
5578000000.0 -0.8845 -0.4921
5581000000.0 -0.935 0.349
5584000000.0 -0.3288 0.9058
5588000000.0 0.5107 0.83
5591000000.0 0.9834 0.1072
5594000000.0 0.6931 -0.6495
5597000000.0 -0.08838 -0.9284
5600000000.0 -0.7527 -0.5787
5603000000.0 -0.8856 0.2452
5606000000.0 -0.3876 0.8145
5609000000.0 0.3777 0.8197
5612000000.0 0.8484 0.1766
5616000000.0 0.7136 -0.5285
5619000000.0 0.02711 -0.8742
5622000000.0 -0.6393 -0.5758
5625000000.0 -0.8509 0.1464
5628000000.0 -0.4039 0.7412
5631000000.0 0.3301 0.7991
5634000000.0 0.8109 0.2113
5638000000.0 0.6804 -0.4878
5641000000.0 0.03497 -0.832
5644000000.0 -0.6138 -0.5501
5647000000.0 -0.8233 0.1185
5650000000.0 -0.4142 0.7758
5653000000.0 0.3287 0.7972
5656000000.0 0.8232 0.2335
5659000000.0 0.7029 -0.5208
5662000000.0 0.04936 -0.8681
5666000000.0 -0.6265 -0.5951
5669000000.0 -0.8774 0.1276
5672000000.0 -0.4263 0.7828
5675000000.0 0.3472 0.8252
5678000000.0 0.8518 0.2871
5681000000.0 0.7685 -0.514
5684000000.0 0.06912 -0.9541
5688000000.0 -0.7211 -0.6724
5691000000.0 -0.9599 0.1208
5694000000.0 -0.4923 0.8325
5697000000.0 0.3595 0.9219
5700000000.0 0.9353 0.3151
5703000000.0 0.8498 -0.504
5706000000.0 0.1534 -0.9931
5709000000.0 -0.6856 -0.7651
5712000000.0 -1.038 0.07657
5716000000.0 -0.5938 0.8402
5719000000.0 0.2916 1.038
5722000000.0 0.9788 0.4559
5725000000.0 0.9261 -0.4664
5728000000.0 0.2473 -1.035
5731000000.0 -0.6652 -0.8702
5734000000.0 -1.079 -0.07161
5738000000.0 -0.7492 0.7965
5741000000.0 0.1307 1.095
5744000000.0 0.941 0.6076
5747000000.0 1.06 -0.3484
5750000000.0 0.4332 -1.056
5753000000.0 -0.4889 -0.9889
5756000000.0 -1.071 -0.2173
5759000000.0 -0.8854 0.6786
5762000000.0 -0.05441 1.113
5766000000.0 0.854 0.7423
5769000000.0 1.105 -0.1709
5772000000.0 0.5917 -0.9471
5775000000.0 -0.3624 -1.039
5778000000.0 -1.038 -0.4109
5781000000.0 -0.9587 0.5249
5784000000.0 -0.205 1.1
5788000000.0 0.6699 0.8516
5791000000.0 1.094 -0.01501
5794000000.0 0.6957 -0.8379
5797000000.0 -0.1727 -1.069
5800000000.0 -0.9319 -0.5035
5803000000.0 -1.023 0.3707
5806000000.0 -0.3553 1.008
5809000000.0 0.5437 0.8791
5812000000.0 1.023 0.1503
5816000000.0 0.7799 -0.6973
5819000000.0 -0.05225 -1.027
5822000000.0 -0.8486 -0.6019
5825000000.0 -0.9723 0.2608
5828000000.0 -0.4395 0.9456
5831000000.0 0.4378 0.8737
5834000000.0 0.9557 0.2265
5838000000.0 0.7821 -0.5894
5841000000.0 0.02129 -1.01
5844000000.0 -0.7222 -0.6129
5847000000.0 -0.9262 0.166
5850000000.0 -0.4582 0.8378
5853000000.0 0.3476 0.8737
5856000000.0 0.9067 0.2521
5859000000.0 0.7531 -0.5448
5862000000.0 0.05178 -0.928
5866000000.0 -0.6682 -0.6109
5869000000.0 -0.8926 0.1398
5872000000.0 -0.4456 0.7821
5875000000.0 0.3323 0.8417
5878000000.0 0.8506 0.2435
5881000000.0 0.7157 -0.5259
5884000000.0 0.114 -0.858
5888000000.0 -0.5824 -0.5885
5891000000.0 -0.8689 0.1279
5894000000.0 -0.4706 0.7667
5897000000.0 0.2979 0.8396
5900000000.0 0.8099 0.2973
5903000000.0 0.7317 -0.4557
5906000000.0 0.09191 -0.848
5909000000.0 -0.6025 -0.6458
5912000000.0 -0.8726 0.03175
5916000000.0 -0.5207 0.7113
5919000000.0 0.2053 0.8641
5922000000.0 0.8117 0.3517
5925000000.0 0.812 -0.3977
5928000000.0 0.2204 -0.8407
5931000000.0 -0.5755 -0.7441
5934000000.0 -0.8837 -0.04218
5938000000.0 -0.6173 0.6799
5941000000.0 0.1212 0.8921
5944000000.0 0.7345 0.5035
5947000000.0 0.902 -0.2715
5950000000.0 0.3209 -0.8473
5953000000.0 -0.4339 -0.7918
5956000000.0 -0.9102 -0.1831
5959000000.0 -0.7559 0.5703
5962000000.0 -0.03751 0.9511
5966000000.0 0.6913 0.6361
5969000000.0 0.9713 -0.1255
5972000000.0 0.4937 -0.8263
5975000000.0 -0.2954 -0.9127
5978000000.0 -0.9375 -0.354
5981000000.0 -0.8424 0.4874
5984000000.0 -0.154 0.9671
5988000000.0 0.6237 0.77
5991000000.0 1.017 0.006271
5994000000.0 0.6746 -0.7721
5997000000.0 -0.2025 -0.9894
6000000000.0 -0.9065 -0.499
6003000000.0 -0.9554 0.3813
6006000000.0 -0.3155 0.9624
6009000000.0 0.5323 0.86
6012000000.0 0.995 0.1475
6016000000.0 0.7484 -0.6901
6019000000.0 -0.07447 -0.985
6022000000.0 -0.8107 -0.6069
6025000000.0 -0.9609 0.259
6028000000.0 -0.3756 0.9185
6031000000.0 0.4359 0.8616
6034000000.0 0.9633 0.1854
6038000000.0 0.7904 -0.5965
6041000000.0 0.02117 -0.9891
6044000000.0 -0.7199 -0.6087
6047000000.0 -0.9552 0.1874
6050000000.0 -0.4616 0.8306
6053000000.0 0.3649 0.8866
6056000000.0 0.9181 0.2511
6059000000.0 0.7596 -0.5294
6062000000.0 0.06595 -0.9382
6066000000.0 -0.6471 -0.615
6069000000.0 -0.8888 0.1395
6072000000.0 -0.4804 0.7663
6075000000.0 0.3235 0.855
6078000000.0 0.8167 0.2945
6081000000.0 0.7435 -0.4608
6084000000.0 0.09538 -0.8703
6088000000.0 -0.5944 -0.6421
6091000000.0 -0.8749 0.06685
6094000000.0 -0.4718 0.7181
6097000000.0 0.2498 0.831
6100000000.0 0.7904 0.3381
6103000000.0 0.7611 -0.413
6106000000.0 0.1488 -0.8459
6109000000.0 -0.5626 -0.6394
6112000000.0 -0.8601 0.02548
6116000000.0 -0.5115 0.7029
6119000000.0 0.2273 0.8174
6122000000.0 0.7703 0.3603
6125000000.0 0.7873 -0.4094
6128000000.0 0.2129 -0.8424
6131000000.0 -0.5314 -0.7006
6134000000.0 -0.8759 -0.01737
6138000000.0 -0.5622 0.6934
6141000000.0 0.1963 0.8539
6144000000.0 0.7918 0.3925
6147000000.0 0.8239 -0.3405
6150000000.0 0.2587 -0.8383
6153000000.0 -0.5191 -0.7424
6156000000.0 -0.9259 -0.09218
6159000000.0 -0.6264 0.6145
6162000000.0 0.0946 0.9419
6166000000.0 0.8365 0.4919
6169000000.0 0.9099 -0.2852
6172000000.0 0.347 -0.8638
6175000000.0 -0.4698 -0.8165
6178000000.0 -0.9092 -0.1646
6181000000.0 -0.71 0.6278
6184000000.0 0.02527 0.9634
6188000000.0 0.7543 0.5987
6191000000.0 0.9211 -0.2333
6194000000.0 0.4021 -0.8339
6197000000.0 -0.3915 -0.8386
6200000000.0 -0.918 -0.2309
6203000000.0 -0.7583 0.5506
6206000000.0 -0.06386 0.9432
6209000000.0 0.6733 0.6582
6212000000.0 0.8951 -0.07793
6216000000.0 0.5135 -0.7635
6219000000.0 -0.2733 -0.8958
6222000000.0 -0.8358 -0.3517
6225000000.0 -0.8308 0.4341
6228000000.0 -0.174 0.9384
6231000000.0 0.5756 0.6862
6234000000.0 0.876 0.01508
6238000000.0 0.5889 -0.6932
6241000000.0 -0.1336 -0.8511
6244000000.0 -0.7702 -0.4193
6247000000.0 -0.8122 0.2687
6250000000.0 -0.2708 0.8181
6253000000.0 0.4483 0.7089
6256000000.0 0.7876 0.13
6259000000.0 0.6424 -0.5472
6262000000.0 -0.01337 -0.8344
6266000000.0 -0.6196 -0.4884
6269000000.0 -0.7932 0.1825
