! Created with skrf 1.8.0 (http://scikit-rf.org).
# Hz S RI R 50.0 
!freq ReS11 ImS11
4000000000.0 -0.1398 -1.515
4003000000.0 -1.275 -0.7967
4006000000.0 -1.408 0.4668
4009000000.0 -0.5009 1.507
4012000000.0 0.7471 1.261
4016000000.0 1.508 0.232
4019000000.0 1.157 -1.037
4022000000.0 -0.116 -1.586
4025000000.0 -1.324 -0.9292
4028000000.0 -1.491 0.45
4031000000.0 -0.584 1.491
4034000000.0 0.7893 1.387
4038000000.0 1.622 0.26
4041000000.0 1.169 -1.102
4044000000.0 -0.08405 -1.601
4047000000.0 -1.332 -0.9821
4050000000.0 -1.555 0.4362
4053000000.0 -0.6561 1.514
4056000000.0 0.7447 1.467
4059000000.0 1.598 0.3504
4062000000.0 1.269 -1.005
4066000000.0 0.03095 -1.603
4069000000.0 -1.205 -1.058
4072000000.0 -1.587 0.2351
4075000000.0 -0.8104 1.415
4078000000.0 0.5489 1.541
4081000000.0 1.549 0.5402
4084000000.0 1.416 -0.8147
4088000000.0 0.2444 -1.614
4091000000.0 -1.08 -1.23
4094000000.0 -1.64 0.05114
4097000000.0 -0.9993 1.288
4100000000.0 0.3751 1.584
4103000000.0 1.422 0.7549
4106000000.0 1.456 -0.632
4109000000.0 0.4184 -1.462
4112000000.0 -0.8253 -1.265
4116000000.0 -1.509 -0.1957
4119000000.0 -1.114 0.9782
4122000000.0 0.01697 1.462
4125000000.0 1.122 0.9647
4128000000.0 1.447 -0.2053
4131000000.0 0.7995 -1.25
4134000000.0 -0.4405 -1.411
4138000000.0 -1.334 -0.5873
4141000000.0 -1.311 0.6304
4144000000.0 -0.3658 1.445
4147000000.0 0.8478 1.228
4150000000.0 1.49 0.1454
4153000000.0 1.077 -1.074
4156000000.0 -0.1326 -1.483
4159000000.0 -1.214 -0.8854
4162000000.0 -1.474 0.3546
4166000000.0 -0.6721 1.362
4169000000.0 0.6093 1.365
4172000000.0 1.43 0.4079
4175000000.0 1.216 -0.8336
4178000000.0 0.1571 -1.477
4181000000.0 -1.023 -1.09
4184000000.0 -1.5 0.1013
4188000000.0 -0.8792 1.169
4191000000.0 0.3714 1.488
4194000000.0 1.38 0.6488
4197000000.0 1.439 -0.6931
4200000000.0 0.4118 -1.494
4203000000.0 -0.9495 -1.271
4206000000.0 -1.606 -0.08541
4209000000.0 -1.077 1.234
4212000000.0 0.3142 1.608
4216000000.0 1.536 0.749
4219000000.0 1.521 -0.7014
4222000000.0 0.3216 -1.63
4225000000.0 -1.101 -1.276
4228000000.0 -1.687 0.1085
4231000000.0 -0.9147 1.395
4234000000.0 0.5242 1.617
4238000000.0 1.567 0.5409
4241000000.0 1.348 -0.9314
4244000000.0 0.1081 -1.599
4247000000.0 -1.192 -1.065
4250000000.0 -1.552 0.3178
4253000000.0 -0.6943 1.391
4256000000.0 0.7009 1.379
4259000000.0 1.509 0.2895
4262000000.0 1.19 -0.9592
4266000000.0 -0.07439 -1.525
4269000000.0 -1.192 -0.8529
4272000000.0 -1.417 0.4393
4275000000.0 -0.5684 1.385
4278000000.0 0.7229 1.24
4281000000.0 1.435 0.1753
4284000000.0 1.031 -0.9722
4288000000.0 -0.1052 -1.385
4291000000.0 -1.159 -0.7954
4294000000.0 -1.292 0.4218
4297000000.0 -0.5128 1.206
4300000000.0 0.6442 1.146
4303000000.0 1.301 0.2446
4306000000.0 1.037 -0.8241
4309000000.0 0.04966 -1.256
4312000000.0 -0.9452 -0.8477
4316000000.0 -1.276 0.164
4319000000.0 -0.6796 1.082
4322000000.0 0.4377 1.238
4325000000.0 1.21 0.4648
4328000000.0 1.167 -0.6056
4331000000.0 0.322 -1.278
4334000000.0 -0.8362 -1.082
4338000000.0 -1.397 -0.04071
4341000000.0 -0.925 0.9911
4344000000.0 0.2003 1.395
4347000000.0 1.213 0.7206
4350000000.0 1.328 -0.4682
4353000000.0 0.4914 -1.397
4356000000.0 -0.7048 -1.226
4359000000.0 -1.424 -0.2547
4362000000.0 -1.111 0.9193
4366000000.0 0.01441 1.434
4369000000.0 1.151 0.9493
4372000000.0 1.482 -0.2694
4375000000.0 0.6976 -1.305
4378000000.0 -0.5146 -1.393
4381000000.0 -1.415 -0.4891
4384000000.0 -1.272 0.814
4388000000.0 -0.1846 1.529
4391000000.0 1.07 1.094
4394000000.0 1.528 -0.1298
4397000000.0 0.846 -1.315
4400000000.0 -0.4682 -1.508
4403000000.0 -1.483 -0.5477
4406000000.0 -1.353 0.8154
4409000000.0 -0.2223 1.562
4412000000.0 1.08 1.111
4416000000.0 1.536 -0.1546
4419000000.0 0.8092 -1.305
4422000000.0 -0.55 -1.388
4425000000.0 -1.423 -0.4817
4428000000.0 -1.195 0.8111
4431000000.0 -0.1162 1.456
4434000000.0 1.063 0.9693
4438000000.0 1.388 -0.226
4441000000.0 0.6777 -1.23
4444000000.0 -0.5602 -1.222
4447000000.0 -1.31 -0.3503
4450000000.0 -1.079 0.8441
4453000000.0 -0.0003484 1.297
4456000000.0 1.027 0.8016
4459000000.0 1.262 -0.3408
4462000000.0 0.4946 -1.151
4466000000.0 -0.6118 -1.112
4469000000.0 -1.214 -0.1574
4472000000.0 -0.8579 0.8483
4475000000.0 0.1662 1.168
4478000000.0 0.9958 0.6312
4481000000.0 1.096 -0.3926
4484000000.0 0.3781 -1.106
4488000000.0 -0.6262 -0.9237
4491000000.0 -1.146 -0.07815
4494000000.0 -0.7855 0.8268
4497000000.0 0.1463 1.105
4500000000.0 0.9641 0.5294
4503000000.0 1.002 -0.3927
4506000000.0 0.3278 -1.066
4509000000.0 -0.5973 -0.9114
4512000000.0 -1.094 -0.09878
4516000000.0 -0.7795 0.7868
4519000000.0 0.1323 1.117
4522000000.0 0.9436 0.607
4525000000.0 1.067 -0.3514
4528000000.0 0.435 -1.059
4531000000.0 -0.55 -1.015
4534000000.0 -1.123 -0.2193
4538000000.0 -0.8784 0.7718
4541000000.0 0.02308 1.185
4544000000.0 0.9249 0.7242
4547000000.0 1.189 -0.2383
4550000000.0 0.5434 -1.056
4553000000.0 -0.4579 -1.121
4556000000.0 -1.135 -0.3799
4559000000.0 -1.042 0.61
4562000000.0 -0.18 1.231
4566000000.0 0.8172 0.928
4569000000.0 1.277 -0.03199
4572000000.0 0.773 -0.9952
4575000000.0 -0.2893 -1.272
4578000000.0 -1.131 -0.6123
4581000000.0 -1.22 0.5144
4584000000.0 -0.4059 1.265
4588000000.0 0.7268 1.099
4591000000.0 1.365 0.1649
4594000000.0 0.977 -0.9345
4597000000.0 -0.1054 -1.343
4600000000.0 -1.142 -0.7786
4603000000.0 -1.348 0.3681
4606000000.0 -0.5707 1.24
4609000000.0 0.6128 1.252
4612000000.0 1.367 0.3167
4616000000.0 1.088 -0.8813
4619000000.0 0.03846 -1.398
4622000000.0 -1.053 -0.9132
4625000000.0 -1.385 0.2386
4628000000.0 -0.6755 1.209
4631000000.0 0.53 1.282
4634000000.0 1.308 0.3988
4638000000.0 1.143 -0.77
4641000000.0 0.1056 -1.325
4644000000.0 -0.9768 -0.9502
4647000000.0 -1.338 0.1987
4650000000.0 -0.6537 1.115
4653000000.0 0.506 1.227
4656000000.0 1.237 0.3936
4659000000.0 1.059 -0.7114
4662000000.0 0.07192 -1.234
4666000000.0 -0.906 -0.8034
4669000000.0 -1.218 0.1997
4672000000.0 -0.5713 1.03
4675000000.0 0.4384 1.078
4678000000.0 1.129 0.3144
4681000000.0 0.9412 -0.6407
4684000000.0 0.06991 -1.137
4688000000.0 -0.8244 -0.7779
4691000000.0 -1.099 0.1898
4694000000.0 -0.5215 0.9736
4697000000.0 0.4205 0.972
4700000000.0 1.046 0.3119
4703000000.0 0.8903 -0.6337
4706000000.0 0.04161 -1.083
4709000000.0 -0.8307 -0.7125
4712000000.0 -1.038 0.1907
4716000000.0 -0.4853 0.9633
4719000000.0 0.4496 0.9572
4722000000.0 1.013 0.2556
4725000000.0 0.8398 -0.6509
4728000000.0 0.05236 -1.024
4731000000.0 -0.7874 -0.6997
4734000000.0 -1.05 0.1272
4738000000.0 -0.494 0.9053
4741000000.0 0.3692 0.9867
4744000000.0 1.002 0.3645
4747000000.0 0.9009 -0.5311
4750000000.0 0.1377 -1.05
4753000000.0 -0.6995 -0.8081
4756000000.0 -1.052 0.02443
4759000000.0 -0.6695 0.8774
4762000000.0 0.2422 1.084
4766000000.0 1.001 0.5348
4769000000.0 1.03 -0.4441
4772000000.0 0.3492 -1.083
4775000000.0 -0.6186 -0.9757
4778000000.0 -1.125 -0.1463
4781000000.0 -0.8526 0.7878
4784000000.0 0.06189 1.181
4788000000.0 0.9545 0.7028
4791000000.0 1.165 -0.262
4794000000.0 0.5658 -1.066
4797000000.0 -0.4547 -1.137
4800000000.0 -1.183 -0.4003
4803000000.0 -1.033 0.6441
4806000000.0 -0.1819 1.228
4809000000.0 0.8439 0.9617
4812000000.0 1.271 -0.03521
4816000000.0 0.7948 -0.9988
4819000000.0 -0.2642 -1.281
4822000000.0 -1.161 -0.6369
4825000000.0 -1.258 0.5104
4828000000.0 -0.4008 1.301
4831000000.0 0.7519 1.143
4834000000.0 1.371 0.1616
4838000000.0 0.9835 -0.9646
4841000000.0 -0.1426 -1.379
4844000000.0 -1.157 -0.7758
4847000000.0 -1.327 0.3952
4850000000.0 -0.55 1.293
4853000000.0 0.6493 1.228
4856000000.0 1.343 0.2742
4859000000.0 1.044 -0.878
4862000000.0 0.01783 -1.358
4866000000.0 -1.05 -0.8158
4869000000.0 -1.288 0.2773
4872000000.0 -0.6105 1.186
4875000000.0 0.5354 1.168
4878000000.0 1.25 0.3464
4881000000.0 1.048 -0.7435
4884000000.0 0.05098 -1.279
4888000000.0 -0.9461 -0.8043
4891000000.0 -1.192 0.1989
4894000000.0 -0.5766 1.036
4897000000.0 0.4306 1.071
4900000000.0 1.089 0.3345
4903000000.0 0.9261 -0.6331
4906000000.0 0.0644 -1.088
4909000000.0 -0.7695 -0.7362
4912000000.0 -1.027 0.1418
4916000000.0 -0.536 0.8737
4919000000.0 0.3422 0.9619
4922000000.0 0.9029 0.3411
4925000000.0 0.8367 -0.475
4928000000.0 0.1547 -0.9662
4931000000.0 -0.6264 -0.7007
4934000000.0 -0.9399 0.03218
4938000000.0 -0.5735 0.7628
4941000000.0 0.2055 0.9193
4944000000.0 0.8418 0.3861
4947000000.0 0.8569 -0.3823
4950000000.0 0.235 -0.9159
4953000000.0 -0.5478 -0.7966
4956000000.0 -0.9452 -0.05765
4959000000.0 -0.6749 0.7149
4962000000.0 0.1475 0.974
4966000000.0 0.8446 0.4742
4969000000.0 0.8907 -0.3398
4972000000.0 0.3218 -0.9411
4975000000.0 -0.5164 -0.8429
4978000000.0 -1.007 -0.1161
4981000000.0 -0.729 0.6746
4984000000.0 0.05029 1.034
4988000000.0 0.8453 0.6012
4991000000.0 1.01 -0.2596
4994000000.0 0.4549 -0.9703
4997000000.0 -0.4619 -0.9808
5000000000.0 -1.069 -0.2733
5003000000.0 -0.9009 0.6587
5006000000.0 -0.1089 1.118
5009000000.0 0.8351 0.8138
5012000000.0 1.168 -0.1215
5016000000.0 0.6564 -0.9924
5019000000.0 -0.3877 -1.173
5022000000.0 -1.176 -0.4765
5025000000.0 -1.094 0.6099
5028000000.0 -0.2434 1.241
5031000000.0 0.8024 0.9707
5034000000.0 1.255 0.001452
5038000000.0 0.8232 -0.9698
5041000000.0 -0.2434 -1.224
5044000000.0 -1.116 -0.6223
5047000000.0 -1.207 0.4421
5050000000.0 -0.4359 1.195
5053000000.0 0.6561 1.104
5056000000.0 1.302 0.21
5059000000.0 1.012 -0.835
5062000000.0 0.002128 -1.314
5066000000.0 -1.037 -0.8471
5069000000.0 -1.269 0.2469
5072000000.0 -0.594 1.12
5075000000.0 0.4764 1.167
5078000000.0 1.211 0.4161
5081000000.0 1.059 -0.6681
5084000000.0 0.1525 -1.257
5088000000.0 -0.8246 -0.8463
5091000000.0 -1.214 0.08665
5094000000.0 -0.7233 0.9752
5097000000.0 0.2751 1.162
5100000000.0 1.01 0.5122
5103000000.0 1.09 -0.4525
5106000000.0 0.3065 -1.08
5109000000.0 -0.6209 -0.9219
5112000000.0 -1.056 -0.1214
5116000000.0 -0.7772 0.7102
5119000000.0 0.05342 1.025
5122000000.0 0.8383 0.6068
5125000000.0 0.9933 -0.2397
5128000000.0 0.4205 -0.8902
5131000000.0 -0.4197 -0.9697
5134000000.0 -0.9444 -0.3155
5138000000.0 -0.7969 0.5903
5141000000.0 -0.07523 0.9939
5144000000.0 0.7197 0.6742
5147000000.0 0.9269 -0.1208
5150000000.0 0.5083 -0.8251
5153000000.0 -0.3164 -0.8559
5156000000.0 -0.8389 -0.3485
5159000000.0 -0.7681 0.4446
5162000000.0 -0.1193 0.8817
5166000000.0 0.5861 0.6887
5169000000.0 0.9039 -0.05599
5172000000.0 0.5644 -0.7371
5175000000.0 -0.2391 -0.8533
5178000000.0 -0.8021 -0.3703
5181000000.0 -0.7922 0.4143
5184000000.0 -0.2033 0.8868
5188000000.0 0.5736 0.7276
5191000000.0 0.9271 -0.002315
5194000000.0 0.5743 -0.7469
5197000000.0 -0.2228 -0.9097
5200000000.0 -0.8511 -0.4173
5203000000.0 -0.8436 0.4271
5206000000.0 -0.1802 0.9333
5209000000.0 0.6043 0.7624
5212000000.0 0.9499 0.001619
5216000000.0 0.6227 -0.7546
5219000000.0 -0.2341 -0.9311
5222000000.0 -0.8842 -0.4485
5225000000.0 -0.9188 0.4026
5228000000.0 -0.2592 0.9345
5231000000.0 0.5656 0.8144
5234000000.0 1.008 0.06379
5238000000.0 0.6942 -0.7421
5241000000.0 -0.1229 -1.044
5244000000.0 -0.88 -0.5539
5247000000.0 -0.9957 0.3165
5250000000.0 -0.3863 0.9727
5253000000.0 0.5235 0.9324
5256000000.0 1.077 0.2029
5259000000.0 0.8587 -0.6552
5262000000.0 0.003254 -1.074
5266000000.0 -0.8023 -0.6989
5269000000.0 -1.041 0.1781
5272000000.0 -0.5755 0.9147
5275000000.0 0.3564 1.004
5278000000.0 1.015 0.4052
5281000000.0 0.9563 -0.5195
5284000000.0 0.2439 -1.077
5288000000.0 -0.6665 -0.8778
5291000000.0 -1.11 -0.07134
5294000000.0 -0.7662 0.8051
5297000000.0 0.1225 1.098
5300000000.0 0.9281 0.6062
5303000000.0 1.066 -0.2581
5306000000.0 0.4728 -0.9988
5309000000.0 -0.4797 -1.024
5312000000.0 -1.108 -0.2946
5316000000.0 -0.9522 0.6679
5319000000.0 -0.1343 1.161
5322000000.0 0.8145 0.7998
5325000000.0 1.128 -0.1092
5328000000.0 0.6437 -0.929
5331000000.0 -0.3014 -1.088
5334000000.0 -1.021 -0.4608
5338000000.0 -1.038 0.4391
5341000000.0 -0.2969 1.127
5344000000.0 0.7005 0.8887
5347000000.0 1.115 0.0469
5350000000.0 0.7339 -0.8046
5353000000.0 -0.1496 -1.077
5356000000.0 -0.9447 -0.5571
5359000000.0 -1.037 0.3632
5362000000.0 -0.3508 1.03
5366000000.0 0.5743 0.8929
5369000000.0 1.035 0.1344
5372000000.0 0.743 -0.7306
5375000000.0 -0.1147 -1.05
5378000000.0 -0.873 -0.5429
5381000000.0 -0.9617 0.3246
5384000000.0 -0.3285 0.9186
5388000000.0 0.503 0.8315
5391000000.0 0.9698 0.1226
5394000000.0 0.6734 -0.672
5397000000.0 -0.1218 -0.9081
5400000000.0 -0.7779 -0.4772
5403000000.0 -0.8531 0.3264
5406000000.0 -0.277 0.8518
5409000000.0 0.4751 0.7457
5412000000.0 0.8669 0.07219
5416000000.0 0.5643 -0.6084
5419000000.0 -0.1173 -0.8365
5422000000.0 -0.7118 -0.4513
5425000000.0 -0.8242 0.2992
5428000000.0 -0.2754 0.8482
5431000000.0 0.4686 0.7033
5434000000.0 0.8434 0.06712
5438000000.0 0.5872 -0.6221
5441000000.0 -0.1321 -0.8642
5444000000.0 -0.7559 -0.4335
5447000000.0 -0.8018 0.3348
5450000000.0 -0.2572 0.845
5453000000.0 0.4592 0.7594
5456000000.0 0.8517 0.1228
5459000000.0 0.6214 -0.6033
5462000000.0 -0.07083 -0.8889
5466000000.0 -0.7119 -0.5195
5469000000.0 -0.8693 0.2732
5472000000.0 -0.378 0.8272
5475000000.0 0.3906 0.8384
5478000000.0 0.8847 0.2117
5481000000.0 0.7681 -0.5532
5484000000.0 0.05912 -0.9585
5488000000.0 -0.6542 -0.6334
5491000000.0 -0.9475 0.1115
5494000000.0 -0.5274 0.8257
5497000000.0 0.273 0.9453
5500000000.0 0.9324 0.386
5503000000.0 0.9196 -0.4474
5506000000.0 0.2427 -0.9862
5509000000.0 -0.6066 -0.7953
5512000000.0 -1.002 -0.05097
5516000000.0 -0.6717 0.7171
5519000000.0 0.08262 1.009
5522000000.0 0.871 0.5688
5525000000.0 1.003 -0.3001
5528000000.0 0.4204 -0.9706
5531000000.0 -0.4377 -0.9581
5534000000.0 -1.029 -0.2753
5538000000.0 -0.8556 0.5906
5541000000.0 -0.08857 1.071
5544000000.0 0.7349 0.7667
5547000000.0 1.048 -0.0627
5550000000.0 0.6107 -0.8613
5553000000.0 -0.2428 -1.031
5556000000.0 -0.9735 -0.4487
5559000000.0 -0.9494 0.4419
5562000000.0 -0.2429 1.011
5566000000.0 0.6184 0.8821
5569000000.0 1.044 0.03461
5572000000.0 0.7104 -0.7667
5575000000.0 -0.1615 -0.996
5578000000.0 -0.8358 -0.5138
5581000000.0 -0.9565 0.2893
5584000000.0 -0.3973 0.9082
5588000000.0 0.4757 0.8284
5591000000.0 0.9669 0.1992
5594000000.0 0.7445 -0.6088
5597000000.0 -0.03729 -0.9365
5600000000.0 -0.6868 -0.5859
5603000000.0 -0.8841 0.1957
5606000000.0 -0.4154 0.7875
5609000000.0 0.3363 0.7971
5612000000.0 0.8462 0.226
5616000000.0 0.7071 -0.5166
5619000000.0 0.04494 -0.868
5622000000.0 -0.6251 -0.5745
5625000000.0 -0.866 0.112
5628000000.0 -0.4365 0.7157
5631000000.0 0.2863 0.7815
5634000000.0 0.7994 0.2725
5638000000.0 0.7045 -0.4607
5641000000.0 0.1034 -0.8425
5644000000.0 -0.6136 -0.5857
5647000000.0 -0.7953 0.1028
5650000000.0 -0.46 0.6951
5653000000.0 0.2876 0.7941
5656000000.0 0.8125 0.2597
5659000000.0 0.713 -0.4453
5662000000.0 0.09411 -0.8772
5666000000.0 -0.6053 -0.6162
5669000000.0 -0.8572 0.09197
5672000000.0 -0.4632 0.7293
5675000000.0 0.295 0.8409
5678000000.0 0.8632 0.314
5681000000.0 0.7868 -0.4909
5684000000.0 0.09691 -0.9346
5688000000.0 -0.6635 -0.6635
5691000000.0 -0.9435 0.1009
5694000000.0 -0.5461 0.7932
5697000000.0 0.284 0.9429
5700000000.0 0.9157 0.3514
5703000000.0 0.893 -0.4797
5706000000.0 0.1904 -1.002
5709000000.0 -0.6374 -0.7623
5712000000.0 -1.023 0.02432
5716000000.0 -0.6292 0.8009
5719000000.0 0.2339 1.002
5722000000.0 0.911 0.4756
5725000000.0 0.9733 -0.452
5728000000.0 0.2923 -1.029
5731000000.0 -0.5796 -0.887
5734000000.0 -1.063 -0.1106
5738000000.0 -0.7651 0.7559
5741000000.0 0.06871 1.082
5744000000.0 0.9197 0.6145
5747000000.0 1.03 -0.258
5750000000.0 0.4915 -1.011
5753000000.0 -0.4821 -0.9872
5756000000.0 -1.066 -0.2441
5759000000.0 -0.916 0.6361
5762000000.0 -0.08975 1.113
5766000000.0 0.8019 0.747
5769000000.0 1.091 -0.1043
5772000000.0 0.617 -0.9116
5775000000.0 -0.2913 -1.062
5778000000.0 -1.02 -0.4546
5781000000.0 -0.9682 0.4535
5784000000.0 -0.2598 1.054
5788000000.0 0.6477 0.8654
5791000000.0 1.084 0.05839
5794000000.0 0.7453 -0.7725
5797000000.0 -0.1036 -1.07
5800000000.0 -0.9202 -0.5819
5803000000.0 -0.9872 0.3132
5806000000.0 -0.3837 0.961
5809000000.0 0.5038 0.889
5812000000.0 1.01 0.2176
5816000000.0 0.7849 -0.6416
5819000000.0 -0.01612 -1.011
5822000000.0 -0.8076 -0.6096
5825000000.0 -1.006 0.2401
5828000000.0 -0.4897 0.8783
5831000000.0 0.4058 0.9249
5834000000.0 0.9331 0.2658
5838000000.0 0.7852 -0.571
5841000000.0 0.07382 -0.9417
5844000000.0 -0.7269 -0.6632
5847000000.0 -0.9488 0.1547
5850000000.0 -0.5188 0.8192
5853000000.0 0.3167 0.8833
5856000000.0 0.8951 0.3123
5859000000.0 0.7728 -0.4758
5862000000.0 0.1311 -0.9037
5866000000.0 -0.6176 -0.6652
5869000000.0 -0.8942 0.06497
5872000000.0 -0.5015 0.7546
5875000000.0 0.2819 0.8331
5878000000.0 0.8562 0.3234
5881000000.0 0.7663 -0.4679
5884000000.0 0.1317 -0.8309
5888000000.0 -0.6024 -0.6443
5891000000.0 -0.8616 0.04988
5894000000.0 -0.5013 0.693
5897000000.0 0.2294 0.7865
5900000000.0 0.8156 0.3163
5903000000.0 0.7482 -0.3907
5906000000.0 0.1464 -0.8567
5909000000.0 -0.5542 -0.6277
5912000000.0 -0.8609 0.01455
5916000000.0 -0.535 0.673
5919000000.0 0.1972 0.8204
5922000000.0 0.7527 0.3892
5925000000.0 0.7991 -0.3605
5928000000.0 0.2139 -0.8147
5931000000.0 -0.4763 -0.7445
5934000000.0 -0.87 -0.08931
5938000000.0 -0.6427 0.6272
5941000000.0 0.07479 0.8832
5944000000.0 0.7436 0.498
5947000000.0 0.8592 -0.2297
5950000000.0 0.3717 -0.8068
5953000000.0 -0.398 -0.826
5956000000.0 -0.8656 -0.2696
5959000000.0 -0.7139 0.508
5962000000.0 -0.09068 0.9518
5966000000.0 0.6772 0.6535
5969000000.0 0.9461 -0.08051
5972000000.0 0.5434 -0.816
5975000000.0 -0.2501 -0.9305
5978000000.0 -0.8951 -0.3715
5981000000.0 -0.8591 0.4194
5984000000.0 -0.228 0.9376
5988000000.0 0.6084 0.7966
5991000000.0 0.9939 0.04396
5994000000.0 0.6982 -0.7255
5997000000.0 -0.1274 -1.013
6000000000.0 -0.8691 -0.5708
6003000000.0 -0.9552 0.3237
6006000000.0 -0.3641 0.9141
6009000000.0 0.5034 0.8526
6012000000.0 0.9781 0.1714
6016000000.0 0.7556 -0.6598
6019000000.0 -0.004198 -1.017
6022000000.0 -0.7834 -0.6305
6025000000.0 -0.9447 0.1869
6028000000.0 -0.448 0.8839
6031000000.0 0.3984 0.895
6034000000.0 0.9126 0.2525
6038000000.0 0.782 -0.5498
6041000000.0 0.08618 -0.9537
6044000000.0 -0.6866 -0.6603
6047000000.0 -0.9458 0.1088
6050000000.0 -0.5079 0.7942
6053000000.0 0.3095 0.9051
6056000000.0 0.8627 0.3205
6059000000.0 0.7962 -0.4833
6062000000.0 0.122 -0.9081
6066000000.0 -0.6014 -0.6633
6069000000.0 -0.8966 0.07393
6072000000.0 -0.5389 0.7408
6075000000.0 0.2414 0.8409
6078000000.0 0.823 0.3284
6081000000.0 0.7649 -0.4406
6084000000.0 0.1518 -0.8742
6088000000.0 -0.5718 -0.6488
6091000000.0 -0.8685 0.01813
6094000000.0 -0.5014 0.6808
6097000000.0 0.192 0.8299
6100000000.0 0.7804 0.3656
6103000000.0 0.7853 -0.3553
6106000000.0 0.1764 -0.8387
6109000000.0 -0.4923 -0.6488
6112000000.0 -0.8786 -0.04382
6116000000.0 -0.5607 0.6904
6119000000.0 0.1424 0.8333
6122000000.0 0.7714 0.3986
6125000000.0 0.8016 -0.307
6128000000.0 0.2078 -0.8123
6131000000.0 -0.4968 -0.7115
6134000000.0 -0.8514 -0.07042
6138000000.0 -0.5878 0.6279
6141000000.0 0.1354 0.866
6144000000.0 0.7374 0.4517
6147000000.0 0.834 -0.2935
6150000000.0 0.3057 -0.8307
6153000000.0 -0.4732 -0.77
6156000000.0 -0.8721 -0.1245
6159000000.0 -0.6595 0.6085
6162000000.0 0.0441 0.8931
6166000000.0 0.7411 0.5418
6169000000.0 0.8851 -0.2334
6172000000.0 0.3941 -0.8418
6175000000.0 -0.3809 -0.7974
6178000000.0 -0.9384 -0.2142
6181000000.0 -0.7562 0.5756
6184000000.0 -0.01313 0.9222
6188000000.0 0.6855 0.5982
6191000000.0 0.9253 -0.1615
6194000000.0 0.4723 -0.7824
6197000000.0 -0.3296 -0.8847
6200000000.0 -0.8748 -0.2998
6203000000.0 -0.7919 0.5265
6206000000.0 -0.1385 0.9324
6209000000.0 0.6293 0.6669
6212000000.0 0.9167 -0.04634
6216000000.0 0.556 -0.76
6219000000.0 -0.2278 -0.9126
6222000000.0 -0.8211 -0.393
6225000000.0 -0.8266 0.3951
6228000000.0 -0.2132 0.906
6231000000.0 0.5128 0.7213
6234000000.0 0.8472 0.05031
6238000000.0 0.6304 -0.6549
6241000000.0 -0.09929 -0.868
6244000000.0 -0.7167 -0.4638
6247000000.0 -0.7979 0.2563
6250000000.0 -0.3285 0.8116
6253000000.0 0.3859 0.7292
6256000000.0 0.8024 0.1823
6259000000.0 0.6506 -0.5011
6262000000.0 0.07118 -0.8282
6266000000.0 -0.6021 -0.574
