! Created with skrf 1.8.0 (http://scikit-rf.org).
# Hz S RI R 50.0 
!freq ReS11 ImS11
4000000000.0 -0.1474 -1.488
4003000000.0 -1.282 -0.7815
4006000000.0 -1.458 0.4675
4009000000.0 -0.5436 1.411
4012000000.0 0.745 1.315
4016000000.0 1.515 0.1993
4019000000.0 1.114 -0.9969
4022000000.0 -0.1112 -1.54
4025000000.0 -1.314 -0.8749
4028000000.0 -1.515 0.4316
4031000000.0 -0.6323 1.433
4034000000.0 0.8138 1.365
4038000000.0 1.613 0.2134
4041000000.0 1.226 -1.099
4044000000.0 -0.1284 -1.616
4047000000.0 -1.38 -0.9131
4050000000.0 -1.549 0.4482
4053000000.0 -0.5928 1.516
4056000000.0 0.7652 1.406
4059000000.0 1.564 0.324
4062000000.0 1.236 -0.9975
4066000000.0 0.003594 -1.599
4069000000.0 -1.232 -1.066
4072000000.0 -1.601 0.23
4075000000.0 -0.7987 1.412
4078000000.0 0.5806 1.525
4081000000.0 1.556 0.5567
4084000000.0 1.39 -0.8628
4088000000.0 0.2672 -1.611
4091000000.0 -1.087 -1.2
4094000000.0 -1.63 0.08202
4097000000.0 -0.9713 1.343
4100000000.0 0.3582 1.557
4103000000.0 1.407 0.7592
4106000000.0 1.451 -0.607
4109000000.0 0.4237 -1.459
4112000000.0 -0.8173 -1.297
4116000000.0 -1.518 -0.2221
4119000000.0 -1.142 0.9953
4122000000.0 0.04042 1.489
4125000000.0 1.134 0.9858
4128000000.0 1.454 -0.2188
4131000000.0 0.7929 -1.238
4134000000.0 -0.4437 -1.416
4138000000.0 -1.331 -0.618
4141000000.0 -1.356 0.6375
4144000000.0 -0.4161 1.436
4147000000.0 0.894 1.215
4150000000.0 1.505 0.1231
4153000000.0 1.095 -1.037
4156000000.0 -0.1205 -1.54
4159000000.0 -1.22 -0.8866
4162000000.0 -1.48 0.3667
4166000000.0 -0.6807 1.356
4169000000.0 0.6166 1.365
4172000000.0 1.429 0.3927
4175000000.0 1.247 -0.8254
4178000000.0 0.1396 -1.495
4181000000.0 -1.07 -1.076
4184000000.0 -1.497 0.07454
4188000000.0 -0.8973 1.21
4191000000.0 0.3746 1.478
4194000000.0 1.368 0.6528
4197000000.0 1.447 -0.6515
4200000000.0 0.3827 -1.549
4203000000.0 -0.9461 -1.263
4206000000.0 -1.566 -0.05736
4209000000.0 -1.025 1.236
4212000000.0 0.3251 1.623
4216000000.0 1.516 0.7268
4219000000.0 1.504 -0.7466
4222000000.0 0.3042 -1.658
4225000000.0 -1.106 -1.26
4228000000.0 -1.68 0.1217
4231000000.0 -0.9405 1.398
4234000000.0 0.5233 1.57
4238000000.0 1.553 0.5034
4241000000.0 1.348 -0.9004
4244000000.0 0.09995 -1.603
4247000000.0 -1.192 -1.068
4250000000.0 -1.541 0.3193
4253000000.0 -0.6854 1.376
4256000000.0 0.6579 1.363
4259000000.0 1.516 0.3085
4262000000.0 1.143 -0.9764
4266000000.0 -0.08193 -1.524
4269000000.0 -1.238 -0.8627
4272000000.0 -1.412 0.4508
4275000000.0 -0.5131 1.349
4278000000.0 0.7258 1.197
4281000000.0 1.403 0.1577
4284000000.0 1.013 -1.034
4288000000.0 -0.177 -1.374
4291000000.0 -1.101 -0.7761
4294000000.0 -1.271 0.414
4297000000.0 -0.4713 1.236
4300000000.0 0.6591 1.149
4303000000.0 1.296 0.2191
4306000000.0 0.9999 -0.8299
4309000000.0 0.006079 -1.293
4312000000.0 -0.9768 -0.8359
4316000000.0 -1.272 0.2305
4319000000.0 -0.6925 1.113
4322000000.0 0.3944 1.22
4325000000.0 1.243 0.4733
4328000000.0 1.151 -0.6288
4331000000.0 0.2918 -1.324
4334000000.0 -0.8464 -1.063
4338000000.0 -1.359 -0.0187
4341000000.0 -0.9234 1.043
4344000000.0 0.2031 1.365
4347000000.0 1.185 0.73
4350000000.0 1.331 -0.4613
4353000000.0 0.4948 -1.334
4356000000.0 -0.7312 -1.229
4359000000.0 -1.428 -0.2327
4362000000.0 -1.08 0.9215
4366000000.0 0.03319 1.461
4369000000.0 1.126 0.928
4372000000.0 1.477 -0.27
4375000000.0 0.6911 -1.323
4378000000.0 -0.5633 -1.4
4381000000.0 -1.445 -0.4624
4384000000.0 -1.268 0.8393
4388000000.0 -0.2051 1.527
4391000000.0 1.122 1.094
4394000000.0 1.565 -0.1659
4397000000.0 0.8484 -1.317
4400000000.0 -0.5123 -1.469
4403000000.0 -1.487 -0.5286
4406000000.0 -1.315 0.8494
4409000000.0 -0.1777 1.56
4412000000.0 1.116 1.109
4416000000.0 1.536 -0.1821
4419000000.0 0.7654 -1.299
4422000000.0 -0.5399 -1.428
4425000000.0 -1.426 -0.4528
4428000000.0 -1.206 0.8373
4431000000.0 -0.09313 1.464
4434000000.0 1.079 0.9116
4438000000.0 1.384 -0.2503
4441000000.0 0.6219 -1.209
4444000000.0 -0.5914 -1.259
4447000000.0 -1.301 -0.2957
4450000000.0 -1.032 0.8537
4453000000.0 0.01098 1.298
4456000000.0 1.07 0.7607
4459000000.0 1.231 -0.3344
4462000000.0 0.4804 -1.182
4466000000.0 -0.6151 -1.077
4469000000.0 -1.251 -0.1534
4472000000.0 -0.8349 0.89
4475000000.0 0.1591 1.197
4478000000.0 0.9936 0.5837
4481000000.0 1.077 -0.4285
4484000000.0 0.3583 -1.094
4488000000.0 -0.676 -0.9309
4491000000.0 -1.118 -0.08736
4494000000.0 -0.7568 0.8202
4497000000.0 0.1659 1.105
4500000000.0 0.9796 0.586
4503000000.0 1.02 -0.3834
4506000000.0 0.3347 -1.044
4509000000.0 -0.6017 -0.9041
4512000000.0 -1.112 -0.0996
4516000000.0 -0.7805 0.7912
4519000000.0 0.1357 1.115
4522000000.0 0.9408 0.5788
4525000000.0 1.053 -0.3605
4528000000.0 0.4059 -1.083
4531000000.0 -0.547 -1.008
4534000000.0 -1.169 -0.2014
4538000000.0 -0.8568 0.7569
4541000000.0 0.03323 1.176
4544000000.0 0.9434 0.7288
4547000000.0 1.156 -0.2158
4550000000.0 0.5526 -1.046
4553000000.0 -0.436 -1.152
4556000000.0 -1.147 -0.3775
4559000000.0 -1.022 0.6393
4562000000.0 -0.1737 1.233
4566000000.0 0.8527 0.9289
4569000000.0 1.243 -0.05032
4572000000.0 0.7759 -1.011
4575000000.0 -0.2779 -1.231
4578000000.0 -1.159 -0.6286
4581000000.0 -1.212 0.4782
4584000000.0 -0.3948 1.255
4588000000.0 0.7208 1.112
4591000000.0 1.355 0.1533
4594000000.0 0.9688 -0.9485
4597000000.0 -0.1333 -1.368
4600000000.0 -1.143 -0.7803
4603000000.0 -1.352 0.375
4606000000.0 -0.5748 1.289
4609000000.0 0.6423 1.237
4612000000.0 1.341 0.2925
4616000000.0 1.085 -0.8333
4619000000.0 0.01356 -1.386
4622000000.0 -1.078 -0.8845
4625000000.0 -1.371 0.2728
4628000000.0 -0.6535 1.215
4631000000.0 0.5183 1.28
4634000000.0 1.341 0.3953
4638000000.0 1.126 -0.7912
4641000000.0 0.08625 -1.332
4644000000.0 -1.004 -0.9245
4647000000.0 -1.318 0.2261
4650000000.0 -0.687 1.145
4653000000.0 0.4856 1.209
4656000000.0 1.232 0.364
4659000000.0 1.044 -0.7279
4662000000.0 0.06466 -1.254
4666000000.0 -0.9165 -0.856
4669000000.0 -1.218 0.1654
4672000000.0 -0.5788 1.066
4675000000.0 0.4286 1.057
4678000000.0 1.095 0.3387
4681000000.0 0.9249 -0.685
4684000000.0 0.04512 -1.115
4688000000.0 -0.8469 -0.7323
4691000000.0 -1.108 0.2189
4694000000.0 -0.5342 0.9679
4697000000.0 0.454 1.023
4700000000.0 1.048 0.2796
4703000000.0 0.8958 -0.6167
4706000000.0 0.03141 -1.041
4709000000.0 -0.8206 -0.674
4712000000.0 -1.024 0.2127
4716000000.0 -0.4775 0.9512
4719000000.0 0.4461 0.973
4722000000.0 1.016 0.2731
4725000000.0 0.836 -0.6107
4728000000.0 0.04329 -1.062
4731000000.0 -0.8049 -0.6811
4734000000.0 -1.037 0.1645
4738000000.0 -0.491 0.8965
4741000000.0 0.382 0.9875
4744000000.0 0.9777 0.358
4747000000.0 0.9011 -0.5481
4750000000.0 0.1498 -1.051
4753000000.0 -0.6924 -0.7967
4756000000.0 -1.113 0.07105
4759000000.0 -0.647 0.8499
4762000000.0 0.2331 1.098
4766000000.0 1.002 0.5052
4769000000.0 1.034 -0.4448
4772000000.0 0.3037 -1.083
4775000000.0 -0.6514 -0.9515
4778000000.0 -1.18 -0.1489
4781000000.0 -0.8481 0.7857
4784000000.0 0.05901 1.183
4788000000.0 0.9657 0.7189
4791000000.0 1.204 -0.2925
4794000000.0 0.5578 -1.1
4797000000.0 -0.4637 -1.132
4800000000.0 -1.163 -0.4092
4803000000.0 -1.048 0.6644
4806000000.0 -0.1634 1.234
4809000000.0 0.8419 0.9424
4812000000.0 1.267 -0.02923
4816000000.0 0.8051 -1.018
4819000000.0 -0.2923 -1.276
4822000000.0 -1.191 -0.6135
4825000000.0 -1.257 0.517
4828000000.0 -0.4129 1.28
4831000000.0 0.7634 1.134
4834000000.0 1.362 0.1346
4838000000.0 0.9873 -0.9843
4841000000.0 -0.17 -1.349
4844000000.0 -1.16 -0.7553
4847000000.0 -1.331 0.4112
4850000000.0 -0.524 1.255
4853000000.0 0.6703 1.201
4856000000.0 1.346 0.2529
4859000000.0 1.03 -0.895
4862000000.0 -0.04423 -1.389
4866000000.0 -1.073 -0.8212
4869000000.0 -1.307 0.3185
4872000000.0 -0.5867 1.172
4875000000.0 0.535 1.189
4878000000.0 1.249 0.3195
4881000000.0 0.9945 -0.7667
4884000000.0 0.05132 -1.24
4888000000.0 -0.9398 -0.8208
4891000000.0 -1.217 0.1978
4894000000.0 -0.5615 1.065
4897000000.0 0.4404 1.087
4900000000.0 1.074 0.3469
4903000000.0 0.9352 -0.6453
4906000000.0 0.08216 -1.098
4909000000.0 -0.7728 -0.7191
4912000000.0 -1.035 0.1404
4916000000.0 -0.5458 0.8464
4919000000.0 0.3325 0.9453
4922000000.0 0.935 0.3365
4925000000.0 0.8047 -0.484
4928000000.0 0.1603 -0.9224
4931000000.0 -0.637 -0.6972
4934000000.0 -0.9373 0.05869
4938000000.0 -0.5692 0.7673
4941000000.0 0.2093 0.886
4944000000.0 0.8347 0.3816
4947000000.0 0.8454 -0.4193
4950000000.0 0.2516 -0.8988
4953000000.0 -0.5541 -0.7561
4956000000.0 -0.9604 -0.0391
4959000000.0 -0.6528 0.7406
4962000000.0 0.1423 0.9401
4966000000.0 0.8736 0.4675
4969000000.0 0.8939 -0.3331
4972000000.0 0.2865 -0.9314
4975000000.0 -0.5376 -0.8527
4978000000.0 -1.005 -0.1053
4981000000.0 -0.76 0.7062
4984000000.0 0.08492 1.026
4988000000.0 0.8601 0.6186
4991000000.0 1.063 -0.259
4994000000.0 0.4906 -0.9627
4997000000.0 -0.4795 -0.9824
5000000000.0 -1.07 -0.2763
5003000000.0 -0.9392 0.6337
5006000000.0 -0.08485 1.147
5009000000.0 0.8565 0.826
5012000000.0 1.208 -0.1486
5016000000.0 0.6442 -1.046
5019000000.0 -0.381 -1.156
5022000000.0 -1.164 -0.4525
5025000000.0 -1.107 0.6018
5028000000.0 -0.2398 1.241
5031000000.0 0.8308 0.9588
5034000000.0 1.284 0.01529
5038000000.0 0.8416 -0.9958
5041000000.0 -0.233 -1.286
5044000000.0 -1.138 -0.6225
5047000000.0 -1.151 0.4699
5050000000.0 -0.4205 1.217
5053000000.0 0.6406 1.117
5056000000.0 1.275 0.1736
5059000000.0 0.9816 -0.8768
5062000000.0 0.006833 -1.28
5066000000.0 -1.008 -0.8179
5069000000.0 -1.278 0.2943
5072000000.0 -0.582 1.136
5075000000.0 0.5102 1.178
5078000000.0 1.198 0.3692
5081000000.0 1.027 -0.679
5084000000.0 0.1163 -1.24
5088000000.0 -0.833 -0.8611
5091000000.0 -1.209 0.07813
5094000000.0 -0.6917 0.9611
5097000000.0 0.292 1.133
5100000000.0 1.018 0.4846
5103000000.0 1.013 -0.4657
5106000000.0 0.2614 -1.085
5109000000.0 -0.5973 -0.9145
5112000000.0 -1.061 -0.1341
5116000000.0 -0.7683 0.7361
5119000000.0 0.06362 1.039
5122000000.0 0.8629 0.6112
5125000000.0 1.013 -0.2372
5128000000.0 0.4262 -0.9334
5131000000.0 -0.4237 -0.9292
5134000000.0 -0.9638 -0.29
5138000000.0 -0.7997 0.5466
5141000000.0 -0.04627 0.9543
5144000000.0 0.7021 0.6271
5147000000.0 0.9602 -0.1176
5150000000.0 0.5268 -0.8226
5153000000.0 -0.323 -0.8757
5156000000.0 -0.9 -0.328
5159000000.0 -0.7868 0.4985
5162000000.0 -0.1179 0.8774
5166000000.0 0.6023 0.6361
5169000000.0 0.8901 -0.06584
5172000000.0 0.5381 -0.7365
5175000000.0 -0.2435 -0.8467
5178000000.0 -0.8537 -0.3574
5181000000.0 -0.8084 0.4283
5184000000.0 -0.1708 0.905
5188000000.0 0.5743 0.7155
5191000000.0 0.9234 -0.002359
5194000000.0 0.5837 -0.7454
5197000000.0 -0.1987 -0.891
5200000000.0 -0.867 -0.3577
5203000000.0 -0.8254 0.4444
5206000000.0 -0.2034 0.9344
5209000000.0 0.6183 0.7297
5212000000.0 0.9811 0.005388
5216000000.0 0.6087 -0.7617
5219000000.0 -0.1936 -0.9527
5222000000.0 -0.8877 -0.4209
5225000000.0 -0.9169 0.4267
5228000000.0 -0.2475 0.9946
5231000000.0 0.5765 0.8267
5234000000.0 1.052 0.04585
5238000000.0 0.691 -0.7582
5241000000.0 -0.1624 -1.04
5244000000.0 -0.9046 -0.5808
5247000000.0 -0.9799 0.3267
5250000000.0 -0.3977 0.988
5253000000.0 0.5177 0.9412
5256000000.0 1.029 0.2018
5259000000.0 0.8171 -0.6832
5262000000.0 0.02125 -1.056
5266000000.0 -0.8141 -0.7138
5269000000.0 -1.065 0.1941
5272000000.0 -0.5434 0.9478
5275000000.0 0.3581 0.9958
5278000000.0 1.019 0.3819
5281000000.0 0.9645 -0.5106
5284000000.0 0.2196 -1.087
5288000000.0 -0.6705 -0.863
5291000000.0 -1.088 -0.03174
5294000000.0 -0.7474 0.8193
5297000000.0 0.1374 1.111
5300000000.0 0.9381 0.6225
5303000000.0 1.079 -0.308
5306000000.0 0.4703 -1.033
5309000000.0 -0.4803 -1.062
5312000000.0 -1.098 -0.276
5316000000.0 -0.9254 0.6509
5319000000.0 -0.08678 1.163
5322000000.0 0.8117 0.7901
5325000000.0 1.125 -0.1016
5328000000.0 0.6471 -0.9085
5331000000.0 -0.319 -1.083
5334000000.0 -1.068 -0.4493
5338000000.0 -1.022 0.5131
5341000000.0 -0.2537 1.099
5344000000.0 0.6461 0.9146
5347000000.0 1.096 0.0579
5350000000.0 0.7273 -0.8203
5353000000.0 -0.1831 -1.085
5356000000.0 -0.9427 -0.5519
5359000000.0 -0.9787 0.3823
5362000000.0 -0.3459 1.017
5366000000.0 0.5728 0.899
5369000000.0 1.057 0.124
5372000000.0 0.7526 -0.7235
5375000000.0 -0.1032 -1.002
5378000000.0 -0.8659 -0.5535
5381000000.0 -0.9541 0.3247
5384000000.0 -0.3224 0.9481
5388000000.0 0.5273 0.8185
5391000000.0 0.9375 0.1051
5394000000.0 0.6578 -0.6688
5397000000.0 -0.1153 -0.9378
5400000000.0 -0.7854 -0.4759
5403000000.0 -0.8392 0.3296
5406000000.0 -0.3034 0.8475
5409000000.0 0.4853 0.7016
5412000000.0 0.8802 0.07131
5416000000.0 0.593 -0.6083
5419000000.0 -0.1042 -0.8406
5422000000.0 -0.7183 -0.4521
5425000000.0 -0.8242 0.3137
5428000000.0 -0.2515 0.8445
5431000000.0 0.5066 0.7067
5434000000.0 0.9082 0.06294
5438000000.0 0.5888 -0.6568
5441000000.0 -0.1269 -0.8697
5444000000.0 -0.7241 -0.4636
5447000000.0 -0.8338 0.3442
5450000000.0 -0.262 0.8336
5453000000.0 0.5017 0.7581
5456000000.0 0.8741 0.0631
5459000000.0 0.6214 -0.6127
5462000000.0 -0.103 -0.8878
5466000000.0 -0.7254 -0.5397
5469000000.0 -0.875 0.2557
5472000000.0 -0.3709 0.8313
5475000000.0 0.4251 0.8433
5478000000.0 0.894 0.1991
5481000000.0 0.7598 -0.5613
5484000000.0 0.06696 -0.9295
5488000000.0 -0.6777 -0.674
5491000000.0 -1.007 0.1172
5494000000.0 -0.5341 0.8521
5497000000.0 0.2704 0.9261
5500000000.0 0.927 0.3912
5503000000.0 0.8839 -0.4856
5506000000.0 0.2179 -0.9785
5509000000.0 -0.6201 -0.8023
5512000000.0 -1.029 -0.04902
5516000000.0 -0.7111 0.733
5519000000.0 0.09932 1.044
5522000000.0 0.8704 0.5762
5525000000.0 0.9948 -0.283
5528000000.0 0.4482 -0.9401
5531000000.0 -0.4717 -0.9452
5534000000.0 -1.026 -0.2661
5538000000.0 -0.8451 0.6198
5541000000.0 -0.1012 1.028
5544000000.0 0.7614 0.7261
5547000000.0 1.057 -0.1196
5550000000.0 0.6255 -0.8963
5553000000.0 -0.319 -1.037
5556000000.0 -0.9712 -0.4235
5559000000.0 -0.9048 0.4777
5562000000.0 -0.2548 0.9958
5566000000.0 0.6209 0.8026
5569000000.0 0.9951 0.02291
5572000000.0 0.6632 -0.7728
5575000000.0 -0.1355 -0.9921
5578000000.0 -0.8582 -0.5286
5581000000.0 -0.9068 0.3348
5584000000.0 -0.3644 0.9425
5588000000.0 0.4715 0.8669
5591000000.0 0.9551 0.165
5594000000.0 0.7041 -0.6039
5597000000.0 -0.02483 -0.9448
5600000000.0 -0.7361 -0.555
5603000000.0 -0.8823 0.2008
5606000000.0 -0.3979 0.7908
5609000000.0 0.3968 0.8013
5612000000.0 0.8926 0.2179
5616000000.0 0.6856 -0.5049
5619000000.0 0.07124 -0.8579
5622000000.0 -0.67 -0.548
5625000000.0 -0.8315 0.1612
5628000000.0 -0.4453 0.7283
5631000000.0 0.2999 0.7868
5634000000.0 0.786 0.264
5638000000.0 0.7015 -0.4782
5641000000.0 0.05407 -0.8272
5644000000.0 -0.5817 -0.5822
5647000000.0 -0.8177 0.09033
5650000000.0 -0.4128 0.7006
5653000000.0 0.3218 0.7701
5656000000.0 0.8042 0.2395
5659000000.0 0.7253 -0.4732
5662000000.0 0.06489 -0.8657
5666000000.0 -0.6245 -0.585
5669000000.0 -0.867 0.09428
5672000000.0 -0.4792 0.7663
5675000000.0 0.3402 0.8312
5678000000.0 0.8567 0.2961
5681000000.0 0.7499 -0.4832
5684000000.0 0.07962 -0.9374
5688000000.0 -0.6589 -0.6617
5691000000.0 -0.9325 0.102
5694000000.0 -0.5346 0.7902
5697000000.0 0.3114 0.9122
5700000000.0 0.9081 0.3436
5703000000.0 0.878 -0.5088
5706000000.0 0.1793 -0.9906
5709000000.0 -0.6602 -0.7478
5712000000.0 -0.9973 0.03091
5716000000.0 -0.6308 0.8055
5719000000.0 0.2501 0.9785
5722000000.0 0.9282 0.4851
5725000000.0 0.9587 -0.4297
5728000000.0 0.2771 -1.012
5731000000.0 -0.6143 -0.8707
5734000000.0 -1.047 -0.06387
5738000000.0 -0.7638 0.7677
5741000000.0 0.07781 1.077
5744000000.0 0.9019 0.6185
5747000000.0 1.037 -0.2778
5750000000.0 0.4904 -0.9907
5753000000.0 -0.5081 -0.941
5756000000.0 -1.081 -0.251
5759000000.0 -0.8732 0.6618
5762000000.0 -0.067 1.105
5766000000.0 0.825 0.7581
5769000000.0 1.078 -0.1511
5772000000.0 0.6159 -0.9315
5775000000.0 -0.3582 -1.012
5778000000.0 -1.007 -0.4199
5781000000.0 -0.9703 0.5109
5784000000.0 -0.2431 1.028
5788000000.0 0.6573 0.8408
5791000000.0 1.13 0.01596
5794000000.0 0.6932 -0.7808
5797000000.0 -0.1749 -1.096
5800000000.0 -0.9351 -0.5589
5803000000.0 -1.023 0.3571
5806000000.0 -0.4037 0.9786
5809000000.0 0.5287 0.8833
5812000000.0 1.01 0.1696
5816000000.0 0.8008 -0.689
5819000000.0 -0.0471 -1.029
5822000000.0 -0.8205 -0.6497
5825000000.0 -0.9712 0.2225
5828000000.0 -0.4358 0.9075
5831000000.0 0.4051 0.912
5834000000.0 0.9393 0.2675
5838000000.0 0.7845 -0.55
5841000000.0 0.06697 -0.987
5844000000.0 -0.7381 -0.6458
5847000000.0 -0.9379 0.1101
5850000000.0 -0.4628 0.8082
5853000000.0 0.3404 0.8876
5856000000.0 0.8591 0.2497
5859000000.0 0.7815 -0.5087
5862000000.0 0.1128 -0.9018
5866000000.0 -0.6882 -0.6384
5869000000.0 -0.8934 0.1405
5872000000.0 -0.4641 0.7633
5875000000.0 0.3247 0.8545
5878000000.0 0.8411 0.2848
5881000000.0 0.7506 -0.4805
5884000000.0 0.07977 -0.8848
5888000000.0 -0.6126 -0.6126
5891000000.0 -0.8484 0.07898
5894000000.0 -0.4938 0.7026
5897000000.0 0.2523 0.8278
5900000000.0 0.7841 0.3327
5903000000.0 0.7541 -0.4179
5906000000.0 0.1249 -0.8415
5909000000.0 -0.5886 -0.6612
5912000000.0 -0.8571 -0.006096
5916000000.0 -0.5484 0.6925
5919000000.0 0.1753 0.8386
5922000000.0 0.7886 0.3884
5925000000.0 0.7759 -0.3304
5928000000.0 0.2019 -0.8792
5931000000.0 -0.5173 -0.686
5934000000.0 -0.9069 -0.04875
5938000000.0 -0.6114 0.6387
5941000000.0 0.09312 0.9014
5944000000.0 0.7131 0.5021
5947000000.0 0.8685 -0.2685
5950000000.0 0.3586 -0.8796
5953000000.0 -0.4138 -0.8174
5956000000.0 -0.8982 -0.2052
5959000000.0 -0.7226 0.5579
5962000000.0 -0.04245 0.9354
5966000000.0 0.6881 0.6266
5969000000.0 0.9231 -0.1221
5972000000.0 0.5257 -0.8125
5975000000.0 -0.2898 -0.9419
5978000000.0 -0.8881 -0.3684
5981000000.0 -0.8437 0.4747
5984000000.0 -0.1942 0.9593
5988000000.0 0.6357 0.7816
5991000000.0 0.9841 0.05999
5994000000.0 0.6754 -0.7447
5997000000.0 -0.1513 -0.9684
6000000000.0 -0.8536 -0.5093
6003000000.0 -0.9346 0.3289
6006000000.0 -0.3633 0.9289
6009000000.0 0.4776 0.8512
6012000000.0 0.9938 0.1424
6016000000.0 0.7363 -0.6594
6019000000.0 -0.02705 -1.007
6022000000.0 -0.7582 -0.6114
6025000000.0 -0.958 0.2294
6028000000.0 -0.4314 0.8834
6031000000.0 0.4078 0.8816
6034000000.0 0.9353 0.2218
6038000000.0 0.7639 -0.5455
6041000000.0 0.04475 -0.9707
6044000000.0 -0.6952 -0.6631
6047000000.0 -0.9398 0.1667
6050000000.0 -0.4911 0.7893
6053000000.0 0.3421 0.8727
6056000000.0 0.9011 0.296
6059000000.0 0.7818 -0.514
6062000000.0 0.09712 -0.9009
6066000000.0 -0.6574 -0.6665
6069000000.0 -0.8993 0.09031
6072000000.0 -0.492 0.7671
6075000000.0 0.2697 0.8292
6078000000.0 0.8046 0.3147
6081000000.0 0.7809 -0.4383
6084000000.0 0.1562 -0.861
6088000000.0 -0.5816 -0.6517
6091000000.0 -0.8684 0.0562
6094000000.0 -0.4871 0.6736
6097000000.0 0.2124 0.7977
6100000000.0 0.7788 0.3423
6103000000.0 0.7507 -0.3853
6106000000.0 0.166 -0.8155
6109000000.0 -0.5373 -0.6598
6112000000.0 -0.8486 0.02132
6116000000.0 -0.5331 0.671
6119000000.0 0.1556 0.8546
6122000000.0 0.8002 0.3939
6125000000.0 0.8059 -0.3524
6128000000.0 0.2219 -0.8247
6131000000.0 -0.5161 -0.6996
6134000000.0 -0.8693 -0.006476
6138000000.0 -0.6177 0.6812
6141000000.0 0.1508 0.8917
6144000000.0 0.7721 0.4686
6147000000.0 0.8401 -0.3213
6150000000.0 0.295 -0.8334
6153000000.0 -0.4838 -0.7498
6156000000.0 -0.8893 -0.1021
6159000000.0 -0.6692 0.6254
6162000000.0 0.08536 0.9107
6166000000.0 0.7502 0.5035
6169000000.0 0.8894 -0.2719
6172000000.0 0.3579 -0.8573
6175000000.0 -0.4686 -0.849
6178000000.0 -0.9384 -0.2241
6181000000.0 -0.7221 0.5962
6184000000.0 0.006825 0.9324
6188000000.0 0.7164 0.5884
6191000000.0 0.933 -0.173
6194000000.0 0.479 -0.8053
6197000000.0 -0.3516 -0.899
6200000000.0 -0.8798 -0.2872
6203000000.0 -0.7841 0.4991
6206000000.0 -0.09925 0.9171
6209000000.0 0.6428 0.6695
6212000000.0 0.9256 -0.06538
6216000000.0 0.5201 -0.7697
6219000000.0 -0.2408 -0.9102
6222000000.0 -0.8311 -0.3589
6225000000.0 -0.8092 0.413
6228000000.0 -0.1897 0.8837
6231000000.0 0.5144 0.7649
6234000000.0 0.9019 0.01599
6238000000.0 0.5938 -0.6847
6241000000.0 -0.118 -0.8898
6244000000.0 -0.7436 -0.4438
6247000000.0 -0.8066 0.2916
6250000000.0 -0.3201 0.8131
6253000000.0 0.4178 0.7359
6256000000.0 0.8199 0.1247
6259000000.0 0.6297 -0.5119
6262000000.0 0.02059 -0.8176
6266000000.0 -0.6047 -0.527
