! Created with skrf 1.8.0 (http://scikit-rf.org).
# Hz S RI R 50.0 
!freq ReS11 ImS11
4000000000.0 -0.2225 -1.511
4003000000.0 -1.275 -0.737
4006000000.0 -1.395 0.487
4009000000.0 -0.4821 1.432
4012000000.0 0.8699 1.281
4016000000.0 1.562 0.1991
4019000000.0 1.132 -1.075
4022000000.0 -0.1441 -1.552
4025000000.0 -1.308 -0.8982
4028000000.0 -1.534 0.4531
4031000000.0 -0.541 1.542
4034000000.0 0.8317 1.379
4038000000.0 1.614 0.1748
4041000000.0 1.163 -1.142
4044000000.0 -0.1733 -1.656
4047000000.0 -1.335 -0.9028
4050000000.0 -1.564 0.4968
4053000000.0 -0.5693 1.513
4056000000.0 0.7862 1.386
4059000000.0 1.601 0.2754
4062000000.0 1.234 -1.053
4066000000.0 -0.02912 -1.62
4069000000.0 -1.294 -1.021
4072000000.0 -1.586 0.3267
4075000000.0 -0.7743 1.432
4078000000.0 0.6134 1.535
4081000000.0 1.573 0.5162
4084000000.0 1.414 -0.9192
4088000000.0 0.2311 -1.654
4091000000.0 -1.14 -1.198
4094000000.0 -1.649 0.0974
4097000000.0 -0.9539 1.344
4100000000.0 0.3816 1.605
4103000000.0 1.452 0.6759
4106000000.0 1.47 -0.6657
4109000000.0 0.4039 -1.51
4112000000.0 -0.8989 -1.286
4116000000.0 -1.529 -0.1587
4119000000.0 -1.076 1.038
4122000000.0 0.05786 1.488
4125000000.0 1.185 0.9281
4128000000.0 1.454 -0.2414
4131000000.0 0.7818 -1.277
4134000000.0 -0.4735 -1.419
4138000000.0 -1.394 -0.5574
4141000000.0 -1.304 0.6834
4144000000.0 -0.3283 1.461
4147000000.0 0.9022 1.199
4150000000.0 1.493 0.09625
4153000000.0 1.063 -1.077
4156000000.0 -0.1676 -1.507
4159000000.0 -1.242 -0.8357
4162000000.0 -1.441 0.4081
4166000000.0 -0.6089 1.376
4169000000.0 0.6861 1.353
4172000000.0 1.484 0.3523
4175000000.0 1.21 -0.8907
4178000000.0 0.07889 -1.525
4181000000.0 -1.075 -1.066
4184000000.0 -1.496 0.1351
4188000000.0 -0.8673 1.238
4191000000.0 0.434 1.461
4194000000.0 1.425 0.6358
4197000000.0 1.391 -0.712
4200000000.0 0.3625 -1.526
4203000000.0 -0.9922 -1.242
4206000000.0 -1.619 0.006579
4209000000.0 -0.9999 1.29
4212000000.0 0.455 1.606
4216000000.0 1.579 0.6785
4219000000.0 1.486 -0.8499
4222000000.0 0.2625 -1.706
4225000000.0 -1.145 -1.201
4228000000.0 -1.702 0.2142
4231000000.0 -0.861 1.415
4234000000.0 0.64 1.562
4238000000.0 1.593 0.423
4241000000.0 1.287 -0.9967
4244000000.0 -0.01829 -1.573
4247000000.0 -1.282 -0.9675
4250000000.0 -1.498 0.4215
4253000000.0 -0.6264 1.396
4256000000.0 0.7362 1.301
4259000000.0 1.532 0.2075
4262000000.0 1.063 -1.066
4266000000.0 -0.1341 -1.508
4269000000.0 -1.269 -0.7818
4272000000.0 -1.389 0.5069
4275000000.0 -0.4213 1.406
4278000000.0 0.8413 1.223
4281000000.0 1.411 0.08575
4284000000.0 0.9442 -1.041
4288000000.0 -0.2166 -1.365
4291000000.0 -1.191 -0.6572
4294000000.0 -1.283 0.5015
4297000000.0 -0.3971 1.257
4300000000.0 0.7138 1.116
4303000000.0 1.26 0.149
4306000000.0 0.9276 -0.8712
4309000000.0 -0.06348 -1.287
4312000000.0 -1.027 -0.7893
4316000000.0 -1.218 0.2833
4319000000.0 -0.5638 1.178
4322000000.0 0.4746 1.237
4325000000.0 1.25 0.4231
4328000000.0 1.154 -0.698
4331000000.0 0.1915 -1.342
4334000000.0 -0.9269 -1.019
4338000000.0 -1.358 0.02513
4341000000.0 -0.8969 1.096
4344000000.0 0.2959 1.38
4347000000.0 1.287 0.6741
4350000000.0 1.315 -0.5369
4353000000.0 0.4367 -1.38
4356000000.0 -0.7901 -1.241
4359000000.0 -1.473 -0.1631
4362000000.0 -1.06 0.994
4366000000.0 0.08857 1.467
4369000000.0 1.185 0.8652
4372000000.0 1.418 -0.3779
4375000000.0 0.6121 -1.356
4378000000.0 -0.6274 -1.349
4381000000.0 -1.467 -0.3925
4384000000.0 -1.237 0.9111
4388000000.0 -0.03394 1.581
4391000000.0 1.193 1.061
4394000000.0 1.526 -0.2598
4397000000.0 0.8018 -1.405
4400000000.0 -0.5701 -1.468
4403000000.0 -1.508 -0.4286
4406000000.0 -1.26 0.9481
4409000000.0 -0.04133 1.598
4412000000.0 1.208 1.026
4416000000.0 1.504 -0.3164
4419000000.0 0.652 -1.394
4422000000.0 -0.6817 -1.335
4425000000.0 -1.469 -0.2786
4428000000.0 -1.122 0.9544
4431000000.0 0.06726 1.452
4434000000.0 1.153 0.8389
4438000000.0 1.333 -0.4326
4441000000.0 0.5323 -1.296
4444000000.0 -0.6987 -1.198
4447000000.0 -1.329 -0.1841
4450000000.0 -0.9261 0.9348
4453000000.0 0.1487 1.291
4456000000.0 1.111 0.6521
4459000000.0 1.179 -0.4649
4462000000.0 0.3425 -1.211
4466000000.0 -0.7255 -1.006
4469000000.0 -1.224 -0.01646
4472000000.0 -0.7509 0.9431
4475000000.0 0.2477 1.159
4478000000.0 1.042 0.4946
4481000000.0 1.048 -0.5393
4484000000.0 0.2548 -1.14
4488000000.0 -0.7256 -0.8974
4491000000.0 -1.134 0.03927
4494000000.0 -0.6576 0.8943
4497000000.0 0.2906 1.1
4500000000.0 1.031 0.4723
4503000000.0 0.9735 -0.4814
4506000000.0 0.2396 -1.084
4509000000.0 -0.7015 -0.8759
4512000000.0 -1.095 0.002486
4516000000.0 -0.7111 0.8625
4519000000.0 0.23 1.109
4522000000.0 1.014 0.5149
4525000000.0 1.068 -0.4658
4528000000.0 0.3185 -1.115
4531000000.0 -0.6879 -0.9765
4534000000.0 -1.171 -0.06473
4538000000.0 -0.8279 0.8331
4541000000.0 0.1111 1.188
4544000000.0 0.9963 0.6609
4547000000.0 1.151 -0.3441
4550000000.0 0.4763 -1.143
4553000000.0 -0.5221 -1.06
4556000000.0 -1.217 -0.2791
4559000000.0 -1.001 0.7379
4562000000.0 -0.06629 1.244
4566000000.0 0.9039 0.8751
4569000000.0 1.272 -0.14
4572000000.0 0.7081 -1.075
4575000000.0 -0.3793 -1.245
4578000000.0 -1.21 -0.5075
4581000000.0 -1.186 0.6024
4584000000.0 -0.3123 1.293
4588000000.0 0.846 1.091
4591000000.0 1.377 0.03952
4594000000.0 0.9228 -1.048
4597000000.0 -0.2171 -1.344
4600000000.0 -1.21 -0.7357
4603000000.0 -1.328 0.4754
4606000000.0 -0.473 1.312
4609000000.0 0.7471 1.212
4612000000.0 1.388 0.1845
4616000000.0 1.01 -0.9735
4619000000.0 -0.09071 -1.408
4622000000.0 -1.146 -0.8202
4625000000.0 -1.347 0.377
4628000000.0 -0.5406 1.267
4631000000.0 0.6438 1.227
4634000000.0 1.344 0.2405
4638000000.0 1.049 -0.8852
4641000000.0 -0.008642 -1.335
4644000000.0 -1.079 -0.8038
4647000000.0 -1.307 0.3152
4650000000.0 -0.5488 1.212
4653000000.0 0.591 1.152
4656000000.0 1.261 0.24
4659000000.0 1.0 -0.8178
4662000000.0 -0.06624 -1.224
4666000000.0 -0.9725 -0.7243
4669000000.0 -1.179 0.3189
4672000000.0 -0.4624 1.087
4675000000.0 0.5901 1.034
4678000000.0 1.126 0.1994
4681000000.0 0.8509 -0.7492
4684000000.0 -0.05911 -1.116
4688000000.0 -0.9001 -0.6817
4691000000.0 -1.051 0.285
4694000000.0 -0.4658 1.001
4697000000.0 0.5011 0.9505
4700000000.0 1.093 0.1755
4703000000.0 0.855 -0.7325
4706000000.0 -0.01587 -1.09
4709000000.0 -0.8715 -0.6153
4712000000.0 -1.046 0.311
4716000000.0 -0.4077 0.9975
4719000000.0 0.525 0.9257
4722000000.0 1.065 0.1445
4725000000.0 0.797 -0.7549
4728000000.0 -0.07462 -1.058
4731000000.0 -0.8636 -0.6369
4734000000.0 -0.9989 0.2617
4738000000.0 -0.4538 0.9667
4741000000.0 0.4479 0.9617
4744000000.0 1.038 0.2725
4747000000.0 0.8626 -0.6247
4750000000.0 0.07471 -1.074
4753000000.0 -0.7698 -0.7587
4756000000.0 -1.086 0.11
4759000000.0 -0.6246 0.9343
4762000000.0 0.3343 1.062
4766000000.0 1.049 0.425
4769000000.0 1.02 -0.5451
4772000000.0 0.2663 -1.147
4775000000.0 -0.6743 -0.9223
4778000000.0 -1.196 -0.07299
4781000000.0 -0.8033 0.8864
4784000000.0 0.1413 1.194
4788000000.0 1.025 0.6477
4791000000.0 1.158 -0.3583
4794000000.0 0.5097 -1.138
4797000000.0 -0.5429 -1.093
4800000000.0 -1.242 -0.294
4803000000.0 -1.008 0.74
4806000000.0 -0.08996 1.272
4809000000.0 0.9308 0.8843
4812000000.0 1.287 -0.1278
4816000000.0 0.7412 -1.104
4819000000.0 -0.3598 -1.293
4822000000.0 -1.267 -0.5291
4825000000.0 -1.21 0.6
4828000000.0 -0.3058 1.362
4831000000.0 0.8759 1.1
4834000000.0 1.386 0.01845
4838000000.0 0.9269 -1.036
4841000000.0 -0.2252 -1.374
4844000000.0 -1.229 -0.671
4847000000.0 -1.303 0.4827
4850000000.0 -0.4077 1.316
4853000000.0 0.7522 1.157
4856000000.0 1.366 0.1258
4859000000.0 0.9641 -0.9652
4862000000.0 -0.1316 -1.373
4866000000.0 -1.102 -0.7426
4869000000.0 -1.289 0.3668
4872000000.0 -0.4698 1.195
4875000000.0 0.6285 1.144
4878000000.0 1.256 0.2278
4881000000.0 0.944 -0.8299
4884000000.0 -0.06911 -1.225
4888000000.0 -1.013 -0.7467
4891000000.0 -1.16 0.3425
4894000000.0 -0.4832 1.037
4897000000.0 0.4939 1.051
4900000000.0 1.11 0.2367
4903000000.0 0.8503 -0.6922
4906000000.0 -0.01669 -1.075
4909000000.0 -0.8427 -0.692
4912000000.0 -0.9911 0.2306
4916000000.0 -0.4533 0.9136
4919000000.0 0.3939 0.9294
4922000000.0 0.9516 0.2732
4925000000.0 0.8238 -0.5544
4928000000.0 0.07376 -0.9345
4931000000.0 -0.6895 -0.6315
4934000000.0 -0.9248 0.09552
4938000000.0 -0.4955 0.8107
4941000000.0 0.2783 0.9046
4944000000.0 0.8678 0.3605
4947000000.0 0.7943 -0.4729
4950000000.0 0.1719 -0.9402
4953000000.0 -0.6209 -0.7476
4956000000.0 -0.9819 0.02823
4959000000.0 -0.5814 0.7664
4962000000.0 0.24 0.9704
4966000000.0 0.8891 0.4375
4969000000.0 0.9165 -0.4159
4972000000.0 0.2377 -0.9678
4975000000.0 -0.625 -0.8143
4978000000.0 -1.028 -0.0613
4981000000.0 -0.712 0.7475
4984000000.0 0.1514 1.068
4988000000.0 0.9076 0.5767
4991000000.0 1.032 -0.313
4994000000.0 0.3994 -1.035
4997000000.0 -0.5249 -0.9581
5000000000.0 -1.111 -0.2085
5003000000.0 -0.8831 0.7199
5006000000.0 0.02837 1.189
5009000000.0 0.9182 0.7582
5012000000.0 1.196 -0.2531
5016000000.0 0.572 -1.088
5019000000.0 -0.4783 -1.153
5022000000.0 -1.215 -0.3577
5025000000.0 -1.081 0.7061
5028000000.0 -0.1437 1.292
5031000000.0 0.9038 0.9427
5034000000.0 1.284 -0.101
5038000000.0 0.7421 -1.05
5041000000.0 -0.3259 -1.236
5044000000.0 -1.17 -0.5541
5047000000.0 -1.174 0.547
5050000000.0 -0.3423 1.24
5053000000.0 0.7658 1.088
5056000000.0 1.272 0.1153
5059000000.0 0.9204 -0.9
5062000000.0 -0.1022 -1.292
5066000000.0 -1.071 -0.7297
5069000000.0 -1.26 0.3309
5072000000.0 -0.521 1.181
5075000000.0 0.5866 1.149
5078000000.0 1.219 0.2975
5081000000.0 1.018 -0.7782
5084000000.0 0.05836 -1.233
5088000000.0 -0.9425 -0.8059
5091000000.0 -1.14 0.1419
5094000000.0 -0.6372 0.9881
5097000000.0 0.3811 1.078
5100000000.0 1.025 0.4213
5103000000.0 1.007 -0.5261
5106000000.0 0.231 -1.068
5109000000.0 -0.6474 -0.831
5112000000.0 -1.076 -0.05319
5116000000.0 -0.7302 0.8219
5119000000.0 0.1603 1.06
5122000000.0 0.8829 0.5569
5125000000.0 0.9855 -0.332
5128000000.0 0.3802 -0.9511
5131000000.0 -0.4831 -0.8711
5134000000.0 -0.9575 -0.1685
5138000000.0 -0.7271 0.6205
5141000000.0 0.04748 0.9694
5144000000.0 0.7515 0.5695
5147000000.0 0.9256 -0.2176
5150000000.0 0.4571 -0.8414
5153000000.0 -0.3676 -0.8745
5156000000.0 -0.8748 -0.2283
5159000000.0 -0.7467 0.5293
5162000000.0 -0.04925 0.8824
5166000000.0 0.6836 0.6246
5169000000.0 0.9046 -0.1233
5172000000.0 0.4778 -0.7537
5175000000.0 -0.3153 -0.8415
5178000000.0 -0.852 -0.2806
5181000000.0 -0.7686 0.5074
5184000000.0 -0.08902 0.9296
5188000000.0 0.6639 0.6495
5191000000.0 0.9294 -0.1337
5194000000.0 0.4733 -0.7722
5197000000.0 -0.3353 -0.8533
5200000000.0 -0.9196 -0.271
5203000000.0 -0.7965 0.5055
5206000000.0 -0.09474 0.9613
5209000000.0 0.6754 0.6476
5212000000.0 0.9448 -0.09829
5216000000.0 0.5352 -0.7936
5219000000.0 -0.2919 -0.9289
5222000000.0 -0.9318 -0.3712
5225000000.0 -0.8751 0.4876
5228000000.0 -0.1919 0.9873
5231000000.0 0.6604 0.8022
5234000000.0 1.031 -0.03006
5238000000.0 0.6505 -0.8207
5241000000.0 -0.2229 -1.007
5244000000.0 -0.9697 -0.4812
5247000000.0 -0.9772 0.4281
5250000000.0 -0.2893 1.01
5253000000.0 0.6008 0.864
5256000000.0 1.084 0.1163
5259000000.0 0.772 -0.7638
5262000000.0 -0.08099 -1.069
5266000000.0 -0.891 -0.6519
5269000000.0 -1.054 0.2807
5272000000.0 -0.4802 0.986
5275000000.0 0.4394 1.016
5278000000.0 1.036 0.3025
5281000000.0 0.951 -0.6168
5284000000.0 0.1196 -1.094
5288000000.0 -0.7517 -0.8067
5291000000.0 -1.106 0.01166
5294000000.0 -0.6908 0.867
5297000000.0 0.2102 1.094
5300000000.0 0.9717 0.5505
5303000000.0 1.068 -0.4372
5306000000.0 0.4028 -1.042
5309000000.0 -0.5936 -0.9561
5312000000.0 -1.139 -0.1945
5316000000.0 -0.8417 0.7337
5319000000.0 0.01674 1.126
5322000000.0 0.8796 0.729
5325000000.0 1.141 -0.2055
5328000000.0 0.5323 -1.025
5331000000.0 -0.4202 -1.062
5334000000.0 -1.113 -0.3383
5338000000.0 -0.9834 0.617
5341000000.0 -0.1658 1.127
5344000000.0 0.7456 0.8122
5347000000.0 1.115 -0.08783
5350000000.0 0.6605 -0.8467
5353000000.0 -0.2666 -1.073
5356000000.0 -1.001 -0.4412
5359000000.0 -0.968 0.4995
5362000000.0 -0.2203 1.049
5366000000.0 0.656 0.8373
5369000000.0 1.043 -0.03092
5372000000.0 0.6343 -0.8247
5375000000.0 -0.2435 -1.006
5378000000.0 -0.9114 -0.4402
5381000000.0 -0.8801 0.4722
5384000000.0 -0.2252 0.9869
5388000000.0 0.6449 0.7514
5391000000.0 0.9297 -0.04072
5394000000.0 0.5569 -0.7654
5397000000.0 -0.2517 -0.9046
5400000000.0 -0.8446 -0.3199
5403000000.0 -0.8034 0.4214
5406000000.0 -0.1525 0.8938
5409000000.0 0.5922 0.644
5412000000.0 0.8931 -0.05876
5416000000.0 0.5245 -0.6976
5419000000.0 -0.239 -0.804
5422000000.0 -0.8023 -0.3328
5425000000.0 -0.7972 0.4382
5428000000.0 -0.1429 0.8518
5431000000.0 0.5855 0.6448
5434000000.0 0.8796 -0.06062
5438000000.0 0.5233 -0.704
5441000000.0 -0.2562 -0.8508
5444000000.0 -0.8449 -0.3588
5447000000.0 -0.7794 0.4132
5450000000.0 -0.1849 0.865
5453000000.0 0.5611 0.6659
5456000000.0 0.8757 -0.02289
5459000000.0 0.5705 -0.6991
5462000000.0 -0.2087 -0.8891
5466000000.0 -0.7976 -0.414
5469000000.0 -0.8927 0.3131
5472000000.0 -0.3034 0.8839
5475000000.0 0.5077 0.7795
5478000000.0 0.9501 0.1034
5481000000.0 0.7078 -0.6422
5484000000.0 -0.04575 -0.9663
5488000000.0 -0.7589 -0.5903
5491000000.0 -0.9545 0.2044
5494000000.0 -0.4788 0.9016
5497000000.0 0.4088 0.9299
5500000000.0 0.9924 0.2901
5503000000.0 0.8426 -0.567
5506000000.0 0.09711 -1.019
5509000000.0 -0.7002 -0.7604
5512000000.0 -1.036 0.05709
5516000000.0 -0.6395 0.8332
5519000000.0 0.2425 1.037
5522000000.0 0.9194 0.4814
5525000000.0 0.9978 -0.4145
5528000000.0 0.304 -0.9884
5531000000.0 -0.5783 -0.9
5534000000.0 -1.053 -0.1292
5538000000.0 -0.7816 0.6959
5541000000.0 0.0662 1.094
5544000000.0 0.8517 0.6272
5547000000.0 1.026 -0.1976
5550000000.0 0.5075 -0.9369
5553000000.0 -0.4227 -0.9532
5556000000.0 -1.033 -0.2948
5559000000.0 -0.9088 0.5913
5562000000.0 -0.08753 1.056
5566000000.0 0.738 0.7347
5569000000.0 0.9875 -0.1078
5572000000.0 0.6021 -0.8493
5575000000.0 -0.2697 -0.9762
5578000000.0 -0.9117 -0.3959
5581000000.0 -0.8626 0.4605
5584000000.0 -0.2177 0.9505
5588000000.0 0.5807 0.7424
5591000000.0 0.9615 -0.004755
5594000000.0 0.5866 -0.708
5597000000.0 -0.1703 -0.9139
5600000000.0 -0.8178 -0.436
5603000000.0 -0.8264 0.3892
5606000000.0 -0.282 0.848
5609000000.0 0.4766 0.7442
5612000000.0 0.8448 0.07131
5616000000.0 0.6232 -0.6076
5619000000.0 -0.1118 -0.8383
5622000000.0 -0.7161 -0.4333
5625000000.0 -0.8045 0.2835
5628000000.0 -0.2731 0.8015
5631000000.0 0.441 0.7219
5634000000.0 0.8148 0.09016
5638000000.0 0.6212 -0.5654
5641000000.0 -0.07246 -0.8282
5644000000.0 -0.6937 -0.4608
5647000000.0 -0.8155 0.2842
5650000000.0 -0.31 0.802
5653000000.0 0.4186 0.7163
5656000000.0 0.8386 0.1024
5659000000.0 0.6253 -0.5944
5662000000.0 -0.08195 -0.8942
5666000000.0 -0.7345 -0.4779
5669000000.0 -0.8658 0.2478
5672000000.0 -0.3414 0.8204
5675000000.0 0.4694 0.8147
5678000000.0 0.9128 0.1397
5681000000.0 0.6774 -0.6381
5684000000.0 -0.06251 -0.9556
5688000000.0 -0.7722 -0.5339
5691000000.0 -0.9498 0.2502
5694000000.0 -0.3944 0.8771
5697000000.0 0.4174 0.9012
5700000000.0 0.9909 0.2265
5703000000.0 0.7874 -0.6544
5706000000.0 0.02554 -1.025
5709000000.0 -0.794 -0.6291
5712000000.0 -1.014 0.1863
5716000000.0 -0.49 0.9378
5719000000.0 0.3748 0.9887
5722000000.0 1.022 0.3534
5725000000.0 0.919 -0.5889
5728000000.0 0.1097 -1.084
5731000000.0 -0.7347 -0.7735
5734000000.0 -1.093 0.09009
5738000000.0 -0.6648 0.8581
5741000000.0 0.2604 1.073
5744000000.0 1.014 0.4906
5747000000.0 1.013 -0.4578
5750000000.0 0.2739 -1.051
5753000000.0 -0.644 -0.9397
5756000000.0 -1.149 -0.1087
5759000000.0 -0.7773 0.8193
5762000000.0 0.1279 1.137
5766000000.0 0.928 0.6451
5769000000.0 1.085 -0.3151
5772000000.0 0.4368 -0.9908
5775000000.0 -0.4615 -0.9728
5778000000.0 -1.091 -0.2245
5781000000.0 -0.8541 0.6671
5784000000.0 -0.07187 1.096
5788000000.0 0.8161 0.7118
5791000000.0 1.068 -0.1626
5794000000.0 0.5733 -0.9199
5797000000.0 -0.3232 -1.039
5800000000.0 -0.9969 -0.4099
5803000000.0 -0.9606 0.5191
5806000000.0 -0.1862 1.03
5809000000.0 0.6601 0.767
5812000000.0 1.07 0.01474
5816000000.0 0.625 -0.7742
5819000000.0 -0.2168 -1.01
5822000000.0 -0.8891 -0.469
5825000000.0 -0.8922 0.3709
5828000000.0 -0.2587 0.9592
5831000000.0 0.5689 0.8101
5834000000.0 0.9721 0.02943
5838000000.0 0.6432 -0.6862
5841000000.0 -0.1163 -0.9318
5844000000.0 -0.8226 -0.5171
5847000000.0 -0.8943 0.338
5850000000.0 -0.2725 0.8422
5853000000.0 0.4962 0.7851
5856000000.0 0.9057 0.115
5859000000.0 0.6196 -0.6262
5862000000.0 -0.1104 -0.8845
5866000000.0 -0.7901 -0.4829
5869000000.0 -0.8286 0.3232
5872000000.0 -0.315 0.8568
5875000000.0 0.4813 0.7614
5878000000.0 0.8654 0.09777
5881000000.0 0.6397 -0.6179
5884000000.0 -0.09946 -0.8617
5888000000.0 -0.7189 -0.4972
5891000000.0 -0.8378 0.2688
5894000000.0 -0.3337 0.8007
5897000000.0 0.4217 0.7567
5900000000.0 0.862 0.1213
5903000000.0 0.6558 -0.6006
5906000000.0 -0.03538 -0.876
5909000000.0 -0.6868 -0.5076
5912000000.0 -0.8437 0.2267
5916000000.0 -0.3813 0.8085
5919000000.0 0.3736 0.8064
5922000000.0 0.8532 0.221
5925000000.0 0.7126 -0.5219
5928000000.0 0.08115 -0.8647
5931000000.0 -0.6506 -0.605
5934000000.0 -0.8993 0.09037
5938000000.0 -0.5298 0.7461
5941000000.0 0.2783 0.8687
5944000000.0 0.832 0.347
5947000000.0 0.8044 -0.4639
5950000000.0 0.1845 -0.8957
5953000000.0 -0.5538 -0.7487
5956000000.0 -0.9319 0.0154
5959000000.0 -0.6109 0.6897
5962000000.0 0.102 0.9451
5966000000.0 0.8055 0.4625
5969000000.0 0.943 -0.304
5972000000.0 0.3433 -0.9052
5975000000.0 -0.459 -0.8686
5978000000.0 -0.965 -0.1561
5981000000.0 -0.7554 0.6395
5984000000.0 0.006449 1.014
5988000000.0 0.7893 0.6438
5991000000.0 1.001 -0.1889
5994000000.0 0.4822 -0.8774
5997000000.0 -0.372 -0.9627
6000000000.0 -0.9726 -0.317
6003000000.0 -0.8293 0.5439
6006000000.0 -0.1273 1.01
6009000000.0 0.6758 0.7131
6012000000.0 0.9882 -0.0578
6016000000.0 0.5538 -0.825
6019000000.0 -0.2686 -0.9175
6022000000.0 -0.8992 -0.3895
6025000000.0 -0.8453 0.4694
6028000000.0 -0.1911 0.9429
6031000000.0 0.6101 0.7423
6034000000.0 0.9884 0.00242
6038000000.0 0.6071 -0.7539
6041000000.0 -0.1927 -0.9186
6044000000.0 -0.8419 -0.4261
6047000000.0 -0.8563 0.3949
6050000000.0 -0.2627 0.9062
6053000000.0 0.5666 0.723
6056000000.0 0.9116 0.04269
6059000000.0 0.6224 -0.6761
6062000000.0 -0.1328 -0.8846
6066000000.0 -0.796 -0.4381
6069000000.0 -0.8224 0.3292
6072000000.0 -0.2489 0.817
6075000000.0 0.4704 0.7202
6078000000.0 0.8602 0.08923
6081000000.0 0.6166 -0.6052
6084000000.0 -0.09222 -0.8582
6088000000.0 -0.719 -0.4508
6091000000.0 -0.8262 0.3147
6094000000.0 -0.255 0.807
6097000000.0 0.4192 0.7575
6100000000.0 0.8293 0.1312
6103000000.0 0.6112 -0.5707
6106000000.0 -0.07136 -0.8497
6109000000.0 -0.7328 -0.4747
6112000000.0 -0.8255 0.2535
6116000000.0 -0.3577 0.817
6119000000.0 0.421 0.7597
6122000000.0 0.8735 0.1439
6125000000.0 0.6525 -0.5549
6128000000.0 -0.007989 -0.8898
6131000000.0 -0.72 -0.5225
6134000000.0 -0.8855 0.2314
6138000000.0 -0.3909 0.8234
6141000000.0 0.4328 0.7971
6144000000.0 0.8654 0.2166
6147000000.0 0.7182 -0.5686
6150000000.0 0.03488 -0.933
6153000000.0 -0.6674 -0.5914
6156000000.0 -0.9194 0.1818
6159000000.0 -0.4529 0.7793
6162000000.0 0.3492 0.8684
6166000000.0 0.8921 0.3015
6169000000.0 0.7966 -0.5046
6172000000.0 0.1086 -0.9661
6175000000.0 -0.6832 -0.6823
6178000000.0 -0.938 0.0964
6181000000.0 -0.5362 0.8243
6184000000.0 0.2493 0.9437
6188000000.0 0.8877 0.3793
6191000000.0 0.8615 -0.4682
6194000000.0 0.1827 -0.9338
6197000000.0 -0.6318 -0.7186
6200000000.0 -0.9466 0.017
6203000000.0 -0.5753 0.7039
6206000000.0 0.1807 0.9377
6209000000.0 0.8331 0.4959
6212000000.0 0.8769 -0.3566
6216000000.0 0.282 -0.8849
6219000000.0 -0.4984 -0.7654
6222000000.0 -0.9033 -0.09161
6225000000.0 -0.6535 0.613
6228000000.0 0.03885 0.8662
6231000000.0 0.7272 0.537
6234000000.0 0.8631 -0.2253
6238000000.0 0.366 -0.8012
6241000000.0 -0.4032 -0.8004
6244000000.0 -0.8453 -0.2136
6247000000.0 -0.7046 0.5238
6250000000.0 -0.08252 0.878
6253000000.0 0.6261 0.5572
6256000000.0 0.8165 -0.1236
6259000000.0 0.432 -0.7281
6262000000.0 -0.2489 -0.7861
6266000000.0 -0.7788 -0.3062
