! Created with skrf 1.8.0 (http://scikit-rf.org).
# Hz S RI R 50.0 
!freq ReS11 ImS11
4000000000.0 -0.1928 -1.496
4003000000.0 -1.275 -0.7951
4006000000.0 -1.4 0.4656
4009000000.0 -0.5259 1.369
4012000000.0 0.7622 1.328
4016000000.0 1.505 0.2592
4019000000.0 1.123 -1.052
4022000000.0 -0.08986 -1.543
4025000000.0 -1.292 -0.8916
4028000000.0 -1.504 0.4695
4031000000.0 -0.5539 1.529
4034000000.0 0.7933 1.436
4038000000.0 1.604 0.2334
4041000000.0 1.192 -1.075
4044000000.0 -0.1371 -1.622
4047000000.0 -1.324 -0.9312
4050000000.0 -1.571 0.4801
4053000000.0 -0.6526 1.496
4056000000.0 0.7156 1.421
4059000000.0 1.558 0.3029
4062000000.0 1.238 -1.012
4066000000.0 0.04684 -1.597
4069000000.0 -1.219 -1.047
4072000000.0 -1.629 0.2645
4075000000.0 -0.8237 1.393
4078000000.0 0.5659 1.575
4081000000.0 1.546 0.5889
4084000000.0 1.397 -0.8779
4088000000.0 0.2286 -1.658
4091000000.0 -1.12 -1.22
4094000000.0 -1.66 0.05822
4097000000.0 -0.9913 1.315
4100000000.0 0.3438 1.588
4103000000.0 1.42 0.74
4106000000.0 1.45 -0.6589
4109000000.0 0.4818 -1.52
4112000000.0 -0.8362 -1.32
4116000000.0 -1.538 -0.2276
4119000000.0 -1.154 1.005
4122000000.0 0.04209 1.509
4125000000.0 1.146 0.9516
4128000000.0 1.478 -0.2308
4131000000.0 0.8106 -1.274
4134000000.0 -0.4428 -1.431
4138000000.0 -1.363 -0.5959
4141000000.0 -1.347 0.668
4144000000.0 -0.3735 1.448
4147000000.0 0.8551 1.239
4150000000.0 1.527 0.145
4153000000.0 1.099 -1.086
4156000000.0 -0.1252 -1.514
4159000000.0 -1.235 -0.8805
4162000000.0 -1.479 0.3658
4166000000.0 -0.6554 1.378
4169000000.0 0.6265 1.381
4172000000.0 1.445 0.3893
4175000000.0 1.231 -0.8329
4178000000.0 0.1478 -1.529
4181000000.0 -1.065 -1.104
4184000000.0 -1.509 0.07972
4188000000.0 -0.8865 1.215
4191000000.0 0.3675 1.489
4194000000.0 1.434 0.6859
4197000000.0 1.388 -0.6545
4200000000.0 0.4112 -1.53
4203000000.0 -0.9748 -1.255
4206000000.0 -1.629 -0.05257
4209000000.0 -1.101 1.267
4212000000.0 0.3239 1.667
4216000000.0 1.472 0.7488
4219000000.0 1.536 -0.7535
4222000000.0 0.3324 -1.705
4225000000.0 -1.102 -1.275
4228000000.0 -1.695 0.1245
4231000000.0 -0.9083 1.377
4234000000.0 0.5232 1.6
4238000000.0 1.554 0.5441
4241000000.0 1.323 -0.9254
4244000000.0 0.1139 -1.625
4247000000.0 -1.217 -1.031
4250000000.0 -1.573 0.3326
4253000000.0 -0.7214 1.429
4256000000.0 0.6939 1.412
4259000000.0 1.53 0.313
4262000000.0 1.162 -1.0
4266000000.0 -0.0915 -1.489
4269000000.0 -1.232 -0.8512
4272000000.0 -1.433 0.4318
4275000000.0 -0.5552 1.376
4278000000.0 0.7445 1.219
4281000000.0 1.429 0.1729
4284000000.0 0.9654 -0.9725
4288000000.0 -0.1236 -1.381
4291000000.0 -1.158 -0.7693
4294000000.0 -1.274 0.4267
4297000000.0 -0.496 1.262
4300000000.0 0.6153 1.138
4303000000.0 1.284 0.2264
4306000000.0 1.03 -0.8147
4309000000.0 0.003976 -1.292
4312000000.0 -0.9676 -0.839
4316000000.0 -1.263 0.1871
4319000000.0 -0.6873 1.086
4322000000.0 0.3681 1.233
4325000000.0 1.21 0.5169
4328000000.0 1.205 -0.6255
4331000000.0 0.3096 -1.335
4334000000.0 -0.8693 -1.049
4338000000.0 -1.407 -0.03757
4341000000.0 -0.9498 1.009
4344000000.0 0.1977 1.428
4347000000.0 1.217 0.7623
4350000000.0 1.372 -0.4807
4353000000.0 0.5016 -1.354
4356000000.0 -0.7257 -1.255
4359000000.0 -1.454 -0.2506
4362000000.0 -1.092 0.9305
4366000000.0 0.008955 1.505
4369000000.0 1.146 0.94
4372000000.0 1.468 -0.2963
4375000000.0 0.7006 -1.31
4378000000.0 -0.5392 -1.399
4381000000.0 -1.433 -0.487
4384000000.0 -1.287 0.787
4388000000.0 -0.2065 1.532
4391000000.0 1.09 1.101
4394000000.0 1.561 -0.1239
4397000000.0 0.8925 -1.3
4400000000.0 -0.4963 -1.524
4403000000.0 -1.478 -0.5857
4406000000.0 -1.353 0.8391
4409000000.0 -0.1853 1.57
4412000000.0 1.112 1.122
4416000000.0 1.574 -0.1636
4419000000.0 0.8227 -1.312
4422000000.0 -0.5377 -1.452
4425000000.0 -1.443 -0.4789
4428000000.0 -1.22 0.8724
4431000000.0 -0.1238 1.433
4434000000.0 1.053 0.9939
4438000000.0 1.398 -0.2467
4441000000.0 0.6523 -1.243
4444000000.0 -0.5539 -1.292
4447000000.0 -1.31 -0.327
4450000000.0 -1.044 0.7987
4453000000.0 0.0003041 1.355
4456000000.0 1.046 0.7978
4459000000.0 1.233 -0.3529
4462000000.0 0.4849 -1.17
4466000000.0 -0.6449 -1.119
4469000000.0 -1.209 -0.1729
4472000000.0 -0.8733 0.8753
4475000000.0 0.1717 1.226
4478000000.0 1.017 0.6092
4481000000.0 1.105 -0.3846
4484000000.0 0.3408 -1.124
4488000000.0 -0.6574 -0.952
4491000000.0 -1.118 -0.08859
4494000000.0 -0.7798 0.8282
4497000000.0 0.1571 1.117
4500000000.0 0.9887 0.5498
4503000000.0 1.029 -0.3851
4506000000.0 0.3204 -1.074
4509000000.0 -0.6059 -0.9368
4512000000.0 -1.107 -0.1193
4516000000.0 -0.7822 0.7883
4519000000.0 0.1017 1.132
4522000000.0 0.9455 0.6216
4525000000.0 1.084 -0.3506
4528000000.0 0.4232 -1.075
4531000000.0 -0.5521 -1.003
4534000000.0 -1.127 -0.211
4538000000.0 -0.8928 0.7656
4541000000.0 0.03479 1.201
4544000000.0 0.9043 0.7289
4547000000.0 1.171 -0.2484
4550000000.0 0.5689 -1.077
4553000000.0 -0.4559 -1.112
4556000000.0 -1.161 -0.3858
4559000000.0 -1.042 0.6656
4562000000.0 -0.1534 1.202
4566000000.0 0.8563 0.927
4569000000.0 1.272 -0.02459
4572000000.0 0.7986 -1.002
4575000000.0 -0.276 -1.261
4578000000.0 -1.157 -0.619
4581000000.0 -1.211 0.5001
4584000000.0 -0.4005 1.266
4588000000.0 0.7386 1.128
4591000000.0 1.356 0.1501
4594000000.0 1.01 -0.9411
4597000000.0 -0.1339 -1.398
4600000000.0 -1.162 -0.807
4603000000.0 -1.349 0.3905
4606000000.0 -0.5768 1.256
4609000000.0 0.6417 1.242
4612000000.0 1.373 0.3219
4616000000.0 1.123 -0.8913
4619000000.0 0.02754 -1.385
4622000000.0 -1.05 -0.9117
4625000000.0 -1.364 0.2489
4628000000.0 -0.6873 1.194
4631000000.0 0.5086 1.265
4634000000.0 1.329 0.405
4638000000.0 1.14 -0.7717
4641000000.0 0.0952 -1.36
4644000000.0 -0.9914 -0.924
4647000000.0 -1.338 0.2065
4650000000.0 -0.6864 1.126
4653000000.0 0.4681 1.234
4656000000.0 1.243 0.3799
4659000000.0 1.081 -0.7528
4662000000.0 0.09066 -1.232
4666000000.0 -0.8977 -0.834
4669000000.0 -1.209 0.1944
4672000000.0 -0.5563 1.06
4675000000.0 0.4414 1.079
4678000000.0 1.14 0.3077
4681000000.0 0.9336 -0.673
4684000000.0 0.07131 -1.139
4688000000.0 -0.8201 -0.7609
4691000000.0 -1.116 0.2182
4694000000.0 -0.5593 0.9527
4697000000.0 0.4125 1.034
4700000000.0 1.061 0.3235
4703000000.0 0.8827 -0.6793
4706000000.0 0.04203 -1.081
4709000000.0 -0.8146 -0.6902
4712000000.0 -1.03 0.2337
4716000000.0 -0.4751 0.952
4719000000.0 0.4389 0.9479
4722000000.0 1.054 0.2636
4725000000.0 0.8273 -0.6327
4728000000.0 0.01556 -1.021
4731000000.0 -0.7951 -0.7124
4734000000.0 -1.004 0.1852
4738000000.0 -0.5056 0.8983
4741000000.0 0.3709 0.9718
4744000000.0 0.9638 0.3235
4747000000.0 0.8889 -0.5227
4750000000.0 0.1659 -1.045
4753000000.0 -0.7313 -0.8059
4756000000.0 -1.084 0.02441
4759000000.0 -0.6717 0.8869
4762000000.0 0.2366 1.072
4766000000.0 1.014 0.5501
4769000000.0 1.053 -0.4251
4772000000.0 0.3264 -1.1
4775000000.0 -0.6602 -1.001
4778000000.0 -1.173 -0.15
4781000000.0 -0.8455 0.8038
4784000000.0 0.09235 1.201
4788000000.0 0.951 0.7066
4791000000.0 1.188 -0.2665
4794000000.0 0.5352 -1.087
4797000000.0 -0.4528 -1.132
4800000000.0 -1.224 -0.3856
4803000000.0 -1.071 0.6368
4806000000.0 -0.1703 1.236
4809000000.0 0.8563 0.9361
4812000000.0 1.3 -0.05143
4816000000.0 0.8062 -1.018
4819000000.0 -0.2739 -1.305
4822000000.0 -1.179 -0.5858
4825000000.0 -1.282 0.5018
4828000000.0 -0.4075 1.314
4831000000.0 0.7511 1.129
4834000000.0 1.407 0.1201
4838000000.0 0.982 -0.9821
4841000000.0 -0.1489 -1.397
4844000000.0 -1.136 -0.777
4847000000.0 -1.321 0.4003
4850000000.0 -0.5255 1.284
4853000000.0 0.7 1.233
4856000000.0 1.349 0.2424
4859000000.0 1.032 -0.8935
4862000000.0 -0.02142 -1.342
4866000000.0 -1.036 -0.8436
4869000000.0 -1.28 0.278
4872000000.0 -0.5876 1.201
4875000000.0 0.5395 1.19
4878000000.0 1.282 0.3259
4881000000.0 1.041 -0.797
4884000000.0 0.01284 -1.288
4888000000.0 -0.9007 -0.8243
4891000000.0 -1.211 0.2281
4894000000.0 -0.5951 1.049
4897000000.0 0.4357 1.093
4900000000.0 1.084 0.3086
4903000000.0 0.9246 -0.6707
4906000000.0 0.08899 -1.09
4909000000.0 -0.7623 -0.7562
4912000000.0 -1.032 0.1159
4916000000.0 -0.5653 0.8781
4919000000.0 0.3275 0.9493
4922000000.0 0.9463 0.3394
4925000000.0 0.8535 -0.5374
4928000000.0 0.1333 -0.9628
4931000000.0 -0.6186 -0.6993
4934000000.0 -0.9637 0.04454
4938000000.0 -0.5557 0.7623
4941000000.0 0.1971 0.9015
4944000000.0 0.8551 0.4191
4947000000.0 0.875 -0.3875
4950000000.0 0.232 -0.9071
4953000000.0 -0.5564 -0.747
4956000000.0 -0.942 -0.03916
4959000000.0 -0.6447 0.7053
4962000000.0 0.1516 0.9647
4966000000.0 0.8496 0.4933
4969000000.0 0.9302 -0.3713
4972000000.0 0.3305 -0.9348
4975000000.0 -0.5638 -0.8418
4978000000.0 -0.9975 -0.1284
4981000000.0 -0.7473 0.7128
4984000000.0 0.09069 1.016
4988000000.0 0.8294 0.604
4991000000.0 1.069 -0.2682
4994000000.0 0.4651 -0.9813
4997000000.0 -0.45 -0.984
5000000000.0 -1.101 -0.3059
5003000000.0 -0.9224 0.6941
5006000000.0 -0.06626 1.16
5009000000.0 0.8625 0.8319
5012000000.0 1.196 -0.1469
5016000000.0 0.6724 -1.047
5019000000.0 -0.3673 -1.183
5022000000.0 -1.131 -0.4524
5025000000.0 -1.084 0.613
5028000000.0 -0.2211 1.272
5031000000.0 0.8189 0.9837
5034000000.0 1.26 -0.01098
5038000000.0 0.8241 -0.9957
5041000000.0 -0.2134 -1.259
5044000000.0 -1.112 -0.6308
5047000000.0 -1.197 0.4561
5050000000.0 -0.447 1.203
5053000000.0 0.6766 1.11
5056000000.0 1.283 0.2067
5059000000.0 0.9511 -0.8598
5062000000.0 -0.03594 -1.296
5066000000.0 -1.046 -0.8189
5069000000.0 -1.271 0.2692
5072000000.0 -0.6189 1.133
5075000000.0 0.5132 1.197
5078000000.0 1.247 0.3881
5081000000.0 1.066 -0.6939
5084000000.0 0.181 -1.256
5088000000.0 -0.8619 -0.8568
5091000000.0 -1.206 0.08193
5094000000.0 -0.6959 0.9603
5097000000.0 0.2847 1.141
5100000000.0 1.025 0.5462
5103000000.0 1.038 -0.4291
5106000000.0 0.3023 -1.033
5109000000.0 -0.6395 -0.9142
5112000000.0 -1.094 -0.143
5116000000.0 -0.7583 0.7459
5119000000.0 0.0707 1.061
5122000000.0 0.866 0.6385
5125000000.0 1.02 -0.2702
5128000000.0 0.4389 -0.9387
5131000000.0 -0.4447 -0.9247
5134000000.0 -0.9813 -0.2675
5138000000.0 -0.8309 0.5925
5141000000.0 -0.05746 0.9596
5144000000.0 0.7174 0.6796
5147000000.0 0.9505 -0.1486
5150000000.0 0.4537 -0.8183
5153000000.0 -0.3095 -0.8767
5156000000.0 -0.8859 -0.3294
5159000000.0 -0.8104 0.4794
5162000000.0 -0.1462 0.8813
5166000000.0 0.6063 0.6774
5169000000.0 0.8965 -0.02153
5172000000.0 0.5345 -0.7297
5175000000.0 -0.2083 -0.8556
5178000000.0 -0.8397 -0.3609
5181000000.0 -0.8228 0.4063
5184000000.0 -0.162 0.9064
5188000000.0 0.5459 0.693
5191000000.0 0.8946 -0.02883
5194000000.0 0.5535 -0.7795
5197000000.0 -0.1975 -0.9165
5200000000.0 -0.8622 -0.3851
5203000000.0 -0.8631 0.4164
5206000000.0 -0.1892 0.9279
5209000000.0 0.5924 0.743
5212000000.0 0.9715 -0.01044
5216000000.0 0.605 -0.7424
5219000000.0 -0.1971 -0.957
5222000000.0 -0.8905 -0.4657
5225000000.0 -0.8882 0.4102
5228000000.0 -0.2607 0.9579
5231000000.0 0.5821 0.8385
5234000000.0 1.029 0.06194
5238000000.0 0.7069 -0.7508
5241000000.0 -0.1333 -1.037
5244000000.0 -0.9035 -0.5402
5247000000.0 -0.9822 0.3429
5250000000.0 -0.3959 0.9797
5253000000.0 0.5094 0.9419
5256000000.0 1.072 0.1894
5259000000.0 0.848 -0.6836
5262000000.0 0.03618 -1.078
5266000000.0 -0.8302 -0.7136
5269000000.0 -1.066 0.1731
5272000000.0 -0.5368 0.9511
5275000000.0 0.3494 1.058
5278000000.0 1.034 0.4279
5281000000.0 0.9874 -0.52
5284000000.0 0.2491 -1.117
5288000000.0 -0.6747 -0.8681
5291000000.0 -1.095 -0.02582
5294000000.0 -0.7492 0.8079
5297000000.0 0.1587 1.092
5300000000.0 0.9413 0.6472
5303000000.0 1.078 -0.3119
5306000000.0 0.4756 -1.033
5309000000.0 -0.5068 -1.043
5312000000.0 -1.124 -0.2972
5316000000.0 -0.911 0.6448
5319000000.0 -0.1176 1.129
5322000000.0 0.8238 0.8038
5325000000.0 1.127 -0.1087
5328000000.0 0.6961 -0.9702
5331000000.0 -0.3087 -1.113
5334000000.0 -1.066 -0.4538
5338000000.0 -0.9868 0.5205
5341000000.0 -0.2448 1.107
5344000000.0 0.6713 0.9007
5347000000.0 1.147 0.0431
5350000000.0 0.7489 -0.8127
5353000000.0 -0.1636 -1.068
5356000000.0 -0.9423 -0.5771
5359000000.0 -1.036 0.3788
5362000000.0 -0.3667 1.029
5366000000.0 0.6011 0.9107
5369000000.0 1.034 0.1512
5372000000.0 0.7745 -0.7222
5375000000.0 -0.08947 -1.039
5378000000.0 -0.8741 -0.5569
5381000000.0 -0.9684 0.3127
5384000000.0 -0.3176 0.9549
5388000000.0 0.5315 0.8618
5391000000.0 0.9474 0.09694
5394000000.0 0.6646 -0.6968
5397000000.0 -0.08819 -0.9271
5400000000.0 -0.7832 -0.502
5403000000.0 -0.8371 0.2916
5406000000.0 -0.2876 0.8653
5409000000.0 0.4992 0.7509
5412000000.0 0.8646 0.08587
5416000000.0 0.5809 -0.6199
5419000000.0 -0.1 -0.8718
5422000000.0 -0.7486 -0.447
5425000000.0 -0.8243 0.2942
5428000000.0 -0.2662 0.8175
5431000000.0 0.4936 0.7129
5434000000.0 0.8661 0.06451
5438000000.0 0.6321 -0.6683
5441000000.0 -0.1279 -0.8885
5444000000.0 -0.7716 -0.4314
5447000000.0 -0.8206 0.3143
5450000000.0 -0.2752 0.854
5453000000.0 0.4663 0.7646
5456000000.0 0.9161 0.09335
5459000000.0 0.6585 -0.5958
5462000000.0 -0.08486 -0.8936
5466000000.0 -0.7389 -0.5077
5469000000.0 -0.8746 0.2228
5472000000.0 -0.3799 0.8417
5475000000.0 0.3869 0.858
5478000000.0 0.9229 0.2359
5481000000.0 0.7554 -0.551
5484000000.0 0.1076 -0.9442
5488000000.0 -0.7076 -0.6406
5491000000.0 -0.9925 0.1093
5494000000.0 -0.553 0.821
5497000000.0 0.2667 0.9646
5500000000.0 0.9339 0.4086
5503000000.0 0.8967 -0.4754
5506000000.0 0.2439 -0.9903
5509000000.0 -0.5632 -0.8006
5512000000.0 -1.022 -0.07393
5516000000.0 -0.7183 0.7481
5519000000.0 0.1221 1.039
5522000000.0 0.8751 0.5579
5525000000.0 0.9766 -0.2687
5528000000.0 0.4374 -0.9431
5531000000.0 -0.4559 -0.9855
5534000000.0 -1.012 -0.2829
5538000000.0 -0.8506 0.6015
5541000000.0 -0.08599 1.094
5544000000.0 0.7805 0.7656
5547000000.0 1.113 -0.1079
5550000000.0 0.5845 -0.8796
5553000000.0 -0.2913 -1.039
5556000000.0 -0.9716 -0.4677
5559000000.0 -0.9877 0.4443
5562000000.0 -0.2313 1.014
5566000000.0 0.6243 0.8589
5569000000.0 1.043 0.08436
5572000000.0 0.6866 -0.733
5575000000.0 -0.1564 -1.04
5578000000.0 -0.8886 -0.5608
5581000000.0 -0.9529 0.3218
5584000000.0 -0.344 0.9243
5588000000.0 0.4889 0.8374
5591000000.0 0.9807 0.1842
5594000000.0 0.6986 -0.6104
5597000000.0 -0.02191 -0.9656
5600000000.0 -0.7434 -0.5551
5603000000.0 -0.8898 0.2022
5606000000.0 -0.4135 0.8162
5609000000.0 0.3586 0.8195
5612000000.0 0.8464 0.2144
5616000000.0 0.701 -0.4949
5619000000.0 0.04635 -0.8507
5622000000.0 -0.639 -0.5747
5625000000.0 -0.8374 0.1166
5628000000.0 -0.4274 0.744
5631000000.0 0.3371 0.8088
5634000000.0 0.8046 0.2582
5638000000.0 0.6857 -0.447
5641000000.0 0.08507 -0.8454
5644000000.0 -0.6049 -0.5955
5647000000.0 -0.844 0.1031
5650000000.0 -0.4512 0.7329
5653000000.0 0.3048 0.7916
5656000000.0 0.8056 0.2672
5659000000.0 0.7168 -0.4725
5662000000.0 0.09388 -0.8725
5666000000.0 -0.6178 -0.5937
5669000000.0 -0.868 0.1089
5672000000.0 -0.4798 0.7492
5675000000.0 0.2902 0.8371
5678000000.0 0.8702 0.2909
5681000000.0 0.7799 -0.5117
5684000000.0 0.1365 -0.924
5688000000.0 -0.6672 -0.6888
5691000000.0 -0.9477 0.1298
5694000000.0 -0.5564 0.7866
5697000000.0 0.3167 0.9286
5700000000.0 0.9431 0.3352
5703000000.0 0.8666 -0.4998
5706000000.0 0.2217 -0.9751
5709000000.0 -0.6853 -0.7685
5712000000.0 -1.02 0.04227
5716000000.0 -0.6226 0.8366
5719000000.0 0.2182 1.029
5722000000.0 0.9589 0.5046
5725000000.0 0.971 -0.4127
5728000000.0 0.3025 -1.011
5731000000.0 -0.57 -0.8774
5734000000.0 -1.046 -0.09548
5738000000.0 -0.7825 0.7826
5741000000.0 0.1185 1.093
5744000000.0 0.933 0.622
5747000000.0 1.052 -0.3105
5750000000.0 0.442 -1.015
5753000000.0 -0.4764 -0.9895
5756000000.0 -1.047 -0.2757
5759000000.0 -0.9011 0.6324
5762000000.0 -0.09671 1.112
5766000000.0 0.7859 0.7996
5769000000.0 1.115 -0.08927
5772000000.0 0.5877 -0.9192
5775000000.0 -0.3195 -1.047
5778000000.0 -1.034 -0.4253
5781000000.0 -0.9481 0.4871
5784000000.0 -0.2687 1.068
5788000000.0 0.6468 0.8575
5791000000.0 1.093 0.04411
5794000000.0 0.7122 -0.8012
5797000000.0 -0.1574 -1.064
5800000000.0 -0.9022 -0.5562
5803000000.0 -1.033 0.3463
5806000000.0 -0.4046 0.9741
5809000000.0 0.5025 0.9429
5812000000.0 1.024 0.1925
5816000000.0 0.7742 -0.6458
5819000000.0 -0.004235 -1.016
5822000000.0 -0.7899 -0.6492
5825000000.0 -1.021 0.2277
5828000000.0 -0.4801 0.9049
5831000000.0 0.4153 0.9196
5834000000.0 0.9763 0.2825
5838000000.0 0.7957 -0.5862
5841000000.0 0.08448 -0.9501
5844000000.0 -0.706 -0.6761
5847000000.0 -0.9361 0.1296
5850000000.0 -0.4879 0.8156
5853000000.0 0.3299 0.8945
5856000000.0 0.909 0.2965
5859000000.0 0.7712 -0.4914
5862000000.0 0.1094 -0.9286
5866000000.0 -0.6477 -0.6479
5869000000.0 -0.9277 0.0936
5872000000.0 -0.4774 0.7453
5875000000.0 0.3015 0.8554
5878000000.0 0.8278 0.3072
5881000000.0 0.7647 -0.4581
5884000000.0 0.1035 -0.8796
5888000000.0 -0.6179 -0.6139
5891000000.0 -0.8671 0.1014
5894000000.0 -0.4908 0.7187
5897000000.0 0.2092 0.8089
5900000000.0 0.7859 0.3303
5903000000.0 0.7619 -0.3965
5906000000.0 0.1638 -0.8643
5909000000.0 -0.5791 -0.6937
5912000000.0 -0.8499 0.03326
5916000000.0 -0.5244 0.6941
5919000000.0 0.1518 0.8646
5922000000.0 0.7749 0.3867
5925000000.0 0.8108 -0.3783
5928000000.0 0.2473 -0.8365
5931000000.0 -0.4611 -0.7212
5934000000.0 -0.8897 -0.0769
5938000000.0 -0.61 0.6084
5941000000.0 0.1001 0.8947
5944000000.0 0.7348 0.5214
5947000000.0 0.8702 -0.2669
5950000000.0 0.3732 -0.8232
5953000000.0 -0.4259 -0.7947
5956000000.0 -0.893 -0.223
5959000000.0 -0.7262 0.5519
5962000000.0 -0.05981 0.9449
5966000000.0 0.6824 0.6736
5969000000.0 0.936 -0.09924
5972000000.0 0.5488 -0.7968
5975000000.0 -0.2693 -0.8873
5978000000.0 -0.8963 -0.3721
5981000000.0 -0.8686 0.4363
5984000000.0 -0.1896 0.97
5988000000.0 0.5872 0.8121
5991000000.0 0.9862 0.07496
5994000000.0 0.6731 -0.772
5997000000.0 -0.1523 -0.9987
6000000000.0 -0.8737 -0.5331
6003000000.0 -0.9204 0.3342
6006000000.0 -0.373 0.9241
6009000000.0 0.5196 0.8841
6012000000.0 1.008 0.188
6016000000.0 0.7687 -0.6509
6019000000.0 -0.02864 -1.029
6022000000.0 -0.7907 -0.6255
6025000000.0 -0.9586 0.2156
6028000000.0 -0.4493 0.8954
6031000000.0 0.397 0.917
6034000000.0 0.9542 0.2616
6038000000.0 0.8257 -0.582
6041000000.0 0.0641 -0.9575
6044000000.0 -0.6964 -0.6789
6047000000.0 -0.9521 0.106
6050000000.0 -0.4969 0.827
6053000000.0 0.3072 0.882
6056000000.0 0.8776 0.3404
6059000000.0 0.7887 -0.4775
6062000000.0 0.1144 -0.9369
6066000000.0 -0.626 -0.648
6069000000.0 -0.8762 0.06168
6072000000.0 -0.4878 0.7403
6075000000.0 0.2707 0.8721
6078000000.0 0.819 0.331
6081000000.0 0.8061 -0.4273
6084000000.0 0.1493 -0.8704
6088000000.0 -0.5877 -0.6574
6091000000.0 -0.8573 0.04299
6094000000.0 -0.532 0.6958
6097000000.0 0.2194 0.8209
6100000000.0 0.7767 0.3686
6103000000.0 0.7709 -0.3962
6106000000.0 0.186 -0.8262
6109000000.0 -0.5361 -0.6493
6112000000.0 -0.8677 -0.03403
6116000000.0 -0.5669 0.676
6119000000.0 0.163 0.8611
6122000000.0 0.7529 0.3979
6125000000.0 0.7967 -0.3523
6128000000.0 0.2326 -0.847
6131000000.0 -0.4947 -0.7006
6134000000.0 -0.8607 -0.04321
6138000000.0 -0.5703 0.6305
6141000000.0 0.1367 0.8572
6144000000.0 0.7341 0.4401
6147000000.0 0.8424 -0.3166
6150000000.0 0.276 -0.8197
6153000000.0 -0.454 -0.7506
6156000000.0 -0.9062 -0.1444
6159000000.0 -0.6669 0.5864
6162000000.0 0.05595 0.885
6166000000.0 0.7377 0.5309
6169000000.0 0.9026 -0.231
6172000000.0 0.3535 -0.8233
6175000000.0 -0.4204 -0.8601
6178000000.0 -0.9175 -0.1875
6181000000.0 -0.728 0.5764
6184000000.0 -0.03731 0.9254
6188000000.0 0.7193 0.5976
6191000000.0 0.9497 -0.1912
6194000000.0 0.4475 -0.8155
6197000000.0 -0.343 -0.8737
6200000000.0 -0.8819 -0.2736
6203000000.0 -0.7964 0.5046
6206000000.0 -0.1096 0.9206
6209000000.0 0.6169 0.673
6212000000.0 0.9392 -0.07445
6216000000.0 0.5043 -0.7544
6219000000.0 -0.2449 -0.8904
6222000000.0 -0.8424 -0.4032
6225000000.0 -0.8368 0.3511
6228000000.0 -0.2273 0.8594
6231000000.0 0.5106 0.7191
6234000000.0 0.88 0.09819
6238000000.0 0.623 -0.6577
6241000000.0 -0.1158 -0.8774
6244000000.0 -0.73 -0.4787
6247000000.0 -0.8493 0.2574
6250000000.0 -0.3349 0.7918
6253000000.0 0.4114 0.7318
6256000000.0 0.8479 0.1555
6259000000.0 0.6596 -0.5095
6262000000.0 0.04735 -0.8281
6266000000.0 -0.6278 -0.5621
6269000000.0 -0.8336 0.09812
