! Created with skrf 1.8.0 (http://scikit-rf.org).
# Hz S RI R 50.0 
!freq ReS11 ImS11
4000000000.0 -0.1806 -1.54
4003000000.0 -1.238 -0.8711
4006000000.0 -1.418 0.504
4009000000.0 -0.515 1.424
4012000000.0 0.7599 1.365
4016000000.0 1.536 0.2022
4019000000.0 1.09 -1.03
4022000000.0 -0.1104 -1.558
4025000000.0 -1.328 -0.8938
4028000000.0 -1.547 0.4487
4031000000.0 -0.6302 1.478
4034000000.0 0.8438 1.424
4038000000.0 1.621 0.2605
4041000000.0 1.188 -1.053
4044000000.0 -0.1191 -1.592
4047000000.0 -1.357 -0.9234
4050000000.0 -1.558 0.4493
4053000000.0 -0.6231 1.503
4056000000.0 0.7655 1.431
4059000000.0 1.615 0.3394
4062000000.0 1.251 -0.9725
4066000000.0 0.0129 -1.59
4069000000.0 -1.21 -1.068
4072000000.0 -1.589 0.2833
4075000000.0 -0.8298 1.385
4078000000.0 0.5642 1.503
4081000000.0 1.562 0.5594
4084000000.0 1.385 -0.8375
4088000000.0 0.2355 -1.657
4091000000.0 -1.088 -1.205
4094000000.0 -1.632 0.06058
4097000000.0 -0.9997 1.311
4100000000.0 0.3949 1.564
4103000000.0 1.447 0.7139
4106000000.0 1.442 -0.6428
4109000000.0 0.4336 -1.494
4112000000.0 -0.8373 -1.261
4116000000.0 -1.51 -0.1838
4119000000.0 -1.133 1.019
4122000000.0 0.0346 1.483
4125000000.0 1.144 0.9446
4128000000.0 1.444 -0.2197
4131000000.0 0.7567 -1.244
4134000000.0 -0.4442 -1.442
4138000000.0 -1.341 -0.5947
4141000000.0 -1.334 0.6576
4144000000.0 -0.3926 1.473
4147000000.0 0.8526 1.238
4150000000.0 1.508 0.1676
4153000000.0 1.082 -1.086
4156000000.0 -0.1324 -1.517
4159000000.0 -1.278 -0.8843
4162000000.0 -1.436 0.372
4166000000.0 -0.6777 1.34
4169000000.0 0.6357 1.354
4172000000.0 1.441 0.4309
4175000000.0 1.262 -0.843
4178000000.0 0.1653 -1.486
4181000000.0 -1.053 -1.097
4184000000.0 -1.463 0.1258
4188000000.0 -0.896 1.258
4191000000.0 0.3686 1.501
4194000000.0 1.385 0.6544
4197000000.0 1.414 -0.6469
4200000000.0 0.407 -1.503
4203000000.0 -0.9408 -1.262
4206000000.0 -1.611 -0.06348
4209000000.0 -1.047 1.257
4212000000.0 0.3592 1.591
4216000000.0 1.521 0.7143
4219000000.0 1.498 -0.7191
4222000000.0 0.2995 -1.65
4225000000.0 -1.129 -1.287
4228000000.0 -1.718 0.07788
4231000000.0 -0.9314 1.361
4234000000.0 0.5562 1.56
4238000000.0 1.551 0.5219
4241000000.0 1.353 -0.9257
4244000000.0 0.0748 -1.602
4247000000.0 -1.217 -1.007
4250000000.0 -1.567 0.3416
4253000000.0 -0.6926 1.402
4256000000.0 0.6954 1.383
4259000000.0 1.481 0.2826
4262000000.0 1.158 -1.006
4266000000.0 -0.07161 -1.492
4269000000.0 -1.233 -0.8073
4272000000.0 -1.453 0.4086
4275000000.0 -0.5102 1.383
4278000000.0 0.7452 1.218
4281000000.0 1.419 0.175
4284000000.0 0.9933 -1.026
4288000000.0 -0.1657 -1.402
4291000000.0 -1.177 -0.7364
4294000000.0 -1.267 0.4366
4297000000.0 -0.463 1.262
4300000000.0 0.6771 1.139
4303000000.0 1.256 0.2542
4306000000.0 0.9457 -0.8407
4309000000.0 0.02993 -1.319
4312000000.0 -0.9714 -0.8328
4316000000.0 -1.304 0.1951
4319000000.0 -0.6764 1.105
4322000000.0 0.4105 1.227
4325000000.0 1.193 0.499
4328000000.0 1.178 -0.6245
4331000000.0 0.2586 -1.318
4334000000.0 -0.8422 -1.053
4338000000.0 -1.36 -0.02474
4341000000.0 -0.9071 0.9826
4344000000.0 0.2211 1.396
4347000000.0 1.227 0.7497
4350000000.0 1.33 -0.4489
4353000000.0 0.4833 -1.349
4356000000.0 -0.745 -1.239
4359000000.0 -1.447 -0.2514
4362000000.0 -1.084 0.9414
4366000000.0 0.02355 1.49
4369000000.0 1.107 0.8972
4372000000.0 1.398 -0.2762
4375000000.0 0.6972 -1.307
4378000000.0 -0.548 -1.42
4381000000.0 -1.464 -0.4764
4384000000.0 -1.276 0.798
4388000000.0 -0.1807 1.565
4391000000.0 1.103 1.092
4394000000.0 1.575 -0.1504
4397000000.0 0.8767 -1.33
4400000000.0 -0.4772 -1.524
4403000000.0 -1.507 -0.5032
4406000000.0 -1.322 0.8366
4409000000.0 -0.186 1.563
4412000000.0 1.109 1.103
4416000000.0 1.558 -0.2418
4419000000.0 0.7907 -1.34
4422000000.0 -0.5491 -1.421
4425000000.0 -1.463 -0.4434
4428000000.0 -1.203 0.8414
4431000000.0 -0.08263 1.444
4434000000.0 1.071 0.9347
4438000000.0 1.394 -0.2397
4441000000.0 0.6072 -1.235
4444000000.0 -0.5578 -1.226
4447000000.0 -1.317 -0.3101
4450000000.0 -1.047 0.8752
4453000000.0 0.01463 1.334
4456000000.0 1.06 0.7656
4459000000.0 1.264 -0.3499
4462000000.0 0.4546 -1.169
4466000000.0 -0.6589 -1.044
4469000000.0 -1.195 -0.142
4472000000.0 -0.8342 0.8885
4475000000.0 0.1614 1.172
4478000000.0 1.001 0.6165
4481000000.0 1.089 -0.4087
4484000000.0 0.3563 -1.063
4488000000.0 -0.6473 -0.9336
4491000000.0 -1.109 -0.0487
4494000000.0 -0.751 0.8304
4497000000.0 0.1444 1.109
4500000000.0 0.9913 0.5485
4503000000.0 1.019 -0.3962
4506000000.0 0.3078 -1.064
4509000000.0 -0.6011 -0.9032
4512000000.0 -1.098 -0.09725
4516000000.0 -0.7857 0.8012
4519000000.0 0.1345 1.095
4522000000.0 0.9507 0.6186
4525000000.0 1.09 -0.3659
4528000000.0 0.4111 -1.045
4531000000.0 -0.5828 -1.01
4534000000.0 -1.14 -0.1682
4538000000.0 -0.8796 0.7943
4541000000.0 0.03921 1.199
4544000000.0 0.9162 0.736
4547000000.0 1.174 -0.2775
4550000000.0 0.5531 -1.064
4553000000.0 -0.4667 -1.137
4556000000.0 -1.167 -0.3761
4559000000.0 -1.031 0.6675
4562000000.0 -0.1932 1.251
4566000000.0 0.8376 0.9158
4569000000.0 1.257 -0.04411
4572000000.0 0.7827 -1.034
4575000000.0 -0.2938 -1.266
4578000000.0 -1.172 -0.6002
4581000000.0 -1.212 0.5052
4584000000.0 -0.3917 1.295
4588000000.0 0.7235 1.16
4591000000.0 1.345 0.1646
4594000000.0 0.9724 -0.9469
4597000000.0 -0.123 -1.369
4600000000.0 -1.136 -0.8006
4603000000.0 -1.333 0.3857
4606000000.0 -0.5388 1.28
4609000000.0 0.626 1.245
4612000000.0 1.366 0.267
4616000000.0 1.112 -0.8651
4619000000.0 0.007447 -1.408
4622000000.0 -1.084 -0.8825
4625000000.0 -1.368 0.2345
4628000000.0 -0.6606 1.227
4631000000.0 0.5178 1.269
4634000000.0 1.324 0.4188
4638000000.0 1.11 -0.8053
4641000000.0 0.1038 -1.345
4644000000.0 -0.9862 -0.9232
4647000000.0 -1.342 0.2019
4650000000.0 -0.6594 1.148
4653000000.0 0.4804 1.238
4656000000.0 1.254 0.3712
4659000000.0 1.062 -0.7209
4662000000.0 0.07179 -1.26
4666000000.0 -0.8965 -0.789
4669000000.0 -1.21 0.2068
4672000000.0 -0.6019 1.082
4675000000.0 0.4731 1.11
4678000000.0 1.133 0.2973
4681000000.0 0.9791 -0.6849
4684000000.0 0.05602 -1.115
4688000000.0 -0.8637 -0.7088
4691000000.0 -1.08 0.1885
4694000000.0 -0.4942 0.9826
4697000000.0 0.4129 0.9987
4700000000.0 1.067 0.2909
4703000000.0 0.9027 -0.6358
4706000000.0 0.03342 -1.076
4709000000.0 -0.8073 -0.6699
4712000000.0 -1.035 0.2253
4716000000.0 -0.4852 0.9667
4719000000.0 0.4698 0.9515
4722000000.0 1.038 0.2313
4725000000.0 0.8336 -0.6258
4728000000.0 0.02738 -1.061
4731000000.0 -0.7922 -0.6839
4734000000.0 -1.017 0.1567
4738000000.0 -0.5209 0.924
4741000000.0 0.3537 0.9683
4744000000.0 0.9847 0.344
4747000000.0 0.929 -0.5337
4750000000.0 0.1297 -1.067
4753000000.0 -0.7361 -0.7931
4756000000.0 -1.1 -0.0004652
4759000000.0 -0.6398 0.8442
4762000000.0 0.2424 1.091
4766000000.0 0.9843 0.4855
4769000000.0 1.078 -0.458
4772000000.0 0.3309 -1.11
4775000000.0 -0.6462 -0.97
4778000000.0 -1.157 -0.1408
4781000000.0 -0.8473 0.8058
4784000000.0 0.09115 1.191
4788000000.0 0.9918 0.7007
4791000000.0 1.193 -0.2691
4794000000.0 0.5404 -1.099
4797000000.0 -0.4723 -1.132
4800000000.0 -1.234 -0.3893
4803000000.0 -1.055 0.6779
4806000000.0 -0.1831 1.249
4809000000.0 0.8589 0.9323
4812000000.0 1.292 -0.04414
4816000000.0 0.8074 -1.021
4819000000.0 -0.2814 -1.289
4822000000.0 -1.201 -0.6167
4825000000.0 -1.233 0.5325
4828000000.0 -0.3975 1.314
4831000000.0 0.7679 1.128
4834000000.0 1.362 0.1635
4838000000.0 0.9665 -0.97
4841000000.0 -0.1559 -1.382
4844000000.0 -1.175 -0.7558
4847000000.0 -1.331 0.4428
4850000000.0 -0.5326 1.284
4853000000.0 0.6684 1.197
4856000000.0 1.366 0.2719
4859000000.0 1.045 -0.8788
4862000000.0 -0.02851 -1.365
4866000000.0 -1.068 -0.8195
4869000000.0 -1.305 0.3239
4872000000.0 -0.5915 1.2
4875000000.0 0.5561 1.168
4878000000.0 1.255 0.3241
4881000000.0 0.996 -0.7515
4884000000.0 0.04735 -1.256
4888000000.0 -0.9363 -0.8148
4891000000.0 -1.167 0.2109
4894000000.0 -0.5651 1.046
4897000000.0 0.4596 1.097
4900000000.0 1.097 0.3223
4903000000.0 0.9164 -0.649
4906000000.0 0.0781 -1.07
4909000000.0 -0.8058 -0.7474
4912000000.0 -1.027 0.1591
4916000000.0 -0.5375 0.8739
4919000000.0 0.3487 0.9439
4922000000.0 0.9332 0.3502
4925000000.0 0.8297 -0.5193
4928000000.0 0.1383 -0.9429
4931000000.0 -0.659 -0.7196
4934000000.0 -0.9286 0.02202
4938000000.0 -0.574 0.7721
4941000000.0 0.249 0.9141
4944000000.0 0.8503 0.4055
4947000000.0 0.8755 -0.4124
4950000000.0 0.2371 -0.9287
4953000000.0 -0.5657 -0.7454
4956000000.0 -0.9479 -0.01088
4959000000.0 -0.6299 0.7038
4962000000.0 0.1828 0.9507
4966000000.0 0.8525 0.503
4969000000.0 0.9096 -0.3501
4972000000.0 0.3014 -0.9532
4975000000.0 -0.5485 -0.833
4978000000.0 -1.013 -0.1297
4981000000.0 -0.7338 0.6827
4984000000.0 0.09087 1.034
4988000000.0 0.8777 0.5993
4991000000.0 1.038 -0.2662
4994000000.0 0.4417 -0.9991
4997000000.0 -0.4703 -0.9986
5000000000.0 -1.071 -0.2863
5003000000.0 -0.9346 0.6828
5006000000.0 -0.07724 1.16
5009000000.0 0.8445 0.8053
5012000000.0 1.187 -0.1416
5016000000.0 0.6676 -1.058
5019000000.0 -0.3704 -1.169
5022000000.0 -1.15 -0.4658
5025000000.0 -1.092 0.6145
5028000000.0 -0.2152 1.256
5031000000.0 0.8296 0.9749
5034000000.0 1.276 -0.0261
5038000000.0 0.7801 -0.9869
5041000000.0 -0.2632 -1.291
5044000000.0 -1.142 -0.6066
5047000000.0 -1.206 0.4737
5050000000.0 -0.4228 1.218
5053000000.0 0.6516 1.091
5056000000.0 1.305 0.1965
5059000000.0 0.9643 -0.886
5062000000.0 -0.03959 -1.274
5066000000.0 -1.015 -0.7936
5069000000.0 -1.229 0.2624
5072000000.0 -0.5998 1.162
5075000000.0 0.5223 1.175
5078000000.0 1.222 0.3678
5081000000.0 1.046 -0.6941
5084000000.0 0.1315 -1.231
5088000000.0 -0.8351 -0.8883
5091000000.0 -1.188 0.07853
5094000000.0 -0.6863 0.9757
5097000000.0 0.2841 1.176
5100000000.0 1.03 0.5152
5103000000.0 1.004 -0.4731
5106000000.0 0.3347 -1.092
5109000000.0 -0.6257 -0.9147
5112000000.0 -1.035 -0.1221
5116000000.0 -0.8028 0.7507
5119000000.0 0.08911 1.043
5122000000.0 0.842 0.618
5125000000.0 1.005 -0.2868
5128000000.0 0.4517 -0.9107
5131000000.0 -0.4421 -0.9065
5134000000.0 -0.9481 -0.269
5138000000.0 -0.7918 0.5836
5141000000.0 -0.02726 0.9877
5144000000.0 0.7189 0.6565
5147000000.0 0.9404 -0.1189
5150000000.0 0.4807 -0.7945
5153000000.0 -0.3151 -0.9175
5156000000.0 -0.8614 -0.3085
5159000000.0 -0.8208 0.4821
5162000000.0 -0.1146 0.8928
5166000000.0 0.647 0.6752
5169000000.0 0.884 -0.06916
5172000000.0 0.5385 -0.7291
5175000000.0 -0.2449 -0.8574
5178000000.0 -0.8455 -0.3469
5181000000.0 -0.8315 0.4256
5184000000.0 -0.1549 0.8997
5188000000.0 0.604 0.6752
5191000000.0 0.9445 -0.03879
5194000000.0 0.5669 -0.7488
5197000000.0 -0.2541 -0.9007
5200000000.0 -0.8929 -0.3687
5203000000.0 -0.8458 0.4375
5206000000.0 -0.1907 0.9337
5209000000.0 0.5778 0.7348
5212000000.0 0.957 0.004261
5216000000.0 0.6156 -0.7881
5219000000.0 -0.2218 -0.9708
5222000000.0 -0.8762 -0.4306
5225000000.0 -0.9068 0.4104
5228000000.0 -0.2335 0.9807
5231000000.0 0.6146 0.7996
5234000000.0 1.008 0.0582
5238000000.0 0.7054 -0.7647
5241000000.0 -0.1445 -1.057
5244000000.0 -0.9002 -0.5433
5247000000.0 -1.011 0.3518
5250000000.0 -0.3713 0.9921
5253000000.0 0.5181 0.947
5256000000.0 1.063 0.1988
5259000000.0 0.8267 -0.6814
5262000000.0 -0.005623 -1.096
5266000000.0 -0.8296 -0.6899
5269000000.0 -1.087 0.1894
5272000000.0 -0.5655 0.9237
5275000000.0 0.3865 1.043
5278000000.0 1.013 0.3502
5281000000.0 0.9591 -0.5233
5284000000.0 0.2107 -1.108
5288000000.0 -0.697 -0.8479
5291000000.0 -1.125 -0.0398
5294000000.0 -0.7642 0.8048
5297000000.0 0.1233 1.126
5300000000.0 0.952 0.6234
5303000000.0 1.104 -0.3423
5306000000.0 0.4384 -1.042
5309000000.0 -0.5041 -1.021
5312000000.0 -1.106 -0.2773
5316000000.0 -0.9474 0.6562
5319000000.0 -0.08461 1.158
5322000000.0 0.8402 0.8299
5325000000.0 1.133 -0.1425
5328000000.0 0.6393 -0.9803
5331000000.0 -0.3032 -1.118
5334000000.0 -1.033 -0.4451
5338000000.0 -1.016 0.5195
5341000000.0 -0.2375 1.096
5344000000.0 0.6551 0.9084
5347000000.0 1.071 0.05247
5350000000.0 0.7423 -0.8237
5353000000.0 -0.1836 -1.087
5356000000.0 -0.9508 -0.5395
5359000000.0 -1.011 0.4057
5362000000.0 -0.3712 1.037
5366000000.0 0.5815 0.8877
5369000000.0 1.049 0.1017
5372000000.0 0.7664 -0.7804
5375000000.0 -0.1051 -1.014
5378000000.0 -0.8865 -0.5377
5381000000.0 -0.9361 0.3442
5384000000.0 -0.3317 0.9477
5388000000.0 0.5474 0.815
5391000000.0 0.9699 0.1052
5394000000.0 0.6764 -0.6941
5397000000.0 -0.0871 -0.9401
5400000000.0 -0.7713 -0.4556
5403000000.0 -0.8416 0.3269
5406000000.0 -0.2757 0.8615
5409000000.0 0.4789 0.7447
5412000000.0 0.8824 0.05604
5416000000.0 0.6054 -0.6241
5419000000.0 -0.139 -0.8552
5422000000.0 -0.7574 -0.4217
5425000000.0 -0.7928 0.3116
5428000000.0 -0.2623 0.8324
5431000000.0 0.5012 0.7249
5434000000.0 0.853 0.08393
5438000000.0 0.5865 -0.6493
5441000000.0 -0.1284 -0.8721
5444000000.0 -0.7522 -0.4294
5447000000.0 -0.8248 0.2982
5450000000.0 -0.2725 0.8563
5453000000.0 0.4818 0.7318
5456000000.0 0.8771 0.1197
5459000000.0 0.6472 -0.6448
5462000000.0 -0.07818 -0.9237
5466000000.0 -0.7278 -0.5211
5469000000.0 -0.9149 0.2654
5472000000.0 -0.3909 0.8694
5475000000.0 0.3918 0.815
5478000000.0 0.9107 0.2465
5481000000.0 0.7674 -0.5845
5484000000.0 0.05833 -0.9533
5488000000.0 -0.7136 -0.6812
5491000000.0 -0.9786 0.1451
5494000000.0 -0.5301 0.819
5497000000.0 0.2931 0.9306
5500000000.0 0.9193 0.403
5503000000.0 0.8991 -0.4669
5506000000.0 0.1833 -0.9861
5509000000.0 -0.6125 -0.8161
5512000000.0 -1.052 -0.06073
5516000000.0 -0.7114 0.7808
5519000000.0 0.1253 1.022
5522000000.0 0.8579 0.5609
5525000000.0 0.9922 -0.2928
5528000000.0 0.4104 -0.9401
5531000000.0 -0.4903 -0.9491
5534000000.0 -1.025 -0.2731
5538000000.0 -0.8532 0.6295
5541000000.0 -0.09035 1.024
5544000000.0 0.7622 0.7444
5547000000.0 1.087 -0.1236
5550000000.0 0.6065 -0.8688
5553000000.0 -0.3535 -1.037
5556000000.0 -0.9678 -0.4109
5559000000.0 -0.9339 0.5038
5562000000.0 -0.2418 1.042
5566000000.0 0.652 0.8562
5569000000.0 1.031 0.02946
5572000000.0 0.6803 -0.7454
5575000000.0 -0.1712 -1.023
5578000000.0 -0.856 -0.5242
5581000000.0 -0.9259 0.3071
5584000000.0 -0.3646 0.9499
5588000000.0 0.4814 0.8111
5591000000.0 0.9367 0.1668
5594000000.0 0.7089 -0.6388
5597000000.0 -0.04413 -0.9497
5600000000.0 -0.7573 -0.5511
5603000000.0 -0.8664 0.2133
5606000000.0 -0.3893 0.8118
5609000000.0 0.3831 0.8047
5612000000.0 0.894 0.2291
5616000000.0 0.7016 -0.5124
5619000000.0 0.05138 -0.8749
5622000000.0 -0.648 -0.5613
5625000000.0 -0.8425 0.156
5628000000.0 -0.4239 0.754
5631000000.0 0.3258 0.7746
5634000000.0 0.8226 0.2368
5638000000.0 0.6848 -0.4941
5641000000.0 0.03985 -0.8303
5644000000.0 -0.623 -0.5692
5647000000.0 -0.8356 0.1251
5650000000.0 -0.4348 0.7464
5653000000.0 0.2956 0.8157
5656000000.0 0.797 0.246
5659000000.0 0.6955 -0.4627
5662000000.0 0.07648 -0.8726
5666000000.0 -0.603 -0.5951
5669000000.0 -0.8746 0.1141
5672000000.0 -0.433 0.7943
5675000000.0 0.3189 0.8286
5678000000.0 0.871 0.2923
5681000000.0 0.7747 -0.5077
5684000000.0 0.109 -0.9084
5688000000.0 -0.6693 -0.6529
5691000000.0 -0.958 0.09978
5694000000.0 -0.5199 0.8138
5697000000.0 0.3388 0.921
5700000000.0 0.9118 0.3614
5703000000.0 0.8559 -0.5076
5706000000.0 0.1867 -0.9898
5709000000.0 -0.6914 -0.7576
5712000000.0 -1.025 0.06085
5716000000.0 -0.6242 0.8505
5719000000.0 0.2802 0.9967
5722000000.0 0.948 0.4647
5725000000.0 0.9534 -0.4472
5728000000.0 0.2958 -1.054
5731000000.0 -0.5914 -0.8981
5734000000.0 -1.09 -0.08665
5738000000.0 -0.7568 0.7717
5741000000.0 0.1188 1.108
5744000000.0 0.9123 0.6084
5747000000.0 1.047 -0.3188
5750000000.0 0.4375 -1.034
5753000000.0 -0.4921 -0.9984
5756000000.0 -1.102 -0.2506
5759000000.0 -0.9003 0.6474
5762000000.0 -0.05869 1.137
5766000000.0 0.8426 0.757
5769000000.0 1.107 -0.1635
5772000000.0 0.5866 -0.9365
5775000000.0 -0.3483 -1.032
5778000000.0 -1.027 -0.4002
5781000000.0 -0.9797 0.519
5784000000.0 -0.2565 1.074
5788000000.0 0.6906 0.8749
5791000000.0 1.069 -0.002932
5794000000.0 0.6934 -0.8057
5797000000.0 -0.1771 -1.058
5800000000.0 -0.9235 -0.5579
5803000000.0 -1.008 0.3336
5806000000.0 -0.3823 0.996
5809000000.0 0.5373 0.9233
5812000000.0 1.01 0.178
5816000000.0 0.7784 -0.6889
5819000000.0 -0.04183 -1.023
5822000000.0 -0.8128 -0.6397
5825000000.0 -0.9467 0.2546
5828000000.0 -0.4131 0.9008
5831000000.0 0.4457 0.8897
5834000000.0 0.9856 0.2084
5838000000.0 0.789 -0.5931
5841000000.0 0.0657 -0.9327
5844000000.0 -0.7436 -0.639
5847000000.0 -0.9486 0.1585
5850000000.0 -0.474 0.8427
5853000000.0 0.3667 0.8808
5856000000.0 0.9097 0.2639
5859000000.0 0.7858 -0.5243
5862000000.0 0.06222 -0.906
5866000000.0 -0.6696 -0.6308
5869000000.0 -0.8963 0.1039
5872000000.0 -0.496 0.7698
5875000000.0 0.2855 0.8584
5878000000.0 0.8562 0.2642
5881000000.0 0.7328 -0.472
5884000000.0 0.1038 -0.8629
5888000000.0 -0.6073 -0.6201
5891000000.0 -0.8708 0.0816
5894000000.0 -0.4694 0.7602
5897000000.0 0.2358 0.8152
5900000000.0 0.7753 0.3327
5903000000.0 0.7777 -0.4403
5906000000.0 0.1565 -0.8643
5909000000.0 -0.571 -0.6446
5912000000.0 -0.8633 0.01826
5916000000.0 -0.5539 0.6889
5919000000.0 0.1745 0.8631
5922000000.0 0.7698 0.3713
5925000000.0 0.7708 -0.3648
5928000000.0 0.2588 -0.8139
5931000000.0 -0.5355 -0.7242
5934000000.0 -0.8948 -0.05707
5938000000.0 -0.6201 0.6392
5941000000.0 0.1028 0.8638
5944000000.0 0.7435 0.5033
5947000000.0 0.8356 -0.2767
5950000000.0 0.3666 -0.8388
5953000000.0 -0.4182 -0.8542
5956000000.0 -0.8992 -0.1845
5959000000.0 -0.749 0.5519
5962000000.0 -0.05613 0.9101
5966000000.0 0.6908 0.6427
5969000000.0 0.93 -0.1113
5972000000.0 0.5099 -0.8033
5975000000.0 -0.3166 -0.8957
5978000000.0 -0.8887 -0.3861
5981000000.0 -0.8682 0.469
5984000000.0 -0.2165 0.9229
5988000000.0 0.6495 0.7714
5991000000.0 0.9959 0.04471
5994000000.0 0.6743 -0.746
5997000000.0 -0.1575 -0.9839
6000000000.0 -0.8719 -0.4956
6003000000.0 -0.9265 0.3592
6006000000.0 -0.3275 0.9348
6009000000.0 0.5251 0.87
6012000000.0 0.9755 0.1325
6016000000.0 0.7548 -0.6664
6019000000.0 -0.04023 -0.9608
6022000000.0 -0.8101 -0.5917
6025000000.0 -0.9661 0.2347
6028000000.0 -0.4196 0.8964
6031000000.0 0.4493 0.8717
6034000000.0 0.9328 0.225
6038000000.0 0.7809 -0.586
6041000000.0 0.0337 -0.9737
6044000000.0 -0.7017 -0.6413
6047000000.0 -0.9518 0.1615
6050000000.0 -0.4759 0.8446
6053000000.0 0.3334 0.9165
6056000000.0 0.8968 0.3249
6059000000.0 0.7865 -0.5082
6062000000.0 0.1015 -0.9402
6066000000.0 -0.666 -0.6309
6069000000.0 -0.8723 0.07427
6072000000.0 -0.4952 0.7572
6075000000.0 0.2847 0.8524
6078000000.0 0.8132 0.3097
6081000000.0 0.7641 -0.4221
6084000000.0 0.1437 -0.8657
6088000000.0 -0.6 -0.6349
6091000000.0 -0.8646 0.05243
6094000000.0 -0.5267 0.6858
6097000000.0 0.2369 0.8061
6100000000.0 0.789 0.3451
6103000000.0 0.7429 -0.3648
6106000000.0 0.1736 -0.8395
6109000000.0 -0.5388 -0.664
6112000000.0 -0.8593 0.0124
6116000000.0 -0.5274 0.6754
6119000000.0 0.188 0.8366
6122000000.0 0.7773 0.3718
6125000000.0 0.8096 -0.3541
6128000000.0 0.203 -0.8217
6131000000.0 -0.5077 -0.7068
6134000000.0 -0.8521 -0.006223
6138000000.0 -0.5381 0.6369
6141000000.0 0.1378 0.8531
6144000000.0 0.781 0.417
6147000000.0 0.8467 -0.3494
6150000000.0 0.2926 -0.8298
6153000000.0 -0.4611 -0.7772
6156000000.0 -0.8929 -0.09253
6159000000.0 -0.6336 0.6271
6162000000.0 0.06029 0.9114
6166000000.0 0.7628 0.5143
6169000000.0 0.8963 -0.2439
6172000000.0 0.3541 -0.8634
6175000000.0 -0.4566 -0.8058
6178000000.0 -0.9002 -0.2211
6181000000.0 -0.7228 0.5935
6184000000.0 -0.01191 0.9402
6188000000.0 0.741 0.6013
6191000000.0 0.9289 -0.1963
6194000000.0 0.4249 -0.8525
6197000000.0 -0.3699 -0.8499
6200000000.0 -0.9173 -0.2666
6203000000.0 -0.7833 0.53
6206000000.0 -0.09416 0.9363
6209000000.0 0.675 0.647
6212000000.0 0.9312 -0.1114
6216000000.0 0.5436 -0.754
6219000000.0 -0.2375 -0.8913
6222000000.0 -0.8391 -0.3406
6225000000.0 -0.8147 0.431
6228000000.0 -0.2192 0.8784
6231000000.0 0.5692 0.7195
6234000000.0 0.9227 0.02172
6238000000.0 0.579 -0.6536
6241000000.0 -0.0877 -0.872
6244000000.0 -0.7343 -0.4596
6247000000.0 -0.8338 0.3104
6250000000.0 -0.299 0.8186
6253000000.0 0.4256 0.735
6256000000.0 0.8124 0.1432
6259000000.0 0.6607 -0.572
6262000000.0 0.01497 -0.8208
6266000000.0 -0.6562 -0.5302
