! Created with skrf 1.8.0 (http://scikit-rf.org).
# Hz S RI R 50.0 
!freq ReS11 ImS11
4000000000.0 -0.2542 -1.465
4003000000.0 -1.344 -0.681
4006000000.0 -1.396 0.5812
4009000000.0 -0.4002 1.406
4012000000.0 0.8517 1.24
4016000000.0 1.56 0.07033
4019000000.0 1.016 -1.138
4022000000.0 -0.2404 -1.563
4025000000.0 -1.367 -0.7684
4028000000.0 -1.51 0.5556
4031000000.0 -0.4873 1.564
4034000000.0 0.9323 1.342
4038000000.0 1.646 0.1723
4041000000.0 1.096 -1.188
4044000000.0 -0.2059 -1.63
4047000000.0 -1.392 -0.8213
4050000000.0 -1.52 0.5614
4053000000.0 -0.5144 1.554
4056000000.0 0.8587 1.414
4059000000.0 1.604 0.2581
4062000000.0 1.195 -1.076
4066000000.0 -0.1219 -1.573
4069000000.0 -1.31 -0.9818
4072000000.0 -1.583 0.3867
4075000000.0 -0.7045 1.487
4078000000.0 0.6648 1.507
4081000000.0 1.579 0.4362
4084000000.0 1.366 -0.9264
4088000000.0 0.0967 -1.629
4091000000.0 -1.179 -1.13
4094000000.0 -1.649 0.175
4097000000.0 -0.8783 1.344
4100000000.0 0.4959 1.549
4103000000.0 1.491 0.6097
4106000000.0 1.409 -0.681
4109000000.0 0.3352 -1.487
4112000000.0 -0.9199 -1.251
4116000000.0 -1.537 -0.111
4119000000.0 -1.04 1.076
4122000000.0 0.1228 1.465
4125000000.0 1.182 0.9071
4128000000.0 1.436 -0.3153
4131000000.0 0.66 -1.299
4134000000.0 -0.5231 -1.389
4138000000.0 -1.41 -0.4852
4141000000.0 -1.319 0.7395
4144000000.0 -0.2912 1.493
4147000000.0 0.945 1.165
4150000000.0 1.514 0.0388
4153000000.0 0.9669 -1.127
4156000000.0 -0.2521 -1.522
4159000000.0 -1.268 -0.7836
4162000000.0 -1.429 0.4806
4166000000.0 -0.52 1.392
4169000000.0 0.7273 1.296
4172000000.0 1.46 0.2931
4175000000.0 1.155 -0.9575
4178000000.0 -0.004452 -1.512
4181000000.0 -1.111 -0.9898
4184000000.0 -1.505 0.2326
4188000000.0 -0.7662 1.317
4191000000.0 0.5373 1.435
4194000000.0 1.463 0.4897
4197000000.0 1.308 -0.8
4200000000.0 0.2342 -1.556
4203000000.0 -1.133 -1.161
4206000000.0 -1.603 0.1401
4209000000.0 -0.8442 1.389
4212000000.0 0.59 1.555
4216000000.0 1.566 0.5202
4219000000.0 1.368 -0.9564
4222000000.0 0.05628 -1.683
4225000000.0 -1.281 -1.094
4228000000.0 -1.633 0.3557
4231000000.0 -0.6851 1.546
4234000000.0 0.7937 1.471
4238000000.0 1.598 0.221
4241000000.0 1.14 -1.113
4244000000.0 -0.1972 -1.581
4247000000.0 -1.364 -0.8069
4250000000.0 -1.457 0.5533
4253000000.0 -0.4083 1.47
4256000000.0 0.9013 1.24
4259000000.0 1.494 0.06971
4262000000.0 0.94 -1.159
4266000000.0 -0.3382 -1.43
4269000000.0 -1.315 -0.659
4272000000.0 -1.29 0.671
4275000000.0 -0.3138 1.418
4278000000.0 0.9303 1.047
4281000000.0 1.405 -0.005292
4284000000.0 0.8498 -1.125
4288000000.0 -0.3315 -1.375
4291000000.0 -1.254 -0.579
4294000000.0 -1.212 0.6014
4297000000.0 -0.2896 1.293
4300000000.0 0.7976 1.035
4303000000.0 1.325 0.1031
4306000000.0 0.8945 -0.9591
4309000000.0 -0.1856 -1.288
4312000000.0 -1.098 -0.6968
4316000000.0 -1.244 0.3705
4319000000.0 -0.5216 1.199
4322000000.0 0.6109 1.156
4325000000.0 1.31 0.3192
4328000000.0 1.068 -0.7961
4331000000.0 0.09571 -1.351
4334000000.0 -0.9678 -0.9608
4338000000.0 -1.382 0.1719
4341000000.0 -0.7586 1.163
4344000000.0 0.3798 1.363
4347000000.0 1.317 0.557
4350000000.0 1.278 -0.6314
4353000000.0 0.2795 -1.42
4356000000.0 -0.9051 -1.111
4359000000.0 -1.464 -0.00941
4362000000.0 -0.9778 1.13
4366000000.0 0.2699 1.489
4369000000.0 1.294 0.7207
4372000000.0 1.377 -0.5051
4375000000.0 0.4891 -1.463
4378000000.0 -0.8273 -1.285
4381000000.0 -1.518 -0.1771
4384000000.0 -1.131 1.056
4388000000.0 0.1343 1.54
4391000000.0 1.296 0.8954
4394000000.0 1.522 -0.4522
4397000000.0 0.5595 -1.47
4400000000.0 -0.8196 -1.354
4403000000.0 -1.594 -0.2213
4406000000.0 -1.088 1.119
4409000000.0 0.1943 1.525
4412000000.0 1.323 0.8099
4416000000.0 1.41 -0.5559
4419000000.0 0.4434 -1.446
4422000000.0 -0.8783 -1.201
4425000000.0 -1.465 -0.04554
4428000000.0 -0.9298 1.072
4431000000.0 0.2671 1.394
4434000000.0 1.233 0.6049
4438000000.0 1.228 -0.5949
4441000000.0 0.301 -1.359
4444000000.0 -0.8827 -1.027
4447000000.0 -1.306 0.05373
4450000000.0 -0.7612 1.062
4453000000.0 0.3842 1.217
4456000000.0 1.192 0.4254
4459000000.0 1.067 -0.6562
4462000000.0 0.1307 -1.22
4466000000.0 -0.8734 -0.8721
4469000000.0 -1.203 0.1815
4472000000.0 -0.5915 1.051
4475000000.0 0.46 1.101
4478000000.0 1.123 0.3239
4481000000.0 0.9636 -0.6539
4484000000.0 0.03338 -1.129
4488000000.0 -0.8798 -0.7558
4491000000.0 -1.111 0.2157
4494000000.0 -0.4926 1.025
4497000000.0 0.437 1.054
4500000000.0 1.081 0.3167
4503000000.0 0.8943 -0.6352
4506000000.0 0.08987 -1.113
4509000000.0 -0.8372 -0.7492
4512000000.0 -1.126 0.153
4516000000.0 -0.6178 0.9797
4519000000.0 0.3784 1.065
4522000000.0 1.111 0.3812
4525000000.0 1.006 -0.582
4528000000.0 0.1838 -1.174
4531000000.0 -0.8163 -0.8997
4534000000.0 -1.212 0.05632
4538000000.0 -0.7197 0.956
4541000000.0 0.3003 1.2
4544000000.0 1.102 0.5364
4547000000.0 1.123 -0.4932
4550000000.0 0.3697 -1.206
4553000000.0 -0.7233 -1.051
4556000000.0 -1.233 -0.1305
4559000000.0 -0.9338 0.8599
4562000000.0 0.06529 1.279
4566000000.0 1.038 0.75
4569000000.0 1.269 -0.3178
4572000000.0 0.5998 -1.177
4575000000.0 -0.5233 -1.208
4578000000.0 -1.272 -0.3729
4581000000.0 -1.111 0.775
4584000000.0 -0.1233 1.348
4588000000.0 0.9797 0.9436
4591000000.0 1.384 -0.1292
4594000000.0 0.8002 -1.152
4597000000.0 -0.3826 -1.379
4600000000.0 -1.281 -0.5334
4603000000.0 -1.242 0.6804
4606000000.0 -0.2739 1.39
4609000000.0 0.9248 1.083
4612000000.0 1.401 -0.0004317
4616000000.0 0.8676 -1.115
4619000000.0 -0.2949 -1.369
4622000000.0 -1.257 -0.6411
4625000000.0 -1.267 0.5648
4628000000.0 -0.3514 1.348
4631000000.0 0.8457 1.128
4634000000.0 1.372 0.0597
4638000000.0 0.913 -1.008
4641000000.0 -0.2224 -1.311
4644000000.0 -1.171 -0.6364
4647000000.0 -1.188 0.4925
4650000000.0 -0.3695 1.257
4653000000.0 0.7541 1.029
4656000000.0 1.257 0.0621
4659000000.0 0.8043 -0.9693
4662000000.0 -0.2604 -1.211
4666000000.0 -1.065 -0.5332
4669000000.0 -1.078 0.4838
4672000000.0 -0.2939 1.155
4675000000.0 0.7221 0.8977
4678000000.0 1.113 0.03045
4681000000.0 0.6985 -0.8593
4684000000.0 -0.2439 -1.091
4688000000.0 -0.9864 -0.5036
4691000000.0 -0.9917 0.4453
4694000000.0 -0.225 1.04
4697000000.0 0.6835 0.8465
4700000000.0 1.105 0.01313
4703000000.0 0.6785 -0.8345
4706000000.0 -0.2507 -1.096
4709000000.0 -0.9666 -0.4918
4712000000.0 -0.984 0.4746
4716000000.0 -0.2418 1.03
4719000000.0 0.6584 0.8224
4722000000.0 1.083 -0.000714
4725000000.0 0.6702 -0.8234
4728000000.0 -0.2106 -1.078
4731000000.0 -0.9247 -0.4911
4734000000.0 -0.9439 0.388
4738000000.0 -0.3249 1.033
4741000000.0 0.584 0.9026
4744000000.0 1.091 0.1308
4747000000.0 0.8041 -0.7462
4750000000.0 -0.02629 -1.108
4753000000.0 -0.8806 -0.6281
4756000000.0 -1.095 0.264
4759000000.0 -0.4993 1.026
4762000000.0 0.4486 1.05
4766000000.0 1.106 0.3105
4769000000.0 0.9947 -0.6939
4772000000.0 0.1139 -1.161
4775000000.0 -0.8319 -0.8702
4778000000.0 -1.22 0.1035
4781000000.0 -0.7179 1.015
4784000000.0 0.3177 1.243
4788000000.0 1.11 0.5272
4791000000.0 1.149 -0.4903
4794000000.0 0.3763 -1.208
4797000000.0 -0.6964 -1.069
4800000000.0 -1.291 -0.164
4803000000.0 -0.9481 0.866
4806000000.0 0.06899 1.307
4809000000.0 1.044 0.8027
4812000000.0 1.277 -0.2914
4816000000.0 0.592 -1.194
4819000000.0 -0.519 -1.237
4822000000.0 -1.292 -0.3768
4825000000.0 -1.144 0.7746
4828000000.0 -0.1232 1.382
4831000000.0 0.9847 1.003
4834000000.0 1.396 -0.1601
4838000000.0 0.7456 -1.194
4841000000.0 -0.4283 -1.337
4844000000.0 -1.296 -0.4961
4847000000.0 -1.198 0.6922
4850000000.0 -0.2274 1.389
4853000000.0 0.903 1.045
4856000000.0 1.354 -0.06086
4859000000.0 0.8006 -1.106
4862000000.0 -0.3157 -1.289
4866000000.0 -1.192 -0.5981
4869000000.0 -1.134 0.5734
4872000000.0 -0.3097 1.272
4875000000.0 0.7742 0.9915
4878000000.0 1.272 0.04909
4881000000.0 0.7938 -0.9609
4884000000.0 -0.2177 -1.179
4888000000.0 -1.025 -0.5339
4891000000.0 -1.079 0.4619
4894000000.0 -0.3061 1.101
4897000000.0 0.6587 0.9438
4900000000.0 1.1 0.06637
4903000000.0 0.741 -0.8218
4906000000.0 -0.1787 -1.037
4909000000.0 -0.8883 -0.5015
4912000000.0 -0.9432 0.3611
4916000000.0 -0.3152 0.9264
4919000000.0 0.5337 0.8161
4922000000.0 0.9567 0.139
4925000000.0 0.6872 -0.671
4928000000.0 -0.08275 -0.9511
4931000000.0 -0.7676 -0.558
4934000000.0 -0.8959 0.2471
4938000000.0 -0.3813 0.8531
4941000000.0 0.4009 0.847
4944000000.0 0.9256 0.1978
4947000000.0 0.756 -0.5569
4950000000.0 0.03211 -0.9565
4953000000.0 -0.7427 -0.615
4956000000.0 -0.9627 0.1724
4959000000.0 -0.4713 0.8739
4962000000.0 0.3651 0.9612
4966000000.0 0.9587 0.2942
4969000000.0 0.8354 -0.5701
4972000000.0 0.09989 -1.025
4975000000.0 -0.7374 -0.7374
4978000000.0 -1.025 0.1029
4981000000.0 -0.593 0.8594
4984000000.0 0.2877 1.026
4988000000.0 0.9953 0.4476
4991000000.0 0.9908 -0.4722
4994000000.0 0.2619 -1.072
4997000000.0 -0.6815 -0.9317
5000000000.0 -1.161 -0.06693
5003000000.0 -0.7863 0.8571
5006000000.0 0.1769 1.21
5009000000.0 1.042 0.6699
5012000000.0 1.181 -0.3989
5016000000.0 0.4475 -1.187
5019000000.0 -0.6417 -1.106
5022000000.0 -1.291 -0.2177
5025000000.0 -0.9456 0.8519
5028000000.0 0.04497 1.291
5031000000.0 1.05 0.7979
5034000000.0 1.275 -0.2761
5038000000.0 0.6056 -1.131
5041000000.0 -0.5245 -1.21
5044000000.0 -1.268 -0.3784
5047000000.0 -1.069 0.6966
5050000000.0 -0.1322 1.276
5053000000.0 0.8739 0.9466
5056000000.0 1.311 -0.07963
5059000000.0 0.7694 -1.051
5062000000.0 -0.2898 -1.24
5066000000.0 -1.149 -0.5711
5069000000.0 -1.178 0.5446
5072000000.0 -0.3186 1.252
5075000000.0 0.7156 1.042
5078000000.0 1.242 0.1158
5081000000.0 0.8449 -0.9143
5084000000.0 -0.1185 -1.205
5088000000.0 -0.9834 -0.6766
5091000000.0 -1.15 0.2881
5094000000.0 -0.4294 1.061
5097000000.0 0.5146 1.029
5100000000.0 1.064 0.2876
5103000000.0 0.8737 -0.6804
5106000000.0 0.02998 -1.059
5109000000.0 -0.7694 -0.7339
5112000000.0 -1.031 0.119
5116000000.0 -0.5472 0.8645
5119000000.0 0.313 0.9802
5122000000.0 0.927 0.3723
5125000000.0 0.8916 -0.5173
5128000000.0 0.1798 -0.9881
5131000000.0 -0.6657 -0.7574
5134000000.0 -0.9829 0.009232
5138000000.0 -0.6009 0.7537
5141000000.0 0.177 0.894
5144000000.0 0.8204 0.4552
5147000000.0 0.8276 -0.4014
5150000000.0 0.2476 -0.897
5153000000.0 -0.5474 -0.7509
5156000000.0 -0.8848 -0.05331
5159000000.0 -0.5943 0.6793
5162000000.0 0.1333 0.9072
5166000000.0 0.7852 0.4409
5169000000.0 0.8492 -0.3044
5172000000.0 0.2699 -0.8657
5175000000.0 -0.5203 -0.7755
5178000000.0 -0.8949 -0.07429
5181000000.0 -0.6045 0.6467
5184000000.0 0.118 0.9072
5188000000.0 0.8078 0.5225
5191000000.0 0.8963 -0.3186
5194000000.0 0.2818 -0.8965
5197000000.0 -0.5525 -0.8115
5200000000.0 -0.9505 -0.09209
5203000000.0 -0.6812 0.6822
5206000000.0 0.1395 0.9551
5209000000.0 0.8691 0.5175
5212000000.0 0.9101 -0.3357
5216000000.0 0.3232 -0.948
5219000000.0 -0.5178 -0.8599
5222000000.0 -1.024 -0.1501
5225000000.0 -0.7404 0.6801
5228000000.0 0.05964 1.015
5231000000.0 0.8209 0.6336
5234000000.0 1.023 -0.2592
5238000000.0 0.4846 -0.9546
5241000000.0 -0.4181 -0.9487
5244000000.0 -1.021 -0.2854
5247000000.0 -0.8653 0.6
5250000000.0 -0.09163 1.08
5253000000.0 0.7961 0.7467
5256000000.0 1.087 -0.09119
5259000000.0 0.6446 -0.8904
5262000000.0 -0.3153 -1.04
5266000000.0 -0.9977 -0.4495
5269000000.0 -0.9929 0.4471
5272000000.0 -0.2658 1.07
5275000000.0 0.6522 0.9073
5278000000.0 1.1 0.08158
5281000000.0 0.7896 -0.8102
5284000000.0 -0.102 -1.098
5288000000.0 -0.8957 -0.6734
5291000000.0 -1.065 0.3028
5294000000.0 -0.4884 1.001
5297000000.0 0.4496 1.022
5300000000.0 1.07 0.3018
5303000000.0 0.969 -0.6253
5306000000.0 0.153 -1.122
5309000000.0 -0.7442 -0.8031
5312000000.0 -1.137 0.06087
5316000000.0 -0.7203 0.933
5319000000.0 0.2896 1.094
5322000000.0 1.019 0.5008
5325000000.0 1.029 -0.4722
5328000000.0 0.2464 -1.093
5331000000.0 -0.6644 -0.8825
5334000000.0 -1.096 -0.05151
5338000000.0 -0.759 0.8159
5341000000.0 0.1926 1.127
5344000000.0 0.9519 0.5425
5347000000.0 0.9984 -0.3808
5350000000.0 0.3375 -0.9861
5353000000.0 -0.5585 -0.8893
5356000000.0 -1.07 -0.1165
5359000000.0 -0.7492 0.7544
5362000000.0 0.158 1.01
5366000000.0 0.8505 0.5195
5369000000.0 0.9444 -0.3672
5372000000.0 0.2992 -0.9236
5375000000.0 -0.5374 -0.8014
5378000000.0 -0.9811 -0.05934
5381000000.0 -0.6414 0.699
5384000000.0 0.1682 0.9197
5388000000.0 0.8022 0.4245
5391000000.0 0.8203 -0.356
5394000000.0 0.2293 -0.8462
5397000000.0 -0.5585 -0.7026
5400000000.0 -0.872 -0.01869
5403000000.0 -0.5316 0.6772
5406000000.0 0.1793 0.8308
5409000000.0 0.7836 0.3365
5412000000.0 0.7551 -0.3883
5416000000.0 0.1791 -0.8274
5419000000.0 -0.5206 -0.6652
5422000000.0 -0.8352 0.01235
5425000000.0 -0.5267 0.6768
5428000000.0 0.1598 0.8681
5431000000.0 0.7603 0.3998
5434000000.0 0.8328 -0.3732
5438000000.0 0.2236 -0.8739
5441000000.0 -0.5473 -0.7335
5444000000.0 -0.8866 -0.04036
5447000000.0 -0.5616 0.7064
5450000000.0 0.1746 0.913
5453000000.0 0.8063 0.4594
5456000000.0 0.8667 -0.3556
5459000000.0 0.3193 -0.9156
5462000000.0 -0.5103 -0.8098
5466000000.0 -0.9485 -0.1468
5469000000.0 -0.7237 0.6303
5472000000.0 0.0321 1.017
5475000000.0 0.7686 0.5743
5478000000.0 1.002 -0.1886
5481000000.0 0.4718 -0.8716
5484000000.0 -0.4225 -0.9511
5488000000.0 -0.9833 -0.3088
5491000000.0 -0.8683 0.5585
5494000000.0 -0.1489 1.04
5497000000.0 0.7402 0.7585
5500000000.0 1.074 -0.07193
5503000000.0 0.6386 -0.8596
5506000000.0 -0.2397 -1.039
5509000000.0 -0.9831 -0.4593
5512000000.0 -0.9793 0.453
5516000000.0 -0.2955 1.035
5519000000.0 0.6093 0.8887
5522000000.0 1.04 0.123
5525000000.0 0.7908 -0.7647
5528000000.0 -0.08333 -1.069
5531000000.0 -0.8644 -0.6236
5534000000.0 -1.03 0.2637
5538000000.0 -0.4712 0.9772
5541000000.0 0.4948 0.9686
5544000000.0 1.011 0.2459
5547000000.0 0.8437 -0.6365
5550000000.0 0.004106 -1.065
5553000000.0 -0.7955 -0.6993
5556000000.0 -1.017 0.1368
5559000000.0 -0.4954 0.9098
5562000000.0 0.3423 0.9384
5566000000.0 0.9245 0.2853
5569000000.0 0.824 -0.5262
5572000000.0 0.1271 -0.9539
5575000000.0 -0.6451 -0.6626
5578000000.0 -0.9589 0.08086
5581000000.0 -0.5134 0.7896
5584000000.0 0.2934 0.8583
5588000000.0 0.8252 0.3127
5591000000.0 0.7729 -0.4906
5594000000.0 0.1194 -0.8415
5597000000.0 -0.5373 -0.6176
5600000000.0 -0.8419 0.02647
5603000000.0 -0.4837 0.6983
5606000000.0 0.2383 0.7818
5609000000.0 0.7638 0.3255
5612000000.0 0.722 -0.3954
5616000000.0 0.1374 -0.8222
5619000000.0 -0.5296 -0.587
5622000000.0 -0.8122 0.0529
5625000000.0 -0.4564 0.6384
5628000000.0 0.2373 0.7554
5631000000.0 0.7878 0.3004
5634000000.0 0.7254 -0.4103
5638000000.0 0.137 -0.8172
5641000000.0 -0.5784 -0.5908
5644000000.0 -0.8425 0.04882
5647000000.0 -0.4797 0.6912
5650000000.0 0.2277 0.8171
5653000000.0 0.7822 0.331
5656000000.0 0.7812 -0.4414
5659000000.0 0.1337 -0.9123
5662000000.0 -0.6254 -0.6953
5666000000.0 -0.9168 0.06398
5669000000.0 -0.5609 0.7673
5672000000.0 0.2309 0.9206
5675000000.0 0.8991 0.4056
5678000000.0 0.9036 -0.4343
5681000000.0 0.1689 -1.003
5684000000.0 -0.6352 -0.7772
5688000000.0 -1.043 0.004788
5691000000.0 -0.6727 0.8093
5694000000.0 0.2189 1.046
5697000000.0 0.9417 0.4709
5700000000.0 0.9897 -0.4621
5703000000.0 0.2902 -1.048
5706000000.0 -0.6602 -0.906
5709000000.0 -1.091 -0.08922
5712000000.0 -0.7496 0.82
5716000000.0 0.1392 1.105
5719000000.0 0.9443 0.6063
5722000000.0 1.052 -0.3588
5725000000.0 0.3986 -1.06
5728000000.0 -0.5335 -1.01
5731000000.0 -1.12 -0.1973
5734000000.0 -0.8687 0.7371
5738000000.0 -0.01772 1.134
5741000000.0 0.8626 0.6983
5744000000.0 1.098 -0.2265
5747000000.0 0.5227 -1.018
5750000000.0 -0.4274 -1.072
5753000000.0 -1.085 -0.3185
5756000000.0 -0.9159 0.6359
5759000000.0 -0.08688 1.095
5762000000.0 0.8183 0.7567
5766000000.0 1.102 -0.1703
5769000000.0 0.5572 -0.9216
5772000000.0 -0.3308 -1.054
5775000000.0 -0.9851 -0.3228
5778000000.0 -0.912 0.5375
5781000000.0 -0.1353 1.053
5784000000.0 0.7252 0.7338
5788000000.0 1.005 -0.08424
5791000000.0 0.5729 -0.8742
5794000000.0 -0.2639 -0.9367
5797000000.0 -0.9654 -0.3442
5800000000.0 -0.8467 0.4843
5803000000.0 -0.1256 0.9929
5806000000.0 0.6744 0.7622
5809000000.0 0.939 -0.1006
5812000000.0 0.5098 -0.8177
5816000000.0 -0.2857 -0.8876
5819000000.0 -0.8656 -0.2994
5822000000.0 -0.8165 0.5022
5825000000.0 -0.1207 0.9127
5828000000.0 0.6302 0.6248
5831000000.0 0.896 -0.1441
5834000000.0 0.4427 -0.7446
5838000000.0 -0.3477 -0.8213
5841000000.0 -0.8178 -0.2836
5844000000.0 -0.7286 0.5
5847000000.0 -0.00965 0.8574
5850000000.0 0.7037 0.5615
5853000000.0 0.8434 -0.195
5856000000.0 0.3921 -0.8035
5859000000.0 -0.3812 -0.8428
5862000000.0 -0.8729 -0.2197
5866000000.0 -0.6952 0.5797
5869000000.0 0.0165 0.8863
5872000000.0 0.733 0.5663
5875000000.0 0.8547 -0.2056
5878000000.0 0.3655 -0.834
5881000000.0 -0.4529 -0.8184
5884000000.0 -0.9047 -0.16
5888000000.0 -0.7154 0.5735
5891000000.0 0.01222 0.932
5894000000.0 0.7384 0.592
5897000000.0 0.92 -0.1874
5900000000.0 0.4247 -0.8645
5903000000.0 -0.3733 -0.9047
5906000000.0 -0.9475 -0.252
5909000000.0 -0.7737 0.5987
5912000000.0 -0.03471 0.9797
5916000000.0 0.7274 0.6561
5919000000.0 0.9771 -0.1764
5922000000.0 0.4967 -0.8815
5925000000.0 -0.4106 -0.9575
5928000000.0 -0.9946 -0.2686
5931000000.0 -0.835 0.557
5934000000.0 -0.0475 1.014
5938000000.0 0.7407 0.6687
5941000000.0 1.015 -0.1301
5944000000.0 0.5313 -0.8608
5947000000.0 -0.3655 -0.9545
5950000000.0 -0.9815 -0.2929
5953000000.0 -0.8309 0.5817
5956000000.0 -0.08584 1.039
5959000000.0 0.7802 0.7133
5962000000.0 0.998 -0.1716
5966000000.0 0.4838 -0.8814
5969000000.0 -0.4079 -0.9232
5972000000.0 -0.9938 -0.2407
5975000000.0 -0.8299 0.6069
5978000000.0 0.02791 0.9638
5981000000.0 0.7915 0.5674
5984000000.0 0.911 -0.2348
5988000000.0 0.3822 -0.8892
5991000000.0 -0.4749 -0.8426
5994000000.0 -0.9442 -0.1102
5997000000.0 -0.6545 0.6657
6000000000.0 0.112 0.9199
6003000000.0 0.734 0.4543
6006000000.0 0.804 -0.3504
6009000000.0 0.1944 -0.8347
6012000000.0 -0.5334 -0.663
6016000000.0 -0.8454 -0.01855
6019000000.0 -0.5313 0.674
6022000000.0 0.1992 0.7925
6025000000.0 0.7624 0.3232
6028000000.0 0.7114 -0.4193
6031000000.0 0.117 -0.8175
6034000000.0 -0.5837 -0.5975
6038000000.0 -0.8245 0.1106
6041000000.0 -0.4267 0.6939
6044000000.0 0.3015 0.7926
6047000000.0 0.8286 0.2583
6050000000.0 0.6819 -0.4851
6053000000.0 0.06823 -0.8459
6056000000.0 -0.6347 -0.5696
6059000000.0 -0.8726 0.1459
6062000000.0 -0.4224 0.8233
6066000000.0 0.3327 0.8414
6069000000.0 0.8786 0.2204
6072000000.0 0.7368 -0.5504
6075000000.0 0.02185 -0.9409
6078000000.0 -0.7303 -0.5799
6081000000.0 -0.9391 0.2218
6084000000.0 -0.3984 0.9062
6088000000.0 0.4335 0.8936
6091000000.0 0.9851 0.1723
6094000000.0 0.7766 -0.6742
6097000000.0 -0.06946 -1.045
6100000000.0 -0.8483 -0.6074
6103000000.0 -1.003 0.2993
6106000000.0 -0.3545 0.9718
6109000000.0 0.5568 0.9089
6112000000.0 1.044 0.1083
6116000000.0 0.7351 -0.7547
6119000000.0 -0.1832 -1.049
6122000000.0 -0.9116 -0.5312
6125000000.0 -0.9788 0.404
6128000000.0 -0.2227 1.014
6131000000.0 0.6407 0.7921
6134000000.0 1.018 -0.0294
6138000000.0 0.6023 -0.8317
6141000000.0 -0.28 -0.9541
6144000000.0 -0.9109 -0.3862
6147000000.0 -0.8373 0.4717
6150000000.0 -0.1294 0.9487
6153000000.0 0.6777 0.6442
6156000000.0 0.9272 -0.1345
6159000000.0 0.4652 -0.7735
6162000000.0 -0.3318 -0.8449
6166000000.0 -0.8603 -0.2679
6169000000.0 -0.7238 0.5134
6172000000.0 -0.03983 0.8653
6175000000.0 0.6712 0.5466
6178000000.0 0.8149 -0.2032
6181000000.0 0.3748 -0.7418
6184000000.0 -0.4009 -0.7287
6188000000.0 -0.8271 -0.136
6191000000.0 -0.5848 0.5346
6194000000.0 0.09527 0.802
6197000000.0 0.743 0.4155
6200000000.0 0.7377 -0.2774
6203000000.0 0.2505 -0.7652
6206000000.0 -0.4708 -0.6521
6209000000.0 -0.824 -0.04881
6212000000.0 -0.4949 0.656
6216000000.0 0.1555 0.7735
6219000000.0 0.7351 0.3593
6222000000.0 0.7221 -0.3736
6225000000.0 0.1793 -0.8162
6228000000.0 -0.5176 -0.6629
6231000000.0 -0.8196 0.009773
6234000000.0 -0.498 0.7158
6238000000.0 0.2412 0.786
6241000000.0 0.7674 0.2982
6244000000.0 0.7346 -0.436
6247000000.0 0.09073 -0.8287
6250000000.0 -0.5809 -0.5892
6253000000.0 -0.8322 0.08519
6256000000.0 -0.414 0.7187
6259000000.0 0.2527 0.7902
6262000000.0 0.7644 0.269
6266000000.0 0.7174 -0.443
6269000000.0 0.0827 -0.8228
