! Created with skrf 1.8.0 (http://scikit-rf.org).
# Hz S RI R 50.0 
!freq ReS11 ImS11
4000000000.0 -0.1698 -1.465
4003000000.0 -1.269 -0.7917
4006000000.0 -1.47 0.4942
4009000000.0 -0.5336 1.445
4012000000.0 0.8154 1.331
4016000000.0 1.532 0.1763
4019000000.0 1.109 -1.063
4022000000.0 -0.1439 -1.565
4025000000.0 -1.307 -0.8828
4028000000.0 -1.539 0.5071
4031000000.0 -0.5914 1.502
4034000000.0 0.7899 1.388
4038000000.0 1.621 0.2567
4041000000.0 1.142 -1.136
4044000000.0 -0.1259 -1.611
4047000000.0 -1.344 -0.9065
4050000000.0 -1.583 0.4595
4053000000.0 -0.6433 1.483
4056000000.0 0.7849 1.427
4059000000.0 1.573 0.3793
4062000000.0 1.229 -1.007
4066000000.0 -0.008334 -1.605
4069000000.0 -1.24 -1.071
4072000000.0 -1.603 0.3321
4075000000.0 -0.7924 1.421
4078000000.0 0.5651 1.545
4081000000.0 1.555 0.525
4084000000.0 1.419 -0.8549
4088000000.0 0.2254 -1.686
4091000000.0 -1.12 -1.217
4094000000.0 -1.68 0.09989
4097000000.0 -0.9715 1.321
4100000000.0 0.3416 1.615
4103000000.0 1.406 0.6958
4106000000.0 1.466 -0.6362
4109000000.0 0.4117 -1.509
4112000000.0 -0.8378 -1.301
4116000000.0 -1.495 -0.1795
4119000000.0 -1.113 0.998
4122000000.0 0.02509 1.508
4125000000.0 1.146 0.9518
4128000000.0 1.445 -0.2245
4131000000.0 0.7823 -1.279
4134000000.0 -0.428 -1.436
4138000000.0 -1.371 -0.5798
4141000000.0 -1.367 0.6632
4144000000.0 -0.3568 1.463
4147000000.0 0.8635 1.239
4150000000.0 1.536 0.1558
4153000000.0 1.057 -1.063
4156000000.0 -0.1351 -1.506
4159000000.0 -1.254 -0.9029
4162000000.0 -1.47 0.3528
4166000000.0 -0.6722 1.385
4169000000.0 0.6423 1.384
4172000000.0 1.442 0.4018
4175000000.0 1.251 -0.8351
4178000000.0 0.1481 -1.465
4181000000.0 -1.038 -1.063
4184000000.0 -1.457 0.09524
4188000000.0 -0.911 1.222
4191000000.0 0.4222 1.487
4194000000.0 1.386 0.693
4197000000.0 1.38 -0.6857
4200000000.0 0.358 -1.564
4203000000.0 -0.9919 -1.269
4206000000.0 -1.616 -0.01528
4209000000.0 -1.054 1.256
4212000000.0 0.3438 1.619
4216000000.0 1.523 0.7569
4219000000.0 1.48 -0.7597
4222000000.0 0.3123 -1.626
4225000000.0 -1.128 -1.278
4228000000.0 -1.709 0.1246
4231000000.0 -0.9156 1.394
4234000000.0 0.5725 1.615
4238000000.0 1.58 0.5052
4241000000.0 1.306 -0.9169
4244000000.0 0.06829 -1.6
4247000000.0 -1.2 -1.05
4250000000.0 -1.543 0.3345
4253000000.0 -0.6529 1.407
4256000000.0 0.7398 1.354
4259000000.0 1.519 0.2861
4262000000.0 1.129 -0.9736
4266000000.0 -0.1281 -1.538
4269000000.0 -1.255 -0.8471
4272000000.0 -1.421 0.4109
4275000000.0 -0.4605 1.4
4278000000.0 0.733 1.243
4281000000.0 1.41 0.1383
4284000000.0 1.045 -1.026
4288000000.0 -0.155 -1.381
4291000000.0 -1.165 -0.7451
4294000000.0 -1.256 0.4404
4297000000.0 -0.4887 1.262
4300000000.0 0.6269 1.138
4303000000.0 1.321 0.2338
4306000000.0 0.9753 -0.8287
4309000000.0 -0.03335 -1.294
4312000000.0 -0.9958 -0.8275
4316000000.0 -1.317 0.1967
4319000000.0 -0.6704 1.124
4322000000.0 0.4476 1.219
4325000000.0 1.228 0.5039
4328000000.0 1.21 -0.6241
4331000000.0 0.261 -1.317
4334000000.0 -0.8949 -1.09
4338000000.0 -1.381 -0.03962
4341000000.0 -0.8963 1.047
4344000000.0 0.2271 1.386
4347000000.0 1.243 0.7273
4350000000.0 1.349 -0.5279
4353000000.0 0.4675 -1.341
4356000000.0 -0.7284 -1.251
4359000000.0 -1.422 -0.2611
4362000000.0 -1.084 0.98
4366000000.0 0.01514 1.452
4369000000.0 1.141 0.9503
4372000000.0 1.473 -0.3088
4375000000.0 0.6762 -1.3
4378000000.0 -0.5598 -1.381
4381000000.0 -1.47 -0.4406
4384000000.0 -1.266 0.8694
4388000000.0 -0.1651 1.535
4391000000.0 1.114 1.082
4394000000.0 1.556 -0.1671
4397000000.0 0.8427 -1.336
4400000000.0 -0.4853 -1.529
4403000000.0 -1.476 -0.5434
4406000000.0 -1.356 0.8668
4409000000.0 -0.1625 1.567
4412000000.0 1.101 1.1
4416000000.0 1.546 -0.2054
4419000000.0 0.779 -1.331
4422000000.0 -0.5483 -1.413
4425000000.0 -1.46 -0.4096
4428000000.0 -1.214 0.8615
4431000000.0 -0.03719 1.455
4434000000.0 1.073 0.9298
4438000000.0 1.386 -0.2527
4441000000.0 0.6344 -1.238
4444000000.0 -0.6091 -1.24
4447000000.0 -1.321 -0.2781
4450000000.0 -1.033 0.8404
4453000000.0 0.0572 1.337
4456000000.0 1.045 0.746
4459000000.0 1.222 -0.3664
4462000000.0 0.4308 -1.209
4466000000.0 -0.6503 -1.08
4469000000.0 -1.235 -0.1151
4472000000.0 -0.8255 0.9002
4475000000.0 0.1807 1.211
4478000000.0 1.045 0.6138
4481000000.0 1.074 -0.4669
4484000000.0 0.3643 -1.107
4488000000.0 -0.6696 -0.9489
4491000000.0 -1.125 -0.05668
4494000000.0 -0.7641 0.8848
4497000000.0 0.1816 1.105
4500000000.0 1.001 0.5416
4503000000.0 1.007 -0.4237
4506000000.0 0.297 -1.053
4509000000.0 -0.6241 -0.9214
4512000000.0 -1.104 -0.08015
4516000000.0 -0.7875 0.8049
4519000000.0 0.1685 1.119
4522000000.0 0.9692 0.5933
4525000000.0 1.06 -0.366
4528000000.0 0.388 -1.073
4531000000.0 -0.5934 -0.9908
4534000000.0 -1.157 -0.2185
4538000000.0 -0.8605 0.8003
4541000000.0 0.05147 1.17
4544000000.0 0.9353 0.7044
4547000000.0 1.14 -0.2479
4550000000.0 0.5527 -1.058
4553000000.0 -0.4425 -1.137
4556000000.0 -1.176 -0.353
4559000000.0 -1.027 0.6713
4562000000.0 -0.1592 1.24
4566000000.0 0.8676 0.9215
4569000000.0 1.295 -0.07391
4572000000.0 0.7843 -1.013
4575000000.0 -0.2961 -1.271
4578000000.0 -1.149 -0.5858
4581000000.0 -1.181 0.5231
4584000000.0 -0.3737 1.288
4588000000.0 0.7515 1.139
4591000000.0 1.353 0.1307
4594000000.0 0.9965 -1.004
4597000000.0 -0.1424 -1.364
4600000000.0 -1.146 -0.7484
4603000000.0 -1.358 0.3876
4606000000.0 -0.5611 1.292
4609000000.0 0.6618 1.261
4612000000.0 1.374 0.2609
4616000000.0 1.08 -0.8856
4619000000.0 0.0276 -1.4
4622000000.0 -1.111 -0.8795
4625000000.0 -1.376 0.2795
4628000000.0 -0.6397 1.207
4631000000.0 0.5519 1.262
4634000000.0 1.345 0.3746
4638000000.0 1.125 -0.8063
4641000000.0 0.08606 -1.381
4644000000.0 -0.9951 -0.9243
4647000000.0 -1.331 0.2408
4650000000.0 -0.668 1.122
4653000000.0 0.4971 1.193
4656000000.0 1.236 0.3345
4659000000.0 1.062 -0.7537
4662000000.0 0.06803 -1.273
4666000000.0 -0.9674 -0.7993
4669000000.0 -1.192 0.2037
4672000000.0 -0.5636 1.062
4675000000.0 0.4945 1.11
4678000000.0 1.145 0.284
4681000000.0 0.9389 -0.7268
4684000000.0 0.07606 -1.159
4688000000.0 -0.8002 -0.7151
4691000000.0 -1.103 0.1987
4694000000.0 -0.4885 0.9787
4697000000.0 0.4538 1.015
4700000000.0 1.072 0.2775
4703000000.0 0.8606 -0.6639
4706000000.0 0.001513 -1.064
4709000000.0 -0.8526 -0.6787
4712000000.0 -1.035 0.2352
4716000000.0 -0.4243 0.9322
4719000000.0 0.4469 0.9639
4722000000.0 1.028 0.2323
4725000000.0 0.8451 -0.6559
4728000000.0 0.04469 -1.066
4731000000.0 -0.7988 -0.6665
4734000000.0 -1.011 0.1603
4738000000.0 -0.4807 0.9049
4741000000.0 0.3989 0.9928
4744000000.0 0.959 0.3104
4747000000.0 0.8926 -0.5818
4750000000.0 0.1518 -1.085
4753000000.0 -0.7201 -0.8037
4756000000.0 -1.093 0.05049
4759000000.0 -0.6439 0.8589
4762000000.0 0.2738 1.129
4766000000.0 0.9945 0.5037
4769000000.0 1.049 -0.4657
4772000000.0 0.3268 -1.095
4775000000.0 -0.6332 -0.991
4778000000.0 -1.15 -0.128
4781000000.0 -0.8517 0.821
4784000000.0 0.08015 1.2
4788000000.0 0.976 0.7294
4791000000.0 1.2 -0.2898
4794000000.0 0.5375 -1.113
4797000000.0 -0.4959 -1.138
4800000000.0 -1.199 -0.3495
4803000000.0 -1.052 0.6746
4806000000.0 -0.1504 1.277
4809000000.0 0.8251 0.9147
4812000000.0 1.279 -0.06599
4816000000.0 0.7654 -1.065
4819000000.0 -0.2804 -1.298
4822000000.0 -1.181 -0.5968
4825000000.0 -1.26 0.529
4828000000.0 -0.3748 1.321
4831000000.0 0.7631 1.161
4834000000.0 1.384 0.09975
4838000000.0 0.9226 -1.015
4841000000.0 -0.1678 -1.373
4844000000.0 -1.212 -0.75
4847000000.0 -1.331 0.4505
4850000000.0 -0.4957 1.293
4853000000.0 0.6883 1.205
4856000000.0 1.36 0.2075
4859000000.0 1.032 -0.903
4862000000.0 -0.02553 -1.358
4866000000.0 -1.066 -0.8107
4869000000.0 -1.283 0.3252
4872000000.0 -0.5757 1.171
4875000000.0 0.5864 1.18
4878000000.0 1.264 0.2775
4881000000.0 1.013 -0.7719
4884000000.0 0.03882 -1.257
4888000000.0 -0.949 -0.7822
4891000000.0 -1.203 0.2129
4894000000.0 -0.5605 1.057
4897000000.0 0.4759 1.064
4900000000.0 1.099 0.3002
4903000000.0 0.892 -0.6616
4906000000.0 0.0889 -1.074
4909000000.0 -0.7797 -0.7415
4912000000.0 -1.03 0.1385
4916000000.0 -0.5064 0.9117
4919000000.0 0.3623 0.9477
4922000000.0 0.927 0.3248
4925000000.0 0.8397 -0.5216
4928000000.0 0.1305 -0.9324
4931000000.0 -0.6561 -0.7089
4934000000.0 -0.9602 0.07318
4938000000.0 -0.557 0.7909
4941000000.0 0.2414 0.9193
4944000000.0 0.8474 0.4028
4947000000.0 0.8513 -0.4132
4950000000.0 0.2258 -0.924
4953000000.0 -0.5776 -0.7721
4956000000.0 -0.9486 -0.0424
4959000000.0 -0.6104 0.7457
4962000000.0 0.1388 0.9429
4966000000.0 0.8541 0.4673
4969000000.0 0.9077 -0.3659
4972000000.0 0.2859 -0.932
4975000000.0 -0.5757 -0.8454
4978000000.0 -0.9976 -0.1098
4981000000.0 -0.7649 0.7196
4984000000.0 0.07627 1.022
4988000000.0 0.8651 0.5856
4991000000.0 1.029 -0.2913
4994000000.0 0.4543 -1.003
4997000000.0 -0.4504 -0.9959
5000000000.0 -1.091 -0.2864
5003000000.0 -0.9097 0.6859
5006000000.0 -0.07661 1.177
5009000000.0 0.8616 0.8043
5012000000.0 1.206 -0.1552
5016000000.0 0.6521 -1.06
5019000000.0 -0.4115 -1.158
5022000000.0 -1.178 -0.478
5025000000.0 -1.087 0.6365
5028000000.0 -0.2068 1.266
5031000000.0 0.8313 0.9977
5034000000.0 1.31 -0.03079
5038000000.0 0.7918 -1.035
5041000000.0 -0.262 -1.272
5044000000.0 -1.142 -0.6078
5047000000.0 -1.188 0.4782
5050000000.0 -0.4039 1.249
5053000000.0 0.6788 1.091
5056000000.0 1.288 0.1771
5059000000.0 0.9803 -0.8648
5062000000.0 -0.03796 -1.307
5066000000.0 -1.032 -0.8093
5069000000.0 -1.259 0.2636
5072000000.0 -0.576 1.163
5075000000.0 0.4987 1.168
5078000000.0 1.186 0.3446
5081000000.0 1.032 -0.7178
5084000000.0 0.1049 -1.246
5088000000.0 -0.8691 -0.8491
5091000000.0 -1.197 0.09385
5094000000.0 -0.7285 0.9595
5097000000.0 0.3212 1.143
5100000000.0 1.042 0.4678
5103000000.0 1.064 -0.4809
5106000000.0 0.2903 -1.054
5109000000.0 -0.6162 -0.9337
5112000000.0 -1.078 -0.1126
5116000000.0 -0.7699 0.7563
5119000000.0 0.0871 1.069
5122000000.0 0.8477 0.6249
5125000000.0 0.9858 -0.2783
5128000000.0 0.4256 -0.9522
5131000000.0 -0.4319 -0.8828
5134000000.0 -1.009 -0.2754
5138000000.0 -0.7935 0.6442
5141000000.0 -0.05403 1.001
5144000000.0 0.724 0.6468
5147000000.0 0.9793 -0.1626
5150000000.0 0.4795 -0.793
5153000000.0 -0.3368 -0.8725
5156000000.0 -0.8566 -0.2916
5159000000.0 -0.8237 0.4826
5162000000.0 -0.1335 0.8969
5166000000.0 0.6127 0.6551
5169000000.0 0.8956 -0.035
5172000000.0 0.5174 -0.7402
5175000000.0 -0.2275 -0.8747
5178000000.0 -0.8471 -0.3927
5181000000.0 -0.7902 0.42
5184000000.0 -0.1755 0.8877
5188000000.0 0.5879 0.7179
5191000000.0 0.9322 -0.04451
5194000000.0 0.55 -0.7598
5197000000.0 -0.2465 -0.9173
5200000000.0 -0.8666 -0.3832
5203000000.0 -0.839 0.4445
5206000000.0 -0.1822 0.9532
5209000000.0 0.6274 0.7292
5212000000.0 0.9689 -0.05729
5216000000.0 0.6211 -0.8053
5219000000.0 -0.2145 -0.9566
5222000000.0 -0.9065 -0.4432
5225000000.0 -0.9212 0.4049
5228000000.0 -0.269 0.9787
5231000000.0 0.6025 0.8146
5234000000.0 1.033 0.04237
5238000000.0 0.6997 -0.7662
5241000000.0 -0.1656 -1.014
5244000000.0 -0.9098 -0.547
5247000000.0 -1.016 0.3617
5250000000.0 -0.3728 0.9979
5253000000.0 0.5178 0.9244
5256000000.0 1.066 0.1854
5259000000.0 0.8391 -0.6815
5262000000.0 -0.01419 -1.109
5266000000.0 -0.8328 -0.6802
5269000000.0 -1.079 0.2154
5272000000.0 -0.5507 0.9557
5275000000.0 0.3346 1.029
5278000000.0 1.028 0.3818
5281000000.0 0.9585 -0.5138
5284000000.0 0.2208 -1.081
5288000000.0 -0.6859 -0.8703
5291000000.0 -1.116 -0.007191
5294000000.0 -0.7575 0.8409
5297000000.0 0.1037 1.097
5300000000.0 0.9472 0.6188
5303000000.0 1.074 -0.3338
5306000000.0 0.4472 -1.072
5309000000.0 -0.5138 -1.02
5312000000.0 -1.119 -0.2829
5316000000.0 -0.9065 0.7061
5319000000.0 -0.09128 1.146
5322000000.0 0.8387 0.8212
5325000000.0 1.152 -0.1425
5328000000.0 0.6266 -0.9572
5331000000.0 -0.3314 -1.089
5334000000.0 -1.068 -0.4585
5338000000.0 -1.024 0.5433
5341000000.0 -0.2389 1.116
5344000000.0 0.7184 0.8947
5347000000.0 1.104 0.04029
5350000000.0 0.7258 -0.8414
5353000000.0 -0.1649 -1.093
5356000000.0 -0.964 -0.5446
5359000000.0 -1.032 0.4187
5362000000.0 -0.3413 1.033
5366000000.0 0.5883 0.9004
5369000000.0 1.044 0.09746
5372000000.0 0.7591 -0.7299
5375000000.0 -0.1475 -1.02
5378000000.0 -0.9252 -0.5462
5381000000.0 -0.9693 0.3172
5384000000.0 -0.3276 0.9365
5388000000.0 0.5519 0.8334
5391000000.0 0.9665 0.05437
5394000000.0 0.6566 -0.673
5397000000.0 -0.1257 -0.9144
5400000000.0 -0.802 -0.4675
5403000000.0 -0.8619 0.3602
5406000000.0 -0.2557 0.862
5409000000.0 0.5116 0.7378
5412000000.0 0.874 0.08058
5416000000.0 0.5804 -0.646
5419000000.0 -0.1546 -0.8618
5422000000.0 -0.7427 -0.4223
5425000000.0 -0.8143 0.317
5428000000.0 -0.2218 0.8455
5431000000.0 0.4877 0.7351
5434000000.0 0.9017 0.01726
5438000000.0 0.581 -0.6332
5441000000.0 -0.1479 -0.8568
5444000000.0 -0.7711 -0.4091
5447000000.0 -0.845 0.3129
5450000000.0 -0.2519 0.8311
5453000000.0 0.4922 0.747
5456000000.0 0.8813 0.05693
5459000000.0 0.6359 -0.6485
5462000000.0 -0.1121 -0.8984
5466000000.0 -0.7665 -0.4949
5469000000.0 -0.901 0.2722
5472000000.0 -0.3735 0.8612
5475000000.0 0.4499 0.8217
5478000000.0 0.9267 0.2176
5481000000.0 0.7599 -0.5622
5484000000.0 0.02611 -0.9484
5488000000.0 -0.7346 -0.657
5491000000.0 -0.96 0.1558
5494000000.0 -0.4815 0.8637
5497000000.0 0.2913 0.9451
5500000000.0 0.9202 0.3642
5503000000.0 0.8946 -0.4837
5506000000.0 0.2128 -0.9691
5509000000.0 -0.6136 -0.8078
5512000000.0 -1.005 -0.04915
5516000000.0 -0.6842 0.7653
5519000000.0 0.1227 1.049
5522000000.0 0.8616 0.5706
5525000000.0 0.9837 -0.3014
5528000000.0 0.4362 -0.9963
5531000000.0 -0.4885 -0.9273
5534000000.0 -1.036 -0.261
5538000000.0 -0.88 0.6353
5541000000.0 -0.05975 1.032
5544000000.0 0.7749 0.7347
5547000000.0 1.036 -0.1146
5550000000.0 0.5738 -0.8881
5553000000.0 -0.3147 -1.002
5556000000.0 -1.001 -0.4223
5559000000.0 -0.9135 0.4575
5562000000.0 -0.2136 1.054
5566000000.0 0.6495 0.813
5569000000.0 1.037 0.04708
5572000000.0 0.7087 -0.7763
5575000000.0 -0.1859 -0.9732
5578000000.0 -0.8766 -0.5116
5581000000.0 -0.9522 0.3499
5584000000.0 -0.3251 0.9328
5588000000.0 0.5074 0.8496
5591000000.0 0.945 0.1466
5594000000.0 0.7214 -0.6397
5597000000.0 -0.02359 -0.9289
5600000000.0 -0.7194 -0.5593
5603000000.0 -0.897 0.2267
5606000000.0 -0.3786 0.8199
5609000000.0 0.3819 0.8046
5612000000.0 0.8618 0.2178
5616000000.0 0.6901 -0.5401
5619000000.0 0.0249 -0.8827
5622000000.0 -0.6438 -0.5487
5625000000.0 -0.8449 0.1574
5628000000.0 -0.4257 0.759
5631000000.0 0.3314 0.7911
5634000000.0 0.8168 0.2357
5638000000.0 0.7022 -0.489
5641000000.0 0.02064 -0.8507
5644000000.0 -0.6224 -0.5511
5647000000.0 -0.8434 0.1404
5650000000.0 -0.4504 0.7273
5653000000.0 0.3144 0.7979
5656000000.0 0.8263 0.2384
5659000000.0 0.7214 -0.4762
5662000000.0 0.05672 -0.8635
5666000000.0 -0.6519 -0.5782
5669000000.0 -0.8816 0.1156
5672000000.0 -0.445 0.7669
5675000000.0 0.3351 0.8153
5678000000.0 0.849 0.2889
5681000000.0 0.769 -0.5333
5684000000.0 0.08791 -0.9467
5688000000.0 -0.6829 -0.6531
5691000000.0 -0.9259 0.1178
5694000000.0 -0.5266 0.8236
5697000000.0 0.3275 0.9334
5700000000.0 0.9228 0.3321
5703000000.0 0.8838 -0.5498
5706000000.0 0.1705 -0.9997
5709000000.0 -0.6607 -0.7832
5712000000.0 -1.018 0.07566
5716000000.0 -0.6153 0.8392
5719000000.0 0.2803 1.022
5722000000.0 0.9982 0.4285
5725000000.0 0.9576 -0.4636
5728000000.0 0.2637 -1.038
5731000000.0 -0.6296 -0.8422
5734000000.0 -1.075 -0.04316
5738000000.0 -0.7072 0.8086
5741000000.0 0.1334 1.076
5744000000.0 0.9267 0.5765
5747000000.0 1.095 -0.3378
5750000000.0 0.4122 -1.023
5753000000.0 -0.5082 -1.011
5756000000.0 -1.072 -0.2468
5759000000.0 -0.8419 0.6701
5762000000.0 -0.03461 1.123
5766000000.0 0.8257 0.7227
5769000000.0 1.07 -0.1698
5772000000.0 0.5791 -0.9374
5775000000.0 -0.3338 -1.033
5778000000.0 -1.021 -0.4014
5781000000.0 -0.9776 0.5187
5784000000.0 -0.2302 1.051
5788000000.0 0.7063 0.8043
5791000000.0 1.094 0.004961
5794000000.0 0.7014 -0.8147
5797000000.0 -0.1286 -1.04
5800000000.0 -0.9408 -0.5111
5803000000.0 -1.025 0.3797
5806000000.0 -0.3736 0.9767
5809000000.0 0.5557 0.8945
5812000000.0 1.048 0.1904
5816000000.0 0.7637 -0.7147
5819000000.0 -0.02604 -1.052
5822000000.0 -0.8448 -0.631
5825000000.0 -0.9845 0.2339
5828000000.0 -0.4243 0.8739
5831000000.0 0.4542 0.8818
5834000000.0 0.9835 0.2485
5838000000.0 0.7843 -0.5722
5841000000.0 0.05541 -0.9847
5844000000.0 -0.7265 -0.6196
5847000000.0 -0.9359 0.1543
5850000000.0 -0.4655 0.8156
5853000000.0 0.3322 0.8773
5856000000.0 0.8727 0.2139
5859000000.0 0.7654 -0.5098
5862000000.0 0.1125 -0.9015
5866000000.0 -0.673 -0.6019
5869000000.0 -0.911 0.1696
5872000000.0 -0.4497 0.7875
5875000000.0 0.3482 0.819
5878000000.0 0.8445 0.2901
5881000000.0 0.7253 -0.4849
5884000000.0 0.04393 -0.8854
5888000000.0 -0.6154 -0.5945
5891000000.0 -0.8326 0.1181
5894000000.0 -0.4677 0.7439
5897000000.0 0.2773 0.8126
5900000000.0 0.8164 0.3097
5903000000.0 0.7688 -0.409
5906000000.0 0.116 -0.8774
5909000000.0 -0.5761 -0.619
5912000000.0 -0.8313 0.03827
5916000000.0 -0.5463 0.7075
5919000000.0 0.2513 0.8289
5922000000.0 0.7955 0.3595
5925000000.0 0.7846 -0.3888
5928000000.0 0.2198 -0.8323
5931000000.0 -0.5358 -0.7152
5934000000.0 -0.8903 -0.02562
5938000000.0 -0.5904 0.6425
5941000000.0 0.1034 0.8765
5944000000.0 0.768 0.4963
5947000000.0 0.8822 -0.2758
5950000000.0 0.327 -0.8288
5953000000.0 -0.4334 -0.8279
5956000000.0 -0.9094 -0.1956
5959000000.0 -0.732 0.5787
5962000000.0 0.01037 0.9341
5966000000.0 0.6908 0.6534
5969000000.0 0.926 -0.1429
5972000000.0 0.508 -0.8081
5975000000.0 -0.3023 -0.9349
5978000000.0 -0.9063 -0.3659
5981000000.0 -0.8741 0.4876
5984000000.0 -0.178 0.9695
5988000000.0 0.6298 0.7796
5991000000.0 0.9935 -0.005928
5994000000.0 0.6335 -0.7602
5997000000.0 -0.151 -0.9926
6000000000.0 -0.8958 -0.5057
6003000000.0 -0.926 0.3554
6006000000.0 -0.2958 0.9514
6009000000.0 0.5287 0.8536
6012000000.0 1.015 0.1417
6016000000.0 0.7196 -0.7038
6019000000.0 -0.03841 -0.9974
6022000000.0 -0.8146 -0.5799
6025000000.0 -0.948 0.267
6028000000.0 -0.4087 0.8878
6031000000.0 0.4281 0.8804
6034000000.0 0.9465 0.2188
6038000000.0 0.7709 -0.5567
6041000000.0 0.02725 -0.966
6044000000.0 -0.7408 -0.6217
6047000000.0 -0.951 0.1821
6050000000.0 -0.4546 0.8163
6053000000.0 0.3372 0.8878
6056000000.0 0.9026 0.2833
6059000000.0 0.7642 -0.4883
6062000000.0 0.07994 -0.9285
6066000000.0 -0.6599 -0.6463
6069000000.0 -0.8988 0.1217
6072000000.0 -0.4781 0.7687
6075000000.0 0.2774 0.8451
6078000000.0 0.8165 0.273
6081000000.0 0.7402 -0.4352
6084000000.0 0.1094 -0.8452
6088000000.0 -0.6 -0.6272
6091000000.0 -0.8574 0.05115
6094000000.0 -0.4932 0.7122
6097000000.0 0.2515 0.7852
6100000000.0 0.7975 0.3426
6103000000.0 0.7386 -0.4129
6106000000.0 0.1898 -0.8377
6109000000.0 -0.549 -0.6391
6112000000.0 -0.8524 0.02557
6116000000.0 -0.5332 0.6628
6119000000.0 0.2313 0.8717
6122000000.0 0.7936 0.3795
6125000000.0 0.8082 -0.402
6128000000.0 0.1824 -0.8466
6131000000.0 -0.5409 -0.6757
6134000000.0 -0.8898 0.00408
6138000000.0 -0.569 0.6574
6141000000.0 0.1675 0.8539
6144000000.0 0.7634 0.4299
6147000000.0 0.854 -0.3482
6150000000.0 0.248 -0.8545
6153000000.0 -0.5328 -0.7529
6156000000.0 -0.9031 -0.08135
6159000000.0 -0.6474 0.6936
6162000000.0 0.0999 0.9279
6166000000.0 0.7677 0.515
6169000000.0 0.9013 -0.2691
6172000000.0 0.3581 -0.904
6175000000.0 -0.4694 -0.8171
6178000000.0 -0.9355 -0.1386
6181000000.0 -0.7272 0.6019
6184000000.0 0.03569 0.9659
6188000000.0 0.7592 0.5807
6191000000.0 0.9338 -0.1971
6194000000.0 0.4078 -0.8732
6197000000.0 -0.3692 -0.8476
6200000000.0 -0.9013 -0.2379
6203000000.0 -0.7994 0.5875
6206000000.0 -0.08907 0.9311
6209000000.0 0.6516 0.6828
6212000000.0 0.8876 -0.1277
6216000000.0 0.5193 -0.7581
6219000000.0 -0.2512 -0.8737
6222000000.0 -0.8488 -0.3362
6225000000.0 -0.7821 0.3868
6228000000.0 -0.1755 0.8948
6231000000.0 0.5482 0.6703
6234000000.0 0.8861 0.01819
6238000000.0 0.5761 -0.6737
6241000000.0 -0.1566 -0.8906
6244000000.0 -0.7529 -0.4312
6247000000.0 -0.7987 0.3476
6250000000.0 -0.2958 0.7948
6253000000.0 0.3912 0.7411
6256000000.0 0.8121 0.1215
6259000000.0 0.6242 -0.5579
6262000000.0 0.007663 -0.83
6266000000.0 -0.6312 -0.5039
6269000000.0 -0.8035 0.161
