! Created with skrf 1.8.0 (http://scikit-rf.org).
# Hz S RI R 50.0 
!freq ReS11 ImS11
4000000000.0 -0.1742 -1.482
4003000000.0 -1.263 -0.8187
4006000000.0 -1.422 0.4446
4009000000.0 -0.5426 1.44
4012000000.0 0.6978 1.282
4016000000.0 1.525 0.2191
4019000000.0 1.106 -0.987
4022000000.0 -0.1385 -1.587
4025000000.0 -1.294 -0.9313
4028000000.0 -1.528 0.445
4031000000.0 -0.5836 1.488
4034000000.0 0.755 1.42
4038000000.0 1.595 0.2573
4041000000.0 1.164 -1.069
4044000000.0 -0.1361 -1.603
4047000000.0 -1.272 -0.9118
4050000000.0 -1.552 0.4648
4053000000.0 -0.6425 1.509
4056000000.0 0.7234 1.449
4059000000.0 1.58 0.3006
4062000000.0 1.263 -0.9463
4066000000.0 0.003772 -1.582
4069000000.0 -1.218 -1.04
4072000000.0 -1.612 0.2749
4075000000.0 -0.8048 1.399
4078000000.0 0.5701 1.515
4081000000.0 1.539 0.5603
4084000000.0 1.411 -0.8575
4088000000.0 0.2366 -1.64
4091000000.0 -1.116 -1.266
4094000000.0 -1.591 0.1021
4097000000.0 -0.9567 1.279
4100000000.0 0.4167 1.638
4103000000.0 1.419 0.7055
4106000000.0 1.45 -0.6128
4109000000.0 0.4742 -1.486
4112000000.0 -0.8321 -1.269
4116000000.0 -1.513 -0.2119
4119000000.0 -1.105 0.9845
4122000000.0 0.04552 1.475
4125000000.0 1.139 0.9003
4128000000.0 1.462 -0.2182
4131000000.0 0.7707 -1.254
4134000000.0 -0.4406 -1.429
4138000000.0 -1.361 -0.6383
4141000000.0 -1.316 0.6417
4144000000.0 -0.3552 1.426
4147000000.0 0.8325 1.236
4150000000.0 1.512 0.1512
4153000000.0 1.066 -1.091
4156000000.0 -0.09809 -1.505
4159000000.0 -1.245 -0.8992
4162000000.0 -1.467 0.3875
4166000000.0 -0.6557 1.361
4169000000.0 0.6185 1.368
4172000000.0 1.422 0.393
4175000000.0 1.227 -0.8359
4178000000.0 0.1785 -1.473
4181000000.0 -1.013 -1.099
4184000000.0 -1.516 0.09408
4188000000.0 -0.9346 1.194
4191000000.0 0.3758 1.471
4194000000.0 1.366 0.6698
4197000000.0 1.435 -0.6571
4200000000.0 0.3524 -1.492
4203000000.0 -0.9282 -1.288
4206000000.0 -1.585 -0.02735
4209000000.0 -1.048 1.218
4212000000.0 0.3355 1.596
4216000000.0 1.497 0.7392
4219000000.0 1.528 -0.7288
4222000000.0 0.3776 -1.681
4225000000.0 -1.093 -1.302
4228000000.0 -1.667 0.1284
4231000000.0 -0.8829 1.356
4234000000.0 0.5684 1.581
4238000000.0 1.57 0.5397
4241000000.0 1.327 -0.8827
4244000000.0 0.09658 -1.633
4247000000.0 -1.19 -1.032
4250000000.0 -1.536 0.2846
4253000000.0 -0.6567 1.384
4256000000.0 0.6621 1.39
4259000000.0 1.521 0.2898
4262000000.0 1.132 -0.9977
4266000000.0 -0.06214 -1.518
4269000000.0 -1.246 -0.8711
4272000000.0 -1.395 0.4317
4275000000.0 -0.4877 1.416
4278000000.0 0.7576 1.221
4281000000.0 1.435 0.1799
4284000000.0 1.008 -1.002
4288000000.0 -0.1394 -1.389
4291000000.0 -1.11 -0.7687
4294000000.0 -1.274 0.4254
4297000000.0 -0.4991 1.231
4300000000.0 0.6591 1.16
4303000000.0 1.282 0.2483
4306000000.0 1.026 -0.8198
4309000000.0 0.005033 -1.277
4312000000.0 -0.9599 -0.8663
4316000000.0 -1.27 0.1845
4319000000.0 -0.6622 1.082
4322000000.0 0.3902 1.241
4325000000.0 1.195 0.4766
4328000000.0 1.179 -0.6106
4331000000.0 0.2789 -1.268
4334000000.0 -0.843 -1.081
4338000000.0 -1.392 -0.06916
4341000000.0 -0.9274 1.061
4344000000.0 0.1978 1.376
4347000000.0 1.204 0.7044
4350000000.0 1.343 -0.4564
4353000000.0 0.4974 -1.352
4356000000.0 -0.6842 -1.271
4359000000.0 -1.414 -0.2525
4362000000.0 -1.1 0.9124
4366000000.0 0.006907 1.453
4369000000.0 1.139 0.8949
4372000000.0 1.422 -0.2629
4375000000.0 0.6888 -1.323
4378000000.0 -0.5662 -1.383
4381000000.0 -1.422 -0.4585
4384000000.0 -1.269 0.8081
4388000000.0 -0.2101 1.499
4391000000.0 1.067 1.136
4394000000.0 1.548 -0.1348
4397000000.0 0.8773 -1.285
4400000000.0 -0.4874 -1.48
4403000000.0 -1.485 -0.5496
4406000000.0 -1.357 0.8074
4409000000.0 -0.1978 1.544
4412000000.0 1.115 1.108
4416000000.0 1.524 -0.186
4419000000.0 0.7566 -1.301
4422000000.0 -0.5516 -1.439
4425000000.0 -1.423 -0.4841
4428000000.0 -1.234 0.8526
4431000000.0 -0.1035 1.461
4434000000.0 1.092 0.9622
4438000000.0 1.391 -0.2261
4441000000.0 0.666 -1.183
4444000000.0 -0.5905 -1.256
4447000000.0 -1.316 -0.3001
4450000000.0 -1.017 0.8294
4453000000.0 0.02129 1.324
4456000000.0 1.047 0.7818
4459000000.0 1.231 -0.3291
4462000000.0 0.4468 -1.194
4466000000.0 -0.6525 -1.042
4469000000.0 -1.2 -0.1594
4472000000.0 -0.8655 0.8303
4475000000.0 0.1379 1.205
4478000000.0 0.9905 0.6069
4481000000.0 1.099 -0.4066
4484000000.0 0.3001 -1.121
4488000000.0 -0.6298 -0.9398
4491000000.0 -1.141 -0.08788
4494000000.0 -0.7405 0.8042
4497000000.0 0.1725 1.118
4500000000.0 0.963 0.5633
4503000000.0 1.026 -0.3837
4506000000.0 0.357 -1.034
4509000000.0 -0.5921 -0.8815
4512000000.0 -1.082 -0.09386
4516000000.0 -0.7817 0.7846
4519000000.0 0.129 1.097
4522000000.0 0.9626 0.5917
4525000000.0 1.071 -0.3171
4528000000.0 0.4104 -1.073
4531000000.0 -0.5483 -1.018
4534000000.0 -1.155 -0.1866
4538000000.0 -0.8859 0.7394
4541000000.0 0.00236 1.172
4544000000.0 0.9428 0.7172
4547000000.0 1.169 -0.2585
4550000000.0 0.5701 -1.06
4553000000.0 -0.4596 -1.14
4556000000.0 -1.138 -0.3439
4559000000.0 -1.051 0.6667
4562000000.0 -0.1721 1.223
4566000000.0 0.861 0.9187
4569000000.0 1.254 -0.04304
4572000000.0 0.772 -1.006
4575000000.0 -0.2631 -1.256
4578000000.0 -1.145 -0.5927
4581000000.0 -1.256 0.503
4584000000.0 -0.4005 1.295
4588000000.0 0.7237 1.119
4591000000.0 1.312 0.14
4594000000.0 0.9906 -0.93
4597000000.0 -0.09579 -1.366
4600000000.0 -1.133 -0.7795
4603000000.0 -1.339 0.3671
4606000000.0 -0.5561 1.277
4609000000.0 0.615 1.233
4612000000.0 1.356 0.3199
4616000000.0 1.085 -0.8488
4619000000.0 0.02736 -1.404
4622000000.0 -1.059 -0.8986
4625000000.0 -1.359 0.261
4628000000.0 -0.6636 1.208
4631000000.0 0.5156 1.261
4634000000.0 1.338 0.4002
4638000000.0 1.124 -0.7702
4641000000.0 0.1191 -1.356
4644000000.0 -0.9709 -0.909
4647000000.0 -1.333 0.1635
4650000000.0 -0.6492 1.12
4653000000.0 0.4723 1.207
4656000000.0 1.181 0.3632
4659000000.0 1.062 -0.7291
4662000000.0 0.06139 -1.273
4666000000.0 -0.9418 -0.814
4669000000.0 -1.192 0.2093
4672000000.0 -0.5646 1.059
4675000000.0 0.4246 1.105
4678000000.0 1.085 0.2833
4681000000.0 0.9399 -0.6575
4684000000.0 0.05307 -1.099
4688000000.0 -0.8236 -0.7379
4691000000.0 -1.112 0.1962
4694000000.0 -0.5215 0.9668
4697000000.0 0.4255 1.034
4700000000.0 1.054 0.2747
4703000000.0 0.8517 -0.6434
4706000000.0 0.03587 -1.07
4709000000.0 -0.839 -0.689
4712000000.0 -1.066 0.1869
4716000000.0 -0.4889 0.9642
4719000000.0 0.4425 0.9655
4722000000.0 1.024 0.2617
4725000000.0 0.8208 -0.6399
4728000000.0 0.03357 -1.037
4731000000.0 -0.7893 -0.6696
4734000000.0 -1.021 0.1661
4738000000.0 -0.5232 0.9089
4741000000.0 0.3491 0.9635
4744000000.0 0.9797 0.3566
4747000000.0 0.9055 -0.5665
4750000000.0 0.1782 -1.061
4753000000.0 -0.7023 -0.7989
4756000000.0 -1.078 0.06581
4759000000.0 -0.6686 0.8777
4762000000.0 0.2496 1.073
4766000000.0 1.004 0.5366
4769000000.0 1.05 -0.4336
4772000000.0 0.3139 -1.088
4775000000.0 -0.6198 -0.9765
4778000000.0 -1.13 -0.1541
4781000000.0 -0.8879 0.7837
4784000000.0 0.06868 1.166
4788000000.0 0.962 0.7153
4791000000.0 1.172 -0.293
4794000000.0 0.5732 -1.063
4797000000.0 -0.4699 -1.149
4800000000.0 -1.177 -0.3736
4803000000.0 -1.07 0.6248
4806000000.0 -0.1981 1.222
4809000000.0 0.8342 0.9388
4812000000.0 1.263 -0.02975
4816000000.0 0.8014 -1.003
4819000000.0 -0.28 -1.302
4822000000.0 -1.181 -0.6379
4825000000.0 -1.245 0.5105
4828000000.0 -0.4074 1.295
4831000000.0 0.7471 1.147
4834000000.0 1.36 0.1378
4838000000.0 0.9985 -0.973
4841000000.0 -0.1411 -1.353
4844000000.0 -1.14 -0.7732
4847000000.0 -1.317 0.4064
4850000000.0 -0.5022 1.268
4853000000.0 0.6397 1.194
4856000000.0 1.331 0.2548
4859000000.0 1.038 -0.8813
4862000000.0 -0.002887 -1.365
4866000000.0 -1.053 -0.8402
4869000000.0 -1.297 0.2745
4872000000.0 -0.5766 1.201
4875000000.0 0.5384 1.175
4878000000.0 1.248 0.2981
4881000000.0 0.9998 -0.764
4884000000.0 0.04834 -1.274
4888000000.0 -0.9376 -0.8023
4891000000.0 -1.196 0.1978
4894000000.0 -0.5687 1.052
4897000000.0 0.4383 1.072
4900000000.0 1.06 0.34
4903000000.0 0.9285 -0.6213
4906000000.0 0.0801 -1.088
4909000000.0 -0.7665 -0.7167
4912000000.0 -1.011 0.1382
4916000000.0 -0.5589 0.8627
4919000000.0 0.3486 0.9521
4922000000.0 0.9367 0.3359
4925000000.0 0.8557 -0.4522
4928000000.0 0.1608 -0.935
4931000000.0 -0.6302 -0.7137
4934000000.0 -0.9471 0.03721
4938000000.0 -0.5735 0.7645
4941000000.0 0.2197 0.9085
4944000000.0 0.8306 0.4123
4947000000.0 0.8335 -0.3971
4950000000.0 0.2438 -0.9139
4953000000.0 -0.5798 -0.7526
4956000000.0 -0.9591 -0.0423
4959000000.0 -0.6666 0.7073
4962000000.0 0.1518 0.9642
4966000000.0 0.8518 0.4443
4969000000.0 0.9321 -0.339
4972000000.0 0.2925 -0.9052
4975000000.0 -0.5141 -0.8489
4978000000.0 -1.017 -0.1243
4981000000.0 -0.7368 0.7109
4984000000.0 0.05386 1.035
4988000000.0 0.8382 0.6229
4991000000.0 1.024 -0.2727
4994000000.0 0.4595 -0.9773
4997000000.0 -0.4341 -0.9763
5000000000.0 -1.064 -0.2943
5003000000.0 -0.9227 0.6488
5006000000.0 -0.07906 1.18
5009000000.0 0.8454 0.8183
5012000000.0 1.167 -0.1327
5016000000.0 0.637 -1.02
5019000000.0 -0.3859 -1.163
5022000000.0 -1.15 -0.4578
5025000000.0 -1.082 0.6089
5028000000.0 -0.2557 1.243
5031000000.0 0.8092 0.9632
5034000000.0 1.257 -0.02762
5038000000.0 0.8093 -0.9902
5041000000.0 -0.2473 -1.275
5044000000.0 -1.109 -0.6101
5047000000.0 -1.183 0.4548
5050000000.0 -0.3891 1.215
5053000000.0 0.6608 1.127
5056000000.0 1.254 0.2001
5059000000.0 0.9976 -0.8289
5062000000.0 -0.02987 -1.273
5066000000.0 -0.9934 -0.8265
5069000000.0 -1.292 0.2611
5072000000.0 -0.5803 1.143
5075000000.0 0.4715 1.187
5078000000.0 1.186 0.392
5081000000.0 1.028 -0.6896
5084000000.0 0.1456 -1.218
5088000000.0 -0.8288 -0.8901
5091000000.0 -1.215 0.08989
5094000000.0 -0.6933 0.9527
5097000000.0 0.2776 1.117
5100000000.0 1.001 0.4687
5103000000.0 1.02 -0.4552
5106000000.0 0.3328 -1.096
5109000000.0 -0.6267 -0.9236
5112000000.0 -1.076 -0.1369
5116000000.0 -0.7757 0.729
5119000000.0 0.0512 1.02
5122000000.0 0.868 0.6319
5125000000.0 1.01 -0.2262
5128000000.0 0.4269 -0.9127
5131000000.0 -0.4364 -0.8769
5134000000.0 -0.9359 -0.2378
5138000000.0 -0.7686 0.5647
5141000000.0 -0.06479 0.9906
5144000000.0 0.6981 0.6819
5147000000.0 0.9585 -0.1424
5150000000.0 0.5118 -0.7905
5153000000.0 -0.3285 -0.8662
5156000000.0 -0.8597 -0.35
5159000000.0 -0.8171 0.4517
5162000000.0 -0.1399 0.8875
5166000000.0 0.5851 0.6813
5169000000.0 0.9018 -0.05523
5172000000.0 0.5188 -0.7175
5175000000.0 -0.1862 -0.8571
5178000000.0 -0.8332 -0.3906
5181000000.0 -0.7931 0.4482
5184000000.0 -0.1621 0.8624
5188000000.0 0.5611 0.7048
5191000000.0 0.9174 -0.02073
5194000000.0 0.5543 -0.7287
5197000000.0 -0.2526 -0.9092
5200000000.0 -0.8132 -0.3648
5203000000.0 -0.8423 0.4234
5206000000.0 -0.2055 0.9287
5209000000.0 0.5884 0.7434
5212000000.0 0.9674 -0.002267
5216000000.0 0.6075 -0.7674
5219000000.0 -0.1838 -0.9725
5222000000.0 -0.8791 -0.4243
5225000000.0 -0.9263 0.3921
5228000000.0 -0.258 0.9443
5231000000.0 0.5863 0.8628
5234000000.0 1.05 0.08087
5238000000.0 0.7187 -0.7644
5241000000.0 -0.1287 -1.021
5244000000.0 -0.9014 -0.5706
5247000000.0 -1.0 0.3257
5250000000.0 -0.379 0.972
5253000000.0 0.5235 0.9529
5256000000.0 1.049 0.1995
5259000000.0 0.8227 -0.6717
5262000000.0 -0.006764 -1.073
5266000000.0 -0.8293 -0.7209
5269000000.0 -1.071 0.1642
5272000000.0 -0.5502 0.9609
5275000000.0 0.3436 1.032
5278000000.0 1.01 0.3797
5281000000.0 0.9745 -0.4974
5284000000.0 0.2488 -1.067
5288000000.0 -0.6706 -0.8701
5291000000.0 -1.118 -0.04611
5294000000.0 -0.7724 0.7937
5297000000.0 0.1188 1.105
5300000000.0 0.9204 0.6286
5303000000.0 1.077 -0.2908
5306000000.0 0.4385 -1.025
5309000000.0 -0.4398 -1.032
5312000000.0 -1.102 -0.3139
5316000000.0 -0.9438 0.6245
5319000000.0 -0.09858 1.166
5322000000.0 0.8254 0.8199
5325000000.0 1.143 -0.1144
5328000000.0 0.6536 -0.9397
5331000000.0 -0.3114 -1.076
5334000000.0 -1.038 -0.4761
5338000000.0 -1.008 0.5121
5341000000.0 -0.2599 1.097
5344000000.0 0.6467 0.9014
5347000000.0 1.115 0.06443
5350000000.0 0.7418 -0.8371
5353000000.0 -0.1861 -1.121
5356000000.0 -0.9183 -0.5576
5359000000.0 -1.001 0.3802
5362000000.0 -0.37 1.039
5366000000.0 0.5382 0.9006
5369000000.0 1.061 0.09839
5372000000.0 0.7385 -0.7369
5375000000.0 -0.1216 -1.024
5378000000.0 -0.8604 -0.5669
5381000000.0 -0.9618 0.3475
5384000000.0 -0.3593 0.9578
5388000000.0 0.5138 0.8199
5391000000.0 0.9517 0.1088
5394000000.0 0.6654 -0.6657
5397000000.0 -0.1266 -0.91
5400000000.0 -0.7755 -0.4945
5403000000.0 -0.8488 0.3265
5406000000.0 -0.2569 0.8446
5409000000.0 0.4795 0.7364
5412000000.0 0.8856 0.07815
5416000000.0 0.6045 -0.602
5419000000.0 -0.1182 -0.8465
5422000000.0 -0.7357 -0.4411
5425000000.0 -0.8174 0.2618
5428000000.0 -0.288 0.8687
5431000000.0 0.4618 0.7113
5434000000.0 0.8652 0.1122
5438000000.0 0.5973 -0.6493
5441000000.0 -0.1078 -0.8692
5444000000.0 -0.7261 -0.4596
5447000000.0 -0.8091 0.306
5450000000.0 -0.278 0.8137
5453000000.0 0.4943 0.7499
5456000000.0 0.8934 0.1221
5459000000.0 0.6563 -0.6063
5462000000.0 -0.05716 -0.9028
5466000000.0 -0.7246 -0.4988
5469000000.0 -0.8628 0.226
5472000000.0 -0.3513 0.8576
5475000000.0 0.387 0.8574
5478000000.0 0.8884 0.2287
5481000000.0 0.781 -0.5258
5484000000.0 0.07951 -0.9323
5488000000.0 -0.6951 -0.6671
5491000000.0 -0.9395 0.129
5494000000.0 -0.5347 0.8234
5497000000.0 0.2935 0.9569
5500000000.0 0.9054 0.386
5503000000.0 0.8948 -0.4551
5506000000.0 0.2373 -0.9801
5509000000.0 -0.585 -0.8154
5512000000.0 -1.038 -0.07541
5516000000.0 -0.7026 0.7563
5519000000.0 0.09625 1.03
5522000000.0 0.8437 0.5763
5525000000.0 0.9794 -0.2789
5528000000.0 0.4459 -0.9345
5531000000.0 -0.423 -0.9717
5534000000.0 -0.977 -0.2613
5538000000.0 -0.8908 0.5852
5541000000.0 -0.1192 1.027
5544000000.0 0.7465 0.7677
5547000000.0 1.047 -0.1258
5550000000.0 0.6067 -0.8703
5553000000.0 -0.3101 -1.015
5556000000.0 -0.9851 -0.4243
5559000000.0 -0.9191 0.4692
5562000000.0 -0.2428 1.017
5566000000.0 0.6167 0.8319
5569000000.0 1.042 0.05472
5572000000.0 0.6741 -0.7523
5575000000.0 -0.1138 -0.9739
5578000000.0 -0.9051 -0.5261
5581000000.0 -0.9572 0.3211
5584000000.0 -0.3688 0.9061
5588000000.0 0.4721 0.8338
5591000000.0 0.9138 0.1661
5594000000.0 0.7255 -0.6272
5597000000.0 -0.04234 -0.9426
5600000000.0 -0.7195 -0.5593
5603000000.0 -0.8852 0.1985
5606000000.0 -0.4217 0.8109
5609000000.0 0.3356 0.812
5612000000.0 0.845 0.2488
5616000000.0 0.7014 -0.5267
5619000000.0 0.03193 -0.8536
5622000000.0 -0.6481 -0.5789
5625000000.0 -0.8479 0.1339
5628000000.0 -0.4251 0.7262
5631000000.0 0.306 0.8
5634000000.0 0.7786 0.2585
5638000000.0 0.7007 -0.4958
5641000000.0 0.08343 -0.8134
5644000000.0 -0.6204 -0.5714
5647000000.0 -0.8318 0.1086
5650000000.0 -0.4525 0.6766
5653000000.0 0.293 0.7861
5656000000.0 0.79 0.2474
5659000000.0 0.7138 -0.4677
5662000000.0 0.09612 -0.8424
5666000000.0 -0.6121 -0.6216
5669000000.0 -0.8842 0.1207
5672000000.0 -0.4802 0.7592
5675000000.0 0.3159 0.8411
5678000000.0 0.869 0.2892
5681000000.0 0.7752 -0.4739
5684000000.0 0.1064 -0.9397
5688000000.0 -0.6812 -0.6623
5691000000.0 -0.9502 0.1227
5694000000.0 -0.5095 0.7903
5697000000.0 0.2972 0.9147
5700000000.0 0.909 0.3567
5703000000.0 0.8511 -0.4939
5706000000.0 0.1717 -0.9922
5709000000.0 -0.6695 -0.7826
5712000000.0 -1.029 0.03696
5716000000.0 -0.6363 0.825
5719000000.0 0.2405 1.036
5722000000.0 0.9491 0.4876
5725000000.0 1.002 -0.4237
5728000000.0 0.3042 -1.003
5731000000.0 -0.5917 -0.8789
5734000000.0 -1.047 -0.1048
5738000000.0 -0.748 0.7462
5741000000.0 0.1174 1.102
5744000000.0 0.8933 0.612
5747000000.0 1.057 -0.3192
5750000000.0 0.4433 -0.984
5753000000.0 -0.4839 -0.9787
5756000000.0 -1.09 -0.2678
5759000000.0 -0.9207 0.7019
5762000000.0 -0.07269 1.078
5766000000.0 0.7502 0.7625
5769000000.0 1.119 -0.14
5772000000.0 0.5773 -0.9604
5775000000.0 -0.3336 -1.041
5778000000.0 -0.9911 -0.4485
5781000000.0 -0.9498 0.5044
5784000000.0 -0.2407 1.048
5788000000.0 0.6419 0.8875
5791000000.0 1.113 0.07102
5794000000.0 0.7682 -0.7924
5797000000.0 -0.1677 -1.046
5800000000.0 -0.9174 -0.574
5803000000.0 -0.9963 0.3432
5806000000.0 -0.3667 0.9913
5809000000.0 0.5049 0.9081
5812000000.0 1.032 0.1688
5816000000.0 0.7672 -0.6941
5819000000.0 0.0004547 -1.048
5822000000.0 -0.8097 -0.6225
5825000000.0 -0.9994 0.225
5828000000.0 -0.4509 0.9294
5831000000.0 0.4049 0.9008
5834000000.0 0.9615 0.2894
5838000000.0 0.8231 -0.5827
5841000000.0 0.06091 -0.9381
5844000000.0 -0.6854 -0.6665
5847000000.0 -0.9274 0.1503
5850000000.0 -0.4851 0.8658
5853000000.0 0.335 0.8916
5856000000.0 0.849 0.3133
5859000000.0 0.7807 -0.4849
5862000000.0 0.07998 -0.9196
5866000000.0 -0.6363 -0.6423
5869000000.0 -0.8896 0.1192
5872000000.0 -0.4616 0.7786
5875000000.0 0.3246 0.8283
5878000000.0 0.8449 0.2697
5881000000.0 0.7198 -0.4346
5884000000.0 0.09954 -0.8814
5888000000.0 -0.5891 -0.6301
5891000000.0 -0.8694 0.02743
5894000000.0 -0.5268 0.7059
5897000000.0 0.2473 0.7992
5900000000.0 0.8057 0.3079
5903000000.0 0.7641 -0.389
5906000000.0 0.1625 -0.8268
5909000000.0 -0.5601 -0.6311
5912000000.0 -0.8271 0.007061
5916000000.0 -0.5248 0.6569
5919000000.0 0.1764 0.8557
5922000000.0 0.7512 0.3896
5925000000.0 0.8129 -0.3329
5928000000.0 0.2262 -0.8515
5931000000.0 -0.4988 -0.7373
5934000000.0 -0.8837 -0.08597
5938000000.0 -0.6048 0.6667
5941000000.0 0.09669 0.8627
5944000000.0 0.7557 0.5068
5947000000.0 0.8443 -0.2309
5950000000.0 0.3807 -0.8137
5953000000.0 -0.3501 -0.7783
5956000000.0 -0.891 -0.2129
5959000000.0 -0.7267 0.5512
5962000000.0 -0.09659 0.9178
5966000000.0 0.6783 0.6363
5969000000.0 0.9235 -0.1184
5972000000.0 0.5165 -0.7967
5975000000.0 -0.2668 -0.8815
5978000000.0 -0.8654 -0.377
5981000000.0 -0.9029 0.419
5984000000.0 -0.2134 0.9274
5988000000.0 0.603 0.7909
5991000000.0 0.9854 0.06423
5994000000.0 0.6622 -0.6973
5997000000.0 -0.1143 -0.9796
6000000000.0 -0.8604 -0.527
6003000000.0 -0.9082 0.3323
6006000000.0 -0.3429 0.9392
6009000000.0 0.483 0.8472
6012000000.0 0.9775 0.1774
6016000000.0 0.7581 -0.6488
6019000000.0 -0.02839 -0.9822
6022000000.0 -0.7913 -0.6189
6025000000.0 -0.9541 0.2217
6028000000.0 -0.438 0.8901
6031000000.0 0.3772 0.9025
6034000000.0 0.9478 0.2616
6038000000.0 0.7732 -0.5406
6041000000.0 0.07011 -0.9516
6044000000.0 -0.7225 -0.6438
6047000000.0 -0.9376 0.1309
6050000000.0 -0.5129 0.8245
6053000000.0 0.3192 0.8991
6056000000.0 0.8791 0.3143
6059000000.0 0.8087 -0.508
6062000000.0 0.1056 -0.9209
6066000000.0 -0.6464 -0.6571
6069000000.0 -0.9088 0.06379
6072000000.0 -0.5056 0.7379
6075000000.0 0.254 0.8292
6078000000.0 0.8126 0.3174
6081000000.0 0.77 -0.4484
6084000000.0 0.1395 -0.8555
6088000000.0 -0.5774 -0.6725
6091000000.0 -0.8617 0.02624
6094000000.0 -0.5382 0.6912
6097000000.0 0.2166 0.8302
6100000000.0 0.7727 0.3698
6103000000.0 0.7486 -0.3723
6106000000.0 0.1981 -0.8122
6109000000.0 -0.519 -0.6631
6112000000.0 -0.8449 -0.005639
6116000000.0 -0.5164 0.6738
6119000000.0 0.1762 0.8397
6122000000.0 0.7577 0.4007
6125000000.0 0.7843 -0.3657
6128000000.0 0.2345 -0.8315
6131000000.0 -0.4967 -0.7044
6134000000.0 -0.8753 -0.03863
6138000000.0 -0.6082 0.6444
6141000000.0 0.1088 0.8898
6144000000.0 0.7641 0.4614
6147000000.0 0.8319 -0.3092
6150000000.0 0.2923 -0.8326
6153000000.0 -0.4455 -0.7792
6156000000.0 -0.8595 -0.15
6159000000.0 -0.6824 0.6382
6162000000.0 0.05858 0.9238
6166000000.0 0.7342 0.5103
6169000000.0 0.9006 -0.2401
6172000000.0 0.3804 -0.8368
6175000000.0 -0.4353 -0.8212
6178000000.0 -0.8857 -0.181
6181000000.0 -0.7046 0.565
6184000000.0 0.009617 0.9384
6188000000.0 0.6954 0.5927
6191000000.0 0.9159 -0.1705
6194000000.0 0.4654 -0.8297
6197000000.0 -0.3724 -0.8603
6200000000.0 -0.8691 -0.2572
6203000000.0 -0.7577 0.4692
6206000000.0 -0.1211 0.9269
6209000000.0 0.649 0.6798
6212000000.0 0.906 -0.04192
6216000000.0 0.5557 -0.7526
6219000000.0 -0.245 -0.907
6222000000.0 -0.8151 -0.4012
6225000000.0 -0.8028 0.3924
6228000000.0 -0.2171 0.8769
6231000000.0 0.5268 0.7212
6234000000.0 0.8916 0.02846
6238000000.0 0.6104 -0.6382
6241000000.0 -0.09481 -0.8558
6244000000.0 -0.7135 -0.4556
6247000000.0 -0.7847 0.272
6250000000.0 -0.3203 0.8186
6253000000.0 0.379 0.7349
6256000000.0 0.8364 0.1541
6259000000.0 0.655 -0.5201
6262000000.0 0.02154 -0.8293
6266000000.0 -0.5981 -0.5486
