! Created with skrf 1.8.0 (http://scikit-rf.org).
# Hz S RI R 50.0 
!freq ReS11 ImS11
4000000000.0 -0.1858 -1.48
4003000000.0 -1.244 -0.844
4006000000.0 -1.439 0.4762
4009000000.0 -0.5055 1.43
4012000000.0 0.7609 1.326
4016000000.0 1.501 0.2408
4019000000.0 1.124 -1.04
4022000000.0 -0.08056 -1.552
4025000000.0 -1.316 -0.9078
4028000000.0 -1.538 0.4258
4031000000.0 -0.5714 1.509
4034000000.0 0.7582 1.402
4038000000.0 1.629 0.2471
4041000000.0 1.234 -1.118
4044000000.0 -0.1029 -1.619
4047000000.0 -1.38 -0.929
4050000000.0 -1.597 0.4356
4053000000.0 -0.6275 1.482
4056000000.0 0.7558 1.465
4059000000.0 1.591 0.3467
4062000000.0 1.247 -0.9869
4066000000.0 0.01709 -1.635
4069000000.0 -1.207 -1.057
4072000000.0 -1.625 0.2745
4075000000.0 -0.8101 1.419
4078000000.0 0.5716 1.534
4081000000.0 1.583 0.5903
4084000000.0 1.445 -0.8405
4088000000.0 0.2491 -1.65
4091000000.0 -1.122 -1.26
4094000000.0 -1.65 0.06373
4097000000.0 -1.018 1.29
4100000000.0 0.3758 1.606
4103000000.0 1.422 0.7099
4106000000.0 1.482 -0.6272
4109000000.0 0.4839 -1.508
4112000000.0 -0.839 -1.278
4116000000.0 -1.517 -0.1695
4119000000.0 -1.114 0.9786
4122000000.0 0.01885 1.504
4125000000.0 1.127 0.9602
4128000000.0 1.499 -0.2497
4131000000.0 0.7676 -1.246
4134000000.0 -0.4319 -1.395
4138000000.0 -1.34 -0.6208
4141000000.0 -1.345 0.6519
4144000000.0 -0.3879 1.44
4147000000.0 0.8829 1.221
4150000000.0 1.532 0.1159
4153000000.0 1.093 -1.072
4156000000.0 -0.09338 -1.561
4159000000.0 -1.216 -0.894
4162000000.0 -1.499 0.3756
4166000000.0 -0.6655 1.377
4169000000.0 0.5948 1.406
4172000000.0 1.469 0.4431
4175000000.0 1.254 -0.8289
4178000000.0 0.1562 -1.481
4181000000.0 -1.055 -1.077
4184000000.0 -1.493 0.07578
4188000000.0 -0.8872 1.246
4191000000.0 0.3795 1.472
4194000000.0 1.396 0.6611
4197000000.0 1.413 -0.6593
4200000000.0 0.3889 -1.543
4203000000.0 -0.954 -1.283
4206000000.0 -1.641 -0.07475
4209000000.0 -1.088 1.263
4212000000.0 0.2972 1.617
4216000000.0 1.498 0.7643
4219000000.0 1.501 -0.7135
4222000000.0 0.3207 -1.668
4225000000.0 -1.112 -1.312
4228000000.0 -1.668 0.1291
4231000000.0 -0.9525 1.384
4234000000.0 0.5457 1.576
4238000000.0 1.558 0.5281
4241000000.0 1.361 -0.9316
4244000000.0 0.105 -1.618
4247000000.0 -1.231 -1.023
4250000000.0 -1.542 0.3146
4253000000.0 -0.6777 1.433
4256000000.0 0.6369 1.454
4259000000.0 1.5 0.3222
4262000000.0 1.15 -1.022
4266000000.0 -0.06762 -1.509
4269000000.0 -1.213 -0.8217
4272000000.0 -1.416 0.4372
4275000000.0 -0.5045 1.399
4278000000.0 0.7429 1.274
4281000000.0 1.397 0.1969
4284000000.0 1.014 -1.003
4288000000.0 -0.1602 -1.398
4291000000.0 -1.116 -0.7264
4294000000.0 -1.278 0.4329
4297000000.0 -0.4819 1.244
4300000000.0 0.6464 1.174
4303000000.0 1.279 0.2875
4306000000.0 1.009 -0.7871
4309000000.0 0.045 -1.291
4312000000.0 -0.9565 -0.8517
4316000000.0 -1.305 0.1974
4319000000.0 -0.6745 1.116
4322000000.0 0.409 1.252
4325000000.0 1.189 0.5047
4328000000.0 1.225 -0.6421
4331000000.0 0.2845 -1.342
4334000000.0 -0.8335 -1.094
4338000000.0 -1.401 -0.03519
4341000000.0 -0.931 1.084
4344000000.0 0.219 1.385
4347000000.0 1.209 0.7454
4350000000.0 1.368 -0.4788
4353000000.0 0.4968 -1.348
4356000000.0 -0.705 -1.253
4359000000.0 -1.44 -0.2779
4362000000.0 -1.092 0.9214
4366000000.0 0.003778 1.456
4369000000.0 1.113 0.974
4372000000.0 1.484 -0.2789
4375000000.0 0.7044 -1.308
4378000000.0 -0.5097 -1.415
4381000000.0 -1.435 -0.4545
4384000000.0 -1.306 0.8001
4388000000.0 -0.1774 1.536
4391000000.0 1.087 1.14
4394000000.0 1.587 -0.134
4397000000.0 0.8911 -1.349
4400000000.0 -0.5186 -1.528
4403000000.0 -1.475 -0.5707
4406000000.0 -1.343 0.7952
4409000000.0 -0.1807 1.569
4412000000.0 1.121 1.136
4416000000.0 1.541 -0.1628
4419000000.0 0.7874 -1.351
4422000000.0 -0.5182 -1.468
4425000000.0 -1.444 -0.4128
4428000000.0 -1.226 0.8418
4431000000.0 -0.1201 1.457
4434000000.0 1.088 0.9604
4438000000.0 1.406 -0.2289
4441000000.0 0.6339 -1.242
4444000000.0 -0.5587 -1.265
4447000000.0 -1.345 -0.3302
4450000000.0 -1.035 0.8507
4453000000.0 0.05461 1.32
4456000000.0 1.058 0.7816
4459000000.0 1.241 -0.3477
4462000000.0 0.4788 -1.175
4466000000.0 -0.622 -1.077
4469000000.0 -1.239 -0.1419
4472000000.0 -0.8687 0.8709
4475000000.0 0.1262 1.196
4478000000.0 1.006 0.6025
4481000000.0 1.083 -0.4024
4484000000.0 0.3593 -1.093
4488000000.0 -0.6395 -0.9462
4491000000.0 -1.11 -0.08231
4494000000.0 -0.7523 0.8056
4497000000.0 0.1434 1.147
4500000000.0 0.9675 0.5807
4503000000.0 1.009 -0.3944
4506000000.0 0.3295 -1.045
4509000000.0 -0.5935 -0.9484
4512000000.0 -1.098 -0.1162
4516000000.0 -0.7774 0.7968
4519000000.0 0.1145 1.148
4522000000.0 0.9522 0.6045
4525000000.0 1.066 -0.3705
4528000000.0 0.4204 -1.071
4531000000.0 -0.5418 -1.013
4534000000.0 -1.137 -0.1955
4538000000.0 -0.8753 0.7665
4541000000.0 0.005635 1.162
4544000000.0 0.9441 0.737
4547000000.0 1.19 -0.2398
4550000000.0 0.5766 -1.054
4553000000.0 -0.4663 -1.121
4556000000.0 -1.182 -0.3597
4559000000.0 -1.042 0.6564
4562000000.0 -0.1758 1.228
4566000000.0 0.8477 0.9669
4569000000.0 1.274 -0.05426
4572000000.0 0.7876 -0.9974
4575000000.0 -0.2751 -1.254
4578000000.0 -1.157 -0.6191
4581000000.0 -1.223 0.4875
4584000000.0 -0.4032 1.288
4588000000.0 0.7497 1.133
4591000000.0 1.37 0.1622
4594000000.0 0.9933 -0.9471
4597000000.0 -0.0857 -1.387
4600000000.0 -1.131 -0.7955
4603000000.0 -1.347 0.3766
4606000000.0 -0.5684 1.275
4609000000.0 0.6307 1.27
4612000000.0 1.388 0.3273
4616000000.0 1.12 -0.8575
4619000000.0 0.02284 -1.413
4622000000.0 -1.061 -0.9131
4625000000.0 -1.355 0.2332
4628000000.0 -0.6563 1.216
4631000000.0 0.5281 1.283
4634000000.0 1.323 0.4073
4638000000.0 1.135 -0.7676
4641000000.0 0.1263 -1.34
4644000000.0 -1.024 -0.943
4647000000.0 -1.331 0.2117
4650000000.0 -0.684 1.169
4653000000.0 0.4415 1.224
4656000000.0 1.264 0.3824
4659000000.0 1.044 -0.7378
4662000000.0 0.04224 -1.25
4666000000.0 -0.9271 -0.854
4669000000.0 -1.212 0.2087
4672000000.0 -0.5733 1.05
4675000000.0 0.4735 1.083
4678000000.0 1.126 0.2762
4681000000.0 0.9325 -0.6509
4684000000.0 0.06336 -1.154
4688000000.0 -0.8269 -0.7545
4691000000.0 -1.094 0.2037
4694000000.0 -0.5285 0.9754
4697000000.0 0.4215 1.017
4700000000.0 1.057 0.2942
4703000000.0 0.9036 -0.6502
4706000000.0 0.04071 -1.099
4709000000.0 -0.8045 -0.7307
4712000000.0 -1.082 0.2123
4716000000.0 -0.4826 0.9307
4719000000.0 0.4515 0.9559
4722000000.0 1.046 0.2676
4725000000.0 0.85 -0.6255
4728000000.0 0.03969 -1.057
4731000000.0 -0.7861 -0.6836
4734000000.0 -1.037 0.1647
4738000000.0 -0.538 0.8853
4741000000.0 0.3693 0.9785
4744000000.0 1.01 0.3288
4747000000.0 0.9186 -0.5502
4750000000.0 0.1599 -1.066
4753000000.0 -0.701 -0.8077
4756000000.0 -1.062 0.04566
4759000000.0 -0.6881 0.8728
4762000000.0 0.2195 1.05
4766000000.0 1.005 0.529
4769000000.0 1.052 -0.449
4772000000.0 0.3467 -1.104
4775000000.0 -0.6227 -0.9764
4778000000.0 -1.148 -0.1628
4781000000.0 -0.8548 0.8314
4784000000.0 0.07694 1.197
4788000000.0 0.9753 0.6987
4791000000.0 1.203 -0.2677
4794000000.0 0.5765 -1.105
4797000000.0 -0.4724 -1.154
4800000000.0 -1.201 -0.3899
4803000000.0 -1.023 0.6444
4806000000.0 -0.1641 1.234
4809000000.0 0.8382 0.9199
4812000000.0 1.286 -0.04046
4816000000.0 0.8131 -1.018
4819000000.0 -0.2799 -1.294
4822000000.0 -1.174 -0.6341
4825000000.0 -1.264 0.5103
4828000000.0 -0.4268 1.289
4831000000.0 0.7858 1.144
4834000000.0 1.383 0.1587
4838000000.0 0.998 -0.9883
4841000000.0 -0.1464 -1.39
4844000000.0 -1.181 -0.7844
4847000000.0 -1.36 0.3845
4850000000.0 -0.5484 1.278
4853000000.0 0.6523 1.233
4856000000.0 1.35 0.2802
4859000000.0 1.055 -0.9069
4862000000.0 -0.007064 -1.373
4866000000.0 -1.056 -0.8404
4869000000.0 -1.336 0.2989
4872000000.0 -0.5742 1.189
4875000000.0 0.5577 1.216
4878000000.0 1.276 0.3093
4881000000.0 1.048 -0.7469
4884000000.0 0.07504 -1.251
4888000000.0 -0.9476 -0.8178
4891000000.0 -1.229 0.2091
4894000000.0 -0.5748 1.047
4897000000.0 0.4402 1.103
4900000000.0 1.109 0.3113
4903000000.0 0.9439 -0.6225
4906000000.0 0.07394 -1.102
4909000000.0 -0.7868 -0.7332
4912000000.0 -1.042 0.1482
4916000000.0 -0.5553 0.8931
4919000000.0 0.3367 0.9428
4922000000.0 0.9192 0.3351
4925000000.0 0.8339 -0.5088
4928000000.0 0.1921 -0.9677
4931000000.0 -0.6314 -0.7124
4934000000.0 -0.9425 0.03299
4938000000.0 -0.5727 0.7678
4941000000.0 0.2101 0.9169
4944000000.0 0.8519 0.4069
4947000000.0 0.8806 -0.3973
4950000000.0 0.2247 -0.9083
4953000000.0 -0.567 -0.7521
4956000000.0 -0.9765 -0.05633
4959000000.0 -0.6236 0.7159
4962000000.0 0.1549 0.9757
4966000000.0 0.8662 0.48
4969000000.0 0.9363 -0.3493
4972000000.0 0.3154 -0.9387
4975000000.0 -0.5435 -0.8671
4978000000.0 -0.9881 -0.1441
4981000000.0 -0.7525 0.728
4984000000.0 0.05977 1.035
4988000000.0 0.8433 0.6359
4991000000.0 1.033 -0.248
4994000000.0 0.4747 -0.9682
4997000000.0 -0.4327 -0.9984
5000000000.0 -1.071 -0.3063
5003000000.0 -0.9295 0.6674
5006000000.0 -0.0933 1.167
5009000000.0 0.8549 0.8168
5012000000.0 1.18 -0.1136
5016000000.0 0.6845 -1.033
5019000000.0 -0.39 -1.195
5022000000.0 -1.16 -0.4499
5025000000.0 -1.096 0.6239
5028000000.0 -0.2308 1.256
5031000000.0 0.8199 0.9576
5034000000.0 1.284 -0.00872
5038000000.0 0.8332 -0.9921
5041000000.0 -0.2463 -1.274
5044000000.0 -1.123 -0.6406
5047000000.0 -1.207 0.4799
5050000000.0 -0.4464 1.245
5053000000.0 0.6815 1.091
5056000000.0 1.294 0.2131
5059000000.0 0.9708 -0.8621
5062000000.0 -0.01215 -1.301
5066000000.0 -1.013 -0.7945
5069000000.0 -1.295 0.253
5072000000.0 -0.5837 1.151
5075000000.0 0.4993 1.225
5078000000.0 1.18 0.3787
5081000000.0 1.05 -0.674
5084000000.0 0.1521 -1.25
5088000000.0 -0.8557 -0.9111
5091000000.0 -1.178 0.05936
5094000000.0 -0.7004 0.9769
5097000000.0 0.2815 1.151
5100000000.0 1.008 0.4853
5103000000.0 1.062 -0.4337
5106000000.0 0.3173 -1.091
5109000000.0 -0.6038 -0.9021
5112000000.0 -1.085 -0.1196
5116000000.0 -0.7645 0.7434
5119000000.0 0.0539 1.064
5122000000.0 0.8062 0.6197
5125000000.0 1.022 -0.2264
5128000000.0 0.467 -0.9315
5131000000.0 -0.4206 -0.919
5134000000.0 -0.9864 -0.2577
5138000000.0 -0.8133 0.5598
5141000000.0 -0.07264 0.9613
5144000000.0 0.7121 0.6614
5147000000.0 0.9572 -0.1391
5150000000.0 0.4997 -0.8074
5153000000.0 -0.3193 -0.9019
5156000000.0 -0.8757 -0.3692
5159000000.0 -0.8189 0.4864
5162000000.0 -0.146 0.887
5166000000.0 0.6018 0.6678
5169000000.0 0.8866 -0.05448
5172000000.0 0.5519 -0.7391
5175000000.0 -0.2248 -0.8786
5178000000.0 -0.8355 -0.3908
5181000000.0 -0.7953 0.4445
5184000000.0 -0.1842 0.9086
5188000000.0 0.5614 0.7068
5191000000.0 0.921 -0.01668
5194000000.0 0.583 -0.7422
5197000000.0 -0.2212 -0.8873
5200000000.0 -0.8595 -0.3924
5203000000.0 -0.8538 0.4236
5206000000.0 -0.1887 0.9414
5209000000.0 0.6045 0.7699
5212000000.0 0.9625 -0.005308
5216000000.0 0.6188 -0.7456
5219000000.0 -0.2013 -0.9638
5222000000.0 -0.871 -0.4787
5225000000.0 -0.9348 0.4292
5228000000.0 -0.2656 0.9838
5231000000.0 0.595 0.8323
5234000000.0 1.045 0.08043
5238000000.0 0.7048 -0.7786
5241000000.0 -0.1093 -1.018
5244000000.0 -0.8739 -0.5973
5247000000.0 -1.036 0.3269
5250000000.0 -0.3874 0.9666
5253000000.0 0.5304 0.9443
5256000000.0 1.064 0.2054
5259000000.0 0.8538 -0.6763
5262000000.0 0.01005 -1.072
5266000000.0 -0.8403 -0.7089
5269000000.0 -1.064 0.1626
5272000000.0 -0.5729 0.9193
5275000000.0 0.3355 1.03
5278000000.0 1.03 0.4133
5281000000.0 0.9726 -0.5127
5284000000.0 0.2191 -1.072
5288000000.0 -0.677 -0.8952
5291000000.0 -1.095 -0.07212
5294000000.0 -0.7606 0.8028
5297000000.0 0.1342 1.118
5300000000.0 0.9614 0.6238
5303000000.0 1.099 -0.2924
5306000000.0 0.4772 -1.051
5309000000.0 -0.482 -1.013
5312000000.0 -1.069 -0.2857
5316000000.0 -0.9543 0.6446
5319000000.0 -0.09265 1.115
5322000000.0 0.7928 0.7815
5325000000.0 1.156 -0.1083
5328000000.0 0.6869 -0.9676
5331000000.0 -0.3391 -1.11
5334000000.0 -1.031 -0.4479
5338000000.0 -0.9995 0.4839
5341000000.0 -0.2855 1.098
5344000000.0 0.6724 0.9208
5347000000.0 1.12 0.04254
5350000000.0 0.7584 -0.8382
5353000000.0 -0.1712 -1.11
5356000000.0 -0.9631 -0.5573
5359000000.0 -1.026 0.3733
5362000000.0 -0.3982 1.033
5366000000.0 0.5426 0.9106
5369000000.0 1.056 0.1132
5372000000.0 0.7477 -0.7666
5375000000.0 -0.09555 -1.028
5378000000.0 -0.8585 -0.5352
5381000000.0 -0.9451 0.329
5384000000.0 -0.346 0.9338
5388000000.0 0.543 0.8552
5391000000.0 0.961 0.1199
5394000000.0 0.6776 -0.6779
5397000000.0 -0.1181 -0.9371
5400000000.0 -0.7826 -0.488
5403000000.0 -0.838 0.3356
5406000000.0 -0.282 0.8316
5409000000.0 0.4876 0.7847
5412000000.0 0.8878 0.04013
5416000000.0 0.6272 -0.6168
5419000000.0 -0.1226 -0.8359
5422000000.0 -0.7363 -0.4476
5425000000.0 -0.8126 0.3059
5428000000.0 -0.2748 0.8341
5431000000.0 0.4808 0.7133
5434000000.0 0.8616 0.08425
5438000000.0 0.6033 -0.6397
5441000000.0 -0.09745 -0.8531
5444000000.0 -0.7488 -0.4496
5447000000.0 -0.8671 0.322
5450000000.0 -0.2728 0.8624
5453000000.0 0.4685 0.7725
5456000000.0 0.8985 0.088
5459000000.0 0.649 -0.6467
5462000000.0 -0.05977 -0.9046
5466000000.0 -0.7411 -0.5316
5469000000.0 -0.8927 0.2239
5472000000.0 -0.399 0.8223
5475000000.0 0.3867 0.8485
5478000000.0 0.8843 0.2498
5481000000.0 0.7733 -0.5651
5484000000.0 0.08279 -0.9463
5488000000.0 -0.6776 -0.6593
5491000000.0 -0.9719 0.07288
5494000000.0 -0.557 0.8229
5497000000.0 0.2882 0.9412
5500000000.0 0.9358 0.3876
5503000000.0 0.946 -0.4671
5506000000.0 0.2328 -0.997
5509000000.0 -0.6121 -0.8113
5512000000.0 -1.019 -0.06238
5516000000.0 -0.6913 0.7509
5519000000.0 0.1225 1.045
5522000000.0 0.8768 0.6176
5525000000.0 1.025 -0.3004
5528000000.0 0.4235 -0.9702
5531000000.0 -0.4369 -0.9577
5534000000.0 -1.056 -0.2652
5538000000.0 -0.8828 0.5789
5541000000.0 -0.1176 1.084
5544000000.0 0.7699 0.7466
5547000000.0 1.061 -0.1554
5550000000.0 0.6098 -0.8825
5553000000.0 -0.2736 -1.039
5556000000.0 -0.955 -0.4698
5559000000.0 -0.9421 0.4606
5562000000.0 -0.2608 1.053
5566000000.0 0.6288 0.838
5569000000.0 1.051 0.03911
5572000000.0 0.6732 -0.7537
5575000000.0 -0.1531 -1.015
5578000000.0 -0.8614 -0.5314
5581000000.0 -0.9438 0.2947
5584000000.0 -0.3571 0.9363
5588000000.0 0.4978 0.8537
5591000000.0 0.965 0.1518
5594000000.0 0.7187 -0.6062
5597000000.0 -0.02001 -0.9361
5600000000.0 -0.7343 -0.5801
5603000000.0 -0.9032 0.1972
5606000000.0 -0.4309 0.8231
5609000000.0 0.3705 0.8245
5612000000.0 0.8701 0.2266
5616000000.0 0.7298 -0.502
5619000000.0 0.07847 -0.8847
5622000000.0 -0.6454 -0.5748
5625000000.0 -0.8209 0.1487
5628000000.0 -0.413 0.7529
5631000000.0 0.2908 0.8057
5634000000.0 0.8031 0.2515
5638000000.0 0.715 -0.4691
5641000000.0 0.1102 -0.861
5644000000.0 -0.6352 -0.5791
5647000000.0 -0.8247 0.1221
5650000000.0 -0.4193 0.7142
5653000000.0 0.3023 0.8063
5656000000.0 0.811 0.2816
5659000000.0 0.7347 -0.4291
5662000000.0 0.07575 -0.844
5666000000.0 -0.6208 -0.6015
5669000000.0 -0.8793 0.1082
5672000000.0 -0.4515 0.759
5675000000.0 0.3165 0.8481
5678000000.0 0.8972 0.311
5681000000.0 0.7999 -0.4739
5684000000.0 0.1242 -0.8966
5688000000.0 -0.6631 -0.6622
5691000000.0 -0.955 0.08302
5694000000.0 -0.5401 0.8286
5697000000.0 0.3192 0.9352
5700000000.0 0.9209 0.3737
5703000000.0 0.8838 -0.4788
5706000000.0 0.1836 -0.9633
5709000000.0 -0.6855 -0.7704
5712000000.0 -1.04 0.02033
5716000000.0 -0.6413 0.8192
5719000000.0 0.2308 1.034
5722000000.0 0.9393 0.4805
5725000000.0 1.012 -0.4316
5728000000.0 0.2911 -1.043
5731000000.0 -0.6287 -0.8762
5734000000.0 -1.055 -0.08948
5738000000.0 -0.7846 0.7669
5741000000.0 0.08871 1.098
5744000000.0 0.902 0.6221
5747000000.0 1.047 -0.3152
5750000000.0 0.4398 -1.003
5753000000.0 -0.4802 -0.9853
5756000000.0 -1.078 -0.2643
5759000000.0 -0.8833 0.6299
5762000000.0 -0.07232 1.111
5766000000.0 0.8278 0.7862
5769000000.0 1.118 -0.1219
5772000000.0 0.5818 -0.9204
5775000000.0 -0.3258 -1.054
5778000000.0 -1.025 -0.4282
5781000000.0 -0.9731 0.4729
5784000000.0 -0.2504 1.027
5788000000.0 0.646 0.8508
5791000000.0 1.082 0.05288
5794000000.0 0.7035 -0.8182
5797000000.0 -0.1388 -1.061
5800000000.0 -0.9349 -0.5886
5803000000.0 -1.043 0.3476
5806000000.0 -0.3875 1.021
5809000000.0 0.5109 0.9171
5812000000.0 1.012 0.2044
5816000000.0 0.832 -0.7041
5819000000.0 -0.02673 -1.023
5822000000.0 -0.7555 -0.6309
5825000000.0 -0.9767 0.2427
5828000000.0 -0.4449 0.8781
5831000000.0 0.4013 0.9133
5834000000.0 0.9548 0.2872
5838000000.0 0.8215 -0.5632
5841000000.0 0.04247 -0.9589
5844000000.0 -0.6619 -0.6492
5847000000.0 -0.9373 0.1478
5850000000.0 -0.4871 0.7818
5853000000.0 0.3177 0.8885
5856000000.0 0.8935 0.3207
5859000000.0 0.7839 -0.4749
5862000000.0 0.09926 -0.9157
5866000000.0 -0.6319 -0.6626
5869000000.0 -0.9037 0.08081
5872000000.0 -0.462 0.745
5875000000.0 0.2934 0.8673
5878000000.0 0.8424 0.297
5881000000.0 0.7492 -0.4807
5884000000.0 0.1336 -0.8657
5888000000.0 -0.6053 -0.6361
5891000000.0 -0.8995 0.06654
5894000000.0 -0.4748 0.709
5897000000.0 0.2504 0.83
5900000000.0 0.773 0.3316
5903000000.0 0.7639 -0.411
5906000000.0 0.1489 -0.8525
5909000000.0 -0.5544 -0.6471
5912000000.0 -0.8522 -0.01484
5916000000.0 -0.541 0.6793
5919000000.0 0.1782 0.8376
5922000000.0 0.7482 0.3914
5925000000.0 0.7959 -0.3385
5928000000.0 0.2737 -0.8514
5931000000.0 -0.4741 -0.7352
5934000000.0 -0.8958 -0.09575
5938000000.0 -0.6476 0.6401
5941000000.0 0.0242 0.9043
5944000000.0 0.7379 0.5236
5947000000.0 0.904 -0.2231
5950000000.0 0.3518 -0.8293
5953000000.0 -0.3828 -0.8136
5956000000.0 -0.8905 -0.2222
5959000000.0 -0.7221 0.5438
5962000000.0 -0.07238 0.9338
5966000000.0 0.6819 0.6497
5969000000.0 0.9399 -0.07959
5972000000.0 0.5424 -0.7897
5975000000.0 -0.2606 -0.9489
5978000000.0 -0.9085 -0.4171
5981000000.0 -0.8768 0.397
5984000000.0 -0.2067 0.9728
5988000000.0 0.6179 0.8072
5991000000.0 0.9609 0.07629
5994000000.0 0.6967 -0.7429
5997000000.0 -0.1295 -1.003
6000000000.0 -0.8792 -0.5647
6003000000.0 -0.9455 0.3041
6006000000.0 -0.3712 0.9469
6009000000.0 0.5115 0.866
6012000000.0 0.9884 0.1805
6016000000.0 0.7392 -0.6573
6019000000.0 0.001824 -0.9953
6022000000.0 -0.7751 -0.623
6025000000.0 -0.9552 0.2387
6028000000.0 -0.4459 0.87
6031000000.0 0.3918 0.8811
6034000000.0 0.9672 0.2518
6038000000.0 0.8033 -0.5711
6041000000.0 0.08218 -0.9795
6044000000.0 -0.6907 -0.6787
6047000000.0 -0.9365 0.1422
6050000000.0 -0.4924 0.8132
6053000000.0 0.3223 0.8823
6056000000.0 0.8682 0.3228
6059000000.0 0.7999 -0.5078
6062000000.0 0.1427 -0.9395
6066000000.0 -0.6346 -0.6457
6069000000.0 -0.9075 0.06949
6072000000.0 -0.4968 0.7608
6075000000.0 0.2393 0.8443
6078000000.0 0.8249 0.3378
6081000000.0 0.7951 -0.4333
6084000000.0 0.1616 -0.8455
6088000000.0 -0.5419 -0.6541
6091000000.0 -0.8867 0.03866
6094000000.0 -0.5344 0.6806
6097000000.0 0.1928 0.8452
6100000000.0 0.7866 0.3559
6103000000.0 0.7858 -0.3371
6106000000.0 0.2213 -0.8519
6109000000.0 -0.5104 -0.6805
6112000000.0 -0.8518 -0.01454
6116000000.0 -0.5603 0.6504
6119000000.0 0.152 0.8591
6122000000.0 0.7725 0.3971
6125000000.0 0.7657 -0.3432
6128000000.0 0.2428 -0.8477
6131000000.0 -0.522 -0.6972
6134000000.0 -0.9019 -0.05851
6138000000.0 -0.6033 0.6387
6141000000.0 0.1306 0.8609
6144000000.0 0.7584 0.4418
6147000000.0 0.848 -0.3227
6150000000.0 0.2866 -0.8316
6153000000.0 -0.4692 -0.7827
6156000000.0 -0.8793 -0.1552
6159000000.0 -0.6523 0.6584
6162000000.0 0.05378 0.9369
6166000000.0 0.7151 0.5254
6169000000.0 0.9145 -0.2402
6172000000.0 0.3911 -0.8443
6175000000.0 -0.4606 -0.8419
6178000000.0 -0.9147 -0.227
6181000000.0 -0.7329 0.6012
6184000000.0 -0.01871 0.9893
6188000000.0 0.7173 0.6091
6191000000.0 0.9465 -0.1605
6194000000.0 0.4913 -0.8138
6197000000.0 -0.3598 -0.9121
6200000000.0 -0.8752 -0.2965
6203000000.0 -0.7836 0.5189
6206000000.0 -0.09595 0.9194
6209000000.0 0.6442 0.6691
6212000000.0 0.9438 -0.05224
6216000000.0 0.5527 -0.7368
6219000000.0 -0.2269 -0.9235
6222000000.0 -0.8319 -0.3979
6225000000.0 -0.8328 0.3677
6228000000.0 -0.2183 0.8419
6231000000.0 0.5399 0.7329
6234000000.0 0.8842 0.03363
6238000000.0 0.5984 -0.6097
6241000000.0 -0.1294 -0.8678
6244000000.0 -0.7169 -0.5054
6247000000.0 -0.8243 0.2868
6250000000.0 -0.3145 0.794
6253000000.0 0.3791 0.7585
6256000000.0 0.8446 0.181
6259000000.0 0.669 -0.5009
6262000000.0 0.02435 -0.7987
6266000000.0 -0.624 -0.55
