! Created with skrf 1.8.0 (http://scikit-rf.org).
# Hz S RI R 50.0 
!freq ReS11 ImS11
4000000000.0 -0.1297 -1.503
4003000000.0 -1.267 -0.8172
4006000000.0 -1.448 0.4788
4009000000.0 -0.5253 1.41
4012000000.0 0.7539 1.34
4016000000.0 1.5 0.1911
4019000000.0 1.145 -1.058
4022000000.0 -0.1227 -1.526
4025000000.0 -1.331 -0.9132
4028000000.0 -1.524 0.4678
4031000000.0 -0.6099 1.477
4034000000.0 0.8213 1.428
4038000000.0 1.595 0.2803
4041000000.0 1.209 -1.085
4044000000.0 -0.1065 -1.622
4047000000.0 -1.332 -0.9691
4050000000.0 -1.535 0.432
4053000000.0 -0.6123 1.493
4056000000.0 0.7658 1.424
4059000000.0 1.555 0.3026
4062000000.0 1.273 -1.023
4066000000.0 0.02234 -1.616
4069000000.0 -1.251 -1.078
4072000000.0 -1.617 0.3008
4075000000.0 -0.8275 1.382
4078000000.0 0.5361 1.558
4081000000.0 1.532 0.5729
4084000000.0 1.38 -0.8433
4088000000.0 0.2656 -1.638
4091000000.0 -1.073 -1.219
4094000000.0 -1.622 0.03428
4097000000.0 -0.9678 1.291
4100000000.0 0.3555 1.597
4103000000.0 1.472 0.7672
4106000000.0 1.456 -0.6406
4109000000.0 0.4521 -1.498
4112000000.0 -0.8355 -1.313
4116000000.0 -1.53 -0.2107
4119000000.0 -1.139 0.9964
4122000000.0 0.0373 1.482
4125000000.0 1.132 0.9707
4128000000.0 1.463 -0.2226
4131000000.0 0.7948 -1.235
4134000000.0 -0.4451 -1.428
4138000000.0 -1.388 -0.6121
4141000000.0 -1.348 0.6609
4144000000.0 -0.3855 1.419
4147000000.0 0.8764 1.261
4150000000.0 1.553 0.1519
4153000000.0 1.102 -1.053
4156000000.0 -0.1146 -1.479
4159000000.0 -1.214 -0.8966
4162000000.0 -1.467 0.3715
4166000000.0 -0.6358 1.377
4169000000.0 0.6384 1.39
4172000000.0 1.451 0.4098
4175000000.0 1.228 -0.8045
4178000000.0 0.1511 -1.512
4181000000.0 -1.051 -1.084
4184000000.0 -1.537 0.1078
4188000000.0 -0.9307 1.221
4191000000.0 0.3632 1.472
4194000000.0 1.384 0.6624
4197000000.0 1.405 -0.6735
4200000000.0 0.3868 -1.571
4203000000.0 -0.9511 -1.296
4206000000.0 -1.61 -0.04506
4209000000.0 -1.07 1.257
4212000000.0 0.32 1.644
4216000000.0 1.486 0.7448
4219000000.0 1.517 -0.7495
4222000000.0 0.332 -1.669
4225000000.0 -1.14 -1.295
4228000000.0 -1.692 0.09541
4231000000.0 -0.938 1.414
4234000000.0 0.5069 1.59
4238000000.0 1.559 0.5441
4241000000.0 1.374 -0.9033
4244000000.0 0.08612 -1.617
4247000000.0 -1.192 -1.031
4250000000.0 -1.506 0.3026
4253000000.0 -0.6597 1.4
4256000000.0 0.6703 1.409
4259000000.0 1.527 0.3299
4262000000.0 1.141 -0.9482
4266000000.0 -0.06777 -1.505
4269000000.0 -1.253 -0.8599
4272000000.0 -1.392 0.4219
4275000000.0 -0.5423 1.371
4278000000.0 0.7428 1.236
4281000000.0 1.406 0.1958
4284000000.0 0.9959 -1.009
4288000000.0 -0.128 -1.388
4291000000.0 -1.13 -0.7613
4294000000.0 -1.26 0.4373
4297000000.0 -0.496 1.215
4300000000.0 0.6577 1.147
4303000000.0 1.31 0.2801
4306000000.0 0.9872 -0.8383
4309000000.0 0.02585 -1.305
4312000000.0 -0.9574 -0.8105
4316000000.0 -1.272 0.1964
4319000000.0 -0.707 1.109
4322000000.0 0.413 1.213
4325000000.0 1.242 0.4571
4328000000.0 1.185 -0.5831
4331000000.0 0.288 -1.327
4334000000.0 -0.8258 -1.087
4338000000.0 -1.359 -0.05135
4341000000.0 -0.9055 1.074
4344000000.0 0.2351 1.381
4347000000.0 1.221 0.7454
4350000000.0 1.335 -0.4689
4353000000.0 0.5035 -1.361
4356000000.0 -0.6972 -1.271
4359000000.0 -1.46 -0.2265
4362000000.0 -1.107 0.9592
4366000000.0 0.02164 1.442
4369000000.0 1.131 0.9675
4372000000.0 1.445 -0.2873
4375000000.0 0.6915 -1.323
4378000000.0 -0.5472 -1.399
4381000000.0 -1.457 -0.4838
4384000000.0 -1.301 0.8249
4388000000.0 -0.1969 1.543
4391000000.0 1.044 1.101
4394000000.0 1.568 -0.1441
4397000000.0 0.883 -1.311
4400000000.0 -0.4787 -1.519
4403000000.0 -1.517 -0.5464
4406000000.0 -1.386 0.8322
4409000000.0 -0.1552 1.578
4412000000.0 1.111 1.102
4416000000.0 1.527 -0.2152
4419000000.0 0.8039 -1.319
4422000000.0 -0.5018 -1.435
4425000000.0 -1.43 -0.4856
4428000000.0 -1.215 0.8082
4431000000.0 -0.08705 1.491
4434000000.0 1.1 0.9253
4438000000.0 1.387 -0.2562
4441000000.0 0.6621 -1.217
4444000000.0 -0.5484 -1.242
4447000000.0 -1.321 -0.3253
4450000000.0 -1.069 0.8371
4453000000.0 0.03512 1.311
4456000000.0 1.043 0.811
4459000000.0 1.197 -0.3723
4462000000.0 0.4732 -1.18
4466000000.0 -0.622 -1.087
4469000000.0 -1.222 -0.1542
4472000000.0 -0.8556 0.8383
4475000000.0 0.124 1.204
4478000000.0 1.024 0.6138
4481000000.0 1.109 -0.4252
4484000000.0 0.3333 -1.123
4488000000.0 -0.6648 -0.9572
4491000000.0 -1.139 -0.07646
4494000000.0 -0.7483 0.8542
4497000000.0 0.1664 1.091
4500000000.0 0.9822 0.5703
4503000000.0 1.013 -0.3993
4506000000.0 0.3308 -1.057
4509000000.0 -0.6207 -0.9326
4512000000.0 -1.106 -0.09981
4516000000.0 -0.7719 0.7987
4519000000.0 0.1322 1.11
4522000000.0 0.9659 0.6219
4525000000.0 1.101 -0.33
4528000000.0 0.434 -1.047
4531000000.0 -0.5672 -1.02
4534000000.0 -1.117 -0.2089
4538000000.0 -0.9158 0.7343
4541000000.0 0.02692 1.169
4544000000.0 0.9352 0.7489
4547000000.0 1.18 -0.2455
4550000000.0 0.5842 -1.075
4553000000.0 -0.4699 -1.107
4556000000.0 -1.146 -0.3848
4559000000.0 -1.05 0.6715
4562000000.0 -0.1624 1.24
4566000000.0 0.831 0.9302
4569000000.0 1.29 -0.02691
4572000000.0 0.7886 -1.003
4575000000.0 -0.2498 -1.267
4578000000.0 -1.15 -0.6253
4581000000.0 -1.199 0.5125
4584000000.0 -0.3761 1.27
4588000000.0 0.7388 1.134
4591000000.0 1.339 0.1578
4594000000.0 0.9836 -0.9451
4597000000.0 -0.08803 -1.361
4600000000.0 -1.133 -0.8081
4603000000.0 -1.361 0.3821
4606000000.0 -0.5748 1.276
4609000000.0 0.6326 1.273
4612000000.0 1.362 0.3174
4616000000.0 1.098 -0.8398
4619000000.0 0.01603 -1.413
4622000000.0 -1.061 -0.8841
4625000000.0 -1.356 0.2337
4628000000.0 -0.6363 1.212
4631000000.0 0.5056 1.274
4634000000.0 1.326 0.4108
4638000000.0 1.176 -0.7406
4641000000.0 0.1038 -1.373
4644000000.0 -0.9709 -0.9321
4647000000.0 -1.344 0.195
4650000000.0 -0.6766 1.164
4653000000.0 0.4437 1.235
4656000000.0 1.212 0.3886
4659000000.0 1.079 -0.7475
4662000000.0 0.09885 -1.257
4666000000.0 -0.891 -0.8247
4669000000.0 -1.177 0.1616
4672000000.0 -0.5727 1.076
4675000000.0 0.4352 1.091
4678000000.0 1.096 0.3089
4681000000.0 0.966 -0.6894
4684000000.0 0.07117 -1.144
4688000000.0 -0.826 -0.7956
4691000000.0 -1.107 0.1877
4694000000.0 -0.5369 0.958
4697000000.0 0.4081 1.012
4700000000.0 1.062 0.3206
4703000000.0 0.8824 -0.6659
4706000000.0 0.02216 -1.088
4709000000.0 -0.8334 -0.7195
4712000000.0 -1.061 0.2329
4716000000.0 -0.4758 0.9761
4719000000.0 0.4833 0.9686
4722000000.0 1.026 0.2464
4725000000.0 0.8327 -0.6563
4728000000.0 0.05281 -1.05
4731000000.0 -0.7529 -0.649
4734000000.0 -1.053 0.1671
4738000000.0 -0.5139 0.9009
4741000000.0 0.4006 0.9772
4744000000.0 0.9729 0.3181
4747000000.0 0.9166 -0.5271
4750000000.0 0.1892 -1.041
4753000000.0 -0.7176 -0.7974
4756000000.0 -1.076 0.0548
4759000000.0 -0.6744 0.868
4762000000.0 0.2295 1.111
4766000000.0 0.9854 0.526
4769000000.0 1.056 -0.4199
4772000000.0 0.33 -1.084
4775000000.0 -0.6151 -0.9798
4778000000.0 -1.162 -0.143
4781000000.0 -0.8478 0.832
4784000000.0 0.04233 1.227
4788000000.0 0.9699 0.737
4791000000.0 1.186 -0.2626
4794000000.0 0.5703 -1.076
4797000000.0 -0.4738 -1.149
4800000000.0 -1.222 -0.4018
4803000000.0 -1.038 0.635
4806000000.0 -0.1965 1.228
4809000000.0 0.8731 0.9708
4812000000.0 1.293 -0.02915
4816000000.0 0.8141 -1.014
4819000000.0 -0.2907 -1.303
4822000000.0 -1.193 -0.654
4825000000.0 -1.257 0.5146
4828000000.0 -0.4059 1.295
4831000000.0 0.7645 1.165
4834000000.0 1.385 0.1457
4838000000.0 0.9774 -0.9719
4841000000.0 -0.1451 -1.386
4844000000.0 -1.183 -0.7834
4847000000.0 -1.354 0.4155
4850000000.0 -0.5127 1.297
4853000000.0 0.6583 1.201
4856000000.0 1.352 0.2744
4859000000.0 1.05 -0.8913
4862000000.0 -0.008878 -1.369
4866000000.0 -1.072 -0.8233
4869000000.0 -1.29 0.2899
4872000000.0 -0.6109 1.175
4875000000.0 0.5258 1.194
4878000000.0 1.268 0.3496
4881000000.0 1.054 -0.7423
4884000000.0 0.07701 -1.257
4888000000.0 -0.9137 -0.8119
4891000000.0 -1.188 0.2221
4894000000.0 -0.5735 1.04
4897000000.0 0.4539 1.074
4900000000.0 1.081 0.3478
4903000000.0 0.9494 -0.6124
4906000000.0 0.08546 -1.097
4909000000.0 -0.8078 -0.729
4912000000.0 -1.044 0.1542
4916000000.0 -0.5582 0.8746
4919000000.0 0.3329 0.9751
4922000000.0 0.9223 0.3327
4925000000.0 0.8226 -0.4841
4928000000.0 0.1685 -0.9571
4931000000.0 -0.6142 -0.7207
4934000000.0 -0.9435 0.03183
4938000000.0 -0.566 0.7562
4941000000.0 0.2253 0.9342
4944000000.0 0.8529 0.4152
4947000000.0 0.8637 -0.3754
4950000000.0 0.2324 -0.8983
4953000000.0 -0.5633 -0.7819
4956000000.0 -0.9638 -0.0902
4959000000.0 -0.6467 0.7336
4962000000.0 0.1464 0.9569
4966000000.0 0.8618 0.5018
4969000000.0 0.9128 -0.3481
4972000000.0 0.3206 -0.9673
4975000000.0 -0.5306 -0.8573
4978000000.0 -0.9997 -0.1365
4981000000.0 -0.7526 0.7026
4984000000.0 0.0735 1.043
4988000000.0 0.8542 0.6269
4991000000.0 1.029 -0.2726
4994000000.0 0.474 -0.9738
4997000000.0 -0.4398 -0.9984
5000000000.0 -1.073 -0.2934
5003000000.0 -0.932 0.6722
5006000000.0 -0.05943 1.15
5009000000.0 0.8567 0.8046
5012000000.0 1.203 -0.1375
5016000000.0 0.6314 -1.025
5019000000.0 -0.3904 -1.197
5022000000.0 -1.163 -0.4619
5025000000.0 -1.131 0.6035
5028000000.0 -0.2274 1.247
5031000000.0 0.7744 0.9739
5034000000.0 1.284 0.01014
5038000000.0 0.8291 -0.9787
5041000000.0 -0.2244 -1.261
5044000000.0 -1.124 -0.6368
5047000000.0 -1.211 0.4417
5050000000.0 -0.4304 1.251
5053000000.0 0.6615 1.128
5056000000.0 1.277 0.1958
5059000000.0 0.9848 -0.851
5062000000.0 -0.04828 -1.298
5066000000.0 -1.029 -0.817
5069000000.0 -1.292 0.2727
5072000000.0 -0.6371 1.139
5075000000.0 0.4844 1.207
5078000000.0 1.237 0.4073
5081000000.0 1.026 -0.6981
5084000000.0 0.1403 -1.236
5088000000.0 -0.8436 -0.8806
5091000000.0 -1.233 0.09797
5094000000.0 -0.6968 0.9431
5097000000.0 0.2689 1.111
5100000000.0 1.06 0.4779
5103000000.0 1.003 -0.437
5106000000.0 0.2927 -1.072
5109000000.0 -0.5881 -0.9145
5112000000.0 -1.057 -0.1346
5116000000.0 -0.7794 0.7446
5119000000.0 0.1051 1.039
5122000000.0 0.834 0.6346
5125000000.0 1.029 -0.2296
5128000000.0 0.4258 -0.9142
5131000000.0 -0.4383 -0.9413
5134000000.0 -0.9842 -0.2701
5138000000.0 -0.8079 0.5715
5141000000.0 -0.06709 0.9865
5144000000.0 0.6895 0.6714
5147000000.0 0.9613 -0.1397
5150000000.0 0.4891 -0.7934
5153000000.0 -0.33 -0.8821
5156000000.0 -0.8908 -0.3219
5159000000.0 -0.8119 0.4279
5162000000.0 -0.1246 0.9111
5166000000.0 0.6156 0.6608
5169000000.0 0.9098 -0.02963
5172000000.0 0.5588 -0.7288
5175000000.0 -0.202 -0.871
5178000000.0 -0.8339 -0.372
5181000000.0 -0.8144 0.4228
5184000000.0 -0.1749 0.8964
5188000000.0 0.5735 0.7215
5191000000.0 0.8998 -0.0199
5194000000.0 0.585 -0.7397
5197000000.0 -0.2214 -0.9061
5200000000.0 -0.8512 -0.3736
5203000000.0 -0.8511 0.4693
5206000000.0 -0.2165 0.9178
5209000000.0 0.6196 0.7581
5212000000.0 0.9527 0.02335
5216000000.0 0.5834 -0.7451
5219000000.0 -0.2078 -0.9442
5222000000.0 -0.8752 -0.4494
5225000000.0 -0.9267 0.3986
5228000000.0 -0.2785 0.9776
5231000000.0 0.5732 0.8334
5234000000.0 1.037 0.0784
5238000000.0 0.7156 -0.7562
5241000000.0 -0.15 -1.046
5244000000.0 -0.8705 -0.5968
5247000000.0 -0.9851 0.3379
5250000000.0 -0.3973 1.015
5253000000.0 0.489 0.9391
5256000000.0 1.055 0.18
5259000000.0 0.8405 -0.6664
5262000000.0 0.008753 -1.085
5266000000.0 -0.8304 -0.7063
5269000000.0 -1.077 0.1613
5272000000.0 -0.5393 0.9597
5275000000.0 0.3385 1.047
5278000000.0 1.036 0.4077
5281000000.0 0.974 -0.5408
5284000000.0 0.1928 -1.082
5288000000.0 -0.686 -0.8842
5291000000.0 -1.111 -0.0831
5294000000.0 -0.7716 0.794
5297000000.0 0.1262 1.124
5300000000.0 0.9589 0.6282
5303000000.0 1.07 -0.3085
5306000000.0 0.4661 -1.061
5309000000.0 -0.4889 -1.044
5312000000.0 -1.101 -0.3164
5316000000.0 -0.951 0.6586
5319000000.0 -0.08719 1.148
5322000000.0 0.8096 0.8407
5325000000.0 1.153 -0.1221
5328000000.0 0.6529 -0.9507
5331000000.0 -0.3257 -1.119
5334000000.0 -1.04 -0.4524
5338000000.0 -1.032 0.4966
5341000000.0 -0.2631 1.11
5344000000.0 0.6887 0.8867
5347000000.0 1.111 0.07887
5350000000.0 0.749 -0.848
5353000000.0 -0.159 -1.104
5356000000.0 -0.9095 -0.5439
5359000000.0 -1.012 0.3471
5362000000.0 -0.3579 1.005
5366000000.0 0.5745 0.9238
5369000000.0 1.081 0.1582
5372000000.0 0.7529 -0.7131
5375000000.0 -0.1063 -1.056
5378000000.0 -0.8706 -0.5189
5381000000.0 -0.9481 0.3108
5384000000.0 -0.3476 0.95
5388000000.0 0.518 0.8545
5391000000.0 0.9766 0.0813
5394000000.0 0.689 -0.6725
5397000000.0 -0.1105 -0.9228
5400000000.0 -0.7881 -0.4747
5403000000.0 -0.8561 0.3242
5406000000.0 -0.3023 0.8914
5409000000.0 0.4601 0.7697
5412000000.0 0.8782 0.1012
5416000000.0 0.623 -0.625
5419000000.0 -0.1336 -0.8883
5422000000.0 -0.7548 -0.4417
5425000000.0 -0.8346 0.2909
5428000000.0 -0.2678 0.8526
5431000000.0 0.4564 0.7609
5434000000.0 0.8608 0.08419
5438000000.0 0.5877 -0.6206
5441000000.0 -0.1198 -0.8669
5444000000.0 -0.768 -0.4383
5447000000.0 -0.8312 0.2916
5450000000.0 -0.2975 0.8421
5453000000.0 0.4735 0.7307
5456000000.0 0.9062 0.137
5459000000.0 0.6704 -0.5975
5462000000.0 -0.06804 -0.8967
5466000000.0 -0.7346 -0.5299
5469000000.0 -0.8882 0.2194
5472000000.0 -0.3899 0.827
5475000000.0 0.4382 0.8101
5478000000.0 0.9284 0.2301
5481000000.0 0.7876 -0.5607
5484000000.0 0.05979 -0.925
5488000000.0 -0.6958 -0.6746
5491000000.0 -0.9615 0.09345
5494000000.0 -0.5685 0.8377
5497000000.0 0.2493 0.9689
5500000000.0 0.9308 0.3863
5503000000.0 0.8878 -0.4461
5506000000.0 0.2603 -0.9514
5509000000.0 -0.598 -0.828
5512000000.0 -1.011 -0.09587
5516000000.0 -0.7328 0.7502
5519000000.0 0.1123 1.024
5522000000.0 0.8686 0.5888
5525000000.0 1.002 -0.2739
5528000000.0 0.4367 -0.9562
5531000000.0 -0.4218 -0.9224
5534000000.0 -1.03 -0.2892
5538000000.0 -0.8764 0.6167
5541000000.0 -0.08079 1.035
5544000000.0 0.7382 0.7435
5547000000.0 1.092 -0.1109
5550000000.0 0.5961 -0.9056
5553000000.0 -0.2731 -1.049
5556000000.0 -0.9656 -0.3934
5559000000.0 -0.9146 0.455
5562000000.0 -0.2505 1.03
5566000000.0 0.6288 0.8519
5569000000.0 1.05 0.02891
5572000000.0 0.7049 -0.7243
5575000000.0 -0.1542 -1.012
5578000000.0 -0.8661 -0.5309
5581000000.0 -0.943 0.2978
5584000000.0 -0.3446 0.9159
5588000000.0 0.4829 0.8629
5591000000.0 0.9426 0.168
5594000000.0 0.7236 -0.5997
5597000000.0 0.007003 -0.9284
5600000000.0 -0.7135 -0.5814
5603000000.0 -0.8968 0.2047
5606000000.0 -0.416 0.8107
5609000000.0 0.3993 0.8234
5612000000.0 0.8864 0.2403
5616000000.0 0.7288 -0.4976
5619000000.0 0.05153 -0.8459
5622000000.0 -0.6635 -0.5847
5625000000.0 -0.8385 0.1394
5628000000.0 -0.4397 0.7405
5631000000.0 0.2947 0.781
5634000000.0 0.8274 0.2527
5638000000.0 0.6955 -0.466
5641000000.0 0.08075 -0.8511
5644000000.0 -0.6027 -0.5744
5647000000.0 -0.8258 0.09366
5650000000.0 -0.4517 0.7053
5653000000.0 0.3053 0.8063
5656000000.0 0.7992 0.2711
5659000000.0 0.7278 -0.4522
5662000000.0 0.1033 -0.8783
5666000000.0 -0.642 -0.6372
5669000000.0 -0.8736 0.09902
5672000000.0 -0.485 0.7597
5675000000.0 0.2817 0.8497
5678000000.0 0.844 0.3049
5681000000.0 0.7656 -0.5034
5684000000.0 0.104 -0.9087
5688000000.0 -0.6289 -0.6946
5691000000.0 -0.9391 0.08604
5694000000.0 -0.5318 0.7905
5697000000.0 0.2859 0.9368
5700000000.0 0.9144 0.3623
5703000000.0 0.8928 -0.4833
5706000000.0 0.1676 -0.9894
5709000000.0 -0.6778 -0.7854
5712000000.0 -1.021 -0.001084
5716000000.0 -0.608 0.8111
5719000000.0 0.2561 1.003
5722000000.0 0.9354 0.4694
5725000000.0 0.9565 -0.4286
5728000000.0 0.2933 -1.032
5731000000.0 -0.5748 -0.8708
5734000000.0 -1.06 -0.1352
5738000000.0 -0.7599 0.7561
5741000000.0 0.08439 1.082
5744000000.0 0.884 0.6512
5747000000.0 1.065 -0.2813
5750000000.0 0.4533 -1.006
5753000000.0 -0.4894 -0.9865
5756000000.0 -1.096 -0.2578
5759000000.0 -0.9024 0.6655
5762000000.0 -0.07694 1.116
5766000000.0 0.7771 0.7809
5769000000.0 1.126 -0.1243
5772000000.0 0.5884 -0.9029
5775000000.0 -0.3102 -1.039
5778000000.0 -1.025 -0.4437
5781000000.0 -0.9973 0.4877
5784000000.0 -0.2455 1.084
5788000000.0 0.6304 0.829
5791000000.0 1.09 0.02313
5794000000.0 0.7301 -0.7859
5797000000.0 -0.1154 -1.092
5800000000.0 -0.8911 -0.6007
5803000000.0 -1.004 0.3321
5806000000.0 -0.3767 0.9978
5809000000.0 0.4791 0.9341
5812000000.0 1.036 0.1273
5816000000.0 0.7726 -0.6883
5819000000.0 -0.02793 -1.016
5822000000.0 -0.8011 -0.6213
5825000000.0 -0.9943 0.2423
5828000000.0 -0.4615 0.8947
5831000000.0 0.391 0.9146
5834000000.0 0.9442 0.2641
5838000000.0 0.7846 -0.552
5841000000.0 0.06327 -0.9822
5844000000.0 -0.7151 -0.6643
5847000000.0 -0.9469 0.136
5850000000.0 -0.479 0.7974
5853000000.0 0.3384 0.8825
5856000000.0 0.8779 0.2843
5859000000.0 0.7752 -0.5057
5862000000.0 0.08662 -0.9418
5866000000.0 -0.6462 -0.6355
5869000000.0 -0.9117 0.116
5872000000.0 -0.4714 0.7258
5875000000.0 0.2869 0.8474
5878000000.0 0.8664 0.2949
5881000000.0 0.7556 -0.4479
5884000000.0 0.09806 -0.8704
5888000000.0 -0.6154 -0.6353
5891000000.0 -0.872 0.06515
5894000000.0 -0.509 0.7081
5897000000.0 0.2524 0.808
5900000000.0 0.7831 0.3407
5903000000.0 0.7693 -0.4473
5906000000.0 0.176 -0.8075
5909000000.0 -0.5588 -0.6872
5912000000.0 -0.8475 -0.008077
5916000000.0 -0.5407 0.6764
5919000000.0 0.2114 0.8526
5922000000.0 0.7777 0.4081
5925000000.0 0.8013 -0.3322
5928000000.0 0.2484 -0.8473
5931000000.0 -0.4954 -0.7634
5934000000.0 -0.8819 -0.0721
5938000000.0 -0.6279 0.6027
5941000000.0 0.1002 0.8929
5944000000.0 0.722 0.4911
5947000000.0 0.8736 -0.2495
5950000000.0 0.3832 -0.8413
5953000000.0 -0.3965 -0.8447
5956000000.0 -0.8964 -0.2225
5959000000.0 -0.7605 0.5537
5962000000.0 -0.06213 0.9097
5966000000.0 0.6872 0.6404
5969000000.0 0.9757 -0.1198
5972000000.0 0.5181 -0.7961
5975000000.0 -0.2682 -0.9116
5978000000.0 -0.8768 -0.377
5981000000.0 -0.8742 0.4376
5984000000.0 -0.204 0.9232
5988000000.0 0.5968 0.7983
5991000000.0 0.9812 0.04984
5994000000.0 0.6942 -0.7485
5997000000.0 -0.155 -0.9887
6000000000.0 -0.86 -0.5392
6003000000.0 -0.962 0.289
6006000000.0 -0.3538 0.9086
6009000000.0 0.4829 0.8905
6012000000.0 0.9932 0.1758
6016000000.0 0.751 -0.649
6019000000.0 -0.02618 -1.0
6022000000.0 -0.7544 -0.6137
6025000000.0 -0.9767 0.2189
6028000000.0 -0.4537 0.8765
6031000000.0 0.3774 0.9264
6034000000.0 0.9311 0.2972
6038000000.0 0.7881 -0.5646
6041000000.0 0.07318 -0.9744
6044000000.0 -0.7221 -0.6564
6047000000.0 -0.9577 0.121
6050000000.0 -0.4833 0.8371
6053000000.0 0.3252 0.8843
6056000000.0 0.893 0.3253
6059000000.0 0.7981 -0.4942
6062000000.0 0.1328 -0.8985
6066000000.0 -0.6422 -0.663
6069000000.0 -0.8955 0.06763
6072000000.0 -0.4934 0.7231
6075000000.0 0.2588 0.8599
6078000000.0 0.8448 0.3357
6081000000.0 0.7894 -0.4131
6084000000.0 0.1643 -0.8543
6088000000.0 -0.5683 -0.6548
6091000000.0 -0.8574 0.01345
6094000000.0 -0.5196 0.6788
6097000000.0 0.1938 0.8411
6100000000.0 0.7675 0.3855
6103000000.0 0.7849 -0.3788
6106000000.0 0.2066 -0.8543
6109000000.0 -0.5388 -0.6807
6112000000.0 -0.8683 -0.025
6116000000.0 -0.5581 0.6571
6119000000.0 0.1712 0.8505
6122000000.0 0.7661 0.4257
6125000000.0 0.7999 -0.3515
6128000000.0 0.2199 -0.8325
6131000000.0 -0.5152 -0.7421
6134000000.0 -0.8806 -0.05956
6138000000.0 -0.5694 0.6621
6141000000.0 0.1193 0.8888
6144000000.0 0.7656 0.4732
6147000000.0 0.8369 -0.3084
6150000000.0 0.2542 -0.8064
6153000000.0 -0.4649 -0.7918
6156000000.0 -0.9085 -0.1281
6159000000.0 -0.651 0.6258
6162000000.0 0.08105 0.9281
6166000000.0 0.7713 0.5359
6169000000.0 0.913 -0.2171
6172000000.0 0.4078 -0.8007
6175000000.0 -0.4415 -0.8509
6178000000.0 -0.8968 -0.2219
6181000000.0 -0.7621 0.5912
6184000000.0 -0.006247 0.9673
6188000000.0 0.7267 0.6273
6191000000.0 0.9478 -0.1842
6194000000.0 0.4486 -0.8606
6197000000.0 -0.3323 -0.8671
6200000000.0 -0.9014 -0.2805
6203000000.0 -0.8085 0.4975
6206000000.0 -0.1017 0.9572
6209000000.0 0.6582 0.7013
6212000000.0 0.9435 -0.05844
6216000000.0 0.5474 -0.7468
6219000000.0 -0.2282 -0.864
6222000000.0 -0.8261 -0.3912
6225000000.0 -0.8361 0.3991
6228000000.0 -0.2287 0.8694
6231000000.0 0.5302 0.7611
6234000000.0 0.9142 0.02782
6238000000.0 0.6556 -0.6443
6241000000.0 -0.1174 -0.8903
6244000000.0 -0.7475 -0.4673
6247000000.0 -0.7979 0.2221
6250000000.0 -0.3047 0.766
6253000000.0 0.401 0.7305
6256000000.0 0.8045 0.163
6259000000.0 0.6393 -0.4998
6262000000.0 0.02737 -0.8152
6266000000.0 -0.5922 -0.5545
6269000000.0 -0.835 0.1129
