! Created with skrf 1.8.0 (http://scikit-rf.org).
# Hz S RI R 50.0 
!freq ReS11 ImS11
4000000000.0 -0.2005 -1.467
4003000000.0 -1.275 -0.831
4006000000.0 -1.439 0.5148
4009000000.0 -0.5097 1.417
4012000000.0 0.7679 1.29
4016000000.0 1.473 0.2521
4019000000.0 1.109 -1.02
4022000000.0 -0.1111 -1.537
4025000000.0 -1.312 -0.9385
4028000000.0 -1.511 0.4854
4031000000.0 -0.5808 1.48
4034000000.0 0.8362 1.392
4038000000.0 1.559 0.2607
4041000000.0 1.22 -1.092
4044000000.0 -0.08431 -1.631
4047000000.0 -1.344 -0.922
4050000000.0 -1.59 0.4634
4053000000.0 -0.6403 1.451
4056000000.0 0.7398 1.416
4059000000.0 1.612 0.3382
4062000000.0 1.281 -1.009
4066000000.0 0.01066 -1.623
4069000000.0 -1.213 -1.037
4072000000.0 -1.567 0.2295
4075000000.0 -0.8232 1.395
4078000000.0 0.5333 1.51
4081000000.0 1.531 0.5715
4084000000.0 1.397 -0.848
4088000000.0 0.2412 -1.59
4091000000.0 -1.094 -1.22
4094000000.0 -1.638 0.03542
4097000000.0 -0.9924 1.269
4100000000.0 0.3765 1.574
4103000000.0 1.398 0.7007
4106000000.0 1.464 -0.6099
4109000000.0 0.4556 -1.513
4112000000.0 -0.8197 -1.296
4116000000.0 -1.491 -0.204
4119000000.0 -1.135 0.97
4122000000.0 0.02103 1.502
4125000000.0 1.118 0.9675
4128000000.0 1.441 -0.224
4131000000.0 0.7943 -1.26
4134000000.0 -0.4465 -1.391
4138000000.0 -1.362 -0.596
4141000000.0 -1.354 0.6338
4144000000.0 -0.3759 1.48
4147000000.0 0.8348 1.26
4150000000.0 1.489 0.1642
4153000000.0 1.101 -1.051
4156000000.0 -0.05924 -1.507
4159000000.0 -1.215 -0.8849
4162000000.0 -1.47 0.3344
4166000000.0 -0.6539 1.33
4169000000.0 0.6222 1.345
4172000000.0 1.466 0.4052
4175000000.0 1.232 -0.8634
4178000000.0 0.1592 -1.479
4181000000.0 -1.027 -1.059
4184000000.0 -1.513 0.06123
4188000000.0 -0.8912 1.233
4191000000.0 0.3433 1.453
4194000000.0 1.379 0.6627
4197000000.0 1.396 -0.6338
4200000000.0 0.4022 -1.519
4203000000.0 -0.9514 -1.313
4206000000.0 -1.607 -0.05897
4209000000.0 -1.077 1.225
4212000000.0 0.3315 1.597
4216000000.0 1.49 0.7552
4219000000.0 1.522 -0.7409
4222000000.0 0.3122 -1.617
4225000000.0 -1.082 -1.271
4228000000.0 -1.677 0.1143
4231000000.0 -0.9435 1.366
4234000000.0 0.5474 1.561
4238000000.0 1.553 0.5435
4241000000.0 1.38 -0.8948
4244000000.0 0.1198 -1.595
4247000000.0 -1.196 -1.039
4250000000.0 -1.556 0.2915
4253000000.0 -0.7292 1.412
4256000000.0 0.6668 1.397
4259000000.0 1.491 0.3304
4262000000.0 1.162 -1.003
4266000000.0 -0.05759 -1.543
4269000000.0 -1.234 -0.9117
4272000000.0 -1.435 0.43
4275000000.0 -0.5533 1.363
4278000000.0 0.7573 1.268
4281000000.0 1.395 0.1827
4284000000.0 1.017 -0.9696
4288000000.0 -0.135 -1.37
4291000000.0 -1.15 -0.7609
4294000000.0 -1.283 0.4013
4297000000.0 -0.497 1.206
4300000000.0 0.6344 1.136
4303000000.0 1.303 0.2273
4306000000.0 1.006 -0.8104
4309000000.0 0.03898 -1.291
4312000000.0 -0.945 -0.8284
4316000000.0 -1.265 0.1774
4319000000.0 -0.6772 1.091
4322000000.0 0.4139 1.251
4325000000.0 1.191 0.4899
4328000000.0 1.168 -0.609
4331000000.0 0.2885 -1.305
4334000000.0 -0.8326 -1.064
4338000000.0 -1.36 -0.06454
4341000000.0 -0.9648 1.027
4344000000.0 0.2141 1.382
4347000000.0 1.211 0.7093
4350000000.0 1.361 -0.4456
4353000000.0 0.5264 -1.351
4356000000.0 -0.7207 -1.22
4359000000.0 -1.398 -0.252
4362000000.0 -1.087 0.9333
4366000000.0 -0.003704 1.46
4369000000.0 1.132 0.9504
4372000000.0 1.435 -0.2748
4375000000.0 0.7293 -1.284
4378000000.0 -0.5232 -1.404
4381000000.0 -1.446 -0.498
4384000000.0 -1.289 0.7926
4388000000.0 -0.1843 1.512
4391000000.0 1.07 1.128
4394000000.0 1.555 -0.1317
4397000000.0 0.8934 -1.334
4400000000.0 -0.4575 -1.511
4403000000.0 -1.486 -0.5289
4406000000.0 -1.349 0.8188
4409000000.0 -0.1966 1.549
4412000000.0 1.102 1.098
4416000000.0 1.531 -0.1744
4419000000.0 0.8189 -1.326
4422000000.0 -0.5311 -1.4
4425000000.0 -1.464 -0.4544
4428000000.0 -1.256 0.8283
4431000000.0 -0.09478 1.454
4434000000.0 1.056 0.9587
4438000000.0 1.393 -0.2271
4441000000.0 0.6807 -1.201
4444000000.0 -0.564 -1.21
4447000000.0 -1.324 -0.3245
4450000000.0 -1.044 0.8217
4453000000.0 -0.001001 1.321
4456000000.0 1.044 0.7667
4459000000.0 1.209 -0.362
4462000000.0 0.4883 -1.133
4466000000.0 -0.6102 -1.089
4469000000.0 -1.234 -0.147
4472000000.0 -0.8984 0.8219
4475000000.0 0.1128 1.175
4478000000.0 1.013 0.626
4481000000.0 1.092 -0.3762
4484000000.0 0.3498 -1.071
4488000000.0 -0.6552 -0.9283
4491000000.0 -1.134 -0.09387
4494000000.0 -0.7729 0.8506
4497000000.0 0.1943 1.135
4500000000.0 0.9522 0.5579
4503000000.0 1.031 -0.366
4506000000.0 0.3178 -1.037
4509000000.0 -0.5888 -0.9039
4512000000.0 -1.098 -0.114
4516000000.0 -0.7585 0.795
4519000000.0 0.1355 1.103
4522000000.0 0.936 0.6145
4525000000.0 1.128 -0.3567
4528000000.0 0.4419 -1.04
4531000000.0 -0.5419 -0.9989
4534000000.0 -1.127 -0.2016
4538000000.0 -0.8826 0.755
4541000000.0 0.01931 1.177
4544000000.0 0.9231 0.7092
4547000000.0 1.141 -0.2453
4550000000.0 0.559 -1.076
4553000000.0 -0.4356 -1.098
4556000000.0 -1.147 -0.3578
4559000000.0 -1.056 0.6599
4562000000.0 -0.158 1.214
4566000000.0 0.8181 0.9471
4569000000.0 1.264 -0.0409
4572000000.0 0.7671 -1.004
4575000000.0 -0.2482 -1.256
4578000000.0 -1.141 -0.6339
4581000000.0 -1.192 0.4693
4584000000.0 -0.4126 1.262
4588000000.0 0.7274 1.152
4591000000.0 1.332 0.1736
4594000000.0 0.9995 -0.9369
4597000000.0 -0.1152 -1.35
4600000000.0 -1.126 -0.8009
4603000000.0 -1.331 0.3384
4606000000.0 -0.563 1.255
4609000000.0 0.6325 1.238
4612000000.0 1.336 0.2955
4616000000.0 1.089 -0.8661
4619000000.0 0.03557 -1.398
4622000000.0 -1.052 -0.9011
4625000000.0 -1.332 0.2513
4628000000.0 -0.6623 1.191
4631000000.0 0.5228 1.262
4634000000.0 1.287 0.3954
4638000000.0 1.127 -0.7655
4641000000.0 0.1074 -1.338
4644000000.0 -0.9731 -0.903
4647000000.0 -1.342 0.1761
4650000000.0 -0.6987 1.118
4653000000.0 0.4645 1.231
4656000000.0 1.264 0.3761
4659000000.0 1.097 -0.726
4662000000.0 0.06164 -1.271
4666000000.0 -0.9099 -0.8014
4669000000.0 -1.198 0.184
4672000000.0 -0.5778 1.036
4675000000.0 0.4694 1.086
4678000000.0 1.104 0.3329
4681000000.0 0.9575 -0.6416
4684000000.0 0.04343 -1.108
4688000000.0 -0.8177 -0.7644
4691000000.0 -1.121 0.1601
4694000000.0 -0.5772 0.9481
4697000000.0 0.4296 0.9825
4700000000.0 1.046 0.3094
4703000000.0 0.863 -0.6357
4706000000.0 0.0346 -1.088
4709000000.0 -0.8086 -0.6844
4712000000.0 -1.074 0.2185
4716000000.0 -0.4828 0.9614
4719000000.0 0.4255 0.9889
4722000000.0 1.024 0.2637
4725000000.0 0.8549 -0.5984
4728000000.0 0.05008 -1.027
4731000000.0 -0.7626 -0.6731
4734000000.0 -0.9975 0.1755
4738000000.0 -0.5105 0.9117
4741000000.0 0.3814 0.966
4744000000.0 0.975 0.3304
4747000000.0 0.9024 -0.5567
4750000000.0 0.1474 -1.037
4753000000.0 -0.7068 -0.7884
4756000000.0 -1.069 0.0258
4759000000.0 -0.6775 0.8595
4762000000.0 0.2358 1.072
4766000000.0 0.9953 0.492
4769000000.0 1.036 -0.4177
4772000000.0 0.3643 -1.09
4775000000.0 -0.6384 -0.9928
4778000000.0 -1.135 -0.1237
4781000000.0 -0.8883 0.8071
4784000000.0 0.04079 1.193
4788000000.0 0.9354 0.7354
4791000000.0 1.181 -0.2712
4794000000.0 0.5649 -1.077
4797000000.0 -0.4713 -1.145
4800000000.0 -1.188 -0.4163
4803000000.0 -1.04 0.6606
4806000000.0 -0.191 1.218
4809000000.0 0.8316 0.936
4812000000.0 1.265 -0.03495
4816000000.0 0.7975 -1.025
4819000000.0 -0.255 -1.281
4822000000.0 -1.172 -0.6578
4825000000.0 -1.253 0.4787
4828000000.0 -0.4016 1.276
4831000000.0 0.7899 1.137
4834000000.0 1.379 0.1157
4838000000.0 0.9696 -0.9804
4841000000.0 -0.1411 -1.374
4844000000.0 -1.155 -0.7742
4847000000.0 -1.343 0.3976
4850000000.0 -0.5339 1.282
4853000000.0 0.6458 1.205
4856000000.0 1.372 0.2669
4859000000.0 1.057 -0.8755
4862000000.0 -0.007219 -1.364
4866000000.0 -1.033 -0.8601
4869000000.0 -1.311 0.2764
4872000000.0 -0.582 1.184
4875000000.0 0.5319 1.211
4878000000.0 1.266 0.3259
4881000000.0 1.052 -0.7084
4884000000.0 0.04851 -1.275
4888000000.0 -0.9019 -0.8266
4891000000.0 -1.215 0.2196
4894000000.0 -0.576 1.024
4897000000.0 0.4201 1.099
4900000000.0 1.111 0.3215
4903000000.0 0.9115 -0.6379
4906000000.0 0.07242 -1.092
4909000000.0 -0.7799 -0.7411
4912000000.0 -1.056 0.1481
4916000000.0 -0.537 0.894
4919000000.0 0.3262 0.9449
4922000000.0 0.9348 0.3535
4925000000.0 0.8195 -0.4737
4928000000.0 0.1792 -0.9575
4931000000.0 -0.6183 -0.714
4934000000.0 -0.9319 0.02371
4938000000.0 -0.5586 0.7701
4941000000.0 0.213 0.9102
4944000000.0 0.8359 0.4079
4947000000.0 0.8466 -0.3822
4950000000.0 0.2348 -0.9006
4953000000.0 -0.5603 -0.7555
4956000000.0 -0.9489 -0.02171
4959000000.0 -0.6652 0.7073
4962000000.0 0.1684 0.9553
4966000000.0 0.8322 0.4811
4969000000.0 0.9171 -0.3453
4972000000.0 0.3346 -0.9422
4975000000.0 -0.5269 -0.8555
4978000000.0 -0.9938 -0.1104
4981000000.0 -0.7635 0.6879
4984000000.0 0.04934 1.008
4988000000.0 0.8339 0.64
4991000000.0 1.028 -0.2636
4994000000.0 0.4955 -0.9358
4997000000.0 -0.4491 -0.9788
5000000000.0 -1.068 -0.2973
5003000000.0 -0.901 0.6558
5006000000.0 -0.1056 1.148
5009000000.0 0.8529 0.8262
5012000000.0 1.186 -0.1318
5016000000.0 0.6599 -1.014
5019000000.0 -0.3677 -1.175
5022000000.0 -1.155 -0.482
5025000000.0 -1.073 0.6089
5028000000.0 -0.2306 1.237
5031000000.0 0.7882 0.9877
5034000000.0 1.266 0.02411
5038000000.0 0.837 -0.957
5041000000.0 -0.2349 -1.272
5044000000.0 -1.097 -0.6471
5047000000.0 -1.207 0.4111
5050000000.0 -0.4161 1.258
5053000000.0 0.6636 1.117
5056000000.0 1.295 0.2074
5059000000.0 0.9887 -0.8366
5062000000.0 -0.0522 -1.27
5066000000.0 -0.9972 -0.8312
5069000000.0 -1.258 0.2416
5072000000.0 -0.5863 1.167
5075000000.0 0.4812 1.215
5078000000.0 1.212 0.376
5081000000.0 1.069 -0.7007
5084000000.0 0.1736 -1.245
5088000000.0 -0.7855 -0.8978
5091000000.0 -1.194 0.06679
5094000000.0 -0.6994 0.9514
5097000000.0 0.2964 1.129
5100000000.0 1.034 0.5132
5103000000.0 1.018 -0.4396
5106000000.0 0.3424 -1.08
5109000000.0 -0.6332 -0.8756
5112000000.0 -1.061 -0.1093
5116000000.0 -0.744 0.7631
5119000000.0 0.0935 1.076
5122000000.0 0.8308 0.6295
5125000000.0 1.005 -0.226
5128000000.0 0.4213 -0.9079
5131000000.0 -0.4453 -0.9607
5134000000.0 -0.9684 -0.2634
5138000000.0 -0.7926 0.5752
5141000000.0 -0.04623 0.9596
5144000000.0 0.6932 0.6796
5147000000.0 0.9491 -0.1462
5150000000.0 0.48 -0.7953
5153000000.0 -0.2808 -0.8607
5156000000.0 -0.8517 -0.3073
5159000000.0 -0.8064 0.4327
5162000000.0 -0.1395 0.9007
5166000000.0 0.6066 0.6811
5169000000.0 0.9107 -0.03801
5172000000.0 0.5748 -0.7071
5175000000.0 -0.2374 -0.8769
5178000000.0 -0.8229 -0.3787
5181000000.0 -0.8147 0.3753
5184000000.0 -0.2094 0.915
5188000000.0 0.5816 0.682
5191000000.0 0.9259 0.0124
5194000000.0 0.5464 -0.743
5197000000.0 -0.2181 -0.9132
5200000000.0 -0.8305 -0.4006
5203000000.0 -0.8471 0.4283
5206000000.0 -0.2157 0.9334
5209000000.0 0.6236 0.7208
5212000000.0 0.9588 0.006611
5216000000.0 0.6081 -0.7361
5219000000.0 -0.2033 -0.9465
5222000000.0 -0.8954 -0.4619
5225000000.0 -0.9144 0.4219
5228000000.0 -0.2362 0.9772
5231000000.0 0.601 0.816
5234000000.0 1.013 0.08708
5238000000.0 0.7042 -0.7432
5241000000.0 -0.1033 -1.012
5244000000.0 -0.8946 -0.5513
5247000000.0 -0.9759 0.3368
5250000000.0 -0.3812 0.9851
5253000000.0 0.5043 0.9364
5256000000.0 1.047 0.2073
5259000000.0 0.8224 -0.6698
5262000000.0 0.007513 -1.081
5266000000.0 -0.831 -0.7278
5269000000.0 -1.071 0.1791
5272000000.0 -0.5579 0.9399
5275000000.0 0.3521 1.034
5278000000.0 0.995 0.3945
5281000000.0 0.9556 -0.5342
5284000000.0 0.2119 -1.078
5288000000.0 -0.6581 -0.8634
5291000000.0 -1.125 -0.05532
5294000000.0 -0.7726 0.8002
5297000000.0 0.1341 1.094
5300000000.0 0.9401 0.6238
5303000000.0 1.083 -0.2729
5306000000.0 0.4843 -1.036
5309000000.0 -0.4797 -1.03
5312000000.0 -1.104 -0.2592
5316000000.0 -0.9508 0.6433
5319000000.0 -0.1104 1.157
5322000000.0 0.8193 0.8172
5325000000.0 1.144 -0.06944
5328000000.0 0.6619 -0.9159
5331000000.0 -0.2999 -1.114
5334000000.0 -1.04 -0.4941
5338000000.0 -0.9996 0.4716
5341000000.0 -0.27 1.078
5344000000.0 0.6653 0.8838
5347000000.0 1.115 0.04491
5350000000.0 0.7631 -0.8347
5353000000.0 -0.1653 -1.09
5356000000.0 -0.9486 -0.5727
5359000000.0 -1.04 0.3296
5362000000.0 -0.3834 0.9925
5366000000.0 0.5553 0.9219
5369000000.0 1.029 0.1287
5372000000.0 0.7599 -0.714
5375000000.0 -0.1091 -1.024
5378000000.0 -0.8598 -0.5882
5381000000.0 -0.9703 0.3186
5384000000.0 -0.3523 0.9499
5388000000.0 0.4976 0.8543
5391000000.0 0.982 0.1148
5394000000.0 0.69 -0.6731
5397000000.0 -0.1086 -0.9217
5400000000.0 -0.771 -0.4967
5403000000.0 -0.8329 0.289
5406000000.0 -0.2764 0.8307
5409000000.0 0.4621 0.7474
5412000000.0 0.8856 0.09219
5416000000.0 0.6028 -0.6466
5419000000.0 -0.121 -0.8587
5422000000.0 -0.7538 -0.4361
5425000000.0 -0.7969 0.2732
5428000000.0 -0.2596 0.8241
5431000000.0 0.4677 0.7392
5434000000.0 0.8539 0.0773
5438000000.0 0.5974 -0.6182
5441000000.0 -0.1272 -0.864
5444000000.0 -0.7525 -0.4589
5447000000.0 -0.8137 0.3238
5450000000.0 -0.2891 0.7962
5453000000.0 0.4672 0.7458
5456000000.0 0.8877 0.0829
5459000000.0 0.6454 -0.6087
5462000000.0 -0.07352 -0.8571
5466000000.0 -0.7093 -0.5233
5469000000.0 -0.8655 0.2092
5472000000.0 -0.372 0.8162
5475000000.0 0.3865 0.8158
5478000000.0 0.8876 0.2229
5481000000.0 0.7824 -0.5379
5484000000.0 0.05814 -0.9438
5488000000.0 -0.7269 -0.6664
5491000000.0 -0.9914 0.1375
5494000000.0 -0.5347 0.8082
5497000000.0 0.2803 0.9519
5500000000.0 0.9268 0.3872
5503000000.0 0.9322 -0.3953
5506000000.0 0.2445 -1.013
5509000000.0 -0.5881 -0.7911
5512000000.0 -1.02 -0.07109
5516000000.0 -0.7204 0.7535
5519000000.0 0.1187 1.035
5522000000.0 0.839 0.585
5525000000.0 0.9759 -0.2712
5528000000.0 0.4521 -0.9297
5531000000.0 -0.4572 -0.9427
5534000000.0 -0.9833 -0.2543
5538000000.0 -0.8519 0.5769
5541000000.0 -0.09561 1.017
5544000000.0 0.7571 0.7196
5547000000.0 1.026 -0.0883
5550000000.0 0.5856 -0.8813
5553000000.0 -0.2774 -1.037
5556000000.0 -0.9756 -0.425
5559000000.0 -0.9441 0.4833
5562000000.0 -0.2731 0.9869
5566000000.0 0.619 0.8522
5569000000.0 1.034 0.04761
5572000000.0 0.6947 -0.7811
5575000000.0 -0.1295 -1.057
5578000000.0 -0.8434 -0.5286
5581000000.0 -0.9527 0.2857
5584000000.0 -0.3603 0.905
5588000000.0 0.4355 0.8284
5591000000.0 0.937 0.173
5594000000.0 0.7157 -0.6221
5597000000.0 -0.01164 -0.9473
5600000000.0 -0.7172 -0.5985
5603000000.0 -0.869 0.1778
5606000000.0 -0.4096 0.8338
5609000000.0 0.3376 0.8062
5612000000.0 0.8647 0.2235
5616000000.0 0.7058 -0.5213
5619000000.0 0.0729 -0.8715
5622000000.0 -0.6188 -0.5824
5625000000.0 -0.841 0.1315
5628000000.0 -0.4149 0.7296
5631000000.0 0.3277 0.8161
5634000000.0 0.8031 0.259
5638000000.0 0.6907 -0.451
5641000000.0 0.07229 -0.8445
5644000000.0 -0.5879 -0.5781
5647000000.0 -0.8311 0.07447
5650000000.0 -0.4415 0.7178
5653000000.0 0.2837 0.784
5656000000.0 0.7972 0.2842
5659000000.0 0.7213 -0.4779
5662000000.0 0.06851 -0.8449
5666000000.0 -0.644 -0.5965
5669000000.0 -0.879 0.08963
5672000000.0 -0.4568 0.7436
5675000000.0 0.2889 0.8354
5678000000.0 0.8669 0.2919
5681000000.0 0.7991 -0.4765
5684000000.0 0.1017 -0.9287
5688000000.0 -0.6348 -0.659
5691000000.0 -0.9319 0.08623
5694000000.0 -0.5299 0.7922
5697000000.0 0.2846 0.9081
5700000000.0 0.9341 0.3888
5703000000.0 0.8928 -0.4857
5706000000.0 0.1755 -0.9923
5709000000.0 -0.6506 -0.7684
5712000000.0 -0.9965 0.01935
5716000000.0 -0.5993 0.8025
5719000000.0 0.2221 1.05
5722000000.0 0.9411 0.4705
5725000000.0 0.9383 -0.3993
5728000000.0 0.285 -1.008
5731000000.0 -0.5912 -0.9406
5734000000.0 -1.079 -0.09114
5738000000.0 -0.7859 0.7483
5741000000.0 0.09365 1.065
5744000000.0 0.9126 0.5828
5747000000.0 1.062 -0.2857
5750000000.0 0.4684 -0.9849
5753000000.0 -0.4765 -0.9581
5756000000.0 -1.079 -0.2759
5759000000.0 -0.8919 0.6613
5762000000.0 -0.08508 1.131
5766000000.0 0.781 0.756
5769000000.0 1.1 -0.1172
5772000000.0 0.6235 -0.9194
5775000000.0 -0.298 -1.03
5778000000.0 -0.9963 -0.4463
5781000000.0 -0.9512 0.4791
5784000000.0 -0.2502 1.054
5788000000.0 0.6891 0.8746
5791000000.0 1.056 0.03476
5794000000.0 0.7274 -0.8286
5797000000.0 -0.1163 -1.071
5800000000.0 -0.8945 -0.5528
5803000000.0 -0.9936 0.3844
5806000000.0 -0.4058 0.9459
5809000000.0 0.5098 0.8941
5812000000.0 1.013 0.1786
5816000000.0 0.7949 -0.661
5819000000.0 -0.01071 -0.9994
5822000000.0 -0.764 -0.6378
5825000000.0 -1.002 0.1946
5828000000.0 -0.4657 0.8961
5831000000.0 0.3879 0.8966
5834000000.0 0.9346 0.3114
5838000000.0 0.798 -0.5627
5841000000.0 0.06481 -0.9408
5844000000.0 -0.7127 -0.6745
5847000000.0 -0.9204 0.118
5850000000.0 -0.5157 0.7968
5853000000.0 0.3248 0.8658
5856000000.0 0.8911 0.323
5859000000.0 0.7766 -0.4904
5862000000.0 0.0891 -0.9379
5866000000.0 -0.6115 -0.6579
5869000000.0 -0.9165 0.1002
5872000000.0 -0.5253 0.7688
5875000000.0 0.2814 0.8474
5878000000.0 0.7951 0.3201
5881000000.0 0.762 -0.4798
5884000000.0 0.1155 -0.8482
5888000000.0 -0.602 -0.62
5891000000.0 -0.8666 0.08061
5894000000.0 -0.4976 0.6958
5897000000.0 0.2288 0.7999
5900000000.0 0.7887 0.3499
5903000000.0 0.7502 -0.4012
5906000000.0 0.1752 -0.8114
5909000000.0 -0.5561 -0.6599
5912000000.0 -0.8956 -0.01152
5916000000.0 -0.5238 0.6646
5919000000.0 0.171 0.8713
5922000000.0 0.757 0.4249
5925000000.0 0.8092 -0.3507
5928000000.0 0.235 -0.8385
5931000000.0 -0.4824 -0.7455
5934000000.0 -0.8886 -0.1246
5938000000.0 -0.6435 0.585
5941000000.0 0.09117 0.9232
5944000000.0 0.7148 0.5174
5947000000.0 0.862 -0.2238
5950000000.0 0.3567 -0.8223
5953000000.0 -0.372 -0.8299
5956000000.0 -0.8674 -0.2365
5959000000.0 -0.7493 0.5456
5962000000.0 -0.06383 0.913
5966000000.0 0.6447 0.6697
5969000000.0 0.9466 -0.08912
5972000000.0 0.5186 -0.7834
5975000000.0 -0.2451 -0.9084
5978000000.0 -0.8943 -0.404
5981000000.0 -0.8699 0.4216
5984000000.0 -0.2349 0.9504
5988000000.0 0.5949 0.7915
5991000000.0 0.9918 0.07225
5994000000.0 0.7026 -0.7276
5997000000.0 -0.1389 -1.015
6000000000.0 -0.878 -0.5553
6003000000.0 -0.9471 0.3167
6006000000.0 -0.3463 0.9048
6009000000.0 0.4837 0.8508
6012000000.0 0.9707 0.1663
6016000000.0 0.7531 -0.6494
6019000000.0 -1.286e-05 -0.9768
6022000000.0 -0.7466 -0.6065
6025000000.0 -0.9665 0.1891
6028000000.0 -0.4611 0.8636
6031000000.0 0.3809 0.9066
6034000000.0 0.943 0.28
6038000000.0 0.8099 -0.5405
6041000000.0 0.08772 -0.9424
6044000000.0 -0.6884 -0.6652
6047000000.0 -0.9431 0.1051
6050000000.0 -0.5032 0.7905
6053000000.0 0.2972 0.8979
6056000000.0 0.8949 0.305
6059000000.0 0.8024 -0.5192
6062000000.0 0.136 -0.9083
6066000000.0 -0.637 -0.6573
6069000000.0 -0.8924 0.06113
6072000000.0 -0.5077 0.707
6075000000.0 0.2568 0.8364
6078000000.0 0.8013 0.3378
6081000000.0 0.7732 -0.41
6084000000.0 0.1503 -0.843
6088000000.0 -0.5757 -0.6578
6091000000.0 -0.8652 0.04041
6094000000.0 -0.487 0.6876
6097000000.0 0.1937 0.8467
6100000000.0 0.7597 0.4064
6103000000.0 0.7753 -0.3559
6106000000.0 0.201 -0.8244
6109000000.0 -0.5372 -0.6911
6112000000.0 -0.864 -0.02123
6116000000.0 -0.5486 0.6499
6119000000.0 0.1378 0.8154
6122000000.0 0.7861 0.4233
6125000000.0 0.7885 -0.3305
6128000000.0 0.2648 -0.8181
6131000000.0 -0.4796 -0.6978
6134000000.0 -0.8574 -0.05239
6138000000.0 -0.5886 0.6273
6141000000.0 0.07524 0.86
6144000000.0 0.759 0.4694
6147000000.0 0.8408 -0.293
6150000000.0 0.2774 -0.8145
6153000000.0 -0.4299 -0.7506
6156000000.0 -0.9203 -0.1246
6159000000.0 -0.6522 0.6065
6162000000.0 0.0653 0.8968
6166000000.0 0.7373 0.5202
6169000000.0 0.9133 -0.2405
6172000000.0 0.3551 -0.8582
6175000000.0 -0.4285 -0.8381
6178000000.0 -0.9205 -0.2055
6181000000.0 -0.7674 0.5894
6184000000.0 -0.03492 0.9658
6188000000.0 0.7053 0.6412
6191000000.0 0.9086 -0.1647
6194000000.0 0.468 -0.7925
6197000000.0 -0.3456 -0.8911
6200000000.0 -0.8609 -0.2997
6203000000.0 -0.7608 0.4802
6206000000.0 -0.1461 0.9276
6209000000.0 0.6194 0.696
6212000000.0 0.9019 -0.03911
6216000000.0 0.5039 -0.7489
6219000000.0 -0.2495 -0.9026
6222000000.0 -0.8101 -0.4108
6225000000.0 -0.8111 0.3839
6228000000.0 -0.2387 0.8648
6231000000.0 0.5467 0.7267
6234000000.0 0.8701 0.05034
6238000000.0 0.6159 -0.6503
6241000000.0 -0.1127 -0.8591
6244000000.0 -0.7544 -0.4824
6247000000.0 -0.8215 0.2571
6250000000.0 -0.3159 0.7985
6253000000.0 0.3666 0.7433
6256000000.0 0.8095 0.1851
6259000000.0 0.6722 -0.5111
6262000000.0 0.04503 -0.8163
6266000000.0 -0.5662 -0.5579
6269000000.0 -0.7822 0.1093
