! Created with skrf 1.8.0 (http://scikit-rf.org).
# Hz S RI R 50.0 
!freq ReS11 ImS11
4000000000.0 -0.1408 -1.496
4003000000.0 -1.297 -0.8034
4006000000.0 -1.345 0.4851
4009000000.0 -0.5823 1.414
4012000000.0 0.7536 1.307
4016000000.0 1.539 0.2347
4019000000.0 1.154 -1.032
4022000000.0 -0.1106 -1.577
4025000000.0 -1.316 -0.9189
4028000000.0 -1.555 0.489
4031000000.0 -0.6265 1.479
4034000000.0 0.8081 1.412
4038000000.0 1.604 0.2243
4041000000.0 1.228 -1.075
4044000000.0 -0.1023 -1.63
4047000000.0 -1.342 -0.9095
4050000000.0 -1.572 0.4578
4053000000.0 -0.604 1.495
4056000000.0 0.7446 1.42
4059000000.0 1.589 0.3596
4062000000.0 1.232 -1.031
4066000000.0 0.04699 -1.568
4069000000.0 -1.218 -1.081
4072000000.0 -1.595 0.261
4075000000.0 -0.8742 1.409
4078000000.0 0.5645 1.514
4081000000.0 1.552 0.5742
4084000000.0 1.425 -0.8503
4088000000.0 0.2429 -1.661
4091000000.0 -1.088 -1.231
4094000000.0 -1.708 0.08961
4097000000.0 -1.014 1.28
4100000000.0 0.3514 1.604
4103000000.0 1.432 0.7307
4106000000.0 1.465 -0.6393
4109000000.0 0.4484 -1.489
4112000000.0 -0.8221 -1.313
4116000000.0 -1.492 -0.1963
4119000000.0 -1.146 0.9843
4122000000.0 0.01064 1.476
4125000000.0 1.16 0.9923
4128000000.0 1.465 -0.2301
4131000000.0 0.7741 -1.264
4134000000.0 -0.4417 -1.414
4138000000.0 -1.38 -0.6043
4141000000.0 -1.323 0.6564
4144000000.0 -0.3826 1.438
4147000000.0 0.8682 1.24
4150000000.0 1.519 0.183
4153000000.0 1.091 -1.068
4156000000.0 -0.1374 -1.518
4159000000.0 -1.222 -0.8855
4162000000.0 -1.461 0.3804
4166000000.0 -0.6754 1.339
4169000000.0 0.6103 1.386
4172000000.0 1.441 0.4124
4175000000.0 1.28 -0.8402
4178000000.0 0.1879 -1.476
4181000000.0 -1.026 -1.078
4184000000.0 -1.501 0.06432
4188000000.0 -0.9245 1.141
4191000000.0 0.3642 1.491
4194000000.0 1.358 0.6611
4197000000.0 1.406 -0.6556
4200000000.0 0.3917 -1.542
4203000000.0 -0.9767 -1.302
4206000000.0 -1.625 -0.06607
4209000000.0 -1.057 1.233
4212000000.0 0.2876 1.65
4216000000.0 1.506 0.7187
4219000000.0 1.512 -0.6949
4222000000.0 0.3686 -1.647
4225000000.0 -1.098 -1.315
4228000000.0 -1.699 0.094
4231000000.0 -0.9273 1.39
4234000000.0 0.5544 1.581
4238000000.0 1.539 0.5452
4241000000.0 1.381 -0.9195
4244000000.0 0.09811 -1.61
4247000000.0 -1.192 -1.037
4250000000.0 -1.583 0.3329
4253000000.0 -0.6951 1.371
4256000000.0 0.6729 1.428
4259000000.0 1.514 0.3405
4262000000.0 1.154 -0.9586
4266000000.0 -0.03267 -1.52
4269000000.0 -1.237 -0.8659
4272000000.0 -1.461 0.4261
4275000000.0 -0.5587 1.389
4278000000.0 0.7246 1.251
4281000000.0 1.43 0.1943
4284000000.0 1.031 -0.9726
4288000000.0 -0.1397 -1.394
4291000000.0 -1.17 -0.7513
4294000000.0 -1.293 0.4188
4297000000.0 -0.505 1.273
4300000000.0 0.6556 1.138
4303000000.0 1.308 0.2674
4306000000.0 1.041 -0.8029
4309000000.0 0.02329 -1.314
4312000000.0 -0.9846 -0.8471
4316000000.0 -1.266 0.2144
4319000000.0 -0.6694 1.128
4322000000.0 0.4246 1.261
4325000000.0 1.213 0.4927
4328000000.0 1.179 -0.6426
4331000000.0 0.2865 -1.319
4334000000.0 -0.8368 -1.106
4338000000.0 -1.362 -0.07044
4341000000.0 -0.9691 1.054
4344000000.0 0.1978 1.394
4347000000.0 1.219 0.7724
4350000000.0 1.347 -0.4661
4353000000.0 0.5038 -1.353
4356000000.0 -0.7115 -1.238
4359000000.0 -1.443 -0.237
4362000000.0 -1.104 0.9349
4366000000.0 -0.004895 1.506
4369000000.0 1.118 0.9341
4372000000.0 1.466 -0.2544
4375000000.0 0.7295 -1.269
4378000000.0 -0.5531 -1.418
4381000000.0 -1.444 -0.4734
4384000000.0 -1.294 0.8295
4388000000.0 -0.1854 1.56
4391000000.0 1.077 1.106
4394000000.0 1.587 -0.1683
4397000000.0 0.8903 -1.324
4400000000.0 -0.5317 -1.536
4403000000.0 -1.517 -0.5523
4406000000.0 -1.346 0.8205
4409000000.0 -0.2049 1.556
4412000000.0 1.125 1.123
4416000000.0 1.534 -0.1864
4419000000.0 0.7924 -1.31
4422000000.0 -0.504 -1.406
4425000000.0 -1.425 -0.4726
4428000000.0 -1.222 0.8543
4431000000.0 -0.09464 1.45
4434000000.0 1.076 0.9193
4438000000.0 1.42 -0.264
4441000000.0 0.6884 -1.234
4444000000.0 -0.5277 -1.268
4447000000.0 -1.337 -0.3163
4450000000.0 -1.083 0.8519
4453000000.0 -0.007909 1.348
4456000000.0 1.034 0.8085
4459000000.0 1.228 -0.3507
4462000000.0 0.5252 -1.188
4466000000.0 -0.6658 -1.08
4469000000.0 -1.223 -0.1581
4472000000.0 -0.8651 0.8635
4475000000.0 0.1357 1.159
4478000000.0 1.045 0.6585
4481000000.0 1.122 -0.4358
4484000000.0 0.3214 -1.115
4488000000.0 -0.6346 -0.9408
4491000000.0 -1.141 -0.09633
4494000000.0 -0.7456 0.8393
4497000000.0 0.1505 1.12
4500000000.0 0.9924 0.544
4503000000.0 1.017 -0.3912
4506000000.0 0.3145 -1.07
4509000000.0 -0.593 -0.9009
4512000000.0 -1.074 -0.1501
4516000000.0 -0.7729 0.7881
4519000000.0 0.09516 1.086
4522000000.0 0.9553 0.6244
4525000000.0 1.098 -0.3278
4528000000.0 0.4071 -1.09
4531000000.0 -0.5506 -1.006
4534000000.0 -1.157 -0.1992
4538000000.0 -0.8909 0.7497
4541000000.0 0.03639 1.172
4544000000.0 0.9193 0.763
4547000000.0 1.17 -0.2555
4550000000.0 0.5729 -1.072
4553000000.0 -0.4696 -1.103
4556000000.0 -1.17 -0.3646
4559000000.0 -1.043 0.6278
4562000000.0 -0.1798 1.236
4566000000.0 0.8466 0.9366
4569000000.0 1.251 -0.06492
4572000000.0 0.8154 -1.005
4575000000.0 -0.2655 -1.285
4578000000.0 -1.155 -0.6277
4581000000.0 -1.231 0.5142
4584000000.0 -0.4061 1.267
4588000000.0 0.7158 1.146
4591000000.0 1.383 0.164
4594000000.0 1.033 -0.9327
4597000000.0 -0.08835 -1.404
4600000000.0 -1.146 -0.8107
4603000000.0 -1.372 0.3637
4606000000.0 -0.5865 1.298
4609000000.0 0.6029 1.236
4612000000.0 1.353 0.2948
4616000000.0 1.135 -0.8346
4619000000.0 0.0451 -1.407
4622000000.0 -1.061 -0.8922
4625000000.0 -1.385 0.2359
4628000000.0 -0.6799 1.226
4631000000.0 0.5251 1.269
4634000000.0 1.314 0.3859
4638000000.0 1.132 -0.7816
4641000000.0 0.1125 -1.381
4644000000.0 -0.9794 -0.9321
4647000000.0 -1.319 0.1793
4650000000.0 -0.6744 1.156
4653000000.0 0.4844 1.246
4656000000.0 1.244 0.3704
4659000000.0 1.05 -0.7409
4662000000.0 0.08401 -1.267
4666000000.0 -0.9135 -0.8512
4669000000.0 -1.202 0.1806
4672000000.0 -0.5995 1.073
4675000000.0 0.4265 1.098
4678000000.0 1.131 0.3254
4681000000.0 0.9278 -0.6753
4684000000.0 0.07794 -1.141
4688000000.0 -0.8105 -0.7534
4691000000.0 -1.1 0.1707
4694000000.0 -0.5377 0.9585
4697000000.0 0.406 1.024
4700000000.0 1.037 0.302
4703000000.0 0.9085 -0.633
4706000000.0 0.06554 -1.068
4709000000.0 -0.814 -0.7086
4712000000.0 -1.069 0.2097
4716000000.0 -0.4803 0.992
4719000000.0 0.424 0.9789
4722000000.0 1.065 0.2607
4725000000.0 0.8075 -0.6103
4728000000.0 0.05183 -1.045
4731000000.0 -0.8 -0.6976
4734000000.0 -1.02 0.1556
4738000000.0 -0.522 0.8941
4741000000.0 0.3709 1.0
4744000000.0 0.9935 0.3338
4747000000.0 0.8987 -0.5071
4750000000.0 0.1547 -1.053
4753000000.0 -0.7524 -0.8154
4756000000.0 -1.08 0.01837
4759000000.0 -0.6794 0.8578
4762000000.0 0.2371 1.082
4766000000.0 1.009 0.5112
4769000000.0 1.048 -0.4268
4772000000.0 0.3333 -1.114
4775000000.0 -0.6408 -0.9899
4778000000.0 -1.154 -0.1485
4781000000.0 -0.8762 0.8096
4784000000.0 0.04915 1.204
4788000000.0 0.9717 0.7322
4791000000.0 1.213 -0.2237
4794000000.0 0.5233 -1.086
4797000000.0 -0.4733 -1.141
4800000000.0 -1.17 -0.3904
4803000000.0 -1.057 0.6394
4806000000.0 -0.1825 1.246
4809000000.0 0.8374 0.9627
4812000000.0 1.286 -0.02838
4816000000.0 0.8234 -1.023
4819000000.0 -0.2544 -1.296
4822000000.0 -1.174 -0.6407
4825000000.0 -1.23 0.5152
4828000000.0 -0.394 1.314
4831000000.0 0.7516 1.178
4834000000.0 1.381 0.1367
4838000000.0 0.9799 -0.9909
4841000000.0 -0.1428 -1.373
4844000000.0 -1.178 -0.7661
4847000000.0 -1.35 0.3943
4850000000.0 -0.5416 1.291
4853000000.0 0.6284 1.234
4856000000.0 1.369 0.2659
4859000000.0 1.051 -0.8797
4862000000.0 -0.008876 -1.378
4866000000.0 -1.039 -0.8464
4869000000.0 -1.287 0.2983
4872000000.0 -0.6162 1.196
4875000000.0 0.5306 1.197
4878000000.0 1.245 0.3372
4881000000.0 1.055 -0.7508
4884000000.0 0.05089 -1.273
4888000000.0 -0.9444 -0.81
4891000000.0 -1.209 0.1988
4894000000.0 -0.6131 1.051
4897000000.0 0.4397 1.084
4900000000.0 1.096 0.3307
4903000000.0 0.9285 -0.6447
4906000000.0 0.1064 -1.095
4909000000.0 -0.8241 -0.764
4912000000.0 -1.086 0.1185
4916000000.0 -0.5553 0.8804
4919000000.0 0.3446 0.9577
4922000000.0 0.9319 0.3372
4925000000.0 0.8318 -0.4977
4928000000.0 0.1549 -0.9492
4931000000.0 -0.6201 -0.7125
4934000000.0 -0.9443 0.04713
4938000000.0 -0.5757 0.7495
4941000000.0 0.227 0.9482
4944000000.0 0.863 0.4187
4947000000.0 0.8635 -0.3864
4950000000.0 0.2314 -0.9145
4953000000.0 -0.5663 -0.7537
4956000000.0 -0.9749 -0.0782
4959000000.0 -0.6263 0.7369
4962000000.0 0.1594 0.9621
4966000000.0 0.8706 0.4859
4969000000.0 0.9402 -0.3391
4972000000.0 0.3287 -0.9378
4975000000.0 -0.5342 -0.8838
4978000000.0 -0.9961 -0.1271
4981000000.0 -0.7603 0.6972
4984000000.0 0.07501 1.031
4988000000.0 0.8438 0.6116
4991000000.0 1.043 -0.2459
4994000000.0 0.473 -0.9702
4997000000.0 -0.4694 -1.004
5000000000.0 -1.063 -0.2828
5003000000.0 -0.9147 0.6436
5006000000.0 -0.1064 1.173
5009000000.0 0.8516 0.8066
5012000000.0 1.205 -0.1397
5016000000.0 0.6684 -1.04
5019000000.0 -0.3747 -1.174
5022000000.0 -1.165 -0.4679
5025000000.0 -1.116 0.619
5028000000.0 -0.218 1.233
5031000000.0 0.7956 0.9633
5034000000.0 1.275 -0.003649
5038000000.0 0.822 -1.006
5041000000.0 -0.1953 -1.252
5044000000.0 -1.116 -0.6826
5047000000.0 -1.216 0.4383
5050000000.0 -0.4087 1.224
5053000000.0 0.6607 1.115
5056000000.0 1.298 0.2189
5059000000.0 0.9761 -0.8437
5062000000.0 -0.006859 -1.317
5066000000.0 -1.006 -0.805
5069000000.0 -1.259 0.271
5072000000.0 -0.599 1.124
5075000000.0 0.4442 1.184
5078000000.0 1.212 0.3936
5081000000.0 1.069 -0.6693
5084000000.0 0.1327 -1.245
5088000000.0 -0.852 -0.8948
5091000000.0 -1.23 0.03625
5094000000.0 -0.7057 0.9247
5097000000.0 0.3237 1.131
5100000000.0 1.049 0.5133
5103000000.0 1.043 -0.4772
5106000000.0 0.3692 -1.079
5109000000.0 -0.6073 -0.9232
5112000000.0 -1.086 -0.1206
5116000000.0 -0.8083 0.7068
5119000000.0 0.06026 1.061
5122000000.0 0.824 0.5933
5125000000.0 1.014 -0.2672
5128000000.0 0.4548 -0.9358
5131000000.0 -0.4085 -0.9228
5134000000.0 -0.955 -0.2751
5138000000.0 -0.823 0.5811
5141000000.0 -0.04691 1.002
5144000000.0 0.6806 0.6677
5147000000.0 0.9454 -0.1252
5150000000.0 0.4947 -0.8132
5153000000.0 -0.3153 -0.8835
5156000000.0 -0.867 -0.3369
5159000000.0 -0.7908 0.4304
5162000000.0 -0.133 0.9257
5166000000.0 0.5831 0.7003
5169000000.0 0.902 -0.05159
5172000000.0 0.5267 -0.7048
5175000000.0 -0.2145 -0.9197
5178000000.0 -0.8385 -0.3529
5181000000.0 -0.7965 0.3994
5184000000.0 -0.19 0.9058
5188000000.0 0.5895 0.7056
5191000000.0 0.9418 -0.02083
5194000000.0 0.5762 -0.7719
5197000000.0 -0.224 -0.9252
5200000000.0 -0.846 -0.4004
5203000000.0 -0.8517 0.4395
5206000000.0 -0.1975 0.9126
5209000000.0 0.5891 0.7385
5212000000.0 0.9637 0.005117
5216000000.0 0.6025 -0.745
5219000000.0 -0.2021 -0.9801
5222000000.0 -0.8905 -0.4481
5225000000.0 -0.9362 0.3873
5228000000.0 -0.2922 0.9777
5231000000.0 0.572 0.8239
5234000000.0 1.028 0.08774
5238000000.0 0.7245 -0.7751
5241000000.0 -0.1366 -1.051
5244000000.0 -0.8914 -0.5753
5247000000.0 -1.001 0.3384
5250000000.0 -0.4129 0.9913
5253000000.0 0.5265 0.9321
5256000000.0 1.053 0.2291
5259000000.0 0.8148 -0.6732
5262000000.0 0.01769 -1.097
5266000000.0 -0.8047 -0.7096
5269000000.0 -1.059 0.1772
5272000000.0 -0.5673 0.946
5275000000.0 0.3479 1.059
5278000000.0 1.012 0.4263
5281000000.0 0.956 -0.5149
5284000000.0 0.2527 -1.096
5288000000.0 -0.6585 -0.8786
5291000000.0 -1.105 -0.06358
5294000000.0 -0.7736 0.7857
5297000000.0 0.1145 1.112
5300000000.0 0.9212 0.629
5303000000.0 1.056 -0.3128
5306000000.0 0.4897 -1.008
5309000000.0 -0.4839 -1.023
5312000000.0 -1.108 -0.2898
5316000000.0 -0.9474 0.6543
5319000000.0 -0.0869 1.13
5322000000.0 0.8034 0.8096
5325000000.0 1.152 -0.1063
5328000000.0 0.6277 -0.9589
5331000000.0 -0.2935 -1.126
5334000000.0 -1.07 -0.4622
5338000000.0 -1.01 0.4831
5341000000.0 -0.2699 1.112
5344000000.0 0.6904 0.9318
5347000000.0 1.145 0.04293
5350000000.0 0.736 -0.8229
5353000000.0 -0.1267 -1.142
5356000000.0 -0.9595 -0.5444
5359000000.0 -0.9909 0.3942
5362000000.0 -0.3689 1.046
5366000000.0 0.5379 0.9416
5369000000.0 1.078 0.1421
5372000000.0 0.7379 -0.7258
5375000000.0 -0.1038 -1.014
5378000000.0 -0.8725 -0.5458
5381000000.0 -0.959 0.3314
5384000000.0 -0.3435 0.9328
5388000000.0 0.511 0.8482
5391000000.0 0.9948 0.1493
5394000000.0 0.6898 -0.6878
5397000000.0 -0.1031 -0.9401
5400000000.0 -0.7789 -0.505
5403000000.0 -0.8559 0.3126
5406000000.0 -0.327 0.8495
5409000000.0 0.505 0.7421
5412000000.0 0.8788 0.0885
5416000000.0 0.6185 -0.6703
5419000000.0 -0.101 -0.8724
5422000000.0 -0.7259 -0.4819
5425000000.0 -0.8141 0.2946
5428000000.0 -0.2589 0.8365
5431000000.0 0.4767 0.7391
5434000000.0 0.8636 0.07756
5438000000.0 0.6147 -0.6678
5441000000.0 -0.1066 -0.8465
5444000000.0 -0.7539 -0.4632
5447000000.0 -0.8334 0.3126
5450000000.0 -0.2838 0.8755
5453000000.0 0.4413 0.7611
5456000000.0 0.88 0.06441
5459000000.0 0.6295 -0.6009
5462000000.0 -0.03659 -0.897
5466000000.0 -0.7188 -0.5227
5469000000.0 -0.8993 0.2339
5472000000.0 -0.4093 0.8445
5475000000.0 0.3899 0.8414
5478000000.0 0.9311 0.2147
5481000000.0 0.7692 -0.5842
5484000000.0 0.0836 -0.9796
5488000000.0 -0.6975 -0.6733
5491000000.0 -0.9699 0.09601
5494000000.0 -0.5413 0.8112
5497000000.0 0.27 0.9631
5500000000.0 0.8961 0.3977
5503000000.0 0.8744 -0.4513
5506000000.0 0.2501 -0.9774
5509000000.0 -0.5988 -0.8348
5512000000.0 -1.018 -0.09284
5516000000.0 -0.7369 0.7641
5519000000.0 0.1063 0.9964
5522000000.0 0.8294 0.5767
5525000000.0 0.9976 -0.3129
5528000000.0 0.4462 -0.9346
5531000000.0 -0.4154 -0.951
5534000000.0 -1.008 -0.2815
5538000000.0 -0.8297 0.5927
5541000000.0 -0.0804 1.055
5544000000.0 0.7491 0.7655
5547000000.0 1.05 -0.1102
5550000000.0 0.6363 -0.854
5553000000.0 -0.274 -1.024
5556000000.0 -0.9948 -0.4435
5559000000.0 -0.9566 0.473
5562000000.0 -0.2531 1.034
5566000000.0 0.6095 0.8491
5569000000.0 1.037 0.05952
5572000000.0 0.7083 -0.7859
5575000000.0 -0.1098 -1.011
5578000000.0 -0.8469 -0.5233
5581000000.0 -0.9457 0.2872
5584000000.0 -0.375 0.9483
5588000000.0 0.4669 0.8572
5591000000.0 0.9531 0.1709
5594000000.0 0.7157 -0.626
5597000000.0 -0.00167 -0.9598
5600000000.0 -0.7169 -0.5583
5603000000.0 -0.8916 0.1929
5606000000.0 -0.4439 0.8009
5609000000.0 0.3766 0.824
5612000000.0 0.8362 0.247
5616000000.0 0.7125 -0.5353
5619000000.0 0.04834 -0.8789
5622000000.0 -0.6436 -0.6078
5625000000.0 -0.8733 0.1129
5628000000.0 -0.4489 0.7269
5631000000.0 0.2997 0.7899
5634000000.0 0.7905 0.2682
5638000000.0 0.7238 -0.4662
5641000000.0 0.09024 -0.8449
5644000000.0 -0.558 -0.5898
5647000000.0 -0.8332 0.1097
5650000000.0 -0.4365 0.7184
5653000000.0 0.2931 0.7981
5656000000.0 0.8051 0.275
5659000000.0 0.724 -0.4511
5662000000.0 0.09772 -0.8856
5666000000.0 -0.6188 -0.5981
5669000000.0 -0.8446 0.1137
5672000000.0 -0.4834 0.7532
5675000000.0 0.2913 0.8771
5678000000.0 0.8536 0.3048
5681000000.0 0.789 -0.4946
5684000000.0 0.1264 -0.9158
5688000000.0 -0.6361 -0.6791
5691000000.0 -0.943 0.07179
5694000000.0 -0.5309 0.7976
5697000000.0 0.3138 0.9179
5700000000.0 0.9123 0.3921
5703000000.0 0.8756 -0.4846
5706000000.0 0.1843 -0.9941
5709000000.0 -0.679 -0.7654
5712000000.0 -1.024 0.02303
5716000000.0 -0.6404 0.8108
5719000000.0 0.195 1.039
5722000000.0 0.9357 0.4731
5725000000.0 0.9681 -0.3918
5728000000.0 0.3018 -1.001
5731000000.0 -0.5946 -0.8795
5734000000.0 -1.061 -0.1112
5738000000.0 -0.7592 0.7539
5741000000.0 0.1171 1.095
5744000000.0 0.9207 0.6358
5747000000.0 1.07 -0.3123
5750000000.0 0.4446 -1.002
5753000000.0 -0.4817 -0.9982
5756000000.0 -1.079 -0.2646
5759000000.0 -0.8739 0.6317
5762000000.0 -0.07156 1.078
5766000000.0 0.7823 0.7739
5769000000.0 1.103 -0.1034
5772000000.0 0.6442 -0.9246
5775000000.0 -0.2801 -1.045
5778000000.0 -1.014 -0.4191
5781000000.0 -0.9458 0.4691
5784000000.0 -0.2942 1.066
5788000000.0 0.6524 0.8813
5791000000.0 1.088 0.06965
5794000000.0 0.743 -0.8186
5797000000.0 -0.149 -1.044
5800000000.0 -0.9162 -0.5341
5803000000.0 -1.01 0.3135
5806000000.0 -0.3811 1.022
5809000000.0 0.5124 0.9595
5812000000.0 1.082 0.1861
5816000000.0 0.7921 -0.69
5819000000.0 0.01186 -1.02
5822000000.0 -0.786 -0.6389
5825000000.0 -1.004 0.1914
5828000000.0 -0.482 0.9072
5831000000.0 0.3899 0.9266
5834000000.0 0.9323 0.2585
5838000000.0 0.7698 -0.5525
5841000000.0 0.1001 -0.9931
5844000000.0 -0.7286 -0.6692
5847000000.0 -0.9642 0.1271
5850000000.0 -0.4904 0.8027
5853000000.0 0.3244 0.9153
5856000000.0 0.8988 0.3106
5859000000.0 0.8032 -0.489
5862000000.0 0.08358 -0.9218
5866000000.0 -0.6642 -0.6742
5869000000.0 -0.9102 0.1197
5872000000.0 -0.4836 0.7663
5875000000.0 0.2767 0.8459
5878000000.0 0.8356 0.2916
5881000000.0 0.7616 -0.457
5884000000.0 0.1136 -0.8701
5888000000.0 -0.6 -0.6428
5891000000.0 -0.8701 0.06684
5894000000.0 -0.4963 0.7044
5897000000.0 0.2378 0.8337
5900000000.0 0.8038 0.3206
5903000000.0 0.7627 -0.39
5906000000.0 0.1562 -0.834
5909000000.0 -0.5461 -0.6648
5912000000.0 -0.8355 -0.002548
5916000000.0 -0.5359 0.6605
5919000000.0 0.2043 0.8609
5922000000.0 0.791 0.3985
5925000000.0 0.8174 -0.354
5928000000.0 0.2427 -0.8686
5931000000.0 -0.4853 -0.7211
5934000000.0 -0.8715 -0.08291
5938000000.0 -0.6277 0.6153
5941000000.0 0.0718 0.892
5944000000.0 0.7545 0.5325
5947000000.0 0.8426 -0.2338
5950000000.0 0.3627 -0.815
5953000000.0 -0.382 -0.8323
5956000000.0 -0.8921 -0.2391
5959000000.0 -0.7734 0.548
5962000000.0 -0.09023 0.9344
5966000000.0 0.6878 0.6409
5969000000.0 0.947 -0.07118
5972000000.0 0.5573 -0.7923
5975000000.0 -0.2374 -0.93
5978000000.0 -0.881 -0.4123
5981000000.0 -0.8401 0.4121
5984000000.0 -0.2375 0.9683
5988000000.0 0.5769 0.7951
5991000000.0 0.9868 0.04355
5994000000.0 0.6898 -0.7467
5997000000.0 -0.1362 -1.013
6000000000.0 -0.8601 -0.5477
6003000000.0 -0.9353 0.3053
6006000000.0 -0.3577 0.9539
6009000000.0 0.4728 0.8882
6012000000.0 0.9773 0.184
6016000000.0 0.7448 -0.6484
6019000000.0 -0.04 -0.9635
6022000000.0 -0.8069 -0.624
6025000000.0 -0.9809 0.1863
6028000000.0 -0.4745 0.8711
6031000000.0 0.398 0.8803
6034000000.0 0.9594 0.2435
6038000000.0 0.8056 -0.5632
6041000000.0 0.06674 -0.9748
6044000000.0 -0.7187 -0.6788
6047000000.0 -0.9462 0.1341
6050000000.0 -0.5086 0.8016
6053000000.0 0.31 0.8993
6056000000.0 0.8899 0.3039
6059000000.0 0.7782 -0.4874
6062000000.0 0.1219 -0.9178
6066000000.0 -0.6501 -0.685
6069000000.0 -0.9034 0.05952
6072000000.0 -0.5196 0.7306
6075000000.0 0.2498 0.867
6078000000.0 0.8014 0.3497
6081000000.0 0.7785 -0.3979
6084000000.0 0.161 -0.8826
6088000000.0 -0.5618 -0.6656
6091000000.0 -0.8655 0.01892
6094000000.0 -0.5191 0.6726
6097000000.0 0.1857 0.8303
6100000000.0 0.7525 0.3719
6103000000.0 0.7737 -0.3832
6106000000.0 0.1913 -0.837
6109000000.0 -0.5348 -0.6719
6112000000.0 -0.8567 -0.01998
6116000000.0 -0.5657 0.6614
6119000000.0 0.1759 0.8413
6122000000.0 0.7277 0.4122
6125000000.0 0.7902 -0.3629
6128000000.0 0.2583 -0.8364
6131000000.0 -0.496 -0.7188
6134000000.0 -0.8329 -0.0637
6138000000.0 -0.5916 0.6597
6141000000.0 0.1176 0.879
6144000000.0 0.7676 0.4324
6147000000.0 0.8336 -0.2921
6150000000.0 0.2941 -0.8647
6153000000.0 -0.4439 -0.7481
6156000000.0 -0.9067 -0.1056
6159000000.0 -0.6754 0.6416
6162000000.0 0.05246 0.9227
6166000000.0 0.7262 0.55
6169000000.0 0.8932 -0.2376
6172000000.0 0.3839 -0.8664
6175000000.0 -0.4136 -0.8481
6178000000.0 -0.9368 -0.2175
6181000000.0 -0.7572 0.5676
6184000000.0 -0.03569 0.9295
6188000000.0 0.6877 0.6059
6191000000.0 0.9326 -0.1671
6194000000.0 0.4651 -0.8133
6197000000.0 -0.3338 -0.8793
6200000000.0 -0.9062 -0.3107
6203000000.0 -0.7911 0.4917
6206000000.0 -0.111 0.8864
6209000000.0 0.6206 0.6626
6212000000.0 0.9091 -0.06968
6216000000.0 0.5557 -0.7552
6219000000.0 -0.2185 -0.9045
6222000000.0 -0.8305 -0.4102
6225000000.0 -0.8306 0.3858
6228000000.0 -0.2219 0.8555
6231000000.0 0.5087 0.7703
6234000000.0 0.8945 0.03476
6238000000.0 0.6186 -0.6657
6241000000.0 -0.114 -0.8625
6244000000.0 -0.7345 -0.5015
6247000000.0 -0.828 0.2517
6250000000.0 -0.2909 0.7905
6253000000.0 0.3992 0.7535
6256000000.0 0.8169 0.2192
6259000000.0 0.6506 -0.516
6262000000.0 0.02296 -0.82
6266000000.0 -0.6015 -0.5545
6269000000.0 -0.7896 0.08892
