! Created with skrf 1.8.0 (http://scikit-rf.org).
# Hz S RI R 50.0 
!freq ReS11 ImS11
4000000000.0 -0.1881 -1.458
4003000000.0 -1.277 -0.7975
4006000000.0 -1.436 0.4412
4009000000.0 -0.5303 1.435
4012000000.0 0.7985 1.32
4016000000.0 1.54 0.2292
4019000000.0 1.15 -1.027
4022000000.0 -0.09406 -1.555
4025000000.0 -1.317 -0.9101
4028000000.0 -1.516 0.4886
4031000000.0 -0.5618 1.453
4034000000.0 0.8191 1.395
4038000000.0 1.575 0.1916
4041000000.0 1.211 -1.068
4044000000.0 -0.1607 -1.547
4047000000.0 -1.332 -0.9441
4050000000.0 -1.554 0.4012
4053000000.0 -0.6924 1.516
4056000000.0 0.7203 1.45
4059000000.0 1.563 0.3426
4062000000.0 1.268 -0.9558
4066000000.0 0.007611 -1.602
4069000000.0 -1.187 -1.068
4072000000.0 -1.565 0.2573
4075000000.0 -0.8185 1.411
4078000000.0 0.537 1.535
4081000000.0 1.532 0.5178
4084000000.0 1.434 -0.8629
4088000000.0 0.2517 -1.596
4091000000.0 -1.104 -1.197
4094000000.0 -1.611 0.05974
4097000000.0 -0.9628 1.32
4100000000.0 0.3555 1.57
4103000000.0 1.435 0.7163
4106000000.0 1.423 -0.6408
4109000000.0 0.4491 -1.493
4112000000.0 -0.8365 -1.274
4116000000.0 -1.506 -0.2153
4119000000.0 -1.137 1.001
4122000000.0 0.01379 1.482
4125000000.0 1.148 0.9243
4128000000.0 1.443 -0.1966
4131000000.0 0.7899 -1.255
4134000000.0 -0.4046 -1.421
4138000000.0 -1.352 -0.6134
4141000000.0 -1.372 0.6671
4144000000.0 -0.409 1.421
4147000000.0 0.8631 1.247
4150000000.0 1.505 0.1388
4153000000.0 1.093 -1.071
4156000000.0 -0.1035 -1.516
4159000000.0 -1.23 -0.8709
4162000000.0 -1.454 0.3595
4166000000.0 -0.6562 1.368
4169000000.0 0.5759 1.37
4172000000.0 1.45 0.4045
4175000000.0 1.254 -0.854
4178000000.0 0.1664 -1.478
4181000000.0 -1.013 -1.076
4184000000.0 -1.495 0.09573
4188000000.0 -0.9215 1.242
4191000000.0 0.3503 1.504
4194000000.0 1.394 0.6595
4197000000.0 1.45 -0.6611
4200000000.0 0.3917 -1.532
4203000000.0 -0.9675 -1.296
4206000000.0 -1.621 -0.01849
4209000000.0 -1.058 1.255
4212000000.0 0.3216 1.618
4216000000.0 1.5 0.7637
4219000000.0 1.514 -0.7469
4222000000.0 0.328 -1.643
4225000000.0 -1.137 -1.242
4228000000.0 -1.654 0.08672
4231000000.0 -0.9194 1.393
4234000000.0 0.551 1.58
4238000000.0 1.575 0.5358
4241000000.0 1.387 -0.9068
4244000000.0 0.07694 -1.625
4247000000.0 -1.213 -1.028
4250000000.0 -1.575 0.2937
4253000000.0 -0.7267 1.363
4256000000.0 0.6344 1.384
4259000000.0 1.463 0.2917
4262000000.0 1.135 -0.941
4266000000.0 -0.09176 -1.526
4269000000.0 -1.209 -0.8784
4272000000.0 -1.432 0.3865
4275000000.0 -0.5513 1.355
4278000000.0 0.7208 1.226
4281000000.0 1.424 0.1906
4284000000.0 0.9875 -0.9379
4288000000.0 -0.1483 -1.376
4291000000.0 -1.188 -0.7488
4294000000.0 -1.313 0.4183
4297000000.0 -0.4767 1.242
4300000000.0 0.6271 1.161
4303000000.0 1.261 0.2496
4306000000.0 0.9913 -0.8274
4309000000.0 0.009896 -1.245
4312000000.0 -0.9912 -0.8417
4316000000.0 -1.271 0.1948
4319000000.0 -0.7047 1.117
4322000000.0 0.4006 1.23
4325000000.0 1.226 0.5053
4328000000.0 1.177 -0.6284
4331000000.0 0.298 -1.311
4334000000.0 -0.8171 -1.102
4338000000.0 -1.343 -0.04168
4341000000.0 -0.9042 1.048
4344000000.0 0.1969 1.391
4347000000.0 1.223 0.7218
4350000000.0 1.368 -0.4611
4353000000.0 0.4989 -1.351
4356000000.0 -0.6792 -1.24
4359000000.0 -1.446 -0.2266
4362000000.0 -1.105 0.9306
4366000000.0 0.0008125 1.455
4369000000.0 1.111 0.9262
4372000000.0 1.441 -0.294
4375000000.0 0.7431 -1.297
4378000000.0 -0.5309 -1.395
4381000000.0 -1.396 -0.4501
4384000000.0 -1.246 0.8248
4388000000.0 -0.168 1.546
4391000000.0 1.085 1.11
4394000000.0 1.562 -0.145
4397000000.0 0.8634 -1.3
4400000000.0 -0.4734 -1.502
4403000000.0 -1.48 -0.5707
4406000000.0 -1.347 0.7752
4409000000.0 -0.1738 1.589
4412000000.0 1.1 1.105
4416000000.0 1.544 -0.1439
4419000000.0 0.7913 -1.323
4422000000.0 -0.5292 -1.431
4425000000.0 -1.428 -0.4606
4428000000.0 -1.211 0.8402
4431000000.0 -0.1173 1.431
4434000000.0 1.071 0.988
4438000000.0 1.418 -0.2405
4441000000.0 0.6637 -1.232
4444000000.0 -0.5381 -1.279
4447000000.0 -1.315 -0.3106
4450000000.0 -1.021 0.8201
4453000000.0 -0.01832 1.317
4456000000.0 1.036 0.7655
4459000000.0 1.265 -0.3129
4462000000.0 0.4732 -1.153
4466000000.0 -0.6392 -1.069
4469000000.0 -1.215 -0.1628
4472000000.0 -0.862 0.8508
4475000000.0 0.1656 1.188
4478000000.0 0.9974 0.6336
4481000000.0 1.083 -0.41
4484000000.0 0.3501 -1.116
4488000000.0 -0.6467 -0.9652
4491000000.0 -1.121 -0.1021
4494000000.0 -0.7616 0.8475
4497000000.0 0.1746 1.107
4500000000.0 0.965 0.5637
4503000000.0 1.031 -0.4059
4506000000.0 0.3596 -1.057
4509000000.0 -0.6008 -0.8978
4512000000.0 -1.077 -0.1153
4516000000.0 -0.7718 0.8103
4519000000.0 0.1023 1.131
4522000000.0 0.9233 0.6285
4525000000.0 1.092 -0.3402
4528000000.0 0.3992 -1.07
4531000000.0 -0.5648 -0.9856
4534000000.0 -1.131 -0.1906
4538000000.0 -0.8845 0.748
4541000000.0 -0.009782 1.143
4544000000.0 0.9033 0.7202
4547000000.0 1.153 -0.2436
4550000000.0 0.5671 -1.063
4553000000.0 -0.4605 -1.103
4556000000.0 -1.133 -0.4085
4559000000.0 -1.035 0.6647
4562000000.0 -0.1791 1.219
4566000000.0 0.8304 0.9125
4569000000.0 1.239 -0.0359
4572000000.0 0.7979 -1.002
4575000000.0 -0.2767 -1.244
4578000000.0 -1.119 -0.5906
4581000000.0 -1.191 0.4891
4584000000.0 -0.4042 1.288
4588000000.0 0.7321 1.117
4591000000.0 1.317 0.1613
4594000000.0 0.9622 -0.9653
4597000000.0 -0.1057 -1.365
4600000000.0 -1.135 -0.7955
4603000000.0 -1.331 0.381
4606000000.0 -0.5739 1.24
4609000000.0 0.6442 1.25
4612000000.0 1.377 0.3333
4616000000.0 1.077 -0.8384
4619000000.0 0.03624 -1.399
4622000000.0 -1.06 -0.8924
4625000000.0 -1.365 0.2301
4628000000.0 -0.6891 1.218
4631000000.0 0.524 1.267
4634000000.0 1.326 0.4082
4638000000.0 1.129 -0.7801
4641000000.0 0.1153 -1.352
4644000000.0 -0.978 -0.918
4647000000.0 -1.316 0.1909
4650000000.0 -0.6477 1.174
4653000000.0 0.4683 1.226
4656000000.0 1.255 0.3897
4659000000.0 1.056 -0.7435
4662000000.0 0.0929 -1.259
4666000000.0 -0.9126 -0.8488
4669000000.0 -1.198 0.1924
4672000000.0 -0.5735 1.068
4675000000.0 0.4649 1.099
4678000000.0 1.109 0.3184
4681000000.0 0.9316 -0.6567
4684000000.0 0.08232 -1.142
4688000000.0 -0.8424 -0.7605
4691000000.0 -1.09 0.1773
4694000000.0 -0.5209 0.983
4697000000.0 0.4123 1.038
4700000000.0 1.034 0.2809
4703000000.0 0.8992 -0.6033
4706000000.0 0.05209 -1.08
4709000000.0 -0.8189 -0.7359
4712000000.0 -1.045 0.1837
4716000000.0 -0.4926 0.9559
4719000000.0 0.4404 0.9475
4722000000.0 1.02 0.2801
4725000000.0 0.8458 -0.6048
4728000000.0 0.009657 -1.053
4731000000.0 -0.7721 -0.6662
4734000000.0 -1.007 0.1555
4738000000.0 -0.5293 0.8796
4741000000.0 0.3469 0.9945
4744000000.0 0.9923 0.3599
4747000000.0 0.9127 -0.5313
4750000000.0 0.1714 -1.051
4753000000.0 -0.727 -0.8053
4756000000.0 -1.061 0.03095
4759000000.0 -0.6984 0.8498
4762000000.0 0.2421 1.105
4766000000.0 1.009 0.5278
4769000000.0 1.06 -0.4181
4772000000.0 0.3288 -1.119
4775000000.0 -0.6396 -0.9737
4778000000.0 -1.145 -0.1148
4781000000.0 -0.8682 0.8122
4784000000.0 0.06115 1.204
4788000000.0 0.963 0.7153
4791000000.0 1.197 -0.2623
4794000000.0 0.5578 -1.087
4797000000.0 -0.4687 -1.16
4800000000.0 -1.193 -0.3818
4803000000.0 -1.035 0.6336
4806000000.0 -0.1879 1.236
4809000000.0 0.8102 0.9458
4812000000.0 1.264 -0.0158
4816000000.0 0.791 -1.008
4819000000.0 -0.2649 -1.305
4822000000.0 -1.193 -0.6234
4825000000.0 -1.252 0.5174
4828000000.0 -0.3782 1.3
4831000000.0 0.7617 1.131
4834000000.0 1.367 0.1496
4838000000.0 0.9973 -0.9743
4841000000.0 -0.1482 -1.382
4844000000.0 -1.167 -0.7732
4847000000.0 -1.328 0.3749
4850000000.0 -0.5492 1.275
4853000000.0 0.6295 1.213
4856000000.0 1.344 0.269
4859000000.0 1.034 -0.8626
4862000000.0 -0.03844 -1.359
4866000000.0 -1.077 -0.8475
4869000000.0 -1.296 0.2764
4872000000.0 -0.5798 1.158
4875000000.0 0.5462 1.165
4878000000.0 1.227 0.3329
4881000000.0 1.062 -0.765
4884000000.0 0.04145 -1.247
4888000000.0 -0.9085 -0.8259
4891000000.0 -1.216 0.2205
4894000000.0 -0.5849 1.045
4897000000.0 0.4784 1.098
4900000000.0 1.091 0.3229
4903000000.0 0.9257 -0.6129
4906000000.0 0.104 -1.096
4909000000.0 -0.7795 -0.7379
4912000000.0 -1.041 0.1259
4916000000.0 -0.5392 0.8456
4919000000.0 0.3256 0.9359
4922000000.0 0.9319 0.3369
4925000000.0 0.8166 -0.4757
4928000000.0 0.1525 -0.9376
4931000000.0 -0.6114 -0.7206
4934000000.0 -0.9469 0.04804
4938000000.0 -0.5762 0.7601
4941000000.0 0.1989 0.9102
4944000000.0 0.8715 0.426
4947000000.0 0.8316 -0.3956
4950000000.0 0.2105 -0.9066
4953000000.0 -0.5567 -0.7748
4956000000.0 -0.9775 -0.03984
4959000000.0 -0.6514 0.716
4962000000.0 0.1485 0.9458
4966000000.0 0.8413 0.4784
4969000000.0 0.9177 -0.3489
4972000000.0 0.3216 -0.9459
4975000000.0 -0.5262 -0.8481
4978000000.0 -1.002 -0.1196
4981000000.0 -0.7311 0.6875
4984000000.0 0.03926 1.013
4988000000.0 0.8437 0.6175
4991000000.0 1.026 -0.2716
4994000000.0 0.4707 -0.9782
4997000000.0 -0.4604 -1.015
5000000000.0 -1.076 -0.3058
5003000000.0 -0.9514 0.6582
5006000000.0 -0.07692 1.178
5009000000.0 0.8485 0.8164
5012000000.0 1.195 -0.1362
5016000000.0 0.6566 -1.012
5019000000.0 -0.3742 -1.18
5022000000.0 -1.157 -0.4481
5025000000.0 -1.09 0.6267
5028000000.0 -0.2143 1.247
5031000000.0 0.7856 0.9774
5034000000.0 1.265 0.006641
5038000000.0 0.8278 -1.01
5041000000.0 -0.2537 -1.237
5044000000.0 -1.099 -0.6332
5047000000.0 -1.204 0.4665
5050000000.0 -0.4284 1.211
5053000000.0 0.6718 1.083
5056000000.0 1.271 0.2099
5059000000.0 0.9673 -0.8543
5062000000.0 -0.01766 -1.294
5066000000.0 -1.017 -0.7763
5069000000.0 -1.231 0.2525
5072000000.0 -0.5959 1.138
5075000000.0 0.4889 1.21
5078000000.0 1.196 0.3966
5081000000.0 1.043 -0.6948
5084000000.0 0.148 -1.244
5088000000.0 -0.8192 -0.8899
5091000000.0 -1.216 0.05139
5094000000.0 -0.7165 0.9583
5097000000.0 0.2659 1.123
5100000000.0 1.033 0.4899
5103000000.0 1.053 -0.4864
5106000000.0 0.313 -1.042
5109000000.0 -0.5556 -0.919
5112000000.0 -1.11 -0.115
5116000000.0 -0.7695 0.7293
5119000000.0 0.05016 1.063
5122000000.0 0.825 0.6234
5125000000.0 1.0 -0.2596
5128000000.0 0.4331 -0.9106
5131000000.0 -0.4385 -0.9131
5134000000.0 -0.9585 -0.2833
5138000000.0 -0.7776 0.5766
5141000000.0 -0.02658 0.977
5144000000.0 0.7128 0.6793
5147000000.0 0.9368 -0.1093
5150000000.0 0.5148 -0.7865
5153000000.0 -0.2842 -0.8745
5156000000.0 -0.8859 -0.2788
5159000000.0 -0.7753 0.4742
5162000000.0 -0.1383 0.8822
5166000000.0 0.5978 0.6543
5169000000.0 0.9054 -0.03238
5172000000.0 0.5196 -0.7195
5175000000.0 -0.2467 -0.882
5178000000.0 -0.8136 -0.3754
5181000000.0 -0.82 0.4331
5184000000.0 -0.1958 0.8979
5188000000.0 0.5829 0.6965
5191000000.0 0.9287 -0.02528
5194000000.0 0.5516 -0.7622
5197000000.0 -0.2085 -0.897
5200000000.0 -0.8328 -0.3704
5203000000.0 -0.8632 0.4095
5206000000.0 -0.2109 0.931
5209000000.0 0.5714 0.7204
5212000000.0 0.9621 -0.001254
5216000000.0 0.5892 -0.7445
5219000000.0 -0.1977 -0.9573
5222000000.0 -0.8852 -0.4774
5225000000.0 -0.9137 0.3839
5228000000.0 -0.2575 0.9593
5231000000.0 0.5924 0.8418
5234000000.0 1.002 0.07944
5238000000.0 0.7106 -0.7448
5241000000.0 -0.1038 -1.042
5244000000.0 -0.8788 -0.5675
5247000000.0 -0.9994 0.3193
5250000000.0 -0.4042 0.9698
5253000000.0 0.5202 0.9235
5256000000.0 1.057 0.2169
5259000000.0 0.8337 -0.6882
5262000000.0 0.03528 -1.069
5266000000.0 -0.8181 -0.7266
5269000000.0 -1.076 0.1725
5272000000.0 -0.5539 0.945
5275000000.0 0.346 1.008
5278000000.0 1.016 0.4017
5281000000.0 0.9573 -0.4967
5284000000.0 0.2236 -1.081
5288000000.0 -0.6718 -0.849
5291000000.0 -1.099 -0.05081
5294000000.0 -0.7655 0.7835
5297000000.0 0.111 1.108
5300000000.0 0.9273 0.6263
5303000000.0 1.098 -0.2911
5306000000.0 0.4508 -1.016
5309000000.0 -0.4943 -1.028
5312000000.0 -1.127 -0.3084
5316000000.0 -0.9434 0.6475
5319000000.0 -0.1111 1.144
5322000000.0 0.8171 0.8412
5325000000.0 1.135 -0.09358
5328000000.0 0.6826 -0.9197
5331000000.0 -0.3013 -1.111
5334000000.0 -1.037 -0.4373
5338000000.0 -1.01 0.517
5341000000.0 -0.2647 1.088
5344000000.0 0.6873 0.9063
5347000000.0 1.142 0.03527
5350000000.0 0.7528 -0.841
5353000000.0 -0.159 -1.055
5356000000.0 -0.9453 -0.5736
5359000000.0 -0.9955 0.3393
5362000000.0 -0.3737 1.026
5366000000.0 0.5606 0.8993
5369000000.0 1.044 0.1583
5372000000.0 0.7691 -0.707
5375000000.0 -0.101 -1.05
5378000000.0 -0.8429 -0.5687
5381000000.0 -0.9574 0.3011
5384000000.0 -0.3355 0.931
5388000000.0 0.5236 0.8335
5391000000.0 0.9695 0.1097
5394000000.0 0.6861 -0.6837
5397000000.0 -0.1267 -0.9339
5400000000.0 -0.7828 -0.515
5403000000.0 -0.8349 0.3285
5406000000.0 -0.2918 0.8492
5409000000.0 0.4846 0.7372
5412000000.0 0.889 0.1059
5416000000.0 0.5977 -0.6247
5419000000.0 -0.1164 -0.8525
5422000000.0 -0.7325 -0.4404
5425000000.0 -0.8323 0.2937
5428000000.0 -0.2815 0.7882
5431000000.0 0.4748 0.7256
5434000000.0 0.8389 0.08979
5438000000.0 0.5835 -0.6311
5441000000.0 -0.1041 -0.8737
5444000000.0 -0.7496 -0.4398
5447000000.0 -0.8415 0.2993
5450000000.0 -0.2942 0.8528
5453000000.0 0.4852 0.7746
5456000000.0 0.921 0.08948
5459000000.0 0.636 -0.626
5462000000.0 -0.07827 -0.8779
5466000000.0 -0.7269 -0.5046
5469000000.0 -0.902 0.2533
5472000000.0 -0.3706 0.788
5475000000.0 0.3953 0.8514
5478000000.0 0.8913 0.2208
5481000000.0 0.7404 -0.5396
5484000000.0 0.08096 -0.9437
5488000000.0 -0.6856 -0.6744
5491000000.0 -0.9849 0.1207
5494000000.0 -0.5441 0.7873
5497000000.0 0.2647 0.9777
5500000000.0 0.9216 0.3557
5503000000.0 0.8869 -0.4449
5506000000.0 0.2455 -0.9784
5509000000.0 -0.6144 -0.826
5512000000.0 -1.012 -0.08632
5516000000.0 -0.7068 0.7005
5519000000.0 0.09866 1.006
5522000000.0 0.8406 0.5972
5525000000.0 0.9753 -0.2645
5528000000.0 0.4501 -0.9635
5531000000.0 -0.4313 -0.9449
5534000000.0 -0.997 -0.2885
5538000000.0 -0.8737 0.5978
5541000000.0 -0.1136 1.054
5544000000.0 0.6967 0.752
5547000000.0 1.081 -0.09893
5550000000.0 0.616 -0.8813
5553000000.0 -0.3437 -1.026
5556000000.0 -0.9742 -0.4466
5559000000.0 -0.9863 0.4963
5562000000.0 -0.2295 1.056
5566000000.0 0.628 0.8483
5569000000.0 1.014 0.0506
5572000000.0 0.6979 -0.7403
5575000000.0 -0.1308 -0.9789
5578000000.0 -0.8518 -0.5405
5581000000.0 -0.9249 0.2845
5584000000.0 -0.3571 0.9196
5588000000.0 0.494 0.8564
5591000000.0 0.9262 0.169
5594000000.0 0.7134 -0.6118
5597000000.0 -0.02028 -0.9367
5600000000.0 -0.7261 -0.5668
5603000000.0 -0.9089 0.1927
5606000000.0 -0.4088 0.8314
5609000000.0 0.3615 0.8304
5612000000.0 0.8613 0.2455
5616000000.0 0.7277 -0.5038
5619000000.0 0.02314 -0.8517
5622000000.0 -0.6102 -0.5663
5625000000.0 -0.8379 0.1285
5628000000.0 -0.4452 0.7319
5631000000.0 0.2724 0.7814
5634000000.0 0.8201 0.2438
5638000000.0 0.6947 -0.4753
5641000000.0 0.09719 -0.8129
5644000000.0 -0.6153 -0.5824
5647000000.0 -0.8399 0.1208
5650000000.0 -0.4471 0.7188
5653000000.0 0.2854 0.7705
5656000000.0 0.8091 0.2757
5659000000.0 0.6848 -0.478
5662000000.0 0.102 -0.8544
5666000000.0 -0.6328 -0.6056
5669000000.0 -0.8762 0.109
5672000000.0 -0.4693 0.7386
5675000000.0 0.31 0.8532
5678000000.0 0.8509 0.3042
5681000000.0 0.7782 -0.5008
5684000000.0 0.1264 -0.9243
5688000000.0 -0.6566 -0.6637
5691000000.0 -0.9467 0.07507
5694000000.0 -0.5479 0.782
5697000000.0 0.3035 0.9472
5700000000.0 0.938 0.3598
5703000000.0 0.8639 -0.4907
5706000000.0 0.1959 -0.977
5709000000.0 -0.6492 -0.7782
5712000000.0 -0.9982 0.02738
5716000000.0 -0.6265 0.8176
5719000000.0 0.2093 0.9806
5722000000.0 0.9364 0.484
5725000000.0 0.966 -0.4093
5728000000.0 0.2858 -1.024
5731000000.0 -0.5675 -0.8813
5734000000.0 -1.064 -0.1221
5738000000.0 -0.7582 0.7557
5741000000.0 0.07948 1.075
5744000000.0 0.8949 0.6275
5747000000.0 1.069 -0.2927
5750000000.0 0.4606 -0.9685
5753000000.0 -0.4533 -0.9685
5756000000.0 -1.066 -0.3161
5759000000.0 -0.8879 0.6462
5762000000.0 -0.05041 1.118
5766000000.0 0.8187 0.7903
5769000000.0 1.102 -0.1364
5772000000.0 0.6183 -0.9168
5775000000.0 -0.299 -1.06
5778000000.0 -1.054 -0.4204
5781000000.0 -0.9876 0.4663
5784000000.0 -0.2573 1.05
5788000000.0 0.6756 0.886
5791000000.0 1.031 0.03932
5794000000.0 0.7426 -0.7887
5797000000.0 -0.1649 -1.028
5800000000.0 -0.9103 -0.6106
5803000000.0 -1.031 0.3112
5806000000.0 -0.3721 0.9985
5809000000.0 0.5149 0.9236
5812000000.0 1.037 0.1903
5816000000.0 0.783 -0.6531
5819000000.0 -0.004004 -1.029
5822000000.0 -0.7967 -0.6215
5825000000.0 -0.9929 0.2189
5828000000.0 -0.4137 0.8679
5831000000.0 0.4087 0.9045
5834000000.0 0.9457 0.2626
5838000000.0 0.7738 -0.584
5841000000.0 0.05998 -0.9533
5844000000.0 -0.6724 -0.6954
5847000000.0 -0.9383 0.1451
5850000000.0 -0.494 0.8154
5853000000.0 0.313 0.8856
5856000000.0 0.8575 0.3175
5859000000.0 0.7608 -0.5026
5862000000.0 0.1145 -0.9194
5866000000.0 -0.6286 -0.6703
5869000000.0 -0.9143 0.1047
5872000000.0 -0.4937 0.7656
5875000000.0 0.2691 0.8522
5878000000.0 0.8156 0.3051
5881000000.0 0.7417 -0.452
5884000000.0 0.1059 -0.8503
5888000000.0 -0.5709 -0.6055
5891000000.0 -0.8547 0.03993
5894000000.0 -0.4731 0.7295
5897000000.0 0.218 0.837
5900000000.0 0.8003 0.3343
5903000000.0 0.7626 -0.416
5906000000.0 0.1492 -0.8471
5909000000.0 -0.5618 -0.652
5912000000.0 -0.8626 0.01547
5916000000.0 -0.507 0.658
5919000000.0 0.1731 0.8602
5922000000.0 0.7476 0.403
5925000000.0 0.8037 -0.3504
5928000000.0 0.2631 -0.8564
5931000000.0 -0.5031 -0.7112
5934000000.0 -0.8472 -0.1208
5938000000.0 -0.642 0.5911
5941000000.0 0.09477 0.908
5944000000.0 0.7413 0.496
5947000000.0 0.8725 -0.2349
5950000000.0 0.3617 -0.8252
5953000000.0 -0.3983 -0.8281
5956000000.0 -0.8692 -0.2088
5959000000.0 -0.7277 0.5313
5962000000.0 -0.08443 0.9449
5966000000.0 0.6873 0.6557
5969000000.0 0.9511 -0.0899
5972000000.0 0.5472 -0.7716
5975000000.0 -0.2571 -0.9132
5978000000.0 -0.8765 -0.3938
5981000000.0 -0.8879 0.4345
5984000000.0 -0.2144 0.9268
5988000000.0 0.563 0.7894
5991000000.0 0.985 0.03031
5994000000.0 0.6952 -0.7215
5997000000.0 -0.1162 -0.984
6000000000.0 -0.8873 -0.5372
6003000000.0 -0.9154 0.3013
6006000000.0 -0.3742 0.9096
6009000000.0 0.49 0.8784
6012000000.0 1.0 0.1982
6016000000.0 0.7611 -0.6252
6019000000.0 -0.004026 -0.9879
6022000000.0 -0.7624 -0.655
6025000000.0 -0.9469 0.2204
6028000000.0 -0.4305 0.8708
6031000000.0 0.3997 0.8959
6034000000.0 0.9213 0.2967
6038000000.0 0.7864 -0.5674
6041000000.0 0.06575 -0.9961
6044000000.0 -0.688 -0.6577
6047000000.0 -0.9704 0.1431
6050000000.0 -0.4744 0.7976
6053000000.0 0.3223 0.8996
6056000000.0 0.8787 0.2945
6059000000.0 0.8034 -0.4559
6062000000.0 0.1228 -0.9052
6066000000.0 -0.6173 -0.678
6069000000.0 -0.9016 0.04875
6072000000.0 -0.5142 0.7225
6075000000.0 0.2618 0.8572
6078000000.0 0.8131 0.3618
6081000000.0 0.7827 -0.4204
6084000000.0 0.1634 -0.8587
6088000000.0 -0.5707 -0.6559
6091000000.0 -0.8486 0.02035
6094000000.0 -0.5256 0.6713
6097000000.0 0.2114 0.8158
6100000000.0 0.7776 0.3795
6103000000.0 0.7496 -0.3619
6106000000.0 0.1787 -0.8553
6109000000.0 -0.5116 -0.67
6112000000.0 -0.8116 -0.03535
6116000000.0 -0.5602 0.6534
6119000000.0 0.1159 0.8422
6122000000.0 0.7503 0.399
6125000000.0 0.7903 -0.343
6128000000.0 0.2226 -0.8226
6131000000.0 -0.5139 -0.705
6134000000.0 -0.8747 -0.08469
6138000000.0 -0.5535 0.632
6141000000.0 0.1024 0.8382
6144000000.0 0.7413 0.4144
6147000000.0 0.8045 -0.2914
6150000000.0 0.3277 -0.8617
6153000000.0 -0.4407 -0.7662
6156000000.0 -0.8861 -0.1023
6159000000.0 -0.6739 0.6272
6162000000.0 0.04207 0.8989
6166000000.0 0.7053 0.5312
6169000000.0 0.9307 -0.2354
6172000000.0 0.3802 -0.8446
6175000000.0 -0.4161 -0.8138
6178000000.0 -0.9219 -0.2154
6181000000.0 -0.7532 0.5651
6184000000.0 -0.0392 0.9421
6188000000.0 0.7241 0.6118
6191000000.0 0.9008 -0.175
6194000000.0 0.4688 -0.8276
6197000000.0 -0.3583 -0.8911
6200000000.0 -0.8853 -0.3215
6203000000.0 -0.8226 0.4748
6206000000.0 -0.1143 0.9283
6209000000.0 0.5971 0.682
6212000000.0 0.9051 -0.05491
6216000000.0 0.538 -0.7402
6219000000.0 -0.2101 -0.8377
6222000000.0 -0.826 -0.4034
6225000000.0 -0.8429 0.3936
6228000000.0 -0.2108 0.863
6231000000.0 0.5092 0.7415
6234000000.0 0.9022 0.04611
6238000000.0 0.6159 -0.6749
6241000000.0 -0.09461 -0.8784
6244000000.0 -0.7137 -0.4694
6247000000.0 -0.8313 0.2526
6250000000.0 -0.3253 0.7982
6253000000.0 0.3881 0.7252
6256000000.0 0.8085 0.1769
6259000000.0 0.6393 -0.55
6262000000.0 0.04331 -0.814
6266000000.0 -0.58 -0.5606
