! Created with skrf 1.8.0 (http://scikit-rf.org).
# Hz S RI R 50.0 
!freq ReS11 ImS11
4000000000.0 -1.644 0.06681
4003000000.0 -0.994 1.319
4006000000.0 0.4695 1.601
4009000000.0 1.589 0.6332
4012000000.0 1.421 -0.8781
4016000000.0 0.1966 -1.744
4019000000.0 -1.244 -1.209
4022000000.0 -1.736 0.2451
4025000000.0 -0.8094 1.522
4028000000.0 0.7308 1.567
4031000000.0 1.708 0.363
4034000000.0 1.298 -1.134
4038000000.0 -0.1178 -1.703
4041000000.0 -1.393 -0.9655
4044000000.0 -1.603 0.54
4047000000.0 -0.5414 1.549
4050000000.0 0.8683 1.319
4053000000.0 1.592 0.1079
4056000000.0 1.029 -1.144
4059000000.0 -0.2688 -1.459
4062000000.0 -1.281 -0.6789
4066000000.0 -1.305 0.6046
4069000000.0 -0.3557 1.382
4072000000.0 0.8675 1.096
4075000000.0 1.386 -0.02819
4078000000.0 0.8856 -1.148
4081000000.0 -0.403 -1.282
4084000000.0 -1.254 -0.5049
4088000000.0 -1.111 0.7349
4091000000.0 -0.1024 1.323
4094000000.0 1.015 0.8554
4097000000.0 1.291 -0.2983
4100000000.0 0.4965 -1.227
4103000000.0 -0.7482 -1.104
4106000000.0 -1.296 -0.04369
4109000000.0 -0.7835 1.004
4112000000.0 0.3841 1.24
4116000000.0 1.232 0.403
4119000000.0 1.042 -0.8118
4122000000.0 -0.05855 -1.325
4125000000.0 -1.108 -0.7224
4128000000.0 -1.242 0.5125
4131000000.0 -0.3003 1.331
4134000000.0 0.8863 1.064
4138000000.0 1.424 -0.1327
4141000000.0 0.68 -1.233
4144000000.0 -0.5998 -1.324
4147000000.0 -1.47 -0.2721
4150000000.0 -1.09 1.059
4153000000.0 0.2012 1.496
4156000000.0 1.308 0.7632
4159000000.0 1.403 -0.6016
4162000000.0 0.3269 -1.464
4166000000.0 -0.9512 -1.186
4169000000.0 -1.493 0.02467
4172000000.0 -0.8958 1.168
4175000000.0 0.382 1.402
4178000000.0 1.351 0.5761
4181000000.0 1.299 -0.656
4184000000.0 0.3296 -1.42
4188000000.0 -0.901 -1.137
4191000000.0 -1.467 -0.0194
4194000000.0 -0.963 1.117
4197000000.0 0.2636 1.443
4200000000.0 1.292 0.7338
4203000000.0 1.359 -0.5505
4206000000.0 0.4773 -1.438
4209000000.0 -0.7972 -1.32
4212000000.0 -1.565 -0.2088
4216000000.0 -1.12 1.045
4219000000.0 0.1256 1.542
4222000000.0 1.288 0.9283
4225000000.0 1.512 -0.4575
4228000000.0 0.659 -1.462
4231000000.0 -0.7186 -1.439
4234000000.0 -1.58 -0.3304
4238000000.0 -1.253 0.9863
4241000000.0 -0.004614 1.615
4244000000.0 1.237 1.041
4247000000.0 1.618 -0.305
4250000000.0 0.8111 -1.43
4253000000.0 -0.6166 -1.531
4256000000.0 -1.602 -0.4819
4259000000.0 -1.34 0.9951
4262000000.0 -0.1087 1.729
4266000000.0 1.311 1.174
4269000000.0 1.726 -0.3372
4272000000.0 0.807 -1.571
4275000000.0 -0.7834 -1.59
4278000000.0 -1.75 -0.3713
4281000000.0 -1.336 1.215
4284000000.0 0.1456 1.781
4288000000.0 1.496 0.9603
4291000000.0 1.616 -0.6143
4294000000.0 0.4965 -1.638
4297000000.0 -1.027 -1.391
4300000000.0 -1.667 -0.05936
4303000000.0 -1.039 1.274
4306000000.0 0.3797 1.532
4309000000.0 1.407 0.6449
4312000000.0 1.351 -0.7256
4316000000.0 0.2486 -1.486
4319000000.0 -1.007 -1.119
4322000000.0 -1.494 0.08655
4325000000.0 -0.8356 1.229
4328000000.0 0.4094 1.379
4331000000.0 1.388 0.5421
4334000000.0 1.232 -0.7467
4338000000.0 0.1529 -1.415
4341000000.0 -1.04 -1.021
4344000000.0 -1.383 0.1513
4347000000.0 -0.7467 1.198
4350000000.0 0.429 1.328
4353000000.0 1.339 0.4745
4356000000.0 1.185 -0.7326
4359000000.0 0.199 -1.366
4362000000.0 -0.9488 -1.003
4366000000.0 -1.324 0.09741
4369000000.0 -0.772 1.101
4372000000.0 0.3554 1.34
4375000000.0 1.191 0.5988
4378000000.0 1.23 -0.6137
4381000000.0 0.3295 -1.32
4384000000.0 -0.7876 -1.125
4388000000.0 -1.377 -0.1232
4391000000.0 -0.9966 0.9984
4394000000.0 0.1506 1.397
4397000000.0 1.223 0.7936
4400000000.0 1.391 -0.4475
4403000000.0 0.5949 -1.381
4406000000.0 -0.6757 -1.332
4409000000.0 -1.456 -0.3199
4412000000.0 -1.162 0.9313
4416000000.0 -0.04752 1.497
4419000000.0 1.141 0.9762
4422000000.0 1.498 -0.2564
4425000000.0 0.7347 -1.3
4428000000.0 -0.5105 -1.448
4431000000.0 -1.451 -0.5231
4434000000.0 -1.335 0.7621
4438000000.0 -0.2406 1.56
4441000000.0 1.05 1.19
4444000000.0 1.586 -0.04289
4447000000.0 0.986 -1.25
4450000000.0 -0.3672 -1.525
4453000000.0 -1.453 -0.6573
4456000000.0 -1.477 0.7258
4459000000.0 -0.3522 1.638
4462000000.0 1.01 1.294
4466000000.0 1.646 -0.02698
4469000000.0 1.044 -1.317
4472000000.0 -0.3647 -1.565
4475000000.0 -1.456 -0.6599
4478000000.0 -1.416 0.7221
4481000000.0 -0.2988 1.576
4484000000.0 1.04 1.152
4488000000.0 1.513 -0.114
4491000000.0 0.8544 -1.23
4494000000.0 -0.4425 -1.414
4497000000.0 -1.354 -0.5105
4500000000.0 -1.221 0.727
4503000000.0 -0.1654 1.333
4506000000.0 0.9194 0.9418
4509000000.0 1.289 -0.1509
4512000000.0 0.6772 -1.104
4516000000.0 -0.4488 -1.177
4519000000.0 -1.187 -0.3455
4522000000.0 -0.9935 0.7169
4525000000.0 -0.04523 1.207
4528000000.0 0.9022 0.7398
4531000000.0 1.125 -0.2466
4534000000.0 0.4499 -1.011
4538000000.0 -0.5099 -1.003
4541000000.0 -1.111 -0.1991
4544000000.0 -0.8151 0.7162
4547000000.0 0.0354 1.069
4550000000.0 0.8905 0.6188
4553000000.0 1.019 -0.2901
4556000000.0 0.3947 -0.9935
4559000000.0 -0.5157 -0.9424
4562000000.0 -1.048 -0.1766
4566000000.0 -0.7808 0.7093
4569000000.0 0.068 1.067
4572000000.0 0.8804 0.636
4575000000.0 1.063 -0.2756
4578000000.0 0.4274 -1.04
4581000000.0 -0.4986 -0.9686
4584000000.0 -1.07 -0.2138
4588000000.0 -0.8513 0.723
4591000000.0 0.03939 1.117
4594000000.0 0.8965 0.7091
4597000000.0 1.157 -0.2366
4600000000.0 0.53 -1.029
4603000000.0 -0.5035 -1.077
4606000000.0 -1.153 -0.2988
4609000000.0 -0.9973 0.698
4612000000.0 -0.08969 1.234
4616000000.0 0.8987 0.848
4619000000.0 1.227 -0.1357
4622000000.0 0.6916 -1.093
4625000000.0 -0.4001 -1.223
4628000000.0 -1.174 -0.4685
4631000000.0 -1.121 0.652
4634000000.0 -0.2201 1.286
4638000000.0 0.8365 0.9898
4641000000.0 1.325 -0.009073
4644000000.0 0.836 -1.076
4647000000.0 -0.312 -1.314
4650000000.0 -1.218 -0.6095
4653000000.0 -1.257 0.5849
4656000000.0 -0.3455 1.319
4659000000.0 0.8266 1.12
4662000000.0 1.378 0.06139
4666000000.0 0.8982 -1.045
4669000000.0 -0.2647 -1.305
4672000000.0 -1.215 -0.6732
4675000000.0 -1.223 0.542
4678000000.0 -0.3568 1.311
4681000000.0 0.7896 1.093
4684000000.0 1.344 0.09958
4688000000.0 0.9018 -0.9916
4691000000.0 -0.2367 -1.281
4694000000.0 -1.155 -0.6432
4697000000.0 -1.19 0.5059
4700000000.0 -0.31 1.256
4703000000.0 0.7765 1.003
4706000000.0 1.263 -0.01903
4709000000.0 0.7768 -0.9873
4712000000.0 -0.3126 -1.199
4716000000.0 -1.11 -0.4901
4719000000.0 -1.019 0.5824
4722000000.0 -0.149 1.134
4725000000.0 0.7854 0.814
4728000000.0 1.088 -0.1448
4731000000.0 0.5497 -0.9286
4734000000.0 -0.3707 -0.9981
4738000000.0 -0.9838 -0.3043
4741000000.0 -0.8473 0.57
4744000000.0 -0.06859 1.02
4747000000.0 0.729 0.6567
4750000000.0 0.9516 -0.1787
4753000000.0 0.475 -0.9037
4756000000.0 -0.4062 -0.9
4759000000.0 -0.9557 -0.2061
4762000000.0 -0.7949 0.594
4766000000.0 -0.02205 0.9845
4769000000.0 0.7568 0.5763
4772000000.0 0.9483 -0.2015
4775000000.0 0.4237 -0.8785
4778000000.0 -0.4212 -0.9198
4781000000.0 -0.9677 -0.2182
4784000000.0 -0.8092 0.6195
4788000000.0 -0.03073 1.011
4791000000.0 0.7418 0.6591
4794000000.0 1.007 -0.1801
4797000000.0 0.4937 -0.9079
4800000000.0 -0.3666 -0.9677
4803000000.0 -0.9696 -0.3429
4806000000.0 -0.8861 0.5279
4809000000.0 -0.1615 1.054
4812000000.0 0.7228 0.8186
4816000000.0 1.104 7.132e-05
4819000000.0 0.6823 -0.8522
4822000000.0 -0.237 -1.121
4825000000.0 -1.043 -0.5233
4828000000.0 -1.083 0.47
4831000000.0 -0.3304 1.144
4834000000.0 0.6956 1.011
4838000000.0 1.214 0.122
4841000000.0 0.8762 -0.9001
4844000000.0 -0.1274 -1.248
4847000000.0 -1.086 -0.6963
4850000000.0 -1.24 0.3424
4853000000.0 -0.4931 1.217
4856000000.0 0.6506 1.124
4859000000.0 1.317 0.2551
4862000000.0 1.039 -0.8619
4866000000.0 -0.0161 -1.343
4869000000.0 -1.076 -0.8433
4872000000.0 -1.34 0.2954
4875000000.0 -0.6346 1.246
4878000000.0 0.5876 1.247
4881000000.0 1.349 0.3384
4884000000.0 1.141 -0.8157
4888000000.0 0.04845 -1.38
4891000000.0 -1.036 -0.8822
4894000000.0 -1.322 0.2471
4897000000.0 -0.6282 1.192
4900000000.0 0.538 1.186
4903000000.0 1.233 0.3097
4906000000.0 0.9946 -0.7649
4909000000.0 0.03224 -1.218
4912000000.0 -0.9295 -0.7761
4916000000.0 -1.156 0.2121
4919000000.0 -0.5564 0.9938
4922000000.0 0.459 1.067
4925000000.0 1.065 0.3181
4928000000.0 0.8726 -0.6313
4931000000.0 0.08355 -1.041
4934000000.0 -0.7452 -0.7309
4938000000.0 -1.008 0.1329
4941000000.0 -0.5385 0.8684
4944000000.0 0.3135 0.9482
4947000000.0 0.8977 0.3342
4950000000.0 0.8372 -0.4941
4953000000.0 0.1086 -0.9411
4956000000.0 -0.6493 -0.7132
4959000000.0 -0.9367 0.09971
4962000000.0 -0.5436 0.8032
4966000000.0 0.2791 0.9076
4969000000.0 0.8821 0.3405
4972000000.0 0.8014 -0.4799
4975000000.0 0.1428 -0.92
4978000000.0 -0.6415 -0.6885
4981000000.0 -0.9293 0.07084
4984000000.0 -0.5444 0.7564
4988000000.0 0.2315 0.9004
4991000000.0 0.8524 0.3954
4994000000.0 0.8697 -0.4332
4997000000.0 0.2227 -0.9769
5000000000.0 -0.5992 -0.7734
5003000000.0 -1.02 -0.04823
5006000000.0 -0.6749 0.7967
5009000000.0 0.1511 1.019
5012000000.0 0.9182 0.5131
5016000000.0 1.005 -0.3943
5019000000.0 0.3177 -1.05
5022000000.0 -0.6267 -0.9257
5025000000.0 -1.13 -0.1394
5028000000.0 -0.8086 0.8058
5031000000.0 0.114 1.158
5034000000.0 0.9574 0.6546
5038000000.0 1.14 -0.3488
5041000000.0 0.4612 -1.126
5044000000.0 -0.5592 -1.094
5047000000.0 -1.184 -0.2208
5050000000.0 -0.9744 0.7615
5053000000.0 -0.01873 1.269
5056000000.0 0.9568 0.8419
5059000000.0 1.26 -0.199
5062000000.0 0.6666 -1.14
5066000000.0 -0.449 -1.201
5069000000.0 -1.258 -0.4343
5072000000.0 -1.123 0.6595
5075000000.0 -0.1924 1.331
5078000000.0 0.896 0.9478
5081000000.0 1.281 -0.06431
5084000000.0 0.7881 -1.064
5088000000.0 -0.3045 -1.227
5091000000.0 -1.105 -0.5521
5094000000.0 -1.144 0.5575
5097000000.0 -0.3205 1.217
5100000000.0 0.7138 1.001
5103000000.0 1.234 0.1321
5106000000.0 0.8394 -0.8139
5109000000.0 -0.05788 -1.191
5112000000.0 -0.9318 -0.6831
5116000000.0 -1.13 0.2526
5119000000.0 -0.4983 1.03
5122000000.0 0.4494 1.022
5125000000.0 1.058 0.3011
5128000000.0 0.9279 -0.6331
5131000000.0 0.09722 -1.117
5134000000.0 -0.7774 -0.7641
5138000000.0 -1.063 0.1035
5141000000.0 -0.5671 0.8645
5144000000.0 0.2762 1.01
5147000000.0 0.9104 0.4127
5150000000.0 0.9131 -0.4518
5153000000.0 0.1902 -0.9649
5156000000.0 -0.5581 -0.8177
5159000000.0 -0.9769 -0.04079
5162000000.0 -0.6433 0.6989
5166000000.0 0.1537 0.9626
5169000000.0 0.8424 0.5065
5172000000.0 0.8947 -0.3021
5175000000.0 0.3411 -0.8713
5178000000.0 -0.4957 -0.8274
5181000000.0 -0.9285 -0.1194
5184000000.0 -0.6586 0.6526
5188000000.0 0.0703 0.9198
5191000000.0 0.7668 0.5132
5194000000.0 0.8862 -0.2364
5197000000.0 0.333 -0.8872
5200000000.0 -0.461 -0.8232
5203000000.0 -0.9291 -0.1194
5206000000.0 -0.6922 0.6227
5209000000.0 0.07339 0.9518
5212000000.0 0.8142 0.5203
5216000000.0 0.9233 -0.3098
5219000000.0 0.3599 -0.8976
5222000000.0 -0.4639 -0.8147
5225000000.0 -0.9372 -0.1057
5228000000.0 -0.7168 0.6695
5231000000.0 0.09144 0.9721
5234000000.0 0.8244 0.5693
5238000000.0 0.9443 -0.2793
5241000000.0 0.3676 -0.9432
5244000000.0 -0.4807 -0.9122
5247000000.0 -1.033 -0.1914
5250000000.0 -0.7802 0.6945
5253000000.0 0.00748 1.032
5256000000.0 0.8314 0.6625
5259000000.0 1.021 -0.224
5262000000.0 0.4996 -0.9461
5266000000.0 -0.4216 -0.9647
5269000000.0 -1.012 -0.3017
5272000000.0 -0.8945 0.5948
5275000000.0 -0.1427 1.049
5278000000.0 0.723 0.7754
5281000000.0 1.064 -0.08652
5284000000.0 0.6423 -0.8644
5288000000.0 -0.2583 -1.065
5291000000.0 -0.9497 -0.4862
5294000000.0 -1.034 0.4347
5297000000.0 -0.3095 1.031
5300000000.0 0.6107 0.9467
5303000000.0 1.083 0.1758
5306000000.0 0.856 -0.7573
5309000000.0 0.0008131 -1.111
5312000000.0 -0.9047 -0.696
5316000000.0 -1.111 0.2303
5319000000.0 -0.5615 0.9829
5322000000.0 0.419 1.082
5325000000.0 1.102 0.3744
5328000000.0 1.003 -0.5702
5331000000.0 0.1944 -1.155
5334000000.0 -0.7652 -0.8723
5338000000.0 -1.153 -0.01236
5341000000.0 -0.7596 0.9052
5344000000.0 0.2105 1.102
5347000000.0 1.023 0.575
5350000000.0 1.086 -0.3985
5353000000.0 0.3723 -1.079
5356000000.0 -0.6 -0.9808
5359000000.0 -1.121 -0.1599
5362000000.0 -0.8542 0.7507
5366000000.0 0.02079 1.114
5369000000.0 0.897 0.7005
5372000000.0 1.09 -0.2773
5375000000.0 0.4711 -0.9733
5378000000.0 -0.4921 -1.011
5381000000.0 -1.073 -0.2705
5384000000.0 -0.8769 0.6995
5388000000.0 -0.01105 1.051
5391000000.0 0.8281 0.6642
5394000000.0 1.028 -0.1859
5397000000.0 0.4694 -0.903
5400000000.0 -0.3942 -0.9157
5403000000.0 -0.9732 -0.2537
5406000000.0 -0.7701 0.5784
5409000000.0 -0.03271 0.9613
5412000000.0 0.7335 0.6292
5416000000.0 0.9096 -0.1859
5419000000.0 0.4151 -0.8417
5422000000.0 -0.3842 -0.8242
5425000000.0 -0.862 -0.2304
5428000000.0 -0.6861 0.5599
5431000000.0 -0.02449 0.9192
5434000000.0 0.707 0.5611
5438000000.0 0.8834 -0.2276
5441000000.0 0.3873 -0.782
5444000000.0 -0.4094 -0.8222
5447000000.0 -0.8784 -0.1696
5450000000.0 -0.6678 0.5459
5453000000.0 -0.001585 0.8868
5456000000.0 0.67 0.4909
5459000000.0 0.8483 -0.1962
5462000000.0 0.358 -0.7887
5466000000.0 -0.3546 -0.7818
5469000000.0 -0.8445 -0.203
5472000000.0 -0.7019 0.5233
5475000000.0 -0.03819 0.8775
5478000000.0 0.6382 0.5813
5481000000.0 0.9044 -0.1349
5484000000.0 0.4513 -0.7623
5488000000.0 -0.3156 -0.876
5491000000.0 -0.8686 -0.3465
5494000000.0 -0.7958 0.4877
5497000000.0 -0.1153 0.9447
5500000000.0 0.6355 0.7067
5503000000.0 0.9576 -0.04191
5506000000.0 0.5776 -0.7973
5509000000.0 -0.1756 -0.9021
5512000000.0 -0.8535 -0.4648
5516000000.0 -0.9157 0.3695
5519000000.0 -0.3487 0.9452
5522000000.0 0.481 0.8236
5525000000.0 0.9875 0.1484
5528000000.0 0.7639 -0.6504
5531000000.0 -0.04178 -1.026
5534000000.0 -0.8161 -0.6441
5538000000.0 -0.9814 0.1908
5541000000.0 -0.4831 0.9079
5544000000.0 0.3624 1.007
5547000000.0 1.002 0.3376
5550000000.0 0.9079 -0.5331
5553000000.0 0.1671 -1.035
5556000000.0 -0.7344 -0.8243
5559000000.0 -1.064 0.03256
5562000000.0 -0.6947 0.8218
5566000000.0 0.2181 1.041
5569000000.0 0.938 0.5105
5572000000.0 0.9967 -0.4025
5575000000.0 0.3357 -1.024
5578000000.0 -0.5506 -0.8823
5581000000.0 -1.045 -0.1438
5584000000.0 -0.7686 0.6867
5588000000.0 0.02071 1.029
5591000000.0 0.8308 0.6115
5594000000.0 1.008 -0.2358
5597000000.0 0.476 -0.8654
5600000000.0 -0.4065 -0.8969
5603000000.0 -0.919 -0.259
5606000000.0 -0.7919 0.5643
5609000000.0 -0.1057 0.9711
5612000000.0 0.6995 0.6714
5616000000.0 0.9425 -0.1222
5619000000.0 0.504 -0.7906
5622000000.0 -0.282 -0.9147
5625000000.0 -0.8357 -0.3346
5628000000.0 -0.8079 0.4333
5631000000.0 -0.1272 0.8768
5634000000.0 0.6112 0.6604
5638000000.0 0.9025 -0.0428
5641000000.0 0.5255 -0.7339
5644000000.0 -0.2385 -0.8498
5647000000.0 -0.8078 -0.3544
5650000000.0 -0.7673 0.4043
5653000000.0 -0.1619 0.8467
5656000000.0 0.5545 0.6484
5659000000.0 0.8864 -0.04095
5662000000.0 0.491 -0.6741
5666000000.0 -0.2095 -0.874
5669000000.0 -0.8003 -0.3126
5672000000.0 -0.7861 0.4173
5675000000.0 -0.152 0.8705
5678000000.0 0.5742 0.6956
5681000000.0 0.8773 -0.02175
5684000000.0 0.5115 -0.7198
5688000000.0 -0.233 -0.8673
5691000000.0 -0.8458 -0.3333
5694000000.0 -0.7917 0.4415
5697000000.0 -0.1497 0.9243
5700000000.0 0.6589 0.7224
5703000000.0 0.9361 -0.01531
5706000000.0 0.5796 -0.7632
5709000000.0 -0.2416 -0.9499
5712000000.0 -0.8977 -0.3895
5716000000.0 -0.8996 0.4513
5719000000.0 -0.2535 0.9685
5722000000.0 0.63 0.7887
5725000000.0 1.015 0.02552
5728000000.0 0.6526 -0.7649
5731000000.0 -0.1965 -1.017
5734000000.0 -0.9074 -0.4727
5738000000.0 -1.025 0.3895
5741000000.0 -0.3647 1.028
5744000000.0 0.5991 0.8971
5747000000.0 1.047 0.1564
5750000000.0 0.7895 -0.7379
5753000000.0 -0.07712 -1.069
5756000000.0 -0.8671 -0.6491
5759000000.0 -1.041 0.2582
5762000000.0 -0.4695 0.9866
5766000000.0 0.4262 0.9929
5769000000.0 1.043 0.3079
5772000000.0 0.901 -0.632
5775000000.0 0.09354 -1.097
5778000000.0 -0.7376 -0.779
5781000000.0 -1.07 0.07327
5784000000.0 -0.6253 0.9043
5788000000.0 0.3015 1.086
5791000000.0 0.9898 0.459
5794000000.0 0.9859 -0.4624
5797000000.0 0.2738 -1.047
5800000000.0 -0.649 -0.8464
5803000000.0 -1.083 -0.1065
5806000000.0 -0.7555 0.7601
5809000000.0 0.09147 1.072
5812000000.0 0.8528 0.6306
5816000000.0 1.02 -0.3057
5819000000.0 0.3781 -0.9544
5822000000.0 -0.4795 -0.9262
5825000000.0 -1.031 -0.2517
5828000000.0 -0.8391 0.6562
5831000000.0 -0.02223 1.0
5834000000.0 0.7665 0.6702
5838000000.0 1.024 -0.1704
5841000000.0 0.507 -0.8674
5844000000.0 -0.3524 -0.9493
5847000000.0 -0.9716 -0.2983
5850000000.0 -0.8391 0.5026
5853000000.0 -0.1144 0.9599
5856000000.0 0.6948 0.7016
5859000000.0 1.0 -0.09061
5862000000.0 0.5361 -0.833
5866000000.0 -0.2924 -0.933
5869000000.0 -0.8553 -0.3131
5872000000.0 -0.8119 0.4377
5875000000.0 -0.1084 0.9176
5878000000.0 0.6401 0.6396
5881000000.0 0.9316 -0.03565
5884000000.0 0.5311 -0.7439
5888000000.0 -0.2776 -0.8427
5891000000.0 -0.8312 -0.3326
5894000000.0 -0.7581 0.4386
5897000000.0 -0.1338 0.853
5900000000.0 0.5651 0.6545
5903000000.0 0.8851 -0.02967
5906000000.0 0.4887 -0.7095
5909000000.0 -0.2076 -0.8368
5912000000.0 -0.7732 -0.349
5916000000.0 -0.7778 0.3985
5919000000.0 -0.1926 0.8571
5922000000.0 0.5456 0.6545
5925000000.0 0.8707 0.00223
5928000000.0 0.5784 -0.6597
5931000000.0 -0.1545 -0.8664
5934000000.0 -0.7348 -0.41
5938000000.0 -0.7698 0.3304
5941000000.0 -0.2785 0.8399
5944000000.0 0.4636 0.7363
5947000000.0 0.8144 0.1152
5950000000.0 0.6355 -0.6172
5953000000.0 -0.006899 -0.8694
5956000000.0 -0.6979 -0.5242
5959000000.0 -0.8609 0.1789
5962000000.0 -0.4088 0.8475
5966000000.0 0.3262 0.8544
5969000000.0 0.8605 0.2727
5972000000.0 0.7433 -0.5331
5975000000.0 0.1264 -0.9369
5978000000.0 -0.6477 -0.6842
5981000000.0 -0.9221 0.04068
5984000000.0 -0.5543 0.7638
5988000000.0 0.2367 0.9438
5991000000.0 0.8651 0.4479
5994000000.0 0.9054 -0.3895
5997000000.0 0.2586 -0.9355
6000000000.0 -0.5663 -0.819
6003000000.0 -0.949 -0.08191
6006000000.0 -0.6733 0.7036
6009000000.0 0.05282 0.98
6012000000.0 0.8186 0.5677
6016000000.0 0.943 -0.29
6019000000.0 0.3817 -0.8982
6022000000.0 -0.4637 -0.891
6025000000.0 -0.983 -0.2225
6028000000.0 -0.7831 0.6019
6031000000.0 -0.01579 0.9874
6034000000.0 0.7562 0.6541
6038000000.0 0.9944 -0.1829
6041000000.0 0.5254 -0.842
6044000000.0 -0.3587 -0.9413
6047000000.0 -0.9296 -0.3008
6050000000.0 -0.808 0.5278
6053000000.0 -0.1369 0.9813
6056000000.0 0.7168 0.682
6059000000.0 0.977 -0.09102
6062000000.0 0.5384 -0.8127
6066000000.0 -0.2728 -0.9058
6069000000.0 -0.8989 -0.3247
6072000000.0 -0.8112 0.4735
6075000000.0 -0.1729 0.9453
6078000000.0 0.6268 0.7151
6081000000.0 0.9519 -0.06192
6084000000.0 0.5339 -0.747
6088000000.0 -0.2428 -0.8488
6091000000.0 -0.8193 -0.358
6094000000.0 -0.789 0.4032
6097000000.0 -0.2154 0.8497
6100000000.0 0.5349 0.7066
6103000000.0 0.8784 -0.0008341
6106000000.0 0.5288 -0.6812
6109000000.0 -0.1807 -0.834
6112000000.0 -0.7797 -0.3701
6116000000.0 -0.763 0.3563
6119000000.0 -0.2062 0.822
6122000000.0 0.5084 0.7096
6125000000.0 0.8861 0.02899
6128000000.0 0.5477 -0.6272
6131000000.0 -0.1828 -0.8691
6134000000.0 -0.7402 -0.4345
6138000000.0 -0.7816 0.2775
6141000000.0 -0.2335 0.7851
6144000000.0 0.4831 0.6906
6147000000.0 0.8701 0.06504
6150000000.0 0.579 -0.5971
6153000000.0 -0.1062 -0.868
6156000000.0 -0.735 -0.4812
6159000000.0 -0.8305 0.2402
6162000000.0 -0.2963 0.8155
6166000000.0 0.4573 0.7778
6169000000.0 0.8844 0.1335
6172000000.0 0.6866 -0.5826
6175000000.0 -0.0246 -0.8942
6178000000.0 -0.7512 -0.5316
6181000000.0 -0.8404 0.2367
6184000000.0 -0.3904 0.8584
6188000000.0 0.3838 0.792
6191000000.0 0.9183 0.2
6194000000.0 0.7293 -0.5376
6197000000.0 0.01329 -0.8931
6200000000.0 -0.6831 -0.5957
6203000000.0 -0.8976 0.1403
6206000000.0 -0.4432 0.7875
6209000000.0 0.3047 0.8282
6212000000.0 0.8666 0.2951
6216000000.0 0.773 -0.4573
6219000000.0 0.1227 -0.9101
6222000000.0 -0.6003 -0.6638
6225000000.0 -0.9077 0.06729
6228000000.0 -0.5328 0.6998
6231000000.0 0.1987 0.8807
6234000000.0 0.8218 0.3988
6238000000.0 0.7849 -0.398
6241000000.0 0.2213 -0.8503
6244000000.0 -0.5033 -0.7063
6247000000.0 -0.8719 -0.05065
6250000000.0 -0.5978 0.615
6253000000.0 0.07066 0.8131
6256000000.0 0.7154 0.528
6259000000.0 0.8267 -0.2527
6262000000.0 0.3539 -0.7382
6266000000.0 -0.3733 -0.7419
