! Created with skrf 1.8.0 (http://scikit-rf.org).
# Hz S RI R 50.0 
!freq ReS11 ImS11
4000000000.0 -0.175 -1.439
4003000000.0 -1.231 -0.8305
4006000000.0 -1.448 0.4966
4009000000.0 -0.5209 1.43
4012000000.0 0.7938 1.344
4016000000.0 1.484 0.2444
4019000000.0 1.155 -1.063
4022000000.0 -0.1004 -1.563
4025000000.0 -1.31 -0.9283
4028000000.0 -1.538 0.4056
4031000000.0 -0.606 1.489
4034000000.0 0.8087 1.4
4038000000.0 1.63 0.2247
4041000000.0 1.193 -1.085
4044000000.0 -0.1094 -1.614
4047000000.0 -1.344 -0.9306
4050000000.0 -1.566 0.4557
4053000000.0 -0.6526 1.472
4056000000.0 0.7189 1.459
4059000000.0 1.607 0.3325
4062000000.0 1.282 -1.041
4066000000.0 0.03648 -1.627
4069000000.0 -1.209 -1.061
4072000000.0 -1.608 0.2603
4075000000.0 -0.8152 1.415
4078000000.0 0.5648 1.554
4081000000.0 1.574 0.5603
4084000000.0 1.408 -0.874
4088000000.0 0.2495 -1.64
4091000000.0 -1.12 -1.2
4094000000.0 -1.634 0.08171
4097000000.0 -1.009 1.311
4100000000.0 0.3892 1.618
4103000000.0 1.411 0.7202
4106000000.0 1.457 -0.6475
4109000000.0 0.4384 -1.485
4112000000.0 -0.8279 -1.281
4116000000.0 -1.511 -0.1932
4119000000.0 -1.114 0.9908
4122000000.0 0.03101 1.504
4125000000.0 1.138 0.9659
4128000000.0 1.492 -0.2023
4131000000.0 0.7984 -1.232
4134000000.0 -0.4475 -1.447
4138000000.0 -1.369 -0.5954
4141000000.0 -1.33 0.6593
4144000000.0 -0.4087 1.477
4147000000.0 0.8631 1.264
4150000000.0 1.51 0.1458
4153000000.0 1.078 -1.063
4156000000.0 -0.1052 -1.511
4159000000.0 -1.262 -0.8804
4162000000.0 -1.44 0.3878
4166000000.0 -0.6467 1.384
4169000000.0 0.6287 1.363
4172000000.0 1.454 0.3912
4175000000.0 1.279 -0.8255
4178000000.0 0.1889 -1.473
4181000000.0 -1.047 -1.071
4184000000.0 -1.501 0.06571
4188000000.0 -0.9061 1.222
4191000000.0 0.3611 1.521
4194000000.0 1.396 0.6782
4197000000.0 1.4 -0.6881
4200000000.0 0.3814 -1.561
4203000000.0 -0.9693 -1.295
4206000000.0 -1.632 -0.07907
4209000000.0 -1.086 1.254
4212000000.0 0.2956 1.608
4216000000.0 1.526 0.7587
4219000000.0 1.53 -0.7184
4222000000.0 0.3386 -1.672
4225000000.0 -1.112 -1.288
4228000000.0 -1.681 0.09005
4231000000.0 -0.9112 1.375
4234000000.0 0.5474 1.601
4238000000.0 1.548 0.5454
4241000000.0 1.353 -0.8998
4244000000.0 0.1145 -1.609
4247000000.0 -1.202 -1.053
4250000000.0 -1.555 0.3262
4253000000.0 -0.6844 1.399
4256000000.0 0.6768 1.403
4259000000.0 1.53 0.2755
4262000000.0 1.228 -0.9465
4266000000.0 -0.07034 -1.511
4269000000.0 -1.234 -0.8844
4272000000.0 -1.403 0.433
4275000000.0 -0.5672 1.361
4278000000.0 0.7545 1.249
4281000000.0 1.421 0.2084
4284000000.0 1.02 -1.005
4288000000.0 -0.1489 -1.408
4291000000.0 -1.164 -0.7385
4294000000.0 -1.291 0.4044
4297000000.0 -0.5027 1.257
4300000000.0 0.6349 1.181
4303000000.0 1.279 0.2358
4306000000.0 1.027 -0.8087
4309000000.0 0.05188 -1.296
4312000000.0 -0.9834 -0.8569
4316000000.0 -1.27 0.2401
4319000000.0 -0.6836 1.121
4322000000.0 0.3777 1.244
4325000000.0 1.235 0.489
4328000000.0 1.182 -0.6448
4331000000.0 0.3055 -1.313
4334000000.0 -0.8775 -1.075
4338000000.0 -1.382 -0.03581
4341000000.0 -0.9585 1.043
4344000000.0 0.2041 1.371
4347000000.0 1.205 0.7379
4350000000.0 1.357 -0.4711
4353000000.0 0.4688 -1.32
4356000000.0 -0.7146 -1.271
4359000000.0 -1.438 -0.2416
4362000000.0 -1.138 0.9545
4366000000.0 -0.002584 1.447
4369000000.0 1.16 0.9537
4372000000.0 1.457 -0.2726
4375000000.0 0.7015 -1.304
4378000000.0 -0.5296 -1.39
4381000000.0 -1.449 -0.4646
4384000000.0 -1.287 0.8103
4388000000.0 -0.1939 1.565
4391000000.0 1.056 1.145
4394000000.0 1.575 -0.1389
4397000000.0 0.8735 -1.318
4400000000.0 -0.4654 -1.515
4403000000.0 -1.469 -0.5675
4406000000.0 -1.351 0.8486
4409000000.0 -0.2168 1.587
4412000000.0 1.087 1.123
4416000000.0 1.539 -0.1633
4419000000.0 0.8129 -1.319
4422000000.0 -0.5387 -1.415
4425000000.0 -1.446 -0.4515
4428000000.0 -1.236 0.81
4431000000.0 -0.1106 1.446
4434000000.0 1.088 0.9672
4438000000.0 1.398 -0.2559
4441000000.0 0.6884 -1.225
4444000000.0 -0.5666 -1.243
4447000000.0 -1.307 -0.331
4450000000.0 -1.036 0.8452
4453000000.0 0.006814 1.296
4456000000.0 1.042 0.8053
4459000000.0 1.196 -0.3488
4462000000.0 0.4997 -1.19
4466000000.0 -0.6291 -1.094
4469000000.0 -1.201 -0.1728
4472000000.0 -0.8754 0.875
4475000000.0 0.1326 1.183
4478000000.0 0.9927 0.5972
4481000000.0 1.073 -0.3941
4484000000.0 0.3552 -1.094
4488000000.0 -0.6424 -0.9742
4491000000.0 -1.133 -0.09836
4494000000.0 -0.768 0.8395
4497000000.0 0.1545 1.101
4500000000.0 0.9742 0.5396
4503000000.0 1.002 -0.3832
4506000000.0 0.3212 -1.052
4509000000.0 -0.5835 -0.9116
4512000000.0 -1.12 -0.1293
4516000000.0 -0.7689 0.819
4519000000.0 0.1293 1.129
4522000000.0 0.946 0.5889
4525000000.0 1.085 -0.3813
4528000000.0 0.4026 -1.08
4531000000.0 -0.5823 -1.001
4534000000.0 -1.141 -0.2195
4538000000.0 -0.8975 0.7436
4541000000.0 0.01191 1.182
4544000000.0 0.9417 0.7318
4547000000.0 1.162 -0.2484
4550000000.0 0.5727 -1.067
4553000000.0 -0.4575 -1.115
4556000000.0 -1.187 -0.3768
4559000000.0 -1.044 0.6537
4562000000.0 -0.172 1.252
4566000000.0 0.8151 0.9126
4569000000.0 1.239 -0.04175
4572000000.0 0.7919 -0.9982
4575000000.0 -0.2672 -1.271
4578000000.0 -1.17 -0.6064
4581000000.0 -1.242 0.5209
4584000000.0 -0.416 1.268
4588000000.0 0.7173 1.132
4591000000.0 1.338 0.1707
4594000000.0 0.9938 -0.9337
4597000000.0 -0.1013 -1.373
4600000000.0 -1.128 -0.8131
4603000000.0 -1.343 0.3679
4606000000.0 -0.5512 1.281
4609000000.0 0.6255 1.26
4612000000.0 1.347 0.3352
4616000000.0 1.103 -0.8543
4619000000.0 0.02415 -1.404
4622000000.0 -1.044 -0.9291
4625000000.0 -1.406 0.2437
4628000000.0 -0.6694 1.219
4631000000.0 0.5172 1.279
4634000000.0 1.341 0.4004
4638000000.0 1.149 -0.7337
4641000000.0 0.1219 -1.37
4644000000.0 -0.994 -0.9311
4647000000.0 -1.352 0.1785
4650000000.0 -0.6879 1.112
4653000000.0 0.4685 1.217
4656000000.0 1.249 0.416
4659000000.0 1.077 -0.7092
4662000000.0 0.05042 -1.275
4666000000.0 -0.9174 -0.8086
4669000000.0 -1.181 0.1998
4672000000.0 -0.5856 1.061
4675000000.0 0.4324 1.093
4678000000.0 1.13 0.3023
4681000000.0 0.967 -0.6558
4684000000.0 0.04626 -1.124
4688000000.0 -0.8172 -0.7551
4691000000.0 -1.104 0.1859
4694000000.0 -0.5299 0.9715
4697000000.0 0.4166 0.9846
4700000000.0 1.08 0.2937
4703000000.0 0.8925 -0.6603
4706000000.0 0.04629 -1.054
4709000000.0 -0.8503 -0.7204
4712000000.0 -1.069 0.2384
4716000000.0 -0.486 0.9859
4719000000.0 0.4293 0.9904
4722000000.0 1.034 0.2649
4725000000.0 0.859 -0.6572
4728000000.0 0.03521 -1.044
4731000000.0 -0.8042 -0.6722
4734000000.0 -1.052 0.1643
4738000000.0 -0.5204 0.9051
4741000000.0 0.3678 0.9764
4744000000.0 0.9954 0.3587
4747000000.0 0.9033 -0.5395
4750000000.0 0.1732 -1.086
4753000000.0 -0.7403 -0.8036
4756000000.0 -1.052 0.02606
4759000000.0 -0.6717 0.8705
4762000000.0 0.2529 1.069
4766000000.0 0.9909 0.5237
4769000000.0 1.061 -0.4664
4772000000.0 0.3603 -1.096
4775000000.0 -0.6201 -0.9595
4778000000.0 -1.17 -0.1313
4781000000.0 -0.8804 0.7907
4784000000.0 0.06985 1.187
4788000000.0 0.9711 0.7372
4791000000.0 1.206 -0.2863
4794000000.0 0.561 -1.089
4797000000.0 -0.4912 -1.145
4800000000.0 -1.17 -0.3903
4803000000.0 -1.035 0.6399
4806000000.0 -0.1872 1.235
4809000000.0 0.8342 0.9528
4812000000.0 1.311 -0.01474
4816000000.0 0.8371 -1.038
4819000000.0 -0.2556 -1.296
4822000000.0 -1.166 -0.5953
4825000000.0 -1.261 0.5192
4828000000.0 -0.4053 1.335
4831000000.0 0.7527 1.174
4834000000.0 1.389 0.1434
4838000000.0 0.9906 -0.9792
4841000000.0 -0.1301 -1.393
4844000000.0 -1.18 -0.7885
4847000000.0 -1.341 0.4062
4850000000.0 -0.5326 1.287
4853000000.0 0.6625 1.244
4856000000.0 1.368 0.2776
4859000000.0 1.055 -0.8708
4862000000.0 -0.01073 -1.352
4866000000.0 -1.05 -0.8665
4869000000.0 -1.314 0.2935
4872000000.0 -0.5983 1.16
4875000000.0 0.5336 1.19
4878000000.0 1.235 0.3067
4881000000.0 1.05 -0.7532
4884000000.0 0.02743 -1.27
4888000000.0 -0.9218 -0.8272
4891000000.0 -1.198 0.2053
4894000000.0 -0.5649 1.066
4897000000.0 0.4668 1.063
4900000000.0 1.099 0.3486
4903000000.0 0.936 -0.6342
4906000000.0 0.1028 -1.087
4909000000.0 -0.7678 -0.7371
4912000000.0 -1.054 0.1116
4916000000.0 -0.5232 0.8831
4919000000.0 0.3224 0.9617
4922000000.0 0.9484 0.3424
4925000000.0 0.8442 -0.4721
4928000000.0 0.1749 -0.9529
4931000000.0 -0.651 -0.716
4934000000.0 -0.9406 0.02796
4938000000.0 -0.5777 0.745
4941000000.0 0.2414 0.908
4944000000.0 0.8501 0.437
4947000000.0 0.8643 -0.3771
4950000000.0 0.2684 -0.9186
4953000000.0 -0.5647 -0.7729
4956000000.0 -0.9522 -0.04252
4959000000.0 -0.6624 0.7061
4962000000.0 0.1566 0.942
4966000000.0 0.8311 0.4855
4969000000.0 0.9268 -0.3417
4972000000.0 0.3225 -0.9481
4975000000.0 -0.5425 -0.8402
4978000000.0 -0.9954 -0.1164
4981000000.0 -0.7569 0.7057
4984000000.0 0.06019 1.041
4988000000.0 0.8576 0.6106
4991000000.0 1.01 -0.2502
4994000000.0 0.4537 -0.9892
4997000000.0 -0.4685 -1.001
5000000000.0 -1.082 -0.2795
5003000000.0 -0.9355 0.6448
5006000000.0 -0.1094 1.164
5009000000.0 0.8666 0.8214
5012000000.0 1.179 -0.151
5016000000.0 0.6332 -1.002
5019000000.0 -0.3792 -1.175
5022000000.0 -1.164 -0.4829
5025000000.0 -1.113 0.6211
5028000000.0 -0.2415 1.261
5031000000.0 0.8148 1.004
5034000000.0 1.283 0.01295
5038000000.0 0.8194 -0.9927
5041000000.0 -0.2188 -1.271
5044000000.0 -1.132 -0.6184
5047000000.0 -1.208 0.4182
5050000000.0 -0.4263 1.218
5053000000.0 0.645 1.153
5056000000.0 1.286 0.186
5059000000.0 0.9887 -0.8773
5062000000.0 0.007813 -1.295
5066000000.0 -1.03 -0.8531
5069000000.0 -1.262 0.2521
5072000000.0 -0.6212 1.162
5075000000.0 0.4972 1.195
5078000000.0 1.207 0.3932
5081000000.0 1.099 -0.699
5084000000.0 0.1343 -1.216
5088000000.0 -0.848 -0.8966
5091000000.0 -1.197 0.09761
5094000000.0 -0.687 0.9609
5097000000.0 0.2627 1.129
5100000000.0 1.038 0.5124
5103000000.0 1.051 -0.4436
5106000000.0 0.2762 -1.098
5109000000.0 -0.6264 -0.912
5112000000.0 -1.1 -0.09906
5116000000.0 -0.7915 0.7361
5119000000.0 0.04794 1.074
5122000000.0 0.8653 0.6322
5125000000.0 1.014 -0.2547
5128000000.0 0.4627 -0.9168
5131000000.0 -0.4498 -0.9386
5134000000.0 -0.9726 -0.2762
5138000000.0 -0.8068 0.5648
5141000000.0 -0.06533 0.969
5144000000.0 0.6932 0.6672
5147000000.0 0.9507 -0.1327
5150000000.0 0.5139 -0.7779
5153000000.0 -0.3003 -0.8604
5156000000.0 -0.7934 -0.2995
5159000000.0 -0.7767 0.4664
5162000000.0 -0.1511 0.9458
5166000000.0 0.6114 0.6514
5169000000.0 0.8768 -0.04504
5172000000.0 0.5257 -0.7002
5175000000.0 -0.2259 -0.8863
5178000000.0 -0.8141 -0.3622
5181000000.0 -0.8272 0.4145
5184000000.0 -0.1731 0.9105
5188000000.0 0.5746 0.7333
5191000000.0 0.9323 -0.01229
5194000000.0 0.5866 -0.7688
5197000000.0 -0.2389 -0.9167
5200000000.0 -0.8259 -0.3961
5203000000.0 -0.8523 0.4019
5206000000.0 -0.1911 0.9473
5209000000.0 0.6102 0.7325
5212000000.0 0.9609 -0.006729
5216000000.0 0.6069 -0.7403
5219000000.0 -0.1988 -0.9579
5222000000.0 -0.8715 -0.4443
5225000000.0 -0.8945 0.3984
5228000000.0 -0.2819 0.9974
5231000000.0 0.5778 0.8386
5234000000.0 1.029 0.05226
5238000000.0 0.7053 -0.7614
5241000000.0 -0.1388 -1.048
5244000000.0 -0.8799 -0.5212
5247000000.0 -1.032 0.3295
5250000000.0 -0.4107 0.9935
5253000000.0 0.5232 0.9546
5256000000.0 1.044 0.2286
5259000000.0 0.8458 -0.719
5262000000.0 0.0244 -1.093
5266000000.0 -0.8106 -0.7033
5269000000.0 -1.071 0.1604
5272000000.0 -0.5651 0.9498
5275000000.0 0.3384 1.047
5278000000.0 1.025 0.4067
5281000000.0 0.9749 -0.5198
5284000000.0 0.2279 -1.093
5288000000.0 -0.679 -0.8955
5291000000.0 -1.126 -0.03874
5294000000.0 -0.792 0.8182
5297000000.0 0.123 1.141
5300000000.0 0.9223 0.6294
5303000000.0 1.085 -0.3036
5306000000.0 0.4758 -1.004
5309000000.0 -0.4855 -1.012
5312000000.0 -1.102 -0.3144
5316000000.0 -0.9392 0.6369
5319000000.0 -0.08992 1.128
5322000000.0 0.8151 0.8023
5325000000.0 1.161 -0.09575
5328000000.0 0.6586 -0.9625
5331000000.0 -0.2855 -1.106
5334000000.0 -1.039 -0.4709
5338000000.0 -1.029 0.484
5341000000.0 -0.2868 1.103
5344000000.0 0.6718 0.9219
5347000000.0 1.131 0.04303
5350000000.0 0.7598 -0.8241
5353000000.0 -0.1493 -1.089
5356000000.0 -0.9442 -0.5535
5359000000.0 -1.015 0.3774
5362000000.0 -0.3913 1.026
5366000000.0 0.563 0.9217
5369000000.0 1.082 0.1111
5372000000.0 0.7351 -0.7535
5375000000.0 -0.07477 -1.029
5378000000.0 -0.866 -0.5571
5381000000.0 -0.9708 0.3278
5384000000.0 -0.3738 0.93
5388000000.0 0.5231 0.8528
5391000000.0 0.9683 0.1319
5394000000.0 0.6887 -0.6875
5397000000.0 -0.1166 -0.9094
5400000000.0 -0.7947 -0.4645
5403000000.0 -0.863 0.2802
5406000000.0 -0.2652 0.8389
5409000000.0 0.4735 0.7402
5412000000.0 0.8819 0.1022
5416000000.0 0.6152 -0.6202
5419000000.0 -0.07914 -0.8721
5422000000.0 -0.7244 -0.4386
5425000000.0 -0.8312 0.2881
5428000000.0 -0.3021 0.8462
5431000000.0 0.4605 0.7417
5434000000.0 0.8705 0.07244
5438000000.0 0.6036 -0.6137
5441000000.0 -0.0913 -0.8828
5444000000.0 -0.7741 -0.4928
5447000000.0 -0.8239 0.3097
5450000000.0 -0.2816 0.8483
5453000000.0 0.4616 0.7365
5456000000.0 0.8935 0.09786
5459000000.0 0.6538 -0.6116
5462000000.0 -0.08355 -0.9042
5466000000.0 -0.7464 -0.5108
5469000000.0 -0.8838 0.2466
5472000000.0 -0.3713 0.8157
5475000000.0 0.3948 0.8523
5478000000.0 0.898 0.2657
5481000000.0 0.7634 -0.539
5484000000.0 0.04311 -0.9156
5488000000.0 -0.6861 -0.7119
5491000000.0 -0.9842 0.1397
5494000000.0 -0.5425 0.8448
5497000000.0 0.2712 0.9766
5500000000.0 0.8963 0.4041
5503000000.0 0.9138 -0.4388
5506000000.0 0.2547 -0.9785
5509000000.0 -0.5885 -0.8061
5512000000.0 -1.03 -0.0838
5516000000.0 -0.7105 0.7008
5519000000.0 0.1227 1.017
5522000000.0 0.8674 0.5861
5525000000.0 1.009 -0.2943
5528000000.0 0.4634 -0.95
5531000000.0 -0.468 -0.9735
5534000000.0 -0.9862 -0.2793
5538000000.0 -0.8417 0.5998
5541000000.0 -0.07181 1.086
5544000000.0 0.7627 0.7482
5547000000.0 1.066 -0.09081
5550000000.0 0.6412 -0.8601
5553000000.0 -0.2691 -0.9978
5556000000.0 -0.9627 -0.4144
5559000000.0 -0.9567 0.4659
5562000000.0 -0.2669 0.9981
5566000000.0 0.6332 0.8769
5569000000.0 1.046 0.05943
5572000000.0 0.6901 -0.7751
5575000000.0 -0.1537 -0.9968
5578000000.0 -0.8718 -0.5319
5581000000.0 -0.9796 0.2819
5584000000.0 -0.3503 0.9027
5588000000.0 0.4718 0.858
5591000000.0 0.9661 0.1748
5594000000.0 0.753 -0.6097
5597000000.0 -0.01448 -0.9328
5600000000.0 -0.7253 -0.5745
5603000000.0 -0.9183 0.1877
5606000000.0 -0.4094 0.8329
5609000000.0 0.3696 0.8009
5612000000.0 0.8587 0.2434
5616000000.0 0.7221 -0.5301
5619000000.0 0.08437 -0.8654
5622000000.0 -0.644 -0.6136
5625000000.0 -0.874 0.1547
5628000000.0 -0.4189 0.7388
5631000000.0 0.3029 0.8092
5634000000.0 0.8074 0.2695
5638000000.0 0.7137 -0.4584
5641000000.0 0.07215 -0.8611
5644000000.0 -0.5914 -0.5849
5647000000.0 -0.8381 0.09842
5650000000.0 -0.4583 0.7331
5653000000.0 0.2984 0.8012
5656000000.0 0.8029 0.2835
5659000000.0 0.7086 -0.4575
5662000000.0 0.09192 -0.8428
5666000000.0 -0.6347 -0.5967
5669000000.0 -0.8874 0.1122
5672000000.0 -0.4563 0.7477
5675000000.0 0.3216 0.8453
5678000000.0 0.8617 0.3005
5681000000.0 0.7768 -0.4624
5684000000.0 0.1352 -0.9214
5688000000.0 -0.6579 -0.6641
5691000000.0 -0.9505 0.09413
5694000000.0 -0.522 0.8231
5697000000.0 0.2562 0.9363
5700000000.0 0.9141 0.361
5703000000.0 0.8657 -0.4975
5706000000.0 0.195 -1.004
5709000000.0 -0.6576 -0.7531
5712000000.0 -0.9989 0.01643
5716000000.0 -0.6045 0.8153
5719000000.0 0.2103 1.004
5722000000.0 0.9242 0.4831
5725000000.0 0.9854 -0.4228
5728000000.0 0.298 -1.004
5731000000.0 -0.6016 -0.8827
5734000000.0 -1.085 -0.1093
5738000000.0 -0.7706 0.7629
5741000000.0 0.06048 1.08
5744000000.0 0.8819 0.6435
5747000000.0 1.084 -0.2802
5750000000.0 0.465 -1.02
5753000000.0 -0.4613 -0.9819
5756000000.0 -1.115 -0.3002
5759000000.0 -0.9205 0.6381
5762000000.0 -0.0875 1.087
5766000000.0 0.7906 0.7786
5769000000.0 1.089 -0.1365
5772000000.0 0.6162 -0.9471
5775000000.0 -0.2785 -1.077
5778000000.0 -1.016 -0.4357
5781000000.0 -0.9621 0.4946
5784000000.0 -0.1982 1.083
5788000000.0 0.6583 0.8839
5791000000.0 1.032 0.05787
5794000000.0 0.7358 -0.7932
5797000000.0 -0.1579 -1.099
5800000000.0 -0.9459 -0.5503
5803000000.0 -1.001 0.3217
5806000000.0 -0.4002 0.9973
5809000000.0 0.4951 0.9355
5812000000.0 0.9982 0.1867
5816000000.0 0.7753 -0.6816
5819000000.0 -0.01856 -1.043
5822000000.0 -0.8005 -0.6271
5825000000.0 -0.9761 0.2166
5828000000.0 -0.4368 0.899
5831000000.0 0.3817 0.89
5834000000.0 0.9602 0.2896
5838000000.0 0.7998 -0.545
5841000000.0 0.07283 -0.9436
5844000000.0 -0.6838 -0.6619
5847000000.0 -0.9514 0.1368
5850000000.0 -0.4917 0.819
5853000000.0 0.3081 0.8922
5856000000.0 0.867 0.3421
5859000000.0 0.7927 -0.4673
5862000000.0 0.1017 -0.935
5866000000.0 -0.6452 -0.6575
5869000000.0 -0.9343 0.08725
5872000000.0 -0.4907 0.7608
5875000000.0 0.2761 0.8505
5878000000.0 0.8239 0.3227
5881000000.0 0.7501 -0.4424
5884000000.0 0.1145 -0.8786
5888000000.0 -0.6323 -0.6655
5891000000.0 -0.8943 0.0613
5894000000.0 -0.5007 0.7211
5897000000.0 0.2558 0.8613
5900000000.0 0.8141 0.3469
5903000000.0 0.7746 -0.3797
5906000000.0 0.1537 -0.862
5909000000.0 -0.534 -0.6453
5912000000.0 -0.8596 0.02239
5916000000.0 -0.5467 0.658
5919000000.0 0.1723 0.8386
5922000000.0 0.8002 0.4073
5925000000.0 0.782 -0.3146
5928000000.0 0.2692 -0.8701
5931000000.0 -0.4864 -0.7291
5934000000.0 -0.8648 -0.111
5938000000.0 -0.6259 0.6322
5941000000.0 0.08882 0.8921
5944000000.0 0.7334 0.5111
5947000000.0 0.8839 -0.2452
5950000000.0 0.3742 -0.8475
5953000000.0 -0.3848 -0.8186
5956000000.0 -0.8887 -0.2174
5959000000.0 -0.7422 0.5137
5962000000.0 -0.07582 0.9297
5966000000.0 0.6839 0.6829
5969000000.0 0.9413 -0.09304
5972000000.0 0.5347 -0.7791
5975000000.0 -0.2423 -0.9082
5978000000.0 -0.8808 -0.3964
5981000000.0 -0.8832 0.4243
5984000000.0 -0.2384 0.9897
5988000000.0 0.6111 0.7954
5991000000.0 0.9919 0.05508
5994000000.0 0.6443 -0.7324
5997000000.0 -0.1263 -0.9887
6000000000.0 -0.8655 -0.5687
6003000000.0 -0.94 0.3132
6006000000.0 -0.3527 0.9314
6009000000.0 0.5065 0.9004
6012000000.0 0.9652 0.192
6016000000.0 0.7555 -0.6452
6019000000.0 -0.01917 -0.9944
6022000000.0 -0.7751 -0.6167
6025000000.0 -0.9798 0.2063
6028000000.0 -0.4685 0.8937
6031000000.0 0.3829 0.8971
6034000000.0 0.9497 0.2696
6038000000.0 0.7916 -0.5682
6041000000.0 0.09161 -0.9753
6044000000.0 -0.6836 -0.6582
6047000000.0 -0.939 0.1415
6050000000.0 -0.4969 0.82
6053000000.0 0.3191 0.8967
6056000000.0 0.8845 0.3062
6059000000.0 0.8174 -0.4949
6062000000.0 0.1189 -0.9379
6066000000.0 -0.6573 -0.6545
6069000000.0 -0.8997 0.07871
6072000000.0 -0.5139 0.7364
6075000000.0 0.2538 0.8891
6078000000.0 0.8371 0.3424
6081000000.0 0.7887 -0.4166
6084000000.0 0.1507 -0.8501
6088000000.0 -0.5588 -0.6735
6091000000.0 -0.8587 0.01624
6094000000.0 -0.5235 0.6883
6097000000.0 0.2025 0.8148
6100000000.0 0.7657 0.3927
6103000000.0 0.7641 -0.3612
6106000000.0 0.2031 -0.8253
6109000000.0 -0.524 -0.6992
6112000000.0 -0.8637 -0.01752
6116000000.0 -0.5747 0.6339
6119000000.0 0.1537 0.8583
6122000000.0 0.7318 0.4041
6125000000.0 0.7979 -0.3675
6128000000.0 0.2162 -0.8356
6131000000.0 -0.4837 -0.6952
6134000000.0 -0.8814 -0.0329
6138000000.0 -0.5963 0.6363
6141000000.0 0.1162 0.89
6144000000.0 0.7455 0.4596
6147000000.0 0.8236 -0.3029
6150000000.0 0.3079 -0.846
6153000000.0 -0.482 -0.7923
6156000000.0 -0.8673 -0.1281
6159000000.0 -0.6704 0.6009
6162000000.0 0.06268 0.9142
6166000000.0 0.7418 0.5294
6169000000.0 0.8866 -0.2465
6172000000.0 0.3693 -0.8438
6175000000.0 -0.4227 -0.8643
6178000000.0 -0.942 -0.2186
6181000000.0 -0.7394 0.5924
6184000000.0 0.0001009 0.942
6188000000.0 0.7224 0.6305
6191000000.0 0.9746 -0.1723
6194000000.0 0.4698 -0.8131
6197000000.0 -0.3293 -0.8859
6200000000.0 -0.8934 -0.2794
6203000000.0 -0.7875 0.502
6206000000.0 -0.1373 0.9411
6209000000.0 0.645 0.7049
6212000000.0 0.9439 -0.05606
6216000000.0 0.5539 -0.7552
6219000000.0 -0.2457 -0.8665
6222000000.0 -0.8465 -0.4112
6225000000.0 -0.8404 0.385
6228000000.0 -0.2227 0.8638
6231000000.0 0.5674 0.7252
6234000000.0 0.9039 0.07835
6238000000.0 0.6024 -0.6314
6241000000.0 -0.07536 -0.9071
6244000000.0 -0.7597 -0.4733
6247000000.0 -0.8174 0.2689
6250000000.0 -0.3233 0.7825
6253000000.0 0.3853 0.7293
6256000000.0 0.8256 0.1995
6259000000.0 0.6773 -0.5187
6262000000.0 0.02426 -0.832
6266000000.0 -0.6076 -0.5376
