! Created with skrf 1.8.0 (http://scikit-rf.org).
# Hz S RI R 50.0 
!freq ReS11 ImS11
4000000000.0 -0.196 -1.513
4003000000.0 -1.256 -0.8109
4006000000.0 -1.422 0.535
4009000000.0 -0.5428 1.442
4012000000.0 0.7802 1.278
4016000000.0 1.56 0.2678
4019000000.0 1.125 -1.037
4022000000.0 -0.1815 -1.57
4025000000.0 -1.325 -0.8848
4028000000.0 -1.467 0.5004
4031000000.0 -0.565 1.453
4034000000.0 0.7643 1.411
4038000000.0 1.62 0.2495
4041000000.0 1.203 -1.089
4044000000.0 -0.1084 -1.607
4047000000.0 -1.341 -0.8728
4050000000.0 -1.569 0.4294
4053000000.0 -0.6046 1.437
4056000000.0 0.7941 1.417
4059000000.0 1.578 0.3306
4062000000.0 1.252 -1.004
4066000000.0 0.0228 -1.621
4069000000.0 -1.25 -1.081
4072000000.0 -1.631 0.2937
4075000000.0 -0.8417 1.441
4078000000.0 0.5673 1.522
4081000000.0 1.544 0.5428
4084000000.0 1.414 -0.863
4088000000.0 0.2414 -1.676
4091000000.0 -1.098 -1.25
4094000000.0 -1.636 0.1093
4097000000.0 -1.0 1.297
4100000000.0 0.3828 1.622
4103000000.0 1.451 0.7122
4106000000.0 1.452 -0.6748
4109000000.0 0.4396 -1.479
4112000000.0 -0.8435 -1.275
4116000000.0 -1.506 -0.2113
4119000000.0 -1.122 1.014
4122000000.0 0.01676 1.457
4125000000.0 1.169 0.9317
4128000000.0 1.496 -0.2637
4131000000.0 0.7957 -1.253
4134000000.0 -0.475 -1.424
4138000000.0 -1.395 -0.5984
4141000000.0 -1.341 0.6798
4144000000.0 -0.3907 1.457
4147000000.0 0.899 1.227
4150000000.0 1.506 0.1605
4153000000.0 1.072 -1.062
4156000000.0 -0.1046 -1.522
4159000000.0 -1.283 -0.8835
4162000000.0 -1.468 0.3775
4166000000.0 -0.6685 1.366
4169000000.0 0.6304 1.379
4172000000.0 1.429 0.3982
4175000000.0 1.225 -0.8475
4178000000.0 0.1611 -1.502
4181000000.0 -1.04 -1.124
4184000000.0 -1.516 0.08424
4188000000.0 -0.896 1.227
4191000000.0 0.3744 1.479
4194000000.0 1.412 0.6481
4197000000.0 1.404 -0.6887
4200000000.0 0.3911 -1.558
4203000000.0 -0.923 -1.246
4206000000.0 -1.644 -0.01367
4209000000.0 -1.032 1.279
4212000000.0 0.3337 1.618
4216000000.0 1.502 0.7338
4219000000.0 1.508 -0.7878
4222000000.0 0.2915 -1.705
4225000000.0 -1.139 -1.269
4228000000.0 -1.646 0.1169
4231000000.0 -0.8806 1.376
4234000000.0 0.5655 1.574
4238000000.0 1.587 0.4848
4241000000.0 1.336 -0.913
4244000000.0 0.08179 -1.604
4247000000.0 -1.218 -0.9396
4250000000.0 -1.539 0.3611
4253000000.0 -0.6838 1.411
4256000000.0 0.7133 1.395
4259000000.0 1.506 0.3013
4262000000.0 1.133 -1.032
4266000000.0 -0.06819 -1.512
4269000000.0 -1.212 -0.838
4272000000.0 -1.406 0.4557
4275000000.0 -0.517 1.383
4278000000.0 0.7643 1.259
4281000000.0 1.435 0.1555
4284000000.0 1.005 -0.9961
4288000000.0 -0.1547 -1.378
4291000000.0 -1.141 -0.6983
4294000000.0 -1.26 0.4006
4297000000.0 -0.4958 1.246
4300000000.0 0.6595 1.126
4303000000.0 1.276 0.2145
4306000000.0 0.9925 -0.8167
4309000000.0 0.02363 -1.275
4312000000.0 -0.9669 -0.8478
4316000000.0 -1.274 0.2421
4319000000.0 -0.6584 1.107
4322000000.0 0.4483 1.235
4325000000.0 1.225 0.4791
4328000000.0 1.155 -0.6448
4331000000.0 0.2635 -1.358
4334000000.0 -0.8792 -1.041
4338000000.0 -1.385 -0.02469
4341000000.0 -0.8947 1.016
4344000000.0 0.2386 1.386
4347000000.0 1.2 0.6926
4350000000.0 1.348 -0.5033
4353000000.0 0.4935 -1.345
4356000000.0 -0.7362 -1.239
4359000000.0 -1.419 -0.2307
4362000000.0 -1.059 0.9489
4366000000.0 0.03091 1.478
4369000000.0 1.183 0.9428
4372000000.0 1.44 -0.277
4375000000.0 0.6957 -1.324
4378000000.0 -0.5783 -1.355
4381000000.0 -1.434 -0.4409
4384000000.0 -1.271 0.8482
4388000000.0 -0.163 1.523
4391000000.0 1.131 1.095
4394000000.0 1.559 -0.197
4397000000.0 0.8327 -1.365
4400000000.0 -0.5268 -1.504
4403000000.0 -1.486 -0.5158
4406000000.0 -1.337 0.8748
4409000000.0 -0.1424 1.57
4412000000.0 1.14 1.077
4416000000.0 1.515 -0.2216
4419000000.0 0.7686 -1.332
4422000000.0 -0.5871 -1.444
4425000000.0 -1.437 -0.4109
4428000000.0 -1.173 0.8969
4431000000.0 -0.06895 1.465
4434000000.0 1.105 0.9133
4438000000.0 1.373 -0.2696
4441000000.0 0.6091 -1.294
4444000000.0 -0.6232 -1.221
4447000000.0 -1.337 -0.2541
4450000000.0 -1.031 0.853
4453000000.0 0.04411 1.33
4456000000.0 1.049 0.7321
4459000000.0 1.245 -0.3905
4462000000.0 0.427 -1.158
4466000000.0 -0.6795 -1.045
4469000000.0 -1.225 -0.09522
4472000000.0 -0.8574 0.887
4475000000.0 0.1782 1.163
4478000000.0 1.057 0.6069
4481000000.0 1.095 -0.4485
4484000000.0 0.3267 -1.148
4488000000.0 -0.6612 -0.9593
4491000000.0 -1.134 -0.05078
4494000000.0 -0.7411 0.8603
4497000000.0 0.1899 1.107
4500000000.0 1.003 0.5359
4503000000.0 1.014 -0.448
4506000000.0 0.2899 -1.054
4509000000.0 -0.6253 -0.906
4512000000.0 -1.115 -0.0695
4516000000.0 -0.7536 0.8163
4519000000.0 0.1484 1.122
4522000000.0 0.9417 0.5808
4525000000.0 1.064 -0.3785
4528000000.0 0.4303 -1.064
4531000000.0 -0.5905 -0.9994
4534000000.0 -1.172 -0.1715
4538000000.0 -0.8916 0.7968
4541000000.0 0.05259 1.195
4544000000.0 0.9413 0.7352
4547000000.0 1.156 -0.2624
4550000000.0 0.5556 -1.082
4553000000.0 -0.4799 -1.132
4556000000.0 -1.166 -0.3379
4559000000.0 -1.036 0.683
4562000000.0 -0.1453 1.245
4566000000.0 0.8763 0.9
4569000000.0 1.26 -0.069
4572000000.0 0.7436 -1.059
4575000000.0 -0.2991 -1.246
4578000000.0 -1.166 -0.6127
4581000000.0 -1.218 0.5583
4584000000.0 -0.3713 1.299
4588000000.0 0.7694 1.133
4591000000.0 1.349 0.1193
4594000000.0 0.9741 -0.9726
4597000000.0 -0.1448 -1.362
4600000000.0 -1.154 -0.8001
4603000000.0 -1.325 0.3885
4606000000.0 -0.531 1.268
4609000000.0 0.6676 1.252
4612000000.0 1.368 0.2649
4616000000.0 1.071 -0.911
4619000000.0 0.01324 -1.372
4622000000.0 -1.065 -0.8546
4625000000.0 -1.364 0.3054
4628000000.0 -0.6416 1.203
4631000000.0 0.5804 1.25
4634000000.0 1.351 0.391
4638000000.0 1.112 -0.804
4641000000.0 0.106 -1.36
4644000000.0 -0.9944 -0.9157
4647000000.0 -1.304 0.2164
4650000000.0 -0.6443 1.169
4653000000.0 0.5078 1.217
4656000000.0 1.259 0.3577
4659000000.0 1.05 -0.7485
4662000000.0 0.06874 -1.267
4666000000.0 -0.9227 -0.7926
4669000000.0 -1.178 0.2364
4672000000.0 -0.5392 1.061
4675000000.0 0.5047 1.065
4678000000.0 1.129 0.2899
4681000000.0 0.8961 -0.6807
4684000000.0 0.004129 -1.128
4688000000.0 -0.8742 -0.7423
4691000000.0 -1.09 0.2297
4694000000.0 -0.4643 0.9817
4697000000.0 0.4875 0.9811
4700000000.0 1.056 0.2369
4703000000.0 0.8785 -0.6949
4706000000.0 0.02274 -1.083
4709000000.0 -0.8467 -0.6906
4712000000.0 -1.066 0.2237
4716000000.0 -0.4574 0.9634
4719000000.0 0.4802 0.9532
4722000000.0 1.041 0.2374
4725000000.0 0.8154 -0.6522
4728000000.0 -0.001911 -1.05
4731000000.0 -0.8003 -0.6242
4734000000.0 -1.027 0.2093
4738000000.0 -0.5084 0.9088
4741000000.0 0.3764 0.9912
4744000000.0 1.016 0.3171
4747000000.0 0.8813 -0.5743
4750000000.0 0.1477 -1.035
4753000000.0 -0.7287 -0.7931
4756000000.0 -1.064 0.08013
4759000000.0 -0.6848 0.8803
4762000000.0 0.263 1.057
4766000000.0 1.041 0.4738
4769000000.0 1.054 -0.4591
4772000000.0 0.3029 -1.108
4775000000.0 -0.6959 -0.9572
4778000000.0 -1.166 -0.1225
4781000000.0 -0.8512 0.84
4784000000.0 0.07981 1.202
4788000000.0 0.9673 0.7318
4791000000.0 1.197 -0.2871
4794000000.0 0.5529 -1.106
4797000000.0 -0.5075 -1.156
4800000000.0 -1.2 -0.3482
4803000000.0 -1.025 0.662
4806000000.0 -0.1667 1.241
4809000000.0 0.8507 0.9156
4812000000.0 1.297 -0.06343
4816000000.0 0.7862 -1.054
4819000000.0 -0.3087 -1.308
4822000000.0 -1.218 -0.5997
4825000000.0 -1.215 0.5379
4828000000.0 -0.3765 1.32
4831000000.0 0.7617 1.117
4834000000.0 1.396 0.1447
4838000000.0 0.972 -1.004
4841000000.0 -0.1671 -1.4
4844000000.0 -1.176 -0.7505
4847000000.0 -1.329 0.4475
4850000000.0 -0.5221 1.317
4853000000.0 0.6961 1.204
4856000000.0 1.344 0.231
4859000000.0 1.024 -0.8916
4862000000.0 -0.07746 -1.36
4866000000.0 -1.067 -0.8159
4869000000.0 -1.293 0.3189
4872000000.0 -0.5813 1.17
4875000000.0 0.5676 1.167
4878000000.0 1.273 0.2686
4881000000.0 1.017 -0.7684
4884000000.0 0.04247 -1.281
4888000000.0 -0.9441 -0.81
4891000000.0 -1.212 0.2337
4894000000.0 -0.5386 1.076
4897000000.0 0.4741 1.062
4900000000.0 1.088 0.3004
4903000000.0 0.9095 -0.6555
4906000000.0 0.06238 -1.089
4909000000.0 -0.8059 -0.7189
4912000000.0 -1.045 0.1618
4916000000.0 -0.5302 0.8947
4919000000.0 0.3721 0.9321
4922000000.0 0.9264 0.3465
4925000000.0 0.8509 -0.5173
4928000000.0 0.1257 -0.9567
4931000000.0 -0.6693 -0.6785
4934000000.0 -0.9474 0.04632
4938000000.0 -0.5684 0.7812
4941000000.0 0.2491 0.8975
4944000000.0 0.8748 0.419
4947000000.0 0.8328 -0.3982
4950000000.0 0.2027 -0.9513
4953000000.0 -0.6076 -0.7673
4956000000.0 -0.9638 -0.04137
4959000000.0 -0.6189 0.7135
4962000000.0 0.1788 0.9441
4966000000.0 0.8573 0.4624
4969000000.0 0.9106 -0.3606
4972000000.0 0.303 -0.9741
4975000000.0 -0.5623 -0.8116
4978000000.0 -1.018 -0.1109
4981000000.0 -0.7359 0.7065
4984000000.0 0.08423 1.048
4988000000.0 0.8714 0.5967
4991000000.0 1.061 -0.2996
4994000000.0 0.4591 -0.996
4997000000.0 -0.503 -1.009
5000000000.0 -1.087 -0.2981
5003000000.0 -0.9313 0.6809
5006000000.0 -0.05606 1.198
5009000000.0 0.8796 0.8192
5012000000.0 1.199 -0.1618
5016000000.0 0.6358 -1.036
5019000000.0 -0.4018 -1.178
5022000000.0 -1.169 -0.4571
5025000000.0 -1.094 0.6454
5028000000.0 -0.208 1.273
5031000000.0 0.8472 0.9725
5034000000.0 1.296 -0.05005
5038000000.0 0.7868 -1.023
5041000000.0 -0.273 -1.258
5044000000.0 -1.124 -0.6091
5047000000.0 -1.186 0.4973
5050000000.0 -0.4249 1.217
5053000000.0 0.6886 1.092
5056000000.0 1.277 0.1671
5059000000.0 0.9693 -0.8639
5062000000.0 -0.04688 -1.308
5066000000.0 -1.03 -0.7768
5069000000.0 -1.3 0.2794
5072000000.0 -0.581 1.159
5075000000.0 0.4994 1.188
5078000000.0 1.214 0.357
5081000000.0 1.011 -0.7327
5084000000.0 0.1028 -1.244
5088000000.0 -0.8734 -0.9134
5091000000.0 -1.203 0.1081
5094000000.0 -0.6894 1.007
5097000000.0 0.3198 1.128
5100000000.0 1.045 0.4926
5103000000.0 1.055 -0.5174
5106000000.0 0.3093 -1.041
5109000000.0 -0.5953 -0.875
5112000000.0 -1.078 -0.1177
5116000000.0 -0.7656 0.7608
5119000000.0 0.07843 1.051
5122000000.0 0.8288 0.6057
5125000000.0 0.9898 -0.2648
5128000000.0 0.4309 -0.9239
5131000000.0 -0.4741 -0.9183
5134000000.0 -0.9918 -0.2338
5138000000.0 -0.8162 0.6209
5141000000.0 -0.02436 0.9511
5144000000.0 0.7361 0.6661
5147000000.0 0.9321 -0.1358
5150000000.0 0.4805 -0.765
5153000000.0 -0.3258 -0.9011
5156000000.0 -0.8727 -0.3252
5159000000.0 -0.8297 0.5116
5162000000.0 -0.1181 0.8979
5166000000.0 0.6217 0.6345
5169000000.0 0.9024 -0.05075
5172000000.0 0.5196 -0.7221
5175000000.0 -0.2651 -0.8961
5178000000.0 -0.8464 -0.3445
5181000000.0 -0.8129 0.4174
5184000000.0 -0.1581 0.9225
5188000000.0 0.5821 0.692
5191000000.0 0.9329 -0.04327
5194000000.0 0.533 -0.7083
5197000000.0 -0.247 -0.8803
5200000000.0 -0.8727 -0.376
5203000000.0 -0.8575 0.4479
5206000000.0 -0.1706 0.9168
5209000000.0 0.6131 0.7311
5212000000.0 0.9437 -0.01976
5216000000.0 0.6015 -0.7697
5219000000.0 -0.2314 -0.9461
5222000000.0 -0.9043 -0.436
5225000000.0 -0.9184 0.4263
5228000000.0 -0.2552 0.9831
5231000000.0 0.6119 0.8217
5234000000.0 1.018 0.0532
5238000000.0 0.6964 -0.7577
5241000000.0 -0.1584 -1.03
5244000000.0 -0.8951 -0.5385
5247000000.0 -0.9842 0.3479
5250000000.0 -0.3652 1.006
5253000000.0 0.5333 0.9315
5256000000.0 1.039 0.1676
5259000000.0 0.8381 -0.7195
5262000000.0 -0.01213 -1.089
5266000000.0 -0.8415 -0.6939
5269000000.0 -1.063 0.1896
5272000000.0 -0.5346 0.9497
5275000000.0 0.3867 1.01
5278000000.0 1.038 0.3751
5281000000.0 0.9579 -0.5176
5284000000.0 0.23 -1.13
5288000000.0 -0.7094 -0.8592
5291000000.0 -1.116 -0.01971
5294000000.0 -0.7576 0.8569
5297000000.0 0.1434 1.134
5300000000.0 0.9153 0.5975
5303000000.0 1.066 -0.3314
5306000000.0 0.4582 -1.039
5309000000.0 -0.5013 -1.034
5312000000.0 -1.092 -0.2562
5316000000.0 -0.926 0.6925
5319000000.0 -0.07144 1.111
5322000000.0 0.8305 0.777
5325000000.0 1.156 -0.1089
5328000000.0 0.5996 -0.9737
5331000000.0 -0.3511 -1.127
5334000000.0 -1.074 -0.4236
5338000000.0 -1.02 0.5097
5341000000.0 -0.2289 1.097
5344000000.0 0.669 0.8951
5347000000.0 1.095 0.02928
5350000000.0 0.7235 -0.8598
5353000000.0 -0.2074 -1.106
5356000000.0 -0.9695 -0.514
5359000000.0 -1.0 0.4024
5362000000.0 -0.3046 1.027
5366000000.0 0.5954 0.9038
5369000000.0 1.039 0.09292
5372000000.0 0.7375 -0.7668
5375000000.0 -0.1748 -1.036
5378000000.0 -0.9108 -0.5257
5381000000.0 -0.9501 0.3872
5384000000.0 -0.3 0.9577
5388000000.0 0.5417 0.8163
5391000000.0 0.9595 0.08131
5394000000.0 0.6411 -0.7241
5397000000.0 -0.1668 -0.9401
5400000000.0 -0.809 -0.4504
5403000000.0 -0.8634 0.3252
5406000000.0 -0.2519 0.8479
5409000000.0 0.5133 0.7507
5412000000.0 0.8768 0.04644
5416000000.0 0.5756 -0.6491
5419000000.0 -0.1571 -0.8442
5422000000.0 -0.7729 -0.44
5425000000.0 -0.8344 0.3086
5428000000.0 -0.2539 0.8446
5431000000.0 0.4989 0.7285
5434000000.0 0.8695 0.07226
5438000000.0 0.5813 -0.6542
5441000000.0 -0.1363 -0.8589
5444000000.0 -0.7833 -0.4467
5447000000.0 -0.8029 0.3533
5450000000.0 -0.26 0.883
5453000000.0 0.4999 0.6947
5456000000.0 0.8846 0.1022
5459000000.0 0.6347 -0.66
5462000000.0 -0.08417 -0.892
5466000000.0 -0.7829 -0.4837
5469000000.0 -0.8897 0.2504
5472000000.0 -0.3545 0.8357
5475000000.0 0.4023 0.8392
5478000000.0 0.9197 0.2061
5481000000.0 0.743 -0.5804
5484000000.0 0.0619 -0.9607
5488000000.0 -0.7418 -0.6815
5491000000.0 -0.9557 0.1463
5494000000.0 -0.4786 0.8059
5497000000.0 0.3346 0.9777
5500000000.0 0.9623 0.3659
5503000000.0 0.8704 -0.4571
5506000000.0 0.2329 -1.016
5509000000.0 -0.6048 -0.8109
5512000000.0 -1.021 -0.02398
5516000000.0 -0.7266 0.7941
5519000000.0 0.1565 1.027
5522000000.0 0.8595 0.5424
5525000000.0 0.982 -0.3001
5528000000.0 0.4202 -0.9445
5531000000.0 -0.4975 -0.9097
5534000000.0 -1.03 -0.2298
5538000000.0 -0.859 0.6099
5541000000.0 -0.05559 1.069
5544000000.0 0.7841 0.7145
5547000000.0 1.059 -0.1434
5550000000.0 0.5474 -0.8832
5553000000.0 -0.3275 -0.9672
5556000000.0 -0.9642 -0.4299
5559000000.0 -0.9345 0.4901
5562000000.0 -0.2261 1.043
5566000000.0 0.6824 0.8273
5569000000.0 1.043 -0.007697
5572000000.0 0.6852 -0.7817
5575000000.0 -0.1807 -1.012
5578000000.0 -0.872 -0.4863
5581000000.0 -0.8928 0.3189
5584000000.0 -0.3057 0.9483
5588000000.0 0.5238 0.8253
5591000000.0 0.9562 0.1349
5594000000.0 0.7142 -0.6438
5597000000.0 -0.07789 -0.9698
5600000000.0 -0.7163 -0.5464
5603000000.0 -0.894 0.2301
5606000000.0 -0.3564 0.8349
5609000000.0 0.3881 0.822
5612000000.0 0.8922 0.1863
5616000000.0 0.6783 -0.5274
5619000000.0 0.02418 -0.8652
5622000000.0 -0.6778 -0.5567
5625000000.0 -0.8377 0.1404
5628000000.0 -0.3868 0.7339
5631000000.0 0.3419 0.7813
5634000000.0 0.8018 0.2208
5638000000.0 0.6852 -0.4802
5641000000.0 0.03417 -0.8566
5644000000.0 -0.6179 -0.5309
5647000000.0 -0.8391 0.1527
5650000000.0 -0.4252 0.7274
5653000000.0 0.3198 0.7871
5656000000.0 0.8268 0.2524
5659000000.0 0.7039 -0.514
5662000000.0 0.03788 -0.8702
5666000000.0 -0.6459 -0.6024
5669000000.0 -0.8804 0.1448
5672000000.0 -0.4395 0.7862
5675000000.0 0.3273 0.855
5678000000.0 0.8637 0.2763
5681000000.0 0.7341 -0.5057
5684000000.0 0.06121 -0.9467
5688000000.0 -0.6957 -0.6389
5691000000.0 -0.94 0.1077
5694000000.0 -0.5331 0.836
5697000000.0 0.3252 0.9157
5700000000.0 0.9594 0.3366
5703000000.0 0.8475 -0.5228
5706000000.0 0.1364 -1.018
5709000000.0 -0.7122 -0.7797
5712000000.0 -1.019 0.07843
5716000000.0 -0.5906 0.8361
5719000000.0 0.2493 1.042
5722000000.0 0.9553 0.4285
5725000000.0 0.9665 -0.4421
5728000000.0 0.2442 -1.035
5731000000.0 -0.6239 -0.8634
5734000000.0 -1.082 -0.05585
5738000000.0 -0.7582 0.775
5741000000.0 0.1315 1.093
5744000000.0 0.9209 0.6095
5747000000.0 1.063 -0.3105
5750000000.0 0.4538 -1.046
5753000000.0 -0.5086 -0.9801
5756000000.0 -1.066 -0.2267
5759000000.0 -0.894 0.6709
5762000000.0 -0.01895 1.079
5766000000.0 0.8432 0.7449
5769000000.0 1.094 -0.1681
5772000000.0 0.6105 -0.9456
5775000000.0 -0.3347 -1.049
5778000000.0 -1.037 -0.3861
5781000000.0 -1.019 0.5239
5784000000.0 -0.1854 1.052
5788000000.0 0.6978 0.8298
5791000000.0 1.11 -0.003965
5794000000.0 0.7331 -0.8243
5797000000.0 -0.1973 -1.089
5800000000.0 -0.9324 -0.5418
5803000000.0 -0.9916 0.3949
5806000000.0 -0.3501 1.019
5809000000.0 0.5446 0.8768
5812000000.0 1.044 0.1435
5816000000.0 0.7823 -0.7166
5819000000.0 -0.04471 -1.012
5822000000.0 -0.8212 -0.5908
5825000000.0 -0.989 0.2705
5828000000.0 -0.4189 0.8906
5831000000.0 0.4371 0.8716
5834000000.0 0.9709 0.2213
5838000000.0 0.7396 -0.5805
5841000000.0 0.0342 -0.9727
5844000000.0 -0.7183 -0.6244
5847000000.0 -0.9079 0.1987
5850000000.0 -0.466 0.826
5853000000.0 0.3554 0.8867
5856000000.0 0.8752 0.2644
5859000000.0 0.7393 -0.5477
5862000000.0 0.06298 -0.9228
5866000000.0 -0.7 -0.6186
5869000000.0 -0.8896 0.1271
5872000000.0 -0.4346 0.7615
5875000000.0 0.3394 0.8346
5878000000.0 0.8512 0.2491
5881000000.0 0.7191 -0.4743
5884000000.0 0.05866 -0.8604
5888000000.0 -0.6241 -0.6061
5891000000.0 -0.8275 0.09185
5894000000.0 -0.4647 0.7056
5897000000.0 0.2819 0.8503
5900000000.0 0.8165 0.3114
5903000000.0 0.7422 -0.4791
5906000000.0 0.1423 -0.8537
5909000000.0 -0.5874 -0.606
5912000000.0 -0.8763 0.02201
5916000000.0 -0.5063 0.7047
5919000000.0 0.2471 0.8755
5922000000.0 0.7991 0.3538
5925000000.0 0.7922 -0.4041
5928000000.0 0.1685 -0.8766
5931000000.0 -0.5191 -0.7034
5934000000.0 -0.9178 -0.06578
5938000000.0 -0.6167 0.6273
5941000000.0 0.1055 0.8797
5944000000.0 0.7538 0.466
5947000000.0 0.8672 -0.303
5950000000.0 0.3212 -0.8506
5953000000.0 -0.4447 -0.8215
5956000000.0 -0.9204 -0.1528
5959000000.0 -0.7438 0.5669
5962000000.0 0.001537 0.9366
5966000000.0 0.7162 0.658
5969000000.0 0.9744 -0.1495
5972000000.0 0.4862 -0.8189
5975000000.0 -0.3318 -0.9268
5978000000.0 -0.9272 -0.3561
5981000000.0 -0.857 0.4938
5984000000.0 -0.1731 0.9729
5988000000.0 0.6132 0.7634
5991000000.0 0.9916 0.01235
5994000000.0 0.6386 -0.7695
5997000000.0 -0.1937 -0.9901
6000000000.0 -0.9109 -0.4579
6003000000.0 -0.9182 0.3313
6006000000.0 -0.3101 0.9231
6009000000.0 0.5251 0.8385
6012000000.0 1.011 0.1072
6016000000.0 0.74 -0.665
6019000000.0 -0.07322 -1.015
6022000000.0 -0.8008 -0.5754
6025000000.0 -0.9383 0.2593
6028000000.0 -0.3884 0.9158
6031000000.0 0.4433 0.8785
6034000000.0 0.9884 0.2176
6038000000.0 0.7782 -0.6232
6041000000.0 0.02672 -0.9591
6044000000.0 -0.7339 -0.6224
6047000000.0 -0.9584 0.183
6050000000.0 -0.4426 0.8477
6053000000.0 0.3776 0.8694
6056000000.0 0.8867 0.2601
6059000000.0 0.7585 -0.5354
6062000000.0 0.04243 -0.9447
6066000000.0 -0.6533 -0.6278
6069000000.0 -0.8997 0.1304
6072000000.0 -0.4677 0.7604
6075000000.0 0.2894 0.8491
6078000000.0 0.8397 0.2879
6081000000.0 0.7644 -0.4831
6084000000.0 0.1135 -0.8504
6088000000.0 -0.6022 -0.6112
6091000000.0 -0.8723 0.09439
6094000000.0 -0.4839 0.7202
6097000000.0 0.2442 0.8199
6100000000.0 0.7982 0.2818
6103000000.0 0.7507 -0.403
6106000000.0 0.1858 -0.8598
6109000000.0 -0.5815 -0.6459
6112000000.0 -0.8409 0.03676
6116000000.0 -0.5081 0.6973
6119000000.0 0.2053 0.8504
6122000000.0 0.7821 0.369
6125000000.0 0.7874 -0.3983
6128000000.0 0.1771 -0.8529
6131000000.0 -0.556 -0.697
6134000000.0 -0.8726 -0.01984
6138000000.0 -0.5546 0.6955
6141000000.0 0.1698 0.8687
6144000000.0 0.7763 0.3825
6147000000.0 0.8144 -0.3448
6150000000.0 0.2545 -0.8451
6153000000.0 -0.5193 -0.7385
6156000000.0 -0.8861 -0.07759
6159000000.0 -0.6405 0.6922
6162000000.0 0.1173 0.9352
6166000000.0 0.7737 0.4944
6169000000.0 0.8875 -0.2654
6172000000.0 0.3541 -0.8985
6175000000.0 -0.4556 -0.8068
6178000000.0 -0.9396 -0.1406
6181000000.0 -0.7265 0.6416
6184000000.0 0.05397 0.9154
6188000000.0 0.7429 0.5797
6191000000.0 0.9244 -0.229
6194000000.0 0.3579 -0.8556
6197000000.0 -0.3982 -0.8532
6200000000.0 -0.8897 -0.2671
6203000000.0 -0.7577 0.5297
6206000000.0 -0.01813 0.9562
6209000000.0 0.6608 0.6473
6212000000.0 0.927 -0.1129
6216000000.0 0.4973 -0.7662
6219000000.0 -0.2865 -0.8808
6222000000.0 -0.8814 -0.3099
6225000000.0 -0.7967 0.4364
6228000000.0 -0.1771 0.9293
6231000000.0 0.5565 0.7285
6234000000.0 0.9099 -0.02657
6238000000.0 0.5451 -0.685
6241000000.0 -0.1665 -0.845
6244000000.0 -0.7561 -0.4008
6247000000.0 -0.8082 0.3213
6250000000.0 -0.2716 0.814
6253000000.0 0.4406 0.7314
6256000000.0 0.8182 0.1224
6259000000.0 0.6113 -0.5486
6262000000.0 -0.0004831 -0.8243
6266000000.0 -0.6407 -0.5051
