! Created with skrf 1.8.0 (http://scikit-rf.org).
# Hz S RI R 50.0 
!freq ReS11 ImS11
4000000000.0 -0.1768 -1.448
4003000000.0 -1.262 -0.8001
4006000000.0 -1.449 0.4647
4009000000.0 -0.497 1.39
4012000000.0 0.7699 1.299
4016000000.0 1.515 0.2254
4019000000.0 1.137 -1.096
4022000000.0 -0.1594 -1.594
4025000000.0 -1.295 -0.8936
4028000000.0 -1.522 0.4981
4031000000.0 -0.5599 1.504
4034000000.0 0.8202 1.379
4038000000.0 1.627 0.2144
4041000000.0 1.147 -1.091
4044000000.0 -0.1691 -1.645
4047000000.0 -1.365 -0.9206
4050000000.0 -1.553 0.4715
4053000000.0 -0.6199 1.525
4056000000.0 0.7519 1.415
4059000000.0 1.583 0.3
4062000000.0 1.25 -1.006
4066000000.0 0.03317 -1.612
4069000000.0 -1.233 -1.06
4072000000.0 -1.591 0.2805
4075000000.0 -0.7447 1.468
4078000000.0 0.5577 1.524
4081000000.0 1.595 0.5464
4084000000.0 1.406 -0.8596
4088000000.0 0.2114 -1.614
4091000000.0 -1.111 -1.212
4094000000.0 -1.606 0.1053
4097000000.0 -0.9806 1.309
4100000000.0 0.404 1.572
4103000000.0 1.415 0.7195
4106000000.0 1.425 -0.6138
4109000000.0 0.4282 -1.501
4112000000.0 -0.8739 -1.292
4116000000.0 -1.502 -0.223
4119000000.0 -1.08 0.9935
4122000000.0 0.0334 1.476
4125000000.0 1.162 0.9035
4128000000.0 1.404 -0.2345
4131000000.0 0.7748 -1.233
4134000000.0 -0.4464 -1.392
4138000000.0 -1.377 -0.565
4141000000.0 -1.346 0.6621
4144000000.0 -0.343 1.48
4147000000.0 0.8506 1.21
4150000000.0 1.535 0.1542
4153000000.0 1.04 -1.04
4156000000.0 -0.1465 -1.517
4159000000.0 -1.254 -0.8556
4162000000.0 -1.458 0.3915
4166000000.0 -0.6365 1.382
4169000000.0 0.6115 1.349
4172000000.0 1.442 0.3969
4175000000.0 1.21 -0.8313
4178000000.0 0.1414 -1.472
4181000000.0 -1.067 -1.073
4184000000.0 -1.473 0.09453
4188000000.0 -0.8635 1.251
4191000000.0 0.4056 1.469
4194000000.0 1.368 0.624
4197000000.0 1.386 -0.6538
4200000000.0 0.3192 -1.529
4203000000.0 -0.9772 -1.278
4206000000.0 -1.566 -0.03233
4209000000.0 -1.012 1.217
4212000000.0 0.348 1.593
4216000000.0 1.502 0.7238
4219000000.0 1.527 -0.8166
4222000000.0 0.2931 -1.653
4225000000.0 -1.126 -1.192
4228000000.0 -1.659 0.1773
4231000000.0 -0.8828 1.37
4234000000.0 0.5652 1.567
4238000000.0 1.544 0.494
4241000000.0 1.263 -0.9837
4244000000.0 0.03839 -1.601
4247000000.0 -1.242 -1.025
4250000000.0 -1.484 0.3271
4253000000.0 -0.6139 1.429
4256000000.0 0.7013 1.315
4259000000.0 1.488 0.2507
4262000000.0 1.142 -1.025
4266000000.0 -0.1037 -1.481
4269000000.0 -1.243 -0.8139
4272000000.0 -1.403 0.444
4275000000.0 -0.4942 1.395
4278000000.0 0.7795 1.23
4281000000.0 1.41 0.1644
4284000000.0 0.9395 -0.9923
4288000000.0 -0.1477 -1.402
4291000000.0 -1.186 -0.7231
4294000000.0 -1.251 0.4797
4297000000.0 -0.4677 1.263
4300000000.0 0.6737 1.119
4303000000.0 1.25 0.2225
4306000000.0 0.9834 -0.8249
4309000000.0 -0.03888 -1.287
4312000000.0 -0.9751 -0.8034
4316000000.0 -1.262 0.243
4319000000.0 -0.6356 1.177
4322000000.0 0.4514 1.198
4325000000.0 1.205 0.4849
4328000000.0 1.167 -0.6499
4331000000.0 0.2659 -1.334
4334000000.0 -0.8642 -1.098
4338000000.0 -1.363 -0.005602
4341000000.0 -0.9072 1.059
4344000000.0 0.2269 1.399
4347000000.0 1.209 0.7202
4350000000.0 1.347 -0.5319
4353000000.0 0.489 -1.34
4356000000.0 -0.765 -1.226
4359000000.0 -1.399 -0.2082
4362000000.0 -1.086 0.9453
4366000000.0 0.05307 1.48
4369000000.0 1.165 0.8659
4372000000.0 1.415 -0.3116
4375000000.0 0.6595 -1.322
4378000000.0 -0.5723 -1.359
4381000000.0 -1.453 -0.4273
4384000000.0 -1.249 0.8915
4388000000.0 -0.1417 1.511
4391000000.0 1.118 1.087
4394000000.0 1.56 -0.2028
4397000000.0 0.8139 -1.34
4400000000.0 -0.5646 -1.492
4403000000.0 -1.511 -0.5121
4406000000.0 -1.316 0.8789
4409000000.0 -0.1019 1.558
4412000000.0 1.151 1.073
4416000000.0 1.52 -0.2638
4419000000.0 0.7545 -1.35
4422000000.0 -0.6155 -1.36
4425000000.0 -1.448 -0.3727
4428000000.0 -1.17 0.8841
4431000000.0 -0.04323 1.434
4434000000.0 1.146 0.8848
4438000000.0 1.394 -0.3072
4441000000.0 0.5982 -1.265
4444000000.0 -0.6099 -1.227
4447000000.0 -1.341 -0.285
4450000000.0 -0.9779 0.8928
4453000000.0 0.08736 1.326
4456000000.0 1.046 0.7375
4459000000.0 1.223 -0.3945
4462000000.0 0.4065 -1.174
4466000000.0 -0.6982 -1.041
4469000000.0 -1.187 -0.1021
4472000000.0 -0.8002 0.8975
4475000000.0 0.2011 1.195
4478000000.0 1.02 0.5575
4481000000.0 1.094 -0.4705
4484000000.0 0.2528 -1.117
4488000000.0 -0.6667 -0.9311
4491000000.0 -1.116 0.00635
4494000000.0 -0.7359 0.8991
4497000000.0 0.181 1.133
4500000000.0 0.9814 0.5294
4503000000.0 0.9775 -0.4525
4506000000.0 0.296 -1.054
4509000000.0 -0.6515 -0.8752
4512000000.0 -1.114 -0.06484
4516000000.0 -0.7517 0.8416
4519000000.0 0.1415 1.116
4522000000.0 0.9674 0.5863
4525000000.0 1.073 -0.3774
4528000000.0 0.3737 -1.08
4531000000.0 -0.6081 -0.9903
4534000000.0 -1.155 -0.1635
4538000000.0 -0.8633 0.7715
4541000000.0 0.06275 1.173
4544000000.0 0.9654 0.7259
4547000000.0 1.166 -0.2757
4550000000.0 0.5309 -1.057
4553000000.0 -0.5156 -1.104
4556000000.0 -1.181 -0.361
4559000000.0 -1.012 0.6917
4562000000.0 -0.1123 1.235
4566000000.0 0.8459 0.8892
4569000000.0 1.246 -0.06999
4572000000.0 0.7298 -1.041
4575000000.0 -0.3136 -1.263
4578000000.0 -1.159 -0.5654
4581000000.0 -1.188 0.5174
4584000000.0 -0.3644 1.286
4588000000.0 0.7675 1.097
4591000000.0 1.325 0.1078
4594000000.0 0.9811 -0.978
4597000000.0 -0.14 -1.389
4600000000.0 -1.17 -0.7561
4603000000.0 -1.34 0.3939
4606000000.0 -0.537 1.276
4609000000.0 0.6394 1.213
4612000000.0 1.362 0.2579
4616000000.0 1.036 -0.8867
4619000000.0 -0.01202 -1.388
4622000000.0 -1.068 -0.8785
4625000000.0 -1.337 0.3026
4628000000.0 -0.6185 1.232
4631000000.0 0.5357 1.261
4634000000.0 1.329 0.3407
4638000000.0 1.103 -0.769
4641000000.0 0.04536 -1.384
4644000000.0 -1.039 -0.9051
4647000000.0 -1.308 0.2312
4650000000.0 -0.6232 1.163
4653000000.0 0.5065 1.203
4656000000.0 1.254 0.3381
4659000000.0 1.042 -0.7492
4662000000.0 0.03095 -1.249
4666000000.0 -0.9575 -0.8249
4669000000.0 -1.178 0.2714
4672000000.0 -0.5273 1.061
4675000000.0 0.4885 1.079
4678000000.0 1.107 0.2702
4681000000.0 0.9005 -0.7087
4684000000.0 0.01205 -1.107
4688000000.0 -0.8314 -0.6947
4691000000.0 -1.104 0.2589
4694000000.0 -0.4832 0.9848
4697000000.0 0.4508 1.004
4700000000.0 1.074 0.2575
4703000000.0 0.8267 -0.6847
4706000000.0 -0.003168 -1.105
4709000000.0 -0.8321 -0.6538
4712000000.0 -1.047 0.2345
4716000000.0 -0.4797 0.9547
4719000000.0 0.4727 0.9322
4722000000.0 1.046 0.2467
4725000000.0 0.8256 -0.6679
4728000000.0 -0.01676 -1.051
4731000000.0 -0.8314 -0.6925
4734000000.0 -1.04 0.2215
4738000000.0 -0.4836 0.8957
4741000000.0 0.4069 0.9485
4744000000.0 0.9718 0.296
4747000000.0 0.8947 -0.5662
4750000000.0 0.155 -1.06
4753000000.0 -0.7493 -0.7637
4756000000.0 -1.086 0.07166
4759000000.0 -0.6413 0.8979
4762000000.0 0.2717 1.074
4766000000.0 1.007 0.4766
4769000000.0 1.017 -0.4559
4772000000.0 0.3067 -1.133
4775000000.0 -0.6568 -0.9596
4778000000.0 -1.167 -0.08399
4781000000.0 -0.8488 0.8205
4784000000.0 0.1099 1.186
4788000000.0 0.9935 0.6922
4791000000.0 1.174 -0.2883
4794000000.0 0.5539 -1.101
4797000000.0 -0.533 -1.129
4800000000.0 -1.187 -0.3384
4803000000.0 -1.032 0.6765
4806000000.0 -0.1618 1.246
4809000000.0 0.861 0.9269
4812000000.0 1.299 -0.05925
4816000000.0 0.7884 -1.042
4819000000.0 -0.3358 -1.312
4822000000.0 -1.179 -0.6006
4825000000.0 -1.227 0.5569
4828000000.0 -0.3589 1.328
4831000000.0 0.8057 1.112
4834000000.0 1.369 0.1045
4838000000.0 0.966 -1.019
4841000000.0 -0.1919 -1.398
4844000000.0 -1.177 -0.7157
4847000000.0 -1.317 0.4448
4850000000.0 -0.4689 1.283
4853000000.0 0.6789 1.179
4856000000.0 1.324 0.207
4859000000.0 1.01 -0.9066
4862000000.0 -0.06066 -1.349
4866000000.0 -1.052 -0.8213
4869000000.0 -1.255 0.3197
4872000000.0 -0.5552 1.197
4875000000.0 0.5757 1.17
4878000000.0 1.241 0.2681
4881000000.0 0.9747 -0.7789
4884000000.0 0.007323 -1.226
4888000000.0 -0.9747 -0.7861
4891000000.0 -1.156 0.2533
4894000000.0 -0.537 1.034
4897000000.0 0.4829 1.052
4900000000.0 1.082 0.2771
4903000000.0 0.9085 -0.663
4906000000.0 0.01947 -1.086
4909000000.0 -0.8087 -0.7096
4912000000.0 -1.009 0.1613
4916000000.0 -0.5114 0.8861
4919000000.0 0.3643 0.9455
4922000000.0 0.9242 0.3172
4925000000.0 0.8237 -0.5087
4928000000.0 0.1029 -0.9789
4931000000.0 -0.6566 -0.671
4934000000.0 -0.9751 0.06787
4938000000.0 -0.5617 0.7476
4941000000.0 0.2552 0.8957
4944000000.0 0.8404 0.3997
4947000000.0 0.8634 -0.448
4950000000.0 0.2062 -0.9167
4953000000.0 -0.5511 -0.7414
4956000000.0 -0.9628 -0.007537
4959000000.0 -0.6389 0.7437
4962000000.0 0.1648 0.9674
4966000000.0 0.8675 0.4647
4969000000.0 0.9277 -0.3883
4972000000.0 0.284 -0.9483
4975000000.0 -0.5605 -0.8534
4978000000.0 -1.02 -0.06421
4981000000.0 -0.7434 0.7256
4984000000.0 0.1039 1.032
4988000000.0 0.8739 0.5783
4991000000.0 1.014 -0.3285
4994000000.0 0.4234 -0.9933
4997000000.0 -0.4863 -0.9788
5000000000.0 -1.113 -0.2754
5003000000.0 -0.9265 0.6823
5006000000.0 -0.06194 1.152
5009000000.0 0.8818 0.7752
5012000000.0 1.211 -0.1756
5016000000.0 0.6343 -1.059
5019000000.0 -0.4204 -1.158
5022000000.0 -1.153 -0.423
5025000000.0 -1.091 0.6474
5028000000.0 -0.1876 1.269
5031000000.0 0.8246 0.9583
5034000000.0 1.264 -0.03238
5038000000.0 0.8014 -1.027
5041000000.0 -0.2716 -1.263
5044000000.0 -1.139 -0.6008
5047000000.0 -1.165 0.475
5050000000.0 -0.3759 1.254
5053000000.0 0.6896 1.062
5056000000.0 1.276 0.1508
5059000000.0 0.9052 -0.8715
5062000000.0 -0.08792 -1.304
5066000000.0 -1.047 -0.7621
5069000000.0 -1.252 0.282
5072000000.0 -0.5585 1.158
5075000000.0 0.5165 1.168
5078000000.0 1.216 0.3398
5081000000.0 1.022 -0.6632
5084000000.0 0.1233 -1.246
5088000000.0 -0.8466 -0.8537
5091000000.0 -1.215 0.1289
5094000000.0 -0.6708 0.947
5097000000.0 0.2953 1.133
5100000000.0 1.031 0.4646
5103000000.0 1.005 -0.469
5106000000.0 0.2952 -1.07
5109000000.0 -0.6352 -0.8845
5112000000.0 -1.097 -0.1154
5116000000.0 -0.7485 0.7602
5119000000.0 0.094 1.06
5122000000.0 0.8737 0.5861
5125000000.0 0.9779 -0.2695
5128000000.0 0.4345 -0.9364
5131000000.0 -0.4463 -0.8946
5134000000.0 -0.9445 -0.2107
5138000000.0 -0.7647 0.5958
5141000000.0 -0.03718 0.9655
5144000000.0 0.7449 0.6122
5147000000.0 0.9078 -0.1755
5150000000.0 0.4353 -0.8031
5153000000.0 -0.3427 -0.8512
5156000000.0 -0.8822 -0.2558
5159000000.0 -0.7597 0.5066
5162000000.0 -0.1208 0.8953
5166000000.0 0.613 0.6292
5169000000.0 0.8997 -0.09771
5172000000.0 0.5172 -0.7379
5175000000.0 -0.2718 -0.8581
5178000000.0 -0.8589 -0.3125
5181000000.0 -0.7956 0.4572
5184000000.0 -0.1444 0.9062
5188000000.0 0.6342 0.6997
5191000000.0 0.9046 -0.05424
5194000000.0 0.5327 -0.762
5197000000.0 -0.2742 -0.8917
5200000000.0 -0.8968 -0.3502
5203000000.0 -0.8307 0.4517
5206000000.0 -0.1639 0.9336
5209000000.0 0.6306 0.697
5212000000.0 0.9692 -0.05115
5216000000.0 0.5725 -0.798
5219000000.0 -0.2641 -0.9739
5222000000.0 -0.9083 -0.4462
5225000000.0 -0.8943 0.4356
5228000000.0 -0.2322 0.9519
5231000000.0 0.619 0.7926
5234000000.0 1.022 0.04876
5238000000.0 0.6799 -0.7639
5241000000.0 -0.185 -1.016
5244000000.0 -0.9196 -0.5383
5247000000.0 -1.007 0.3745
5250000000.0 -0.3654 0.9933
5253000000.0 0.536 0.9219
5256000000.0 1.05 0.1946
5259000000.0 0.8305 -0.7178
5262000000.0 -0.05129 -1.071
5266000000.0 -0.8427 -0.6738
5269000000.0 -1.06 0.1995
5272000000.0 -0.5 0.9667
5275000000.0 0.3908 1.048
5278000000.0 1.028 0.3695
5281000000.0 0.9403 -0.565
5284000000.0 0.2117 -1.071
5288000000.0 -0.724 -0.8581
5291000000.0 -1.118 -0.01587
5294000000.0 -0.7373 0.8214
5297000000.0 0.1543 1.092
5300000000.0 0.931 0.5844
5303000000.0 1.072 -0.3201
5306000000.0 0.4374 -1.021
5309000000.0 -0.4977 -0.9827
5312000000.0 -1.104 -0.2224
5316000000.0 -0.8937 0.6946
5319000000.0 -0.05849 1.154
5322000000.0 0.8285 0.7816
5325000000.0 1.164 -0.1109
5328000000.0 0.6104 -0.9639
5331000000.0 -0.334 -1.111
5334000000.0 -1.032 -0.4088
5338000000.0 -0.997 0.56
5341000000.0 -0.235 1.117
5344000000.0 0.6943 0.8666
5347000000.0 1.116 -0.03269
5350000000.0 0.6858 -0.8549
5353000000.0 -0.2107 -1.081
5356000000.0 -0.9645 -0.4892
5359000000.0 -0.9756 0.4141
5362000000.0 -0.3347 1.022
5366000000.0 0.5876 0.8735
5369000000.0 1.076 0.09005
5372000000.0 0.7199 -0.7623
5375000000.0 -0.1382 -1.031
5378000000.0 -0.8845 -0.4926
5381000000.0 -0.9483 0.395
5384000000.0 -0.2817 0.9461
5388000000.0 0.5461 0.7968
5391000000.0 0.9621 0.08661
5394000000.0 0.6092 -0.7026
5397000000.0 -0.1538 -0.9129
5400000000.0 -0.8101 -0.4128
5403000000.0 -0.853 0.363
5406000000.0 -0.2367 0.8665
5409000000.0 0.5246 0.6901
5412000000.0 0.8743 0.02915
5416000000.0 0.5698 -0.6661
5419000000.0 -0.1871 -0.8691
5422000000.0 -0.7385 -0.3939
5425000000.0 -0.77 0.3361
5428000000.0 -0.1871 0.8603
5431000000.0 0.5041 0.6937
5434000000.0 0.8668 0.008084
5438000000.0 0.5662 -0.6615
5441000000.0 -0.1515 -0.8517
5444000000.0 -0.7738 -0.43
5447000000.0 -0.8357 0.3293
5450000000.0 -0.2355 0.8589
5453000000.0 0.5237 0.6819
5456000000.0 0.8896 0.06433
5459000000.0 0.6053 -0.6582
5462000000.0 -0.09348 -0.9221
5466000000.0 -0.7583 -0.4779
5469000000.0 -0.8868 0.2749
5472000000.0 -0.3074 0.8343
5475000000.0 0.459 0.7995
5478000000.0 0.9139 0.1822
5481000000.0 0.7393 -0.6094
5484000000.0 0.01561 -0.9574
5488000000.0 -0.7351 -0.6279
5491000000.0 -0.9779 0.1433
5494000000.0 -0.5259 0.8286
5497000000.0 0.3374 0.953
5500000000.0 0.928 0.3518
5503000000.0 0.9174 -0.4841
5506000000.0 0.1575 -0.9874
5509000000.0 -0.6275 -0.7877
5512000000.0 -1.013 -0.02516
5516000000.0 -0.682 0.7835
5519000000.0 0.1474 1.009
5522000000.0 0.864 0.5582
5525000000.0 0.9517 -0.2944
5528000000.0 0.3919 -0.9712
5531000000.0 -0.4669 -0.9097
5534000000.0 -1.01 -0.1975
5538000000.0 -0.8167 0.6409
5541000000.0 -0.007914 1.075
5544000000.0 0.7784 0.7143
5547000000.0 1.037 -0.1632
5550000000.0 0.5666 -0.8946
5553000000.0 -0.3449 -0.9885
5556000000.0 -1.0 -0.3932
5559000000.0 -0.9233 0.5247
5562000000.0 -0.2151 1.024
5566000000.0 0.6521 0.8035
5569000000.0 1.016 -0.005391
5572000000.0 0.656 -0.7732
5575000000.0 -0.1837 -0.9802
5578000000.0 -0.8739 -0.4672
5581000000.0 -0.9083 0.3695
5584000000.0 -0.2945 0.9264
5588000000.0 0.5106 0.816
5591000000.0 0.9436 0.1314
5594000000.0 0.6846 -0.6589
5597000000.0 -0.08689 -0.9163
5600000000.0 -0.7547 -0.5395
5603000000.0 -0.8526 0.2571
5606000000.0 -0.3373 0.8169
5609000000.0 0.407 0.7963
5612000000.0 0.8442 0.1648
5616000000.0 0.674 -0.5553
5619000000.0 -0.01736 -0.8653
5622000000.0 -0.667 -0.492
5625000000.0 -0.8234 0.1831
5628000000.0 -0.3738 0.7565
5631000000.0 0.3566 0.7679
5634000000.0 0.8116 0.206
5638000000.0 0.668 -0.5135
5641000000.0 0.02066 -0.8359
5644000000.0 -0.6375 -0.5097
5647000000.0 -0.8165 0.1658
5650000000.0 -0.3727 0.7528
5653000000.0 0.355 0.7546
5656000000.0 0.8272 0.2099
5659000000.0 0.6601 -0.5215
5662000000.0 0.01009 -0.8961
5666000000.0 -0.666 -0.5656
5669000000.0 -0.8929 0.1629
5672000000.0 -0.4223 0.7599
5675000000.0 0.3207 0.8097
5678000000.0 0.8576 0.2483
5681000000.0 0.7471 -0.5295
5684000000.0 0.05984 -0.9265
5688000000.0 -0.7186 -0.6483
5691000000.0 -0.9613 0.1596
5694000000.0 -0.4683 0.8351
5697000000.0 0.3675 0.9152
5700000000.0 0.931 0.2986
5703000000.0 0.8404 -0.539
5706000000.0 0.1267 -1.021
5709000000.0 -0.7263 -0.7127
5712000000.0 -1.005 0.08597
5716000000.0 -0.5953 0.8598
5719000000.0 0.3083 1.011
5722000000.0 0.9893 0.3792
5725000000.0 0.9315 -0.4754
5728000000.0 0.2101 -1.033
5731000000.0 -0.6621 -0.8608
5734000000.0 -1.094 -0.02988
5738000000.0 -0.7147 0.8132
5741000000.0 0.1382 1.106
5744000000.0 0.9555 0.5427
5747000000.0 1.052 -0.334
5750000000.0 0.43 -1.032
5753000000.0 -0.5226 -0.9926
5756000000.0 -1.089 -0.1872
5759000000.0 -0.8904 0.6761
5762000000.0 -0.01828 1.103
5766000000.0 0.8643 0.7154
5769000000.0 1.084 -0.1869
5772000000.0 0.5464 -0.952
5775000000.0 -0.3778 -1.063
5778000000.0 -1.059 -0.3901
5781000000.0 -0.9404 0.5484
5784000000.0 -0.172 1.079
5788000000.0 0.7 0.8277
5791000000.0 1.051 -0.0004212
5794000000.0 0.6556 -0.8367
5797000000.0 -0.2008 -1.068
5800000000.0 -0.8993 -0.5448
5803000000.0 -0.9902 0.4033
5806000000.0 -0.3248 1.031
5809000000.0 0.5457 0.886
5812000000.0 1.043 0.09767
5816000000.0 0.7432 -0.6815
5819000000.0 -0.09836 -1.058
5822000000.0 -0.8348 -0.5742
5825000000.0 -0.9965 0.2774
5828000000.0 -0.3988 0.9101
5831000000.0 0.45 0.881
5834000000.0 1.005 0.1844
5838000000.0 0.7362 -0.6218
5841000000.0 0.0306 -0.9584
5844000000.0 -0.7432 -0.5893
5847000000.0 -0.9115 0.2081
5850000000.0 -0.4315 0.8488
5853000000.0 0.433 0.8511
5856000000.0 0.9002 0.2326
5859000000.0 0.7148 -0.5661
5862000000.0 0.01961 -0.9168
5866000000.0 -0.6968 -0.5968
5869000000.0 -0.8775 0.151
5872000000.0 -0.4011 0.7881
5875000000.0 0.3529 0.8079
5878000000.0 0.8237 0.1949
5881000000.0 0.7197 -0.517
5884000000.0 0.03057 -0.8876
5888000000.0 -0.6309 -0.5933
5891000000.0 -0.8412 0.1614
5894000000.0 -0.4068 0.7467
5897000000.0 0.3008 0.8144
5900000000.0 0.8095 0.2722
5903000000.0 0.7111 -0.4488
5906000000.0 0.1191 -0.8504
5909000000.0 -0.6113 -0.6073
5912000000.0 -0.8924 0.06628
5916000000.0 -0.5251 0.7032
5919000000.0 0.2349 0.8478
5922000000.0 0.8133 0.3385
5925000000.0 0.7316 -0.4064
5928000000.0 0.1554 -0.8953
5931000000.0 -0.5476 -0.6888
5934000000.0 -0.9009 0.01243
5938000000.0 -0.5745 0.6798
5941000000.0 0.1289 0.9009
5944000000.0 0.7635 0.4632
5947000000.0 0.8522 -0.3246
5950000000.0 0.3054 -0.855
5953000000.0 -0.4418 -0.8009
5956000000.0 -0.9212 -0.1361
5959000000.0 -0.7186 0.5666
5962000000.0 -0.02615 0.9702
5966000000.0 0.7161 0.5908
5969000000.0 0.9396 -0.1855
5972000000.0 0.4976 -0.8474
5975000000.0 -0.338 -0.9283
5978000000.0 -0.9078 -0.3362
5981000000.0 -0.8455 0.5075
5984000000.0 -0.1508 0.9831
5988000000.0 0.626 0.7242
5991000000.0 0.9875 -0.02772
5994000000.0 0.6286 -0.7899
5997000000.0 -0.2003 -0.9816
6000000000.0 -0.9026 -0.4513
6003000000.0 -0.9191 0.3906
6006000000.0 -0.2675 0.9467
6009000000.0 0.5714 0.8303
6012000000.0 0.9795 0.08342
6016000000.0 0.7046 -0.7358
6019000000.0 -0.1286 -0.9791
6022000000.0 -0.8293 -0.5532
6025000000.0 -0.9272 0.2899
6028000000.0 -0.3676 0.9036
6031000000.0 0.4782 0.8566
6034000000.0 0.9535 0.1781
6038000000.0 0.7373 -0.6251
6041000000.0 -0.03213 -0.9673
6044000000.0 -0.7453 -0.5864
6047000000.0 -0.9602 0.231
6050000000.0 -0.4322 0.8482
6053000000.0 0.3819 0.8438
6056000000.0 0.8896 0.2269
6059000000.0 0.7215 -0.5841
6062000000.0 0.04079 -0.9009
6066000000.0 -0.6886 -0.5685
6069000000.0 -0.8947 0.1604
6072000000.0 -0.4325 0.7826
6075000000.0 0.3224 0.8035
6078000000.0 0.8454 0.2452
6081000000.0 0.7064 -0.4837
6084000000.0 0.06541 -0.8697
6088000000.0 -0.6285 -0.5623
6091000000.0 -0.8475 0.103
6094000000.0 -0.428 0.7474
6097000000.0 0.2779 0.7827
6100000000.0 0.826 0.3134
6103000000.0 0.7257 -0.4559
6106000000.0 0.09764 -0.851
6109000000.0 -0.5996 -0.6121
6112000000.0 -0.8578 0.06659
6116000000.0 -0.5104 0.6994
6119000000.0 0.2466 0.8254
6122000000.0 0.8119 0.3081
6125000000.0 0.767 -0.429
6128000000.0 0.1476 -0.8376
6131000000.0 -0.5698 -0.6736
6134000000.0 -0.8867 0.01839
6138000000.0 -0.5143 0.714
6141000000.0 0.2241 0.8765
6144000000.0 0.7636 0.3801
6147000000.0 0.8104 -0.4207
6150000000.0 0.2116 -0.8771
6153000000.0 -0.5685 -0.7145
6156000000.0 -0.9235 -0.02437
6159000000.0 -0.5927 0.6724
6162000000.0 0.1412 0.921
6166000000.0 0.8415 0.478
6169000000.0 0.8804 -0.3375
6172000000.0 0.2795 -0.8906
6175000000.0 -0.4823 -0.7561
6178000000.0 -0.9605 -0.1038
6181000000.0 -0.6782 0.6463
6184000000.0 0.04872 0.9429
6188000000.0 0.7909 0.5486
6191000000.0 0.8931 -0.2518
6194000000.0 0.3642 -0.8652
6197000000.0 -0.4549 -0.8203
6200000000.0 -0.8865 -0.1616
6203000000.0 -0.7395 0.5809
6206000000.0 -0.009652 0.9492
6209000000.0 0.7436 0.6191
6212000000.0 0.9054 -0.1882
6216000000.0 0.453 -0.8147
6219000000.0 -0.3465 -0.8474
6222000000.0 -0.8638 -0.3142
6225000000.0 -0.7905 0.4644
6228000000.0 -0.1382 0.9123
6231000000.0 0.5872 0.6758
6234000000.0 0.906 -0.0363
6238000000.0 0.5202 -0.6968
6241000000.0 -0.2009 -0.8713
6244000000.0 -0.7917 -0.3872
6247000000.0 -0.768 0.3336
6250000000.0 -0.2506 0.847
6253000000.0 0.4756 0.6862
6256000000.0 0.8458 0.09731
6259000000.0 0.6053 -0.539
6262000000.0 -0.08261 -0.8216
6266000000.0 -0.6398 -0.4884
