! Created with skrf 1.8.0 (http://scikit-rf.org).
# Hz S RI R 50.0 
!freq ReS11 ImS11
4000000000.0 -0.1537 -1.511
4003000000.0 -1.27 -0.7607
4006000000.0 -1.429 0.4809
4009000000.0 -0.5044 1.449
4012000000.0 0.8094 1.221
4016000000.0 1.458 0.2248
4019000000.0 1.092 -1.049
4022000000.0 -0.1545 -1.54
4025000000.0 -1.308 -0.8473
4028000000.0 -1.508 0.4758
4031000000.0 -0.5822 1.545
4034000000.0 0.8387 1.359
4038000000.0 1.615 0.1853
4041000000.0 1.143 -1.082
4044000000.0 -0.1046 -1.601
4047000000.0 -1.364 -0.915
4050000000.0 -1.497 0.423
4053000000.0 -0.5993 1.487
4056000000.0 0.7792 1.421
4059000000.0 1.584 0.3267
4062000000.0 1.217 -1.023
4066000000.0 0.0155 -1.589
4069000000.0 -1.246 -1.053
4072000000.0 -1.625 0.2609
4075000000.0 -0.7787 1.424
4078000000.0 0.5764 1.51
4081000000.0 1.578 0.507
4084000000.0 1.366 -0.8423
4088000000.0 0.1973 -1.644
4091000000.0 -1.106 -1.184
4094000000.0 -1.635 0.06372
4097000000.0 -0.976 1.329
4100000000.0 0.3858 1.561
4103000000.0 1.436 0.6771
4106000000.0 1.456 -0.6084
4109000000.0 0.4159 -1.486
4112000000.0 -0.8798 -1.259
4116000000.0 -1.488 -0.1873
4119000000.0 -1.113 0.9719
4122000000.0 0.04537 1.493
4125000000.0 1.121 0.9109
4128000000.0 1.453 -0.2321
4131000000.0 0.7503 -1.261
4134000000.0 -0.4613 -1.449
4138000000.0 -1.368 -0.5742
4141000000.0 -1.354 0.6631
4144000000.0 -0.3679 1.447
4147000000.0 0.8592 1.221
4150000000.0 1.484 0.141
4153000000.0 1.059 -1.107
4156000000.0 -0.1476 -1.501
4159000000.0 -1.239 -0.8696
4162000000.0 -1.454 0.4182
4166000000.0 -0.6253 1.37
4169000000.0 0.6032 1.384
4172000000.0 1.452 0.3789
4175000000.0 1.258 -0.8392
4178000000.0 0.1718 -1.482
4181000000.0 -1.05 -1.1
4184000000.0 -1.474 0.1265
4188000000.0 -0.8707 1.229
4191000000.0 0.4141 1.484
4194000000.0 1.399 0.614
4197000000.0 1.38 -0.6727
4200000000.0 0.372 -1.532
4203000000.0 -0.9872 -1.227
4206000000.0 -1.637 -0.008858
4209000000.0 -1.003 1.289
4212000000.0 0.3648 1.592
4216000000.0 1.518 0.6956
4219000000.0 1.503 -0.7526
4222000000.0 0.2977 -1.676
4225000000.0 -1.131 -1.276
4228000000.0 -1.649 0.1299
4231000000.0 -0.8702 1.416
4234000000.0 0.5992 1.542
4238000000.0 1.571 0.479
4241000000.0 1.324 -0.9903
4244000000.0 0.03499 -1.58
4247000000.0 -1.258 -1.02
4250000000.0 -1.529 0.3599
4253000000.0 -0.6352 1.393
4256000000.0 0.7045 1.356
4259000000.0 1.517 0.2529
4262000000.0 1.114 -1.016
4266000000.0 -0.1094 -1.525
4269000000.0 -1.248 -0.8117
4272000000.0 -1.377 0.4769
4275000000.0 -0.482 1.383
4278000000.0 0.7668 1.26
4281000000.0 1.413 0.131
4284000000.0 0.9745 -1.021
4288000000.0 -0.1559 -1.384
4291000000.0 -1.186 -0.7448
4294000000.0 -1.297 0.4609
4297000000.0 -0.4387 1.245
4300000000.0 0.6713 1.138
4303000000.0 1.284 0.2188
4306000000.0 0.9639 -0.8396
4309000000.0 0.001696 -1.273
4312000000.0 -0.9771 -0.819
4316000000.0 -1.265 0.2176
4319000000.0 -0.6621 1.102
4322000000.0 0.4118 1.217
4325000000.0 1.184 0.4622
4328000000.0 1.175 -0.6654
4331000000.0 0.2594 -1.295
4334000000.0 -0.8398 -1.022
4338000000.0 -1.386 -0.03816
4341000000.0 -0.897 1.082
4344000000.0 0.2647 1.35
4347000000.0 1.222 0.7222
4350000000.0 1.337 -0.4953
4353000000.0 0.4637 -1.344
4356000000.0 -0.7483 -1.23
4359000000.0 -1.426 -0.1793
4362000000.0 -1.087 0.9532
4366000000.0 0.0383 1.453
4369000000.0 1.176 0.8913
4372000000.0 1.412 -0.3074
4375000000.0 0.6878 -1.302
4378000000.0 -0.5864 -1.346
4381000000.0 -1.438 -0.4161
4384000000.0 -1.279 0.8527
4388000000.0 -0.1124 1.5
4391000000.0 1.153 1.074
4394000000.0 1.545 -0.2047
4397000000.0 0.8175 -1.346
4400000000.0 -0.5328 -1.471
4403000000.0 -1.5 -0.4875
4406000000.0 -1.293 0.8984
4409000000.0 -0.1216 1.588
4412000000.0 1.13 1.065
4416000000.0 1.522 -0.2571
4419000000.0 0.7193 -1.317
4422000000.0 -0.5781 -1.398
4425000000.0 -1.435 -0.3738
4428000000.0 -1.167 0.8686
4431000000.0 -0.0295 1.45
4434000000.0 1.114 0.9264
4438000000.0 1.342 -0.3383
4441000000.0 0.5565 -1.26
4444000000.0 -0.5932 -1.21
4447000000.0 -1.353 -0.2401
4450000000.0 -0.9872 0.8601
4453000000.0 0.0923 1.295
4456000000.0 1.077 0.7495
4459000000.0 1.225 -0.4002
4462000000.0 0.389 -1.187
4466000000.0 -0.6921 -1.026
4469000000.0 -1.192 -0.1112
4472000000.0 -0.8075 0.8895
4475000000.0 0.2241 1.163
4478000000.0 1.054 0.5606
4481000000.0 1.069 -0.4475
4484000000.0 0.2783 -1.122
4488000000.0 -0.6913 -0.9055
4491000000.0 -1.145 -0.04428
4494000000.0 -0.7052 0.8695
4497000000.0 0.2172 1.098
4500000000.0 0.9858 0.5502
4503000000.0 0.9761 -0.43
4506000000.0 0.2758 -1.065
4509000000.0 -0.6384 -0.8927
4512000000.0 -1.069 -0.06937
4516000000.0 -0.7287 0.8339
4519000000.0 0.1888 1.094
4522000000.0 0.98 0.5727
4525000000.0 1.064 -0.394
4528000000.0 0.3697 -1.097
4531000000.0 -0.592 -0.9647
4534000000.0 -1.131 -0.1196
4538000000.0 -0.8419 0.785
4541000000.0 0.07819 1.195
4544000000.0 0.9613 0.6926
4547000000.0 1.155 -0.2795
4550000000.0 0.5431 -1.084
4553000000.0 -0.4986 -1.107
4556000000.0 -1.192 -0.3362
4559000000.0 -1.006 0.6936
4562000000.0 -0.1525 1.215
4566000000.0 0.8807 0.9111
4569000000.0 1.278 -0.1006
4572000000.0 0.753 -1.026
4575000000.0 -0.3013 -1.263
4578000000.0 -1.205 -0.5518
4581000000.0 -1.232 0.5306
4584000000.0 -0.3361 1.274
4588000000.0 0.779 1.094
4591000000.0 1.343 0.1127
4594000000.0 0.9344 -1.019
4597000000.0 -0.1851 -1.371
4600000000.0 -1.14 -0.7466
4603000000.0 -1.319 0.4556
4606000000.0 -0.5293 1.299
4609000000.0 0.6527 1.195
4612000000.0 1.386 0.2488
4616000000.0 1.058 -0.9026
4619000000.0 -0.03819 -1.384
4622000000.0 -1.087 -0.8567
4625000000.0 -1.35 0.3253
4628000000.0 -0.5897 1.246
4631000000.0 0.5759 1.235
4634000000.0 1.315 0.3261
4638000000.0 1.082 -0.8454
4641000000.0 0.06031 -1.363
4644000000.0 -1.007 -0.8915
4647000000.0 -1.302 0.2533
4650000000.0 -0.598 1.194
4653000000.0 0.5576 1.198
4656000000.0 1.275 0.3217
4659000000.0 0.9995 -0.7753
4662000000.0 0.03498 -1.238
4666000000.0 -0.9318 -0.786
4669000000.0 -1.186 0.2854
4672000000.0 -0.4982 1.057
4675000000.0 0.5113 1.048
4678000000.0 1.105 0.2388
4681000000.0 0.8826 -0.6757
4684000000.0 -0.02154 -1.141
4688000000.0 -0.8984 -0.7221
4691000000.0 -1.102 0.2491
4694000000.0 -0.4769 0.9908
4697000000.0 0.4666 0.988
4700000000.0 1.064 0.2463
4703000000.0 0.8278 -0.68
4706000000.0 -0.006636 -1.09
4709000000.0 -0.8405 -0.6544
4712000000.0 -1.03 0.2354
4716000000.0 -0.4734 0.9465
4719000000.0 0.5114 0.9223
4722000000.0 1.042 0.2351
4725000000.0 0.8119 -0.6474
4728000000.0 -0.008672 -1.065
4731000000.0 -0.8216 -0.6209
4734000000.0 -1.02 0.2116
4738000000.0 -0.4849 0.9274
4741000000.0 0.39 0.939
4744000000.0 0.9969 0.322
4747000000.0 0.8896 -0.5648
4750000000.0 0.1319 -1.055
4753000000.0 -0.7263 -0.7923
4756000000.0 -1.111 0.0994
4759000000.0 -0.6535 0.9204
4762000000.0 0.269 1.066
4766000000.0 1.044 0.4877
4769000000.0 1.051 -0.4779
4772000000.0 0.3322 -1.112
4775000000.0 -0.6942 -0.9614
4778000000.0 -1.158 -0.09322
4781000000.0 -0.8394 0.861
4784000000.0 0.1004 1.18
4788000000.0 0.9833 0.6805
4791000000.0 1.179 -0.302
4794000000.0 0.532 -1.109
4797000000.0 -0.5413 -1.141
4800000000.0 -1.194 -0.3569
4803000000.0 -1.021 0.6561
4806000000.0 -0.1559 1.253
4809000000.0 0.8748 0.9041
4812000000.0 1.291 -0.05606
4816000000.0 0.7961 -1.034
4819000000.0 -0.2925 -1.279
4822000000.0 -1.195 -0.6035
4825000000.0 -1.239 0.5599
4828000000.0 -0.358 1.309
4831000000.0 0.8003 1.134
4834000000.0 1.364 0.07258
4838000000.0 0.9512 -1.005
4841000000.0 -0.1837 -1.37
4844000000.0 -1.177 -0.7439
4847000000.0 -1.309 0.4499
4850000000.0 -0.4679 1.304
4853000000.0 0.7217 1.197
4856000000.0 1.359 0.186
4859000000.0 1.004 -0.9004
4862000000.0 -0.0828 -1.341
4866000000.0 -1.077 -0.7712
4869000000.0 -1.288 0.328
4872000000.0 -0.5295 1.222
4875000000.0 0.5666 1.151
4878000000.0 1.256 0.2748
4881000000.0 0.9723 -0.7911
4884000000.0 0.007075 -1.253
4888000000.0 -0.9775 -0.772
4891000000.0 -1.197 0.2668
4894000000.0 -0.5173 1.065
4897000000.0 0.4943 1.033
4900000000.0 1.096 0.2798
4903000000.0 0.8875 -0.6675
4906000000.0 0.02411 -1.09
4909000000.0 -0.7749 -0.6904
4912000000.0 -1.026 0.1777
4916000000.0 -0.5014 0.8868
4919000000.0 0.3596 0.9259
4922000000.0 0.9429 0.2912
4925000000.0 0.791 -0.5279
4928000000.0 0.1257 -0.9473
4931000000.0 -0.659 -0.7001
4934000000.0 -0.9542 0.0898
4938000000.0 -0.5455 0.7921
4941000000.0 0.2612 0.904
4944000000.0 0.8625 0.3631
4947000000.0 0.8324 -0.4166
4950000000.0 0.2088 -0.9239
4953000000.0 -0.5922 -0.7453
4956000000.0 -0.952 -0.03821
4959000000.0 -0.6068 0.7599
4962000000.0 0.1927 0.9654
4966000000.0 0.8518 0.4655
4969000000.0 0.9075 -0.3685
4972000000.0 0.2758 -0.9529
4975000000.0 -0.5714 -0.8546
4978000000.0 -0.9852 -0.07833
4981000000.0 -0.7397 0.7536
4984000000.0 0.1018 1.032
4988000000.0 0.8541 0.5577
4991000000.0 1.025 -0.3051
4994000000.0 0.4155 -0.9813
4997000000.0 -0.4952 -0.9785
5000000000.0 -1.078 -0.2645
5003000000.0 -0.8991 0.6791
5006000000.0 -0.06639 1.158
5009000000.0 0.8687 0.8102
5012000000.0 1.166 -0.1839
5016000000.0 0.6075 -1.069
5019000000.0 -0.4046 -1.183
5022000000.0 -1.162 -0.4225
5025000000.0 -1.084 0.6262
5028000000.0 -0.1861 1.228
5031000000.0 0.8607 0.9568
5034000000.0 1.277 -0.03285
5038000000.0 0.7818 -1.011
5041000000.0 -0.2991 -1.24
5044000000.0 -1.15 -0.6088
5047000000.0 -1.16 0.4909
5050000000.0 -0.3911 1.217
5053000000.0 0.7155 1.073
5056000000.0 1.289 0.1393
5059000000.0 0.9038 -0.8726
5062000000.0 -0.08915 -1.304
5066000000.0 -1.013 -0.7525
5069000000.0 -1.249 0.294
5072000000.0 -0.5456 1.14
5075000000.0 0.5182 1.166
5078000000.0 1.197 0.3202
5081000000.0 1.018 -0.6986
5084000000.0 0.08243 -1.232
5088000000.0 -0.8513 -0.8529
5091000000.0 -1.164 0.1478
5094000000.0 -0.6555 0.969
5097000000.0 0.3219 1.102
5100000000.0 1.065 0.4878
5103000000.0 0.9851 -0.5009
5106000000.0 0.276 -1.054
5109000000.0 -0.6209 -0.9197
5112000000.0 -1.102 -0.08967
5116000000.0 -0.7574 0.7659
5119000000.0 0.09869 1.016
5122000000.0 0.851 0.5862
5125000000.0 1.009 -0.287
5128000000.0 0.3849 -0.9133
5131000000.0 -0.4794 -0.8975
5134000000.0 -0.9346 -0.1901
5138000000.0 -0.7677 0.5929
5141000000.0 -0.05385 0.9747
5144000000.0 0.7171 0.6263
5147000000.0 0.9427 -0.1506
5150000000.0 0.4549 -0.814
5153000000.0 -0.3213 -0.8315
5156000000.0 -0.8866 -0.2919
5159000000.0 -0.7683 0.4759
5162000000.0 -0.1105 0.8967
5166000000.0 0.6062 0.6583
5169000000.0 0.8904 -0.09304
5172000000.0 0.5126 -0.7387
5175000000.0 -0.2595 -0.8322
5178000000.0 -0.8462 -0.317
5181000000.0 -0.7916 0.4701
5184000000.0 -0.1704 0.9056
5188000000.0 0.6163 0.6597
5191000000.0 0.9058 -0.08393
5194000000.0 0.5344 -0.7518
5197000000.0 -0.2618 -0.8571
5200000000.0 -0.8606 -0.3598
5203000000.0 -0.8102 0.454
5206000000.0 -0.1487 0.9247
5209000000.0 0.6543 0.6911
5212000000.0 0.9687 -0.03899
5216000000.0 0.5705 -0.7959
5219000000.0 -0.2558 -0.9619
5222000000.0 -0.9032 -0.4086
5225000000.0 -0.8847 0.4496
5228000000.0 -0.2115 0.9955
5231000000.0 0.6083 0.805
5234000000.0 1.041 0.02391
5238000000.0 0.6764 -0.7856
5241000000.0 -0.1414 -1.028
5244000000.0 -0.89 -0.5378
5247000000.0 -0.9925 0.3533
5250000000.0 -0.337 1.01
5253000000.0 0.5359 0.9131
5256000000.0 1.061 0.1636
5259000000.0 0.7963 -0.7076
5262000000.0 -0.02529 -1.075
5266000000.0 -0.8402 -0.6614
5269000000.0 -1.065 0.2033
5272000000.0 -0.5297 0.9409
5275000000.0 0.4025 1.007
5278000000.0 1.043 0.3731
5281000000.0 0.9276 -0.5579
5284000000.0 0.2061 -1.067
5288000000.0 -0.6877 -0.852
5291000000.0 -1.094 0.003612
5294000000.0 -0.696 0.8364
5297000000.0 0.1788 1.108
5300000000.0 0.9469 0.5586
5303000000.0 1.066 -0.3307
5306000000.0 0.4347 -1.056
5309000000.0 -0.5094 -1.019
5312000000.0 -1.121 -0.2417
5316000000.0 -0.8999 0.6636
5319000000.0 -0.03431 1.106
5322000000.0 0.8551 0.7965
5325000000.0 1.135 -0.1493
5328000000.0 0.603 -0.9492
5331000000.0 -0.3694 -1.073
5334000000.0 -1.037 -0.4169
5338000000.0 -0.9875 0.5217
5341000000.0 -0.1851 1.098
5344000000.0 0.7105 0.8731
5347000000.0 1.103 -0.02049
5350000000.0 0.7469 -0.8847
5353000000.0 -0.2072 -1.047
5356000000.0 -0.9721 -0.5179
5359000000.0 -0.9832 0.395
5362000000.0 -0.2968 1.051
5366000000.0 0.607 0.8735
5369000000.0 1.071 0.08443
5372000000.0 0.6903 -0.7664
5375000000.0 -0.177 -0.9732
5378000000.0 -0.8918 -0.5161
5381000000.0 -0.9103 0.3648
5384000000.0 -0.2761 0.9616
5388000000.0 0.5623 0.7985
5391000000.0 0.9697 0.02977
5394000000.0 0.623 -0.6995
5397000000.0 -0.1556 -0.9054
5400000000.0 -0.8023 -0.4301
5403000000.0 -0.8168 0.3744
5406000000.0 -0.2335 0.8411
5409000000.0 0.5262 0.7153
5412000000.0 0.8804 -0.005847
5416000000.0 0.5537 -0.6685
5419000000.0 -0.1826 -0.8558
5422000000.0 -0.7663 -0.415
5425000000.0 -0.7928 0.3681
5428000000.0 -0.2324 0.8471
5431000000.0 0.527 0.6845
5434000000.0 0.8854 0.0372
5438000000.0 0.6021 -0.6525
5441000000.0 -0.1721 -0.8491
5444000000.0 -0.7816 -0.4048
5447000000.0 -0.8176 0.3352
5450000000.0 -0.2451 0.8409
5453000000.0 0.5078 0.7293
5456000000.0 0.8653 0.02515
5459000000.0 0.6157 -0.6766
5462000000.0 -0.09276 -0.8984
5466000000.0 -0.763 -0.4657
5469000000.0 -0.8874 0.3151
5472000000.0 -0.3182 0.8419
5475000000.0 0.4801 0.8302
5478000000.0 0.9101 0.1603
5481000000.0 0.7533 -0.5921
5484000000.0 0.02156 -0.9635
5488000000.0 -0.7317 -0.6323
5491000000.0 -0.9933 0.1717
5494000000.0 -0.4915 0.8594
5497000000.0 0.3157 0.9404
5500000000.0 0.9766 0.3592
5503000000.0 0.9022 -0.4672
5506000000.0 0.172 -0.9753
5509000000.0 -0.6577 -0.7936
5512000000.0 -1.036 0.02461
5516000000.0 -0.6664 0.783
5519000000.0 0.1653 1.024
5522000000.0 0.8734 0.5394
5525000000.0 1.012 -0.3247
5528000000.0 0.4109 -0.9872
5531000000.0 -0.4992 -0.9371
5534000000.0 -1.018 -0.2119
5538000000.0 -0.8297 0.6533
5541000000.0 -0.03741 1.048
5544000000.0 0.7752 0.7352
5547000000.0 1.037 -0.1474
5550000000.0 0.5794 -0.8686
5553000000.0 -0.3719 -1.006
5556000000.0 -1.011 -0.3811
5559000000.0 -0.9383 0.4882
5562000000.0 -0.1933 1.016
5566000000.0 0.6728 0.7872
5569000000.0 1.04 -0.005608
5572000000.0 0.6104 -0.7922
5575000000.0 -0.2181 -1.003
5578000000.0 -0.8695 -0.4744
5581000000.0 -0.9792 0.3809
5584000000.0 -0.2759 0.926
5588000000.0 0.5303 0.813
5591000000.0 0.969 0.09219
5594000000.0 0.6997 -0.6283
5597000000.0 -0.1062 -0.9268
5600000000.0 -0.7584 -0.5342
5603000000.0 -0.8672 0.2914
5606000000.0 -0.3321 0.8311
5609000000.0 0.3985 0.7815
5612000000.0 0.8561 0.1907
5616000000.0 0.6811 -0.5614
5619000000.0 -0.02662 -0.8548
5622000000.0 -0.6875 -0.5316
5625000000.0 -0.8114 0.2034
5628000000.0 -0.3792 0.7527
5631000000.0 0.3466 0.7371
5634000000.0 0.7974 0.2007
5638000000.0 0.6749 -0.4889
5641000000.0 0.01757 -0.8438
5644000000.0 -0.6286 -0.5261
5647000000.0 -0.8267 0.1883
5650000000.0 -0.3758 0.7774
5653000000.0 0.3582 0.7851
5656000000.0 0.839 0.2042
5659000000.0 0.676 -0.5025
5662000000.0 0.01389 -0.8401
5666000000.0 -0.6447 -0.5485
5669000000.0 -0.868 0.1738
5672000000.0 -0.4122 0.7807
5675000000.0 0.375 0.8084
5678000000.0 0.8575 0.2442
5681000000.0 0.7445 -0.5544
5684000000.0 0.03486 -0.9531
5688000000.0 -0.6981 -0.6223
5691000000.0 -0.9417 0.163
5694000000.0 -0.4613 0.8359
5697000000.0 0.3561 0.9064
5700000000.0 0.9276 0.3201
5703000000.0 0.8541 -0.5304
5706000000.0 0.1045 -0.9947
5709000000.0 -0.7077 -0.7522
5712000000.0 -1.049 0.1174
5716000000.0 -0.5706 0.8946
5719000000.0 0.3042 0.9996
5722000000.0 0.9583 0.4464
5725000000.0 0.9208 -0.4953
5728000000.0 0.1988 -1.074
5731000000.0 -0.6439 -0.8483
5734000000.0 -1.081 -0.06786
5738000000.0 -0.7376 0.8038
5741000000.0 0.1637 1.082
5744000000.0 0.9423 0.5648
5747000000.0 1.07 -0.3649
5750000000.0 0.3606 -1.03
5753000000.0 -0.5644 -0.9268
5756000000.0 -1.086 -0.2196
5759000000.0 -0.8488 0.6929
5762000000.0 0.01401 1.086
5766000000.0 0.8463 0.7209
5769000000.0 1.074 -0.1678
5772000000.0 0.5248 -0.9479
5775000000.0 -0.3889 -1.02
5778000000.0 -1.042 -0.3643
5781000000.0 -0.9664 0.5565
5784000000.0 -0.1595 1.063
5788000000.0 0.7289 0.8022
5791000000.0 1.074 -0.0001606
5794000000.0 0.6573 -0.8309
5797000000.0 -0.2483 -1.03
5800000000.0 -0.9376 -0.5043
5803000000.0 -0.9955 0.3924
5806000000.0 -0.3047 1.009
5809000000.0 0.593 0.8549
5812000000.0 1.036 0.1046
5816000000.0 0.7056 -0.7417
5819000000.0 -0.1091 -1.023
5822000000.0 -0.8712 -0.5596
5825000000.0 -0.961 0.3074
5828000000.0 -0.386 0.8999
5831000000.0 0.5088 0.8681
5834000000.0 0.9451 0.2036
5838000000.0 0.7478 -0.6419
5841000000.0 -0.04563 -0.9709
5844000000.0 -0.7585 -0.6262
5847000000.0 -0.9209 0.2206
5850000000.0 -0.4311 0.8595
5853000000.0 0.3899 0.8473
5856000000.0 0.9059 0.1952
5859000000.0 0.7106 -0.5512
5862000000.0 0.002235 -0.9033
5866000000.0 -0.7296 -0.5701
5869000000.0 -0.8899 0.1946
5872000000.0 -0.421 0.8249
5875000000.0 0.3679 0.7939
5878000000.0 0.8217 0.2089
5881000000.0 0.7151 -0.5198
5884000000.0 0.01737 -0.8754
5888000000.0 -0.6395 -0.5481
5891000000.0 -0.8577 0.159
5894000000.0 -0.4174 0.7739
5897000000.0 0.3043 0.8147
5900000000.0 0.8322 0.2479
5903000000.0 0.717 -0.4766
5906000000.0 0.08486 -0.831
5909000000.0 -0.6278 -0.6137
5912000000.0 -0.8541 0.105
5916000000.0 -0.4898 0.7109
5919000000.0 0.2725 0.7903
5922000000.0 0.7979 0.3306
5925000000.0 0.7544 -0.3722
5928000000.0 0.1561 -0.8669
5931000000.0 -0.5469 -0.703
5934000000.0 -0.8763 -0.006534
5938000000.0 -0.5615 0.67
5941000000.0 0.1506 0.886
5944000000.0 0.7854 0.4286
5947000000.0 0.8521 -0.3294
5950000000.0 0.2965 -0.842
5953000000.0 -0.4784 -0.7813
5956000000.0 -0.8692 -0.1542
5959000000.0 -0.6928 0.5945
5962000000.0 -0.02814 0.9451
5966000000.0 0.7045 0.5992
5969000000.0 0.9366 -0.1799
5972000000.0 0.4756 -0.8837
5975000000.0 -0.3489 -0.9189
5978000000.0 -0.9193 -0.2836
5981000000.0 -0.831 0.503
5984000000.0 -0.1561 0.9715
5988000000.0 0.6746 0.7455
5991000000.0 0.9928 -0.02584
5994000000.0 0.6325 -0.8334
5997000000.0 -0.2381 -1.006
6000000000.0 -0.8885 -0.4349
6003000000.0 -0.8908 0.4074
6006000000.0 -0.289 0.931
6009000000.0 0.5798 0.8023
6012000000.0 0.9954 0.08632
6016000000.0 0.6926 -0.7193
6019000000.0 -0.1281 -1.015
6022000000.0 -0.8389 -0.5169
6025000000.0 -0.9341 0.3195
6028000000.0 -0.3429 0.9085
6031000000.0 0.4914 0.8222
6034000000.0 0.9506 0.1598
6038000000.0 0.7125 -0.6155
6041000000.0 -0.06389 -0.9389
6044000000.0 -0.7602 -0.5513
6047000000.0 -0.9153 0.2136
6050000000.0 -0.399 0.8388
6053000000.0 0.3979 0.8117
6056000000.0 0.9104 0.2259
6059000000.0 0.7169 -0.5829
6062000000.0 0.004243 -0.9342
6066000000.0 -0.6931 -0.5622
6069000000.0 -0.8676 0.1674
6072000000.0 -0.406 0.7956
6075000000.0 0.3446 0.8145
6078000000.0 0.8399 0.2546
6081000000.0 0.7188 -0.5005
6084000000.0 0.0467 -0.8642
6088000000.0 -0.6246 -0.5819
6091000000.0 -0.839 0.1255
6094000000.0 -0.441 0.744
6097000000.0 0.3024 0.8129
6100000000.0 0.7874 0.2339
6103000000.0 0.7387 -0.4597
6106000000.0 0.1273 -0.837
6109000000.0 -0.5953 -0.6067
6112000000.0 -0.8488 0.08163
6116000000.0 -0.4996 0.6957
6119000000.0 0.2476 0.7993
6122000000.0 0.8196 0.2938
6125000000.0 0.7437 -0.4478
6128000000.0 0.1355 -0.8625
6131000000.0 -0.5889 -0.6413
6134000000.0 -0.8521 0.04319
6138000000.0 -0.5212 0.7142
6141000000.0 0.237 0.8251
6144000000.0 0.8348 0.3698
6147000000.0 0.7947 -0.4064
6150000000.0 0.1786 -0.8496
6153000000.0 -0.5695 -0.7123
6156000000.0 -0.9039 -0.04677
6159000000.0 -0.5772 0.7071
6162000000.0 0.1752 0.9156
6166000000.0 0.7896 0.478
6169000000.0 0.8427 -0.3406
6172000000.0 0.294 -0.8792
6175000000.0 -0.5066 -0.7697
6178000000.0 -0.9675 -0.09579
6181000000.0 -0.6724 0.6595
6184000000.0 0.08835 0.9795
6188000000.0 0.7756 0.4943
6191000000.0 0.9057 -0.271
6194000000.0 0.3539 -0.8672
6197000000.0 -0.4613 -0.8486
6200000000.0 -0.9291 -0.1908
6203000000.0 -0.705 0.5823
6206000000.0 -0.0524 0.9392
6209000000.0 0.711 0.6186
6212000000.0 0.8896 -0.1766
6216000000.0 0.4384 -0.7973
6219000000.0 -0.3465 -0.8431
6222000000.0 -0.864 -0.2629
6225000000.0 -0.7683 0.507
6228000000.0 -0.1246 0.8819
6231000000.0 0.6342 0.6589
6234000000.0 0.8903 -0.0496
6238000000.0 0.5354 -0.7223
6241000000.0 -0.2074 -0.8823
6244000000.0 -0.7899 -0.3834
6247000000.0 -0.7716 0.3273
6250000000.0 -0.2374 0.7948
6253000000.0 0.469 0.7022
6256000000.0 0.8313 0.07145
6259000000.0 0.5757 -0.5924
6262000000.0 -0.05997 -0.82
6266000000.0 -0.6572 -0.4755
