! Created with skrf 1.8.0 (http://scikit-rf.org).
# Hz S RI R 50.0 
!freq ReS11 ImS11
4000000000.0 0.244 -1.475
4003000000.0 -0.9987 -1.135
4006000000.0 -1.502 0.09533
4009000000.0 -0.9167 1.251
4012000000.0 0.3933 1.456
4016000000.0 1.423 0.5431
4019000000.0 1.361 -0.6861
4022000000.0 0.3246 -1.512
4025000000.0 -0.9838 -1.21
4028000000.0 -1.532 0.005727
4031000000.0 -1.017 1.243
4034000000.0 0.3769 1.505
4038000000.0 1.457 0.65
4041000000.0 1.405 -0.7732
4044000000.0 0.2951 -1.6
4047000000.0 -1.051 -1.226
4050000000.0 -1.6 0.02361
4053000000.0 -0.999 1.243
4056000000.0 0.3466 1.559
4059000000.0 1.412 0.7628
4062000000.0 1.469 -0.648
4066000000.0 0.4581 -1.543
4069000000.0 -0.9082 -1.323
4072000000.0 -1.583 -0.1837
4075000000.0 -1.173 1.149
4078000000.0 0.1884 1.605
4081000000.0 1.395 0.9198
4084000000.0 1.582 -0.4478
4088000000.0 0.6429 -1.534
4091000000.0 -0.8229 -1.443
4094000000.0 -1.644 -0.2625
4097000000.0 -1.277 1.056
4100000000.0 0.01371 1.646
4103000000.0 1.287 1.034
4106000000.0 1.578 -0.3992
4109000000.0 0.7872 -1.338
4112000000.0 -0.5255 -1.474
4116000000.0 -1.443 -0.5236
4119000000.0 -1.343 0.7754
4122000000.0 -0.3217 1.485
4125000000.0 0.8933 1.219
4128000000.0 1.483 0.08282
4131000000.0 1.001 -1.091
4134000000.0 -0.09624 -1.506
4138000000.0 -1.192 -0.9149
4141000000.0 -1.476 0.3034
4144000000.0 -0.7038 1.349
4147000000.0 0.5603 1.401
4150000000.0 1.446 0.478
4153000000.0 1.328 -0.7965
4156000000.0 0.2665 -1.484
4159000000.0 -0.9906 -1.15
4162000000.0 -1.528 -0.01719
4166000000.0 -0.9942 1.163
4169000000.0 0.2233 1.529
4172000000.0 1.295 0.7605
4175000000.0 1.42 -0.5185
4178000000.0 0.5321 -1.399
4181000000.0 -0.6925 -1.38
4184000000.0 -1.453 -0.2982
4188000000.0 -1.246 0.8981
4191000000.0 -0.05132 1.517
4194000000.0 1.081 1.051
4197000000.0 1.56 -0.1601
4200000000.0 0.8846 -1.333
4203000000.0 -0.4972 -1.522
4206000000.0 -1.512 -0.5718
4209000000.0 -1.468 0.7983
4212000000.0 -0.2601 1.64
4216000000.0 1.088 1.232
4219000000.0 1.719 -0.1713
4222000000.0 0.9333 -1.428
4225000000.0 -0.4761 -1.671
4228000000.0 -1.621 -0.5497
4231000000.0 -1.449 0.8849
4234000000.0 -0.2009 1.679
4238000000.0 1.216 1.205
4241000000.0 1.693 -0.2037
4244000000.0 0.8736 -1.453
4247000000.0 -0.6148 -1.55
4250000000.0 -1.599 -0.464
4253000000.0 -1.25 1.033
4256000000.0 0.003451 1.6
4259000000.0 1.277 1.024
4262000000.0 1.565 -0.4111
4266000000.0 0.6862 -1.472
4269000000.0 -0.7755 -1.399
4272000000.0 -1.532 -0.2292
4275000000.0 -1.117 1.1
4278000000.0 0.1738 1.554
4281000000.0 1.295 0.829
4284000000.0 1.441 -0.4923
4288000000.0 0.4618 -1.383
4291000000.0 -0.7753 -1.202
4294000000.0 -1.412 -0.1412
4297000000.0 -0.9729 0.9818
4300000000.0 0.1393 1.372
4303000000.0 1.117 0.7536
4306000000.0 1.272 -0.3688
4309000000.0 0.4833 -1.232
4312000000.0 -0.6065 -1.164
4316000000.0 -1.273 -0.2771
4319000000.0 -1.049 0.7969
4322000000.0 -0.1052 1.344
4325000000.0 0.9396 0.8581
4328000000.0 1.335 -0.1386
4331000000.0 0.7487 -1.112
4334000000.0 -0.3919 -1.277
4338000000.0 -1.249 -0.5388
4341000000.0 -1.225 0.6206
4344000000.0 -0.2596 1.38
4347000000.0 0.864 1.101
4350000000.0 1.397 -0.005995
4353000000.0 0.9047 -1.02
4356000000.0 -0.1737 -1.393
4359000000.0 -1.23 -0.7332
4362000000.0 -1.345 0.4113
4366000000.0 -0.5326 1.331
4369000000.0 0.6711 1.263
4372000000.0 1.41 0.2885
4375000000.0 1.113 -0.9183
4378000000.0 0.03231 -1.481
4381000000.0 -1.102 -0.9709
4384000000.0 -1.47 0.2045
4388000000.0 -0.8249 1.261
4391000000.0 0.4748 1.45
4394000000.0 1.452 0.5395
4397000000.0 1.325 -0.7729
4400000000.0 0.2289 -1.586
4403000000.0 -1.036 -1.147
4406000000.0 -1.577 0.1275
4409000000.0 -0.9469 1.276
4412000000.0 0.4027 1.541
4416000000.0 1.45 0.6551
4419000000.0 1.408 -0.7256
4422000000.0 0.2466 -1.541
4425000000.0 -0.9758 -1.217
4428000000.0 -1.541 0.03216
4431000000.0 -0.9406 1.229
4434000000.0 0.364 1.497
4438000000.0 1.392 0.642
4441000000.0 1.363 -0.6693
4444000000.0 0.219 -1.477
4447000000.0 -0.9848 -1.076
4450000000.0 -1.48 0.06281
4453000000.0 -0.8573 1.19
4456000000.0 0.4209 1.372
4459000000.0 1.299 0.5545
4462000000.0 1.2 -0.6881
4466000000.0 0.1919 -1.375
4469000000.0 -0.9819 -0.9441
4472000000.0 -1.302 0.1942
4475000000.0 -0.5842 1.136
4478000000.0 0.5067 1.162
4481000000.0 1.236 0.3451
4484000000.0 0.9519 -0.7287
4488000000.0 0.05446 -1.235
4491000000.0 -0.9336 -0.761
4494000000.0 -1.14 0.2663
4497000000.0 -0.4608 1.016
4500000000.0 0.4925 1.003
4503000000.0 1.06 0.2507
4506000000.0 0.7828 -0.758
4509000000.0 -0.007888 -1.089
4512000000.0 -0.8477 -0.6684
4516000000.0 -1.024 0.3168
4519000000.0 -0.4402 0.9609
4522000000.0 0.4709 0.9858
4525000000.0 1.04 0.2455
4528000000.0 0.8517 -0.6701
4531000000.0 0.0214 -1.096
4534000000.0 -0.846 -0.6899
4538000000.0 -1.113 0.2658
4541000000.0 -0.5092 0.9885
4544000000.0 0.4385 1.007
4547000000.0 1.069 0.2875
4550000000.0 0.9149 -0.6635
4553000000.0 0.1098 -1.139
4556000000.0 -0.7852 -0.8214
4559000000.0 -1.143 0.1312
4562000000.0 -0.6326 0.9805
4566000000.0 0.3063 1.126
4569000000.0 1.067 0.4981
4572000000.0 1.079 -0.5604
4575000000.0 0.2599 -1.192
4578000000.0 -0.7637 -0.9778
4581000000.0 -1.243 -0.06245
4584000000.0 -0.8269 0.943
4588000000.0 0.1684 1.281
4591000000.0 1.07 0.6839
4594000000.0 1.235 -0.3899
4597000000.0 0.4841 -1.216
4600000000.0 -0.677 -1.17
4603000000.0 -1.311 -0.2383
4606000000.0 -1.074 0.8602
4609000000.0 0.003988 1.338
4612000000.0 1.035 0.8932
4616000000.0 1.32 -0.2501
4619000000.0 0.6587 -1.195
4622000000.0 -0.518 -1.281
4625000000.0 -1.313 -0.4288
4628000000.0 -1.158 0.7388
4631000000.0 -0.1394 1.397
4634000000.0 1.009 0.9502
4638000000.0 1.375 -0.2099
4641000000.0 0.7689 -1.171
4644000000.0 -0.4584 -1.283
4647000000.0 -1.297 -0.4364
4650000000.0 -1.174 0.7562
4653000000.0 -0.1379 1.35
4656000000.0 0.9033 1.03
4659000000.0 1.353 -0.1123
4662000000.0 0.7512 -1.076
4666000000.0 -0.4423 -1.212
4669000000.0 -1.209 -0.5025
4672000000.0 -1.131 0.6657
4675000000.0 -0.1154 1.233
4678000000.0 0.9158 0.8471
4681000000.0 1.233 -0.1157
4684000000.0 0.6592 -0.9782
4688000000.0 -0.4106 -1.118
4691000000.0 -1.08 -0.443
4694000000.0 -0.9764 0.595
4697000000.0 -0.1538 1.131
4700000000.0 0.8133 0.8279
4703000000.0 1.118 -0.1154
4706000000.0 0.5699 -0.9656
4709000000.0 -0.3918 -1.043
4712000000.0 -1.079 -0.3273
4716000000.0 -0.875 0.6148
4719000000.0 -0.03285 1.035
4722000000.0 0.7917 0.7212
4725000000.0 1.032 -0.1675
4728000000.0 0.5125 -0.9187
4731000000.0 -0.4015 -0.9446
4734000000.0 -1.022 -0.2416
4738000000.0 -0.8196 0.5922
4741000000.0 -0.03355 0.9777
4744000000.0 0.7144 0.6876
4747000000.0 0.9996 -0.1642
4750000000.0 0.5238 -0.8671
4753000000.0 -0.3445 -0.9515
4756000000.0 -0.9311 -0.3782
4759000000.0 -0.8732 0.5105
4762000000.0 -0.1501 1.037
4766000000.0 0.6773 0.8124
4769000000.0 1.042 -0.01934
4772000000.0 0.6741 -0.8441
4775000000.0 -0.2346 -1.058
4778000000.0 -0.9896 -0.4731
4781000000.0 -0.9998 0.4686
4784000000.0 -0.3064 1.037
4788000000.0 0.5867 0.9262
4791000000.0 1.121 0.1163
4794000000.0 0.8161 -0.8097
4797000000.0 -0.07765 -1.16
4800000000.0 -0.9 -0.7178
4803000000.0 -1.148 0.2513
4806000000.0 -0.5388 1.046
4809000000.0 0.4335 1.095
4812000000.0 1.165 0.3494
4816000000.0 1.03 -0.706
4819000000.0 0.1611 -1.223
4822000000.0 -0.8561 -0.9531
4825000000.0 -1.278 0.1189
4828000000.0 -0.7898 1.042
4831000000.0 0.3163 1.291
4834000000.0 1.21 0.5789
4838000000.0 1.189 -0.6136
4841000000.0 0.3286 -1.296
4844000000.0 -0.8137 -1.107
4847000000.0 -1.363 -0.06302
4850000000.0 -0.956 1.009
4853000000.0 0.1768 1.371
4856000000.0 1.198 0.7277
4859000000.0 1.295 -0.4943
4862000000.0 0.4556 -1.304
4866000000.0 -0.6858 -1.17
4869000000.0 -1.376 -0.1811
4872000000.0 -1.025 0.956
4875000000.0 0.1091 1.361
4878000000.0 1.114 0.8071
4881000000.0 1.296 -0.3585
4884000000.0 0.4962 -1.242
4888000000.0 -0.6359 -1.165
4891000000.0 -1.296 -0.2475
4894000000.0 -0.9835 0.8413
4897000000.0 0.07412 1.266
4900000000.0 0.9868 0.7355
4903000000.0 1.165 -0.2932
4906000000.0 0.4718 -1.069
4909000000.0 -0.5222 -1.037
4912000000.0 -1.104 -0.2529
4916000000.0 -0.8518 0.6619
4919000000.0 -0.01168 1.053
4922000000.0 0.7727 0.6656
4925000000.0 0.9994 -0.1986
4928000000.0 0.4919 -0.8879
4931000000.0 -0.3789 -0.8821
4934000000.0 -0.94 -0.3017
4938000000.0 -0.8111 0.5257
4941000000.0 -0.09589 0.9471
4944000000.0 0.6857 0.6457
4947000000.0 0.9458 -0.09077
4950000000.0 0.5199 -0.7916
4953000000.0 -0.2709 -0.9409
4956000000.0 -0.8762 -0.3503
4959000000.0 -0.8099 0.4697
4962000000.0 -0.1259 0.9545
4966000000.0 0.6363 0.7133
4969000000.0 0.9295 -0.06338
4972000000.0 0.5857 -0.777
4975000000.0 -0.2336 -0.9444
4978000000.0 -0.8727 -0.4225
4981000000.0 -0.8715 0.4252
4984000000.0 -0.2253 0.9601
4988000000.0 0.6398 0.7899
4991000000.0 1.01 0.05695
4994000000.0 0.7008 -0.7518
4997000000.0 -0.1309 -1.04
5000000000.0 -0.9086 -0.549
5003000000.0 -1.012 0.3605
5006000000.0 -0.3913 1.036
5009000000.0 0.5825 0.9645
5012000000.0 1.132 0.1951
5016000000.0 0.8683 -0.789
5019000000.0 -0.05107 -1.189
5022000000.0 -0.9484 -0.7471
5025000000.0 -1.177 0.267
5028000000.0 -0.5361 1.084
5031000000.0 0.4921 1.113
5034000000.0 1.176 0.3239
5038000000.0 1.009 -0.7087
5041000000.0 0.1186 -1.245
5044000000.0 -0.9128 -0.8696
5047000000.0 -1.27 0.08191
5050000000.0 -0.7687 1.033
5053000000.0 0.3495 1.228
5056000000.0 1.182 0.5333
5059000000.0 1.167 -0.5432
5062000000.0 0.3243 -1.279
5066000000.0 -0.8034 -1.029
5069000000.0 -1.305 -0.06261
5072000000.0 -0.9011 0.9368
5075000000.0 0.1629 1.336
5078000000.0 1.132 0.6402
5081000000.0 1.237 -0.4093
5084000000.0 0.4731 -1.181
5088000000.0 -0.6192 -1.079
5091000000.0 -1.247 -0.2461
5094000000.0 -0.9381 0.7477
5097000000.0 -0.04184 1.197
5100000000.0 0.8756 0.7925
5103000000.0 1.128 -0.1689
5106000000.0 0.6137 -0.9935
5109000000.0 -0.3661 -1.093
5112000000.0 -1.03 -0.4227
5116000000.0 -0.9816 0.5236
5119000000.0 -0.205 1.063
5122000000.0 0.7012 0.878
5125000000.0 1.047 0.029
5128000000.0 0.7251 -0.8136
5131000000.0 -0.1774 -1.058
5134000000.0 -0.9246 -0.5104
5138000000.0 -0.9585 0.375
5141000000.0 -0.3922 0.9858
5144000000.0 0.5592 0.8977
5147000000.0 0.935 0.1247
5150000000.0 0.7183 -0.6672
5153000000.0 -0.018 -0.9944
5156000000.0 -0.7754 -0.5744
5159000000.0 -0.8982 0.2057
5162000000.0 -0.4173 0.8206
5166000000.0 0.3801 0.8387
5169000000.0 0.9053 0.2403
5172000000.0 0.7791 -0.5365
5175000000.0 0.09247 -0.9318
5178000000.0 -0.6581 -0.6316
5181000000.0 -0.8878 0.1546
5184000000.0 -0.4734 0.7906
5188000000.0 0.3191 0.8777
5191000000.0 0.8889 0.2956
5194000000.0 0.7874 -0.5152
5197000000.0 0.07896 -0.9149
5200000000.0 -0.6824 -0.6356
5203000000.0 -0.9137 0.1383
5206000000.0 -0.5078 0.8286
5209000000.0 0.3446 0.9121
5212000000.0 0.9052 0.2858
5216000000.0 0.7894 -0.5498
5219000000.0 0.1058 -0.9573
5222000000.0 -0.6988 -0.6799
5225000000.0 -0.9844 0.1008
5228000000.0 -0.5309 0.8429
5231000000.0 0.3025 0.9758
5234000000.0 0.9503 0.3541
5238000000.0 0.878 -0.5392
5241000000.0 0.1709 -0.9998
5244000000.0 -0.6879 -0.7741
5247000000.0 -1.024 0.03308
5250000000.0 -0.6276 0.828
5253000000.0 0.2502 1.029
5256000000.0 0.9376 0.4533
5259000000.0 0.9784 -0.4615
5262000000.0 0.2839 -0.9996
5266000000.0 -0.6006 -0.8798
5269000000.0 -1.058 -0.08428
5272000000.0 -0.7605 0.7494
5275000000.0 0.09916 1.065
5278000000.0 0.8963 0.6299
5281000000.0 1.073 -0.2921
5284000000.0 0.474 -0.9686
5288000000.0 -0.4693 -1.018
5291000000.0 -1.025 -0.2905
5294000000.0 -0.9381 0.6401
5297000000.0 -0.1184 1.101
5300000000.0 0.771 0.8304
5303000000.0 1.106 -0.04693
5306000000.0 0.7069 -0.9001
5309000000.0 -0.2273 -1.137
5312000000.0 -1.014 -0.5456
5316000000.0 -1.06 0.4029
5319000000.0 -0.3685 1.084
5322000000.0 0.5799 0.9726
5325000000.0 1.133 0.2013
5328000000.0 0.8987 -0.744
5331000000.0 0.005473 -1.159
5334000000.0 -0.8914 -0.7035
5338000000.0 -1.147 0.16
5341000000.0 -0.5677 0.9931
5344000000.0 0.3845 1.102
5347000000.0 1.058 0.3988
5350000000.0 0.9726 -0.5782
5353000000.0 0.1639 -1.1
5356000000.0 -0.7595 -0.8393
5359000000.0 -1.148 0.04696
5362000000.0 -0.6567 0.8838
5366000000.0 0.2609 1.064
5369000000.0 0.994 0.5056
5372000000.0 1.009 -0.4571
5375000000.0 0.2607 -1.065
5378000000.0 -0.6431 -0.8507
5381000000.0 -1.061 -0.02152
5384000000.0 -0.6929 0.8069
5388000000.0 0.2036 1.035
5391000000.0 0.9186 0.4801
5394000000.0 0.9185 -0.4499
5397000000.0 0.2642 -0.9712
5400000000.0 -0.5905 -0.7752
5403000000.0 -0.948 -0.02141
5406000000.0 -0.5951 0.7168
5409000000.0 0.2041 0.9196
5412000000.0 0.8076 0.4212
5416000000.0 0.8254 -0.3795
5419000000.0 0.2354 -0.9029
5422000000.0 -0.5326 -0.703
5425000000.0 -0.8749 -0.04116
5428000000.0 -0.5591 0.6859
5431000000.0 0.1899 0.8563
5434000000.0 0.8218 0.3642
5438000000.0 0.7946 -0.3752
5441000000.0 0.201 -0.839
5444000000.0 -0.5649 -0.7082
5447000000.0 -0.9154 -0.003653
5450000000.0 -0.5323 0.6723
5453000000.0 0.2245 0.8463
5456000000.0 0.7813 0.3449
5459000000.0 0.7821 -0.3848
5462000000.0 0.2025 -0.8524
5466000000.0 -0.5555 -0.7054
5469000000.0 -0.8822 -0.02122
5472000000.0 -0.6024 0.6298
5475000000.0 0.1706 0.8632
5478000000.0 0.7652 0.4694
5481000000.0 0.8336 -0.2995
5484000000.0 0.3312 -0.8543
5488000000.0 -0.4309 -0.7755
5491000000.0 -0.9483 -0.1413
5494000000.0 -0.7013 0.6589
5497000000.0 0.03486 0.9643
5500000000.0 0.7691 0.5953
5503000000.0 0.9732 -0.1838
5506000000.0 0.4628 -0.8737
5509000000.0 -0.3439 -0.9342
5512000000.0 -0.9279 -0.3327
5516000000.0 -0.853 0.5109
5519000000.0 -0.1678 0.9636
5522000000.0 0.6868 0.7383
5525000000.0 0.9876 -0.01349
5528000000.0 0.638 -0.7996
5531000000.0 -0.1815 -1.018
5534000000.0 -0.8705 -0.5311
5538000000.0 -0.954 0.3535
5541000000.0 -0.3337 1.019
5544000000.0 0.5587 0.9206
5547000000.0 1.058 0.2139
5550000000.0 0.8342 -0.6927
5553000000.0 -0.03185 -1.05
5556000000.0 -0.8182 -0.7101
5559000000.0 -1.034 0.2011
5562000000.0 -0.5221 0.9195
5566000000.0 0.3606 0.9858
5569000000.0 0.9793 0.3673
5572000000.0 0.8694 -0.5191
5575000000.0 0.1517 -1.033
5578000000.0 -0.6731 -0.7772
5581000000.0 -1.025 0.01668
5584000000.0 -0.6238 0.7854
5588000000.0 0.2107 0.9906
5591000000.0 0.8891 0.4688
5594000000.0 0.9082 -0.3662
5597000000.0 0.2812 -0.9363
5600000000.0 -0.523 -0.8423
5603000000.0 -0.9303 -0.07353
5606000000.0 -0.6787 0.6608
5609000000.0 0.0672 0.9148
5612000000.0 0.7666 0.5312
5616000000.0 0.8519 -0.2529
5619000000.0 0.3602 -0.8318
5622000000.0 -0.4202 -0.8107
5625000000.0 -0.8793 -0.1739
5628000000.0 -0.6915 0.5688
5631000000.0 0.02504 0.8731
5634000000.0 0.6941 0.5334
5638000000.0 0.8438 -0.1709
5641000000.0 0.3666 -0.787
5644000000.0 -0.3739 -0.7792
5647000000.0 -0.8087 -0.195
5650000000.0 -0.6813 0.5251
5653000000.0 -0.009604 0.8651
5656000000.0 0.6474 0.5504
5659000000.0 0.8257 -0.179
5662000000.0 0.4016 -0.7449
5666000000.0 -0.3604 -0.7845
5669000000.0 -0.8293 -0.1773
5672000000.0 -0.7066 0.5431
5675000000.0 -0.002118 0.8818
5678000000.0 0.6856 0.5619
5681000000.0 0.8573 -0.1838
5684000000.0 0.4019 -0.8072
5688000000.0 -0.4045 -0.8429
5691000000.0 -0.8744 -0.2224
5694000000.0 -0.7349 0.5786
5697000000.0 -0.02152 0.9035
5700000000.0 0.704 0.6221
5703000000.0 0.9815 -0.1923
5706000000.0 0.4425 -0.888
5709000000.0 -0.374 -0.9267
5712000000.0 -0.9772 -0.2704
5716000000.0 -0.7871 0.5825
5719000000.0 -0.05297 1.017
5722000000.0 0.7335 0.7069
5725000000.0 1.004 -0.1233
5728000000.0 0.5277 -0.9044
5731000000.0 -0.3219 -0.9978
5734000000.0 -0.9558 -0.3894
5738000000.0 -0.9183 0.4905
5741000000.0 -0.2154 1.018
5744000000.0 0.6798 0.8243
5747000000.0 1.091 0.008653
5750000000.0 0.7014 -0.8128
5753000000.0 -0.2022 -1.062
5756000000.0 -0.9705 -0.531
5759000000.0 -1.019 0.4176
5762000000.0 -0.3681 1.078
5766000000.0 0.5511 0.8998
5769000000.0 1.08 0.1571
5772000000.0 0.8158 -0.7508
5775000000.0 -0.0292 -1.095
5778000000.0 -0.8662 -0.6799
5781000000.0 -1.078 0.2242
5784000000.0 -0.5034 0.9498
5788000000.0 0.4046 1.03
5791000000.0 1.024 0.3219
5794000000.0 0.9194 -0.5611
5797000000.0 0.1422 -1.037
5800000000.0 -0.7099 -0.8294
5803000000.0 -1.106 0.03941
5806000000.0 -0.6617 0.8631
5809000000.0 0.2413 1.068
5812000000.0 0.991 0.4708
5816000000.0 0.9681 -0.3856
5819000000.0 0.3034 -1.021
5822000000.0 -0.5717 -0.881
5825000000.0 -0.9989 -0.1038
5828000000.0 -0.7422 0.7323
5831000000.0 0.09623 1.023
5834000000.0 0.8399 0.5759
5838000000.0 1.029 -0.3127
5841000000.0 0.3748 -0.8876
5844000000.0 -0.4788 -0.8847
5847000000.0 -0.9718 -0.1801
5850000000.0 -0.7352 0.6538
5853000000.0 0.02715 0.9755
5856000000.0 0.7824 0.5833
5859000000.0 0.9737 -0.2161
5862000000.0 0.4056 -0.8611
5866000000.0 -0.4041 -0.8674
5869000000.0 -0.9263 -0.2313
5872000000.0 -0.6958 0.5551
5875000000.0 -0.01422 0.9485
5878000000.0 0.6892 0.583
5881000000.0 0.8704 -0.2202
5884000000.0 0.4269 -0.7956
5888000000.0 -0.3309 -0.7862
5891000000.0 -0.8545 -0.2379
5894000000.0 -0.7393 0.5108
5897000000.0 -0.02761 0.8766
5900000000.0 0.6454 0.5955
5903000000.0 0.8461 -0.135
5906000000.0 0.4035 -0.766
5909000000.0 -0.3156 -0.8154
5912000000.0 -0.8335 -0.3093
5916000000.0 -0.7113 0.458
5919000000.0 -0.0983 0.8802
5922000000.0 0.5855 0.602
5925000000.0 0.8488 -0.09218
5928000000.0 0.4722 -0.7312
5931000000.0 -0.2031 -0.8205
5934000000.0 -0.7939 -0.3174
5938000000.0 -0.7747 0.4106
5941000000.0 -0.1806 0.8915
5944000000.0 0.5555 0.6882
5947000000.0 0.8654 0.01805
5950000000.0 0.569 -0.6414
5953000000.0 -0.1274 -0.8661
5956000000.0 -0.7271 -0.4953
5959000000.0 -0.818 0.304
5962000000.0 -0.3058 0.8283
5966000000.0 0.426 0.7807
5969000000.0 0.91 0.1732
5972000000.0 0.7247 -0.5664
5975000000.0 0.008274 -0.915
5978000000.0 -0.7182 -0.5909
5981000000.0 -0.95 0.1616
5984000000.0 -0.4616 0.8045
5988000000.0 0.3308 0.9194
5991000000.0 0.937 0.3494
5994000000.0 0.8457 -0.4759
5997000000.0 0.1536 -0.9619
6000000000.0 -0.6485 -0.7722
6003000000.0 -0.9655 0.002614
6006000000.0 -0.5864 0.7762
6009000000.0 0.2101 0.9436
6012000000.0 0.89 0.4607
6016000000.0 0.9047 -0.3868
6019000000.0 0.3087 -0.9574
6022000000.0 -0.5391 -0.8385
6025000000.0 -0.9854 -0.08266
6028000000.0 -0.6855 0.698
6031000000.0 0.09259 0.9986
6034000000.0 0.817 0.5494
6038000000.0 0.9563 -0.2721
6041000000.0 0.3886 -0.873
6044000000.0 -0.4551 -0.8823
6047000000.0 -0.9518 -0.1975
6050000000.0 -0.7616 0.6066
6053000000.0 0.008655 0.9924
6056000000.0 0.7385 0.6066
6059000000.0 0.9184 -0.1802
6062000000.0 0.4588 -0.8587
6066000000.0 -0.3919 -0.863
6069000000.0 -0.8989 -0.2196
6072000000.0 -0.779 0.5605
6075000000.0 -0.05954 0.9016
6078000000.0 0.69 0.6191
6081000000.0 0.8945 -0.1323
6084000000.0 0.4613 -0.774
6088000000.0 -0.3139 -0.7942
6091000000.0 -0.8502 -0.2786
6094000000.0 -0.7503 0.478
6097000000.0 -0.09346 0.8749
6100000000.0 0.6226 0.6084
6103000000.0 0.8586 -0.08546
6106000000.0 0.4797 -0.7262
6109000000.0 -0.2867 -0.8282
6112000000.0 -0.81 -0.3112
6116000000.0 -0.7719 0.4323
6119000000.0 -0.09687 0.8372
6122000000.0 0.5787 0.6605
6125000000.0 0.8526 -0.05393
6128000000.0 0.4857 -0.7241
6131000000.0 -0.2448 -0.815
6134000000.0 -0.7764 -0.3308
6138000000.0 -0.77 0.4082
6141000000.0 -0.1489 0.8374
6144000000.0 0.5756 0.6479
6147000000.0 0.8492 -0.0265
6150000000.0 0.5421 -0.6667
6153000000.0 -0.1924 -0.8093
6156000000.0 -0.7912 -0.4181
6159000000.0 -0.7869 0.3525
6162000000.0 -0.2233 0.8467
6166000000.0 0.5032 0.7319
6169000000.0 0.9129 0.03465
6172000000.0 0.5737 -0.6573
6175000000.0 -0.1219 -0.8926
6178000000.0 -0.7676 -0.4473
6181000000.0 -0.8546 0.3055
6184000000.0 -0.2991 0.8308
6188000000.0 0.4696 0.7804
6191000000.0 0.9313 0.1218
6194000000.0 0.6727 -0.6463
6197000000.0 -0.04795 -0.9312
6200000000.0 -0.7437 -0.5395
6203000000.0 -0.9132 0.2258
6206000000.0 -0.4143 0.8351
6209000000.0 0.3939 0.8013
6212000000.0 0.8889 0.2267
6216000000.0 0.7515 -0.5538
6219000000.0 0.04415 -0.9301
6222000000.0 -0.6893 -0.6006
6225000000.0 -0.8861 0.1461
6228000000.0 -0.4889 0.7786
6231000000.0 0.3003 0.822
6234000000.0 0.8424 0.3349
6238000000.0 0.7586 -0.4585
6241000000.0 0.13 -0.8908
6244000000.0 -0.5573 -0.6642
6247000000.0 -0.84 -0.01602
6250000000.0 -0.543 0.6637
6253000000.0 0.1691 0.8395
6256000000.0 0.7318 0.4214
6259000000.0 0.7745 -0.295
6262000000.0 0.2854 -0.7867
