! Created with skrf 1.8.0 (http://scikit-rf.org).
# Hz S RI R 50.0 
!freq ReS11 ImS11
4000000000.0 -0.1532 -1.504
4003000000.0 -1.307 -0.8135
4006000000.0 -1.423 0.4574
4009000000.0 -0.5 1.428
4012000000.0 0.7376 1.29
4016000000.0 1.542 0.1871
4019000000.0 1.181 -1.053
4022000000.0 -0.1418 -1.508
4025000000.0 -1.271 -0.9028
4028000000.0 -1.541 0.4794
4031000000.0 -0.6154 1.485
4034000000.0 0.8039 1.407
4038000000.0 1.654 0.2721
4041000000.0 1.157 -1.098
4044000000.0 -0.1579 -1.597
4047000000.0 -1.358 -0.9657
4050000000.0 -1.554 0.4291
4053000000.0 -0.6332 1.515
4056000000.0 0.7646 1.436
4059000000.0 1.59 0.3182
4062000000.0 1.241 -1.025
4066000000.0 0.0639 -1.619
4069000000.0 -1.234 -1.063
4072000000.0 -1.612 0.2789
4075000000.0 -0.8158 1.4
4078000000.0 0.5581 1.526
4081000000.0 1.57 0.562
4084000000.0 1.417 -0.8422
4088000000.0 0.2336 -1.629
4091000000.0 -1.069 -1.238
4094000000.0 -1.612 0.06063
4097000000.0 -1.01 1.347
4100000000.0 0.3532 1.565
4103000000.0 1.438 0.7046
4106000000.0 1.43 -0.6185
4109000000.0 0.4437 -1.483
4112000000.0 -0.8779 -1.304
4116000000.0 -1.515 -0.2022
4119000000.0 -1.127 1.011
4122000000.0 0.02798 1.477
4125000000.0 1.161 0.9371
4128000000.0 1.448 -0.231
4131000000.0 0.7688 -1.234
4134000000.0 -0.4413 -1.397
4138000000.0 -1.367 -0.5648
4141000000.0 -1.373 0.6366
4144000000.0 -0.3744 1.442
4147000000.0 0.8513 1.215
4150000000.0 1.501 0.1427
4153000000.0 1.098 -1.038
4156000000.0 -0.1175 -1.524
4159000000.0 -1.229 -0.8986
4162000000.0 -1.454 0.3913
4166000000.0 -0.6206 1.365
4169000000.0 0.6363 1.363
4172000000.0 1.463 0.4485
4175000000.0 1.228 -0.8117
4178000000.0 0.1634 -1.503
4181000000.0 -1.033 -1.097
4184000000.0 -1.48 0.09948
4188000000.0 -0.934 1.235
4191000000.0 0.4042 1.482
4194000000.0 1.388 0.6619
4197000000.0 1.419 -0.6543
4200000000.0 0.3895 -1.505
4203000000.0 -1.004 -1.29
4206000000.0 -1.612 -0.01706
4209000000.0 -1.087 1.238
4212000000.0 0.3281 1.635
4216000000.0 1.486 0.7533
4219000000.0 1.514 -0.7527
4222000000.0 0.3769 -1.668
4225000000.0 -1.064 -1.293
4228000000.0 -1.693 0.102
4231000000.0 -0.9374 1.391
4234000000.0 0.5289 1.564
4238000000.0 1.601 0.5017
4241000000.0 1.357 -0.9285
4244000000.0 0.07274 -1.63
4247000000.0 -1.203 -1.008
4250000000.0 -1.556 0.3371
4253000000.0 -0.6565 1.411
4256000000.0 0.6799 1.392
4259000000.0 1.506 0.3206
4262000000.0 1.135 -0.9899
4266000000.0 -0.0694 -1.509
4269000000.0 -1.226 -0.8499
4272000000.0 -1.403 0.4117
4275000000.0 -0.5114 1.349
4278000000.0 0.7195 1.284
4281000000.0 1.445 0.1284
4284000000.0 1.032 -1.016
4288000000.0 -0.157 -1.404
4291000000.0 -1.14 -0.7572
4294000000.0 -1.31 0.4348
4297000000.0 -0.4922 1.221
4300000000.0 0.6112 1.143
4303000000.0 1.285 0.243
4306000000.0 0.9974 -0.8103
4309000000.0 0.03629 -1.288
4312000000.0 -0.9953 -0.8422
4316000000.0 -1.233 0.1892
4319000000.0 -0.6968 1.108
4322000000.0 0.3947 1.254
4325000000.0 1.245 0.513
4328000000.0 1.18 -0.6322
4331000000.0 0.2981 -1.317
4334000000.0 -0.8829 -1.066
4338000000.0 -1.387 -0.05461
4341000000.0 -0.9218 1.07
4344000000.0 0.195 1.399
4347000000.0 1.226 0.7311
4350000000.0 1.35 -0.4578
4353000000.0 0.5079 -1.357
4356000000.0 -0.7094 -1.242
4359000000.0 -1.442 -0.2596
4362000000.0 -1.084 0.9608
4366000000.0 0.02028 1.45
4369000000.0 1.129 0.9549
4372000000.0 1.434 -0.2564
4375000000.0 0.7369 -1.293
4378000000.0 -0.5566 -1.372
4381000000.0 -1.447 -0.4558
4384000000.0 -1.303 0.8602
4388000000.0 -0.1682 1.521
4391000000.0 1.097 1.123
4394000000.0 1.544 -0.1563
4397000000.0 0.8298 -1.302
4400000000.0 -0.5223 -1.501
4403000000.0 -1.527 -0.5406
4406000000.0 -1.348 0.8248
4409000000.0 -0.1719 1.558
4412000000.0 1.105 1.111
4416000000.0 1.577 -0.1879
4419000000.0 0.7912 -1.312
4422000000.0 -0.5276 -1.423
4425000000.0 -1.465 -0.4457
4428000000.0 -1.248 0.8627
4431000000.0 -0.1152 1.467
4434000000.0 1.079 0.9675
4438000000.0 1.375 -0.2835
4441000000.0 0.6362 -1.246
4444000000.0 -0.5869 -1.244
4447000000.0 -1.365 -0.3146
4450000000.0 -1.063 0.8182
4453000000.0 0.01828 1.336
4456000000.0 1.054 0.7925
4459000000.0 1.271 -0.3841
4462000000.0 0.4967 -1.16
4466000000.0 -0.6247 -1.07
4469000000.0 -1.227 -0.1437
4472000000.0 -0.8384 0.8499
4475000000.0 0.1853 1.191
4478000000.0 1.035 0.605
4481000000.0 1.117 -0.4408
4484000000.0 0.3412 -1.117
4488000000.0 -0.6609 -0.9228
4491000000.0 -1.135 -0.08677
4494000000.0 -0.7815 0.8338
4497000000.0 0.1802 1.124
4500000000.0 0.977 0.5552
4503000000.0 1.044 -0.4139
4506000000.0 0.3365 -1.015
4509000000.0 -0.5837 -0.9232
4512000000.0 -1.121 -0.1248
4516000000.0 -0.7612 0.7789
4519000000.0 0.1351 1.121
4522000000.0 0.9525 0.6097
4525000000.0 1.12 -0.3607
4528000000.0 0.4053 -1.095
4531000000.0 -0.5749 -1.005
4534000000.0 -1.136 -0.1894
4538000000.0 -0.8832 0.778
4541000000.0 0.02627 1.175
4544000000.0 0.9436 0.7335
4547000000.0 1.169 -0.2217
4550000000.0 0.5432 -1.071
4553000000.0 -0.4373 -1.114
4556000000.0 -1.165 -0.3439
4559000000.0 -1.036 0.6886
4562000000.0 -0.1563 1.248
4566000000.0 0.8423 0.9146
4569000000.0 1.271 -0.05132
4572000000.0 0.7764 -0.9959
4575000000.0 -0.2886 -1.271
4578000000.0 -1.16 -0.5786
4581000000.0 -1.221 0.505
4584000000.0 -0.3741 1.257
4588000000.0 0.7486 1.126
4591000000.0 1.358 0.1163
4594000000.0 0.9806 -0.9467
4597000000.0 -0.09651 -1.372
4600000000.0 -1.134 -0.8104
4603000000.0 -1.344 0.3508
4606000000.0 -0.5586 1.307
4609000000.0 0.6399 1.237
4612000000.0 1.356 0.2917
4616000000.0 1.081 -0.8747
4619000000.0 0.006471 -1.417
4622000000.0 -1.06 -0.9106
4625000000.0 -1.384 0.2662
4628000000.0 -0.6472 1.222
4631000000.0 0.5423 1.26
4634000000.0 1.328 0.3648
4638000000.0 1.128 -0.7854
4641000000.0 0.09349 -1.384
4644000000.0 -0.9717 -0.9213
4647000000.0 -1.329 0.2009
4650000000.0 -0.6559 1.161
4653000000.0 0.5017 1.218
4656000000.0 1.204 0.356
4659000000.0 1.049 -0.7458
4662000000.0 0.07003 -1.269
4666000000.0 -0.941 -0.856
4669000000.0 -1.184 0.1942
4672000000.0 -0.587 1.058
4675000000.0 0.4666 1.113
4678000000.0 1.093 0.3187
4681000000.0 0.9071 -0.6955
4684000000.0 0.06195 -1.146
4688000000.0 -0.8425 -0.7337
4691000000.0 -1.068 0.181
4694000000.0 -0.5165 0.9782
4697000000.0 0.4284 1.018
4700000000.0 1.052 0.2914
4703000000.0 0.8677 -0.6423
4706000000.0 0.02045 -1.081
4709000000.0 -0.844 -0.7199
4712000000.0 -1.043 0.217
4716000000.0 -0.456 0.9363
4719000000.0 0.4379 0.9761
4722000000.0 1.023 0.2009
4725000000.0 0.8479 -0.6193
4728000000.0 0.02104 -1.08
4731000000.0 -0.7686 -0.6723
4734000000.0 -1.035 0.1782
4738000000.0 -0.5098 0.9231
4741000000.0 0.3664 0.9748
4744000000.0 0.9531 0.334
4747000000.0 0.8854 -0.5602
4750000000.0 0.1517 -1.056
4753000000.0 -0.7085 -0.7943
4756000000.0 -1.104 0.0489
4759000000.0 -0.7093 0.8868
4762000000.0 0.2656 1.104
4766000000.0 0.9842 0.5006
4769000000.0 1.041 -0.4662
4772000000.0 0.3396 -1.113
4775000000.0 -0.6527 -0.9707
4778000000.0 -1.176 -0.1652
4781000000.0 -0.8677 0.7881
4784000000.0 0.0996 1.215
4788000000.0 0.9498 0.7332
4791000000.0 1.198 -0.2769
4794000000.0 0.5653 -1.097
4797000000.0 -0.467 -1.153
4800000000.0 -1.206 -0.3649
4803000000.0 -1.018 0.661
4806000000.0 -0.1892 1.249
4809000000.0 0.838 0.9371
4812000000.0 1.302 -0.02698
4816000000.0 0.7872 -1.027
4819000000.0 -0.2891 -1.297
4822000000.0 -1.189 -0.6148
4825000000.0 -1.238 0.5373
4828000000.0 -0.3939 1.314
4831000000.0 0.7739 1.148
4834000000.0 1.396 0.1201
4838000000.0 0.9837 -0.9803
4841000000.0 -0.1614 -1.396
4844000000.0 -1.154 -0.7373
4847000000.0 -1.329 0.4285
4850000000.0 -0.525 1.311
4853000000.0 0.6718 1.192
4856000000.0 1.368 0.2267
4859000000.0 1.042 -0.8731
4862000000.0 -0.04449 -1.349
4866000000.0 -1.085 -0.795
4869000000.0 -1.319 0.2882
4872000000.0 -0.556 1.194
4875000000.0 0.5709 1.197
4878000000.0 1.252 0.3344
4881000000.0 1.055 -0.77
4884000000.0 0.01633 -1.276
4888000000.0 -0.9483 -0.8314
4891000000.0 -1.203 0.2076
4894000000.0 -0.5835 1.055
4897000000.0 0.4362 1.08
4900000000.0 1.073 0.3234
4903000000.0 0.9125 -0.6185
4906000000.0 0.09804 -1.095
4909000000.0 -0.8068 -0.7391
4912000000.0 -1.046 0.1456
4916000000.0 -0.5318 0.8673
4919000000.0 0.335 0.9422
4922000000.0 0.9053 0.3566
4925000000.0 0.8366 -0.5066
4928000000.0 0.1475 -0.9755
4931000000.0 -0.625 -0.704
4934000000.0 -0.9722 0.061
4938000000.0 -0.5693 0.7395
4941000000.0 0.2227 0.9257
4944000000.0 0.8535 0.3927
4947000000.0 0.8767 -0.3861
4950000000.0 0.2218 -0.9249
4953000000.0 -0.5671 -0.7535
4956000000.0 -0.9712 -0.04455
4959000000.0 -0.6314 0.7079
4962000000.0 0.1442 0.978
4966000000.0 0.8639 0.5053
4969000000.0 0.9009 -0.3661
4972000000.0 0.2994 -0.9508
4975000000.0 -0.5335 -0.8433
4978000000.0 -1.034 -0.1387
4981000000.0 -0.7535 0.7105
4984000000.0 0.09394 1.061
4988000000.0 0.8451 0.6066
4991000000.0 1.018 -0.2677
4994000000.0 0.4625 -1.0
4997000000.0 -0.467 -0.972
5000000000.0 -1.1 -0.2904
5003000000.0 -0.9093 0.6558
5006000000.0 -0.0669 1.148
5009000000.0 0.8452 0.806
5012000000.0 1.166 -0.1462
5016000000.0 0.6588 -1.065
5019000000.0 -0.3558 -1.177
5022000000.0 -1.159 -0.4518
5025000000.0 -1.087 0.6306
5028000000.0 -0.2328 1.254
5031000000.0 0.8362 0.9489
5034000000.0 1.288 -0.02842
5038000000.0 0.8004 -0.9979
5041000000.0 -0.2351 -1.265
5044000000.0 -1.128 -0.6251
5047000000.0 -1.222 0.4453
5050000000.0 -0.4259 1.244
5053000000.0 0.6635 1.102
5056000000.0 1.305 0.1962
5059000000.0 0.9894 -0.8432
5062000000.0 -0.05266 -1.302
5066000000.0 -1.037 -0.8291
5069000000.0 -1.262 0.2734
5072000000.0 -0.6234 1.131
5075000000.0 0.4916 1.194
5078000000.0 1.231 0.3544
5081000000.0 1.033 -0.7093
5084000000.0 0.1503 -1.194
5088000000.0 -0.8541 -0.8653
5091000000.0 -1.235 0.09783
5094000000.0 -0.7064 1.018
5097000000.0 0.2717 1.15
5100000000.0 1.043 0.4957
5103000000.0 1.039 -0.4802
5106000000.0 0.3128 -1.076
5109000000.0 -0.6328 -0.9244
5112000000.0 -1.067 -0.1085
5116000000.0 -0.7658 0.751
5119000000.0 0.06981 1.084
5122000000.0 0.8266 0.6074
5125000000.0 1.022 -0.2602
5128000000.0 0.4029 -0.9292
5131000000.0 -0.4281 -0.8989
5134000000.0 -0.9664 -0.2171
5138000000.0 -0.804 0.5617
5141000000.0 -0.06742 0.9888
5144000000.0 0.7136 0.6553
5147000000.0 0.9551 -0.1484
5150000000.0 0.5042 -0.794
5153000000.0 -0.2725 -0.8743
5156000000.0 -0.869 -0.3269
5159000000.0 -0.7834 0.4694
5162000000.0 -0.123 0.8831
5166000000.0 0.6177 0.6606
5169000000.0 0.8988 -0.03948
5172000000.0 0.5539 -0.7339
5175000000.0 -0.2496 -0.8779
5178000000.0 -0.8353 -0.3984
5181000000.0 -0.8104 0.4332
5184000000.0 -0.1995 0.881
5188000000.0 0.606 0.7291
5191000000.0 0.9443 0.007035
5194000000.0 0.576 -0.7228
5197000000.0 -0.2092 -0.9296
5200000000.0 -0.8414 -0.3908
5203000000.0 -0.8182 0.4281
5206000000.0 -0.1896 0.934
5209000000.0 0.6131 0.7166
5212000000.0 0.9635 0.004157
5216000000.0 0.6159 -0.7461
5219000000.0 -0.2245 -0.9483
5222000000.0 -0.8875 -0.4456
5225000000.0 -0.9025 0.4195
5228000000.0 -0.2528 0.9711
5231000000.0 0.5966 0.8278
5234000000.0 1.007 0.06021
5238000000.0 0.6926 -0.7479
5241000000.0 -0.1517 -1.054
5244000000.0 -0.889 -0.5393
5247000000.0 -0.981 0.326
5250000000.0 -0.3969 0.9765
5253000000.0 0.5187 0.9366
5256000000.0 1.059 0.2047
5259000000.0 0.8127 -0.704
5262000000.0 -0.0003222 -1.099
5266000000.0 -0.8261 -0.7395
5269000000.0 -1.102 0.181
5272000000.0 -0.5648 0.9282
5275000000.0 0.3784 1.039
5278000000.0 1.028 0.4147
5281000000.0 0.9611 -0.5254
5284000000.0 0.2255 -1.065
5288000000.0 -0.6923 -0.8953
5291000000.0 -1.12 -0.04584
5294000000.0 -0.7611 0.7856
5297000000.0 0.1255 1.133
5300000000.0 0.9321 0.6238
5303000000.0 1.063 -0.3179
5306000000.0 0.4744 -1.066
5309000000.0 -0.4936 -1.024
5312000000.0 -1.127 -0.3054
5316000000.0 -0.9313 0.6948
5319000000.0 -0.0953 1.152
5322000000.0 0.8102 0.8293
5325000000.0 1.151 -0.1213
5328000000.0 0.6315 -0.9419
5331000000.0 -0.3192 -1.124
5334000000.0 -1.056 -0.4805
5338000000.0 -1.017 0.497
5341000000.0 -0.2524 1.087
5344000000.0 0.6879 0.899
5347000000.0 1.142 0.02673
5350000000.0 0.7447 -0.8531
5353000000.0 -0.1714 -1.084
5356000000.0 -0.9477 -0.5545
5359000000.0 -1.006 0.3745
5362000000.0 -0.3272 1.036
5366000000.0 0.5763 0.9263
5369000000.0 1.091 0.1144
5372000000.0 0.7319 -0.7677
5375000000.0 -0.1069 -1.043
5378000000.0 -0.8846 -0.5524
5381000000.0 -0.9753 0.3487
5384000000.0 -0.3351 0.9281
5388000000.0 0.5228 0.8555
5391000000.0 0.9639 0.09487
5394000000.0 0.6552 -0.6896
5397000000.0 -0.1061 -0.9288
5400000000.0 -0.7855 -0.4507
5403000000.0 -0.8384 0.3328
5406000000.0 -0.2717 0.8683
5409000000.0 0.4612 0.7314
5412000000.0 0.8647 0.06979
5416000000.0 0.5961 -0.6162
5419000000.0 -0.1209 -0.8805
5422000000.0 -0.741 -0.4158
5425000000.0 -0.8248 0.2933
5428000000.0 -0.2408 0.845
5431000000.0 0.4804 0.7265
5434000000.0 0.846 0.08031
5438000000.0 0.5863 -0.631
5441000000.0 -0.1157 -0.8869
5444000000.0 -0.7699 -0.4694
5447000000.0 -0.8278 0.3094
5450000000.0 -0.2805 0.8507
5453000000.0 0.4812 0.7661
5456000000.0 0.8903 0.06881
5459000000.0 0.6511 -0.6243
5462000000.0 -0.09283 -0.8866
5466000000.0 -0.7694 -0.5005
5469000000.0 -0.8809 0.2527
5472000000.0 -0.3364 0.8217
5475000000.0 0.4453 0.8265
5478000000.0 0.91 0.2345
5481000000.0 0.7547 -0.5985
5484000000.0 0.08008 -0.9901
5488000000.0 -0.6857 -0.6328
5491000000.0 -0.9598 0.1054
5494000000.0 -0.5182 0.8264
5497000000.0 0.2865 0.9495
5500000000.0 0.9157 0.3547
5503000000.0 0.8913 -0.4702
5506000000.0 0.2432 -1.014
5509000000.0 -0.5743 -0.8257
5512000000.0 -1.035 -0.05114
5516000000.0 -0.6909 0.7672
5519000000.0 0.1018 1.019
5522000000.0 0.8699 0.5844
5525000000.0 0.9927 -0.3087
5528000000.0 0.4079 -0.9556
5531000000.0 -0.4344 -0.9673
5534000000.0 -1.016 -0.2506
5538000000.0 -0.8565 0.5907
5541000000.0 -0.1093 1.115
5544000000.0 0.7625 0.7616
5547000000.0 1.085 -0.08726
5550000000.0 0.6159 -0.8928
5553000000.0 -0.3419 -1.004
5556000000.0 -0.9872 -0.384
5559000000.0 -0.9297 0.4822
5562000000.0 -0.2361 1.054
5566000000.0 0.6628 0.8513
5569000000.0 1.051 0.03636
5572000000.0 0.7013 -0.7598
5575000000.0 -0.1553 -0.991
5578000000.0 -0.8672 -0.5273
5581000000.0 -0.9429 0.3182
5584000000.0 -0.3434 0.9261
5588000000.0 0.5062 0.856
5591000000.0 0.9485 0.1636
5594000000.0 0.6948 -0.6313
5597000000.0 -0.03648 -0.9589
5600000000.0 -0.7296 -0.5675
5603000000.0 -0.8545 0.2181
5606000000.0 -0.4224 0.8203
5609000000.0 0.3602 0.8215
5612000000.0 0.8681 0.2039
5616000000.0 0.7061 -0.5358
5619000000.0 0.0458 -0.8623
5622000000.0 -0.6486 -0.5678
5625000000.0 -0.8473 0.1327
5628000000.0 -0.4212 0.7445
5631000000.0 0.3166 0.7515
5634000000.0 0.7856 0.2592
5638000000.0 0.7065 -0.4829
5641000000.0 0.07929 -0.8414
5644000000.0 -0.5969 -0.5807
5647000000.0 -0.8542 0.1218
5650000000.0 -0.4347 0.7424
5653000000.0 0.2908 0.8154
5656000000.0 0.8065 0.2696
5659000000.0 0.7086 -0.4688
5662000000.0 0.0988 -0.8492
5666000000.0 -0.6308 -0.5897
5669000000.0 -0.8877 0.09371
5672000000.0 -0.4652 0.7926
5675000000.0 0.3009 0.8603
5678000000.0 0.8643 0.2951
5681000000.0 0.7745 -0.5387
5684000000.0 0.08709 -0.9449
5688000000.0 -0.674 -0.6376
5691000000.0 -0.9088 0.1154
5694000000.0 -0.5465 0.8312
5697000000.0 0.3127 0.9389
5700000000.0 0.9371 0.3402
5703000000.0 0.8955 -0.4985
5706000000.0 0.1774 -0.9976
5709000000.0 -0.6487 -0.7643
5712000000.0 -1.029 0.0343
5716000000.0 -0.6306 0.8275
5719000000.0 0.2476 1.042
5722000000.0 0.9113 0.4788
5725000000.0 0.9413 -0.4309
5728000000.0 0.3061 -1.025
5731000000.0 -0.6016 -0.8451
5734000000.0 -1.093 -0.09055
5738000000.0 -0.7361 0.7664
5741000000.0 0.1035 1.099
5744000000.0 0.9158 0.6179
5747000000.0 1.058 -0.2868
5750000000.0 0.4348 -1.028
5753000000.0 -0.5043 -0.9741
5756000000.0 -1.111 -0.2498
5759000000.0 -0.8738 0.6797
5762000000.0 -0.07763 1.127
5766000000.0 0.8451 0.7511
5769000000.0 1.11 -0.1498
5772000000.0 0.6119 -0.9287
5775000000.0 -0.3333 -1.057
5778000000.0 -0.9919 -0.4231
5781000000.0 -0.9656 0.5397
5784000000.0 -0.2227 1.078
5788000000.0 0.6867 0.858
5791000000.0 1.065 0.042
5794000000.0 0.7088 -0.7986
5797000000.0 -0.1656 -1.073
5800000000.0 -0.9072 -0.5948
5803000000.0 -1.011 0.3195
5806000000.0 -0.3878 1.017
5809000000.0 0.5014 0.9223
5812000000.0 1.026 0.1669
5816000000.0 0.7761 -0.6849
5819000000.0 -0.01325 -1.02
5822000000.0 -0.8058 -0.6546
5825000000.0 -0.9744 0.2079
5828000000.0 -0.4476 0.9033
5831000000.0 0.3965 0.9249
5834000000.0 0.9405 0.2583
5838000000.0 0.8101 -0.562
5841000000.0 0.03881 -0.9353
5844000000.0 -0.7194 -0.6457
5847000000.0 -0.9637 0.1378
5850000000.0 -0.4721 0.8131
5853000000.0 0.3274 0.8754
5856000000.0 0.9082 0.2527
5859000000.0 0.7915 -0.5437
5862000000.0 0.06636 -0.9432
5866000000.0 -0.6592 -0.6515
5869000000.0 -0.8918 0.1126
5872000000.0 -0.4862 0.766
5875000000.0 0.2735 0.8652
5878000000.0 0.8509 0.2994
5881000000.0 0.761 -0.4595
5884000000.0 0.09984 -0.8657
5888000000.0 -0.6145 -0.6241
5891000000.0 -0.8696 0.06461
5894000000.0 -0.4965 0.7305
5897000000.0 0.2396 0.8229
5900000000.0 0.7886 0.2989
5903000000.0 0.7666 -0.4369
5906000000.0 0.1808 -0.838
5909000000.0 -0.5509 -0.6537
5912000000.0 -0.8557 0.01645
5916000000.0 -0.5168 0.6741
5919000000.0 0.2105 0.8581
5922000000.0 0.7859 0.4064
5925000000.0 0.8057 -0.3386
5928000000.0 0.2404 -0.8516
5931000000.0 -0.5138 -0.7405
5934000000.0 -0.8754 -0.07833
5938000000.0 -0.6275 0.6261
5941000000.0 0.07011 0.8599
5944000000.0 0.749 0.5265
5947000000.0 0.871 -0.2526
5950000000.0 0.3615 -0.8173
5953000000.0 -0.4158 -0.8151
5956000000.0 -0.9026 -0.229
5959000000.0 -0.7579 0.5615
5962000000.0 -0.06907 0.98
5966000000.0 0.6889 0.6517
5969000000.0 0.9389 -0.1245
5972000000.0 0.5223 -0.7924
5975000000.0 -0.2845 -0.9403
5978000000.0 -0.9521 -0.3768
5981000000.0 -0.879 0.4607
5984000000.0 -0.2461 0.9693
5988000000.0 0.5914 0.7793
5991000000.0 0.9764 0.04521
5994000000.0 0.6716 -0.7527
5997000000.0 -0.1433 -0.972
6000000000.0 -0.8853 -0.514
6003000000.0 -0.9605 0.3138
6006000000.0 -0.3725 0.9383
6009000000.0 0.4989 0.846
6012000000.0 0.9573 0.151
6016000000.0 0.7495 -0.6468
6019000000.0 -0.03372 -0.9659
6022000000.0 -0.7631 -0.6066
6025000000.0 -0.9704 0.2566
6028000000.0 -0.4498 0.8835
6031000000.0 0.4053 0.896
6034000000.0 0.9455 0.2415
6038000000.0 0.7866 -0.5659
6041000000.0 0.05527 -0.9573
6044000000.0 -0.7215 -0.6503
6047000000.0 -0.9493 0.1291
6050000000.0 -0.4849 0.8293
6053000000.0 0.3154 0.8997
6056000000.0 0.86 0.3049
6059000000.0 0.7957 -0.4783
6062000000.0 0.1101 -0.9145
6066000000.0 -0.6606 -0.6577
6069000000.0 -0.9104 0.08114
6072000000.0 -0.4858 0.7337
6075000000.0 0.2464 0.8576
6078000000.0 0.8172 0.3224
6081000000.0 0.7781 -0.4577
6084000000.0 0.1554 -0.8681
6088000000.0 -0.5775 -0.6058
6091000000.0 -0.8616 0.01676
6094000000.0 -0.5317 0.6998
6097000000.0 0.2385 0.8273
6100000000.0 0.7918 0.3476
6103000000.0 0.7854 -0.3807
6106000000.0 0.2071 -0.8324
6109000000.0 -0.5383 -0.6622
6112000000.0 -0.865 -0.02542
6116000000.0 -0.5302 0.6623
6119000000.0 0.1814 0.8389
6122000000.0 0.7978 0.39
6125000000.0 0.7963 -0.3362
6128000000.0 0.2174 -0.843
6131000000.0 -0.5345 -0.7316
6134000000.0 -0.8794 -0.02743
6138000000.0 -0.6069 0.6328
6141000000.0 0.1285 0.8621
6144000000.0 0.7477 0.4521
6147000000.0 0.8324 -0.3069
6150000000.0 0.2875 -0.8667
6153000000.0 -0.4726 -0.7293
6156000000.0 -0.8843 -0.1247
6159000000.0 -0.6617 0.6177
6162000000.0 0.08268 0.9169
6166000000.0 0.7454 0.4996
6169000000.0 0.8629 -0.2813
6172000000.0 0.3802 -0.8374
6175000000.0 -0.437 -0.8463
6178000000.0 -0.9385 -0.1774
6181000000.0 -0.7472 0.6064
6184000000.0 0.01148 0.9453
6188000000.0 0.7614 0.6183
6191000000.0 0.9542 -0.1924
6194000000.0 0.4328 -0.8273
6197000000.0 -0.3697 -0.8855
6200000000.0 -0.9021 -0.2738
6203000000.0 -0.799 0.5419
6206000000.0 -0.116 0.9072
6209000000.0 0.6453 0.6412
6212000000.0 0.9365 -0.07061
6216000000.0 0.5126 -0.7494
6219000000.0 -0.2591 -0.917
6222000000.0 -0.8642 -0.3768
6225000000.0 -0.8125 0.3816
6228000000.0 -0.2195 0.8842
6231000000.0 0.5341 0.699
6234000000.0 0.8892 0.01408
6238000000.0 0.5984 -0.6832
6241000000.0 -0.1172 -0.865
6244000000.0 -0.7673 -0.4607
6247000000.0 -0.8218 0.2809
6250000000.0 -0.3246 0.7921
6253000000.0 0.4463 0.7599
6256000000.0 0.8377 0.1505
6259000000.0 0.6635 -0.5025
6262000000.0 -0.01139 -0.8343
6266000000.0 -0.5943 -0.5137
