! Created with skrf 1.8.0 (http://scikit-rf.org).
# Hz S RI R 50.0 
!freq ReS11 ImS11
4000000000.0 -0.2567 -1.457
4003000000.0 -1.233 -0.7389
4006000000.0 -1.375 0.5634
4009000000.0 -0.4349 1.458
4012000000.0 0.8687 1.271
4016000000.0 1.572 0.1343
4019000000.0 1.082 -1.158
4022000000.0 -0.1888 -1.558
4025000000.0 -1.354 -0.8325
4028000000.0 -1.521 0.5991
4031000000.0 -0.4978 1.517
4034000000.0 0.9324 1.371
4038000000.0 1.618 0.1682
4041000000.0 1.115 -1.132
4044000000.0 -0.2105 -1.583
4047000000.0 -1.438 -0.838
4050000000.0 -1.525 0.5248
4053000000.0 -0.5436 1.519
4056000000.0 0.8523 1.355
4059000000.0 1.568 0.2276
4062000000.0 1.183 -1.062
4066000000.0 -0.08409 -1.633
4069000000.0 -1.288 -0.9686
4072000000.0 -1.538 0.3705
4075000000.0 -0.7325 1.455
4078000000.0 0.666 1.484
4081000000.0 1.573 0.4536
4084000000.0 1.345 -0.9449
4088000000.0 0.1427 -1.638
4091000000.0 -1.156 -1.149
4094000000.0 -1.611 0.1653
4097000000.0 -0.9038 1.344
4100000000.0 0.4894 1.555
4103000000.0 1.463 0.641
4106000000.0 1.387 -0.7437
4109000000.0 0.3607 -1.51
4112000000.0 -0.9177 -1.244
4116000000.0 -1.5 -0.08782
4119000000.0 -1.055 1.048
4122000000.0 0.1274 1.479
4125000000.0 1.175 0.8718
4128000000.0 1.444 -0.3262
4131000000.0 0.692 -1.283
4134000000.0 -0.5031 -1.377
4138000000.0 -1.377 -0.4773
4141000000.0 -1.297 0.7274
4144000000.0 -0.2754 1.456
4147000000.0 0.9362 1.187
4150000000.0 1.523 0.02926
4153000000.0 0.9743 -1.12
4156000000.0 -0.2195 -1.512
4159000000.0 -1.307 -0.7999
4162000000.0 -1.422 0.5005
4166000000.0 -0.5355 1.376
4169000000.0 0.7299 1.324
4172000000.0 1.494 0.2907
4175000000.0 1.159 -0.9367
4178000000.0 0.0396 -1.505
4181000000.0 -1.094 -0.968
4184000000.0 -1.477 0.2568
4188000000.0 -0.7642 1.31
4191000000.0 0.5369 1.418
4194000000.0 1.44 0.5442
4197000000.0 1.291 -0.8021
4200000000.0 0.185 -1.601
4203000000.0 -1.099 -1.152
4206000000.0 -1.617 0.1424
4209000000.0 -0.8822 1.339
4212000000.0 0.5484 1.584
4216000000.0 1.538 0.5165
4219000000.0 1.4 -0.9693
4222000000.0 0.07768 -1.69
4225000000.0 -1.271 -1.086
4228000000.0 -1.643 0.3271
4231000000.0 -0.6898 1.507
4234000000.0 0.7474 1.424
4238000000.0 1.61 0.242
4241000000.0 1.179 -1.11
4244000000.0 -0.1323 -1.567
4247000000.0 -1.338 -0.8469
4250000000.0 -1.43 0.536
4253000000.0 -0.4143 1.461
4256000000.0 0.8583 1.208
4259000000.0 1.51 0.09099
4262000000.0 0.9664 -1.143
4266000000.0 -0.3062 -1.436
4269000000.0 -1.3 -0.6741
4272000000.0 -1.347 0.6389
4275000000.0 -0.2874 1.399
4278000000.0 0.9079 1.093
4281000000.0 1.44 -0.03552
4284000000.0 0.8719 -1.118
4288000000.0 -0.3267 -1.329
4291000000.0 -1.256 -0.5663
4294000000.0 -1.182 0.6041
4297000000.0 -0.3155 1.284
4300000000.0 0.7769 1.027
4303000000.0 1.267 0.07177
4306000000.0 0.9113 -0.9754
4309000000.0 -0.1638 -1.272
4312000000.0 -1.057 -0.6939
4316000000.0 -1.213 0.3969
4319000000.0 -0.5615 1.19
4322000000.0 0.5595 1.206
4325000000.0 1.292 0.3102
4328000000.0 1.072 -0.7651
4331000000.0 0.1355 -1.334
4334000000.0 -0.961 -0.9493
4338000000.0 -1.352 0.1266
4341000000.0 -0.7646 1.153
4344000000.0 0.3958 1.342
4347000000.0 1.305 0.5574
4350000000.0 1.285 -0.6376
4353000000.0 0.2987 -1.41
4356000000.0 -0.9302 -1.12
4359000000.0 -1.465 -0.008641
4362000000.0 -0.9543 1.101
4366000000.0 0.2536 1.476
4369000000.0 1.263 0.7339
4372000000.0 1.383 -0.5309
4375000000.0 0.5178 -1.4
4378000000.0 -0.7903 -1.28
4381000000.0 -1.514 -0.2299
4384000000.0 -1.145 1.037
4388000000.0 0.09867 1.584
4391000000.0 1.29 0.8841
4394000000.0 1.494 -0.4377
4397000000.0 0.5996 -1.472
4400000000.0 -0.8108 -1.325
4403000000.0 -1.537 -0.2265
4406000000.0 -1.166 1.065
4409000000.0 0.1372 1.563
4412000000.0 1.302 0.8208
4416000000.0 1.436 -0.5047
4419000000.0 0.4482 -1.427
4422000000.0 -0.7875 -1.243
4425000000.0 -1.476 -0.1011
4428000000.0 -0.9568 1.068
4431000000.0 0.2476 1.373
4434000000.0 1.246 0.6117
4438000000.0 1.226 -0.5917
4441000000.0 0.2826 -1.317
4444000000.0 -0.815 -1.036
4447000000.0 -1.285 0.03977
4450000000.0 -0.7628 1.046
4453000000.0 0.3582 1.241
4456000000.0 1.166 0.4479
4459000000.0 1.039 -0.6391
4462000000.0 0.1692 -1.198
4466000000.0 -0.861 -0.8769
4469000000.0 -1.2 0.128
4472000000.0 -0.6221 1.051
4475000000.0 0.4535 1.08
4478000000.0 1.108 0.3155
4481000000.0 0.9443 -0.6663
4484000000.0 0.02892 -1.154
4488000000.0 -0.8583 -0.7626
4491000000.0 -1.119 0.2014
4494000000.0 -0.5619 0.9742
4497000000.0 0.4092 1.023
4500000000.0 1.096 0.3217
4503000000.0 0.9417 -0.6323
4506000000.0 0.09954 -1.11
4509000000.0 -0.8007 -0.7664
4512000000.0 -1.12 0.1323
4516000000.0 -0.6207 0.9676
4519000000.0 0.3517 1.076
4522000000.0 1.079 0.4091
4525000000.0 1.004 -0.5564
4528000000.0 0.2032 -1.16
4531000000.0 -0.7823 -0.8901
4534000000.0 -1.2 0.04178
4538000000.0 -0.7301 0.9468
4541000000.0 0.2483 1.18
4544000000.0 1.062 0.5807
4547000000.0 1.127 -0.4694
4550000000.0 0.3588 -1.182
4553000000.0 -0.6508 -1.029
4556000000.0 -1.227 -0.1534
4559000000.0 -0.935 0.8756
4562000000.0 0.04707 1.261
4566000000.0 1.015 0.7612
4569000000.0 1.271 -0.2876
4572000000.0 0.5976 -1.17
4575000000.0 -0.5009 -1.217
4578000000.0 -1.294 -0.384
4581000000.0 -1.129 0.758
4584000000.0 -0.1449 1.369
4588000000.0 0.9525 0.9799
4591000000.0 1.381 -0.09728
4594000000.0 0.799 -1.125
4597000000.0 -0.3695 -1.363
4600000000.0 -1.275 -0.5469
4603000000.0 -1.201 0.6454
4606000000.0 -0.2678 1.381
4609000000.0 0.8769 1.098
4612000000.0 1.425 0.02928
4616000000.0 0.8974 -1.086
4619000000.0 -0.2672 -1.353
4622000000.0 -1.228 -0.6653
4625000000.0 -1.231 0.5493
4628000000.0 -0.3597 1.278
4631000000.0 0.7885 1.117
4634000000.0 1.35 0.07093
4638000000.0 0.9088 -0.9816
4641000000.0 -0.1896 -1.34
4644000000.0 -1.163 -0.6528
4647000000.0 -1.174 0.505
4650000000.0 -0.3734 1.28
4653000000.0 0.7307 1.051
4656000000.0 1.262 0.06493
4659000000.0 0.8446 -0.9386
4662000000.0 -0.2166 -1.191
4666000000.0 -1.091 -0.5468
4669000000.0 -1.1 0.4926
4672000000.0 -0.2953 1.111
4675000000.0 0.6713 0.8945
4678000000.0 1.144 0.01201
4681000000.0 0.7122 -0.8681
4684000000.0 -0.1799 -1.127
4688000000.0 -0.9607 -0.4942
4691000000.0 -0.9952 0.4184
4694000000.0 -0.2982 1.039
4697000000.0 0.6556 0.8517
4700000000.0 1.093 0.02411
4703000000.0 0.6774 -0.8071
4706000000.0 -0.2291 -1.034
4709000000.0 -0.9558 -0.4785
4712000000.0 -0.9601 0.4453
4716000000.0 -0.2645 1.054
4719000000.0 0.6295 0.848
4722000000.0 1.059 0.0166
4725000000.0 0.6938 -0.8236
4728000000.0 -0.2056 -1.035
4731000000.0 -0.8915 -0.5514
4734000000.0 -0.981 0.383
4738000000.0 -0.3134 1.028
4741000000.0 0.5802 0.897
4744000000.0 1.068 0.1587
4747000000.0 0.811 -0.7352
4750000000.0 -0.05981 -1.08
4753000000.0 -0.8603 -0.6812
4756000000.0 -1.089 0.2492
4759000000.0 -0.5196 1.008
4762000000.0 0.4477 1.069
4766000000.0 1.088 0.3265
4769000000.0 0.9788 -0.6703
4772000000.0 0.1506 -1.164
4775000000.0 -0.8159 -0.8825
4778000000.0 -1.209 0.06076
4781000000.0 -0.7296 0.9995
4784000000.0 0.2635 1.205
4788000000.0 1.133 0.5693
4791000000.0 1.124 -0.4943
4794000000.0 0.3896 -1.186
4797000000.0 -0.697 -1.088
4800000000.0 -1.259 -0.1667
4803000000.0 -0.9566 0.8567
4806000000.0 0.04486 1.274
4809000000.0 1.018 0.8189
4812000000.0 1.265 -0.2559
4816000000.0 0.6015 -1.188
4819000000.0 -0.5192 -1.25
4822000000.0 -1.311 -0.4034
4825000000.0 -1.162 0.7579
4828000000.0 -0.1197 1.37
4831000000.0 0.9799 0.9805
4834000000.0 1.377 -0.1405
4838000000.0 0.7857 -1.151
4841000000.0 -0.4286 -1.352
4844000000.0 -1.279 -0.5119
4847000000.0 -1.203 0.6701
4850000000.0 -0.2565 1.3
4853000000.0 0.9021 1.055
4856000000.0 1.346 -0.03535
4859000000.0 0.8167 -1.053
4862000000.0 -0.2838 -1.298
4866000000.0 -1.197 -0.5901
4869000000.0 -1.189 0.5181
4872000000.0 -0.3217 1.259
4875000000.0 0.7402 1.041
4878000000.0 1.25 0.05071
4881000000.0 0.795 -0.9324
4884000000.0 -0.1975 -1.185
4888000000.0 -1.053 -0.5865
4891000000.0 -1.08 0.4386
4894000000.0 -0.3256 1.09
4897000000.0 0.596 0.916
4900000000.0 1.062 0.08294
4903000000.0 0.7637 -0.7727
4906000000.0 -0.146 -1.028
4909000000.0 -0.8799 -0.5524
4912000000.0 -0.9459 0.3489
4916000000.0 -0.3253 0.9269
4919000000.0 0.5021 0.8399
4922000000.0 0.9544 0.1568
4925000000.0 0.7134 -0.6699
4928000000.0 -0.0493 -0.9358
4931000000.0 -0.7373 -0.5581
4934000000.0 -0.9196 0.2541
4938000000.0 -0.369 0.8438
4941000000.0 0.4173 0.8478
4944000000.0 0.9225 0.2193
4947000000.0 0.7385 -0.5791
4950000000.0 0.03487 -0.9776
4953000000.0 -0.7221 -0.622
4956000000.0 -0.9412 0.1547
4959000000.0 -0.4794 0.8439
4962000000.0 0.3414 0.9231
4966000000.0 0.9548 0.3233
4969000000.0 0.8641 -0.5706
4972000000.0 0.1261 -1.012
4975000000.0 -0.6988 -0.7415
4978000000.0 -1.051 0.09747
4981000000.0 -0.601 0.8589
4984000000.0 0.2833 1.028
4988000000.0 0.9871 0.4657
4991000000.0 0.9849 -0.4613
4994000000.0 0.2727 -1.06
4997000000.0 -0.6663 -0.9257
5000000000.0 -1.12 -0.05555
5003000000.0 -0.8066 0.8704
5006000000.0 0.1301 1.205
5009000000.0 1.043 0.6461
5012000000.0 1.173 -0.375
5016000000.0 0.4617 -1.153
5019000000.0 -0.6095 -1.095
5022000000.0 -1.256 -0.2138
5025000000.0 -0.966 0.8163
5028000000.0 0.04093 1.28
5031000000.0 1.053 0.7907
5034000000.0 1.256 -0.2651
5038000000.0 0.5822 -1.119
5041000000.0 -0.4828 -1.21
5044000000.0 -1.224 -0.4197
5047000000.0 -1.106 0.6936
5050000000.0 -0.1746 1.287
5053000000.0 0.859 0.9734
5056000000.0 1.277 -0.06233
5059000000.0 0.7939 -0.9854
5062000000.0 -0.255 -1.232
5066000000.0 -1.128 -0.5915
5069000000.0 -1.151 0.4973
5072000000.0 -0.3638 1.222
5075000000.0 0.7037 1.034
5078000000.0 1.221 0.1559
5081000000.0 0.868 -0.8569
5084000000.0 -0.08499 -1.193
5088000000.0 -0.9667 -0.6748
5091000000.0 -1.129 0.3302
5094000000.0 -0.4665 1.064
5097000000.0 0.5054 1.003
5100000000.0 1.089 0.2788
5103000000.0 0.8644 -0.6168
5106000000.0 0.07336 -1.067
5109000000.0 -0.7489 -0.7299
5112000000.0 -1.034 0.1262
5116000000.0 -0.6243 0.8587
5119000000.0 0.3246 0.9616
5122000000.0 0.9133 0.4046
5125000000.0 0.8681 -0.4678
5128000000.0 0.2382 -0.9553
5131000000.0 -0.621 -0.7487
5134000000.0 -0.9777 -0.0359
5138000000.0 -0.5829 0.778
5141000000.0 0.1937 0.9235
5144000000.0 0.8159 0.416
5147000000.0 0.8129 -0.382
5150000000.0 0.2424 -0.8935
5153000000.0 -0.531 -0.7606
5156000000.0 -0.9009 -0.03904
5159000000.0 -0.6128 0.6302
5162000000.0 0.09929 0.8772
5166000000.0 0.7836 0.4496
5169000000.0 0.8422 -0.2881
5172000000.0 0.2788 -0.8382
5175000000.0 -0.4769 -0.7564
5178000000.0 -0.9022 -0.07924
5181000000.0 -0.6435 0.6322
5184000000.0 0.08946 0.9096
5188000000.0 0.7697 0.5076
5191000000.0 0.8814 -0.3142
5194000000.0 0.3016 -0.8567
5197000000.0 -0.5115 -0.8081
5200000000.0 -0.9488 -0.1145
5203000000.0 -0.7077 0.6658
5206000000.0 0.07757 0.9458
5209000000.0 0.8455 0.5464
5212000000.0 0.9238 -0.2899
5216000000.0 0.359 -0.8809
5219000000.0 -0.4906 -0.862
5222000000.0 -0.9863 -0.1744
5225000000.0 -0.7625 0.6671
5228000000.0 0.002441 1.03
5231000000.0 0.7895 0.6368
5234000000.0 0.9799 -0.1973
5238000000.0 0.4784 -0.9278
5241000000.0 -0.4085 -0.9611
5244000000.0 -1.023 -0.2898
5247000000.0 -0.8834 0.6195
5250000000.0 -0.1026 1.068
5253000000.0 0.7787 0.79
5256000000.0 1.093 -0.06895
5259000000.0 0.64 -0.8489
5262000000.0 -0.2787 -1.057
5266000000.0 -0.9848 -0.4731
5269000000.0 -0.9987 0.4439
5272000000.0 -0.3205 1.059
5275000000.0 0.5853 0.9257
5278000000.0 1.093 0.1426
5281000000.0 0.807 -0.7395
5284000000.0 -0.05271 -1.119
5288000000.0 -0.8865 -0.6661
5291000000.0 -1.089 0.2223
5294000000.0 -0.5153 0.9724
5297000000.0 0.4165 1.036
5300000000.0 1.038 0.3563
5303000000.0 0.9499 -0.5795
5306000000.0 0.1715 -1.109
5309000000.0 -0.7626 -0.8475
5312000000.0 -1.135 0.02235
5316000000.0 -0.6901 0.8892
5319000000.0 0.2263 1.093
5322000000.0 0.9861 0.5017
5325000000.0 1.041 -0.4694
5328000000.0 0.3251 -1.083
5331000000.0 -0.6241 -0.9062
5334000000.0 -1.112 -0.09183
5338000000.0 -0.7543 0.748
5341000000.0 0.1459 1.113
5344000000.0 0.8927 0.5822
5347000000.0 1.012 -0.3092
5350000000.0 0.3749 -0.9801
5353000000.0 -0.521 -0.8973
5356000000.0 -1.013 -0.1366
5359000000.0 -0.7532 0.7013
5362000000.0 0.05993 1.024
5366000000.0 0.8469 0.5895
5369000000.0 0.939 -0.3124
5372000000.0 0.3644 -0.9025
5375000000.0 -0.5151 -0.8254
5378000000.0 -0.9521 -0.1448
5381000000.0 -0.6701 0.647
5384000000.0 0.123 0.9482
5388000000.0 0.7859 0.4966
5391000000.0 0.8506 -0.2903
5394000000.0 0.2462 -0.8441
5397000000.0 -0.5093 -0.737
5400000000.0 -0.8925 -0.08774
5403000000.0 -0.5909 0.6474
5406000000.0 0.1203 0.8512
5409000000.0 0.7496 0.3891
5412000000.0 0.8007 -0.3494
5416000000.0 0.2459 -0.8416
5419000000.0 -0.4844 -0.6854
5422000000.0 -0.8545 -0.02004
5425000000.0 -0.5853 0.6332
5428000000.0 0.142 0.8354
5431000000.0 0.7395 0.4205
5434000000.0 0.7852 -0.3248
5438000000.0 0.2322 -0.8679
5441000000.0 -0.4963 -0.7519
5444000000.0 -0.8912 -0.0737
5447000000.0 -0.6367 0.6741
5450000000.0 0.07801 0.9142
5453000000.0 0.7864 0.4995
5456000000.0 0.8605 -0.2886
5459000000.0 0.3437 -0.8307
5462000000.0 -0.4552 -0.8539
5466000000.0 -0.9409 -0.1658
5469000000.0 -0.7447 0.5887
5472000000.0 0.007765 0.9698
5475000000.0 0.7658 0.6335
5478000000.0 0.9765 -0.164
5481000000.0 0.4838 -0.8604
5484000000.0 -0.319 -0.9371
5488000000.0 -0.9628 -0.39
5491000000.0 -0.9574 0.4927
5494000000.0 -0.2321 1.032
5497000000.0 0.6732 0.8233
5500000000.0 1.047 0.01666
5503000000.0 0.6876 -0.8045
5506000000.0 -0.2138 -1.077
5509000000.0 -0.9047 -0.5009
5512000000.0 -1.008 0.3399
5516000000.0 -0.3669 1.021
5519000000.0 0.5228 0.9174
5522000000.0 1.042 0.1584
5525000000.0 0.795 -0.7381
5528000000.0 -0.01396 -1.076
5531000000.0 -0.8414 -0.6406
5534000000.0 -1.052 0.2063
5538000000.0 -0.5006 0.9451
5541000000.0 0.4089 1.001
5544000000.0 0.996 0.3277
5547000000.0 0.8601 -0.5684
5550000000.0 0.1059 -1.064
5553000000.0 -0.7187 -0.7363
5556000000.0 -1.015 0.07168
5559000000.0 -0.5764 0.869
5562000000.0 0.2798 0.934
5566000000.0 0.9368 0.382
5569000000.0 0.8542 -0.4592
5572000000.0 0.1987 -0.9727
5575000000.0 -0.6077 -0.7288
5578000000.0 -0.929 -0.01061
5581000000.0 -0.5483 0.7059
5584000000.0 0.2034 0.8695
5588000000.0 0.7952 0.4004
5591000000.0 0.7968 -0.3836
5594000000.0 0.2109 -0.858
5597000000.0 -0.5064 -0.683
5600000000.0 -0.8654 -0.02329
5603000000.0 -0.5241 0.6495
5606000000.0 0.1554 0.8232
5609000000.0 0.7314 0.3829
5612000000.0 0.7605 -0.3067
5616000000.0 0.2175 -0.782
5619000000.0 -0.4884 -0.6397
5622000000.0 -0.7882 -0.03106
5625000000.0 -0.5294 0.6104
5628000000.0 0.1317 0.7741
5631000000.0 0.7154 0.384
5634000000.0 0.7622 -0.3314
5638000000.0 0.1995 -0.7898
5641000000.0 -0.5064 -0.6898
5644000000.0 -0.8702 -0.04015
5647000000.0 -0.5624 0.6459
5650000000.0 0.1451 0.8165
5653000000.0 0.7734 0.4028
5656000000.0 0.7998 -0.3363
5659000000.0 0.2482 -0.8567
5662000000.0 -0.5444 -0.7434
5666000000.0 -0.892 -0.05466
5669000000.0 -0.618 0.6996
5672000000.0 0.1494 0.9345
5675000000.0 0.8373 0.4742
5678000000.0 0.8948 -0.3269
5681000000.0 0.2883 -0.9156
5684000000.0 -0.5476 -0.818
5688000000.0 -1.022 -0.1122
5691000000.0 -0.7631 0.7135
5694000000.0 0.07957 1.036
5697000000.0 0.8765 0.5787
5700000000.0 1.011 -0.3241
5703000000.0 0.4213 -0.9776
5706000000.0 -0.5043 -0.9305
5709000000.0 -1.059 -0.1927
5712000000.0 -0.8371 0.71
5716000000.0 0.002864 1.106
5719000000.0 0.848 0.6889
5722000000.0 1.052 -0.217
5725000000.0 0.4829 -0.9625
5728000000.0 -0.4223 -1.035
5731000000.0 -1.069 -0.3334
5734000000.0 -0.9198 0.603
5738000000.0 -0.1042 1.103
5741000000.0 0.7667 0.7793
5744000000.0 1.109 -0.105
5747000000.0 0.6513 -0.9349
5750000000.0 -0.3332 -1.113
5753000000.0 -1.067 -0.4875
5756000000.0 -0.9699 0.4693
5759000000.0 -0.2461 1.112
5762000000.0 0.6708 0.8598
5766000000.0 1.095 0.009039
5769000000.0 0.7132 -0.861
5772000000.0 -0.1778 -1.071
5775000000.0 -0.9381 -0.4862
5778000000.0 -0.994 0.38
5781000000.0 -0.3227 0.9814
5784000000.0 0.61 0.9
5788000000.0 1.053 0.07596
5791000000.0 0.7085 -0.7391
5794000000.0 -0.142 -1.004
5797000000.0 -0.871 -0.5394
5800000000.0 -0.9312 0.3122
5803000000.0 -0.3328 0.9221
5806000000.0 0.5219 0.8292
5809000000.0 0.9742 0.0955
5812000000.0 0.6558 -0.7014
5816000000.0 -0.1155 -0.9714
5819000000.0 -0.8111 -0.4974
5822000000.0 -0.887 0.3045
5825000000.0 -0.2544 0.8676
5828000000.0 0.5015 0.7561
5831000000.0 0.8908 0.05096
5834000000.0 0.6356 -0.6624
5838000000.0 -0.09563 -0.8888
5841000000.0 -0.738 -0.442
5844000000.0 -0.794 0.3037
5847000000.0 -0.268 0.8258
5850000000.0 0.5429 0.718
5853000000.0 0.8654 0.04475
5856000000.0 0.5773 -0.6791
5859000000.0 -0.1584 -0.8386
5862000000.0 -0.7717 -0.4049
5866000000.0 -0.7855 0.3544
5869000000.0 -0.2014 0.8439
5872000000.0 0.5571 0.6939
5875000000.0 0.8674 0.02155
5878000000.0 0.575 -0.6807
5881000000.0 -0.1875 -0.8906
5884000000.0 -0.7857 -0.3982
5888000000.0 -0.8205 0.3465
5891000000.0 -0.2602 0.8935
5894000000.0 0.531 0.7413
5897000000.0 0.9096 0.03684
5900000000.0 0.612 -0.6502
5903000000.0 -0.1401 -0.9281
5906000000.0 -0.831 -0.4944
5909000000.0 -0.9135 0.3345
5912000000.0 -0.304 0.9045
5916000000.0 0.502 0.8142
5919000000.0 0.948 0.1305
5922000000.0 0.7032 -0.6774
5925000000.0 -0.09819 -0.9705
5928000000.0 -0.8429 -0.5529
5931000000.0 -0.9273 0.3031
5934000000.0 -0.422 0.9255
5938000000.0 0.4458 0.9087
5941000000.0 1.004 0.1757
5944000000.0 0.7509 -0.6508
5947000000.0 -0.02491 -1.024
5950000000.0 -0.823 -0.6268
5953000000.0 -0.9712 0.2731
5956000000.0 -0.461 0.9126
5959000000.0 0.4444 0.9131
5962000000.0 0.9936 0.222
5966000000.0 0.7819 -0.645
5969000000.0 -0.01845 -1.035
5972000000.0 -0.8147 -0.6046
5975000000.0 -0.9991 0.2505
5978000000.0 -0.4052 0.9188
5981000000.0 0.4664 0.8799
5984000000.0 0.9835 0.2066
5988000000.0 0.7452 -0.6445
5991000000.0 -0.09034 -0.9586
5994000000.0 -0.8312 -0.5427
5997000000.0 -0.9085 0.3211
6000000000.0 -0.3289 0.9093
6003000000.0 0.5162 0.8071
6006000000.0 0.8817 0.1108
6009000000.0 0.5956 -0.6782
6012000000.0 -0.1548 -0.8554
6016000000.0 -0.7385 -0.404
6019000000.0 -0.7799 0.3368
6022000000.0 -0.2118 0.8117
6025000000.0 0.4934 0.6623
6028000000.0 0.8159 0.01396
6031000000.0 0.5084 -0.6604
6034000000.0 -0.2014 -0.7944
6038000000.0 -0.7373 -0.3169
6041000000.0 -0.7522 0.39
6044000000.0 -0.1424 0.8128
6047000000.0 0.5682 0.6007
6050000000.0 0.8198 -0.07397
6053000000.0 0.4521 -0.6948
6056000000.0 -0.2412 -0.7769
6059000000.0 -0.7889 -0.2806
6062000000.0 -0.7247 0.4489
6066000000.0 -0.09605 0.8707
6069000000.0 0.618 0.6003
6072000000.0 0.8707 -0.108
6075000000.0 0.4591 -0.7655
6078000000.0 -0.3124 -0.8401
6081000000.0 -0.8833 -0.2508
6084000000.0 -0.7264 0.5599
6088000000.0 -0.03284 0.9276
6091000000.0 0.7116 0.6085
6094000000.0 0.9703 -0.1747
6097000000.0 0.4682 -0.8664
6100000000.0 -0.4121 -0.9009
6103000000.0 -0.9897 -0.2365
6106000000.0 -0.8024 0.6349
6109000000.0 0.01823 1.032
6112000000.0 0.8107 0.5989
6116000000.0 1.012 -0.246
6119000000.0 0.4292 -0.9616
6122000000.0 -0.5152 -0.8954
6125000000.0 -1.066 -0.1739
6128000000.0 -0.7709 0.7472
6131000000.0 0.1248 1.046
6134000000.0 0.8781 0.5537
6138000000.0 0.9631 -0.3903
6141000000.0 0.2681 -0.9706
6144000000.0 -0.5966 -0.8398
6147000000.0 -1.03 -0.0228
6150000000.0 -0.6506 0.7719
6153000000.0 0.2015 0.9981
6156000000.0 0.8697 0.4273
6159000000.0 0.8542 -0.458
6162000000.0 0.1807 -0.9027
6166000000.0 -0.6313 -0.7291
6169000000.0 -0.9159 0.05348
6172000000.0 -0.5116 0.777
6175000000.0 0.2736 0.8446
6178000000.0 0.8185 0.2754
6181000000.0 0.741 -0.4747
6184000000.0 0.04981 -0.8342
6188000000.0 -0.6428 -0.5786
6191000000.0 -0.8513 0.1626
6194000000.0 -0.4087 0.7146
6197000000.0 0.3638 0.7606
6200000000.0 0.7935 0.1609
6203000000.0 0.618 -0.5036
6206000000.0 -0.04159 -0.8179
6209000000.0 -0.6645 -0.4464
6212000000.0 -0.7566 0.2572
6216000000.0 -0.2619 0.7338
6219000000.0 0.4242 0.6575
6222000000.0 0.8216 0.0527
6225000000.0 0.5082 -0.5962
6228000000.0 -0.1518 -0.8034
6231000000.0 -0.6774 -0.3995
6234000000.0 -0.7526 0.3426
6238000000.0 -0.2033 0.8334
6241000000.0 0.5257 0.6493
6244000000.0 0.8204 -0.02912
6247000000.0 0.4569 -0.6743
6250000000.0 -0.2544 -0.7837
6253000000.0 -0.7687 -0.3055
6256000000.0 -0.7062 0.4598
6259000000.0 -0.09812 0.8184
6262000000.0 0.594 0.6047
6266000000.0 0.8006 -0.1319
6269000000.0 0.3994 -0.7207
