! Created with skrf 1.8.0 (http://scikit-rf.org).
# Hz S RI R 50.0 
!freq ReS11 ImS11
4000000000.0 -0.3499 -1.474
4003000000.0 -1.326 -0.6551
4006000000.0 -1.304 0.6373
4009000000.0 -0.3227 1.448
4012000000.0 0.9166 1.207
4016000000.0 1.565 -0.002578
4019000000.0 1.019 -1.228
4022000000.0 -0.3095 -1.568
4025000000.0 -1.416 -0.7128
4028000000.0 -1.461 0.6602
4031000000.0 -0.4461 1.636
4034000000.0 0.9952 1.284
4038000000.0 1.64 0.04648
4041000000.0 1.008 -1.305
4044000000.0 -0.3351 -1.62
4047000000.0 -1.488 -0.7585
4050000000.0 -1.475 0.6417
4053000000.0 -0.3913 1.566
4056000000.0 0.96 1.297
4059000000.0 1.604 0.1113
4062000000.0 1.106 -1.169
4066000000.0 -0.1736 -1.617
4069000000.0 -1.368 -0.8929
4072000000.0 -1.503 0.4559
4075000000.0 -0.6195 1.507
4078000000.0 0.7475 1.423
4081000000.0 1.625 0.3583
4084000000.0 1.281 -1.041
4088000000.0 0.06012 -1.652
4091000000.0 -1.309 -1.087
4094000000.0 -1.619 0.2965
4097000000.0 -0.8133 1.432
4100000000.0 0.6043 1.504
4103000000.0 1.491 0.5186
4106000000.0 1.339 -0.8119
4109000000.0 0.2546 -1.541
4112000000.0 -0.9974 -1.171
4116000000.0 -1.526 0.0158
4119000000.0 -0.9326 1.129
4122000000.0 0.2086 1.472
4125000000.0 1.248 0.7865
4128000000.0 1.399 -0.3722
4131000000.0 0.6137 -1.307
4134000000.0 -0.5989 -1.335
4138000000.0 -1.421 -0.392
4141000000.0 -1.245 0.8271
4144000000.0 -0.1596 1.483
4147000000.0 1.021 1.099
4150000000.0 1.5 -0.08919
4153000000.0 0.9298 -1.207
4156000000.0 -0.3449 -1.448
4159000000.0 -1.346 -0.6847
4162000000.0 -1.403 0.6377
4166000000.0 -0.4324 1.423
4169000000.0 0.8123 1.242
4172000000.0 1.519 0.1628
4175000000.0 1.093 -1.022
4178000000.0 -0.09245 -1.497
4181000000.0 -1.199 -0.8734
4184000000.0 -1.464 0.3774
4188000000.0 -0.6135 1.38
4191000000.0 0.6788 1.399
4194000000.0 1.542 0.3182
4197000000.0 1.222 -0.9765
4200000000.0 0.01391 -1.558
4203000000.0 -1.24 -0.996
4206000000.0 -1.6 0.3551
4209000000.0 -0.6637 1.48
4212000000.0 0.7559 1.435
4216000000.0 1.643 0.284
4219000000.0 1.186 -1.185
4222000000.0 -0.1398 -1.629
4225000000.0 -1.442 -0.8383
4228000000.0 -1.535 0.6618
4231000000.0 -0.4062 1.558
4234000000.0 1.032 1.299
4238000000.0 1.601 -0.05744
4241000000.0 0.9482 -1.278
4244000000.0 -0.398 -1.509
4247000000.0 -1.454 -0.5638
4250000000.0 -1.272 0.8184
4253000000.0 -0.1811 1.475
4256000000.0 1.086 1.01
4259000000.0 1.51 -0.2337
4262000000.0 0.7368 -1.261
4266000000.0 -0.5646 -1.358
4269000000.0 -1.417 -0.3815
4272000000.0 -1.231 0.8208
4275000000.0 -0.08157 1.42
4278000000.0 1.066 0.9431
4281000000.0 1.363 -0.2269
4284000000.0 0.6548 -1.205
4288000000.0 -0.5445 -1.251
4291000000.0 -1.342 -0.3531
4294000000.0 -1.061 0.7643
4297000000.0 -0.105 1.309
4300000000.0 0.9124 0.8938
4303000000.0 1.292 -0.1397
4306000000.0 0.7388 -1.071
4309000000.0 -0.3585 -1.281
4312000000.0 -1.188 -0.5328
4316000000.0 -1.219 0.5545
4319000000.0 -0.3263 1.24
4322000000.0 0.7641 1.083
4325000000.0 1.357 0.09468
4328000000.0 0.9741 -0.9603
4331000000.0 -0.09994 -1.366
4334000000.0 -1.123 -0.8154
4338000000.0 -1.389 0.3613
4341000000.0 -0.6033 1.245
4344000000.0 0.635 1.274
4347000000.0 1.411 0.3009
4350000000.0 1.18 -0.8948
4353000000.0 0.05528 -1.461
4356000000.0 -1.145 -0.9975
4359000000.0 -1.456 0.2226
4362000000.0 -0.7613 1.314
4366000000.0 0.5343 1.391
4369000000.0 1.42 0.4909
4372000000.0 1.289 -0.7646
4375000000.0 0.2115 -1.507
4378000000.0 -1.046 -1.118
4381000000.0 -1.583 0.1163
4384000000.0 -0.8683 1.288
4388000000.0 0.4485 1.49
4391000000.0 1.447 0.5629
4394000000.0 1.363 -0.8023
4397000000.0 0.2157 -1.577
4400000000.0 -1.107 -1.162
4403000000.0 -1.535 0.1917
4406000000.0 -0.8043 1.327
4409000000.0 0.5726 1.419
4412000000.0 1.432 0.3938
4416000000.0 1.238 -0.887
4419000000.0 0.04711 -1.477
4422000000.0 -1.135 -0.8892
4425000000.0 -1.401 0.3319
4428000000.0 -0.5682 1.251
4431000000.0 0.6616 1.204
4434000000.0 1.307 0.2518
4438000000.0 0.986 -0.8928
4441000000.0 -0.1254 -1.306
4444000000.0 -1.063 -0.6917
4447000000.0 -1.192 0.4226
4450000000.0 -0.3628 1.183
4453000000.0 0.6717 1.041
4456000000.0 1.227 0.06848
4459000000.0 0.789 -0.8837
4462000000.0 -0.1907 -1.183
4466000000.0 -1.061 -0.5612
4469000000.0 -1.099 0.4917
4472000000.0 -0.2707 1.152
4475000000.0 0.7096 0.8975
4478000000.0 1.185 0.001404
4481000000.0 0.7341 -0.92
4484000000.0 -0.2984 -1.151
4488000000.0 -1.057 -0.5308
4491000000.0 -1.014 0.5355
4494000000.0 -0.2787 1.106
4497000000.0 0.7004 0.9364
4500000000.0 1.17 0.03196
4503000000.0 0.7499 -0.8692
4506000000.0 -0.1946 -1.152
4509000000.0 -1.036 -0.5635
4512000000.0 -1.109 0.4156
4516000000.0 -0.3597 1.138
4519000000.0 0.6379 1.028
4522000000.0 1.22 0.1488
4525000000.0 0.8666 -0.8177
4528000000.0 -0.1173 -1.225
4531000000.0 -0.9846 -0.7358
4534000000.0 -1.211 0.302
4538000000.0 -0.5345 1.143
4541000000.0 0.5323 1.162
4544000000.0 1.215 0.3099
4547000000.0 1.044 -0.7568
4550000000.0 0.06017 -1.27
4553000000.0 -0.9242 -0.8897
4556000000.0 -1.305 0.1612
4559000000.0 -0.7353 1.09
4562000000.0 0.3768 1.289
4566000000.0 1.222 0.5186
4569000000.0 1.217 -0.598
4572000000.0 0.2803 -1.327
4575000000.0 -0.847 -1.097
4578000000.0 -1.385 -0.05879
4581000000.0 -0.9534 1.044
4584000000.0 0.2145 1.369
4588000000.0 1.194 0.7168
4591000000.0 1.356 -0.4529
4594000000.0 0.5237 -1.32
4597000000.0 -0.7238 -1.221
4600000000.0 -1.42 -0.2248
4603000000.0 -1.052 0.9461
4606000000.0 0.08367 1.426
4609000000.0 1.172 0.8139
4612000000.0 1.373 -0.3623
4616000000.0 0.5442 -1.258
4619000000.0 -0.6686 -1.241
4622000000.0 -1.351 -0.2643
4625000000.0 -1.017 0.9013
4628000000.0 0.03206 1.354
4631000000.0 1.083 0.8054
4634000000.0 1.292 -0.3052
4638000000.0 0.5674 -1.229
4641000000.0 -0.5719 -1.149
4644000000.0 -1.269 -0.2633
4647000000.0 -0.9621 0.8212
4650000000.0 0.0629 1.274
4653000000.0 1.035 0.7087
4656000000.0 1.217 -0.3488
4659000000.0 0.494 -1.099
4662000000.0 -0.5765 -1.037
4666000000.0 -1.137 -0.1921
4669000000.0 -0.838 0.7788
4672000000.0 0.09643 1.123
4675000000.0 0.941 0.6237
4678000000.0 1.061 -0.3317
4681000000.0 0.4104 -1.012
4684000000.0 -0.5269 -0.9352
4688000000.0 -1.066 -0.144
4691000000.0 -0.8119 0.7135
4694000000.0 0.04228 1.095
4697000000.0 0.8822 0.6169
4700000000.0 1.096 -0.2905
4703000000.0 0.4107 -1.026
4706000000.0 -0.5044 -0.9744
4709000000.0 -1.074 -0.2137
4712000000.0 -0.8233 0.7411
4716000000.0 0.01811 1.102
4719000000.0 0.9112 0.6801
4722000000.0 1.059 -0.2563
4725000000.0 0.4835 -0.9941
4728000000.0 -0.4987 -0.9767
4731000000.0 -1.078 -0.2578
4734000000.0 -0.8355 0.6555
4738000000.0 -0.06181 1.106
4741000000.0 0.8004 0.7561
4744000000.0 1.106 -0.1451
4747000000.0 0.6007 -0.9446
4750000000.0 -0.3672 -1.113
4753000000.0 -1.091 -0.4673
4756000000.0 -1.056 0.5468
4759000000.0 -0.2706 1.164
4762000000.0 0.7247 0.9533
4766000000.0 1.225 0.1131
4769000000.0 0.8473 -0.8983
4772000000.0 -0.1729 -1.206
4775000000.0 -1.062 -0.6645
4778000000.0 -1.237 0.3735
4781000000.0 -0.4612 1.178
4784000000.0 0.6085 1.143
4788000000.0 1.28 0.2829
4791000000.0 1.05 -0.7966
4794000000.0 0.05723 -1.336
4797000000.0 -0.9784 -0.9072
4800000000.0 -1.347 0.1529
4803000000.0 -0.7146 1.108
4806000000.0 0.3933 1.295
4809000000.0 1.256 0.5289
4812000000.0 1.201 -0.6391
4816000000.0 0.2678 -1.376
4819000000.0 -0.862 -1.088
4822000000.0 -1.397 -0.01444
4825000000.0 -0.9149 1.094
4828000000.0 0.2723 1.387
4831000000.0 1.246 0.6666
4834000000.0 1.295 -0.5303
4838000000.0 0.397 -1.335
4841000000.0 -0.7735 -1.142
4844000000.0 -1.371 -0.1154
4847000000.0 -0.9056 0.9902
4850000000.0 0.2121 1.337
4853000000.0 1.138 0.6851
4856000000.0 1.25 -0.4758
4859000000.0 0.4445 -1.225
4862000000.0 -0.6586 -1.096
4866000000.0 -1.261 -0.1536
4869000000.0 -0.8933 0.865
4872000000.0 0.1147 1.226
4875000000.0 0.9809 0.6588
4878000000.0 1.123 -0.3505
4881000000.0 0.4356 -1.096
4884000000.0 -0.5661 -0.9943
4888000000.0 -1.106 -0.1807
4891000000.0 -0.8319 0.7218
4894000000.0 0.06767 1.071
4897000000.0 0.8618 0.6327
4900000000.0 0.9886 -0.3066
4903000000.0 0.4225 -0.9495
4906000000.0 -0.4817 -0.8539
4909000000.0 -0.9501 -0.1755
4912000000.0 -0.7401 0.6411
4916000000.0 0.01611 0.953
4919000000.0 0.7182 0.6101
4922000000.0 0.9112 -0.2036
4925000000.0 0.4162 -0.8422
4928000000.0 -0.3716 -0.8376
4931000000.0 -0.9057 -0.2437
4934000000.0 -0.7555 0.5352
4938000000.0 -0.0859 0.927
4941000000.0 0.6892 0.6078
4944000000.0 0.9544 -0.1048
4947000000.0 0.5071 -0.8388
4950000000.0 -0.2993 -0.9318
4953000000.0 -0.9739 -0.3488
4956000000.0 -0.8706 0.5179
4959000000.0 -0.1537 1.019
4962000000.0 0.7334 0.7886
4966000000.0 1.052 -0.05152
4969000000.0 0.6746 -0.8502
4972000000.0 -0.246 -1.063
4975000000.0 -1.007 -0.4721
4978000000.0 -1.003 0.481
4981000000.0 -0.2848 1.108
4984000000.0 0.6956 0.8977
4988000000.0 1.194 0.08772
4991000000.0 0.8265 -0.8627
4994000000.0 -0.121 -1.184
4997000000.0 -1.014 -0.6327
5000000000.0 -1.197 0.3865
5003000000.0 -0.4971 1.175
5006000000.0 0.6132 1.1
5009000000.0 1.289 0.2217
5012000000.0 1.001 -0.8393
5016000000.0 -0.008949 -1.311
5019000000.0 -1.038 -0.8412
5022000000.0 -1.297 0.2905
5025000000.0 -0.5904 1.167
5028000000.0 0.5343 1.203
5031000000.0 1.282 0.3311
5034000000.0 1.085 -0.7788
5038000000.0 0.1041 -1.291
5041000000.0 -0.9343 -0.9071
5044000000.0 -1.261 0.1348
5047000000.0 -0.7275 1.065
5050000000.0 0.3575 1.209
5053000000.0 1.165 0.5145
5056000000.0 1.085 -0.5842
5059000000.0 0.276 -1.227
5062000000.0 -0.7287 -0.9957
5066000000.0 -1.216 -0.01107
5069000000.0 -0.7813 0.9017
5072000000.0 0.1778 1.164
5075000000.0 1.021 0.5772
5078000000.0 1.105 -0.4386
5081000000.0 0.3551 -1.081
5084000000.0 -0.5786 -0.9451
5088000000.0 -1.088 -0.1349
5091000000.0 -0.7827 0.7797
5094000000.0 0.07649 1.055
5097000000.0 0.8344 0.6476
5100000000.0 0.9911 -0.2567
5103000000.0 0.4281 -0.9047
5106000000.0 -0.4074 -0.8957
5109000000.0 -0.9522 -0.2503
5112000000.0 -0.7877 0.5757
5116000000.0 0.002827 0.9411
5119000000.0 0.6967 0.6254
5122000000.0 0.913 -0.172
5125000000.0 0.4405 -0.8106
5128000000.0 -0.3586 -0.8511
5131000000.0 -0.888 -0.2549
5134000000.0 -0.7177 0.5556
5138000000.0 -0.0537 0.8828
5141000000.0 0.6961 0.5907
5144000000.0 0.8864 -0.1845
5147000000.0 0.3862 -0.799
5150000000.0 -0.3732 -0.8078
5153000000.0 -0.871 -0.2136
5156000000.0 -0.7313 0.571
5159000000.0 0.004379 0.9151
5162000000.0 0.6965 0.5427
5166000000.0 0.899 -0.2259
5169000000.0 0.3903 -0.799
5172000000.0 -0.3878 -0.838
5175000000.0 -0.9029 -0.1805
5178000000.0 -0.7253 0.6165
5181000000.0 0.009217 0.9619
5184000000.0 0.7646 0.5832
5188000000.0 0.9568 -0.2622
5191000000.0 0.4015 -0.9047
5194000000.0 -0.4754 -0.9046
5197000000.0 -0.9795 -0.2016
5200000000.0 -0.7759 0.6382
5203000000.0 0.05447 1.008
5206000000.0 0.8322 0.6146
5209000000.0 1.012 -0.2393
5212000000.0 0.4514 -0.9644
5216000000.0 -0.4534 -0.9697
5219000000.0 -1.022 -0.2503
5222000000.0 -0.8679 0.6375
5225000000.0 -0.05766 1.048
5228000000.0 0.7917 0.7258
5231000000.0 1.058 -0.1484
5234000000.0 0.5629 -0.9315
5238000000.0 -0.3695 -1.03
5241000000.0 -1.031 -0.3925
5244000000.0 -0.9648 0.535
5247000000.0 -0.1792 1.096
5250000000.0 0.7308 0.8412
5253000000.0 1.113 -0.03407
5256000000.0 0.6731 -0.8835
5259000000.0 -0.2571 -1.076
5262000000.0 -0.995 -0.5109
5266000000.0 -1.04 0.4668
5269000000.0 -0.2796 1.055
5272000000.0 0.6465 0.8913
5275000000.0 1.092 0.04763
5278000000.0 0.7418 -0.8007
5281000000.0 -0.128 -1.065
5284000000.0 -0.9237 -0.5408
5288000000.0 -1.003 0.3764
5291000000.0 -0.3076 1.0
5294000000.0 0.5747 0.8809
5297000000.0 1.053 0.1135
5300000000.0 0.724 -0.7381
5303000000.0 -0.1394 -1.033
5306000000.0 -0.8988 -0.5342
5309000000.0 -0.9592 0.4027
5312000000.0 -0.2549 1.012
5316000000.0 0.6115 0.8181
5319000000.0 1.014 0.05504
5322000000.0 0.5979 -0.8075
5325000000.0 -0.2674 -0.9416
5328000000.0 -0.912 -0.3552
5331000000.0 -0.8119 0.4934
5334000000.0 -0.04349 0.9355
5338000000.0 0.6991 0.5992
5341000000.0 0.9101 -0.2266
5344000000.0 0.3783 -0.8299
5347000000.0 -0.4524 -0.7868
5350000000.0 -0.8659 -0.09566
5353000000.0 -0.6274 0.6057
5356000000.0 0.1268 0.8806
5359000000.0 0.7974 0.423
5362000000.0 0.7941 -0.3678
5366000000.0 0.1694 -0.8894
5369000000.0 -0.5727 -0.7049
5372000000.0 -0.9011 0.08071
5375000000.0 -0.5062 0.75
5378000000.0 0.3275 0.8547
5381000000.0 0.8319 0.3125
5384000000.0 0.7827 -0.5092
5388000000.0 0.1332 -0.9125
5391000000.0 -0.7037 -0.6632
5394000000.0 -0.9402 0.1108
5397000000.0 -0.4868 0.8213
5400000000.0 0.3052 0.9354
5403000000.0 0.9288 0.302
5406000000.0 0.8396 -0.5559
5409000000.0 0.1241 -1.038
5412000000.0 -0.7173 -0.7322
5416000000.0 -1.025 0.1272
5419000000.0 -0.5876 0.8736
5422000000.0 0.3296 1.022
5425000000.0 0.9914 0.3963
5428000000.0 0.9644 -0.5126
5431000000.0 0.1831 -1.107
5434000000.0 -0.724 -0.8554
5438000000.0 -1.181 0.04572
5441000000.0 -0.6747 0.918
5444000000.0 0.3431 1.14
5447000000.0 1.085 0.4435
5450000000.0 1.007 -0.5954
5453000000.0 0.151 -1.199
5456000000.0 -0.8112 -0.8803
5459000000.0 -1.184 0.09549
5462000000.0 -0.6453 0.9587
5466000000.0 0.3814 1.085
5469000000.0 1.105 0.3573
5472000000.0 0.9359 -0.6452
5475000000.0 0.07248 -1.103
5478000000.0 -0.8202 -0.706
5481000000.0 -1.056 0.2288
5484000000.0 -0.5053 0.9476
5488000000.0 0.4958 0.9303
5491000000.0 1.038 0.1904
5494000000.0 0.7217 -0.7139
5497000000.0 -0.1194 -1.003
5500000000.0 -0.8192 -0.4521
5503000000.0 -0.8597 0.3878
5506000000.0 -0.2287 0.889
5509000000.0 0.6055 0.6643
5512000000.0 0.8955 -0.02888
5516000000.0 0.4439 -0.7445
5519000000.0 -0.2555 -0.8198
5522000000.0 -0.8138 -0.2651
5525000000.0 -0.6739 0.4667
5528000000.0 -0.02233 0.855
5531000000.0 0.6424 0.5115
5534000000.0 0.7987 -0.177
5538000000.0 0.3292 -0.7183
5541000000.0 -0.38 -0.7275
5544000000.0 -0.8281 -0.08722
5547000000.0 -0.6084 0.5751
5550000000.0 0.06063 0.8288
5553000000.0 0.7043 0.4409
5556000000.0 0.825 -0.3287
5559000000.0 0.2205 -0.8133
5562000000.0 -0.487 -0.7215
5566000000.0 -0.855 -0.06253
5569000000.0 -0.6229 0.6256
5572000000.0 0.1397 0.8919
5575000000.0 0.8238 0.4638
5578000000.0 0.8471 -0.3285
5581000000.0 0.2923 -0.9292
5584000000.0 -0.5187 -0.8045
5588000000.0 -0.9507 -0.1073
5591000000.0 -0.7162 0.6863
5594000000.0 0.1494 0.9954
5597000000.0 0.837 0.5501
5600000000.0 0.9606 -0.3554
5603000000.0 0.3421 -0.9433
5606000000.0 -0.495 -0.8796
5609000000.0 -1.025 -0.1556
5612000000.0 -0.7929 0.7028
5616000000.0 0.05755 1.065
5619000000.0 0.8671 0.6273
5622000000.0 1.041 -0.2679
5625000000.0 0.4364 -0.9916
5628000000.0 -0.4759 -0.9587
5631000000.0 -1.042 -0.1958
5634000000.0 -0.8483 0.6966
5638000000.0 0.0005172 1.073
5641000000.0 0.8485 0.6605
5644000000.0 1.031 -0.2369
5647000000.0 0.468 -0.9576
5650000000.0 -0.4554 -0.9544
5653000000.0 -1.024 -0.2134
5656000000.0 -0.8226 0.6405
5659000000.0 0.008686 1.014
5662000000.0 0.8103 0.6256
5666000000.0 1.021 -0.2175
5669000000.0 0.4278 -0.9219
5672000000.0 -0.4567 -0.9092
5675000000.0 -0.9855 -0.1927
5678000000.0 -0.7359 0.6617
5681000000.0 0.05544 0.9696
5684000000.0 0.8201 0.5482
5688000000.0 0.9083 -0.2894
5691000000.0 0.3425 -0.9205
5694000000.0 -0.5111 -0.7873
5697000000.0 -0.9502 -0.06629
5700000000.0 -0.6159 0.6709
5703000000.0 0.159 0.9316
5706000000.0 0.812 0.4199
5709000000.0 0.8565 -0.372
5712000000.0 0.199 -0.8732
5716000000.0 -0.6126 -0.697
5719000000.0 -0.9286 0.05769
5722000000.0 -0.4871 0.7498
5725000000.0 0.264 0.8739
5728000000.0 0.901 0.2956
5731000000.0 0.756 -0.4973
5734000000.0 0.1058 -0.962
5738000000.0 -0.6742 -0.6258
5741000000.0 -0.9501 0.1449
5744000000.0 -0.4715 0.8536
5747000000.0 0.3393 0.8892
5750000000.0 0.9373 0.2629
5753000000.0 0.7963 -0.5591
5756000000.0 0.06644 -0.9726
5759000000.0 -0.7166 -0.6429
5762000000.0 -0.9869 0.1497
5766000000.0 -0.5034 0.8686
5769000000.0 0.3826 0.9386
5772000000.0 0.9982 0.297
5775000000.0 0.8466 -0.5481
5778000000.0 0.1195 -1.036
5781000000.0 -0.7221 -0.7356
5784000000.0 -1.006 0.1092
5788000000.0 -0.5857 0.8951
5791000000.0 0.3131 1.006
5794000000.0 0.956 0.4314
5797000000.0 0.9072 -0.4962
5800000000.0 0.1729 -1.068
5803000000.0 -0.6872 -0.8028
5806000000.0 -1.048 0.002217
5809000000.0 -0.6977 0.7984
5812000000.0 0.1962 1.058
5816000000.0 0.9319 0.5193
5819000000.0 0.9997 -0.4221
5822000000.0 0.3352 -1.001
5825000000.0 -0.5972 -0.877
5828000000.0 -1.029 -0.1231
5831000000.0 -0.7737 0.7377
5834000000.0 0.07056 1.056
5838000000.0 0.8378 0.6074
5841000000.0 0.9967 -0.3127
5844000000.0 0.3951 -0.9643
5847000000.0 -0.4841 -0.9141
5850000000.0 -1.028 -0.2024
5853000000.0 -0.8367 0.6694
5856000000.0 -0.01448 1.047
5859000000.0 0.8125 0.6722
5862000000.0 1.022 -0.2113
5866000000.0 0.4395 -0.9253
5869000000.0 -0.4047 -0.9269
5872000000.0 -0.9836 -0.2212
5875000000.0 -0.7974 0.6139
5878000000.0 -0.007349 0.9982
5881000000.0 0.7145 0.6395
5884000000.0 0.9639 -0.2187
5888000000.0 0.4468 -0.8758
5891000000.0 -0.3914 -0.8714
5894000000.0 -0.895 -0.2623
5897000000.0 -0.7509 0.5596
5900000000.0 -0.0242 0.9083
5903000000.0 0.7075 0.585
5906000000.0 0.8804 -0.1887
5909000000.0 0.4159 -0.8051
5912000000.0 -0.3588 -0.7885
5916000000.0 -0.8587 -0.2256
5919000000.0 -0.7081 0.4927
5922000000.0 -0.03438 0.8301
5925000000.0 0.6652 0.5344
5928000000.0 0.8447 -0.1715
5931000000.0 0.3773 -0.7563
5934000000.0 -0.3461 -0.7762
5938000000.0 -0.8065 -0.2425
5941000000.0 -0.6587 0.4945
5944000000.0 -0.05672 0.831
5947000000.0 0.6258 0.5501
5950000000.0 0.8303 -0.1193
5953000000.0 0.4493 -0.7528
5956000000.0 -0.3296 -0.7779
5959000000.0 -0.7965 -0.2907
5962000000.0 -0.7436 0.4308
5966000000.0 -0.1095 0.8642
5969000000.0 0.613 0.6222
5972000000.0 0.8939 -0.06894
5975000000.0 0.5024 -0.7026
5978000000.0 -0.2032 -0.8656
5981000000.0 -0.7946 -0.3882
5984000000.0 -0.8199 0.3613
5988000000.0 -0.2226 0.8861
5991000000.0 0.5363 0.7682
5994000000.0 0.9206 0.06676
5997000000.0 0.6413 -0.6618
6000000000.0 -0.09727 -0.95
6003000000.0 -0.7724 -0.5288
6006000000.0 -0.9186 0.2724
6009000000.0 -0.3642 0.8856
6012000000.0 0.4416 0.8339
6016000000.0 0.9537 0.2017
6019000000.0 0.7601 -0.5825
6022000000.0 0.04254 -0.9741
6025000000.0 -0.7502 -0.6553
6028000000.0 -0.9822 0.1762
6031000000.0 -0.4854 0.8819
6034000000.0 0.3415 0.8919
6038000000.0 0.9432 0.3137
6041000000.0 0.847 -0.5193
6044000000.0 0.1272 -0.999
6047000000.0 -0.6753 -0.7406
6050000000.0 -1.028 0.0777
6053000000.0 -0.5495 0.8603
6056000000.0 0.2834 0.9593
6059000000.0 0.9203 0.3847
6062000000.0 0.8674 -0.5079
6066000000.0 0.18 -0.978
6069000000.0 -0.631 -0.7469
6072000000.0 -0.9967 0.01981
6075000000.0 -0.5953 0.7819
6078000000.0 0.2408 0.9511
6081000000.0 0.8894 0.4009
6084000000.0 0.8531 -0.4422
6088000000.0 0.2051 -0.9246
6091000000.0 -0.5792 -0.7342
6094000000.0 -0.9331 -0.0007667
6097000000.0 -0.577 0.7301
6100000000.0 0.1668 0.901
6103000000.0 0.801 0.4112
6106000000.0 0.8086 -0.3679
6109000000.0 0.2392 -0.8597
6112000000.0 -0.5006 -0.7121
6116000000.0 -0.8909 -0.02863
6119000000.0 -0.5834 0.6809
6122000000.0 0.1474 0.8649
6125000000.0 0.7778 0.3914
6128000000.0 0.7888 -0.342
6131000000.0 0.2198 -0.85
6134000000.0 -0.5356 -0.6703
6138000000.0 -0.8605 -0.01065
6141000000.0 -0.5747 0.6387
6144000000.0 0.1719 0.8316
6147000000.0 0.7297 0.4109
6150000000.0 0.7372 -0.3476
6153000000.0 0.219 -0.8143
6156000000.0 -0.4758 -0.6947
6159000000.0 -0.8658 -0.06535
6162000000.0 -0.5897 0.5948
6166000000.0 0.1056 0.8028
6169000000.0 0.741 0.4253
6172000000.0 0.8245 -0.2761
6175000000.0 0.2774 -0.8234
6178000000.0 -0.461 -0.7255
6181000000.0 -0.8678 -0.1028
6184000000.0 -0.6242 0.5941
6188000000.0 0.08772 0.9112
6191000000.0 0.7164 0.4912
6194000000.0 0.8707 -0.2597
6197000000.0 0.3095 -0.8202
6200000000.0 -0.4306 -0.7827
6203000000.0 -0.8579 -0.1706
6206000000.0 -0.6728 0.549
6209000000.0 -0.003439 0.9221
6212000000.0 0.6826 0.55
6216000000.0 0.8864 -0.1993
6219000000.0 0.422 -0.7885
6222000000.0 -0.3527 -0.83
6225000000.0 -0.8686 -0.2745
6228000000.0 -0.7409 0.5002
6231000000.0 -0.08069 0.8704
6234000000.0 0.6592 0.6031
6238000000.0 0.8154 -0.1124
6241000000.0 0.4708 -0.7412
6244000000.0 -0.2366 -0.8379
6247000000.0 -0.8123 -0.3375
6250000000.0 -0.7318 0.4224
6253000000.0 -0.1736 0.8305
6256000000.0 0.5659 0.6799
6259000000.0 0.8398 -0.013
6262000000.0 0.5062 -0.6321
