! Created with skrf 1.8.0 (http://scikit-rf.org).
# Hz S RI R 50.0 
!freq ReS11 ImS11
4000000000.0 -0.1556 -1.482
4003000000.0 -1.283 -0.8022
4006000000.0 -1.422 0.4606
4009000000.0 -0.5091 1.417
4012000000.0 0.7555 1.233
4016000000.0 1.488 0.2331
4019000000.0 1.108 -1.034
4022000000.0 -0.06181 -1.549
4025000000.0 -1.274 -0.8835
4028000000.0 -1.513 0.4413
4031000000.0 -0.5596 1.473
4034000000.0 0.7937 1.399
4038000000.0 1.587 0.2693
4041000000.0 1.187 -1.101
4044000000.0 -0.07376 -1.633
4047000000.0 -1.31 -0.9224
4050000000.0 -1.583 0.4346
4053000000.0 -0.6201 1.465
4056000000.0 0.711 1.445
4059000000.0 1.556 0.4072
4062000000.0 1.27 -1.044
4066000000.0 0.03343 -1.613
4069000000.0 -1.207 -1.049
4072000000.0 -1.551 0.2717
4075000000.0 -0.855 1.407
4078000000.0 0.5365 1.534
4081000000.0 1.571 0.5629
4084000000.0 1.434 -0.853
4088000000.0 0.2334 -1.656
4091000000.0 -1.085 -1.254
4094000000.0 -1.622 0.0787
4097000000.0 -0.9747 1.311
4100000000.0 0.3447 1.568
4103000000.0 1.428 0.7213
4106000000.0 1.447 -0.6111
4109000000.0 0.4824 -1.53
4112000000.0 -0.8334 -1.314
4116000000.0 -1.491 -0.1766
4119000000.0 -1.109 0.9833
4122000000.0 0.005666 1.475
4125000000.0 1.123 0.9688
4128000000.0 1.451 -0.2028
4131000000.0 0.7754 -1.242
4134000000.0 -0.4032 -1.417
4138000000.0 -1.36 -0.6404
4141000000.0 -1.337 0.6187
4144000000.0 -0.3643 1.44
4147000000.0 0.8725 1.226
4150000000.0 1.488 0.1615
4153000000.0 1.081 -1.047
4156000000.0 -0.124 -1.505
4159000000.0 -1.221 -0.8938
4162000000.0 -1.478 0.3733
4166000000.0 -0.6576 1.356
4169000000.0 0.6325 1.384
4172000000.0 1.425 0.4049
4175000000.0 1.238 -0.8206
4178000000.0 0.1745 -1.481
4181000000.0 -1.009 -1.099
4184000000.0 -1.488 0.106
4188000000.0 -0.8745 1.195
4191000000.0 0.3448 1.501
4194000000.0 1.395 0.6718
4197000000.0 1.413 -0.6692
4200000000.0 0.4198 -1.52
4203000000.0 -0.9376 -1.264
4206000000.0 -1.628 -0.06965
4209000000.0 -1.069 1.231
4212000000.0 0.2936 1.644
4216000000.0 1.482 0.7651
4219000000.0 1.515 -0.7456
4222000000.0 0.3527 -1.631
4225000000.0 -1.102 -1.312
4228000000.0 -1.651 0.09802
4231000000.0 -0.9246 1.364
4234000000.0 0.548 1.551
4238000000.0 1.576 0.5575
4241000000.0 1.365 -0.917
4244000000.0 0.1146 -1.604
4247000000.0 -1.183 -1.035
4250000000.0 -1.53 0.3354
4253000000.0 -0.6871 1.388
4256000000.0 0.6387 1.406
4259000000.0 1.473 0.3325
4262000000.0 1.18 -0.9653
4266000000.0 -0.06963 -1.513
4269000000.0 -1.236 -0.8442
4272000000.0 -1.427 0.41
4275000000.0 -0.5021 1.371
4278000000.0 0.752 1.261
4281000000.0 1.428 0.1637
4284000000.0 0.9886 -0.9665
4288000000.0 -0.1156 -1.392
4291000000.0 -1.174 -0.7434
4294000000.0 -1.256 0.3924
4297000000.0 -0.477 1.258
4300000000.0 0.6143 1.158
4303000000.0 1.272 0.2588
4306000000.0 0.9871 -0.8132
4309000000.0 0.01023 -1.285
4312000000.0 -0.9965 -0.8513
4316000000.0 -1.3 0.203
4319000000.0 -0.7149 1.108
4322000000.0 0.3557 1.207
4325000000.0 1.213 0.5075
4328000000.0 1.161 -0.6169
4331000000.0 0.2807 -1.304
4334000000.0 -0.8107 -1.079
4338000000.0 -1.387 -0.06754
4341000000.0 -0.9192 1.029
4344000000.0 0.1802 1.375
4347000000.0 1.197 0.748
4350000000.0 1.352 -0.456
4353000000.0 0.5415 -1.351
4356000000.0 -0.6959 -1.255
4359000000.0 -1.432 -0.2479
4362000000.0 -1.093 0.908
4366000000.0 -0.01257 1.462
4369000000.0 1.087 0.9233
4372000000.0 1.465 -0.2543
4375000000.0 0.7181 -1.283
4378000000.0 -0.523 -1.4
4381000000.0 -1.432 -0.4913
4384000000.0 -1.301 0.7894
4388000000.0 -0.1979 1.535
4391000000.0 1.076 1.112
4394000000.0 1.541 -0.1302
4397000000.0 0.8789 -1.292
4400000000.0 -0.4638 -1.516
4403000000.0 -1.486 -0.5568
4406000000.0 -1.362 0.8066
4409000000.0 -0.2006 1.53
4412000000.0 1.111 1.11
4416000000.0 1.546 -0.1571
4419000000.0 0.8127 -1.3
4422000000.0 -0.4759 -1.44
4425000000.0 -1.407 -0.4502
4428000000.0 -1.257 0.8091
4431000000.0 -0.1364 1.453
4434000000.0 1.075 0.9566
4438000000.0 1.369 -0.1966
4441000000.0 0.6443 -1.223
4444000000.0 -0.5464 -1.299
4447000000.0 -1.317 -0.3409
4450000000.0 -1.053 0.8077
4453000000.0 -0.01058 1.321
4456000000.0 1.024 0.7931
4459000000.0 1.226 -0.3578
4462000000.0 0.5001 -1.197
4466000000.0 -0.6159 -1.108
4469000000.0 -1.203 -0.1666
4472000000.0 -0.871 0.8849
4475000000.0 0.1191 1.178
4478000000.0 1.016 0.6132
4481000000.0 1.095 -0.3907
4484000000.0 0.3624 -1.103
4488000000.0 -0.6277 -0.9428
4491000000.0 -1.118 -0.08382
4494000000.0 -0.7756 0.7999
4497000000.0 0.173 1.117
4500000000.0 0.9587 0.5604
4503000000.0 0.9804 -0.3642
4506000000.0 0.3367 -1.024
4509000000.0 -0.5972 -0.9134
4512000000.0 -1.123 -0.09922
4516000000.0 -0.7858 0.7835
4519000000.0 0.09675 1.113
4522000000.0 0.9358 0.6362
4525000000.0 1.085 -0.3403
4528000000.0 0.4096 -1.061
4531000000.0 -0.5634 -1.017
4534000000.0 -1.137 -0.2151
4538000000.0 -0.9052 0.7477
4541000000.0 0.001239 1.165
4544000000.0 0.9149 0.7498
4547000000.0 1.159 -0.2412
4550000000.0 0.5747 -1.046
4553000000.0 -0.4299 -1.107
4556000000.0 -1.17 -0.3804
4559000000.0 -1.045 0.6492
4562000000.0 -0.1856 1.216
4566000000.0 0.8096 0.9313
4569000000.0 1.261 -0.05938
4572000000.0 0.7922 -0.9793
4575000000.0 -0.2364 -1.268
4578000000.0 -1.164 -0.5949
4581000000.0 -1.186 0.4832
4584000000.0 -0.3766 1.274
4588000000.0 0.7242 1.118
4591000000.0 1.337 0.1686
4594000000.0 0.9733 -0.9431
4597000000.0 -0.09993 -1.34
4600000000.0 -1.107 -0.8055
4603000000.0 -1.354 0.3499
4606000000.0 -0.5864 1.259
4609000000.0 0.634 1.256
4612000000.0 1.371 0.3044
4616000000.0 1.113 -0.858
4619000000.0 0.04392 -1.386
4622000000.0 -1.069 -0.9175
4625000000.0 -1.39 0.2435
4628000000.0 -0.705 1.185
4631000000.0 0.4962 1.256
4634000000.0 1.325 0.4009
4638000000.0 1.12 -0.7405
4641000000.0 0.1138 -1.36
4644000000.0 -0.9756 -0.9087
4647000000.0 -1.34 0.1947
4650000000.0 -0.6858 1.162
4653000000.0 0.4747 1.242
4656000000.0 1.243 0.3862
4659000000.0 1.069 -0.7031
4662000000.0 0.09395 -1.246
4666000000.0 -0.8914 -0.8261
4669000000.0 -1.211 0.1838
4672000000.0 -0.5944 1.045
4675000000.0 0.4379 1.092
4678000000.0 1.111 0.3248
4681000000.0 0.9416 -0.6591
4684000000.0 0.08011 -1.128
4688000000.0 -0.8027 -0.7372
4691000000.0 -1.092 0.2098
4694000000.0 -0.5305 0.9719
4697000000.0 0.4185 1.028
4700000000.0 1.018 0.3226
4703000000.0 0.8664 -0.6231
4706000000.0 0.0714 -1.075
4709000000.0 -0.807 -0.6884
4712000000.0 -1.046 0.2198
4716000000.0 -0.5159 0.9393
4719000000.0 0.4207 0.9731
4722000000.0 1.026 0.2736
4725000000.0 0.8612 -0.6405
4728000000.0 0.03153 -1.039
4731000000.0 -0.7823 -0.6806
4734000000.0 -1.009 0.1731
4738000000.0 -0.5329 0.8873
4741000000.0 0.3551 0.9733
4744000000.0 0.9952 0.3218
4747000000.0 0.9221 -0.55
4750000000.0 0.1722 -1.048
4753000000.0 -0.6921 -0.8027
4756000000.0 -1.104 0.04386
4759000000.0 -0.6754 0.8212
4762000000.0 0.2219 1.061
4766000000.0 0.9686 0.5382
4769000000.0 1.052 -0.4227
4772000000.0 0.3417 -1.091
4775000000.0 -0.6375 -0.9752
4778000000.0 -1.171 -0.1482
4781000000.0 -0.8352 0.7786
4784000000.0 0.04102 1.166
4788000000.0 0.9357 0.73
4791000000.0 1.165 -0.2572
4794000000.0 0.5777 -1.091
4797000000.0 -0.4624 -1.148
4800000000.0 -1.192 -0.3932
4803000000.0 -1.043 0.6427
4806000000.0 -0.1929 1.236
4809000000.0 0.8461 0.9748
4812000000.0 1.272 -0.02508
4816000000.0 0.7992 -0.994
4819000000.0 -0.2718 -1.277
4822000000.0 -1.165 -0.6395
4825000000.0 -1.267 0.4879
4828000000.0 -0.3937 1.31
4831000000.0 0.7439 1.145
4834000000.0 1.373 0.1459
4838000000.0 0.9865 -0.9595
4841000000.0 -0.1017 -1.399
4844000000.0 -1.147 -0.7751
4847000000.0 -1.345 0.4251
4850000000.0 -0.5355 1.277
4853000000.0 0.6434 1.227
4856000000.0 1.332 0.2458
4859000000.0 1.073 -0.8687
4862000000.0 -0.007063 -1.378
4866000000.0 -1.063 -0.844
4869000000.0 -1.32 0.2936
4872000000.0 -0.6021 1.173
4875000000.0 0.5053 1.196
4878000000.0 1.272 0.3424
4881000000.0 1.038 -0.7475
4884000000.0 0.0532 -1.254
4888000000.0 -0.9264 -0.824
4891000000.0 -1.189 0.2131
4894000000.0 -0.5763 1.048
4897000000.0 0.4219 1.095
4900000000.0 1.105 0.3196
4903000000.0 0.8959 -0.6381
4906000000.0 0.08835 -1.112
4909000000.0 -0.7446 -0.7464
4912000000.0 -1.053 0.1183
4916000000.0 -0.5623 0.8935
4919000000.0 0.3007 0.9653
4922000000.0 0.9469 0.3508
4925000000.0 0.8366 -0.481
4928000000.0 0.1582 -0.9526
4931000000.0 -0.6167 -0.7215
4934000000.0 -0.9202 -0.006805
4938000000.0 -0.5927 0.7384
4941000000.0 0.2017 0.8891
4944000000.0 0.8433 0.4088
4947000000.0 0.8733 -0.3763
4950000000.0 0.2191 -0.9085
4953000000.0 -0.5439 -0.7587
4956000000.0 -0.9564 -0.04044
4959000000.0 -0.5945 0.7168
4962000000.0 0.118 0.9707
4966000000.0 0.8513 0.4893
4969000000.0 0.9195 -0.3286
4972000000.0 0.332 -0.9416
4975000000.0 -0.5198 -0.8588
4978000000.0 -0.9978 -0.1433
4981000000.0 -0.7508 0.6945
4984000000.0 0.05501 1.036
4988000000.0 0.8281 0.6191
4991000000.0 1.019 -0.2474
4994000000.0 0.4594 -0.965
4997000000.0 -0.4696 -0.9791
5000000000.0 -1.042 -0.2938
5003000000.0 -0.9284 0.643
5006000000.0 -0.09422 1.144
5009000000.0 0.8513 0.8205
5012000000.0 1.211 -0.1284
5016000000.0 0.666 -1.023
5019000000.0 -0.3807 -1.185
5022000000.0 -1.182 -0.4689
5025000000.0 -1.097 0.5974
5028000000.0 -0.2342 1.243
5031000000.0 0.8255 0.9872
5034000000.0 1.234 0.004337
5038000000.0 0.8437 -1.001
5041000000.0 -0.2159 -1.245
5044000000.0 -1.11 -0.6543
5047000000.0 -1.191 0.4536
5050000000.0 -0.4017 1.219
5053000000.0 0.654 1.122
5056000000.0 1.239 0.177
5059000000.0 0.979 -0.7955
5062000000.0 -0.01967 -1.322
5066000000.0 -1.029 -0.8325
5069000000.0 -1.26 0.2679
5072000000.0 -0.5964 1.106
5075000000.0 0.4859 1.179
5078000000.0 1.172 0.3875
5081000000.0 1.055 -0.6793
5084000000.0 0.1418 -1.214
5088000000.0 -0.7961 -0.8688
5091000000.0 -1.217 0.04774
5094000000.0 -0.7125 0.9497
5097000000.0 0.2671 1.146
5100000000.0 1.03 0.4793
5103000000.0 1.019 -0.4504
5106000000.0 0.3274 -1.067
5109000000.0 -0.5788 -0.9179
5112000000.0 -1.091 -0.1194
5116000000.0 -0.7567 0.7603
5119000000.0 0.01419 1.05
5122000000.0 0.8577 0.6438
5125000000.0 0.9613 -0.2409
5128000000.0 0.4796 -0.9384
5131000000.0 -0.4111 -0.9245
5134000000.0 -0.9654 -0.2394
5138000000.0 -0.7973 0.571
5141000000.0 -0.1057 0.9383
5144000000.0 0.7171 0.6637
5147000000.0 0.906 -0.1106
5150000000.0 0.4808 -0.7559
5153000000.0 -0.2756 -0.8626
5156000000.0 -0.8615 -0.3273
5159000000.0 -0.7995 0.4472
5162000000.0 -0.1231 0.9
5166000000.0 0.5965 0.6798
5169000000.0 0.8964 -0.03681
5172000000.0 0.5305 -0.7077
5175000000.0 -0.2442 -0.8673
5178000000.0 -0.8524 -0.364
5181000000.0 -0.807 0.4083
5184000000.0 -0.1603 0.893
5188000000.0 0.5729 0.6884
5191000000.0 0.9158 0.002227
5194000000.0 0.557 -0.7256
5197000000.0 -0.1981 -0.8909
5200000000.0 -0.853 -0.393
5203000000.0 -0.8522 0.4274
5206000000.0 -0.1551 0.9009
5209000000.0 0.605 0.7346
5212000000.0 0.949 0.02197
5216000000.0 0.6018 -0.762
5219000000.0 -0.2149 -0.9662
5222000000.0 -0.8853 -0.4728
5225000000.0 -0.9079 0.403
5228000000.0 -0.2765 0.9523
5231000000.0 0.5741 0.8364
5234000000.0 0.9932 0.07634
5238000000.0 0.7025 -0.7451
5241000000.0 -0.1318 -1.042
5244000000.0 -0.8867 -0.5612
5247000000.0 -1.031 0.3048
5250000000.0 -0.4019 0.9743
5253000000.0 0.4901 0.938
5256000000.0 1.046 0.2259
5259000000.0 0.8377 -0.6787
5262000000.0 0.02125 -1.083
5266000000.0 -0.8187 -0.7238
5269000000.0 -1.082 0.1742
5272000000.0 -0.5724 0.9449
5275000000.0 0.3216 1.034
5278000000.0 1.007 0.4266
5281000000.0 0.9806 -0.5222
5284000000.0 0.2335 -1.09
5288000000.0 -0.6452 -0.879
5291000000.0 -1.096 -0.03948
5294000000.0 -0.7874 0.8269
5297000000.0 0.089 1.089
5300000000.0 0.9302 0.6119
5303000000.0 1.078 -0.2978
5306000000.0 0.4917 -1.027
5309000000.0 -0.4556 -1.015
5312000000.0 -1.088 -0.2846
5316000000.0 -0.951 0.6327
5319000000.0 -0.136 1.152
5322000000.0 0.8204 0.8171
5325000000.0 1.148 -0.1008
5328000000.0 0.6587 -0.959
5331000000.0 -0.3097 -1.079
5334000000.0 -1.04 -0.4817
5338000000.0 -1.02 0.4865
5341000000.0 -0.2762 1.115
5344000000.0 0.6782 0.8933
5347000000.0 1.113 0.04633
5350000000.0 0.7686 -0.814
5353000000.0 -0.1442 -1.047
5356000000.0 -0.9613 -0.5745
5359000000.0 -1.018 0.3341
5362000000.0 -0.3493 1.004
5366000000.0 0.5428 0.9163
5369000000.0 1.049 0.144
5372000000.0 0.762 -0.7242
5375000000.0 -0.1187 -1.027
5378000000.0 -0.8675 -0.58
5381000000.0 -0.9854 0.339
5384000000.0 -0.3557 0.9405
5388000000.0 0.5004 0.8287
5391000000.0 0.9612 0.1198
5394000000.0 0.6948 -0.6752
5397000000.0 -0.1262 -0.941
5400000000.0 -0.7828 -0.5174
5403000000.0 -0.8614 0.3049
5406000000.0 -0.2966 0.8396
5409000000.0 0.4967 0.7375
5412000000.0 0.8755 0.1015
5416000000.0 0.6177 -0.6296
5419000000.0 -0.1121 -0.8703
5422000000.0 -0.7673 -0.4315
5425000000.0 -0.8384 0.278
5428000000.0 -0.2737 0.8136
5431000000.0 0.4639 0.7501
5434000000.0 0.857 0.09816
5438000000.0 0.6105 -0.6061
5441000000.0 -0.09391 -0.8619
5444000000.0 -0.7478 -0.4639
5447000000.0 -0.8485 0.2876
5450000000.0 -0.2736 0.8229
5453000000.0 0.4495 0.7455
5456000000.0 0.8652 0.1032
5459000000.0 0.6172 -0.6102
5462000000.0 -0.06248 -0.9127
5466000000.0 -0.7244 -0.5198
5469000000.0 -0.8812 0.1961
5472000000.0 -0.3873 0.8268
5475000000.0 0.3718 0.7884
5478000000.0 0.865 0.2463
5481000000.0 0.7545 -0.561
5484000000.0 0.08818 -0.9384
5488000000.0 -0.7266 -0.6837
5491000000.0 -0.9354 0.09758
5494000000.0 -0.5773 0.8022
5497000000.0 0.2627 0.9345
5500000000.0 0.903 0.4183
5503000000.0 0.8779 -0.4548
5506000000.0 0.2445 -0.9937
5509000000.0 -0.6386 -0.8347
5512000000.0 -1.011 -0.04864
5516000000.0 -0.6878 0.7319
5519000000.0 0.08034 1.007
5522000000.0 0.8173 0.5575
5525000000.0 1.014 -0.2561
5528000000.0 0.4346 -0.9505
5531000000.0 -0.4342 -0.9448
5534000000.0 -1.004 -0.3196
5538000000.0 -0.8555 0.6183
5541000000.0 -0.1214 1.067
5544000000.0 0.7374 0.7719
5547000000.0 1.056 -0.07584
5550000000.0 0.5785 -0.8738
5553000000.0 -0.3062 -1.03
5556000000.0 -0.9714 -0.4177
5559000000.0 -0.9367 0.4381
5562000000.0 -0.2684 0.9958
5566000000.0 0.6044 0.8303
5569000000.0 1.036 0.08761
5572000000.0 0.7327 -0.7502
5575000000.0 -0.1101 -0.9776
5578000000.0 -0.8357 -0.5327
5581000000.0 -0.9585 0.3066
5584000000.0 -0.3567 0.9057
5588000000.0 0.4718 0.8465
5591000000.0 0.9454 0.1847
5594000000.0 0.7392 -0.5772
5597000000.0 -0.005522 -0.9387
5600000000.0 -0.7091 -0.5802
5603000000.0 -0.9051 0.1847
5606000000.0 -0.4191 0.8052
5609000000.0 0.3741 0.8322
5612000000.0 0.8552 0.2537
5616000000.0 0.7359 -0.5237
5619000000.0 0.06731 -0.8625
5622000000.0 -0.6363 -0.5723
5625000000.0 -0.825 0.1077
5628000000.0 -0.4391 0.7377
5631000000.0 0.3007 0.7999
5634000000.0 0.7813 0.2576
5638000000.0 0.7036 -0.4361
5641000000.0 0.0997 -0.8342
5644000000.0 -0.6129 -0.604
5647000000.0 -0.8255 0.1065
5650000000.0 -0.4466 0.7181
5653000000.0 0.2982 0.7989
5656000000.0 0.8004 0.2606
5659000000.0 0.7104 -0.46
5662000000.0 0.0852 -0.8723
5666000000.0 -0.6058 -0.6543
5669000000.0 -0.8861 0.1006
5672000000.0 -0.4643 0.7582
5675000000.0 0.292 0.8622
5678000000.0 0.84 0.3114
5681000000.0 0.7882 -0.4845
5684000000.0 0.1018 -0.9336
5688000000.0 -0.6392 -0.6762
5691000000.0 -0.9282 0.09516
5694000000.0 -0.5112 0.8213
5697000000.0 0.2709 0.9173
5700000000.0 0.94 0.3693
5703000000.0 0.8493 -0.4687
5706000000.0 0.1976 -0.9825
5709000000.0 -0.6499 -0.7974
5712000000.0 -0.9969 0.03529
5716000000.0 -0.6466 0.7758
5719000000.0 0.2189 1.021
5722000000.0 0.9322 0.4765
5725000000.0 0.9414 -0.4263
5728000000.0 0.3105 -1.016
5731000000.0 -0.5661 -0.8636
5734000000.0 -1.07 -0.1302
5738000000.0 -0.7885 0.7523
5741000000.0 0.06376 1.077
5744000000.0 0.8898 0.6489
5747000000.0 1.067 -0.2479
5750000000.0 0.4531 -1.015
5753000000.0 -0.4936 -1.032
5756000000.0 -1.051 -0.2706
5759000000.0 -0.92 0.6193
5762000000.0 -0.07032 1.068
5766000000.0 0.7835 0.7653
5769000000.0 1.092 -0.1239
5772000000.0 0.5952 -0.891
5775000000.0 -0.2708 -1.042
5778000000.0 -0.9914 -0.4396
5781000000.0 -0.9978 0.4912
5784000000.0 -0.248 1.071
5788000000.0 0.6191 0.8543
5791000000.0 1.107 0.03164
5794000000.0 0.7185 -0.7968
5797000000.0 -0.1595 -1.072
5800000000.0 -0.8969 -0.5532
5803000000.0 -1.024 0.3299
5806000000.0 -0.3738 0.9938
5809000000.0 0.5141 0.8978
5812000000.0 1.026 0.2158
5816000000.0 0.7968 -0.6667
5819000000.0 -0.02389 -1.008
5822000000.0 -0.7685 -0.6252
5825000000.0 -0.9921 0.2359
5828000000.0 -0.4947 0.8669
5831000000.0 0.3887 0.9054
5834000000.0 0.9313 0.2971
5838000000.0 0.8429 -0.5334
5841000000.0 0.08833 -1.004
5844000000.0 -0.7133 -0.6749
5847000000.0 -0.9388 0.1102
5850000000.0 -0.5323 0.8232
5853000000.0 0.308 0.8568
5856000000.0 0.8718 0.3236
5859000000.0 0.8344 -0.4916
5862000000.0 0.1135 -0.9191
5866000000.0 -0.6417 -0.6536
5869000000.0 -0.9197 0.1029
5872000000.0 -0.5052 0.7568
5875000000.0 0.2915 0.8177
5878000000.0 0.8348 0.3031
5881000000.0 0.7456 -0.4311
5884000000.0 0.122 -0.855
5888000000.0 -0.5897 -0.6616
5891000000.0 -0.8646 0.03653
5894000000.0 -0.5061 0.731
5897000000.0 0.2427 0.8031
5900000000.0 0.8152 0.3302
5903000000.0 0.7718 -0.4037
5906000000.0 0.1608 -0.8355
5909000000.0 -0.5297 -0.6483
5912000000.0 -0.8667 -0.01222
5916000000.0 -0.534 0.6505
5919000000.0 0.1711 0.8264
5922000000.0 0.7846 0.4228
5925000000.0 0.8011 -0.3194
5928000000.0 0.2508 -0.8494
5931000000.0 -0.4898 -0.7153
5934000000.0 -0.877 -0.07635
5938000000.0 -0.6634 0.6215
5941000000.0 0.07835 0.8777
5944000000.0 0.7206 0.5117
5947000000.0 0.8575 -0.2158
5950000000.0 0.3738 -0.8075
5953000000.0 -0.3898 -0.8384
5956000000.0 -0.9064 -0.2171
5959000000.0 -0.783 0.5389
5962000000.0 -0.07502 0.9177
5966000000.0 0.6942 0.6761
5969000000.0 0.9302 -0.09003
5972000000.0 0.5357 -0.7534
5975000000.0 -0.2482 -0.9365
5978000000.0 -0.8842 -0.4163
5981000000.0 -0.875 0.4109
5984000000.0 -0.2347 0.9503
5988000000.0 0.5662 0.7811
5991000000.0 0.9783 0.04342
5994000000.0 0.6618 -0.7176
5997000000.0 -0.1081 -0.9987
6000000000.0 -0.8244 -0.5506
6003000000.0 -0.9204 0.296
6006000000.0 -0.3616 0.9276
6009000000.0 0.4954 0.8558
6012000000.0 0.9838 0.1933
6016000000.0 0.7734 -0.6473
6019000000.0 -0.01559 -1.023
6022000000.0 -0.7768 -0.6067
6025000000.0 -0.9766 0.2034
6028000000.0 -0.4839 0.8697
6031000000.0 0.3914 0.8909
6034000000.0 0.9295 0.2754
6038000000.0 0.7862 -0.5693
6041000000.0 0.09895 -0.9713
6044000000.0 -0.7171 -0.6656
6047000000.0 -0.9319 0.1064
6050000000.0 -0.5214 0.8116
6053000000.0 0.3112 0.9022
6056000000.0 0.8792 0.3212
6059000000.0 0.813 -0.4714
6062000000.0 0.1439 -0.9151
6066000000.0 -0.6229 -0.651
6069000000.0 -0.9115 0.04715
6072000000.0 -0.5264 0.7515
6075000000.0 0.2559 0.8732
6078000000.0 0.7948 0.3425
6081000000.0 0.79 -0.4034
6084000000.0 0.1636 -0.8532
6088000000.0 -0.5593 -0.6599
6091000000.0 -0.8694 -0.02112
6094000000.0 -0.5316 0.6596
6097000000.0 0.1775 0.8177
6100000000.0 0.7353 0.3867
6103000000.0 0.7896 -0.3747
6106000000.0 0.2136 -0.8349
6109000000.0 -0.5217 -0.6839
6112000000.0 -0.8256 -0.01115
6116000000.0 -0.5678 0.6404
6119000000.0 0.1538 0.8648
6122000000.0 0.759 0.4015
6125000000.0 0.7987 -0.3253
6128000000.0 0.2364 -0.8243
6131000000.0 -0.4796 -0.7017
6134000000.0 -0.8725 -0.04351
6138000000.0 -0.6051 0.6216
6141000000.0 0.08432 0.8786
6144000000.0 0.7719 0.4322
6147000000.0 0.8463 -0.2925
6150000000.0 0.3345 -0.8228
6153000000.0 -0.4408 -0.7666
6156000000.0 -0.9107 -0.1364
6159000000.0 -0.6469 0.608
6162000000.0 0.04394 0.9119
6166000000.0 0.7665 0.5372
6169000000.0 0.8933 -0.2084
6172000000.0 0.3961 -0.8507
6175000000.0 -0.3883 -0.8457
6178000000.0 -0.9112 -0.1938
6181000000.0 -0.7576 0.5786
6184000000.0 -0.02901 0.9148
6188000000.0 0.6987 0.6229
6191000000.0 0.8974 -0.1705
6194000000.0 0.5012 -0.8025
6197000000.0 -0.34 -0.8824
6200000000.0 -0.8867 -0.3308
6203000000.0 -0.8108 0.4501
6206000000.0 -0.1532 0.9479
6209000000.0 0.6326 0.7091
6212000000.0 0.9071 -0.03363
6216000000.0 0.5465 -0.7307
6219000000.0 -0.209 -0.8718
6222000000.0 -0.8163 -0.4035
6225000000.0 -0.8496 0.3939
6228000000.0 -0.2182 0.89
6231000000.0 0.5336 0.7426
6234000000.0 0.8724 0.06271
6238000000.0 0.6356 -0.6336
6241000000.0 -0.1204 -0.8843
6244000000.0 -0.7163 -0.4666
6247000000.0 -0.8178 0.2613
6250000000.0 -0.3491 0.7772
6253000000.0 0.3742 0.7611
6256000000.0 0.8216 0.1837
6259000000.0 0.6506 -0.4881
6262000000.0 0.06054 -0.8188
