! Created with skrf 1.8.0 (http://scikit-rf.org).
# Hz S RI R 50.0 
!freq ReS11 ImS11
4000000000.0 -0.1851 -1.519
4003000000.0 -1.321 -0.8076
4006000000.0 -1.382 0.5345
4009000000.0 -0.5238 1.44
4012000000.0 0.8287 1.303
4016000000.0 1.522 0.1965
4019000000.0 1.108 -1.063
4022000000.0 -0.1534 -1.565
4025000000.0 -1.363 -0.8672
4028000000.0 -1.55 0.4965
4031000000.0 -0.589 1.477
4034000000.0 0.833 1.356
4038000000.0 1.572 0.2394
4041000000.0 1.204 -1.14
4044000000.0 -0.1622 -1.658
4047000000.0 -1.346 -0.9018
4050000000.0 -1.545 0.4386
4053000000.0 -0.6062 1.508
4056000000.0 0.7693 1.43
4059000000.0 1.564 0.3517
4062000000.0 1.232 -1.053
4066000000.0 -0.02034 -1.641
4069000000.0 -1.245 -1.037
4072000000.0 -1.595 0.3095
4075000000.0 -0.8336 1.421
4078000000.0 0.5657 1.495
4081000000.0 1.499 0.5473
4084000000.0 1.399 -0.8805
4088000000.0 0.2291 -1.649
4091000000.0 -1.108 -1.184
4094000000.0 -1.613 0.0719
4097000000.0 -0.958 1.324
4100000000.0 0.3873 1.595
4103000000.0 1.474 0.6864
4106000000.0 1.456 -0.6347
4109000000.0 0.4209 -1.496
4112000000.0 -0.8585 -1.279
4116000000.0 -1.55 -0.1592
4119000000.0 -1.136 1.01
4122000000.0 0.04077 1.51
4125000000.0 1.158 0.9369
4128000000.0 1.479 -0.2871
4131000000.0 0.765 -1.275
4134000000.0 -0.4422 -1.43
4138000000.0 -1.384 -0.6093
4141000000.0 -1.358 0.6404
4144000000.0 -0.3733 1.478
4147000000.0 0.8695 1.26
4150000000.0 1.502 0.1408
4153000000.0 1.089 -1.074
4156000000.0 -0.1324 -1.539
4159000000.0 -1.263 -0.8687
4162000000.0 -1.483 0.4092
4166000000.0 -0.6326 1.369
4169000000.0 0.6434 1.389
4172000000.0 1.471 0.3926
4175000000.0 1.211 -0.8552
4178000000.0 0.147 -1.51
4181000000.0 -1.102 -1.07
4184000000.0 -1.521 0.1306
4188000000.0 -0.8878 1.25
4191000000.0 0.4034 1.467
4194000000.0 1.428 0.6611
4197000000.0 1.419 -0.7316
4200000000.0 0.349 -1.575
4203000000.0 -0.9925 -1.292
4206000000.0 -1.624 -0.0004477
4209000000.0 -1.014 1.252
4212000000.0 0.3683 1.63
4216000000.0 1.504 0.709
4219000000.0 1.494 -0.7657
4222000000.0 0.2899 -1.664
4225000000.0 -1.15 -1.261
4228000000.0 -1.678 0.1186
4231000000.0 -0.8962 1.413
4234000000.0 0.5842 1.569
4238000000.0 1.622 0.4823
4241000000.0 1.309 -0.9657
4244000000.0 0.04411 -1.641
4247000000.0 -1.204 -1.01
4250000000.0 -1.539 0.3608
4253000000.0 -0.6009 1.406
4256000000.0 0.73 1.369
4259000000.0 1.529 0.2973
4262000000.0 1.148 -1.049
4266000000.0 -0.1219 -1.502
4269000000.0 -1.235 -0.8423
4272000000.0 -1.396 0.4487
4275000000.0 -0.5259 1.384
4278000000.0 0.7746 1.266
4281000000.0 1.433 0.1417
4284000000.0 0.9802 -1.047
4288000000.0 -0.1598 -1.387
4291000000.0 -1.189 -0.7145
4294000000.0 -1.26 0.4783
4297000000.0 -0.4692 1.253
4300000000.0 0.6833 1.141
4303000000.0 1.296 0.1958
4306000000.0 0.9683 -0.8499
4309000000.0 -0.01357 -1.243
4312000000.0 -1.015 -0.8513
4316000000.0 -1.285 0.236
4319000000.0 -0.6763 1.147
4322000000.0 0.4059 1.252
4325000000.0 1.246 0.47
4328000000.0 1.206 -0.6382
4331000000.0 0.232 -1.346
4334000000.0 -0.8757 -1.039
4338000000.0 -1.367 -0.01782
4341000000.0 -0.915 1.053
4344000000.0 0.2423 1.409
4347000000.0 1.253 0.7014
4350000000.0 1.343 -0.5085
4353000000.0 0.4673 -1.395
4356000000.0 -0.739 -1.246
4359000000.0 -1.459 -0.2097
4362000000.0 -1.082 0.976
4366000000.0 0.0345 1.486
4369000000.0 1.134 0.9193
4372000000.0 1.457 -0.307
4375000000.0 0.6742 -1.359
4378000000.0 -0.5887 -1.39
4381000000.0 -1.45 -0.4359
4384000000.0 -1.256 0.8818
4388000000.0 -0.122 1.568
4391000000.0 1.143 1.089
4394000000.0 1.593 -0.2064
4397000000.0 0.8223 -1.371
4400000000.0 -0.5309 -1.514
4403000000.0 -1.516 -0.5022
4406000000.0 -1.319 0.8918
4409000000.0 -0.1367 1.583
4412000000.0 1.167 1.036
4416000000.0 1.538 -0.2508
4419000000.0 0.755 -1.348
4422000000.0 -0.5738 -1.418
4425000000.0 -1.444 -0.3756
4428000000.0 -1.218 0.9011
4431000000.0 -0.02193 1.444
4434000000.0 1.132 0.9162
4438000000.0 1.395 -0.3437
4441000000.0 0.5968 -1.288
4444000000.0 -0.6055 -1.254
4447000000.0 -1.353 -0.2579
4450000000.0 -1.002 0.8713
4453000000.0 0.05681 1.334
4456000000.0 1.101 0.6899
4459000000.0 1.195 -0.3772
4462000000.0 0.4186 -1.214
4466000000.0 -0.6743 -1.017
4469000000.0 -1.208 -0.1129
4472000000.0 -0.8241 0.9354
4475000000.0 0.2156 1.187
4478000000.0 1.088 0.5666
4481000000.0 1.086 -0.4835
4484000000.0 0.3038 -1.132
4488000000.0 -0.6698 -0.908
4491000000.0 -1.165 -0.04027
4494000000.0 -0.7622 0.9073
4497000000.0 0.2129 1.123
4500000000.0 0.9924 0.5495
4503000000.0 1.032 -0.4342
4506000000.0 0.2771 -1.076
4509000000.0 -0.6499 -0.8888
4512000000.0 -1.097 -0.05295
4516000000.0 -0.7874 0.8346
4519000000.0 0.1597 1.129
4522000000.0 0.9576 0.5837
4525000000.0 1.075 -0.4038
4528000000.0 0.4082 -1.106
4531000000.0 -0.5866 -0.9951
4534000000.0 -1.166 -0.1694
4538000000.0 -0.8581 0.8192
4541000000.0 0.05813 1.206
4544000000.0 0.9725 0.7069
4547000000.0 1.148 -0.2735
4550000000.0 0.5183 -1.118
4553000000.0 -0.5248 -1.126
4556000000.0 -1.206 -0.3364
4559000000.0 -1.021 0.689
4562000000.0 -0.1335 1.269
4566000000.0 0.8706 0.898
4569000000.0 1.282 -0.1185
4572000000.0 0.7433 -1.056
4575000000.0 -0.3306 -1.258
4578000000.0 -1.175 -0.5623
4581000000.0 -1.218 0.5246
4584000000.0 -0.3653 1.292
4588000000.0 0.7742 1.093
4591000000.0 1.355 0.1157
4594000000.0 0.9601 -0.9798
4597000000.0 -0.151 -1.364
4600000000.0 -1.167 -0.7536
4603000000.0 -1.355 0.422
4606000000.0 -0.506 1.311
4609000000.0 0.6645 1.238
4612000000.0 1.366 0.2644
4616000000.0 1.07 -0.8867
4619000000.0 -0.03579 -1.401
4622000000.0 -1.126 -0.8382
4625000000.0 -1.358 0.273
4628000000.0 -0.6159 1.25
4631000000.0 0.5846 1.263
4634000000.0 1.314 0.3405
4638000000.0 1.108 -0.8294
4641000000.0 0.04189 -1.371
4644000000.0 -1.027 -0.881
4647000000.0 -1.295 0.2479
4650000000.0 -0.6212 1.203
4653000000.0 0.5429 1.191
4656000000.0 1.28 0.3315
4659000000.0 1.024 -0.7875
4662000000.0 0.03424 -1.249
4666000000.0 -0.9453 -0.8073
4669000000.0 -1.238 0.2604
4672000000.0 -0.5362 1.075
4675000000.0 0.5102 1.075
4678000000.0 1.164 0.2796
4681000000.0 0.9052 -0.7127
4684000000.0 0.01707 -1.141
4688000000.0 -0.887 -0.6857
4691000000.0 -1.139 0.2146
4694000000.0 -0.5123 0.9979
4697000000.0 0.4418 0.9747
4700000000.0 1.06 0.2368
4703000000.0 0.8682 -0.6727
4706000000.0 -0.01168 -1.116
4709000000.0 -0.8361 -0.6723
4712000000.0 -1.058 0.2588
4716000000.0 -0.4439 0.9607
4719000000.0 0.4802 0.9344
4722000000.0 1.032 0.1913
4725000000.0 0.8543 -0.6792
4728000000.0 -0.01012 -1.05
4731000000.0 -0.8324 -0.6821
4734000000.0 -1.056 0.1774
4738000000.0 -0.4645 0.9515
4741000000.0 0.4298 0.9987
4744000000.0 1.023 0.3186
4747000000.0 0.8843 -0.5882
4750000000.0 0.1084 -1.068
4753000000.0 -0.7549 -0.7681
4756000000.0 -1.094 0.06946
4759000000.0 -0.6429 0.9069
4762000000.0 0.2813 1.087
4766000000.0 1.027 0.4984
4769000000.0 1.049 -0.485
4772000000.0 0.3003 -1.117
4775000000.0 -0.675 -0.9302
4778000000.0 -1.185 -0.09448
4781000000.0 -0.8619 0.8573
4784000000.0 0.1155 1.198
4788000000.0 0.9708 0.703
4791000000.0 1.204 -0.2867
4794000000.0 0.5443 -1.099
4797000000.0 -0.5238 -1.148
4800000000.0 -1.228 -0.3539
4803000000.0 -1.048 0.6795
4806000000.0 -0.146 1.247
4809000000.0 0.8668 0.925
4812000000.0 1.308 -0.05987
4816000000.0 0.7924 -1.047
4819000000.0 -0.3131 -1.306
4822000000.0 -1.225 -0.6056
4825000000.0 -1.253 0.574
4828000000.0 -0.3711 1.351
4831000000.0 0.8304 1.118
4834000000.0 1.385 0.09798
4838000000.0 0.9399 -1.016
4841000000.0 -0.1717 -1.403
4844000000.0 -1.182 -0.727
4847000000.0 -1.318 0.4658
4850000000.0 -0.4735 1.306
4853000000.0 0.7012 1.243
4856000000.0 1.361 0.2173
4859000000.0 1.015 -0.8968
4862000000.0 -0.09427 -1.363
4866000000.0 -1.09 -0.7956
4869000000.0 -1.291 0.339
4872000000.0 -0.55 1.217
4875000000.0 0.5992 1.18
4878000000.0 1.243 0.2973
4881000000.0 0.9895 -0.8122
4884000000.0 0.004218 -1.256
4888000000.0 -0.9595 -0.7726
4891000000.0 -1.193 0.263
4894000000.0 -0.546 1.089
4897000000.0 0.4625 1.068
4900000000.0 1.136 0.2767
4903000000.0 0.8898 -0.6402
4906000000.0 0.05496 -1.107
4909000000.0 -0.8141 -0.7285
4912000000.0 -1.032 0.1898
4916000000.0 -0.521 0.91
4919000000.0 0.3971 0.9129
4922000000.0 0.9484 0.3083
4925000000.0 0.8259 -0.531
4928000000.0 0.0889 -0.9681
4931000000.0 -0.6614 -0.687
4934000000.0 -0.9367 0.0746
4938000000.0 -0.5553 0.7709
4941000000.0 0.2553 0.9405
4944000000.0 0.8642 0.3831
4947000000.0 0.8523 -0.4331
4950000000.0 0.2068 -0.9474
4953000000.0 -0.574 -0.7466
4956000000.0 -0.9747 -0.005702
4959000000.0 -0.6139 0.7411
4962000000.0 0.1661 0.9496
4966000000.0 0.8818 0.4767
4969000000.0 0.9305 -0.384
4972000000.0 0.2998 -0.9609
4975000000.0 -0.5816 -0.8268
4978000000.0 -1.012 -0.07858
4981000000.0 -0.7162 0.7258
4984000000.0 0.1092 1.05
4988000000.0 0.8649 0.5866
4991000000.0 1.033 -0.2977
4994000000.0 0.4494 -0.9932
4997000000.0 -0.4884 -1.018
5000000000.0 -1.102 -0.2525
5003000000.0 -0.9307 0.6886
5006000000.0 -0.07441 1.202
5009000000.0 0.9047 0.7862
5012000000.0 1.201 -0.174
5016000000.0 0.6361 -1.066
5019000000.0 -0.4299 -1.175
5022000000.0 -1.182 -0.4203
5025000000.0 -1.076 0.6707
5028000000.0 -0.1801 1.299
5031000000.0 0.8575 0.9678
5034000000.0 1.303 -0.05348
5038000000.0 0.7979 -1.044
5041000000.0 -0.27 -1.258
5044000000.0 -1.12 -0.5883
5047000000.0 -1.209 0.5049
5050000000.0 -0.3748 1.232
5053000000.0 0.7042 1.1
5056000000.0 1.303 0.1451
5059000000.0 0.9642 -0.8695
5062000000.0 -0.0655 -1.305
5066000000.0 -1.054 -0.7793
5069000000.0 -1.262 0.3258
5072000000.0 -0.5755 1.169
5075000000.0 0.5432 1.173
5078000000.0 1.203 0.3757
5081000000.0 1.068 -0.7177
5084000000.0 0.1164 -1.228
5088000000.0 -0.8796 -0.8584
5091000000.0 -1.218 0.1355
5094000000.0 -0.6858 0.9657
5097000000.0 0.3295 1.128
5100000000.0 1.058 0.4957
5103000000.0 1.033 -0.4645
5106000000.0 0.2519 -1.071
5109000000.0 -0.6289 -0.9161
5112000000.0 -1.118 -0.08821
5116000000.0 -0.7638 0.7331
5119000000.0 0.1236 1.063
5122000000.0 0.8651 0.5977
5125000000.0 1.016 -0.3135
5128000000.0 0.424 -0.9444
5131000000.0 -0.5097 -0.8873
5134000000.0 -0.9721 -0.2093
5138000000.0 -0.7967 0.6098
5141000000.0 -0.02858 0.9958
5144000000.0 0.7393 0.6394
5147000000.0 0.936 -0.1786
5150000000.0 0.4495 -0.8049
5153000000.0 -0.3536 -0.8544
5156000000.0 -0.9039 -0.2916
5159000000.0 -0.7701 0.477
5162000000.0 -0.1095 0.9199
5166000000.0 0.644 0.6527
5169000000.0 0.886 -0.08787
5172000000.0 0.4736 -0.7353
5175000000.0 -0.2643 -0.865
5178000000.0 -0.8449 -0.3493
5181000000.0 -0.8004 0.4466
5184000000.0 -0.1407 0.9259
5188000000.0 0.6032 0.7051
5191000000.0 0.9086 -0.06579
5194000000.0 0.5259 -0.8015
5197000000.0 -0.2751 -0.8879
5200000000.0 -0.8685 -0.3586
5203000000.0 -0.8251 0.4585
5206000000.0 -0.2014 0.9245
5209000000.0 0.6194 0.7181
5212000000.0 0.9868 -0.04651
5216000000.0 0.5923 -0.7951
5219000000.0 -0.2485 -0.9592
5222000000.0 -0.9335 -0.4151
5225000000.0 -0.8866 0.4511
5228000000.0 -0.2244 0.9612
5231000000.0 0.6382 0.779
5234000000.0 1.023 0.0449
5238000000.0 0.6802 -0.7836
5241000000.0 -0.1692 -1.048
5244000000.0 -0.9247 -0.529
5247000000.0 -0.9948 0.3638
5250000000.0 -0.3504 0.9967
5253000000.0 0.5472 0.9215
5256000000.0 1.064 0.1824
5259000000.0 0.8277 -0.7303
5262000000.0 -0.04254 -1.083
5266000000.0 -0.8507 -0.6786
5269000000.0 -1.077 0.1817
5272000000.0 -0.5367 0.9793
5275000000.0 0.3994 1.027
5278000000.0 1.036 0.3169
5281000000.0 0.9679 -0.5517
5284000000.0 0.2171 -1.089
5288000000.0 -0.6993 -0.8271
5291000000.0 -1.138 -0.01662
5294000000.0 -0.7635 0.8303
5297000000.0 0.1482 1.123
5300000000.0 0.937 0.5985
5303000000.0 1.075 -0.3377
5306000000.0 0.441 -1.069
5309000000.0 -0.5079 -1.027
5312000000.0 -1.112 -0.2562
5316000000.0 -0.9192 0.7091
5319000000.0 -0.05952 1.148
5322000000.0 0.8617 0.7654
5325000000.0 1.164 -0.13
5328000000.0 0.5957 -1.003
5331000000.0 -0.3324 -1.103
5334000000.0 -1.073 -0.4391
5338000000.0 -1.003 0.5283
5341000000.0 -0.1888 1.12
5344000000.0 0.7236 0.8625
5347000000.0 1.116 -0.014
5350000000.0 0.7114 -0.8586
5353000000.0 -0.2117 -1.071
5356000000.0 -0.9854 -0.5148
5359000000.0 -0.9901 0.416
5362000000.0 -0.3115 1.017
5366000000.0 0.6181 0.872
5369000000.0 1.064 0.05566
5372000000.0 0.7184 -0.7823
5375000000.0 -0.1497 -1.015
5378000000.0 -0.8976 -0.5311
5381000000.0 -0.938 0.3864
5384000000.0 -0.2927 0.973
5388000000.0 0.5733 0.7861
5391000000.0 0.9515 0.05411
5394000000.0 0.6454 -0.6929
5397000000.0 -0.1761 -0.9414
5400000000.0 -0.8206 -0.4415
5403000000.0 -0.8101 0.3725
5406000000.0 -0.2355 0.8862
5409000000.0 0.5319 0.7425
5412000000.0 0.8844 0.01866
5416000000.0 0.5816 -0.6705
5419000000.0 -0.153 -0.8256
5422000000.0 -0.7759 -0.39
5425000000.0 -0.7759 0.3529
5428000000.0 -0.2106 0.8342
5431000000.0 0.5238 0.7125
5434000000.0 0.9084 0.03014
5438000000.0 0.5545 -0.6775
5441000000.0 -0.1597 -0.8734
5444000000.0 -0.7749 -0.3968
5447000000.0 -0.8274 0.3517
5450000000.0 -0.2479 0.8646
5453000000.0 0.5226 0.7296
5456000000.0 0.8977 0.08193
5459000000.0 0.6209 -0.6719
5462000000.0 -0.1249 -0.9155
5466000000.0 -0.7966 -0.4749
5469000000.0 -0.8501 0.296
5472000000.0 -0.3477 0.867
5475000000.0 0.4678 0.7976
5478000000.0 0.9357 0.1971
5481000000.0 0.7501 -0.5614
5484000000.0 0.04627 -0.9981
5488000000.0 -0.7287 -0.6236
5491000000.0 -0.9599 0.1421
5494000000.0 -0.5076 0.857
5497000000.0 0.3419 0.9231
5500000000.0 0.9496 0.3595
5503000000.0 0.8849 -0.4909
5506000000.0 0.2106 -1.032
5509000000.0 -0.6717 -0.802
5512000000.0 -1.013 -0.0512
5516000000.0 -0.6894 0.7731
5519000000.0 0.1957 1.035
5522000000.0 0.8654 0.5604
5525000000.0 1.015 -0.3541
5528000000.0 0.3923 -0.9901
5531000000.0 -0.4802 -0.9436
5534000000.0 -1.039 -0.2273
5538000000.0 -0.8113 0.6622
5541000000.0 -0.06862 1.092
5544000000.0 0.81 0.7394
5547000000.0 1.062 -0.1634
5550000000.0 0.568 -0.9521
5553000000.0 -0.3412 -1.033
5556000000.0 -0.9982 -0.3655
5559000000.0 -0.9272 0.5256
5562000000.0 -0.1844 1.04
5566000000.0 0.6672 0.8331
5569000000.0 1.044 -0.00106
5572000000.0 0.6225 -0.7767
5575000000.0 -0.1933 -0.9854
5578000000.0 -0.8997 -0.4998
5581000000.0 -0.9343 0.3626
5584000000.0 -0.2948 0.9418
5588000000.0 0.5448 0.8244
5591000000.0 0.9266 0.1042
5594000000.0 0.665 -0.6337
5597000000.0 -0.05677 -0.9341
5600000000.0 -0.7722 -0.5182
5603000000.0 -0.8952 0.2544
5606000000.0 -0.3565 0.8343
5609000000.0 0.4373 0.7929
5612000000.0 0.86 0.1868
5616000000.0 0.6629 -0.5504
5619000000.0 0.02105 -0.8969
5622000000.0 -0.7055 -0.5349
5625000000.0 -0.8495 0.1597
5628000000.0 -0.3587 0.7646
5631000000.0 0.3405 0.7861
5634000000.0 0.8419 0.2003
5638000000.0 0.6829 -0.5245
5641000000.0 0.02874 -0.8447
5644000000.0 -0.6416 -0.531
5647000000.0 -0.8088 0.1608
5650000000.0 -0.4186 0.7582
5653000000.0 0.3311 0.7623
5656000000.0 0.8372 0.2139
5659000000.0 0.6829 -0.5371
5662000000.0 0.02571 -0.8689
5666000000.0 -0.6878 -0.5531
5669000000.0 -0.88 0.1454
5672000000.0 -0.408 0.7994
5675000000.0 0.3942 0.8249
5678000000.0 0.8613 0.2544
5681000000.0 0.723 -0.5566
5684000000.0 0.0367 -0.9487
5688000000.0 -0.7371 -0.628
5691000000.0 -0.9522 0.1471
5694000000.0 -0.4876 0.857
5697000000.0 0.3714 0.9429
5700000000.0 0.9512 0.2947
5703000000.0 0.8746 -0.5343
5706000000.0 0.1205 -0.9943
5709000000.0 -0.7099 -0.7517
5712000000.0 -1.043 0.09068
5716000000.0 -0.5594 0.8663
5719000000.0 0.3194 1.01
5722000000.0 0.9669 0.4068
5725000000.0 0.939 -0.4784
5728000000.0 0.2208 -1.036
5731000000.0 -0.6649 -0.8441
5734000000.0 -1.065 -0.04601
5738000000.0 -0.7085 0.8078
5741000000.0 0.1673 1.087
5744000000.0 0.9821 0.571
5747000000.0 1.068 -0.3609
5750000000.0 0.4217 -1.057
5753000000.0 -0.5646 -0.9525
5756000000.0 -1.141 -0.219
5759000000.0 -0.8568 0.7344
5762000000.0 -0.0254 1.132
5766000000.0 0.8529 0.7138
5769000000.0 1.074 -0.1772
5772000000.0 0.5688 -0.9861
5775000000.0 -0.3711 -1.044
5778000000.0 -1.011 -0.3309
5781000000.0 -0.965 0.5644
5784000000.0 -0.197 1.095
5788000000.0 0.7334 0.8144
5791000000.0 1.09 -0.04332
5794000000.0 0.6724 -0.829
5797000000.0 -0.2074 -1.059
5800000000.0 -0.9698 -0.5092
5803000000.0 -1.006 0.3956
5806000000.0 -0.3236 1.004
5809000000.0 0.5831 0.8606
5812000000.0 1.027 0.149
5816000000.0 0.7132 -0.7258
5819000000.0 -0.1187 -1.021
5822000000.0 -0.8272 -0.5468
5825000000.0 -0.9596 0.2979
5828000000.0 -0.3754 0.9212
5831000000.0 0.4762 0.8633
5834000000.0 0.9547 0.1871
5838000000.0 0.7514 -0.6434
5841000000.0 -0.0207 -1.027
5844000000.0 -0.7427 -0.6189
5847000000.0 -0.9306 0.2291
5850000000.0 -0.4476 0.8281
5853000000.0 0.3787 0.8496
5856000000.0 0.9178 0.2306
5859000000.0 0.7455 -0.5218
5862000000.0 0.0268 -0.9497
5866000000.0 -0.7163 -0.6096
5869000000.0 -0.92 0.1664
5872000000.0 -0.4085 0.7836
5875000000.0 0.3446 0.8322
5878000000.0 0.8914 0.2286
5881000000.0 0.7098 -0.5031
5884000000.0 0.04802 -0.8885
5888000000.0 -0.6539 -0.5778
5891000000.0 -0.8664 0.1391
5894000000.0 -0.4046 0.7677
5897000000.0 0.2972 0.8337
5900000000.0 0.825 0.2378
5903000000.0 0.7387 -0.4808
5906000000.0 0.09569 -0.8773
5909000000.0 -0.6086 -0.624
5912000000.0 -0.8552 0.06983
5916000000.0 -0.4836 0.7173
5919000000.0 0.2599 0.8313
5922000000.0 0.8199 0.3514
5925000000.0 0.7892 -0.3924
5928000000.0 0.1448 -0.856
5931000000.0 -0.5686 -0.6719
5934000000.0 -0.8721 -0.02349
5938000000.0 -0.5818 0.6951
5941000000.0 0.1409 0.8909
5944000000.0 0.7644 0.4696
5947000000.0 0.8526 -0.3183
5950000000.0 0.309 -0.8783
5953000000.0 -0.4821 -0.8023
5956000000.0 -0.9398 -0.1599
5959000000.0 -0.7359 0.6339
5962000000.0 -0.01517 0.933
5966000000.0 0.7542 0.5798
5969000000.0 0.9668 -0.198
5972000000.0 0.4826 -0.8449
5975000000.0 -0.3244 -0.9031
5978000000.0 -0.9478 -0.3073
5981000000.0 -0.8497 0.5183
5984000000.0 -0.1422 0.9701
5988000000.0 0.6886 0.7431
5991000000.0 1.004 -0.01836
5994000000.0 0.639 -0.8352
5997000000.0 -0.22 -0.9821
6000000000.0 -0.8972 -0.4421
6003000000.0 -0.9204 0.384
6006000000.0 -0.282 0.959
6009000000.0 0.5412 0.7959
6012000000.0 0.9828 0.09359
6016000000.0 0.6996 -0.7075
6019000000.0 -0.1066 -1.001
6022000000.0 -0.8466 -0.5669
6025000000.0 -0.9298 0.3083
6028000000.0 -0.365 0.8996
6031000000.0 0.479 0.8245
6034000000.0 0.976 0.166
6038000000.0 0.7515 -0.6349
6041000000.0 -0.0332 -0.9726
6044000000.0 -0.7448 -0.5906
6047000000.0 -0.9202 0.2232
6050000000.0 -0.4009 0.83
6053000000.0 0.4041 0.8651
6056000000.0 0.9167 0.2083
6059000000.0 0.7429 -0.5636
6062000000.0 0.04319 -0.9296
6066000000.0 -0.6844 -0.6159
6069000000.0 -0.897 0.1638
6072000000.0 -0.4491 0.7898
6075000000.0 0.3508 0.8252
6078000000.0 0.8699 0.2632
6081000000.0 0.7244 -0.4897
6084000000.0 0.07509 -0.8852
6088000000.0 -0.6507 -0.5805
6091000000.0 -0.8636 0.1338
6094000000.0 -0.451 0.7279
6097000000.0 0.2772 0.8214
6100000000.0 0.7786 0.2783
6103000000.0 0.7347 -0.4157
6106000000.0 0.09787 -0.8118
6109000000.0 -0.6043 -0.6575
6112000000.0 -0.8615 0.07544
6116000000.0 -0.4932 0.6929
6119000000.0 0.2736 0.8349
6122000000.0 0.81 0.3067
6125000000.0 0.785 -0.4237
6128000000.0 0.1579 -0.8748
6131000000.0 -0.6236 -0.6884
6134000000.0 -0.8839 0.02281
6138000000.0 -0.53 0.7169
6141000000.0 0.1817 0.8553
6144000000.0 0.8355 0.3601
6147000000.0 0.8037 -0.4109
6150000000.0 0.2207 -0.8812
6153000000.0 -0.5218 -0.7489
6156000000.0 -0.8778 -0.06263
6159000000.0 -0.5928 0.6912
6162000000.0 0.1406 0.9203
6166000000.0 0.8263 0.4499
6169000000.0 0.8487 -0.3123
6172000000.0 0.2943 -0.8713
6175000000.0 -0.5136 -0.8321
6178000000.0 -0.9115 -0.1285
6181000000.0 -0.6885 0.6471
6184000000.0 0.06568 0.9509
6188000000.0 0.7857 0.5603
6191000000.0 0.9071 -0.2796
6194000000.0 0.3465 -0.8661
6197000000.0 -0.4293 -0.8285
6200000000.0 -0.9153 -0.1837
6203000000.0 -0.7209 0.6282
6206000000.0 -0.001394 0.9143
6209000000.0 0.7182 0.6101
6212000000.0 0.9262 -0.1558
6216000000.0 0.4789 -0.8343
6219000000.0 -0.3132 -0.8754
6222000000.0 -0.8725 -0.2799
6225000000.0 -0.774 0.4984
6228000000.0 -0.1295 0.9066
6231000000.0 0.5991 0.6658
6234000000.0 0.8789 -0.05138
6238000000.0 0.5279 -0.7384
6241000000.0 -0.1731 -0.8511
6244000000.0 -0.8096 -0.3802
6247000000.0 -0.7935 0.3127
6250000000.0 -0.2113 0.8112
6253000000.0 0.4682 0.7185
6256000000.0 0.8187 0.1236
6259000000.0 0.605 -0.5857
6262000000.0 -0.0809 -0.8295
6266000000.0 -0.6806 -0.5087
6269000000.0 -0.7901 0.2266
