! Created with skrf 1.8.0 (http://scikit-rf.org).
# Hz S RI R 50.0 
!freq ReS11 ImS11
4000000000.0 -0.1584 -1.452
4003000000.0 -1.227 -0.7801
4006000000.0 -1.449 0.4797
4009000000.0 -0.5109 1.429
4012000000.0 0.7698 1.324
4016000000.0 1.516 0.1886
4019000000.0 1.09 -1.006
4022000000.0 -0.1398 -1.525
4025000000.0 -1.314 -0.8774
4028000000.0 -1.501 0.4549
4031000000.0 -0.589 1.5
4034000000.0 0.7781 1.358
4038000000.0 1.608 0.2404
4041000000.0 1.167 -1.142
4044000000.0 -0.09772 -1.599
4047000000.0 -1.355 -0.9343
4050000000.0 -1.565 0.4738
4053000000.0 -0.6301 1.501
4056000000.0 0.7526 1.413
4059000000.0 1.547 0.3279
4062000000.0 1.265 -1.029
4066000000.0 0.02052 -1.592
4069000000.0 -1.237 -1.041
4072000000.0 -1.611 0.3044
4075000000.0 -0.8354 1.419
4078000000.0 0.5731 1.496
4081000000.0 1.526 0.5084
4084000000.0 1.434 -0.851
4088000000.0 0.2178 -1.673
4091000000.0 -1.119 -1.246
4094000000.0 -1.638 0.08627
4097000000.0 -0.9563 1.294
4100000000.0 0.3535 1.608
4103000000.0 1.418 0.7229
4106000000.0 1.43 -0.6281
4109000000.0 0.4539 -1.48
4112000000.0 -0.8179 -1.268
4116000000.0 -1.481 -0.2002
4119000000.0 -1.1 1.003
4122000000.0 0.02934 1.452
4125000000.0 1.123 0.9578
4128000000.0 1.418 -0.2277
4131000000.0 0.7423 -1.26
4134000000.0 -0.438 -1.428
4138000000.0 -1.339 -0.6199
4141000000.0 -1.336 0.6586
4144000000.0 -0.3664 1.472
4147000000.0 0.8344 1.231
4150000000.0 1.506 0.158
4153000000.0 1.082 -1.071
4156000000.0 -0.1432 -1.53
4159000000.0 -1.201 -0.8622
4162000000.0 -1.427 0.392
4166000000.0 -0.6555 1.331
4169000000.0 0.6 1.354
4172000000.0 1.431 0.415
4175000000.0 1.223 -0.8446
4178000000.0 0.154 -1.481
4181000000.0 -1.017 -1.063
4184000000.0 -1.466 0.09235
4188000000.0 -0.8695 1.193
4191000000.0 0.3653 1.439
4194000000.0 1.359 0.6491
4197000000.0 1.4 -0.6623
4200000000.0 0.3437 -1.523
4203000000.0 -0.9553 -1.26
4206000000.0 -1.596 -0.03102
4209000000.0 -1.046 1.254
4212000000.0 0.359 1.592
4216000000.0 1.498 0.7276
4219000000.0 1.508 -0.735
4222000000.0 0.3047 -1.669
4225000000.0 -1.124 -1.259
4228000000.0 -1.662 0.1215
4231000000.0 -0.9067 1.396
4234000000.0 0.495 1.581
4238000000.0 1.55 0.5275
4241000000.0 1.323 -0.9458
4244000000.0 0.06256 -1.609
4247000000.0 -1.238 -1.025
4250000000.0 -1.527 0.3067
4253000000.0 -0.6463 1.399
4256000000.0 0.6876 1.367
4259000000.0 1.513 0.305
4262000000.0 1.1 -0.9848
4266000000.0 -0.08377 -1.494
4269000000.0 -1.227 -0.8577
4272000000.0 -1.396 0.45
4275000000.0 -0.5138 1.384
4278000000.0 0.7546 1.224
4281000000.0 1.433 0.1707
4284000000.0 1.005 -0.9714
4288000000.0 -0.1323 -1.407
4291000000.0 -1.153 -0.7174
4294000000.0 -1.271 0.4192
4297000000.0 -0.467 1.217
4300000000.0 0.6527 1.126
4303000000.0 1.279 0.2483
4306000000.0 1.025 -0.8556
4309000000.0 0.03657 -1.287
4312000000.0 -1.002 -0.8298
4316000000.0 -1.297 0.1727
4319000000.0 -0.7138 1.115
4322000000.0 0.4107 1.22
4325000000.0 1.211 0.4958
4328000000.0 1.182 -0.6217
4331000000.0 0.2974 -1.314
4334000000.0 -0.8775 -1.063
4338000000.0 -1.356 -0.07596
4341000000.0 -0.9193 1.05
4344000000.0 0.1804 1.367
4347000000.0 1.214 0.7656
4350000000.0 1.388 -0.4895
4353000000.0 0.4896 -1.351
4356000000.0 -0.7341 -1.235
4359000000.0 -1.42 -0.2295
4362000000.0 -1.094 0.9549
4366000000.0 0.03622 1.445
4369000000.0 1.166 0.9258
4372000000.0 1.419 -0.2948
4375000000.0 0.7132 -1.297
4378000000.0 -0.5786 -1.38
4381000000.0 -1.458 -0.4573
4384000000.0 -1.26 0.8318
4388000000.0 -0.1563 1.499
4391000000.0 1.107 1.096
4394000000.0 1.589 -0.1437
4397000000.0 0.8464 -1.341
4400000000.0 -0.5163 -1.518
4403000000.0 -1.488 -0.5381
4406000000.0 -1.365 0.8548
4409000000.0 -0.1475 1.574
4412000000.0 1.139 1.067
4416000000.0 1.549 -0.2125
4419000000.0 0.785 -1.326
4422000000.0 -0.5351 -1.396
4425000000.0 -1.436 -0.4247
4428000000.0 -1.18 0.845
4431000000.0 -0.05394 1.449
4434000000.0 1.071 0.9268
4438000000.0 1.373 -0.2591
4441000000.0 0.6125 -1.246
4444000000.0 -0.5856 -1.243
4447000000.0 -1.326 -0.2929
4450000000.0 -1.046 0.8902
4453000000.0 0.03013 1.32
4456000000.0 1.07 0.7719
4459000000.0 1.241 -0.3203
4462000000.0 0.4577 -1.205
4466000000.0 -0.6535 -1.063
4469000000.0 -1.225 -0.1145
4472000000.0 -0.8562 0.862
4475000000.0 0.1941 1.191
4478000000.0 1.044 0.5973
4481000000.0 1.064 -0.4573
4484000000.0 0.3059 -1.145
4488000000.0 -0.6935 -0.9184
4491000000.0 -1.104 -0.03873
4494000000.0 -0.7643 0.8868
4497000000.0 0.1735 1.107
4500000000.0 0.9979 0.5511
4503000000.0 1.003 -0.4236
4506000000.0 0.3093 -1.024
4509000000.0 -0.6175 -0.9125
4512000000.0 -1.085 -0.06789
4516000000.0 -0.8035 0.8015
4519000000.0 0.1207 1.121
4522000000.0 0.9505 0.5894
4525000000.0 1.058 -0.3675
4528000000.0 0.4098 -1.075
4531000000.0 -0.5751 -1.028
4534000000.0 -1.155 -0.1688
4538000000.0 -0.8902 0.7613
4541000000.0 0.02952 1.147
4544000000.0 0.9317 0.6915
4547000000.0 1.17 -0.2765
4550000000.0 0.5344 -1.067
4553000000.0 -0.4602 -1.126
4556000000.0 -1.174 -0.3498
4559000000.0 -1.032 0.6554
4562000000.0 -0.1502 1.203
4566000000.0 0.8469 0.9135
4569000000.0 1.222 -0.03527
4572000000.0 0.796 -1.034
4575000000.0 -0.2886 -1.26
4578000000.0 -1.168 -0.5797
4581000000.0 -1.195 0.4981
4584000000.0 -0.3731 1.247
4588000000.0 0.757 1.105
4591000000.0 1.316 0.1237
4594000000.0 0.9493 -0.9449
4597000000.0 -0.1244 -1.383
4600000000.0 -1.146 -0.8056
4603000000.0 -1.306 0.392
4606000000.0 -0.5533 1.262
4609000000.0 0.6453 1.21
4612000000.0 1.341 0.2945
4616000000.0 1.079 -0.8796
4619000000.0 -0.006061 -1.384
4622000000.0 -1.05 -0.8732
4625000000.0 -1.358 0.2675
4628000000.0 -0.6217 1.221
4631000000.0 0.5638 1.271
4634000000.0 1.322 0.3834
4638000000.0 1.102 -0.7926
4641000000.0 0.07439 -1.339
4644000000.0 -1.007 -0.8854
4647000000.0 -1.337 0.2265
4650000000.0 -0.6598 1.185
4653000000.0 0.4844 1.195
4656000000.0 1.258 0.3465
4659000000.0 1.038 -0.7389
4662000000.0 0.06319 -1.262
4666000000.0 -0.9566 -0.8096
4669000000.0 -1.192 0.2168
4672000000.0 -0.5439 1.058
4675000000.0 0.4912 1.089
4678000000.0 1.087 0.2819
4681000000.0 0.9155 -0.6724
4684000000.0 0.04925 -1.141
4688000000.0 -0.8364 -0.7212
4691000000.0 -1.082 0.1841
4694000000.0 -0.4895 0.9734
4697000000.0 0.4672 1.032
4700000000.0 1.023 0.2618
4703000000.0 0.8582 -0.6501
4706000000.0 0.05236 -1.072
4709000000.0 -0.8151 -0.6892
4712000000.0 -1.064 0.2404
4716000000.0 -0.4276 0.9177
4719000000.0 0.4708 0.9487
4722000000.0 1.032 0.227
4725000000.0 0.8238 -0.6221
4728000000.0 -0.01481 -1.05
4731000000.0 -0.8068 -0.6722
4734000000.0 -1.005 0.1804
4738000000.0 -0.508 0.9052
4741000000.0 0.357 0.9649
4744000000.0 1.011 0.3205
4747000000.0 0.868 -0.5686
4750000000.0 0.1327 -1.019
4753000000.0 -0.7409 -0.7915
4756000000.0 -1.054 0.06199
4759000000.0 -0.6698 0.8699
4762000000.0 0.2419 1.07
4766000000.0 0.9859 0.5193
4769000000.0 1.033 -0.4618
4772000000.0 0.3092 -1.093
4775000000.0 -0.6672 -0.9815
4778000000.0 -1.132 -0.1397
4781000000.0 -0.8619 0.8039
4784000000.0 0.1025 1.177
4788000000.0 1.001 0.717
4791000000.0 1.172 -0.2853
4794000000.0 0.5474 -1.098
4797000000.0 -0.4891 -1.129
4800000000.0 -1.189 -0.369
4803000000.0 -1.037 0.6676
4806000000.0 -0.1499 1.246
4809000000.0 0.8556 0.9655
4812000000.0 1.303 -0.0208
4816000000.0 0.7739 -1.049
4819000000.0 -0.2819 -1.309
4822000000.0 -1.193 -0.6011
4825000000.0 -1.242 0.5329
4828000000.0 -0.3652 1.296
4831000000.0 0.7594 1.14
4834000000.0 1.364 0.1212
4838000000.0 0.9732 -0.9974
4841000000.0 -0.1773 -1.382
4844000000.0 -1.177 -0.7449
4847000000.0 -1.288 0.4331
4850000000.0 -0.4853 1.291
4853000000.0 0.6748 1.219
4856000000.0 1.364 0.2336
4859000000.0 1.025 -0.8681
4862000000.0 -0.03166 -1.334
4866000000.0 -1.08 -0.8388
4869000000.0 -1.286 0.3371
4872000000.0 -0.5749 1.185
4875000000.0 0.5575 1.197
4878000000.0 1.271 0.2933
4881000000.0 1.023 -0.773
4884000000.0 0.02338 -1.243
4888000000.0 -0.9544 -0.8047
4891000000.0 -1.189 0.2077
4894000000.0 -0.5365 1.046
4897000000.0 0.4544 1.061
4900000000.0 1.091 0.3173
4903000000.0 0.8991 -0.6394
4906000000.0 0.0825 -1.077
4909000000.0 -0.7752 -0.6836
4912000000.0 -1.025 0.1228
4916000000.0 -0.5281 0.8488
4919000000.0 0.3234 0.9559
4922000000.0 0.9522 0.3416
4925000000.0 0.8511 -0.4987
4928000000.0 0.1579 -0.9402
4931000000.0 -0.6518 -0.6856
4934000000.0 -0.9506 0.0483
4938000000.0 -0.5364 0.7501
4941000000.0 0.2529 0.8977
4944000000.0 0.8494 0.3968
4947000000.0 0.8541 -0.3927
4950000000.0 0.2051 -0.8977
4953000000.0 -0.5612 -0.7582
4956000000.0 -0.9534 -0.02216
4959000000.0 -0.6565 0.7432
4962000000.0 0.1923 0.9608
4966000000.0 0.87 0.4833
4969000000.0 0.8937 -0.3631
4972000000.0 0.2963 -0.9526
4975000000.0 -0.5428 -0.8461
4978000000.0 -0.9909 -0.1264
4981000000.0 -0.7305 0.7121
4984000000.0 0.07312 1.061
4988000000.0 0.8607 0.6036
4991000000.0 1.024 -0.2669
4994000000.0 0.4593 -0.9784
4997000000.0 -0.4396 -0.991
5000000000.0 -1.085 -0.269
5003000000.0 -0.9222 0.6795
5006000000.0 -0.07207 1.142
5009000000.0 0.8878 0.8139
5012000000.0 1.2 -0.1383
5016000000.0 0.6464 -1.044
5019000000.0 -0.3861 -1.169
5022000000.0 -1.17 -0.4578
5025000000.0 -1.092 0.6447
5028000000.0 -0.1981 1.208
5031000000.0 0.8312 0.9755
5034000000.0 1.274 -0.02252
5038000000.0 0.7856 -0.9699
5041000000.0 -0.2368 -1.269
5044000000.0 -1.107 -0.595
5047000000.0 -1.195 0.4795
5050000000.0 -0.389 1.207
5053000000.0 0.6635 1.114
5056000000.0 1.295 0.1977
5059000000.0 0.954 -0.8757
5062000000.0 -0.02654 -1.304
5066000000.0 -1.018 -0.7974
5069000000.0 -1.269 0.2783
5072000000.0 -0.5939 1.145
5075000000.0 0.5302 1.179
5078000000.0 1.179 0.3889
5081000000.0 1.045 -0.6543
5084000000.0 0.1307 -1.25
5088000000.0 -0.8627 -0.8168
5091000000.0 -1.184 0.1007
5094000000.0 -0.7275 0.9714
5097000000.0 0.2616 1.115
5100000000.0 1.038 0.4686
5103000000.0 0.9964 -0.4611
5106000000.0 0.3077 -1.068
5109000000.0 -0.6387 -0.9082
5112000000.0 -1.085 -0.07311
5116000000.0 -0.7579 0.7433
5119000000.0 0.09432 1.018
5122000000.0 0.8389 0.5961
5125000000.0 0.9993 -0.2528
5128000000.0 0.408 -0.9391
5131000000.0 -0.4364 -0.9037
5134000000.0 -0.9605 -0.2596
5138000000.0 -0.8135 0.5836
5141000000.0 -0.03018 0.9476
5144000000.0 0.7132 0.6207
5147000000.0 0.9508 -0.1561
5150000000.0 0.4418 -0.8239
5153000000.0 -0.3236 -0.8638
5156000000.0 -0.8647 -0.2753
5159000000.0 -0.7569 0.4696
5162000000.0 -0.1325 0.8908
5166000000.0 0.5901 0.6719
5169000000.0 0.9006 -0.05808
5172000000.0 0.4844 -0.7361
5175000000.0 -0.236 -0.8464
5178000000.0 -0.8113 -0.3648
5181000000.0 -0.8114 0.4066
5184000000.0 -0.1383 0.8742
5188000000.0 0.6297 0.7228
5191000000.0 0.9107 -0.03157
5194000000.0 0.5387 -0.7514
5197000000.0 -0.2591 -0.9063
5200000000.0 -0.866 -0.3667
5203000000.0 -0.8342 0.414
5206000000.0 -0.1918 0.9407
5209000000.0 0.6049 0.7469
5212000000.0 0.9817 -0.0586
5216000000.0 0.5898 -0.7629
5219000000.0 -0.2224 -0.9657
5222000000.0 -0.8989 -0.4323
5225000000.0 -0.8743 0.4363
5228000000.0 -0.2373 0.9565
5231000000.0 0.6033 0.833
5234000000.0 1.016 0.08126
5238000000.0 0.6905 -0.7652
5241000000.0 -0.1578 -1.024
5244000000.0 -0.8892 -0.5187
5247000000.0 -1.019 0.3505
5250000000.0 -0.3819 0.9832
5253000000.0 0.5181 0.9233
5256000000.0 1.045 0.1704
5259000000.0 0.8108 -0.6767
5262000000.0 -0.001393 -1.082
5266000000.0 -0.8397 -0.6897
5269000000.0 -1.063 0.2099
5272000000.0 -0.5295 0.9599
5275000000.0 0.3549 1.041
5278000000.0 1.018 0.3897
5281000000.0 0.9554 -0.5081
5284000000.0 0.1911 -1.098
5288000000.0 -0.6709 -0.8642
5291000000.0 -1.098 -0.02669
5294000000.0 -0.7591 0.8381
5297000000.0 0.1533 1.13
5300000000.0 0.9253 0.6027
5303000000.0 1.07 -0.328
5306000000.0 0.4295 -1.033
5309000000.0 -0.5194 -1.015
5312000000.0 -1.12 -0.2721
5316000000.0 -0.9304 0.6719
5319000000.0 -0.1169 1.134
5322000000.0 0.8075 0.7842
5325000000.0 1.107 -0.1286
5328000000.0 0.6581 -0.9502
5331000000.0 -0.3492 -1.092
5334000000.0 -1.026 -0.4439
5338000000.0 -0.9998 0.5161
5341000000.0 -0.2479 1.11
5344000000.0 0.7114 0.8613
5347000000.0 1.11 0.02043
5350000000.0 0.7083 -0.8205
5353000000.0 -0.1679 -1.091
5356000000.0 -0.9486 -0.5326
5359000000.0 -1.013 0.4018
5362000000.0 -0.3223 1.026
5366000000.0 0.5902 0.8736
5369000000.0 1.044 0.09139
5372000000.0 0.7258 -0.7361
5375000000.0 -0.09847 -1.021
5378000000.0 -0.8519 -0.5178
5381000000.0 -0.9489 0.3607
5384000000.0 -0.3093 0.9434
5388000000.0 0.5526 0.7982
5391000000.0 0.9639 0.08009
5394000000.0 0.6433 -0.6904
5397000000.0 -0.1443 -0.9103
5400000000.0 -0.771 -0.4567
5403000000.0 -0.8357 0.343
5406000000.0 -0.2454 0.8491
5409000000.0 0.4884 0.6962
5412000000.0 0.8376 0.05416
5416000000.0 0.5912 -0.6485
5419000000.0 -0.1276 -0.8577
5422000000.0 -0.7313 -0.4291
5425000000.0 -0.779 0.3305
5428000000.0 -0.2329 0.8294
5431000000.0 0.5034 0.6885
5434000000.0 0.8599 0.05512
5438000000.0 0.5812 -0.6303
5441000000.0 -0.1472 -0.8612
5444000000.0 -0.7785 -0.4284
5447000000.0 -0.8404 0.3278
5450000000.0 -0.2736 0.8507
5453000000.0 0.4884 0.7367
5456000000.0 0.8738 0.04555
5459000000.0 0.6273 -0.6721
5462000000.0 -0.0786 -0.8942
5466000000.0 -0.7443 -0.493
5469000000.0 -0.8476 0.2803
5472000000.0 -0.3621 0.822
5475000000.0 0.4477 0.8162
5478000000.0 0.9003 0.2314
5481000000.0 0.7694 -0.5402
5484000000.0 0.04037 -0.951
5488000000.0 -0.7353 -0.626
5491000000.0 -0.9897 0.1016
5494000000.0 -0.5171 0.8662
5497000000.0 0.2883 0.9623
5500000000.0 0.9472 0.3998
5503000000.0 0.9044 -0.4866
5506000000.0 0.2478 -0.9916
5509000000.0 -0.6195 -0.824
5512000000.0 -1.025 -0.03589
5516000000.0 -0.7103 0.7311
5519000000.0 0.1248 1.046
5522000000.0 0.8374 0.5624
5525000000.0 1.013 -0.2787
5528000000.0 0.4237 -0.9335
5531000000.0 -0.4765 -0.9342
5534000000.0 -1.024 -0.2354
5538000000.0 -0.817 0.6462
5541000000.0 -0.07849 1.064
5544000000.0 0.759 0.7388
5547000000.0 1.075 -0.1063
5550000000.0 0.5878 -0.8987
5553000000.0 -0.2789 -1.012
5556000000.0 -0.9578 -0.4371
5559000000.0 -0.9356 0.5151
5562000000.0 -0.2273 1.032
5566000000.0 0.6259 0.8323
5569000000.0 1.028 0.03004
5572000000.0 0.6433 -0.7773
5575000000.0 -0.142 -1.002
5578000000.0 -0.8498 -0.5117
5581000000.0 -0.9355 0.3405
5584000000.0 -0.3133 0.9111
5588000000.0 0.4831 0.8033
5591000000.0 0.9647 0.1407
5594000000.0 0.6883 -0.6317
5597000000.0 -0.02986 -0.9257
5600000000.0 -0.7334 -0.5866
5603000000.0 -0.9067 0.2015
5606000000.0 -0.3965 0.8246
5609000000.0 0.4028 0.7956
5612000000.0 0.837 0.1834
5616000000.0 0.7261 -0.523
5619000000.0 0.0383 -0.8824
5622000000.0 -0.6541 -0.5417
5625000000.0 -0.8258 0.1816
5628000000.0 -0.3857 0.7586
5631000000.0 0.3223 0.7796
5634000000.0 0.8128 0.2219
5638000000.0 0.6904 -0.4984
5641000000.0 0.05067 -0.8048
5644000000.0 -0.5971 -0.5662
5647000000.0 -0.8167 0.1369
5650000000.0 -0.42 0.7109
5653000000.0 0.3109 0.7726
5656000000.0 0.8167 0.2476
5659000000.0 0.7134 -0.4513
5662000000.0 0.05441 -0.8484
5666000000.0 -0.6328 -0.6077
5669000000.0 -0.883 0.1454
5672000000.0 -0.4161 0.7703
5675000000.0 0.3414 0.8556
5678000000.0 0.845 0.2729
5681000000.0 0.7629 -0.5246
5684000000.0 0.1003 -0.8959
5688000000.0 -0.669 -0.664
5691000000.0 -0.951 0.09683
5694000000.0 -0.5143 0.8198
5697000000.0 0.3255 0.9204
5700000000.0 0.9211 0.3508
5703000000.0 0.871 -0.5274
5706000000.0 0.1626 -1.036
5709000000.0 -0.6842 -0.7751
5712000000.0 -1.048 0.05429
5716000000.0 -0.6259 0.8407
5719000000.0 0.2375 1.032
5722000000.0 0.9754 0.4282
5725000000.0 0.9505 -0.4475
5728000000.0 0.2856 -1.047
5731000000.0 -0.6134 -0.8814
5734000000.0 -1.091 -0.07852
5738000000.0 -0.7739 0.7874
5741000000.0 0.09116 1.103
5744000000.0 0.9271 0.6187
5747000000.0 1.057 -0.3167
5750000000.0 0.4131 -1.004
5753000000.0 -0.5012 -0.9716
5756000000.0 -1.062 -0.2271
5759000000.0 -0.8769 0.6866
5762000000.0 -0.03267 1.125
5766000000.0 0.8089 0.7178
5769000000.0 1.103 -0.1368
5772000000.0 0.5963 -0.9145
5775000000.0 -0.3475 -1.06
5778000000.0 -1.007 -0.406
5781000000.0 -0.9688 0.5131
5784000000.0 -0.2401 1.057
5788000000.0 0.6744 0.8225
5791000000.0 1.091 -0.004657
5794000000.0 0.6696 -0.8083
5797000000.0 -0.162 -1.056
5800000000.0 -0.937 -0.5523
5803000000.0 -0.996 0.3584
5806000000.0 -0.3603 1.01
5809000000.0 0.5342 0.9315
5812000000.0 1.023 0.1599
5816000000.0 0.7717 -0.7076
5819000000.0 -0.06025 -1.041
5822000000.0 -0.8153 -0.5976
5825000000.0 -0.9828 0.2496
5828000000.0 -0.3904 0.8899
5831000000.0 0.4308 0.868
5834000000.0 0.9414 0.2271
5838000000.0 0.7804 -0.5832
5841000000.0 0.0301 -0.9619
5844000000.0 -0.7334 -0.6344
5847000000.0 -0.9084 0.1904
5850000000.0 -0.4495 0.8104
5853000000.0 0.3573 0.8817
5856000000.0 0.9041 0.2825
5859000000.0 0.7535 -0.5362
5862000000.0 0.06309 -0.9115
5866000000.0 -0.6768 -0.6075
5869000000.0 -0.919 0.1001
5872000000.0 -0.4365 0.7613
5875000000.0 0.3195 0.8247
5878000000.0 0.8474 0.2471
5881000000.0 0.693 -0.4749
5884000000.0 0.08436 -0.8564
5888000000.0 -0.6102 -0.5581
5891000000.0 -0.8652 0.09007
5894000000.0 -0.4763 0.715
5897000000.0 0.2831 0.8251
5900000000.0 0.7837 0.3238
5903000000.0 0.7518 -0.4548
5906000000.0 0.1517 -0.8513
5909000000.0 -0.5927 -0.6419
5912000000.0 -0.8603 0.03987
5916000000.0 -0.4998 0.6604
5919000000.0 0.2235 0.834
5922000000.0 0.7912 0.3476
5925000000.0 0.782 -0.3909
5928000000.0 0.2266 -0.8515
5931000000.0 -0.506 -0.6808
5934000000.0 -0.9172 -0.06415
5938000000.0 -0.6284 0.635
5941000000.0 0.09905 0.9214
5944000000.0 0.7744 0.4827
5947000000.0 0.8542 -0.2608
5950000000.0 0.3102 -0.8074
5953000000.0 -0.4358 -0.8036
5956000000.0 -0.9173 -0.1966
5959000000.0 -0.7123 0.5628
5962000000.0 0.001371 0.9172
5966000000.0 0.7048 0.6147
5969000000.0 0.9425 -0.1269
5972000000.0 0.4937 -0.8211
5975000000.0 -0.3351 -0.9144
5978000000.0 -0.8866 -0.3941
5981000000.0 -0.8418 0.4541
5984000000.0 -0.1814 0.9457
5988000000.0 0.61 0.752
5991000000.0 1.0 0.01292
5994000000.0 0.6143 -0.737
5997000000.0 -0.1807 -0.9927
6000000000.0 -0.8853 -0.5064
6003000000.0 -0.9001 0.3382
6006000000.0 -0.3151 0.9326
6009000000.0 0.5165 0.8572
6012000000.0 0.9842 0.1501
6016000000.0 0.7404 -0.6606
6019000000.0 -0.07093 -0.9712
6022000000.0 -0.8102 -0.5792
6025000000.0 -0.931 0.2652
6028000000.0 -0.3946 0.8836
6031000000.0 0.4368 0.8741
6034000000.0 0.9402 0.2317
6038000000.0 0.7409 -0.5972
6041000000.0 0.02594 -0.9887
6044000000.0 -0.7288 -0.5939
6047000000.0 -0.9637 0.204
6050000000.0 -0.4362 0.7959
6053000000.0 0.3454 0.8601
6056000000.0 0.8991 0.2741
6059000000.0 0.786 -0.5166
6062000000.0 0.07034 -0.9159
6066000000.0 -0.6586 -0.6233
6069000000.0 -0.8786 0.08989
6072000000.0 -0.4384 0.7442
6075000000.0 0.2935 0.8367
6078000000.0 0.8232 0.2747
6081000000.0 0.7445 -0.4349
6084000000.0 0.07609 -0.8398
6088000000.0 -0.5617 -0.6262
6091000000.0 -0.8447 0.05043
6094000000.0 -0.4765 0.7339
6097000000.0 0.2529 0.8026
6100000000.0 0.7799 0.3365
6103000000.0 0.7523 -0.4124
6106000000.0 0.183 -0.8358
6109000000.0 -0.555 -0.6539
6112000000.0 -0.8396 0.002394
6116000000.0 -0.469 0.6629
6119000000.0 0.2202 0.8167
6122000000.0 0.7825 0.3351
6125000000.0 0.7411 -0.3885
6128000000.0 0.1781 -0.8441
6131000000.0 -0.5304 -0.6738
6134000000.0 -0.8772 -0.02567
6138000000.0 -0.5375 0.6564
6141000000.0 0.1299 0.8738
6144000000.0 0.7652 0.3971
6147000000.0 0.8044 -0.3062
6150000000.0 0.2303 -0.8659
6153000000.0 -0.5046 -0.7421
6156000000.0 -0.9148 -0.08372
6159000000.0 -0.6127 0.6455
6162000000.0 0.1103 0.9226
6166000000.0 0.7888 0.5156
6169000000.0 0.8929 -0.2887
6172000000.0 0.3618 -0.884
6175000000.0 -0.4769 -0.7939
6178000000.0 -0.9312 -0.1979
6181000000.0 -0.7347 0.6255
6184000000.0 -0.0001632 0.9553
6188000000.0 0.7347 0.5856
6191000000.0 0.9153 -0.2116
6194000000.0 0.4185 -0.8504
6197000000.0 -0.3835 -0.8621
6200000000.0 -0.9092 -0.2247
6203000000.0 -0.738 0.5292
6206000000.0 -0.02677 0.9338
6209000000.0 0.6573 0.6347
6212000000.0 0.9155 -0.1246
6216000000.0 0.5368 -0.7592
6219000000.0 -0.2899 -0.8796
6222000000.0 -0.8422 -0.3646
6225000000.0 -0.8 0.4175
6228000000.0 -0.202 0.8714
6231000000.0 0.5666 0.6903
6234000000.0 0.902 -0.009026
6238000000.0 0.5784 -0.6635
6241000000.0 -0.1462 -0.8564
6244000000.0 -0.7453 -0.461
6247000000.0 -0.7832 0.3249
6250000000.0 -0.2923 0.808
6253000000.0 0.4205 0.7245
6256000000.0 0.8101 0.1605
6259000000.0 0.6059 -0.5392
6262000000.0 -0.0404 -0.8185
6266000000.0 -0.6357 -0.5111
