! Created with skrf 1.8.0 (http://scikit-rf.org).
# Hz S RI R 50.0 
!freq ReS11 ImS11
4000000000.0 -0.4613 -1.429
4003000000.0 -1.401 -0.6021
4006000000.0 -1.355 0.7608
4009000000.0 -0.2569 1.507
4012000000.0 1.026 1.136
4016000000.0 1.576 -0.005892
4019000000.0 0.9533 -1.228
4022000000.0 -0.3912 -1.525
4025000000.0 -1.44 -0.6275
4028000000.0 -1.446 0.7532
4031000000.0 -0.3111 1.602
4034000000.0 1.092 1.22
4038000000.0 1.613 -0.04413
4041000000.0 0.9943 -1.311
4044000000.0 -0.4263 -1.647
4047000000.0 -1.501 -0.7191
4050000000.0 -1.445 0.7937
4053000000.0 -0.3452 1.596
4056000000.0 0.9994 1.246
4059000000.0 1.616 0.03311
4062000000.0 1.057 -1.237
4066000000.0 -0.2539 -1.625
4069000000.0 -1.383 -0.818
4072000000.0 -1.527 0.5728
4075000000.0 -0.557 1.515
4078000000.0 0.8474 1.401
4081000000.0 1.623 0.2591
4084000000.0 1.224 -1.106
4088000000.0 -0.0525 -1.638
4091000000.0 -1.305 -0.9877
4094000000.0 -1.557 0.3608
4097000000.0 -0.7553 1.42
4100000000.0 0.6416 1.482
4103000000.0 1.527 0.4295
4106000000.0 1.276 -0.8878
4109000000.0 0.1852 -1.514
4112000000.0 -1.011 -1.108
4116000000.0 -1.526 0.08791
4119000000.0 -0.9149 1.163
4122000000.0 0.2516 1.452
4125000000.0 1.263 0.7308
4128000000.0 1.371 -0.473
4131000000.0 0.5776 -1.373
4134000000.0 -0.7046 -1.28
4138000000.0 -1.436 -0.339
4141000000.0 -1.204 0.8943
4144000000.0 -0.108 1.468
4147000000.0 1.066 1.061
4150000000.0 1.49 -0.1639
4153000000.0 0.8471 -1.278
4156000000.0 -0.4354 -1.395
4159000000.0 -1.376 -0.5934
4162000000.0 -1.314 0.6904
4166000000.0 -0.3283 1.507
4169000000.0 0.924 1.148
4172000000.0 1.478 0.03389
4175000000.0 0.9734 -1.14
4178000000.0 -0.2481 -1.464
4181000000.0 -1.297 -0.7537
4184000000.0 -1.411 0.4798
4188000000.0 -0.508 1.421
4191000000.0 0.7393 1.315
4194000000.0 1.546 0.2314
4197000000.0 1.135 -1.053
4200000000.0 -0.1505 -1.551
4203000000.0 -1.335 -0.8347
4206000000.0 -1.517 0.5321
4209000000.0 -0.5129 1.549
4212000000.0 0.9061 1.341
4216000000.0 1.631 0.08388
4219000000.0 1.045 -1.243
4222000000.0 -0.3899 -1.598
4225000000.0 -1.488 -0.6514
4228000000.0 -1.408 0.805
4231000000.0 -0.2056 1.594
4234000000.0 1.117 1.065
4238000000.0 1.528 -0.211
4241000000.0 0.7334 -1.385
4244000000.0 -0.6266 -1.413
4247000000.0 -1.485 -0.3464
4250000000.0 -1.187 0.9366
4253000000.0 0.02312 1.467
4256000000.0 1.163 0.8876
4259000000.0 1.415 -0.3698
4262000000.0 0.58 -1.335
4266000000.0 -0.7122 -1.237
4269000000.0 -1.418 -0.1872
4272000000.0 -1.049 0.9623
4275000000.0 0.15 1.423
4278000000.0 1.163 0.7665
4281000000.0 1.314 -0.4474
4284000000.0 0.4984 -1.261
4288000000.0 -0.7032 -1.189
4291000000.0 -1.361 -0.1974
4294000000.0 -0.9724 0.8825
4297000000.0 0.0423 1.291
4300000000.0 1.025 0.8038
4303000000.0 1.27 -0.2811
4306000000.0 0.5993 -1.154
4309000000.0 -0.5036 -1.193
4312000000.0 -1.264 -0.3908
4316000000.0 -1.103 0.7127
4319000000.0 -0.1835 1.289
4322000000.0 0.9098 1.033
4325000000.0 1.373 -0.02111
4328000000.0 0.8386 -1.057
4331000000.0 -0.2726 -1.351
4334000000.0 -1.233 -0.6688
4338000000.0 -1.338 0.5392
4341000000.0 -0.451 1.377
4344000000.0 0.7748 1.241
4347000000.0 1.475 0.1396
4350000000.0 1.059 -1.054
4353000000.0 -0.1469 -1.487
4356000000.0 -1.273 -0.8199
4359000000.0 -1.444 0.4325
4362000000.0 -0.5628 1.413
4366000000.0 0.7215 1.321
4369000000.0 1.505 0.27
4372000000.0 1.155 -1.032
4375000000.0 -0.06051 -1.531
4378000000.0 -1.244 -0.9002
4381000000.0 -1.493 0.4075
4384000000.0 -0.5979 1.413
4388000000.0 0.7384 1.377
4391000000.0 1.55 0.2467
4394000000.0 1.16 -1.038
4397000000.0 -0.1334 -1.585
4400000000.0 -1.303 -0.8535
4403000000.0 -1.474 0.5255
4406000000.0 -0.4574 1.46
4409000000.0 0.8605 1.268
4412000000.0 1.479 0.07029
4416000000.0 0.9637 -1.111
4419000000.0 -0.2811 -1.414
4422000000.0 -1.227 -0.6029
4425000000.0 -1.245 0.6523
4428000000.0 -0.2588 1.348
4431000000.0 0.8818 0.9927
4434000000.0 1.29 -0.127
4438000000.0 0.6652 -1.072
4441000000.0 -0.4178 -1.188
4444000000.0 -1.162 -0.3715
4447000000.0 -1.02 0.6995
4450000000.0 -0.1054 1.235
4453000000.0 0.884 0.8132
4456000000.0 1.183 -0.2105
4459000000.0 0.5842 -1.058
4462000000.0 -0.4537 -1.073
4466000000.0 -1.122 -0.2752
4469000000.0 -0.94 0.74
4472000000.0 -0.007823 1.189
4475000000.0 0.908 0.7241
4478000000.0 1.119 -0.2846
4481000000.0 0.4767 -1.063
4484000000.0 -0.524 -1.056
4488000000.0 -1.14 -0.2632
4491000000.0 -0.9218 0.7175
4494000000.0 -0.002841 1.195
4497000000.0 0.908 0.8017
4500000000.0 1.188 -0.2078
4503000000.0 0.5668 -1.029
4506000000.0 -0.4398 -1.099
4509000000.0 -1.146 -0.3827
4512000000.0 -1.053 0.6767
4516000000.0 -0.1248 1.181
4519000000.0 0.8342 0.8721
4522000000.0 1.234 -0.07395
4525000000.0 0.7466 -1.013
4528000000.0 -0.3314 -1.216
4531000000.0 -1.176 -0.5144
4534000000.0 -1.175 0.5361
4538000000.0 -0.32 1.257
4541000000.0 0.7613 1.05
4544000000.0 1.313 0.08873
4547000000.0 0.9071 -0.9514
4550000000.0 -0.1475 -1.309
4553000000.0 -1.113 -0.7408
4556000000.0 -1.278 0.3908
4559000000.0 -0.5077 1.229
4562000000.0 0.6144 1.196
4566000000.0 1.331 0.307
4569000000.0 1.079 -0.8333
4572000000.0 0.03809 -1.408
4575000000.0 -1.056 -0.9278
4578000000.0 -1.387 0.2315
4581000000.0 -0.6972 1.201
4584000000.0 0.4814 1.311
4588000000.0 1.329 0.4545
4591000000.0 1.196 -0.7492
4594000000.0 0.199 -1.421
4597000000.0 -1.007 -1.046
4600000000.0 -1.43 0.1356
4603000000.0 -0.8249 1.171
4606000000.0 0.4255 1.378
4609000000.0 1.311 0.5449
4612000000.0 1.189 -0.6789
4616000000.0 0.235 -1.357
4619000000.0 -0.9511 -1.036
4622000000.0 -1.371 0.06353
4625000000.0 -0.7765 1.107
4628000000.0 0.3707 1.274
4631000000.0 1.199 0.5086
4634000000.0 1.123 -0.6319
4638000000.0 0.214 -1.27
4641000000.0 -0.8239 -0.9335
4644000000.0 -1.27 0.07859
4647000000.0 -0.6736 1.013
4650000000.0 0.3872 1.174
4653000000.0 1.135 0.4111
4656000000.0 1.024 -0.6274
4659000000.0 0.1043 -1.147
4662000000.0 -0.8022 -0.8313
4666000000.0 -1.132 0.1617
4669000000.0 -0.5895 0.9776
4672000000.0 0.3965 1.056
4675000000.0 1.04 0.3721
4678000000.0 0.9065 -0.6091
4681000000.0 0.09258 -1.069
4684000000.0 -0.7984 -0.7715
4688000000.0 -1.031 0.1376
4691000000.0 -0.5637 0.8795
4694000000.0 0.31 1.039
4697000000.0 1.053 0.4014
4700000000.0 0.9365 -0.5547
4703000000.0 0.1659 -1.104
4706000000.0 -0.7937 -0.7867
4709000000.0 -1.112 0.08999
4712000000.0 -0.6082 0.9604
4716000000.0 0.3356 1.06
4719000000.0 1.042 0.4148
4722000000.0 0.9824 -0.5454
4725000000.0 0.2006 -1.111
4728000000.0 -0.7188 -0.8876
4731000000.0 -1.131 -0.02557
4734000000.0 -0.735 0.8473
4738000000.0 0.2184 1.138
4741000000.0 0.9778 0.5748
4744000000.0 1.118 -0.3782
4747000000.0 0.4265 -1.13
4750000000.0 -0.5811 -1.065
4753000000.0 -1.196 -0.2318
4756000000.0 -0.9534 0.7493
4759000000.0 -0.02367 1.247
4762000000.0 0.9689 0.8153
4766000000.0 1.264 -0.2477
4769000000.0 0.637 -1.122
4772000000.0 -0.445 -1.224
4775000000.0 -1.244 -0.4504
4778000000.0 -1.129 0.6664
4781000000.0 -0.201 1.335
4784000000.0 0.8868 1.025
4788000000.0 1.375 -0.03621
4791000000.0 0.8583 -1.069
4794000000.0 -0.2619 -1.36
4797000000.0 -1.235 -0.6617
4800000000.0 -1.285 0.52
4803000000.0 -0.3999 1.292
4806000000.0 0.7066 1.165
4809000000.0 1.351 0.1419
4812000000.0 1.02 -0.9359
4816000000.0 -0.1072 -1.396
4819000000.0 -1.154 -0.8044
4822000000.0 -1.335 0.3794
4825000000.0 -0.5265 1.288
4828000000.0 0.6784 1.215
4831000000.0 1.351 0.2431
4834000000.0 1.027 -0.9154
4838000000.0 -0.04567 -1.367
4841000000.0 -1.061 -0.7713
4844000000.0 -1.286 0.3575
4847000000.0 -0.5414 1.19
4850000000.0 0.5809 1.112
4853000000.0 1.239 0.2435
4856000000.0 0.9706 -0.7911
4859000000.0 -0.01917 -1.231
4862000000.0 -0.9516 -0.68
4866000000.0 -1.126 0.262
4869000000.0 -0.4832 1.063
4872000000.0 0.4716 1.011
4875000000.0 1.084 0.2483
4878000000.0 0.8805 -0.6912
4881000000.0 -0.02243 -1.073
4884000000.0 -0.8056 -0.6573
4888000000.0 -1.015 0.2238
4891000000.0 -0.4381 0.9251
4894000000.0 0.4207 0.9197
4897000000.0 0.986 0.2076
4900000000.0 0.771 -0.6037
4903000000.0 0.01811 -0.9685
4906000000.0 -0.7382 -0.6024
4909000000.0 -0.9192 0.2121
4912000000.0 -0.4458 0.8681
4916000000.0 0.4286 0.8611
4919000000.0 0.9093 0.2809
4922000000.0 0.7746 -0.5607
4925000000.0 0.03501 -0.9764
4928000000.0 -0.6804 -0.6356
4931000000.0 -0.9465 0.1304
4934000000.0 -0.4979 0.8079
4938000000.0 0.3216 0.9276
4941000000.0 0.9263 0.3434
4944000000.0 0.8767 -0.505
4947000000.0 0.1604 -1.026
4950000000.0 -0.7108 -0.7744
4953000000.0 -1.06 0.04552
4956000000.0 -0.64 0.8571
4959000000.0 0.2832 1.046
4962000000.0 1.034 0.4324
4966000000.0 1.001 -0.5279
4969000000.0 0.2162 -1.136
4972000000.0 -0.7507 -0.9225
4975000000.0 -1.2 0.02269
4978000000.0 -0.771 0.9399
4981000000.0 0.2474 1.189
4984000000.0 1.066 0.5405
4988000000.0 1.137 -0.4995
4991000000.0 0.357 -1.207
4994000000.0 -0.7382 -1.057
4997000000.0 -1.278 -0.08584
5000000000.0 -0.9089 0.9689
5003000000.0 0.1732 1.309
5006000000.0 1.122 0.7012
5009000000.0 1.248 -0.4349
5012000000.0 0.4311 -1.264
5016000000.0 -0.7454 -1.122
5019000000.0 -1.326 -0.1678
5022000000.0 -0.9404 0.9408
5025000000.0 0.1106 1.286
5028000000.0 1.071 0.7145
5031000000.0 1.214 -0.4231
5034000000.0 0.4713 -1.189
5038000000.0 -0.6057 -1.066
5041000000.0 -1.19 -0.1951
5044000000.0 -0.8759 0.8068
5047000000.0 0.06309 1.164
5050000000.0 0.9105 0.6732
5053000000.0 1.103 -0.2743
5056000000.0 0.4568 -0.9844
5059000000.0 -0.4578 -1.013
5062000000.0 -1.072 -0.2376
5066000000.0 -0.8672 0.6705
5069000000.0 0.0118 1.049
5072000000.0 0.8345 0.6409
5075000000.0 1.011 -0.2437
5078000000.0 0.4125 -0.8874
5081000000.0 -0.4186 -0.9171
5084000000.0 -0.9883 -0.2039
5088000000.0 -0.7036 0.5779
5091000000.0 0.03622 0.9305
5094000000.0 0.7366 0.5436
5097000000.0 0.8957 -0.2743
5100000000.0 0.3343 -0.832
5103000000.0 -0.4983 -0.7686
5106000000.0 -0.8942 -0.08678
5109000000.0 -0.6046 0.6439
5112000000.0 0.1399 0.8472
5116000000.0 0.7811 0.4096
5119000000.0 0.7999 -0.3564
5122000000.0 0.2185 -0.8981
5125000000.0 -0.565 -0.7063
5128000000.0 -0.8927 0.02842
5131000000.0 -0.5253 0.7525
5134000000.0 0.3252 0.8733
5138000000.0 0.9064 0.3032
5141000000.0 0.7923 -0.5262
5144000000.0 0.04259 -0.9844
5147000000.0 -0.7428 -0.6248
5150000000.0 -0.9635 0.2121
5153000000.0 -0.4142 0.9063
5156000000.0 0.4429 0.8525
5159000000.0 0.9875 0.1822
5162000000.0 0.7425 -0.6681
5166000000.0 -0.09065 -1.046
5169000000.0 -0.8595 -0.5986
5172000000.0 -0.9748 0.3063
5175000000.0 -0.3598 0.9857
5178000000.0 0.5506 0.9068
5181000000.0 1.085 0.1404
5184000000.0 0.77 -0.7534
5188000000.0 -0.1115 -1.072
5191000000.0 -0.9135 -0.5853
5194000000.0 -1.014 0.3564
5197000000.0 -0.37 1.023
5200000000.0 0.574 0.9509
5203000000.0 1.081 0.1332
5206000000.0 0.7577 -0.7601
5209000000.0 -0.09335 -1.062
5212000000.0 -0.9217 -0.5706
5216000000.0 -1.009 0.3724
5219000000.0 -0.3505 1.013
5222000000.0 0.5348 0.8917
5225000000.0 1.061 0.1398
5228000000.0 0.7302 -0.7667
5231000000.0 -0.139 -1.037
5234000000.0 -0.8946 -0.5114
5238000000.0 -0.9655 0.3782
5241000000.0 -0.2841 1.02
5244000000.0 0.6102 0.8065
5247000000.0 1.025 -0.004958
5250000000.0 0.5931 -0.8291
5253000000.0 -0.2698 -0.9673
5256000000.0 -0.9381 -0.3749
5259000000.0 -0.8376 0.5423
5262000000.0 -0.06642 0.9666
5266000000.0 0.7652 0.6344
5269000000.0 0.9586 -0.2039
5272000000.0 0.3859 -0.862
5275000000.0 -0.4866 -0.8269
5278000000.0 -0.9409 -0.1067
5281000000.0 -0.6356 0.711
5284000000.0 0.2095 0.9097
5288000000.0 0.8517 0.3592
5291000000.0 0.8056 -0.4732
5294000000.0 0.1156 -0.9208
5297000000.0 -0.6785 -0.6457
5300000000.0 -0.9293 0.1472
5303000000.0 -0.4463 0.8488
5306000000.0 0.4102 0.8372
5309000000.0 0.9575 0.1817
5312000000.0 0.736 -0.6362
5316000000.0 -0.08424 -0.9847
5319000000.0 -0.8082 -0.5598
5322000000.0 -0.9567 0.3101
5325000000.0 -0.3648 0.9445
5328000000.0 0.5406 0.864
5331000000.0 1.005 0.1747
5334000000.0 0.7162 -0.7228
5338000000.0 -0.1246 -1.084
5341000000.0 -0.9003 -0.5661
5344000000.0 -1.024 0.3225
5347000000.0 -0.3783 0.9812
5350000000.0 0.5208 0.9236
5353000000.0 1.054 0.1815
5356000000.0 0.8314 -0.6937
5359000000.0 -0.02495 -1.089
5362000000.0 -0.8776 -0.685
5366000000.0 -1.107 0.2751
5369000000.0 -0.4977 0.986
5372000000.0 0.4668 1.055
5375000000.0 1.087 0.3154
5378000000.0 0.9337 -0.6485
5381000000.0 0.07721 -1.122
5384000000.0 -0.8273 -0.7548
5388000000.0 -1.138 0.1697
5391000000.0 -0.6361 1.013
5394000000.0 0.3909 1.082
5397000000.0 1.109 0.4077
5400000000.0 1.003 -0.5692
5403000000.0 0.1604 -1.103
5406000000.0 -0.8083 -0.8652
5409000000.0 -1.149 0.08587
5412000000.0 -0.6547 0.9605
5416000000.0 0.3374 1.107
5419000000.0 1.053 0.4038
5422000000.0 0.9796 -0.5558
5425000000.0 0.1696 -1.119
5428000000.0 -0.7575 -0.8247
5431000000.0 -1.107 0.08628
5434000000.0 -0.5735 0.9339
5438000000.0 0.3585 1.037
5441000000.0 1.013 0.316
5444000000.0 0.8765 -0.6162
5447000000.0 0.01759 -1.024
5450000000.0 -0.8129 -0.613
5453000000.0 -0.9511 0.1841
5456000000.0 -0.4035 0.8754
5459000000.0 0.4238 0.8194
5462000000.0 0.9216 0.1132
5466000000.0 0.6783 -0.612
5469000000.0 -0.08411 -0.897
5472000000.0 -0.7642 -0.4764
5475000000.0 -0.8388 0.3169
5478000000.0 -0.2541 0.837
5481000000.0 0.4559 0.7346
5484000000.0 0.8487 0.06343
5488000000.0 0.6011 -0.6218
5491000000.0 -0.1431 -0.8414
5494000000.0 -0.7721 -0.4076
5497000000.0 -0.7938 0.3741
5500000000.0 -0.1984 0.8347
5503000000.0 0.4977 0.6691
5506000000.0 0.8105 0.003888
5509000000.0 0.5839 -0.6363
5512000000.0 -0.1682 -0.8195
5516000000.0 -0.772 -0.3883
5519000000.0 -0.7941 0.3634
5522000000.0 -0.2808 0.8445
5525000000.0 0.5161 0.7378
5528000000.0 0.8937 0.07196
5531000000.0 0.6405 -0.6545
5534000000.0 -0.06852 -0.9044
5538000000.0 -0.7834 -0.5286
5541000000.0 -0.9213 0.282
5544000000.0 -0.3805 0.8864
5547000000.0 0.4674 0.8707
5550000000.0 0.9668 0.1935
5553000000.0 0.7603 -0.6162
5556000000.0 0.01844 -1.002
5559000000.0 -0.7931 -0.6444
5562000000.0 -0.9786 0.1663
5566000000.0 -0.511 0.8829
5569000000.0 0.3429 0.9779
5572000000.0 0.9712 0.3441
5575000000.0 0.8799 -0.5077
5578000000.0 0.1678 -1.006
5581000000.0 -0.7073 -0.7733
5584000000.0 -1.034 0.006783
5588000000.0 -0.629 0.8087
5591000000.0 0.2247 1.027
5594000000.0 0.9247 0.4905
5597000000.0 0.9731 -0.4021
5600000000.0 0.2738 -0.9946
5603000000.0 -0.5471 -0.8655
5606000000.0 -1.06 -0.1147
5609000000.0 -0.7355 0.7278
5612000000.0 0.08244 1.005
5616000000.0 0.8414 0.5726
5619000000.0 0.9629 -0.3021
5622000000.0 0.3878 -0.9149
5625000000.0 -0.4484 -0.885
5628000000.0 -0.9724 -0.2133
5631000000.0 -0.7722 0.6006
5634000000.0 0.006119 0.9675
5638000000.0 0.7361 0.5974
5641000000.0 0.9517 -0.1981
5644000000.0 0.4149 -0.8273
5647000000.0 -0.3851 -0.8635
5650000000.0 -0.9087 -0.2084
5653000000.0 -0.756 0.5537
5656000000.0 -0.03354 0.9341
5659000000.0 0.7029 0.5781
5662000000.0 0.8807 -0.1973
5666000000.0 0.4284 -0.8099
5669000000.0 -0.4233 -0.8293
5672000000.0 -0.8902 -0.2141
5675000000.0 -0.7269 0.5495
5678000000.0 0.03112 0.8962
5681000000.0 0.7271 0.4991
5684000000.0 0.8509 -0.2219
5688000000.0 0.3726 -0.8386
5691000000.0 -0.4463 -0.7693
5694000000.0 -0.9047 -0.1543
5697000000.0 -0.6428 0.601
5700000000.0 0.0565 0.9297
5703000000.0 0.7649 0.4786
5706000000.0 0.877 -0.2915
5709000000.0 0.3129 -0.8503
5712000000.0 -0.4844 -0.7874
5716000000.0 -0.9257 -0.1222
5719000000.0 -0.6632 0.6787
5722000000.0 0.1325 0.9411
5725000000.0 0.8099 0.5105
5728000000.0 0.893 -0.2807
5731000000.0 0.3627 -0.9165
5734000000.0 -0.4918 -0.8522
5738000000.0 -0.983 -0.113
5741000000.0 -0.7256 0.669
5744000000.0 0.07078 1.003
5747000000.0 0.8294 0.5682
5750000000.0 0.9991 -0.2979
5753000000.0 0.4319 -0.9422
5756000000.0 -0.4833 -0.9506
5759000000.0 -1.017 -0.2046
5762000000.0 -0.799 0.6693
5766000000.0 -0.003253 1.053
5769000000.0 0.8207 0.6971
5772000000.0 1.049 -0.2065
5775000000.0 0.5232 -0.9329
5778000000.0 -0.3889 -0.9743
5781000000.0 -1.005 -0.3378
5784000000.0 -0.8878 0.5613
5788000000.0 -0.1763 1.09
5791000000.0 0.7211 0.8397
5794000000.0 1.08 -0.02099
5797000000.0 0.6399 -0.8417
5800000000.0 -0.2507 -1.062
5803000000.0 -0.9622 -0.4858
5806000000.0 -0.9477 0.4479
5809000000.0 -0.3132 1.05
5812000000.0 0.5782 0.8969
5816000000.0 1.085 0.1201
5819000000.0 0.7299 -0.7879
5822000000.0 -0.0859 -1.068
5825000000.0 -0.8436 -0.6125
5828000000.0 -1.001 0.2758
5831000000.0 -0.4348 0.9506
5834000000.0 0.4862 0.9338
5838000000.0 1.017 0.2485
5841000000.0 0.8083 -0.6482
5844000000.0 0.01646 -1.025
5847000000.0 -0.7985 -0.6754
5850000000.0 -1.02 0.1982
5853000000.0 -0.5157 0.919
5856000000.0 0.3591 0.95
5859000000.0 0.9897 0.3565
5862000000.0 0.8546 -0.5452
5866000000.0 0.09186 -0.9918
5869000000.0 -0.7093 -0.6649
5872000000.0 -0.9201 0.09553
5875000000.0 -0.4974 0.8113
5878000000.0 0.3014 0.9001
5881000000.0 0.8918 0.2959
5884000000.0 0.7721 -0.4784
5888000000.0 0.1022 -0.9388
5891000000.0 -0.6453 -0.6277
5894000000.0 -0.874 0.1116
5897000000.0 -0.4857 0.7327
5900000000.0 0.2526 0.8492
5903000000.0 0.8329 0.3348
5906000000.0 0.7231 -0.4311
5909000000.0 0.114 -0.85
5912000000.0 -0.6003 -0.62
5916000000.0 -0.8733 0.07278
5919000000.0 -0.4698 0.7082
5922000000.0 0.243 0.8277
5925000000.0 0.8093 0.3061
5928000000.0 0.7515 -0.3975
5931000000.0 0.1555 -0.8431
5934000000.0 -0.5783 -0.6208
5938000000.0 -0.8594 0.02093
5941000000.0 -0.5279 0.6762
5944000000.0 0.1824 0.816
5947000000.0 0.7473 0.3748
5950000000.0 0.7772 -0.3517
5953000000.0 0.2161 -0.8382
5956000000.0 -0.4798 -0.695
5959000000.0 -0.8601 -0.05768
5962000000.0 -0.6016 0.6136
5966000000.0 0.1187 0.8814
5969000000.0 0.7004 0.5114
5972000000.0 0.8349 -0.2521
5975000000.0 0.3555 -0.8256
5978000000.0 -0.4385 -0.7923
5981000000.0 -0.8987 -0.2063
5984000000.0 -0.7213 0.5558
5988000000.0 -0.04236 0.9265
5991000000.0 0.6995 0.6124
5994000000.0 0.9272 -0.1414
5997000000.0 0.4979 -0.7796
6000000000.0 -0.3217 -0.9274
6003000000.0 -0.8837 -0.3391
6006000000.0 -0.838 0.4807
6009000000.0 -0.1593 0.957
6012000000.0 0.6131 0.7242
6016000000.0 0.9738 -0.01146
6019000000.0 0.6303 -0.7849
6022000000.0 -0.1573 -0.9623
6025000000.0 -0.8497 -0.4579
6028000000.0 -0.9396 0.3773
6031000000.0 -0.29 0.9553
6034000000.0 0.5322 0.8363
6038000000.0 0.9878 0.1137
6041000000.0 0.7197 -0.701
6044000000.0 -0.09557 -0.9912
6047000000.0 -0.8235 -0.5727
6050000000.0 -0.9736 0.283
6053000000.0 -0.3833 0.9077
6056000000.0 0.479 0.8709
6059000000.0 0.9769 0.1983
6062000000.0 0.7561 -0.6271
6066000000.0 -0.05359 -0.9779
6069000000.0 -0.786 -0.5882
6072000000.0 -0.9379 0.2529
6075000000.0 -0.4097 0.8707
6078000000.0 0.4258 0.8396
6081000000.0 0.9298 0.2028
6084000000.0 0.7433 -0.5822
6088000000.0 0.01854 -0.9308
6091000000.0 -0.7134 -0.5912
6094000000.0 -0.8799 0.1566
6097000000.0 -0.4212 0.8076
6100000000.0 0.3491 0.8366
6103000000.0 0.8561 0.2411
6106000000.0 0.731 -0.5237
6109000000.0 0.01238 -0.859
6112000000.0 -0.6242 -0.5992
6116000000.0 -0.8858 0.1431
6119000000.0 -0.4278 0.7282
6122000000.0 0.3309 0.8049
6125000000.0 0.8173 0.2497
6128000000.0 0.7014 -0.453
6131000000.0 0.049 -0.8223
6134000000.0 -0.6273 -0.5836
6138000000.0 -0.8128 0.1362
6141000000.0 -0.408 0.7443
6144000000.0 0.3069 0.7819
6147000000.0 0.7841 0.2772
6150000000.0 0.7083 -0.4885
6153000000.0 0.1106 -0.8572
6156000000.0 -0.5861 -0.616
6159000000.0 -0.8642 0.05107
6162000000.0 -0.4687 0.7431
6166000000.0 0.252 0.8087
6169000000.0 0.7904 0.3512
6172000000.0 0.753 -0.4191
6175000000.0 0.1698 -0.8305
6178000000.0 -0.5655 -0.6375
6181000000.0 -0.9103 0.03335
6184000000.0 -0.5226 0.73
6188000000.0 0.2025 0.8713
6191000000.0 0.8135 0.4216
6194000000.0 0.8287 -0.4
6197000000.0 0.2254 -0.8921
6200000000.0 -0.5262 -0.7226
6203000000.0 -0.8841 -0.02601
6206000000.0 -0.5717 0.6697
6209000000.0 0.1385 0.918
6212000000.0 0.7863 0.4555
6216000000.0 0.8606 -0.2893
6219000000.0 0.2958 -0.8501
6222000000.0 -0.4854 -0.7557
6225000000.0 -0.8981 -0.1204
6228000000.0 -0.639 0.6098
6231000000.0 0.01765 0.8928
6234000000.0 0.713 0.5438
6238000000.0 0.8791 -0.2227
6241000000.0 0.3748 -0.8124
6244000000.0 -0.3759 -0.8002
6247000000.0 -0.8037 -0.2285
6250000000.0 -0.7031 0.4978
6253000000.0 -0.05269 0.8453
6256000000.0 0.5904 0.5943
6259000000.0 0.8147 -0.1056
6262000000.0 0.4734 -0.683
6266000000.0 -0.2198 -0.8154
