! Created with skrf 1.8.0 (http://scikit-rf.org).
# Hz S RI R 50.0 
!freq ReS11 ImS11
4000000000.0 -0.1904 -1.458
4003000000.0 -1.298 -0.7894
4006000000.0 -1.454 0.5372
4009000000.0 -0.4971 1.447
4012000000.0 0.8038 1.249
4016000000.0 1.505 0.1714
4019000000.0 1.14 -1.071
4022000000.0 -0.1136 -1.561
4025000000.0 -1.355 -0.8512
4028000000.0 -1.465 0.5221
4031000000.0 -0.5329 1.48
4034000000.0 0.8438 1.417
4038000000.0 1.608 0.1627
4041000000.0 1.153 -1.117
4044000000.0 -0.1849 -1.626
4047000000.0 -1.35 -0.8642
4050000000.0 -1.542 0.4709
4053000000.0 -0.6096 1.491
4056000000.0 0.7868 1.412
4059000000.0 1.631 0.3161
4062000000.0 1.237 -1.042
4066000000.0 -0.02039 -1.603
4069000000.0 -1.234 -1.035
4072000000.0 -1.614 0.2923
4075000000.0 -0.8021 1.405
4078000000.0 0.5559 1.515
4081000000.0 1.597 0.4852
4084000000.0 1.407 -0.8675
4088000000.0 0.2017 -1.634
4091000000.0 -1.12 -1.224
4094000000.0 -1.614 0.1153
4097000000.0 -0.9897 1.324
4100000000.0 0.4143 1.532
4103000000.0 1.419 0.6991
4106000000.0 1.447 -0.6949
4109000000.0 0.3656 -1.47
4112000000.0 -0.8722 -1.25
4116000000.0 -1.503 -0.1648
4119000000.0 -1.077 1.025
4122000000.0 0.06889 1.498
4125000000.0 1.162 0.9592
4128000000.0 1.433 -0.2854
4131000000.0 0.7472 -1.261
4134000000.0 -0.4654 -1.398
4138000000.0 -1.346 -0.5779
4141000000.0 -1.307 0.692
4144000000.0 -0.3529 1.477
4147000000.0 0.891 1.198
4150000000.0 1.507 0.09979
4153000000.0 1.036 -1.073
4156000000.0 -0.14 -1.505
4159000000.0 -1.252 -0.8502
4162000000.0 -1.467 0.4368
4166000000.0 -0.6115 1.398
4169000000.0 0.6473 1.326
4172000000.0 1.436 0.3588
4175000000.0 1.202 -0.8837
4178000000.0 0.09977 -1.479
4181000000.0 -1.071 -1.061
4184000000.0 -1.492 0.1614
4188000000.0 -0.8567 1.246
4191000000.0 0.4224 1.456
4194000000.0 1.4 0.6281
4197000000.0 1.386 -0.7267
4200000000.0 0.3125 -1.509
4203000000.0 -1.02 -1.236
4206000000.0 -1.594 0.04059
4209000000.0 -0.9867 1.301
4212000000.0 0.428 1.618
4216000000.0 1.515 0.6778
4219000000.0 1.436 -0.8147
4222000000.0 0.2108 -1.717
4225000000.0 -1.163 -1.183
4228000000.0 -1.653 0.2156
4231000000.0 -0.8441 1.434
4234000000.0 0.6485 1.493
4238000000.0 1.571 0.3922
4241000000.0 1.298 -1.001
4244000000.0 -0.005523 -1.579
4247000000.0 -1.243 -0.9909
4250000000.0 -1.499 0.4074
4253000000.0 -0.6279 1.417
4256000000.0 0.7687 1.299
4259000000.0 1.496 0.2216
4262000000.0 1.099 -1.071
4266000000.0 -0.1478 -1.488
4269000000.0 -1.282 -0.7613
4272000000.0 -1.359 0.4995
4275000000.0 -0.4359 1.38
4278000000.0 0.7814 1.167
4281000000.0 1.406 0.07742
4284000000.0 0.9443 -1.026
4288000000.0 -0.2289 -1.351
4291000000.0 -1.158 -0.6759
4294000000.0 -1.265 0.4942
4297000000.0 -0.4052 1.257
4300000000.0 0.6801 1.13
4303000000.0 1.274 0.164
4306000000.0 0.9711 -0.8782
4309000000.0 -0.06532 -1.265
4312000000.0 -1.035 -0.8087
4316000000.0 -1.256 0.2622
4319000000.0 -0.6101 1.113
4322000000.0 0.4572 1.21
4325000000.0 1.267 0.4395
4328000000.0 1.144 -0.6733
4331000000.0 0.2095 -1.374
4334000000.0 -0.8762 -1.034
4338000000.0 -1.372 0.03486
4341000000.0 -0.8625 1.062
4344000000.0 0.2818 1.406
4347000000.0 1.246 0.7034
4350000000.0 1.313 -0.5466
4353000000.0 0.4084 -1.391
4356000000.0 -0.7997 -1.213
4359000000.0 -1.419 -0.1602
4362000000.0 -1.016 1.015
4366000000.0 0.093 1.443
4369000000.0 1.2 0.8775
4372000000.0 1.421 -0.3665
4375000000.0 0.635 -1.349
4378000000.0 -0.6597 -1.36
4381000000.0 -1.471 -0.3688
4384000000.0 -1.21 0.9108
4388000000.0 -0.04368 1.537
4391000000.0 1.169 1.005
4394000000.0 1.573 -0.2581
4397000000.0 0.7375 -1.383
4400000000.0 -0.5898 -1.45
4403000000.0 -1.527 -0.4267
4406000000.0 -1.269 0.9321
4409000000.0 -0.07409 1.548
4412000000.0 1.206 0.9904
4416000000.0 1.501 -0.3596
4419000000.0 0.6661 -1.372
4422000000.0 -0.6795 -1.358
4425000000.0 -1.449 -0.2764
4428000000.0 -1.102 0.9548
4431000000.0 0.07725 1.414
4434000000.0 1.121 0.8368
4438000000.0 1.351 -0.4025
4441000000.0 0.4847 -1.277
4444000000.0 -0.7012 -1.17
4447000000.0 -1.307 -0.1507
4450000000.0 -0.9599 0.9188
4453000000.0 0.1872 1.284
4456000000.0 1.092 0.6567
4459000000.0 1.167 -0.5088
4462000000.0 0.3327 -1.217
4466000000.0 -0.7228 -1.032
4469000000.0 -1.187 -0.001291
4472000000.0 -0.7524 0.9019
4475000000.0 0.2507 1.163
4478000000.0 1.092 0.4981
4481000000.0 1.026 -0.5396
4484000000.0 0.189 -1.122
4488000000.0 -0.7315 -0.8315
4491000000.0 -1.124 0.04814
4494000000.0 -0.6905 0.9266
4497000000.0 0.2928 1.103
4500000000.0 1.025 0.4885
4503000000.0 0.9914 -0.502
4506000000.0 0.2317 -1.06
4509000000.0 -0.6864 -0.8699
4512000000.0 -1.089 0.0141
4516000000.0 -0.7199 0.8599
4519000000.0 0.2329 1.112
4522000000.0 1.007 0.54
4525000000.0 1.062 -0.4493
4528000000.0 0.3421 -1.107
4531000000.0 -0.6542 -0.9907
4534000000.0 -1.163 -0.08718
4538000000.0 -0.8281 0.813
4541000000.0 0.1401 1.184
4544000000.0 0.9758 0.6248
4547000000.0 1.172 -0.3402
4550000000.0 0.4863 -1.085
4553000000.0 -0.5351 -1.067
4556000000.0 -1.177 -0.2839
4559000000.0 -0.9817 0.7092
4562000000.0 -0.07473 1.234
4566000000.0 0.9133 0.8714
4569000000.0 1.258 -0.1297
4572000000.0 0.698 -1.048
4575000000.0 -0.3667 -1.26
4578000000.0 -1.207 -0.5242
4581000000.0 -1.204 0.6016
4584000000.0 -0.297 1.301
4588000000.0 0.8328 1.039
4591000000.0 1.317 0.06357
4594000000.0 0.8954 -1.019
4597000000.0 -0.1985 -1.338
4600000000.0 -1.2 -0.6886
4603000000.0 -1.319 0.5151
4606000000.0 -0.4363 1.321
4609000000.0 0.7332 1.167
4612000000.0 1.385 0.1852
4616000000.0 1.035 -0.9479
4619000000.0 -0.07419 -1.38
4622000000.0 -1.149 -0.8309
4625000000.0 -1.348 0.3977
4628000000.0 -0.5717 1.28
4631000000.0 0.6397 1.182
4634000000.0 1.357 0.2403
4638000000.0 1.042 -0.8422
4641000000.0 -0.0154 -1.343
4644000000.0 -1.056 -0.8019
4647000000.0 -1.288 0.3247
4650000000.0 -0.5526 1.218
4653000000.0 0.5487 1.147
4656000000.0 1.253 0.2635
4659000000.0 0.9663 -0.7991
4662000000.0 -0.042 -1.256
4666000000.0 -0.9906 -0.7277
4669000000.0 -1.122 0.3138
4672000000.0 -0.4643 1.106
4675000000.0 0.5658 1.022
4678000000.0 1.1 0.2075
4681000000.0 0.8607 -0.7383
4684000000.0 -0.04925 -1.093
4688000000.0 -0.8911 -0.6543
4691000000.0 -1.079 0.3036
4694000000.0 -0.4053 1.012
4697000000.0 0.5245 0.9252
4700000000.0 1.094 0.1793
4703000000.0 0.803 -0.7267
4706000000.0 -0.06103 -1.078
4709000000.0 -0.8814 -0.6147
4712000000.0 -1.012 0.2957
4716000000.0 -0.3926 1.012
4719000000.0 0.5304 0.9327
4722000000.0 1.079 0.1847
4725000000.0 0.7729 -0.6689
4728000000.0 -0.05094 -1.082
4731000000.0 -0.8502 -0.5952
4734000000.0 -1.022 0.2571
4738000000.0 -0.4291 0.9512
4741000000.0 0.4669 0.963
4744000000.0 1.031 0.2255
4747000000.0 0.8607 -0.6186
4750000000.0 0.07334 -1.078
4753000000.0 -0.8014 -0.7415
4756000000.0 -1.079 0.1415
4759000000.0 -0.5811 0.919
4762000000.0 0.311 1.092
4766000000.0 1.058 0.4379
4769000000.0 0.9986 -0.5273
4772000000.0 0.2652 -1.119
4775000000.0 -0.7026 -0.9336
4778000000.0 -1.169 -0.0912
4781000000.0 -0.8062 0.8771
4784000000.0 0.1525 1.206
4788000000.0 1.029 0.7023
4791000000.0 1.18 -0.3299
4794000000.0 0.4691 -1.14
4797000000.0 -0.5197 -1.106
4800000000.0 -1.213 -0.2952
4803000000.0 -1.008 0.7484
4806000000.0 -0.09941 1.254
4809000000.0 0.9068 0.8938
4812000000.0 1.286 -0.09912
4816000000.0 0.7416 -1.098
4819000000.0 -0.3616 -1.261
4822000000.0 -1.234 -0.527
4825000000.0 -1.202 0.6009
4828000000.0 -0.3077 1.331
4831000000.0 0.8794 1.099
4834000000.0 1.376 0.01885
4838000000.0 0.9254 -1.049
4841000000.0 -0.2503 -1.392
4844000000.0 -1.237 -0.6544
4847000000.0 -1.262 0.4907
4850000000.0 -0.4183 1.31
4853000000.0 0.7492 1.155
4856000000.0 1.332 0.1542
4859000000.0 0.9793 -0.9412
4862000000.0 -0.1127 -1.334
4866000000.0 -1.119 -0.736
4869000000.0 -1.258 0.4047
4872000000.0 -0.4862 1.203
4875000000.0 0.6363 1.12
4878000000.0 1.245 0.2115
4881000000.0 0.9538 -0.8171
4884000000.0 -0.03869 -1.259
4888000000.0 -0.9428 -0.7362
4891000000.0 -1.149 0.3049
4894000000.0 -0.4588 1.061
4897000000.0 0.5177 1.032
4900000000.0 1.104 0.2216
4903000000.0 0.8725 -0.6809
4906000000.0 -0.03252 -1.065
4909000000.0 -0.7909 -0.6474
4912000000.0 -1.024 0.2299
4916000000.0 -0.4739 0.9261
4919000000.0 0.4196 0.9296
4922000000.0 0.9462 0.2684
4925000000.0 0.7803 -0.56
4928000000.0 0.06659 -0.9259
4931000000.0 -0.6934 -0.6544
4934000000.0 -0.9481 0.11
4938000000.0 -0.506 0.805
4941000000.0 0.2845 0.8914
4944000000.0 0.8551 0.3409
4947000000.0 0.8362 -0.4491
4950000000.0 0.1652 -0.9282
4953000000.0 -0.6385 -0.6953
4956000000.0 -0.952 0.02734
4959000000.0 -0.5892 0.7767
4962000000.0 0.2215 0.9273
4966000000.0 0.8928 0.4141
4969000000.0 0.8894 -0.428
4972000000.0 0.2446 -0.9664
4975000000.0 -0.6151 -0.7985
4978000000.0 -0.9903 -0.05204
4981000000.0 -0.7112 0.7636
4984000000.0 0.1615 1.021
4988000000.0 0.8823 0.5659
4991000000.0 1.029 -0.3373
4994000000.0 0.398 -0.9966
4997000000.0 -0.51 -0.9557
5000000000.0 -1.129 -0.2138
5003000000.0 -0.9103 0.7415
5006000000.0 0.002727 1.164
5009000000.0 0.9248 0.7581
5012000000.0 1.185 -0.2257
5016000000.0 0.5809 -1.09
5019000000.0 -0.4694 -1.147
5022000000.0 -1.207 -0.3721
5025000000.0 -1.097 0.6613
5028000000.0 -0.1363 1.266
5031000000.0 0.893 0.9212
5034000000.0 1.295 -0.1061
5038000000.0 0.7432 -1.052
5041000000.0 -0.3043 -1.248
5044000000.0 -1.186 -0.5338
5047000000.0 -1.165 0.552
5050000000.0 -0.3701 1.227
5053000000.0 0.7503 1.074
5056000000.0 1.311 0.1242
5059000000.0 0.9036 -0.9237
5062000000.0 -0.09092 -1.278
5066000000.0 -1.09 -0.7307
5069000000.0 -1.216 0.3528
5072000000.0 -0.5081 1.17
5075000000.0 0.5754 1.137
5078000000.0 1.208 0.2681
5081000000.0 0.9934 -0.7527
5084000000.0 0.06854 -1.225
5088000000.0 -0.9071 -0.8078
5091000000.0 -1.187 0.1458
5094000000.0 -0.626 1.003
5097000000.0 0.3699 1.1
5100000000.0 1.046 0.4404
5103000000.0 0.991 -0.505
5106000000.0 0.2601 -1.063
5109000000.0 -0.6818 -0.8784
5112000000.0 -1.043 -0.06617
5116000000.0 -0.6926 0.7893
5119000000.0 0.1566 1.026
5122000000.0 0.886 0.5528
5125000000.0 0.9857 -0.3296
5128000000.0 0.3606 -0.9773
5131000000.0 -0.486 -0.8774
5134000000.0 -0.9454 -0.1744
5138000000.0 -0.7389 0.6238
5141000000.0 0.01369 0.9808
5144000000.0 0.7327 0.584
5147000000.0 0.92 -0.214
5150000000.0 0.4435 -0.8388
5153000000.0 -0.3441 -0.8301
5156000000.0 -0.8687 -0.2274
5159000000.0 -0.6994 0.5544
5162000000.0 -0.08946 0.8886
5166000000.0 0.6479 0.5922
5169000000.0 0.8991 -0.1385
5172000000.0 0.4581 -0.7547
5175000000.0 -0.3399 -0.8582
5178000000.0 -0.8582 -0.2552
5181000000.0 -0.7678 0.5216
5184000000.0 -0.07737 0.9074
5188000000.0 0.6783 0.6472
5191000000.0 0.9202 -0.124
5194000000.0 0.4786 -0.8105
5197000000.0 -0.3137 -0.8832
5200000000.0 -0.9189 -0.3069
5203000000.0 -0.8075 0.5094
5206000000.0 -0.08463 0.9571
5209000000.0 0.6722 0.6682
5212000000.0 0.948 -0.09279
5216000000.0 0.548 -0.7804
5219000000.0 -0.3187 -0.9116
5222000000.0 -0.9089 -0.3436
5225000000.0 -0.852 0.4808
5228000000.0 -0.1695 0.9871
5231000000.0 0.6563 0.8067
5234000000.0 1.041 -0.01933
5238000000.0 0.6322 -0.8306
5241000000.0 -0.2355 -1.013
5244000000.0 -0.9561 -0.4831
5247000000.0 -0.9718 0.4194
5250000000.0 -0.2941 1.021
5253000000.0 0.5929 0.8712
5256000000.0 1.08 0.1006
5259000000.0 0.8031 -0.7529
5262000000.0 -0.0516 -1.073
5266000000.0 -0.8697 -0.6403
5269000000.0 -1.057 0.2496
5272000000.0 -0.462 0.9957
5275000000.0 0.424 1.004
5278000000.0 1.031 0.3077
5281000000.0 0.9437 -0.5832
5284000000.0 0.1582 -1.117
5288000000.0 -0.762 -0.7842
5291000000.0 -1.088 0.06042
5294000000.0 -0.6986 0.8789
5297000000.0 0.2128 1.088
5300000000.0 1.0 0.5359
5303000000.0 1.06 -0.3902
5306000000.0 0.4018 -1.078
5309000000.0 -0.5676 -0.9574
5312000000.0 -1.129 -0.2018
5316000000.0 -0.8501 0.7275
5319000000.0 -0.01931 1.137
5322000000.0 0.8873 0.703
5325000000.0 1.147 -0.2172
5328000000.0 0.5627 -1.011
5331000000.0 -0.4136 -1.051
5334000000.0 -1.082 -0.3443
5338000000.0 -0.9657 0.5969
5341000000.0 -0.1765 1.14
5344000000.0 0.7413 0.8272
5347000000.0 1.101 -0.06963
5350000000.0 0.5981 -0.8586
5353000000.0 -0.3244 -1.06
5356000000.0 -0.9763 -0.4173
5359000000.0 -0.9609 0.504
5362000000.0 -0.2321 1.021
5366000000.0 0.6629 0.8264
5369000000.0 1.041 -0.003424
5372000000.0 0.6548 -0.8383
5375000000.0 -0.2458 -0.9834
5378000000.0 -0.9315 -0.4454
5381000000.0 -0.8662 0.4461
5384000000.0 -0.195 0.9643
5388000000.0 0.6475 0.7466
5391000000.0 0.9405 -0.03823
5394000000.0 0.5383 -0.7553
5397000000.0 -0.2336 -0.9001
5400000000.0 -0.8429 -0.3427
5403000000.0 -0.7685 0.4344
5406000000.0 -0.1337 0.8856
5409000000.0 0.5997 0.6875
5412000000.0 0.8658 -0.03535
5416000000.0 0.4966 -0.7155
5419000000.0 -0.2069 -0.8098
5422000000.0 -0.7554 -0.316
5425000000.0 -0.7487 0.4071
5428000000.0 -0.1521 0.8801
5431000000.0 0.5642 0.6258
5434000000.0 0.8703 -0.06144
5438000000.0 0.509 -0.7141
5441000000.0 -0.2376 -0.8656
5444000000.0 -0.8202 -0.3417
5447000000.0 -0.7563 0.4516
5450000000.0 -0.1729 0.8513
5453000000.0 0.5877 0.6721
5456000000.0 0.8621 -0.02697
5459000000.0 0.5776 -0.6898
5462000000.0 -0.1611 -0.8903
5466000000.0 -0.8001 -0.399
5469000000.0 -0.8742 0.3507
5472000000.0 -0.2641 0.898
5475000000.0 0.5189 0.7704
5478000000.0 0.9583 0.1133
5481000000.0 0.7027 -0.6621
5484000000.0 -0.05562 -0.9857
5488000000.0 -0.793 -0.6072
5491000000.0 -0.9437 0.2491
5494000000.0 -0.432 0.8798
5497000000.0 0.3734 0.9091
5500000000.0 0.9902 0.3198
5503000000.0 0.8423 -0.5584
5506000000.0 0.09728 -1.019
5509000000.0 -0.7199 -0.7377
5512000000.0 -1.02 0.04067
5516000000.0 -0.6263 0.8477
5519000000.0 0.229 1.019
5522000000.0 0.9031 0.4541
5525000000.0 0.9523 -0.3923
5528000000.0 0.2817 -1.021
5531000000.0 -0.5614 -0.8789
5534000000.0 -1.039 -0.1494
5538000000.0 -0.7886 0.7158
5541000000.0 0.03447 1.046
5544000000.0 0.8438 0.6631
5547000000.0 1.042 -0.2398
5550000000.0 0.4675 -0.969
5553000000.0 -0.4216 -0.9619
5556000000.0 -1.03 -0.3041
5559000000.0 -0.8996 0.6285
5562000000.0 -0.1008 1.039
5566000000.0 0.7245 0.7465
5569000000.0 0.9953 -0.08626
5572000000.0 0.5486 -0.8427
5575000000.0 -0.2903 -0.9604
5578000000.0 -0.9348 -0.3811
5581000000.0 -0.8715 0.4339
5584000000.0 -0.2082 0.9503
5588000000.0 0.5989 0.7528
5591000000.0 0.9436 0.03644
5594000000.0 0.5982 -0.7054
5597000000.0 -0.1551 -0.8962
5600000000.0 -0.7892 -0.4311
5603000000.0 -0.8336 0.3469
5606000000.0 -0.2557 0.8595
5609000000.0 0.4718 0.7188
5612000000.0 0.8682 0.0753
5616000000.0 0.6023 -0.6023
5619000000.0 -0.08916 -0.8307
5622000000.0 -0.7235 -0.4521
5625000000.0 -0.7778 0.2875
5628000000.0 -0.2796 0.7956
5631000000.0 0.4513 0.6865
5634000000.0 0.8123 0.1114
5638000000.0 0.5979 -0.5546
5641000000.0 -0.06502 -0.8165
5644000000.0 -0.7109 -0.45
5647000000.0 -0.8002 0.2921
5650000000.0 -0.2868 0.7868
5653000000.0 0.4189 0.7283
5656000000.0 0.8451 0.1341
5659000000.0 0.6431 -0.5854
5662000000.0 -0.07654 -0.8984
5666000000.0 -0.7236 -0.4933
5669000000.0 -0.8756 0.2716
5672000000.0 -0.3333 0.8293
5675000000.0 0.4437 0.7779
5678000000.0 0.8995 0.1347
5681000000.0 0.692 -0.6177
5684000000.0 -0.03229 -0.9467
5688000000.0 -0.7738 -0.5655
5691000000.0 -0.909 0.2513
5694000000.0 -0.3594 0.8942
5697000000.0 0.4805 0.8951
5700000000.0 0.9818 0.2075
5703000000.0 0.7841 -0.6241
5706000000.0 -0.02364 -1.015
5709000000.0 -0.8024 -0.6753
5712000000.0 -1.026 0.1925
5716000000.0 -0.4818 0.924
5719000000.0 0.4124 0.949
5722000000.0 1.02 0.3349
5725000000.0 0.8817 -0.5982
5728000000.0 0.1086 -1.089
5731000000.0 -0.7337 -0.7951
5734000000.0 -1.067 0.05819
5738000000.0 -0.6323 0.9046
5741000000.0 0.2959 1.049
5744000000.0 1.017 0.475
5747000000.0 1.015 -0.4662
5750000000.0 0.295 -1.059
5753000000.0 -0.6353 -0.9089
5756000000.0 -1.111 -0.09822
5759000000.0 -0.7961 0.8045
5762000000.0 0.1091 1.087
5766000000.0 0.8697 0.6431
5769000000.0 1.085 -0.3414
5772000000.0 0.4599 -1.006
5775000000.0 -0.4648 -0.9776
5778000000.0 -1.059 -0.2455
5781000000.0 -0.8613 0.6356
5784000000.0 -0.05846 1.061
5788000000.0 0.7952 0.7359
5791000000.0 1.056 -0.1944
5794000000.0 0.5656 -0.8934
5797000000.0 -0.3316 -1.009
5800000000.0 -0.9888 -0.3725
5803000000.0 -0.9211 0.5134
5806000000.0 -0.1978 1.05
5809000000.0 0.6648 0.8076
5812000000.0 1.007 -0.0008842
5816000000.0 0.6406 -0.8229
5819000000.0 -0.2244 -1.014
5822000000.0 -0.8858 -0.4728
5825000000.0 -0.9192 0.4159
5828000000.0 -0.2676 0.9644
5831000000.0 0.5397 0.8211
5834000000.0 0.9415 0.05901
5838000000.0 0.6556 -0.6988
5841000000.0 -0.1413 -0.9415
5844000000.0 -0.8051 -0.4627
5847000000.0 -0.9049 0.3362
5850000000.0 -0.276 0.8876
5853000000.0 0.5198 0.7798
5856000000.0 0.8953 0.07676
5859000000.0 0.666 -0.6394
5862000000.0 -0.104 -0.8847
5866000000.0 -0.7405 -0.4993
5869000000.0 -0.844 0.3117
5872000000.0 -0.2822 0.8433
5875000000.0 0.4935 0.7347
5878000000.0 0.8665 0.087
5881000000.0 0.6464 -0.6001
5884000000.0 -0.1204 -0.8891
5888000000.0 -0.7311 -0.4692
5891000000.0 -0.8187 0.2769
5894000000.0 -0.3231 0.8208
5897000000.0 0.4381 0.7714
5900000000.0 0.8435 0.1473
5903000000.0 0.6784 -0.5801
5906000000.0 -0.0419 -0.869
5909000000.0 -0.7051 -0.5236
5912000000.0 -0.8455 0.1955
5916000000.0 -0.3849 0.8056
5919000000.0 0.3256 0.7986
5922000000.0 0.8431 0.2262
5925000000.0 0.7256 -0.4967
5928000000.0 0.04837 -0.888
5931000000.0 -0.6583 -0.6283
5934000000.0 -0.8902 0.0853
5938000000.0 -0.493 0.7763
5941000000.0 0.2857 0.8442
5944000000.0 0.8436 0.3567
5947000000.0 0.7823 -0.414
5950000000.0 0.1838 -0.8975
5953000000.0 -0.5799 -0.7417
5956000000.0 -0.9493 -0.02735
5959000000.0 -0.6329 0.6945
5962000000.0 0.1416 0.9488
5966000000.0 0.8318 0.4867
5969000000.0 0.9065 -0.3322
5972000000.0 0.3408 -0.8939
5975000000.0 -0.499 -0.808
5978000000.0 -0.9774 -0.1851
5981000000.0 -0.7689 0.6305
5984000000.0 0.02863 0.995
5988000000.0 0.7613 0.6287
5991000000.0 1.005 -0.18
5994000000.0 0.4697 -0.8788
5997000000.0 -0.3865 -0.939
6000000000.0 -0.9438 -0.2728
6003000000.0 -0.8404 0.5276
6006000000.0 -0.09676 0.983
6009000000.0 0.706 0.7266
6012000000.0 0.9778 -0.07674
6016000000.0 0.5524 -0.813
6019000000.0 -0.2791 -0.9563
6022000000.0 -0.9075 -0.3562
6025000000.0 -0.8618 0.4457
6028000000.0 -0.1825 0.9527
6031000000.0 0.5829 0.7267
6034000000.0 0.9811 -0.01273
6038000000.0 0.6242 -0.7351
6041000000.0 -0.2233 -0.9188
6044000000.0 -0.839 -0.4065
6047000000.0 -0.8251 0.3805
6050000000.0 -0.2146 0.9039
6053000000.0 0.5502 0.7218
6056000000.0 0.9197 0.02495
6059000000.0 0.5939 -0.6884
6062000000.0 -0.1205 -0.8757
6066000000.0 -0.7799 -0.4262
6069000000.0 -0.7964 0.36
6072000000.0 -0.2134 0.8464
6075000000.0 0.502 0.6917
6078000000.0 0.8623 0.06602
6081000000.0 0.5747 -0.628
6084000000.0 -0.1048 -0.837
6088000000.0 -0.7159 -0.4558
6091000000.0 -0.776 0.3041
6094000000.0 -0.2678 0.7902
6097000000.0 0.4655 0.7054
6100000000.0 0.8218 0.1317
6103000000.0 0.6012 -0.587
6106000000.0 -0.05505 -0.8602
6109000000.0 -0.7038 -0.4606
6112000000.0 -0.8115 0.256
6116000000.0 -0.3148 0.7849
6119000000.0 0.4133 0.7615
6122000000.0 0.8836 0.1364
6125000000.0 0.6609 -0.5863
6128000000.0 -0.05228 -0.8596
6131000000.0 -0.7033 -0.5203
6134000000.0 -0.8688 0.2534
6138000000.0 -0.393 0.8165
6141000000.0 0.39 0.8122
6144000000.0 0.8651 0.193
6147000000.0 0.7293 -0.5447
6150000000.0 0.009328 -0.9043
6153000000.0 -0.727 -0.5975
6156000000.0 -0.8843 0.1628
6159000000.0 -0.4695 0.8234
6162000000.0 0.3326 0.8788
6166000000.0 0.9105 0.2666
6169000000.0 0.8029 -0.5495
6172000000.0 0.09701 -0.9591
6175000000.0 -0.6629 -0.6894
6178000000.0 -0.9483 0.112
6181000000.0 -0.5296 0.8418
6184000000.0 0.3153 0.9031
6188000000.0 0.8708 0.3659
6191000000.0 0.8625 -0.4776
6194000000.0 0.1951 -0.947
6197000000.0 -0.633 -0.7454
6200000000.0 -0.949 0.02183
6203000000.0 -0.5607 0.728
6206000000.0 0.193 0.9144
6209000000.0 0.832 0.4432
6212000000.0 0.8381 -0.3571
6216000000.0 0.2477 -0.8941
6219000000.0 -0.5148 -0.749
6222000000.0 -0.9089 -0.07644
6225000000.0 -0.6522 0.6403
6228000000.0 0.06885 0.9059
6231000000.0 0.6973 0.4996
6234000000.0 0.8658 -0.2542
6238000000.0 0.3738 -0.7935
6241000000.0 -0.4162 -0.7594
6244000000.0 -0.8495 -0.1945
6247000000.0 -0.6602 0.5162
6250000000.0 -0.01476 0.8201
6253000000.0 0.6168 0.5725
6256000000.0 0.8352 -0.1129
6259000000.0 0.4321 -0.6952
6262000000.0 -0.2896 -0.7723
6266000000.0 -0.7514 -0.2966
