! Created with skrf 1.8.0 (http://scikit-rf.org).
# Hz S RI R 50.0 
!freq ReS11 ImS11
4000000000.0 -0.1247 -1.486
4003000000.0 -1.283 -0.827
4006000000.0 -1.43 0.4365
4009000000.0 -0.5296 1.431
4012000000.0 0.7784 1.296
4016000000.0 1.496 0.2327
4019000000.0 1.109 -1.071
4022000000.0 -0.125 -1.566
4025000000.0 -1.267 -0.9032
4028000000.0 -1.519 0.4083
4031000000.0 -0.5873 1.502
4034000000.0 0.8221 1.418
4038000000.0 1.606 0.2578
4041000000.0 1.187 -1.067
4044000000.0 -0.09364 -1.583
4047000000.0 -1.339 -0.956
4050000000.0 -1.538 0.4546
4053000000.0 -0.6346 1.495
4056000000.0 0.7445 1.398
4059000000.0 1.547 0.3575
4062000000.0 1.223 -1.008
4066000000.0 0.07564 -1.597
4069000000.0 -1.208 -1.073
4072000000.0 -1.575 0.2846
4075000000.0 -0.7838 1.439
4078000000.0 0.5499 1.552
4081000000.0 1.528 0.5769
4084000000.0 1.417 -0.8266
4088000000.0 0.2446 -1.637
4091000000.0 -1.062 -1.227
4094000000.0 -1.646 0.05089
4097000000.0 -0.9559 1.301
4100000000.0 0.3184 1.568
4103000000.0 1.416 0.6621
4106000000.0 1.451 -0.6206
4109000000.0 0.4487 -1.491
4112000000.0 -0.8441 -1.287
4116000000.0 -1.517 -0.2043
4119000000.0 -1.113 0.9956
4122000000.0 0.03835 1.446
4125000000.0 1.107 0.9242
4128000000.0 1.456 -0.2128
4131000000.0 0.8101 -1.235
4134000000.0 -0.4407 -1.401
4138000000.0 -1.37 -0.6132
4141000000.0 -1.345 0.6325
4144000000.0 -0.3875 1.437
4147000000.0 0.8385 1.259
4150000000.0 1.474 0.1377
4153000000.0 1.092 -1.056
4156000000.0 -0.1092 -1.496
4159000000.0 -1.217 -0.858
4162000000.0 -1.474 0.3585
4166000000.0 -0.6578 1.356
4169000000.0 0.5975 1.342
4172000000.0 1.462 0.4324
4175000000.0 1.239 -0.8089
4178000000.0 0.1535 -1.463
4181000000.0 -0.9989 -1.077
4184000000.0 -1.482 0.06833
4188000000.0 -0.9044 1.211
4191000000.0 0.3487 1.466
4194000000.0 1.37 0.6927
4197000000.0 1.412 -0.6449
4200000000.0 0.4144 -1.515
4203000000.0 -0.9516 -1.276
4206000000.0 -1.602 -0.0287
4209000000.0 -1.065 1.245
4212000000.0 0.3363 1.628
4216000000.0 1.488 0.7503
4219000000.0 1.515 -0.7311
4222000000.0 0.3747 -1.651
4225000000.0 -1.09 -1.244
4228000000.0 -1.697 0.1144
4231000000.0 -0.932 1.354
4234000000.0 0.5109 1.547
4238000000.0 1.558 0.5048
4241000000.0 1.339 -0.9371
4244000000.0 0.1007 -1.6
4247000000.0 -1.168 -1.056
4250000000.0 -1.537 0.3073
4253000000.0 -0.699 1.413
4256000000.0 0.6777 1.364
4259000000.0 1.482 0.3477
4262000000.0 1.166 -0.9671
4266000000.0 -0.063 -1.476
4269000000.0 -1.231 -0.8865
4272000000.0 -1.404 0.3998
4275000000.0 -0.5365 1.388
4278000000.0 0.7346 1.216
4281000000.0 1.412 0.1884
4284000000.0 0.9922 -0.9961
4288000000.0 -0.1022 -1.404
4291000000.0 -1.141 -0.7271
4294000000.0 -1.265 0.4175
4297000000.0 -0.4856 1.245
4300000000.0 0.6505 1.132
4303000000.0 1.268 0.261
4306000000.0 0.9779 -0.809
4309000000.0 0.02232 -1.252
4312000000.0 -0.9903 -0.8431
4316000000.0 -1.271 0.1687
4319000000.0 -0.6641 1.078
4322000000.0 0.4242 1.247
4325000000.0 1.185 0.5205
4328000000.0 1.142 -0.6245
4331000000.0 0.2712 -1.318
4334000000.0 -0.8498 -1.071
4338000000.0 -1.374 -0.06783
4341000000.0 -0.9191 1.046
4344000000.0 0.1827 1.391
4347000000.0 1.198 0.702
4350000000.0 1.328 -0.502
4353000000.0 0.4753 -1.317
4356000000.0 -0.7117 -1.257
4359000000.0 -1.401 -0.2535
4362000000.0 -1.129 0.956
4366000000.0 -0.03224 1.463
4369000000.0 1.16 0.9414
4372000000.0 1.434 -0.2728
4375000000.0 0.7299 -1.309
4378000000.0 -0.5239 -1.389
4381000000.0 -1.417 -0.4721
4384000000.0 -1.291 0.8085
4388000000.0 -0.2005 1.516
4391000000.0 1.08 1.128
4394000000.0 1.572 -0.1515
4397000000.0 0.8633 -1.311
4400000000.0 -0.4753 -1.52
4403000000.0 -1.488 -0.5562
4406000000.0 -1.349 0.8217
4409000000.0 -0.1813 1.543
4412000000.0 1.102 1.119
4416000000.0 1.534 -0.2005
4419000000.0 0.7788 -1.309
4422000000.0 -0.547 -1.413
4425000000.0 -1.41 -0.4347
4428000000.0 -1.205 0.8591
4431000000.0 -0.1205 1.444
4434000000.0 1.091 0.926
4438000000.0 1.387 -0.2367
4441000000.0 0.6781 -1.228
4444000000.0 -0.5383 -1.245
4447000000.0 -1.304 -0.3427
4450000000.0 -1.048 0.8125
4453000000.0 -0.001435 1.294
4456000000.0 1.018 0.7526
4459000000.0 1.243 -0.3312
4462000000.0 0.5199 -1.194
4466000000.0 -0.6178 -1.077
4469000000.0 -1.201 -0.1748
4472000000.0 -0.8636 0.8775
4475000000.0 0.1459 1.201
4478000000.0 1.003 0.5982
4481000000.0 1.081 -0.3827
4484000000.0 0.3706 -1.104
4488000000.0 -0.6178 -0.9464
4491000000.0 -1.16 -0.07878
4494000000.0 -0.7829 0.847
4497000000.0 0.1844 1.092
4500000000.0 0.977 0.5694
4503000000.0 1.031 -0.4177
4506000000.0 0.3016 -1.034
4509000000.0 -0.5756 -0.923
4512000000.0 -1.094 -0.1032
4516000000.0 -0.7976 0.7946
4519000000.0 0.1401 1.102
4522000000.0 0.9418 0.6025
4525000000.0 1.073 -0.347
4528000000.0 0.4165 -1.056
4531000000.0 -0.5669 -1.017
4534000000.0 -1.127 -0.1999
4538000000.0 -0.8899 0.7391
4541000000.0 0.02913 1.181
4544000000.0 0.9182 0.7263
4547000000.0 1.144 -0.2543
4550000000.0 0.5503 -1.042
4553000000.0 -0.427 -1.122
4556000000.0 -1.158 -0.3626
4559000000.0 -1.037 0.6681
4562000000.0 -0.182 1.222
4566000000.0 0.835 0.9091
4569000000.0 1.248 -0.05747
4572000000.0 0.7917 -1.02
4575000000.0 -0.2601 -1.28
4578000000.0 -1.164 -0.5861
4581000000.0 -1.218 0.5146
4584000000.0 -0.3801 1.283
4588000000.0 0.7348 1.14
4591000000.0 1.362 0.1415
4594000000.0 0.99 -0.939
4597000000.0 -0.08748 -1.366
4600000000.0 -1.147 -0.7838
4603000000.0 -1.35 0.3472
4606000000.0 -0.5724 1.265
4609000000.0 0.6289 1.222
4612000000.0 1.334 0.3155
4616000000.0 1.115 -0.8445
4619000000.0 0.04109 -1.382
4622000000.0 -1.033 -0.933
4625000000.0 -1.375 0.2437
4628000000.0 -0.649 1.226
4631000000.0 0.5143 1.32
4634000000.0 1.311 0.3925
4638000000.0 1.143 -0.7855
4641000000.0 0.1248 -1.335
4644000000.0 -0.9851 -0.9118
4647000000.0 -1.338 0.1827
4650000000.0 -0.6911 1.177
4653000000.0 0.4819 1.205
4656000000.0 1.23 0.3533
4659000000.0 1.055 -0.7569
4662000000.0 0.09089 -1.23
4666000000.0 -0.9182 -0.8317
4669000000.0 -1.177 0.1887
4672000000.0 -0.5694 1.055
4675000000.0 0.4464 1.083
4678000000.0 1.127 0.2811
4681000000.0 0.9472 -0.6571
4684000000.0 0.09695 -1.126
4688000000.0 -0.7984 -0.7667
4691000000.0 -1.076 0.1581
4694000000.0 -0.5368 0.9798
4697000000.0 0.4488 0.9926
4700000000.0 1.037 0.2884
4703000000.0 0.8661 -0.6192
4706000000.0 0.02707 -1.106
4709000000.0 -0.814 -0.7359
4712000000.0 -1.061 0.23
4716000000.0 -0.4771 0.9383
4719000000.0 0.4312 0.9833
4722000000.0 1.03 0.2417
4725000000.0 0.8237 -0.6071
4728000000.0 0.04315 -1.056
4731000000.0 -0.7699 -0.6638
4734000000.0 -0.9906 0.1806
4738000000.0 -0.5108 0.8966
4741000000.0 0.3489 0.9906
4744000000.0 1.004 0.3182
4747000000.0 0.9086 -0.5222
4750000000.0 0.1701 -1.047
4753000000.0 -0.7093 -0.8312
4756000000.0 -1.069 0.06033
4759000000.0 -0.6791 0.8859
4762000000.0 0.232 1.084
4766000000.0 0.9636 0.5329
4769000000.0 1.072 -0.4363
4772000000.0 0.3413 -1.088
4775000000.0 -0.647 -0.9967
4778000000.0 -1.149 -0.1168
4781000000.0 -0.8591 0.7943
4784000000.0 0.09129 1.192
4788000000.0 0.9371 0.7035
4791000000.0 1.205 -0.2712
4794000000.0 0.5816 -1.082
4797000000.0 -0.4743 -1.141
4800000000.0 -1.166 -0.3804
4803000000.0 -1.033 0.6401
4806000000.0 -0.165 1.202
4809000000.0 0.8275 0.9217
4812000000.0 1.271 -0.03636
4816000000.0 0.7904 -1.014
4819000000.0 -0.2569 -1.302
4822000000.0 -1.174 -0.6491
4825000000.0 -1.227 0.5386
4828000000.0 -0.3914 1.292
4831000000.0 0.721 1.131
4834000000.0 1.38 0.1128
4838000000.0 0.9848 -0.9642
4841000000.0 -0.1539 -1.389
4844000000.0 -1.153 -0.7468
4847000000.0 -1.324 0.3981
4850000000.0 -0.5502 1.279
4853000000.0 0.6426 1.204
4856000000.0 1.345 0.2613
4859000000.0 1.051 -0.868
4862000000.0 -0.0137 -1.347
4866000000.0 -1.06 -0.8167
4869000000.0 -1.275 0.2637
4872000000.0 -0.6146 1.161
4875000000.0 0.5399 1.196
4878000000.0 1.23 0.3184
4881000000.0 1.019 -0.7554
4884000000.0 0.06685 -1.259
4888000000.0 -0.9652 -0.7982
4891000000.0 -1.202 0.2242
4894000000.0 -0.5864 1.069
4897000000.0 0.4372 1.047
4900000000.0 1.091 0.3209
4903000000.0 0.9346 -0.647
4906000000.0 0.08872 -1.085
4909000000.0 -0.7629 -0.7509
4912000000.0 -1.039 0.1476
4916000000.0 -0.5247 0.8866
4919000000.0 0.3154 0.9249
4922000000.0 0.9142 0.3429
4925000000.0 0.8362 -0.4935
4928000000.0 0.1647 -0.9418
4931000000.0 -0.6399 -0.708
4934000000.0 -0.9454 0.01655
4938000000.0 -0.5646 0.7416
4941000000.0 0.2167 0.9181
4944000000.0 0.8544 0.4009
4947000000.0 0.8439 -0.3671
4950000000.0 0.2436 -0.9157
4953000000.0 -0.5637 -0.7478
4956000000.0 -0.9688 -0.0417
4959000000.0 -0.6545 0.7104
4962000000.0 0.1436 0.9435
4966000000.0 0.8334 0.4987
4969000000.0 0.9013 -0.3381
4972000000.0 0.2955 -0.9244
4975000000.0 -0.5474 -0.845
4978000000.0 -0.9918 -0.1339
4981000000.0 -0.7582 0.6804
4984000000.0 0.06969 1.03
4988000000.0 0.8327 0.5983
4991000000.0 1.026 -0.2561
4994000000.0 0.4197 -0.9471
4997000000.0 -0.473 -1.008
5000000000.0 -1.073 -0.2811
5003000000.0 -0.893 0.6498
5006000000.0 -0.1192 1.148
5009000000.0 0.8371 0.8184
5012000000.0 1.176 -0.1319
5016000000.0 0.671 -1.03
5019000000.0 -0.3533 -1.152
5022000000.0 -1.158 -0.4625
5025000000.0 -1.109 0.5808
5028000000.0 -0.2487 1.266
5031000000.0 0.8171 0.9531
5034000000.0 1.268 0.009815
5038000000.0 0.8236 -0.9866
5041000000.0 -0.2432 -1.24
5044000000.0 -1.122 -0.629
5047000000.0 -1.203 0.4614
5050000000.0 -0.4241 1.236
5053000000.0 0.6563 1.089
5056000000.0 1.286 0.2027
5059000000.0 0.9693 -0.8235
5062000000.0 0.009036 -1.288
5066000000.0 -0.9862 -0.8072
5069000000.0 -1.23 0.2521
5072000000.0 -0.6006 1.14
5075000000.0 0.512 1.168
5078000000.0 1.189 0.3781
5081000000.0 1.037 -0.6814
5084000000.0 0.1561 -1.252
5088000000.0 -0.8586 -0.8717
5091000000.0 -1.183 0.08928
5094000000.0 -0.6775 0.9483
5097000000.0 0.2748 1.129
5100000000.0 1.019 0.4899
5103000000.0 1.035 -0.4697
5106000000.0 0.3232 -1.059
5109000000.0 -0.6126 -0.9092
5112000000.0 -1.078 -0.1267
5116000000.0 -0.7881 0.7373
5119000000.0 0.09023 1.045
5122000000.0 0.8385 0.5996
5125000000.0 1.023 -0.2538
5128000000.0 0.4511 -0.9233
5131000000.0 -0.4039 -0.8928
5134000000.0 -0.9355 -0.2822
5138000000.0 -0.8157 0.5711
5141000000.0 -0.05168 0.9677
5144000000.0 0.7118 0.6435
5147000000.0 0.9131 -0.1073
5150000000.0 0.4954 -0.7953
5153000000.0 -0.2979 -0.881
5156000000.0 -0.8759 -0.3365
5159000000.0 -0.7691 0.4707
5162000000.0 -0.1442 0.887
5166000000.0 0.6207 0.662
5169000000.0 0.8629 -0.03567
5172000000.0 0.5583 -0.7225
5175000000.0 -0.2472 -0.8809
5178000000.0 -0.831 -0.3609
5181000000.0 -0.7867 0.3963
5184000000.0 -0.1912 0.8734
5188000000.0 0.6108 0.684
5191000000.0 0.9164 -0.01914
5194000000.0 0.5487 -0.7113
5197000000.0 -0.2298 -0.9183
5200000000.0 -0.8294 -0.3604
5203000000.0 -0.8522 0.4358
5206000000.0 -0.2036 0.9222
5209000000.0 0.6001 0.7124
5212000000.0 0.9327 -0.02882
5216000000.0 0.6345 -0.757
5219000000.0 -0.2052 -0.9431
5222000000.0 -0.8807 -0.4699
5225000000.0 -0.9236 0.3912
5228000000.0 -0.2495 0.9493
5231000000.0 0.6052 0.8198
5234000000.0 1.005 0.06962
5238000000.0 0.7096 -0.7549
5241000000.0 -0.1228 -1.021
5244000000.0 -0.879 -0.5759
5247000000.0 -0.9846 0.3404
5250000000.0 -0.4059 0.9612
5253000000.0 0.4983 0.9313
5256000000.0 1.071 0.1932
5259000000.0 0.83 -0.6665
5262000000.0 0.006621 -1.077
5266000000.0 -0.8287 -0.6869
5269000000.0 -1.057 0.1939
5272000000.0 -0.5263 0.9273
5275000000.0 0.3455 1.021
5278000000.0 1.027 0.379
5281000000.0 0.9612 -0.5305
5284000000.0 0.2336 -1.055
5288000000.0 -0.6941 -0.8852
5291000000.0 -1.101 -0.03623
5294000000.0 -0.7367 0.7999
5297000000.0 0.1125 1.109
5300000000.0 0.9186 0.6363
5303000000.0 1.074 -0.2688
5306000000.0 0.4555 -1.036
5309000000.0 -0.4806 -1.028
5312000000.0 -1.087 -0.3107
5316000000.0 -0.917 0.6454
5319000000.0 -0.1067 1.138
5322000000.0 0.7709 0.8076
5325000000.0 1.155 -0.1116
5328000000.0 0.6524 -0.9664
5331000000.0 -0.2917 -1.128
5334000000.0 -1.026 -0.4749
5338000000.0 -1.001 0.512
5341000000.0 -0.2713 1.14
5344000000.0 0.6647 0.8943
5347000000.0 1.101 0.06757
5350000000.0 0.7486 -0.8177
5353000000.0 -0.1433 -1.113
5356000000.0 -0.9192 -0.5331
5359000000.0 -1.008 0.3845
5362000000.0 -0.3486 1.027
5366000000.0 0.5386 0.9112
5369000000.0 1.061 0.1465
5372000000.0 0.7426 -0.7329
5375000000.0 -0.09411 -1.02
5378000000.0 -0.8431 -0.5509
5381000000.0 -0.9591 0.2976
5384000000.0 -0.3034 0.919
5388000000.0 0.4937 0.8269
5391000000.0 0.9542 0.09273
5394000000.0 0.6857 -0.6721
5397000000.0 -0.123 -0.9342
5400000000.0 -0.7746 -0.4804
5403000000.0 -0.8488 0.2829
5406000000.0 -0.309 0.8233
5409000000.0 0.4776 0.7582
5412000000.0 0.8583 0.08706
5416000000.0 0.608 -0.6239
5419000000.0 -0.1012 -0.8604
5422000000.0 -0.7231 -0.4292
5425000000.0 -0.8015 0.2773
5428000000.0 -0.2424 0.8216
5431000000.0 0.4718 0.7361
5434000000.0 0.8438 0.07344
5438000000.0 0.5937 -0.6267
5441000000.0 -0.1082 -0.8771
5444000000.0 -0.746 -0.4283
5447000000.0 -0.8092 0.3059
5450000000.0 -0.2431 0.8557
5453000000.0 0.4384 0.7831
5456000000.0 0.8981 0.1318
5459000000.0 0.6531 -0.5997
5462000000.0 -0.07127 -0.8981
5466000000.0 -0.7507 -0.4899
5469000000.0 -0.8546 0.2161
5472000000.0 -0.3926 0.8146
5475000000.0 0.3863 0.8505
5478000000.0 0.9207 0.2358
5481000000.0 0.7825 -0.555
5484000000.0 0.1083 -0.9844
5488000000.0 -0.7006 -0.6337
5491000000.0 -0.9702 0.1206
5494000000.0 -0.5401 0.8342
5497000000.0 0.2786 0.9662
5500000000.0 0.8871 0.4115
5503000000.0 0.8756 -0.462
5506000000.0 0.2121 -1.03
5509000000.0 -0.6316 -0.8181
5512000000.0 -1.019 -0.06998
5516000000.0 -0.7111 0.7196
5519000000.0 0.08676 1.054
5522000000.0 0.8524 0.5871
5525000000.0 1.024 -0.2879
5528000000.0 0.4554 -0.9056
5531000000.0 -0.4406 -0.9246
5534000000.0 -1.047 -0.2546
5538000000.0 -0.8859 0.5966
5541000000.0 -0.09794 1.084
5544000000.0 0.7498 0.7559
5547000000.0 1.057 -0.09741
5550000000.0 0.5869 -0.873
5553000000.0 -0.2512 -1.012
5556000000.0 -0.939 -0.4272
5559000000.0 -0.9611 0.4663
5562000000.0 -0.2318 1.038
5566000000.0 0.6402 0.8159
5569000000.0 1.016 0.06475
5572000000.0 0.6921 -0.7484
5575000000.0 -0.1325 -0.9966
5578000000.0 -0.8422 -0.5157
5581000000.0 -0.9406 0.3049
5584000000.0 -0.359 0.9398
5588000000.0 0.4897 0.8317
5591000000.0 0.9412 0.1742
5594000000.0 0.724 -0.6111
5597000000.0 -0.01581 -0.9446
5600000000.0 -0.7282 -0.5888
5603000000.0 -0.8874 0.2194
5606000000.0 -0.4123 0.7884
5609000000.0 0.3634 0.7964
5612000000.0 0.8609 0.2174
5616000000.0 0.718 -0.5195
5619000000.0 0.03271 -0.86
5622000000.0 -0.6137 -0.5838
5625000000.0 -0.8466 0.1301
5628000000.0 -0.4138 0.7424
5631000000.0 0.3089 0.7694
5634000000.0 0.824 0.2566
5638000000.0 0.709 -0.4766
5641000000.0 0.0839 -0.8314
5644000000.0 -0.5883 -0.5547
5647000000.0 -0.8088 0.09698
5650000000.0 -0.4375 0.7447
5653000000.0 0.2817 0.7861
5656000000.0 0.7857 0.2744
5659000000.0 0.7229 -0.4713
5662000000.0 0.07538 -0.856
5666000000.0 -0.6156 -0.6115
5669000000.0 -0.8832 0.08948
5672000000.0 -0.4759 0.7342
5675000000.0 0.3132 0.8527
5678000000.0 0.8656 0.2892
5681000000.0 0.7772 -0.5104
5684000000.0 0.1116 -0.9109
5688000000.0 -0.64 -0.7003
5691000000.0 -0.9407 0.09519
5694000000.0 -0.5246 0.8001
5697000000.0 0.3076 0.9104
5700000000.0 0.93 0.3753
5703000000.0 0.8874 -0.5053
5706000000.0 0.1699 -1.008
5709000000.0 -0.6624 -0.7482
5712000000.0 -1.01 0.02581
5716000000.0 -0.5951 0.8206
5719000000.0 0.252 1.035
5722000000.0 0.9219 0.5003
5725000000.0 0.9256 -0.4199
5728000000.0 0.2835 -1.027
5731000000.0 -0.575 -0.911
5734000000.0 -1.057 -0.07055
5738000000.0 -0.7716 0.7942
5741000000.0 0.08564 1.097
5744000000.0 0.9125 0.5921
5747000000.0 1.073 -0.2864
5750000000.0 0.4726 -0.9699
5753000000.0 -0.4787 -0.9823
5756000000.0 -1.052 -0.2617
5759000000.0 -0.8909 0.6712
5762000000.0 -0.06758 1.083
5766000000.0 0.7941 0.7648
5769000000.0 1.084 -0.1131
5772000000.0 0.6114 -0.915
5775000000.0 -0.3024 -1.047
5778000000.0 -1.007 -0.4475
5781000000.0 -0.9743 0.5071
5784000000.0 -0.2397 1.029
5788000000.0 0.6562 0.8751
5791000000.0 1.083 0.02612
5794000000.0 0.7119 -0.8077
5797000000.0 -0.1419 -1.063
5800000000.0 -0.8921 -0.5877
5803000000.0 -1.008 0.3324
5806000000.0 -0.3711 0.9894
5809000000.0 0.5223 0.9402
5812000000.0 1.038 0.1556
5816000000.0 0.7769 -0.6803
5819000000.0 -0.02841 -1.045
5822000000.0 -0.7846 -0.6364
5825000000.0 -0.957 0.2015
5828000000.0 -0.444 0.8733
5831000000.0 0.4012 0.9305
5834000000.0 0.953 0.2835
5838000000.0 0.8186 -0.5719
5841000000.0 0.07769 -0.9574
5844000000.0 -0.6912 -0.6597
5847000000.0 -0.9529 0.1209
5850000000.0 -0.493 0.8087
5853000000.0 0.3123 0.8809
5856000000.0 0.8774 0.2686
5859000000.0 0.8033 -0.4991
5862000000.0 0.1121 -0.9214
5866000000.0 -0.6183 -0.6795
5869000000.0 -0.8762 0.09997
5872000000.0 -0.4656 0.7727
5875000000.0 0.2787 0.8614
5878000000.0 0.8267 0.2947
5881000000.0 0.7556 -0.4647
5884000000.0 0.09589 -0.8518
5888000000.0 -0.613 -0.6043
5891000000.0 -0.8532 0.04176
5894000000.0 -0.4771 0.7012
5897000000.0 0.2421 0.7968
5900000000.0 0.7927 0.3321
5903000000.0 0.7399 -0.3832
5906000000.0 0.1934 -0.8295
5909000000.0 -0.5401 -0.6684
5912000000.0 -0.8515 0.007322
5916000000.0 -0.5244 0.6989
5919000000.0 0.1963 0.834
5922000000.0 0.7466 0.4191
5925000000.0 0.8038 -0.3524
5928000000.0 0.2514 -0.8289
5931000000.0 -0.496 -0.7101
5934000000.0 -0.8805 -0.1109
5938000000.0 -0.6397 0.6246
5941000000.0 0.09665 0.8784
5944000000.0 0.7128 0.518
5947000000.0 0.8562 -0.2333
5950000000.0 0.3532 -0.8339
5953000000.0 -0.3919 -0.7962
5956000000.0 -0.8977 -0.2034
5959000000.0 -0.754 0.5285
5962000000.0 -0.05603 0.9398
5966000000.0 0.6909 0.6538
5969000000.0 0.9385 -0.0798
5972000000.0 0.5136 -0.8301
5975000000.0 -0.266 -0.9278
5978000000.0 -0.8939 -0.3792
5981000000.0 -0.8865 0.4306
5984000000.0 -0.223 0.9578
5988000000.0 0.589 0.7841
5991000000.0 0.9834 0.06309
5994000000.0 0.6841 -0.7413
5997000000.0 -0.1571 -0.9885
6000000000.0 -0.8334 -0.5094
6003000000.0 -0.9234 0.2948
6006000000.0 -0.3486 0.9165
6009000000.0 0.4825 0.8487
6012000000.0 0.9589 0.1591
6016000000.0 0.7498 -0.6348
6019000000.0 -0.04326 -0.9957
6022000000.0 -0.7811 -0.582
6025000000.0 -0.9346 0.1922
6028000000.0 -0.4668 0.8629
6031000000.0 0.4152 0.892
6034000000.0 0.961 0.263
6038000000.0 0.7679 -0.5832
6041000000.0 0.05736 -0.969
6044000000.0 -0.7108 -0.6816
6047000000.0 -0.9087 0.1435
6050000000.0 -0.4799 0.8076
6053000000.0 0.3309 0.9022
6056000000.0 0.8726 0.307
6059000000.0 0.7938 -0.5172
6062000000.0 0.1262 -0.9136
6066000000.0 -0.6266 -0.6606
6069000000.0 -0.9039 0.06236
6072000000.0 -0.5157 0.7347
6075000000.0 0.2474 0.8461
6078000000.0 0.7929 0.3576
6081000000.0 0.7662 -0.4206
6084000000.0 0.1552 -0.871
6088000000.0 -0.5535 -0.648
6091000000.0 -0.878 0.02868
6094000000.0 -0.5327 0.6932
6097000000.0 0.1946 0.8412
6100000000.0 0.7588 0.398
6103000000.0 0.778 -0.3734
6106000000.0 0.1692 -0.8266
6109000000.0 -0.5246 -0.6816
6112000000.0 -0.8522 -0.002265
6116000000.0 -0.554 0.6453
6119000000.0 0.1823 0.8516
6122000000.0 0.7377 0.4103
6125000000.0 0.8073 -0.3516
6128000000.0 0.2117 -0.7993
6131000000.0 -0.521 -0.7036
6134000000.0 -0.8786 -0.05746
6138000000.0 -0.5749 0.6415
6141000000.0 0.1208 0.8605
6144000000.0 0.7479 0.4571
6147000000.0 0.8762 -0.3113
6150000000.0 0.297 -0.8375
6153000000.0 -0.4642 -0.7675
6156000000.0 -0.865 -0.1076
6159000000.0 -0.6474 0.6293
6162000000.0 0.05491 0.9504
6166000000.0 0.7321 0.5188
6169000000.0 0.8676 -0.2275
6172000000.0 0.3734 -0.8522
6175000000.0 -0.4333 -0.8185
6178000000.0 -0.9178 -0.2066
6181000000.0 -0.7583 0.6106
6184000000.0 -0.02875 0.9427
6188000000.0 0.7091 0.613
6191000000.0 0.9221 -0.1774
6194000000.0 0.4784 -0.8104
6197000000.0 -0.3309 -0.8433
6200000000.0 -0.9269 -0.2871
6203000000.0 -0.7751 0.5016
6206000000.0 -0.1155 0.9133
6209000000.0 0.6276 0.6581
6212000000.0 0.9138 -0.06758
6216000000.0 0.5438 -0.7451
6219000000.0 -0.2372 -0.9024
6222000000.0 -0.8257 -0.3837
6225000000.0 -0.8094 0.3701
6228000000.0 -0.2005 0.8777
6231000000.0 0.5535 0.7165
6234000000.0 0.905 0.05064
6238000000.0 0.598 -0.6347
6241000000.0 -0.1581 -0.8628
6244000000.0 -0.7341 -0.4614
6247000000.0 -0.7972 0.262
6250000000.0 -0.3061 0.7864
6253000000.0 0.3965 0.6997
6256000000.0 0.8096 0.1615
6259000000.0 0.661 -0.489
6262000000.0 0.02579 -0.8376
6266000000.0 -0.5811 -0.5227
