! Created with skrf 1.8.0 (http://scikit-rf.org).
# Hz S RI R 50.0 
!freq ReS11 ImS11
4000000000.0 1.501 -0.558
4003000000.0 0.4703 -1.517
4006000000.0 -0.8595 -1.295
4009000000.0 -1.54 -0.09498
4012000000.0 -1.002 1.152
4016000000.0 0.2304 1.501
4019000000.0 1.297 0.7054
4022000000.0 1.373 -0.5428
4025000000.0 0.3744 -1.402
4028000000.0 -0.9002 -1.17
4031000000.0 -1.468 -0.05287
4034000000.0 -0.883 1.134
4038000000.0 0.3302 1.462
4041000000.0 1.389 0.5954
4044000000.0 1.309 -0.6351
4047000000.0 0.2637 -1.418
4050000000.0 -0.9418 -1.073
4053000000.0 -1.446 0.08576
4056000000.0 -0.9016 1.158
4059000000.0 0.3676 1.393
4062000000.0 1.357 0.6165
4066000000.0 1.314 -0.7134
4069000000.0 0.3032 -1.484
4072000000.0 -1.004 -1.132
4075000000.0 -1.558 0.05526
4078000000.0 -0.9202 1.243
4081000000.0 0.3672 1.538
4084000000.0 1.449 0.6112
4088000000.0 1.456 -0.7286
4091000000.0 0.2562 -1.579
4094000000.0 -1.077 -1.239
4097000000.0 -1.615 0.09396
4100000000.0 -0.9337 1.327
4103000000.0 0.4184 1.551
4106000000.0 1.476 0.6396
4109000000.0 1.404 -0.7303
4112000000.0 0.3552 -1.543
4116000000.0 -0.9484 -1.241
4119000000.0 -1.528 -0.03589
4122000000.0 -1.043 1.159
4125000000.0 0.1754 1.478
4128000000.0 1.262 0.827
4131000000.0 1.434 -0.4273
4134000000.0 0.6121 -1.393
4138000000.0 -0.6756 -1.371
4141000000.0 -1.508 -0.3802
4144000000.0 -1.239 0.9012
4147000000.0 -0.1204 1.52
4150000000.0 1.095 1.066
4153000000.0 1.567 -0.1191
4156000000.0 0.9038 -1.265
4159000000.0 -0.4324 -1.464
4162000000.0 -1.4 -0.6638
4166000000.0 -1.38 0.6434
4169000000.0 -0.4219 1.498
4172000000.0 0.8217 1.261
4175000000.0 1.498 0.2209
4178000000.0 1.134 -1.001
4181000000.0 -0.03103 -1.517
4184000000.0 -1.162 -0.9292
4188000000.0 -1.465 0.2406
4191000000.0 -0.7792 1.282
4194000000.0 0.4709 1.418
4197000000.0 1.435 0.5849
4200000000.0 1.368 -0.7401
4203000000.0 0.3487 -1.547
4206000000.0 -0.956 -1.243
4209000000.0 -1.595 -0.05093
4212000000.0 -1.071 1.235
4216000000.0 0.3166 1.617
4219000000.0 1.448 0.795
4222000000.0 1.565 -0.5906
4225000000.0 0.5465 -1.612
4228000000.0 -0.9597 -1.413
4231000000.0 -1.678 -0.1567
4234000000.0 -1.191 1.242
4238000000.0 0.2047 1.721
4241000000.0 1.483 0.8615
4244000000.0 1.576 -0.5996
4247000000.0 0.5324 -1.605
4250000000.0 -0.9774 -1.467
4253000000.0 -1.713 -0.1379
4256000000.0 -1.173 1.272
4259000000.0 0.3051 1.69
4262000000.0 1.509 0.7867
4266000000.0 1.593 -0.7199
4269000000.0 0.3758 -1.689
4272000000.0 -1.097 -1.352
4275000000.0 -1.668 0.08088
4278000000.0 -0.9633 1.387
4281000000.0 0.5304 1.573
4284000000.0 1.556 0.5337
4288000000.0 1.348 -0.9049
4291000000.0 0.09434 -1.555
4294000000.0 -1.13 -1.012
4297000000.0 -1.493 0.2365
4300000000.0 -0.6887 1.283
4303000000.0 0.5428 1.316
4306000000.0 1.321 0.4025
4309000000.0 1.124 -0.7791
4312000000.0 0.08493 -1.346
4316000000.0 -0.96 -0.9365
4319000000.0 -1.38 0.138
4322000000.0 -0.7722 1.116
4325000000.0 0.4122 1.288
4328000000.0 1.273 0.545
4331000000.0 1.178 -0.6115
4334000000.0 0.2651 -1.306
4338000000.0 -0.8492 -1.075
4341000000.0 -1.354 -0.002463
4344000000.0 -0.873 1.024
4347000000.0 0.2717 1.319
4350000000.0 1.175 0.656
4353000000.0 1.286 -0.4787
4356000000.0 0.4551 -1.32
4359000000.0 -0.7231 -1.19
4362000000.0 -1.366 -0.1656
4366000000.0 -1.056 0.9104
4369000000.0 0.01206 1.393
4372000000.0 1.096 0.8863
4375000000.0 1.353 -0.3032
4378000000.0 0.6699 -1.219
4381000000.0 -0.4839 -1.343
4384000000.0 -1.354 -0.4727
4388000000.0 -1.229 0.7247
4391000000.0 -0.2529 1.465
4394000000.0 0.9725 1.123
4397000000.0 1.518 -0.06489
4400000000.0 0.932 -1.184
4403000000.0 -0.3012 -1.52
4406000000.0 -1.405 -0.7088
4409000000.0 -1.43 0.5806
4412000000.0 -0.432 1.498
4416000000.0 0.9154 1.261
4419000000.0 1.544 0.1531
4422000000.0 1.107 -1.143
4425000000.0 -0.1565 -1.571
4428000000.0 -1.297 -0.8684
4431000000.0 -1.481 0.4525
4434000000.0 -0.578 1.484
4438000000.0 0.765 1.391
4441000000.0 1.552 0.2656
4444000000.0 1.19 -1.033
4447000000.0 -0.08485 -1.576
4450000000.0 -1.266 -0.9414
4453000000.0 -1.526 0.4176
4456000000.0 -0.6031 1.435
4459000000.0 0.785 1.344
4462000000.0 1.525 0.2344
4466000000.0 1.106 -1.029
4469000000.0 -0.1427 -1.512
4472000000.0 -1.267 -0.7669
4475000000.0 -1.374 0.5156
4478000000.0 -0.4345 1.343
4481000000.0 0.7841 1.181
4484000000.0 1.363 0.097
4488000000.0 0.8739 -0.9869
4491000000.0 -0.2622 -1.277
4494000000.0 -1.145 -0.5865
4497000000.0 -1.131 0.5224
4500000000.0 -0.2796 1.201
4503000000.0 0.712 0.9231
4506000000.0 1.16 -0.03203
4509000000.0 0.66 -0.8869
4512000000.0 -0.2973 -1.088
4516000000.0 -1.021 -0.4428
4519000000.0 -0.977 0.5215
4522000000.0 -0.1735 1.068
4525000000.0 0.7646 0.8335
4528000000.0 1.047 -0.0689
4531000000.0 0.6221 -0.8905
4534000000.0 -0.2948 -1.032
4538000000.0 -0.9955 -0.3701
4541000000.0 -0.9001 0.5403
4544000000.0 -0.1618 1.049
4547000000.0 0.7239 0.7707
4550000000.0 1.033 -0.08115
4553000000.0 0.6203 -0.8614
4556000000.0 -0.2989 -1.025
4559000000.0 -0.9868 -0.4188
4562000000.0 -0.971 0.4828
4566000000.0 -0.2529 1.065
4569000000.0 0.6959 0.859
4572000000.0 1.13 0.02623
4575000000.0 0.7404 -0.831
4578000000.0 -0.1852 -1.116
4581000000.0 -1.006 -0.6033
4584000000.0 -1.102 0.4215
4588000000.0 -0.3965 1.137
4591000000.0 0.653 1.018
4594000000.0 1.195 0.1706
4597000000.0 0.8952 -0.8326
4600000000.0 -0.05569 -1.24
4603000000.0 -1.001 -0.7406
4606000000.0 -1.212 0.2947
4609000000.0 -0.5379 1.15
4612000000.0 0.5524 1.185
4616000000.0 1.216 0.3304
4619000000.0 1.063 -0.7869
4622000000.0 0.07529 -1.291
4625000000.0 -0.9536 -0.8952
4628000000.0 -1.318 0.1925
4631000000.0 -0.7208 1.154
4634000000.0 0.4202 1.278
4638000000.0 1.209 0.4678
4641000000.0 1.206 -0.6747
4644000000.0 0.2785 -1.37
4647000000.0 -0.87 -1.031
4650000000.0 -1.382 0.04579
4653000000.0 -0.8334 1.125
4656000000.0 0.38 1.293
4659000000.0 1.252 0.5325
4662000000.0 1.191 -0.6283
4666000000.0 0.259 -1.346
4669000000.0 -0.8715 -1.067
4672000000.0 -1.308 0.0294
4675000000.0 -0.7716 1.033
4678000000.0 0.3341 1.259
4681000000.0 1.131 0.5363
4684000000.0 1.125 -0.5515
4688000000.0 0.2603 -1.205
4691000000.0 -0.7813 -0.9378
4694000000.0 -1.222 0.05547
4697000000.0 -0.7375 0.9927
4700000000.0 0.3263 1.152
4703000000.0 1.083 0.4677
4706000000.0 1.043 -0.6103
4709000000.0 0.1412 -1.148
4712000000.0 -0.7887 -0.82
4716000000.0 -1.128 0.1313
4719000000.0 -0.5608 0.9368
4722000000.0 0.3932 1.043
4725000000.0 0.9564 0.3317
4728000000.0 0.8483 -0.5933
4731000000.0 0.02393 -1.02
4734000000.0 -0.7539 -0.6586
4738000000.0 -0.9724 0.1804
4741000000.0 -0.4621 0.8527
4744000000.0 0.3802 0.934
4747000000.0 0.9525 0.2477
4750000000.0 0.8082 -0.5702
4753000000.0 0.05397 -0.9931
4756000000.0 -0.762 -0.6791
4759000000.0 -0.9729 0.193
4762000000.0 -0.4757 0.871
4766000000.0 0.3753 0.9533
4769000000.0 0.9624 0.2922
4772000000.0 0.8412 -0.5625
4775000000.0 0.09206 -1.028
4778000000.0 -0.7044 -0.7453
4781000000.0 -1.052 0.09681
4784000000.0 -0.577 0.864
4788000000.0 0.3022 1.034
4791000000.0 0.9469 0.4256
4794000000.0 0.9766 -0.4743
4797000000.0 0.2314 -1.068
4800000000.0 -0.6658 -0.8745
4803000000.0 -1.064 -0.06592
4806000000.0 -0.76 0.8232
4809000000.0 0.1529 1.109
4812000000.0 0.9578 0.5919
4816000000.0 1.113 -0.3451
4819000000.0 0.4587 -1.088
4822000000.0 -0.5555 -1.061
4825000000.0 -1.189 -0.2573
4828000000.0 -0.9626 0.7594
4831000000.0 -0.02114 1.268
4834000000.0 0.9569 0.8344
4838000000.0 1.257 -0.2158
4841000000.0 0.6345 -1.135
4844000000.0 -0.4584 -1.203
4847000000.0 -1.262 -0.4413
4850000000.0 -1.131 0.6872
4853000000.0 -0.183 1.307
4856000000.0 0.9151 0.9996
4859000000.0 1.371 -0.09384
4862000000.0 0.7601 -1.108
4866000000.0 -0.3387 -1.317
4869000000.0 -1.222 -0.5464
4872000000.0 -1.256 0.6057
4875000000.0 -0.2831 1.34
4878000000.0 0.8776 1.073
4881000000.0 1.372 -0.009426
4884000000.0 0.8554 -1.063
4888000000.0 -0.2842 -1.313
4891000000.0 -1.177 -0.5834
4894000000.0 -1.173 0.5784
4897000000.0 -0.273 1.251
4900000000.0 0.7788 0.968
4903000000.0 1.269 0.02492
4906000000.0 0.7898 -0.9444
4909000000.0 -0.2539 -1.186
4912000000.0 -1.021 -0.5468
4916000000.0 -1.04 0.43
4919000000.0 -0.2899 1.052
4922000000.0 0.6247 0.8677
4925000000.0 1.054 0.06221
4928000000.0 0.7348 -0.7454
4931000000.0 -0.1303 -0.9998
4934000000.0 -0.8574 -0.5211
4938000000.0 -0.944 0.3412
4941000000.0 -0.3294 0.8878
4944000000.0 0.4993 0.8207
4947000000.0 0.9328 0.1278
4950000000.0 0.6797 -0.6609
4953000000.0 -0.07467 -0.9407
4956000000.0 -0.8032 -0.5295
4959000000.0 -0.9065 0.2834
4962000000.0 -0.3394 0.8954
4966000000.0 0.4585 0.8174
4969000000.0 0.9107 0.1549
4972000000.0 0.6984 -0.6436
4975000000.0 -0.0356 -0.959
4978000000.0 -0.7673 -0.576
4981000000.0 -0.9222 0.2143
4984000000.0 -0.3946 0.8362
4988000000.0 0.3984 0.8691
4991000000.0 0.9584 0.2386
4994000000.0 0.8019 -0.5584
4997000000.0 0.03227 -1.025
5000000000.0 -0.7412 -0.6982
5003000000.0 -1.011 0.1119
5006000000.0 -0.5799 0.8903
5009000000.0 0.374 0.9904
5012000000.0 1.037 0.386
5016000000.0 0.9621 -0.5563
5019000000.0 0.1618 -1.129
5022000000.0 -0.7569 -0.8554
5025000000.0 -1.167 0.06713
5028000000.0 -0.7263 0.936
5031000000.0 0.3012 1.146
5034000000.0 1.062 0.5204
5038000000.0 1.079 -0.5335
5041000000.0 0.2993 -1.152
5044000000.0 -0.7012 -1.022
5047000000.0 -1.219 -0.1032
5050000000.0 -0.858 0.8957
5053000000.0 0.1485 1.257
5056000000.0 1.078 0.6896
5059000000.0 1.222 -0.3926
5062000000.0 0.5137 -1.176
5066000000.0 -0.6019 -1.158
5069000000.0 -1.29 -0.2791
5072000000.0 -1.028 0.8334
5075000000.0 0.0006767 1.306
5078000000.0 0.9905 0.8519
5081000000.0 1.256 -0.2305
5084000000.0 0.6206 -1.151
5088000000.0 -0.4759 -1.148
5091000000.0 -1.177 -0.4503
5094000000.0 -1.09 0.6621
5097000000.0 -0.2052 1.209
5100000000.0 0.7986 0.9042
5103000000.0 1.2 -0.01152
5106000000.0 0.724 -0.9329
5109000000.0 -0.2145 -1.15
5112000000.0 -0.974 -0.5459
5116000000.0 -1.046 0.4021
5119000000.0 -0.3948 1.032
5122000000.0 0.5614 0.9446
5125000000.0 1.098 0.1947
5128000000.0 0.8092 -0.7062
5131000000.0 -0.02428 -1.083
5134000000.0 -0.7979 -0.6526
5138000000.0 -1.033 0.2064
5141000000.0 -0.5178 0.8797
5144000000.0 0.3715 0.9632
5147000000.0 0.9594 0.2825
5150000000.0 0.8519 -0.5345
5153000000.0 0.1069 -0.9576
5156000000.0 -0.6628 -0.7253
5159000000.0 -0.9372 0.04084
5162000000.0 -0.5472 0.7644
5166000000.0 0.2436 0.9137
5169000000.0 0.8322 0.3882
5172000000.0 0.8468 -0.4228
5175000000.0 0.2321 -0.8938
5178000000.0 -0.5464 -0.7371
5181000000.0 -0.9073 -0.02306
5184000000.0 -0.5846 0.7071
5188000000.0 0.1581 0.8978
5191000000.0 0.8201 0.434
5194000000.0 0.8498 -0.3825
5197000000.0 0.2239 -0.8833
5200000000.0 -0.5868 -0.7445
5203000000.0 -0.896 -0.009827
5206000000.0 -0.6013 0.7108
5209000000.0 0.1721 0.9434
5212000000.0 0.8429 0.4146
5216000000.0 0.8759 -0.376
5219000000.0 0.2435 -0.8967
5222000000.0 -0.5701 -0.7775
5225000000.0 -0.9729 -0.03
5228000000.0 -0.6519 0.7359
5231000000.0 0.1699 0.9575
5234000000.0 0.8711 0.4803
5238000000.0 0.914 -0.3925
5241000000.0 0.2839 -0.9719
5244000000.0 -0.5923 -0.872
5247000000.0 -1.036 -0.08586
5250000000.0 -0.7214 0.7265
5253000000.0 0.1137 1.026
5256000000.0 0.8855 0.5671
5259000000.0 1.002 -0.3208
5262000000.0 0.4103 -0.9772
5266000000.0 -0.5032 -0.9249
5269000000.0 -1.02 -0.2431
5272000000.0 -0.8253 0.6539
5275000000.0 -0.04071 1.072
5278000000.0 0.7871 0.7132
5281000000.0 1.071 -0.1398
5284000000.0 0.5927 -0.9012
5288000000.0 -0.3277 -1.035
5291000000.0 -1.033 -0.4568
5294000000.0 -0.9584 0.4703
5297000000.0 -0.2316 1.073
5300000000.0 0.6793 0.9355
5303000000.0 1.105 0.08889
5306000000.0 0.7838 -0.8002
5309000000.0 -0.08263 -1.104
5312000000.0 -0.9466 -0.6534
5316000000.0 -1.095 0.2887
5319000000.0 -0.4718 1.03
5322000000.0 0.475 1.035
5325000000.0 1.091 0.3021
5328000000.0 0.9408 -0.6453
5331000000.0 0.1235 -1.145
5334000000.0 -0.7967 -0.8372
5338000000.0 -1.142 0.065
5341000000.0 -0.6728 0.926
5344000000.0 0.3048 1.092
5347000000.0 1.009 0.4824
5350000000.0 1.028 -0.4718
5353000000.0 0.2768 -1.097
5356000000.0 -0.6666 -0.916
5359000000.0 -1.126 -0.1065
5362000000.0 -0.7792 0.8268
5366000000.0 0.1346 1.108
5369000000.0 0.9186 0.6014
5372000000.0 1.074 -0.3455
5375000000.0 0.4 -1.018
5378000000.0 -0.5372 -0.9541
5381000000.0 -1.055 -0.1722
5384000000.0 -0.7741 0.7291
5388000000.0 0.07531 1.061
5391000000.0 0.8517 0.6096
5394000000.0 0.9725 -0.2739
5397000000.0 0.373 -0.9603
5400000000.0 -0.4684 -0.8539
5403000000.0 -0.9532 -0.1531
5406000000.0 -0.6966 0.6442
5409000000.0 0.06762 0.9452
5412000000.0 0.7818 0.5202
5416000000.0 0.8991 -0.2767
5419000000.0 0.3555 -0.8635
5422000000.0 -0.4683 -0.8051
5425000000.0 -0.8922 -0.1417
5428000000.0 -0.6387 0.6077
5431000000.0 0.06012 0.8768
5434000000.0 0.7201 0.5116
5438000000.0 0.8393 -0.2942
5441000000.0 0.3181 -0.8182
5444000000.0 -0.441 -0.7592
5447000000.0 -0.8635 -0.1285
5450000000.0 -0.6111 0.6003
5453000000.0 0.1042 0.852
5456000000.0 0.7046 0.4696
5459000000.0 0.7891 -0.2825
5462000000.0 0.2945 -0.8211
5466000000.0 -0.4318 -0.7341
5469000000.0 -0.8312 -0.1344
5472000000.0 -0.6638 0.5829
5475000000.0 0.01627 0.8494
5478000000.0 0.7275 0.5439
5481000000.0 0.8671 -0.2216
5484000000.0 0.4419 -0.8088
5488000000.0 -0.3734 -0.8463
5491000000.0 -0.9028 -0.2373
5494000000.0 -0.791 0.5358
5497000000.0 -0.08471 0.951
5500000000.0 0.6629 0.6927
5503000000.0 0.9454 -0.1236
5506000000.0 0.5252 -0.774
5509000000.0 -0.2617 -0.9375
5512000000.0 -0.8885 -0.4117
5516000000.0 -0.8806 0.4394
5519000000.0 -0.2496 0.9626
5522000000.0 0.5734 0.8275
5525000000.0 1.003 0.1152
5528000000.0 0.7142 -0.7154
5531000000.0 -0.06741 -1.011
5534000000.0 -0.8195 -0.5886
5538000000.0 -0.9998 0.2449
5541000000.0 -0.4691 0.9213
5544000000.0 0.4359 0.925
5547000000.0 1.03 0.2846
5550000000.0 0.8764 -0.5954
5553000000.0 0.1195 -1.042
5556000000.0 -0.7554 -0.7752
5559000000.0 -1.025 0.07751
5562000000.0 -0.5776 0.8734
5566000000.0 0.2755 1.012
5569000000.0 0.9375 0.4353
5572000000.0 0.9361 -0.4545
5575000000.0 0.2474 -1.004
5578000000.0 -0.5951 -0.855
5581000000.0 -1.02 -0.05928
5584000000.0 -0.6934 0.7239
5588000000.0 0.1293 0.9874
5591000000.0 0.8387 0.5567
5594000000.0 0.9694 -0.2658
5597000000.0 0.417 -0.9217
5600000000.0 -0.4336 -0.8843
5603000000.0 -0.9552 -0.2203
5606000000.0 -0.7595 0.5847
5609000000.0 -0.0183 0.9437
5612000000.0 0.7288 0.6289
5616000000.0 0.8981 -0.1873
5619000000.0 0.4435 -0.8134
5622000000.0 -0.3384 -0.8495
5625000000.0 -0.8598 -0.2442
5628000000.0 -0.7763 0.4776
5631000000.0 -0.08655 0.8635
5634000000.0 0.633 0.6067
5638000000.0 0.8719 -0.1187
5641000000.0 0.4736 -0.7499
5644000000.0 -0.2893 -0.812
5647000000.0 -0.8128 -0.282
5650000000.0 -0.7311 0.4367
5653000000.0 -0.1238 0.838
5656000000.0 0.6031 0.5898
5659000000.0 0.8416 -0.08735
5662000000.0 0.4861 -0.7313
5666000000.0 -0.276 -0.8295
5669000000.0 -0.8592 -0.3131
5672000000.0 -0.7692 0.4526
5675000000.0 -0.09261 0.8704
5678000000.0 0.638 0.6829
5681000000.0 0.8639 -0.09591
5684000000.0 0.4773 -0.7622
5688000000.0 -0.3059 -0.8773
5691000000.0 -0.8382 -0.2836
5694000000.0 -0.7812 0.4979
5697000000.0 -0.1194 0.9369
5700000000.0 0.6507 0.6929
5703000000.0 0.9395 -0.111
5706000000.0 0.5592 -0.7937
5709000000.0 -0.2919 -0.9049
5712000000.0 -0.9137 -0.3838
5716000000.0 -0.8607 0.4902
5719000000.0 -0.1407 0.9434
5722000000.0 0.6929 0.7277
5725000000.0 0.992 -0.02471
5728000000.0 0.6227 -0.8153
5731000000.0 -0.2252 -1.022
5734000000.0 -0.9161 -0.4848
5738000000.0 -0.9496 0.4141
5741000000.0 -0.2734 1.0
5744000000.0 0.5981 0.8764
5747000000.0 1.043 0.1245
5750000000.0 0.75 -0.7592
5753000000.0 -0.1018 -1.088
5756000000.0 -0.8842 -0.6032
5759000000.0 -1.031 0.2997
5762000000.0 -0.4385 0.9996
5766000000.0 0.5072 0.9768
5769000000.0 1.096 0.2721
5772000000.0 0.8694 -0.6728
5775000000.0 0.05525 -1.092
5778000000.0 -0.7716 -0.7499
5781000000.0 -1.068 0.1169
5784000000.0 -0.6061 0.9132
5788000000.0 0.3034 1.085
5791000000.0 0.9895 0.4197
5794000000.0 0.9466 -0.5185
5797000000.0 0.2495 -1.036
5800000000.0 -0.6245 -0.8366
5803000000.0 -1.075 -0.04421
5806000000.0 -0.7389 0.7873
5809000000.0 0.1508 1.062
5812000000.0 0.9149 0.5403
5816000000.0 1.002 -0.379
5819000000.0 0.3393 -0.9808
5822000000.0 -0.5258 -0.9089
5825000000.0 -1.029 -0.1985
5828000000.0 -0.784 0.6505
5831000000.0 0.02243 1.039
5834000000.0 0.8039 0.6062
5838000000.0 0.9726 -0.2218
5841000000.0 0.4699 -0.897
5844000000.0 -0.3925 -0.8966
5847000000.0 -0.9332 -0.2914
5850000000.0 -0.8156 0.5511
5853000000.0 -0.03712 0.9614
5856000000.0 0.7101 0.6512
5859000000.0 0.9667 -0.1508
5862000000.0 0.5138 -0.8206
5866000000.0 -0.306 -0.8791
5869000000.0 -0.8823 -0.3047
5872000000.0 -0.7827 0.5028
5875000000.0 -0.1058 0.9022
5878000000.0 0.6429 0.6465
5881000000.0 0.87 -0.1011
5884000000.0 0.4571 -0.7593
5888000000.0 -0.3233 -0.8086
5891000000.0 -0.8545 -0.2878
5894000000.0 -0.753 0.4619
5897000000.0 -0.1117 0.9043
5900000000.0 0.5923 0.6299
5903000000.0 0.8567 -0.06209
5906000000.0 0.4854 -0.6622
5909000000.0 -0.2784 -0.8008
5912000000.0 -0.7736 -0.3234
5916000000.0 -0.7196 0.3771
5919000000.0 -0.1976 0.8252
5922000000.0 0.5645 0.66
5925000000.0 0.8363 0.01762
5928000000.0 0.5333 -0.6607
5931000000.0 -0.1779 -0.827
5934000000.0 -0.7538 -0.3751
5938000000.0 -0.7766 0.3324
5941000000.0 -0.2446 0.8217
5944000000.0 0.5135 0.7071
5947000000.0 0.8543 0.08378
5950000000.0 0.6241 -0.6154
5953000000.0 -0.07332 -0.8971
5956000000.0 -0.7363 -0.5213
5959000000.0 -0.8645 0.2222
5962000000.0 -0.369 0.7942
5966000000.0 0.3685 0.8217
5969000000.0 0.8929 0.24
5972000000.0 0.7359 -0.5319
5975000000.0 0.0649 -0.9095
5978000000.0 -0.6514 -0.6893
5981000000.0 -0.9502 0.06388
5984000000.0 -0.55 0.8069
5988000000.0 0.26 0.8803
5991000000.0 0.8837 0.3906
5994000000.0 0.8626 -0.4467
5997000000.0 0.2318 -0.945
6000000000.0 -0.5771 -0.7879
6003000000.0 -0.9733 -0.03547
6006000000.0 -0.6838 0.7171
6009000000.0 0.1513 0.9631
6012000000.0 0.8214 0.5099
6016000000.0 0.9589 -0.3064
6019000000.0 0.3664 -0.914
6022000000.0 -0.4775 -0.8792
6025000000.0 -0.9796 -0.1897
6028000000.0 -0.7367 0.6501
6031000000.0 -0.003631 0.9824
6034000000.0 0.7869 0.6356
6038000000.0 0.9606 -0.1991
6041000000.0 0.4608 -0.8698
6044000000.0 -0.3928 -0.9127
6047000000.0 -0.9495 -0.2606
6050000000.0 -0.8012 0.5758
6053000000.0 -0.044 0.9917
6056000000.0 0.6971 0.6404
6059000000.0 0.9886 -0.141
6062000000.0 0.5136 -0.8253
6066000000.0 -0.3202 -0.8763
6069000000.0 -0.8817 -0.2982
6072000000.0 -0.7932 0.4833
6075000000.0 -0.1253 0.9318
6078000000.0 0.6551 0.6554
6081000000.0 0.9142 -0.0973
6084000000.0 0.4781 -0.7361
6088000000.0 -0.2685 -0.865
6091000000.0 -0.81 -0.3281
6094000000.0 -0.7893 0.4178
6097000000.0 -0.166 0.8657
6100000000.0 0.569 0.6579
6103000000.0 0.8507 -0.04195
6106000000.0 0.4986 -0.6956
6109000000.0 -0.2225 -0.8324
6112000000.0 -0.7575 -0.3358
6116000000.0 -0.7519 0.3882
6119000000.0 -0.1805 0.8404
6122000000.0 0.5544 0.6721
6125000000.0 0.8335 -0.0269
6128000000.0 0.5257 -0.6684
6131000000.0 -0.2018 -0.8113
6134000000.0 -0.7722 -0.4098
6138000000.0 -0.7713 0.3511
6141000000.0 -0.2168 0.8002
6144000000.0 0.5225 0.6749
6147000000.0 0.8584 0.03367
6150000000.0 0.55 -0.635
6153000000.0 -0.1436 -0.8748
6156000000.0 -0.7669 -0.4467
6159000000.0 -0.8411 0.3184
6162000000.0 -0.2761 0.8358
6166000000.0 0.4506 0.759
6169000000.0 0.8773 0.1211
6172000000.0 0.6311 -0.6076
6175000000.0 -0.08539 -0.8824
6178000000.0 -0.7377 -0.5301
6181000000.0 -0.8685 0.251
6184000000.0 -0.3505 0.8281
6188000000.0 0.4437 0.8034
6191000000.0 0.8766 0.2009
6194000000.0 0.6902 -0.5669
6197000000.0 0.0005435 -0.9299
6200000000.0 -0.6785 -0.5667
6203000000.0 -0.9076 0.1809
6206000000.0 -0.432 0.8051
6209000000.0 0.3495 0.8051
6212000000.0 0.8606 0.2851
6216000000.0 0.7943 -0.495
6219000000.0 0.09709 -0.9108
6222000000.0 -0.6447 -0.6137
6225000000.0 -0.9132 0.0769
6228000000.0 -0.4971 0.7413
6231000000.0 0.2312 0.8497
6234000000.0 0.8549 0.3831
6238000000.0 0.7798 -0.4025
6241000000.0 0.2004 -0.8835
6244000000.0 -0.5501 -0.7078
6247000000.0 -0.8545 -0.05124
6250000000.0 -0.5587 0.6559
6253000000.0 0.1077 0.8239
6256000000.0 0.6936 0.4428
6259000000.0 0.791 -0.255
6262000000.0 0.3068 -0.7483
