! Created with skrf 1.8.0 (http://scikit-rf.org).
# Hz S RI R 50.0 
!freq ReS11 ImS11
4000000000.0 -0.1624 -1.458
4003000000.0 -1.24 -0.8204
4006000000.0 -1.443 0.4883
4009000000.0 -0.5294 1.371
4012000000.0 0.7829 1.275
4016000000.0 1.5 0.2691
4019000000.0 1.113 -1.069
4022000000.0 -0.06519 -1.547
4025000000.0 -1.277 -0.917
4028000000.0 -1.514 0.453
4031000000.0 -0.6516 1.491
4034000000.0 0.8035 1.41
4038000000.0 1.612 0.2479
4041000000.0 1.234 -1.12
4044000000.0 -0.1068 -1.629
4047000000.0 -1.317 -0.9297
4050000000.0 -1.571 0.5029
4053000000.0 -0.6646 1.474
4056000000.0 0.736 1.437
4059000000.0 1.572 0.354
4062000000.0 1.261 -0.9803
4066000000.0 0.03985 -1.653
4069000000.0 -1.195 -1.077
4072000000.0 -1.583 0.3068
4075000000.0 -0.8226 1.422
4078000000.0 0.5646 1.531
4081000000.0 1.554 0.5323
4084000000.0 1.371 -0.8446
4088000000.0 0.2794 -1.633
4091000000.0 -1.114 -1.221
4094000000.0 -1.629 0.07658
4097000000.0 -1.008 1.312
4100000000.0 0.3665 1.578
4103000000.0 1.408 0.7225
4106000000.0 1.434 -0.5906
4109000000.0 0.4431 -1.476
4112000000.0 -0.8342 -1.322
4116000000.0 -1.523 -0.2111
4119000000.0 -1.119 1.004
4122000000.0 0.024 1.49
4125000000.0 1.117 0.9684
4128000000.0 1.452 -0.2254
4131000000.0 0.7715 -1.232
4134000000.0 -0.4262 -1.413
4138000000.0 -1.342 -0.5747
4141000000.0 -1.362 0.6391
4144000000.0 -0.4178 1.428
4147000000.0 0.8645 1.239
4150000000.0 1.511 0.1437
4153000000.0 1.094 -1.073
4156000000.0 -0.1089 -1.501
4159000000.0 -1.252 -0.9004
4162000000.0 -1.469 0.3643
4166000000.0 -0.6634 1.332
4169000000.0 0.5873 1.362
4172000000.0 1.432 0.4487
4175000000.0 1.22 -0.7939
4178000000.0 0.1496 -1.466
4181000000.0 -1.011 -1.1
4184000000.0 -1.506 0.07896
4188000000.0 -0.8596 1.212
4191000000.0 0.3674 1.476
4194000000.0 1.374 0.6815
4197000000.0 1.422 -0.6458
4200000000.0 0.4034 -1.517
4203000000.0 -0.9546 -1.273
4206000000.0 -1.649 -0.08147
4209000000.0 -1.066 1.231
4212000000.0 0.3459 1.611
4216000000.0 1.504 0.7531
4219000000.0 1.513 -0.7236
4222000000.0 0.359 -1.619
4225000000.0 -1.107 -1.304
4228000000.0 -1.661 0.07018
4231000000.0 -0.903 1.375
4234000000.0 0.5606 1.562
4238000000.0 1.558 0.5371
4241000000.0 1.302 -0.9052
4244000000.0 0.0905 -1.628
4247000000.0 -1.179 -1.044
4250000000.0 -1.525 0.3204
4253000000.0 -0.7185 1.394
4256000000.0 0.6619 1.413
4259000000.0 1.501 0.3205
4262000000.0 1.173 -1.002
4266000000.0 -0.06766 -1.487
4269000000.0 -1.231 -0.8895
4272000000.0 -1.42 0.4087
4275000000.0 -0.5529 1.359
4278000000.0 0.7391 1.26
4281000000.0 1.399 0.1745
4284000000.0 1.029 -0.9925
4288000000.0 -0.1199 -1.36
4291000000.0 -1.178 -0.7714
4294000000.0 -1.292 0.4027
4297000000.0 -0.496 1.208
4300000000.0 0.6663 1.15
4303000000.0 1.283 0.2578
4306000000.0 0.9906 -0.8196
4309000000.0 0.02214 -1.291
4312000000.0 -0.9988 -0.8281
4316000000.0 -1.283 0.2066
4319000000.0 -0.6979 1.077
4322000000.0 0.4061 1.26
4325000000.0 1.202 0.509
4328000000.0 1.179 -0.6273
4331000000.0 0.2823 -1.313
4334000000.0 -0.8157 -1.081
4338000000.0 -1.346 -0.06146
4341000000.0 -0.9512 1.049
4344000000.0 0.1942 1.394
4347000000.0 1.182 0.7664
4350000000.0 1.353 -0.4783
4353000000.0 0.4894 -1.343
4356000000.0 -0.7133 -1.268
4359000000.0 -1.385 -0.2204
4362000000.0 -1.116 0.9244
4366000000.0 0.01726 1.465
4369000000.0 1.13 0.8985
4372000000.0 1.459 -0.2736
4375000000.0 0.7163 -1.282
4378000000.0 -0.5822 -1.404
4381000000.0 -1.417 -0.4702
4384000000.0 -1.289 0.8253
4388000000.0 -0.1842 1.532
4391000000.0 1.076 1.116
4394000000.0 1.558 -0.1119
4397000000.0 0.8486 -1.3
4400000000.0 -0.4777 -1.506
4403000000.0 -1.458 -0.5356
4406000000.0 -1.342 0.8182
4409000000.0 -0.1843 1.54
4412000000.0 1.117 1.142
4416000000.0 1.52 -0.1965
4419000000.0 0.8108 -1.295
4422000000.0 -0.4889 -1.436
4425000000.0 -1.421 -0.4663
4428000000.0 -1.216 0.8178
4431000000.0 -0.09052 1.447
4434000000.0 1.06 0.9595
4438000000.0 1.393 -0.2756
4441000000.0 0.6577 -1.188
4444000000.0 -0.5382 -1.253
4447000000.0 -1.297 -0.3581
4450000000.0 -1.057 0.8285
4453000000.0 0.01048 1.35
4456000000.0 1.046 0.777
4459000000.0 1.229 -0.3388
4462000000.0 0.4808 -1.19
4466000000.0 -0.6099 -1.106
4469000000.0 -1.192 -0.1864
4472000000.0 -0.8634 0.8342
4475000000.0 0.1546 1.174
4478000000.0 1.001 0.627
4481000000.0 1.102 -0.4046
4484000000.0 0.3566 -1.114
4488000000.0 -0.5947 -0.9789
4491000000.0 -1.139 -0.0636
4494000000.0 -0.7744 0.8163
4497000000.0 0.1368 1.122
4500000000.0 0.9751 0.5533
4503000000.0 0.9879 -0.3807
4506000000.0 0.339 -1.046
4509000000.0 -0.6001 -0.9214
4512000000.0 -1.066 -0.106
4516000000.0 -0.8053 0.8016
4519000000.0 0.1103 1.117
4522000000.0 0.9063 0.5939
4525000000.0 1.062 -0.338
4528000000.0 0.4325 -1.058
4531000000.0 -0.5879 -0.9957
4534000000.0 -1.144 -0.2048
4538000000.0 -0.885 0.7401
4541000000.0 0.001286 1.172
4544000000.0 0.9262 0.7395
4547000000.0 1.145 -0.2419
4550000000.0 0.5886 -1.055
4553000000.0 -0.438 -1.119
4556000000.0 -1.171 -0.3899
4559000000.0 -1.052 0.63
4562000000.0 -0.1742 1.245
4566000000.0 0.8407 0.9261
4569000000.0 1.256 -0.03162
4572000000.0 0.7719 -0.9677
4575000000.0 -0.2778 -1.242
4578000000.0 -1.132 -0.6096
4581000000.0 -1.211 0.4972
4584000000.0 -0.398 1.273
4588000000.0 0.7167 1.121
4591000000.0 1.338 0.1656
4594000000.0 0.9784 -0.9291
4597000000.0 -0.06427 -1.344
4600000000.0 -1.09 -0.7975
4603000000.0 -1.349 0.3549
4606000000.0 -0.5628 1.273
4609000000.0 0.6031 1.272
4612000000.0 1.334 0.3194
4616000000.0 1.098 -0.8734
4619000000.0 0.003567 -1.371
4622000000.0 -1.087 -0.9093
4625000000.0 -1.365 0.263
4628000000.0 -0.6603 1.203
4631000000.0 0.5134 1.278
4634000000.0 1.304 0.4018
4638000000.0 1.131 -0.7529
4641000000.0 0.06582 -1.37
4644000000.0 -1.002 -0.9324
4647000000.0 -1.351 0.2051
4650000000.0 -0.6746 1.155
4653000000.0 0.4579 1.239
4656000000.0 1.239 0.3936
4659000000.0 1.052 -0.7423
4662000000.0 0.1004 -1.248
4666000000.0 -0.9469 -0.8317
4669000000.0 -1.196 0.1787
4672000000.0 -0.611 1.026
4675000000.0 0.4516 1.075
4678000000.0 1.089 0.3076
4681000000.0 0.951 -0.6465
4684000000.0 0.06399 -1.106
4688000000.0 -0.8197 -0.74
4691000000.0 -1.102 0.1911
4694000000.0 -0.505 0.9524
4697000000.0 0.3882 0.9977
4700000000.0 1.051 0.3223
4703000000.0 0.8798 -0.6331
4706000000.0 0.04891 -1.097
4709000000.0 -0.8295 -0.6953
4712000000.0 -1.044 0.2186
4716000000.0 -0.4888 0.9443
4719000000.0 0.4535 0.9786
4722000000.0 1.013 0.2367
4725000000.0 0.8579 -0.6253
4728000000.0 0.06755 -1.041
4731000000.0 -0.7549 -0.7103
4734000000.0 -1.002 0.1578
4738000000.0 -0.5097 0.904
4741000000.0 0.3766 0.9678
4744000000.0 0.9957 0.3565
4747000000.0 0.9218 -0.5373
4750000000.0 0.172 -1.045
4753000000.0 -0.7115 -0.8092
4756000000.0 -1.096 0.0149
4759000000.0 -0.7083 0.9159
4762000000.0 0.2525 1.083
4766000000.0 0.9858 0.515
4769000000.0 1.06 -0.4539
4772000000.0 0.3474 -1.112
4775000000.0 -0.642 -0.9606
4778000000.0 -1.133 -0.1321
4781000000.0 -0.8458 0.7994
4784000000.0 0.04395 1.208
4788000000.0 0.9581 0.7097
4791000000.0 1.154 -0.2515
4794000000.0 0.5629 -1.063
4797000000.0 -0.458 -1.142
4800000000.0 -1.167 -0.3741
4803000000.0 -1.036 0.6253
4806000000.0 -0.1831 1.251
4809000000.0 0.8222 0.9415
4812000000.0 1.256 -0.04166
4816000000.0 0.7963 -1.002
4819000000.0 -0.2713 -1.307
4822000000.0 -1.194 -0.6434
4825000000.0 -1.233 0.4959
4828000000.0 -0.422 1.299
4831000000.0 0.7562 1.145
4834000000.0 1.391 0.1434
4838000000.0 0.9979 -0.9786
4841000000.0 -0.1369 -1.401
4844000000.0 -1.14 -0.7666
4847000000.0 -1.313 0.4174
4850000000.0 -0.545 1.281
4853000000.0 0.687 1.231
4856000000.0 1.352 0.2619
4859000000.0 1.052 -0.8634
4862000000.0 -0.03193 -1.356
4866000000.0 -1.028 -0.8386
4869000000.0 -1.289 0.282
4872000000.0 -0.6174 1.151
4875000000.0 0.5109 1.207
4878000000.0 1.284 0.3162
4881000000.0 1.049 -0.7551
4884000000.0 0.03989 -1.253
4888000000.0 -0.9404 -0.8268
4891000000.0 -1.188 0.1981
4894000000.0 -0.6169 1.02
4897000000.0 0.4284 1.069
4900000000.0 1.096 0.3024
4903000000.0 0.9234 -0.6216
4906000000.0 0.0948 -1.114
4909000000.0 -0.7708 -0.7451
4912000000.0 -1.023 0.1166
4916000000.0 -0.5438 0.8897
4919000000.0 0.3282 0.9343
4922000000.0 0.8973 0.3358
4925000000.0 0.8369 -0.4763
4928000000.0 0.1586 -0.9471
4931000000.0 -0.6432 -0.7131
4934000000.0 -0.9547 0.06958
4938000000.0 -0.5785 0.7382
4941000000.0 0.2326 0.9112
4944000000.0 0.8612 0.3831
4947000000.0 0.8646 -0.39
4950000000.0 0.2476 -0.9206
4953000000.0 -0.5429 -0.7746
4956000000.0 -0.9645 -0.05689
4959000000.0 -0.6399 0.6822
4962000000.0 0.1361 0.9528
4966000000.0 0.8428 0.49
4969000000.0 0.9246 -0.3494
4972000000.0 0.3278 -0.9396
4975000000.0 -0.5346 -0.8453
4978000000.0 -0.9831 -0.1427
4981000000.0 -0.7624 0.6769
4984000000.0 0.07081 0.9962
4988000000.0 0.8325 0.602
4991000000.0 1.037 -0.2381
4994000000.0 0.4659 -0.9814
4997000000.0 -0.4419 -1.016
5000000000.0 -1.064 -0.3027
5003000000.0 -0.9163 0.6761
5006000000.0 -0.09652 1.155
5009000000.0 0.844 0.8236
5012000000.0 1.188 -0.133
5016000000.0 0.6536 -1.008
5019000000.0 -0.3741 -1.176
5022000000.0 -1.14 -0.4766
5025000000.0 -1.116 0.6139
5028000000.0 -0.2196 1.215
5031000000.0 0.8038 0.9599
5034000000.0 1.281 0.001385
5038000000.0 0.8279 -0.9902
5041000000.0 -0.2411 -1.261
5044000000.0 -1.107 -0.6265
5047000000.0 -1.218 0.4424
5050000000.0 -0.4826 1.211
5053000000.0 0.6644 1.124
5056000000.0 1.272 0.2227
5059000000.0 0.9833 -0.8524
5062000000.0 -0.04214 -1.294
5066000000.0 -1.01 -0.7615
5069000000.0 -1.227 0.2296
5072000000.0 -0.575 1.133
5075000000.0 0.4935 1.176
5078000000.0 1.202 0.3631
5081000000.0 1.082 -0.687
5084000000.0 0.1702 -1.234
5088000000.0 -0.8378 -0.8949
5091000000.0 -1.192 0.06514
5094000000.0 -0.7053 0.963
5097000000.0 0.2483 1.131
5100000000.0 1.031 0.5034
5103000000.0 1.031 -0.432
5106000000.0 0.3363 -1.059
5109000000.0 -0.5679 -0.9212
5112000000.0 -1.09 -0.1267
5116000000.0 -0.754 0.7428
5119000000.0 0.05288 1.059
5122000000.0 0.8416 0.6231
5125000000.0 1.009 -0.2365
5128000000.0 0.4429 -0.9319
5131000000.0 -0.4255 -0.917
5134000000.0 -0.9794 -0.2793
5138000000.0 -0.8032 0.5763
5141000000.0 -0.04039 0.9699
5144000000.0 0.7 0.6553
5147000000.0 0.971 -0.1193
5150000000.0 0.5115 -0.8072
5153000000.0 -0.2975 -0.8886
5156000000.0 -0.8483 -0.3232
5159000000.0 -0.7589 0.4758
5162000000.0 -0.1464 0.8798
5166000000.0 0.581 0.7009
5169000000.0 0.891 -0.05003
5172000000.0 0.5412 -0.7223
5175000000.0 -0.2246 -0.8663
5178000000.0 -0.8201 -0.38
5181000000.0 -0.8029 0.4117
5184000000.0 -0.1971 0.8734
5188000000.0 0.5983 0.7048
5191000000.0 0.936 -0.008329
5194000000.0 0.5431 -0.7247
5197000000.0 -0.2333 -0.9099
5200000000.0 -0.8355 -0.4011
5203000000.0 -0.8364 0.3909
5206000000.0 -0.1928 0.9291
5209000000.0 0.5857 0.7396
5212000000.0 0.9475 -0.00808
5216000000.0 0.6193 -0.7382
5219000000.0 -0.2256 -0.939
5222000000.0 -0.8771 -0.4772
5225000000.0 -0.9158 0.3921
5228000000.0 -0.2743 0.9568
5231000000.0 0.5683 0.8348
5234000000.0 1.029 0.1034
5238000000.0 0.7309 -0.7495
5241000000.0 -0.1207 -1.032
5244000000.0 -0.8606 -0.5581
5247000000.0 -1.026 0.3142
5250000000.0 -0.4031 0.9581
5253000000.0 0.5157 0.9283
5256000000.0 1.027 0.2115
5259000000.0 0.8396 -0.6906
5262000000.0 0.01599 -1.076
5266000000.0 -0.8223 -0.7308
5269000000.0 -1.11 0.1674
5272000000.0 -0.5472 0.8915
5275000000.0 0.3497 1.03
5278000000.0 0.9939 0.4081
5281000000.0 0.9642 -0.5267
5284000000.0 0.2264 -1.078
5288000000.0 -0.6727 -0.8562
5291000000.0 -1.077 -0.07991
5294000000.0 -0.7861 0.796
5297000000.0 0.1391 1.103
5300000000.0 0.9437 0.6082
5303000000.0 1.091 -0.3106
5306000000.0 0.4609 -1.058
5309000000.0 -0.4647 -1.006
5312000000.0 -1.075 -0.3025
5316000000.0 -0.9036 0.6477
5319000000.0 -0.1296 1.152
5322000000.0 0.8123 0.8224
5325000000.0 1.142 -0.04792
5328000000.0 0.6661 -0.9269
5331000000.0 -0.2776 -1.078
5334000000.0 -1.051 -0.4583
5338000000.0 -1.012 0.5087
5341000000.0 -0.2581 1.1
5344000000.0 0.6873 0.875
5347000000.0 1.103 0.0519
5350000000.0 0.7575 -0.8118
5353000000.0 -0.1785 -1.094
5356000000.0 -0.924 -0.5799
5359000000.0 -1.033 0.3554
5362000000.0 -0.3653 1.042
5366000000.0 0.5318 0.9357
5369000000.0 1.031 0.1506
5372000000.0 0.7527 -0.734
5375000000.0 -0.0816 -1.027
5378000000.0 -0.8664 -0.543
5381000000.0 -0.9592 0.335
5384000000.0 -0.3682 0.9439
5388000000.0 0.5066 0.8362
5391000000.0 0.9687 0.1093
5394000000.0 0.6773 -0.6438
5397000000.0 -0.08549 -0.9294
5400000000.0 -0.7953 -0.4944
5403000000.0 -0.8666 0.3081
5406000000.0 -0.2717 0.8677
5409000000.0 0.4739 0.7488
5412000000.0 0.8997 0.08985
5416000000.0 0.6017 -0.6396
5419000000.0 -0.1082 -0.8556
5422000000.0 -0.7349 -0.4749
5425000000.0 -0.7991 0.2845
5428000000.0 -0.2749 0.8118
5431000000.0 0.4426 0.7062
5434000000.0 0.8707 0.06771
5438000000.0 0.5887 -0.6186
5441000000.0 -0.1246 -0.8614
5444000000.0 -0.7446 -0.465
5447000000.0 -0.8162 0.2888
5450000000.0 -0.3042 0.8562
5453000000.0 0.4704 0.7717
5456000000.0 0.8859 0.07687
5459000000.0 0.6166 -0.615
5462000000.0 -0.06749 -0.8698
5466000000.0 -0.7202 -0.5367
5469000000.0 -0.8934 0.2464
5472000000.0 -0.3985 0.8392
5475000000.0 0.3852 0.84
5478000000.0 0.8979 0.2562
5481000000.0 0.7872 -0.5241
5484000000.0 0.05377 -0.9528
5488000000.0 -0.6834 -0.6777
5491000000.0 -0.9767 0.09924
5494000000.0 -0.5476 0.8279
5497000000.0 0.2895 0.9551
5500000000.0 0.9179 0.4166
5503000000.0 0.8885 -0.4649
5506000000.0 0.2257 -0.974
5509000000.0 -0.5977 -0.8509
5512000000.0 -1.027 -0.07965
5516000000.0 -0.6797 0.7171
5519000000.0 0.09551 1.045
5522000000.0 0.8681 0.5802
5525000000.0 1.013 -0.28
5528000000.0 0.4718 -0.9549
5531000000.0 -0.4269 -0.9393
5534000000.0 -1.003 -0.2822
5538000000.0 -0.8678 0.6101
5541000000.0 -0.07318 1.048
5544000000.0 0.7336 0.7449
5547000000.0 1.037 -0.09122
5550000000.0 0.6224 -0.854
5553000000.0 -0.3031 -1.008
5556000000.0 -0.9549 -0.4612
5559000000.0 -0.9315 0.4896
5562000000.0 -0.2712 1.016
5566000000.0 0.6346 0.8492
5569000000.0 1.013 0.04363
5572000000.0 0.708 -0.7417
5575000000.0 -0.1388 -1.007
5578000000.0 -0.8381 -0.5066
5581000000.0 -0.9374 0.3321
5584000000.0 -0.3683 0.9201
5588000000.0 0.4899 0.8206
5591000000.0 0.9544 0.1833
5594000000.0 0.712 -0.6005
5597000000.0 -0.02536 -0.9377
5600000000.0 -0.7072 -0.5862
5603000000.0 -0.9093 0.2255
5606000000.0 -0.4186 0.7945
5609000000.0 0.3712 0.8156
5612000000.0 0.8523 0.2359
5616000000.0 0.7089 -0.5074
5619000000.0 0.06662 -0.8612
5622000000.0 -0.6054 -0.5905
5625000000.0 -0.843 0.1555
5628000000.0 -0.4503 0.7113
5631000000.0 0.3041 0.7929
5634000000.0 0.7621 0.263
5638000000.0 0.6888 -0.4559
5641000000.0 0.08281 -0.8257
5644000000.0 -0.5891 -0.6029
5647000000.0 -0.8343 0.1232
5650000000.0 -0.4491 0.7204
5653000000.0 0.279 0.7904
5656000000.0 0.7986 0.2799
5659000000.0 0.7168 -0.4414
5662000000.0 0.1132 -0.8503
5666000000.0 -0.6261 -0.5962
5669000000.0 -0.8689 0.08795
5672000000.0 -0.4613 0.7583
5675000000.0 0.3093 0.8423
5678000000.0 0.8482 0.3191
5681000000.0 0.7612 -0.4609
5684000000.0 0.1061 -0.9014
5688000000.0 -0.6246 -0.6823
5691000000.0 -0.9428 0.08228
5694000000.0 -0.53 0.8247
5697000000.0 0.2823 0.9038
5700000000.0 0.8978 0.3694
5703000000.0 0.8672 -0.5081
5706000000.0 0.2232 -0.9485
5709000000.0 -0.6703 -0.7788
5712000000.0 -1.015 0.01133
5716000000.0 -0.6484 0.8049
5719000000.0 0.217 1.03
5722000000.0 0.9311 0.4872
5725000000.0 0.9881 -0.3993
5728000000.0 0.2793 -1.02
5731000000.0 -0.5995 -0.8716
5734000000.0 -1.027 -0.09788
5738000000.0 -0.7753 0.7868
5741000000.0 0.09909 1.057
5744000000.0 0.8953 0.6451
5747000000.0 1.074 -0.2879
5750000000.0 0.4571 -1.027
5753000000.0 -0.4571 -0.9722
5756000000.0 -1.064 -0.2807
5759000000.0 -0.8993 0.6445
5762000000.0 -0.09506 1.081
5766000000.0 0.7747 0.7689
5769000000.0 1.091 -0.1125
5772000000.0 0.6178 -0.9222
5775000000.0 -0.3212 -1.08
5778000000.0 -1.011 -0.4129
5781000000.0 -0.9713 0.4716
5784000000.0 -0.2274 1.035
5788000000.0 0.6499 0.8782
5791000000.0 1.119 0.07013
5794000000.0 0.7302 -0.7985
5797000000.0 -0.1311 -1.04
5800000000.0 -0.9352 -0.5553
5803000000.0 -1.035 0.3434
5806000000.0 -0.4047 0.9811
5809000000.0 0.5275 0.9249
5812000000.0 1.048 0.1981
5816000000.0 0.7972 -0.6641
5819000000.0 -0.02109 -1.053
5822000000.0 -0.7972 -0.644
5825000000.0 -0.9722 0.233
5828000000.0 -0.4717 0.9134
5831000000.0 0.3826 0.9293
5834000000.0 0.9505 0.2513
5838000000.0 0.8162 -0.5476
5841000000.0 0.1026 -0.9583
5844000000.0 -0.6693 -0.667
5847000000.0 -0.9694 0.1075
5850000000.0 -0.4986 0.7888
5853000000.0 0.3074 0.8859
5856000000.0 0.9098 0.303
5859000000.0 0.7734 -0.4725
5862000000.0 0.08634 -0.8993
5866000000.0 -0.6363 -0.6149
5869000000.0 -0.9137 0.07472
5872000000.0 -0.5133 0.759
5875000000.0 0.2919 0.8767
5878000000.0 0.8134 0.3283
5881000000.0 0.7339 -0.4281
5884000000.0 0.1124 -0.8577
5888000000.0 -0.5508 -0.6384
5891000000.0 -0.88 0.05847
5894000000.0 -0.5185 0.6887
5897000000.0 0.2171 0.8395
5900000000.0 0.7942 0.3541
5903000000.0 0.7725 -0.4075
5906000000.0 0.194 -0.8257
5909000000.0 -0.5378 -0.6457
5912000000.0 -0.8565 -0.004517
5916000000.0 -0.5435 0.6693
5919000000.0 0.1643 0.82
5922000000.0 0.7682 0.3957
5925000000.0 0.8208 -0.3236
5928000000.0 0.2494 -0.8455
5931000000.0 -0.4903 -0.749
5934000000.0 -0.8605 -0.1143
5938000000.0 -0.6263 0.5875
5941000000.0 0.07015 0.8697
5944000000.0 0.7457 0.5097
5947000000.0 0.8785 -0.2058
5950000000.0 0.3498 -0.7802
5953000000.0 -0.3606 -0.8289
5956000000.0 -0.8923 -0.2331
5959000000.0 -0.7405 0.5409
5962000000.0 -0.07824 0.895
5966000000.0 0.677 0.6624
5969000000.0 0.9414 -0.09725
5972000000.0 0.5131 -0.7562
5975000000.0 -0.2339 -0.9203
5978000000.0 -0.8751 -0.4126
5981000000.0 -0.8727 0.41
5984000000.0 -0.2345 0.9473
5988000000.0 0.5933 0.8129
5991000000.0 0.9951 0.06534
5994000000.0 0.6647 -0.6986
5997000000.0 -0.1175 -0.9867
6000000000.0 -0.8322 -0.5533
6003000000.0 -0.9359 0.2833
6006000000.0 -0.3544 0.9171
6009000000.0 0.4731 0.8893
6012000000.0 0.9821 0.1544
6016000000.0 0.7665 -0.6302
6019000000.0 -0.0164 -0.9923
6022000000.0 -0.788 -0.6196
6025000000.0 -0.9716 0.2135
6028000000.0 -0.4788 0.8565
6031000000.0 0.3909 0.924
6034000000.0 0.9337 0.2711
6038000000.0 0.7889 -0.5802
6041000000.0 0.07601 -0.9466
6044000000.0 -0.7045 -0.6658
6047000000.0 -0.9482 0.1205
6050000000.0 -0.5017 0.8167
6053000000.0 0.2981 0.9059
6056000000.0 0.8764 0.3212
6059000000.0 0.8024 -0.4852
6062000000.0 0.1319 -0.9067
6066000000.0 -0.6249 -0.6601
6069000000.0 -0.8912 0.05664
6072000000.0 -0.493 0.7675
6075000000.0 0.2443 0.8676
6078000000.0 0.8187 0.34
6081000000.0 0.7827 -0.4072
6084000000.0 0.1443 -0.8732
6088000000.0 -0.5477 -0.6784
6091000000.0 -0.8411 0.03296
6094000000.0 -0.5165 0.65
6097000000.0 0.2072 0.8336
6100000000.0 0.7685 0.4008
6103000000.0 0.7554 -0.351
6106000000.0 0.2127 -0.8205
6109000000.0 -0.5158 -0.6603
6112000000.0 -0.8538 -0.02713
6116000000.0 -0.5665 0.6769
6119000000.0 0.1782 0.8637
6122000000.0 0.7434 0.3953
6125000000.0 0.7717 -0.346
6128000000.0 0.2386 -0.8126
6131000000.0 -0.4925 -0.6869
6134000000.0 -0.8869 -0.04967
6138000000.0 -0.5989 0.6356
6141000000.0 0.1048 0.85
6144000000.0 0.7561 0.4325
6147000000.0 0.8366 -0.2823
6150000000.0 0.2951 -0.8086
6153000000.0 -0.4425 -0.7562
6156000000.0 -0.8738 -0.09886
6159000000.0 -0.6757 0.6213
6162000000.0 0.056 0.8892
6166000000.0 0.7549 0.5362
6169000000.0 0.9004 -0.2336
6172000000.0 0.3657 -0.833
6175000000.0 -0.414 -0.8259
6178000000.0 -0.9064 -0.1908
6181000000.0 -0.7584 0.5734
6184000000.0 -0.0618 0.9323
6188000000.0 0.7032 0.6126
6191000000.0 0.9507 -0.1571
6194000000.0 0.4844 -0.8004
6197000000.0 -0.3367 -0.8688
6200000000.0 -0.867 -0.3111
6203000000.0 -0.7973 0.4966
6206000000.0 -0.1224 0.9511
6209000000.0 0.5932 0.6877
6212000000.0 0.9214 -0.05948
6216000000.0 0.556 -0.7295
6219000000.0 -0.2738 -0.8758
6222000000.0 -0.7923 -0.366
6225000000.0 -0.8326 0.3699
6228000000.0 -0.2394 0.8834
6231000000.0 0.526 0.7291
6234000000.0 0.8941 0.04887
6238000000.0 0.6093 -0.636
6241000000.0 -0.1056 -0.8667
6244000000.0 -0.6839 -0.497
6247000000.0 -0.8262 0.2326
6250000000.0 -0.3353 0.7817
6253000000.0 0.3953 0.7555
6256000000.0 0.8114 0.1818
6259000000.0 0.675 -0.5099
6262000000.0 0.05594 -0.775
6266000000.0 -0.5996 -0.525
