! Created with skrf 1.8.0 (http://scikit-rf.org).
# Hz S RI R 50.0 
!freq ReS11 ImS11
4000000000.0 -0.1687 -1.498
4003000000.0 -1.29 -0.8185
4006000000.0 -1.449 0.4873
4009000000.0 -0.4827 1.455
4012000000.0 0.8377 1.294
4016000000.0 1.539 0.1822
4019000000.0 1.109 -1.12
4022000000.0 -0.138 -1.574
4025000000.0 -1.376 -0.8622
4028000000.0 -1.519 0.5143
4031000000.0 -0.5718 1.589
4034000000.0 0.8401 1.401
4038000000.0 1.659 0.1923
4041000000.0 1.166 -1.158
4044000000.0 -0.1566 -1.621
4047000000.0 -1.364 -0.9024
4050000000.0 -1.568 0.492
4053000000.0 -0.5857 1.477
4056000000.0 0.8429 1.452
4059000000.0 1.58 0.3023
4062000000.0 1.266 -1.041
4066000000.0 -0.01584 -1.644
4069000000.0 -1.276 -1.013
4072000000.0 -1.612 0.3201
4075000000.0 -0.799 1.47
4078000000.0 0.6355 1.507
4081000000.0 1.572 0.5111
4084000000.0 1.384 -0.8735
4088000000.0 0.2397 -1.64
4091000000.0 -1.185 -1.214
4094000000.0 -1.659 0.09829
4097000000.0 -0.9936 1.307
4100000000.0 0.4184 1.58
4103000000.0 1.444 0.6891
4106000000.0 1.489 -0.679
4109000000.0 0.4312 -1.53
4112000000.0 -0.8858 -1.311
4116000000.0 -1.529 -0.1757
4119000000.0 -1.102 1.02
4122000000.0 0.05391 1.499
4125000000.0 1.145 0.9549
4128000000.0 1.46 -0.2447
4131000000.0 0.7745 -1.275
4134000000.0 -0.492 -1.42
4138000000.0 -1.382 -0.5643
4141000000.0 -1.333 0.6762
4144000000.0 -0.3519 1.477
4147000000.0 0.913 1.23
4150000000.0 1.509 0.12
4153000000.0 1.102 -1.12
4156000000.0 -0.1469 -1.529
4159000000.0 -1.282 -0.878
4162000000.0 -1.474 0.4104
4166000000.0 -0.6341 1.372
4169000000.0 0.6455 1.338
4172000000.0 1.486 0.3964
4175000000.0 1.248 -0.8693
4178000000.0 0.1337 -1.515
4181000000.0 -1.096 -1.068
4184000000.0 -1.515 0.1494
4188000000.0 -0.8827 1.278
4191000000.0 0.4018 1.502
4194000000.0 1.448 0.6371
4197000000.0 1.368 -0.6991
4200000000.0 0.3451 -1.549
4203000000.0 -1.036 -1.281
4206000000.0 -1.64 -0.02736
4209000000.0 -1.003 1.291
4212000000.0 0.4445 1.605
4216000000.0 1.571 0.6577
4219000000.0 1.457 -0.8299
4222000000.0 0.2798 -1.688
4225000000.0 -1.168 -1.219
4228000000.0 -1.686 0.1914
4231000000.0 -0.9087 1.464
4234000000.0 0.6483 1.518
4238000000.0 1.598 0.4602
4241000000.0 1.318 -1.018
4244000000.0 0.007917 -1.612
4247000000.0 -1.249 -0.9638
4250000000.0 -1.527 0.4108
4253000000.0 -0.6034 1.453
4256000000.0 0.7385 1.388
4259000000.0 1.522 0.2186
4262000000.0 1.099 -1.09
4266000000.0 -0.1334 -1.54
4269000000.0 -1.289 -0.8062
4272000000.0 -1.423 0.4887
4275000000.0 -0.4571 1.375
4278000000.0 0.8013 1.235
4281000000.0 1.445 0.1162
4284000000.0 0.9966 -1.073
4288000000.0 -0.2231 -1.392
4291000000.0 -1.189 -0.7175
4294000000.0 -1.255 0.4923
4297000000.0 -0.409 1.239
4300000000.0 0.6989 1.151
4303000000.0 1.277 0.174
4306000000.0 0.9717 -0.8929
4309000000.0 -0.001841 -1.293
4312000000.0 -1.051 -0.8099
4316000000.0 -1.269 0.2653
4319000000.0 -0.6246 1.149
4322000000.0 0.4936 1.234
4325000000.0 1.271 0.4753
4328000000.0 1.188 -0.6719
4331000000.0 0.203 -1.341
4334000000.0 -0.8986 -1.024
4338000000.0 -1.366 0.008132
4341000000.0 -0.8965 1.08
4344000000.0 0.2728 1.412
4347000000.0 1.292 0.6932
4350000000.0 1.343 -0.5183
4353000000.0 0.4338 -1.396
4356000000.0 -0.7764 -1.234
4359000000.0 -1.458 -0.1704
4362000000.0 -1.048 1.002
4366000000.0 0.08624 1.498
4369000000.0 1.2 0.8855
4372000000.0 1.437 -0.3353
4375000000.0 0.6306 -1.362
4378000000.0 -0.6173 -1.387
4381000000.0 -1.486 -0.3944
4384000000.0 -1.261 0.9391
4388000000.0 -0.08883 1.527
4391000000.0 1.163 1.08
4394000000.0 1.582 -0.235
4397000000.0 0.8116 -1.396
4400000000.0 -0.6073 -1.486
4403000000.0 -1.545 -0.445
4406000000.0 -1.304 0.8924
4409000000.0 -0.05856 1.593
4412000000.0 1.198 1.04
4416000000.0 1.546 -0.2946
4419000000.0 0.7166 -1.39
4422000000.0 -0.6541 -1.407
4425000000.0 -1.456 -0.3333
4428000000.0 -1.171 0.944
4431000000.0 0.05094 1.465
4434000000.0 1.154 0.8806
4438000000.0 1.392 -0.3659
4441000000.0 0.5669 -1.273
4444000000.0 -0.655 -1.226
4447000000.0 -1.354 -0.2207
4450000000.0 -0.9864 0.922
4453000000.0 0.1468 1.317
4456000000.0 1.126 0.7006
4459000000.0 1.21 -0.4499
4462000000.0 0.3831 -1.222
4466000000.0 -0.7314 -1.009
4469000000.0 -1.237 -0.05985
4472000000.0 -0.7982 0.9325
4475000000.0 0.2731 1.177
4478000000.0 1.076 0.5249
4481000000.0 1.082 -0.4935
4484000000.0 0.2491 -1.158
4488000000.0 -0.7062 -0.8896
4491000000.0 -1.137 -0.0002838
4494000000.0 -0.7173 0.875
4497000000.0 0.2616 1.142
4500000000.0 1.018 0.5251
4503000000.0 0.9783 -0.4915
4506000000.0 0.2716 -1.088
4509000000.0 -0.6757 -0.8728
4512000000.0 -1.12 -0.01422
4516000000.0 -0.7517 0.8495
4519000000.0 0.2081 1.128
4522000000.0 0.9946 0.57
4525000000.0 1.095 -0.4359
4528000000.0 0.3368 -1.126
4531000000.0 -0.6433 -0.9736
4534000000.0 -1.207 -0.1193
4538000000.0 -0.8786 0.8276
4541000000.0 0.106 1.236
4544000000.0 1.011 0.7242
4547000000.0 1.18 -0.3157
4550000000.0 0.5018 -1.12
4553000000.0 -0.5369 -1.128
4556000000.0 -1.187 -0.3091
4559000000.0 -0.9973 0.7335
4562000000.0 -0.09131 1.264
4566000000.0 0.9342 0.8647
4569000000.0 1.267 -0.1293
4572000000.0 0.7354 -1.074
4575000000.0 -0.3566 -1.282
4578000000.0 -1.2 -0.5202
4581000000.0 -1.21 0.6073
4584000000.0 -0.3376 1.288
4588000000.0 0.8226 1.087
4591000000.0 1.383 0.06976
4594000000.0 0.9399 -1.028
4597000000.0 -0.2016 -1.399
4600000000.0 -1.198 -0.7635
4603000000.0 -1.345 0.469
4606000000.0 -0.4908 1.334
4609000000.0 0.7157 1.227
4612000000.0 1.401 0.2158
4616000000.0 1.075 -0.9598
4619000000.0 -0.0371 -1.399
4622000000.0 -1.156 -0.8506
4625000000.0 -1.34 0.3525
4628000000.0 -0.598 1.265
4631000000.0 0.6131 1.243
4634000000.0 1.335 0.2896
4638000000.0 1.102 -0.8573
4641000000.0 0.006819 -1.346
4644000000.0 -1.075 -0.851
4647000000.0 -1.354 0.2825
4650000000.0 -0.5833 1.232
4653000000.0 0.5746 1.204
4656000000.0 1.26 0.2796
4659000000.0 0.9943 -0.8108
4662000000.0 -0.02728 -1.253
4666000000.0 -0.9635 -0.7276
4669000000.0 -1.182 0.3186
4672000000.0 -0.5287 1.091
4675000000.0 0.5548 1.051
4678000000.0 1.12 0.2171
4681000000.0 0.8999 -0.7297
4684000000.0 -0.007294 -1.138
4688000000.0 -0.9229 -0.6718
4691000000.0 -1.114 0.29
4694000000.0 -0.46 0.9898
4697000000.0 0.5441 1.018
4700000000.0 1.072 0.1996
4703000000.0 0.8113 -0.7243
4706000000.0 -0.03885 -1.11
4709000000.0 -0.8788 -0.6346
4712000000.0 -1.078 0.3015
4716000000.0 -0.421 0.9751
4719000000.0 0.5107 0.9564
4722000000.0 1.08 0.1696
4725000000.0 0.8326 -0.6774
4728000000.0 -0.03175 -1.066
4731000000.0 -0.8631 -0.6231
4734000000.0 -1.047 0.2503
4738000000.0 -0.4601 0.9687
4741000000.0 0.4409 0.9501
4744000000.0 1.01 0.2845
4747000000.0 0.8929 -0.5802
4750000000.0 0.1027 -1.105
4753000000.0 -0.758 -0.7599
4756000000.0 -1.09 0.13
4759000000.0 -0.6542 0.9088
4762000000.0 0.3058 1.099
4766000000.0 1.058 0.4553
4769000000.0 1.05 -0.5107
4772000000.0 0.2663 -1.137
4775000000.0 -0.721 -0.9645
4778000000.0 -1.197 -0.03507
4781000000.0 -0.8326 0.8641
4784000000.0 0.1333 1.241
4788000000.0 1.007 0.6763
4791000000.0 1.192 -0.3563
4794000000.0 0.5406 -1.136
4797000000.0 -0.5534 -1.159
4800000000.0 -1.244 -0.3291
4803000000.0 -1.028 0.7123
4806000000.0 -0.1273 1.241
4809000000.0 0.9098 0.9412
4812000000.0 1.314 -0.1223
4816000000.0 0.774 -1.091
4819000000.0 -0.3467 -1.328
4822000000.0 -1.239 -0.5654
4825000000.0 -1.211 0.6068
4828000000.0 -0.3275 1.344
4831000000.0 0.8751 1.11
4834000000.0 1.433 0.03538
4838000000.0 0.9455 -1.058
4841000000.0 -0.2261 -1.413
4844000000.0 -1.223 -0.6828
4847000000.0 -1.326 0.5142
4850000000.0 -0.4525 1.335
4853000000.0 0.7591 1.182
4856000000.0 1.368 0.1682
4859000000.0 1.007 -0.9402
4862000000.0 -0.09321 -1.35
4866000000.0 -1.105 -0.7841
4869000000.0 -1.298 0.3733
4872000000.0 -0.5207 1.222
4875000000.0 0.63 1.185
4878000000.0 1.269 0.2258
4881000000.0 0.9887 -0.8232
4884000000.0 -0.03176 -1.261
4888000000.0 -0.9871 -0.7527
4891000000.0 -1.185 0.2864
4894000000.0 -0.5199 1.076
4897000000.0 0.4963 1.046
4900000000.0 1.123 0.2661
4903000000.0 0.8875 -0.7141
4906000000.0 0.03027 -1.087
4909000000.0 -0.8173 -0.6677
4912000000.0 -1.017 0.2021
4916000000.0 -0.4812 0.9095
4919000000.0 0.3878 0.9385
4922000000.0 0.9775 0.3004
4925000000.0 0.7992 -0.5627
4928000000.0 0.05683 -0.9625
4931000000.0 -0.7075 -0.6839
4934000000.0 -0.927 0.1096
4938000000.0 -0.5222 0.7793
4941000000.0 0.2856 0.8883
4944000000.0 0.8617 0.3683
4947000000.0 0.8493 -0.4641
4950000000.0 0.183 -0.9238
4953000000.0 -0.6249 -0.7562
4956000000.0 -0.994 0.007602
4959000000.0 -0.6 0.7792
4962000000.0 0.2237 0.9537
4966000000.0 0.9152 0.4251
4969000000.0 0.9083 -0.411
4972000000.0 0.2608 -0.9826
4975000000.0 -0.5917 -0.8237
4978000000.0 -1.054 -0.07863
4981000000.0 -0.7153 0.7617
4984000000.0 0.1024 1.057
4988000000.0 0.9062 0.5753
4991000000.0 1.027 -0.3126
4994000000.0 0.407 -1.011
4997000000.0 -0.5221 -1.01
5000000000.0 -1.134 -0.2434
5003000000.0 -0.9134 0.7033
5006000000.0 -0.0002363 1.21
5009000000.0 0.9315 0.7755
5012000000.0 1.24 -0.2359
5016000000.0 0.6384 -1.066
5019000000.0 -0.4581 -1.178
5022000000.0 -1.206 -0.4081
5025000000.0 -1.102 0.6817
5028000000.0 -0.1743 1.278
5031000000.0 0.8929 0.9548
5034000000.0 1.289 -0.05712
5038000000.0 0.7742 -1.015
5041000000.0 -0.3206 -1.281
5044000000.0 -1.174 -0.5777
5047000000.0 -1.198 0.5256
5050000000.0 -0.3399 1.276
5053000000.0 0.7272 1.081
5056000000.0 1.284 0.1548
5059000000.0 0.951 -0.9181
5062000000.0 -0.1031 -1.313
5066000000.0 -1.077 -0.7872
5069000000.0 -1.263 0.3569
5072000000.0 -0.5315 1.201
5075000000.0 0.5703 1.164
5078000000.0 1.277 0.3201
5081000000.0 1.051 -0.7409
5084000000.0 0.04811 -1.24
5088000000.0 -0.9127 -0.8347
5091000000.0 -1.203 0.1497
5094000000.0 -0.6446 0.9977
5097000000.0 0.3523 1.1
5100000000.0 1.071 0.4579
5103000000.0 1.014 -0.5322
5106000000.0 0.2724 -1.114
5109000000.0 -0.6608 -0.871
5112000000.0 -1.109 -0.05632
5116000000.0 -0.73 0.7945
5119000000.0 0.1235 1.06
5122000000.0 0.864 0.5754
5125000000.0 0.9994 -0.3033
5128000000.0 0.3906 -0.9383
5131000000.0 -0.5136 -0.9127
5134000000.0 -1.006 -0.1829
5138000000.0 -0.7559 0.6539
5141000000.0 0.02452 0.9893
5144000000.0 0.7041 0.6086
5147000000.0 0.9464 -0.1501
5150000000.0 0.4678 -0.8542
5153000000.0 -0.3597 -0.8546
5156000000.0 -0.8846 -0.2748
5159000000.0 -0.7419 0.5091
5162000000.0 -0.0877 0.9398
5166000000.0 0.6659 0.6596
5169000000.0 0.9102 -0.1
5172000000.0 0.4947 -0.742
5175000000.0 -0.2975 -0.8615
5178000000.0 -0.8618 -0.328
5181000000.0 -0.7769 0.5105
5184000000.0 -0.1063 0.928
5188000000.0 0.6505 0.6937
5191000000.0 0.9341 -0.1113
5194000000.0 0.5141 -0.8143
5197000000.0 -0.3139 -0.8873
5200000000.0 -0.9241 -0.2934
5203000000.0 -0.8178 0.4757
5206000000.0 -0.1597 0.9589
5209000000.0 0.6712 0.6933
5212000000.0 0.9897 -0.06285
5216000000.0 0.5541 -0.8052
5219000000.0 -0.2582 -0.9689
5222000000.0 -0.9206 -0.3894
5225000000.0 -0.8696 0.4992
5228000000.0 -0.1833 1.003
5231000000.0 0.6322 0.8055
5234000000.0 1.038 0.01045
5238000000.0 0.6718 -0.805
5241000000.0 -0.2021 -1.024
5244000000.0 -0.9402 -0.4978
5247000000.0 -1.01 0.4203
5250000000.0 -0.3133 1.039
5253000000.0 0.6066 0.9331
5256000000.0 1.085 0.1273
5259000000.0 0.7862 -0.7459
5262000000.0 -0.06676 -1.097
5266000000.0 -0.8913 -0.6468
5269000000.0 -1.079 0.2604
5272000000.0 -0.514 0.9918
5275000000.0 0.4318 1.038
5278000000.0 1.057 0.3256
5281000000.0 0.953 -0.5952
5284000000.0 0.1615 -1.109
5288000000.0 -0.7351 -0.8632
5291000000.0 -1.13 0.02145
5294000000.0 -0.7091 0.8241
5297000000.0 0.1959 1.114
5300000000.0 0.9688 0.5842
5303000000.0 1.093 -0.4017
5306000000.0 0.3983 -1.09
5309000000.0 -0.5615 -0.9924
5312000000.0 -1.117 -0.2222
5316000000.0 -0.9249 0.7504
5319000000.0 -0.02008 1.155
5322000000.0 0.8849 0.7728
5325000000.0 1.135 -0.1652
5328000000.0 0.5874 -1.006
5331000000.0 -0.4121 -1.067
5334000000.0 -1.096 -0.3729
5338000000.0 -1.009 0.6123
5341000000.0 -0.1843 1.116
5344000000.0 0.7114 0.8631
5347000000.0 1.104 -0.0522
5350000000.0 0.6875 -0.8941
5353000000.0 -0.2455 -1.066
5356000000.0 -0.9986 -0.4574
5359000000.0 -0.9803 0.4481
5362000000.0 -0.2545 1.071
5366000000.0 0.6643 0.8353
5369000000.0 1.04 0.01349
5372000000.0 0.686 -0.814
5375000000.0 -0.2009 -1.019
5378000000.0 -0.8914 -0.4651
5381000000.0 -0.8992 0.4309
5384000000.0 -0.2305 0.9677
5388000000.0 0.5951 0.7735
5391000000.0 0.9677 -0.002938
5394000000.0 0.5777 -0.7524
5397000000.0 -0.2297 -0.9149
5400000000.0 -0.8472 -0.3911
5403000000.0 -0.8064 0.4092
5406000000.0 -0.182 0.885
5409000000.0 0.5734 0.6948
5412000000.0 0.8979 -0.01616
5416000000.0 0.5621 -0.6947
5419000000.0 -0.22 -0.8231
5422000000.0 -0.7583 -0.3716
5425000000.0 -0.797 0.4027
5428000000.0 -0.1837 0.8425
5431000000.0 0.5687 0.7093
5434000000.0 0.886 -0.0347
5438000000.0 0.5504 -0.7024
5441000000.0 -0.2414 -0.8657
5444000000.0 -0.8085 -0.3943
5447000000.0 -0.8364 0.4326
5450000000.0 -0.1618 0.8635
5453000000.0 0.5628 0.7086
5456000000.0 0.9272 -0.001318
5459000000.0 0.5802 -0.6676
5462000000.0 -0.1602 -0.9133
5466000000.0 -0.8057 -0.4542
5469000000.0 -0.8503 0.334
5472000000.0 -0.2737 0.8667
5475000000.0 0.4656 0.8263
5478000000.0 0.9303 0.151
5481000000.0 0.7071 -0.6199
5484000000.0 -0.03716 -0.9698
5488000000.0 -0.7842 -0.5911
5491000000.0 -0.969 0.2216
5494000000.0 -0.4887 0.8959
5497000000.0 0.3595 0.9447
5500000000.0 0.9801 0.3245
5503000000.0 0.8864 -0.5286
5506000000.0 0.1556 -1.056
5509000000.0 -0.6903 -0.7561
5512000000.0 -1.037 0.01641
5516000000.0 -0.6848 0.7938
5519000000.0 0.2044 1.03
5522000000.0 0.931 0.5105
5525000000.0 0.9948 -0.3932
5528000000.0 0.3448 -1.054
5531000000.0 -0.5923 -0.9312
5534000000.0 -1.068 -0.1537
5538000000.0 -0.8384 0.691
5541000000.0 0.02997 1.094
5544000000.0 0.8314 0.6911
5547000000.0 1.08 -0.1944
5550000000.0 0.5265 -0.9407
5553000000.0 -0.3972 -1.013
5556000000.0 -1.035 -0.3345
5559000000.0 -0.9197 0.6003
5562000000.0 -0.1345 1.067
5566000000.0 0.7007 0.7641
5569000000.0 1.028 -0.04643
5572000000.0 0.6261 -0.8019
5575000000.0 -0.257 -0.9902
5578000000.0 -0.9104 -0.4261
5581000000.0 -0.9204 0.4413
5584000000.0 -0.2633 0.9393
5588000000.0 0.5551 0.7959
5591000000.0 0.9589 0.05996
5594000000.0 0.6559 -0.7132
5597000000.0 -0.1243 -0.9138
5600000000.0 -0.8116 -0.49
5603000000.0 -0.8777 0.3054
5606000000.0 -0.3313 0.8602
5609000000.0 0.4889 0.7582
5612000000.0 0.8872 0.1108
5616000000.0 0.6588 -0.5948
5619000000.0 -0.03467 -0.8665
5622000000.0 -0.7066 -0.4919
5625000000.0 -0.8337 0.2426
5628000000.0 -0.3265 0.7822
5631000000.0 0.3817 0.7385
5634000000.0 0.8282 0.1785
5638000000.0 0.6207 -0.5558
5641000000.0 -0.04469 -0.8538
5644000000.0 -0.704 -0.4925
5647000000.0 -0.7975 0.2146
5650000000.0 -0.3206 0.7807
5653000000.0 0.4225 0.7558
5656000000.0 0.8364 0.1765
5659000000.0 0.6423 -0.5676
5662000000.0 -0.03419 -0.871
5666000000.0 -0.7097 -0.5092
5669000000.0 -0.8593 0.2197
5672000000.0 -0.3805 0.8266
5675000000.0 0.4118 0.8215
5678000000.0 0.9081 0.1867
5681000000.0 0.7392 -0.6037
5684000000.0 -0.01638 -0.9574
5688000000.0 -0.7465 -0.5797
5691000000.0 -0.9445 0.2232
5694000000.0 -0.4478 0.8773
5697000000.0 0.403 0.8908
5700000000.0 0.9606 0.2791
5703000000.0 0.8429 -0.6082
5706000000.0 0.02857 -1.039
5709000000.0 -0.7563 -0.7028
5712000000.0 -1.052 0.1602
5716000000.0 -0.5536 0.8818
5719000000.0 0.3943 0.9872
5722000000.0 1.024 0.3659
5725000000.0 0.923 -0.5663
5728000000.0 0.1892 -1.097
5731000000.0 -0.7366 -0.8242
5734000000.0 -1.093 0.03756
5738000000.0 -0.6918 0.8245
5741000000.0 0.2508 1.076
5744000000.0 0.9764 0.519
5747000000.0 1.006 -0.4421
5750000000.0 0.3361 -1.066
5753000000.0 -0.5977 -0.9317
5756000000.0 -1.105 -0.1405
5759000000.0 -0.8131 0.7758
5762000000.0 0.083 1.141
5766000000.0 0.8581 0.651
5769000000.0 1.082 -0.2681
5772000000.0 0.4828 -1.02
5775000000.0 -0.3968 -1.025
5778000000.0 -1.052 -0.3384
5781000000.0 -0.9198 0.585
5784000000.0 -0.1042 1.069
5788000000.0 0.7737 0.7963
5791000000.0 1.12 -0.05346
5794000000.0 0.6298 -0.903
5797000000.0 -0.3113 -1.01
5800000000.0 -0.9661 -0.4652
5803000000.0 -0.9508 0.4942
5806000000.0 -0.2355 1.069
5809000000.0 0.6602 0.869
5812000000.0 1.036 0.07586
5816000000.0 0.6931 -0.7779
5819000000.0 -0.1813 -1.046
5822000000.0 -0.8532 -0.5408
5825000000.0 -0.9407 0.3527
5828000000.0 -0.3258 0.9398
5831000000.0 0.5067 0.8451
5834000000.0 0.9724 0.1135
5838000000.0 0.7328 -0.652
5841000000.0 -0.08193 -0.9588
5844000000.0 -0.7969 -0.5445
5847000000.0 -0.9244 0.2556
5850000000.0 -0.3557 0.9029
5853000000.0 0.4616 0.8242
5856000000.0 0.9208 0.1581
5859000000.0 0.6597 -0.6206
5862000000.0 -0.06941 -0.9022
5866000000.0 -0.7631 -0.494
5869000000.0 -0.8749 0.2308
5872000000.0 -0.3573 0.8278
5875000000.0 0.4054 0.7868
5878000000.0 0.8819 0.1789
5881000000.0 0.6689 -0.5859
5884000000.0 -0.02943 -0.8808
5888000000.0 -0.7135 -0.528
5891000000.0 -0.8358 0.1781
5894000000.0 -0.3911 0.7643
5897000000.0 0.3567 0.799
5900000000.0 0.8501 0.1961
5903000000.0 0.7013 -0.5039
5906000000.0 0.05796 -0.8719
5909000000.0 -0.6452 -0.5961
5912000000.0 -0.8842 0.1651
5916000000.0 -0.439 0.7509
5919000000.0 0.3022 0.8061
5922000000.0 0.8616 0.2349
5925000000.0 0.7524 -0.476
5928000000.0 0.1154 -0.8938
5931000000.0 -0.6058 -0.6564
5934000000.0 -0.8727 0.05617
5938000000.0 -0.5204 0.7345
5941000000.0 0.1995 0.8796
5944000000.0 0.8154 0.3975
5947000000.0 0.8464 -0.372
5950000000.0 0.2665 -0.903
5953000000.0 -0.5267 -0.7667
5956000000.0 -0.9447 -0.1035
5959000000.0 -0.6733 0.686
5962000000.0 0.09281 0.989
5966000000.0 0.7791 0.5283
5969000000.0 0.9187 -0.2355
5972000000.0 0.4204 -0.8841
5975000000.0 -0.4341 -0.8842
5978000000.0 -0.9477 -0.2392
5981000000.0 -0.8009 0.5808
5984000000.0 -0.07909 1.005
5988000000.0 0.7029 0.7007
5991000000.0 1.031 -0.1194
5994000000.0 0.5791 -0.8327
5997000000.0 -0.3199 -0.9767
6000000000.0 -0.9737 -0.3765
6003000000.0 -0.9004 0.459
6006000000.0 -0.1561 0.9866
6009000000.0 0.6483 0.7688
6012000000.0 1.006 -0.01154
6016000000.0 0.6116 -0.7725
6019000000.0 -0.2188 -0.9926
6022000000.0 -0.9059 -0.4533
6025000000.0 -0.8979 0.3753
6028000000.0 -0.2707 0.9724
6031000000.0 0.5845 0.8027
6034000000.0 0.9808 0.07246
6038000000.0 0.6644 -0.692
6041000000.0 -0.1448 -0.9652
6044000000.0 -0.8002 -0.5306
6047000000.0 -0.887 0.3244
6050000000.0 -0.331 0.8967
6053000000.0 0.4715 0.8186
6056000000.0 0.9508 0.1152
6059000000.0 0.7059 -0.6493
6062000000.0 -0.07037 -0.9063
6066000000.0 -0.777 -0.5118
6069000000.0 -0.8374 0.2725
6072000000.0 -0.3302 0.8141
6075000000.0 0.4275 0.7885
6078000000.0 0.8666 0.1311
6081000000.0 0.6555 -0.5816
6084000000.0 -0.03715 -0.8775
6088000000.0 -0.6821 -0.488
6091000000.0 -0.8144 0.2022
6094000000.0 -0.3624 0.7538
6097000000.0 0.3468 0.7554
6100000000.0 0.8448 0.1983
6103000000.0 0.7012 -0.5135
6106000000.0 0.01425 -0.8577
6109000000.0 -0.6684 -0.5714
6112000000.0 -0.866 0.1675
6116000000.0 -0.4119 0.7643
6119000000.0 0.3537 0.819
6122000000.0 0.8551 0.2114
6125000000.0 0.7379 -0.5158
6128000000.0 0.02875 -0.8857
6131000000.0 -0.6452 -0.6002
6134000000.0 -0.8716 0.1611
6138000000.0 -0.4495 0.7649
6141000000.0 0.3193 0.8336
6144000000.0 0.879 0.2706
6147000000.0 0.7618 -0.4752
6150000000.0 0.1621 -0.9267
6153000000.0 -0.6449 -0.6273
6156000000.0 -0.9286 0.1027
6159000000.0 -0.5599 0.777
6162000000.0 0.2548 0.8706
6166000000.0 0.8523 0.3866
6169000000.0 0.8255 -0.4523
6172000000.0 0.2138 -0.9598
6175000000.0 -0.608 -0.7535
6178000000.0 -0.9704 -0.02365
6181000000.0 -0.6096 0.7365
6184000000.0 0.2035 0.9778
6188000000.0 0.8565 0.43
6191000000.0 0.954 -0.3726
6194000000.0 0.2885 -0.9171
6197000000.0 -0.5546 -0.7868
6200000000.0 -0.9432 -0.08766
6203000000.0 -0.6973 0.693
6206000000.0 0.1289 0.9339
6209000000.0 0.7753 0.5438
6212000000.0 0.915 -0.2675
6216000000.0 0.3523 -0.865
6219000000.0 -0.4505 -0.859
6222000000.0 -0.8746 -0.2043
6225000000.0 -0.7379 0.528
6228000000.0 -0.00163 0.8876
6231000000.0 0.6797 0.6042
6234000000.0 0.9023 -0.1734
6238000000.0 0.4685 -0.7872
6241000000.0 -0.3046 -0.8116
6244000000.0 -0.8576 -0.2995
6247000000.0 -0.7388 0.4729
6250000000.0 -0.1393 0.8639
6253000000.0 0.5658 0.6479
6256000000.0 0.8812 -0.01886
6259000000.0 0.5126 -0.6385
6262000000.0 -0.1764 -0.8054
6266000000.0 -0.6979 -0.4008
6269000000.0 -0.7739 0.2955
