! Created with skrf 1.8.0 (http://scikit-rf.org).
# Hz S RI R 50.0 
!freq ReS11 ImS11
4000000000.0 -0.1558 -1.448
4003000000.0 -1.262 -0.8398
4006000000.0 -1.418 0.514
4009000000.0 -0.5187 1.381
4012000000.0 0.7812 1.276
4016000000.0 1.516 0.2213
4019000000.0 1.157 -1.083
4022000000.0 -0.1286 -1.558
4025000000.0 -1.292 -0.9382
4028000000.0 -1.543 0.4439
4031000000.0 -0.5866 1.488
4034000000.0 0.763 1.386
4038000000.0 1.608 0.2604
4041000000.0 1.214 -1.108
4044000000.0 -0.1639 -1.641
4047000000.0 -1.307 -0.973
4050000000.0 -1.586 0.4545
4053000000.0 -0.6572 1.518
4056000000.0 0.8117 1.438
4059000000.0 1.537 0.3591
4062000000.0 1.22 -1.033
4066000000.0 0.02283 -1.619
4069000000.0 -1.204 -1.078
4072000000.0 -1.608 0.3142
4075000000.0 -0.8157 1.437
4078000000.0 0.5742 1.54
4081000000.0 1.575 0.514
4084000000.0 1.422 -0.8489
4088000000.0 0.2509 -1.675
4091000000.0 -1.124 -1.246
4094000000.0 -1.663 0.06456
4097000000.0 -0.9663 1.294
4100000000.0 0.4069 1.621
4103000000.0 1.445 0.7064
4106000000.0 1.453 -0.6411
4109000000.0 0.4694 -1.489
4112000000.0 -0.8587 -1.343
4116000000.0 -1.531 -0.1844
4119000000.0 -1.135 1.018
4122000000.0 0.03412 1.481
4125000000.0 1.14 0.9522
4128000000.0 1.47 -0.2137
4131000000.0 0.8192 -1.277
4134000000.0 -0.445 -1.422
4138000000.0 -1.368 -0.5988
4141000000.0 -1.359 0.6506
4144000000.0 -0.4042 1.491
4147000000.0 0.8412 1.271
4150000000.0 1.53 0.1295
4153000000.0 1.074 -1.051
4156000000.0 -0.086 -1.55
4159000000.0 -1.243 -0.8821
4162000000.0 -1.476 0.4011
4166000000.0 -0.6573 1.388
4169000000.0 0.6317 1.371
4172000000.0 1.472 0.409
4175000000.0 1.258 -0.8463
4178000000.0 0.1717 -1.509
4181000000.0 -1.069 -1.063
4184000000.0 -1.502 0.1022
4188000000.0 -0.9253 1.235
4191000000.0 0.3717 1.485
4194000000.0 1.392 0.6653
4197000000.0 1.416 -0.6414
4200000000.0 0.4048 -1.528
4203000000.0 -0.9658 -1.308
4206000000.0 -1.654 -0.03655
4209000000.0 -1.051 1.26
4212000000.0 0.3546 1.645
4216000000.0 1.495 0.783
4219000000.0 1.523 -0.7586
4222000000.0 0.3552 -1.684
4225000000.0 -1.099 -1.27
4228000000.0 -1.674 0.12
4231000000.0 -0.9322 1.414
4234000000.0 0.5537 1.595
4238000000.0 1.556 0.5451
4241000000.0 1.39 -0.9014
4244000000.0 0.1265 -1.648
4247000000.0 -1.201 -1.059
4250000000.0 -1.583 0.3226
4253000000.0 -0.7074 1.396
4256000000.0 0.6482 1.412
4259000000.0 1.534 0.3057
4262000000.0 1.191 -0.9945
4266000000.0 -0.06134 -1.543
4269000000.0 -1.246 -0.8746
4272000000.0 -1.386 0.4142
4275000000.0 -0.5121 1.404
4278000000.0 0.7453 1.278
4281000000.0 1.428 0.2167
4284000000.0 1.036 -0.9913
4288000000.0 -0.1485 -1.384
4291000000.0 -1.167 -0.7972
4294000000.0 -1.314 0.4041
4297000000.0 -0.4799 1.263
4300000000.0 0.6172 1.176
4303000000.0 1.324 0.2413
4306000000.0 1.024 -0.8294
4309000000.0 0.02889 -1.287
4312000000.0 -0.9637 -0.8448
4316000000.0 -1.292 0.1849
4319000000.0 -0.6789 1.123
4322000000.0 0.3867 1.243
4325000000.0 1.216 0.532
4328000000.0 1.18 -0.6253
4331000000.0 0.2954 -1.323
4334000000.0 -0.848 -1.095
4338000000.0 -1.38 -0.02888
4341000000.0 -0.9208 1.049
4344000000.0 0.2281 1.4
4347000000.0 1.236 0.7564
4350000000.0 1.345 -0.4639
4353000000.0 0.4972 -1.341
4356000000.0 -0.7528 -1.268
4359000000.0 -1.415 -0.2686
4362000000.0 -1.141 0.9536
4366000000.0 0.03388 1.478
4369000000.0 1.15 0.9282
4372000000.0 1.452 -0.2579
4375000000.0 0.7433 -1.297
4378000000.0 -0.5512 -1.403
4381000000.0 -1.412 -0.4891
4384000000.0 -1.306 0.8126
4388000000.0 -0.1777 1.535
4391000000.0 1.099 1.113
4394000000.0 1.6 -0.1485
4397000000.0 0.8624 -1.326
4400000000.0 -0.5065 -1.53
4403000000.0 -1.528 -0.5403
4406000000.0 -1.391 0.803
4409000000.0 -0.1843 1.605
4412000000.0 1.117 1.146
4416000000.0 1.529 -0.1901
4419000000.0 0.7966 -1.336
4422000000.0 -0.5647 -1.423
4425000000.0 -1.45 -0.4807
4428000000.0 -1.224 0.8503
4431000000.0 -0.1275 1.482
4434000000.0 1.064 0.9982
4438000000.0 1.423 -0.2249
4441000000.0 0.6823 -1.222
4444000000.0 -0.5719 -1.27
4447000000.0 -1.312 -0.3325
4450000000.0 -1.059 0.8645
4453000000.0 0.0249 1.351
4456000000.0 1.077 0.7962
4459000000.0 1.265 -0.3318
4462000000.0 0.4808 -1.196
4466000000.0 -0.667 -1.087
4469000000.0 -1.235 -0.1823
4472000000.0 -0.8759 0.8485
4475000000.0 0.1369 1.197
4478000000.0 0.9956 0.6188
4481000000.0 1.112 -0.4265
4484000000.0 0.3374 -1.129
4488000000.0 -0.6485 -0.9558
4491000000.0 -1.164 -0.07022
4494000000.0 -0.7604 0.8224
4497000000.0 0.149 1.101
4500000000.0 0.9892 0.5865
4503000000.0 1.053 -0.4061
4506000000.0 0.3399 -1.033
4509000000.0 -0.5847 -0.9015
4512000000.0 -1.118 -0.1131
4516000000.0 -0.7822 0.7797
4519000000.0 0.12 1.116
4522000000.0 0.9657 0.6265
4525000000.0 1.076 -0.3406
4528000000.0 0.4358 -1.092
4531000000.0 -0.5852 -0.9853
4534000000.0 -1.129 -0.1737
4538000000.0 -0.9319 0.7546
4541000000.0 0.03676 1.181
4544000000.0 0.9229 0.755
4547000000.0 1.161 -0.2355
4550000000.0 0.57 -1.043
4553000000.0 -0.4556 -1.123
4556000000.0 -1.161 -0.3628
4559000000.0 -1.065 0.6458
4562000000.0 -0.191 1.232
4566000000.0 0.8273 0.9247
4569000000.0 1.243 -0.0421
4572000000.0 0.7971 -0.9904
4575000000.0 -0.2558 -1.27
4578000000.0 -1.156 -0.6312
4581000000.0 -1.228 0.5081
4584000000.0 -0.3871 1.28
4588000000.0 0.7399 1.145
4591000000.0 1.362 0.1522
4594000000.0 1.004 -0.9654
4597000000.0 -0.1105 -1.423
4600000000.0 -1.122 -0.7943
4603000000.0 -1.342 0.3682
4606000000.0 -0.5818 1.266
4609000000.0 0.6209 1.268
4612000000.0 1.356 0.3196
4616000000.0 1.102 -0.8687
4619000000.0 0.01683 -1.397
4622000000.0 -1.075 -0.9003
4625000000.0 -1.348 0.2443
4628000000.0 -0.6832 1.221
4631000000.0 0.5407 1.299
4634000000.0 1.307 0.3839
4638000000.0 1.137 -0.8057
4641000000.0 0.1134 -1.386
4644000000.0 -1.003 -0.9644
4647000000.0 -1.362 0.1799
4650000000.0 -0.6922 1.17
4653000000.0 0.4806 1.231
4656000000.0 1.239 0.4177
4659000000.0 1.068 -0.7035
4662000000.0 0.05879 -1.27
4666000000.0 -0.9077 -0.848
4669000000.0 -1.233 0.2149
4672000000.0 -0.6036 1.041
4675000000.0 0.4392 1.063
4678000000.0 1.11 0.3383
4681000000.0 0.9153 -0.6616
4684000000.0 0.07461 -1.185
4688000000.0 -0.8491 -0.7152
4691000000.0 -1.076 0.1644
4694000000.0 -0.5373 0.963
4697000000.0 0.4261 1.018
4700000000.0 1.104 0.2935
4703000000.0 0.9025 -0.6428
4706000000.0 0.0551 -1.092
4709000000.0 -0.8499 -0.6787
4712000000.0 -1.046 0.1897
4716000000.0 -0.4888 0.9725
4719000000.0 0.4312 0.9799
4722000000.0 1.014 0.2333
4725000000.0 0.8577 -0.6144
4728000000.0 0.03516 -1.048
4731000000.0 -0.7751 -0.7074
4734000000.0 -1.034 0.1707
4738000000.0 -0.5099 0.9386
4741000000.0 0.3685 0.9587
4744000000.0 0.9871 0.3459
4747000000.0 0.8902 -0.5432
4750000000.0 0.1571 -1.024
4753000000.0 -0.7241 -0.8233
4756000000.0 -1.077 0.02072
4759000000.0 -0.6921 0.8794
4762000000.0 0.2388 1.069
4766000000.0 1.03 0.5287
4769000000.0 1.057 -0.4418
4772000000.0 0.3404 -1.113
4775000000.0 -0.6355 -0.9885
4778000000.0 -1.141 -0.1564
4781000000.0 -0.8801 0.8077
4784000000.0 0.07047 1.201
4788000000.0 0.9673 0.7303
4791000000.0 1.203 -0.2994
4794000000.0 0.5553 -1.07
4797000000.0 -0.4798 -1.164
4800000000.0 -1.209 -0.3973
4803000000.0 -1.04 0.6471
4806000000.0 -0.2203 1.241
4809000000.0 0.8517 0.9627
4812000000.0 1.323 -0.01276
4816000000.0 0.8078 -1.018
4819000000.0 -0.2778 -1.27
4822000000.0 -1.168 -0.6108
4825000000.0 -1.249 0.5066
4828000000.0 -0.4347 1.325
4831000000.0 0.7864 1.144
4834000000.0 1.393 0.1512
4838000000.0 0.9872 -0.9961
4841000000.0 -0.1439 -1.391
4844000000.0 -1.174 -0.7903
4847000000.0 -1.345 0.4035
4850000000.0 -0.5445 1.295
4853000000.0 0.6431 1.23
4856000000.0 1.353 0.2489
4859000000.0 1.081 -0.883
4862000000.0 -0.006815 -1.391
4866000000.0 -1.076 -0.84
4869000000.0 -1.323 0.2622
4872000000.0 -0.6001 1.182
4875000000.0 0.5408 1.211
4878000000.0 1.253 0.3308
4881000000.0 1.043 -0.7687
4884000000.0 0.03791 -1.258
4888000000.0 -0.9503 -0.8584
4891000000.0 -1.193 0.2297
4894000000.0 -0.5865 1.055
4897000000.0 0.4331 1.088
4900000000.0 1.119 0.3072
4903000000.0 0.9239 -0.6504
4906000000.0 0.08041 -1.097
4909000000.0 -0.7975 -0.7463
4912000000.0 -1.049 0.11
4916000000.0 -0.5359 0.8803
4919000000.0 0.3538 0.9558
4922000000.0 0.9397 0.3677
4925000000.0 0.856 -0.48
4928000000.0 0.1445 -0.9709
4931000000.0 -0.6589 -0.7221
4934000000.0 -0.9462 0.03692
4938000000.0 -0.5634 0.7583
4941000000.0 0.2115 0.93
4944000000.0 0.8791 0.4144
4947000000.0 0.8923 -0.4012
4950000000.0 0.2296 -0.9205
4953000000.0 -0.5712 -0.8076
4956000000.0 -0.9694 -0.04713
4959000000.0 -0.6712 0.7229
4962000000.0 0.1507 0.9716
4966000000.0 0.8521 0.4965
4969000000.0 0.9468 -0.3602
4972000000.0 0.36 -0.9507
4975000000.0 -0.538 -0.8258
4978000000.0 -1.036 -0.1463
4981000000.0 -0.7647 0.6932
4984000000.0 0.03836 1.032
4988000000.0 0.8169 0.6236
4991000000.0 1.036 -0.236
4994000000.0 0.4471 -0.9908
4997000000.0 -0.4712 -0.9931
5000000000.0 -1.053 -0.2892
5003000000.0 -0.9397 0.6835
5006000000.0 -0.05376 1.183
5009000000.0 0.8601 0.8432
5012000000.0 1.192 -0.1351
5016000000.0 0.6665 -1.027
5019000000.0 -0.3673 -1.194
5022000000.0 -1.174 -0.4829
5025000000.0 -1.074 0.6289
5028000000.0 -0.2201 1.249
5031000000.0 0.8106 1.002
5034000000.0 1.284 -0.01572
5038000000.0 0.8278 -0.9772
5041000000.0 -0.2147 -1.298
5044000000.0 -1.15 -0.6563
5047000000.0 -1.222 0.4612
5050000000.0 -0.4194 1.217
5053000000.0 0.6859 1.126
5056000000.0 1.276 0.2144
5059000000.0 1.001 -0.8587
5062000000.0 -0.0241 -1.33
5066000000.0 -1.041 -0.8513
5069000000.0 -1.292 0.2554
5072000000.0 -0.6142 1.176
5075000000.0 0.5057 1.18
5078000000.0 1.227 0.3728
5081000000.0 1.047 -0.6597
5084000000.0 0.168 -1.235
5088000000.0 -0.8491 -0.8576
5091000000.0 -1.198 0.07634
5094000000.0 -0.7004 0.9504
5097000000.0 0.281 1.147
5100000000.0 1.019 0.5333
5103000000.0 1.019 -0.414
5106000000.0 0.3322 -1.067
5109000000.0 -0.5857 -0.9175
5112000000.0 -1.105 -0.09973
5116000000.0 -0.7813 0.752
5119000000.0 0.07848 1.098
5122000000.0 0.8316 0.6274
5125000000.0 0.9893 -0.2878
5128000000.0 0.4718 -0.9109
5131000000.0 -0.4168 -0.943
5134000000.0 -0.9696 -0.2346
5138000000.0 -0.7909 0.6286
5141000000.0 -0.04967 0.9902
5144000000.0 0.738 0.6724
5147000000.0 0.9584 -0.1268
5150000000.0 0.4639 -0.8138
5153000000.0 -0.3248 -0.8702
5156000000.0 -0.8832 -0.301
5159000000.0 -0.7877 0.4619
5162000000.0 -0.1405 0.9022
5166000000.0 0.5915 0.6994
5169000000.0 0.8895 -0.03403
5172000000.0 0.5551 -0.7272
5175000000.0 -0.2641 -0.896
5178000000.0 -0.8459 -0.3998
5181000000.0 -0.8141 0.4375
5184000000.0 -0.1767 0.9157
5188000000.0 0.5886 0.7232
5191000000.0 0.9031 -0.02506
5194000000.0 0.5689 -0.7755
5197000000.0 -0.2415 -0.9193
5200000000.0 -0.8783 -0.3981
5203000000.0 -0.8512 0.4263
5206000000.0 -0.1958 0.9587
5209000000.0 0.6212 0.7479
5212000000.0 0.9701 0.01249
5216000000.0 0.6185 -0.7662
5219000000.0 -0.1969 -0.9759
5222000000.0 -0.9113 -0.4342
5225000000.0 -0.9058 0.4089
5228000000.0 -0.2729 0.9608
5231000000.0 0.6039 0.8302
5234000000.0 1.045 0.08447
5238000000.0 0.7132 -0.7367
5241000000.0 -0.1248 -1.035
5244000000.0 -0.8622 -0.5563
5247000000.0 -1.015 0.3268
5250000000.0 -0.3751 0.9843
5253000000.0 0.4991 0.9618
5256000000.0 1.084 0.2143
5259000000.0 0.8261 -0.6671
5262000000.0 0.02231 -1.098
5266000000.0 -0.8101 -0.7168
5269000000.0 -1.09 0.1719
5272000000.0 -0.5774 0.9258
5275000000.0 0.3531 1.056
5278000000.0 1.015 0.4162
5281000000.0 0.9628 -0.5272
5284000000.0 0.219 -1.114
5288000000.0 -0.707 -0.8717
5291000000.0 -1.114 -0.05917
5294000000.0 -0.7565 0.8405
5297000000.0 0.1325 1.122
5300000000.0 0.9326 0.6104
5303000000.0 1.117 -0.2882
5306000000.0 0.5078 -1.048
5309000000.0 -0.4495 -1.038
5312000000.0 -1.088 -0.2997
5316000000.0 -0.9659 0.6407
5319000000.0 -0.07824 1.184
5322000000.0 0.8347 0.84
5325000000.0 1.136 -0.08319
5328000000.0 0.6316 -0.9446
5331000000.0 -0.2821 -1.095
5334000000.0 -1.055 -0.4624
5338000000.0 -1.043 0.4966
5341000000.0 -0.301 1.099
5344000000.0 0.6584 0.892
5347000000.0 1.127 0.07267
5350000000.0 0.7642 -0.8367
5353000000.0 -0.1669 -1.094
5356000000.0 -0.9693 -0.5776
5359000000.0 -1.052 0.3864
5362000000.0 -0.3516 1.028
5366000000.0 0.5756 0.9186
5369000000.0 1.065 0.1443
5372000000.0 0.7909 -0.7619
5375000000.0 -0.1104 -1.06
5378000000.0 -0.8688 -0.5465
5381000000.0 -0.9589 0.3185
5384000000.0 -0.3535 0.9813
5388000000.0 0.5017 0.825
5391000000.0 0.9739 0.125
5394000000.0 0.6728 -0.6766
5397000000.0 -0.08686 -0.939
5400000000.0 -0.8258 -0.5003
5403000000.0 -0.8703 0.297
5406000000.0 -0.2855 0.8456
5409000000.0 0.4686 0.7534
5412000000.0 0.8713 0.1096
5416000000.0 0.6051 -0.6055
5419000000.0 -0.09463 -0.8944
5422000000.0 -0.7595 -0.4646
5425000000.0 -0.7923 0.3022
5428000000.0 -0.2689 0.8196
5431000000.0 0.5337 0.7304
5434000000.0 0.8946 0.0932
5438000000.0 0.61 -0.6397
5441000000.0 -0.09288 -0.8662
5444000000.0 -0.7327 -0.4723
5447000000.0 -0.8169 0.305
5450000000.0 -0.2754 0.8628
5453000000.0 0.4697 0.7615
5456000000.0 0.8937 0.1154
5459000000.0 0.6708 -0.6633
5462000000.0 -0.08144 -0.8931
5466000000.0 -0.7158 -0.5261
5469000000.0 -0.9238 0.2271
5472000000.0 -0.3806 0.8335
5475000000.0 0.3792 0.8562
5478000000.0 0.911 0.2329
5481000000.0 0.7834 -0.5721
5484000000.0 0.06241 -0.9494
5488000000.0 -0.6826 -0.6788
5491000000.0 -0.9986 0.1186
5494000000.0 -0.5593 0.8248
5497000000.0 0.2953 0.9627
5500000000.0 0.9151 0.3855
5503000000.0 0.9348 -0.4748
5506000000.0 0.2232 -1.011
5509000000.0 -0.5991 -0.8573
5512000000.0 -1.034 -0.07438
5516000000.0 -0.6963 0.7549
5519000000.0 0.08271 1.044
5522000000.0 0.8601 0.6151
5525000000.0 1.028 -0.2965
5528000000.0 0.4242 -0.95
5531000000.0 -0.4592 -0.9424
5534000000.0 -1.011 -0.2776
5538000000.0 -0.8756 0.616
5541000000.0 -0.0825 1.082
5544000000.0 0.748 0.7625
5547000000.0 1.096 -0.09289
5550000000.0 0.6135 -0.8642
5553000000.0 -0.3222 -1.03
5556000000.0 -0.9821 -0.4658
5559000000.0 -0.959 0.4447
5562000000.0 -0.1973 1.067
5566000000.0 0.6633 0.8926
5569000000.0 1.029 0.07227
5572000000.0 0.6825 -0.7117
5575000000.0 -0.1377 -1.019
5578000000.0 -0.8946 -0.5421
5581000000.0 -0.9167 0.3187
5584000000.0 -0.3644 0.9518
5588000000.0 0.4719 0.8778
5591000000.0 0.9688 0.2027
5594000000.0 0.7157 -0.6118
5597000000.0 -0.011 -0.9481
5600000000.0 -0.7087 -0.5822
5603000000.0 -0.9069 0.1866
5606000000.0 -0.4043 0.7904
5609000000.0 0.3897 0.8487
5612000000.0 0.869 0.2383
5616000000.0 0.729 -0.4932
5619000000.0 0.04267 -0.8903
5622000000.0 -0.6416 -0.5688
5625000000.0 -0.845 0.1481
5628000000.0 -0.441 0.7462
5631000000.0 0.3043 0.7835
5634000000.0 0.8083 0.2761
5638000000.0 0.7137 -0.4919
5641000000.0 0.07036 -0.8305
5644000000.0 -0.6156 -0.5932
5647000000.0 -0.8403 0.0797
5650000000.0 -0.457 0.7285
5653000000.0 0.2837 0.7933
5656000000.0 0.8197 0.2824
5659000000.0 0.7312 -0.4687
5662000000.0 0.09754 -0.8628
5666000000.0 -0.6326 -0.6272
5669000000.0 -0.8871 0.1332
5672000000.0 -0.4946 0.759
5675000000.0 0.3009 0.8367
5678000000.0 0.8582 0.3188
5681000000.0 0.758 -0.5145
5684000000.0 0.1326 -0.9253
5688000000.0 -0.6736 -0.6876
5691000000.0 -0.961 0.0901
5694000000.0 -0.5363 0.7932
5697000000.0 0.282 0.9406
5700000000.0 0.921 0.3827
5703000000.0 0.8867 -0.4695
5706000000.0 0.1614 -0.9841
5709000000.0 -0.6773 -0.7737
5712000000.0 -1.031 -0.002333
5716000000.0 -0.6119 0.804
5719000000.0 0.2315 1.011
5722000000.0 0.9432 0.455
5725000000.0 0.976 -0.423
5728000000.0 0.2922 -1.03
5731000000.0 -0.5988 -0.908
5734000000.0 -1.059 -0.1211
5738000000.0 -0.7872 0.7858
5741000000.0 0.09232 1.1
5744000000.0 0.8966 0.6195
5747000000.0 1.064 -0.2604
5750000000.0 0.4417 -1.037
5753000000.0 -0.5116 -0.9788
5756000000.0 -1.071 -0.2872
5759000000.0 -0.9097 0.6518
5762000000.0 -0.09591 1.117
5766000000.0 0.8131 0.7813
5769000000.0 1.131 -0.1526
5772000000.0 0.6032 -0.9328
5775000000.0 -0.2834 -1.064
5778000000.0 -1.024 -0.414
5781000000.0 -0.9935 0.4975
5784000000.0 -0.257 1.077
5788000000.0 0.673 0.9034
5791000000.0 1.095 0.04634
5794000000.0 0.7349 -0.7953
5797000000.0 -0.1464 -1.063
5800000000.0 -0.923 -0.5482
5803000000.0 -1.037 0.363
5806000000.0 -0.3822 1.009
5809000000.0 0.506 0.894
5812000000.0 1.026 0.1717
5816000000.0 0.8232 -0.6722
5819000000.0 0.01205 -1.034
5822000000.0 -0.8226 -0.63
5825000000.0 -1.035 0.2153
5828000000.0 -0.457 0.9243
5831000000.0 0.3776 0.9343
5834000000.0 0.9532 0.2502
5838000000.0 0.8127 -0.5655
5841000000.0 0.068 -0.9553
5844000000.0 -0.6987 -0.678
5847000000.0 -0.9497 0.11
5850000000.0 -0.5004 0.8131
5853000000.0 0.3287 0.8941
5856000000.0 0.9049 0.3175
5859000000.0 0.8032 -0.5123
5862000000.0 0.0964 -0.9262
5866000000.0 -0.6589 -0.6253
5869000000.0 -0.9009 0.101
5872000000.0 -0.4759 0.7503
5875000000.0 0.2862 0.8451
5878000000.0 0.8367 0.3065
5881000000.0 0.7837 -0.4549
5884000000.0 0.1497 -0.8243
5888000000.0 -0.5949 -0.645
5891000000.0 -0.8561 0.0381
5894000000.0 -0.4926 0.6983
5897000000.0 0.2654 0.8156
5900000000.0 0.7978 0.3192
5903000000.0 0.7554 -0.421
5906000000.0 0.1874 -0.8602
5909000000.0 -0.5298 -0.6667
5912000000.0 -0.8622 -0.004111
5916000000.0 -0.537 0.7071
5919000000.0 0.1879 0.8483
5922000000.0 0.7878 0.4215
5925000000.0 0.7934 -0.354
5928000000.0 0.2335 -0.8392
5931000000.0 -0.5105 -0.7243
5934000000.0 -0.8716 -0.07771
5938000000.0 -0.6496 0.6494
5941000000.0 0.06134 0.9007
5944000000.0 0.7516 0.5206
5947000000.0 0.8717 -0.2623
5950000000.0 0.3647 -0.8165
5953000000.0 -0.3761 -0.8126
5956000000.0 -0.8942 -0.2394
5959000000.0 -0.7901 0.5771
5962000000.0 -0.06364 0.9474
5966000000.0 0.6891 0.6514
5969000000.0 0.9161 -0.07726
5972000000.0 0.5338 -0.7807
5975000000.0 -0.263 -0.9293
5978000000.0 -0.9282 -0.3778
5981000000.0 -0.8884 0.4152
5984000000.0 -0.2376 0.9894
5988000000.0 0.578 0.7966
5991000000.0 0.9907 0.04638
5994000000.0 0.7035 -0.7403
5997000000.0 -0.1147 -0.9961
6000000000.0 -0.8464 -0.5553
6003000000.0 -0.969 0.3189
6006000000.0 -0.3687 0.9202
6009000000.0 0.4801 0.8849
6012000000.0 0.9815 0.161
6016000000.0 0.7832 -0.6123
6019000000.0 0.009052 -0.9864
6022000000.0 -0.7725 -0.5997
6025000000.0 -0.9653 0.2145
6028000000.0 -0.4482 0.9024
6031000000.0 0.3679 0.9176
6034000000.0 0.9665 0.2906
6038000000.0 0.8077 -0.559
6041000000.0 0.06277 -0.9712
6044000000.0 -0.7184 -0.6528
6047000000.0 -0.9292 0.1224
6050000000.0 -0.5215 0.8215
6053000000.0 0.306 0.8984
6056000000.0 0.8784 0.3078
6059000000.0 0.8128 -0.4879
6062000000.0 0.1264 -0.8916
6066000000.0 -0.6301 -0.6854
6069000000.0 -0.9238 0.06885
6072000000.0 -0.5202 0.741
6075000000.0 0.2518 0.8854
6078000000.0 0.843 0.3666
6081000000.0 0.7922 -0.4236
6084000000.0 0.1235 -0.8606
6088000000.0 -0.5587 -0.6443
6091000000.0 -0.8539 0.003868
6094000000.0 -0.5227 0.6756
6097000000.0 0.2251 0.8741
6100000000.0 0.7873 0.3721
6103000000.0 0.7842 -0.3845
6106000000.0 0.1876 -0.8527
6109000000.0 -0.5075 -0.6925
6112000000.0 -0.8589 -0.01757
6116000000.0 -0.5517 0.69
6119000000.0 0.1527 0.8537
6122000000.0 0.7549 0.4077
6125000000.0 0.7974 -0.3468
6128000000.0 0.2655 -0.8558
6131000000.0 -0.5004 -0.6952
6134000000.0 -0.8869 -0.03872
6138000000.0 -0.6151 0.6548
6141000000.0 0.1318 0.8409
6144000000.0 0.7502 0.4408
6147000000.0 0.8738 -0.2773
6150000000.0 0.2738 -0.8447
6153000000.0 -0.4816 -0.7557
6156000000.0 -0.8863 -0.1143
6159000000.0 -0.6405 0.6123
6162000000.0 0.05957 0.9268
6166000000.0 0.7207 0.5398
6169000000.0 0.916 -0.2214
6172000000.0 0.3982 -0.849
6175000000.0 -0.402 -0.8701
6178000000.0 -0.9159 -0.1784
6181000000.0 -0.7534 0.577
6184000000.0 -0.02079 0.9725
6188000000.0 0.7385 0.5843
6191000000.0 0.939 -0.1716
6194000000.0 0.4931 -0.8367
6197000000.0 -0.3558 -0.8977
6200000000.0 -0.8686 -0.271
6203000000.0 -0.8033 0.4896
6206000000.0 -0.1286 0.9536
6209000000.0 0.6613 0.7041
6212000000.0 0.9111 -0.02277
6216000000.0 0.5523 -0.7953
6219000000.0 -0.2272 -0.907
6222000000.0 -0.8319 -0.3706
6225000000.0 -0.829 0.405
6228000000.0 -0.2382 0.8617
6231000000.0 0.5462 0.7325
6234000000.0 0.8824 0.04937
6238000000.0 0.5919 -0.6068
6241000000.0 -0.08933 -0.8925
6244000000.0 -0.7269 -0.4761
6247000000.0 -0.8067 0.2801
6250000000.0 -0.319 0.7981
6253000000.0 0.3722 0.7587
6256000000.0 0.8301 0.1464
6259000000.0 0.683 -0.5385
6262000000.0 0.0335 -0.8129
6266000000.0 -0.5933 -0.5489
6269000000.0 -0.8177 0.1009
