! Created with skrf 1.8.0 (http://scikit-rf.org).
# Hz S RI R 50.0 
!freq ReS11 ImS11
4000000000.0 0.2161 -1.483
4003000000.0 -1.058 -1.143
4006000000.0 -1.514 0.106
4009000000.0 -0.8234 1.242
4012000000.0 0.4446 1.431
4016000000.0 1.394 0.5875
4019000000.0 1.371 -0.7238
4022000000.0 0.2804 -1.486
4025000000.0 -0.9838 -1.18
4028000000.0 -1.576 0.09251
4031000000.0 -0.9419 1.208
4034000000.0 0.4273 1.519
4038000000.0 1.459 0.6451
4041000000.0 1.408 -0.7243
4044000000.0 0.2679 -1.553
4047000000.0 -1.018 -1.158
4050000000.0 -1.592 0.05827
4053000000.0 -0.9899 1.271
4056000000.0 0.3223 1.552
4059000000.0 1.484 0.7372
4062000000.0 1.465 -0.6309
4066000000.0 0.4132 -1.532
4069000000.0 -0.9325 -1.289
4072000000.0 -1.602 -0.122
4075000000.0 -1.117 1.179
4078000000.0 0.1995 1.674
4081000000.0 1.38 0.9316
4084000000.0 1.558 -0.4841
4088000000.0 0.6327 -1.526
4091000000.0 -0.8064 -1.48
4094000000.0 -1.628 -0.2893
4097000000.0 -1.25 1.057
4100000000.0 -0.01567 1.66
4103000000.0 1.239 1.009
4106000000.0 1.563 -0.3217
4109000000.0 0.7633 -1.388
4112000000.0 -0.5701 -1.457
4116000000.0 -1.425 -0.5448
4119000000.0 -1.295 0.7466
4122000000.0 -0.2867 1.484
4125000000.0 0.9229 1.174
4128000000.0 1.497 0.1105
4131000000.0 1.01 -1.057
4134000000.0 -0.1104 -1.486
4138000000.0 -1.23 -0.8977
4141000000.0 -1.474 0.3432
4144000000.0 -0.707 1.311
4147000000.0 0.5799 1.404
4150000000.0 1.448 0.4591
4153000000.0 1.322 -0.8175
4156000000.0 0.2309 -1.529
4159000000.0 -1.014 -1.191
4162000000.0 -1.523 0.05947
4166000000.0 -0.979 1.187
4169000000.0 0.2763 1.513
4172000000.0 1.274 0.7482
4175000000.0 1.44 -0.4936
4178000000.0 0.5597 -1.409
4181000000.0 -0.7136 -1.313
4184000000.0 -1.476 -0.3029
4188000000.0 -1.203 0.915
4191000000.0 -0.08273 1.558
4194000000.0 1.137 1.051
4197000000.0 1.53 -0.2347
4200000000.0 0.8532 -1.329
4203000000.0 -0.4838 -1.502
4206000000.0 -1.521 -0.5762
4209000000.0 -1.428 0.8149
4212000000.0 -0.2799 1.648
4216000000.0 1.131 1.246
4219000000.0 1.679 -0.1337
4222000000.0 0.9471 -1.446
4225000000.0 -0.5176 -1.641
4228000000.0 -1.615 -0.5379
4231000000.0 -1.464 0.911
4234000000.0 -0.1337 1.695
4238000000.0 1.222 1.193
4241000000.0 1.68 -0.2626
4244000000.0 0.8318 -1.479
4247000000.0 -0.6762 -1.536
4250000000.0 -1.618 -0.4294
4253000000.0 -1.318 1.014
4256000000.0 -0.03604 1.626
4259000000.0 1.28 1.024
4262000000.0 1.564 -0.3893
4266000000.0 0.6547 -1.475
4269000000.0 -0.7701 -1.396
4272000000.0 -1.536 -0.2286
4275000000.0 -1.136 1.08
4278000000.0 0.1861 1.489
4281000000.0 1.267 0.8157
4284000000.0 1.382 -0.5245
4288000000.0 0.4851 -1.393
4291000000.0 -0.8055 -1.212
4294000000.0 -1.424 -0.1453
4297000000.0 -0.9603 0.9935
4300000000.0 0.1502 1.323
4303000000.0 1.133 0.7114
4306000000.0 1.271 -0.4203
4309000000.0 0.5229 -1.235
4312000000.0 -0.5938 -1.15
4316000000.0 -1.294 -0.2638
4319000000.0 -1.008 0.7923
4322000000.0 -0.04648 1.339
4325000000.0 0.968 0.8805
4328000000.0 1.305 -0.2093
4331000000.0 0.7032 -1.124
4334000000.0 -0.4122 -1.304
4338000000.0 -1.201 -0.4918
4341000000.0 -1.205 0.6382
4344000000.0 -0.2889 1.351
4347000000.0 0.899 1.071
4350000000.0 1.372 0.03572
4353000000.0 0.9057 -1.054
4356000000.0 -0.2379 -1.388
4359000000.0 -1.182 -0.7178
4362000000.0 -1.368 0.4713
4366000000.0 -0.4915 1.308
4369000000.0 0.6781 1.239
4372000000.0 1.386 0.2711
4375000000.0 1.117 -0.9141
4378000000.0 -0.006875 -1.452
4381000000.0 -1.132 -0.9683
4384000000.0 -1.471 0.2447
4388000000.0 -0.7672 1.273
4391000000.0 0.5202 1.412
4394000000.0 1.467 0.5134
4397000000.0 1.315 -0.8292
4400000000.0 0.2216 -1.535
4403000000.0 -1.105 -1.181
4406000000.0 -1.555 0.09707
4409000000.0 -0.8881 1.298
4412000000.0 0.467 1.545
4416000000.0 1.466 0.6226
4419000000.0 1.406 -0.7498
4422000000.0 0.2638 -1.552
4425000000.0 -1.003 -1.164
4428000000.0 -1.564 0.04193
4431000000.0 -0.9509 1.229
4434000000.0 0.3916 1.502
4438000000.0 1.398 0.5948
4441000000.0 1.337 -0.7169
4444000000.0 0.2586 -1.471
4447000000.0 -1.025 -1.12
4450000000.0 -1.45 0.0847
4453000000.0 -0.8129 1.186
4456000000.0 0.4501 1.34
4459000000.0 1.325 0.4562
4462000000.0 1.17 -0.7634
4466000000.0 0.1411 -1.366
4469000000.0 -1.003 -0.9206
4472000000.0 -1.303 0.2354
4475000000.0 -0.6104 1.12
4478000000.0 0.5214 1.157
4481000000.0 1.197 0.2954
4484000000.0 0.9631 -0.747
4488000000.0 -0.01222 -1.215
4491000000.0 -0.9052 -0.731
4494000000.0 -1.098 0.2821
4497000000.0 -0.5005 1.031
4500000000.0 0.5144 1.006
4503000000.0 1.07 0.2128
4506000000.0 0.7964 -0.6992
4509000000.0 -0.04976 -1.08
4512000000.0 -0.8673 -0.6243
4516000000.0 -1.056 0.2803
4519000000.0 -0.4542 0.9752
4522000000.0 0.5177 0.9799
4525000000.0 1.082 0.2144
4528000000.0 0.8303 -0.6763
4531000000.0 -0.02101 -1.077
4534000000.0 -0.8682 -0.6596
4538000000.0 -1.105 0.2665
4541000000.0 -0.4986 0.9937
4544000000.0 0.4795 0.997
4547000000.0 1.086 0.2769
4550000000.0 0.9172 -0.6902
4553000000.0 0.07683 -1.147
4556000000.0 -0.8242 -0.7712
4559000000.0 -1.148 0.1268
4562000000.0 -0.6372 0.9788
4566000000.0 0.3338 1.128
4569000000.0 1.07 0.4316
4572000000.0 1.077 -0.5503
4575000000.0 0.24 -1.205
4578000000.0 -0.765 -0.9714
4581000000.0 -1.231 -0.04454
4584000000.0 -0.8399 0.9039
4588000000.0 0.1646 1.248
4591000000.0 1.112 0.6768
4594000000.0 1.264 -0.414
4597000000.0 0.4685 -1.234
4600000000.0 -0.6635 -1.136
4603000000.0 -1.327 -0.2422
4606000000.0 -0.9999 0.8664
4609000000.0 0.04105 1.363
4612000000.0 1.088 0.8407
4616000000.0 1.335 -0.2747
4619000000.0 0.6344 -1.194
4622000000.0 -0.5264 -1.263
4625000000.0 -1.293 -0.4158
4628000000.0 -1.134 0.7742
4631000000.0 -0.1128 1.385
4634000000.0 0.9757 0.984
4638000000.0 1.383 -0.1451
4641000000.0 0.7421 -1.155
4644000000.0 -0.4263 -1.295
4647000000.0 -1.271 -0.4941
4650000000.0 -1.187 0.7004
4653000000.0 -0.1769 1.374
4656000000.0 0.9634 0.9701
4659000000.0 1.353 -0.127
4662000000.0 0.7272 -1.103
4666000000.0 -0.4318 -1.27
4669000000.0 -1.209 -0.4484
4672000000.0 -1.06 0.6472
4675000000.0 -0.16 1.248
4678000000.0 0.8509 0.8834
4681000000.0 1.241 -0.1204
4684000000.0 0.6295 -1.015
4688000000.0 -0.3853 -1.131
4691000000.0 -1.098 -0.3863
4694000000.0 -0.9754 0.6005
4697000000.0 -0.1131 1.138
4700000000.0 0.7957 0.8327
4703000000.0 1.123 -0.1535
4706000000.0 0.5912 -0.9743
4709000000.0 -0.4102 -1.042
4712000000.0 -1.08 -0.3036
4716000000.0 -0.8842 0.6346
4719000000.0 -0.05395 1.063
4722000000.0 0.7765 0.7016
4725000000.0 1.01 -0.2113
4728000000.0 0.448 -0.9308
4731000000.0 -0.4351 -0.9321
4734000000.0 -0.962 -0.2951
4738000000.0 -0.8039 0.6245
4741000000.0 -0.05171 0.9939
4744000000.0 0.7454 0.6814
4747000000.0 1.015 -0.1109
4750000000.0 0.5266 -0.8885
4753000000.0 -0.342 -0.973
4756000000.0 -0.9596 -0.3342
4759000000.0 -0.8818 0.5411
4762000000.0 -0.1228 1.043
4766000000.0 0.7181 0.7729
4769000000.0 1.074 -0.05474
4772000000.0 0.6396 -0.8529
4775000000.0 -0.2698 -1.069
4778000000.0 -0.9851 -0.4867
4781000000.0 -1.001 0.451
4784000000.0 -0.299 1.058
4788000000.0 0.6461 0.9445
4791000000.0 1.126 0.1172
4794000000.0 0.8272 -0.7798
4797000000.0 -0.07755 -1.186
4800000000.0 -0.9501 -0.7082
4803000000.0 -1.131 0.284
4806000000.0 -0.5077 1.035
4809000000.0 0.4614 1.105
4812000000.0 1.172 0.3411
4816000000.0 1.039 -0.6845
4819000000.0 0.1425 -1.231
4822000000.0 -0.8923 -0.9169
4825000000.0 -1.282 0.06717
4828000000.0 -0.7651 1.085
4831000000.0 0.3238 1.267
4834000000.0 1.204 0.5463
4838000000.0 1.213 -0.59
4841000000.0 0.3225 -1.326
4844000000.0 -0.8413 -1.097
4847000000.0 -1.346 -0.0605
4850000000.0 -0.9391 1.033
4853000000.0 0.1898 1.378
4856000000.0 1.175 0.7134
4859000000.0 1.303 -0.4775
4862000000.0 0.4616 -1.294
4866000000.0 -0.7007 -1.181
4869000000.0 -1.356 -0.1861
4872000000.0 -0.9706 0.9307
4875000000.0 0.07485 1.339
4878000000.0 1.084 0.7766
4881000000.0 1.28 -0.3794
4884000000.0 0.4775 -1.225
4888000000.0 -0.6294 -1.165
4891000000.0 -1.279 -0.2126
4894000000.0 -0.9524 0.8402
4897000000.0 0.03475 1.246
4900000000.0 0.9781 0.7385
4903000000.0 1.17 -0.3076
4906000000.0 0.4805 -1.057
4909000000.0 -0.4922 -0.9955
4912000000.0 -1.08 -0.2336
4916000000.0 -0.842 0.6886
4919000000.0 -0.00358 1.072
4922000000.0 0.8248 0.6654
4925000000.0 0.961 -0.2183
4928000000.0 0.4883 -0.8827
4931000000.0 -0.4022 -0.9094
4934000000.0 -0.9471 -0.2889
4938000000.0 -0.8028 0.5744
4941000000.0 -0.1089 0.9445
4944000000.0 0.6827 0.6686
4947000000.0 0.9396 -0.08206
4950000000.0 0.5018 -0.8169
4953000000.0 -0.2945 -0.8975
4956000000.0 -0.8928 -0.3369
4959000000.0 -0.8291 0.4819
4962000000.0 -0.1214 0.9275
4966000000.0 0.6338 0.6991
4969000000.0 0.9329 -0.07208
4972000000.0 0.5647 -0.7402
4975000000.0 -0.2318 -0.9379
4978000000.0 -0.9026 -0.4144
4981000000.0 -0.8919 0.4221
4984000000.0 -0.2188 0.96
4988000000.0 0.5928 0.7862
4991000000.0 1.014 0.07349
4994000000.0 0.6806 -0.7767
4997000000.0 -0.1448 -1.024
5000000000.0 -0.9069 -0.5599
5003000000.0 -1.008 0.3771
5006000000.0 -0.3988 1.035
5009000000.0 0.5555 0.9631
5012000000.0 1.121 0.2001
5016000000.0 0.8583 -0.7669
5019000000.0 -0.04347 -1.162
5022000000.0 -0.912 -0.7331
5025000000.0 -1.192 0.2681
5028000000.0 -0.5185 1.086
5031000000.0 0.5074 1.12
5034000000.0 1.216 0.3202
5038000000.0 1.022 -0.7097
5041000000.0 0.08468 -1.253
5044000000.0 -0.8652 -0.9241
5047000000.0 -1.25 0.1534
5050000000.0 -0.6919 1.076
5053000000.0 0.3358 1.216
5056000000.0 1.199 0.5061
5059000000.0 1.155 -0.5709
5062000000.0 0.3021 -1.289
5066000000.0 -0.7913 -1.075
5069000000.0 -1.306 -0.09797
5072000000.0 -0.8888 0.9845
5075000000.0 0.1832 1.293
5078000000.0 1.113 0.684
5081000000.0 1.21 -0.4168
5084000000.0 0.4441 -1.209
5088000000.0 -0.6414 -1.114
5091000000.0 -1.218 -0.2036
5094000000.0 -0.9428 0.7838
5097000000.0 -0.01641 1.21
5100000000.0 0.9165 0.7785
5103000000.0 1.154 -0.2257
5106000000.0 0.5918 -0.964
5109000000.0 -0.3657 -1.069
5112000000.0 -1.064 -0.3782
5116000000.0 -0.9504 0.5499
5119000000.0 -0.2251 1.069
5122000000.0 0.6747 0.8468
5125000000.0 1.116 0.03681
5128000000.0 0.7361 -0.806
5131000000.0 -0.183 -1.054
5134000000.0 -0.8988 -0.5301
5138000000.0 -0.9679 0.3782
5141000000.0 -0.3271 0.9518
5144000000.0 0.5282 0.8562
5147000000.0 0.9622 0.1542
5150000000.0 0.7427 -0.6258
5153000000.0 -0.0412 -0.9565
5156000000.0 -0.7498 -0.6047
5159000000.0 -0.915 0.1887
5162000000.0 -0.3897 0.8375
5166000000.0 0.3711 0.8524
5169000000.0 0.898 0.248
5172000000.0 0.7239 -0.562
5175000000.0 0.02785 -0.8993
5178000000.0 -0.6865 -0.6231
5181000000.0 -0.9065 0.1331
5184000000.0 -0.4721 0.7939
5188000000.0 0.3169 0.853
5191000000.0 0.8994 0.2844
5194000000.0 0.7694 -0.5137
5197000000.0 0.07972 -0.9226
5200000000.0 -0.68 -0.6284
5203000000.0 -0.8942 0.1266
5206000000.0 -0.4573 0.8002
5209000000.0 0.3627 0.8532
5212000000.0 0.8948 0.2872
5216000000.0 0.8136 -0.5203
5219000000.0 0.09476 -0.9786
5222000000.0 -0.7146 -0.6893
5225000000.0 -0.976 0.09965
5228000000.0 -0.5193 0.8301
5231000000.0 0.3043 0.948
5234000000.0 0.9352 0.3413
5238000000.0 0.8637 -0.5203
5241000000.0 0.1524 -1.016
5244000000.0 -0.6898 -0.7863
5247000000.0 -1.037 0.06996
5250000000.0 -0.6311 0.8472
5253000000.0 0.2514 1.038
5256000000.0 0.9418 0.476
5259000000.0 0.9833 -0.4436
5262000000.0 0.2634 -1.038
5266000000.0 -0.6225 -0.8885
5269000000.0 -1.082 -0.06712
5272000000.0 -0.7557 0.7917
5275000000.0 0.1075 1.085
5278000000.0 0.8567 0.6148
5281000000.0 1.028 -0.285
5284000000.0 0.4517 -0.99
5288000000.0 -0.4674 -1.023
5291000000.0 -1.055 -0.3041
5294000000.0 -0.9295 0.6025
5297000000.0 -0.1505 1.085
5300000000.0 0.7407 0.8255
5303000000.0 1.129 -0.05215
5306000000.0 0.6992 -0.8916
5309000000.0 -0.2476 -1.105
5312000000.0 -1.009 -0.5376
5316000000.0 -1.109 0.4324
5319000000.0 -0.4035 1.108
5322000000.0 0.5712 1.0
5325000000.0 1.137 0.2109
5328000000.0 0.8852 -0.7643
5331000000.0 -0.03411 -1.137
5334000000.0 -0.9007 -0.7433
5338000000.0 -1.126 0.1942
5341000000.0 -0.5776 0.9747
5344000000.0 0.3922 1.057
5347000000.0 1.08 0.3506
5350000000.0 0.969 -0.5994
5353000000.0 0.1654 -1.103
5356000000.0 -0.7747 -0.8286
5359000000.0 -1.111 0.05484
5362000000.0 -0.6572 0.8713
5366000000.0 0.227 1.095
5369000000.0 1.022 0.4516
5372000000.0 0.986 -0.4812
5375000000.0 0.2608 -1.067
5378000000.0 -0.6593 -0.8437
5381000000.0 -1.097 -0.01518
5384000000.0 -0.6555 0.8186
5388000000.0 0.2074 1.051
5391000000.0 0.9156 0.4327
5394000000.0 0.9442 -0.4573
5397000000.0 0.2409 -0.9488
5400000000.0 -0.6181 -0.7844
5403000000.0 -0.9535 -0.01585
5406000000.0 -0.5763 0.724
5409000000.0 0.2247 0.9033
5412000000.0 0.848 0.4348
5416000000.0 0.8429 -0.3965
5419000000.0 0.2288 -0.8659
5422000000.0 -0.5744 -0.725
5425000000.0 -0.9231 -0.00814
5428000000.0 -0.5783 0.6939
5431000000.0 0.2008 0.886
5434000000.0 0.7927 0.3925
5438000000.0 0.8247 -0.4161
5441000000.0 0.1556 -0.8727
5444000000.0 -0.5789 -0.6702
5447000000.0 -0.8785 0.0344
5450000000.0 -0.5222 0.6752
5453000000.0 0.2308 0.8498
5456000000.0 0.795 0.3702
5459000000.0 0.7886 -0.3901
5462000000.0 0.171 -0.8543
5466000000.0 -0.5293 -0.6799
5469000000.0 -0.873 -0.02324
5472000000.0 -0.6047 0.664
5475000000.0 0.1081 0.9178
5478000000.0 0.7917 0.4811
5481000000.0 0.9062 -0.3049
5484000000.0 0.285 -0.8693
5488000000.0 -0.4496 -0.8259
5491000000.0 -0.9292 -0.1473
5494000000.0 -0.7221 0.627
5497000000.0 0.007467 0.9321
5500000000.0 0.7588 0.6147
5503000000.0 0.9212 -0.1822
5506000000.0 0.4839 -0.844
5509000000.0 -0.3428 -0.9272
5512000000.0 -0.9349 -0.3325
5516000000.0 -0.8272 0.5574
5519000000.0 -0.1889 0.9914
5522000000.0 0.6603 0.7746
5525000000.0 1.039 -0.006047
5528000000.0 0.6255 -0.7645
5531000000.0 -0.1524 -1.036
5534000000.0 -0.8736 -0.5285
5538000000.0 -1.011 0.3505
5541000000.0 -0.3611 1.009
5544000000.0 0.5401 0.9157
5547000000.0 1.021 0.1857
5550000000.0 0.8298 -0.699
5553000000.0 -0.0008847 -1.092
5556000000.0 -0.7699 -0.6655
5559000000.0 -1.057 0.2058
5562000000.0 -0.5301 0.9438
5566000000.0 0.3454 0.9821
5569000000.0 0.989 0.3592
5572000000.0 0.8974 -0.5381
5575000000.0 0.1513 -1.012
5578000000.0 -0.6646 -0.7981
5581000000.0 -1.023 0.02769
5584000000.0 -0.6301 0.8069
5588000000.0 0.2036 0.9872
5591000000.0 0.869 0.4682
5594000000.0 0.9266 -0.3872
5597000000.0 0.2885 -0.9305
5600000000.0 -0.5402 -0.8149
5603000000.0 -0.9542 -0.1043
5606000000.0 -0.6947 0.6698
5609000000.0 0.07268 0.9483
5612000000.0 0.7608 0.516
5616000000.0 0.8884 -0.2695
5619000000.0 0.3491 -0.8312
5622000000.0 -0.418 -0.7845
5625000000.0 -0.8702 -0.1676
5628000000.0 -0.6571 0.5531
5631000000.0 -0.0008916 0.8706
5634000000.0 0.6881 0.5374
5638000000.0 0.8428 -0.2197
5641000000.0 0.3782 -0.7767
5644000000.0 -0.3743 -0.8125
5647000000.0 -0.8388 -0.1867
5650000000.0 -0.669 0.5271
5653000000.0 -0.01731 0.8676
5656000000.0 0.6783 0.5265
5659000000.0 0.832 -0.1798
5662000000.0 0.3913 -0.7524
5666000000.0 -0.4031 -0.7642
5669000000.0 -0.8377 -0.1911
5672000000.0 -0.7176 0.5546
5675000000.0 0.007983 0.8855
5678000000.0 0.6992 0.5623
5681000000.0 0.8922 -0.2211
5684000000.0 0.3915 -0.8286
5688000000.0 -0.3869 -0.8358
5691000000.0 -0.9168 -0.1931
5694000000.0 -0.7592 0.5687
5697000000.0 -0.0008644 0.9355
5700000000.0 0.7375 0.6071
5703000000.0 0.9331 -0.2057
5706000000.0 0.4543 -0.8625
5709000000.0 -0.3758 -0.902
5712000000.0 -0.9568 -0.2485
5716000000.0 -0.8152 0.5727
5719000000.0 -0.08284 1.006
5722000000.0 0.761 0.6773
5725000000.0 1.027 -0.1588
5728000000.0 0.5385 -0.8451
5731000000.0 -0.3263 -1.022
5734000000.0 -0.9497 -0.3869
5738000000.0 -0.9362 0.5108
5741000000.0 -0.1766 1.052
5744000000.0 0.6767 0.8196
5747000000.0 1.079 0.01932
5750000000.0 0.7082 -0.8117
5753000000.0 -0.1585 -1.057
5756000000.0 -0.9342 -0.5553
5759000000.0 -1.037 0.3659
5762000000.0 -0.3712 1.075
5766000000.0 0.5727 0.9487
5769000000.0 1.093 0.1794
5772000000.0 0.8352 -0.7225
5775000000.0 -0.01162 -1.099
5778000000.0 -0.8481 -0.6873
5781000000.0 -1.072 0.2112
5784000000.0 -0.537 0.9465
5788000000.0 0.395 1.004
5791000000.0 1.061 0.348
5794000000.0 0.9196 -0.5944
5797000000.0 0.1249 -1.044
5800000000.0 -0.7074 -0.8048
5803000000.0 -1.077 0.006713
5806000000.0 -0.6841 0.8389
5809000000.0 0.2773 1.051
5812000000.0 0.9395 0.4731
5816000000.0 0.9596 -0.4333
5819000000.0 0.2847 -1.007
5822000000.0 -0.5791 -0.848
5825000000.0 -1.066 -0.09657
5828000000.0 -0.7567 0.7141
5831000000.0 0.1035 0.9984
5834000000.0 0.8398 0.5512
5838000000.0 0.9678 -0.3216
5841000000.0 0.3309 -0.919
5844000000.0 -0.4638 -0.8956
5847000000.0 -0.9685 -0.199
5850000000.0 -0.7506 0.6221
5853000000.0 -0.01437 0.969
5856000000.0 0.7808 0.5734
5859000000.0 0.9225 -0.2145
5862000000.0 0.3979 -0.8676
5866000000.0 -0.4038 -0.8645
5869000000.0 -0.9156 -0.2017
5872000000.0 -0.7179 0.5673
5875000000.0 -0.00549 0.915
5878000000.0 0.6833 0.5817
5881000000.0 0.8834 -0.1523
5884000000.0 0.4101 -0.7773
5888000000.0 -0.3709 -0.8149
5891000000.0 -0.8675 -0.2051
5894000000.0 -0.7064 0.5161
5897000000.0 -0.05055 0.859
5900000000.0 0.6302 0.5763
5903000000.0 0.8792 -0.1365
5906000000.0 0.4371 -0.7622
5909000000.0 -0.306 -0.8094
5912000000.0 -0.8109 -0.2427
5916000000.0 -0.7044 0.4689
5919000000.0 -0.1044 0.8261
5922000000.0 0.5882 0.5874
5925000000.0 0.8486 -0.111
5928000000.0 0.4876 -0.6877
5931000000.0 -0.2479 -0.8456
5934000000.0 -0.7747 -0.3353
5938000000.0 -0.7561 0.4071
5941000000.0 -0.1727 0.8553
5944000000.0 0.5218 0.6958
5947000000.0 0.8317 0.02744
5950000000.0 0.5803 -0.6444
5953000000.0 -0.1513 -0.8721
5956000000.0 -0.762 -0.4659
5959000000.0 -0.8241 0.3014
5962000000.0 -0.3272 0.8491
5966000000.0 0.4579 0.7878
5969000000.0 0.9122 0.1487
5972000000.0 0.7184 -0.5948
5975000000.0 0.0338 -0.9207
5978000000.0 -0.7431 -0.6038
5981000000.0 -0.9255 0.159
5984000000.0 -0.4698 0.853
5988000000.0 0.3217 0.9217
5991000000.0 0.9189 0.3556
5994000000.0 0.8644 -0.4849
5997000000.0 0.1762 -0.9641
6000000000.0 -0.6417 -0.7541
6003000000.0 -0.9631 0.02524
6006000000.0 -0.6003 0.7407
6009000000.0 0.2152 0.9468
6012000000.0 0.8668 0.4566
6016000000.0 0.9155 -0.3773
6019000000.0 0.2838 -0.9617
6022000000.0 -0.5618 -0.8032
6025000000.0 -0.9996 -0.1294
6028000000.0 -0.7314 0.6826
6031000000.0 0.09515 0.9903
6034000000.0 0.7937 0.5498
6038000000.0 0.9657 -0.2546
6041000000.0 0.3984 -0.9163
6044000000.0 -0.462 -0.8709
6047000000.0 -0.9766 -0.2035
6050000000.0 -0.7555 0.6045
6053000000.0 -0.004997 0.9666
6056000000.0 0.7556 0.5896
6059000000.0 0.9542 -0.2043
6062000000.0 0.431 -0.8643
6066000000.0 -0.391 -0.8752
6069000000.0 -0.9092 -0.2158
6072000000.0 -0.7347 0.5447
6075000000.0 -0.04462 0.9539
6078000000.0 0.6865 0.6351
6081000000.0 0.8495 -0.1436
6084000000.0 0.4596 -0.7873
6088000000.0 -0.3182 -0.8341
6091000000.0 -0.8506 -0.2951
6094000000.0 -0.7209 0.4764
6097000000.0 -0.08498 0.8753
6100000000.0 0.615 0.6381
6103000000.0 0.8533 -0.07397
6106000000.0 0.4768 -0.7261
6109000000.0 -0.2846 -0.8411
6112000000.0 -0.8101 -0.2914
6116000000.0 -0.7335 0.4219
6119000000.0 -0.1188 0.8392
6122000000.0 0.5886 0.6285
6125000000.0 0.8855 -0.05259
6128000000.0 0.4913 -0.7223
6131000000.0 -0.2696 -0.8088
6134000000.0 -0.8114 -0.3467
6138000000.0 -0.7634 0.3814
6141000000.0 -0.1798 0.8229
6144000000.0 0.542 0.6645
6147000000.0 0.8628 -0.01622
6150000000.0 0.5327 -0.6874
6153000000.0 -0.1751 -0.858
6156000000.0 -0.7641 -0.3811
6159000000.0 -0.7934 0.3441
6162000000.0 -0.2248 0.8827
6166000000.0 0.5213 0.7257
6169000000.0 0.8889 0.07374
6172000000.0 0.5838 -0.6519
6175000000.0 -0.1487 -0.9105
6178000000.0 -0.7791 -0.4693
6181000000.0 -0.8309 0.2984
6184000000.0 -0.3087 0.8678
6188000000.0 0.4796 0.8158
6191000000.0 0.9215 0.13
6194000000.0 0.6633 -0.6404
6197000000.0 -0.07469 -0.91
6200000000.0 -0.7364 -0.5516
6203000000.0 -0.8795 0.2637
6206000000.0 -0.3879 0.8102
6209000000.0 0.3908 0.8347
6212000000.0 0.8991 0.2605
6216000000.0 0.7569 -0.5601
6219000000.0 0.07286 -0.9073
6222000000.0 -0.6889 -0.621
6225000000.0 -0.917 0.1345
6228000000.0 -0.4642 0.7502
6231000000.0 0.2925 0.8423
6234000000.0 0.8474 0.3139
6238000000.0 0.764 -0.4335
6241000000.0 0.163 -0.8719
6244000000.0 -0.584 -0.6566
6247000000.0 -0.8489 0.04214
6250000000.0 -0.5341 0.6726
6253000000.0 0.1588 0.8305
6256000000.0 0.7316 0.393
6259000000.0 0.7958 -0.2903
6262000000.0 0.2707 -0.7832
