! Created with skrf 1.8.0 (http://scikit-rf.org).
# Hz S RI R 50.0 
!freq ReS11 ImS11
4000000000.0 -0.184 -1.487
4003000000.0 -1.256 -0.7735
4006000000.0 -1.43 0.4493
4009000000.0 -0.5059 1.426
4012000000.0 0.7362 1.316
4016000000.0 1.581 0.2683
4019000000.0 1.116 -1.055
4022000000.0 -0.07739 -1.564
4025000000.0 -1.279 -0.9035
4028000000.0 -1.521 0.4654
4031000000.0 -0.5918 1.5
4034000000.0 0.7982 1.446
4038000000.0 1.558 0.249
4041000000.0 1.208 -1.115
4044000000.0 -0.1142 -1.582
4047000000.0 -1.348 -0.919
4050000000.0 -1.563 0.4484
4053000000.0 -0.6103 1.514
4056000000.0 0.7548 1.451
4059000000.0 1.583 0.32
4062000000.0 1.281 -1.027
4066000000.0 0.04945 -1.585
4069000000.0 -1.241 -1.063
4072000000.0 -1.636 0.2251
4075000000.0 -0.8438 1.346
4078000000.0 0.5806 1.546
4081000000.0 1.539 0.5552
4084000000.0 1.425 -0.8657
4088000000.0 0.2744 -1.616
4091000000.0 -1.097 -1.273
4094000000.0 -1.613 0.04443
4097000000.0 -1.032 1.284
4100000000.0 0.3709 1.583
4103000000.0 1.425 0.7016
4106000000.0 1.482 -0.6093
4109000000.0 0.4616 -1.538
4112000000.0 -0.8487 -1.316
4116000000.0 -1.535 -0.2244
4119000000.0 -1.128 1.007
4122000000.0 0.01733 1.5
4125000000.0 1.105 0.9743
4128000000.0 1.484 -0.2088
4131000000.0 0.8184 -1.229
4134000000.0 -0.4198 -1.421
4138000000.0 -1.343 -0.6024
4141000000.0 -1.362 0.6459
4144000000.0 -0.3845 1.479
4147000000.0 0.8473 1.211
4150000000.0 1.492 0.1635
4153000000.0 1.09 -1.063
4156000000.0 -0.0901 -1.543
4159000000.0 -1.259 -0.8675
4162000000.0 -1.454 0.3688
4166000000.0 -0.6676 1.373
4169000000.0 0.5792 1.402
4172000000.0 1.426 0.4233
4175000000.0 1.251 -0.8485
4178000000.0 0.1701 -1.507
4181000000.0 -1.04 -1.084
4184000000.0 -1.483 0.1031
4188000000.0 -0.9189 1.209
4191000000.0 0.3807 1.508
4194000000.0 1.404 0.704
4197000000.0 1.419 -0.6604
4200000000.0 0.3754 -1.539
4203000000.0 -0.9722 -1.279
4206000000.0 -1.611 -0.0923
4209000000.0 -1.084 1.255
4212000000.0 0.3355 1.648
4216000000.0 1.513 0.7314
4219000000.0 1.511 -0.7334
4222000000.0 0.3437 -1.633
4225000000.0 -1.107 -1.28
4228000000.0 -1.709 0.07624
4231000000.0 -0.9362 1.418
4234000000.0 0.5283 1.548
4238000000.0 1.541 0.5402
4241000000.0 1.354 -0.9014
4244000000.0 0.131 -1.609
4247000000.0 -1.182 -1.051
4250000000.0 -1.602 0.3123
4253000000.0 -0.7094 1.374
4256000000.0 0.6773 1.376
4259000000.0 1.506 0.3341
4262000000.0 1.153 -0.968
4266000000.0 -0.06168 -1.507
4269000000.0 -1.229 -0.8699
4272000000.0 -1.414 0.4235
4275000000.0 -0.5029 1.397
4278000000.0 0.7287 1.244
4281000000.0 1.415 0.1541
4284000000.0 1.027 -0.9837
4288000000.0 -0.1449 -1.364
4291000000.0 -1.167 -0.7299
4294000000.0 -1.309 0.3892
4297000000.0 -0.4862 1.239
4300000000.0 0.638 1.165
4303000000.0 1.266 0.2347
4306000000.0 1.027 -0.8373
4309000000.0 0.05372 -1.294
4312000000.0 -0.9756 -0.8311
4316000000.0 -1.258 0.1877
4319000000.0 -0.6796 1.081
4322000000.0 0.4089 1.243
4325000000.0 1.22 0.5138
4328000000.0 1.198 -0.6068
4331000000.0 0.2859 -1.301
4334000000.0 -0.8216 -1.067
4338000000.0 -1.387 -0.08096
4341000000.0 -0.9534 1.066
4344000000.0 0.2021 1.371
4347000000.0 1.216 0.7296
4350000000.0 1.407 -0.4587
4353000000.0 0.5112 -1.315
4356000000.0 -0.7246 -1.242
4359000000.0 -1.407 -0.2488
4362000000.0 -1.106 0.9425
4366000000.0 0.01247 1.47
4369000000.0 1.086 0.9224
4372000000.0 1.473 -0.2614
4375000000.0 0.7064 -1.296
4378000000.0 -0.5355 -1.407
4381000000.0 -1.431 -0.4814
4384000000.0 -1.319 0.8093
4388000000.0 -0.1928 1.51
4391000000.0 1.078 1.152
4394000000.0 1.536 -0.134
4397000000.0 0.9076 -1.319
4400000000.0 -0.4688 -1.516
4403000000.0 -1.495 -0.5598
4406000000.0 -1.353 0.8166
4409000000.0 -0.2064 1.581
4412000000.0 1.082 1.128
4416000000.0 1.542 -0.1877
4419000000.0 0.8183 -1.262
4422000000.0 -0.5242 -1.394
4425000000.0 -1.459 -0.4439
4428000000.0 -1.231 0.8129
4431000000.0 -0.1287 1.456
4434000000.0 1.079 0.9945
4438000000.0 1.429 -0.2208
4441000000.0 0.6338 -1.25
4444000000.0 -0.5316 -1.263
4447000000.0 -1.291 -0.3283
4450000000.0 -1.027 0.829
4453000000.0 0.01933 1.306
4456000000.0 1.018 0.7792
4459000000.0 1.253 -0.3346
4462000000.0 0.5302 -1.221
4466000000.0 -0.6447 -1.095
4469000000.0 -1.234 -0.1469
4472000000.0 -0.8819 0.8363
4475000000.0 0.1277 1.18
4478000000.0 1.025 0.6218
4481000000.0 1.092 -0.4102
4484000000.0 0.3381 -1.114
4488000000.0 -0.6732 -0.9375
4491000000.0 -1.125 -0.08567
4494000000.0 -0.752 0.8309
4497000000.0 0.1585 1.136
4500000000.0 0.9824 0.5743
4503000000.0 1.021 -0.4113
4506000000.0 0.3118 -1.034
4509000000.0 -0.605 -0.9237
4512000000.0 -1.122 -0.1437
4516000000.0 -0.8066 0.7661
4519000000.0 0.1279 1.103
4522000000.0 0.9986 0.6132
4525000000.0 1.065 -0.3606
4528000000.0 0.409 -1.061
4531000000.0 -0.5553 -0.994
4534000000.0 -1.144 -0.2058
4538000000.0 -0.8766 0.7764
4541000000.0 0.03005 1.197
4544000000.0 0.9088 0.7304
4547000000.0 1.167 -0.2222
4550000000.0 0.5666 -1.083
4553000000.0 -0.4536 -1.11
4556000000.0 -1.173 -0.3982
4559000000.0 -1.072 0.6463
4562000000.0 -0.1725 1.229
4566000000.0 0.8411 0.9184
4569000000.0 1.269 -0.03415
4572000000.0 0.7806 -1.008
4575000000.0 -0.2551 -1.268
4578000000.0 -1.155 -0.6143
4581000000.0 -1.222 0.4969
4584000000.0 -0.3924 1.257
4588000000.0 0.6921 1.128
4591000000.0 1.323 0.1686
4594000000.0 0.9743 -0.9456
4597000000.0 -0.07511 -1.369
4600000000.0 -1.13 -0.8117
4603000000.0 -1.331 0.3632
4606000000.0 -0.5618 1.265
4609000000.0 0.6237 1.267
4612000000.0 1.358 0.3056
4616000000.0 1.078 -0.8387
4619000000.0 0.04975 -1.381
4622000000.0 -1.048 -0.9331
4625000000.0 -1.39 0.2469
4628000000.0 -0.6768 1.235
4631000000.0 0.5343 1.265
4634000000.0 1.32 0.3885
4638000000.0 1.129 -0.7842
4641000000.0 0.1339 -1.371
4644000000.0 -0.953 -0.9474
4647000000.0 -1.345 0.2206
4650000000.0 -0.6809 1.09
4653000000.0 0.4364 1.221
4656000000.0 1.24 0.4149
4659000000.0 1.086 -0.7055
4662000000.0 0.06788 -1.246
4666000000.0 -0.9482 -0.8472
4669000000.0 -1.224 0.2052
4672000000.0 -0.6075 1.026
4675000000.0 0.4445 1.104
4678000000.0 1.152 0.3429
4681000000.0 0.9517 -0.6606
4684000000.0 0.0757 -1.145
4688000000.0 -0.8508 -0.7716
4691000000.0 -1.099 0.1898
4694000000.0 -0.5528 0.9527
4697000000.0 0.425 1.036
4700000000.0 1.061 0.2923
4703000000.0 0.891 -0.6497
4706000000.0 0.06277 -1.12
4709000000.0 -0.832 -0.6953
4712000000.0 -1.062 0.1742
4716000000.0 -0.5014 0.9426
4719000000.0 0.4432 0.99
4722000000.0 1.005 0.2167
4725000000.0 0.878 -0.6098
4728000000.0 0.03545 -1.074
4731000000.0 -0.7753 -0.7173
4734000000.0 -1.012 0.1587
4738000000.0 -0.5278 0.9056
4741000000.0 0.3734 0.9792
4744000000.0 0.9813 0.3216
4747000000.0 0.9037 -0.5447
4750000000.0 0.1836 -1.051
4753000000.0 -0.7045 -0.796
4756000000.0 -1.087 0.03994
4759000000.0 -0.6874 0.8706
4762000000.0 0.2198 1.102
4766000000.0 0.9892 0.5078
4769000000.0 1.037 -0.4206
4772000000.0 0.3488 -1.099
4775000000.0 -0.6204 -0.9524
4778000000.0 -1.154 -0.1246
4781000000.0 -0.8702 0.8103
4784000000.0 0.05628 1.207
4788000000.0 0.9632 0.7362
4791000000.0 1.193 -0.2704
4794000000.0 0.5776 -1.11
4797000000.0 -0.4457 -1.158
4800000000.0 -1.216 -0.3572
4803000000.0 -1.037 0.6385
4806000000.0 -0.1726 1.247
4809000000.0 0.8372 0.9547
4812000000.0 1.269 -0.02089
4816000000.0 0.8423 -1.03
4819000000.0 -0.2373 -1.312
4822000000.0 -1.168 -0.6386
4825000000.0 -1.229 0.5107
4828000000.0 -0.3931 1.278
4831000000.0 0.7763 1.16
4834000000.0 1.387 0.1397
4838000000.0 1.013 -0.9757
4841000000.0 -0.1454 -1.387
4844000000.0 -1.172 -0.7907
4847000000.0 -1.33 0.4153
4850000000.0 -0.5189 1.294
4853000000.0 0.6409 1.202
4856000000.0 1.34 0.2592
4859000000.0 1.048 -0.8401
4862000000.0 0.0007875 -1.37
4866000000.0 -1.033 -0.8236
4869000000.0 -1.301 0.3185
4872000000.0 -0.5948 1.17
4875000000.0 0.5229 1.21
4878000000.0 1.265 0.3295
4881000000.0 0.9974 -0.7727
4884000000.0 0.07302 -1.239
4888000000.0 -0.9418 -0.804
4891000000.0 -1.183 0.1988
4894000000.0 -0.5774 1.034
4897000000.0 0.4337 1.11
4900000000.0 1.082 0.3449
4903000000.0 0.9358 -0.6285
4906000000.0 0.09057 -1.105
4909000000.0 -0.7646 -0.7458
4912000000.0 -1.068 0.1357
4916000000.0 -0.5599 0.8629
4919000000.0 0.3328 0.9516
4922000000.0 0.9335 0.3591
4925000000.0 0.8336 -0.4962
4928000000.0 0.1573 -0.9701
4931000000.0 -0.6281 -0.7363
4934000000.0 -0.9606 0.07496
4938000000.0 -0.5897 0.7593
4941000000.0 0.2225 0.9294
4944000000.0 0.8302 0.4484
4947000000.0 0.8635 -0.4031
4950000000.0 0.2156 -0.9243
4953000000.0 -0.5803 -0.7942
4956000000.0 -0.9488 -0.03441
4959000000.0 -0.6409 0.6963
4962000000.0 0.1249 0.9575
4966000000.0 0.8517 0.5055
4969000000.0 0.9172 -0.3387
4972000000.0 0.3085 -0.9173
4975000000.0 -0.5251 -0.8821
4978000000.0 -1.004 -0.1005
4981000000.0 -0.7579 0.6912
4984000000.0 0.03554 1.033
4988000000.0 0.8341 0.6213
4991000000.0 1.018 -0.2712
4994000000.0 0.4748 -0.9747
4997000000.0 -0.4433 -1.026
5000000000.0 -1.08 -0.3021
5003000000.0 -0.9202 0.6458
5006000000.0 -0.09189 1.149
5009000000.0 0.8441 0.8295
5012000000.0 1.192 -0.1213
5016000000.0 0.6522 -1.044
5019000000.0 -0.3767 -1.179
5022000000.0 -1.144 -0.4553
5025000000.0 -1.077 0.5884
5028000000.0 -0.2341 1.262
5031000000.0 0.8106 0.9831
5034000000.0 1.265 0.01103
5038000000.0 0.8005 -0.9635
5041000000.0 -0.2217 -1.282
5044000000.0 -1.157 -0.6468
5047000000.0 -1.202 0.4787
5050000000.0 -0.4238 1.2
5053000000.0 0.6202 1.099
5056000000.0 1.293 0.1961
5059000000.0 0.9613 -0.8435
5062000000.0 -0.005901 -1.3
5066000000.0 -1.009 -0.799
5069000000.0 -1.271 0.2596
5072000000.0 -0.5985 1.13
5075000000.0 0.5207 1.184
5078000000.0 1.221 0.3995
5081000000.0 1.029 -0.6692
5084000000.0 0.1225 -1.22
5088000000.0 -0.8468 -0.8923
5091000000.0 -1.203 0.04873
5094000000.0 -0.7068 0.9912
5097000000.0 0.2764 1.151
5100000000.0 1.03 0.5092
5103000000.0 1.091 -0.4476
5106000000.0 0.2833 -1.088
5109000000.0 -0.6014 -0.907
5112000000.0 -1.084 -0.1611
5116000000.0 -0.7911 0.7169
5119000000.0 0.08097 1.085
5122000000.0 0.8201 0.6189
5125000000.0 1.006 -0.2137
5128000000.0 0.4973 -0.9549
5131000000.0 -0.4396 -0.9463
5134000000.0 -0.9768 -0.2652
5138000000.0 -0.8308 0.6008
5141000000.0 -0.05462 0.9916
5144000000.0 0.7053 0.6517
5147000000.0 0.9273 -0.1211
5150000000.0 0.4936 -0.7752
5153000000.0 -0.3058 -0.8697
5156000000.0 -0.8581 -0.3173
5159000000.0 -0.7681 0.4531
5162000000.0 -0.1471 0.9019
5166000000.0 0.5923 0.6658
5169000000.0 0.9033 -0.05776
5172000000.0 0.5341 -0.7408
5175000000.0 -0.2392 -0.8808
5178000000.0 -0.8407 -0.3768
5181000000.0 -0.8172 0.4012
5184000000.0 -0.1649 0.9204
5188000000.0 0.5849 0.6963
5191000000.0 0.9141 -0.02843
5194000000.0 0.589 -0.7299
5197000000.0 -0.2348 -0.9103
5200000000.0 -0.846 -0.4009
5203000000.0 -0.8589 0.3995
5206000000.0 -0.1946 0.9337
5209000000.0 0.5783 0.7346
5212000000.0 0.9747 -0.001748
5216000000.0 0.59 -0.761
5219000000.0 -0.1901 -0.9617
5222000000.0 -0.8832 -0.4674
5225000000.0 -0.9177 0.3761
5228000000.0 -0.2868 0.9694
5231000000.0 0.5837 0.8142
5234000000.0 1.013 0.07733
5238000000.0 0.7013 -0.7488
5241000000.0 -0.1484 -1.037
5244000000.0 -0.8699 -0.5718
5247000000.0 -1.013 0.3295
5250000000.0 -0.4314 0.9969
5253000000.0 0.5152 0.9449
5256000000.0 1.056 0.2045
5259000000.0 0.8522 -0.6599
5262000000.0 0.03384 -1.099
5266000000.0 -0.8304 -0.7169
5269000000.0 -1.081 0.1924
5272000000.0 -0.5716 0.933
5275000000.0 0.3538 1.023
5278000000.0 1.039 0.396
5281000000.0 0.9744 -0.5058
5284000000.0 0.2416 -1.076
5288000000.0 -0.6448 -0.8771
5291000000.0 -1.098 -0.05327
5294000000.0 -0.7536 0.799
5297000000.0 0.1321 1.122
5300000000.0 0.9316 0.644
5303000000.0 1.123 -0.2917
5306000000.0 0.4687 -1.046
5309000000.0 -0.466 -1.051
5312000000.0 -1.117 -0.2809
5316000000.0 -0.9671 0.6549
5319000000.0 -0.1444 1.186
5322000000.0 0.8381 0.8149
5325000000.0 1.14 -0.09129
5328000000.0 0.6675 -0.947
5331000000.0 -0.3107 -1.133
5334000000.0 -1.038 -0.4373
5338000000.0 -1.034 0.5384
5341000000.0 -0.2735 1.101
5344000000.0 0.6623 0.9338
5347000000.0 1.115 0.06554
5350000000.0 0.7502 -0.8057
5353000000.0 -0.1605 -1.092
5356000000.0 -0.9321 -0.5694
5359000000.0 -1.035 0.3639
5362000000.0 -0.3672 1.016
5366000000.0 0.5711 0.9351
5369000000.0 1.06 0.1318
5372000000.0 0.7329 -0.7451
5375000000.0 -0.07584 -1.06
5378000000.0 -0.8842 -0.5613
5381000000.0 -0.9648 0.3008
5384000000.0 -0.3627 0.9346
5388000000.0 0.5344 0.8001
5391000000.0 0.987 0.1246
5394000000.0 0.6715 -0.6759
5397000000.0 -0.1027 -0.9495
5400000000.0 -0.764 -0.4761
5403000000.0 -0.8579 0.3431
5406000000.0 -0.3106 0.8286
5409000000.0 0.4772 0.7587
5412000000.0 0.8647 0.08231
5416000000.0 0.609 -0.6153
5419000000.0 -0.1196 -0.8715
5422000000.0 -0.742 -0.4346
5425000000.0 -0.8161 0.3011
5428000000.0 -0.2569 0.8244
5431000000.0 0.4649 0.7397
5434000000.0 0.888 0.08206
5438000000.0 0.5831 -0.6303
5441000000.0 -0.1056 -0.8882
5444000000.0 -0.7361 -0.4427
5447000000.0 -0.8218 0.2885
5450000000.0 -0.2896 0.8233
5453000000.0 0.4612 0.7434
5456000000.0 0.9086 0.09395
5459000000.0 0.6396 -0.6121
5462000000.0 -0.05453 -0.8763
5466000000.0 -0.7319 -0.5275
5469000000.0 -0.8671 0.2707
5472000000.0 -0.4309 0.8337
5475000000.0 0.3529 0.8052
5478000000.0 0.908 0.2626
5481000000.0 0.7606 -0.557
5484000000.0 0.07824 -0.9672
5488000000.0 -0.708 -0.693
5491000000.0 -0.9716 0.07261
5494000000.0 -0.5401 0.8322
5497000000.0 0.2585 0.9566
5500000000.0 0.9227 0.3962
5503000000.0 0.905 -0.446
5506000000.0 0.2332 -0.9381
5509000000.0 -0.5646 -0.824
5512000000.0 -1.048 -0.07827
5516000000.0 -0.7216 0.7563
5519000000.0 0.1052 1.036
5522000000.0 0.844 0.6003
5525000000.0 0.9981 -0.3015
5528000000.0 0.4361 -0.9052
5531000000.0 -0.4652 -0.9666
5534000000.0 -1.007 -0.2716
5538000000.0 -0.9183 0.614
5541000000.0 -0.1029 1.037
5544000000.0 0.7597 0.7308
5547000000.0 1.064 -0.083
5550000000.0 0.6323 -0.8965
5553000000.0 -0.2683 -1.054
5556000000.0 -0.9992 -0.4649
5559000000.0 -0.9569 0.4536
5562000000.0 -0.2783 0.9997
5566000000.0 0.6005 0.8036
5569000000.0 1.039 0.06673
5572000000.0 0.6971 -0.7527
5575000000.0 -0.1283 -1.029
5578000000.0 -0.8352 -0.5422
5581000000.0 -0.9585 0.3309
5584000000.0 -0.3651 0.9122
5588000000.0 0.464 0.8553
5591000000.0 0.9134 0.1693
5594000000.0 0.7431 -0.6379
5597000000.0 -0.03014 -0.927
5600000000.0 -0.7366 -0.5917
5603000000.0 -0.9186 0.1745
5606000000.0 -0.4067 0.8127
5609000000.0 0.3487 0.828
5612000000.0 0.8383 0.2247
5616000000.0 0.7224 -0.512
5619000000.0 0.05456 -0.859
5622000000.0 -0.6371 -0.5728
5625000000.0 -0.8631 0.1212
5628000000.0 -0.4246 0.7228
5631000000.0 0.3299 0.7995
5634000000.0 0.7717 0.2651
5638000000.0 0.7327 -0.4531
5641000000.0 0.05866 -0.827
5644000000.0 -0.5992 -0.5796
5647000000.0 -0.8489 0.1034
5650000000.0 -0.4433 0.7114
5653000000.0 0.2858 0.8079
5656000000.0 0.79 0.2871
5659000000.0 0.7229 -0.4436
5662000000.0 0.09899 -0.8478
5666000000.0 -0.6209 -0.6277
5669000000.0 -0.8675 0.08831
5672000000.0 -0.475 0.7583
5675000000.0 0.3126 0.8402
5678000000.0 0.8635 0.29
5681000000.0 0.7725 -0.4709
5684000000.0 0.1154 -0.9151
5688000000.0 -0.6347 -0.6817
5691000000.0 -0.941 0.07573
5694000000.0 -0.564 0.8015
5697000000.0 0.2845 0.9347
5700000000.0 0.9361 0.3856
5703000000.0 0.8752 -0.478
5706000000.0 0.1625 -0.9977
5709000000.0 -0.6519 -0.7837
5712000000.0 -1.028 0.03313
5716000000.0 -0.6308 0.8155
5719000000.0 0.2192 1.042
5722000000.0 0.9197 0.4474
5725000000.0 0.9849 -0.3949
5728000000.0 0.3157 -0.9691
5731000000.0 -0.5973 -0.8852
5734000000.0 -1.08 -0.1087
5738000000.0 -0.7848 0.7389
5741000000.0 0.08743 1.111
5744000000.0 0.8651 0.6302
5747000000.0 1.047 -0.2639
5750000000.0 0.4423 -1.008
5753000000.0 -0.478 -0.9992
5756000000.0 -1.078 -0.2966
5759000000.0 -0.872 0.6358
5762000000.0 -0.07738 1.092
5766000000.0 0.7925 0.7822
5769000000.0 1.11 -0.1288
5772000000.0 0.6162 -0.9306
5775000000.0 -0.2877 -1.094
5778000000.0 -1.016 -0.4619
5781000000.0 -0.9981 0.5027
5784000000.0 -0.2686 1.057
5788000000.0 0.6739 0.8477
5791000000.0 1.069 0.05524
5794000000.0 0.7454 -0.7826
5797000000.0 -0.09747 -1.065
5800000000.0 -0.9094 -0.556
5803000000.0 -1.012 0.3204
5806000000.0 -0.3791 0.9757
5809000000.0 0.5162 0.9262
5812000000.0 1.046 0.1894
5816000000.0 0.8128 -0.655
5819000000.0 0.005652 -1.038
5822000000.0 -0.7806 -0.616
5825000000.0 -0.9967 0.1731
5828000000.0 -0.4515 0.8748
5831000000.0 0.3969 0.9386
5834000000.0 0.9438 0.2671
5838000000.0 0.8143 -0.5562
5841000000.0 0.08776 -0.9796
5844000000.0 -0.6921 -0.6733
5847000000.0 -0.9487 0.1157
5850000000.0 -0.4874 0.815
5853000000.0 0.3204 0.8816
5856000000.0 0.8546 0.3068
5859000000.0 0.8016 -0.4772
5862000000.0 0.09989 -0.9225
5866000000.0 -0.6242 -0.6388
5869000000.0 -0.8924 0.1206
5872000000.0 -0.5056 0.7743
5875000000.0 0.2803 0.8474
5878000000.0 0.8395 0.2944
5881000000.0 0.7494 -0.4811
5884000000.0 0.0761 -0.8475
5888000000.0 -0.5796 -0.6397
5891000000.0 -0.8483 0.08055
5894000000.0 -0.4894 0.6956
5897000000.0 0.2462 0.8212
5900000000.0 0.7946 0.3641
5903000000.0 0.7595 -0.3761
5906000000.0 0.1882 -0.8215
5909000000.0 -0.5153 -0.6641
5912000000.0 -0.8696 0.02142
5916000000.0 -0.5268 0.6557
5919000000.0 0.1924 0.875
5922000000.0 0.7651 0.4039
5925000000.0 0.8107 -0.3688
5928000000.0 0.2497 -0.8358
5931000000.0 -0.5014 -0.6899
5934000000.0 -0.8965 -0.1038
5938000000.0 -0.6319 0.6133
5941000000.0 0.07067 0.8881
5944000000.0 0.732 0.4917
5947000000.0 0.8621 -0.2389
5950000000.0 0.392 -0.8055
5953000000.0 -0.3945 -0.8367
5956000000.0 -0.8629 -0.2531
5959000000.0 -0.7249 0.5509
5962000000.0 -0.06591 0.9247
5966000000.0 0.6722 0.6652
5969000000.0 0.9236 -0.1072
5972000000.0 0.5529 -0.7868
5975000000.0 -0.2972 -0.9231
5978000000.0 -0.9059 -0.3885
5981000000.0 -0.8321 0.4483
5984000000.0 -0.2413 0.9418
5988000000.0 0.5708 0.789
5991000000.0 0.9985 0.06934
5994000000.0 0.6708 -0.7084
5997000000.0 -0.1026 -0.9936
6000000000.0 -0.8879 -0.5375
6003000000.0 -0.9398 0.3017
6006000000.0 -0.3519 0.9342
6009000000.0 0.4842 0.8863
6012000000.0 0.9784 0.1689
6016000000.0 0.7619 -0.6495
6019000000.0 -0.02802 -1.015
6022000000.0 -0.791 -0.6206
6025000000.0 -0.9493 0.2227
6028000000.0 -0.4702 0.8601
6031000000.0 0.3545 0.8984
6034000000.0 0.9339 0.2651
6038000000.0 0.8027 -0.5582
6041000000.0 0.09225 -0.9524
6044000000.0 -0.721 -0.6725
6047000000.0 -0.9629 0.08738
6050000000.0 -0.525 0.8079
6053000000.0 0.3016 0.8819
6056000000.0 0.8517 0.3366
6059000000.0 0.809 -0.4877
6062000000.0 0.1254 -0.8954
6066000000.0 -0.6472 -0.6678
6069000000.0 -0.9078 0.04746
6072000000.0 -0.5094 0.7498
6075000000.0 0.2593 0.869
6078000000.0 0.8252 0.3223
6081000000.0 0.7501 -0.4174
6084000000.0 0.1679 -0.8698
6088000000.0 -0.5624 -0.6681
6091000000.0 -0.8456 0.01939
6094000000.0 -0.5197 0.6947
6097000000.0 0.1848 0.8395
6100000000.0 0.7757 0.3517
6103000000.0 0.7641 -0.3683
6106000000.0 0.1924 -0.8245
6109000000.0 -0.499 -0.669
6112000000.0 -0.8344 -0.04261
6116000000.0 -0.5505 0.6603
6119000000.0 0.1764 0.8424
6122000000.0 0.7742 0.4164
6125000000.0 0.794 -0.3301
6128000000.0 0.2537 -0.8285
6131000000.0 -0.4957 -0.6875
6134000000.0 -0.8475 -0.05308
6138000000.0 -0.5962 0.6233
6141000000.0 0.1252 0.88
6144000000.0 0.7328 0.4538
6147000000.0 0.8518 -0.3093
6150000000.0 0.3059 -0.8253
6153000000.0 -0.4784 -0.7409
6156000000.0 -0.8896 -0.1221
6159000000.0 -0.6927 0.596
6162000000.0 0.07224 0.9138
6166000000.0 0.748 0.549
6169000000.0 0.9147 -0.2274
6172000000.0 0.4186 -0.8494
6175000000.0 -0.4026 -0.8309
6178000000.0 -0.9098 -0.2205
6181000000.0 -0.759 0.563
6184000000.0 -0.033 0.9499
6188000000.0 0.7038 0.6282
6191000000.0 0.9469 -0.1446
6194000000.0 0.4684 -0.8268
6197000000.0 -0.3323 -0.8731
6200000000.0 -0.9003 -0.3001
6203000000.0 -0.7737 0.529
6206000000.0 -0.1388 0.9273
6209000000.0 0.6001 0.6706
6212000000.0 0.9109 -0.07695
6216000000.0 0.5367 -0.7434
6219000000.0 -0.207 -0.8692
6222000000.0 -0.8419 -0.3948
6225000000.0 -0.8441 0.3518
6228000000.0 -0.2568 0.8582
6231000000.0 0.54 0.7309
6234000000.0 0.903 0.04231
6238000000.0 0.6258 -0.6364
6241000000.0 -0.1097 -0.8838
6244000000.0 -0.7372 -0.4718
6247000000.0 -0.8407 0.2496
6250000000.0 -0.3429 0.7667
6253000000.0 0.4011 0.7711
6256000000.0 0.7937 0.1832
6259000000.0 0.6694 -0.519
6262000000.0 0.05164 -0.8306
6266000000.0 -0.5987 -0.5665
