! Created with skrf 1.8.0 (http://scikit-rf.org).
# Hz S RI R 50.0 
!freq ReS11 ImS11
4000000000.0 -0.1836 -1.475
4003000000.0 -1.259 -0.7851
4006000000.0 -1.424 0.5144
4009000000.0 -0.4913 1.435
4012000000.0 0.8461 1.271
4016000000.0 1.542 0.2162
4019000000.0 1.108 -1.108
4022000000.0 -0.1228 -1.539
4025000000.0 -1.326 -0.8715
4028000000.0 -1.528 0.4605
4031000000.0 -0.5901 1.504
4034000000.0 0.8576 1.439
4038000000.0 1.623 0.2066
4041000000.0 1.167 -1.149
4044000000.0 -0.1116 -1.627
4047000000.0 -1.35 -0.9035
4050000000.0 -1.559 0.4653
4053000000.0 -0.6218 1.535
4056000000.0 0.7714 1.389
4059000000.0 1.588 0.3186
4062000000.0 1.226 -1.04
4066000000.0 0.02725 -1.613
4069000000.0 -1.242 -1.025
4072000000.0 -1.578 0.2959
4075000000.0 -0.8135 1.469
4078000000.0 0.5908 1.537
4081000000.0 1.57 0.5363
4084000000.0 1.371 -0.8598
4088000000.0 0.2443 -1.644
4091000000.0 -1.14 -1.224
4094000000.0 -1.653 0.07433
4097000000.0 -0.9622 1.333
4100000000.0 0.383 1.598
4103000000.0 1.487 0.7097
4106000000.0 1.406 -0.6526
4109000000.0 0.4514 -1.507
4112000000.0 -0.8285 -1.266
4116000000.0 -1.486 -0.1609
4119000000.0 -1.069 1.009
4122000000.0 0.04152 1.49
4125000000.0 1.127 0.9532
4128000000.0 1.468 -0.2686
4131000000.0 0.7663 -1.258
4134000000.0 -0.436 -1.425
4138000000.0 -1.347 -0.5486
4141000000.0 -1.344 0.6833
4144000000.0 -0.3683 1.453
4147000000.0 0.8593 1.23
4150000000.0 1.503 0.1212
4153000000.0 1.039 -1.115
4156000000.0 -0.1391 -1.53
4159000000.0 -1.241 -0.83
4162000000.0 -1.465 0.4109
4166000000.0 -0.6499 1.407
4169000000.0 0.6433 1.365
4172000000.0 1.422 0.3648
4175000000.0 1.272 -0.8528
4178000000.0 0.1544 -1.515
4181000000.0 -1.063 -1.07
4184000000.0 -1.502 0.1412
4188000000.0 -0.8995 1.264
4191000000.0 0.4051 1.473
4194000000.0 1.405 0.6306
4197000000.0 1.37 -0.6954
4200000000.0 0.371 -1.549
4203000000.0 -1.006 -1.273
4206000000.0 -1.66 -0.003633
4209000000.0 -1.035 1.297
4212000000.0 0.3947 1.609
4216000000.0 1.501 0.6999
4219000000.0 1.506 -0.7787
4222000000.0 0.2683 -1.658
4225000000.0 -1.144 -1.223
4228000000.0 -1.671 0.1562
4231000000.0 -0.8926 1.43
4234000000.0 0.5816 1.567
4238000000.0 1.55 0.4606
4241000000.0 1.3 -0.9578
4244000000.0 0.03228 -1.634
4247000000.0 -1.251 -1.001
4250000000.0 -1.555 0.3704
4253000000.0 -0.6291 1.416
4256000000.0 0.7196 1.379
4259000000.0 1.485 0.2395
4262000000.0 1.143 -1.002
4266000000.0 -0.1316 -1.494
4269000000.0 -1.272 -0.8188
4272000000.0 -1.395 0.4809
4275000000.0 -0.4837 1.424
4278000000.0 0.7848 1.198
4281000000.0 1.43 0.1584
4284000000.0 0.9544 -1.028
4288000000.0 -0.2004 -1.406
4291000000.0 -1.157 -0.7001
4294000000.0 -1.283 0.4688
4297000000.0 -0.4288 1.245
4300000000.0 0.6869 1.138
4303000000.0 1.29 0.2224
4306000000.0 0.9607 -0.8344
4309000000.0 0.002597 -1.28
4312000000.0 -1.009 -0.8106
4316000000.0 -1.258 0.2227
4319000000.0 -0.6274 1.145
4322000000.0 0.4645 1.208
4325000000.0 1.206 0.4458
4328000000.0 1.154 -0.6939
4331000000.0 0.2462 -1.334
4334000000.0 -0.8905 -1.054
4338000000.0 -1.375 0.01051
4341000000.0 -0.8656 1.074
4344000000.0 0.2241 1.4
4347000000.0 1.236 0.7126
4350000000.0 1.376 -0.4855
4353000000.0 0.4532 -1.357
4356000000.0 -0.7334 -1.245
4359000000.0 -1.448 -0.191
4362000000.0 -1.1 0.9761
4366000000.0 0.08594 1.484
4369000000.0 1.163 0.9142
4372000000.0 1.453 -0.3407
4375000000.0 0.6531 -1.337
4378000000.0 -0.6037 -1.368
4381000000.0 -1.471 -0.428
4384000000.0 -1.3 0.8863
4388000000.0 -0.09307 1.574
4391000000.0 1.142 1.096
4394000000.0 1.572 -0.2285
4397000000.0 0.8127 -1.374
4400000000.0 -0.515 -1.467
4403000000.0 -1.5 -0.4949
4406000000.0 -1.302 0.8651
4409000000.0 -0.1245 1.602
4412000000.0 1.175 1.089
4416000000.0 1.551 -0.2734
4419000000.0 0.7406 -1.315
4422000000.0 -0.6102 -1.407
4425000000.0 -1.462 -0.3924
4428000000.0 -1.173 0.9149
4431000000.0 -0.006538 1.463
4434000000.0 1.113 0.8894
4438000000.0 1.392 -0.3058
4441000000.0 0.5839 -1.265
4444000000.0 -0.6332 -1.209
4447000000.0 -1.334 -0.2537
4450000000.0 -0.9981 0.8719
4453000000.0 0.1095 1.332
4456000000.0 1.034 0.7102
4459000000.0 1.214 -0.3959
4462000000.0 0.3741 -1.208
4466000000.0 -0.7124 -1.048
4469000000.0 -1.21 -0.09327
4472000000.0 -0.8527 0.9306
4475000000.0 0.2055 1.17
4478000000.0 1.038 0.547
4481000000.0 1.086 -0.4773
4484000000.0 0.3094 -1.146
4488000000.0 -0.6671 -0.9212
4491000000.0 -1.151 -0.03016
4494000000.0 -0.7291 0.8587
4497000000.0 0.2493 1.123
4500000000.0 1.035 0.5171
4503000000.0 0.993 -0.4509
4506000000.0 0.2726 -1.08
4509000000.0 -0.6424 -0.8821
4512000000.0 -1.069 -0.05211
4516000000.0 -0.7395 0.8173
4519000000.0 0.1575 1.123
4522000000.0 0.9988 0.5993
4525000000.0 1.077 -0.3973
4528000000.0 0.347 -1.125
4531000000.0 -0.6401 -1.016
4534000000.0 -1.136 -0.136
4538000000.0 -0.8558 0.8085
4541000000.0 0.08859 1.189
4544000000.0 0.9579 0.7089
4547000000.0 1.127 -0.2878
4550000000.0 0.5235 -1.105
4553000000.0 -0.4987 -1.118
4556000000.0 -1.183 -0.3395
4559000000.0 -1.025 0.6776
4562000000.0 -0.1394 1.248
4566000000.0 0.8769 0.8841
4569000000.0 1.251 -0.1031
4572000000.0 0.7417 -1.052
4575000000.0 -0.2845 -1.252
4578000000.0 -1.197 -0.5605
4581000000.0 -1.179 0.5613
4584000000.0 -0.3509 1.32
4588000000.0 0.7884 1.104
4591000000.0 1.359 0.1022
4594000000.0 0.9503 -1.0
4597000000.0 -0.1621 -1.361
4600000000.0 -1.178 -0.7576
4603000000.0 -1.321 0.41
4606000000.0 -0.5036 1.302
4609000000.0 0.6776 1.236
4612000000.0 1.397 0.2353
4616000000.0 1.053 -0.9353
4619000000.0 -0.01895 -1.404
4622000000.0 -1.103 -0.8463
4625000000.0 -1.351 0.3221
4628000000.0 -0.5953 1.243
4631000000.0 0.5811 1.25
4634000000.0 1.322 0.3295
4638000000.0 1.095 -0.7947
4641000000.0 0.04119 -1.348
4644000000.0 -1.045 -0.8662
4647000000.0 -1.305 0.2476
4650000000.0 -0.6238 1.171
4653000000.0 0.5271 1.212
4656000000.0 1.267 0.321
4659000000.0 0.9744 -0.7557
4662000000.0 0.005213 -1.25
4666000000.0 -0.9761 -0.8054
4669000000.0 -1.214 0.2588
4672000000.0 -0.5083 1.102
4675000000.0 0.5135 1.077
4678000000.0 1.116 0.27
4681000000.0 0.9359 -0.6977
4684000000.0 -0.0008657 -1.106
4688000000.0 -0.8767 -0.7007
4691000000.0 -1.103 0.2435
4694000000.0 -0.4936 0.9834
4697000000.0 0.5107 1.005
4700000000.0 1.094 0.2585
4703000000.0 0.8424 -0.6911
4706000000.0 -0.01599 -1.11
4709000000.0 -0.8784 -0.6719
4712000000.0 -1.066 0.2721
4716000000.0 -0.4821 1.002
4719000000.0 0.5 0.9754
4722000000.0 1.045 0.22
4725000000.0 0.8286 -0.6677
4728000000.0 0.01913 -1.072
4731000000.0 -0.8105 -0.6522
4734000000.0 -1.009 0.2205
4738000000.0 -0.5092 0.9404
4741000000.0 0.421 0.9587
4744000000.0 1.011 0.3141
4747000000.0 0.8952 -0.5922
4750000000.0 0.1352 -1.057
4753000000.0 -0.763 -0.7628
4756000000.0 -1.106 0.07058
4759000000.0 -0.6363 0.9275
4762000000.0 0.2847 1.07
4766000000.0 1.027 0.4994
4769000000.0 1.056 -0.4916
4772000000.0 0.3096 -1.098
4775000000.0 -0.6747 -0.9598
4778000000.0 -1.171 -0.1259
4781000000.0 -0.8482 0.8508
4784000000.0 0.1031 1.219
4788000000.0 0.9681 0.6841
4791000000.0 1.199 -0.3252
4794000000.0 0.5574 -1.119
4797000000.0 -0.5318 -1.129
4800000000.0 -1.202 -0.3328
4803000000.0 -1.029 0.712
4806000000.0 -0.1375 1.246
4809000000.0 0.8715 0.9262
4812000000.0 1.289 -0.09218
4816000000.0 0.7845 -1.063
4819000000.0 -0.3196 -1.282
4822000000.0 -1.194 -0.5855
4825000000.0 -1.225 0.5581
4828000000.0 -0.345 1.327
4831000000.0 0.8154 1.095
4834000000.0 1.386 0.08383
4838000000.0 0.9511 -1.009
4841000000.0 -0.1839 -1.362
4844000000.0 -1.177 -0.7252
4847000000.0 -1.317 0.4528
4850000000.0 -0.4719 1.321
4853000000.0 0.6854 1.193
4856000000.0 1.386 0.2091
4859000000.0 1.008 -0.9482
4862000000.0 -0.08433 -1.358
4866000000.0 -1.114 -0.7699
4869000000.0 -1.275 0.3215
4872000000.0 -0.5411 1.206
4875000000.0 0.5981 1.152
4878000000.0 1.259 0.2735
4881000000.0 0.997 -0.7912
4884000000.0 0.006533 -1.255
4888000000.0 -0.9471 -0.7645
4891000000.0 -1.191 0.2603
4894000000.0 -0.5402 1.056
4897000000.0 0.4888 1.071
4900000000.0 1.098 0.3006
4903000000.0 0.8839 -0.7067
4906000000.0 0.03452 -1.092
4909000000.0 -0.8326 -0.6936
4912000000.0 -1.03 0.1992
4916000000.0 -0.4975 0.8993
4919000000.0 0.3757 0.9237
4922000000.0 0.9311 0.3126
4925000000.0 0.8139 -0.528
4928000000.0 0.09292 -0.9265
4931000000.0 -0.656 -0.6895
4934000000.0 -0.9785 0.0613
4938000000.0 -0.5369 0.7548
4941000000.0 0.2413 0.9108
4944000000.0 0.8483 0.3666
4947000000.0 0.8602 -0.4479
4950000000.0 0.1671 -0.9317
4953000000.0 -0.6125 -0.7306
4956000000.0 -0.9545 -0.006322
4959000000.0 -0.6284 0.7659
4962000000.0 0.1851 0.946
4966000000.0 0.8817 0.4803
4969000000.0 0.9102 -0.4149
4972000000.0 0.2932 -0.9758
4975000000.0 -0.5784 -0.8422
4978000000.0 -1.031 -0.08341
4981000000.0 -0.7443 0.726
4984000000.0 0.09944 1.045
4988000000.0 0.8748 0.5902
4991000000.0 1.04 -0.3066
4994000000.0 0.4301 -1.003
4997000000.0 -0.4978 -0.9806
5000000000.0 -1.089 -0.2689
5003000000.0 -0.9267 0.6891
5006000000.0 -0.03079 1.178
5009000000.0 0.8992 0.8073
5012000000.0 1.211 -0.1725
5016000000.0 0.6133 -1.074
5019000000.0 -0.4181 -1.167
5022000000.0 -1.18 -0.4178
5025000000.0 -1.094 0.6439
5028000000.0 -0.1956 1.281
5031000000.0 0.8636 0.9609
5034000000.0 1.296 -0.04081
5038000000.0 0.798 -1.005
5041000000.0 -0.3062 -1.29
5044000000.0 -1.14 -0.5827
5047000000.0 -1.183 0.4861
5050000000.0 -0.3866 1.241
5053000000.0 0.7283 1.097
5056000000.0 1.312 0.1465
5059000000.0 0.9435 -0.9165
5062000000.0 -0.1031 -1.302
5066000000.0 -1.054 -0.7734
5069000000.0 -1.244 0.3015
5072000000.0 -0.5837 1.156
5075000000.0 0.5488 1.205
5078000000.0 1.257 0.3444
5081000000.0 1.044 -0.7265
5084000000.0 0.09219 -1.251
5088000000.0 -0.8916 -0.8491
5091000000.0 -1.198 0.1071
5094000000.0 -0.6482 0.9792
5097000000.0 0.2964 1.117
5100000000.0 1.069 0.4654
5103000000.0 1.02 -0.4778
5106000000.0 0.2877 -1.075
5109000000.0 -0.6546 -0.9217
5112000000.0 -1.063 -0.1035
5116000000.0 -0.7614 0.7467
5119000000.0 0.1115 1.085
5122000000.0 0.8498 0.5496
5125000000.0 0.9914 -0.3067
5128000000.0 0.3863 -0.9231
5131000000.0 -0.4674 -0.8876
5134000000.0 -0.967 -0.228
5138000000.0 -0.7539 0.5917
5141000000.0 -0.01652 0.9895
5144000000.0 0.7175 0.6208
5147000000.0 0.943 -0.1561
5150000000.0 0.424 -0.8035
5153000000.0 -0.3171 -0.8414
5156000000.0 -0.9081 -0.2755
5159000000.0 -0.7553 0.5064
5162000000.0 -0.07748 0.9383
5166000000.0 0.6342 0.6321
5169000000.0 0.8962 -0.0963
5172000000.0 0.5392 -0.7477
5175000000.0 -0.2724 -0.8631
5178000000.0 -0.8292 -0.321
5181000000.0 -0.8074 0.4698
5184000000.0 -0.1473 0.9305
5188000000.0 0.6364 0.6795
5191000000.0 0.917 -0.06436
5194000000.0 0.5341 -0.7493
5197000000.0 -0.2728 -0.9206
5200000000.0 -0.8841 -0.3696
5203000000.0 -0.8298 0.4745
5206000000.0 -0.1413 0.9652
5209000000.0 0.6579 0.6997
5212000000.0 0.9657 -0.03205
5216000000.0 0.5542 -0.801
5219000000.0 -0.2715 -0.9397
5222000000.0 -0.8903 -0.4099
5225000000.0 -0.9038 0.4393
5228000000.0 -0.2169 1.01
5231000000.0 0.6094 0.8092
5234000000.0 1.035 0.02213
5238000000.0 0.6913 -0.7796
5241000000.0 -0.1936 -1.024
5244000000.0 -0.9196 -0.4937
5247000000.0 -1.001 0.3951
5250000000.0 -0.3342 1.03
5253000000.0 0.5663 0.9119
5256000000.0 1.066 0.1481
5259000000.0 0.8241 -0.7306
5262000000.0 -0.02784 -1.086
5266000000.0 -0.8415 -0.6478
5269000000.0 -1.071 0.212
5272000000.0 -0.5234 0.9552
5275000000.0 0.387 1.029
5278000000.0 1.049 0.3892
5281000000.0 0.9729 -0.5828
5284000000.0 0.1959 -1.108
5288000000.0 -0.7222 -0.8798
5291000000.0 -1.132 0.008533
5294000000.0 -0.7455 0.8569
5297000000.0 0.154 1.114
5300000000.0 0.9769 0.5758
5303000000.0 1.08 -0.3329
5306000000.0 0.4501 -1.051
5309000000.0 -0.5323 -1.036
5312000000.0 -1.128 -0.2482
5316000000.0 -0.9193 0.6891
5319000000.0 -0.04773 1.148
5322000000.0 0.8768 0.7799
5325000000.0 1.144 -0.144
5328000000.0 0.5939 -0.9667
5331000000.0 -0.377 -1.123
5334000000.0 -1.075 -0.4239
5338000000.0 -0.9968 0.5576
5341000000.0 -0.1819 1.111
5344000000.0 0.7352 0.8534
5347000000.0 1.119 0.02689
5350000000.0 0.7256 -0.88
5353000000.0 -0.2526 -1.076
5356000000.0 -0.9728 -0.5197
5359000000.0 -1.007 0.445
5362000000.0 -0.2854 1.034
5366000000.0 0.6049 0.8534
5369000000.0 1.059 0.07085
5372000000.0 0.707 -0.775
5375000000.0 -0.1835 -1.018
5378000000.0 -0.9239 -0.4931
5381000000.0 -0.9161 0.4062
5384000000.0 -0.2812 0.9639
5388000000.0 0.5826 0.7802
5391000000.0 0.9785 0.01175
5394000000.0 0.628 -0.745
5397000000.0 -0.1661 -0.9306
5400000000.0 -0.8323 -0.4361
5403000000.0 -0.8 0.3543
5406000000.0 -0.2241 0.8698
5409000000.0 0.5235 0.7066
5412000000.0 0.8924 0.02319
5416000000.0 0.5438 -0.6537
5419000000.0 -0.1718 -0.8588
5422000000.0 -0.7798 -0.391
5425000000.0 -0.7842 0.3431
5428000000.0 -0.2034 0.8367
5431000000.0 0.5333 0.6961
5434000000.0 0.8874 0.02106
5438000000.0 0.5478 -0.674
5441000000.0 -0.1713 -0.8712
5444000000.0 -0.7964 -0.404
5447000000.0 -0.7972 0.3496
5450000000.0 -0.2143 0.8526
5453000000.0 0.5433 0.7027
5456000000.0 0.9078 0.0478
5459000000.0 0.5993 -0.6663
5462000000.0 -0.1478 -0.8968
5466000000.0 -0.7797 -0.4723
5469000000.0 -0.8557 0.3015
5472000000.0 -0.3487 0.8422
5475000000.0 0.4213 0.8075
5478000000.0 0.9005 0.1903
5481000000.0 0.7508 -0.6113
5484000000.0 0.02306 -0.9715
5488000000.0 -0.7428 -0.629
5491000000.0 -0.9661 0.1576
5494000000.0 -0.4947 0.8751
5497000000.0 0.3827 0.9562
5500000000.0 0.9596 0.3401
5503000000.0 0.9031 -0.4975
5506000000.0 0.1688 -1.029
5509000000.0 -0.6416 -0.8102
5512000000.0 -1.013 0.05468
5516000000.0 -0.6799 0.7592
5519000000.0 0.1693 1.061
5522000000.0 0.866 0.5357
5525000000.0 0.9655 -0.3505
5528000000.0 0.3875 -0.9773
5531000000.0 -0.5137 -0.9362
5534000000.0 -1.02 -0.2227
5538000000.0 -0.82 0.6784
5541000000.0 -0.02258 1.093
5544000000.0 0.8011 0.697
5547000000.0 1.047 -0.1864
5550000000.0 0.5454 -0.9158
5553000000.0 -0.3712 -1.022
5556000000.0 -0.9813 -0.3731
5559000000.0 -0.9221 0.5374
5562000000.0 -0.1539 1.031
5566000000.0 0.6778 0.762
5569000000.0 1.061 -0.03054
5572000000.0 0.6456 -0.7915
5575000000.0 -0.1923 -0.987
5578000000.0 -0.8828 -0.4719
5581000000.0 -0.9274 0.4031
5584000000.0 -0.2709 0.9389
5588000000.0 0.5305 0.8055
5591000000.0 0.9366 0.1025
5594000000.0 0.7011 -0.6462
5597000000.0 -0.08043 -0.9194
5600000000.0 -0.7622 -0.5211
5603000000.0 -0.8655 0.2518
5606000000.0 -0.3418 0.8357
5609000000.0 0.4136 0.7668
5612000000.0 0.8821 0.1633
5616000000.0 0.6557 -0.5827
5619000000.0 -0.003797 -0.8713
5622000000.0 -0.6586 -0.5226
5625000000.0 -0.8294 0.2014
5628000000.0 -0.3565 0.7626
5631000000.0 0.3682 0.7572
5634000000.0 0.8228 0.1942
5638000000.0 0.6789 -0.5213
5641000000.0 0.01916 -0.8597
5644000000.0 -0.6526 -0.5476
5647000000.0 -0.8276 0.1859
5650000000.0 -0.3772 0.7335
5653000000.0 0.366 0.7694
5656000000.0 0.8545 0.1974
5659000000.0 0.6819 -0.5189
5662000000.0 0.03104 -0.8742
5666000000.0 -0.6742 -0.551
5669000000.0 -0.8955 0.1692
5672000000.0 -0.3933 0.7988
5675000000.0 0.3856 0.827
5678000000.0 0.8797 0.2143
5681000000.0 0.7301 -0.572
5684000000.0 0.03964 -0.914
5688000000.0 -0.7193 -0.6156
5691000000.0 -0.9584 0.1723
5694000000.0 -0.4828 0.8533
5697000000.0 0.3937 0.8897
5700000000.0 0.921 0.2843
5703000000.0 0.8338 -0.5668
5706000000.0 0.09296 -1.028
5709000000.0 -0.7333 -0.733
5712000000.0 -1.018 0.07595
5716000000.0 -0.5492 0.8576
5719000000.0 0.3079 1.011
5722000000.0 0.9523 0.3811
5725000000.0 0.9632 -0.5091
5728000000.0 0.233 -1.057
5731000000.0 -0.6943 -0.8376
5734000000.0 -1.075 -0.02626
5738000000.0 -0.7278 0.8367
5741000000.0 0.1564 1.116
5744000000.0 0.9448 0.5522
5747000000.0 1.038 -0.3798
5750000000.0 0.3885 -1.032
5753000000.0 -0.5495 -0.9543
5756000000.0 -1.122 -0.1736
5759000000.0 -0.8992 0.6853
5762000000.0 0.0152 1.129
5766000000.0 0.8739 0.7221
5769000000.0 1.083 -0.2163
5772000000.0 0.558 -0.9726
5775000000.0 -0.391 -1.042
5778000000.0 -1.04 -0.3575
5781000000.0 -0.9583 0.557
5784000000.0 -0.1942 1.073
5788000000.0 0.7234 0.8235
5791000000.0 1.101 -0.002803
5794000000.0 0.7056 -0.8511
5797000000.0 -0.2118 -1.052
5800000000.0 -0.9452 -0.5197
5803000000.0 -1.008 0.4065
5806000000.0 -0.296 0.9986
5809000000.0 0.5782 0.8597
5812000000.0 1.037 0.09354
5816000000.0 0.7295 -0.7261
5819000000.0 -0.1048 -1.037
5822000000.0 -0.8398 -0.5464
5825000000.0 -0.9703 0.2875
5828000000.0 -0.4058 0.9083
5831000000.0 0.47 0.8583
5834000000.0 0.9839 0.1829
5838000000.0 0.7523 -0.6164
5841000000.0 -0.02323 -0.9273
5844000000.0 -0.7468 -0.6081
5847000000.0 -0.9396 0.2113
5850000000.0 -0.4101 0.8313
5853000000.0 0.4366 0.8535
5856000000.0 0.8921 0.2202
5859000000.0 0.7485 -0.5825
5862000000.0 -0.01694 -0.922
5866000000.0 -0.7197 -0.5904
5869000000.0 -0.9114 0.1582
5872000000.0 -0.3929 0.7939
5875000000.0 0.3659 0.8243
5878000000.0 0.8638 0.2059
5881000000.0 0.6934 -0.5211
5884000000.0 0.01039 -0.8949
5888000000.0 -0.6706 -0.5772
5891000000.0 -0.8676 0.1557
5894000000.0 -0.4073 0.7468
5897000000.0 0.3347 0.8096
5900000000.0 0.804 0.2307
5903000000.0 0.698 -0.4692
5906000000.0 0.1176 -0.8686
5909000000.0 -0.6058 -0.5921
5912000000.0 -0.8458 0.07682
5916000000.0 -0.4942 0.7744
5919000000.0 0.2713 0.8445
5922000000.0 0.8159 0.3431
5925000000.0 0.7919 -0.3994
5928000000.0 0.1514 -0.8944
5931000000.0 -0.5531 -0.6997
5934000000.0 -0.8745 0.02348
5938000000.0 -0.5726 0.6924
5941000000.0 0.1827 0.8958
5944000000.0 0.8121 0.4299
5947000000.0 0.8432 -0.3616
5950000000.0 0.2918 -0.852
5953000000.0 -0.4624 -0.7964
5956000000.0 -0.9079 -0.1318
5959000000.0 -0.69 0.589
5962000000.0 0.03254 0.9156
5966000000.0 0.7528 0.6194
5969000000.0 0.9381 -0.1964
5972000000.0 0.4407 -0.8262
5975000000.0 -0.3625 -0.9046
5978000000.0 -0.9232 -0.3284
5981000000.0 -0.8152 0.5272
5984000000.0 -0.148 0.9964
5988000000.0 0.7086 0.7272
5991000000.0 1.005 -0.04754
5994000000.0 0.6237 -0.828
5997000000.0 -0.2538 -0.9865
6000000000.0 -0.8947 -0.4404
6003000000.0 -0.9128 0.3893
6006000000.0 -0.2702 0.9901
6009000000.0 0.5839 0.8169
6012000000.0 0.9673 0.07566
6016000000.0 0.7001 -0.7262
6019000000.0 -0.1243 -1.0
6022000000.0 -0.8414 -0.5263
6025000000.0 -0.9374 0.3071
6028000000.0 -0.3357 0.9019
6031000000.0 0.5024 0.8612
6034000000.0 0.9965 0.1528
6038000000.0 0.7319 -0.632
6041000000.0 -0.0383 -0.9461
6044000000.0 -0.7828 -0.568
6047000000.0 -0.9721 0.2347
6050000000.0 -0.3878 0.8521
6053000000.0 0.4136 0.8462
6056000000.0 0.9141 0.2219
6059000000.0 0.731 -0.564
6062000000.0 0.01903 -0.9353
6066000000.0 -0.6746 -0.591
6069000000.0 -0.8661 0.1654
6072000000.0 -0.3876 0.8108
6075000000.0 0.3751 0.8204
6078000000.0 0.8312 0.2367
6081000000.0 0.7135 -0.5065
6084000000.0 0.02946 -0.8612
6088000000.0 -0.6533 -0.5645
6091000000.0 -0.8562 0.1359
6094000000.0 -0.4541 0.7565
6097000000.0 0.3342 0.8136
6100000000.0 0.8101 0.2587
6103000000.0 0.7343 -0.4538
6106000000.0 0.1138 -0.8593
6109000000.0 -0.6426 -0.6088
6112000000.0 -0.8573 0.09347
6116000000.0 -0.493 0.7214
6119000000.0 0.2893 0.8235
6122000000.0 0.8371 0.3131
6125000000.0 0.7738 -0.4445
6128000000.0 0.1146 -0.8579
6131000000.0 -0.5809 -0.648
6134000000.0 -0.8822 0.06698
6138000000.0 -0.5095 0.7251
6141000000.0 0.2465 0.8665
6144000000.0 0.825 0.3665
6147000000.0 0.7916 -0.411
6150000000.0 0.191 -0.8666
6153000000.0 -0.5628 -0.7077
6156000000.0 -0.9159 -0.00479
6159000000.0 -0.6326 0.6909
6162000000.0 0.1864 0.9347
6166000000.0 0.8301 0.4618
6169000000.0 0.9115 -0.348
6172000000.0 0.2794 -0.8995
6175000000.0 -0.5471 -0.7645
6178000000.0 -0.9405 -0.0931
6181000000.0 -0.6719 0.6803
6184000000.0 0.09508 0.9754
6188000000.0 0.825 0.5188
6191000000.0 0.885 -0.2565
6194000000.0 0.3348 -0.887
6197000000.0 -0.4846 -0.8795
6200000000.0 -0.8943 -0.1591
6203000000.0 -0.7158 0.6089
6206000000.0 -0.002458 0.9615
6209000000.0 0.7286 0.6271
6212000000.0 0.935 -0.18
6216000000.0 0.4217 -0.8091
6219000000.0 -0.3 -0.8914
6222000000.0 -0.8921 -0.2991
6225000000.0 -0.78 0.4709
6228000000.0 -0.1411 0.8855
6231000000.0 0.6224 0.6602
6234000000.0 0.8883 -0.03734
6238000000.0 0.5198 -0.7463
6241000000.0 -0.2195 -0.864
6244000000.0 -0.8142 -0.3589
6247000000.0 -0.7933 0.359
6250000000.0 -0.2215 0.7932
6253000000.0 0.4859 0.6977
6256000000.0 0.8413 0.06586
6259000000.0 0.5769 -0.5483
6262000000.0 -0.04318 -0.7888
6266000000.0 -0.6481 -0.432
6269000000.0 -0.7866 0.2267
