! Created with skrf 1.8.0 (http://scikit-rf.org).
# Hz S RI R 50.0 
!freq ReS11 ImS11
4000000000.0 -0.228 -1.51
4003000000.0 -1.302 -0.6963
4006000000.0 -1.381 0.6035
4009000000.0 -0.4146 1.442
4012000000.0 0.864 1.238
4016000000.0 1.516 0.1066
4019000000.0 0.9885 -1.156
4022000000.0 -0.2006 -1.557
4025000000.0 -1.364 -0.7742
4028000000.0 -1.499 0.5871
4031000000.0 -0.4566 1.557
4034000000.0 0.9484 1.358
4038000000.0 1.608 0.1055
4041000000.0 1.112 -1.202
4044000000.0 -0.2738 -1.591
4047000000.0 -1.421 -0.8246
4050000000.0 -1.528 0.5791
4053000000.0 -0.501 1.549
4056000000.0 0.8762 1.351
4059000000.0 1.625 0.2165
4062000000.0 1.148 -1.076
4066000000.0 -0.09887 -1.635
4069000000.0 -1.312 -0.9347
4072000000.0 -1.577 0.3681
4075000000.0 -0.7213 1.46
4078000000.0 0.6751 1.455
4081000000.0 1.583 0.441
4084000000.0 1.299 -0.931
4088000000.0 0.1496 -1.612
4091000000.0 -1.177 -1.111
4094000000.0 -1.622 0.1965
4097000000.0 -0.8528 1.338
4100000000.0 0.5127 1.528
4103000000.0 1.476 0.5907
4106000000.0 1.374 -0.7587
4109000000.0 0.3267 -1.514
4112000000.0 -0.9066 -1.207
4116000000.0 -1.5 -0.08548
4119000000.0 -1.003 1.072
4122000000.0 0.1268 1.462
4125000000.0 1.185 0.8336
4128000000.0 1.398 -0.3335
4131000000.0 0.6885 -1.325
4134000000.0 -0.5736 -1.341
4138000000.0 -1.357 -0.4516
4141000000.0 -1.277 0.7508
4144000000.0 -0.2688 1.455
4147000000.0 0.9652 1.139
4150000000.0 1.482 0.0193
4153000000.0 0.9619 -1.152
4156000000.0 -0.2857 -1.478
4159000000.0 -1.293 -0.782
4162000000.0 -1.423 0.5043
4166000000.0 -0.5303 1.426
4169000000.0 0.7607 1.27
4172000000.0 1.486 0.2623
4175000000.0 1.143 -0.9625
4178000000.0 -0.02316 -1.48
4181000000.0 -1.133 -0.9389
4184000000.0 -1.487 0.269
4188000000.0 -0.7524 1.331
4191000000.0 0.5666 1.417
4194000000.0 1.471 0.4849
4197000000.0 1.289 -0.803
4200000000.0 0.136 -1.531
4203000000.0 -1.105 -1.161
4206000000.0 -1.626 0.1863
4209000000.0 -0.8567 1.366
4212000000.0 0.629 1.518
4216000000.0 1.603 0.4591
4219000000.0 1.361 -0.9927
4222000000.0 0.05919 -1.635
4225000000.0 -1.326 -1.014
4228000000.0 -1.628 0.417
4231000000.0 -0.6094 1.502
4234000000.0 0.8372 1.393
4238000000.0 1.588 0.1828
4241000000.0 1.1 -1.123
4244000000.0 -0.2513 -1.579
4247000000.0 -1.355 -0.7314
4250000000.0 -1.411 0.6276
4253000000.0 -0.3977 1.481
4256000000.0 0.9175 1.2
4259000000.0 1.454 0.01449
4262000000.0 0.9185 -1.205
4266000000.0 -0.3646 -1.415
4269000000.0 -1.332 -0.6009
4272000000.0 -1.282 0.6594
4275000000.0 -0.2494 1.463
4278000000.0 0.9406 1.033
4281000000.0 1.409 -0.08571
4284000000.0 0.7709 -1.155
4288000000.0 -0.3956 -1.308
4291000000.0 -1.295 -0.5214
4294000000.0 -1.171 0.6317
4297000000.0 -0.2436 1.292
4300000000.0 0.7896 1.003
4303000000.0 1.281 0.01825
4306000000.0 0.8112 -0.9792
4309000000.0 -0.1775 -1.263
4312000000.0 -1.103 -0.6721
4316000000.0 -1.195 0.401
4319000000.0 -0.4876 1.225
4322000000.0 0.6053 1.15
4325000000.0 1.292 0.299
4328000000.0 1.036 -0.8146
4331000000.0 0.03936 -1.35
4334000000.0 -1.005 -0.9502
4338000000.0 -1.364 0.1866
4341000000.0 -0.7461 1.194
4344000000.0 0.4554 1.339
4347000000.0 1.335 0.5127
4350000000.0 1.236 -0.7006
4353000000.0 0.2665 -1.424
4356000000.0 -0.9691 -1.086
4359000000.0 -1.456 0.0841
4362000000.0 -0.9456 1.181
4366000000.0 0.3172 1.435
4369000000.0 1.328 0.6752
4372000000.0 1.367 -0.5813
4375000000.0 0.4479 -1.464
4378000000.0 -0.8474 -1.237
4381000000.0 -1.533 -0.129
4384000000.0 -1.042 1.089
4388000000.0 0.1505 1.531
4391000000.0 1.33 0.8296
4394000000.0 1.499 -0.5318
4397000000.0 0.4862 -1.486
4400000000.0 -0.8575 -1.316
4403000000.0 -1.563 -0.1361
4406000000.0 -1.072 1.15
4409000000.0 0.2747 1.531
4412000000.0 1.342 0.7178
4416000000.0 1.407 -0.6038
4419000000.0 0.3453 -1.474
4422000000.0 -0.913 -1.167
4425000000.0 -1.43 -0.00627
4428000000.0 -0.8758 1.125
4431000000.0 0.3431 1.352
4434000000.0 1.276 0.5263
4438000000.0 1.169 -0.6801
4441000000.0 0.188 -1.332
4444000000.0 -0.9042 -0.9125
4447000000.0 -1.279 0.1426
4450000000.0 -0.6792 1.074
4453000000.0 0.4604 1.174
4456000000.0 1.17 0.3863
4459000000.0 1.014 -0.6877
4462000000.0 0.04094 -1.228
4466000000.0 -0.9145 -0.7679
4469000000.0 -1.154 0.2568
4472000000.0 -0.5099 1.067
4475000000.0 0.4986 1.051
4478000000.0 1.145 0.2426
4481000000.0 0.8894 -0.7167
4484000000.0 -0.05541 -1.19
4488000000.0 -0.9103 -0.717
4491000000.0 -1.122 0.2763
4494000000.0 -0.4874 1.03
4497000000.0 0.4813 1.03
4500000000.0 1.121 0.2685
4503000000.0 0.8731 -0.6889
4506000000.0 0.02707 -1.107
4509000000.0 -0.8685 -0.7225
4512000000.0 -1.128 0.2036
4516000000.0 -0.5601 1.02
4519000000.0 0.4393 1.068
4522000000.0 1.114 0.3431
4525000000.0 0.9929 -0.6699
4528000000.0 0.1076 -1.185
4531000000.0 -0.8391 -0.8625
4534000000.0 -1.197 0.09284
4538000000.0 -0.6921 0.992
4541000000.0 0.2925 1.19
4544000000.0 1.113 0.5293
4547000000.0 1.124 -0.5386
4550000000.0 0.2766 -1.208
4553000000.0 -0.732 -1.031
4556000000.0 -1.267 -0.09335
4559000000.0 -0.8537 0.9234
4562000000.0 0.1671 1.268
4566000000.0 1.081 0.7112
4569000000.0 1.236 -0.3632
4572000000.0 0.5281 -1.202
4575000000.0 -0.5782 -1.206
4578000000.0 -1.302 -0.3126
4581000000.0 -1.083 0.8215
4584000000.0 -0.06718 1.382
4588000000.0 1.015 0.9347
4591000000.0 1.388 -0.208
4594000000.0 0.7327 -1.195
4597000000.0 -0.4756 -1.347
4600000000.0 -1.325 -0.4787
4603000000.0 -1.201 0.7067
4606000000.0 -0.2178 1.393
4609000000.0 0.9556 1.017
4612000000.0 1.41 -0.09861
4616000000.0 0.7967 -1.149
4619000000.0 -0.3696 -1.341
4622000000.0 -1.267 -0.5529
4625000000.0 -1.243 0.6401
4628000000.0 -0.2399 1.341
4631000000.0 0.8677 1.01
4634000000.0 1.314 -0.01173
4638000000.0 0.8226 -1.045
4641000000.0 -0.2968 -1.296
4644000000.0 -1.198 -0.544
4647000000.0 -1.175 0.5918
4650000000.0 -0.251 1.278
4653000000.0 0.8431 0.9563
4656000000.0 1.26 -0.01145
4659000000.0 0.7077 -0.9872
4662000000.0 -0.3151 -1.18
4666000000.0 -1.102 -0.4432
4669000000.0 -1.005 0.5645
4672000000.0 -0.2044 1.152
4675000000.0 0.7306 0.8795
4678000000.0 1.093 -0.05532
4681000000.0 0.6797 -0.875
4684000000.0 -0.2909 -1.07
4688000000.0 -1.036 -0.4265
4691000000.0 -0.944 0.4824
4694000000.0 -0.1715 1.046
4697000000.0 0.6851 0.8011
4700000000.0 1.087 -0.04784
4703000000.0 0.6616 -0.8746
4706000000.0 -0.2437 -1.02
4709000000.0 -0.9822 -0.4278
4712000000.0 -0.9514 0.5188
4716000000.0 -0.1789 1.079
4719000000.0 0.6892 0.8205
4722000000.0 1.067 -0.03033
4725000000.0 0.6324 -0.8763
4728000000.0 -0.2774 -1.043
4731000000.0 -0.9767 -0.4768
4734000000.0 -0.9496 0.4502
4738000000.0 -0.2786 1.04
4741000000.0 0.6174 0.8639
4744000000.0 1.044 0.08527
4747000000.0 0.7643 -0.7988
4750000000.0 -0.08465 -1.097
4753000000.0 -0.9551 -0.6423
4756000000.0 -1.076 0.3149
4759000000.0 -0.4579 1.073
4762000000.0 0.5366 1.063
4766000000.0 1.165 0.2951
4769000000.0 0.9615 -0.7293
4772000000.0 0.06154 -1.199
4775000000.0 -0.8772 -0.8312
4778000000.0 -1.201 0.1453
4781000000.0 -0.6829 1.038
4784000000.0 0.3346 1.195
4788000000.0 1.11 0.4752
4791000000.0 1.12 -0.5742
4794000000.0 0.3258 -1.237
4797000000.0 -0.7411 -1.04
4800000000.0 -1.275 -0.1181
4803000000.0 -0.8874 0.904
4806000000.0 0.121 1.292
4809000000.0 1.063 0.7519
4812000000.0 1.259 -0.3512
4816000000.0 0.5374 -1.225
4819000000.0 -0.5993 -1.224
4822000000.0 -1.324 -0.3248
4825000000.0 -1.088 0.8271
4828000000.0 -0.03152 1.367
4831000000.0 1.043 0.9248
4834000000.0 1.355 -0.2374
4838000000.0 0.6985 -1.226
4841000000.0 -0.5065 -1.279
4844000000.0 -1.32 -0.4478
4847000000.0 -1.161 0.766
4850000000.0 -0.1526 1.355
4853000000.0 0.9361 0.9594
4856000000.0 1.327 -0.1176
4859000000.0 0.7172 -1.093
4862000000.0 -0.3689 -1.262
4866000000.0 -1.165 -0.4832
4869000000.0 -1.101 0.6107
4872000000.0 -0.2627 1.259
4875000000.0 0.8101 0.9492
4878000000.0 1.23 -0.04758
4881000000.0 0.7152 -0.9699
4884000000.0 -0.284 -1.166
4888000000.0 -1.073 -0.4937
4891000000.0 -1.037 0.5228
4894000000.0 -0.2615 1.133
4897000000.0 0.6974 0.8773
4900000000.0 1.066 -0.01151
4903000000.0 0.6331 -0.8294
4906000000.0 -0.2029 -1.013
4909000000.0 -0.906 -0.4638
4912000000.0 -0.9016 0.4255
4916000000.0 -0.2524 0.9394
4919000000.0 0.5383 0.7819
4922000000.0 0.9646 0.05249
4925000000.0 0.6697 -0.7007
4928000000.0 -0.1119 -0.9166
4931000000.0 -0.7976 -0.5034
4934000000.0 -0.8788 0.2829
4938000000.0 -0.3544 0.8631
4941000000.0 0.4564 0.8152
4944000000.0 0.9234 0.1505
4947000000.0 0.7338 -0.625
4950000000.0 -0.04777 -0.9408
4953000000.0 -0.8033 -0.606
4956000000.0 -0.9363 0.2363
4959000000.0 -0.4088 0.9148
4962000000.0 0.4205 0.9156
4966000000.0 0.982 0.2337
4969000000.0 0.8289 -0.6044
4972000000.0 0.06474 -1.041
4975000000.0 -0.7793 -0.7337
4978000000.0 -1.026 0.1687
4981000000.0 -0.5414 0.9134
4984000000.0 0.3611 1.014
4988000000.0 1.045 0.3883
4991000000.0 0.9598 -0.5568
4994000000.0 0.1874 -1.104
4997000000.0 -0.7421 -0.8812
5000000000.0 -1.183 0.007492
5003000000.0 -0.7536 0.9005
5006000000.0 0.2402 1.189
5009000000.0 1.082 0.5977
5012000000.0 1.154 -0.4714
5016000000.0 0.3636 -1.197
5019000000.0 -0.7001 -1.066
5022000000.0 -1.271 -0.1054
5025000000.0 -0.9237 0.9232
5028000000.0 0.1037 1.308
5031000000.0 1.081 0.7281
5034000000.0 1.237 -0.3744
5038000000.0 0.5251 -1.187
5041000000.0 -0.5764 -1.169
5044000000.0 -1.238 -0.2898
5047000000.0 -1.044 0.7666
5050000000.0 -0.06563 1.288
5053000000.0 0.9506 0.8507
5056000000.0 1.226 -0.1722
5059000000.0 0.6454 -1.079
5062000000.0 -0.3504 -1.203
5066000000.0 -1.171 -0.474
5069000000.0 -1.108 0.5905
5072000000.0 -0.2333 1.234
5075000000.0 0.7977 0.9471
5078000000.0 1.207 0.03952
5081000000.0 0.7641 -0.937
5084000000.0 -0.2206 -1.169
5088000000.0 -1.018 -0.5757
5091000000.0 -1.054 0.4239
5094000000.0 -0.3474 1.074
5097000000.0 0.5701 0.9848
5100000000.0 1.067 0.1877
5103000000.0 0.7788 -0.7041
5106000000.0 -0.061 -1.045
5109000000.0 -0.8101 -0.6671
5112000000.0 -1.046 0.2219
5116000000.0 -0.4707 0.8931
5119000000.0 0.4073 0.9369
5122000000.0 0.9413 0.3434
5125000000.0 0.8134 -0.5515
5128000000.0 0.0771 -0.9622
5131000000.0 -0.6803 -0.6945
5134000000.0 -0.958 0.0976
5138000000.0 -0.5148 0.7583
5141000000.0 0.2664 0.9084
5144000000.0 0.8608 0.3223
5147000000.0 0.7976 -0.4509
5150000000.0 0.1341 -0.8414
5153000000.0 -0.6105 -0.6833
5156000000.0 -0.889 0.03404
5159000000.0 -0.5073 0.7049
5162000000.0 0.2303 0.8401
5166000000.0 0.8476 0.3606
5169000000.0 0.788 -0.4077
5172000000.0 0.1897 -0.8759
5175000000.0 -0.5687 -0.6669
5178000000.0 -0.912 0.02039
5181000000.0 -0.5692 0.7085
5184000000.0 0.2077 0.9039
5188000000.0 0.8678 0.4201
5191000000.0 0.8535 -0.4139
5194000000.0 0.1907 -0.9087
5197000000.0 -0.6111 -0.7263
5200000000.0 -0.9359 0.01232
5203000000.0 -0.5865 0.7896
5206000000.0 0.227 0.9545
5209000000.0 0.8989 0.4743
5212000000.0 0.8748 -0.4276
5216000000.0 0.2316 -0.9644
5219000000.0 -0.6048 -0.7903
5222000000.0 -1.005 -0.03639
5225000000.0 -0.679 0.7584
5228000000.0 0.1567 1.012
5231000000.0 0.8916 0.525
5234000000.0 0.9984 -0.3359
5238000000.0 0.3629 -0.9927
5241000000.0 -0.5312 -0.9407
5244000000.0 -1.059 -0.1615
5247000000.0 -0.7989 0.6931
5250000000.0 0.002807 1.057
5253000000.0 0.8439 0.6859
5256000000.0 1.046 -0.2015
5259000000.0 0.5063 -0.9775
5262000000.0 -0.3908 -1.031
5266000000.0 -1.044 -0.3364
5269000000.0 -0.9541 0.556
5272000000.0 -0.1928 1.081
5275000000.0 0.7247 0.8447
5278000000.0 1.113 -0.03964
5281000000.0 0.7079 -0.8302
5284000000.0 -0.1926 -1.092
5288000000.0 -0.9443 -0.543
5291000000.0 -1.035 0.4045
5294000000.0 -0.3687 1.072
5297000000.0 0.5621 0.9385
5300000000.0 1.1 0.2038
5303000000.0 0.8628 -0.6953
5306000000.0 -0.01503 -1.1
5309000000.0 -0.8522 -0.7279
5312000000.0 -1.126 0.204
5316000000.0 -0.5305 0.9703
5319000000.0 0.4001 1.04
5322000000.0 1.054 0.3421
5325000000.0 0.9227 -0.6115
5328000000.0 0.09922 -1.077
5331000000.0 -0.7767 -0.8004
5334000000.0 -1.071 0.1201
5338000000.0 -0.5977 0.8776
5341000000.0 0.3386 1.007
5344000000.0 0.9879 0.3716
5347000000.0 0.934 -0.5333
5350000000.0 0.1388 -1.0
5353000000.0 -0.6891 -0.7245
5356000000.0 -1.016 0.07039
5359000000.0 -0.5559 0.8194
5362000000.0 0.2956 0.9394
5366000000.0 0.9108 0.3432
5369000000.0 0.8561 -0.5147
5372000000.0 0.1005 -0.9286
5375000000.0 -0.6825 -0.6326
5378000000.0 -0.9303 0.1512
5381000000.0 -0.4465 0.8063
5384000000.0 0.342 0.8474
5388000000.0 0.8642 0.2406
5391000000.0 0.7059 -0.5356
5394000000.0 0.03069 -0.8499
5397000000.0 -0.668 -0.5178
5400000000.0 -0.8285 0.1933
5403000000.0 -0.3623 0.7656
5406000000.0 0.3756 0.7559
5409000000.0 0.797 0.2045
5412000000.0 0.6545 -0.5308
5416000000.0 -0.0009833 -0.8471
5419000000.0 -0.6727 -0.5562
5422000000.0 -0.8499 0.1765
5425000000.0 -0.3978 0.7899
5428000000.0 0.3464 0.777
5431000000.0 0.8802 0.2205
5434000000.0 0.7154 -0.5475
5438000000.0 0.04856 -0.8846
5441000000.0 -0.7002 -0.6324
5444000000.0 -0.9132 0.1848
5447000000.0 -0.4435 0.8076
5450000000.0 0.3377 0.8685
5453000000.0 0.9409 0.2902
5456000000.0 0.7793 -0.5259
5459000000.0 0.1075 -0.9594
5462000000.0 -0.6592 -0.7079
5466000000.0 -0.9794 0.07695
5469000000.0 -0.5828 0.813
5472000000.0 0.2308 0.9515
5475000000.0 0.8801 0.477
5478000000.0 0.936 -0.4428
5481000000.0 0.264 -0.9611
5484000000.0 -0.5655 -0.8343
5488000000.0 -1.054 -0.08481
5491000000.0 -0.7676 0.7167
5494000000.0 0.08423 1.058
5497000000.0 0.8827 0.6308
5500000000.0 1.06 -0.2935
5503000000.0 0.4212 -1.025
5506000000.0 -0.4515 -0.975
5509000000.0 -1.042 -0.2429
5512000000.0 -0.8557 0.661
5516000000.0 -0.0108 1.087
5519000000.0 0.7987 0.7239
5522000000.0 1.066 -0.15
5525000000.0 0.5522 -0.8711
5528000000.0 -0.3448 -1.01
5531000000.0 -0.9931 -0.3425
5534000000.0 -0.9033 0.5199
5538000000.0 -0.1442 1.083
5541000000.0 0.7194 0.7693
5544000000.0 1.054 -0.08822
5547000000.0 0.5669 -0.8222
5550000000.0 -0.2799 -0.9846
5553000000.0 -0.8987 -0.3532
5556000000.0 -0.8877 0.447
5559000000.0 -0.1942 0.9573
5562000000.0 0.63 0.7438
5566000000.0 0.916 -0.004899
5569000000.0 0.5848 -0.7268
5572000000.0 -0.2254 -0.8746
5575000000.0 -0.7994 -0.3632
5578000000.0 -0.7498 0.4164
5581000000.0 -0.1835 0.8497
5584000000.0 0.5411 0.6632
5588000000.0 0.8355 -9.346e-05
5591000000.0 0.5002 -0.6728
5594000000.0 -0.2281 -0.8234
5597000000.0 -0.7297 -0.3301
5600000000.0 -0.7124 0.3824
5603000000.0 -0.1418 0.7946
5606000000.0 0.5278 0.5858
5609000000.0 0.8014 -0.04297
5612000000.0 0.4596 -0.6436
5616000000.0 -0.2259 -0.7646
5619000000.0 -0.7324 -0.312
5622000000.0 -0.6864 0.4198
5625000000.0 -0.1019 0.8056
5628000000.0 0.5706 0.5952
5631000000.0 0.7982 -0.05955
5634000000.0 0.4667 -0.6885
5638000000.0 -0.2872 -0.781
5641000000.0 -0.7969 -0.3332
5644000000.0 -0.7419 0.4575
5647000000.0 -0.08862 0.8715
5650000000.0 0.6444 0.6431
5653000000.0 0.9114 -0.09735
5656000000.0 0.4995 -0.7742
5659000000.0 -0.2679 -0.9025
5662000000.0 -0.8883 -0.361
5666000000.0 -0.8572 0.5049
5669000000.0 -0.146 0.9854
5672000000.0 0.6755 0.7411
5675000000.0 1.031 -0.08728
5678000000.0 0.5813 -0.8813
5681000000.0 -0.2736 -1.046
5684000000.0 -0.9738 -0.4371
5688000000.0 -0.9701 0.5163
5691000000.0 -0.1997 1.066
5694000000.0 0.7218 0.8745
5697000000.0 1.13 -0.01239
5700000000.0 0.6812 -0.8666
5703000000.0 -0.2562 -1.118
5706000000.0 -1.012 -0.4737
5709000000.0 -1.04 0.4777
5712000000.0 -0.2659 1.087
5716000000.0 0.6952 0.918
5719000000.0 1.137 0.02286
5722000000.0 0.7253 -0.855
5725000000.0 -0.2005 -1.129
5728000000.0 -0.9701 -0.5477
5731000000.0 -1.053 0.4088
5734000000.0 -0.2777 1.068
5738000000.0 0.6505 0.8962
5741000000.0 1.076 0.104
5744000000.0 0.7623 -0.8261
5747000000.0 -0.1615 -1.07
5750000000.0 -0.9423 -0.519
5753000000.0 -0.9793 0.3911
5756000000.0 -0.2961 1.052
5759000000.0 0.615 0.8899
5762000000.0 1.038 0.05172
5766000000.0 0.6882 -0.8245
5769000000.0 -0.2017 -1.029
5772000000.0 -0.8416 -0.4602
5775000000.0 -0.8533 0.42
5778000000.0 -0.2001 0.9519
5781000000.0 0.5928 0.7713
5784000000.0 0.9922 -0.02447
5788000000.0 0.5713 -0.7798
5791000000.0 -0.2466 -0.8911
5794000000.0 -0.9127 -0.3193
5797000000.0 -0.7882 0.5158
5800000000.0 -0.08995 0.9095
5803000000.0 0.6792 0.5616
5806000000.0 0.8917 -0.185
5809000000.0 0.3909 -0.8288
5812000000.0 -0.3895 -0.7927
5816000000.0 -0.8993 -0.1477
5819000000.0 -0.6267 0.6238
5822000000.0 0.1068 0.8849
5825000000.0 0.7549 0.4513
5828000000.0 0.812 -0.3157
5831000000.0 0.2369 -0.8897
5834000000.0 -0.5453 -0.749
5838000000.0 -0.9253 -0.07167
5841000000.0 -0.5686 0.6889
5844000000.0 0.2236 0.9148
5847000000.0 0.8302 0.4007
5850000000.0 0.8412 -0.4048
5853000000.0 0.1885 -0.9349
5856000000.0 -0.5849 -0.7139
5859000000.0 -0.9549 0.0406
5862000000.0 -0.57 0.7798
5866000000.0 0.2836 0.9478
5869000000.0 0.9061 0.3841
5872000000.0 0.8676 -0.4814
5875000000.0 0.1715 -1.024
5878000000.0 -0.6935 -0.7288
5881000000.0 -1.047 0.06276
5884000000.0 -0.5736 0.8461
5888000000.0 0.2933 0.9817
5891000000.0 0.9852 0.3946
5894000000.0 0.884 -0.5218
5897000000.0 0.1414 -1.016
5900000000.0 -0.7398 -0.75
5903000000.0 -1.022 0.1161
5906000000.0 -0.5613 0.8889
5909000000.0 0.336 0.9877
5912000000.0 0.9811 0.3331
5916000000.0 0.8925 -0.5855
5919000000.0 0.05154 -1.032
5922000000.0 -0.8058 -0.6795
5925000000.0 -1.021 0.2303
5928000000.0 -0.4008 0.9017
5931000000.0 0.4015 0.9253
5934000000.0 0.9732 0.2216
5938000000.0 0.7559 -0.6455
5941000000.0 -0.03891 -0.9708
5944000000.0 -0.802 -0.5416
5947000000.0 -0.9361 0.314
5950000000.0 -0.2848 0.877
5953000000.0 0.519 0.759
5956000000.0 0.9254 0.009665
5959000000.0 0.5769 -0.6955
5962000000.0 -0.198 -0.873
5966000000.0 -0.8011 -0.3344
5969000000.0 -0.7596 0.3899
5972000000.0 -0.1497 0.8499
5975000000.0 0.5658 0.646
5978000000.0 0.8225 -0.09607
5981000000.0 0.4685 -0.6897
5984000000.0 -0.3111 -0.7787
5988000000.0 -0.7892 -0.2617
5991000000.0 -0.7023 0.4957
5994000000.0 -0.05319 0.8145
5997000000.0 0.6094 0.5412
6000000000.0 0.8016 -0.1613
6003000000.0 0.3778 -0.7357
6006000000.0 -0.339 -0.7721
6009000000.0 -0.8221 -0.2042
6012000000.0 -0.6378 0.5211
6016000000.0 0.007712 0.8271
6019000000.0 0.6527 0.531
6022000000.0 0.825 -0.1805
6025000000.0 0.3587 -0.7731
6028000000.0 -0.3579 -0.8044
6031000000.0 -0.8804 -0.2025
6034000000.0 -0.7169 0.5434
6038000000.0 -0.02035 0.8958
6041000000.0 0.7071 0.5888
6044000000.0 0.9305 -0.1702
6047000000.0 0.4002 -0.8233
6050000000.0 -0.3956 -0.8711
6053000000.0 -0.9165 -0.2449
6056000000.0 -0.7763 0.5983
6059000000.0 -0.02267 0.9945
6062000000.0 0.7679 0.6516
6066000000.0 0.9928 -0.2155
6069000000.0 0.471 -0.9029
6072000000.0 -0.4342 -0.9235
6075000000.0 -0.9808 -0.2119
6078000000.0 -0.7815 0.6171
6081000000.0 0.01456 1.015
6084000000.0 0.7837 0.6511
6088000000.0 0.987 -0.2228
6091000000.0 0.4365 -0.9211
6094000000.0 -0.4409 -0.9171
6097000000.0 -0.9854 -0.2248
6100000000.0 -0.7646 0.6571
6103000000.0 0.01518 1.027
6106000000.0 0.7979 0.6096
6109000000.0 0.9316 -0.2445
6112000000.0 0.3829 -0.8865
6116000000.0 -0.4601 -0.8268
6119000000.0 -0.9482 -0.1424
6122000000.0 -0.7052 0.6525
6125000000.0 0.08068 0.9023
6128000000.0 0.7753 0.4849
6131000000.0 0.8303 -0.277
6134000000.0 0.2956 -0.852
6138000000.0 -0.4676 -0.7589
6141000000.0 -0.898 -0.09328
6144000000.0 -0.5848 0.6463
6147000000.0 0.1093 0.8186
6150000000.0 0.7072 0.4304
6153000000.0 0.7797 -0.3334
6156000000.0 0.2121 -0.7775
6159000000.0 -0.4991 -0.6703
6162000000.0 -0.8017 -0.02754
6166000000.0 -0.5398 0.6028
6169000000.0 0.1568 0.809
6172000000.0 0.7317 0.4169
6175000000.0 0.7556 -0.3519
6178000000.0 0.2048 -0.7613
6181000000.0 -0.4925 -0.6676
6184000000.0 -0.8489 -0.01752
6188000000.0 -0.5539 0.6396
6191000000.0 0.1749 0.8384
6194000000.0 0.7043 0.3606
6197000000.0 0.748 -0.3799
6200000000.0 0.1616 -0.846
6203000000.0 -0.5019 -0.6391
6206000000.0 -0.8485 0.01999
6209000000.0 -0.5233 0.6643
6212000000.0 0.1632 0.803
6216000000.0 0.7605 0.4013
6219000000.0 0.8006 -0.344
6222000000.0 0.1867 -0.8269
6225000000.0 -0.5191 -0.6872
6228000000.0 -0.8682 -0.02152
6231000000.0 -0.5611 0.6441
6234000000.0 0.1756 0.8537
6238000000.0 0.7839 0.403
6241000000.0 0.7664 -0.326
6244000000.0 0.2264 -0.8315
6247000000.0 -0.4956 -0.7124
6250000000.0 -0.8524 -0.05322
6253000000.0 -0.5744 0.6104
6256000000.0 0.1148 0.8373
6259000000.0 0.719 0.4136
6262000000.0 0.7795 -0.2766
6266000000.0 0.2759 -0.7584
