! Created with skrf 1.8.0 (http://scikit-rf.org).
# Hz S RI R 50.0 
!freq ReS11 ImS11
4000000000.0 0.3464 -1.449
4003000000.0 -0.9363 -1.191
4006000000.0 -1.495 -0.07922
4009000000.0 -0.9426 1.109
4012000000.0 0.2881 1.422
4016000000.0 1.313 0.7084
4019000000.0 1.429 -0.5338
4022000000.0 0.4481 -1.436
4025000000.0 -0.8675 -1.247
4028000000.0 -1.538 -0.07372
4031000000.0 -1.042 1.147
4034000000.0 0.2626 1.546
4038000000.0 1.368 0.7838
4041000000.0 1.408 -0.6149
4044000000.0 0.4258 -1.501
4047000000.0 -0.9134 -1.275
4050000000.0 -1.548 -0.09475
4053000000.0 -1.063 1.187
4056000000.0 0.2225 1.567
4059000000.0 1.314 0.7792
4062000000.0 1.478 -0.5227
4066000000.0 0.5399 -1.468
4069000000.0 -0.7879 -1.334
4072000000.0 -1.593 -0.2527
4075000000.0 -1.198 1.089
4078000000.0 0.0639 1.646
4081000000.0 1.261 1.017
4084000000.0 1.608 -0.3698
4088000000.0 0.7505 -1.482
4091000000.0 -0.6968 -1.499
4094000000.0 -1.601 -0.4339
4097000000.0 -1.306 0.9585
4100000000.0 -0.09583 1.63
4103000000.0 1.156 1.1
4106000000.0 1.582 -0.1904
4109000000.0 0.8493 -1.304
4112000000.0 -0.4797 -1.47
4116000000.0 -1.411 -0.597
4119000000.0 -1.364 0.6497
4122000000.0 -0.4137 1.511
4125000000.0 0.8263 1.248
4128000000.0 1.457 0.1496
4131000000.0 1.093 -1.007
4134000000.0 -0.01141 -1.477
4138000000.0 -1.127 -0.9528
4141000000.0 -1.492 0.2947
4144000000.0 -0.7804 1.33
4147000000.0 0.5037 1.427
4150000000.0 1.405 0.5589
4153000000.0 1.324 -0.7094
4156000000.0 0.3618 -1.49
4159000000.0 -0.936 -1.224
4162000000.0 -1.529 -0.08192
4166000000.0 -1.037 1.093
4169000000.0 0.1801 1.532
4172000000.0 1.285 0.8637
4175000000.0 1.441 -0.3977
4178000000.0 0.6331 -1.354
4181000000.0 -0.6467 -1.354
4184000000.0 -1.417 -0.3916
4188000000.0 -1.249 0.8447
4191000000.0 -0.1338 1.486
4194000000.0 1.028 1.151
4197000000.0 1.545 -0.09415
4200000000.0 0.962 -1.294
4203000000.0 -0.3747 -1.557
4206000000.0 -1.453 -0.6821
4209000000.0 -1.464 0.7257
4212000000.0 -0.4164 1.605
4216000000.0 1.016 1.321
4219000000.0 1.673 0.04431
4222000000.0 1.106 -1.325
4225000000.0 -0.3776 -1.697
4228000000.0 -1.524 -0.7547
4231000000.0 -1.581 0.7507
4234000000.0 -0.371 1.674
4238000000.0 1.09 1.298
4241000000.0 1.708 -0.05242
4244000000.0 0.9708 -1.339
4247000000.0 -0.4512 -1.635
4250000000.0 -1.533 -0.6148
4253000000.0 -1.419 0.8414
4256000000.0 -0.1926 1.645
4259000000.0 1.162 1.177
4262000000.0 1.655 -0.1982
4266000000.0 0.7898 -1.441
4269000000.0 -0.607 -1.51
4272000000.0 -1.526 -0.3845
4275000000.0 -1.242 0.9379
4278000000.0 -0.01806 1.547
4281000000.0 1.205 0.9287
4284000000.0 1.42 -0.3839
4288000000.0 0.598 -1.356
4291000000.0 -0.6827 -1.297
4294000000.0 -1.391 -0.258
4297000000.0 -1.07 0.8732
4300000000.0 0.02587 1.369
4303000000.0 1.042 0.8596
4306000000.0 1.289 -0.2795
4309000000.0 0.5837 -1.172
4312000000.0 -0.5186 -1.17
4316000000.0 -1.225 -0.3552
4319000000.0 -1.089 0.6985
4322000000.0 -0.1602 1.305
4325000000.0 0.8914 0.9468
4328000000.0 1.34 -0.04176
4331000000.0 0.8046 -1.087
4334000000.0 -0.28 -1.328
4338000000.0 -1.222 -0.5978
4341000000.0 -1.25 0.5286
4344000000.0 -0.3722 1.294
4347000000.0 0.8055 1.169
4350000000.0 1.361 0.1408
4353000000.0 0.9997 -0.9689
4356000000.0 -0.09988 -1.381
4359000000.0 -1.14 -0.8145
4362000000.0 -1.383 0.3097
4366000000.0 -0.5801 1.272
4369000000.0 0.5851 1.278
4372000000.0 1.355 0.3882
4375000000.0 1.189 -0.7836
4378000000.0 0.1805 -1.45
4381000000.0 -1.016 -1.063
4384000000.0 -1.497 0.08038
4388000000.0 -0.8571 1.19
4391000000.0 0.3898 1.461
4394000000.0 1.394 0.6777
4397000000.0 1.405 -0.6691
4400000000.0 0.4049 -1.481
4403000000.0 -0.9658 -1.272
4406000000.0 -1.564 -0.04926
4409000000.0 -1.039 1.214
4412000000.0 0.2581 1.568
4416000000.0 1.37 0.7947
4419000000.0 1.446 -0.5842
4422000000.0 0.452 -1.482
4425000000.0 -0.8947 -1.307
4428000000.0 -1.532 -0.1338
4431000000.0 -1.019 1.116
4434000000.0 0.1858 1.529
4438000000.0 1.361 0.7599
4441000000.0 1.41 -0.5786
4444000000.0 0.4112 -1.421
4447000000.0 -0.8445 -1.218
4450000000.0 -1.496 -0.1146
4453000000.0 -0.9813 1.1
4456000000.0 0.231 1.441
4459000000.0 1.251 0.6392
4462000000.0 1.31 -0.5606
4466000000.0 0.3014 -1.385
4469000000.0 -0.8639 -1.036
4472000000.0 -1.322 0.04604
4475000000.0 -0.758 1.086
4478000000.0 0.3426 1.207
4481000000.0 1.182 0.4569
4484000000.0 1.066 -0.6439
4488000000.0 0.1681 -1.209
4491000000.0 -0.8574 -0.834
4494000000.0 -1.162 0.1276
4497000000.0 -0.6197 0.9951
4500000000.0 0.3815 1.059
4503000000.0 1.053 0.321
4506000000.0 0.9211 -0.6091
4509000000.0 0.09956 -1.054
4512000000.0 -0.8015 -0.745
4516000000.0 -1.067 0.1774
4519000000.0 -0.519 0.9255
4522000000.0 0.4157 1.025
4525000000.0 1.002 0.3075
4528000000.0 0.8999 -0.6197
4531000000.0 0.1287 -1.091
4534000000.0 -0.7929 -0.7387
4538000000.0 -1.073 0.1349
4541000000.0 -0.5703 0.9357
4544000000.0 0.3549 1.034
4547000000.0 1.035 0.3831
4550000000.0 0.9744 -0.5636
4553000000.0 0.1725 -1.099
4556000000.0 -0.7405 -0.8461
4559000000.0 -1.136 0.03445
4562000000.0 -0.6879 0.8889
4566000000.0 0.2232 1.146
4569000000.0 1.0 0.5553
4572000000.0 1.086 -0.4104
4575000000.0 0.3538 -1.141
4578000000.0 -0.6294 -1.017
4581000000.0 -1.207 -0.1643
4584000000.0 -0.908 0.8175
4588000000.0 0.05108 1.255
4591000000.0 1.014 0.7766
4594000000.0 1.239 -0.3239
4597000000.0 0.576 -1.166
4600000000.0 -0.5392 -1.197
4603000000.0 -1.276 -0.3098
4606000000.0 -1.075 0.7561
4609000000.0 -0.08213 1.339
4612000000.0 0.9669 0.9432
4616000000.0 1.347 -0.1626
4619000000.0 0.731 -1.174
4622000000.0 -0.4001 -1.278
4625000000.0 -1.282 -0.4814
4628000000.0 -1.207 0.6912
4631000000.0 -0.2648 1.34
4634000000.0 0.8967 1.06
4638000000.0 1.381 -0.01365
4641000000.0 0.8482 -1.094
4644000000.0 -0.301 -1.334
4647000000.0 -1.228 -0.5909
4650000000.0 -1.246 0.5887
4653000000.0 -0.2974 1.328
4656000000.0 0.8459 1.051
4659000000.0 1.336 0.005642
4662000000.0 0.8359 -1.044
4666000000.0 -0.2822 -1.272
4669000000.0 -1.15 -0.5551
4672000000.0 -1.159 0.5524
4675000000.0 -0.2872 1.183
4678000000.0 0.7428 0.9848
4681000000.0 1.251 -0.004908
4684000000.0 0.7814 -0.9351
4688000000.0 -0.2575 -1.157
4691000000.0 -1.052 -0.5364
4694000000.0 -1.003 0.4813
4697000000.0 -0.2446 1.143
4700000000.0 0.7275 0.8845
4703000000.0 1.148 -0.0103
4706000000.0 0.6736 -0.9139
4709000000.0 -0.2807 -1.07
4712000000.0 -1.002 -0.4213
4716000000.0 -0.9318 0.5547
4719000000.0 -0.1224 1.099
4722000000.0 0.7156 0.7519
4725000000.0 1.032 -0.09772
4728000000.0 0.5584 -0.8837
4731000000.0 -0.347 -0.9691
4734000000.0 -0.9392 -0.3675
4738000000.0 -0.8647 0.4965
4741000000.0 -0.1483 0.9597
4744000000.0 0.6858 0.6958
4747000000.0 0.9897 -0.05495
4750000000.0 0.5753 -0.8334
4753000000.0 -0.2784 -0.9451
4756000000.0 -0.9284 -0.4198
4759000000.0 -0.9006 0.4786
4762000000.0 -0.2074 1.001
4766000000.0 0.6497 0.8298
4769000000.0 1.033 0.009279
4772000000.0 0.691 -0.797
4775000000.0 -0.1574 -1.031
4778000000.0 -0.9677 -0.5318
4781000000.0 -1.022 0.358
4784000000.0 -0.3574 1.047
4788000000.0 0.5608 0.942
4791000000.0 1.091 0.1582
4794000000.0 0.8404 -0.7636
4797000000.0 0.03065 -1.127
4800000000.0 -0.9042 -0.7329
4803000000.0 -1.122 0.2035
4806000000.0 -0.5935 1.014
4809000000.0 0.4085 1.062
4812000000.0 1.117 0.4095
4816000000.0 1.055 -0.5951
4819000000.0 0.1898 -1.217
4822000000.0 -0.824 -0.9672
4825000000.0 -1.272 0.04283
4828000000.0 -0.796 1.015
4831000000.0 0.2542 1.292
4834000000.0 1.207 0.6407
4838000000.0 1.242 -0.5265
4841000000.0 0.4199 -1.291
4844000000.0 -0.747 -1.104
4847000000.0 -1.341 -0.1383
4850000000.0 -0.9445 0.9439
4853000000.0 0.1304 1.37
4856000000.0 1.146 0.7814
4859000000.0 1.313 -0.3865
4862000000.0 0.5477 -1.267
4866000000.0 -0.6255 -1.216
4869000000.0 -1.346 -0.2447
4872000000.0 -1.06 0.8672
4875000000.0 0.01629 1.352
4878000000.0 1.069 0.8532
4881000000.0 1.305 -0.3052
4884000000.0 0.5973 -1.197
4888000000.0 -0.5624 -1.163
4891000000.0 -1.281 -0.293
4894000000.0 -0.9841 0.7881
4897000000.0 0.01121 1.249
4900000000.0 0.9357 0.7821
4903000000.0 1.184 -0.2274
4906000000.0 0.5383 -1.051
4909000000.0 -0.4823 -1.023
4912000000.0 -1.089 -0.287
4916000000.0 -0.8865 0.6046
4919000000.0 -0.0986 1.048
4922000000.0 0.7745 0.7132
4925000000.0 0.9992 -0.1312
4928000000.0 0.5113 -0.8482
4931000000.0 -0.3245 -0.9297
4934000000.0 -0.9317 -0.324
4938000000.0 -0.8329 0.4635
4941000000.0 -0.1628 0.9264
4944000000.0 0.6558 0.7092
4947000000.0 0.9429 -0.04704
4950000000.0 0.5681 -0.7791
4953000000.0 -0.255 -0.9141
4956000000.0 -0.8916 -0.3865
4959000000.0 -0.8421 0.415
4962000000.0 -0.1644 0.9352
4966000000.0 0.6062 0.7348
4969000000.0 0.9567 -0.01064
4972000000.0 0.5751 -0.7529
4975000000.0 -0.1987 -0.9374
4978000000.0 -0.8892 -0.4402
4981000000.0 -0.8771 0.3669
4984000000.0 -0.2747 0.9352
4988000000.0 0.5656 0.8144
4991000000.0 0.9881 0.08964
4994000000.0 0.6911 -0.7135
4997000000.0 -0.1015 -1.04
5000000000.0 -0.8994 -0.5969
5003000000.0 -1.007 0.3063
5006000000.0 -0.4077 1.014
5009000000.0 0.5262 0.9839
5012000000.0 1.055 0.2347
5016000000.0 0.8872 -0.6833
5019000000.0 0.01063 -1.161
5022000000.0 -0.8903 -0.7663
5025000000.0 -1.172 0.219
5028000000.0 -0.5923 1.034
5031000000.0 0.4655 1.131
5034000000.0 1.15 0.356
5038000000.0 1.04 -0.6697
5041000000.0 0.1624 -1.219
5044000000.0 -0.8531 -0.9165
5047000000.0 -1.258 0.08209
5050000000.0 -0.7744 0.9979
5053000000.0 0.3158 1.228
5056000000.0 1.136 0.5755
5059000000.0 1.167 -0.5267
5062000000.0 0.3822 -1.265
5066000000.0 -0.713 -1.077
5069000000.0 -1.318 -0.1068
5072000000.0 -0.9323 0.9224
5075000000.0 0.1522 1.3
5078000000.0 1.067 0.7567
5081000000.0 1.238 -0.3536
5084000000.0 0.4851 -1.188
5088000000.0 -0.5597 -1.109
5091000000.0 -1.233 -0.2672
5094000000.0 -0.9652 0.7358
5097000000.0 -0.09519 1.205
5100000000.0 0.8787 0.8096
5103000000.0 1.131 -0.1156
5106000000.0 0.6177 -0.9822
5109000000.0 -0.3578 -1.113
5112000000.0 -1.053 -0.4533
5116000000.0 -0.9995 0.4915
5119000000.0 -0.3055 1.046
5122000000.0 0.6509 0.8805
5125000000.0 1.049 0.07253
5128000000.0 0.7435 -0.7624
5131000000.0 -0.142 -1.045
5134000000.0 -0.85 -0.5711
5138000000.0 -0.9869 0.3173
5141000000.0 -0.3669 0.9933
5144000000.0 0.4572 0.8815
5147000000.0 0.9645 0.1918
5150000000.0 0.74 -0.6053
5153000000.0 0.002758 -0.9578
5156000000.0 -0.7034 -0.608
5159000000.0 -0.9075 0.1939
5162000000.0 -0.448 0.8067
5166000000.0 0.3225 0.8491
5169000000.0 0.898 0.3049
5172000000.0 0.7678 -0.5318
5175000000.0 0.07993 -0.891
5178000000.0 -0.6682 -0.6219
5181000000.0 -0.9218 0.09783
5184000000.0 -0.5038 0.759
5188000000.0 0.2803 0.8594
5191000000.0 0.8558 0.3001
5194000000.0 0.7883 -0.5038
5197000000.0 0.1081 -0.9277
5200000000.0 -0.6357 -0.6493
5203000000.0 -0.9316 0.1037
5206000000.0 -0.4927 0.7971
5209000000.0 0.2743 0.9071
5212000000.0 0.9026 0.3124
5216000000.0 0.8386 -0.4951
5219000000.0 0.1112 -0.9445
5222000000.0 -0.6606 -0.6918
5225000000.0 -0.9524 0.07628
5228000000.0 -0.5381 0.8073
5231000000.0 0.288 0.9335
5234000000.0 0.9257 0.3756
5238000000.0 0.8659 -0.4701
5241000000.0 0.1808 -1.01
5244000000.0 -0.6438 -0.7674
5247000000.0 -1.034 0.002898
5250000000.0 -0.6742 0.816
5253000000.0 0.2018 1.034
5256000000.0 0.9244 0.471
5259000000.0 0.9842 -0.3875
5262000000.0 0.3293 -1.011
5266000000.0 -0.5662 -0.8965
5269000000.0 -1.061 -0.113
5272000000.0 -0.7788 0.7334
5275000000.0 0.05444 1.057
5278000000.0 0.8565 0.6553
5281000000.0 1.078 -0.2503
5284000000.0 0.4846 -0.965
5288000000.0 -0.3962 -0.9773
5291000000.0 -1.027 -0.3368
5294000000.0 -0.9131 0.5831
5297000000.0 -0.1573 1.126
5300000000.0 0.7334 0.8207
5303000000.0 1.136 0.01314
5306000000.0 0.7051 -0.8679
5309000000.0 -0.2048 -1.109
5312000000.0 -0.9736 -0.5768
5316000000.0 -1.096 0.389
5319000000.0 -0.4075 1.069
5322000000.0 0.5649 1.007
5325000000.0 1.152 0.206
5328000000.0 0.8698 -0.7253
5331000000.0 0.01317 -1.166
5334000000.0 -0.8402 -0.7438
5338000000.0 -1.153 0.175
5341000000.0 -0.5777 0.9701
5344000000.0 0.3789 1.062
5347000000.0 1.04 0.3642
5350000000.0 0.97 -0.5865
5353000000.0 0.2022 -1.112
5356000000.0 -0.7303 -0.8458
5359000000.0 -1.133 0.03086
5362000000.0 -0.7016 0.9132
5366000000.0 0.2188 1.115
5369000000.0 0.9734 0.523
5372000000.0 0.9901 -0.473
5375000000.0 0.2815 -1.054
5378000000.0 -0.6475 -0.8716
5381000000.0 -1.062 -0.06651
5384000000.0 -0.7066 0.7684
5388000000.0 0.1897 1.041
5391000000.0 0.8945 0.4782
5394000000.0 0.921 -0.3782
5397000000.0 0.265 -0.9507
5400000000.0 -0.5818 -0.7757
5403000000.0 -0.9592 -0.05051
5406000000.0 -0.6331 0.6919
5409000000.0 0.1566 0.8974
5412000000.0 0.8062 0.4233
5416000000.0 0.8568 -0.3449
5419000000.0 0.2516 -0.8543
5422000000.0 -0.5296 -0.7482
5425000000.0 -0.888 -0.03702
5428000000.0 -0.5774 0.6387
5431000000.0 0.1419 0.875
5434000000.0 0.788 0.4109
5438000000.0 0.7883 -0.343
5441000000.0 0.2403 -0.8216
5444000000.0 -0.5485 -0.6896
5447000000.0 -0.8723 -0.03161
5450000000.0 -0.5523 0.6737
5453000000.0 0.1703 0.8676
5456000000.0 0.7623 0.3852
5459000000.0 0.7722 -0.3429
5462000000.0 0.2123 -0.8365
5466000000.0 -0.4913 -0.708
5469000000.0 -0.8846 -0.06367
5472000000.0 -0.6101 0.6784
5475000000.0 0.1113 0.8581
5478000000.0 0.7632 0.4921
5481000000.0 0.8942 -0.2846
5484000000.0 0.3144 -0.8232
5488000000.0 -0.4601 -0.8299
5491000000.0 -0.9164 -0.1948
5494000000.0 -0.7328 0.5957
5497000000.0 0.005596 0.9432
5500000000.0 0.7247 0.6258
5503000000.0 0.9785 -0.1599
5506000000.0 0.4964 -0.8564
5509000000.0 -0.3076 -0.9228
5512000000.0 -0.8936 -0.328
5516000000.0 -0.8592 0.4935
5519000000.0 -0.1825 1.009
5522000000.0 0.6305 0.7728
5525000000.0 0.9651 0.02949
5528000000.0 0.6552 -0.7538
5531000000.0 -0.1758 -1.004
5534000000.0 -0.8515 -0.5745
5538000000.0 -0.9496 0.3104
5541000000.0 -0.4151 0.9821
5544000000.0 0.4542 0.9187
5547000000.0 1.055 0.2175
5550000000.0 0.8351 -0.6238
5553000000.0 0.03395 -1.047
5556000000.0 -0.8138 -0.6959
5559000000.0 -1.053 0.1292
5562000000.0 -0.5636 0.8397
5566000000.0 0.3206 1.002
5569000000.0 0.9912 0.3835
5572000000.0 0.9423 -0.5379
5575000000.0 0.1843 -1.012
5578000000.0 -0.6524 -0.8085
5581000000.0 -1.017 0.001387
5584000000.0 -0.6544 0.7713
5588000000.0 0.1968 0.9933
5591000000.0 0.8802 0.5088
5594000000.0 0.9072 -0.3667
5597000000.0 0.3043 -0.9448
5600000000.0 -0.5184 -0.834
5603000000.0 -0.9446 -0.1157
5606000000.0 -0.6882 0.6579
5609000000.0 0.04986 0.9282
5612000000.0 0.7638 0.5472
5616000000.0 0.9047 -0.2503
5619000000.0 0.3829 -0.8148
5622000000.0 -0.3987 -0.8233
5625000000.0 -0.8713 -0.1822
5628000000.0 -0.7096 0.5411
5631000000.0 -0.02667 0.8835
5634000000.0 0.6804 0.5505
5638000000.0 0.8521 -0.1673
5641000000.0 0.4004 -0.7697
5644000000.0 -0.3377 -0.7903
5647000000.0 -0.8242 -0.2131
5650000000.0 -0.668 0.5182
5653000000.0 -0.007219 0.8688
5656000000.0 0.6222 0.5696
5659000000.0 0.8497 -0.1317
5662000000.0 0.4045 -0.7524
5666000000.0 -0.3415 -0.7848
5669000000.0 -0.8272 -0.2486
5672000000.0 -0.735 0.5089
5675000000.0 -0.03569 0.8824
5678000000.0 0.6738 0.5771
5681000000.0 0.8591 -0.1704
5684000000.0 0.408 -0.8102
5688000000.0 -0.3528 -0.8185
5691000000.0 -0.8989 -0.2496
5694000000.0 -0.7376 0.5667
5697000000.0 -0.01776 0.9321
5700000000.0 0.7178 0.6189
5703000000.0 0.9438 -0.1776
5706000000.0 0.4792 -0.8636
5709000000.0 -0.3377 -0.8928
5712000000.0 -0.9333 -0.3053
5716000000.0 -0.8172 0.5571
5719000000.0 -0.09568 0.9796
5722000000.0 0.7329 0.7022
5725000000.0 0.9872 -0.06026
5728000000.0 0.5597 -0.8599
5731000000.0 -0.301 -1.007
5734000000.0 -0.9416 -0.3826
5738000000.0 -0.9188 0.4702
5741000000.0 -0.2339 1.047
5744000000.0 0.6858 0.8399
5747000000.0 1.069 0.02943
5750000000.0 0.6846 -0.8096
5753000000.0 -0.1759 -1.068
5756000000.0 -0.9512 -0.5559
5759000000.0 -1.029 0.3562
5762000000.0 -0.3954 1.021
5766000000.0 0.5645 0.9233
5769000000.0 1.077 0.182
5772000000.0 0.832 -0.7046
5775000000.0 -0.009171 -1.098
5778000000.0 -0.8235 -0.7114
5781000000.0 -1.077 0.1969
5784000000.0 -0.5044 0.9576
5788000000.0 0.3835 1.014
5791000000.0 1.016 0.3544
5794000000.0 0.93 -0.5762
5797000000.0 0.2297 -1.098
5800000000.0 -0.6896 -0.8372
5803000000.0 -1.073 0.02409
5806000000.0 -0.6452 0.8621
5809000000.0 0.1952 1.011
5812000000.0 0.9371 0.4885
5816000000.0 0.9797 -0.4264
5819000000.0 0.3143 -0.9844
5822000000.0 -0.5715 -0.8794
5825000000.0 -1.029 -0.1287
5828000000.0 -0.7198 0.7216
5831000000.0 0.0576 1.035
5834000000.0 0.8363 0.5916
5838000000.0 0.9782 -0.2846
5841000000.0 0.3766 -0.904
5844000000.0 -0.4641 -0.8492
5847000000.0 -0.9628 -0.2184
5850000000.0 -0.7588 0.5945
5853000000.0 -0.03196 0.9926
5856000000.0 0.7538 0.6093
5859000000.0 0.9385 -0.2145
5862000000.0 0.4276 -0.8394
5866000000.0 -0.3859 -0.8688
5869000000.0 -0.9044 -0.24
5872000000.0 -0.7162 0.5816
5875000000.0 -0.01938 0.9251
5878000000.0 0.6733 0.5737
5881000000.0 0.8886 -0.1754
5884000000.0 0.407 -0.7803
5888000000.0 -0.3681 -0.8271
5891000000.0 -0.8466 -0.2136
5894000000.0 -0.6987 0.5123
5897000000.0 -0.03329 0.8527
5900000000.0 0.6386 0.5904
5903000000.0 0.8756 -0.1368
5906000000.0 0.4615 -0.7523
5909000000.0 -0.3248 -0.8203
5912000000.0 -0.7973 -0.2911
5916000000.0 -0.7248 0.4401
5919000000.0 -0.1079 0.8306
5922000000.0 0.5969 0.6
5925000000.0 0.8534 -0.06865
5928000000.0 0.4858 -0.7175
5931000000.0 -0.2425 -0.8506
5934000000.0 -0.7871 -0.3394
5938000000.0 -0.7807 0.3777
5941000000.0 -0.1879 0.8326
5944000000.0 0.526 0.6886
5947000000.0 0.8862 0.04072
5950000000.0 0.5731 -0.6613
5953000000.0 -0.1224 -0.8787
5956000000.0 -0.7299 -0.4491
5959000000.0 -0.865 0.2789
5962000000.0 -0.3332 0.8388
5966000000.0 0.4292 0.7972
5969000000.0 0.8849 0.1846
5972000000.0 0.7017 -0.5902
5975000000.0 0.03497 -0.9152
5978000000.0 -0.717 -0.6309
5981000000.0 -0.9285 0.152
5984000000.0 -0.4773 0.817
5988000000.0 0.293 0.9076
5991000000.0 0.904 0.3154
5994000000.0 0.8258 -0.4552
5997000000.0 0.1843 -0.9214
6000000000.0 -0.6266 -0.7631
6003000000.0 -0.9879 0.009217
6006000000.0 -0.6378 0.7403
6009000000.0 0.1933 0.9589
6012000000.0 0.86 0.4821
6016000000.0 0.9165 -0.3316
6019000000.0 0.3067 -0.9237
6022000000.0 -0.5363 -0.8202
6025000000.0 -0.9868 -0.1143
6028000000.0 -0.7543 0.6641
6031000000.0 0.07123 0.98
6034000000.0 0.7916 0.5561
6038000000.0 0.9428 -0.2488
6041000000.0 0.3979 -0.9008
6044000000.0 -0.428 -0.8897
6047000000.0 -0.9587 -0.2128
6050000000.0 -0.774 0.6011
6053000000.0 -0.03233 0.9658
6056000000.0 0.7099 0.635
6059000000.0 0.9455 -0.1817
6062000000.0 0.4331 -0.8177
6066000000.0 -0.3933 -0.8606
6069000000.0 -0.927 -0.2656
6072000000.0 -0.7364 0.5138
6075000000.0 -0.0571 0.9364
6078000000.0 0.6696 0.6241
6081000000.0 0.8949 -0.1029
6084000000.0 0.4733 -0.7735
6088000000.0 -0.3177 -0.8207
6091000000.0 -0.8104 -0.2829
6094000000.0 -0.7409 0.4535
6097000000.0 -0.112 0.8479
6100000000.0 0.5964 0.6262
6103000000.0 0.8771 -0.09026
6106000000.0 0.4741 -0.7219
6109000000.0 -0.2701 -0.814
6112000000.0 -0.8074 -0.2903
6116000000.0 -0.7475 0.4188
6119000000.0 -0.1484 0.8716
6122000000.0 0.5507 0.6327
6125000000.0 0.8659 -0.0326
6128000000.0 0.509 -0.6932
6131000000.0 -0.2425 -0.8361
6134000000.0 -0.7422 -0.3343
6138000000.0 -0.7547 0.3987
6141000000.0 -0.186 0.8239
6144000000.0 0.5397 0.6852
6147000000.0 0.8295 0.01623
6150000000.0 0.5315 -0.6818
6153000000.0 -0.1777 -0.8164
6156000000.0 -0.7579 -0.4024
6159000000.0 -0.814 0.3431
6162000000.0 -0.2175 0.845
6166000000.0 0.5155 0.7053
6169000000.0 0.8828 0.04751
6172000000.0 0.6298 -0.6571
6175000000.0 -0.1001 -0.8987
6178000000.0 -0.7493 -0.482
6181000000.0 -0.9005 0.2985
6184000000.0 -0.297 0.8432
6188000000.0 0.4554 0.7916
6191000000.0 0.9137 0.1436
6194000000.0 0.6966 -0.6148
6197000000.0 -0.04001 -0.9295
6200000000.0 -0.7213 -0.5262
6203000000.0 -0.8625 0.2099
6206000000.0 -0.3799 0.8499
6209000000.0 0.3602 0.8417
6212000000.0 0.874 0.252
6216000000.0 0.7563 -0.5281
6219000000.0 0.06791 -0.9073
6222000000.0 -0.6314 -0.6263
6225000000.0 -0.9036 0.1143
6228000000.0 -0.4727 0.7524
6231000000.0 0.2565 0.8167
6234000000.0 0.8139 0.321
6238000000.0 0.7966 -0.3979
6241000000.0 0.1526 -0.8468
6244000000.0 -0.5418 -0.682
6247000000.0 -0.8569 0.01968
6250000000.0 -0.5558 0.6431
6253000000.0 0.1714 0.8253
6256000000.0 0.7413 0.4056
6259000000.0 0.7789 -0.2914
6262000000.0 0.2785 -0.8016
