! Created with skrf 1.8.0 (http://scikit-rf.org).
# Hz S RI R 50.0 
!freq ReS11 ImS11
4000000000.0 -0.1428 -1.509
4003000000.0 -1.282 -0.8342
4006000000.0 -1.448 0.4759
4009000000.0 -0.5295 1.423
4012000000.0 0.7357 1.284
4016000000.0 1.469 0.2269
4019000000.0 1.127 -1.083
4022000000.0 -0.07143 -1.555
4025000000.0 -1.361 -0.9448
4028000000.0 -1.518 0.4708
4031000000.0 -0.6055 1.483
4034000000.0 0.8044 1.361
4038000000.0 1.647 0.2673
4041000000.0 1.229 -1.09
4044000000.0 -0.07242 -1.66
4047000000.0 -1.329 -0.9591
4050000000.0 -1.574 0.4801
4053000000.0 -0.656 1.469
4056000000.0 0.7331 1.513
4059000000.0 1.593 0.3443
4062000000.0 1.295 -0.9318
4066000000.0 0.04843 -1.619
4069000000.0 -1.247 -1.075
4072000000.0 -1.589 0.2326
4075000000.0 -0.8401 1.409
4078000000.0 0.5844 1.567
4081000000.0 1.578 0.5585
4084000000.0 1.408 -0.8457
4088000000.0 0.2686 -1.656
4091000000.0 -1.104 -1.22
4094000000.0 -1.66 0.08372
4097000000.0 -0.9552 1.305
4100000000.0 0.3964 1.552
4103000000.0 1.466 0.7335
4106000000.0 1.438 -0.6163
4109000000.0 0.4666 -1.5
4112000000.0 -0.8692 -1.295
4116000000.0 -1.483 -0.208
4119000000.0 -1.13 1.02
4122000000.0 0.03115 1.496
4125000000.0 1.122 0.9592
4128000000.0 1.499 -0.2244
4131000000.0 0.7953 -1.246
4134000000.0 -0.4704 -1.402
4138000000.0 -1.324 -0.6014
4141000000.0 -1.37 0.6321
4144000000.0 -0.3789 1.461
4147000000.0 0.8382 1.227
4150000000.0 1.509 0.1295
4153000000.0 1.072 -1.075
4156000000.0 -0.1092 -1.543
4159000000.0 -1.244 -0.8894
4162000000.0 -1.475 0.3581
4166000000.0 -0.6453 1.371
4169000000.0 0.6135 1.393
4172000000.0 1.471 0.4217
4175000000.0 1.244 -0.8285
4178000000.0 0.1654 -1.477
4181000000.0 -1.046 -1.087
4184000000.0 -1.517 0.06467
4188000000.0 -0.8604 1.23
4191000000.0 0.3573 1.477
4194000000.0 1.434 0.6822
4197000000.0 1.417 -0.6745
4200000000.0 0.3755 -1.54
4203000000.0 -0.9304 -1.293
4206000000.0 -1.63 -0.09139
4209000000.0 -1.09 1.254
4212000000.0 0.3503 1.636
4216000000.0 1.484 0.7211
4219000000.0 1.52 -0.7301
4222000000.0 0.3223 -1.644
4225000000.0 -1.081 -1.305
4228000000.0 -1.725 0.1066
4231000000.0 -0.9589 1.384
4234000000.0 0.5465 1.61
4238000000.0 1.559 0.5141
4241000000.0 1.329 -0.9231
4244000000.0 0.08806 -1.657
4247000000.0 -1.2 -1.083
4250000000.0 -1.568 0.3056
4253000000.0 -0.7092 1.423
4256000000.0 0.6428 1.401
4259000000.0 1.509 0.3159
4262000000.0 1.168 -0.9721
4266000000.0 -0.07635 -1.498
4269000000.0 -1.234 -0.8857
4272000000.0 -1.432 0.4516
4275000000.0 -0.5529 1.393
4278000000.0 0.7483 1.266
4281000000.0 1.437 0.2065
4284000000.0 1.034 -0.9678
4288000000.0 -0.1179 -1.402
4291000000.0 -1.173 -0.7478
4294000000.0 -1.307 0.4152
4297000000.0 -0.4635 1.248
4300000000.0 0.6441 1.167
4303000000.0 1.29 0.2763
4306000000.0 1.032 -0.8108
4309000000.0 0.01534 -1.303
4312000000.0 -1.011 -0.8363
4316000000.0 -1.27 0.1978
4319000000.0 -0.6786 1.092
4322000000.0 0.4055 1.215
4325000000.0 1.24 0.4956
4328000000.0 1.192 -0.634
4331000000.0 0.2684 -1.305
4334000000.0 -0.8436 -1.122
4338000000.0 -1.366 -0.07678
4341000000.0 -0.9348 1.051
4344000000.0 0.1912 1.362
4347000000.0 1.278 0.7502
4350000000.0 1.377 -0.4798
4353000000.0 0.5011 -1.377
4356000000.0 -0.7303 -1.265
4359000000.0 -1.425 -0.2479
4362000000.0 -1.128 0.9574
4366000000.0 0.0119 1.469
4369000000.0 1.112 0.9322
4372000000.0 1.432 -0.2912
4375000000.0 0.7071 -1.292
4378000000.0 -0.5497 -1.413
4381000000.0 -1.451 -0.4866
4384000000.0 -1.316 0.8256
4388000000.0 -0.197 1.548
4391000000.0 1.104 1.13
4394000000.0 1.555 -0.1261
4397000000.0 0.8945 -1.331
4400000000.0 -0.4946 -1.518
4403000000.0 -1.478 -0.5507
4406000000.0 -1.38 0.7933
4409000000.0 -0.2143 1.593
4412000000.0 1.12 1.11
4416000000.0 1.541 -0.1817
4419000000.0 0.7888 -1.342
4422000000.0 -0.5466 -1.432
4425000000.0 -1.419 -0.4903
4428000000.0 -1.237 0.8394
4431000000.0 -0.1016 1.495
4434000000.0 1.065 0.9325
4438000000.0 1.418 -0.2195
4441000000.0 0.6664 -1.255
4444000000.0 -0.5542 -1.258
4447000000.0 -1.328 -0.311
4450000000.0 -1.05 0.8698
4453000000.0 0.02875 1.33
4456000000.0 1.058 0.8282
4459000000.0 1.248 -0.3304
4462000000.0 0.478 -1.163
4466000000.0 -0.6537 -1.123
4469000000.0 -1.229 -0.1712
4472000000.0 -0.8565 0.8266
4475000000.0 0.1617 1.204
4478000000.0 0.9835 0.6493
4481000000.0 1.07 -0.4124
4484000000.0 0.3565 -1.093
4488000000.0 -0.6437 -0.957
4491000000.0 -1.14 -0.06979
4494000000.0 -0.7846 0.8182
4497000000.0 0.1261 1.154
4500000000.0 1.005 0.5688
4503000000.0 1.013 -0.409
4506000000.0 0.3403 -1.066
4509000000.0 -0.6107 -0.9139
4512000000.0 -1.1 -0.106
4516000000.0 -0.7716 0.7825
4519000000.0 0.1343 1.123
4522000000.0 0.9629 0.6206
4525000000.0 1.073 -0.3355
4528000000.0 0.4216 -1.037
4531000000.0 -0.5687 -1.016
4534000000.0 -1.127 -0.1923
4538000000.0 -0.9101 0.7409
4541000000.0 0.009165 1.206
4544000000.0 0.9431 0.7506
4547000000.0 1.16 -0.234
4550000000.0 0.5874 -1.061
4553000000.0 -0.4509 -1.124
4556000000.0 -1.152 -0.3745
4559000000.0 -1.034 0.6666
4562000000.0 -0.1453 1.231
4566000000.0 0.8539 0.9486
4569000000.0 1.28 -0.01872
4572000000.0 0.8119 -1.014
4575000000.0 -0.2669 -1.274
4578000000.0 -1.147 -0.6171
4581000000.0 -1.199 0.536
4584000000.0 -0.3807 1.29
4588000000.0 0.7034 1.157
4591000000.0 1.348 0.1751
4594000000.0 0.9868 -0.9412
4597000000.0 -0.09231 -1.361
4600000000.0 -1.134 -0.787
4603000000.0 -1.337 0.354
4606000000.0 -0.5954 1.272
4609000000.0 0.6096 1.242
4612000000.0 1.366 0.31
4616000000.0 1.097 -0.8662
4619000000.0 0.03793 -1.415
4622000000.0 -1.064 -0.9239
4625000000.0 -1.38 0.2467
4628000000.0 -0.654 1.232
4631000000.0 0.5466 1.307
4634000000.0 1.316 0.4078
4638000000.0 1.147 -0.7513
4641000000.0 0.1221 -1.367
4644000000.0 -1.007 -0.9285
4647000000.0 -1.371 0.2348
4650000000.0 -0.7103 1.154
4653000000.0 0.4719 1.228
4656000000.0 1.262 0.3835
4659000000.0 1.058 -0.7033
4662000000.0 0.08364 -1.235
4666000000.0 -0.9142 -0.8515
4669000000.0 -1.202 0.1933
4672000000.0 -0.5893 1.058
4675000000.0 0.4505 1.087
4678000000.0 1.139 0.3439
4681000000.0 0.9705 -0.6704
4684000000.0 0.06578 -1.154
4688000000.0 -0.8758 -0.7104
4691000000.0 -1.111 0.2009
4694000000.0 -0.5168 0.9682
4697000000.0 0.4195 1.025
4700000000.0 1.071 0.3052
4703000000.0 0.9078 -0.6665
4706000000.0 0.04369 -1.082
4709000000.0 -0.8614 -0.7196
4712000000.0 -1.053 0.2219
4716000000.0 -0.506 0.947
4719000000.0 0.4351 0.9756
4722000000.0 1.059 0.2345
4725000000.0 0.8687 -0.648
4728000000.0 0.0567 -1.043
4731000000.0 -0.8048 -0.6957
4734000000.0 -1.024 0.2147
4738000000.0 -0.4768 0.927
4741000000.0 0.3738 0.9895
4744000000.0 1.022 0.32
4747000000.0 0.9099 -0.559
4750000000.0 0.1929 -1.021
4753000000.0 -0.7392 -0.7874
4756000000.0 -1.066 0.05171
4759000000.0 -0.6492 0.8767
4762000000.0 0.2455 1.089
4766000000.0 1.017 0.5216
4769000000.0 1.057 -0.4149
4772000000.0 0.3405 -1.112
4775000000.0 -0.604 -0.9697
4778000000.0 -1.192 -0.1144
4781000000.0 -0.8433 0.804
4784000000.0 0.07723 1.164
4788000000.0 0.9567 0.7303
4791000000.0 1.201 -0.2554
4794000000.0 0.5803 -1.071
4797000000.0 -0.462 -1.158
4800000000.0 -1.179 -0.3606
4803000000.0 -1.069 0.655
4806000000.0 -0.1894 1.254
4809000000.0 0.8506 0.9364
4812000000.0 1.295 -0.04426
4816000000.0 0.8064 -1.021
4819000000.0 -0.2679 -1.306
4822000000.0 -1.204 -0.6233
4825000000.0 -1.27 0.5301
4828000000.0 -0.4052 1.341
4831000000.0 0.7594 1.156
4834000000.0 1.387 0.1415
4838000000.0 0.9765 -0.9928
4841000000.0 -0.1309 -1.41
4844000000.0 -1.146 -0.7767
4847000000.0 -1.338 0.3842
4850000000.0 -0.5392 1.277
4853000000.0 0.6677 1.214
4856000000.0 1.35 0.2806
4859000000.0 1.06 -0.8758
4862000000.0 0.02391 -1.351
4866000000.0 -1.064 -0.8166
4869000000.0 -1.29 0.2847
4872000000.0 -0.5803 1.178
4875000000.0 0.5202 1.179
4878000000.0 1.254 0.3208
4881000000.0 1.035 -0.7347
4884000000.0 0.033 -1.27
4888000000.0 -0.9308 -0.8526
4891000000.0 -1.194 0.1938
4894000000.0 -0.5811 1.052
4897000000.0 0.4455 1.102
4900000000.0 1.081 0.2939
4903000000.0 0.9482 -0.6274
4906000000.0 0.09105 -1.123
4909000000.0 -0.7905 -0.7606
4912000000.0 -1.039 0.103
4916000000.0 -0.5663 0.8651
4919000000.0 0.3277 0.9375
4922000000.0 0.9257 0.3577
4925000000.0 0.8324 -0.4918
4928000000.0 0.1479 -0.9357
4931000000.0 -0.6647 -0.7127
4934000000.0 -0.936 0.03296
4938000000.0 -0.5653 0.7267
4941000000.0 0.2193 0.9159
4944000000.0 0.8287 0.4226
4947000000.0 0.8572 -0.3766
4950000000.0 0.2314 -0.8958
4953000000.0 -0.5827 -0.7853
4956000000.0 -0.9599 -0.06822
4959000000.0 -0.6597 0.7293
4962000000.0 0.1771 0.9863
4966000000.0 0.8595 0.4858
4969000000.0 0.9405 -0.3578
4972000000.0 0.3109 -0.9278
4975000000.0 -0.5194 -0.8725
4978000000.0 -1.003 -0.1314
4981000000.0 -0.7466 0.6757
4984000000.0 0.06303 1.034
4988000000.0 0.839 0.6201
4991000000.0 1.038 -0.2503
4994000000.0 0.5013 -0.9915
4997000000.0 -0.4772 -0.9883
5000000000.0 -1.078 -0.3033
5003000000.0 -0.9299 0.6424
5006000000.0 -0.09499 1.143
5009000000.0 0.8548 0.8262
5012000000.0 1.188 -0.1442
5016000000.0 0.6742 -1.035
5019000000.0 -0.4058 -1.169
5022000000.0 -1.168 -0.4732
5025000000.0 -1.11 0.5784
5028000000.0 -0.2429 1.241
5031000000.0 0.846 0.9836
5034000000.0 1.291 0.01426
5038000000.0 0.8035 -1.022
5041000000.0 -0.2479 -1.265
5044000000.0 -1.129 -0.6554
5047000000.0 -1.213 0.4536
5050000000.0 -0.4187 1.212
5053000000.0 0.6755 1.134
5056000000.0 1.272 0.1985
5059000000.0 0.9892 -0.8694
5062000000.0 -0.04589 -1.319
5066000000.0 -1.046 -0.8052
5069000000.0 -1.263 0.2621
5072000000.0 -0.5896 1.131
5075000000.0 0.4879 1.203
5078000000.0 1.224 0.3707
5081000000.0 1.095 -0.6911
5084000000.0 0.1531 -1.255
5088000000.0 -0.844 -0.8691
5091000000.0 -1.251 0.09909
5094000000.0 -0.6899 0.9731
5097000000.0 0.2785 1.141
5100000000.0 1.026 0.5417
5103000000.0 1.035 -0.4512
5106000000.0 0.3231 -1.037
5109000000.0 -0.5953 -0.9721
5112000000.0 -1.087 -0.1295
5116000000.0 -0.8115 0.7446
5119000000.0 0.07968 1.033
5122000000.0 0.8561 0.6483
5125000000.0 0.9908 -0.2216
5128000000.0 0.4563 -0.9323
5131000000.0 -0.4437 -0.9062
5134000000.0 -0.9491 -0.2711
5138000000.0 -0.8106 0.5943
5141000000.0 -0.058 0.9759
5144000000.0 0.7127 0.623
5147000000.0 0.9795 -0.1094
5150000000.0 0.4981 -0.7936
5153000000.0 -0.3362 -0.887
5156000000.0 -0.8701 -0.3623
5159000000.0 -0.8248 0.48
5162000000.0 -0.1501 0.9131
5166000000.0 0.6279 0.691
5169000000.0 0.9255 -0.04746
5172000000.0 0.5418 -0.726
5175000000.0 -0.203 -0.8727
5178000000.0 -0.8626 -0.3549
5181000000.0 -0.8502 0.4424
5184000000.0 -0.2134 0.8829
5188000000.0 0.5787 0.7183
5191000000.0 0.9243 -0.00741
5194000000.0 0.546 -0.7571
5197000000.0 -0.2472 -0.9077
5200000000.0 -0.8831 -0.4127
5203000000.0 -0.8661 0.4114
5206000000.0 -0.1938 0.9374
5209000000.0 0.5958 0.7362
5212000000.0 0.9899 -0.009043
5216000000.0 0.6053 -0.742
5219000000.0 -0.1924 -0.9747
5222000000.0 -0.8674 -0.4261
5225000000.0 -0.9107 0.3818
5228000000.0 -0.2617 0.9741
5231000000.0 0.5818 0.7994
5234000000.0 1.023 0.07263
5238000000.0 0.7281 -0.7466
5241000000.0 -0.1184 -1.041
5244000000.0 -0.9237 -0.5456
5247000000.0 -1.012 0.3177
5250000000.0 -0.3849 1.002
5253000000.0 0.4984 0.9103
5256000000.0 1.051 0.1998
5259000000.0 0.8483 -0.6787
5262000000.0 -0.002173 -1.08
5266000000.0 -0.8263 -0.7041
5269000000.0 -1.074 0.1786
5272000000.0 -0.5507 0.8989
5275000000.0 0.3497 1.05
5278000000.0 1.03 0.3684
5281000000.0 0.9707 -0.4957
5284000000.0 0.2232 -1.079
5288000000.0 -0.6875 -0.8742
5291000000.0 -1.151 -0.03324
5294000000.0 -0.7714 0.8196
5297000000.0 0.1165 1.09
5300000000.0 0.9553 0.6404
5303000000.0 1.054 -0.2841
5306000000.0 0.4551 -1.026
5309000000.0 -0.4892 -1.015
5312000000.0 -1.08 -0.3106
5316000000.0 -0.9637 0.6774
5319000000.0 -0.1062 1.165
5322000000.0 0.8234 0.812
5325000000.0 1.169 -0.1002
5328000000.0 0.6425 -0.9407
5331000000.0 -0.2905 -1.119
5334000000.0 -1.059 -0.4647
5338000000.0 -1.034 0.533
5341000000.0 -0.2879 1.089
5344000000.0 0.6395 0.8895
5347000000.0 1.117 0.07183
5350000000.0 0.7478 -0.8236
5353000000.0 -0.1564 -1.116
5356000000.0 -0.9477 -0.564
5359000000.0 -1.062 0.3824
5362000000.0 -0.3639 1.048
5366000000.0 0.5634 0.9251
5369000000.0 1.049 0.1385
5372000000.0 0.7584 -0.7525
5375000000.0 -0.1159 -1.04
5378000000.0 -0.8574 -0.5535
5381000000.0 -1.002 0.3003
5384000000.0 -0.3145 0.961
5388000000.0 0.5218 0.8463
5391000000.0 0.9805 0.1056
5394000000.0 0.6771 -0.6883
5397000000.0 -0.1185 -0.9369
5400000000.0 -0.7999 -0.4809
5403000000.0 -0.8892 0.311
5406000000.0 -0.2943 0.8352
5409000000.0 0.5 0.7472
5412000000.0 0.9049 0.07648
5416000000.0 0.6193 -0.6232
5419000000.0 -0.1291 -0.84
5422000000.0 -0.7545 -0.4691
5425000000.0 -0.8117 0.3054
5428000000.0 -0.2859 0.8299
5431000000.0 0.4773 0.7366
5434000000.0 0.8859 0.07687
5438000000.0 0.6079 -0.6297
5441000000.0 -0.1065 -0.8899
5444000000.0 -0.755 -0.4656
5447000000.0 -0.8345 0.3273
5450000000.0 -0.287 0.8484
5453000000.0 0.4714 0.7791
5456000000.0 0.8724 0.125
5459000000.0 0.6631 -0.599
5462000000.0 -0.07664 -0.8943
5466000000.0 -0.7213 -0.5205
5469000000.0 -0.8817 0.1949
5472000000.0 -0.3649 0.8288
5475000000.0 0.4027 0.8037
5478000000.0 0.9464 0.1826
5481000000.0 0.764 -0.5804
5484000000.0 0.06577 -0.9495
5488000000.0 -0.7064 -0.6626
5491000000.0 -0.9869 0.1174
5494000000.0 -0.5342 0.8221
5497000000.0 0.2747 0.9651
5500000000.0 0.9109 0.4251
5503000000.0 0.9136 -0.442
5506000000.0 0.2092 -0.9961
5509000000.0 -0.5886 -0.8223
5512000000.0 -1.006 -0.07807
5516000000.0 -0.7193 0.7479
5519000000.0 0.109 1.064
5522000000.0 0.8702 0.5841
5525000000.0 1.031 -0.2824
5528000000.0 0.4527 -0.961
5531000000.0 -0.4337 -0.9596
5534000000.0 -1.022 -0.303
5538000000.0 -0.8431 0.6207
5541000000.0 -0.126 1.077
5544000000.0 0.7369 0.7375
5547000000.0 1.063 -0.1022
5550000000.0 0.5882 -0.898
5553000000.0 -0.2867 -1.055
5556000000.0 -0.9551 -0.4264
5559000000.0 -0.9772 0.4748
5562000000.0 -0.2364 1.032
5566000000.0 0.622 0.8097
5569000000.0 1.017 0.03947
5572000000.0 0.7107 -0.7606
5575000000.0 -0.1339 -1.001
5578000000.0 -0.8875 -0.5501
5581000000.0 -0.908 0.2889
5584000000.0 -0.3489 0.9167
5588000000.0 0.5058 0.843
5591000000.0 0.972 0.1781
5594000000.0 0.7334 -0.5994
5597000000.0 -0.007083 -0.9479
5600000000.0 -0.7167 -0.5815
5603000000.0 -0.9244 0.1844
5606000000.0 -0.4126 0.7932
5609000000.0 0.3895 0.8213
5612000000.0 0.8694 0.2418
5616000000.0 0.6966 -0.5258
5619000000.0 0.05607 -0.8712
5622000000.0 -0.6523 -0.5816
5625000000.0 -0.8236 0.1188
5628000000.0 -0.4248 0.7325
5631000000.0 0.2909 0.8007
5634000000.0 0.823 0.2494
5638000000.0 0.7228 -0.449
5641000000.0 0.1022 -0.8615
5644000000.0 -0.6045 -0.5967
5647000000.0 -0.8392 0.1035
5650000000.0 -0.4206 0.7122
5653000000.0 0.2877 0.8062
5656000000.0 0.8145 0.2737
5659000000.0 0.7229 -0.4624
5662000000.0 0.09479 -0.8567
5666000000.0 -0.6121 -0.6121
5669000000.0 -0.8896 0.1011
5672000000.0 -0.4756 0.7305
5675000000.0 0.3116 0.8293
5678000000.0 0.8687 0.3122
5681000000.0 0.7717 -0.4906
5684000000.0 0.1059 -0.9442
5688000000.0 -0.6493 -0.6887
5691000000.0 -0.9498 0.07182
5694000000.0 -0.5388 0.8162
5697000000.0 0.285 0.927
5700000000.0 0.9086 0.3709
5703000000.0 0.8711 -0.4806
5706000000.0 0.1479 -1.004
5709000000.0 -0.6652 -0.7851
5712000000.0 -1.021 0.004792
5716000000.0 -0.6742 0.8286
5719000000.0 0.232 1.012
5722000000.0 0.9232 0.5094
5725000000.0 0.9709 -0.4397
5728000000.0 0.2772 -0.9995
5731000000.0 -0.588 -0.9011
5734000000.0 -1.1 -0.1083
5738000000.0 -0.7821 0.7665
5741000000.0 0.06811 1.097
5744000000.0 0.8624 0.6457
5747000000.0 1.082 -0.3064
5750000000.0 0.4587 -0.9975
5753000000.0 -0.4809 -0.9964
5756000000.0 -1.09 -0.2688
5759000000.0 -0.8805 0.6455
5762000000.0 -0.08035 1.119
5766000000.0 0.7921 0.7664
5769000000.0 1.117 -0.1442
5772000000.0 0.6283 -0.9425
5775000000.0 -0.3074 -1.076
5778000000.0 -1.013 -0.4253
5781000000.0 -1.001 0.4979
5784000000.0 -0.2607 1.07
5788000000.0 0.6448 0.8578
5791000000.0 1.073 0.01258
5794000000.0 0.7269 -0.796
5797000000.0 -0.165 -1.07
5800000000.0 -0.9138 -0.5636
5803000000.0 -1.018 0.3198
5806000000.0 -0.3604 0.9336
5809000000.0 0.5324 0.9159
5812000000.0 1.02 0.2124
5816000000.0 0.7834 -0.6852
5819000000.0 -0.01574 -1.036
5822000000.0 -0.8119 -0.6418
5825000000.0 -1.001 0.2057
5828000000.0 -0.4902 0.9025
5831000000.0 0.4217 0.9077
5834000000.0 0.9436 0.2556
5838000000.0 0.7953 -0.5852
5841000000.0 0.1071 -0.9882
5844000000.0 -0.7031 -0.6653
5847000000.0 -0.9898 0.1103
5850000000.0 -0.4853 0.8323
5853000000.0 0.34 0.9039
5856000000.0 0.8974 0.3068
5859000000.0 0.8054 -0.5212
5862000000.0 0.07356 -0.9024
5866000000.0 -0.6581 -0.6513
5869000000.0 -0.9126 0.09451
5872000000.0 -0.4762 0.7795
5875000000.0 0.2876 0.8661
5878000000.0 0.8217 0.2784
5881000000.0 0.7795 -0.4656
5884000000.0 0.1125 -0.8832
5888000000.0 -0.6043 -0.6255
5891000000.0 -0.8952 0.08292
5894000000.0 -0.4927 0.6712
5897000000.0 0.2317 0.8229
5900000000.0 0.7877 0.3435
5903000000.0 0.7727 -0.391
5906000000.0 0.1387 -0.8445
5909000000.0 -0.5682 -0.6919
5912000000.0 -0.8599 0.01612
5916000000.0 -0.5546 0.6739
5919000000.0 0.171 0.8576
5922000000.0 0.7643 0.4075
5925000000.0 0.8283 -0.3392
5928000000.0 0.2781 -0.8303
5931000000.0 -0.5509 -0.7359
5934000000.0 -0.8923 -0.07677
5938000000.0 -0.6146 0.6061
5941000000.0 0.07635 0.901
5944000000.0 0.7019 0.506
5947000000.0 0.8698 -0.2507
5950000000.0 0.3735 -0.8382
5953000000.0 -0.3822 -0.8096
5956000000.0 -0.8971 -0.2332
5959000000.0 -0.733 0.5644
5962000000.0 -0.06936 0.9432
5966000000.0 0.6861 0.6829
5969000000.0 0.9424 -0.09931
5972000000.0 0.5677 -0.7726
5975000000.0 -0.2625 -0.9318
5978000000.0 -0.8964 -0.3933
5981000000.0 -0.8793 0.4494
5984000000.0 -0.2168 0.9643
5988000000.0 0.5975 0.7918
5991000000.0 0.9876 0.02544
5994000000.0 0.671 -0.749
5997000000.0 -0.142 -1.008
6000000000.0 -0.871 -0.5054
6003000000.0 -0.937 0.2992
6006000000.0 -0.3603 0.921
6009000000.0 0.4811 0.8871
6012000000.0 1.015 0.1914
6016000000.0 0.7611 -0.6603
6019000000.0 -0.01264 -0.9896
6022000000.0 -0.801 -0.6057
6025000000.0 -0.972 0.2221
6028000000.0 -0.4284 0.8918
6031000000.0 0.3792 0.9213
6034000000.0 0.9382 0.2795
6038000000.0 0.8104 -0.5636
6041000000.0 0.0582 -0.956
6044000000.0 -0.7081 -0.6848
6047000000.0 -0.9461 0.1336
6050000000.0 -0.4962 0.8205
6053000000.0 0.3026 0.9053
6056000000.0 0.8815 0.3054
6059000000.0 0.7913 -0.4946
6062000000.0 0.1107 -0.9164
6066000000.0 -0.6692 -0.6733
6069000000.0 -0.8927 0.09139
6072000000.0 -0.5165 0.773
6075000000.0 0.2584 0.8512
6078000000.0 0.8202 0.3229
6081000000.0 0.7732 -0.4348
6084000000.0 0.1433 -0.8703
6088000000.0 -0.5555 -0.6769
6091000000.0 -0.8982 0.0314
6094000000.0 -0.545 0.6905
6097000000.0 0.1935 0.8464
6100000000.0 0.7738 0.3426
6103000000.0 0.7824 -0.361
6106000000.0 0.1793 -0.8338
6109000000.0 -0.5056 -0.6925
6112000000.0 -0.8369 -0.04052
6116000000.0 -0.5648 0.6592
6119000000.0 0.1437 0.8567
6122000000.0 0.7738 0.3994
6125000000.0 0.8045 -0.3483
6128000000.0 0.2334 -0.8462
6131000000.0 -0.5066 -0.7264
6134000000.0 -0.8572 -0.07314
6138000000.0 -0.6156 0.6899
6141000000.0 0.09962 0.8397
6144000000.0 0.7673 0.4511
6147000000.0 0.8233 -0.2946
6150000000.0 0.3089 -0.8448
6153000000.0 -0.4532 -0.7556
6156000000.0 -0.8642 -0.1296
6159000000.0 -0.6705 0.6167
6162000000.0 0.08109 0.9069
6166000000.0 0.7408 0.5138
6169000000.0 0.8857 -0.2522
6172000000.0 0.3583 -0.8547
6175000000.0 -0.4074 -0.8339
6178000000.0 -0.924 -0.1996
6181000000.0 -0.7485 0.5604
6184000000.0 -0.01761 0.9592
6188000000.0 0.7074 0.645
6191000000.0 0.9356 -0.137
6194000000.0 0.4712 -0.8535
6197000000.0 -0.3302 -0.8927
6200000000.0 -0.8935 -0.3187
6203000000.0 -0.7795 0.4971
6206000000.0 -0.1101 0.9184
6209000000.0 0.653 0.6658
6212000000.0 0.9395 -0.0561
6216000000.0 0.5221 -0.7781
6219000000.0 -0.2043 -0.8957
6222000000.0 -0.8208 -0.3986
6225000000.0 -0.8283 0.3934
6228000000.0 -0.2272 0.8958
6231000000.0 0.5047 0.7211
6234000000.0 0.8993 0.06725
6238000000.0 0.6249 -0.6445
6241000000.0 -0.1097 -0.8355
6244000000.0 -0.7421 -0.4942
6247000000.0 -0.8081 0.2444
6250000000.0 -0.3419 0.8029
6253000000.0 0.4168 0.7503
6256000000.0 0.8211 0.1897
6259000000.0 0.6668 -0.5251
6262000000.0 -0.01085 -0.843
6266000000.0 -0.5865 -0.5439
6269000000.0 -0.8172 0.09871
