! Created with skrf 1.8.0 (http://scikit-rf.org).
# Hz S RI R 50.0 
!freq ReS11 ImS11
4000000000.0 -0.242 -1.505
4003000000.0 -1.273 -0.7911
4006000000.0 -1.397 0.5529
4009000000.0 -0.4462 1.428
4012000000.0 0.7945 1.315
4016000000.0 1.504 0.2052
4019000000.0 1.088 -1.108
4022000000.0 -0.1676 -1.57
4025000000.0 -1.391 -0.8062
4028000000.0 -1.493 0.6047
4031000000.0 -0.5297 1.538
4034000000.0 0.897 1.35
4038000000.0 1.603 0.1666
4041000000.0 1.112 -1.137
4044000000.0 -0.1959 -1.629
4047000000.0 -1.402 -0.8688
4050000000.0 -1.55 0.5687
4053000000.0 -0.554 1.506
4056000000.0 0.8091 1.369
4059000000.0 1.592 0.2527
4062000000.0 1.216 -1.041
4066000000.0 -0.09049 -1.611
4069000000.0 -1.248 -1.012
4072000000.0 -1.605 0.359
4075000000.0 -0.7716 1.44
4078000000.0 0.6813 1.507
4081000000.0 1.562 0.4545
4084000000.0 1.345 -0.913
4088000000.0 0.1665 -1.629
4091000000.0 -1.184 -1.199
4094000000.0 -1.623 0.1597
4097000000.0 -0.9302 1.362
4100000000.0 0.4492 1.605
4103000000.0 1.483 0.6287
4106000000.0 1.425 -0.6903
4109000000.0 0.3521 -1.526
4112000000.0 -0.8624 -1.255
4116000000.0 -1.508 -0.1377
4119000000.0 -1.051 1.047
4122000000.0 0.08324 1.462
4125000000.0 1.175 0.9017
4128000000.0 1.447 -0.3369
4131000000.0 0.7119 -1.305
4134000000.0 -0.5123 -1.38
4138000000.0 -1.394 -0.5181
4141000000.0 -1.319 0.7145
4144000000.0 -0.3184 1.44
4147000000.0 0.8927 1.185
4150000000.0 1.504 0.05118
4153000000.0 1.04 -1.115
4156000000.0 -0.2136 -1.492
4159000000.0 -1.254 -0.8311
4162000000.0 -1.448 0.4772
4166000000.0 -0.5762 1.381
4169000000.0 0.7016 1.339
4172000000.0 1.446 0.3196
4175000000.0 1.169 -0.9132
4178000000.0 0.06777 -1.496
4181000000.0 -1.113 -1.013
4184000000.0 -1.481 0.2041
4188000000.0 -0.8043 1.283
4191000000.0 0.4539 1.465
4194000000.0 1.457 0.5797
4197000000.0 1.334 -0.716
4200000000.0 0.2692 -1.565
4203000000.0 -1.069 -1.209
4206000000.0 -1.642 0.07451
4209000000.0 -0.9436 1.349
4212000000.0 0.4903 1.587
4216000000.0 1.554 0.6089
4219000000.0 1.473 -0.8968
4222000000.0 0.1585 -1.66
4225000000.0 -1.236 -1.179
4228000000.0 -1.64 0.2855
4231000000.0 -0.7909 1.5
4234000000.0 0.697 1.47
4238000000.0 1.622 0.3513
4241000000.0 1.216 -1.042
4244000000.0 -0.1171 -1.605
4247000000.0 -1.303 -0.8948
4250000000.0 -1.467 0.4872
4253000000.0 -0.4915 1.461
4256000000.0 0.8466 1.293
4259000000.0 1.482 0.1322
4262000000.0 1.048 -1.105
4266000000.0 -0.2435 -1.494
4269000000.0 -1.308 -0.7069
4272000000.0 -1.355 0.5977
4275000000.0 -0.36 1.421
4278000000.0 0.8578 1.184
4281000000.0 1.394 0.03535
4284000000.0 0.9112 -1.115
4288000000.0 -0.2796 -1.379
4291000000.0 -1.199 -0.6396
4294000000.0 -1.215 0.5583
4297000000.0 -0.3332 1.309
4300000000.0 0.7184 1.089
4303000000.0 1.291 0.1201
4306000000.0 0.9116 -0.9392
4309000000.0 -0.1102 -1.281
4312000000.0 -1.063 -0.7313
4316000000.0 -1.227 0.2923
4319000000.0 -0.583 1.141
4322000000.0 0.5046 1.166
4325000000.0 1.246 0.3762
4328000000.0 1.157 -0.7359
4331000000.0 0.1545 -1.327
4334000000.0 -0.947 -0.9892
4338000000.0 -1.392 0.1097
4341000000.0 -0.8381 1.143
4344000000.0 0.3264 1.378
4347000000.0 1.295 0.6286
4350000000.0 1.292 -0.6488
4353000000.0 0.356 -1.413
4356000000.0 -0.8356 -1.166
4359000000.0 -1.448 -0.1011
4362000000.0 -0.9999 1.06
4366000000.0 0.1961 1.454
4369000000.0 1.259 0.8402
4372000000.0 1.398 -0.4326
4375000000.0 0.5688 -1.408
4378000000.0 -0.7344 -1.352
4381000000.0 -1.511 -0.2736
4384000000.0 -1.216 0.9811
4388000000.0 0.03589 1.573
4391000000.0 1.202 0.9712
4394000000.0 1.536 -0.3746
4397000000.0 0.6988 -1.449
4400000000.0 -0.7274 -1.407
4403000000.0 -1.556 -0.3402
4406000000.0 -1.266 0.9915
4409000000.0 0.05944 1.578
4412000000.0 1.248 0.9176
4416000000.0 1.48 -0.4406
4419000000.0 0.5613 -1.419
4422000000.0 -0.7683 -1.295
4425000000.0 -1.47 -0.1955
4428000000.0 -1.049 0.9992
4431000000.0 0.164 1.409
4434000000.0 1.192 0.7373
4438000000.0 1.314 -0.5123
4441000000.0 0.4108 -1.311
4444000000.0 -0.7885 -1.097
4447000000.0 -1.311 -0.0655
4450000000.0 -0.8433 1.053
4453000000.0 0.2708 1.258
4456000000.0 1.171 0.5716
4459000000.0 1.105 -0.5485
4462000000.0 0.2462 -1.232
4466000000.0 -0.8034 -0.9177
4469000000.0 -1.173 0.07597
4472000000.0 -0.6456 0.9967
4475000000.0 0.3607 1.13
4478000000.0 1.114 0.4361
4481000000.0 0.9838 -0.5743
4484000000.0 0.1693 -1.134
4488000000.0 -0.8072 -0.8043
4491000000.0 -1.178 0.1291
4494000000.0 -0.6156 0.9989
4497000000.0 0.3545 1.087
4500000000.0 1.101 0.3719
4503000000.0 0.9762 -0.5837
4506000000.0 0.1572 -1.089
4509000000.0 -0.7406 -0.837
4512000000.0 -1.137 0.05619
4516000000.0 -0.678 0.9171
4519000000.0 0.3032 1.095
4522000000.0 1.055 0.5026
4525000000.0 1.052 -0.5186
4528000000.0 0.2557 -1.153
4531000000.0 -0.7207 -0.9342
4534000000.0 -1.204 -0.03711
4538000000.0 -0.7954 0.8898
4541000000.0 0.1999 1.191
4544000000.0 1.045 0.6079
4547000000.0 1.136 -0.428
4550000000.0 0.4475 -1.151
4553000000.0 -0.6334 -1.072
4556000000.0 -1.23 -0.2326
4559000000.0 -0.965 0.7956
4562000000.0 -0.009522 1.26
4566000000.0 0.9868 0.8143
4569000000.0 1.288 -0.2246
4572000000.0 0.6471 -1.122
4575000000.0 -0.4441 -1.255
4578000000.0 -1.261 -0.4304
4581000000.0 -1.183 0.6716
4584000000.0 -0.2131 1.36
4588000000.0 0.9098 1.007
4591000000.0 1.381 -0.02855
4594000000.0 0.8723 -1.103
4597000000.0 -0.3049 -1.356
4600000000.0 -1.271 -0.6414
4603000000.0 -1.309 0.5678
4606000000.0 -0.3591 1.361
4609000000.0 0.8341 1.167
4612000000.0 1.414 0.08082
4616000000.0 0.9457 -1.025
4619000000.0 -0.1811 -1.387
4622000000.0 -1.191 -0.7313
4625000000.0 -1.313 0.4498
4628000000.0 -0.4521 1.323
4631000000.0 0.707 1.175
4634000000.0 1.358 0.1876
4638000000.0 0.9973 -0.9349
4641000000.0 -0.1141 -1.344
4644000000.0 -1.104 -0.7678
4647000000.0 -1.252 0.408
4650000000.0 -0.5045 1.252
4653000000.0 0.6502 1.082
4656000000.0 1.278 0.159
4659000000.0 0.9142 -0.8927
4662000000.0 -0.1442 -1.241
4666000000.0 -1.046 -0.6607
4669000000.0 -1.122 0.3634
4672000000.0 -0.366 1.12
4675000000.0 0.6086 0.9802
4678000000.0 1.145 0.1296
4681000000.0 0.8119 -0.7633
4684000000.0 -0.1166 -1.136
4688000000.0 -0.9581 -0.6068
4691000000.0 -1.043 0.3816
4694000000.0 -0.3401 1.043
4697000000.0 0.5781 0.9181
4700000000.0 1.086 0.1155
4703000000.0 0.7718 -0.7613
4706000000.0 -0.1298 -1.045
4709000000.0 -0.9472 -0.5607
4712000000.0 -1.018 0.3875
4716000000.0 -0.3566 1.036
4719000000.0 0.5921 0.8963
4722000000.0 1.069 0.1008
4725000000.0 0.7626 -0.7695
4728000000.0 -0.1234 -1.089
4731000000.0 -0.9068 -0.5739
4734000000.0 -1.013 0.3374
4738000000.0 -0.3901 0.9867
4741000000.0 0.4967 0.9453
4744000000.0 1.035 0.2177
4747000000.0 0.832 -0.68
4750000000.0 0.03326 -1.093
4753000000.0 -0.8171 -0.6828
4756000000.0 -1.09 0.1783
4759000000.0 -0.5908 0.982
4762000000.0 0.3939 1.082
4766000000.0 1.085 0.4174
4769000000.0 1.025 -0.5549
4772000000.0 0.193 -1.154
4775000000.0 -0.7643 -0.9014
4778000000.0 -1.187 0.003978
4781000000.0 -0.7947 0.9446
4784000000.0 0.2185 1.211
4788000000.0 1.06 0.6201
4791000000.0 1.16 -0.4199
4794000000.0 0.4227 -1.178
4797000000.0 -0.6226 -1.105
4800000000.0 -1.261 -0.2647
4803000000.0 -0.9916 0.7899
4806000000.0 -0.01987 1.264
4809000000.0 0.9498 0.8561
4812000000.0 1.268 -0.2019
4816000000.0 0.7054 -1.118
4819000000.0 -0.437 -1.301
4822000000.0 -1.278 -0.4944
4825000000.0 -1.182 0.6897
4828000000.0 -0.2256 1.35
4831000000.0 0.9365 1.056
4834000000.0 1.371 -0.04656
4838000000.0 0.8498 -1.083
4841000000.0 -0.3527 -1.367
4844000000.0 -1.276 -0.5841
4847000000.0 -1.26 0.5969
4850000000.0 -0.3438 1.343
4853000000.0 0.8149 1.109
4856000000.0 1.386 0.0472
4859000000.0 0.9029 -1.0
4862000000.0 -0.2062 -1.31
4866000000.0 -1.138 -0.676
4869000000.0 -1.227 0.4613
4872000000.0 -0.4092 1.245
4875000000.0 0.7035 1.093
4878000000.0 1.246 0.1218
4881000000.0 0.8994 -0.8955
4884000000.0 -0.1546 -1.219
4888000000.0 -1.026 -0.6605
4891000000.0 -1.108 0.3736
4894000000.0 -0.42 1.093
4897000000.0 0.5854 0.9644
4900000000.0 1.107 0.1658
4903000000.0 0.8042 -0.7328
4906000000.0 -0.06227 -1.068
4909000000.0 -0.8616 -0.6079
4912000000.0 -1.007 0.278
4916000000.0 -0.4033 0.9019
4919000000.0 0.4453 0.9044
4922000000.0 0.9577 0.1984
4925000000.0 0.7682 -0.5964
4928000000.0 -3.996e-05 -0.9671
4931000000.0 -0.7452 -0.6081
4934000000.0 -0.9559 0.1754
4938000000.0 -0.4313 0.8717
4941000000.0 0.3315 0.8923
4944000000.0 0.9026 0.2831
4947000000.0 0.7707 -0.5112
4950000000.0 0.1155 -0.9474
4953000000.0 -0.6608 -0.6667
4956000000.0 -0.9628 0.09804
4959000000.0 -0.549 0.8224
4962000000.0 0.2631 0.9571
4966000000.0 0.9138 0.3734
4969000000.0 0.8788 -0.4735
4972000000.0 0.216 -1.002
4975000000.0 -0.6795 -0.794
4978000000.0 -1.036 0.02776
4981000000.0 -0.6427 0.828
4984000000.0 0.2043 1.017
4988000000.0 0.9502 0.5114
4991000000.0 1.026 -0.3957
4994000000.0 0.356 -1.078
4997000000.0 -0.611 -0.9496
5000000000.0 -1.154 -0.1814
5003000000.0 -0.8565 0.7873
5006000000.0 0.06776 1.191
5009000000.0 0.9922 0.7236
5012000000.0 1.186 -0.2902
5016000000.0 0.5462 -1.117
5019000000.0 -0.5314 -1.147
5022000000.0 -1.237 -0.317
5025000000.0 -1.032 0.7737
5028000000.0 -0.06861 1.28
5031000000.0 0.9461 0.8704
5034000000.0 1.299 -0.152
5038000000.0 0.6908 -1.098
5041000000.0 -0.4204 -1.252
5044000000.0 -1.204 -0.4854
5047000000.0 -1.135 0.6326
5050000000.0 -0.2464 1.285
5053000000.0 0.8155 1.009
5056000000.0 1.289 0.003482
5059000000.0 0.8526 -0.9984
5062000000.0 -0.2262 -1.293
5066000000.0 -1.129 -0.6736
5069000000.0 -1.222 0.4227
5072000000.0 -0.4531 1.201
5075000000.0 0.6432 1.091
5078000000.0 1.252 0.19
5081000000.0 0.8975 -0.8004
5084000000.0 -0.02629 -1.235
5088000000.0 -0.9171 -0.7857
5091000000.0 -1.187 0.2477
5094000000.0 -0.5371 1.023
5097000000.0 0.3966 1.032
5100000000.0 1.088 0.3377
5103000000.0 0.9366 -0.5852
5106000000.0 0.1389 -1.068
5109000000.0 -0.6813 -0.806
5112000000.0 -1.071 0.03045
5116000000.0 -0.636 0.8557
5119000000.0 0.1982 1.03
5122000000.0 0.9082 0.4822
5125000000.0 0.9303 -0.4062
5128000000.0 0.3018 -0.9505
5131000000.0 -0.5275 -0.8108
5134000000.0 -0.9826 -0.1037
5138000000.0 -0.687 0.6898
5141000000.0 0.1311 0.9517
5144000000.0 0.7707 0.5302
5147000000.0 0.9003 -0.2902
5150000000.0 0.3246 -0.8644
5153000000.0 -0.4605 -0.7887
5156000000.0 -0.889 -0.1455
5159000000.0 -0.6707 0.6052
5162000000.0 0.01348 0.9167
5166000000.0 0.7067 0.5624
5169000000.0 0.9201 -0.2161
5172000000.0 0.3706 -0.8275
5175000000.0 -0.3891 -0.7861
5178000000.0 -0.8589 -0.2226
5181000000.0 -0.7273 0.5389
5184000000.0 -0.001154 0.9449
5188000000.0 0.7292 0.594
5191000000.0 0.8972 -0.1916
5194000000.0 0.4111 -0.839
5197000000.0 -0.4059 -0.8751
5200000000.0 -0.911 -0.2338
5203000000.0 -0.7674 0.5734
5206000000.0 0.009106 0.9774
5209000000.0 0.7411 0.6082
5212000000.0 0.9714 -0.1925
5216000000.0 0.4527 -0.8662
5219000000.0 -0.3818 -0.9078
5222000000.0 -0.9682 -0.2698
5225000000.0 -0.7997 0.5832
5228000000.0 -0.09849 1.011
5231000000.0 0.7423 0.7369
5234000000.0 1.039 -0.1211
5238000000.0 0.5899 -0.8587
5241000000.0 -0.287 -1.002
5244000000.0 -0.9935 -0.4257
5247000000.0 -0.9717 0.495
5250000000.0 -0.2396 1.068
5253000000.0 0.6703 0.8593
5256000000.0 1.069 0.01452
5259000000.0 0.7098 -0.8036
5262000000.0 -0.1486 -1.093
5266000000.0 -0.9341 -0.5785
5269000000.0 -1.06 0.3458
5272000000.0 -0.3883 1.03
5275000000.0 0.5413 0.9624
5278000000.0 1.079 0.2402
5281000000.0 0.8498 -0.6712
5284000000.0 0.02151 -1.129
5288000000.0 -0.7775 -0.7918
5291000000.0 -1.13 0.1305
5294000000.0 -0.6461 0.9148
5297000000.0 0.2831 1.08
5300000000.0 1.044 0.4786
5303000000.0 1.023 -0.4853
5306000000.0 0.3048 -1.087
5309000000.0 -0.6282 -0.915
5312000000.0 -1.141 -0.1112
5316000000.0 -0.8056 0.827
5319000000.0 0.08325 1.15
5322000000.0 0.924 0.6566
5325000000.0 1.105 -0.3242
5328000000.0 0.4715 -1.054
5331000000.0 -0.4889 -1.04
5334000000.0 -1.117 -0.248
5338000000.0 -0.9049 0.6839
5341000000.0 -0.04731 1.112
5344000000.0 0.86 0.74
5347000000.0 1.087 -0.2069
5350000000.0 0.5129 -0.9403
5353000000.0 -0.4072 -1.018
5356000000.0 -1.004 -0.3421
5359000000.0 -0.8646 0.576
5362000000.0 -0.07779 1.034
5366000000.0 0.7398 0.7153
5369000000.0 1.005 -0.1377
5372000000.0 0.5292 -0.8982
5375000000.0 -0.3446 -0.9394
5378000000.0 -0.9533 -0.2849
5381000000.0 -0.8238 0.5499
5384000000.0 -0.04162 0.9481
5388000000.0 0.7007 0.6323
5391000000.0 0.9198 -0.1491
5394000000.0 0.4541 -0.8219
5397000000.0 -0.3409 -0.8572
5400000000.0 -0.8432 -0.2009
5403000000.0 -0.6982 0.5235
5406000000.0 -0.02321 0.8977
5409000000.0 0.6587 0.5619
5412000000.0 0.8294 -0.169
5416000000.0 0.3954 -0.7643
5419000000.0 -0.3335 -0.7972
5422000000.0 -0.8213 -0.22
5425000000.0 -0.7253 0.5153
5428000000.0 -0.04563 0.8671
5431000000.0 0.6577 0.5783
5434000000.0 0.8798 -0.151
5438000000.0 0.4075 -0.8086
5441000000.0 -0.3597 -0.8299
5444000000.0 -0.8637 -0.2429
5447000000.0 -0.7096 0.5324
5450000000.0 -0.04963 0.9188
5453000000.0 0.6427 0.6094
5456000000.0 0.8976 -0.1485
5459000000.0 0.472 -0.8196
5462000000.0 -0.2964 -0.8211
5466000000.0 -0.8678 -0.2982
5469000000.0 -0.7746 0.4608
5472000000.0 -0.1656 0.941
5475000000.0 0.6144 0.7147
5478000000.0 0.9872 0.01071
5481000000.0 0.6055 -0.7607
5484000000.0 -0.1722 -0.9733
5488000000.0 -0.8999 -0.5245
5491000000.0 -0.9411 0.3612
5494000000.0 -0.3734 0.9785
5497000000.0 0.5015 0.8778
5500000000.0 1.02 0.174
5503000000.0 0.8165 -0.6937
5506000000.0 0.007366 -1.065
5509000000.0 -0.814 -0.6572
5512000000.0 -1.056 0.191
5516000000.0 -0.557 0.9436
5519000000.0 0.3725 0.9909
5522000000.0 0.994 0.3699
5525000000.0 0.9298 -0.5255
5528000000.0 0.1767 -1.042
5531000000.0 -0.6801 -0.8497
5534000000.0 -1.085 -0.01283
5538000000.0 -0.6957 0.8224
5541000000.0 0.2355 1.044
5544000000.0 0.9771 0.5293
5547000000.0 1.029 -0.3895
5550000000.0 0.3627 -1.014
5553000000.0 -0.5505 -0.9085
5556000000.0 -1.058 -0.1466
5559000000.0 -0.7787 0.7048
5562000000.0 0.05663 1.029
5566000000.0 0.8017 0.6063
5569000000.0 0.9702 -0.2481
5572000000.0 0.4224 -0.921
5575000000.0 -0.4111 -0.8588
5578000000.0 -0.9757 -0.2365
5581000000.0 -0.737 0.5803
5584000000.0 -0.04589 0.9643
5588000000.0 0.6932 0.634
5591000000.0 0.9095 -0.1427
5594000000.0 0.4862 -0.8044
5597000000.0 -0.3018 -0.8111
5600000000.0 -0.8239 -0.2756
5603000000.0 -0.7243 0.4669
5606000000.0 -0.1114 0.9209
5609000000.0 0.5827 0.6013
5612000000.0 0.8373 -0.07314
5616000000.0 0.4632 -0.727
5619000000.0 -0.2343 -0.7769
5622000000.0 -0.7673 -0.2871
5625000000.0 -0.7035 0.4241
5628000000.0 -0.1241 0.8145
5631000000.0 0.5796 0.6075
5634000000.0 0.8225 -0.07623
5638000000.0 0.4627 -0.6872
5641000000.0 -0.2352 -0.7959
5644000000.0 -0.7924 -0.2854
5647000000.0 -0.7142 0.4122
5650000000.0 -0.1248 0.8392
5653000000.0 0.5815 0.631
5656000000.0 0.8565 -0.04855
5659000000.0 0.4985 -0.713
5662000000.0 -0.2563 -0.8439
5666000000.0 -0.8599 -0.3302
5669000000.0 -0.7736 0.4403
5672000000.0 -0.1582 0.9172
5675000000.0 0.6381 0.6713
5678000000.0 0.9258 -0.04167
5681000000.0 0.5838 -0.7668
5684000000.0 -0.2572 -0.9309
5688000000.0 -0.8899 -0.3941
5691000000.0 -0.8815 0.4403
5694000000.0 -0.2266 1.007
5697000000.0 0.6575 0.7741
5700000000.0 1.054 0.03866
5703000000.0 0.6927 -0.7729
5706000000.0 -0.206 -1.053
5709000000.0 -0.9362 -0.5334
5712000000.0 -1.012 0.4167
5716000000.0 -0.3296 1.01
5719000000.0 0.5749 0.9079
5722000000.0 1.078 0.1458
5725000000.0 0.7681 -0.7649
5728000000.0 -0.06597 -1.125
5731000000.0 -0.8903 -0.6505
5734000000.0 -1.084 0.267
5738000000.0 -0.4971 0.9883
5741000000.0 0.4897 1.046
5744000000.0 1.105 0.2875
5747000000.0 0.9156 -0.6356
5750000000.0 0.09441 -1.105
5753000000.0 -0.823 -0.7816
5756000000.0 -1.109 0.1072
5759000000.0 -0.6195 0.9546
5762000000.0 0.3506 1.077
5766000000.0 1.018 0.429
5769000000.0 0.9926 -0.5124
5772000000.0 0.2597 -1.055
5775000000.0 -0.6865 -0.8871
5778000000.0 -1.128 -0.03048
5781000000.0 -0.7226 0.8652
5784000000.0 0.1838 1.064
5788000000.0 0.9288 0.5515
5791000000.0 1.019 -0.3602
5794000000.0 0.3612 -0.9896
5797000000.0 -0.5518 -0.9087
5800000000.0 -1.014 -0.1517
5803000000.0 -0.7931 0.6686
5806000000.0 0.04013 1.052
5809000000.0 0.8545 0.5863
5812000000.0 1.008 -0.2594
5816000000.0 0.4077 -0.9271
5819000000.0 -0.413 -0.8886
5822000000.0 -0.9902 -0.1993
5825000000.0 -0.7648 0.5966
5828000000.0 -0.005107 0.9757
5831000000.0 0.7413 0.6167
5834000000.0 0.9407 -0.1751
5838000000.0 0.407 -0.8671
5841000000.0 -0.3901 -0.8645
5844000000.0 -0.8976 -0.2254
5847000000.0 -0.7076 0.5573
5850000000.0 -0.04203 0.9278
5853000000.0 0.6623 0.5977
5856000000.0 0.9018 -0.1908
5859000000.0 0.4176 -0.7955
5862000000.0 -0.3667 -0.8255
5866000000.0 -0.859 -0.1936
5869000000.0 -0.7025 0.5449
5872000000.0 0.0142 0.8866
5875000000.0 0.7336 0.5624
5878000000.0 0.8938 -0.1921
5881000000.0 0.3869 -0.7938
5884000000.0 -0.3689 -0.7989
5888000000.0 -0.8461 -0.2351
5891000000.0 -0.7103 0.5075
5894000000.0 -0.05588 0.8916
5897000000.0 0.6744 0.5369
5900000000.0 0.8737 -0.1346
5903000000.0 0.4652 -0.7813
5906000000.0 -0.3003 -0.8177
5909000000.0 -0.8518 -0.304
5912000000.0 -0.7516 0.4724
5916000000.0 -0.1292 0.9224
5919000000.0 0.6215 0.653
5922000000.0 0.9159 -0.0711
5925000000.0 0.5455 -0.7319
5928000000.0 -0.2505 -0.9141
5931000000.0 -0.8637 -0.3811
5934000000.0 -0.877 0.4173
5938000000.0 -0.2304 0.8988
5941000000.0 0.5341 0.7592
5944000000.0 0.9294 0.0955
5947000000.0 0.6632 -0.7038
5950000000.0 -0.1177 -0.946
5953000000.0 -0.8249 -0.5528
5956000000.0 -0.9543 0.2748
5959000000.0 -0.3784 0.9024
5962000000.0 0.4573 0.8723
5966000000.0 0.9821 0.1923
5969000000.0 0.8011 -0.6499
5972000000.0 0.009316 -1.009
5975000000.0 -0.7627 -0.651
5978000000.0 -1.017 0.1681
5981000000.0 -0.4818 0.8728
5984000000.0 0.3592 0.9732
5988000000.0 0.9602 0.3283
5991000000.0 0.8757 -0.5347
5994000000.0 0.1026 -1.019
5997000000.0 -0.7114 -0.7249
6000000000.0 -1.013 0.1243
6003000000.0 -0.5438 0.8134
6006000000.0 0.2908 0.9442
6009000000.0 0.9498 0.3666
6012000000.0 0.845 -0.465
6016000000.0 0.1571 -0.9607
6019000000.0 -0.6335 -0.742
6022000000.0 -0.9847 0.05061
6025000000.0 -0.5628 0.791
6028000000.0 0.2759 0.918
6031000000.0 0.8806 0.3881
6034000000.0 0.8166 -0.4262
6038000000.0 0.1924 -0.9238
6041000000.0 -0.5859 -0.6997
6044000000.0 -0.9114 0.02761
6047000000.0 -0.5616 0.7103
6050000000.0 0.2334 0.8679
6053000000.0 0.8151 0.3707
6056000000.0 0.7901 -0.3952
6059000000.0 0.1927 -0.8768
6062000000.0 -0.54 -0.6909
6066000000.0 -0.8728 0.004412
6069000000.0 -0.5024 0.6731
6072000000.0 0.2006 0.8281
6075000000.0 0.7671 0.3746
6078000000.0 0.744 -0.3848
6081000000.0 0.2003 -0.8394
6084000000.0 -0.5539 -0.6472
6088000000.0 -0.833 0.02339
6091000000.0 -0.5552 0.6523
6094000000.0 0.1622 0.8458
6097000000.0 0.7529 0.4137
6100000000.0 0.8031 -0.3854
6103000000.0 0.1922 -0.8354
6106000000.0 -0.5349 -0.6997
6109000000.0 -0.8688 -0.01907
6112000000.0 -0.593 0.6713
6116000000.0 0.1575 0.9063
6119000000.0 0.8003 0.429
6122000000.0 0.8697 -0.3498
6125000000.0 0.233 -0.9214
6128000000.0 -0.5436 -0.7698
6131000000.0 -0.9299 -0.04805
6134000000.0 -0.6432 0.7241
6138000000.0 0.1313 0.9558
6141000000.0 0.8387 0.4949
6144000000.0 0.9082 -0.3149
6147000000.0 0.272 -0.9323
6150000000.0 -0.5131 -0.8171
6153000000.0 -1.009 -0.116
6156000000.0 -0.7191 0.6788
6159000000.0 0.1046 0.9982
6162000000.0 0.8544 0.5212
6166000000.0 0.9748 -0.3251
6169000000.0 0.345 -0.9673
6172000000.0 -0.5473 -0.8859
6175000000.0 -1.021 -0.1452
6178000000.0 -0.7402 0.6969
6181000000.0 0.09941 0.9891
6184000000.0 0.8249 0.5782
6188000000.0 0.9554 -0.2865
6191000000.0 0.3804 -0.8837
6194000000.0 -0.4275 -0.874
6197000000.0 -0.9585 -0.1929
6200000000.0 -0.7067 0.6262
6203000000.0 0.002919 0.9311
6206000000.0 0.7702 0.5957
6209000000.0 0.8907 -0.1881
6212000000.0 0.4166 -0.8433
6216000000.0 -0.4197 -0.8119
6219000000.0 -0.8815 -0.2119
6222000000.0 -0.7429 0.5447
6225000000.0 -0.08106 0.8487
6228000000.0 0.6419 0.6449
6231000000.0 0.8407 -0.1302
6234000000.0 0.4336 -0.7571
6238000000.0 -0.3443 -0.8553
6241000000.0 -0.8152 -0.2728
6244000000.0 -0.7436 0.4531
6247000000.0 -0.1137 0.839
6250000000.0 0.6012 0.5927
6253000000.0 0.837 -0.08337
6256000000.0 0.4774 -0.7125
6259000000.0 -0.2456 -0.7675
6262000000.0 -0.7695 -0.2978
6266000000.0 -0.691 0.3986
