! Created with skrf 1.8.0 (http://scikit-rf.org).
# Hz S RI R 50.0 
!freq ReS11 ImS11
4000000000.0 -0.1826 -1.463
4003000000.0 -1.255 -0.814
4006000000.0 -1.469 0.491
4009000000.0 -0.5507 1.426
4012000000.0 0.7947 1.307
4016000000.0 1.508 0.208
4019000000.0 1.176 -1.046
4022000000.0 -0.1017 -1.565
4025000000.0 -1.305 -0.8586
4028000000.0 -1.542 0.4509
4031000000.0 -0.6091 1.492
4034000000.0 0.8032 1.447
4038000000.0 1.619 0.2492
4041000000.0 1.217 -1.11
4044000000.0 -0.09673 -1.625
4047000000.0 -1.333 -0.9363
4050000000.0 -1.534 0.4744
4053000000.0 -0.6166 1.466
4056000000.0 0.7455 1.397
4059000000.0 1.56 0.3448
4062000000.0 1.238 -1.011
4066000000.0 0.06353 -1.627
4069000000.0 -1.236 -1.034
4072000000.0 -1.617 0.2672
4075000000.0 -0.8466 1.375
4078000000.0 0.5845 1.545
4081000000.0 1.567 0.5558
4084000000.0 1.421 -0.8065
4088000000.0 0.2223 -1.667
4091000000.0 -1.118 -1.238
4094000000.0 -1.665 0.04343
4097000000.0 -0.9845 1.329
4100000000.0 0.3457 1.55
4103000000.0 1.471 0.7271
4106000000.0 1.46 -0.636
4109000000.0 0.4529 -1.464
4112000000.0 -0.845 -1.284
4116000000.0 -1.501 -0.1771
4119000000.0 -1.139 0.9916
4122000000.0 0.01795 1.504
4125000000.0 1.151 0.9673
4128000000.0 1.473 -0.2019
4131000000.0 0.7908 -1.245
4134000000.0 -0.4622 -1.416
4138000000.0 -1.369 -0.5975
4141000000.0 -1.343 0.6479
4144000000.0 -0.3595 1.434
4147000000.0 0.8983 1.262
4150000000.0 1.559 0.129
4153000000.0 1.097 -1.071
4156000000.0 -0.09155 -1.515
4159000000.0 -1.243 -0.8953
4162000000.0 -1.481 0.3842
4166000000.0 -0.674 1.359
4169000000.0 0.6245 1.411
4172000000.0 1.429 0.4144
4175000000.0 1.244 -0.8185
4178000000.0 0.1539 -1.473
4181000000.0 -1.047 -1.1
4184000000.0 -1.482 0.08738
4188000000.0 -0.9219 1.221
4191000000.0 0.3749 1.456
4194000000.0 1.365 0.706
4197000000.0 1.421 -0.6529
4200000000.0 0.3935 -1.517
4203000000.0 -0.9519 -1.31
4206000000.0 -1.656 -0.04097
4209000000.0 -1.1 1.205
4212000000.0 0.3098 1.647
4216000000.0 1.529 0.7301
4219000000.0 1.544 -0.6871
4222000000.0 0.3079 -1.656
4225000000.0 -1.126 -1.289
4228000000.0 -1.689 0.1152
4231000000.0 -0.8979 1.397
4234000000.0 0.532 1.578
4238000000.0 1.565 0.5134
4241000000.0 1.365 -0.9086
4244000000.0 0.1104 -1.627
4247000000.0 -1.19 -1.061
4250000000.0 -1.54 0.3382
4253000000.0 -0.7003 1.425
4256000000.0 0.664 1.392
4259000000.0 1.502 0.3177
4262000000.0 1.181 -1.013
4266000000.0 -0.05177 -1.478
4269000000.0 -1.228 -0.8654
4272000000.0 -1.429 0.3934
4275000000.0 -0.5166 1.375
4278000000.0 0.718 1.26
4281000000.0 1.441 0.2089
4284000000.0 0.9894 -1.014
4288000000.0 -0.1494 -1.402
4291000000.0 -1.168 -0.7345
4294000000.0 -1.305 0.4137
4297000000.0 -0.4982 1.283
4300000000.0 0.6458 1.178
4303000000.0 1.311 0.2137
4306000000.0 1.011 -0.7761
4309000000.0 0.004604 -1.315
4312000000.0 -0.9784 -0.8245
4316000000.0 -1.31 0.1812
4319000000.0 -0.6736 1.089
4322000000.0 0.4072 1.268
4325000000.0 1.244 0.4756
4328000000.0 1.174 -0.6156
4331000000.0 0.2709 -1.327
4334000000.0 -0.8169 -1.101
4338000000.0 -1.367 -0.06268
4341000000.0 -0.9309 0.9814
4344000000.0 0.2506 1.419
4347000000.0 1.218 0.7394
4350000000.0 1.325 -0.4461
4353000000.0 0.4998 -1.319
4356000000.0 -0.712 -1.286
4359000000.0 -1.445 -0.2236
4362000000.0 -1.131 0.9693
4366000000.0 0.03078 1.482
4369000000.0 1.127 0.9295
4372000000.0 1.436 -0.2778
4375000000.0 0.6807 -1.334
4378000000.0 -0.5099 -1.423
4381000000.0 -1.455 -0.4541
4384000000.0 -1.323 0.8033
4388000000.0 -0.1832 1.529
4391000000.0 1.117 1.141
4394000000.0 1.578 -0.1584
4397000000.0 0.9144 -1.329
4400000000.0 -0.5092 -1.506
4403000000.0 -1.5 -0.5607
4406000000.0 -1.365 0.8372
4409000000.0 -0.2252 1.584
4412000000.0 1.141 1.103
4416000000.0 1.535 -0.2115
4419000000.0 0.8095 -1.345
4422000000.0 -0.5345 -1.424
4425000000.0 -1.41 -0.4573
4428000000.0 -1.224 0.8228
4431000000.0 -0.09515 1.492
4434000000.0 1.096 0.9683
4438000000.0 1.408 -0.2351
4441000000.0 0.6676 -1.27
4444000000.0 -0.5452 -1.274
4447000000.0 -1.342 -0.3087
4450000000.0 -1.063 0.8484
4453000000.0 -0.003994 1.352
4456000000.0 1.058 0.774
4459000000.0 1.265 -0.3329
4462000000.0 0.4648 -1.179
4466000000.0 -0.6425 -1.088
4469000000.0 -1.241 -0.1718
4472000000.0 -0.8583 0.8511
4475000000.0 0.1582 1.187
4478000000.0 0.969 0.6035
4481000000.0 1.089 -0.427
4484000000.0 0.3706 -1.114
4488000000.0 -0.6605 -0.9259
4491000000.0 -1.146 -0.07432
4494000000.0 -0.7492 0.8271
4497000000.0 0.1914 1.128
4500000000.0 0.9782 0.5259
4503000000.0 1.014 -0.3913
4506000000.0 0.3743 -1.058
4509000000.0 -0.6244 -0.89
4512000000.0 -1.123 -0.0901
4516000000.0 -0.7735 0.7503
4519000000.0 0.1203 1.131
4522000000.0 0.9546 0.622
4525000000.0 1.084 -0.3593
4528000000.0 0.4056 -1.068
4531000000.0 -0.543 -1.013
4534000000.0 -1.168 -0.1696
4538000000.0 -0.8818 0.7628
4541000000.0 0.001097 1.175
4544000000.0 0.9257 0.7406
4547000000.0 1.15 -0.2528
4550000000.0 0.5458 -1.038
4553000000.0 -0.4428 -1.127
4556000000.0 -1.136 -0.3834
4559000000.0 -1.046 0.6569
4562000000.0 -0.1654 1.234
4566000000.0 0.8471 0.9594
4569000000.0 1.28 -0.0677
4572000000.0 0.7887 -1.014
4575000000.0 -0.2617 -1.275
4578000000.0 -1.146 -0.6191
4581000000.0 -1.242 0.4957
4584000000.0 -0.4162 1.254
4588000000.0 0.6923 1.141
4591000000.0 1.342 0.1569
4594000000.0 0.9819 -0.9468
4597000000.0 -0.08772 -1.364
4600000000.0 -1.123 -0.8063
4603000000.0 -1.327 0.3658
4606000000.0 -0.5824 1.265
4609000000.0 0.6088 1.243
4612000000.0 1.338 0.315
4616000000.0 1.096 -0.8681
4619000000.0 0.01279 -1.379
4622000000.0 -1.047 -0.9131
4625000000.0 -1.357 0.2536
4628000000.0 -0.6661 1.214
4631000000.0 0.5157 1.256
4634000000.0 1.328 0.408
4638000000.0 1.151 -0.7782
4641000000.0 0.08663 -1.345
4644000000.0 -1.001 -0.9084
4647000000.0 -1.341 0.1803
4650000000.0 -0.7067 1.151
4653000000.0 0.4812 1.249
4656000000.0 1.289 0.3949
4659000000.0 1.071 -0.7105
4662000000.0 0.07146 -1.27
4666000000.0 -0.9362 -0.8121
4669000000.0 -1.221 0.2131
4672000000.0 -0.5804 1.026
4675000000.0 0.4694 1.092
4678000000.0 1.092 0.3177
4681000000.0 0.9284 -0.654
4684000000.0 0.07874 -1.137
4688000000.0 -0.8362 -0.7505
4691000000.0 -1.096 0.2135
4694000000.0 -0.5438 0.9764
4697000000.0 0.4227 1.011
4700000000.0 1.079 0.2902
4703000000.0 0.8835 -0.6672
4706000000.0 0.01978 -1.109
4709000000.0 -0.7986 -0.7021
4712000000.0 -1.064 0.2256
4716000000.0 -0.4596 0.9732
4719000000.0 0.4573 0.9955
4722000000.0 1.022 0.2512
4725000000.0 0.8131 -0.6577
4728000000.0 0.06879 -1.062
4731000000.0 -0.8145 -0.704
4734000000.0 -1.033 0.1947
4738000000.0 -0.5304 0.8834
4741000000.0 0.3727 0.9831
4744000000.0 0.9887 0.3542
4747000000.0 0.8824 -0.5436
4750000000.0 0.1683 -1.038
4753000000.0 -0.7072 -0.8067
4756000000.0 -1.098 0.05791
4759000000.0 -0.6473 0.8591
4762000000.0 0.2354 1.086
4766000000.0 0.9974 0.5238
4769000000.0 1.048 -0.4615
4772000000.0 0.3394 -1.094
4775000000.0 -0.6512 -1.001
4778000000.0 -1.154 -0.1547
4781000000.0 -0.9015 0.8065
4784000000.0 0.07113 1.172
4788000000.0 0.943 0.714
4791000000.0 1.183 -0.2285
4794000000.0 0.5854 -1.078
4797000000.0 -0.4632 -1.164
4800000000.0 -1.206 -0.3929
4803000000.0 -1.035 0.6546
4806000000.0 -0.1877 1.246
4809000000.0 0.8743 0.9724
4812000000.0 1.299 -0.05348
4816000000.0 0.806 -1.027
4819000000.0 -0.2821 -1.277
4822000000.0 -1.183 -0.6254
4825000000.0 -1.268 0.5218
4828000000.0 -0.3866 1.3
4831000000.0 0.7683 1.142
4834000000.0 1.396 0.1508
4838000000.0 0.9888 -1.006
4841000000.0 -0.147 -1.39
4844000000.0 -1.177 -0.7833
4847000000.0 -1.367 0.433
4850000000.0 -0.5365 1.287
4853000000.0 0.6539 1.222
4856000000.0 1.372 0.2511
4859000000.0 1.066 -0.8856
4862000000.0 -0.01137 -1.361
4866000000.0 -1.042 -0.8314
4869000000.0 -1.329 0.2782
4872000000.0 -0.566 1.207
4875000000.0 0.5544 1.21
4878000000.0 1.239 0.293
4881000000.0 1.03 -0.7691
4884000000.0 0.03432 -1.212
4888000000.0 -0.9659 -0.8052
4891000000.0 -1.199 0.2256
4894000000.0 -0.5808 1.046
4897000000.0 0.4498 1.109
4900000000.0 1.122 0.3428
4903000000.0 0.9278 -0.6253
4906000000.0 0.06994 -1.084
4909000000.0 -0.7953 -0.7334
4912000000.0 -1.048 0.1205
4916000000.0 -0.5424 0.8755
4919000000.0 0.3367 0.9322
4922000000.0 0.9338 0.3472
4925000000.0 0.8641 -0.5222
4928000000.0 0.1384 -0.9346
4931000000.0 -0.6105 -0.6932
4934000000.0 -0.9662 0.02968
4938000000.0 -0.5874 0.7503
4941000000.0 0.2143 0.9157
4944000000.0 0.8384 0.4311
4947000000.0 0.8627 -0.3884
4950000000.0 0.2339 -0.9069
4953000000.0 -0.5627 -0.7673
4956000000.0 -0.9761 -0.0659
4959000000.0 -0.6289 0.7056
4962000000.0 0.1735 0.9523
4966000000.0 0.8767 0.4844
4969000000.0 0.9356 -0.3702
4972000000.0 0.3162 -0.9429
4975000000.0 -0.5528 -0.8253
4978000000.0 -1.005 -0.1431
4981000000.0 -0.7359 0.7132
4984000000.0 0.05629 1.032
4988000000.0 0.8405 0.6292
4991000000.0 1.047 -0.2522
4994000000.0 0.4897 -0.9766
4997000000.0 -0.4891 -1.01
5000000000.0 -1.081 -0.2582
5003000000.0 -0.9301 0.6848
5006000000.0 -0.07223 1.162
5009000000.0 0.8383 0.8192
5012000000.0 1.193 -0.1325
5016000000.0 0.6701 -1.056
5019000000.0 -0.3812 -1.167
5022000000.0 -1.173 -0.4822
5025000000.0 -1.091 0.6337
5028000000.0 -0.2245 1.25
5031000000.0 0.8217 0.968
5034000000.0 1.286 -0.01872
5038000000.0 0.8497 -1.005
5041000000.0 -0.2377 -1.283
5044000000.0 -1.087 -0.6309
5047000000.0 -1.225 0.4448
5050000000.0 -0.3808 1.207
5053000000.0 0.636 1.154
5056000000.0 1.259 0.19
5059000000.0 0.9795 -0.8596
5062000000.0 -0.01516 -1.302
5066000000.0 -1.054 -0.8254
5069000000.0 -1.297 0.2888
5072000000.0 -0.6018 1.142
5075000000.0 0.4849 1.219
5078000000.0 1.22 0.3635
5081000000.0 1.052 -0.6529
5084000000.0 0.1195 -1.264
5088000000.0 -0.8705 -0.9095
5091000000.0 -1.23 0.07334
5094000000.0 -0.6957 0.9505
5097000000.0 0.2735 1.146
5100000000.0 1.042 0.5279
5103000000.0 1.046 -0.4408
5106000000.0 0.2849 -1.074
5109000000.0 -0.6197 -0.9132
5112000000.0 -1.083 -0.1468
5116000000.0 -0.7909 0.7708
5119000000.0 0.07552 1.072
5122000000.0 0.8479 0.6413
5125000000.0 1.028 -0.2418
5128000000.0 0.4283 -0.9364
5131000000.0 -0.4025 -0.9304
5134000000.0 -0.9761 -0.2647
5138000000.0 -0.8256 0.6046
5141000000.0 -0.1022 0.964
5144000000.0 0.7479 0.6817
5147000000.0 0.9467 -0.1356
5150000000.0 0.4998 -0.814
5153000000.0 -0.2939 -0.8973
5156000000.0 -0.8791 -0.3045
5159000000.0 -0.762 0.4722
5162000000.0 -0.1295 0.9194
5166000000.0 0.6026 0.6548
5169000000.0 0.9168 -0.0441
5172000000.0 0.5504 -0.7521
5175000000.0 -0.2407 -0.8672
5178000000.0 -0.8535 -0.391
5181000000.0 -0.8389 0.3979
5184000000.0 -0.1726 0.8897
5188000000.0 0.5856 0.6987
5191000000.0 0.9121 -0.04481
5194000000.0 0.5869 -0.7448
5197000000.0 -0.2128 -0.8968
5200000000.0 -0.8696 -0.3949
5203000000.0 -0.8405 0.3997
5206000000.0 -0.2068 0.9303
5209000000.0 0.6108 0.7611
5212000000.0 0.9761 0.002068
5216000000.0 0.622 -0.75
5219000000.0 -0.1778 -0.9771
5222000000.0 -0.8883 -0.4359
5225000000.0 -0.9412 0.3918
5228000000.0 -0.2648 0.9608
5231000000.0 0.5723 0.8285
5234000000.0 1.034 0.08745
5238000000.0 0.6992 -0.7499
5241000000.0 -0.1218 -1.043
5244000000.0 -0.8716 -0.5491
5247000000.0 -1.009 0.3098
5250000000.0 -0.3817 0.9714
5253000000.0 0.5232 0.9565
5256000000.0 1.036 0.1993
5259000000.0 0.8411 -0.6816
5262000000.0 -0.0117 -1.104
5266000000.0 -0.8158 -0.7129
5269000000.0 -1.079 0.1602
5272000000.0 -0.5473 0.9465
5275000000.0 0.348 1.042
5278000000.0 1.014 0.379
5281000000.0 0.9552 -0.521
5284000000.0 0.2272 -1.098
5288000000.0 -0.7047 -0.8947
5291000000.0 -1.091 -0.009319
5294000000.0 -0.7473 0.8156
5297000000.0 0.1374 1.121
5300000000.0 0.9436 0.6447
5303000000.0 1.093 -0.2963
5306000000.0 0.4553 -1.044
5309000000.0 -0.4996 -1.026
5312000000.0 -1.097 -0.2695
5316000000.0 -0.9247 0.6767
5319000000.0 -0.0848 1.15
5322000000.0 0.8169 0.8265
5325000000.0 1.142 -0.0704
5328000000.0 0.6826 -0.9256
5331000000.0 -0.2888 -1.125
5334000000.0 -1.044 -0.4719
5338000000.0 -1.024 0.481
5341000000.0 -0.2857 1.129
5344000000.0 0.6717 0.9263
5347000000.0 1.115 0.05656
5350000000.0 0.7282 -0.8299
5353000000.0 -0.165 -1.094
5356000000.0 -0.9545 -0.5667
5359000000.0 -1.009 0.3574
5362000000.0 -0.3747 1.013
5366000000.0 0.5617 0.9312
5369000000.0 1.074 0.132
5372000000.0 0.789 -0.7413
5375000000.0 -0.081 -1.021
5378000000.0 -0.8699 -0.6029
5381000000.0 -0.9683 0.3072
5384000000.0 -0.3148 0.9646
5388000000.0 0.5135 0.8372
5391000000.0 0.9472 0.1475
5394000000.0 0.6691 -0.6724
5397000000.0 -0.1197 -0.9279
5400000000.0 -0.7773 -0.495
5403000000.0 -0.8791 0.3068
5406000000.0 -0.2824 0.8355
5409000000.0 0.4494 0.7586
5412000000.0 0.8796 0.05739
5416000000.0 0.6063 -0.6318
5419000000.0 -0.1215 -0.8915
5422000000.0 -0.7453 -0.4557
5425000000.0 -0.7948 0.2772
5428000000.0 -0.2765 0.833
5431000000.0 0.4999 0.7619
5434000000.0 0.8777 0.08335
5438000000.0 0.5984 -0.6372
5441000000.0 -0.1009 -0.8665
5444000000.0 -0.7529 -0.4525
5447000000.0 -0.8377 0.3179
5450000000.0 -0.2826 0.8291
5453000000.0 0.5009 0.734
5456000000.0 0.8975 0.1089
5459000000.0 0.6586 -0.6178
5462000000.0 -0.08618 -0.9152
5466000000.0 -0.7817 -0.5162
5469000000.0 -0.8566 0.2441
5472000000.0 -0.3621 0.8316
5475000000.0 0.405 0.8603
5478000000.0 0.9014 0.2179
5481000000.0 0.7593 -0.5556
5484000000.0 0.05948 -0.9603
5488000000.0 -0.7279 -0.6705
5491000000.0 -1.008 0.08818
5494000000.0 -0.5128 0.8326
5497000000.0 0.3062 0.9677
5500000000.0 0.9319 0.4037
5503000000.0 0.8963 -0.4207
5506000000.0 0.2216 -1.028
5509000000.0 -0.5877 -0.8566
5512000000.0 -1.001 -0.05615
5516000000.0 -0.6851 0.7549
5519000000.0 0.1365 1.037
5522000000.0 0.8674 0.591
5525000000.0 1.033 -0.2696
5528000000.0 0.4687 -0.9467
5531000000.0 -0.4192 -0.9725
5534000000.0 -1.033 -0.2693
5538000000.0 -0.8878 0.6079
5541000000.0 -0.08421 1.094
5544000000.0 0.7702 0.7423
5547000000.0 1.061 -0.07144
5550000000.0 0.5986 -0.8561
5553000000.0 -0.2941 -1.036
5556000000.0 -0.9585 -0.4383
5559000000.0 -0.9712 0.4599
5562000000.0 -0.2559 1.025
5566000000.0 0.6088 0.8335
5569000000.0 1.033 0.07005
5572000000.0 0.6941 -0.7526
5575000000.0 -0.1192 -1.023
5578000000.0 -0.8607 -0.5158
5581000000.0 -0.9263 0.3236
5584000000.0 -0.3567 0.8863
5588000000.0 0.4722 0.8878
5591000000.0 0.9496 0.1488
5594000000.0 0.7152 -0.6141
5597000000.0 -0.007325 -0.9515
5600000000.0 -0.7327 -0.551
5603000000.0 -0.9102 0.2183
5606000000.0 -0.4109 0.811
5609000000.0 0.357 0.8391
5612000000.0 0.8669 0.2007
5616000000.0 0.7095 -0.5215
5619000000.0 0.0699 -0.8493
5622000000.0 -0.6513 -0.5816
5625000000.0 -0.8538 0.1119
5628000000.0 -0.4423 0.7392
5631000000.0 0.2968 0.7879
5634000000.0 0.7904 0.2585
5638000000.0 0.693 -0.4437
5641000000.0 0.1027 -0.8328
5644000000.0 -0.589 -0.5823
5647000000.0 -0.8354 0.1061
5650000000.0 -0.4289 0.7266
5653000000.0 0.2952 0.7917
5656000000.0 0.8129 0.2561
5659000000.0 0.7306 -0.4625
5662000000.0 0.07088 -0.8986
5666000000.0 -0.6156 -0.6051
5669000000.0 -0.8617 0.09177
5672000000.0 -0.4688 0.7584
5675000000.0 0.2997 0.8575
5678000000.0 0.8616 0.3151
5681000000.0 0.7898 -0.4975
5684000000.0 0.1101 -0.9284
5688000000.0 -0.6628 -0.6765
5691000000.0 -0.9709 0.05049
5694000000.0 -0.5729 0.8081
5697000000.0 0.2852 0.9166
5700000000.0 0.9111 0.3939
5703000000.0 0.8764 -0.4671
5706000000.0 0.1743 -1.008
5709000000.0 -0.667 -0.7844
5712000000.0 -1.035 0.004935
5716000000.0 -0.6514 0.8109
5719000000.0 0.2371 1.019
5722000000.0 0.9583 0.4874
5725000000.0 0.9961 -0.4017
5728000000.0 0.2949 -1.031
5731000000.0 -0.6156 -0.9231
5734000000.0 -1.083 -0.1217
5738000000.0 -0.7599 0.7908
5741000000.0 0.06239 1.087
5744000000.0 0.9092 0.6441
5747000000.0 1.05 -0.2875
5750000000.0 0.4487 -1.017
5753000000.0 -0.4597 -0.9943
5756000000.0 -1.084 -0.2513
5759000000.0 -0.8875 0.6686
5762000000.0 -0.06215 1.111
5766000000.0 0.7983 0.7533
5769000000.0 1.106 -0.1081
5772000000.0 0.5868 -0.9169
5775000000.0 -0.3331 -1.068
5778000000.0 -1.029 -0.4261
5781000000.0 -0.9717 0.497
5784000000.0 -0.2524 1.078
5788000000.0 0.6547 0.8861
5791000000.0 1.116 0.02615
5794000000.0 0.721 -0.8001
5797000000.0 -0.1235 -1.095
5800000000.0 -0.9133 -0.5743
5803000000.0 -1.004 0.2953
5806000000.0 -0.3799 0.9879
5809000000.0 0.5217 0.9413
5812000000.0 0.9829 0.1818
5816000000.0 0.7725 -0.6872
5819000000.0 -0.04351 -1.065
5822000000.0 -0.7945 -0.6545
5825000000.0 -0.9937 0.2218
5828000000.0 -0.4571 0.9124
5831000000.0 0.3872 0.9259
5834000000.0 0.963 0.3056
5838000000.0 0.8192 -0.5771
5841000000.0 0.07621 -0.9614
5844000000.0 -0.6984 -0.6752
5847000000.0 -0.9605 0.1397
5850000000.0 -0.525 0.7874
5853000000.0 0.3087 0.8829
5856000000.0 0.8762 0.2964
5859000000.0 0.7915 -0.5049
5862000000.0 0.1013 -0.9469
5866000000.0 -0.678 -0.6432
5869000000.0 -0.8866 0.07733
5872000000.0 -0.4833 0.7661
5875000000.0 0.3076 0.8587
5878000000.0 0.8204 0.2859
5881000000.0 0.7597 -0.4761
5884000000.0 0.1305 -0.8919
5888000000.0 -0.5868 -0.652
5891000000.0 -0.853 0.05613
5894000000.0 -0.4767 0.7391
5897000000.0 0.265 0.8297
5900000000.0 0.8065 0.3146
5903000000.0 0.7775 -0.4193
5906000000.0 0.1408 -0.8507
5909000000.0 -0.5382 -0.6596
5912000000.0 -0.8813 -0.007638
5916000000.0 -0.5054 0.6986
5919000000.0 0.1729 0.8547
5922000000.0 0.7782 0.3989
5925000000.0 0.8049 -0.3419
5928000000.0 0.2477 -0.8524
5931000000.0 -0.4676 -0.7423
5934000000.0 -0.8989 -0.0845
5938000000.0 -0.6215 0.6389
5941000000.0 0.08171 0.8846
5944000000.0 0.7775 0.5265
5947000000.0 0.8519 -0.21
5950000000.0 0.3591 -0.8286
5953000000.0 -0.3936 -0.8161
5956000000.0 -0.8829 -0.2452
5959000000.0 -0.7498 0.5577
5962000000.0 -0.05819 0.9104
5966000000.0 0.6974 0.654
5969000000.0 0.9603 -0.08277
5972000000.0 0.5291 -0.8114
5975000000.0 -0.2696 -0.9381
5978000000.0 -0.8788 -0.3968
5981000000.0 -0.8678 0.4515
5984000000.0 -0.2065 0.9798
5988000000.0 0.5725 0.7984
5991000000.0 1.003 0.07232
5994000000.0 0.6958 -0.7407
5997000000.0 -0.1444 -1.006
6000000000.0 -0.8783 -0.5612
6003000000.0 -0.9506 0.3259
6006000000.0 -0.3595 0.9503
6009000000.0 0.5007 0.8532
6012000000.0 0.9706 0.1721
6016000000.0 0.7786 -0.6466
6019000000.0 0.0002777 -0.9759
6022000000.0 -0.8164 -0.6344
6025000000.0 -0.9409 0.2323
6028000000.0 -0.4716 0.8708
6031000000.0 0.3924 0.8846
6034000000.0 0.9329 0.243
6038000000.0 0.8042 -0.5653
6041000000.0 0.04196 -0.9684
6044000000.0 -0.7114 -0.6767
6047000000.0 -0.9537 0.1309
6050000000.0 -0.4817 0.8135
6053000000.0 0.3164 0.8896
6056000000.0 0.8938 0.3065
6059000000.0 0.7947 -0.4805
6062000000.0 0.1062 -0.9176
6066000000.0 -0.6457 -0.6533
6069000000.0 -0.9089 0.06206
6072000000.0 -0.4977 0.7515
6075000000.0 0.2757 0.8789
6078000000.0 0.8099 0.3298
6081000000.0 0.7705 -0.4402
6084000000.0 0.1326 -0.8826
6088000000.0 -0.5691 -0.6741
6091000000.0 -0.8643 0.03432
6094000000.0 -0.5452 0.6978
6097000000.0 0.2121 0.8431
6100000000.0 0.7831 0.3473
6103000000.0 0.7884 -0.3745
6106000000.0 0.2127 -0.8477
6109000000.0 -0.522 -0.7259
6112000000.0 -0.8603 -0.01146
6116000000.0 -0.5516 0.6833
6119000000.0 0.1572 0.8673
6122000000.0 0.7763 0.4036
6125000000.0 0.7775 -0.343
6128000000.0 0.2491 -0.8411
6131000000.0 -0.4985 -0.7259
6134000000.0 -0.8966 -0.03932
6138000000.0 -0.6104 0.6242
6141000000.0 0.1332 0.8819
6144000000.0 0.7662 0.4579
6147000000.0 0.8414 -0.2783
6150000000.0 0.3118 -0.8575
6153000000.0 -0.503 -0.7449
6156000000.0 -0.9065 -0.141
6159000000.0 -0.6716 0.6279
6162000000.0 0.05048 0.8897
6166000000.0 0.7387 0.5319
6169000000.0 0.9059 -0.2393
6172000000.0 0.3944 -0.8597
6175000000.0 -0.4233 -0.8478
6178000000.0 -0.9126 -0.1946
6181000000.0 -0.7451 0.5912
6184000000.0 -0.005177 0.9461
6188000000.0 0.7084 0.6268
6191000000.0 0.9173 -0.1999
6194000000.0 0.4344 -0.8001
6197000000.0 -0.3157 -0.8794
6200000000.0 -0.8971 -0.2868
6203000000.0 -0.8067 0.4878
6206000000.0 -0.122 0.9207
6209000000.0 0.6682 0.6607
6212000000.0 0.9302 -0.03987
6216000000.0 0.5156 -0.7672
6219000000.0 -0.2341 -0.9007
6222000000.0 -0.8373 -0.3733
6225000000.0 -0.8022 0.4148
6228000000.0 -0.1928 0.8562
6231000000.0 0.5435 0.7116
6234000000.0 0.904 0.03266
6238000000.0 0.6204 -0.648
6241000000.0 -0.1215 -0.8559
6244000000.0 -0.7097 -0.4698
6247000000.0 -0.8294 0.2745
6250000000.0 -0.2998 0.7955
6253000000.0 0.4269 0.7118
6256000000.0 0.8353 0.1789
6259000000.0 0.6773 -0.5337
6262000000.0 0.04433 -0.8091
