! Created with skrf 1.8.0 (http://scikit-rf.org).
# Hz S RI R 50.0 
!freq ReS11 ImS11
4000000000.0 -0.1184 -1.511
4003000000.0 -1.298 -0.7562
4006000000.0 -1.456 0.4756
4009000000.0 -0.5294 1.374
4012000000.0 0.7642 1.296
4016000000.0 1.519 0.2278
4019000000.0 1.151 -1.019
4022000000.0 -0.09522 -1.59
4025000000.0 -1.345 -0.8917
4028000000.0 -1.542 0.4417
4031000000.0 -0.5944 1.518
4034000000.0 0.8185 1.411
4038000000.0 1.618 0.2065
4041000000.0 1.187 -1.06
4044000000.0 -0.09715 -1.624
4047000000.0 -1.332 -0.9304
4050000000.0 -1.554 0.4717
4053000000.0 -0.6216 1.48
4056000000.0 0.7433 1.43
4059000000.0 1.558 0.3278
4062000000.0 1.252 -1.051
4066000000.0 -0.002114 -1.621
4069000000.0 -1.22 -1.078
4072000000.0 -1.604 0.2213
4075000000.0 -0.8241 1.369
4078000000.0 0.5284 1.546
4081000000.0 1.547 0.5569
4084000000.0 1.416 -0.8352
4088000000.0 0.251 -1.633
4091000000.0 -1.113 -1.247
4094000000.0 -1.656 0.05619
4097000000.0 -0.9887 1.297
4100000000.0 0.3775 1.581
4103000000.0 1.445 0.7194
4106000000.0 1.486 -0.5993
4109000000.0 0.4696 -1.478
4112000000.0 -0.8609 -1.291
4116000000.0 -1.522 -0.2338
4119000000.0 -1.148 1.016
4122000000.0 0.03173 1.493
4125000000.0 1.132 0.9447
4128000000.0 1.436 -0.224
4131000000.0 0.7819 -1.276
4134000000.0 -0.4631 -1.438
4138000000.0 -1.337 -0.5761
4141000000.0 -1.355 0.6668
4144000000.0 -0.4001 1.447
4147000000.0 0.8339 1.24
4150000000.0 1.537 0.1563
4153000000.0 1.096 -1.047
4156000000.0 -0.1016 -1.578
4159000000.0 -1.235 -0.8577
4162000000.0 -1.433 0.358
4166000000.0 -0.6499 1.357
4169000000.0 0.6101 1.383
4172000000.0 1.426 0.3956
4175000000.0 1.27 -0.8309
4178000000.0 0.1698 -1.501
4181000000.0 -1.03 -1.091
4184000000.0 -1.504 0.06667
4188000000.0 -0.8835 1.223
4191000000.0 0.3442 1.483
4194000000.0 1.412 0.7051
4197000000.0 1.422 -0.6468
4200000000.0 0.3833 -1.542
4203000000.0 -0.9825 -1.275
4206000000.0 -1.644 -0.03765
4209000000.0 -1.058 1.229
4212000000.0 0.3176 1.638
4216000000.0 1.525 0.7146
4219000000.0 1.497 -0.7681
4222000000.0 0.3129 -1.624
4225000000.0 -1.131 -1.301
4228000000.0 -1.69 0.09191
4231000000.0 -0.9519 1.397
4234000000.0 0.5768 1.583
4238000000.0 1.557 0.5277
4241000000.0 1.35 -0.9255
4244000000.0 0.09053 -1.62
4247000000.0 -1.2 -1.003
4250000000.0 -1.571 0.3041
4253000000.0 -0.6819 1.402
4256000000.0 0.6635 1.398
4259000000.0 1.487 0.2926
4262000000.0 1.164 -0.9696
4266000000.0 -0.08458 -1.514
4269000000.0 -1.203 -0.8663
4272000000.0 -1.431 0.4002
4275000000.0 -0.5467 1.397
4278000000.0 0.7557 1.271
4281000000.0 1.424 0.1711
4284000000.0 0.9953 -1.005
4288000000.0 -0.1398 -1.383
4291000000.0 -1.151 -0.7497
4294000000.0 -1.285 0.39
4297000000.0 -0.5043 1.244
4300000000.0 0.6808 1.129
4303000000.0 1.294 0.2314
4306000000.0 1.043 -0.8096
4309000000.0 0.05523 -1.282
4312000000.0 -0.9922 -0.851
4316000000.0 -1.288 0.1934
4319000000.0 -0.6754 1.095
4322000000.0 0.4516 1.227
4325000000.0 1.216 0.4987
4328000000.0 1.166 -0.6329
4331000000.0 0.2924 -1.335
4334000000.0 -0.8376 -1.085
4338000000.0 -1.357 -0.002674
4341000000.0 -0.9325 1.072
4344000000.0 0.2123 1.375
4347000000.0 1.211 0.7385
4350000000.0 1.372 -0.4828
4353000000.0 0.4821 -1.348
4356000000.0 -0.7174 -1.246
4359000000.0 -1.427 -0.2731
4362000000.0 -1.108 0.9327
4366000000.0 0.02238 1.422
4369000000.0 1.152 0.9459
4372000000.0 1.439 -0.2679
4375000000.0 0.6948 -1.295
4378000000.0 -0.569 -1.404
4381000000.0 -1.448 -0.4774
4384000000.0 -1.279 0.8265
4388000000.0 -0.2067 1.533
4391000000.0 1.064 1.114
4394000000.0 1.574 -0.1484
4397000000.0 0.864 -1.307
4400000000.0 -0.5313 -1.511
4403000000.0 -1.492 -0.5725
4406000000.0 -1.362 0.8108
4409000000.0 -0.1847 1.552
4412000000.0 1.124 1.1
4416000000.0 1.539 -0.1655
4419000000.0 0.7848 -1.309
4422000000.0 -0.5572 -1.391
4425000000.0 -1.416 -0.4607
4428000000.0 -1.256 0.8497
4431000000.0 -0.09394 1.451
4434000000.0 1.095 0.9557
4438000000.0 1.404 -0.2583
4441000000.0 0.6494 -1.253
4444000000.0 -0.5598 -1.261
4447000000.0 -1.332 -0.3335
4450000000.0 -1.018 0.8444
4453000000.0 0.02785 1.336
4456000000.0 1.035 0.7938
4459000000.0 1.246 -0.3698
4462000000.0 0.4746 -1.153
4466000000.0 -0.6442 -1.106
4469000000.0 -1.237 -0.145
4472000000.0 -0.8613 0.8485
4475000000.0 0.1512 1.164
4478000000.0 1.023 0.6075
4481000000.0 1.073 -0.4519
4484000000.0 0.3652 -1.112
4488000000.0 -0.653 -0.9317
4491000000.0 -1.153 -0.05904
4494000000.0 -0.7478 0.8393
4497000000.0 0.1809 1.098
4500000000.0 0.9824 0.5703
4503000000.0 1.012 -0.4063
4506000000.0 0.3227 -1.056
4509000000.0 -0.642 -0.9343
4512000000.0 -1.091 -0.1007
4516000000.0 -0.7731 0.7975
4519000000.0 0.1402 1.112
4522000000.0 0.9496 0.6243
4525000000.0 1.085 -0.3506
4528000000.0 0.4265 -1.091
4531000000.0 -0.5511 -1.015
4534000000.0 -1.139 -0.2113
4538000000.0 -0.8955 0.7705
4541000000.0 -0.001532 1.195
4544000000.0 0.9171 0.7505
4547000000.0 1.172 -0.2512
4550000000.0 0.5533 -1.073
4553000000.0 -0.4522 -1.099
4556000000.0 -1.159 -0.3669
4559000000.0 -1.013 0.6458
4562000000.0 -0.1678 1.232
4566000000.0 0.8573 0.9325
4569000000.0 1.254 -0.06749
4572000000.0 0.7824 -1.01
4575000000.0 -0.2799 -1.248
4578000000.0 -1.153 -0.5975
4581000000.0 -1.224 0.4966
4584000000.0 -0.4091 1.282
4588000000.0 0.7364 1.133
4591000000.0 1.353 0.1512
4594000000.0 0.9768 -0.9385
4597000000.0 -0.116 -1.371
4600000000.0 -1.147 -0.8032
4603000000.0 -1.343 0.3883
4606000000.0 -0.5309 1.293
4609000000.0 0.6333 1.273
4612000000.0 1.348 0.3073
4616000000.0 1.118 -0.8557
4619000000.0 0.02924 -1.382
4622000000.0 -1.073 -0.9039
4625000000.0 -1.335 0.2644
4628000000.0 -0.6936 1.244
4631000000.0 0.5517 1.285
4634000000.0 1.314 0.3952
4638000000.0 1.115 -0.7691
4641000000.0 0.09559 -1.338
4644000000.0 -1.003 -0.9106
4647000000.0 -1.304 0.2177
4650000000.0 -0.6531 1.144
4653000000.0 0.5019 1.222
4656000000.0 1.248 0.3758
4659000000.0 1.028 -0.7565
4662000000.0 0.04649 -1.253
4666000000.0 -0.9014 -0.8229
4669000000.0 -1.179 0.2167
4672000000.0 -0.5863 1.048
4675000000.0 0.4739 1.111
4678000000.0 1.113 0.3185
4681000000.0 0.9198 -0.6577
4684000000.0 0.05296 -1.14
4688000000.0 -0.7964 -0.7678
4691000000.0 -1.119 0.2083
4694000000.0 -0.5074 1.002
4697000000.0 0.4615 1.026
4700000000.0 1.058 0.3089
4703000000.0 0.8817 -0.6701
4706000000.0 0.05766 -1.084
4709000000.0 -0.8529 -0.7122
4712000000.0 -1.057 0.1915
4716000000.0 -0.4986 0.9367
4719000000.0 0.4168 0.959
4722000000.0 1.021 0.2503
4725000000.0 0.8605 -0.6656
4728000000.0 0.06358 -1.059
4731000000.0 -0.7803 -0.6952
4734000000.0 -0.9865 0.1632
4738000000.0 -0.4916 0.9169
4741000000.0 0.379 0.9647
4744000000.0 1.021 0.3483
4747000000.0 0.9 -0.5818
4750000000.0 0.1389 -1.046
4753000000.0 -0.7307 -0.7903
4756000000.0 -1.092 0.04347
4759000000.0 -0.6675 0.846
4762000000.0 0.2673 1.096
4766000000.0 1.002 0.5171
4769000000.0 1.041 -0.4241
4772000000.0 0.3452 -1.124
4775000000.0 -0.6502 -0.9554
4778000000.0 -1.194 -0.1511
4781000000.0 -0.8372 0.8275
4784000000.0 0.07772 1.191
4788000000.0 0.9389 0.7229
4791000000.0 1.178 -0.2905
4794000000.0 0.5628 -1.093
4797000000.0 -0.4674 -1.173
4800000000.0 -1.183 -0.3623
4803000000.0 -1.052 0.6478
4806000000.0 -0.1696 1.258
4809000000.0 0.8349 0.9411
4812000000.0 1.276 -0.01167
4816000000.0 0.8231 -1.013
4819000000.0 -0.266 -1.311
4822000000.0 -1.16 -0.5983
4825000000.0 -1.256 0.5447
4828000000.0 -0.3829 1.32
4831000000.0 0.7761 1.13
4834000000.0 1.403 0.1292
4838000000.0 0.9609 -1.022
4841000000.0 -0.1503 -1.415
4844000000.0 -1.169 -0.7858
4847000000.0 -1.328 0.4216
4850000000.0 -0.5284 1.301
4853000000.0 0.6583 1.221
4856000000.0 1.338 0.2348
4859000000.0 1.045 -0.8682
4862000000.0 -0.009661 -1.336
4866000000.0 -1.054 -0.8418
4869000000.0 -1.302 0.3007
4872000000.0 -0.5928 1.174
4875000000.0 0.5408 1.184
4878000000.0 1.249 0.3127
4881000000.0 1.043 -0.7699
4884000000.0 0.05888 -1.262
4888000000.0 -0.9375 -0.8099
4891000000.0 -1.174 0.219
4894000000.0 -0.5439 1.05
4897000000.0 0.4588 1.051
4900000000.0 1.097 0.3193
4903000000.0 0.918 -0.6676
4906000000.0 0.0743 -1.139
4909000000.0 -0.7819 -0.7476
4912000000.0 -1.027 0.161
4916000000.0 -0.557 0.8486
4919000000.0 0.3305 0.955
4922000000.0 0.9567 0.3305
4925000000.0 0.8654 -0.486
4928000000.0 0.1351 -0.964
4931000000.0 -0.6187 -0.7436
4934000000.0 -0.9507 0.04746
4938000000.0 -0.5736 0.7444
4941000000.0 0.2082 0.9131
4944000000.0 0.867 0.4099
4947000000.0 0.8738 -0.4045
4950000000.0 0.2416 -0.9169
4953000000.0 -0.5851 -0.7601
4956000000.0 -0.9602 -0.02068
4959000000.0 -0.6323 0.7227
4962000000.0 0.183 0.9541
4966000000.0 0.8554 0.4865
4969000000.0 0.9278 -0.3695
4972000000.0 0.3018 -0.9639
4975000000.0 -0.5564 -0.8579
4978000000.0 -0.9898 -0.1106
4981000000.0 -0.7334 0.7059
4984000000.0 0.05862 1.047
4988000000.0 0.8422 0.6312
4991000000.0 1.026 -0.2636
4994000000.0 0.4495 -0.9866
4997000000.0 -0.4604 -0.9887
5000000000.0 -1.104 -0.3062
5003000000.0 -0.94 0.6731
5006000000.0 -0.1015 1.172
5009000000.0 0.8453 0.839
5012000000.0 1.207 -0.1548
5016000000.0 0.6499 -1.032
5019000000.0 -0.3913 -1.194
5022000000.0 -1.162 -0.4408
5025000000.0 -1.112 0.5979
5028000000.0 -0.225 1.234
5031000000.0 0.8439 0.9819
5034000000.0 1.25 -0.04053
5038000000.0 0.8077 -1.023
5041000000.0 -0.2172 -1.283
5044000000.0 -1.153 -0.6235
5047000000.0 -1.231 0.4921
5050000000.0 -0.4226 1.234
5053000000.0 0.6615 1.099
5056000000.0 1.27 0.2099
5059000000.0 0.9634 -0.8376
5062000000.0 -0.04486 -1.3
5066000000.0 -1.016 -0.7645
5069000000.0 -1.256 0.2904
5072000000.0 -0.5766 1.163
5075000000.0 0.4827 1.179
5078000000.0 1.238 0.3837
5081000000.0 1.062 -0.7203
5084000000.0 0.1579 -1.247
5088000000.0 -0.8657 -0.8999
5091000000.0 -1.231 0.09822
5094000000.0 -0.7179 0.9944
5097000000.0 0.294 1.156
5100000000.0 1.061 0.5281
5103000000.0 1.028 -0.4467
5106000000.0 0.3135 -1.093
5109000000.0 -0.5926 -0.8958
5112000000.0 -1.065 -0.1369
5116000000.0 -0.8055 0.7321
5119000000.0 0.08179 1.103
5122000000.0 0.8651 0.6094
5125000000.0 1.018 -0.2137
5128000000.0 0.4649 -0.9405
5131000000.0 -0.4516 -0.9233
5134000000.0 -0.9881 -0.2399
5138000000.0 -0.7761 0.5962
5141000000.0 -0.05121 1.008
5144000000.0 0.7106 0.6609
5147000000.0 0.9362 -0.1219
5150000000.0 0.4788 -0.7805
5153000000.0 -0.3012 -0.8611
5156000000.0 -0.8466 -0.2898
5159000000.0 -0.8 0.4601
5162000000.0 -0.1546 0.8862
5166000000.0 0.5959 0.6558
5169000000.0 0.8967 -0.04171
5172000000.0 0.5231 -0.722
5175000000.0 -0.2254 -0.8583
5178000000.0 -0.8372 -0.3628
5181000000.0 -0.8235 0.4151
5184000000.0 -0.2017 0.8666
5188000000.0 0.5915 0.7276
5191000000.0 0.9569 -0.03844
5194000000.0 0.5634 -0.7457
5197000000.0 -0.2434 -0.9019
5200000000.0 -0.8728 -0.381
5203000000.0 -0.8705 0.4276
5206000000.0 -0.1938 0.9414
5209000000.0 0.5863 0.7527
5212000000.0 0.9539 -0.01626
5216000000.0 0.624 -0.7541
5219000000.0 -0.2072 -0.9582
5222000000.0 -0.9158 -0.4349
5225000000.0 -0.9151 0.3834
5228000000.0 -0.2474 0.9795
5231000000.0 0.5827 0.8115
5234000000.0 1.037 0.05481
5238000000.0 0.6924 -0.7723
5241000000.0 -0.1096 -1.028
5244000000.0 -0.8871 -0.5627
5247000000.0 -0.9892 0.3201
5250000000.0 -0.3878 0.967
5253000000.0 0.5161 0.9385
5256000000.0 1.067 0.2181
5259000000.0 0.852 -0.7014
5262000000.0 0.02817 -1.075
5266000000.0 -0.8345 -0.7067
5269000000.0 -1.094 0.1605
5272000000.0 -0.5781 0.9423
5275000000.0 0.3499 1.052
5278000000.0 1.018 0.4033
5281000000.0 0.9731 -0.5314
5284000000.0 0.2205 -1.085
5288000000.0 -0.6766 -0.8509
5291000000.0 -1.094 -0.04807
5294000000.0 -0.7632 0.83
5297000000.0 0.1375 1.122
5300000000.0 0.9441 0.6626
5303000000.0 1.098 -0.2978
5306000000.0 0.4704 -1.037
5309000000.0 -0.5125 -1.03
5312000000.0 -1.122 -0.3027
5316000000.0 -0.9213 0.6448
5319000000.0 -0.0923 1.11
5322000000.0 0.8232 0.8103
5325000000.0 1.15 -0.1018
5328000000.0 0.6629 -0.9323
5331000000.0 -0.3085 -1.099
5334000000.0 -1.038 -0.4426
5338000000.0 -0.9982 0.5148
5341000000.0 -0.2345 1.101
5344000000.0 0.6983 0.8999
5347000000.0 1.103 0.05116
5350000000.0 0.7321 -0.8537
5353000000.0 -0.1751 -1.07
5356000000.0 -0.9625 -0.5614
5359000000.0 -1.029 0.3732
5362000000.0 -0.3308 1.043
5366000000.0 0.5638 0.8826
5369000000.0 1.062 0.09415
5372000000.0 0.7453 -0.7356
5375000000.0 -0.1131 -1.005
5378000000.0 -0.8667 -0.5787
5381000000.0 -0.9555 0.3306
5384000000.0 -0.3467 0.9401
5388000000.0 0.5495 0.8554
5391000000.0 0.9741 0.08797
5394000000.0 0.6693 -0.7011
5397000000.0 -0.1173 -0.936
5400000000.0 -0.7995 -0.4825
5403000000.0 -0.8413 0.3212
5406000000.0 -0.2989 0.8548
5409000000.0 0.4945 0.7527
5412000000.0 0.8886 0.05872
5416000000.0 0.6274 -0.6382
5419000000.0 -0.1172 -0.889
5422000000.0 -0.7611 -0.4362
5425000000.0 -0.8305 0.3132
5428000000.0 -0.2569 0.846
5431000000.0 0.4811 0.7411
5434000000.0 0.8856 0.09204
5438000000.0 0.5852 -0.6366
5441000000.0 -0.1203 -0.8873
5444000000.0 -0.7596 -0.4375
5447000000.0 -0.8437 0.3224
5450000000.0 -0.2616 0.8452
5453000000.0 0.4727 0.7658
5456000000.0 0.9092 0.08836
5459000000.0 0.6025 -0.6004
5462000000.0 -0.06599 -0.8823
5466000000.0 -0.7298 -0.5171
5469000000.0 -0.869 0.2588
5472000000.0 -0.3733 0.823
5475000000.0 0.3803 0.843
5478000000.0 0.9112 0.1908
5481000000.0 0.7505 -0.5859
5484000000.0 0.03587 -0.9665
5488000000.0 -0.6738 -0.6966
5491000000.0 -0.9711 0.1167
5494000000.0 -0.5553 0.8097
5497000000.0 0.3054 0.9466
5500000000.0 0.9047 0.4022
5503000000.0 0.8976 -0.4712
5506000000.0 0.2129 -0.9866
5509000000.0 -0.6228 -0.8019
5512000000.0 -1.043 -0.03939
5516000000.0 -0.7434 0.7484
5519000000.0 0.07288 1.051
5522000000.0 0.8804 0.597
5525000000.0 1.013 -0.3326
5528000000.0 0.4127 -0.9309
5531000000.0 -0.4344 -0.9514
5534000000.0 -1.032 -0.2499
5538000000.0 -0.8595 0.6038
5541000000.0 -0.07455 1.048
5544000000.0 0.7518 0.81
5547000000.0 1.083 -0.08586
5550000000.0 0.6009 -0.8839
5553000000.0 -0.315 -1.035
5556000000.0 -0.9689 -0.4318
5559000000.0 -0.941 0.4755
5562000000.0 -0.2332 1.015
5566000000.0 0.6675 0.815
5569000000.0 1.044 0.04276
5572000000.0 0.6917 -0.7472
5575000000.0 -0.1526 -1.015
5578000000.0 -0.8393 -0.5251
5581000000.0 -0.9505 0.3244
5584000000.0 -0.3529 0.9231
5588000000.0 0.4801 0.827
5591000000.0 0.9401 0.1809
5594000000.0 0.6922 -0.6304
5597000000.0 -0.009136 -0.9518
5600000000.0 -0.721 -0.5652
5603000000.0 -0.8857 0.2106
5606000000.0 -0.3874 0.8031
5609000000.0 0.3779 0.8059
5612000000.0 0.8749 0.1936
5616000000.0 0.7138 -0.5266
5619000000.0 0.03759 -0.8838
5622000000.0 -0.635 -0.5694
5625000000.0 -0.8352 0.1297
5628000000.0 -0.433 0.7424
5631000000.0 0.3193 0.7959
5634000000.0 0.7838 0.2416
5638000000.0 0.7134 -0.4639
5641000000.0 0.07935 -0.8319
5644000000.0 -0.5955 -0.5934
5647000000.0 -0.8431 0.1342
5650000000.0 -0.427 0.7401
5653000000.0 0.2646 0.8036
5656000000.0 0.8179 0.2641
5659000000.0 0.704 -0.4855
5662000000.0 0.08086 -0.8525
5666000000.0 -0.6285 -0.6421
5669000000.0 -0.864 0.1338
5672000000.0 -0.4495 0.7436
5675000000.0 0.299 0.8165
5678000000.0 0.8676 0.2981
5681000000.0 0.7798 -0.5012
5684000000.0 0.1099 -0.9384
5688000000.0 -0.6788 -0.6651
5691000000.0 -0.9577 0.09397
5694000000.0 -0.5128 0.8199
5697000000.0 0.3055 0.9357
5700000000.0 0.9188 0.3559
5703000000.0 0.8458 -0.4704
5706000000.0 0.1762 -0.975
5709000000.0 -0.6737 -0.7426
5712000000.0 -1.031 0.03029
5716000000.0 -0.6558 0.8171
5719000000.0 0.2267 1.014
5722000000.0 0.9461 0.4689
5725000000.0 0.9912 -0.4517
5728000000.0 0.2965 -1.014
5731000000.0 -0.6204 -0.8665
5734000000.0 -1.099 -0.09343
5738000000.0 -0.7399 0.7837
5741000000.0 0.1047 1.077
5744000000.0 0.8973 0.6196
5747000000.0 1.079 -0.2868
5750000000.0 0.4511 -1.001
5753000000.0 -0.4833 -1.007
5756000000.0 -1.089 -0.2542
5759000000.0 -0.8583 0.697
5762000000.0 -0.04696 1.103
5766000000.0 0.7731 0.75
5769000000.0 1.119 -0.1512
5772000000.0 0.6292 -0.9278
5775000000.0 -0.3404 -1.036
5778000000.0 -0.9913 -0.4181
5781000000.0 -0.9704 0.5087
5784000000.0 -0.2319 1.059
5788000000.0 0.681 0.8424
5791000000.0 1.105 0.01676
5794000000.0 0.7094 -0.8065
5797000000.0 -0.1717 -1.061
5800000000.0 -0.9174 -0.5339
5803000000.0 -0.9983 0.3357
5806000000.0 -0.3608 0.9951
5809000000.0 0.5273 0.9329
5812000000.0 1.048 0.1884
5816000000.0 0.8283 -0.6805
5819000000.0 -0.01947 -1.058
5822000000.0 -0.8273 -0.596
5825000000.0 -0.9913 0.2395
5828000000.0 -0.4567 0.8533
5831000000.0 0.3934 0.8956
5834000000.0 0.9683 0.2456
5838000000.0 0.8021 -0.557
5841000000.0 0.06797 -0.9909
5844000000.0 -0.7183 -0.6731
5847000000.0 -0.9424 0.1177
5850000000.0 -0.4624 0.8288
5853000000.0 0.363 0.9116
5856000000.0 0.8856 0.3165
5859000000.0 0.7719 -0.5242
5862000000.0 0.1008 -0.9228
5866000000.0 -0.6386 -0.6274
5869000000.0 -0.8979 0.101
5872000000.0 -0.4687 0.7692
5875000000.0 0.3067 0.8389
5878000000.0 0.8287 0.2837
5881000000.0 0.7589 -0.4797
5884000000.0 0.1198 -0.885
5888000000.0 -0.6015 -0.6328
5891000000.0 -0.8697 0.08183
5894000000.0 -0.4715 0.7304
5897000000.0 0.2594 0.8353
5900000000.0 0.7953 0.3135
5903000000.0 0.7523 -0.4251
5906000000.0 0.1923 -0.8273
5909000000.0 -0.5603 -0.6565
5912000000.0 -0.8881 -0.01368
5916000000.0 -0.5286 0.6939
5919000000.0 0.195 0.8403
5922000000.0 0.7714 0.4346
5925000000.0 0.8065 -0.34
5928000000.0 0.2442 -0.8684
5931000000.0 -0.4985 -0.6931
5934000000.0 -0.8889 -0.06796
5938000000.0 -0.6275 0.634
5941000000.0 0.07985 0.8946
5944000000.0 0.7007 0.4766
5947000000.0 0.8736 -0.2301
5950000000.0 0.347 -0.8436
5953000000.0 -0.4042 -0.8168
5956000000.0 -0.9049 -0.2113
5959000000.0 -0.7539 0.5728
5962000000.0 -0.05651 0.9247
5966000000.0 0.6975 0.6416
5969000000.0 0.9463 -0.1503
5972000000.0 0.5123 -0.7817
5975000000.0 -0.275 -0.9062
5978000000.0 -0.8846 -0.3679
5981000000.0 -0.8817 0.4405
5984000000.0 -0.214 0.9597
5988000000.0 0.6143 0.768
5991000000.0 0.9979 0.03566
5994000000.0 0.6587 -0.7466
5997000000.0 -0.1407 -0.9803
6000000000.0 -0.8864 -0.5355
6003000000.0 -0.9469 0.3296
6006000000.0 -0.3652 0.9375
6009000000.0 0.4723 0.8541
6012000000.0 1.003 0.1782
6016000000.0 0.7614 -0.6602
6019000000.0 0.01208 -0.9938
6022000000.0 -0.784 -0.6193
6025000000.0 -0.9638 0.2083
6028000000.0 -0.4181 0.8654
6031000000.0 0.3914 0.9023
6034000000.0 0.9419 0.2468
6038000000.0 0.7678 -0.603
6041000000.0 0.03744 -0.9815
6044000000.0 -0.7154 -0.6547
6047000000.0 -0.9379 0.1267
6050000000.0 -0.4864 0.8347
6053000000.0 0.3099 0.8983
6056000000.0 0.8894 0.3056
6059000000.0 0.7868 -0.4697
6062000000.0 0.1176 -0.913
6066000000.0 -0.6495 -0.6434
6069000000.0 -0.9086 0.09159
6072000000.0 -0.4858 0.7495
6075000000.0 0.2778 0.8548
6078000000.0 0.8216 0.3584
6081000000.0 0.765 -0.4298
6084000000.0 0.1554 -0.8547
6088000000.0 -0.5969 -0.6616
6091000000.0 -0.8864 0.03329
6094000000.0 -0.4907 0.7081
6097000000.0 0.2247 0.8354
6100000000.0 0.7693 0.3597
6103000000.0 0.7526 -0.375
6106000000.0 0.1852 -0.8213
6109000000.0 -0.5541 -0.6492
6112000000.0 -0.8567 -0.007203
6116000000.0 -0.525 0.6736
6119000000.0 0.1834 0.8465
6122000000.0 0.7563 0.3789
6125000000.0 0.7956 -0.3713
6128000000.0 0.231 -0.8439
6131000000.0 -0.5112 -0.7047
6134000000.0 -0.8628 -0.05968
6138000000.0 -0.5542 0.6752
6141000000.0 0.1562 0.8606
6144000000.0 0.7813 0.4736
6147000000.0 0.8169 -0.3143
6150000000.0 0.2827 -0.8482
6153000000.0 -0.48 -0.8008
6156000000.0 -0.9003 -0.1111
6159000000.0 -0.6687 0.6267
6162000000.0 0.05913 0.8841
6166000000.0 0.7593 0.5466
6169000000.0 0.89 -0.2744
6172000000.0 0.3894 -0.809
6175000000.0 -0.4192 -0.8545
6178000000.0 -0.9352 -0.1846
6181000000.0 -0.7197 0.589
6184000000.0 0.01049 0.9553
6188000000.0 0.7322 0.6092
6191000000.0 0.9204 -0.2156
6194000000.0 0.4602 -0.8358
6197000000.0 -0.3467 -0.8927
6200000000.0 -0.9232 -0.2916
6203000000.0 -0.8014 0.5006
6206000000.0 -0.07908 0.9066
6209000000.0 0.6545 0.6778
6212000000.0 0.9386 -0.09087
6216000000.0 0.5141 -0.7384
6219000000.0 -0.2465 -0.8911
6222000000.0 -0.8643 -0.3853
6225000000.0 -0.8201 0.3947
6228000000.0 -0.179 0.8728
6231000000.0 0.5384 0.7196
6234000000.0 0.9073 0.02988
6238000000.0 0.5997 -0.6438
6241000000.0 -0.111 -0.8747
6244000000.0 -0.736 -0.4662
6247000000.0 -0.8326 0.2409
6250000000.0 -0.3372 0.7963
6253000000.0 0.3842 0.7461
6256000000.0 0.7863 0.1516
6259000000.0 0.6354 -0.5163
6262000000.0 -0.01145 -0.8359
