! Created with skrf 1.8.0 (http://scikit-rf.org).
# Hz S RI R 50.0 
!freq ReS11 ImS11
4000000000.0 -0.1882 -1.513
4003000000.0 -1.272 -0.7909
4006000000.0 -1.437 0.4989
4009000000.0 -0.5203 1.443
4012000000.0 0.7858 1.26
4016000000.0 1.48 0.2406
4019000000.0 1.129 -1.027
4022000000.0 -0.1032 -1.587
4025000000.0 -1.31 -0.8922
4028000000.0 -1.473 0.4767
4031000000.0 -0.6055 1.476
4034000000.0 0.7926 1.395
4038000000.0 1.641 0.2248
4041000000.0 1.218 -1.114
4044000000.0 -0.167 -1.597
4047000000.0 -1.325 -0.9434
4050000000.0 -1.578 0.4899
4053000000.0 -0.6184 1.542
4056000000.0 0.7799 1.386
4059000000.0 1.568 0.317
4062000000.0 1.247 -1.022
4066000000.0 0.03525 -1.618
4069000000.0 -1.239 -1.054
4072000000.0 -1.608 0.2771
4075000000.0 -0.7641 1.4
4078000000.0 0.5793 1.578
4081000000.0 1.553 0.5273
4084000000.0 1.423 -0.8728
4088000000.0 0.2423 -1.584
4091000000.0 -1.096 -1.237
4094000000.0 -1.667 0.06678
4097000000.0 -0.9718 1.316
4100000000.0 0.3879 1.588
4103000000.0 1.458 0.7118
4106000000.0 1.421 -0.6293
4109000000.0 0.4153 -1.528
4112000000.0 -0.8805 -1.309
4116000000.0 -1.502 -0.2029
4119000000.0 -1.121 1.022
4122000000.0 0.02552 1.507
4125000000.0 1.136 0.9381
4128000000.0 1.456 -0.2074
4131000000.0 0.7851 -1.215
4134000000.0 -0.4528 -1.415
4138000000.0 -1.369 -0.5989
4141000000.0 -1.331 0.6614
4144000000.0 -0.3517 1.444
4147000000.0 0.8778 1.235
4150000000.0 1.524 0.1552
4153000000.0 1.083 -1.069
4156000000.0 -0.1201 -1.55
4159000000.0 -1.234 -0.8952
4162000000.0 -1.457 0.3805
4166000000.0 -0.6528 1.379
4169000000.0 0.6358 1.371
4172000000.0 1.408 0.3695
4175000000.0 1.241 -0.8405
4178000000.0 0.1903 -1.488
4181000000.0 -0.9994 -1.081
4184000000.0 -1.477 0.09609
4188000000.0 -0.89 1.243
4191000000.0 0.4009 1.483
4194000000.0 1.412 0.6384
4197000000.0 1.431 -0.6426
4200000000.0 0.3933 -1.58
4203000000.0 -1.001 -1.268
4206000000.0 -1.618 -0.03306
4209000000.0 -1.059 1.265
4212000000.0 0.3613 1.627
4216000000.0 1.533 0.7154
4219000000.0 1.498 -0.7504
4222000000.0 0.322 -1.683
4225000000.0 -1.131 -1.282
4228000000.0 -1.665 0.1483
4231000000.0 -0.89 1.388
4234000000.0 0.5681 1.552
4238000000.0 1.561 0.4691
4241000000.0 1.382 -0.9508
4244000000.0 0.04484 -1.598
4247000000.0 -1.217 -1.048
4250000000.0 -1.531 0.3224
4253000000.0 -0.6533 1.413
4256000000.0 0.7046 1.376
4259000000.0 1.493 0.2987
4262000000.0 1.157 -0.9897
4266000000.0 -0.08909 -1.559
4269000000.0 -1.235 -0.8476
4272000000.0 -1.412 0.4341
4275000000.0 -0.5018 1.377
4278000000.0 0.7858 1.194
4281000000.0 1.379 0.1527
4284000000.0 1.019 -1.007
4288000000.0 -0.1905 -1.382
4291000000.0 -1.198 -0.7022
4294000000.0 -1.306 0.4566
4297000000.0 -0.4716 1.275
4300000000.0 0.6526 1.143
4303000000.0 1.287 0.2106
4306000000.0 0.993 -0.7958
4309000000.0 0.0009855 -1.289
4312000000.0 -0.9851 -0.8638
4316000000.0 -1.265 0.2299
4319000000.0 -0.678 1.098
4322000000.0 0.4141 1.244
4325000000.0 1.192 0.5071
4328000000.0 1.184 -0.6352
4331000000.0 0.2643 -1.335
4334000000.0 -0.8522 -1.075
4338000000.0 -1.381 -0.06243
4341000000.0 -0.9156 1.084
4344000000.0 0.2296 1.43
4347000000.0 1.238 0.7136
4350000000.0 1.357 -0.4964
4353000000.0 0.4764 -1.371
4356000000.0 -0.7251 -1.278
4359000000.0 -1.451 -0.2519
4362000000.0 -1.091 0.917
4366000000.0 0.02332 1.458
4369000000.0 1.132 0.9156
4372000000.0 1.43 -0.2897
4375000000.0 0.7272 -1.363
4378000000.0 -0.5714 -1.401
4381000000.0 -1.451 -0.4044
4384000000.0 -1.263 0.8311
4388000000.0 -0.1431 1.563
4391000000.0 1.125 1.091
4394000000.0 1.576 -0.1869
4397000000.0 0.8236 -1.329
4400000000.0 -0.5129 -1.483
4403000000.0 -1.489 -0.5287
4406000000.0 -1.353 0.8645
4409000000.0 -0.1429 1.54
4412000000.0 1.17 1.085
4416000000.0 1.526 -0.217
4419000000.0 0.7842 -1.336
4422000000.0 -0.5807 -1.411
4425000000.0 -1.436 -0.3928
4428000000.0 -1.19 0.8642
4431000000.0 -0.07335 1.475
4434000000.0 1.084 0.9077
4438000000.0 1.346 -0.2672
4441000000.0 0.6028 -1.243
4444000000.0 -0.5767 -1.261
4447000000.0 -1.304 -0.2839
4450000000.0 -1.014 0.8334
4453000000.0 0.05517 1.335
4456000000.0 1.043 0.771
4459000000.0 1.246 -0.3531
4462000000.0 0.4485 -1.173
4466000000.0 -0.6446 -1.069
4469000000.0 -1.229 -0.1216
4472000000.0 -0.8375 0.8732
4475000000.0 0.1811 1.18
4478000000.0 1.025 0.5931
4481000000.0 1.091 -0.4242
4484000000.0 0.3441 -1.125
4488000000.0 -0.6744 -0.9349
4491000000.0 -1.127 -0.06764
4494000000.0 -0.7284 0.8508
4497000000.0 0.199 1.108
4500000000.0 0.9967 0.5609
4503000000.0 0.9913 -0.4185
4506000000.0 0.3128 -1.066
4509000000.0 -0.6307 -0.9172
4512000000.0 -1.083 -0.06754
4516000000.0 -0.7621 0.7721
4519000000.0 0.1682 1.105
4522000000.0 0.9719 0.5795
4525000000.0 1.08 -0.3899
4528000000.0 0.4127 -1.079
4531000000.0 -0.5955 -0.9931
4534000000.0 -1.159 -0.2091
4538000000.0 -0.8526 0.7753
4541000000.0 0.02993 1.181
4544000000.0 0.9571 0.7259
4547000000.0 1.156 -0.2747
4550000000.0 0.5624 -1.077
4553000000.0 -0.4904 -1.125
4556000000.0 -1.178 -0.3811
4559000000.0 -1.024 0.6654
4562000000.0 -0.1458 1.221
4566000000.0 0.8678 0.9212
4569000000.0 1.278 -0.07289
4572000000.0 0.786 -1.017
4575000000.0 -0.3089 -1.261
4578000000.0 -1.168 -0.5821
4581000000.0 -1.223 0.5269
4584000000.0 -0.3872 1.313
4588000000.0 0.7362 1.102
4591000000.0 1.343 0.1446
4594000000.0 0.9656 -0.9744
4597000000.0 -0.157 -1.371
4600000000.0 -1.153 -0.7948
4603000000.0 -1.343 0.4042
4606000000.0 -0.5251 1.283
4609000000.0 0.6527 1.24
4612000000.0 1.384 0.2924
4616000000.0 1.071 -0.8841
4619000000.0 -0.01582 -1.404
4622000000.0 -1.113 -0.8457
4625000000.0 -1.348 0.2606
4628000000.0 -0.6379 1.214
4631000000.0 0.5545 1.291
4634000000.0 1.325 0.363
4638000000.0 1.129 -0.8049
4641000000.0 0.07891 -1.359
4644000000.0 -1.014 -0.8933
4647000000.0 -1.312 0.1925
4650000000.0 -0.635 1.189
4653000000.0 0.5034 1.217
4656000000.0 1.259 0.3484
4659000000.0 1.045 -0.7631
4662000000.0 0.06322 -1.26
4666000000.0 -0.953 -0.7965
4669000000.0 -1.171 0.2548
4672000000.0 -0.5464 1.063
4675000000.0 0.4888 1.06
4678000000.0 1.13 0.3172
4681000000.0 0.9232 -0.689
4684000000.0 0.0426 -1.147
4688000000.0 -0.8394 -0.7458
4691000000.0 -1.085 0.185
4694000000.0 -0.5386 0.9733
4697000000.0 0.4471 1.001
4700000000.0 1.042 0.2803
4703000000.0 0.8588 -0.6611
4706000000.0 0.003012 -1.053
4709000000.0 -0.8618 -0.663
4712000000.0 -1.058 0.2323
4716000000.0 -0.4627 0.9337
4719000000.0 0.4557 0.9313
4722000000.0 1.04 0.2332
4725000000.0 0.803 -0.6326
4728000000.0 0.02015 -1.041
4731000000.0 -0.7879 -0.6897
4734000000.0 -1.016 0.1686
4738000000.0 -0.5352 0.8885
4741000000.0 0.3803 0.9471
4744000000.0 1.002 0.3258
4747000000.0 0.8848 -0.5484
4750000000.0 0.1394 -1.047
4753000000.0 -0.7283 -0.8008
4756000000.0 -1.093 0.04242
4759000000.0 -0.6877 0.8835
4762000000.0 0.2447 1.107
4766000000.0 1.027 0.5181
4769000000.0 1.028 -0.4438
4772000000.0 0.2937 -1.121
4775000000.0 -0.6504 -0.9312
4778000000.0 -1.197 -0.1138
4781000000.0 -0.8513 0.8053
4784000000.0 0.1002 1.174
4788000000.0 0.9781 0.719
4791000000.0 1.176 -0.3064
4794000000.0 0.5625 -1.122
4797000000.0 -0.4808 -1.154
4800000000.0 -1.201 -0.3635
4803000000.0 -1.042 0.6631
4806000000.0 -0.1451 1.239
4809000000.0 0.8639 0.9526
4812000000.0 1.267 -0.06231
4816000000.0 0.8158 -1.027
4819000000.0 -0.2905 -1.294
4822000000.0 -1.194 -0.5964
4825000000.0 -1.255 0.5347
4828000000.0 -0.3677 1.313
4831000000.0 0.7659 1.136
4834000000.0 1.368 0.1178
4838000000.0 0.9742 -0.9862
4841000000.0 -0.1409 -1.361
4844000000.0 -1.176 -0.7476
4847000000.0 -1.332 0.4256
4850000000.0 -0.5076 1.295
4853000000.0 0.6978 1.209
4856000000.0 1.364 0.2232
4859000000.0 1.024 -0.8872
4862000000.0 -0.03132 -1.352
4866000000.0 -1.08 -0.8184
4869000000.0 -1.298 0.3092
4872000000.0 -0.5952 1.191
4875000000.0 0.5647 1.172
4878000000.0 1.26 0.3031
4881000000.0 1.008 -0.7798
4884000000.0 0.04313 -1.255
4888000000.0 -0.9291 -0.8038
4891000000.0 -1.189 0.256
4894000000.0 -0.5355 1.053
4897000000.0 0.4448 1.076
4900000000.0 1.078 0.2796
4903000000.0 0.9436 -0.6544
4906000000.0 0.0497 -1.101
4909000000.0 -0.7837 -0.7057
4912000000.0 -1.059 0.1243
4916000000.0 -0.5339 0.9078
4919000000.0 0.3498 0.9637
4922000000.0 0.9465 0.3147
4925000000.0 0.8268 -0.498
4928000000.0 0.1387 -0.9328
4931000000.0 -0.6517 -0.695
4934000000.0 -0.9277 0.03851
4938000000.0 -0.5456 0.7765
4941000000.0 0.2722 0.9176
4944000000.0 0.8699 0.3997
4947000000.0 0.8362 -0.3993
4950000000.0 0.2071 -0.9134
4953000000.0 -0.5464 -0.7312
4956000000.0 -0.9307 0.001818
4959000000.0 -0.622 0.72
4962000000.0 0.176 0.937
4966000000.0 0.8722 0.4508
4969000000.0 0.9417 -0.3748
4972000000.0 0.3084 -0.947
4975000000.0 -0.5411 -0.8228
4978000000.0 -1.007 -0.1014
4981000000.0 -0.7315 0.7159
4984000000.0 0.07222 1.042
4988000000.0 0.8782 0.5862
4991000000.0 1.041 -0.2894
4994000000.0 0.4754 -0.9574
4997000000.0 -0.4768 -0.9929
5000000000.0 -1.08 -0.2782
5003000000.0 -0.9096 0.672
5006000000.0 -0.04605 1.162
5009000000.0 0.8602 0.8042
5012000000.0 1.208 -0.1291
5016000000.0 0.6402 -1.028
5019000000.0 -0.394 -1.151
5022000000.0 -1.173 -0.4374
5025000000.0 -1.108 0.6212
5028000000.0 -0.1937 1.234
5031000000.0 0.8255 0.9595
5034000000.0 1.298 -0.02281
5038000000.0 0.8033 -0.9898
5041000000.0 -0.2592 -1.271
5044000000.0 -1.123 -0.6082
5047000000.0 -1.189 0.4792
5050000000.0 -0.4323 1.248
5053000000.0 0.6879 1.125
5056000000.0 1.291 0.1609
5059000000.0 0.9485 -0.8691
5062000000.0 -0.03926 -1.278
5066000000.0 -1.019 -0.7976
5069000000.0 -1.302 0.2577
5072000000.0 -0.5522 1.143
5075000000.0 0.5248 1.187
5078000000.0 1.209 0.3633
5081000000.0 1.053 -0.6826
5084000000.0 0.1387 -1.234
5088000000.0 -0.8695 -0.8573
5091000000.0 -1.191 0.08431
5094000000.0 -0.6919 0.9767
5097000000.0 0.2698 1.165
5100000000.0 1.002 0.5077
5103000000.0 1.006 -0.4816
5106000000.0 0.2968 -1.065
5109000000.0 -0.6042 -0.8801
5112000000.0 -1.084 -0.117
5116000000.0 -0.7776 0.7562
5119000000.0 0.05939 1.046
5122000000.0 0.8757 0.5877
5125000000.0 0.9883 -0.2797
5128000000.0 0.4037 -0.928
5131000000.0 -0.4344 -0.9292
5134000000.0 -0.9903 -0.2234
5138000000.0 -0.7989 0.5869
5141000000.0 -0.0606 0.9515
5144000000.0 0.7412 0.6202
5147000000.0 0.9346 -0.1332
5150000000.0 0.4833 -0.8223
5153000000.0 -0.3371 -0.8403
5156000000.0 -0.8871 -0.2945
5159000000.0 -0.7652 0.4652
5162000000.0 -0.1216 0.9247
5166000000.0 0.628 0.6587
5169000000.0 0.9183 -0.06683
5172000000.0 0.5275 -0.7555
5175000000.0 -0.2046 -0.9043
5178000000.0 -0.8346 -0.3547
5181000000.0 -0.8055 0.4282
5184000000.0 -0.1774 0.9234
5188000000.0 0.6516 0.6971
5191000000.0 0.9117 -0.02654
5194000000.0 0.5514 -0.7747
5197000000.0 -0.2493 -0.9041
5200000000.0 -0.8612 -0.3838
5203000000.0 -0.8148 0.4422
5206000000.0 -0.1812 0.92
5209000000.0 0.6155 0.7473
5212000000.0 0.9617 -0.01224
5216000000.0 0.6108 -0.7651
5219000000.0 -0.2338 -0.9617
5222000000.0 -0.8961 -0.4156
5225000000.0 -0.9146 0.403
5228000000.0 -0.2606 0.9817
5231000000.0 0.608 0.801
5234000000.0 1.029 0.04596
5238000000.0 0.6852 -0.7622
5241000000.0 -0.1663 -1.039
5244000000.0 -0.8994 -0.5586
5247000000.0 -1.003 0.3185
5250000000.0 -0.3637 0.9665
5253000000.0 0.5408 0.9181
5256000000.0 1.072 0.1849
5259000000.0 0.8443 -0.708
5262000000.0 0.02823 -1.069
5266000000.0 -0.8133 -0.691
5269000000.0 -1.043 0.1976
5272000000.0 -0.5586 0.9595
5275000000.0 0.3819 1.013
5278000000.0 1.045 0.3851
5281000000.0 0.9757 -0.5624
5284000000.0 0.212 -1.11
5288000000.0 -0.6743 -0.8541
5291000000.0 -1.127 -0.05165
5294000000.0 -0.719 0.8194
5297000000.0 0.16 1.09
5300000000.0 0.9726 0.6158
5303000000.0 1.09 -0.3242
5306000000.0 0.4537 -1.056
5309000000.0 -0.4998 -1.001
5312000000.0 -1.092 -0.2813
5316000000.0 -0.9461 0.6789
5319000000.0 -0.08315 1.116
5322000000.0 0.814 0.7988
5325000000.0 1.156 -0.1276
5328000000.0 0.6435 -0.9855
5331000000.0 -0.2998 -1.095
5334000000.0 -1.071 -0.4645
5338000000.0 -0.9898 0.538
5341000000.0 -0.2073 1.09
5344000000.0 0.7111 0.8859
5347000000.0 1.114 0.02205
5350000000.0 0.7584 -0.8251
5353000000.0 -0.1925 -1.107
5356000000.0 -0.9672 -0.5299
5359000000.0 -0.9874 0.3826
5362000000.0 -0.3435 1.056
5366000000.0 0.5633 0.8946
5369000000.0 1.046 0.1061
5372000000.0 0.7115 -0.7524
5375000000.0 -0.1059 -1.033
5378000000.0 -0.847 -0.5357
5381000000.0 -0.9424 0.3655
5384000000.0 -0.2997 0.9585
5388000000.0 0.5419 0.8353
5391000000.0 0.9639 0.08006
5394000000.0 0.6403 -0.7022
5397000000.0 -0.1447 -0.9363
5400000000.0 -0.7866 -0.4559
5403000000.0 -0.8383 0.3408
5406000000.0 -0.2639 0.874
5409000000.0 0.5092 0.7234
5412000000.0 0.8775 0.06222
5416000000.0 0.5883 -0.6362
5419000000.0 -0.1347 -0.849
5422000000.0 -0.7556 -0.4127
5425000000.0 -0.8207 0.3276
5428000000.0 -0.2375 0.8528
5431000000.0 0.4987 0.7253
5434000000.0 0.8762 0.03522
5438000000.0 0.5934 -0.6525
5441000000.0 -0.1244 -0.834
5444000000.0 -0.7705 -0.4279
5447000000.0 -0.7836 0.3271
5450000000.0 -0.2392 0.843
5453000000.0 0.504 0.7365
5456000000.0 0.8875 0.09198
5459000000.0 0.612 -0.6302
5462000000.0 -0.09573 -0.9112
5466000000.0 -0.7737 -0.5216
5469000000.0 -0.8346 0.2592
5472000000.0 -0.3636 0.8595
5475000000.0 0.4034 0.8254
5478000000.0 0.9009 0.1776
5481000000.0 0.7494 -0.5542
5484000000.0 0.06525 -0.9659
5488000000.0 -0.7188 -0.6591
5491000000.0 -0.9906 0.1357
5494000000.0 -0.5111 0.8311
5497000000.0 0.3068 0.9522
5500000000.0 0.9442 0.3805
5503000000.0 0.9052 -0.4903
5506000000.0 0.1814 -0.9855
5509000000.0 -0.626 -0.8308
5512000000.0 -1.035 -0.03356
5516000000.0 -0.6615 0.7809
5519000000.0 0.1318 1.03
5522000000.0 0.8771 0.5326
5525000000.0 1.026 -0.3013
5528000000.0 0.4302 -0.9523
5531000000.0 -0.4609 -0.9567
5534000000.0 -1.008 -0.2017
5538000000.0 -0.8651 0.6118
5541000000.0 -0.06803 1.083
5544000000.0 0.7916 0.7438
5547000000.0 1.024 -0.1201
5550000000.0 0.5586 -0.8965
5553000000.0 -0.3627 -1.01
5556000000.0 -0.9684 -0.4133
5559000000.0 -0.9288 0.5003
5562000000.0 -0.2448 0.9932
5566000000.0 0.6834 0.8449
5569000000.0 1.053 0.03978
5572000000.0 0.6432 -0.7577
5575000000.0 -0.1897 -1.011
5578000000.0 -0.8885 -0.5143
5581000000.0 -0.9221 0.3452
5584000000.0 -0.3418 0.9117
5588000000.0 0.519 0.8155
5591000000.0 0.9383 0.1579
5594000000.0 0.7243 -0.669
5597000000.0 -0.0313 -0.9447
5600000000.0 -0.7516 -0.5439
5603000000.0 -0.8913 0.24
5606000000.0 -0.3822 0.8138
5609000000.0 0.4314 0.8237
5612000000.0 0.849 0.1938
5616000000.0 0.6939 -0.5492
5619000000.0 0.02236 -0.8509
5622000000.0 -0.6545 -0.5647
5625000000.0 -0.84 0.1636
5628000000.0 -0.3828 0.7586
5631000000.0 0.3173 0.7789
5634000000.0 0.8057 0.2162
5638000000.0 0.6899 -0.457
5641000000.0 0.03956 -0.8377
5644000000.0 -0.6345 -0.5496
5647000000.0 -0.838 0.1328
5650000000.0 -0.4274 0.7533
5653000000.0 0.3267 0.7903
5656000000.0 0.8344 0.2297
5659000000.0 0.6981 -0.5096
5662000000.0 0.03457 -0.8468
5666000000.0 -0.6349 -0.5991
5669000000.0 -0.8627 0.1388
5672000000.0 -0.4389 0.759
5675000000.0 0.3416 0.8349
5678000000.0 0.8532 0.2454
5681000000.0 0.7723 -0.4848
5684000000.0 0.07776 -0.9239
5688000000.0 -0.6936 -0.6732
5691000000.0 -0.9634 0.1347
5694000000.0 -0.5079 0.8035
5697000000.0 0.3425 0.9326
5700000000.0 0.9412 0.3251
5703000000.0 0.889 -0.512
5706000000.0 0.144 -0.9905
5709000000.0 -0.6886 -0.768
5712000000.0 -1.012 0.03672
5716000000.0 -0.6162 0.8401
5719000000.0 0.2362 1.044
5722000000.0 0.9199 0.4566
5725000000.0 0.9435 -0.4557
5728000000.0 0.294 -1.029
5731000000.0 -0.6271 -0.8536
5734000000.0 -1.108 -0.06829
5738000000.0 -0.7519 0.7969
5741000000.0 0.1322 1.071
5744000000.0 0.8888 0.5919
5747000000.0 1.048 -0.2971
5750000000.0 0.4372 -1.005
5753000000.0 -0.5175 -0.9718
5756000000.0 -1.101 -0.2247
5759000000.0 -0.8956 0.6866
5762000000.0 -0.0395 1.118
5766000000.0 0.8056 0.7599
5769000000.0 1.093 -0.1164
5772000000.0 0.5898 -0.9298
5775000000.0 -0.347 -1.029
5778000000.0 -1.046 -0.4103
5781000000.0 -0.9595 0.5078
5784000000.0 -0.2024 1.136
5788000000.0 0.703 0.8423
5791000000.0 1.075 0.06714
5794000000.0 0.6959 -0.8053
5797000000.0 -0.1958 -1.049
5800000000.0 -0.9181 -0.5213
5803000000.0 -0.9913 0.3741
5806000000.0 -0.344 1.022
5809000000.0 0.5407 0.9308
5812000000.0 1.063 0.1673
5816000000.0 0.7657 -0.7095
5819000000.0 -0.06951 -1.001
5822000000.0 -0.8186 -0.577
5825000000.0 -0.9912 0.2584
5828000000.0 -0.4034 0.8994
5831000000.0 0.4314 0.8762
5834000000.0 0.9705 0.2066
5838000000.0 0.7886 -0.6142
5841000000.0 0.01584 -0.9541
5844000000.0 -0.7611 -0.661
5847000000.0 -0.9295 0.1658
5850000000.0 -0.4631 0.8362
5853000000.0 0.38 0.886
5856000000.0 0.8689 0.2765
5859000000.0 0.7533 -0.5141
5862000000.0 0.06645 -0.8873
5866000000.0 -0.6544 -0.6265
5869000000.0 -0.8894 0.1077
5872000000.0 -0.4384 0.7714
5875000000.0 0.3081 0.8363
5878000000.0 0.8156 0.2601
5881000000.0 0.7541 -0.4911
5884000000.0 0.07146 -0.8516
5888000000.0 -0.6391 -0.6102
5891000000.0 -0.8291 0.1147
5894000000.0 -0.4557 0.7319
5897000000.0 0.2904 0.8126
5900000000.0 0.7826 0.2903
5903000000.0 0.7648 -0.4192
5906000000.0 0.111 -0.833
5909000000.0 -0.5828 -0.6355
5912000000.0 -0.8614 0.04029
5916000000.0 -0.5092 0.6928
5919000000.0 0.2234 0.8552
5922000000.0 0.7891 0.3904
5925000000.0 0.7806 -0.4011
5928000000.0 0.1837 -0.8268
5931000000.0 -0.4987 -0.7096
5934000000.0 -0.8664 -0.0517
5938000000.0 -0.6096 0.641
5941000000.0 0.09453 0.8815
5944000000.0 0.7454 0.4832
5947000000.0 0.89 -0.2787
5950000000.0 0.3631 -0.8526
5953000000.0 -0.4077 -0.8093
5956000000.0 -0.9134 -0.1983
5959000000.0 -0.7476 0.5559
5962000000.0 -0.01933 0.917
5966000000.0 0.7099 0.6205
5969000000.0 0.9231 -0.1148
5972000000.0 0.5101 -0.8318
5975000000.0 -0.2959 -0.8951
5978000000.0 -0.9032 -0.3393
5981000000.0 -0.8307 0.4439
5984000000.0 -0.1812 0.989
5988000000.0 0.6539 0.7959
5991000000.0 0.9996 0.01984
5994000000.0 0.6823 -0.7509
5997000000.0 -0.1764 -0.9637
6000000000.0 -0.9041 -0.475
6003000000.0 -0.91 0.3376
6006000000.0 -0.3108 0.942
6009000000.0 0.5325 0.8629
6012000000.0 0.9968 0.1089
6016000000.0 0.7316 -0.6744
6019000000.0 -0.07241 -0.9745
6022000000.0 -0.8255 -0.565
6025000000.0 -0.9891 0.2571
6028000000.0 -0.4107 0.9016
6031000000.0 0.41 0.8719
6034000000.0 0.9548 0.2051
6038000000.0 0.7481 -0.5968
6041000000.0 0.02324 -0.96
6044000000.0 -0.7269 -0.6171
6047000000.0 -0.9344 0.1604
6050000000.0 -0.4748 0.8478
6053000000.0 0.369 0.8601
6056000000.0 0.8884 0.2517
6059000000.0 0.7553 -0.5165
6062000000.0 0.06503 -0.9087
6066000000.0 -0.6697 -0.6068
6069000000.0 -0.9055 0.1454
6072000000.0 -0.4634 0.7559
6075000000.0 0.3097 0.8384
6078000000.0 0.848 0.3019
6081000000.0 0.732 -0.4488
6084000000.0 0.1219 -0.8729
6088000000.0 -0.5781 -0.6256
6091000000.0 -0.8728 0.08686
6094000000.0 -0.4959 0.7293
6097000000.0 0.2391 0.8331
6100000000.0 0.7957 0.3431
6103000000.0 0.7363 -0.4141
6106000000.0 0.1499 -0.8464
6109000000.0 -0.5547 -0.6538
6112000000.0 -0.8581 0.01502
6116000000.0 -0.503 0.7194
6119000000.0 0.2073 0.8457
6122000000.0 0.7738 0.391
6125000000.0 0.7789 -0.3657
6128000000.0 0.1842 -0.8433
6131000000.0 -0.5362 -0.6713
6134000000.0 -0.8826 0.02149
6138000000.0 -0.5575 0.6659
6141000000.0 0.1727 0.8708
6144000000.0 0.7823 0.4197
6147000000.0 0.7771 -0.3446
6150000000.0 0.255 -0.8694
6153000000.0 -0.5259 -0.7305
6156000000.0 -0.8779 -0.06331
6159000000.0 -0.6354 0.6508
6162000000.0 0.1028 0.9444
6166000000.0 0.7953 0.4967
6169000000.0 0.8808 -0.2529
6172000000.0 0.342 -0.8749
6175000000.0 -0.4711 -0.8166
6178000000.0 -0.9332 -0.1548
6181000000.0 -0.7208 0.618
6184000000.0 0.03297 0.9645
6188000000.0 0.7486 0.562
6191000000.0 0.926 -0.2267
6194000000.0 0.4138 -0.8603
6197000000.0 -0.4007 -0.8303
6200000000.0 -0.921 -0.2417
6203000000.0 -0.7632 0.5552
6206000000.0 -0.09955 0.9206
6209000000.0 0.674 0.6414
6212000000.0 0.9406 -0.1003
6216000000.0 0.4737 -0.7619
6219000000.0 -0.2542 -0.8889
6222000000.0 -0.819 -0.3494
6225000000.0 -0.8192 0.4117
6228000000.0 -0.1904 0.9082
6231000000.0 0.547 0.6817
6234000000.0 0.8929 0.01584
6238000000.0 0.581 -0.6653
6241000000.0 -0.1701 -0.8609
6244000000.0 -0.7837 -0.4363
6247000000.0 -0.7927 0.3339
6250000000.0 -0.3073 0.8552
6253000000.0 0.435 0.7213
6256000000.0 0.8542 0.1176
6259000000.0 0.6467 -0.5149
6262000000.0 -0.04669 -0.8464
6266000000.0 -0.6148 -0.5153
