! Created with skrf 1.8.0 (http://scikit-rf.org).
# Hz S RI R 50.0 
!freq ReS11 ImS11
4000000000.0 -0.1975 -1.509
4003000000.0 -1.281 -0.8121
4006000000.0 -1.426 0.5363
4009000000.0 -0.4763 1.429
4012000000.0 0.7987 1.245
4016000000.0 1.498 0.2323
4019000000.0 1.138 -1.104
4022000000.0 -0.1217 -1.551
4025000000.0 -1.306 -0.8494
4028000000.0 -1.461 0.4352
4031000000.0 -0.576 1.501
4034000000.0 0.8509 1.388
4038000000.0 1.634 0.214
4041000000.0 1.152 -1.152
4044000000.0 -0.1603 -1.654
4047000000.0 -1.313 -0.8955
4050000000.0 -1.56 0.4898
4053000000.0 -0.5969 1.503
4056000000.0 0.7752 1.415
4059000000.0 1.58 0.2943
4062000000.0 1.183 -1.023
4066000000.0 0.02554 -1.606
4069000000.0 -1.247 -1.055
4072000000.0 -1.63 0.3114
4075000000.0 -0.7745 1.4
4078000000.0 0.6027 1.507
4081000000.0 1.557 0.5187
4084000000.0 1.407 -0.9039
4088000000.0 0.2053 -1.628
4091000000.0 -1.102 -1.2
4094000000.0 -1.64 0.09788
4097000000.0 -0.9818 1.303
4100000000.0 0.4276 1.574
4103000000.0 1.45 0.6854
4106000000.0 1.432 -0.6701
4109000000.0 0.4395 -1.473
4112000000.0 -0.8487 -1.267
4116000000.0 -1.526 -0.1583
4119000000.0 -1.091 1.041
4122000000.0 0.07756 1.447
4125000000.0 1.145 0.9197
4128000000.0 1.418 -0.2494
4131000000.0 0.7814 -1.275
4134000000.0 -0.4792 -1.377
4138000000.0 -1.355 -0.5528
4141000000.0 -1.317 0.6657
4144000000.0 -0.3371 1.435
4147000000.0 0.9159 1.247
4150000000.0 1.526 0.1031
4153000000.0 1.03 -1.09
4156000000.0 -0.1527 -1.501
4159000000.0 -1.238 -0.86
4162000000.0 -1.435 0.3951
4166000000.0 -0.6411 1.343
4169000000.0 0.6325 1.338
4172000000.0 1.462 0.387
4175000000.0 1.224 -0.8387
4178000000.0 0.1205 -1.48
4181000000.0 -1.055 -1.053
4184000000.0 -1.496 0.1396
4188000000.0 -0.8557 1.246
4191000000.0 0.3885 1.454
4194000000.0 1.398 0.6318
4197000000.0 1.384 -0.6859
4200000000.0 0.3286 -1.519
4203000000.0 -0.9948 -1.26
4206000000.0 -1.592 0.02552
4209000000.0 -1.015 1.324
4212000000.0 0.4075 1.616
4216000000.0 1.505 0.6867
4219000000.0 1.463 -0.8007
4222000000.0 0.2242 -1.632
4225000000.0 -1.16 -1.235
4228000000.0 -1.666 0.1961
4231000000.0 -0.8625 1.393
4234000000.0 0.6154 1.544
4238000000.0 1.571 0.3929
4241000000.0 1.283 -0.9833
4244000000.0 0.0085 -1.581
4247000000.0 -1.234 -0.966
4250000000.0 -1.543 0.3776
4253000000.0 -0.6232 1.429
4256000000.0 0.7574 1.318
4259000000.0 1.521 0.2176
4262000000.0 1.08 -1.044
4266000000.0 -0.1313 -1.491
4269000000.0 -1.222 -0.8447
4272000000.0 -1.399 0.5003
4275000000.0 -0.4733 1.395
4278000000.0 0.8075 1.188
4281000000.0 1.418 0.1483
4284000000.0 0.967 -1.047
4288000000.0 -0.1942 -1.324
4291000000.0 -1.175 -0.6827
4294000000.0 -1.274 0.4772
4297000000.0 -0.4295 1.25
4300000000.0 0.6925 1.141
4303000000.0 1.282 0.2093
4306000000.0 0.9259 -0.8418
4309000000.0 -0.04658 -1.264
4312000000.0 -1.006 -0.8157
4316000000.0 -1.266 0.2705
4319000000.0 -0.6461 1.102
4322000000.0 0.4707 1.204
4325000000.0 1.225 0.4505
4328000000.0 1.171 -0.6652
4331000000.0 0.2581 -1.33
4334000000.0 -0.8868 -1.037
4338000000.0 -1.398 0.02376
4341000000.0 -0.8901 1.048
4344000000.0 0.2866 1.35
4347000000.0 1.248 0.6795
4350000000.0 1.322 -0.524
4353000000.0 0.4367 -1.348
4356000000.0 -0.7997 -1.218
4359000000.0 -1.406 -0.2044
4362000000.0 -1.06 1.007
4366000000.0 0.07268 1.49
4369000000.0 1.168 0.873
4372000000.0 1.444 -0.3602
4375000000.0 0.6813 -1.354
4378000000.0 -0.6349 -1.344
4381000000.0 -1.445 -0.3983
4384000000.0 -1.253 0.8811
4388000000.0 -0.05416 1.539
4391000000.0 1.167 1.043
4394000000.0 1.575 -0.2359
4397000000.0 0.8113 -1.36
4400000000.0 -0.5725 -1.421
4403000000.0 -1.498 -0.4702
4406000000.0 -1.264 0.9256
4409000000.0 -0.06185 1.589
4412000000.0 1.16 1.011
4416000000.0 1.504 -0.2956
4419000000.0 0.6963 -1.357
4422000000.0 -0.6459 -1.369
4425000000.0 -1.445 -0.3686
4428000000.0 -1.142 0.9185
4431000000.0 -0.01058 1.437
4434000000.0 1.097 0.8673
4438000000.0 1.373 -0.3909
4441000000.0 0.5615 -1.251
4444000000.0 -0.666 -1.179
4447000000.0 -1.312 -0.1881
4450000000.0 -0.978 0.9113
4453000000.0 0.1373 1.318
4456000000.0 1.114 0.6971
4459000000.0 1.175 -0.4486
4462000000.0 0.3833 -1.187
4466000000.0 -0.6785 -1.011
4469000000.0 -1.2 -0.06927
4472000000.0 -0.7694 0.8739
4475000000.0 0.2065 1.174
4478000000.0 1.038 0.5251
4481000000.0 1.025 -0.4799
4484000000.0 0.2467 -1.14
4488000000.0 -0.7304 -0.9125
4491000000.0 -1.125 0.02059
4494000000.0 -0.6891 0.8911
4497000000.0 0.2326 1.123
4500000000.0 1.007 0.4756
4503000000.0 0.9836 -0.4663
4506000000.0 0.2628 -1.05
4509000000.0 -0.6722 -0.8728
4512000000.0 -1.076 -0.05198
4516000000.0 -0.7172 0.8648
4519000000.0 0.1821 1.106
4522000000.0 0.9884 0.5376
4525000000.0 1.047 -0.4183
4528000000.0 0.3416 -1.101
4531000000.0 -0.6367 -0.9662
4534000000.0 -1.165 -0.1396
4538000000.0 -0.8274 0.7932
4541000000.0 0.1002 1.173
4544000000.0 0.9554 0.6754
4547000000.0 1.183 -0.3273
4550000000.0 0.4933 -1.095
4553000000.0 -0.5162 -1.076
4556000000.0 -1.183 -0.3114
4559000000.0 -1.001 0.7244
4562000000.0 -0.1021 1.217
4566000000.0 0.9194 0.9127
4569000000.0 1.269 -0.1353
4572000000.0 0.7177 -1.075
4575000000.0 -0.3667 -1.25
4578000000.0 -1.173 -0.5458
4581000000.0 -1.182 0.5833
4584000000.0 -0.326 1.291
4588000000.0 0.8198 1.078
4591000000.0 1.362 0.0414
4594000000.0 0.9141 -1.0
4597000000.0 -0.202 -1.354
4600000000.0 -1.162 -0.7477
4603000000.0 -1.318 0.4695
4606000000.0 -0.4926 1.315
4609000000.0 0.7014 1.181
4612000000.0 1.366 0.2088
4616000000.0 1.047 -0.9541
4619000000.0 -0.09579 -1.408
4622000000.0 -1.103 -0.8183
4625000000.0 -1.336 0.3704
4628000000.0 -0.5798 1.233
4631000000.0 0.5978 1.213
4634000000.0 1.35 0.3281
4638000000.0 1.072 -0.8328
4641000000.0 0.005929 -1.332
4644000000.0 -1.053 -0.8359
4647000000.0 -1.316 0.2808
4650000000.0 -0.5878 1.234
4653000000.0 0.564 1.176
4656000000.0 1.259 0.2997
4659000000.0 0.9937 -0.7969
4662000000.0 -0.02515 -1.25
4666000000.0 -0.9836 -0.764
4669000000.0 -1.161 0.2828
4672000000.0 -0.4878 1.073
4675000000.0 0.519 1.032
4678000000.0 1.124 0.2177
4681000000.0 0.8773 -0.734
4684000000.0 -0.006734 -1.132
4688000000.0 -0.8432 -0.6703
4691000000.0 -1.075 0.2823
4694000000.0 -0.4444 0.9971
4697000000.0 0.5014 0.9814
4700000000.0 1.059 0.219
4703000000.0 0.8186 -0.6952
4706000000.0 -0.03083 -1.074
4709000000.0 -0.8786 -0.6468
4712000000.0 -1.053 0.2924
4716000000.0 -0.4249 1.001
4719000000.0 0.517 0.924
4722000000.0 1.006 0.2062
4725000000.0 0.7857 -0.6941
4728000000.0 -0.02425 -1.014
4731000000.0 -0.8435 -0.6125
4734000000.0 -0.9872 0.2145
4738000000.0 -0.4716 0.9245
4741000000.0 0.4256 0.9729
4744000000.0 1.035 0.2622
4747000000.0 0.8596 -0.6064
4750000000.0 0.07651 -1.065
4753000000.0 -0.7353 -0.7455
4756000000.0 -1.089 0.1257
4759000000.0 -0.6607 0.9155
4762000000.0 0.3199 1.08
4766000000.0 1.026 0.4809
4769000000.0 1.021 -0.503
4772000000.0 0.2502 -1.135
4775000000.0 -0.6688 -0.9447
4778000000.0 -1.177 -0.06924
4781000000.0 -0.8195 0.8617
4784000000.0 0.1461 1.174
4788000000.0 0.9826 0.6835
4791000000.0 1.183 -0.3187
4794000000.0 0.4963 -1.139
4797000000.0 -0.5382 -1.118
4800000000.0 -1.198 -0.3021
4803000000.0 -1.023 0.7171
4806000000.0 -0.1138 1.252
4809000000.0 0.9161 0.9109
4812000000.0 1.266 -0.0987
4816000000.0 0.7816 -1.086
4819000000.0 -0.3503 -1.277
4822000000.0 -1.188 -0.5521
4825000000.0 -1.227 0.5932
4828000000.0 -0.2985 1.345
4831000000.0 0.8335 1.096
4834000000.0 1.354 0.03503
4838000000.0 0.9185 -1.032
4841000000.0 -0.211 -1.342
4844000000.0 -1.2 -0.6937
4847000000.0 -1.322 0.4919
4850000000.0 -0.4172 1.311
4853000000.0 0.7438 1.147
4856000000.0 1.34 0.1707
4859000000.0 0.9684 -0.9362
4862000000.0 -0.1061 -1.332
4866000000.0 -1.097 -0.7707
4869000000.0 -1.259 0.3471
4872000000.0 -0.5317 1.194
4875000000.0 0.6338 1.141
4878000000.0 1.245 0.2378
4881000000.0 0.9686 -0.8064
4884000000.0 0.003012 -1.225
4888000000.0 -0.9562 -0.771
4891000000.0 -1.136 0.2798
4894000000.0 -0.4855 1.047
4897000000.0 0.5096 1.044
4900000000.0 1.099 0.2705
4903000000.0 0.8819 -0.6837
4906000000.0 0.009498 -1.056
4909000000.0 -0.786 -0.6654
4912000000.0 -1.002 0.2136
4916000000.0 -0.4779 0.9006
4919000000.0 0.4077 0.8918
4922000000.0 0.9207 0.2757
4925000000.0 0.8159 -0.5583
4928000000.0 0.07602 -0.9636
4931000000.0 -0.659 -0.6804
4934000000.0 -0.9446 0.07886
4938000000.0 -0.4905 0.7783
4941000000.0 0.2252 0.9082
4944000000.0 0.8712 0.355
4947000000.0 0.8315 -0.4622
4950000000.0 0.1813 -0.9173
4953000000.0 -0.6128 -0.7283
4956000000.0 -0.9618 0.03238
4959000000.0 -0.6143 0.7584
4962000000.0 0.2297 0.9678
4966000000.0 0.8744 0.4259
4969000000.0 0.9074 -0.4085
4972000000.0 0.2464 -0.9547
4975000000.0 -0.583 -0.8375
4978000000.0 -0.9894 -0.05409
4981000000.0 -0.7201 0.7507
4984000000.0 0.1102 1.042
4988000000.0 0.883 0.5741
4991000000.0 1.024 -0.3249
4994000000.0 0.393 -1.031
4997000000.0 -0.5047 -0.985
5000000000.0 -1.104 -0.2669
5003000000.0 -0.9069 0.7017
5006000000.0 -0.01315 1.167
5009000000.0 0.8842 0.7861
5012000000.0 1.182 -0.2139
5016000000.0 0.6014 -1.065
5019000000.0 -0.4442 -1.149
5022000000.0 -1.184 -0.4118
5025000000.0 -1.089 0.6597
5028000000.0 -0.1853 1.256
5031000000.0 0.8499 0.9693
5034000000.0 1.266 -0.08611
5038000000.0 0.7605 -1.039
5041000000.0 -0.3175 -1.252
5044000000.0 -1.168 -0.5594
5047000000.0 -1.195 0.498
5050000000.0 -0.3775 1.268
5053000000.0 0.7248 1.053
5056000000.0 1.288 0.122
5059000000.0 0.8893 -0.8933
5062000000.0 -0.08709 -1.3
5066000000.0 -1.036 -0.7556
5069000000.0 -1.26 0.334
5072000000.0 -0.5442 1.164
5075000000.0 0.5484 1.154
5078000000.0 1.216 0.3223
5081000000.0 1.014 -0.7417
5084000000.0 0.06908 -1.231
5088000000.0 -0.9081 -0.8153
5091000000.0 -1.177 0.13
5094000000.0 -0.6339 0.9944
5097000000.0 0.3557 1.113
5100000000.0 1.065 0.4234
5103000000.0 0.9665 -0.5161
5106000000.0 0.2425 -1.077
5109000000.0 -0.6487 -0.88
5112000000.0 -1.081 -0.05236
5116000000.0 -0.7049 0.7425
5119000000.0 0.138 1.066
5122000000.0 0.8828 0.592
5125000000.0 0.996 -0.3125
5128000000.0 0.4166 -0.9357
5131000000.0 -0.4964 -0.8919
5134000000.0 -0.9483 -0.2021
5138000000.0 -0.7342 0.6587
5141000000.0 0.02898 0.9558
5144000000.0 0.7665 0.6086
5147000000.0 0.9208 -0.1844
5150000000.0 0.4198 -0.8122
5153000000.0 -0.3477 -0.8798
5156000000.0 -0.8572 -0.2778
5159000000.0 -0.7342 0.5353
5162000000.0 -0.05806 0.8907
5166000000.0 0.6456 0.6144
5169000000.0 0.8868 -0.09623
5172000000.0 0.4748 -0.7817
5175000000.0 -0.2805 -0.8746
5178000000.0 -0.8397 -0.3178
5181000000.0 -0.7962 0.4534
5184000000.0 -0.08038 0.8582
5188000000.0 0.6214 0.6497
5191000000.0 0.9041 -0.08318
5194000000.0 0.4655 -0.788
5197000000.0 -0.3124 -0.8918
5200000000.0 -0.8497 -0.306
5203000000.0 -0.8003 0.4996
5206000000.0 -0.1444 0.9383
5209000000.0 0.6504 0.7178
5212000000.0 0.9817 -0.06008
5216000000.0 0.5585 -0.8109
5219000000.0 -0.2927 -0.9686
5222000000.0 -0.888 -0.3786
5225000000.0 -0.9035 0.4581
5228000000.0 -0.1898 0.9748
5231000000.0 0.6472 0.8038
5234000000.0 1.022 0.02413
5238000000.0 0.6521 -0.7901
5241000000.0 -0.1964 -1.02
5244000000.0 -0.9272 -0.4957
5247000000.0 -0.9674 0.386
5250000000.0 -0.326 0.9984
5253000000.0 0.5784 0.9061
5256000000.0 1.076 0.1438
5259000000.0 0.7934 -0.7163
5262000000.0 -0.05927 -1.082
5266000000.0 -0.8555 -0.6545
5269000000.0 -1.049 0.2472
5272000000.0 -0.5443 0.9766
5275000000.0 0.4218 0.999
5278000000.0 1.051 0.351
5281000000.0 0.9625 -0.5867
5284000000.0 0.1749 -1.089
5288000000.0 -0.6871 -0.839
5291000000.0 -1.077 0.007121
5294000000.0 -0.7128 0.8441
5297000000.0 0.2094 1.093
5300000000.0 0.9597 0.5798
5303000000.0 1.047 -0.3758
5306000000.0 0.3752 -1.052
5309000000.0 -0.5183 -0.9728
5312000000.0 -1.151 -0.221
5316000000.0 -0.8721 0.7008
5319000000.0 -0.01994 1.104
5322000000.0 0.8378 0.7528
5325000000.0 1.124 -0.1661
5328000000.0 0.547 -0.9617
5331000000.0 -0.3794 -1.074
5334000000.0 -1.095 -0.3783
5338000000.0 -0.9747 0.5728
5341000000.0 -0.1918 1.104
5344000000.0 0.7622 0.8535
5347000000.0 1.099 -0.02012
5350000000.0 0.6862 -0.8805
5353000000.0 -0.278 -1.07
5356000000.0 -0.9749 -0.452
5359000000.0 -0.9727 0.4736
5362000000.0 -0.2603 1.049
5366000000.0 0.6328 0.8533
5369000000.0 1.054 0.02601
5372000000.0 0.6778 -0.778
5375000000.0 -0.1984 -1.008
5378000000.0 -0.8913 -0.4876
5381000000.0 -0.8935 0.3974
5384000000.0 -0.2389 0.9561
5388000000.0 0.5692 0.7803
5391000000.0 0.951 0.02846
5394000000.0 0.5865 -0.7479
5397000000.0 -0.2212 -0.8718
5400000000.0 -0.8166 -0.383
5403000000.0 -0.7924 0.394
5406000000.0 -0.2116 0.839
5409000000.0 0.5615 0.6652
5412000000.0 0.8708 -0.01183
5416000000.0 0.5325 -0.6821
5419000000.0 -0.1924 -0.8464
5422000000.0 -0.7756 -0.3474
5425000000.0 -0.7434 0.3715
5428000000.0 -0.1732 0.8385
5431000000.0 0.5168 0.6712
5434000000.0 0.8696 -0.01621
5438000000.0 0.5359 -0.6795
5441000000.0 -0.2146 -0.8518
5444000000.0 -0.7968 -0.3585
5447000000.0 -0.8141 0.3992
5450000000.0 -0.1998 0.8807
5453000000.0 0.5669 0.6976
5456000000.0 0.889 0.04544
5459000000.0 0.5449 -0.6656
5462000000.0 -0.1502 -0.8874
5466000000.0 -0.7536 -0.4489
5469000000.0 -0.8465 0.2958
5472000000.0 -0.2993 0.8556
5475000000.0 0.4796 0.8269
5478000000.0 0.9403 0.1504
5481000000.0 0.7002 -0.6184
5484000000.0 -0.02025 -0.9989
5488000000.0 -0.7394 -0.6362
5491000000.0 -0.955 0.196
5494000000.0 -0.5101 0.8788
5497000000.0 0.3658 0.9082
5500000000.0 0.9639 0.3438
5503000000.0 0.8492 -0.5367
5506000000.0 0.1578 -1.008
5509000000.0 -0.6771 -0.7965
5512000000.0 -1.035 0.06854
5516000000.0 -0.6784 0.797
5519000000.0 0.1649 1.032
5522000000.0 0.9046 0.5061
5525000000.0 0.9672 -0.4081
5528000000.0 0.3535 -0.9967
5531000000.0 -0.5144 -0.9368
5534000000.0 -1.014 -0.1847
5538000000.0 -0.8336 0.6745
5541000000.0 -0.002289 1.077
5544000000.0 0.839 0.653
5547000000.0 1.022 -0.2142
5550000000.0 0.5141 -0.9317
5553000000.0 -0.3911 -0.9645
5556000000.0 -0.9914 -0.3516
5559000000.0 -0.9061 0.5313
5562000000.0 -0.1613 1.061
5566000000.0 0.7062 0.7513
5569000000.0 1.033 -0.02777
5572000000.0 0.6058 -0.808
5575000000.0 -0.2167 -0.963
5578000000.0 -0.9043 -0.44
5581000000.0 -0.8876 0.3924
5584000000.0 -0.2175 0.9477
5588000000.0 0.5589 0.7986
5591000000.0 0.9268 0.05255
5594000000.0 0.6214 -0.6974
5597000000.0 -0.1438 -0.9329
5600000000.0 -0.7827 -0.4934
5603000000.0 -0.8343 0.2896
5606000000.0 -0.2976 0.8226
5609000000.0 0.4491 0.7668
5612000000.0 0.8586 0.1447
5616000000.0 0.6353 -0.5861
5619000000.0 -0.06266 -0.8679
5622000000.0 -0.6882 -0.4933
5625000000.0 -0.8118 0.2195
5628000000.0 -0.3364 0.7507
5631000000.0 0.3749 0.7297
5634000000.0 0.7993 0.1396
5638000000.0 0.6288 -0.5255
5641000000.0 -0.01152 -0.8363
5644000000.0 -0.6834 -0.4866
5647000000.0 -0.8147 0.2275
5650000000.0 -0.3367 0.7741
5653000000.0 0.3985 0.7486
5656000000.0 0.8529 0.1608
5659000000.0 0.6574 -0.536
5662000000.0 -0.0353 -0.8823
5666000000.0 -0.686 -0.5253
5669000000.0 -0.8736 0.2188
5672000000.0 -0.3752 0.8068
5675000000.0 0.409 0.8026
5678000000.0 0.8674 0.2022
5681000000.0 0.7163 -0.6148
5684000000.0 0.0009836 -0.9373
5688000000.0 -0.733 -0.5959
5691000000.0 -0.9382 0.205
5694000000.0 -0.4381 0.8854
5697000000.0 0.4208 0.9038
5700000000.0 0.957 0.262
5703000000.0 0.7945 -0.5824
5706000000.0 0.03602 -1.01
5709000000.0 -0.7672 -0.6971
5712000000.0 -1.009 0.1531
5716000000.0 -0.5492 0.9193
5719000000.0 0.3566 0.9787
5722000000.0 0.994 0.3337
5725000000.0 0.9056 -0.519
5728000000.0 0.1735 -1.068
5731000000.0 -0.6895 -0.806
5734000000.0 -1.094 0.02243
5738000000.0 -0.6979 0.8399
5741000000.0 0.2166 1.064
5744000000.0 0.9664 0.5389
5747000000.0 1.033 -0.3964
5750000000.0 0.3502 -1.023
5753000000.0 -0.6018 -0.9214
5756000000.0 -1.116 -0.1297
5759000000.0 -0.7989 0.7615
5762000000.0 0.06265 1.107
5766000000.0 0.8749 0.6443
5769000000.0 1.038 -0.2289
5772000000.0 0.495 -0.9851
5775000000.0 -0.4236 -1.031
5778000000.0 -1.075 -0.2735
5781000000.0 -0.9236 0.6228
5784000000.0 -0.09672 1.09
5788000000.0 0.7177 0.7802
5791000000.0 1.083 -0.0685
5794000000.0 0.6101 -0.8806
5797000000.0 -0.2719 -1.052
5800000000.0 -0.9666 -0.4412
5803000000.0 -0.9511 0.4415
5806000000.0 -0.2656 1.021
5809000000.0 0.6379 0.8493
5812000000.0 1.042 0.07266
5816000000.0 0.682 -0.7604
5819000000.0 -0.1491 -1.001
5822000000.0 -0.8387 -0.5225
5825000000.0 -0.9372 0.3422
5828000000.0 -0.3258 0.9678
5831000000.0 0.5042 0.8204
5834000000.0 0.9479 0.1328
5838000000.0 0.7013 -0.667
5841000000.0 -0.0295 -0.9493
5844000000.0 -0.7528 -0.569
5847000000.0 -0.914 0.2543
5850000000.0 -0.3223 0.8359
5853000000.0 0.4123 0.8233
5856000000.0 0.9033 0.1735
5859000000.0 0.6748 -0.633
5862000000.0 -0.0483 -0.8824
5866000000.0 -0.745 -0.5223
5869000000.0 -0.8448 0.2331
5872000000.0 -0.3374 0.8016
5875000000.0 0.3961 0.7823
5878000000.0 0.8511 0.1452
5881000000.0 0.6642 -0.5667
5884000000.0 -0.05363 -0.878
5888000000.0 -0.7044 -0.5335
5891000000.0 -0.8417 0.1965
5894000000.0 -0.3628 0.7593
5897000000.0 0.3543 0.7797
5900000000.0 0.8128 0.1805
5903000000.0 0.7076 -0.5454
5906000000.0 0.005198 -0.8767
5909000000.0 -0.6397 -0.5745
5912000000.0 -0.85 0.1588
5916000000.0 -0.432 0.7524
5919000000.0 0.3139 0.8031
5922000000.0 0.8193 0.2946
5925000000.0 0.728 -0.4614
5928000000.0 0.1351 -0.8735
5931000000.0 -0.6035 -0.6347
5934000000.0 -0.8884 0.03059
5938000000.0 -0.5488 0.7354
5941000000.0 0.2216 0.8859
5944000000.0 0.8427 0.4066
5947000000.0 0.8148 -0.3639
5950000000.0 0.2751 -0.8911
5953000000.0 -0.4929 -0.7605
5956000000.0 -0.9201 -0.08188
5959000000.0 -0.6565 0.6682
5962000000.0 0.0791 0.9195
5966000000.0 0.776 0.5388
5969000000.0 0.9124 -0.2593
5972000000.0 0.3902 -0.864
5975000000.0 -0.4185 -0.8691
5978000000.0 -0.9393 -0.2494
5981000000.0 -0.7953 0.5623
5984000000.0 -0.08355 0.9959
5988000000.0 0.7054 0.6588
5991000000.0 0.9968 -0.09854
5994000000.0 0.5424 -0.8352
5997000000.0 -0.2766 -0.9677
6000000000.0 -0.9492 -0.3924
6003000000.0 -0.8718 0.4634
6006000000.0 -0.1932 0.9915
6009000000.0 0.6402 0.7616
6012000000.0 0.9808 -0.005714
6016000000.0 0.5683 -0.7464
6019000000.0 -0.2011 -0.9721
6022000000.0 -0.8762 -0.4567
6025000000.0 -0.9132 0.3922
6028000000.0 -0.2838 0.9535
6031000000.0 0.5514 0.7813
6034000000.0 0.9528 0.09251
6038000000.0 0.6854 -0.6819
6041000000.0 -0.08696 -0.9361
6044000000.0 -0.7962 -0.489
6047000000.0 -0.884 0.296
6050000000.0 -0.3297 0.8643
6053000000.0 0.4552 0.7778
6056000000.0 0.9092 0.1167
6059000000.0 0.669 -0.6329
6062000000.0 -0.05445 -0.8888
6066000000.0 -0.7423 -0.5303
6069000000.0 -0.8684 0.2589
6072000000.0 -0.3437 0.8294
6075000000.0 0.4405 0.7549
6078000000.0 0.8304 0.1673
6081000000.0 0.6649 -0.568
6084000000.0 -0.02695 -0.8658
6088000000.0 -0.652 -0.5216
6091000000.0 -0.8327 0.187
6094000000.0 -0.359 0.7827
6097000000.0 0.3734 0.7784
6100000000.0 0.8243 0.2041
6103000000.0 0.6649 -0.5206
6106000000.0 -0.005741 -0.8568
6109000000.0 -0.642 -0.5337
6112000000.0 -0.8203 0.1732
6116000000.0 -0.3938 0.7395
6119000000.0 0.3434 0.8155
6122000000.0 0.8473 0.2057
6125000000.0 0.7512 -0.5142
6128000000.0 0.05731 -0.8729
6131000000.0 -0.6621 -0.602
6134000000.0 -0.9061 0.1563
6138000000.0 -0.4513 0.7977
6141000000.0 0.3128 0.8305
6144000000.0 0.8535 0.2722
6147000000.0 0.7185 -0.4276
6150000000.0 0.1149 -0.9032
6153000000.0 -0.6634 -0.6358
6156000000.0 -0.9036 0.04511
6159000000.0 -0.5187 0.7808
6162000000.0 0.2662 0.8902
6166000000.0 0.8561 0.3514
6169000000.0 0.8379 -0.4204
6172000000.0 0.212 -0.9217
6175000000.0 -0.5922 -0.7215
6178000000.0 -0.9544 -0.01928
6181000000.0 -0.6301 0.7323
6184000000.0 0.1499 0.9183
6188000000.0 0.8344 0.4609
6191000000.0 0.8932 -0.3367
6194000000.0 0.2498 -0.8814
6197000000.0 -0.5476 -0.7969
6200000000.0 -0.9434 -0.1063
6203000000.0 -0.6436 0.6549
6206000000.0 0.0822 0.9401
6209000000.0 0.7404 0.5218
6212000000.0 0.9122 -0.258
6216000000.0 0.3719 -0.8395
6219000000.0 -0.4352 -0.8375
6222000000.0 -0.9186 -0.2051
6225000000.0 -0.7007 0.561
6228000000.0 -0.001402 0.9194
6231000000.0 0.6465 0.6252
6234000000.0 0.8609 -0.1406
6238000000.0 0.4489 -0.7721
6241000000.0 -0.2819 -0.814
6244000000.0 -0.8213 -0.3016
6247000000.0 -0.7471 0.4257
6250000000.0 -0.1578 0.8307
6253000000.0 0.5381 0.6455
6256000000.0 0.8387 -0.01543
6259000000.0 0.5173 -0.644
6262000000.0 -0.155 -0.7855
