! Created with skrf 1.8.0 (http://scikit-rf.org).
# Hz S RI R 50.0 
!freq ReS11 ImS11
4000000000.0 -0.165 -1.537
4003000000.0 -1.275 -0.8252
4006000000.0 -1.418 0.4664
4009000000.0 -0.5236 1.39
4012000000.0 0.8295 1.332
4016000000.0 1.53 0.2335
4019000000.0 1.178 -1.02
4022000000.0 -0.1372 -1.513
4025000000.0 -1.25 -0.8498
4028000000.0 -1.513 0.4421
4031000000.0 -0.5892 1.552
4034000000.0 0.7755 1.438
4038000000.0 1.627 0.2112
4041000000.0 1.215 -1.139
4044000000.0 -0.09174 -1.622
4047000000.0 -1.372 -0.8951
4050000000.0 -1.582 0.4534
4053000000.0 -0.6111 1.478
4056000000.0 0.7225 1.427
4059000000.0 1.577 0.3408
4062000000.0 1.259 -1.035
4066000000.0 0.02108 -1.648
4069000000.0 -1.262 -1.057
4072000000.0 -1.641 0.235
4075000000.0 -0.8235 1.364
4078000000.0 0.5303 1.562
4081000000.0 1.545 0.5377
4084000000.0 1.416 -0.8275
4088000000.0 0.2787 -1.632
4091000000.0 -1.09 -1.219
4094000000.0 -1.653 0.06578
4097000000.0 -0.9763 1.288
4100000000.0 0.3714 1.557
4103000000.0 1.438 0.7306
4106000000.0 1.416 -0.6129
4109000000.0 0.4458 -1.468
4112000000.0 -0.845 -1.305
4116000000.0 -1.513 -0.1966
4119000000.0 -1.099 1.007
4122000000.0 0.008291 1.475
4125000000.0 1.137 0.9812
4128000000.0 1.457 -0.2192
4131000000.0 0.7839 -1.26
4134000000.0 -0.4015 -1.4
4138000000.0 -1.341 -0.5839
4141000000.0 -1.373 0.6636
4144000000.0 -0.398 1.483
4147000000.0 0.8609 1.245
4150000000.0 1.541 0.1377
4153000000.0 1.099 -1.059
4156000000.0 -0.1011 -1.558
4159000000.0 -1.245 -0.8879
4162000000.0 -1.483 0.3858
4166000000.0 -0.652 1.344
4169000000.0 0.63 1.388
4172000000.0 1.435 0.3753
4175000000.0 1.264 -0.8428
4178000000.0 0.199 -1.518
4181000000.0 -1.054 -1.109
4184000000.0 -1.519 0.07672
4188000000.0 -0.9363 1.229
4191000000.0 0.3554 1.471
4194000000.0 1.393 0.67
4197000000.0 1.42 -0.639
4200000000.0 0.4069 -1.537
4203000000.0 -0.9535 -1.273
4206000000.0 -1.622 -0.06744
4209000000.0 -1.073 1.29
4212000000.0 0.3306 1.621
4216000000.0 1.509 0.7484
4219000000.0 1.533 -0.7368
4222000000.0 0.349 -1.64
4225000000.0 -1.127 -1.264
4228000000.0 -1.69 0.092
4231000000.0 -0.9579 1.375
4234000000.0 0.5491 1.597
4238000000.0 1.55 0.5252
4241000000.0 1.329 -0.9364
4244000000.0 0.1007 -1.624
4247000000.0 -1.214 -1.063
4250000000.0 -1.546 0.307
4253000000.0 -0.6465 1.403
4256000000.0 0.6955 1.43
4259000000.0 1.51 0.31
4262000000.0 1.167 -0.9739
4266000000.0 -0.06402 -1.492
4269000000.0 -1.224 -0.8629
4272000000.0 -1.433 0.4427
4275000000.0 -0.5455 1.369
4278000000.0 0.7607 1.259
4281000000.0 1.442 0.1978
4284000000.0 1.027 -1.016
4288000000.0 -0.1211 -1.386
4291000000.0 -1.163 -0.7994
4294000000.0 -1.301 0.3982
4297000000.0 -0.5254 1.244
4300000000.0 0.6326 1.152
4303000000.0 1.252 0.2257
4306000000.0 1.0 -0.8407
4309000000.0 0.01301 -1.281
4312000000.0 -0.9897 -0.8302
4316000000.0 -1.259 0.1908
4319000000.0 -0.7097 1.113
4322000000.0 0.3928 1.228
4325000000.0 1.242 0.5308
4328000000.0 1.151 -0.6038
4331000000.0 0.2973 -1.325
4334000000.0 -0.8434 -1.067
4338000000.0 -1.365 -0.04064
4341000000.0 -0.9337 1.042
4344000000.0 0.2034 1.396
4347000000.0 1.201 0.7461
4350000000.0 1.326 -0.4779
4353000000.0 0.4503 -1.363
4356000000.0 -0.7061 -1.269
4359000000.0 -1.439 -0.242
4362000000.0 -1.13 0.9684
4366000000.0 -0.001191 1.462
4369000000.0 1.127 0.9596
4372000000.0 1.476 -0.2798
4375000000.0 0.7275 -1.324
4378000000.0 -0.5472 -1.381
4381000000.0 -1.421 -0.4978
4384000000.0 -1.299 0.8075
4388000000.0 -0.1522 1.531
4391000000.0 1.084 1.097
4394000000.0 1.558 -0.1273
4397000000.0 0.8759 -1.283
4400000000.0 -0.4798 -1.503
4403000000.0 -1.496 -0.5523
4406000000.0 -1.379 0.8173
4409000000.0 -0.1883 1.562
4412000000.0 1.109 1.099
4416000000.0 1.544 -0.1458
4419000000.0 0.7772 -1.325
4422000000.0 -0.5334 -1.433
4425000000.0 -1.437 -0.4456
4428000000.0 -1.219 0.8058
4431000000.0 -0.1098 1.467
4434000000.0 1.058 0.9813
4438000000.0 1.39 -0.2525
4441000000.0 0.6459 -1.215
4444000000.0 -0.5539 -1.258
4447000000.0 -1.298 -0.3273
4450000000.0 -1.046 0.8606
4453000000.0 -0.002698 1.294
4456000000.0 1.063 0.8022
4459000000.0 1.254 -0.3418
4462000000.0 0.4897 -1.18
4466000000.0 -0.6547 -1.111
4469000000.0 -1.228 -0.1636
4472000000.0 -0.8664 0.8364
4475000000.0 0.1303 1.175
4478000000.0 1.008 0.6461
4481000000.0 1.079 -0.4217
4484000000.0 0.3394 -1.091
4488000000.0 -0.6371 -0.9444
4491000000.0 -1.128 -0.07354
4494000000.0 -0.7734 0.7844
4497000000.0 0.1624 1.121
4500000000.0 0.9558 0.5619
4503000000.0 1.03 -0.3942
4506000000.0 0.3648 -1.053
4509000000.0 -0.586 -0.9102
4512000000.0 -1.111 -0.1424
4516000000.0 -0.7737 0.798
4519000000.0 0.1349 1.127
4522000000.0 0.9242 0.6113
4525000000.0 1.082 -0.3599
4528000000.0 0.4033 -1.055
4531000000.0 -0.5761 -1.015
4534000000.0 -1.146 -0.1886
4538000000.0 -0.9043 0.7758
4541000000.0 0.03279 1.167
4544000000.0 0.8961 0.759
4547000000.0 1.157 -0.2552
4550000000.0 0.5688 -1.05
4553000000.0 -0.438 -1.15
4556000000.0 -1.172 -0.3664
4559000000.0 -1.033 0.6391
4562000000.0 -0.1777 1.222
4566000000.0 0.8284 0.9349
4569000000.0 1.259 -0.04566
4572000000.0 0.7856 -0.9868
4575000000.0 -0.2631 -1.291
4578000000.0 -1.159 -0.6103
4581000000.0 -1.218 0.4992
4584000000.0 -0.4142 1.288
4588000000.0 0.7276 1.13
4591000000.0 1.362 0.1633
4594000000.0 1.007 -0.9581
4597000000.0 -0.107 -1.385
4600000000.0 -1.139 -0.7804
4603000000.0 -1.357 0.3803
4606000000.0 -0.5986 1.29
4609000000.0 0.6341 1.267
4612000000.0 1.368 0.297
4616000000.0 1.121 -0.8511
4619000000.0 0.03273 -1.411
4622000000.0 -1.059 -0.9096
4625000000.0 -1.354 0.2452
4628000000.0 -0.6647 1.222
4631000000.0 0.5241 1.29
4634000000.0 1.305 0.396
4638000000.0 1.155 -0.7634
4641000000.0 0.16 -1.354
4644000000.0 -0.9675 -0.9216
4647000000.0 -1.322 0.2005
4650000000.0 -0.6871 1.158
4653000000.0 0.4544 1.243
4656000000.0 1.241 0.3827
4659000000.0 1.06 -0.7425
4662000000.0 0.09999 -1.293
4666000000.0 -0.9057 -0.8359
4669000000.0 -1.25 0.1848
4672000000.0 -0.6042 1.059
4675000000.0 0.4572 1.079
4678000000.0 1.116 0.3629
4681000000.0 0.9569 -0.6374
4684000000.0 0.05495 -1.148
4688000000.0 -0.8767 -0.7804
4691000000.0 -1.087 0.1666
4694000000.0 -0.5393 0.9693
4697000000.0 0.426 1.018
4700000000.0 1.069 0.2738
4703000000.0 0.8681 -0.625
4706000000.0 0.04902 -1.076
4709000000.0 -0.806 -0.7194
4712000000.0 -1.067 0.1965
4716000000.0 -0.4937 0.9558
4719000000.0 0.4435 0.9776
4722000000.0 1.051 0.2758
4725000000.0 0.823 -0.6216
4728000000.0 0.03961 -1.047
4731000000.0 -0.7686 -0.7007
4734000000.0 -1.02 0.2011
4738000000.0 -0.5451 0.927
4741000000.0 0.3768 0.9542
4744000000.0 0.9991 0.3554
4747000000.0 0.911 -0.5382
4750000000.0 0.1612 -1.066
4753000000.0 -0.7109 -0.7795
4756000000.0 -1.08 0.0541
4759000000.0 -0.6666 0.8731
4762000000.0 0.2641 1.092
4766000000.0 1.01 0.5431
4769000000.0 1.042 -0.4244
4772000000.0 0.3457 -1.114
4775000000.0 -0.6658 -0.9815
4778000000.0 -1.174 -0.1493
4781000000.0 -0.8587 0.8136
4784000000.0 0.06738 1.193
4788000000.0 0.9754 0.722
4791000000.0 1.177 -0.2819
4794000000.0 0.5639 -1.088
4797000000.0 -0.4721 -1.131
4800000000.0 -1.216 -0.3892
4803000000.0 -1.028 0.642
4806000000.0 -0.1724 1.251
4809000000.0 0.8518 0.942
4812000000.0 1.262 -0.01536
4816000000.0 0.7995 -1.016
4819000000.0 -0.2569 -1.3
4822000000.0 -1.181 -0.638
4825000000.0 -1.237 0.5632
4828000000.0 -0.3736 1.328
4831000000.0 0.7638 1.148
4834000000.0 1.381 0.1392
4838000000.0 0.9935 -1.001
4841000000.0 -0.117 -1.398
4844000000.0 -1.16 -0.804
4847000000.0 -1.34 0.403
4850000000.0 -0.5442 1.315
4853000000.0 0.6454 1.211
4856000000.0 1.335 0.2657
4859000000.0 1.061 -0.8907
4862000000.0 -0.01225 -1.359
4866000000.0 -1.058 -0.8383
4869000000.0 -1.346 0.2536
4872000000.0 -0.5815 1.196
4875000000.0 0.5388 1.214
4878000000.0 1.233 0.3349
4881000000.0 1.055 -0.7774
4884000000.0 0.05034 -1.271
4888000000.0 -0.9718 -0.8244
4891000000.0 -1.203 0.2309
4894000000.0 -0.5661 1.062
4897000000.0 0.4562 1.094
4900000000.0 1.095 0.3386
4903000000.0 0.9197 -0.6561
4906000000.0 0.09866 -1.082
4909000000.0 -0.7883 -0.7424
4912000000.0 -1.016 0.1314
4916000000.0 -0.5777 0.8533
4919000000.0 0.325 0.9554
4922000000.0 0.9286 0.3371
4925000000.0 0.849 -0.5051
4928000000.0 0.1446 -0.9506
4931000000.0 -0.6344 -0.7288
4934000000.0 -0.9384 0.05567
4938000000.0 -0.59 0.7765
4941000000.0 0.2316 0.911
4944000000.0 0.8567 0.4119
4947000000.0 0.8645 -0.4028
4950000000.0 0.251 -0.9228
4953000000.0 -0.5705 -0.7254
4956000000.0 -0.967 -0.07008
4959000000.0 -0.6287 0.7177
4962000000.0 0.1732 0.98
4966000000.0 0.8458 0.5066
4969000000.0 0.9088 -0.3311
4972000000.0 0.3296 -0.9363
4975000000.0 -0.5134 -0.8782
4978000000.0 -1.012 -0.1412
4981000000.0 -0.7525 0.7029
4984000000.0 0.07734 1.046
4988000000.0 0.8442 0.6134
4991000000.0 1.055 -0.2714
4994000000.0 0.4565 -0.9775
4997000000.0 -0.4484 -0.9873
5000000000.0 -1.108 -0.2594
5003000000.0 -0.9343 0.6432
5006000000.0 -0.1168 1.159
5009000000.0 0.8795 0.8205
5012000000.0 1.19 -0.1404
5016000000.0 0.6811 -1.021
5019000000.0 -0.3708 -1.186
5022000000.0 -1.153 -0.4528
5025000000.0 -1.131 0.6109
5028000000.0 -0.2331 1.224
5031000000.0 0.8111 0.9768
5034000000.0 1.262 -0.003019
5038000000.0 0.8366 -0.9961
5041000000.0 -0.2251 -1.268
5044000000.0 -1.134 -0.6597
5047000000.0 -1.234 0.4753
5050000000.0 -0.4386 1.217
5053000000.0 0.6834 1.143
5056000000.0 1.28 0.2289
5059000000.0 0.985 -0.8573
5062000000.0 -0.02212 -1.259
5066000000.0 -1.015 -0.8075
5069000000.0 -1.307 0.2771
5072000000.0 -0.6067 1.152
5075000000.0 0.502 1.205
5078000000.0 1.212 0.3832
5081000000.0 1.046 -0.6951
5084000000.0 0.1473 -1.249
5088000000.0 -0.8715 -0.8948
5091000000.0 -1.228 0.06743
5094000000.0 -0.6791 0.9782
5097000000.0 0.2629 1.138
5100000000.0 1.003 0.5167
5103000000.0 1.066 -0.4324
5106000000.0 0.3132 -1.111
5109000000.0 -0.6093 -0.8486
5112000000.0 -1.069 -0.1414
5116000000.0 -0.7703 0.7541
5119000000.0 0.04505 1.065
5122000000.0 0.8603 0.6545
5125000000.0 1.022 -0.2312
5128000000.0 0.4616 -0.9231
5131000000.0 -0.4417 -0.9646
5134000000.0 -0.9584 -0.246
5138000000.0 -0.8377 0.5544
5141000000.0 -0.01155 0.9984
5144000000.0 0.7189 0.6541
5147000000.0 0.971 -0.1099
5150000000.0 0.501 -0.8013
5153000000.0 -0.3134 -0.8346
5156000000.0 -0.882 -0.3123
5159000000.0 -0.7815 0.4753
5162000000.0 -0.1417 0.8834
5166000000.0 0.6289 0.6742
5169000000.0 0.9345 -0.02928
5172000000.0 0.5277 -0.7414
5175000000.0 -0.2333 -0.8916
5178000000.0 -0.8151 -0.3794
5181000000.0 -0.8256 0.4007
5184000000.0 -0.1732 0.912
5188000000.0 0.5887 0.6847
5191000000.0 0.8975 -0.009922
5194000000.0 0.5856 -0.7516
5197000000.0 -0.2022 -0.8861
5200000000.0 -0.8642 -0.4074
5203000000.0 -0.8622 0.4012
5206000000.0 -0.1939 0.9155
5209000000.0 0.5999 0.7589
5212000000.0 0.9586 0.01002
5216000000.0 0.6081 -0.7726
5219000000.0 -0.1858 -0.9581
5222000000.0 -0.8844 -0.421
5225000000.0 -0.9145 0.3823
5228000000.0 -0.2597 0.9723
5231000000.0 0.5696 0.835
5234000000.0 1.016 0.08426
5238000000.0 0.7027 -0.7466
5241000000.0 -0.1302 -1.06
5244000000.0 -0.8933 -0.5891
5247000000.0 -1.027 0.3329
5250000000.0 -0.399 0.9673
5253000000.0 0.4923 0.9587
5256000000.0 1.045 0.2016
5259000000.0 0.8568 -0.6812
5262000000.0 0.03539 -1.09
5266000000.0 -0.8308 -0.7102
5269000000.0 -1.062 0.1774
5272000000.0 -0.5707 0.9207
5275000000.0 0.3688 1.02
5278000000.0 1.016 0.427
5281000000.0 0.9651 -0.4993
5284000000.0 0.244 -1.076
5288000000.0 -0.6726 -0.8806
5291000000.0 -1.103 -0.04558
5294000000.0 -0.7361 0.8232
5297000000.0 0.1018 1.113
5300000000.0 0.9436 0.6354
5303000000.0 1.094 -0.2973
5306000000.0 0.4843 -1.039
5309000000.0 -0.494 -1.043
5312000000.0 -1.089 -0.3059
5316000000.0 -0.9207 0.6639
5319000000.0 -0.09433 1.159
5322000000.0 0.7741 0.8152
5325000000.0 1.179 -0.08974
5328000000.0 0.6616 -0.9553
5331000000.0 -0.3008 -1.089
5334000000.0 -1.045 -0.46
5338000000.0 -1.046 0.5095
5341000000.0 -0.2897 1.112
5344000000.0 0.6803 0.8889
5347000000.0 1.123 0.06279
5350000000.0 0.7446 -0.8154
5353000000.0 -0.1358 -1.111
5356000000.0 -0.9257 -0.5842
5359000000.0 -1.023 0.3726
5362000000.0 -0.3436 1.018
5366000000.0 0.5589 0.9253
5369000000.0 1.058 0.1352
5372000000.0 0.7406 -0.7297
5375000000.0 -0.09384 -1.053
5378000000.0 -0.8569 -0.5656
5381000000.0 -1.001 0.2826
5384000000.0 -0.3546 0.9271
5388000000.0 0.5007 0.8562
5391000000.0 0.9858 0.1119
5394000000.0 0.6869 -0.6761
5397000000.0 -0.1133 -0.9494
5400000000.0 -0.7973 -0.4739
5403000000.0 -0.8535 0.3015
5406000000.0 -0.3046 0.8736
5409000000.0 0.4413 0.7572
5412000000.0 0.8926 0.07358
5416000000.0 0.6199 -0.6496
5419000000.0 -0.1135 -0.8883
5422000000.0 -0.7276 -0.4597
5425000000.0 -0.8352 0.2971
5428000000.0 -0.2724 0.8352
5431000000.0 0.4972 0.7217
5434000000.0 0.855 0.07564
5438000000.0 0.6194 -0.6425
5441000000.0 -0.08582 -0.8703
5444000000.0 -0.7749 -0.4727
5447000000.0 -0.8328 0.3162
5450000000.0 -0.2818 0.8444
5453000000.0 0.4686 0.7515
5456000000.0 0.874 0.1177
5459000000.0 0.6559 -0.6458
5462000000.0 -0.05117 -0.9072
5466000000.0 -0.7239 -0.4882
5469000000.0 -0.8451 0.2607
5472000000.0 -0.3741 0.83
5475000000.0 0.3818 0.82
5478000000.0 0.9266 0.2363
5481000000.0 0.7849 -0.5482
5484000000.0 0.05267 -0.9664
5488000000.0 -0.6956 -0.6933
5491000000.0 -0.9693 0.09314
5494000000.0 -0.5395 0.8149
5497000000.0 0.2679 0.9513
5500000000.0 0.9145 0.4403
5503000000.0 0.9045 -0.4425
5506000000.0 0.2436 -0.9609
5509000000.0 -0.5797 -0.8116
5512000000.0 -1.023 -0.05314
5516000000.0 -0.7075 0.7334
5519000000.0 0.1139 1.03
5522000000.0 0.8632 0.5862
5525000000.0 1.014 -0.2636
5528000000.0 0.4313 -0.945
5531000000.0 -0.4768 -0.9482
5534000000.0 -1.04 -0.3057
5538000000.0 -0.8818 0.5828
5541000000.0 -0.1117 1.05
5544000000.0 0.7507 0.7657
5547000000.0 1.05 -0.08344
5550000000.0 0.628 -0.9093
5553000000.0 -0.2757 -1.044
5556000000.0 -0.9663 -0.4639
5559000000.0 -0.9452 0.4483
5562000000.0 -0.2385 1.04
5566000000.0 0.6346 0.8527
5569000000.0 1.057 0.03791
5572000000.0 0.7093 -0.7515
5575000000.0 -0.1251 -1.046
5578000000.0 -0.8866 -0.5572
5581000000.0 -0.9544 0.3012
5584000000.0 -0.3636 0.9189
5588000000.0 0.4725 0.8796
5591000000.0 0.9443 0.1662
5594000000.0 0.7305 -0.6058
5597000000.0 0.0004293 -0.9572
5600000000.0 -0.7383 -0.5887
5603000000.0 -0.8924 0.1961
5606000000.0 -0.4138 0.8222
5609000000.0 0.3509 0.8206
5612000000.0 0.8228 0.2389
5616000000.0 0.739 -0.5114
5619000000.0 0.06329 -0.8811
5622000000.0 -0.64 -0.598
5625000000.0 -0.8236 0.1423
5628000000.0 -0.4231 0.7266
5631000000.0 0.2814 0.7894
5634000000.0 0.8057 0.2757
5638000000.0 0.6881 -0.4742
5641000000.0 0.09016 -0.8216
5644000000.0 -0.5976 -0.589
5647000000.0 -0.8254 0.1182
5650000000.0 -0.4207 0.7217
5653000000.0 0.2717 0.7922
5656000000.0 0.7916 0.2845
5659000000.0 0.7117 -0.4412
5662000000.0 0.1061 -0.8561
5666000000.0 -0.5912 -0.5811
5669000000.0 -0.8651 0.1039
5672000000.0 -0.4939 0.7443
5675000000.0 0.2939 0.8429
5678000000.0 0.8442 0.3044
5681000000.0 0.7755 -0.4995
5684000000.0 0.1339 -0.9219
5688000000.0 -0.6554 -0.6621
5691000000.0 -0.9187 0.07299
5694000000.0 -0.5172 0.7973
5697000000.0 0.3114 0.9611
5700000000.0 0.9371 0.3517
5703000000.0 0.9123 -0.4689
5706000000.0 0.1784 -1.006
5709000000.0 -0.6707 -0.753
5712000000.0 -0.9985 0.01319
5716000000.0 -0.6514 0.8129
5719000000.0 0.2497 0.9906
5722000000.0 0.9401 0.4697
5725000000.0 0.9717 -0.4439
5728000000.0 0.3171 -1.011
5731000000.0 -0.5612 -0.9083
5734000000.0 -1.094 -0.1075
5738000000.0 -0.743 0.7532
5741000000.0 0.0815 1.093
5744000000.0 0.8915 0.6767
5747000000.0 1.026 -0.2904
5750000000.0 0.4708 -1.022
5753000000.0 -0.4622 -1.001
5756000000.0 -1.086 -0.2768
5759000000.0 -0.8823 0.6508
5762000000.0 -0.09113 1.085
5766000000.0 0.762 0.7772
5769000000.0 1.106 -0.1111
5772000000.0 0.6255 -0.9006
5775000000.0 -0.3165 -1.094
5778000000.0 -1.0 -0.4469
5781000000.0 -0.9824 0.4969
5784000000.0 -0.2554 1.07
5788000000.0 0.6597 0.8688
5791000000.0 1.076 0.05514
5794000000.0 0.731 -0.8063
5797000000.0 -0.1479 -1.072
5800000000.0 -0.8786 -0.572
5803000000.0 -1.027 0.3774
5806000000.0 -0.376 0.9787
5809000000.0 0.5314 0.9623
5812000000.0 1.062 0.2096
5816000000.0 0.8189 -0.66
5819000000.0 -0.01786 -1.052
5822000000.0 -0.8124 -0.628
5825000000.0 -1.036 0.2235
5828000000.0 -0.4641 0.9075
5831000000.0 0.388 0.9343
5834000000.0 0.957 0.3528
5838000000.0 0.7925 -0.5669
5841000000.0 0.09563 -0.9613
5844000000.0 -0.7444 -0.6733
5847000000.0 -0.9814 0.1452
5850000000.0 -0.5079 0.8044
5853000000.0 0.3162 0.8991
5856000000.0 0.8581 0.2684
5859000000.0 0.7659 -0.5039
5862000000.0 0.1116 -0.9341
5866000000.0 -0.6163 -0.6416
5869000000.0 -0.9028 0.1204
5872000000.0 -0.5043 0.7744
5875000000.0 0.2756 0.8681
5878000000.0 0.8218 0.3037
5881000000.0 0.7535 -0.4735
5884000000.0 0.1237 -0.8666
5888000000.0 -0.6068 -0.6223
5891000000.0 -0.86 0.07616
5894000000.0 -0.4961 0.7255
5897000000.0 0.2349 0.8395
5900000000.0 0.7617 0.3577
5903000000.0 0.7713 -0.3649
5906000000.0 0.1467 -0.8779
5909000000.0 -0.5264 -0.6628
5912000000.0 -0.8776 -0.0005567
5916000000.0 -0.5665 0.6615
5919000000.0 0.1889 0.8327
5922000000.0 0.7609 0.3743
5925000000.0 0.8139 -0.3628
5928000000.0 0.2539 -0.8271
5931000000.0 -0.4669 -0.7398
5934000000.0 -0.8824 -0.09212
5938000000.0 -0.6428 0.6058
5941000000.0 0.0792 0.9175
5944000000.0 0.7361 0.5157
5947000000.0 0.8609 -0.2398
5950000000.0 0.3705 -0.8231
5953000000.0 -0.3774 -0.7892
5956000000.0 -0.894 -0.2155
5959000000.0 -0.7239 0.5497
5962000000.0 -0.07751 0.919
5966000000.0 0.6848 0.6479
5969000000.0 0.9667 -0.09635
5972000000.0 0.4917 -0.7815
5975000000.0 -0.2836 -0.9161
5978000000.0 -0.9145 -0.378
5981000000.0 -0.8765 0.4166
5984000000.0 -0.2176 0.9686
5988000000.0 0.58 0.7972
5991000000.0 0.981 0.05349
5994000000.0 0.6703 -0.7364
5997000000.0 -0.1268 -0.9865
6000000000.0 -0.8798 -0.5596
6003000000.0 -0.9614 0.3154
6006000000.0 -0.3794 0.9385
6009000000.0 0.4973 0.8861
6012000000.0 0.9785 0.1585
6016000000.0 0.7601 -0.6336
6019000000.0 -0.01004 -1.003
6022000000.0 -0.7865 -0.6471
6025000000.0 -0.971 0.2308
6028000000.0 -0.435 0.8622
6031000000.0 0.3926 0.8954
6034000000.0 0.9314 0.2596
6038000000.0 0.7731 -0.5503
6041000000.0 0.06492 -0.9645
6044000000.0 -0.6895 -0.6764
6047000000.0 -0.9496 0.1432
6050000000.0 -0.5151 0.8053
6053000000.0 0.313 0.8975
6056000000.0 0.9213 0.3089
6059000000.0 0.7982 -0.4751
6062000000.0 0.1402 -0.9331
6066000000.0 -0.6381 -0.6762
6069000000.0 -0.9127 0.05609
6072000000.0 -0.5156 0.739
6075000000.0 0.2574 0.8625
6078000000.0 0.8219 0.3282
6081000000.0 0.7637 -0.421
6084000000.0 0.1685 -0.872
6088000000.0 -0.5704 -0.6836
6091000000.0 -0.8664 0.04372
6094000000.0 -0.5181 0.6425
6097000000.0 0.1957 0.8306
6100000000.0 0.7816 0.376
6103000000.0 0.7596 -0.3679
6106000000.0 0.1765 -0.8392
6109000000.0 -0.5159 -0.6762
6112000000.0 -0.8836 0.0155
6116000000.0 -0.5587 0.6691
6119000000.0 0.165 0.8387
6122000000.0 0.7895 0.4062
6125000000.0 0.7821 -0.3277
6128000000.0 0.2483 -0.8179
6131000000.0 -0.4882 -0.7227
6134000000.0 -0.8673 -0.07325
6138000000.0 -0.5975 0.642
6141000000.0 0.1377 0.8881
6144000000.0 0.7481 0.4512
6147000000.0 0.8101 -0.3206
6150000000.0 0.2938 -0.8259
6153000000.0 -0.4533 -0.7652
6156000000.0 -0.9109 -0.1267
6159000000.0 -0.6974 0.6085
6162000000.0 0.04137 0.8923
6166000000.0 0.745 0.5678
6169000000.0 0.8808 -0.2512
6172000000.0 0.3597 -0.8744
6175000000.0 -0.4214 -0.8418
6178000000.0 -0.9038 -0.1981
6181000000.0 -0.7339 0.5638
6184000000.0 -0.008984 0.9723
6188000000.0 0.7191 0.6182
6191000000.0 0.93 -0.1693
6194000000.0 0.45 -0.8102
6197000000.0 -0.3367 -0.8944
6200000000.0 -0.8968 -0.3121
6203000000.0 -0.7627 0.4935
6206000000.0 -0.133 0.9352
6209000000.0 0.6382 0.6502
6212000000.0 0.9421 -0.07018
6216000000.0 0.5342 -0.7546
6219000000.0 -0.2196 -0.8889
6222000000.0 -0.836 -0.3938
6225000000.0 -0.8386 0.3867
6228000000.0 -0.2449 0.8676
6231000000.0 0.5566 0.7437
6234000000.0 0.9137 0.04714
6238000000.0 0.5996 -0.6505
6241000000.0 -0.08665 -0.8781
6244000000.0 -0.7284 -0.4477
6247000000.0 -0.8251 0.2385
6250000000.0 -0.3151 0.7814
6253000000.0 0.3587 0.7843
6256000000.0 0.8177 0.1297
6259000000.0 0.6641 -0.4908
6262000000.0 0.0324 -0.834
6266000000.0 -0.6108 -0.5271
6269000000.0 -0.7956 0.08747
