! Created with skrf 1.8.0 (http://scikit-rf.org).
# Hz S RI R 50.0 
!freq ReS11 ImS11
4000000000.0 -0.2359 -1.471
4003000000.0 -1.277 -0.7856
4006000000.0 -1.423 0.4964
4009000000.0 -0.5042 1.439
4012000000.0 0.7999 1.306
4016000000.0 1.511 0.1881
4019000000.0 1.113 -1.113
4022000000.0 -0.1308 -1.543
4025000000.0 -1.316 -0.8695
4028000000.0 -1.519 0.4733
4031000000.0 -0.5836 1.48
4034000000.0 0.8242 1.387
4038000000.0 1.628 0.162
4041000000.0 1.184 -1.189
4044000000.0 -0.2018 -1.621
4047000000.0 -1.398 -0.9519
4050000000.0 -1.555 0.4788
4053000000.0 -0.5898 1.512
4056000000.0 0.797 1.433
4059000000.0 1.59 0.3671
4062000000.0 1.226 -1.041
4066000000.0 0.03362 -1.624
4069000000.0 -1.26 -1.043
4072000000.0 -1.606 0.2924
4075000000.0 -0.7772 1.461
4078000000.0 0.6092 1.547
4081000000.0 1.569 0.5324
4084000000.0 1.421 -0.8586
4088000000.0 0.2528 -1.636
4091000000.0 -1.127 -1.191
4094000000.0 -1.635 0.09077
4097000000.0 -0.9691 1.323
4100000000.0 0.3997 1.591
4103000000.0 1.454 0.6662
4106000000.0 1.446 -0.634
4109000000.0 0.422 -1.482
4112000000.0 -0.8632 -1.288
4116000000.0 -1.516 -0.1856
4119000000.0 -1.096 1.008
4122000000.0 0.06114 1.469
4125000000.0 1.16 0.9111
4128000000.0 1.446 -0.2615
4131000000.0 0.764 -1.261
4134000000.0 -0.4507 -1.414
4138000000.0 -1.351 -0.5804
4141000000.0 -1.309 0.6628
4144000000.0 -0.3702 1.453
4147000000.0 0.8582 1.182
4150000000.0 1.487 0.138
4153000000.0 1.048 -1.07
4156000000.0 -0.1311 -1.505
4159000000.0 -1.237 -0.8478
4162000000.0 -1.449 0.4469
4166000000.0 -0.6433 1.395
4169000000.0 0.618 1.373
4172000000.0 1.46 0.3813
4175000000.0 1.231 -0.8474
4178000000.0 0.1541 -1.49
4181000000.0 -1.07 -1.04
4184000000.0 -1.49 0.1318
4188000000.0 -0.8742 1.262
4191000000.0 0.4132 1.479
4194000000.0 1.426 0.6318
4197000000.0 1.41 -0.699
4200000000.0 0.3376 -1.545
4203000000.0 -1.008 -1.227
4206000000.0 -1.62 -0.01927
4209000000.0 -1.015 1.275
4212000000.0 0.391 1.594
4216000000.0 1.522 0.6635
4219000000.0 1.515 -0.7731
4222000000.0 0.2953 -1.665
4225000000.0 -1.133 -1.217
4228000000.0 -1.645 0.1719
4231000000.0 -0.8763 1.423
4234000000.0 0.6321 1.49
4238000000.0 1.571 0.4863
4241000000.0 1.309 -0.9696
4244000000.0 0.006771 -1.591
4247000000.0 -1.22 -0.9942
4250000000.0 -1.529 0.3849
4253000000.0 -0.6357 1.409
4256000000.0 0.7082 1.371
4259000000.0 1.495 0.2539
4262000000.0 1.111 -1.037
4266000000.0 -0.1151 -1.52
4269000000.0 -1.268 -0.8017
4272000000.0 -1.421 0.4926
4275000000.0 -0.4769 1.405
4278000000.0 0.7842 1.206
4281000000.0 1.463 0.1549
4284000000.0 0.9929 -1.025
4288000000.0 -0.1909 -1.39
4291000000.0 -1.161 -0.69
4294000000.0 -1.245 0.4667
4297000000.0 -0.4347 1.247
4300000000.0 0.6716 1.12
4303000000.0 1.268 0.145
4306000000.0 0.948 -0.8476
4309000000.0 -0.0154 -1.304
4312000000.0 -1.013 -0.7845
4316000000.0 -1.242 0.2371
4319000000.0 -0.6286 1.109
4322000000.0 0.4323 1.249
4325000000.0 1.227 0.4628
4328000000.0 1.174 -0.6585
4331000000.0 0.2555 -1.348
4334000000.0 -0.8834 -1.042
4338000000.0 -1.366 0.01359
4341000000.0 -0.9106 1.075
4344000000.0 0.2403 1.37
4347000000.0 1.23 0.6661
4350000000.0 1.316 -0.5194
4353000000.0 0.4499 -1.367
4356000000.0 -0.7976 -1.259
4359000000.0 -1.42 -0.1819
4362000000.0 -1.075 1.003
4366000000.0 0.07406 1.477
4369000000.0 1.135 0.9039
4372000000.0 1.439 -0.3561
4375000000.0 0.6898 -1.332
4378000000.0 -0.6148 -1.39
4381000000.0 -1.487 -0.4224
4384000000.0 -1.245 0.859
4388000000.0 -0.1092 1.562
4391000000.0 1.117 1.073
4394000000.0 1.56 -0.2079
4397000000.0 0.7793 -1.38
4400000000.0 -0.5465 -1.474
4403000000.0 -1.546 -0.4685
4406000000.0 -1.317 0.8894
4409000000.0 -0.09799 1.584
4412000000.0 1.192 1.077
4416000000.0 1.531 -0.3024
4419000000.0 0.7555 -1.371
4422000000.0 -0.6236 -1.406
4425000000.0 -1.454 -0.3385
4428000000.0 -1.149 0.8964
4431000000.0 -0.009342 1.433
4434000000.0 1.119 0.8884
4438000000.0 1.368 -0.336
4441000000.0 0.5285 -1.273
4444000000.0 -0.634 -1.165
4447000000.0 -1.334 -0.2454
4450000000.0 -0.9873 0.8895
4453000000.0 0.1146 1.28
4456000000.0 1.068 0.7386
4459000000.0 1.235 -0.4283
4462000000.0 0.4048 -1.199
4466000000.0 -0.6645 -1.023
4469000000.0 -1.177 -0.06865
4472000000.0 -0.7767 0.9247
4475000000.0 0.1892 1.216
4478000000.0 1.043 0.5417
4481000000.0 1.055 -0.4852
4484000000.0 0.2629 -1.117
4488000000.0 -0.7175 -0.8981
4491000000.0 -1.122 -0.02069
4494000000.0 -0.7359 0.8864
4497000000.0 0.238 1.108
4500000000.0 1.017 0.5258
4503000000.0 1.014 -0.4498
4506000000.0 0.2437 -1.035
4509000000.0 -0.6808 -0.8834
4512000000.0 -1.133 -0.03617
4516000000.0 -0.7356 0.816
4519000000.0 0.151 1.113
4522000000.0 0.9629 0.5616
4525000000.0 1.063 -0.4041
4528000000.0 0.3415 -1.084
4531000000.0 -0.6474 -0.9898
4534000000.0 -1.169 -0.1264
4538000000.0 -0.8681 0.8094
4541000000.0 0.08042 1.183
4544000000.0 0.9862 0.7119
4547000000.0 1.183 -0.2922
4550000000.0 0.4783 -1.066
4553000000.0 -0.5013 -1.109
4556000000.0 -1.184 -0.323
4559000000.0 -1.045 0.6911
4562000000.0 -0.09481 1.226
4566000000.0 0.9007 0.8909
4569000000.0 1.295 -0.1225
4572000000.0 0.7042 -1.06
4575000000.0 -0.3312 -1.275
4578000000.0 -1.192 -0.5522
4581000000.0 -1.189 0.5409
4584000000.0 -0.3352 1.299
4588000000.0 0.7758 1.106
4591000000.0 1.378 0.09329
4594000000.0 0.9579 -1.011
4597000000.0 -0.1944 -1.356
4600000000.0 -1.221 -0.7775
4603000000.0 -1.335 0.4364
4606000000.0 -0.4912 1.292
4609000000.0 0.6808 1.211
4612000000.0 1.411 0.2263
4616000000.0 1.078 -0.908
4619000000.0 -0.04314 -1.385
4622000000.0 -1.102 -0.8108
4625000000.0 -1.371 0.3495
4628000000.0 -0.6157 1.274
4631000000.0 0.5591 1.244
4634000000.0 1.332 0.3185
4638000000.0 1.091 -0.8302
4641000000.0 0.01078 -1.375
4644000000.0 -1.063 -0.8814
4647000000.0 -1.301 0.2782
4650000000.0 -0.5903 1.182
4653000000.0 0.5471 1.197
4656000000.0 1.241 0.2822
4659000000.0 0.9954 -0.8079
4662000000.0 0.03337 -1.258
4666000000.0 -0.9836 -0.7794
4669000000.0 -1.192 0.2781
4672000000.0 -0.4904 1.101
4675000000.0 0.5342 1.032
4678000000.0 1.141 0.2407
4681000000.0 0.8858 -0.7124
4684000000.0 0.006937 -1.118
4688000000.0 -0.876 -0.6793
4691000000.0 -1.057 0.2719
4694000000.0 -0.4751 1.031
4697000000.0 0.5024 0.9699
4700000000.0 1.087 0.2097
4703000000.0 0.8304 -0.7117
4706000000.0 -0.0338 -1.075
4709000000.0 -0.8812 -0.6786
4712000000.0 -1.036 0.2845
4716000000.0 -0.4093 1.01
4719000000.0 0.5144 0.9493
4722000000.0 1.047 0.1998
4725000000.0 0.8244 -0.6883
4728000000.0 -0.01683 -1.058
4731000000.0 -0.8285 -0.6526
4734000000.0 -1.021 0.222
4738000000.0 -0.4381 0.9233
4741000000.0 0.4053 0.9754
4744000000.0 1.014 0.296
4747000000.0 0.8746 -0.6113
4750000000.0 0.09761 -1.077
4753000000.0 -0.7343 -0.7636
4756000000.0 -1.087 0.08119
4759000000.0 -0.6201 0.8994
4762000000.0 0.269 1.095
4766000000.0 1.026 0.4679
4769000000.0 1.065 -0.4827
4772000000.0 0.2834 -1.121
4775000000.0 -0.7071 -0.9415
4778000000.0 -1.166 -0.09193
4781000000.0 -0.8288 0.8354
4784000000.0 0.09314 1.183
4788000000.0 0.9922 0.6916
4791000000.0 1.197 -0.304
4794000000.0 0.5173 -1.097
4797000000.0 -0.5242 -1.168
4800000000.0 -1.225 -0.3412
4803000000.0 -1.039 0.6981
4806000000.0 -0.1306 1.257
4809000000.0 0.8962 0.9307
4812000000.0 1.299 -0.111
4816000000.0 0.7834 -1.076
4819000000.0 -0.3389 -1.293
4822000000.0 -1.243 -0.578
4825000000.0 -1.24 0.5689
4828000000.0 -0.3416 1.34
4831000000.0 0.8586 1.114
4834000000.0 1.401 0.05222
4838000000.0 0.9383 -1.05
4841000000.0 -0.2005 -1.381
4844000000.0 -1.179 -0.7303
4847000000.0 -1.3 0.4755
4850000000.0 -0.4794 1.29
4853000000.0 0.7283 1.176
4856000000.0 1.333 0.1883
4859000000.0 1.003 -0.9188
4862000000.0 -0.08882 -1.341
4866000000.0 -1.09 -0.786
4869000000.0 -1.275 0.3878
4872000000.0 -0.5438 1.2
4875000000.0 0.6064 1.182
4878000000.0 1.271 0.2519
4881000000.0 0.9806 -0.8073
4884000000.0 -0.02164 -1.254
4888000000.0 -0.9812 -0.7535
4891000000.0 -1.172 0.2723
4894000000.0 -0.514 1.069
4897000000.0 0.4782 1.029
4900000000.0 1.092 0.2799
4903000000.0 0.883 -0.6697
4906000000.0 0.05776 -1.087
4909000000.0 -0.804 -0.672
4912000000.0 -1.009 0.1858
4916000000.0 -0.4861 0.8641
4919000000.0 0.3803 0.9301
4922000000.0 0.9499 0.2974
4925000000.0 0.7934 -0.5254
4928000000.0 0.09481 -0.9567
4931000000.0 -0.6598 -0.6749
4934000000.0 -0.9559 0.07909
4938000000.0 -0.5362 0.7706
4941000000.0 0.2739 0.8908
4944000000.0 0.8668 0.3572
4947000000.0 0.8575 -0.4753
4950000000.0 0.2077 -0.9276
4953000000.0 -0.5983 -0.7295
4956000000.0 -0.9466 0.02156
4959000000.0 -0.6087 0.7678
4962000000.0 0.1962 0.9675
4966000000.0 0.8748 0.4596
4969000000.0 0.917 -0.3909
4972000000.0 0.2739 -0.9626
4975000000.0 -0.574 -0.8029
4978000000.0 -1.023 -0.08714
4981000000.0 -0.7038 0.7354
4984000000.0 0.1212 1.05
4988000000.0 0.8892 0.5965
4991000000.0 1.02 -0.3233
4994000000.0 0.4405 -0.992
4997000000.0 -0.5176 -0.9631
5000000000.0 -1.111 -0.2405
5003000000.0 -0.9024 0.6958
5006000000.0 -0.01822 1.18
5009000000.0 0.9038 0.8121
5012000000.0 1.189 -0.1952
5016000000.0 0.6249 -1.076
5019000000.0 -0.4156 -1.137
5022000000.0 -1.202 -0.3938
5025000000.0 -1.077 0.6606
5028000000.0 -0.1638 1.247
5031000000.0 0.8732 0.9427
5034000000.0 1.29 -0.07985
5038000000.0 0.7687 -1.041
5041000000.0 -0.2935 -1.24
5044000000.0 -1.163 -0.5883
5047000000.0 -1.212 0.5258
5050000000.0 -0.3739 1.25
5053000000.0 0.7055 1.106
5056000000.0 1.296 0.1507
5059000000.0 0.9622 -0.9132
5062000000.0 -0.04676 -1.32
5066000000.0 -1.011 -0.7369
5069000000.0 -1.216 0.3311
5072000000.0 -0.5461 1.142
5075000000.0 0.5381 1.168
5078000000.0 1.206 0.3265
5081000000.0 1.018 -0.7104
5084000000.0 0.1191 -1.223
5088000000.0 -0.8757 -0.8483
5091000000.0 -1.19 0.115
5094000000.0 -0.6403 1.0
5097000000.0 0.3527 1.129
5100000000.0 1.012 0.458
5103000000.0 1.004 -0.5117
5106000000.0 0.2586 -1.091
5109000000.0 -0.6134 -0.8709
5112000000.0 -1.076 -0.05419
5116000000.0 -0.7478 0.7701
5119000000.0 0.1274 1.028
5122000000.0 0.8655 0.575
5125000000.0 1.008 -0.2677
5128000000.0 0.4156 -0.9535
5131000000.0 -0.5037 -0.9244
5134000000.0 -0.9727 -0.1765
5138000000.0 -0.7551 0.6455
5141000000.0 -0.05237 0.9838
5144000000.0 0.7403 0.6177
5147000000.0 0.9328 -0.1728
5150000000.0 0.4531 -0.85
5153000000.0 -0.3394 -0.8494
5156000000.0 -0.8996 -0.2703
5159000000.0 -0.7368 0.5043
5162000000.0 -0.09677 0.8753
5166000000.0 0.6324 0.6398
5169000000.0 0.9067 -0.1058
5172000000.0 0.5397 -0.7535
5175000000.0 -0.2848 -0.8691
5178000000.0 -0.8474 -0.3089
5181000000.0 -0.792 0.4806
5184000000.0 -0.1192 0.8654
5188000000.0 0.6512 0.6581
5191000000.0 0.92 -0.07027
5194000000.0 0.5015 -0.7579
5197000000.0 -0.2797 -0.8675
5200000000.0 -0.8818 -0.3097
5203000000.0 -0.8165 0.4776
5206000000.0 -0.1212 0.956
5209000000.0 0.6583 0.7068
5212000000.0 0.9457 -0.06845
5216000000.0 0.5838 -0.8123
5219000000.0 -0.2622 -0.95
5222000000.0 -0.9218 -0.3765
5225000000.0 -0.9153 0.4609
5228000000.0 -0.2312 0.9795
5231000000.0 0.6058 0.8056
5234000000.0 1.033 -0.01001
5238000000.0 0.6671 -0.8026
5241000000.0 -0.2212 -1.042
5244000000.0 -0.9382 -0.5065
5247000000.0 -1.01 0.3811
5250000000.0 -0.3274 1.004
5253000000.0 0.5698 0.9158
5256000000.0 1.06 0.1631
5259000000.0 0.8218 -0.7238
5262000000.0 -0.03987 -1.076
5266000000.0 -0.8763 -0.657
5269000000.0 -1.072 0.2349
5272000000.0 -0.4938 0.9725
5275000000.0 0.4054 1.008
5278000000.0 1.066 0.3706
5281000000.0 0.9493 -0.5816
5284000000.0 0.1737 -1.082
5288000000.0 -0.7181 -0.8437
5291000000.0 -1.125 0.007437
5294000000.0 -0.7083 0.8281
5297000000.0 0.1961 1.088
5300000000.0 0.9675 0.5924
5303000000.0 1.067 -0.396
5306000000.0 0.4063 -1.049
5309000000.0 -0.526 -1.017
5312000000.0 -1.122 -0.2337
5316000000.0 -0.8691 0.6851
5319000000.0 -0.04155 1.163
5322000000.0 0.874 0.7963
5325000000.0 1.114 -0.1972
5328000000.0 0.6082 -0.9805
5331000000.0 -0.3888 -1.059
5334000000.0 -1.05 -0.4065
5338000000.0 -0.9555 0.5627
5341000000.0 -0.2169 1.101
5344000000.0 0.7423 0.8369
5347000000.0 1.135 -0.03531
5350000000.0 0.6838 -0.8425
5353000000.0 -0.2453 -1.083
5356000000.0 -0.9635 -0.4701
5359000000.0 -1.007 0.4175
5362000000.0 -0.2862 1.038
5366000000.0 0.6364 0.8625
5369000000.0 1.067 0.03171
5372000000.0 0.7109 -0.8011
5375000000.0 -0.1795 -1.013
5378000000.0 -0.9177 -0.465
5381000000.0 -0.9191 0.3892
5384000000.0 -0.2612 0.9546
5388000000.0 0.5705 0.7601
5391000000.0 0.9591 0.02642
5394000000.0 0.5824 -0.7037
5397000000.0 -0.2115 -0.9414
5400000000.0 -0.8275 -0.4151
5403000000.0 -0.8084 0.3916
5406000000.0 -0.1926 0.889
5409000000.0 0.5258 0.7251
5412000000.0 0.8593 0.02928
5416000000.0 0.5302 -0.6797
5419000000.0 -0.1976 -0.8287
5422000000.0 -0.8018 -0.3812
5425000000.0 -0.8136 0.3396
5428000000.0 -0.2021 0.8707
5431000000.0 0.5533 0.7014
5434000000.0 0.883 0.03458
5438000000.0 0.5563 -0.6959
5441000000.0 -0.2096 -0.8621
5444000000.0 -0.8229 -0.3859
5447000000.0 -0.8247 0.3825
5450000000.0 -0.2078 0.8828
5453000000.0 0.5217 0.7125
5456000000.0 0.928 0.05147
5459000000.0 0.5993 -0.6698
5462000000.0 -0.09875 -0.8898
5466000000.0 -0.7851 -0.4934
5469000000.0 -0.8486 0.3181
5472000000.0 -0.3242 0.8827
5475000000.0 0.4473 0.8013
5478000000.0 0.9387 0.1657
5481000000.0 0.7194 -0.5928
5484000000.0 0.006046 -0.9512
5488000000.0 -0.7618 -0.6188
5491000000.0 -0.9931 0.177
5494000000.0 -0.4948 0.8607
5497000000.0 0.3629 0.9356
5500000000.0 0.9457 0.3398
5503000000.0 0.9073 -0.5143
5506000000.0 0.1317 -0.9881
5509000000.0 -0.6683 -0.7713
5512000000.0 -1.036 0.005568
5516000000.0 -0.6436 0.7983
5519000000.0 0.1649 0.9856
5522000000.0 0.8902 0.5504
5525000000.0 0.9775 -0.3752
5528000000.0 0.3543 -0.9613
5531000000.0 -0.54 -0.8939
5534000000.0 -1.065 -0.1843
5538000000.0 -0.8303 0.6812
5541000000.0 -0.0146 1.067
5544000000.0 0.821 0.6891
5547000000.0 1.044 -0.1917
5550000000.0 0.5034 -0.9174
5553000000.0 -0.3666 -0.9893
5556000000.0 -1.008 -0.3461
5559000000.0 -0.8902 0.5327
5562000000.0 -0.1735 1.059
5566000000.0 0.6781 0.7817
5569000000.0 1.039 -0.06257
5572000000.0 0.613 -0.8111
5575000000.0 -0.2166 -0.9572
5578000000.0 -0.9091 -0.4344
5581000000.0 -0.9044 0.3786
5584000000.0 -0.2781 0.9174
5588000000.0 0.5368 0.8056
5591000000.0 0.9654 0.0953
5594000000.0 0.6825 -0.6758
5597000000.0 -0.1096 -0.9333
5600000000.0 -0.7672 -0.5087
5603000000.0 -0.8839 0.2651
5606000000.0 -0.2958 0.8538
5609000000.0 0.435 0.772
5612000000.0 0.8752 0.1325
5616000000.0 0.6689 -0.5802
5619000000.0 -0.01775 -0.8587
5622000000.0 -0.6785 -0.4859
5625000000.0 -0.8084 0.225
5628000000.0 -0.3359 0.7896
5631000000.0 0.3866 0.7435
5634000000.0 0.8398 0.1755
5638000000.0 0.6509 -0.5286
5641000000.0 0.001712 -0.8293
5644000000.0 -0.6534 -0.5132
5647000000.0 -0.8032 0.2196
5650000000.0 -0.3683 0.7867
5653000000.0 0.3789 0.7512
5656000000.0 0.8428 0.195
5659000000.0 0.6845 -0.5481
5662000000.0 0.002312 -0.8429
5666000000.0 -0.7059 -0.5527
5669000000.0 -0.8741 0.2314
5672000000.0 -0.3807 0.8313
5675000000.0 0.4036 0.8295
5678000000.0 0.9009 0.2335
5681000000.0 0.7279 -0.554
5684000000.0 0.05911 -0.9416
5688000000.0 -0.732 -0.5944
5691000000.0 -0.9418 0.18
5694000000.0 -0.4511 0.8585
5697000000.0 0.3794 0.9155
5700000000.0 0.9538 0.2551
5703000000.0 0.8235 -0.537
5706000000.0 0.09197 -1.012
5709000000.0 -0.7255 -0.7201
5712000000.0 -1.042 0.1266
5716000000.0 -0.5718 0.9129
5719000000.0 0.3292 1.01
5722000000.0 0.997 0.3906
5725000000.0 0.926 -0.5124
5728000000.0 0.1663 -1.047
5731000000.0 -0.7118 -0.8558
5734000000.0 -1.073 0.004576
5738000000.0 -0.6774 0.8225
5741000000.0 0.2048 1.072
5744000000.0 0.9799 0.5303
5747000000.0 1.008 -0.3876
5750000000.0 0.3742 -1.062
5753000000.0 -0.5696 -0.926
5756000000.0 -1.139 -0.1515
5759000000.0 -0.8366 0.7647
5762000000.0 0.04159 1.149
5766000000.0 0.8561 0.6695
5769000000.0 1.059 -0.2138
5772000000.0 0.5294 -0.9543
5775000000.0 -0.4323 -1.031
5778000000.0 -1.067 -0.3389
5781000000.0 -0.9297 0.5994
5784000000.0 -0.1546 1.078
5788000000.0 0.7524 0.7851
5791000000.0 1.09 -0.0587
5794000000.0 0.6461 -0.8898
5797000000.0 -0.2481 -1.053
5800000000.0 -0.9605 -0.4734
5803000000.0 -0.9794 0.4441
5806000000.0 -0.3164 1.013
5809000000.0 0.6075 0.8714
5812000000.0 1.011 0.07657
5816000000.0 0.7042 -0.7352
5819000000.0 -0.1441 -1.024
5822000000.0 -0.8743 -0.5673
5825000000.0 -0.9315 0.2979
5828000000.0 -0.355 0.9468
5831000000.0 0.5117 0.8515
5834000000.0 0.9844 0.1607
5838000000.0 0.7152 -0.6395
5841000000.0 -0.05496 -0.9479
5844000000.0 -0.7515 -0.5825
5847000000.0 -0.9526 0.2537
5850000000.0 -0.365 0.8846
5853000000.0 0.4133 0.8366
5856000000.0 0.9042 0.1836
5859000000.0 0.7306 -0.5898
5862000000.0 -0.02902 -0.9536
5866000000.0 -0.7079 -0.5531
5869000000.0 -0.8593 0.2038
5872000000.0 -0.3862 0.8202
5875000000.0 0.3798 0.7944
5878000000.0 0.8731 0.187
5881000000.0 0.6904 -0.5141
5884000000.0 0.01865 -0.863
5888000000.0 -0.6506 -0.5375
5891000000.0 -0.8408 0.1754
5894000000.0 -0.4106 0.7408
5897000000.0 0.2973 0.7761
5900000000.0 0.832 0.2133
5903000000.0 0.7118 -0.49
5906000000.0 0.04372 -0.8381
5909000000.0 -0.6598 -0.5723
5912000000.0 -0.8692 0.09248
5916000000.0 -0.4376 0.7711
5919000000.0 0.3109 0.8637
5922000000.0 0.8206 0.2861
5925000000.0 0.7642 -0.4554
5928000000.0 0.157 -0.8654
5931000000.0 -0.6025 -0.6575
5934000000.0 -0.8828 0.02919
5938000000.0 -0.5755 0.6948
5941000000.0 0.1933 0.8747
5944000000.0 0.798 0.4699
5947000000.0 0.8719 -0.3426
5950000000.0 0.2959 -0.8971
5953000000.0 -0.5132 -0.8071
5956000000.0 -0.9254 -0.1273
5959000000.0 -0.7053 0.6415
5962000000.0 0.03192 0.9269
5966000000.0 0.7495 0.5727
5969000000.0 0.9374 -0.2388
5972000000.0 0.4384 -0.8651
5975000000.0 -0.3933 -0.8791
5978000000.0 -0.9619 -0.2872
5981000000.0 -0.8206 0.5166
5984000000.0 -0.07724 0.987
5988000000.0 0.6727 0.7267
5991000000.0 1.032 -0.0566
5994000000.0 0.5907 -0.8225
5997000000.0 -0.2794 -0.9765
6000000000.0 -0.8923 -0.4585
6003000000.0 -0.9405 0.4449
6006000000.0 -0.2282 0.9601
6009000000.0 0.6187 0.81
6012000000.0 1.006 0.03337
6016000000.0 0.6608 -0.7379
6019000000.0 -0.1727 -0.9691
6022000000.0 -0.8567 -0.4836
6025000000.0 -0.9102 0.3165
6028000000.0 -0.2984 0.9128
6031000000.0 0.5356 0.8225
6034000000.0 0.9451 0.1261
6038000000.0 0.6908 -0.654
6041000000.0 -0.0728 -0.9491
6044000000.0 -0.8002 -0.5447
6047000000.0 -0.9135 0.267
6050000000.0 -0.371 0.838
6053000000.0 0.4148 0.8382
6056000000.0 0.9191 0.1699
6059000000.0 0.7069 -0.5829
6062000000.0 -0.03118 -0.9017
6066000000.0 -0.7539 -0.535
6069000000.0 -0.8749 0.2056
6072000000.0 -0.3865 0.8
6075000000.0 0.3811 0.7848
6078000000.0 0.8568 0.1879
6081000000.0 0.6882 -0.5397
6084000000.0 0.00911 -0.8627
6088000000.0 -0.6528 -0.5737
6091000000.0 -0.856 0.1609
6094000000.0 -0.4231 0.7533
6097000000.0 0.3455 0.7952
6100000000.0 0.8146 0.224
6103000000.0 0.6868 -0.4933
6106000000.0 0.07305 -0.8663
6109000000.0 -0.6476 -0.5593
6112000000.0 -0.8478 0.1233
6116000000.0 -0.4298 0.7495
6119000000.0 0.3039 0.8068
6122000000.0 0.8107 0.3068
6125000000.0 0.7505 -0.4919
6128000000.0 0.1122 -0.8491
6131000000.0 -0.6446 -0.6151
6134000000.0 -0.8778 0.1118
6138000000.0 -0.5116 0.7633
6141000000.0 0.2536 0.844
6144000000.0 0.8389 0.3159
6147000000.0 0.7772 -0.4365
6150000000.0 0.1998 -0.8808
6153000000.0 -0.6194 -0.6797
6156000000.0 -0.9012 0.006458
6159000000.0 -0.525 0.7171
6162000000.0 0.1985 0.8859
6166000000.0 0.8704 0.4329
6169000000.0 0.8845 -0.3954
6172000000.0 0.2155 -0.9185
6175000000.0 -0.5567 -0.7802
6178000000.0 -0.9361 -0.06589
6181000000.0 -0.6543 0.6817
6184000000.0 0.1039 0.953
6188000000.0 0.8129 0.5151
6191000000.0 0.897 -0.3005
6194000000.0 0.3224 -0.8906
6197000000.0 -0.506 -0.8293
6200000000.0 -0.9332 -0.1562
6203000000.0 -0.6789 0.629
6206000000.0 0.04732 0.9333
6209000000.0 0.7427 0.5615
6212000000.0 0.8782 -0.209
6216000000.0 0.4243 -0.8302
6219000000.0 -0.3613 -0.8311
6222000000.0 -0.874 -0.2606
6225000000.0 -0.7866 0.5249
6228000000.0 -0.08006 0.9159
6231000000.0 0.6497 0.6287
6234000000.0 0.887 -0.0831
6238000000.0 0.4714 -0.7418
6241000000.0 -0.2687 -0.8283
6244000000.0 -0.826 -0.356
6247000000.0 -0.7964 0.3837
6250000000.0 -0.2055 0.8265
6253000000.0 0.5012 0.6732
6256000000.0 0.8284 0.0222
6259000000.0 0.5511 -0.6105
6262000000.0 -0.1013 -0.8266
6266000000.0 -0.6867 -0.4575
