! Created with skrf 1.8.0 (http://scikit-rf.org).
# Hz S RI R 50.0 
!freq ReS11 ImS11
4000000000.0 -0.1426 -1.474
4003000000.0 -1.232 -0.7965
4006000000.0 -1.415 0.455
4009000000.0 -0.5323 1.383
4012000000.0 0.7465 1.369
4016000000.0 1.522 0.2655
4019000000.0 1.137 -1.078
4022000000.0 -0.07624 -1.567
4025000000.0 -1.326 -0.9007
4028000000.0 -1.542 0.4514
4031000000.0 -0.5609 1.473
4034000000.0 0.813 1.383
4038000000.0 1.601 0.2423
4041000000.0 1.203 -1.108
4044000000.0 -0.09155 -1.637
4047000000.0 -1.303 -0.912
4050000000.0 -1.539 0.4554
4053000000.0 -0.6701 1.485
4056000000.0 0.7633 1.386
4059000000.0 1.61 0.2965
4062000000.0 1.266 -1.045
4066000000.0 0.04464 -1.612
4069000000.0 -1.16 -1.059
4072000000.0 -1.577 0.266
4075000000.0 -0.8167 1.4
4078000000.0 0.5308 1.534
4081000000.0 1.559 0.5365
4084000000.0 1.446 -0.814
4088000000.0 0.2516 -1.602
4091000000.0 -1.08 -1.217
4094000000.0 -1.645 0.04923
4097000000.0 -0.97 1.296
4100000000.0 0.3719 1.588
4103000000.0 1.466 0.7395
4106000000.0 1.446 -0.597
4109000000.0 0.4518 -1.482
4112000000.0 -0.809 -1.309
4116000000.0 -1.484 -0.2102
4119000000.0 -1.121 0.9801
4122000000.0 0.009412 1.49
4125000000.0 1.147 0.9545
4128000000.0 1.449 -0.2074
4131000000.0 0.7739 -1.221
4134000000.0 -0.3969 -1.42
4138000000.0 -1.346 -0.5908
4141000000.0 -1.335 0.6398
4144000000.0 -0.4022 1.458
4147000000.0 0.8496 1.222
4150000000.0 1.532 0.1641
4153000000.0 1.086 -1.072
4156000000.0 -0.1396 -1.493
4159000000.0 -1.246 -0.8645
4162000000.0 -1.478 0.3864
4166000000.0 -0.69 1.349
4169000000.0 0.6151 1.363
4172000000.0 1.423 0.4091
4175000000.0 1.254 -0.8391
4178000000.0 0.1753 -1.504
4181000000.0 -1.03 -1.078
4184000000.0 -1.514 0.07257
4188000000.0 -0.8765 1.22
4191000000.0 0.333 1.518
4194000000.0 1.422 0.6624
4197000000.0 1.417 -0.6484
4200000000.0 0.4184 -1.517
4203000000.0 -0.9729 -1.28
4206000000.0 -1.615 -0.08716
4209000000.0 -1.06 1.214
4212000000.0 0.3364 1.646
4216000000.0 1.487 0.7364
4219000000.0 1.496 -0.7445
4222000000.0 0.3521 -1.665
4225000000.0 -1.12 -1.242
4228000000.0 -1.659 0.05553
4231000000.0 -0.9139 1.358
4234000000.0 0.5185 1.571
4238000000.0 1.561 0.5273
4241000000.0 1.381 -0.8897
4244000000.0 0.1287 -1.586
4247000000.0 -1.209 -1.024
4250000000.0 -1.532 0.3133
4253000000.0 -0.6913 1.406
4256000000.0 0.6618 1.393
4259000000.0 1.495 0.3293
4262000000.0 1.194 -0.9982
4266000000.0 -0.06459 -1.525
4269000000.0 -1.231 -0.8957
4272000000.0 -1.439 0.4061
4275000000.0 -0.5306 1.368
4278000000.0 0.7477 1.279
4281000000.0 1.425 0.1948
4284000000.0 1.006 -0.9868
4288000000.0 -0.103 -1.389
4291000000.0 -1.141 -0.7325
4294000000.0 -1.267 0.3875
4297000000.0 -0.4802 1.239
4300000000.0 0.6312 1.171
4303000000.0 1.262 0.2711
4306000000.0 0.9586 -0.8102
4309000000.0 0.03436 -1.287
4312000000.0 -0.9562 -0.847
4316000000.0 -1.238 0.2111
4319000000.0 -0.6912 1.076
4322000000.0 0.4215 1.228
4325000000.0 1.216 0.5147
4328000000.0 1.183 -0.6218
4331000000.0 0.2706 -1.34
4334000000.0 -0.8327 -1.105
4338000000.0 -1.364 -0.02351
4341000000.0 -0.9394 1.085
4344000000.0 0.1807 1.384
4347000000.0 1.248 0.7225
4350000000.0 1.343 -0.4489
4353000000.0 0.4773 -1.33
4356000000.0 -0.738 -1.256
4359000000.0 -1.424 -0.233
4362000000.0 -1.103 0.9451
4366000000.0 -0.004777 1.457
4369000000.0 1.149 0.9373
4372000000.0 1.442 -0.3071
4375000000.0 0.7037 -1.264
4378000000.0 -0.5128 -1.366
4381000000.0 -1.439 -0.4896
4384000000.0 -1.309 0.8576
4388000000.0 -0.1595 1.507
4391000000.0 1.081 1.103
4394000000.0 1.581 -0.1479
4397000000.0 0.8685 -1.299
4400000000.0 -0.4562 -1.503
4403000000.0 -1.46 -0.5879
4406000000.0 -1.347 0.8074
4409000000.0 -0.219 1.579
4412000000.0 1.098 1.109
4416000000.0 1.541 -0.1438
4419000000.0 0.8256 -1.294
4422000000.0 -0.5305 -1.424
4425000000.0 -1.449 -0.4777
4428000000.0 -1.233 0.8264
4431000000.0 -0.1385 1.443
4434000000.0 1.047 0.9593
4438000000.0 1.411 -0.2584
4441000000.0 0.676 -1.223
4444000000.0 -0.5748 -1.252
4447000000.0 -1.327 -0.3118
4450000000.0 -1.019 0.8256
4453000000.0 0.03393 1.307
4456000000.0 1.068 0.7733
4459000000.0 1.226 -0.3368
4462000000.0 0.48 -1.182
4466000000.0 -0.6306 -1.067
4469000000.0 -1.25 -0.1685
4472000000.0 -0.8914 0.8265
4475000000.0 0.1356 1.205
4478000000.0 1.009 0.6036
4481000000.0 1.106 -0.4066
4484000000.0 0.3319 -1.073
4488000000.0 -0.6437 -0.9396
4491000000.0 -1.119 -0.09944
4494000000.0 -0.7326 0.8264
4497000000.0 0.1969 1.134
4500000000.0 0.9632 0.5485
4503000000.0 1.043 -0.3629
4506000000.0 0.3443 -1.042
4509000000.0 -0.598 -0.923
4512000000.0 -1.071 -0.1423
4516000000.0 -0.7678 0.7691
4519000000.0 0.1164 1.101
4522000000.0 0.9403 0.5954
4525000000.0 1.069 -0.3657
4528000000.0 0.4233 -1.046
4531000000.0 -0.5824 -0.9925
4534000000.0 -1.12 -0.1895
4538000000.0 -0.874 0.751
4541000000.0 0.008596 1.181
4544000000.0 0.8993 0.7322
4547000000.0 1.171 -0.2604
4550000000.0 0.5904 -1.042
4553000000.0 -0.4271 -1.103
4556000000.0 -1.152 -0.3876
4559000000.0 -1.024 0.6375
4562000000.0 -0.1553 1.227
4566000000.0 0.8246 0.9289
4569000000.0 1.221 -0.06114
4572000000.0 0.7925 -1.006
4575000000.0 -0.2556 -1.275
4578000000.0 -1.162 -0.6069
4581000000.0 -1.228 0.4978
4584000000.0 -0.3962 1.274
4588000000.0 0.7106 1.133
4591000000.0 1.33 0.1701
4594000000.0 0.9611 -0.9467
4597000000.0 -0.08966 -1.391
4600000000.0 -1.121 -0.8109
4603000000.0 -1.311 0.3601
4606000000.0 -0.5413 1.261
4609000000.0 0.6181 1.234
4612000000.0 1.343 0.3151
4616000000.0 1.124 -0.8328
4619000000.0 0.0153 -1.393
4622000000.0 -1.056 -0.931
4625000000.0 -1.37 0.2282
4628000000.0 -0.6374 1.207
4631000000.0 0.5114 1.282
4634000000.0 1.321 0.3838
4638000000.0 1.119 -0.7513
4641000000.0 0.1269 -1.347
4644000000.0 -0.9626 -0.9279
4647000000.0 -1.3 0.2087
4650000000.0 -0.6819 1.19
4653000000.0 0.4621 1.208
4656000000.0 1.245 0.3948
4659000000.0 1.05 -0.7087
4662000000.0 0.1158 -1.271
4666000000.0 -0.9435 -0.8274
4669000000.0 -1.193 0.1849
4672000000.0 -0.5523 1.049
4675000000.0 0.4333 1.09
4678000000.0 1.112 0.3251
4681000000.0 0.9359 -0.6475
4684000000.0 0.05292 -1.138
4688000000.0 -0.8372 -0.7713
4691000000.0 -1.083 0.2009
4694000000.0 -0.499 0.9607
4697000000.0 0.4074 1.029
4700000000.0 1.08 0.2702
4703000000.0 0.8683 -0.6468
4706000000.0 0.05385 -1.07
4709000000.0 -0.8167 -0.7153
4712000000.0 -1.064 0.1939
4716000000.0 -0.495 0.9488
4719000000.0 0.4493 0.9767
4722000000.0 1.02 0.2607
4725000000.0 0.8471 -0.6329
4728000000.0 0.02814 -1.056
4731000000.0 -0.7608 -0.7203
4734000000.0 -1.012 0.1611
4738000000.0 -0.5225 0.8482
4741000000.0 0.3343 0.9774
4744000000.0 0.9436 0.3507
4747000000.0 0.8893 -0.5496
4750000000.0 0.1581 -1.043
4753000000.0 -0.7063 -0.7593
4756000000.0 -1.083 0.02589
4759000000.0 -0.6913 0.8372
4762000000.0 0.2152 1.068
4766000000.0 0.9929 0.4944
4769000000.0 1.062 -0.4452
4772000000.0 0.3536 -1.1
4775000000.0 -0.6373 -0.9741
4778000000.0 -1.137 -0.1311
4781000000.0 -0.8691 0.8189
4784000000.0 0.06929 1.162
4788000000.0 0.9427 0.7196
4791000000.0 1.205 -0.2781
4794000000.0 0.5651 -1.087
4797000000.0 -0.4654 -1.132
4800000000.0 -1.182 -0.377
4803000000.0 -1.033 0.6406
4806000000.0 -0.1652 1.233
4809000000.0 0.8289 0.9391
4812000000.0 1.272 -0.0163
4816000000.0 0.8001 -1.042
4819000000.0 -0.2359 -1.314
4822000000.0 -1.181 -0.6236
4825000000.0 -1.256 0.5063
4828000000.0 -0.4096 1.269
4831000000.0 0.7609 1.17
4834000000.0 1.392 0.151
4838000000.0 1.009 -0.9793
4841000000.0 -0.1242 -1.357
4844000000.0 -1.139 -0.7841
4847000000.0 -1.333 0.4222
4850000000.0 -0.5025 1.268
4853000000.0 0.6526 1.213
4856000000.0 1.347 0.2698
4859000000.0 1.025 -0.8601
4862000000.0 0.02088 -1.356
4866000000.0 -1.042 -0.8451
4869000000.0 -1.293 0.2723
4872000000.0 -0.5916 1.183
4875000000.0 0.5319 1.194
4878000000.0 1.232 0.3555
4881000000.0 1.03 -0.7709
4884000000.0 0.04669 -1.259
4888000000.0 -0.933 -0.8201
4891000000.0 -1.19 0.198
4894000000.0 -0.5884 1.036
4897000000.0 0.4197 1.058
4900000000.0 1.083 0.3223
4903000000.0 0.9317 -0.6086
4906000000.0 0.09575 -1.099
4909000000.0 -0.7653 -0.7384
4912000000.0 -1.006 0.1131
4916000000.0 -0.5419 0.8722
4919000000.0 0.3177 0.9536
4922000000.0 0.9105 0.3319
4925000000.0 0.8372 -0.4838
4928000000.0 0.1676 -0.9449
4931000000.0 -0.6212 -0.6937
4934000000.0 -0.9486 0.01302
4938000000.0 -0.5825 0.7368
4941000000.0 0.2167 0.9086
4944000000.0 0.8538 0.4128
4947000000.0 0.8668 -0.3774
4950000000.0 0.2401 -0.91
4953000000.0 -0.5655 -0.7614
4956000000.0 -0.9336 -0.03007
4959000000.0 -0.6547 0.6776
4962000000.0 0.1342 0.9433
4966000000.0 0.8253 0.5013
4969000000.0 0.9092 -0.3412
4972000000.0 0.3109 -0.9365
4975000000.0 -0.5165 -0.8375
4978000000.0 -1.024 -0.1362
4981000000.0 -0.7251 0.6798
4984000000.0 0.06377 1.021
4988000000.0 0.8335 0.6005
4991000000.0 1.04 -0.2598
4994000000.0 0.4732 -0.982
4997000000.0 -0.4406 -0.965
5000000000.0 -1.045 -0.2743
5003000000.0 -0.9086 0.6353
5006000000.0 -0.09273 1.119
5009000000.0 0.8415 0.8279
5012000000.0 1.191 -0.1051
5016000000.0 0.6598 -1.03
5019000000.0 -0.3845 -1.195
5022000000.0 -1.151 -0.4707
5025000000.0 -1.119 0.5725
5028000000.0 -0.2678 1.228
5031000000.0 0.7909 0.9577
5034000000.0 1.259 0.006824
5038000000.0 0.8121 -0.9815
5041000000.0 -0.2248 -1.264
5044000000.0 -1.094 -0.6415
5047000000.0 -1.219 0.4462
5050000000.0 -0.4441 1.266
5053000000.0 0.6546 1.097
5056000000.0 1.278 0.1815
5059000000.0 0.9796 -0.8623
5062000000.0 -0.05602 -1.288
5066000000.0 -1.014 -0.8207
5069000000.0 -1.26 0.2546
5072000000.0 -0.5956 1.119
5075000000.0 0.4696 1.184
5078000000.0 1.211 0.3982
5081000000.0 1.061 -0.6553
5084000000.0 0.1613 -1.228
5088000000.0 -0.8631 -0.8641
5091000000.0 -1.202 0.047
5094000000.0 -0.7221 0.9242
5097000000.0 0.2629 1.133
5100000000.0 0.9994 0.5059
5103000000.0 1.047 -0.4685
5106000000.0 0.281 -1.071
5109000000.0 -0.6304 -0.9194
5112000000.0 -1.075 -0.1295
5116000000.0 -0.7288 0.7084
5119000000.0 0.04387 1.029
5122000000.0 0.8378 0.6013
5125000000.0 1.004 -0.2512
5128000000.0 0.4624 -0.9139
5131000000.0 -0.4022 -0.9151
5134000000.0 -0.9819 -0.2565
5138000000.0 -0.8235 0.5963
5141000000.0 -0.06032 0.9843
5144000000.0 0.7102 0.6416
5147000000.0 0.9951 -0.1373
5150000000.0 0.4863 -0.7789
5153000000.0 -0.2617 -0.8493
5156000000.0 -0.8582 -0.3175
5159000000.0 -0.7729 0.4429
5162000000.0 -0.1419 0.8953
5166000000.0 0.6016 0.6926
5169000000.0 0.9115 -0.04231
5172000000.0 0.5426 -0.7262
5175000000.0 -0.2115 -0.8565
5178000000.0 -0.8343 -0.3592
5181000000.0 -0.8021 0.4325
5184000000.0 -0.1964 0.8955
5188000000.0 0.5948 0.716
5191000000.0 0.9356 -0.01987
5194000000.0 0.5833 -0.7298
5197000000.0 -0.2074 -0.914
5200000000.0 -0.8485 -0.3909
5203000000.0 -0.8339 0.4022
5206000000.0 -0.2156 0.9311
5209000000.0 0.5996 0.7279
5212000000.0 0.9566 0.006177
5216000000.0 0.6263 -0.7504
5219000000.0 -0.1822 -0.923
5222000000.0 -0.8742 -0.428
5225000000.0 -0.8864 0.3877
5228000000.0 -0.2689 0.9361
5231000000.0 0.598 0.8275
5234000000.0 1.002 0.06897
5238000000.0 0.6962 -0.7481
5241000000.0 -0.1117 -1.033
5244000000.0 -0.8878 -0.5566
5247000000.0 -0.9809 0.329
5250000000.0 -0.4196 0.9853
5253000000.0 0.4896 0.9236
5256000000.0 1.063 0.2008
5259000000.0 0.8279 -0.6793
5262000000.0 0.01537 -1.091
5266000000.0 -0.807 -0.7205
5269000000.0 -1.081 0.1904
5272000000.0 -0.5542 0.8997
5275000000.0 0.3287 1.025
5278000000.0 1.02 0.4141
5281000000.0 0.9807 -0.4971
5284000000.0 0.2483 -1.077
5288000000.0 -0.6735 -0.8583
5291000000.0 -1.135 -0.05471
5294000000.0 -0.7574 0.792
5297000000.0 0.1061 1.074
5300000000.0 0.8962 0.6053
5303000000.0 1.08 -0.3118
5306000000.0 0.4567 -1.035
5309000000.0 -0.4786 -1.009
5312000000.0 -1.071 -0.2815
5316000000.0 -0.9303 0.645
5319000000.0 -0.113 1.165
5322000000.0 0.8165 0.8089
5325000000.0 1.133 -0.08366
5328000000.0 0.655 -0.947
5331000000.0 -0.2872 -1.106
5334000000.0 -1.036 -0.4767
5338000000.0 -1.002 0.5002
5341000000.0 -0.2667 1.097
5344000000.0 0.6669 0.9161
5347000000.0 1.128 0.02132
5350000000.0 0.7356 -0.8211
5353000000.0 -0.1174 -1.083
5356000000.0 -0.8898 -0.5453
5359000000.0 -1.031 0.3504
5362000000.0 -0.3508 1.023
5366000000.0 0.5598 0.895
5369000000.0 1.07 0.1518
5372000000.0 0.7583 -0.7393
5375000000.0 -0.09471 -1.053
5378000000.0 -0.8668 -0.5731
5381000000.0 -0.9616 0.3148
5384000000.0 -0.332 0.9349
5388000000.0 0.4963 0.8423
5391000000.0 0.9725 0.1098
5394000000.0 0.6804 -0.6755
5397000000.0 -0.1227 -0.918
5400000000.0 -0.7806 -0.4979
5403000000.0 -0.8339 0.3129
5406000000.0 -0.2831 0.835
5409000000.0 0.4563 0.7535
5412000000.0 0.8712 0.1226
5416000000.0 0.6071 -0.6096
5419000000.0 -0.08504 -0.8526
5422000000.0 -0.7374 -0.4373
5425000000.0 -0.8022 0.2772
5428000000.0 -0.272 0.8039
5431000000.0 0.4549 0.7372
5434000000.0 0.8711 0.08293
5438000000.0 0.6204 -0.6456
5441000000.0 -0.1191 -0.8699
5444000000.0 -0.7422 -0.4464
5447000000.0 -0.8325 0.2997
5450000000.0 -0.2787 0.8364
5453000000.0 0.4703 0.7318
5456000000.0 0.8769 0.132
5459000000.0 0.6467 -0.593
5462000000.0 -0.05025 -0.9014
5466000000.0 -0.7393 -0.4992
5469000000.0 -0.8917 0.2275
5472000000.0 -0.4336 0.8159
5475000000.0 0.3923 0.8387
5478000000.0 0.8699 0.2454
5481000000.0 0.7358 -0.5456
5484000000.0 0.06346 -0.9524
5488000000.0 -0.697 -0.6576
5491000000.0 -0.9842 0.08922
5494000000.0 -0.568 0.8253
5497000000.0 0.2703 0.9416
5500000000.0 0.9088 0.3953
5503000000.0 0.9266 -0.4619
5506000000.0 0.2456 -0.9917
5509000000.0 -0.5923 -0.8134
5512000000.0 -1.01 -0.07979
5516000000.0 -0.7366 0.7179
5519000000.0 0.1003 1.002
5522000000.0 0.8376 0.5826
5525000000.0 0.9748 -0.2538
5528000000.0 0.4503 -0.9154
5531000000.0 -0.4697 -0.9445
5534000000.0 -1.033 -0.2733
5538000000.0 -0.8451 0.6055
5541000000.0 -0.09058 1.016
5544000000.0 0.7377 0.7606
5547000000.0 1.052 -0.08482
5550000000.0 0.6104 -0.8672
5553000000.0 -0.2237 -1.029
5556000000.0 -0.9981 -0.4517
5559000000.0 -0.9413 0.4638
5562000000.0 -0.2339 0.9993
5566000000.0 0.6103 0.8491
5569000000.0 1.036 0.07212
5572000000.0 0.7297 -0.7291
5575000000.0 -0.1591 -1.032
5578000000.0 -0.8728 -0.5318
5581000000.0 -0.9701 0.323
5584000000.0 -0.3643 0.9159
5588000000.0 0.4701 0.864
5591000000.0 0.9501 0.1615
5594000000.0 0.7016 -0.5929
5597000000.0 -0.007828 -0.9638
5600000000.0 -0.7022 -0.596
5603000000.0 -0.8731 0.1723
5606000000.0 -0.408 0.8011
5609000000.0 0.3635 0.816
5612000000.0 0.8521 0.2446
5616000000.0 0.6998 -0.5374
5619000000.0 0.03382 -0.8761
5622000000.0 -0.6436 -0.5804
5625000000.0 -0.8189 0.1194
5628000000.0 -0.4142 0.7328
5631000000.0 0.2851 0.7794
5634000000.0 0.7875 0.2573
5638000000.0 0.703 -0.4482
5641000000.0 0.08714 -0.8307
5644000000.0 -0.5913 -0.5832
5647000000.0 -0.8299 0.08287
5650000000.0 -0.4486 0.7325
5653000000.0 0.277 0.7957
5656000000.0 0.8247 0.2643
5659000000.0 0.718 -0.4736
5662000000.0 0.09579 -0.8527
5666000000.0 -0.615 -0.5882
5669000000.0 -0.8602 0.1209
5672000000.0 -0.5027 0.7622
5675000000.0 0.297 0.8351
5678000000.0 0.8807 0.273
5681000000.0 0.7706 -0.4614
5684000000.0 0.1216 -0.9097
5688000000.0 -0.6519 -0.6771
5691000000.0 -0.9394 0.09822
5694000000.0 -0.5424 0.8116
5697000000.0 0.2973 0.9513
5700000000.0 0.9206 0.3481
5703000000.0 0.8717 -0.4634
5706000000.0 0.1941 -0.9819
5709000000.0 -0.6472 -0.7729
5712000000.0 -1.005 0.0001583
5716000000.0 -0.6221 0.8358
5719000000.0 0.2148 1.043
5722000000.0 0.9155 0.4739
5725000000.0 0.9619 -0.4179
5728000000.0 0.3358 -1.013
5731000000.0 -0.5807 -0.8953
5734000000.0 -1.055 -0.1072
5738000000.0 -0.7613 0.7542
5741000000.0 0.1099 1.077
5744000000.0 0.8789 0.614
5747000000.0 1.058 -0.2815
5750000000.0 0.4715 -0.9957
5753000000.0 -0.5181 -1.022
5756000000.0 -1.077 -0.2548
5759000000.0 -0.8868 0.6072
5762000000.0 -0.07406 1.12
5766000000.0 0.836 0.7814
5769000000.0 1.113 -0.1373
5772000000.0 0.5675 -0.897
5775000000.0 -0.3122 -1.073
5778000000.0 -0.9781 -0.4226
5781000000.0 -0.9875 0.4804
5784000000.0 -0.2511 1.026
5788000000.0 0.6674 0.8606
5791000000.0 1.089 0.03584
5794000000.0 0.7345 -0.7862
5797000000.0 -0.1431 -1.098
5800000000.0 -0.8796 -0.569
5803000000.0 -1.008 0.3179
5806000000.0 -0.3642 1.002
5809000000.0 0.5053 0.9277
5812000000.0 1.024 0.1619
5816000000.0 0.7875 -0.6653
5819000000.0 -0.01888 -0.9988
5822000000.0 -0.8156 -0.6517
5825000000.0 -0.9847 0.2085
5828000000.0 -0.4385 0.8784
5831000000.0 0.3778 0.9168
5834000000.0 0.933 0.2523
5838000000.0 0.787 -0.5479
5841000000.0 0.09179 -0.9799
5844000000.0 -0.6849 -0.6395
5847000000.0 -0.9405 0.09301
5850000000.0 -0.486 0.8251
5853000000.0 0.3118 0.8617
5856000000.0 0.87 0.3073
5859000000.0 0.7762 -0.4795
5862000000.0 0.09105 -0.89
5866000000.0 -0.6653 -0.627
5869000000.0 -0.9179 0.09736
5872000000.0 -0.4787 0.745
5875000000.0 0.3224 0.8316
5878000000.0 0.8338 0.3142
5881000000.0 0.7318 -0.4429
5884000000.0 0.1106 -0.8402
5888000000.0 -0.5927 -0.6352
5891000000.0 -0.8503 0.05986
5894000000.0 -0.5152 0.7256
5897000000.0 0.2114 0.8351
5900000000.0 0.7952 0.3251
5903000000.0 0.7901 -0.3845
5906000000.0 0.1947 -0.8247
5909000000.0 -0.529 -0.6932
5912000000.0 -0.871 0.0002853
5916000000.0 -0.519 0.6534
5919000000.0 0.1384 0.8439
5922000000.0 0.7507 0.4037
5925000000.0 0.8019 -0.3346
5928000000.0 0.2594 -0.8237
5931000000.0 -0.477 -0.7174
5934000000.0 -0.8824 -0.06882
5938000000.0 -0.6321 0.6223
5941000000.0 0.09948 0.8679
5944000000.0 0.7229 0.4892
5947000000.0 0.8813 -0.2423
5950000000.0 0.3517 -0.8005
5953000000.0 -0.374 -0.789
5956000000.0 -0.8822 -0.2591
5959000000.0 -0.7681 0.5076
5962000000.0 -0.07528 0.9404
5966000000.0 0.6849 0.669
5969000000.0 0.9306 -0.06154
5972000000.0 0.526 -0.7805
5975000000.0 -0.3008 -0.9308
5978000000.0 -0.8681 -0.3987
5981000000.0 -0.8585 0.4161
5984000000.0 -0.2414 0.9477
5988000000.0 0.5832 0.7714
5991000000.0 0.9815 0.06196
5994000000.0 0.6477 -0.6987
5997000000.0 -0.1038 -0.9846
6000000000.0 -0.8359 -0.5525
6003000000.0 -0.944 0.2986
6006000000.0 -0.3429 0.9178
6009000000.0 0.4991 0.8583
6012000000.0 0.9655 0.1577
6016000000.0 0.7719 -0.653
6019000000.0 -0.00454 -0.9821
6022000000.0 -0.7845 -0.635
6025000000.0 -0.9673 0.1896
6028000000.0 -0.4573 0.8894
6031000000.0 0.3907 0.8871
6034000000.0 0.9283 0.2527
6038000000.0 0.8024 -0.567
6041000000.0 0.07006 -0.978
6044000000.0 -0.6931 -0.6628
6047000000.0 -0.947 0.1317
6050000000.0 -0.4967 0.8234
6053000000.0 0.284 0.8855
6056000000.0 0.8719 0.3139
6059000000.0 0.7951 -0.4815
6062000000.0 0.1084 -0.9251
6066000000.0 -0.6323 -0.6752
6069000000.0 -0.9101 0.08176
6072000000.0 -0.5015 0.7215
6075000000.0 0.2506 0.8819
6078000000.0 0.7938 0.3257
6081000000.0 0.7729 -0.4263
6084000000.0 0.1508 -0.8711
6088000000.0 -0.5836 -0.6694
6091000000.0 -0.8626 0.02878
6094000000.0 -0.5257 0.6677
6097000000.0 0.1873 0.8197
6100000000.0 0.7816 0.3849
6103000000.0 0.7846 -0.3585
6106000000.0 0.1851 -0.826
6109000000.0 -0.5345 -0.6754
6112000000.0 -0.8436 -0.02112
6116000000.0 -0.5331 0.6622
6119000000.0 0.1477 0.8638
6122000000.0 0.7552 0.4123
6125000000.0 0.7826 -0.3599
6128000000.0 0.2402 -0.8276
6131000000.0 -0.5183 -0.6999
6134000000.0 -0.8482 -0.06236
6138000000.0 -0.5845 0.5989
6141000000.0 0.1299 0.8575
6144000000.0 0.7363 0.4679
6147000000.0 0.8367 -0.2936
6150000000.0 0.3309 -0.8438
6153000000.0 -0.4222 -0.7774
6156000000.0 -0.9123 -0.1314
6159000000.0 -0.6564 0.6145
6162000000.0 0.03236 0.9196
6166000000.0 0.7293 0.5245
6169000000.0 0.918 -0.2364
6172000000.0 0.3754 -0.8561
6175000000.0 -0.4194 -0.8634
6178000000.0 -0.8583 -0.1767
6181000000.0 -0.7557 0.5462
6184000000.0 0.0009339 0.9758
6188000000.0 0.7006 0.6006
6191000000.0 0.929 -0.1693
6194000000.0 0.4699 -0.817
6197000000.0 -0.3334 -0.8873
6200000000.0 -0.8559 -0.2643
6203000000.0 -0.771 0.502
6206000000.0 -0.1389 0.91
6209000000.0 0.6243 0.6858
6212000000.0 0.9142 -0.02389
6216000000.0 0.5479 -0.7398
6219000000.0 -0.2018 -0.9038
6222000000.0 -0.8141 -0.3687
6225000000.0 -0.8309 0.3722
6228000000.0 -0.2462 0.8664
6231000000.0 0.537 0.7568
6234000000.0 0.8687 0.1075
6238000000.0 0.6263 -0.6486
6241000000.0 -0.07966 -0.8871
6244000000.0 -0.7362 -0.4597
6247000000.0 -0.82 0.2887
6250000000.0 -0.3102 0.7835
6253000000.0 0.3652 0.7541
6256000000.0 0.8043 0.1733
6259000000.0 0.6835 -0.4941
6262000000.0 0.01642 -0.8272
6266000000.0 -0.5535 -0.5242
