! Created with skrf 1.8.0 (http://scikit-rf.org).
# Hz S RI R 50.0 
!freq ReS11 ImS11
4000000000.0 -0.2066 -1.459
4003000000.0 -1.274 -0.7735
4006000000.0 -1.409 0.5596
4009000000.0 -0.4796 1.423
4012000000.0 0.881 1.248
4016000000.0 1.532 0.169
4019000000.0 1.097 -1.121
4022000000.0 -0.1638 -1.564
4025000000.0 -1.342 -0.8281
4028000000.0 -1.509 0.557
4031000000.0 -0.472 1.519
4034000000.0 0.8809 1.323
4038000000.0 1.628 0.1546
4041000000.0 1.099 -1.186
4044000000.0 -0.1339 -1.589
4047000000.0 -1.376 -0.8255
4050000000.0 -1.559 0.5382
4053000000.0 -0.5542 1.558
4056000000.0 0.8144 1.39
4059000000.0 1.618 0.226
4062000000.0 1.238 -1.064
4066000000.0 -0.01893 -1.614
4069000000.0 -1.241 -0.9823
4072000000.0 -1.567 0.3347
4075000000.0 -0.7549 1.456
4078000000.0 0.6154 1.505
4081000000.0 1.553 0.4629
4084000000.0 1.333 -0.9034
4088000000.0 0.157 -1.62
4091000000.0 -1.132 -1.178
4094000000.0 -1.607 0.1633
4097000000.0 -0.933 1.361
4100000000.0 0.4439 1.572
4103000000.0 1.428 0.643
4106000000.0 1.42 -0.6812
4109000000.0 0.3902 -1.514
4112000000.0 -0.8679 -1.231
4116000000.0 -1.481 -0.1305
4119000000.0 -1.049 1.031
4122000000.0 0.05717 1.472
4125000000.0 1.147 0.8911
4128000000.0 1.442 -0.278
4131000000.0 0.708 -1.26
4134000000.0 -0.5154 -1.413
4138000000.0 -1.356 -0.5459
4141000000.0 -1.293 0.6981
4144000000.0 -0.3164 1.439
4147000000.0 0.8935 1.181
4150000000.0 1.493 0.07609
4153000000.0 1.021 -1.096
4156000000.0 -0.1959 -1.49
4159000000.0 -1.263 -0.8234
4162000000.0 -1.428 0.4355
4166000000.0 -0.5832 1.377
4169000000.0 0.6489 1.342
4172000000.0 1.448 0.3259
4175000000.0 1.206 -0.9167
4178000000.0 0.09788 -1.465
4181000000.0 -1.078 -1.003
4184000000.0 -1.497 0.2048
4188000000.0 -0.7874 1.271
4191000000.0 0.4543 1.482
4194000000.0 1.411 0.5733
4197000000.0 1.366 -0.7312
4200000000.0 0.2303 -1.544
4203000000.0 -1.033 -1.219
4206000000.0 -1.586 0.05604
4209000000.0 -0.9355 1.344
4212000000.0 0.4762 1.548
4216000000.0 1.565 0.5981
4219000000.0 1.397 -0.8568
4222000000.0 0.1777 -1.689
4225000000.0 -1.257 -1.113
4228000000.0 -1.629 0.2624
4231000000.0 -0.759 1.453
4234000000.0 0.687 1.477
4238000000.0 1.589 0.3477
4241000000.0 1.222 -1.041
4244000000.0 -0.0647 -1.572
4247000000.0 -1.279 -0.8879
4250000000.0 -1.479 0.4243
4253000000.0 -0.5346 1.442
4256000000.0 0.8227 1.302
4259000000.0 1.453 0.1438
4262000000.0 1.019 -1.091
4266000000.0 -0.2202 -1.465
4269000000.0 -1.307 -0.7196
4272000000.0 -1.332 0.5426
4275000000.0 -0.3858 1.415
4278000000.0 0.8531 1.156
4281000000.0 1.423 0.04857
4284000000.0 0.8862 -1.06
4288000000.0 -0.2749 -1.366
4291000000.0 -1.18 -0.6442
4294000000.0 -1.239 0.5339
4297000000.0 -0.3169 1.27
4300000000.0 0.7317 1.11
4303000000.0 1.283 0.1402
4306000000.0 0.8981 -0.8642
4309000000.0 -0.1491 -1.264
4312000000.0 -1.021 -0.761
4316000000.0 -1.237 0.2984
4319000000.0 -0.5782 1.139
4322000000.0 0.5332 1.187
4325000000.0 1.281 0.3717
4328000000.0 1.123 -0.7249
4331000000.0 0.1465 -1.314
4334000000.0 -0.9733 -1.012
4338000000.0 -1.423 0.06155
4341000000.0 -0.8147 1.129
4344000000.0 0.2918 1.372
4347000000.0 1.281 0.5936
4350000000.0 1.266 -0.5823
4353000000.0 0.4094 -1.385
4356000000.0 -0.814 -1.181
4359000000.0 -1.461 -0.1408
4362000000.0 -1.007 1.042
4366000000.0 0.1704 1.482
4369000000.0 1.251 0.8124
4372000000.0 1.413 -0.4195
4375000000.0 0.6218 -1.411
4378000000.0 -0.6823 -1.307
4381000000.0 -1.496 -0.3062
4384000000.0 -1.199 0.9489
4388000000.0 -0.001235 1.544
4391000000.0 1.21 0.9701
4394000000.0 1.535 -0.3226
4397000000.0 0.6896 -1.384
4400000000.0 -0.6714 -1.422
4403000000.0 -1.549 -0.3532
4406000000.0 -1.236 0.9928
4409000000.0 0.04127 1.537
4412000000.0 1.267 0.9258
4416000000.0 1.461 -0.3916
4419000000.0 0.5663 -1.393
4422000000.0 -0.739 -1.327
4425000000.0 -1.436 -0.211
4428000000.0 -1.082 0.9703
4431000000.0 0.1302 1.448
4434000000.0 1.184 0.7493
4438000000.0 1.309 -0.4624
4441000000.0 0.4137 -1.324
4444000000.0 -0.7569 -1.117
4447000000.0 -1.345 -0.09902
4450000000.0 -0.868 0.9398
4453000000.0 0.2081 1.259
4456000000.0 1.139 0.5865
4459000000.0 1.118 -0.5332
4462000000.0 0.2538 -1.235
4466000000.0 -0.7894 -0.9243
4469000000.0 -1.207 0.05885
4472000000.0 -0.6807 0.9699
4475000000.0 0.3314 1.109
4478000000.0 1.09 0.4047
4481000000.0 0.9972 -0.5791
4484000000.0 0.1348 -1.152
4488000000.0 -0.782 -0.8263
4491000000.0 -1.143 0.1456
4494000000.0 -0.6086 0.9512
4497000000.0 0.3478 1.076
4500000000.0 1.067 0.434
4503000000.0 0.916 -0.5404
4506000000.0 0.1818 -1.067
4509000000.0 -0.7256 -0.8045
4512000000.0 -1.131 0.06567
4516000000.0 -0.672 0.8954
4519000000.0 0.3058 1.098
4522000000.0 1.037 0.4828
4525000000.0 1.014 -0.4986
4528000000.0 0.2677 -1.161
4531000000.0 -0.697 -0.9433
4534000000.0 -1.176 -0.03225
4538000000.0 -0.7942 0.8955
4541000000.0 0.1655 1.17
4544000000.0 1.035 0.6086
4547000000.0 1.131 -0.3834
4550000000.0 0.4378 -1.137
4553000000.0 -0.616 -1.073
4556000000.0 -1.205 -0.2272
4559000000.0 -0.9958 0.7965
4562000000.0 -0.0273 1.278
4566000000.0 0.952 0.8189
4569000000.0 1.277 -0.2054
4572000000.0 0.6773 -1.117
4575000000.0 -0.4232 -1.233
4578000000.0 -1.23 -0.44
4581000000.0 -1.133 0.6593
4584000000.0 -0.2322 1.3
4588000000.0 0.8594 1.022
4591000000.0 1.366 -0.001649
4594000000.0 0.8299 -1.107
4597000000.0 -0.2871 -1.353
4600000000.0 -1.23 -0.6457
4603000000.0 -1.287 0.5696
4606000000.0 -0.3844 1.345
4609000000.0 0.8076 1.179
4612000000.0 1.413 0.1065
4616000000.0 0.9518 -1.013
4619000000.0 -0.1561 -1.348
4622000000.0 -1.162 -0.7328
4625000000.0 -1.31 0.4505
4628000000.0 -0.4748 1.293
4631000000.0 0.6808 1.161
4634000000.0 1.344 0.1993
4638000000.0 0.9917 -0.9544
4641000000.0 -0.09646 -1.326
4644000000.0 -1.108 -0.747
4647000000.0 -1.259 0.3843
4650000000.0 -0.4743 1.234
4653000000.0 0.653 1.109
4656000000.0 1.265 0.1758
4659000000.0 0.8901 -0.8704
4662000000.0 -0.1286 -1.223
4666000000.0 -1.048 -0.6487
4669000000.0 -1.129 0.3614
4672000000.0 -0.3967 1.105
4675000000.0 0.6156 0.9831
4678000000.0 1.143 0.1449
4681000000.0 0.7967 -0.7991
4684000000.0 -0.1117 -1.118
4688000000.0 -0.9471 -0.6269
4691000000.0 -1.042 0.3712
4694000000.0 -0.3724 1.018
4697000000.0 0.566 0.9078
4700000000.0 1.068 0.1328
4703000000.0 0.7733 -0.7557
4706000000.0 -0.1234 -1.081
4709000000.0 -0.9017 -0.5435
4712000000.0 -0.9883 0.3731
4716000000.0 -0.3326 1.015
4719000000.0 0.554 0.8971
4722000000.0 1.022 0.1093
4725000000.0 0.7645 -0.7587
4728000000.0 -0.1131 -1.061
4731000000.0 -0.8611 -0.5922
4734000000.0 -0.9999 0.2872
4738000000.0 -0.3979 0.9645
4741000000.0 0.4975 0.9229
4744000000.0 1.049 0.2222
4747000000.0 0.85 -0.6367
4750000000.0 0.01368 -1.07
4753000000.0 -0.807 -0.7326
4756000000.0 -1.087 0.175
4759000000.0 -0.584 0.9619
4762000000.0 0.3706 1.076
4766000000.0 1.074 0.3809
4769000000.0 1.025 -0.5451
4772000000.0 0.2231 -1.136
4775000000.0 -0.7516 -0.9009
4778000000.0 -1.195 -0.0006209
4781000000.0 -0.8112 0.9402
4784000000.0 0.1844 1.205
4788000000.0 1.062 0.6212
4791000000.0 1.161 -0.3778
4794000000.0 0.4478 -1.166
4797000000.0 -0.6187 -1.092
4800000000.0 -1.249 -0.2316
4803000000.0 -0.9766 0.7896
4806000000.0 -0.05553 1.288
4809000000.0 0.9581 0.8369
4812000000.0 1.294 -0.189
4816000000.0 0.6943 -1.135
4819000000.0 -0.453 -1.261
4822000000.0 -1.254 -0.4851
4825000000.0 -1.194 0.6996
4828000000.0 -0.2598 1.337
4831000000.0 0.9152 1.056
4834000000.0 1.408 -0.009944
4838000000.0 0.8517 -1.094
4841000000.0 -0.2942 -1.368
4844000000.0 -1.247 -0.6385
4847000000.0 -1.261 0.5436
4850000000.0 -0.361 1.348
4853000000.0 0.7867 1.105
4856000000.0 1.35 0.07512
4859000000.0 0.9169 -1.012
4862000000.0 -0.206 -1.321
4866000000.0 -1.142 -0.6634
4869000000.0 -1.251 0.461
4872000000.0 -0.4237 1.199
4875000000.0 0.6699 1.064
4878000000.0 1.245 0.1669
4881000000.0 0.8991 -0.845
4884000000.0 -0.1084 -1.234
4888000000.0 -0.9878 -0.6562
4891000000.0 -1.128 0.3367
4894000000.0 -0.4423 1.086
4897000000.0 0.5781 0.993
4900000000.0 1.102 0.1548
4903000000.0 0.8025 -0.7132
4906000000.0 -0.06468 -1.074
4909000000.0 -0.8516 -0.5948
4912000000.0 -0.9887 0.2562
4916000000.0 -0.4044 0.9169
4919000000.0 0.431 0.8842
4922000000.0 0.9348 0.2032
4925000000.0 0.7488 -0.5784
4928000000.0 0.02346 -0.9482
4931000000.0 -0.7321 -0.635
4934000000.0 -0.941 0.1319
4938000000.0 -0.4544 0.8033
4941000000.0 0.3476 0.863
4944000000.0 0.8868 0.3257
4947000000.0 0.8117 -0.4754
4950000000.0 0.1181 -0.9133
4953000000.0 -0.6857 -0.6809
4956000000.0 -0.9476 0.07481
4959000000.0 -0.5591 0.8004
4962000000.0 0.3078 0.9487
4966000000.0 0.9123 0.3846
4969000000.0 0.8713 -0.4529
4972000000.0 0.2093 -0.9863
4975000000.0 -0.6394 -0.793
4978000000.0 -1.016 -0.01731
4981000000.0 -0.6686 0.7984
4984000000.0 0.2154 1.031
4988000000.0 0.9399 0.4926
4991000000.0 0.9787 -0.3878
4994000000.0 0.3733 -1.044
4997000000.0 -0.583 -0.983
5000000000.0 -1.096 -0.1648
5003000000.0 -0.853 0.776
5006000000.0 0.02425 1.176
5009000000.0 0.9457 0.6979
5012000000.0 1.191 -0.3005
5016000000.0 0.5451 -1.106
5019000000.0 -0.516 -1.109
5022000000.0 -1.224 -0.3387
5025000000.0 -1.035 0.7407
5028000000.0 -0.08481 1.257
5031000000.0 0.9501 0.8869
5034000000.0 1.27 -0.165
5038000000.0 0.6865 -1.071
5041000000.0 -0.3869 -1.226
5044000000.0 -1.205 -0.4801
5047000000.0 -1.126 0.5879
5050000000.0 -0.2717 1.252
5053000000.0 0.7906 1.007
5056000000.0 1.31 0.07107
5059000000.0 0.8522 -0.9587
5062000000.0 -0.1766 -1.286
5066000000.0 -1.089 -0.664
5069000000.0 -1.229 0.42
5072000000.0 -0.4666 1.163
5075000000.0 0.6165 1.101
5078000000.0 1.253 0.2385
5081000000.0 0.9665 -0.8223
5084000000.0 -0.03176 -1.22
5088000000.0 -0.9366 -0.7713
5091000000.0 -1.143 0.2242
5094000000.0 -0.5619 1.003
5097000000.0 0.3873 1.051
5100000000.0 1.041 0.3775
5103000000.0 0.952 -0.5742
5106000000.0 0.1592 -1.101
5109000000.0 -0.7297 -0.8268
5112000000.0 -1.003 0.01695
5116000000.0 -0.7001 0.8083
5119000000.0 0.1901 0.9961
5122000000.0 0.8697 0.5032
5125000000.0 0.9254 -0.3987
5128000000.0 0.2923 -0.9287
5131000000.0 -0.5281 -0.8702
5134000000.0 -1.002 -0.139
5138000000.0 -0.6814 0.6875
5141000000.0 0.08367 0.9591
5144000000.0 0.7684 0.5364
5147000000.0 0.9137 -0.2333
5150000000.0 0.3362 -0.8287
5153000000.0 -0.4034 -0.7896
5156000000.0 -0.893 -0.1513
5159000000.0 -0.6887 0.5901
5162000000.0 0.0009942 0.8846
5166000000.0 0.704 0.5503
5169000000.0 0.8821 -0.1777
5172000000.0 0.4125 -0.8258
5175000000.0 -0.4014 -0.8208
5178000000.0 -0.871 -0.2384
5181000000.0 -0.7216 0.5528
5184000000.0 0.0002147 0.8931
5188000000.0 0.6876 0.5815
5191000000.0 0.8984 -0.1835
5194000000.0 0.4331 -0.8323
5197000000.0 -0.3783 -0.8721
5200000000.0 -0.9203 -0.2464
5203000000.0 -0.7513 0.5728
5206000000.0 -0.04173 0.9453
5209000000.0 0.7124 0.5958
5212000000.0 0.9594 -0.1947
5216000000.0 0.4638 -0.8838
5219000000.0 -0.3616 -0.8941
5222000000.0 -0.9239 -0.3158
5225000000.0 -0.8486 0.5409
5228000000.0 -0.08967 0.9999
5231000000.0 0.7365 0.7142
5234000000.0 1.019 -0.05656
5238000000.0 0.5942 -0.8656
5241000000.0 -0.2815 -0.9924
5244000000.0 -0.9571 -0.4387
5247000000.0 -0.951 0.4788
5250000000.0 -0.2342 1.045
5253000000.0 0.657 0.8606
5256000000.0 1.086 0.02813
5259000000.0 0.7261 -0.8027
5262000000.0 -0.1442 -1.091
5266000000.0 -0.9361 -0.5951
5269000000.0 -1.023 0.3388
5272000000.0 -0.4135 1.016
5275000000.0 0.5178 0.955
5278000000.0 1.08 0.247
5281000000.0 0.87 -0.6456
5284000000.0 0.066 -1.119
5288000000.0 -0.7771 -0.7705
5291000000.0 -1.083 0.1274
5294000000.0 -0.6266 0.9176
5297000000.0 0.2815 1.094
5300000000.0 0.9893 0.4654
5303000000.0 1.027 -0.4537
5306000000.0 0.2917 -1.074
5309000000.0 -0.6245 -0.9473
5312000000.0 -1.138 -0.1385
5316000000.0 -0.8007 0.7975
5319000000.0 0.08904 1.137
5322000000.0 0.924 0.6701
5325000000.0 1.142 -0.3067
5328000000.0 0.4656 -1.006
5331000000.0 -0.5117 -1.05
5334000000.0 -1.085 -0.2682
5338000000.0 -0.8808 0.6855
5341000000.0 -0.06397 1.128
5344000000.0 0.8064 0.7469
5347000000.0 1.046 -0.1375
5350000000.0 0.552 -0.9194
5353000000.0 -0.3558 -1.006
5356000000.0 -1.042 -0.3521
5359000000.0 -0.8922 0.5696
5362000000.0 -0.1465 1.036
5366000000.0 0.7341 0.74
5369000000.0 1.041 -0.1043
5372000000.0 0.5543 -0.8501
5375000000.0 -0.3712 -0.9465
5378000000.0 -0.9326 -0.3065
5381000000.0 -0.8206 0.5437
5384000000.0 -0.109 0.9651
5388000000.0 0.6955 0.6393
5391000000.0 0.8947 -0.1406
5394000000.0 0.4697 -0.8101
5397000000.0 -0.3273 -0.8353
5400000000.0 -0.863 -0.2493
5403000000.0 -0.7418 0.5167
5406000000.0 -0.08382 0.8671
5409000000.0 0.6391 0.5511
5412000000.0 0.878 -0.1444
5416000000.0 0.4085 -0.7509
5419000000.0 -0.3358 -0.8035
5422000000.0 -0.8213 -0.2519
5425000000.0 -0.7072 0.5057
5428000000.0 -0.04579 0.8756
5431000000.0 0.6486 0.577
5434000000.0 0.8408 -0.1484
5438000000.0 0.4227 -0.736
5441000000.0 -0.3138 -0.8291
5444000000.0 -0.8628 -0.2519
5447000000.0 -0.7206 0.5389
5450000000.0 -0.08118 0.8754
5453000000.0 0.6416 0.6196
5456000000.0 0.9196 -0.1006
5459000000.0 0.4984 -0.7573
5462000000.0 -0.2858 -0.8805
5466000000.0 -0.8518 -0.3389
5469000000.0 -0.8636 0.4564
5472000000.0 -0.1679 0.9058
5475000000.0 0.5861 0.7692
5478000000.0 0.9649 0.004574
5481000000.0 0.624 -0.7195
5484000000.0 -0.1594 -0.9545
5488000000.0 -0.8829 -0.5389
5491000000.0 -0.9747 0.3147
5494000000.0 -0.3644 0.9482
5497000000.0 0.5057 0.9178
5500000000.0 1.022 0.2557
5503000000.0 0.7972 -0.64
5506000000.0 0.03803 -1.054
5509000000.0 -0.7987 -0.6948
5512000000.0 -1.021 0.1591
5516000000.0 -0.5655 0.8924
5519000000.0 0.3515 1.002
5522000000.0 0.9775 0.3748
5525000000.0 0.9299 -0.4956
5528000000.0 0.2271 -1.06
5531000000.0 -0.6557 -0.8194
5534000000.0 -1.035 -0.03259
5538000000.0 -0.7176 0.7897
5541000000.0 0.1459 1.046
5544000000.0 0.8921 0.5366
5547000000.0 1.016 -0.3553
5550000000.0 0.3754 -0.9222
5553000000.0 -0.5051 -0.9273
5556000000.0 -1.046 -0.1736
5559000000.0 -0.8074 0.6807
5562000000.0 0.02475 1.041
5566000000.0 0.8015 0.626
5569000000.0 0.9724 -0.2131
5572000000.0 0.4696 -0.9026
5575000000.0 -0.3934 -0.889
5578000000.0 -0.9533 -0.2857
5581000000.0 -0.793 0.5464
5584000000.0 -0.0865 0.9449
5588000000.0 0.6375 0.6395
5591000000.0 0.9396 -0.1224
5594000000.0 0.4631 -0.7927
5597000000.0 -0.2734 -0.8625
5600000000.0 -0.8522 -0.3232
5603000000.0 -0.7744 0.4575
5606000000.0 -0.1348 0.8492
5609000000.0 0.5987 0.6041
5612000000.0 0.8261 -0.04852
5616000000.0 0.4906 -0.6961
5619000000.0 -0.2075 -0.8122
5622000000.0 -0.7377 -0.3446
5625000000.0 -0.7147 0.3725
5628000000.0 -0.1406 0.7928
5631000000.0 0.5244 0.5985
5634000000.0 0.7987 -0.02951
5638000000.0 0.5121 -0.6508
5641000000.0 -0.1935 -0.7781
5644000000.0 -0.7485 -0.3299
5647000000.0 -0.7662 0.3754
5650000000.0 -0.1479 0.8109
5653000000.0 0.5296 0.6621
5656000000.0 0.8698 -0.01483
5659000000.0 0.5201 -0.713
5662000000.0 -0.2067 -0.8361
5666000000.0 -0.828 -0.3677
5669000000.0 -0.8179 0.4174
5672000000.0 -0.2025 0.8936
5675000000.0 0.5808 0.6924
5678000000.0 0.9323 -0.01783
5681000000.0 0.5808 -0.7254
5684000000.0 -0.2005 -0.9346
5688000000.0 -0.8693 -0.4339
5691000000.0 -0.9092 0.4214
5694000000.0 -0.247 0.9581
5697000000.0 0.5952 0.7989
5700000000.0 0.9992 0.03924
5703000000.0 0.6957 -0.764
5706000000.0 -0.1306 -1.056
5709000000.0 -0.9352 -0.5449
5712000000.0 -0.9993 0.3576
5716000000.0 -0.3804 0.9734
5719000000.0 0.5438 0.9241
5722000000.0 1.073 0.167
5725000000.0 0.8077 -0.7251
5728000000.0 -0.03439 -1.093
5731000000.0 -0.8418 -0.6602
5734000000.0 -1.073 0.2165
5738000000.0 -0.5079 0.9792
5741000000.0 0.4265 1.023
5744000000.0 1.049 0.3288
5747000000.0 0.9229 -0.6144
5750000000.0 0.1272 -1.122
5753000000.0 -0.7594 -0.7837
5756000000.0 -1.139 0.03199
5759000000.0 -0.6748 0.9117
5762000000.0 0.2824 1.048
5766000000.0 0.9766 0.501
5769000000.0 0.9926 -0.4542
5772000000.0 0.2524 -1.062
5775000000.0 -0.6277 -0.8964
5778000000.0 -1.08 -0.1149
5781000000.0 -0.7491 0.7945
5784000000.0 0.1118 1.1
5788000000.0 0.9165 0.5904
5791000000.0 1.03 -0.3283
5794000000.0 0.4103 -0.9846
5797000000.0 -0.5144 -0.9507
5800000000.0 -1.02 -0.2018
5803000000.0 -0.8156 0.6522
5806000000.0 0.03783 1.042
5809000000.0 0.7761 0.6739
5812000000.0 1.014 -0.2099
5816000000.0 0.4758 -0.8839
5819000000.0 -0.3858 -0.9198
5822000000.0 -0.9447 -0.2323
5825000000.0 -0.8022 0.5661
5828000000.0 -0.08335 0.9405
5831000000.0 0.7075 0.6751
5834000000.0 0.9145 -0.1492
5838000000.0 0.4905 -0.8111
5841000000.0 -0.3434 -0.8453
5844000000.0 -0.9009 -0.287
5847000000.0 -0.7489 0.5127
5850000000.0 -0.11 0.9155
5853000000.0 0.6597 0.6292
5856000000.0 0.8876 -0.1389
5859000000.0 0.4873 -0.7533
5862000000.0 -0.309 -0.8146
5866000000.0 -0.8557 -0.2958
5869000000.0 -0.7512 0.4802
5872000000.0 -0.07801 0.8773
5875000000.0 0.6054 0.5708
5878000000.0 0.8755 -0.08636
5881000000.0 0.4748 -0.7334
5884000000.0 -0.2643 -0.8209
5888000000.0 -0.8126 -0.2974
5891000000.0 -0.7375 0.4578
5894000000.0 -0.143 0.8609
5897000000.0 0.6257 0.634
5900000000.0 0.8672 -0.06764
5903000000.0 0.5086 -0.706
5906000000.0 -0.2471 -0.8335
5909000000.0 -0.8155 -0.3375
5912000000.0 -0.7594 0.446
5916000000.0 -0.1745 0.8486
5919000000.0 0.5641 0.6671
5922000000.0 0.898 0.01133
5925000000.0 0.5951 -0.6693
5928000000.0 -0.186 -0.881
5931000000.0 -0.7813 -0.4331
5934000000.0 -0.8513 0.3176
5938000000.0 -0.2994 0.8581
5941000000.0 0.4825 0.7886
5944000000.0 0.9278 0.1181
5947000000.0 0.7073 -0.6244
5950000000.0 -0.02828 -0.9421
5953000000.0 -0.7222 -0.5512
5956000000.0 -0.9305 0.2066
5959000000.0 -0.453 0.869
5962000000.0 0.3819 0.8994
5966000000.0 0.9394 0.2929
5969000000.0 0.818 -0.5244
5972000000.0 0.1147 -1.001
5975000000.0 -0.7369 -0.7242
5978000000.0 -0.9875 0.06235
5981000000.0 -0.579 0.8596
5984000000.0 0.2754 0.9655
5988000000.0 0.9296 0.4037
5991000000.0 0.8893 -0.4799
5994000000.0 0.1953 -1.009
5997000000.0 -0.6513 -0.8001
6000000000.0 -1.025 -0.03061
6003000000.0 -0.6392 0.7374
6006000000.0 0.1818 0.9724
6009000000.0 0.863 0.4799
6012000000.0 0.9108 -0.3754
6016000000.0 0.2587 -0.924
6019000000.0 -0.5557 -0.8052
6022000000.0 -0.9642 -0.07666
6025000000.0 -0.6609 0.7023
6028000000.0 0.1353 0.9288
6031000000.0 0.8032 0.4708
6034000000.0 0.8716 -0.3133
6038000000.0 0.2737 -0.8809
6041000000.0 -0.4938 -0.774
6044000000.0 -0.9145 -0.07498
6047000000.0 -0.632 0.6647
6050000000.0 0.0891 0.8629
6053000000.0 0.7398 0.4737
6056000000.0 0.8223 -0.2718
6059000000.0 0.3065 -0.8417
6062000000.0 -0.4576 -0.7396
6066000000.0 -0.8464 -0.09816
6069000000.0 -0.6327 0.605
6072000000.0 0.08461 0.8289
6075000000.0 0.7066 0.4776
6078000000.0 0.8033 -0.2554
6081000000.0 0.281 -0.793
6084000000.0 -0.4215 -0.7379
6088000000.0 -0.8356 -0.1328
6091000000.0 -0.6184 0.5963
6094000000.0 0.065 0.8401
6097000000.0 0.6909 0.4791
6100000000.0 0.8494 -0.2192
6103000000.0 0.3302 -0.7881
6106000000.0 -0.4178 -0.7703
6109000000.0 -0.8531 -0.1558
6112000000.0 -0.6687 0.5632
6116000000.0 0.01849 0.8902
6119000000.0 0.7223 0.5299
6122000000.0 0.8901 -0.2476
6125000000.0 0.347 -0.811
6128000000.0 -0.4245 -0.8328
6131000000.0 -0.9035 -0.1801
6134000000.0 -0.7427 0.5883
6138000000.0 0.008748 0.9109
6141000000.0 0.7286 0.6026
6144000000.0 0.9408 -0.1696
6147000000.0 0.4258 -0.8479
6150000000.0 -0.3952 -0.8723
6153000000.0 -0.9254 -0.2728
6156000000.0 -0.7856 0.5675
6159000000.0 -0.06215 0.9901
6162000000.0 0.7315 0.6592
6166000000.0 0.9941 -0.1204
6169000000.0 0.5091 -0.8502
6172000000.0 -0.3736 -0.9172
6175000000.0 -0.9359 -0.3013
6178000000.0 -0.8404 0.5394
6181000000.0 -0.09051 0.972
6184000000.0 0.7023 0.6787
6188000000.0 0.9857 -0.1215
6191000000.0 0.5264 -0.7967
6194000000.0 -0.2828 -0.9249
6197000000.0 -0.9149 -0.3775
6200000000.0 -0.8349 0.4733
6203000000.0 -0.1621 0.9367
6206000000.0 0.5997 0.6679
6209000000.0 0.9137 0.001211
6212000000.0 0.5424 -0.7402
6216000000.0 -0.1665 -0.8955
6219000000.0 -0.8271 -0.4144
6222000000.0 -0.8585 0.3702
6225000000.0 -0.2256 0.8772
6228000000.0 0.497 0.7172
6231000000.0 0.8682 0.07385
6234000000.0 0.5944 -0.6572
6238000000.0 -0.121 -0.8865
6241000000.0 -0.7314 -0.4153
6244000000.0 -0.8198 0.3022
6247000000.0 -0.2994 0.8342
6250000000.0 0.4147 0.7103
6253000000.0 0.8407 0.1339
6256000000.0 0.6044 -0.5721
6259000000.0 -0.03526 -0.7823
6262000000.0 -0.6567 -0.4656
