! Created with skrf 1.8.0 (http://scikit-rf.org).
# Hz S RI R 50.0 
!freq ReS11 ImS11
4000000000.0 -0.2067 -1.48
4003000000.0 -1.286 -0.7813
4006000000.0 -1.42 0.5443
4009000000.0 -0.4479 1.485
4012000000.0 0.8249 1.292
4016000000.0 1.514 0.1597
4019000000.0 1.128 -1.091
4022000000.0 -0.1957 -1.608
4025000000.0 -1.326 -0.8366
4028000000.0 -1.511 0.5118
4031000000.0 -0.5253 1.528
4034000000.0 0.8864 1.398
4038000000.0 1.614 0.1598
4041000000.0 1.174 -1.184
4044000000.0 -0.1563 -1.642
4047000000.0 -1.356 -0.8774
4050000000.0 -1.536 0.5142
4053000000.0 -0.5975 1.497
4056000000.0 0.7816 1.402
4059000000.0 1.615 0.2945
4062000000.0 1.241 -1.068
4066000000.0 -0.02522 -1.597
4069000000.0 -1.257 -0.9601
4072000000.0 -1.584 0.3005
4075000000.0 -0.7903 1.44
4078000000.0 0.6319 1.493
4081000000.0 1.598 0.4502
4084000000.0 1.379 -0.9256
4088000000.0 0.1828 -1.64
4091000000.0 -1.126 -1.205
4094000000.0 -1.611 0.1564
4097000000.0 -0.9289 1.354
4100000000.0 0.4131 1.543
4103000000.0 1.455 0.6454
4106000000.0 1.409 -0.6901
4109000000.0 0.3945 -1.502
4112000000.0 -0.8688 -1.266
4116000000.0 -1.54 -0.1468
4119000000.0 -1.075 1.038
4122000000.0 0.0583 1.47
4125000000.0 1.149 0.9212
4128000000.0 1.473 -0.2951
4131000000.0 0.7475 -1.24
4134000000.0 -0.4643 -1.388
4138000000.0 -1.393 -0.5555
4141000000.0 -1.284 0.7006
4144000000.0 -0.3153 1.452
4147000000.0 0.9096 1.215
4150000000.0 1.502 0.04797
4153000000.0 1.057 -1.08
4156000000.0 -0.1852 -1.512
4159000000.0 -1.232 -0.8325
4162000000.0 -1.442 0.4432
4166000000.0 -0.5924 1.374
4169000000.0 0.6879 1.319
4172000000.0 1.471 0.3269
4175000000.0 1.201 -0.9117
4178000000.0 0.08941 -1.508
4181000000.0 -1.14 -1.002
4184000000.0 -1.503 0.158
4188000000.0 -0.799 1.285
4191000000.0 0.4441 1.435
4194000000.0 1.461 0.5774
4197000000.0 1.395 -0.7482
4200000000.0 0.2865 -1.576
4203000000.0 -1.034 -1.232
4206000000.0 -1.597 0.02496
4209000000.0 -0.9872 1.311
4212000000.0 0.467 1.603
4216000000.0 1.539 0.6315
4219000000.0 1.457 -0.8638
4222000000.0 0.1945 -1.676
4225000000.0 -1.214 -1.174
4228000000.0 -1.641 0.2278
4231000000.0 -0.8393 1.458
4234000000.0 0.6614 1.521
4238000000.0 1.628 0.3637
4241000000.0 1.273 -0.9822
4244000000.0 -0.05533 -1.609
4247000000.0 -1.287 -0.9145
4250000000.0 -1.522 0.4681
4253000000.0 -0.5729 1.443
4256000000.0 0.8234 1.339
4259000000.0 1.476 0.1841
4262000000.0 1.056 -1.111
4266000000.0 -0.2168 -1.482
4269000000.0 -1.278 -0.7474
4272000000.0 -1.363 0.5325
4275000000.0 -0.4114 1.423
4278000000.0 0.8192 1.21
4281000000.0 1.42 0.04802
4284000000.0 0.9404 -1.048
4288000000.0 -0.255 -1.382
4291000000.0 -1.217 -0.6466
4294000000.0 -1.245 0.5101
4297000000.0 -0.3802 1.25
4300000000.0 0.7207 1.091
4303000000.0 1.304 0.1369
4306000000.0 0.9444 -0.8897
4309000000.0 -0.08274 -1.29
4312000000.0 -1.057 -0.7362
4316000000.0 -1.281 0.3173
4319000000.0 -0.5474 1.153
4322000000.0 0.4932 1.229
4325000000.0 1.247 0.396
4328000000.0 1.123 -0.6937
4331000000.0 0.1858 -1.335
4334000000.0 -0.9083 -0.9866
4338000000.0 -1.376 0.07798
4341000000.0 -0.8655 1.119
4344000000.0 0.3273 1.369
4347000000.0 1.25 0.6414
4350000000.0 1.324 -0.5634
4353000000.0 0.394 -1.417
4356000000.0 -0.8133 -1.182
4359000000.0 -1.443 -0.1177
4362000000.0 -1.007 1.03
4366000000.0 0.1185 1.483
4369000000.0 1.222 0.815
4372000000.0 1.44 -0.399
4375000000.0 0.5926 -1.392
4378000000.0 -0.6979 -1.346
4381000000.0 -1.467 -0.3319
4384000000.0 -1.193 0.9802
4388000000.0 -0.008291 1.56
4391000000.0 1.22 0.9803
4394000000.0 1.555 -0.307
4397000000.0 0.7331 -1.408
4400000000.0 -0.6626 -1.451
4403000000.0 -1.572 -0.3782
4406000000.0 -1.241 0.9634
4409000000.0 0.005571 1.579
4412000000.0 1.223 0.9375
4416000000.0 1.522 -0.3837
4419000000.0 0.5865 -1.378
4422000000.0 -0.728 -1.317
4425000000.0 -1.488 -0.2942
4428000000.0 -1.09 0.9913
4431000000.0 0.1084 1.454
4434000000.0 1.187 0.8095
4438000000.0 1.325 -0.4592
4441000000.0 0.4786 -1.296
4444000000.0 -0.7612 -1.168
4447000000.0 -1.343 -0.1105
4450000000.0 -0.9052 0.9955
4453000000.0 0.2151 1.28
4456000000.0 1.159 0.6141
4459000000.0 1.154 -0.4896
4462000000.0 0.2919 -1.247
4466000000.0 -0.7486 -0.9513
4469000000.0 -1.244 0.002051
4472000000.0 -0.7222 0.9491
4475000000.0 0.3345 1.151
4478000000.0 1.094 0.4864
4481000000.0 1.028 -0.5725
4484000000.0 0.1879 -1.115
4488000000.0 -0.7571 -0.8832
4491000000.0 -1.142 0.06787
4494000000.0 -0.6479 0.941
4497000000.0 0.345 1.093
4500000000.0 1.049 0.4202
4503000000.0 0.9666 -0.5217
4506000000.0 0.1931 -1.08
4509000000.0 -0.7041 -0.8593
4512000000.0 -1.13 0.009802
4516000000.0 -0.7081 0.9041
4519000000.0 0.2545 1.111
4522000000.0 1.04 0.4922
4525000000.0 1.082 -0.4847
4528000000.0 0.2927 -1.112
4531000000.0 -0.6914 -0.9588
4534000000.0 -1.2 -0.09803
4538000000.0 -0.8352 0.8651
4541000000.0 0.1481 1.187
4544000000.0 1.026 0.6451
4547000000.0 1.188 -0.3566
4550000000.0 0.4643 -1.152
4553000000.0 -0.5947 -1.069
4556000000.0 -1.233 -0.2538
4559000000.0 -0.9811 0.7877
4562000000.0 -0.05515 1.282
4566000000.0 0.9298 0.855
4569000000.0 1.267 -0.1905
4572000000.0 0.6802 -1.112
4575000000.0 -0.4188 -1.24
4578000000.0 -1.235 -0.5007
4581000000.0 -1.176 0.633
4584000000.0 -0.2489 1.337
4588000000.0 0.8641 1.056
4591000000.0 1.398 -0.02824
4594000000.0 0.8781 -1.046
4597000000.0 -0.2641 -1.356
4600000000.0 -1.229 -0.6868
4603000000.0 -1.319 0.5315
4606000000.0 -0.4203 1.339
4609000000.0 0.7694 1.17
4612000000.0 1.414 0.1291
4616000000.0 0.9941 -0.9955
4619000000.0 -0.1488 -1.425
4622000000.0 -1.163 -0.7591
4625000000.0 -1.332 0.4368
4628000000.0 -0.501 1.292
4631000000.0 0.6713 1.226
4634000000.0 1.373 0.2087
4638000000.0 1.029 -0.8979
4641000000.0 -0.06968 -1.358
4644000000.0 -1.072 -0.7762
4647000000.0 -1.255 0.3802
4650000000.0 -0.4952 1.217
4653000000.0 0.6254 1.157
4656000000.0 1.256 0.2018
4659000000.0 0.9776 -0.8575
4662000000.0 -0.1031 -1.247
4666000000.0 -1.025 -0.6774
4669000000.0 -1.129 0.3367
4672000000.0 -0.3888 1.111
4675000000.0 0.5622 0.9872
4678000000.0 1.148 0.1456
4681000000.0 0.8193 -0.7907
4684000000.0 -0.08286 -1.113
4688000000.0 -0.9304 -0.6386
4691000000.0 -1.041 0.3289
4694000000.0 -0.4092 1.049
4697000000.0 0.5137 0.9303
4700000000.0 1.085 0.139
4703000000.0 0.7978 -0.7541
4706000000.0 -0.09973 -1.08
4709000000.0 -0.9139 -0.6031
4712000000.0 -1.018 0.3485
4716000000.0 -0.3598 1.043
4719000000.0 0.5603 0.902
4722000000.0 1.055 0.122
4725000000.0 0.7667 -0.7551
4728000000.0 -0.06066 -1.053
4731000000.0 -0.8806 -0.6212
4734000000.0 -1.014 0.2603
4738000000.0 -0.4464 0.9925
4741000000.0 0.4795 0.9402
4744000000.0 1.038 0.2517
4747000000.0 0.8479 -0.6631
4750000000.0 0.04482 -1.088
4753000000.0 -0.8323 -0.7379
4756000000.0 -1.109 0.1526
4759000000.0 -0.5826 0.9384
4762000000.0 0.3673 1.088
4766000000.0 1.063 0.429
4769000000.0 1.032 -0.5624
4772000000.0 0.1952 -1.161
4775000000.0 -0.742 -0.9172
4778000000.0 -1.193 -0.02808
4781000000.0 -0.8006 0.9143
4784000000.0 0.1698 1.203
4788000000.0 1.058 0.6502
4791000000.0 1.167 -0.3809
4794000000.0 0.4728 -1.168
4797000000.0 -0.5986 -1.103
4800000000.0 -1.242 -0.2996
4803000000.0 -0.9745 0.7473
4806000000.0 -0.04381 1.278
4809000000.0 0.9294 0.8672
4812000000.0 1.326 -0.1733
4816000000.0 0.7268 -1.103
4819000000.0 -0.415 -1.281
4822000000.0 -1.25 -0.5146
4825000000.0 -1.225 0.6397
4828000000.0 -0.2786 1.359
4831000000.0 0.9074 1.055
4834000000.0 1.407 -0.02234
4838000000.0 0.8854 -1.097
4841000000.0 -0.3066 -1.364
4844000000.0 -1.249 -0.6545
4847000000.0 -1.295 0.5689
4850000000.0 -0.3642 1.355
4853000000.0 0.79 1.12
4856000000.0 1.38 0.1115
4859000000.0 0.9258 -0.9745
4862000000.0 -0.1605 -1.318
4866000000.0 -1.148 -0.6879
4869000000.0 -1.261 0.4397
4872000000.0 -0.4738 1.24
4875000000.0 0.6438 1.146
4878000000.0 1.277 0.1664
4881000000.0 0.912 -0.8861
4884000000.0 -0.08513 -1.226
4888000000.0 -1.005 -0.6888
4891000000.0 -1.154 0.3515
4894000000.0 -0.4359 1.056
4897000000.0 0.5509 1.008
4900000000.0 1.096 0.183
4903000000.0 0.8334 -0.7299
4906000000.0 -0.06272 -1.064
4909000000.0 -0.8354 -0.631
4912000000.0 -1.003 0.2341
4916000000.0 -0.4104 0.9137
4919000000.0 0.4203 0.9069
4922000000.0 0.9633 0.2436
4925000000.0 0.7801 -0.5673
4928000000.0 0.03456 -0.9481
4931000000.0 -0.7252 -0.6201
4934000000.0 -0.9581 0.1253
4938000000.0 -0.4956 0.8088
4941000000.0 0.3162 0.8989
4944000000.0 0.8691 0.3201
4947000000.0 0.7899 -0.5007
4950000000.0 0.1227 -0.9411
4953000000.0 -0.643 -0.6929
4956000000.0 -0.9503 0.04349
4959000000.0 -0.5924 0.7972
4962000000.0 0.2683 0.9734
4966000000.0 0.9205 0.3946
4969000000.0 0.8967 -0.4375
4972000000.0 0.2253 -1.015
4975000000.0 -0.6331 -0.8152
4978000000.0 -1.04 -0.0186
4981000000.0 -0.6807 0.7967
4984000000.0 0.1659 1.046
4988000000.0 0.9295 0.5281
4991000000.0 1.013 -0.382
4994000000.0 0.3546 -1.051
4997000000.0 -0.5851 -0.9831
5000000000.0 -1.142 -0.1891
5003000000.0 -0.8644 0.7821
5006000000.0 0.02599 1.178
5009000000.0 0.9582 0.726
5012000000.0 1.198 -0.2922
5016000000.0 0.5522 -1.102
5019000000.0 -0.4867 -1.15
5022000000.0 -1.216 -0.3408
5025000000.0 -1.066 0.7284
5028000000.0 -0.08432 1.28
5031000000.0 0.9232 0.9074
5034000000.0 1.297 -0.1671
5038000000.0 0.7058 -1.098
5041000000.0 -0.3882 -1.216
5044000000.0 -1.203 -0.5143
5047000000.0 -1.161 0.5826
5050000000.0 -0.3002 1.277
5053000000.0 0.7563 1.024
5056000000.0 1.28 0.0595
5059000000.0 0.8968 -0.938
5062000000.0 -0.1441 -1.291
5066000000.0 -1.099 -0.7292
5069000000.0 -1.22 0.4099
5072000000.0 -0.4856 1.189
5075000000.0 0.5867 1.126
5078000000.0 1.261 0.2266
5081000000.0 0.9598 -0.8151
5084000000.0 0.01796 -1.251
5088000000.0 -0.9162 -0.7933
5091000000.0 -1.178 0.2276
5094000000.0 -0.5925 1.032
5097000000.0 0.3441 1.121
5100000000.0 1.048 0.3632
5103000000.0 0.9686 -0.5493
5106000000.0 0.1911 -1.083
5109000000.0 -0.6855 -0.8497
5112000000.0 -1.055 0.01001
5116000000.0 -0.7117 0.8351
5119000000.0 0.1911 0.9936
5122000000.0 0.9215 0.496
5125000000.0 0.9816 -0.3986
5128000000.0 0.3195 -0.9748
5131000000.0 -0.5149 -0.8787
5134000000.0 -0.9778 -0.1368
5138000000.0 -0.7188 0.6506
5141000000.0 0.06378 0.9391
5144000000.0 0.7649 0.5678
5147000000.0 0.9422 -0.2469
5150000000.0 0.3748 -0.8471
5153000000.0 -0.3919 -0.82
5156000000.0 -0.8869 -0.2179
5159000000.0 -0.7577 0.5362
5162000000.0 -0.02271 0.8987
5166000000.0 0.6781 0.5571
5169000000.0 0.8899 -0.1505
5172000000.0 0.4294 -0.797
5175000000.0 -0.3457 -0.8128
5178000000.0 -0.8711 -0.2485
5181000000.0 -0.762 0.5424
5184000000.0 -0.05978 0.9023
5188000000.0 0.6806 0.634
5191000000.0 0.9297 -0.1699
5194000000.0 0.4572 -0.8287
5197000000.0 -0.3554 -0.8828
5200000000.0 -0.887 -0.252
5203000000.0 -0.7788 0.5365
5206000000.0 -0.06958 0.9519
5209000000.0 0.7209 0.6596
5212000000.0 0.949 -0.1491
5216000000.0 0.4954 -0.8376
5219000000.0 -0.3462 -0.9491
5222000000.0 -0.9107 -0.3361
5225000000.0 -0.875 0.5393
5228000000.0 -0.1272 0.9952
5231000000.0 0.7244 0.7385
5234000000.0 1.005 -0.03398
5238000000.0 0.6048 -0.8341
5241000000.0 -0.2742 -1.036
5244000000.0 -0.9815 -0.4463
5247000000.0 -0.981 0.4629
5250000000.0 -0.2574 1.023
5253000000.0 0.6594 0.8709
5256000000.0 1.071 0.06521
5259000000.0 0.7346 -0.7759
5262000000.0 -0.122 -1.08
5266000000.0 -0.8975 -0.617
5269000000.0 -1.027 0.2831
5272000000.0 -0.4666 1.007
5275000000.0 0.5097 1.008
5278000000.0 1.068 0.2983
5281000000.0 0.8953 -0.6479
5284000000.0 0.08314 -1.115
5288000000.0 -0.8103 -0.7895
5291000000.0 -1.145 0.08001
5294000000.0 -0.6384 0.8987
5297000000.0 0.2606 1.083
5300000000.0 1.004 0.4968
5303000000.0 1.028 -0.4398
5306000000.0 0.338 -1.105
5309000000.0 -0.6031 -0.9799
5312000000.0 -1.1 -0.1758
5316000000.0 -0.8387 0.7798
5319000000.0 0.06147 1.141
5322000000.0 0.9162 0.6884
5325000000.0 1.102 -0.2808
5328000000.0 0.5136 -1.048
5331000000.0 -0.4482 -1.022
5334000000.0 -1.114 -0.317
5338000000.0 -0.9077 0.6541
5341000000.0 -0.07293 1.126
5344000000.0 0.8102 0.7642
5347000000.0 1.12 -0.1389
5350000000.0 0.6159 -0.9284
5353000000.0 -0.3525 -1.058
5356000000.0 -1.009 -0.3894
5359000000.0 -0.9649 0.5171
5362000000.0 -0.1477 1.016
5366000000.0 0.7101 0.7887
5369000000.0 1.055 -0.04075
5372000000.0 0.5966 -0.8519
5375000000.0 -0.2751 -1.003
5378000000.0 -0.9172 -0.3582
5381000000.0 -0.8555 0.5346
5384000000.0 -0.1361 0.9666
5388000000.0 0.6863 0.7094
5391000000.0 0.9518 -0.08442
5394000000.0 0.468 -0.779
5397000000.0 -0.3193 -0.8683
5400000000.0 -0.8492 -0.2907
5403000000.0 -0.7353 0.4509
5406000000.0 -0.08162 0.8806
5409000000.0 0.5978 0.6126
5412000000.0 0.8525 -0.09981
5416000000.0 0.4635 -0.7452
5419000000.0 -0.2968 -0.8182
5422000000.0 -0.8141 -0.2723
5425000000.0 -0.7357 0.4434
5428000000.0 -0.09802 0.8713
5431000000.0 0.6306 0.6194
5434000000.0 0.8549 -0.1152
5438000000.0 0.4568 -0.7574
5441000000.0 -0.2956 -0.863
5444000000.0 -0.83 -0.2918
5447000000.0 -0.7522 0.4754
5450000000.0 -0.1137 0.9032
5453000000.0 0.6158 0.6439
5456000000.0 0.8881 -0.0808
5459000000.0 0.5219 -0.7557
5462000000.0 -0.237 -0.9007
5466000000.0 -0.8135 -0.3974
5469000000.0 -0.8437 0.3904
5472000000.0 -0.2291 0.8929
5475000000.0 0.5586 0.7721
5478000000.0 0.9623 0.06415
5481000000.0 0.6606 -0.6724
5484000000.0 -0.1407 -0.93
5488000000.0 -0.8288 -0.5645
5491000000.0 -0.9886 0.3084
5494000000.0 -0.4136 0.9514
5497000000.0 0.4323 0.8738
5500000000.0 0.9801 0.2838
5503000000.0 0.8268 -0.6278
5506000000.0 0.07103 -1.011
5509000000.0 -0.7643 -0.7162
5512000000.0 -1.039 0.1389
5516000000.0 -0.6239 0.8983
5519000000.0 0.2928 1.018
5522000000.0 0.9714 0.405
5525000000.0 0.9452 -0.4651
5528000000.0 0.2296 -1.047
5531000000.0 -0.6107 -0.8507
5534000000.0 -1.097 -0.09813
5538000000.0 -0.7372 0.7684
5541000000.0 0.1258 1.08
5544000000.0 0.9128 0.5872
5547000000.0 1.036 -0.3417
5550000000.0 0.4212 -0.9795
5553000000.0 -0.4774 -0.9729
5556000000.0 -1.064 -0.2082
5559000000.0 -0.8349 0.6524
5562000000.0 -0.003718 1.025
5566000000.0 0.7896 0.6871
5569000000.0 0.9756 -0.1746
5572000000.0 0.4917 -0.8766
5575000000.0 -0.3412 -0.9064
5578000000.0 -0.9282 -0.3207
5581000000.0 -0.8543 0.5134
5584000000.0 -0.1317 0.9731
5588000000.0 0.6419 0.6994
5591000000.0 0.9203 -0.0391
5594000000.0 0.5554 -0.7455
5597000000.0 -0.2207 -0.8732
5600000000.0 -0.8235 -0.3685
5603000000.0 -0.8169 0.3757
5606000000.0 -0.1938 0.8772
5609000000.0 0.5387 0.6712
5612000000.0 0.8468 -0.0003251
5616000000.0 0.5456 -0.6644
5619000000.0 -0.1706 -0.8223
5622000000.0 -0.7482 -0.3817
5625000000.0 -0.7837 0.3618
5628000000.0 -0.2354 0.8135
5631000000.0 0.5056 0.672
5634000000.0 0.8224 0.04328
5638000000.0 0.527 -0.619
5641000000.0 -0.162 -0.8011
5644000000.0 -0.7702 -0.3944
5647000000.0 -0.754 0.347
5650000000.0 -0.2419 0.8109
5653000000.0 0.516 0.7005
5656000000.0 0.8656 0.03727
5659000000.0 0.5536 -0.6495
5662000000.0 -0.1395 -0.8677
5666000000.0 -0.8193 -0.4413
5669000000.0 -0.8524 0.3311
5672000000.0 -0.2651 0.8894
5675000000.0 0.5276 0.7445
5678000000.0 0.9344 0.05343
5681000000.0 0.6189 -0.6864
5684000000.0 -0.1533 -0.9606
5688000000.0 -0.8405 -0.5051
5691000000.0 -0.9237 0.3264
5694000000.0 -0.3425 0.9585
5697000000.0 0.5404 0.8331
5700000000.0 1.011 0.1237
5703000000.0 0.7732 -0.6699
5706000000.0 -0.08881 -1.034
5709000000.0 -0.8495 -0.6015
5712000000.0 -1.02 0.3109
5716000000.0 -0.3951 0.9622
5719000000.0 0.4764 0.9488
5722000000.0 1.06 0.2727
5725000000.0 0.8603 -0.6744
5728000000.0 0.0614 -1.099
5731000000.0 -0.8078 -0.733
5734000000.0 -1.076 0.178
5738000000.0 -0.562 0.9045
5741000000.0 0.341 1.028
5744000000.0 1.055 0.3891
5747000000.0 0.9779 -0.5421
5750000000.0 0.2098 -1.101
5753000000.0 -0.7187 -0.8342
5756000000.0 -1.11 -0.01323
5759000000.0 -0.689 0.8926
5762000000.0 0.1658 1.12
5766000000.0 0.9802 0.5203
5769000000.0 1.05 -0.379
5772000000.0 0.3447 -1.081
5775000000.0 -0.6062 -0.9287
5778000000.0 -1.069 -0.199
5781000000.0 -0.7996 0.7588
5784000000.0 0.04094 1.107
5788000000.0 0.8513 0.687
5791000000.0 1.064 -0.2782
5794000000.0 0.4931 -0.9934
5797000000.0 -0.4184 -0.9775
5800000000.0 -1.02 -0.2697
5803000000.0 -0.8706 0.6013
5806000000.0 -0.07594 1.059
5809000000.0 0.7468 0.7383
5812000000.0 1.003 -0.08206
5816000000.0 0.5479 -0.8513
5819000000.0 -0.317 -0.9752
5822000000.0 -0.9092 -0.3642
5825000000.0 -0.8194 0.4824
5828000000.0 -0.166 0.9533
5831000000.0 0.6498 0.7556
5834000000.0 0.9617 -0.03479
5838000000.0 0.5835 -0.7605
5841000000.0 -0.2559 -0.9296
5844000000.0 -0.9024 -0.3786
5847000000.0 -0.8336 0.4439
5850000000.0 -0.1908 0.9056
5853000000.0 0.6091 0.6733
5856000000.0 0.9399 -0.03677
5859000000.0 0.5603 -0.7105
5862000000.0 -0.1905 -0.8689
5866000000.0 -0.8166 -0.3949
5869000000.0 -0.7692 0.4023
5872000000.0 -0.1884 0.8661
5875000000.0 0.5493 0.6818
5878000000.0 0.8915 -0.006157
5881000000.0 0.5294 -0.7024
5884000000.0 -0.2075 -0.8637
5888000000.0 -0.782 -0.3875
5891000000.0 -0.7507 0.3564
5894000000.0 -0.2283 0.8056
5897000000.0 0.519 0.7039
5900000000.0 0.8663 0.03096
5903000000.0 0.6031 -0.6476
5906000000.0 -0.155 -0.8787
5909000000.0 -0.7748 -0.4391
5912000000.0 -0.8403 0.3378
5916000000.0 -0.259 0.8243
5919000000.0 0.4642 0.7365
5922000000.0 0.8922 0.149
5925000000.0 0.6427 -0.6391
5928000000.0 -0.07822 -0.8771
5931000000.0 -0.7206 -0.5567
5934000000.0 -0.902 0.2176
5938000000.0 -0.3998 0.8344
5941000000.0 0.378 0.8414
5944000000.0 0.9168 0.279
5947000000.0 0.7926 -0.5445
5950000000.0 0.09172 -0.9364
5953000000.0 -0.7056 -0.6596
5956000000.0 -0.9787 0.1249
5959000000.0 -0.5448 0.7948
5962000000.0 0.3029 0.9239
5966000000.0 0.8712 0.422
5969000000.0 0.8812 -0.4217
5972000000.0 0.2451 -0.982
5975000000.0 -0.5801 -0.7842
5978000000.0 -0.9962 -0.04551
5981000000.0 -0.6735 0.7322
5984000000.0 0.1551 0.9947
5988000000.0 0.8628 0.5025
5991000000.0 0.9608 -0.3467
5994000000.0 0.3597 -0.9237
5997000000.0 -0.5353 -0.9121
6000000000.0 -1.018 -0.1844
6003000000.0 -0.7409 0.6854
6006000000.0 0.03441 1.016
6009000000.0 0.7847 0.5969
6012000000.0 0.9485 -0.2612
6016000000.0 0.4085 -0.8791
6019000000.0 -0.4461 -0.8714
6022000000.0 -0.9439 -0.2028
6025000000.0 -0.7676 0.6089
6028000000.0 0.002115 0.9559
6031000000.0 0.7202 0.6096
6034000000.0 0.9346 -0.1504
6038000000.0 0.4566 -0.8641
6041000000.0 -0.3405 -0.864
6044000000.0 -0.9 -0.2477
6047000000.0 -0.7392 0.5357
6050000000.0 -0.03562 0.9041
6053000000.0 0.6522 0.6267
6056000000.0 0.8901 -0.1436
6059000000.0 0.4799 -0.7653
6062000000.0 -0.3274 -0.8248
6066000000.0 -0.8432 -0.2747
6069000000.0 -0.7544 0.4546
6072000000.0 -0.07549 0.8603
6075000000.0 0.6351 0.6215
6078000000.0 0.855 -0.1029
6081000000.0 0.4301 -0.7228
6084000000.0 -0.2944 -0.8281
6088000000.0 -0.7645 -0.2848
6091000000.0 -0.7337 0.4339
6094000000.0 -0.109 0.826
6097000000.0 0.5886 0.5934
6100000000.0 0.8571 -0.0441
6103000000.0 0.4929 -0.7098
6106000000.0 -0.2206 -0.8263
6109000000.0 -0.7976 -0.3339
6112000000.0 -0.7381 0.4061
6116000000.0 -0.119 0.8768
6119000000.0 0.5966 0.6404
6122000000.0 0.9011 -0.04241
6125000000.0 0.5556 -0.7268
6128000000.0 -0.2383 -0.8666
6131000000.0 -0.8272 -0.3696
6134000000.0 -0.8415 0.3901
6138000000.0 -0.166 0.8923
6141000000.0 0.5659 0.7294
6144000000.0 0.9059 -0.008076
6147000000.0 0.566 -0.7305
6150000000.0 -0.1715 -0.9183
6153000000.0 -0.8497 -0.436
6156000000.0 -0.8831 0.3938
6159000000.0 -0.2707 0.9221
6162000000.0 0.5645 0.8007
6166000000.0 0.9716 0.09081
6169000000.0 0.6729 -0.7197
6172000000.0 -0.09308 -0.9991
6175000000.0 -0.8451 -0.5342
6178000000.0 -0.9567 0.3414
6181000000.0 -0.3532 0.9508
6184000000.0 0.5028 0.85
6188000000.0 0.9452 0.1483
6191000000.0 0.7194 -0.6405
6194000000.0 -0.08 -1.0
6197000000.0 -0.7882 -0.5553
6200000000.0 -0.9063 0.1952
6203000000.0 -0.4075 0.8735
6206000000.0 0.3789 0.8834
6209000000.0 0.895 0.2182
6212000000.0 0.7292 -0.5461
6216000000.0 0.0295 -0.9124
6219000000.0 -0.7068 -0.6131
6222000000.0 -0.8885 0.1102
6225000000.0 -0.4777 0.7768
6228000000.0 0.3185 0.8826
6231000000.0 0.8236 0.3036
6234000000.0 0.7539 -0.4366
6238000000.0 0.1455 -0.896
6241000000.0 -0.5646 -0.6435
6244000000.0 -0.8718 0.01355
6247000000.0 -0.4888 0.6716
6250000000.0 0.2333 0.8227
6253000000.0 0.7456 0.3815
6256000000.0 0.7494 -0.3664
6259000000.0 0.2275 -0.7704
6262000000.0 -0.4629 -0.6762
