! Created with skrf 1.8.0 (http://scikit-rf.org).
# Hz S RI R 50.0 
!freq ReS11 ImS11
4000000000.0 -0.9691 -1.28
4003000000.0 -1.545 -0.007113
4006000000.0 -0.9533 1.173
4009000000.0 0.3698 1.541
4012000000.0 1.449 0.7109
4016000000.0 1.469 -0.6675
4019000000.0 0.3809 -1.562
4022000000.0 -1.028 -1.298
4025000000.0 -1.654 0.03552
4028000000.0 -1.036 1.331
4031000000.0 0.4236 1.695
4034000000.0 1.567 0.6689
4038000000.0 1.498 -0.783
4041000000.0 0.3163 -1.628
4044000000.0 -1.089 -1.273
4047000000.0 -1.658 0.07296
4050000000.0 -0.9999 1.338
4053000000.0 0.4294 1.596
4056000000.0 1.478 0.6566
4059000000.0 1.443 -0.7597
4062000000.0 0.3592 -1.611
4066000000.0 -0.9521 -1.281
4069000000.0 -1.628 -0.07491
4072000000.0 -1.093 1.211
4075000000.0 0.2293 1.554
4078000000.0 1.376 0.85
4081000000.0 1.533 -0.5472
4084000000.0 0.5461 -1.501
4088000000.0 -0.8216 -1.387
4091000000.0 -1.602 -0.2852
4094000000.0 -1.203 1.068
4097000000.0 0.05798 1.582
4100000000.0 1.258 0.9337
4103000000.0 1.461 -0.3952
4106000000.0 0.6346 -1.328
4109000000.0 -0.6235 -1.31
4112000000.0 -1.403 -0.3494
4116000000.0 -1.186 0.8488
4119000000.0 -0.1159 1.403
4122000000.0 0.9977 1.001
4125000000.0 1.399 -0.1291
4128000000.0 0.831 -1.118
4131000000.0 -0.3675 -1.331
4134000000.0 -1.254 -0.5991
4138000000.0 -1.236 0.6321
4141000000.0 -0.3039 1.388
4144000000.0 0.8786 1.105
4147000000.0 1.422 0.01268
4150000000.0 0.8744 -1.107
4153000000.0 -0.3142 -1.364
4156000000.0 -1.358 -0.5458
4159000000.0 -1.237 0.7154
4162000000.0 -0.1842 1.435
4166000000.0 1.031 1.026
4169000000.0 1.447 -0.225
4172000000.0 0.7278 -1.262
4175000000.0 -0.5614 -1.308
4178000000.0 -1.393 -0.3109
4181000000.0 -1.076 0.9559
4184000000.0 0.1386 1.459
4188000000.0 1.244 0.7115
4191000000.0 1.35 -0.5534
4194000000.0 0.3295 -1.413
4197000000.0 -0.9624 -1.075
4200000000.0 -1.468 0.1492
4203000000.0 -0.7043 1.287
4206000000.0 0.6109 1.325
4209000000.0 1.412 0.2797
4212000000.0 1.053 -1.023
4216000000.0 -0.1908 -1.443
4219000000.0 -1.229 -0.6896
4222000000.0 -1.338 0.6108
4225000000.0 -0.3046 1.401
4228000000.0 0.9498 1.037
4231000000.0 1.438 -0.1148
4234000000.0 0.7514 -1.188
4238000000.0 -0.4512 -1.318
4241000000.0 -1.279 -0.4232
4244000000.0 -1.179 0.7534
4247000000.0 -0.1421 1.377
4250000000.0 0.9908 0.9705
4253000000.0 1.383 -0.1567
4256000000.0 0.6947 -1.187
4259000000.0 -0.4877 -1.302
4262000000.0 -1.326 -0.4633
4266000000.0 -1.206 0.7569
4269000000.0 -0.1844 1.424
4272000000.0 0.9947 1.024
4275000000.0 1.45 -0.1155
4278000000.0 0.8122 -1.23
4281000000.0 -0.4548 -1.401
4284000000.0 -1.404 -0.4988
4288000000.0 -1.253 0.7489
4291000000.0 -0.1857 1.489
4294000000.0 1.051 1.071
4297000000.0 1.473 -0.1381
4300000000.0 0.8571 -1.246
4303000000.0 -0.4432 -1.441
4306000000.0 -1.41 -0.5366
4309000000.0 -1.348 0.7534
4312000000.0 -0.1893 1.534
4316000000.0 1.088 1.136
4319000000.0 1.564 -0.1391
4322000000.0 0.8511 -1.366
4325000000.0 -0.5786 -1.505
4328000000.0 -1.532 -0.4735
4331000000.0 -1.316 0.9576
4334000000.0 -0.02479 1.652
4338000000.0 1.316 1.013
4341000000.0 1.586 -0.4893
4344000000.0 0.5477 -1.546
4347000000.0 -0.9313 -1.312
4350000000.0 -1.593 -0.04844
4353000000.0 -0.9529 1.277
4356000000.0 0.4081 1.504
4359000000.0 1.42 0.518
4362000000.0 1.239 -0.8275
4366000000.0 0.09036 -1.462
4369000000.0 -1.087 -0.9608
4372000000.0 -1.381 0.3
4375000000.0 -0.5654 1.265
4378000000.0 0.6461 1.216
4381000000.0 1.355 0.2282
4384000000.0 0.9997 -0.9417
4388000000.0 -0.1084 -1.343
4391000000.0 -1.101 -0.706
4394000000.0 -1.25 0.4173
4397000000.0 -0.4302 1.27
4400000000.0 0.7238 1.117
4403000000.0 1.328 0.1315
4406000000.0 0.9183 -0.9657
4409000000.0 -0.1944 -1.355
4412000000.0 -1.154 -0.7266
4416000000.0 -1.275 0.4323
4419000000.0 -0.4213 1.292
4422000000.0 0.7463 1.134
4425000000.0 1.322 0.1597
4428000000.0 0.9559 -0.9362
4431000000.0 -0.0931 -1.347
4434000000.0 -1.11 -0.7734
4438000000.0 -1.321 0.3423
4441000000.0 -0.5852 1.26
4444000000.0 0.6013 1.263
4447000000.0 1.401 0.3664
4450000000.0 1.167 -0.8864
4453000000.0 0.06946 -1.46
4456000000.0 -1.099 -0.9984
4459000000.0 -1.516 0.2394
4462000000.0 -0.7686 1.311
4466000000.0 0.5435 1.462
4469000000.0 1.463 0.4858
4472000000.0 1.351 -0.8261
4475000000.0 0.18 -1.558
4478000000.0 -1.083 -1.138
4481000000.0 -1.58 0.1618
4484000000.0 -0.8905 1.33
4488000000.0 0.4774 1.483
4491000000.0 1.465 0.5828
4494000000.0 1.381 -0.8044
4497000000.0 0.2948 -1.588
4500000000.0 -1.057 -1.2
4503000000.0 -1.56 0.06507
4506000000.0 -0.9151 1.245
4509000000.0 0.4106 1.461
4512000000.0 1.425 0.5877
4516000000.0 1.335 -0.719
4519000000.0 0.2373 -1.521
4522000000.0 -1.05 -1.091
4525000000.0 -1.5 0.08914
4528000000.0 -0.7682 1.225
4531000000.0 0.4575 1.368
4534000000.0 1.365 0.4538
4538000000.0 1.189 -0.763
4541000000.0 0.08641 -1.38
4544000000.0 -1.006 -0.9009
4547000000.0 -1.268 0.2372
4550000000.0 -0.6024 1.114
4553000000.0 0.5088 1.143
4556000000.0 1.211 0.2948
4559000000.0 0.9657 -0.7449
4562000000.0 -0.009175 -1.226
4566000000.0 -0.9423 -0.7437
4569000000.0 -1.158 0.3013
4572000000.0 -0.4538 1.048
4575000000.0 0.532 0.999
4578000000.0 1.129 0.1629
4581000000.0 0.7914 -0.7705
4584000000.0 -0.1182 -1.123
4588000000.0 -0.9235 -0.5836
4591000000.0 -1.024 0.3869
4594000000.0 -0.2834 1.062
4597000000.0 0.6401 0.9003
4600000000.0 1.09 0.06721
4603000000.0 0.7082 -0.8111
4606000000.0 -0.213 -1.101
4609000000.0 -0.999 -0.5499
4612000000.0 -0.9965 0.4775
4616000000.0 -0.2756 1.081
4619000000.0 0.6633 0.8827
4622000000.0 1.153 0.02551
4625000000.0 0.7517 -0.8538
4628000000.0 -0.212 -1.13
4631000000.0 -1.033 -0.5485
4634000000.0 -1.084 0.4279
4638000000.0 -0.3347 1.143
4641000000.0 0.6829 0.9843
4644000000.0 1.202 0.09146
4647000000.0 0.8549 -0.8817
4650000000.0 -0.1674 -1.24
4653000000.0 -1.063 -0.6425
4656000000.0 -1.197 0.4142
4659000000.0 -0.4076 1.199
4662000000.0 0.6811 1.095
4666000000.0 1.31 0.1511
4669000000.0 0.9623 -0.9043
4672000000.0 -0.06892 -1.301
4675000000.0 -1.072 -0.7292
4678000000.0 -1.293 0.3445
4681000000.0 -0.4751 1.236
4684000000.0 0.6402 1.197
4688000000.0 1.31 0.245
4691000000.0 1.039 -0.8068
4694000000.0 -0.02581 -1.391
4697000000.0 -1.089 -0.848
4700000000.0 -1.391 0.3597
4703000000.0 -0.5474 1.309
4706000000.0 0.6731 1.217
4709000000.0 1.352 0.2126
4712000000.0 1.057 -0.9312
4716000000.0 -0.07814 -1.407
4719000000.0 -1.138 -0.7516
4722000000.0 -1.295 0.4445
4725000000.0 -0.4448 1.298
4728000000.0 0.7111 1.097
4731000000.0 1.258 0.06449
4734000000.0 0.8282 -0.9319
4738000000.0 -0.2461 -1.2
4741000000.0 -1.055 -0.5035
4744000000.0 -1.054 0.523
4747000000.0 -0.2315 1.122
4750000000.0 0.7504 0.84
4753000000.0 1.103 -0.1052
4756000000.0 0.5666 -0.9311
4759000000.0 -0.3563 -0.9721
4762000000.0 -0.9866 -0.3152
4766000000.0 -0.8021 0.5831
4769000000.0 -0.02079 0.9982
4772000000.0 0.7939 0.6246
4775000000.0 0.9484 -0.2304
4778000000.0 0.3855 -0.8831
4781000000.0 -0.4449 -0.8076
4784000000.0 -0.9078 -0.1532
4788000000.0 -0.661 0.666
4791000000.0 0.08588 0.9311
4794000000.0 0.7895 0.4998
4797000000.0 0.901 -0.2882
4800000000.0 0.3244 -0.8821
4803000000.0 -0.4947 -0.7801
4806000000.0 -0.9094 -0.1142
4809000000.0 -0.6803 0.6645
4812000000.0 0.0962 0.9632
4816000000.0 0.8277 0.5302
4819000000.0 0.9245 -0.2962
4822000000.0 0.3732 -0.9475
4825000000.0 -0.5173 -0.8835
4828000000.0 -1.016 -0.1736
4831000000.0 -0.7657 0.6934
4834000000.0 0.08014 1.075
4838000000.0 0.8763 0.6498
4841000000.0 1.071 -0.2757
4844000000.0 0.472 -1.017
4847000000.0 -0.5049 -1.026
4850000000.0 -1.138 -0.3109
4853000000.0 -0.9406 0.7252
4856000000.0 -0.04367 1.199
4859000000.0 0.9115 0.7828
4862000000.0 1.241 -0.2209
4866000000.0 0.6227 -1.118
4869000000.0 -0.4734 -1.209
4872000000.0 -1.255 -0.3982
4875000000.0 -1.118 0.7463
4878000000.0 -0.1003 1.354
4881000000.0 0.988 0.9447
4884000000.0 1.374 -0.178
4888000000.0 0.7078 -1.182
4891000000.0 -0.5207 -1.284
4894000000.0 -1.295 -0.3985
4897000000.0 -1.142 0.8043
4900000000.0 -0.05932 1.366
4903000000.0 1.022 0.8622
4906000000.0 1.296 -0.2084
4909000000.0 0.6204 -1.15
4912000000.0 -0.5171 -1.161
4916000000.0 -1.216 -0.3149
4919000000.0 -1.007 0.7276
4922000000.0 -0.04382 1.204
4925000000.0 0.8734 0.7874
4928000000.0 1.134 -0.203
4931000000.0 0.5325 -0.9961
4934000000.0 -0.4025 -1.035
4938000000.0 -1.041 -0.2953
4941000000.0 -0.8808 0.6334
4944000000.0 -0.07042 1.053
4947000000.0 0.7631 0.7184
4950000000.0 1.034 -0.1617
4953000000.0 0.5016 -0.8564
4956000000.0 -0.397 -0.916
4959000000.0 -0.9497 -0.2779
4962000000.0 -0.7991 0.558
4966000000.0 -0.06272 0.9476
4969000000.0 0.6961 0.6229
4972000000.0 0.9021 -0.1622
4975000000.0 0.4407 -0.8214
4978000000.0 -0.3697 -0.8399
4981000000.0 -0.8984 -0.2766
4984000000.0 -0.7686 0.5086
4988000000.0 -0.06302 0.9246
4991000000.0 0.6809 0.63
4994000000.0 0.9189 -0.1282
4997000000.0 0.4744 -0.8087
5000000000.0 -0.314 -0.8725
5003000000.0 -0.9229 -0.3151
5006000000.0 -0.824 0.528
5009000000.0 -0.1276 0.9905
5012000000.0 0.709 0.7003
5016000000.0 1.042 -0.1221
5019000000.0 0.5769 -0.8797
5022000000.0 -0.3369 -1.017
5025000000.0 -1.02 -0.4001
5028000000.0 -0.9509 0.5466
5031000000.0 -0.1712 1.08
5034000000.0 0.7453 0.8424
5038000000.0 1.122 -0.04575
5041000000.0 0.7332 -0.9289
5044000000.0 -0.2714 -1.156
5047000000.0 -1.065 -0.5201
5050000000.0 -1.102 0.5176
5053000000.0 -0.3061 1.156
5056000000.0 0.7266 0.9767
5059000000.0 1.248 0.08699
5062000000.0 0.8385 -0.9234
5066000000.0 -0.2015 -1.294
5069000000.0 -1.089 -0.656
5072000000.0 -1.233 0.4111
5075000000.0 -0.4463 1.2
5078000000.0 0.6553 1.136
5081000000.0 1.265 0.1966
5084000000.0 0.9609 -0.833
5088000000.0 -0.0465 -1.285
5091000000.0 -1.009 -0.7629
5094000000.0 -1.236 0.2924
5097000000.0 -0.5457 1.129
5100000000.0 0.4619 1.11
5103000000.0 1.196 0.3287
5106000000.0 1.016 -0.6695
5109000000.0 0.1188 -1.174
5112000000.0 -0.8449 -0.8721
5116000000.0 -1.161 0.1024
5119000000.0 -0.6813 0.9333
5122000000.0 0.2733 1.117
5125000000.0 1.048 0.5206
5128000000.0 1.03 -0.4896
5131000000.0 0.3005 -1.099
5134000000.0 -0.634 -0.8423
5138000000.0 -1.093 -0.08627
5141000000.0 -0.7313 0.748
5144000000.0 0.145 1.035
5147000000.0 0.8764 0.5837
5150000000.0 0.9825 -0.3288
5153000000.0 0.3749 -0.9421
5156000000.0 -0.4502 -0.8374
5159000000.0 -0.938 -0.2123
5162000000.0 -0.7747 0.6295
5166000000.0 -0.04511 0.9649
5169000000.0 0.7081 0.6296
5172000000.0 0.9271 -0.1948
5175000000.0 0.4736 -0.8321
5178000000.0 -0.3309 -0.8869
5181000000.0 -0.8872 -0.3061
5184000000.0 -0.7711 0.4961
5188000000.0 -0.05943 0.9622
5191000000.0 0.6745 0.6877
5194000000.0 0.9156 -0.1015
5197000000.0 0.508 -0.7949
5200000000.0 -0.3354 -0.8809
5203000000.0 -0.8976 -0.2744
5206000000.0 -0.7901 0.4984
5209000000.0 -0.1009 0.9362
5212000000.0 0.6908 0.6651
5216000000.0 0.9435 -0.1541
5219000000.0 0.4999 -0.8333
5222000000.0 -0.342 -0.9013
5225000000.0 -0.9093 -0.3094
5228000000.0 -0.8021 0.5286
5231000000.0 -0.07913 0.9914
5234000000.0 0.691 0.6759
5238000000.0 0.9622 -0.1082
5241000000.0 0.4875 -0.8537
5244000000.0 -0.3607 -0.9493
5247000000.0 -0.9662 -0.3163
5250000000.0 -0.8625 0.5693
5253000000.0 -0.1245 1.036
5256000000.0 0.7006 0.7285
5259000000.0 1.049 -0.08204
5262000000.0 0.6077 -0.8611
5266000000.0 -0.2816 -1.004
5269000000.0 -0.9421 -0.4246
5272000000.0 -0.9591 0.4683
5275000000.0 -0.2199 1.014
5278000000.0 0.656 0.8164
5281000000.0 1.045 0.05032
5284000000.0 0.705 -0.775
5288000000.0 -0.1312 -1.09
5291000000.0 -0.8764 -0.5656
5294000000.0 -1.067 0.3383
5297000000.0 -0.4439 1.022
5300000000.0 0.4604 0.9951
5303000000.0 1.095 0.2687
5306000000.0 0.8736 -0.6494
5309000000.0 0.08183 -1.125
5312000000.0 -0.7717 -0.795
5316000000.0 -1.134 0.1198
5319000000.0 -0.6831 0.9384
5322000000.0 0.2672 1.125
5325000000.0 1.074 0.475
5328000000.0 1.054 -0.5124
5331000000.0 0.3146 -1.111
5334000000.0 -0.6437 -0.9569
5338000000.0 -1.154 -0.09054
5341000000.0 -0.8246 0.8015
5344000000.0 0.1047 1.181
5347000000.0 0.9259 0.6768
5350000000.0 1.091 -0.2992
5353000000.0 0.4976 -1.027
5356000000.0 -0.4897 -1.042
5359000000.0 -1.108 -0.2743
5362000000.0 -0.9314 0.6424
5366000000.0 -0.08131 1.154
5369000000.0 0.8391 0.7567
5372000000.0 1.115 -0.1358
5375000000.0 0.6014 -0.9812
5378000000.0 -0.3729 -1.064
5381000000.0 -1.041 -0.3914
5384000000.0 -0.954 0.5473
5388000000.0 -0.1369 1.059
5391000000.0 0.7782 0.7871
5394000000.0 1.07 -0.09045
5397000000.0 0.552 -0.8679
5400000000.0 -0.3031 -0.9583
5403000000.0 -0.9276 -0.3758
5406000000.0 -0.8551 0.4918
5409000000.0 -0.1431 0.9567
5412000000.0 0.6429 0.7258
5416000000.0 0.9902 -0.0854
5419000000.0 0.5254 -0.7838
5422000000.0 -0.2631 -0.9
5425000000.0 -0.8501 -0.352
5428000000.0 -0.8041 0.508
5431000000.0 -0.1432 0.9122
5434000000.0 0.614 0.6472
5438000000.0 0.905 -0.1028
5441000000.0 0.48 -0.7533
5444000000.0 -0.3264 -0.8358
5447000000.0 -0.834 -0.2904
5450000000.0 -0.7312 0.4911
5453000000.0 -0.03293 0.8692
5456000000.0 0.6429 0.6066
5459000000.0 0.8658 -0.1256
5462000000.0 0.4654 -0.7384
5466000000.0 -0.3127 -0.813
5469000000.0 -0.8276 -0.2634
5472000000.0 -0.719 0.4654
5475000000.0 -0.147 0.831
5478000000.0 0.5939 0.6418
5481000000.0 0.8795 -0.07632
5484000000.0 0.5527 -0.743
5488000000.0 -0.2491 -0.8309
5491000000.0 -0.8323 -0.3448
5494000000.0 -0.8257 0.4294
5497000000.0 -0.1691 0.9243
5500000000.0 0.545 0.73
5503000000.0 0.9288 0.07816
5506000000.0 0.6385 -0.6897
5509000000.0 -0.1301 -0.9314
5512000000.0 -0.8073 -0.532
5516000000.0 -0.9013 0.2926
5519000000.0 -0.3316 0.9006
5522000000.0 0.4738 0.8741
5525000000.0 0.972 0.1954
5528000000.0 0.7858 -0.623
5531000000.0 0.02861 -0.9906
5534000000.0 -0.7349 -0.6866
5538000000.0 -1.044 0.1194
5541000000.0 -0.5644 0.872
5544000000.0 0.2946 0.969
5547000000.0 0.9672 0.4244
5550000000.0 0.9381 -0.4675
5553000000.0 0.2279 -1.049
5556000000.0 -0.6378 -0.8484
5559000000.0 -1.061 -0.06723
5562000000.0 -0.7115 0.7633
5566000000.0 0.1339 1.041
5569000000.0 0.9263 0.5151
5572000000.0 1.002 -0.2968
5575000000.0 0.4123 -0.98
5578000000.0 -0.4715 -0.9276
5581000000.0 -1.001 -0.236
5584000000.0 -0.8191 0.6339
5588000000.0 -0.0583 1.062
5591000000.0 0.7514 0.6878
5594000000.0 0.9841 -0.147
5597000000.0 0.5308 -0.85
5600000000.0 -0.3466 -0.9486
5603000000.0 -0.9635 -0.3511
5606000000.0 -0.8612 0.485
5609000000.0 -0.1418 0.9604
5612000000.0 0.6228 0.7162
5616000000.0 0.9683 -0.02445
5619000000.0 0.5458 -0.7423
5622000000.0 -0.2008 -0.9101
5625000000.0 -0.833 -0.3946
5628000000.0 -0.8391 0.3699
5631000000.0 -0.2202 0.8808
5634000000.0 0.5455 0.7319
5638000000.0 0.9032 0.0113
5641000000.0 0.5637 -0.6794
5644000000.0 -0.1333 -0.8751
5647000000.0 -0.7755 -0.4202
5650000000.0 -0.8054 0.3343
5653000000.0 -0.2081 0.8344
5656000000.0 0.5157 0.7265
5659000000.0 0.8447 0.03023
5662000000.0 0.574 -0.6798
5666000000.0 -0.1465 -0.8521
5669000000.0 -0.7928 -0.3866
5672000000.0 -0.8074 0.3305
5675000000.0 -0.2248 0.8381
5678000000.0 0.5226 0.7095
5681000000.0 0.8635 0.005769
5684000000.0 0.5753 -0.711
5688000000.0 -0.1826 -0.8838
5691000000.0 -0.7831 -0.4302
5694000000.0 -0.8412 0.3875
5697000000.0 -0.2059 0.9023
5700000000.0 0.561 0.7454
5703000000.0 0.9305 0.01222
5706000000.0 0.6117 -0.7038
5709000000.0 -0.1699 -0.9637
5712000000.0 -0.8464 -0.431
5716000000.0 -0.9041 0.3815
5719000000.0 -0.2609 0.9773
5722000000.0 0.5646 0.8139
5725000000.0 0.9946 0.05645
5728000000.0 0.7295 -0.7246
5731000000.0 -0.1421 -1.023
5734000000.0 -0.8615 -0.5524
5738000000.0 -0.9788 0.299
5741000000.0 -0.3588 0.9977
5744000000.0 0.5044 0.9388
5747000000.0 1.043 0.1851
5750000000.0 0.8423 -0.6963
5753000000.0 -0.02095 -1.079
5756000000.0 -0.7984 -0.6802
5759000000.0 -1.089 0.1915
5762000000.0 -0.5342 0.9109
5766000000.0 0.3901 1.011
5769000000.0 1.064 0.3572
5772000000.0 0.9594 -0.5779
5775000000.0 0.2159 -1.066
5778000000.0 -0.7166 -0.8103
5781000000.0 -1.081 0.04087
5784000000.0 -0.7006 0.8348
5788000000.0 0.2443 1.089
5791000000.0 0.976 0.5164
5794000000.0 1.04 -0.414
5797000000.0 0.3407 -1.031
5800000000.0 -0.5532 -0.9479
5803000000.0 -1.075 -0.1609
5806000000.0 -0.781 0.7491
5809000000.0 0.06148 1.088
5812000000.0 0.8643 0.6322
5816000000.0 1.069 -0.281
5819000000.0 0.4402 -0.9462
5822000000.0 -0.4141 -0.9674
5825000000.0 -1.047 -0.2504
5828000000.0 -0.8457 0.6121
5831000000.0 -0.106 1.008
5834000000.0 0.7289 0.7068
5838000000.0 1.058 -0.1419
5841000000.0 0.5673 -0.8545
5844000000.0 -0.284 -0.9442
5847000000.0 -0.978 -0.3709
5850000000.0 -0.8822 0.5109
5853000000.0 -0.168 0.9996
5856000000.0 0.6243 0.7382
5859000000.0 0.9534 -0.05447
5862000000.0 0.5426 -0.7866
5866000000.0 -0.2295 -0.9392
5869000000.0 -0.9132 -0.3975
5872000000.0 -0.8217 0.4316
5875000000.0 -0.1801 0.9159
5878000000.0 0.5721 0.6999
5881000000.0 0.8795 -0.03065
5884000000.0 0.5382 -0.6859
5888000000.0 -0.1913 -0.866
5891000000.0 -0.8097 -0.3886
5894000000.0 -0.8192 0.3764
5897000000.0 -0.1803 0.891
5900000000.0 0.5539 0.7087
5903000000.0 0.8524 0.008254
5906000000.0 0.5384 -0.6445
5909000000.0 -0.1872 -0.8411
5912000000.0 -0.7707 -0.3972
5916000000.0 -0.8012 0.3562
5919000000.0 -0.2305 0.8308
5922000000.0 0.5041 0.6877
5925000000.0 0.8876 0.08649
5928000000.0 0.5702 -0.6267
5931000000.0 -0.09409 -0.8988
5934000000.0 -0.7205 -0.4655
5938000000.0 -0.8182 0.2825
5941000000.0 -0.3064 0.8325
5944000000.0 0.4139 0.7714
5947000000.0 0.8489 0.1802
5950000000.0 0.6647 -0.5905
5953000000.0 0.004335 -0.8625
5956000000.0 -0.6736 -0.557
5959000000.0 -0.8814 0.1724
5962000000.0 -0.4394 0.755
5966000000.0 0.3203 0.8283
5969000000.0 0.8322 0.3191
5972000000.0 0.8007 -0.4729
5975000000.0 0.1141 -0.9161
5978000000.0 -0.6163 -0.7104
5981000000.0 -0.916 0.05167
5984000000.0 -0.5844 0.7196
5988000000.0 0.1706 0.9165
5991000000.0 0.8523 0.4556
5994000000.0 0.8906 -0.3636
5997000000.0 0.2848 -0.8938
6000000000.0 -0.5336 -0.841
6003000000.0 -0.969 -0.1169
6006000000.0 -0.7158 0.6618
6009000000.0 0.07143 1.017
6012000000.0 0.7898 0.5907
6016000000.0 0.9558 -0.2691
6019000000.0 0.3996 -0.8701
6022000000.0 -0.4332 -0.9125
6025000000.0 -0.993 -0.2356
6028000000.0 -0.802 0.5761
6031000000.0 -0.06898 0.9855
6034000000.0 0.746 0.6751
6038000000.0 0.9943 -0.1131
6041000000.0 0.5345 -0.8274
6044000000.0 -0.2976 -0.9266
6047000000.0 -0.9359 -0.3616
6050000000.0 -0.8354 0.496
6053000000.0 -0.1686 0.9886
6056000000.0 0.6257 0.6995
6059000000.0 0.9866 -0.0389
6062000000.0 0.5775 -0.7679
6066000000.0 -0.2724 -0.9152
6069000000.0 -0.8883 -0.3764
6072000000.0 -0.8709 0.4413
6075000000.0 -0.1915 0.9162
6078000000.0 0.5995 0.7254
6081000000.0 0.9187 0.01895
6084000000.0 0.5789 -0.7079
6088000000.0 -0.1768 -0.8884
6091000000.0 -0.8219 -0.4198
6094000000.0 -0.8078 0.3763
6097000000.0 -0.2163 0.8494
6100000000.0 0.511 0.707
6103000000.0 0.8499 0.03556
6106000000.0 0.5544 -0.6464
6109000000.0 -0.1483 -0.8454
6112000000.0 -0.7557 -0.4316
6116000000.0 -0.7983 0.3259
6119000000.0 -0.2723 0.8455
6122000000.0 0.4826 0.7149
6125000000.0 0.879 0.02054
6128000000.0 0.5991 -0.6184
6131000000.0 -0.1047 -0.8422
6134000000.0 -0.7055 -0.4338
6138000000.0 -0.7813 0.2886
6141000000.0 -0.2685 0.8107
6144000000.0 0.4459 0.6904
6147000000.0 0.8389 0.09847
6150000000.0 0.6236 -0.5731
6153000000.0 -0.08095 -0.8461
6156000000.0 -0.6686 -0.4907
6159000000.0 -0.834 0.2504
6162000000.0 -0.3523 0.7947
6166000000.0 0.4321 0.7626
6169000000.0 0.8869 0.134
6172000000.0 0.6739 -0.5577
6175000000.0 -0.009435 -0.8648
6178000000.0 -0.733 -0.5714
6181000000.0 -0.9056 0.231
6184000000.0 -0.44 0.8047
6188000000.0 0.3862 0.8233
6191000000.0 0.8768 0.2454
6194000000.0 0.7325 -0.5334
6197000000.0 0.07728 -0.897
6200000000.0 -0.6699 -0.6147
6203000000.0 -0.9097 0.1445
6206000000.0 -0.4682 0.7876
6209000000.0 0.2754 0.851
6212000000.0 0.8283 0.3322
6216000000.0 0.784 -0.4622
6219000000.0 0.1386 -0.91
6222000000.0 -0.59 -0.6812
6225000000.0 -0.935 0.008885
6228000000.0 -0.5548 0.6978
6231000000.0 0.1701 0.9011
6234000000.0 0.7904 0.4311
6238000000.0 0.8176 -0.3459
6241000000.0 0.2551 -0.8502
6244000000.0 -0.4749 -0.7487
6247000000.0 -0.8371 -0.09482
6250000000.0 -0.6109 0.5999
6253000000.0 0.07006 0.8613
6256000000.0 0.7234 0.4713
6259000000.0 0.8101 -0.2107
6262000000.0 0.3529 -0.748
6266000000.0 -0.3328 -0.7191
