! Created with skrf 1.8.0 (http://scikit-rf.org).
# Hz S RI R 50.0 
!freq ReS11 ImS11
4000000000.0 -0.1398 -1.502
4003000000.0 -1.261 -0.797
4006000000.0 -1.451 0.4294
4009000000.0 -0.531 1.437
4012000000.0 0.7794 1.296
4016000000.0 1.562 0.2266
4019000000.0 1.131 -1.02
4022000000.0 -0.07482 -1.552
4025000000.0 -1.224 -0.8921
4028000000.0 -1.523 0.4724
4031000000.0 -0.6261 1.525
4034000000.0 0.7892 1.405
4038000000.0 1.597 0.2435
4041000000.0 1.238 -1.091
4044000000.0 -0.08436 -1.585
4047000000.0 -1.33 -0.9487
4050000000.0 -1.58 0.4854
4053000000.0 -0.6524 1.5
4056000000.0 0.7348 1.402
4059000000.0 1.557 0.3583
4062000000.0 1.253 -0.9991
4066000000.0 0.04708 -1.621
4069000000.0 -1.248 -1.065
4072000000.0 -1.613 0.2322
4075000000.0 -0.8267 1.371
4078000000.0 0.5404 1.557
4081000000.0 1.528 0.5535
4084000000.0 1.436 -0.7762
4088000000.0 0.2996 -1.643
4091000000.0 -1.114 -1.245
4094000000.0 -1.673 0.06274
4097000000.0 -0.9923 1.301
4100000000.0 0.3506 1.587
4103000000.0 1.426 0.7283
4106000000.0 1.446 -0.6525
4109000000.0 0.4859 -1.473
4112000000.0 -0.8779 -1.244
4116000000.0 -1.469 -0.1955
4119000000.0 -1.163 0.993
4122000000.0 0.00729 1.493
4125000000.0 1.13 0.9391
4128000000.0 1.491 -0.2142
4131000000.0 0.7656 -1.267
4134000000.0 -0.4221 -1.389
4138000000.0 -1.366 -0.6125
4141000000.0 -1.363 0.6435
4144000000.0 -0.373 1.45
4147000000.0 0.8694 1.278
4150000000.0 1.519 0.1492
4153000000.0 1.065 -1.078
4156000000.0 -0.1202 -1.512
4159000000.0 -1.224 -0.8937
4162000000.0 -1.465 0.3277
4166000000.0 -0.6261 1.35
4169000000.0 0.6064 1.407
4172000000.0 1.459 0.4307
4175000000.0 1.255 -0.8579
4178000000.0 0.1751 -1.514
4181000000.0 -0.9812 -1.086
4184000000.0 -1.524 0.07513
4188000000.0 -0.9297 1.221
4191000000.0 0.3809 1.483
4194000000.0 1.37 0.6904
4197000000.0 1.443 -0.6381
4200000000.0 0.4328 -1.492
4203000000.0 -0.9485 -1.275
4206000000.0 -1.623 -0.08063
4209000000.0 -1.069 1.261
4212000000.0 0.3319 1.611
4216000000.0 1.517 0.7239
4219000000.0 1.553 -0.7348
4222000000.0 0.3269 -1.637
4225000000.0 -1.119 -1.284
4228000000.0 -1.699 0.08397
4231000000.0 -0.9161 1.381
4234000000.0 0.5258 1.549
4238000000.0 1.566 0.5297
4241000000.0 1.369 -0.9163
4244000000.0 0.09005 -1.612
4247000000.0 -1.195 -1.071
4250000000.0 -1.539 0.3208
4253000000.0 -0.7147 1.378
4256000000.0 0.675 1.391
4259000000.0 1.497 0.3151
4262000000.0 1.132 -0.9652
4266000000.0 -0.09004 -1.526
4269000000.0 -1.206 -0.8673
4272000000.0 -1.437 0.4017
4275000000.0 -0.5525 1.398
4278000000.0 0.7491 1.253
4281000000.0 1.426 0.1872
4284000000.0 1.044 -0.9904
4288000000.0 -0.1224 -1.399
4291000000.0 -1.163 -0.751
4294000000.0 -1.273 0.4128
4297000000.0 -0.4863 1.248
4300000000.0 0.6135 1.146
4303000000.0 1.277 0.2595
4306000000.0 1.019 -0.8394
4309000000.0 0.05134 -1.284
4312000000.0 -0.9672 -0.8792
4316000000.0 -1.26 0.1975
4319000000.0 -0.7143 1.118
4322000000.0 0.404 1.223
4325000000.0 1.186 0.4871
4328000000.0 1.194 -0.5809
4331000000.0 0.2975 -1.318
4334000000.0 -0.8136 -1.072
4338000000.0 -1.344 -0.07367
4341000000.0 -0.9443 1.012
4344000000.0 0.1921 1.382
4347000000.0 1.253 0.7435
4350000000.0 1.374 -0.4821
4353000000.0 0.5147 -1.352
4356000000.0 -0.7141 -1.258
4359000000.0 -1.428 -0.2764
4362000000.0 -1.104 0.9089
4366000000.0 0.007058 1.458
4369000000.0 1.131 0.9646
4372000000.0 1.464 -0.2719
4375000000.0 0.7035 -1.288
4378000000.0 -0.5023 -1.396
4381000000.0 -1.451 -0.4658
4384000000.0 -1.294 0.7877
4388000000.0 -0.1782 1.512
4391000000.0 1.064 1.139
4394000000.0 1.576 -0.1181
4397000000.0 0.8796 -1.311
4400000000.0 -0.456 -1.514
4403000000.0 -1.455 -0.5578
4406000000.0 -1.366 0.8159
4409000000.0 -0.1967 1.578
4412000000.0 1.126 1.135
4416000000.0 1.559 -0.1648
4419000000.0 0.8026 -1.326
4422000000.0 -0.5243 -1.409
4425000000.0 -1.445 -0.4498
4428000000.0 -1.221 0.8273
4431000000.0 -0.1314 1.459
4434000000.0 1.074 1.008
4438000000.0 1.39 -0.2532
4441000000.0 0.6622 -1.265
4444000000.0 -0.5506 -1.262
4447000000.0 -1.32 -0.3273
4450000000.0 -1.047 0.8187
4453000000.0 0.02349 1.299
4456000000.0 1.066 0.8098
4459000000.0 1.264 -0.35
4462000000.0 0.4871 -1.22
4466000000.0 -0.6204 -1.09
4469000000.0 -1.234 -0.166
4472000000.0 -0.8634 0.8547
4475000000.0 0.1465 1.209
4478000000.0 1.003 0.6112
4481000000.0 1.088 -0.4103
4484000000.0 0.3714 -1.094
4488000000.0 -0.641 -0.9669
4491000000.0 -1.159 -0.08749
4494000000.0 -0.7617 0.821
4497000000.0 0.1714 1.138
4500000000.0 0.956 0.558
4503000000.0 1.011 -0.3997
4506000000.0 0.3528 -1.045
4509000000.0 -0.609 -0.9089
4512000000.0 -1.11 -0.1049
4516000000.0 -0.7576 0.7958
4519000000.0 0.1424 1.124
4522000000.0 0.926 0.601
4525000000.0 1.127 -0.3363
4528000000.0 0.4198 -1.09
4531000000.0 -0.5457 -1.01
4534000000.0 -1.156 -0.1953
4538000000.0 -0.9159 0.7623
4541000000.0 -0.001877 1.193
4544000000.0 0.9116 0.7499
4547000000.0 1.155 -0.221
4550000000.0 0.5542 -1.041
4553000000.0 -0.4258 -1.132
4556000000.0 -1.114 -0.4093
4559000000.0 -1.045 0.6197
4562000000.0 -0.1813 1.217
4566000000.0 0.8256 0.9328
4569000000.0 1.272 -0.03571
4572000000.0 0.8028 -1.007
4575000000.0 -0.2427 -1.279
4578000000.0 -1.143 -0.6191
4581000000.0 -1.201 0.4969
4584000000.0 -0.3953 1.291
4588000000.0 0.7175 1.124
4591000000.0 1.346 0.1628
4594000000.0 1.023 -0.9353
4597000000.0 -0.07988 -1.359
4600000000.0 -1.116 -0.8121
4603000000.0 -1.374 0.3405
4606000000.0 -0.6038 1.289
4609000000.0 0.5883 1.246
4612000000.0 1.331 0.3342
4616000000.0 1.111 -0.864
4619000000.0 0.08271 -1.39
4622000000.0 -1.036 -0.9304
4625000000.0 -1.356 0.2618
4628000000.0 -0.6751 1.215
4631000000.0 0.5277 1.282
4634000000.0 1.284 0.4358
4638000000.0 1.167 -0.7675
4641000000.0 0.1215 -1.366
4644000000.0 -0.9909 -0.9533
4647000000.0 -1.363 0.1977
4650000000.0 -0.688 1.125
4653000000.0 0.4792 1.208
4656000000.0 1.25 0.3992
4659000000.0 1.055 -0.7092
4662000000.0 0.09859 -1.285
4666000000.0 -0.9236 -0.8218
4669000000.0 -1.176 0.2123
4672000000.0 -0.5972 1.059
4675000000.0 0.4412 1.067
4678000000.0 1.101 0.3332
4681000000.0 0.9504 -0.6592
4684000000.0 0.04683 -1.14
4688000000.0 -0.8587 -0.7602
4691000000.0 -1.071 0.1697
4694000000.0 -0.5603 0.9605
4697000000.0 0.4414 1.024
4700000000.0 1.07 0.3097
4703000000.0 0.8738 -0.6492
4706000000.0 0.1047 -1.052
4709000000.0 -0.8159 -0.7337
4712000000.0 -1.031 0.231
4716000000.0 -0.5053 0.9558
4719000000.0 0.4561 0.9972
4722000000.0 1.037 0.2633
4725000000.0 0.8304 -0.6191
4728000000.0 0.04577 -1.03
4731000000.0 -0.7975 -0.6552
4734000000.0 -0.9941 0.1571
4738000000.0 -0.5347 0.9157
4741000000.0 0.3695 0.9736
4744000000.0 0.9664 0.3703
4747000000.0 0.9003 -0.5501
4750000000.0 0.1728 -1.062
4753000000.0 -0.7157 -0.8071
4756000000.0 -1.076 0.0223
4759000000.0 -0.69 0.8779
4762000000.0 0.2462 1.085
4766000000.0 0.9989 0.4918
4769000000.0 1.039 -0.4537
4772000000.0 0.3616 -1.086
4775000000.0 -0.6184 -0.9502
4778000000.0 -1.189 -0.158
4781000000.0 -0.8362 0.8025
4784000000.0 0.06272 1.183
4788000000.0 0.9467 0.7205
4791000000.0 1.174 -0.251
4794000000.0 0.545 -1.104
4797000000.0 -0.473 -1.173
4800000000.0 -1.195 -0.3878
4803000000.0 -1.046 0.6629
4806000000.0 -0.1606 1.237
4809000000.0 0.8354 0.9369
4812000000.0 1.274 -0.03303
4816000000.0 0.8038 -1.016
4819000000.0 -0.2633 -1.311
4822000000.0 -1.172 -0.6393
4825000000.0 -1.239 0.5299
4828000000.0 -0.3767 1.289
4831000000.0 0.7698 1.149
4834000000.0 1.402 0.1429
4838000000.0 0.9843 -0.9636
4841000000.0 -0.1309 -1.378
4844000000.0 -1.152 -0.792
4847000000.0 -1.343 0.3798
4850000000.0 -0.5325 1.281
4853000000.0 0.6619 1.214
4856000000.0 1.356 0.2552
4859000000.0 1.038 -0.8843
4862000000.0 -0.01153 -1.373
4866000000.0 -1.024 -0.8281
4869000000.0 -1.316 0.3047
4872000000.0 -0.5978 1.201
4875000000.0 0.522 1.203
4878000000.0 1.276 0.3172
4881000000.0 1.037 -0.7458
4884000000.0 0.09371 -1.278
4888000000.0 -0.9275 -0.8367
4891000000.0 -1.191 0.1888
4894000000.0 -0.5954 1.054
4897000000.0 0.4583 1.074
4900000000.0 1.099 0.3385
4903000000.0 0.9207 -0.6146
4906000000.0 0.1102 -1.093
4909000000.0 -0.7841 -0.7486
4912000000.0 -1.046 0.1169
4916000000.0 -0.5213 0.8727
4919000000.0 0.306 0.9698
4922000000.0 0.9167 0.3488
4925000000.0 0.851 -0.4934
4928000000.0 0.1536 -0.9664
4931000000.0 -0.6275 -0.732
4934000000.0 -0.9624 0.02839
4938000000.0 -0.5842 0.733
4941000000.0 0.1972 0.8942
4944000000.0 0.8378 0.4191
4947000000.0 0.8737 -0.3961
4950000000.0 0.2407 -0.919
4953000000.0 -0.5929 -0.7424
4956000000.0 -0.9554 -0.04689
4959000000.0 -0.661 0.7434
4962000000.0 0.1519 0.9722
4966000000.0 0.8646 0.4958
4969000000.0 0.9446 -0.3391
4972000000.0 0.3128 -0.9412
4975000000.0 -0.5459 -0.8416
4978000000.0 -1.011 -0.1096
4981000000.0 -0.7706 0.7173
4984000000.0 0.05498 1.017
4988000000.0 0.851 0.6184
4991000000.0 1.018 -0.266
4994000000.0 0.482 -0.9567
4997000000.0 -0.4315 -0.9996
5000000000.0 -1.078 -0.309
5003000000.0 -0.9457 0.6499
5006000000.0 -0.0924 1.188
5009000000.0 0.839 0.8394
5012000000.0 1.195 -0.1025
5016000000.0 0.6637 -1.01
5019000000.0 -0.3783 -1.197
5022000000.0 -1.168 -0.468
5025000000.0 -1.098 0.6107
5028000000.0 -0.2587 1.249
5031000000.0 0.8191 1.003
5034000000.0 1.291 0.01705
5038000000.0 0.8097 -0.9816
5041000000.0 -0.2144 -1.226
5044000000.0 -1.104 -0.6597
5047000000.0 -1.218 0.4549
5050000000.0 -0.4172 1.192
5053000000.0 0.6288 1.087
5056000000.0 1.271 0.1921
5059000000.0 0.9818 -0.8568
5062000000.0 -0.05394 -1.291
5066000000.0 -1.01 -0.7923
5069000000.0 -1.264 0.244
5072000000.0 -0.6048 1.125
5075000000.0 0.4781 1.21
5078000000.0 1.227 0.3584
5081000000.0 1.027 -0.7008
5084000000.0 0.1243 -1.282
5088000000.0 -0.8562 -0.9133
5091000000.0 -1.208 0.06345
5094000000.0 -0.7123 0.9591
5097000000.0 0.2756 1.154
5100000000.0 1.063 0.5236
5103000000.0 1.046 -0.4671
5106000000.0 0.3164 -1.068
5109000000.0 -0.5859 -0.9596
5112000000.0 -1.051 -0.1216
5116000000.0 -0.79 0.7332
5119000000.0 0.05264 1.1
5122000000.0 0.8288 0.6432
5125000000.0 1.01 -0.2593
5128000000.0 0.4429 -0.9427
5131000000.0 -0.4243 -0.9678
5134000000.0 -0.9688 -0.2336
5138000000.0 -0.8095 0.5531
5141000000.0 -0.08702 0.9466
5144000000.0 0.7073 0.6432
5147000000.0 0.9196 -0.1307
5150000000.0 0.4915 -0.7906
5153000000.0 -0.3106 -0.8961
5156000000.0 -0.8694 -0.3487
5159000000.0 -0.7847 0.4609
5162000000.0 -0.1867 0.8783
5166000000.0 0.5966 0.7002
5169000000.0 0.902 -0.05264
5172000000.0 0.528 -0.7495
5175000000.0 -0.2218 -0.8746
5178000000.0 -0.8429 -0.3861
5181000000.0 -0.8373 0.3914
5184000000.0 -0.1598 0.8877
5188000000.0 0.5875 0.7048
5191000000.0 0.9503 -0.03918
5194000000.0 0.5822 -0.7423
5197000000.0 -0.2375 -0.898
5200000000.0 -0.895 -0.4365
5203000000.0 -0.8524 0.4395
5206000000.0 -0.193 0.909
5209000000.0 0.5826 0.7685
5212000000.0 0.9546 -0.01635
5216000000.0 0.6184 -0.7651
5219000000.0 -0.2102 -0.9744
5222000000.0 -0.8993 -0.4443
5225000000.0 -0.9033 0.3881
5228000000.0 -0.2721 0.9947
5231000000.0 0.5606 0.8247
5234000000.0 1.035 0.08724
5238000000.0 0.7274 -0.771
5241000000.0 -0.1074 -1.04
5244000000.0 -0.8863 -0.5713
5247000000.0 -1.007 0.3234
5250000000.0 -0.393 0.9966
5253000000.0 0.5116 0.9453
5256000000.0 1.051 0.2136
5259000000.0 0.8265 -0.6816
5262000000.0 0.03858 -1.067
5266000000.0 -0.8081 -0.7066
5269000000.0 -1.098 0.1775
5272000000.0 -0.5742 0.9207
5275000000.0 0.3589 1.047
5278000000.0 0.9993 0.4054
5281000000.0 0.9828 -0.5287
5284000000.0 0.2326 -1.08
5288000000.0 -0.6434 -0.8857
5291000000.0 -1.096 -0.0551
5294000000.0 -0.7684 0.8285
5297000000.0 0.1106 1.109
5300000000.0 0.9149 0.6578
5303000000.0 1.074 -0.2757
5306000000.0 0.4969 -1.022
5309000000.0 -0.4991 -1.061
5312000000.0 -1.117 -0.3078
5316000000.0 -0.9413 0.63
5319000000.0 -0.1028 1.15
5322000000.0 0.7957 0.8142
5325000000.0 1.141 -0.1293
5328000000.0 0.6441 -0.9562
5331000000.0 -0.3001 -1.105
5334000000.0 -1.08 -0.4729
5338000000.0 -1.047 0.4834
5341000000.0 -0.2651 1.101
5344000000.0 0.6638 0.8894
5347000000.0 1.105 0.06632
5350000000.0 0.7555 -0.7829
5353000000.0 -0.1422 -1.094
5356000000.0 -0.9209 -0.5773
5359000000.0 -1.024 0.3821
5362000000.0 -0.3541 1.033
5366000000.0 0.561 0.925
5369000000.0 1.045 0.1497
5372000000.0 0.7418 -0.7186
5375000000.0 -0.09786 -1.027
5378000000.0 -0.8743 -0.5782
5381000000.0 -0.976 0.308
5384000000.0 -0.3467 0.9659
5388000000.0 0.5199 0.872
5391000000.0 0.9587 0.08975
5394000000.0 0.6868 -0.6783
5397000000.0 -0.1096 -0.9578
5400000000.0 -0.7653 -0.4785
5403000000.0 -0.8698 0.3025
5406000000.0 -0.2871 0.859
5409000000.0 0.4844 0.7583
5412000000.0 0.8613 0.09257
5416000000.0 0.5897 -0.609
5419000000.0 -0.09416 -0.8517
5422000000.0 -0.731 -0.4508
5425000000.0 -0.8178 0.3062
5428000000.0 -0.2808 0.843
5431000000.0 0.4628 0.7123
5434000000.0 0.8465 0.09411
5438000000.0 0.6054 -0.6372
5441000000.0 -0.09852 -0.862
5444000000.0 -0.781 -0.4601
5447000000.0 -0.8531 0.2915
5450000000.0 -0.2924 0.836
5453000000.0 0.4876 0.7573
5456000000.0 0.9236 0.0908
5459000000.0 0.6516 -0.6326
5462000000.0 -0.04776 -0.9242
5466000000.0 -0.7228 -0.5101
5469000000.0 -0.9096 0.2201
5472000000.0 -0.3865 0.8329
5475000000.0 0.4016 0.8303
5478000000.0 0.9248 0.201
5481000000.0 0.7725 -0.5246
5484000000.0 0.07196 -0.9884
5488000000.0 -0.6637 -0.6677
5491000000.0 -0.9696 0.1176
5494000000.0 -0.5768 0.792
5497000000.0 0.2907 0.972
5500000000.0 0.9377 0.3903
5503000000.0 0.8978 -0.4528
5506000000.0 0.2763 -0.9716
5509000000.0 -0.6016 -0.8529
5512000000.0 -1.035 -0.06547
5516000000.0 -0.7231 0.7538
5519000000.0 0.1406 1.036
5522000000.0 0.849 0.5786
5525000000.0 0.9974 -0.2759
5528000000.0 0.4403 -0.9408
5531000000.0 -0.454 -0.9695
5534000000.0 -1.018 -0.2688
5538000000.0 -0.8475 0.6372
5541000000.0 -0.1099 1.058
5544000000.0 0.7343 0.7427
5547000000.0 1.069 -0.0735
5550000000.0 0.6278 -0.8717
5553000000.0 -0.2992 -0.9952
5556000000.0 -0.9482 -0.4286
5559000000.0 -0.9808 0.4841
5562000000.0 -0.2812 1.017
5566000000.0 0.6175 0.8049
5569000000.0 1.019 0.04806
5572000000.0 0.713 -0.7519
5575000000.0 -0.1127 -1.017
5578000000.0 -0.8442 -0.5238
5581000000.0 -0.9524 0.3257
5584000000.0 -0.3708 0.9022
5588000000.0 0.4981 0.8399
5591000000.0 0.9244 0.1723
5594000000.0 0.7168 -0.6399
5597000000.0 -0.02189 -0.9559
5600000000.0 -0.7218 -0.5698
5603000000.0 -0.9299 0.1777
5606000000.0 -0.4102 0.8102
5609000000.0 0.3389 0.8286
5612000000.0 0.8628 0.236
5616000000.0 0.7273 -0.5033
5619000000.0 0.05505 -0.8674
5622000000.0 -0.6375 -0.5769
5625000000.0 -0.8478 0.1145
5628000000.0 -0.4377 0.7537
5631000000.0 0.3187 0.8031
5634000000.0 0.8194 0.2681
5638000000.0 0.6933 -0.432
5641000000.0 0.1067 -0.844
5644000000.0 -0.5818 -0.5875
5647000000.0 -0.8349 0.1108
5650000000.0 -0.448 0.7188
5653000000.0 0.2775 0.8036
5656000000.0 0.8121 0.2693
5659000000.0 0.723 -0.4609
5662000000.0 0.08657 -0.8615
5666000000.0 -0.6229 -0.6316
5669000000.0 -0.8592 0.08862
5672000000.0 -0.463 0.7544
5675000000.0 0.2936 0.865
5678000000.0 0.8552 0.3021
5681000000.0 0.7362 -0.4778
5684000000.0 0.1295 -0.9076
5688000000.0 -0.6688 -0.6745
5691000000.0 -0.9168 0.08559
5694000000.0 -0.5284 0.8063
5697000000.0 0.275 0.9123
5700000000.0 0.9066 0.374
5703000000.0 0.891 -0.4933
5706000000.0 0.1897 -0.958
5709000000.0 -0.67 -0.7788
5712000000.0 -1.03 0.02952
5716000000.0 -0.6373 0.8361
5719000000.0 0.2279 1.017
5722000000.0 0.9505 0.4534
5725000000.0 0.9529 -0.3994
5728000000.0 0.3089 -1.04
5731000000.0 -0.5643 -0.8858
5734000000.0 -1.062 -0.1186
5738000000.0 -0.7835 0.7463
5741000000.0 0.0728 1.077
5744000000.0 0.883 0.6457
5747000000.0 1.081 -0.2628
5750000000.0 0.4602 -0.9983
5753000000.0 -0.4521 -1.024
5756000000.0 -1.083 -0.2883
5759000000.0 -0.9011 0.6467
5762000000.0 -0.06962 1.089
5766000000.0 0.8107 0.7594
5769000000.0 1.088 -0.1334
5772000000.0 0.6099 -0.9103
5775000000.0 -0.3375 -1.091
5778000000.0 -1.0 -0.4443
5781000000.0 -0.9883 0.4792
5784000000.0 -0.2592 1.074
5788000000.0 0.6509 0.8594
5791000000.0 1.086 0.06893
5794000000.0 0.7297 -0.8015
5797000000.0 -0.1701 -1.08
5800000000.0 -0.8883 -0.5876
5803000000.0 -0.9718 0.331
5806000000.0 -0.3664 0.9837
5809000000.0 0.5204 0.9134
5812000000.0 1.024 0.1904
5816000000.0 0.8436 -0.6768
5819000000.0 -0.03726 -1.05
5822000000.0 -0.784 -0.6369
5825000000.0 -0.9961 0.2134
5828000000.0 -0.4666 0.887
5831000000.0 0.3929 0.9098
5834000000.0 0.9337 0.2716
5838000000.0 0.8364 -0.5403
5841000000.0 0.06844 -0.9587
5844000000.0 -0.7004 -0.6502
5847000000.0 -0.955 0.1222
5850000000.0 -0.4826 0.799
5853000000.0 0.286 0.8833
5856000000.0 0.8916 0.3119
5859000000.0 0.7848 -0.5067
5862000000.0 0.1187 -0.9113
5866000000.0 -0.6098 -0.662
5869000000.0 -0.9382 0.08765
5872000000.0 -0.4984 0.7488
5875000000.0 0.2582 0.858
5878000000.0 0.8151 0.3335
5881000000.0 0.7678 -0.4622
5884000000.0 0.1175 -0.898
5888000000.0 -0.5816 -0.6381
5891000000.0 -0.8829 0.08833
5894000000.0 -0.5035 0.7196
5897000000.0 0.2555 0.7926
5900000000.0 0.7767 0.3363
5903000000.0 0.7999 -0.395
5906000000.0 0.1712 -0.8462
5909000000.0 -0.5096 -0.672
5912000000.0 -0.8834 -0.0132
5916000000.0 -0.5301 0.67
5919000000.0 0.1768 0.8436
5922000000.0 0.7846 0.389
5925000000.0 0.7848 -0.3224
5928000000.0 0.2577 -0.8446
5931000000.0 -0.4667 -0.735
5934000000.0 -0.8553 -0.08946
5938000000.0 -0.5938 0.5932
5941000000.0 0.06049 0.8845
5944000000.0 0.7211 0.5059
5947000000.0 0.8775 -0.2519
5950000000.0 0.3928 -0.8358
5953000000.0 -0.4145 -0.852
5956000000.0 -0.8744 -0.2099
5959000000.0 -0.7592 0.5297
5962000000.0 -0.06356 0.9151
5966000000.0 0.6555 0.6581
5969000000.0 0.932 -0.08765
5972000000.0 0.5641 -0.7526
5975000000.0 -0.2702 -0.8938
5978000000.0 -0.8813 -0.3859
5981000000.0 -0.8763 0.4241
5984000000.0 -0.2392 0.9707
5988000000.0 0.5859 0.7971
5991000000.0 1.01 0.06842
5994000000.0 0.6762 -0.7354
5997000000.0 -0.1188 -0.9927
6000000000.0 -0.8505 -0.5581
6003000000.0 -0.95 0.2939
6006000000.0 -0.3757 0.9126
6009000000.0 0.462 0.8789
6012000000.0 0.9674 0.1735
6016000000.0 0.747 -0.6613
6019000000.0 -0.005318 -0.9732
6022000000.0 -0.7825 -0.6383
6025000000.0 -0.9616 0.216
6028000000.0 -0.4711 0.8598
6031000000.0 0.359 0.9255
6034000000.0 0.9501 0.2876
6038000000.0 0.8062 -0.5714
6041000000.0 0.08854 -0.9895
6044000000.0 -0.6849 -0.6498
6047000000.0 -0.9559 0.1166
6050000000.0 -0.5054 0.8089
6053000000.0 0.2943 0.904
6056000000.0 0.8862 0.3224
6059000000.0 0.8011 -0.4842
6062000000.0 0.1203 -0.9201
6066000000.0 -0.6457 -0.6658
6069000000.0 -0.8923 0.05252
6072000000.0 -0.4721 0.7347
6075000000.0 0.2401 0.8797
6078000000.0 0.8039 0.3399
6081000000.0 0.7516 -0.3939
6084000000.0 0.1601 -0.8515
6088000000.0 -0.569 -0.6685
6091000000.0 -0.8702 0.01686
6094000000.0 -0.5119 0.6532
6097000000.0 0.2021 0.8332
6100000000.0 0.7922 0.3783
6103000000.0 0.7851 -0.3649
6106000000.0 0.2129 -0.8333
6109000000.0 -0.5118 -0.6751
6112000000.0 -0.8654 -0.02686
6116000000.0 -0.5854 0.6705
6119000000.0 0.1518 0.8668
6122000000.0 0.7385 0.3921
6125000000.0 0.8062 -0.3563
6128000000.0 0.2224 -0.843
6131000000.0 -0.5105 -0.7277
6134000000.0 -0.8581 -0.05784
6138000000.0 -0.5985 0.6564
6141000000.0 0.1272 0.8797
6144000000.0 0.7539 0.454
6147000000.0 0.8361 -0.292
6150000000.0 0.3155 -0.8494
6153000000.0 -0.427 -0.7786
6156000000.0 -0.8959 -0.1344
6159000000.0 -0.6438 0.6012
6162000000.0 0.05109 0.8997
6166000000.0 0.7295 0.5241
6169000000.0 0.8967 -0.2564
6172000000.0 0.4148 -0.8261
6175000000.0 -0.4325 -0.8478
6178000000.0 -0.9427 -0.1836
6181000000.0 -0.7501 0.5608
6184000000.0 -0.0228 0.9421
6188000000.0 0.7121 0.6238
6191000000.0 0.9456 -0.1677
6194000000.0 0.4598 -0.8204
6197000000.0 -0.3447 -0.8709
6200000000.0 -0.8932 -0.2979
6203000000.0 -0.8261 0.4533
6206000000.0 -0.1245 0.9191
6209000000.0 0.6613 0.67
6212000000.0 0.9243 -0.05216
6216000000.0 0.5656 -0.7277
6219000000.0 -0.2107 -0.9046
6222000000.0 -0.8224 -0.4155
6225000000.0 -0.8512 0.3727
6228000000.0 -0.2374 0.8449
6231000000.0 0.5314 0.726
6234000000.0 0.9148 0.03948
6238000000.0 0.6011 -0.6503
6241000000.0 -0.09885 -0.8671
6244000000.0 -0.733 -0.4788
6247000000.0 -0.8485 0.287
6250000000.0 -0.3173 0.791
6253000000.0 0.3824 0.7308
6256000000.0 0.8179 0.1824
6259000000.0 0.6634 -0.5111
6262000000.0 0.03342 -0.8538
6266000000.0 -0.5932 -0.5797
6269000000.0 -0.7957 0.1137
