! Created with skrf 1.8.0 (http://scikit-rf.org).
# Hz S RI R 50.0 
!freq ReS11 ImS11
4000000000.0 -0.1834 -1.493
4003000000.0 -1.323 -0.809
4006000000.0 -1.411 0.4796
4009000000.0 -0.4983 1.424
4012000000.0 0.7764 1.324
4016000000.0 1.481 0.2525
4019000000.0 1.105 -1.079
4022000000.0 -0.121 -1.581
4025000000.0 -1.348 -0.8986
4028000000.0 -1.508 0.4817
4031000000.0 -0.5863 1.505
4034000000.0 0.8307 1.355
4038000000.0 1.659 0.2697
4041000000.0 1.213 -1.119
4044000000.0 -0.09731 -1.606
4047000000.0 -1.369 -0.9102
4050000000.0 -1.572 0.4154
4053000000.0 -0.6331 1.487
4056000000.0 0.7442 1.433
4059000000.0 1.588 0.3394
4062000000.0 1.268 -1.021
4066000000.0 0.03915 -1.627
4069000000.0 -1.238 -1.06
4072000000.0 -1.592 0.2552
4075000000.0 -0.8297 1.412
4078000000.0 0.5399 1.553
4081000000.0 1.566 0.5815
4084000000.0 1.439 -0.8394
4088000000.0 0.2862 -1.64
4091000000.0 -1.119 -1.27
4094000000.0 -1.666 0.06584
4097000000.0 -1.044 1.328
4100000000.0 0.3742 1.594
4103000000.0 1.488 0.7191
4106000000.0 1.429 -0.6157
4109000000.0 0.4607 -1.494
4112000000.0 -0.843 -1.317
4116000000.0 -1.53 -0.1867
4119000000.0 -1.154 1.004
4122000000.0 0.02357 1.536
4125000000.0 1.142 0.9888
4128000000.0 1.482 -0.2578
4131000000.0 0.8136 -1.26
4134000000.0 -0.4494 -1.418
4138000000.0 -1.351 -0.5986
4141000000.0 -1.375 0.6229
4144000000.0 -0.3926 1.492
4147000000.0 0.8751 1.264
4150000000.0 1.519 0.137
4153000000.0 1.085 -1.077
4156000000.0 -0.1041 -1.528
4159000000.0 -1.267 -0.9124
4162000000.0 -1.491 0.3631
4166000000.0 -0.6915 1.392
4169000000.0 0.6305 1.408
4172000000.0 1.481 0.3951
4175000000.0 1.268 -0.8436
4178000000.0 0.187 -1.511
4181000000.0 -1.028 -1.071
4184000000.0 -1.5 0.1071
4188000000.0 -0.8932 1.212
4191000000.0 0.3568 1.467
4194000000.0 1.384 0.6644
4197000000.0 1.435 -0.6549
4200000000.0 0.4111 -1.532
4203000000.0 -0.9713 -1.297
4206000000.0 -1.641 -0.04872
4209000000.0 -1.109 1.263
4212000000.0 0.3531 1.663
4216000000.0 1.549 0.7364
4219000000.0 1.535 -0.7224
4222000000.0 0.3416 -1.676
4225000000.0 -1.108 -1.28
4228000000.0 -1.691 0.08206
4231000000.0 -0.9527 1.4
4234000000.0 0.5213 1.589
4238000000.0 1.567 0.533
4241000000.0 1.358 -0.9122
4244000000.0 0.1231 -1.629
4247000000.0 -1.218 -1.065
4250000000.0 -1.553 0.3355
4253000000.0 -0.7072 1.399
4256000000.0 0.6466 1.424
4259000000.0 1.508 0.3342
4262000000.0 1.16 -0.9932
4266000000.0 -0.04683 -1.53
4269000000.0 -1.218 -0.8614
4272000000.0 -1.454 0.4092
4275000000.0 -0.5324 1.385
4278000000.0 0.7976 1.234
4281000000.0 1.447 0.19
4284000000.0 1.031 -0.9644
4288000000.0 -0.1712 -1.42
4291000000.0 -1.115 -0.8071
4294000000.0 -1.289 0.4343
4297000000.0 -0.4532 1.29
4300000000.0 0.6378 1.196
4303000000.0 1.297 0.2378
4306000000.0 1.027 -0.8237
4309000000.0 0.05027 -1.264
4312000000.0 -0.9828 -0.8361
4316000000.0 -1.297 0.1939
4319000000.0 -0.7096 1.081
4322000000.0 0.4328 1.258
4325000000.0 1.233 0.494
4328000000.0 1.22 -0.6364
4331000000.0 0.322 -1.319
4334000000.0 -0.819 -1.063
4338000000.0 -1.36 -0.07721
4341000000.0 -0.9161 1.053
4344000000.0 0.1945 1.41
4347000000.0 1.26 0.743
4350000000.0 1.397 -0.4795
4353000000.0 0.4802 -1.332
4356000000.0 -0.717 -1.277
4359000000.0 -1.412 -0.2339
4362000000.0 -1.084 0.9331
4366000000.0 0.003564 1.5
4369000000.0 1.103 0.9504
4372000000.0 1.471 -0.2626
4375000000.0 0.7129 -1.318
4378000000.0 -0.5322 -1.414
4381000000.0 -1.418 -0.4789
4384000000.0 -1.278 0.7736
4388000000.0 -0.2007 1.594
4391000000.0 1.063 1.122
4394000000.0 1.586 -0.1421
4397000000.0 0.904 -1.318
4400000000.0 -0.4966 -1.537
4403000000.0 -1.497 -0.5637
4406000000.0 -1.388 0.8607
4409000000.0 -0.2407 1.616
4412000000.0 1.101 1.122
4416000000.0 1.556 -0.1523
4419000000.0 0.803 -1.309
4422000000.0 -0.5364 -1.459
4425000000.0 -1.422 -0.4701
4428000000.0 -1.258 0.8392
4431000000.0 -0.1103 1.469
4434000000.0 1.103 0.9839
4438000000.0 1.418 -0.2455
4441000000.0 0.6745 -1.258
4444000000.0 -0.5801 -1.259
4447000000.0 -1.328 -0.3403
4450000000.0 -1.054 0.8499
4453000000.0 0.001835 1.328
4456000000.0 1.069 0.8066
4459000000.0 1.251 -0.3439
4462000000.0 0.5059 -1.176
4466000000.0 -0.639 -1.111
4469000000.0 -1.234 -0.1455
4472000000.0 -0.8578 0.8704
4475000000.0 0.1534 1.21
4478000000.0 1.037 0.5992
4481000000.0 1.094 -0.4156
4484000000.0 0.3678 -1.105
4488000000.0 -0.6512 -0.9427
4491000000.0 -1.174 -0.09504
4494000000.0 -0.7958 0.8283
4497000000.0 0.1691 1.124
4500000000.0 0.9873 0.5552
4503000000.0 1.035 -0.4131
4506000000.0 0.3193 -1.036
4509000000.0 -0.6194 -0.9486
4512000000.0 -1.101 -0.1001
4516000000.0 -0.7848 0.7846
4519000000.0 0.127 1.111
4522000000.0 0.971 0.6069
4525000000.0 1.11 -0.3609
4528000000.0 0.4389 -1.074
4531000000.0 -0.5592 -1.015
4534000000.0 -1.154 -0.2289
4538000000.0 -0.9138 0.7699
4541000000.0 0.0003688 1.224
4544000000.0 0.9476 0.7418
4547000000.0 1.187 -0.2081
4550000000.0 0.5483 -1.059
4553000000.0 -0.4817 -1.142
4556000000.0 -1.154 -0.3956
4559000000.0 -1.055 0.6385
4562000000.0 -0.2028 1.24
4566000000.0 0.8488 0.9295
4569000000.0 1.276 -0.06234
4572000000.0 0.8064 -1.011
4575000000.0 -0.2823 -1.268
4578000000.0 -1.178 -0.6083
4581000000.0 -1.243 0.5083
4584000000.0 -0.4222 1.283
4588000000.0 0.7529 1.122
4591000000.0 1.372 0.1616
4594000000.0 0.9926 -0.9466
4597000000.0 -0.1193 -1.403
4600000000.0 -1.134 -0.8272
4603000000.0 -1.335 0.3616
4606000000.0 -0.5604 1.288
4609000000.0 0.606 1.258
4612000000.0 1.378 0.3129
4616000000.0 1.084 -0.885
4619000000.0 0.03951 -1.408
4622000000.0 -1.082 -0.9255
4625000000.0 -1.385 0.2426
4628000000.0 -0.7031 1.174
4631000000.0 0.5239 1.292
4634000000.0 1.355 0.3986
4638000000.0 1.155 -0.7644
4641000000.0 0.08529 -1.362
4644000000.0 -1.014 -0.9184
4647000000.0 -1.335 0.1756
4650000000.0 -0.6984 1.153
4653000000.0 0.4777 1.235
4656000000.0 1.255 0.3693
4659000000.0 1.106 -0.7341
4662000000.0 0.07617 -1.302
4666000000.0 -0.9236 -0.8652
4669000000.0 -1.227 0.1989
4672000000.0 -0.5971 1.036
4675000000.0 0.4393 1.12
4678000000.0 1.112 0.3378
4681000000.0 0.9404 -0.67
4684000000.0 0.0994 -1.145
4688000000.0 -0.8476 -0.7972
4691000000.0 -1.083 0.1654
4694000000.0 -0.5681 0.9657
4697000000.0 0.4169 1.01
4700000000.0 1.046 0.3138
4703000000.0 0.8907 -0.6415
4706000000.0 0.04701 -1.097
4709000000.0 -0.8311 -0.7107
4712000000.0 -1.053 0.2294
4716000000.0 -0.5143 0.9515
4719000000.0 0.436 0.9965
4722000000.0 1.035 0.2309
4725000000.0 0.858 -0.6243
4728000000.0 0.02402 -1.045
4731000000.0 -0.8227 -0.7029
4734000000.0 -1.054 0.1374
4738000000.0 -0.5015 0.9148
4741000000.0 0.3975 0.9816
4744000000.0 1.006 0.367
4747000000.0 0.9004 -0.5374
4750000000.0 0.1471 -1.05
4753000000.0 -0.7105 -0.817
4756000000.0 -1.092 0.02311
4759000000.0 -0.6803 0.8463
4762000000.0 0.2781 1.072
4766000000.0 1.013 0.518
4769000000.0 1.063 -0.4381
4772000000.0 0.34 -1.11
4775000000.0 -0.6673 -0.9725
4778000000.0 -1.159 -0.1537
4781000000.0 -0.8776 0.8122
4784000000.0 0.05484 1.211
4788000000.0 0.9834 0.7027
4791000000.0 1.211 -0.2766
4794000000.0 0.5685 -1.075
4797000000.0 -0.4699 -1.154
4800000000.0 -1.206 -0.3511
4803000000.0 -1.047 0.6473
4806000000.0 -0.1954 1.257
4809000000.0 0.8525 0.9675
4812000000.0 1.279 -0.05374
4816000000.0 0.8108 -1.02
4819000000.0 -0.2702 -1.309
4822000000.0 -1.189 -0.6117
4825000000.0 -1.252 0.4948
4828000000.0 -0.4132 1.313
4831000000.0 0.764 1.162
4834000000.0 1.422 0.1375
4838000000.0 0.9743 -1.011
4841000000.0 -0.1337 -1.395
4844000000.0 -1.176 -0.7397
4847000000.0 -1.343 0.4086
4850000000.0 -0.5361 1.287
4853000000.0 0.6776 1.237
4856000000.0 1.364 0.2774
4859000000.0 1.05 -0.8904
4862000000.0 -0.01433 -1.38
4866000000.0 -1.067 -0.8644
4869000000.0 -1.336 0.2836
4872000000.0 -0.6037 1.215
4875000000.0 0.5355 1.19
4878000000.0 1.28 0.3566
4881000000.0 1.038 -0.7549
4884000000.0 0.05277 -1.266
4888000000.0 -0.9018 -0.8284
4891000000.0 -1.201 0.2358
4894000000.0 -0.5916 1.045
4897000000.0 0.4462 1.107
4900000000.0 1.089 0.3068
4903000000.0 0.9125 -0.6387
4906000000.0 0.08363 -1.121
4909000000.0 -0.7669 -0.7349
4912000000.0 -1.043 0.1251
4916000000.0 -0.5795 0.8864
4919000000.0 0.3318 0.9741
4922000000.0 0.9486 0.32
4925000000.0 0.8386 -0.4808
4928000000.0 0.1742 -0.9904
4931000000.0 -0.6532 -0.7389
4934000000.0 -0.9687 0.05085
4938000000.0 -0.5898 0.749
4941000000.0 0.219 0.9172
4944000000.0 0.8392 0.4215
4947000000.0 0.8539 -0.3918
4950000000.0 0.2418 -0.9381
4953000000.0 -0.5703 -0.7952
4956000000.0 -0.9605 -0.04768
4959000000.0 -0.6482 0.7698
4962000000.0 0.1436 0.9655
4966000000.0 0.8489 0.5072
4969000000.0 0.9586 -0.3478
4972000000.0 0.3337 -0.9215
4975000000.0 -0.5361 -0.8644
4978000000.0 -1.019 -0.137
4981000000.0 -0.7668 0.7126
4984000000.0 0.05484 1.06
4988000000.0 0.8145 0.5857
4991000000.0 1.016 -0.227
4994000000.0 0.4893 -0.9929
4997000000.0 -0.4475 -0.9865
5000000000.0 -1.089 -0.307
5003000000.0 -0.9099 0.6844
5006000000.0 -0.07543 1.15
5009000000.0 0.8621 0.8528
5012000000.0 1.221 -0.1401
5016000000.0 0.6655 -1.021
5019000000.0 -0.377 -1.185
5022000000.0 -1.159 -0.4602
5025000000.0 -1.126 0.6087
5028000000.0 -0.2485 1.233
5031000000.0 0.8149 0.9743
5034000000.0 1.269 0.004381
5038000000.0 0.822 -0.9704
5041000000.0 -0.222 -1.254
5044000000.0 -1.129 -0.6421
5047000000.0 -1.197 0.4642
5050000000.0 -0.4121 1.238
5053000000.0 0.7134 1.122
5056000000.0 1.278 0.2055
5059000000.0 0.9912 -0.8477
5062000000.0 -0.0288 -1.288
5066000000.0 -1.044 -0.8213
5069000000.0 -1.275 0.2808
5072000000.0 -0.6105 1.15
5075000000.0 0.5072 1.202
5078000000.0 1.23 0.3839
5081000000.0 1.041 -0.665
5084000000.0 0.156 -1.274
5088000000.0 -0.8805 -0.8804
5091000000.0 -1.203 0.0726
5094000000.0 -0.7068 0.9989
5097000000.0 0.316 1.149
5100000000.0 1.05 0.4901
5103000000.0 1.035 -0.4425
5106000000.0 0.3226 -1.095
5109000000.0 -0.5876 -0.9426
5112000000.0 -1.115 -0.166
5116000000.0 -0.7926 0.7821
5119000000.0 0.001865 1.109
5122000000.0 0.8382 0.6494
5125000000.0 1.066 -0.2312
5128000000.0 0.4524 -0.9533
5131000000.0 -0.4371 -0.9387
5134000000.0 -0.9933 -0.2331
5138000000.0 -0.7897 0.573
5141000000.0 -0.046 1.005
5144000000.0 0.7083 0.6682
5147000000.0 0.9816 -0.1053
5150000000.0 0.4956 -0.8125
5153000000.0 -0.3335 -0.8859
5156000000.0 -0.8842 -0.313
5159000000.0 -0.8093 0.4715
5162000000.0 -0.1605 0.9328
5166000000.0 0.6237 0.655
5169000000.0 0.92 -0.0322
5172000000.0 0.5487 -0.7443
5175000000.0 -0.2547 -0.8686
5178000000.0 -0.8171 -0.3513
5181000000.0 -0.8049 0.4025
5184000000.0 -0.2004 0.909
5188000000.0 0.596 0.7228
5191000000.0 0.9346 -0.01741
5194000000.0 0.5837 -0.7482
5197000000.0 -0.2365 -0.9256
5200000000.0 -0.8779 -0.3922
5203000000.0 -0.849 0.4185
5206000000.0 -0.1939 0.937
5209000000.0 0.6 0.7614
5212000000.0 0.9822 0.02998
5216000000.0 0.6274 -0.7675
5219000000.0 -0.2104 -0.9565
5222000000.0 -0.8834 -0.4429
5225000000.0 -0.931 0.418
5228000000.0 -0.2514 0.9572
5231000000.0 0.6219 0.8377
5234000000.0 1.029 0.09329
5238000000.0 0.7206 -0.752
5241000000.0 -0.1423 -1.041
5244000000.0 -0.8685 -0.5673
5247000000.0 -0.993 0.3261
5250000000.0 -0.4019 1.008
5253000000.0 0.5059 0.9356
5256000000.0 1.078 0.1894
5259000000.0 0.8479 -0.6895
5262000000.0 0.02759 -1.112
5266000000.0 -0.8259 -0.7106
5269000000.0 -1.074 0.1687
5272000000.0 -0.5737 0.97
5275000000.0 0.3536 1.049
5278000000.0 1.072 0.4157
5281000000.0 0.9729 -0.5225
5284000000.0 0.2746 -1.079
5288000000.0 -0.6864 -0.8886
5291000000.0 -1.124 -0.03096
5294000000.0 -0.7786 0.8235
5297000000.0 0.1213 1.135
5300000000.0 0.9372 0.6376
5303000000.0 1.072 -0.2654
5306000000.0 0.4693 -1.016
5309000000.0 -0.4939 -1.091
5312000000.0 -1.082 -0.2869
5316000000.0 -0.9568 0.6558
5319000000.0 -0.1031 1.15
5322000000.0 0.8019 0.8428
5325000000.0 1.136 -0.07556
5328000000.0 0.6927 -0.9524
5331000000.0 -0.3226 -1.124
5334000000.0 -1.039 -0.4743
5338000000.0 -1.04 0.4955
5341000000.0 -0.2865 1.111
5344000000.0 0.6784 0.9139
5347000000.0 1.155 0.0431
5350000000.0 0.761 -0.8219
5353000000.0 -0.1701 -1.117
5356000000.0 -0.9466 -0.6057
5359000000.0 -1.026 0.3456
5362000000.0 -0.3915 1.024
5366000000.0 0.5904 0.9278
5369000000.0 1.082 0.1233
5372000000.0 0.7627 -0.7471
5375000000.0 -0.1086 -1.064
5378000000.0 -0.8646 -0.5932
5381000000.0 -0.9799 0.3345
5384000000.0 -0.361 0.9405
5388000000.0 0.5047 0.8395
5391000000.0 0.9723 0.08875
5394000000.0 0.6958 -0.6912
5397000000.0 -0.09158 -0.9636
5400000000.0 -0.8108 -0.4965
5403000000.0 -0.8777 0.298
5406000000.0 -0.2914 0.8388
5409000000.0 0.481 0.7346
5412000000.0 0.8724 0.09022
5416000000.0 0.6175 -0.6009
5419000000.0 -0.1095 -0.8534
5422000000.0 -0.78 -0.462
5425000000.0 -0.8038 0.3205
5428000000.0 -0.2871 0.8472
5431000000.0 0.5041 0.7581
5434000000.0 0.8564 0.08592
5438000000.0 0.6417 -0.638
5441000000.0 -0.1215 -0.8713
5444000000.0 -0.7701 -0.4846
5447000000.0 -0.8631 0.2936
5450000000.0 -0.2712 0.8402
5453000000.0 0.503 0.7315
5456000000.0 0.9054 0.1005
5459000000.0 0.6323 -0.6412
5462000000.0 -0.08879 -0.8852
5466000000.0 -0.7532 -0.5481
5469000000.0 -0.8774 0.2464
5472000000.0 -0.4045 0.8446
5475000000.0 0.3818 0.8573
5478000000.0 0.8879 0.2596
5481000000.0 0.7605 -0.518
5484000000.0 0.05752 -0.9747
5488000000.0 -0.7423 -0.6892
5491000000.0 -0.9961 0.06371
5494000000.0 -0.553 0.8428
5497000000.0 0.2606 0.9887
5500000000.0 0.8817 0.4137
5503000000.0 0.8675 -0.4365
5506000000.0 0.2683 -0.9848
5509000000.0 -0.5925 -0.8031
5512000000.0 -1.028 -0.09412
5516000000.0 -0.7217 0.763
5519000000.0 0.0832 1.014
5522000000.0 0.8529 0.5709
5525000000.0 1.033 -0.2565
5528000000.0 0.4668 -0.9199
5531000000.0 -0.4409 -0.9775
5534000000.0 -1.046 -0.3036
5538000000.0 -0.8842 0.5817
5541000000.0 -0.1106 1.063
5544000000.0 0.7488 0.77
5547000000.0 1.1 -0.1094
5550000000.0 0.6251 -0.8785
5553000000.0 -0.2831 -1.052
5556000000.0 -0.9785 -0.4622
5559000000.0 -0.9569 0.445
5562000000.0 -0.2342 1.046
5566000000.0 0.6304 0.8777
5569000000.0 1.07 0.08559
5572000000.0 0.71 -0.7701
5575000000.0 -0.1579 -0.9888
5578000000.0 -0.8854 -0.5433
5581000000.0 -0.975 0.3233
5584000000.0 -0.3558 0.9244
5588000000.0 0.4933 0.876
5591000000.0 0.9534 0.1613
5594000000.0 0.7431 -0.6049
5597000000.0 -0.01353 -0.9473
5600000000.0 -0.7385 -0.5738
5603000000.0 -0.9281 0.1919
5606000000.0 -0.4038 0.8081
5609000000.0 0.3513 0.8402
5612000000.0 0.8676 0.25
5616000000.0 0.7297 -0.5029
5619000000.0 0.07525 -0.8807
5622000000.0 -0.6047 -0.6006
5625000000.0 -0.847 0.1073
5628000000.0 -0.4439 0.7507
5631000000.0 0.3089 0.811
5634000000.0 0.8167 0.265
5638000000.0 0.7039 -0.4552
5641000000.0 0.0798 -0.8735
5644000000.0 -0.6031 -0.6047
5647000000.0 -0.8593 0.1084
5650000000.0 -0.4433 0.7434
5653000000.0 0.2762 0.8038
5656000000.0 0.8022 0.2658
5659000000.0 0.724 -0.4513
5662000000.0 0.0942 -0.8432
5666000000.0 -0.6381 -0.6064
5669000000.0 -0.8695 0.09532
5672000000.0 -0.4743 0.7513
5675000000.0 0.2738 0.846
5678000000.0 0.8419 0.3225
5681000000.0 0.7848 -0.5041
5684000000.0 0.129 -0.9409
5688000000.0 -0.658 -0.7146
5691000000.0 -0.9603 0.09168
5694000000.0 -0.5332 0.7979
5697000000.0 0.2925 0.9249
5700000000.0 0.9506 0.3893
5703000000.0 0.8388 -0.5159
5706000000.0 0.1844 -1.017
5709000000.0 -0.6546 -0.757
5712000000.0 -1.062 0.03119
5716000000.0 -0.6403 0.8161
5719000000.0 0.1983 1.027
5722000000.0 0.9258 0.492
5725000000.0 0.9988 -0.4302
5728000000.0 0.2946 -1.02
5731000000.0 -0.582 -0.869
5734000000.0 -1.111 -0.1057
5738000000.0 -0.7621 0.7618
5741000000.0 0.08265 1.089
5744000000.0 0.9292 0.6006
5747000000.0 1.054 -0.2869
5750000000.0 0.4765 -1.017
5753000000.0 -0.4729 -1.007
5756000000.0 -1.08 -0.2877
5759000000.0 -0.8805 0.656
5762000000.0 -0.07303 1.107
5766000000.0 0.7984 0.7792
5769000000.0 1.111 -0.124
5772000000.0 0.6207 -0.9168
5775000000.0 -0.3148 -1.083
5778000000.0 -1.017 -0.4496
5781000000.0 -0.9762 0.4697
5784000000.0 -0.2781 1.056
5788000000.0 0.6776 0.8742
5791000000.0 1.121 0.04048
5794000000.0 0.7114 -0.8016
5797000000.0 -0.1134 -1.091
5800000000.0 -0.9128 -0.5851
5803000000.0 -1.016 0.3248
5806000000.0 -0.3687 0.9935
5809000000.0 0.5203 0.9282
5812000000.0 1.03 0.1929
5816000000.0 0.8245 -0.6603
5819000000.0 -0.01197 -1.007
5822000000.0 -0.7789 -0.656
5825000000.0 -0.9855 0.1855
5828000000.0 -0.4644 0.8514
5831000000.0 0.4062 0.9122
5834000000.0 0.9886 0.2878
5838000000.0 0.8207 -0.5849
5841000000.0 0.05093 -0.9538
5844000000.0 -0.7099 -0.6585
5847000000.0 -0.9588 0.1049
5850000000.0 -0.5102 0.8217
5853000000.0 0.3065 0.8911
5856000000.0 0.8882 0.3026
5859000000.0 0.7686 -0.5066
5862000000.0 0.09337 -0.9519
5866000000.0 -0.63 -0.6358
5869000000.0 -0.9152 0.08586
5872000000.0 -0.4967 0.7574
5875000000.0 0.2685 0.8582
5878000000.0 0.813 0.3011
5881000000.0 0.7631 -0.4578
5884000000.0 0.1219 -0.8383
5888000000.0 -0.6136 -0.6469
5891000000.0 -0.873 0.05752
5894000000.0 -0.4746 0.7172
5897000000.0 0.2358 0.858
5900000000.0 0.8265 0.3352
5903000000.0 0.754 -0.4128
5906000000.0 0.1544 -0.8498
5909000000.0 -0.5493 -0.6697
5912000000.0 -0.8678 -0.002527
5916000000.0 -0.5673 0.6747
5919000000.0 0.1652 0.8527
5922000000.0 0.811 0.4013
5925000000.0 0.8251 -0.364
5928000000.0 0.2708 -0.8353
5931000000.0 -0.4741 -0.7587
5934000000.0 -0.8974 -0.1021
5938000000.0 -0.6232 0.6261
5941000000.0 0.02835 0.925
5944000000.0 0.7481 0.5585
5947000000.0 0.8585 -0.2497
5950000000.0 0.3854 -0.8499
5953000000.0 -0.4111 -0.8267
5956000000.0 -0.8988 -0.2392
5959000000.0 -0.7495 0.527
5962000000.0 -0.0803 0.9379
5966000000.0 0.6723 0.6631
5969000000.0 0.943 -0.1028
5972000000.0 0.5508 -0.8092
5975000000.0 -0.2489 -0.9217
5978000000.0 -0.8964 -0.4006
5981000000.0 -0.8735 0.4306
5984000000.0 -0.2387 0.9443
5988000000.0 0.609 0.8055
5991000000.0 1.011 0.05294
5994000000.0 0.6737 -0.7375
5997000000.0 -0.1326 -0.9987
6000000000.0 -0.8811 -0.505
6003000000.0 -0.9643 0.2936
6006000000.0 -0.3844 0.9336
6009000000.0 0.4881 0.8757
6012000000.0 1.013 0.1825
6016000000.0 0.7579 -0.6296
6019000000.0 -0.0179 -1.006
6022000000.0 -0.7959 -0.6345
6025000000.0 -0.9645 0.1863
6028000000.0 -0.4549 0.9059
6031000000.0 0.3906 0.9091
6034000000.0 0.9545 0.2759
6038000000.0 0.8183 -0.5802
6041000000.0 0.08072 -0.9633
6044000000.0 -0.7133 -0.649
6047000000.0 -1.012 0.1092
6050000000.0 -0.49 0.8047
6053000000.0 0.3134 0.9084
6056000000.0 0.8824 0.346
6059000000.0 0.8214 -0.4637
6062000000.0 0.1332 -0.9209
6066000000.0 -0.627 -0.6792
6069000000.0 -0.9192 0.06965
6072000000.0 -0.5075 0.7383
6075000000.0 0.2454 0.8628
6078000000.0 0.8248 0.3574
6081000000.0 0.7956 -0.452
6084000000.0 0.1383 -0.8675
6088000000.0 -0.56 -0.6977
6091000000.0 -0.8436 0.03491
6094000000.0 -0.5583 0.6996
6097000000.0 0.2169 0.8588
6100000000.0 0.7637 0.3707
6103000000.0 0.7704 -0.3596
6106000000.0 0.1913 -0.8353
6109000000.0 -0.5451 -0.6768
6112000000.0 -0.8732 -0.02274
6116000000.0 -0.5587 0.6585
6119000000.0 0.1486 0.8562
6122000000.0 0.7569 0.4017
6125000000.0 0.8068 -0.3294
6128000000.0 0.2591 -0.8612
6131000000.0 -0.5034 -0.7362
6134000000.0 -0.8781 -0.05627
6138000000.0 -0.5951 0.6362
6141000000.0 0.1381 0.9109
6144000000.0 0.7486 0.4536
6147000000.0 0.8505 -0.316
6150000000.0 0.3106 -0.8571
6153000000.0 -0.4439 -0.7831
6156000000.0 -0.8702 -0.1148
6159000000.0 -0.6858 0.6022
6162000000.0 0.04181 0.9153
6166000000.0 0.7672 0.5423
6169000000.0 0.8602 -0.262
6172000000.0 0.4072 -0.8491
6175000000.0 -0.4197 -0.8712
6178000000.0 -0.9069 -0.1981
6181000000.0 -0.7563 0.5799
6184000000.0 -0.02989 0.9448
6188000000.0 0.7295 0.633
6191000000.0 0.9612 -0.1466
6194000000.0 0.494 -0.8313
6197000000.0 -0.3362 -0.8712
6200000000.0 -0.8821 -0.3068
6203000000.0 -0.8234 0.5021
6206000000.0 -0.1568 0.9253
6209000000.0 0.6197 0.6861
6212000000.0 0.937 -0.05121
6216000000.0 0.568 -0.7245
6219000000.0 -0.2321 -0.926
6222000000.0 -0.8263 -0.4092
6225000000.0 -0.8566 0.3749
6228000000.0 -0.2254 0.8865
6231000000.0 0.5062 0.7249
6234000000.0 0.9256 0.03026
6238000000.0 0.6428 -0.6699
6241000000.0 -0.1113 -0.8695
6244000000.0 -0.7425 -0.4713
6247000000.0 -0.8318 0.2631
6250000000.0 -0.3205 0.8028
6253000000.0 0.4146 0.7614
6256000000.0 0.8332 0.1842
6259000000.0 0.6738 -0.5035
6262000000.0 0.01959 -0.833
6266000000.0 -0.6253 -0.5591
6269000000.0 -0.7754 0.1102
6272000000.0 -0.4385 0.7233
