! Created with skrf 1.8.0 (http://scikit-rf.org).
# Hz S RI R 50.0 
!freq ReS11 ImS11
4000000000.0 -0.1967 -1.444
4003000000.0 -1.246 -0.7841
4006000000.0 -1.43 0.4224
4009000000.0 -0.5933 1.436
4012000000.0 0.8014 1.37
4016000000.0 1.526 0.2329
4019000000.0 1.124 -1.05
4022000000.0 -0.1041 -1.564
4025000000.0 -1.307 -0.8844
4028000000.0 -1.543 0.4725
4031000000.0 -0.5659 1.513
4034000000.0 0.826 1.36
4038000000.0 1.616 0.2376
4041000000.0 1.243 -1.122
4044000000.0 -0.09074 -1.629
4047000000.0 -1.295 -0.9065
4050000000.0 -1.547 0.4356
4053000000.0 -0.6286 1.475
4056000000.0 0.7566 1.42
4059000000.0 1.57 0.356
4062000000.0 1.257 -0.9945
4066000000.0 0.0696 -1.591
4069000000.0 -1.221 -1.067
4072000000.0 -1.636 0.2335
4075000000.0 -0.8171 1.397
4078000000.0 0.5661 1.543
4081000000.0 1.528 0.5325
4084000000.0 1.422 -0.868
4088000000.0 0.2442 -1.63
4091000000.0 -1.135 -1.208
4094000000.0 -1.622 0.05951
4097000000.0 -0.981 1.296
4100000000.0 0.3664 1.589
4103000000.0 1.433 0.7279
4106000000.0 1.423 -0.6199
4109000000.0 0.4365 -1.482
4112000000.0 -0.8087 -1.312
4116000000.0 -1.497 -0.1927
4119000000.0 -1.149 0.9886
4122000000.0 0.02125 1.477
4125000000.0 1.165 0.9459
4128000000.0 1.44 -0.2667
4131000000.0 0.7854 -1.241
4134000000.0 -0.4351 -1.394
4138000000.0 -1.359 -0.5773
4141000000.0 -1.339 0.6698
4144000000.0 -0.3787 1.446
4147000000.0 0.8791 1.216
4150000000.0 1.503 0.1272
4153000000.0 1.085 -1.077
4156000000.0 -0.1255 -1.508
4159000000.0 -1.229 -0.8787
4162000000.0 -1.453 0.3675
4166000000.0 -0.639 1.373
4169000000.0 0.6201 1.394
4172000000.0 1.438 0.3953
4175000000.0 1.264 -0.8399
4178000000.0 0.1752 -1.483
4181000000.0 -1.058 -1.091
4184000000.0 -1.488 0.09419
4188000000.0 -0.8609 1.24
4191000000.0 0.3725 1.51
4194000000.0 1.408 0.6647
4197000000.0 1.432 -0.6469
4200000000.0 0.4334 -1.538
4203000000.0 -0.9351 -1.285
4206000000.0 -1.634 -0.04881
4209000000.0 -1.044 1.264
4212000000.0 0.3171 1.626
4216000000.0 1.489 0.7425
4219000000.0 1.491 -0.7407
4222000000.0 0.3367 -1.677
4225000000.0 -1.086 -1.264
4228000000.0 -1.667 0.07906
4231000000.0 -0.9337 1.389
4234000000.0 0.5502 1.548
4238000000.0 1.595 0.557
4241000000.0 1.368 -0.9022
4244000000.0 0.07963 -1.632
4247000000.0 -1.213 -1.049
4250000000.0 -1.533 0.3165
4253000000.0 -0.7195 1.402
4256000000.0 0.7106 1.384
4259000000.0 1.511 0.3072
4262000000.0 1.142 -1.017
4266000000.0 -0.08656 -1.5
4269000000.0 -1.242 -0.8408
4272000000.0 -1.423 0.4695
4275000000.0 -0.5364 1.406
4278000000.0 0.7499 1.237
4281000000.0 1.423 0.1988
4284000000.0 1.027 -0.9365
4288000000.0 -0.1679 -1.401
4291000000.0 -1.169 -0.7453
4294000000.0 -1.275 0.3886
4297000000.0 -0.497 1.261
4300000000.0 0.6599 1.164
4303000000.0 1.294 0.2463
4306000000.0 0.9978 -0.8421
4309000000.0 0.01867 -1.281
4312000000.0 -0.983 -0.8512
4316000000.0 -1.261 0.2462
4319000000.0 -0.6747 1.116
4322000000.0 0.4313 1.273
4325000000.0 1.21 0.4721
4328000000.0 1.152 -0.6439
4331000000.0 0.269 -1.3
4334000000.0 -0.8409 -1.046
4338000000.0 -1.358 -0.04087
4341000000.0 -0.9541 1.051
4344000000.0 0.2223 1.425
4347000000.0 1.216 0.7391
4350000000.0 1.403 -0.4736
4353000000.0 0.5225 -1.356
4356000000.0 -0.7454 -1.285
4359000000.0 -1.41 -0.2474
4362000000.0 -1.096 0.9368
4366000000.0 0.004218 1.478
4369000000.0 1.158 0.9504
4372000000.0 1.447 -0.2958
4375000000.0 0.6724 -1.326
4378000000.0 -0.5265 -1.407
4381000000.0 -1.435 -0.4758
4384000000.0 -1.301 0.8331
4388000000.0 -0.173 1.54
4391000000.0 1.111 1.119
4394000000.0 1.603 -0.1519
4397000000.0 0.8326 -1.313
4400000000.0 -0.534 -1.496
4403000000.0 -1.458 -0.5293
4406000000.0 -1.328 0.8467
4409000000.0 -0.1893 1.569
4412000000.0 1.119 1.112
4416000000.0 1.538 -0.1957
4419000000.0 0.8025 -1.346
4422000000.0 -0.5713 -1.421
4425000000.0 -1.436 -0.4472
4428000000.0 -1.212 0.8533
4431000000.0 -0.1041 1.448
4434000000.0 1.079 0.9483
4438000000.0 1.39 -0.2325
4441000000.0 0.6606 -1.252
4444000000.0 -0.5976 -1.248
4447000000.0 -1.32 -0.3073
4450000000.0 -1.04 0.8463
4453000000.0 0.003334 1.294
4456000000.0 1.045 0.7761
4459000000.0 1.249 -0.3427
4462000000.0 0.4613 -1.166
4466000000.0 -0.6087 -1.086
4469000000.0 -1.232 -0.1614
4472000000.0 -0.8555 0.861
4475000000.0 0.142 1.179
4478000000.0 1.027 0.6016
4481000000.0 1.089 -0.4269
4484000000.0 0.3636 -1.126
4488000000.0 -0.6602 -0.9275
4491000000.0 -1.119 -0.05771
4494000000.0 -0.7507 0.8597
4497000000.0 0.1505 1.127
4500000000.0 0.9961 0.5829
4503000000.0 1.007 -0.3932
4506000000.0 0.3292 -1.03
4509000000.0 -0.6028 -0.9223
4512000000.0 -1.103 -0.088
4516000000.0 -0.8092 0.7945
4519000000.0 0.1479 1.117
4522000000.0 0.9503 0.5989
4525000000.0 1.082 -0.368
4528000000.0 0.4045 -1.071
4531000000.0 -0.5718 -1.008
4534000000.0 -1.171 -0.1728
4538000000.0 -0.8812 0.7735
4541000000.0 0.0397 1.213
4544000000.0 0.9054 0.7081
4547000000.0 1.17 -0.2376
4550000000.0 0.555 -1.076
4553000000.0 -0.4612 -1.14
4556000000.0 -1.167 -0.386
4559000000.0 -1.041 0.6729
4562000000.0 -0.1556 1.226
4566000000.0 0.8341 0.93
4569000000.0 1.283 -0.04662
4572000000.0 0.8006 -1.002
4575000000.0 -0.2531 -1.288
4578000000.0 -1.157 -0.589
4581000000.0 -1.215 0.515
4584000000.0 -0.3982 1.27
4588000000.0 0.7479 1.132
4591000000.0 1.371 0.1237
4594000000.0 0.9933 -0.9813
4597000000.0 -0.1104 -1.397
4600000000.0 -1.143 -0.8213
4603000000.0 -1.32 0.3745
4606000000.0 -0.556 1.273
4609000000.0 0.6205 1.262
4612000000.0 1.356 0.2903
4616000000.0 1.08 -0.901
4619000000.0 0.02081 -1.419
4622000000.0 -1.065 -0.8731
4625000000.0 -1.384 0.2804
4628000000.0 -0.6501 1.208
4631000000.0 0.5231 1.269
4634000000.0 1.299 0.4121
4638000000.0 1.114 -0.7516
4641000000.0 0.1091 -1.38
4644000000.0 -0.9853 -0.9264
4647000000.0 -1.34 0.187
4650000000.0 -0.6554 1.154
4653000000.0 0.4818 1.232
4656000000.0 1.237 0.3789
4659000000.0 1.063 -0.7309
4662000000.0 0.09194 -1.251
4666000000.0 -0.9528 -0.8333
4669000000.0 -1.222 0.2284
4672000000.0 -0.5953 1.038
4675000000.0 0.4563 1.095
4678000000.0 1.107 0.2987
4681000000.0 0.9291 -0.6543
4684000000.0 0.06564 -1.155
4688000000.0 -0.8178 -0.7288
4691000000.0 -1.127 0.2266
4694000000.0 -0.5276 0.9792
4697000000.0 0.4193 1.002
4700000000.0 1.058 0.2721
4703000000.0 0.9025 -0.6642
4706000000.0 0.05939 -1.083
4709000000.0 -0.8412 -0.7004
4712000000.0 -1.076 0.2115
4716000000.0 -0.5111 0.9838
4719000000.0 0.469 0.9812
4722000000.0 1.045 0.2477
4725000000.0 0.8412 -0.625
4728000000.0 0.009792 -1.043
4731000000.0 -0.7915 -0.707
4734000000.0 -1.049 0.1701
4738000000.0 -0.5206 0.9121
4741000000.0 0.3793 1.012
4744000000.0 1.008 0.3063
4747000000.0 0.8857 -0.5462
4750000000.0 0.1938 -1.053
4753000000.0 -0.6872 -0.8256
4756000000.0 -1.066 0.0336
4759000000.0 -0.6719 0.867
4762000000.0 0.2584 1.082
4766000000.0 0.9968 0.5251
4769000000.0 1.035 -0.4562
4772000000.0 0.3274 -1.083
4775000000.0 -0.6429 -0.9717
4778000000.0 -1.168 -0.1524
4781000000.0 -0.859 0.8275
4784000000.0 0.0578 1.202
4788000000.0 0.9667 0.6987
4791000000.0 1.168 -0.2735
4794000000.0 0.5398 -1.073
4797000000.0 -0.4709 -1.123
4800000000.0 -1.168 -0.3829
4803000000.0 -1.059 0.658
4806000000.0 -0.1811 1.225
4809000000.0 0.859 0.9468
4812000000.0 1.289 -0.04138
4816000000.0 0.8179 -1.015
4819000000.0 -0.3009 -1.307
4822000000.0 -1.195 -0.6226
4825000000.0 -1.238 0.5414
4828000000.0 -0.4074 1.327
4831000000.0 0.7381 1.133
4834000000.0 1.378 0.1441
4838000000.0 0.9979 -0.9879
4841000000.0 -0.1363 -1.392
4844000000.0 -1.151 -0.7551
4847000000.0 -1.356 0.4071
4850000000.0 -0.5137 1.299
4853000000.0 0.6507 1.2
4856000000.0 1.353 0.2181
4859000000.0 1.041 -0.8994
4862000000.0 -0.02152 -1.361
4866000000.0 -1.06 -0.8342
4869000000.0 -1.309 0.274
4872000000.0 -0.5816 1.211
4875000000.0 0.5316 1.208
4878000000.0 1.27 0.332
4881000000.0 1.052 -0.79
4884000000.0 0.03103 -1.279
4888000000.0 -0.9486 -0.8363
4891000000.0 -1.222 0.2284
4894000000.0 -0.5523 1.061
4897000000.0 0.4489 1.061
4900000000.0 1.116 0.3198
4903000000.0 0.9355 -0.6405
4906000000.0 0.07487 -1.09
4909000000.0 -0.7967 -0.7278
4912000000.0 -1.054 0.09884
4916000000.0 -0.5516 0.9
4919000000.0 0.3171 0.9642
4922000000.0 0.9337 0.3809
4925000000.0 0.8521 -0.4677
4928000000.0 0.1584 -0.9407
4931000000.0 -0.6228 -0.6919
4934000000.0 -0.9513 0.03876
4938000000.0 -0.5865 0.7499
4941000000.0 0.2017 0.9083
4944000000.0 0.8513 0.4024
4947000000.0 0.8526 -0.3869
4950000000.0 0.2312 -0.9113
4953000000.0 -0.5772 -0.7829
4956000000.0 -0.9716 -0.05378
4959000000.0 -0.6207 0.7308
4962000000.0 0.1459 0.9462
4966000000.0 0.8505 0.4897
4969000000.0 0.9255 -0.3665
4972000000.0 0.3188 -0.9454
4975000000.0 -0.5362 -0.8359
4978000000.0 -0.992 -0.1247
4981000000.0 -0.7615 0.7164
4984000000.0 0.07296 1.032
4988000000.0 0.8454 0.6202
4991000000.0 1.05 -0.2598
4994000000.0 0.4549 -0.9899
4997000000.0 -0.4581 -0.9978
5000000000.0 -1.077 -0.2882
5003000000.0 -0.9371 0.6482
5006000000.0 -0.08338 1.169
5009000000.0 0.8519 0.806
5012000000.0 1.19 -0.1606
5016000000.0 0.6321 -1.016
5019000000.0 -0.3862 -1.199
5022000000.0 -1.205 -0.4584
5025000000.0 -1.099 0.6163
5028000000.0 -0.2169 1.245
5031000000.0 0.8169 0.9975
5034000000.0 1.297 -0.03603
5038000000.0 0.8058 -0.9853
5041000000.0 -0.2602 -1.243
5044000000.0 -1.086 -0.6139
5047000000.0 -1.212 0.4489
5050000000.0 -0.4258 1.194
5053000000.0 0.6571 1.113
5056000000.0 1.308 0.1888
5059000000.0 0.9976 -0.8581
5062000000.0 -0.02483 -1.313
5066000000.0 -1.015 -0.7968
5069000000.0 -1.24 0.2505
5072000000.0 -0.6254 1.135
5075000000.0 0.4963 1.18
5078000000.0 1.206 0.3473
5081000000.0 1.053 -0.7104
5084000000.0 0.1542 -1.27
5088000000.0 -0.8427 -0.8719
5091000000.0 -1.199 0.05754
5094000000.0 -0.6942 0.9694
5097000000.0 0.2754 1.159
5100000000.0 1.029 0.4914
5103000000.0 1.035 -0.4648
5106000000.0 0.325 -1.095
5109000000.0 -0.6013 -0.9158
5112000000.0 -1.059 -0.1564
5116000000.0 -0.7868 0.758
5119000000.0 0.03931 1.082
5122000000.0 0.8416 0.6105
5125000000.0 0.997 -0.2619
5128000000.0 0.4501 -0.9433
5131000000.0 -0.4454 -0.9265
5134000000.0 -0.9669 -0.2663
5138000000.0 -0.7756 0.6045
5141000000.0 -0.03349 0.9553
5144000000.0 0.7235 0.6442
5147000000.0 0.9182 -0.1643
5150000000.0 0.4858 -0.8279
5153000000.0 -0.3022 -0.8677
5156000000.0 -0.8426 -0.3204
5159000000.0 -0.7999 0.471
5162000000.0 -0.1243 0.9411
5166000000.0 0.6017 0.6428
5169000000.0 0.9106 -0.05965
5172000000.0 0.5188 -0.7198
5175000000.0 -0.2351 -0.8843
5178000000.0 -0.8256 -0.3672
5181000000.0 -0.8136 0.4242
5184000000.0 -0.1964 0.8921
5188000000.0 0.5447 0.7084
5191000000.0 0.9252 -0.02936
5194000000.0 0.5672 -0.7128
5197000000.0 -0.2266 -0.9162
5200000000.0 -0.867 -0.3799
5203000000.0 -0.8573 0.4187
5206000000.0 -0.1842 0.9082
5209000000.0 0.639 0.7402
5212000000.0 0.9465 -0.003747
5216000000.0 0.6249 -0.79
5219000000.0 -0.1941 -0.9711
5222000000.0 -0.8783 -0.457
5225000000.0 -0.8929 0.4129
5228000000.0 -0.2798 0.9625
5231000000.0 0.5998 0.8262
5234000000.0 1.047 0.07135
5238000000.0 0.6998 -0.7659
5241000000.0 -0.1526 -1.029
5244000000.0 -0.8631 -0.5585
5247000000.0 -1.006 0.3532
5250000000.0 -0.3967 0.9854
5253000000.0 0.5234 0.9301
5256000000.0 1.047 0.2007
5259000000.0 0.8109 -0.6811
5262000000.0 0.03357 -1.099
5266000000.0 -0.8147 -0.7299
5269000000.0 -1.069 0.1658
5272000000.0 -0.5805 0.9656
5275000000.0 0.3815 1.027
5278000000.0 1.034 0.4015
5281000000.0 0.9713 -0.5232
5284000000.0 0.2252 -1.082
5288000000.0 -0.6765 -0.8862
5291000000.0 -1.106 -0.03588
5294000000.0 -0.7433 0.8208
5297000000.0 0.1394 1.121
5300000000.0 0.9187 0.5998
5303000000.0 1.089 -0.2987
5306000000.0 0.477 -1.035
5309000000.0 -0.5134 -1.039
5312000000.0 -1.1 -0.2789
5316000000.0 -0.9104 0.6643
5319000000.0 -0.104 1.16
5322000000.0 0.8028 0.8123
5325000000.0 1.18 -0.09996
5328000000.0 0.6378 -0.9428
5331000000.0 -0.3001 -1.09
5334000000.0 -1.049 -0.4659
5338000000.0 -1.026 0.51
5341000000.0 -0.2513 1.102
5344000000.0 0.6897 0.8738
5347000000.0 1.103 0.05237
5350000000.0 0.7494 -0.8107
5353000000.0 -0.1616 -1.082
5356000000.0 -0.9392 -0.5392
5359000000.0 -1.019 0.3828
5362000000.0 -0.3499 1.018
5366000000.0 0.5832 0.8927
5369000000.0 1.087 0.1035
5372000000.0 0.7471 -0.7369
5375000000.0 -0.1105 -1.062
5378000000.0 -0.8676 -0.5585
5381000000.0 -0.9637 0.3258
5384000000.0 -0.3196 0.9621
5388000000.0 0.527 0.8418
5391000000.0 0.9896 0.09145
5394000000.0 0.6923 -0.6939
5397000000.0 -0.1118 -0.9144
5400000000.0 -0.789 -0.4716
5403000000.0 -0.8653 0.3147
5406000000.0 -0.3076 0.8687
5409000000.0 0.4713 0.7224
5412000000.0 0.8684 0.06826
5416000000.0 0.6193 -0.595
5419000000.0 -0.1397 -0.8559
5422000000.0 -0.7422 -0.4338
5425000000.0 -0.813 0.3258
5428000000.0 -0.2671 0.8254
5431000000.0 0.4708 0.7381
5434000000.0 0.8655 0.07306
5438000000.0 0.5704 -0.6487
5441000000.0 -0.124 -0.8844
5444000000.0 -0.7559 -0.443
5447000000.0 -0.8332 0.2884
5450000000.0 -0.2756 0.8263
5453000000.0 0.478 0.7297
5456000000.0 0.8517 0.09258
5459000000.0 0.6309 -0.6658
5462000000.0 -0.06491 -0.9061
5466000000.0 -0.6995 -0.4673
5469000000.0 -0.8667 0.2503
5472000000.0 -0.3589 0.8385
5475000000.0 0.382 0.843
5478000000.0 0.8985 0.2266
5481000000.0 0.7869 -0.5732
5484000000.0 0.09885 -0.922
5488000000.0 -0.6842 -0.6855
5491000000.0 -0.9604 0.1072
5494000000.0 -0.534 0.8221
5497000000.0 0.2706 0.9361
5500000000.0 0.9214 0.3635
5503000000.0 0.8833 -0.4736
5506000000.0 0.2325 -0.9848
5509000000.0 -0.594 -0.8381
5512000000.0 -1.007 -0.04482
5516000000.0 -0.7344 0.7593
5519000000.0 0.1062 1.032
5522000000.0 0.8786 0.5764
5525000000.0 0.9879 -0.2674
5528000000.0 0.4022 -0.9628
5531000000.0 -0.4165 -0.9266
5534000000.0 -1.015 -0.2597
5538000000.0 -0.8854 0.6292
5541000000.0 -0.05476 1.108
5544000000.0 0.7542 0.7659
5547000000.0 1.099 -0.1203
5550000000.0 0.5963 -0.8792
5553000000.0 -0.3176 -1.028
5556000000.0 -0.9983 -0.4085
5559000000.0 -0.9599 0.4768
5562000000.0 -0.2139 1.019
5566000000.0 0.5883 0.8273
5569000000.0 1.013 0.04439
5572000000.0 0.7198 -0.7825
5575000000.0 -0.1421 -1.03
5578000000.0 -0.865 -0.4892
5581000000.0 -0.9564 0.321
5584000000.0 -0.3695 0.8951
5588000000.0 0.4633 0.8523
5591000000.0 0.934 0.1145
5594000000.0 0.7323 -0.6347
5597000000.0 -0.002508 -0.9348
5600000000.0 -0.7372 -0.5855
5603000000.0 -0.9144 0.1848
5606000000.0 -0.4237 0.8097
5609000000.0 0.3793 0.8126
5612000000.0 0.857 0.2406
5616000000.0 0.6883 -0.519
5619000000.0 0.02082 -0.8553
5622000000.0 -0.6541 -0.5989
5625000000.0 -0.838 0.15
5628000000.0 -0.4262 0.7449
5631000000.0 0.3092 0.769
5634000000.0 0.7941 0.2347
5638000000.0 0.6886 -0.453
5641000000.0 0.09646 -0.8163
5644000000.0 -0.5993 -0.5494
5647000000.0 -0.831 0.1142
5650000000.0 -0.4453 0.7287
5653000000.0 0.3001 0.8015
5656000000.0 0.8126 0.2706
5659000000.0 0.7311 -0.4797
5662000000.0 0.08189 -0.8452
5666000000.0 -0.6171 -0.5941
5669000000.0 -0.8742 0.1053
5672000000.0 -0.4663 0.741
5675000000.0 0.3059 0.8306
5678000000.0 0.867 0.2913
5681000000.0 0.7796 -0.474
5684000000.0 0.09601 -0.9305
5688000000.0 -0.6728 -0.672
5691000000.0 -0.9649 0.1186
5694000000.0 -0.5546 0.7846
5697000000.0 0.303 0.9245
5700000000.0 0.943 0.3398
5703000000.0 0.8322 -0.4988
5706000000.0 0.1634 -0.9598
5709000000.0 -0.6704 -0.7554
5712000000.0 -1.018 0.01117
5716000000.0 -0.599 0.8485
5719000000.0 0.2551 1.03
5722000000.0 0.9547 0.4495
5725000000.0 0.9695 -0.4282
5728000000.0 0.3081 -1.024
5731000000.0 -0.6233 -0.8933
5734000000.0 -1.1 -0.06496
5738000000.0 -0.787 0.7729
5741000000.0 0.1092 1.099
5744000000.0 0.8712 0.6115
5747000000.0 1.076 -0.2943
5750000000.0 0.4732 -0.9983
5753000000.0 -0.4587 -1.006
5756000000.0 -1.095 -0.2429
5759000000.0 -0.8942 0.6197
5762000000.0 -0.03672 1.102
5766000000.0 0.8154 0.7944
5769000000.0 1.11 -0.1124
5772000000.0 0.6263 -0.9284
5775000000.0 -0.3306 -1.025
5778000000.0 -1.024 -0.4341
5781000000.0 -0.997 0.4742
5784000000.0 -0.2242 1.043
5788000000.0 0.6867 0.8626
5791000000.0 1.084 0.01311
5794000000.0 0.6876 -0.7967
5797000000.0 -0.1827 -1.063
5800000000.0 -0.9225 -0.5437
5803000000.0 -1.048 0.3459
5806000000.0 -0.4141 1.006
5809000000.0 0.5056 0.884
5812000000.0 1.037 0.1842
5816000000.0 0.796 -0.6804
5819000000.0 -0.05312 -1.02
5822000000.0 -0.7961 -0.6281
5825000000.0 -1.003 0.2251
5828000000.0 -0.5032 0.9059
5831000000.0 0.4107 0.9122
5834000000.0 0.9234 0.2754
5838000000.0 0.775 -0.59
5841000000.0 0.04691 -0.9572
5844000000.0 -0.714 -0.6459
5847000000.0 -0.9565 0.1364
5850000000.0 -0.4865 0.8224
5853000000.0 0.3325 0.8916
5856000000.0 0.8736 0.275
5859000000.0 0.8001 -0.5124
5862000000.0 0.07477 -0.9215
5866000000.0 -0.6492 -0.6361
5869000000.0 -0.903 0.1015
5872000000.0 -0.4621 0.7766
5875000000.0 0.277 0.8304
5878000000.0 0.8112 0.3128
5881000000.0 0.756 -0.4535
5884000000.0 0.1242 -0.8856
5888000000.0 -0.6226 -0.6302
5891000000.0 -0.8803 0.08618
5894000000.0 -0.4901 0.7004
5897000000.0 0.2571 0.8185
5900000000.0 0.7819 0.3389
5903000000.0 0.7477 -0.4297
5906000000.0 0.1457 -0.8526
5909000000.0 -0.5592 -0.6395
5912000000.0 -0.8735 0.007257
5916000000.0 -0.552 0.7113
5919000000.0 0.1964 0.8171
5922000000.0 0.7622 0.3487
5925000000.0 0.8096 -0.3544
5928000000.0 0.2489 -0.8368
5931000000.0 -0.4793 -0.7497
5934000000.0 -0.8636 -0.06958
5938000000.0 -0.6557 0.6099
5941000000.0 0.1174 0.8769
5944000000.0 0.7429 0.5108
5947000000.0 0.851 -0.2384
5950000000.0 0.3697 -0.8166
5953000000.0 -0.3791 -0.8394
5956000000.0 -0.8892 -0.2319
5959000000.0 -0.7305 0.5761
5962000000.0 -0.0394 0.9308
5966000000.0 0.6567 0.687
5969000000.0 0.9334 -0.1355
5972000000.0 0.5284 -0.7964
5975000000.0 -0.2899 -0.9034
5978000000.0 -0.873 -0.3783
5981000000.0 -0.8732 0.4355
5984000000.0 -0.2333 0.9212
5988000000.0 0.6173 0.747
5991000000.0 1.024 0.04269
5994000000.0 0.659 -0.7681
5997000000.0 -0.1192 -0.9781
6000000000.0 -0.8665 -0.5343
6003000000.0 -0.9272 0.3271
6006000000.0 -0.3465 0.9311
6009000000.0 0.4995 0.8527
6012000000.0 0.9733 0.1542
6016000000.0 0.7468 -0.6461
6019000000.0 -0.02489 -0.9763
6022000000.0 -0.7685 -0.5905
6025000000.0 -0.9617 0.2547
6028000000.0 -0.4591 0.8626
6031000000.0 0.4367 0.9151
6034000000.0 0.9522 0.2432
6038000000.0 0.8051 -0.5637
6041000000.0 0.03717 -0.9748
6044000000.0 -0.6945 -0.6623
6047000000.0 -0.9808 0.1552
6050000000.0 -0.4836 0.8452
6053000000.0 0.3266 0.8782
6056000000.0 0.8768 0.2889
6059000000.0 0.7923 -0.507
6062000000.0 0.09713 -0.9427
6066000000.0 -0.6342 -0.6605
6069000000.0 -0.9032 0.1025
6072000000.0 -0.4728 0.7542
6075000000.0 0.2729 0.8342
6078000000.0 0.8287 0.3302
6081000000.0 0.7755 -0.4246
6084000000.0 0.1647 -0.838
6088000000.0 -0.5924 -0.6265
6091000000.0 -0.8798 0.03955
6094000000.0 -0.5021 0.7132
6097000000.0 0.2027 0.8465
6100000000.0 0.8156 0.3129
6103000000.0 0.7648 -0.3985
6106000000.0 0.1925 -0.8381
6109000000.0 -0.5292 -0.6712
6112000000.0 -0.8533 0.002984
6116000000.0 -0.5312 0.6991
6119000000.0 0.1811 0.8437
6122000000.0 0.7869 0.41
6125000000.0 0.8045 -0.3566
6128000000.0 0.1936 -0.8379
6131000000.0 -0.529 -0.6936
6134000000.0 -0.8402 -0.02706
6138000000.0 -0.5917 0.6662
6141000000.0 0.1324 0.8559
6144000000.0 0.7667 0.4216
6147000000.0 0.8086 -0.3
6150000000.0 0.2869 -0.8317
6153000000.0 -0.5134 -0.7552
6156000000.0 -0.8876 -0.09472
6159000000.0 -0.665 0.6416
6162000000.0 0.07029 0.9114
6166000000.0 0.7711 0.5177
6169000000.0 0.9213 -0.2678
6172000000.0 0.3565 -0.8575
6175000000.0 -0.4364 -0.8367
6178000000.0 -0.9431 -0.1976
6181000000.0 -0.7275 0.6075
6184000000.0 -0.02867 0.9316
6188000000.0 0.7158 0.5981
6191000000.0 0.9314 -0.1832
6194000000.0 0.4355 -0.8067
6197000000.0 -0.3401 -0.8932
6200000000.0 -0.9108 -0.2913
6203000000.0 -0.7795 0.5188
6206000000.0 -0.059 0.9176
6209000000.0 0.6537 0.69
6212000000.0 0.9299 -0.08925
6216000000.0 0.5653 -0.7803
6219000000.0 -0.228 -0.9057
6222000000.0 -0.8751 -0.3827
6225000000.0 -0.8164 0.3946
6228000000.0 -0.2302 0.8685
6231000000.0 0.58 0.7391
6234000000.0 0.8861 0.05034
6238000000.0 0.5704 -0.6797
6241000000.0 -0.112 -0.8799
6244000000.0 -0.7245 -0.4517
6247000000.0 -0.8422 0.2913
6250000000.0 -0.3001 0.7917
6253000000.0 0.4157 0.7248
6256000000.0 0.8381 0.1302
6259000000.0 0.6765 -0.5475
6262000000.0 0.00777 -0.8006
6266000000.0 -0.6073 -0.5294
6269000000.0 -0.8244 0.1218
