! Created with skrf 1.8.0 (http://scikit-rf.org).
# Hz S RI R 50.0 
!freq ReS11 ImS11
4000000000.0 -0.1971 -1.473
4003000000.0 -1.277 -0.7934
4006000000.0 -1.455 0.5173
4009000000.0 -0.5101 1.435
4012000000.0 0.8061 1.299
4016000000.0 1.559 0.15
4019000000.0 1.137 -1.085
4022000000.0 -0.1131 -1.58
4025000000.0 -1.362 -0.8861
4028000000.0 -1.552 0.4495
4031000000.0 -0.59 1.519
4034000000.0 0.8765 1.388
4038000000.0 1.565 0.228
4041000000.0 1.164 -1.109
4044000000.0 -0.1289 -1.654
4047000000.0 -1.309 -0.9578
4050000000.0 -1.564 0.4852
4053000000.0 -0.589 1.489
4056000000.0 0.8 1.412
4059000000.0 1.595 0.3017
4062000000.0 1.234 -1.039
4066000000.0 -0.005747 -1.604
4069000000.0 -1.263 -1.062
4072000000.0 -1.561 0.2471
4075000000.0 -0.7775 1.434
4078000000.0 0.5895 1.548
4081000000.0 1.542 0.5242
4084000000.0 1.386 -0.8939
4088000000.0 0.2221 -1.628
4091000000.0 -1.125 -1.256
4094000000.0 -1.645 0.102
4097000000.0 -0.9735 1.326
4100000000.0 0.4296 1.58
4103000000.0 1.45 0.7221
4106000000.0 1.468 -0.6753
4109000000.0 0.4134 -1.538
4112000000.0 -0.8485 -1.271
4116000000.0 -1.499 -0.1989
4119000000.0 -1.114 0.9979
4122000000.0 0.06533 1.495
4125000000.0 1.161 0.9482
4128000000.0 1.457 -0.2464
4131000000.0 0.7345 -1.252
4134000000.0 -0.4676 -1.41
4138000000.0 -1.328 -0.5854
4141000000.0 -1.336 0.6495
4144000000.0 -0.3732 1.482
4147000000.0 0.8799 1.233
4150000000.0 1.499 0.08268
4153000000.0 1.064 -1.093
4156000000.0 -0.1467 -1.519
4159000000.0 -1.26 -0.886
4162000000.0 -1.48 0.436
4166000000.0 -0.6259 1.382
4169000000.0 0.6428 1.36
4172000000.0 1.44 0.3443
4175000000.0 1.247 -0.8582
4178000000.0 0.1181 -1.531
4181000000.0 -1.058 -1.086
4184000000.0 -1.481 0.1173
4188000000.0 -0.8569 1.239
4191000000.0 0.3666 1.498
4194000000.0 1.398 0.626
4197000000.0 1.413 -0.706
4200000000.0 0.3366 -1.552
4203000000.0 -1.012 -1.254
4206000000.0 -1.637 -0.03657
4209000000.0 -1.026 1.291
4212000000.0 0.3961 1.583
4216000000.0 1.534 0.6928
4219000000.0 1.481 -0.7548
4222000000.0 0.2446 -1.678
4225000000.0 -1.164 -1.228
4228000000.0 -1.673 0.1845
4231000000.0 -0.8992 1.452
4234000000.0 0.6005 1.56
4238000000.0 1.603 0.4609
4241000000.0 1.334 -0.9569
4244000000.0 0.03539 -1.594
4247000000.0 -1.254 -0.9963
4250000000.0 -1.536 0.3715
4253000000.0 -0.6064 1.435
4256000000.0 0.761 1.367
4259000000.0 1.479 0.2834
4262000000.0 1.118 -1.007
4266000000.0 -0.149 -1.495
4269000000.0 -1.227 -0.8145
4272000000.0 -1.377 0.4739
4275000000.0 -0.4471 1.347
4278000000.0 0.7821 1.195
4281000000.0 1.445 0.115
4284000000.0 0.9482 -1.007
4288000000.0 -0.1906 -1.372
4291000000.0 -1.191 -0.6987
4294000000.0 -1.272 0.4672
4297000000.0 -0.447 1.262
4300000000.0 0.6382 1.137
4303000000.0 1.29 0.2156
4306000000.0 0.9914 -0.8941
4309000000.0 -0.01462 -1.32
4312000000.0 -1.016 -0.8164
4316000000.0 -1.273 0.2502
4319000000.0 -0.615 1.138
4322000000.0 0.4592 1.23
4325000000.0 1.221 0.4454
4328000000.0 1.171 -0.6929
4331000000.0 0.265 -1.303
4334000000.0 -0.8866 -1.05
4338000000.0 -1.383 0.004986
4341000000.0 -0.9132 1.047
4344000000.0 0.2616 1.399
4347000000.0 1.246 0.7017
4350000000.0 1.36 -0.4925
4353000000.0 0.4778 -1.366
4356000000.0 -0.7706 -1.214
4359000000.0 -1.454 -0.1972
4362000000.0 -1.071 0.9892
4366000000.0 0.06707 1.477
4369000000.0 1.176 0.8882
4372000000.0 1.449 -0.3524
4375000000.0 0.6637 -1.34
4378000000.0 -0.5927 -1.349
4381000000.0 -1.439 -0.4257
4384000000.0 -1.252 0.8897
4388000000.0 -0.1332 1.536
4391000000.0 1.138 1.075
4394000000.0 1.51 -0.2007
4397000000.0 0.7944 -1.338
4400000000.0 -0.5704 -1.479
4403000000.0 -1.521 -0.4794
4406000000.0 -1.314 0.8948
4409000000.0 -0.1141 1.568
4412000000.0 1.187 1.075
4416000000.0 1.542 -0.2764
4419000000.0 0.697 -1.343
4422000000.0 -0.629 -1.374
4425000000.0 -1.425 -0.3832
4428000000.0 -1.199 0.8802
4431000000.0 0.001832 1.47
4434000000.0 1.122 0.8698
4438000000.0 1.365 -0.3334
4441000000.0 0.577 -1.288
4444000000.0 -0.6479 -1.173
4447000000.0 -1.329 -0.2659
4450000000.0 -0.9864 0.9185
4453000000.0 0.1107 1.328
4456000000.0 1.083 0.696
4459000000.0 1.196 -0.4338
4462000000.0 0.4176 -1.196
4466000000.0 -0.6842 -1.058
4469000000.0 -1.223 -0.07558
4472000000.0 -0.832 0.9021
4475000000.0 0.2413 1.198
4478000000.0 1.026 0.5223
4481000000.0 1.058 -0.4854
4484000000.0 0.2762 -1.121
4488000000.0 -0.6898 -0.9013
4491000000.0 -1.147 -0.002854
4494000000.0 -0.7251 0.8692
4497000000.0 0.2485 1.132
4500000000.0 1.021 0.489
4503000000.0 1.01 -0.4514
4506000000.0 0.281 -1.07
4509000000.0 -0.6635 -0.8858
4512000000.0 -1.089 -0.03836
4516000000.0 -0.7551 0.8145
4519000000.0 0.1692 1.114
4522000000.0 0.9998 0.5416
4525000000.0 1.055 -0.3949
4528000000.0 0.3921 -1.11
4531000000.0 -0.6445 -0.9754
4534000000.0 -1.175 -0.1547
4538000000.0 -0.8711 0.8228
4541000000.0 0.08026 1.196
4544000000.0 0.9552 0.703
4547000000.0 1.164 -0.2754
4550000000.0 0.535 -1.075
4553000000.0 -0.5146 -1.106
4556000000.0 -1.189 -0.3265
4559000000.0 -1.03 0.697
4562000000.0 -0.09948 1.237
4566000000.0 0.8996 0.8958
4569000000.0 1.29 -0.1247
4572000000.0 0.7225 -1.065
4575000000.0 -0.3196 -1.253
4578000000.0 -1.168 -0.5546
4581000000.0 -1.209 0.5573
4584000000.0 -0.3471 1.289
4588000000.0 0.7891 1.085
4591000000.0 1.359 0.09955
4594000000.0 0.9542 -1.025
4597000000.0 -0.1806 -1.399
4600000000.0 -1.173 -0.7517
4603000000.0 -1.315 0.4295
4606000000.0 -0.5 1.299
4609000000.0 0.6899 1.223
4612000000.0 1.398 0.2316
4616000000.0 1.056 -0.9184
4619000000.0 -0.03679 -1.391
4622000000.0 -1.118 -0.8543
4625000000.0 -1.339 0.3191
4628000000.0 -0.6091 1.259
4631000000.0 0.5747 1.251
4634000000.0 1.321 0.3555
4638000000.0 1.06 -0.8258
4641000000.0 0.01694 -1.359
4644000000.0 -1.051 -0.8449
4647000000.0 -1.323 0.2834
4650000000.0 -0.6173 1.164
4653000000.0 0.5808 1.205
4656000000.0 1.247 0.3285
4659000000.0 0.9877 -0.7828
4662000000.0 0.009633 -1.254
4666000000.0 -0.9451 -0.8074
4669000000.0 -1.182 0.2904
4672000000.0 -0.5303 1.105
4675000000.0 0.5043 1.08
4678000000.0 1.141 0.2545
4681000000.0 0.8881 -0.7292
4684000000.0 0.006315 -1.142
4688000000.0 -0.8808 -0.7069
4691000000.0 -1.094 0.2729
4694000000.0 -0.4881 0.9831
4697000000.0 0.4938 0.9815
4700000000.0 1.084 0.2345
4703000000.0 0.8479 -0.6962
4706000000.0 -0.01376 -1.051
4709000000.0 -0.8966 -0.6875
4712000000.0 -1.067 0.2934
4716000000.0 -0.4205 0.9747
4719000000.0 0.4838 0.9499
4722000000.0 1.024 0.2267
4725000000.0 0.8122 -0.698
4728000000.0 -0.03103 -1.042
4731000000.0 -0.8076 -0.6568
4734000000.0 -1.045 0.2572
4738000000.0 -0.4556 0.933
4741000000.0 0.3878 0.9591
4744000000.0 1.036 0.2904
4747000000.0 0.91 -0.5931
4750000000.0 0.1102 -1.073
4753000000.0 -0.7683 -0.7876
4756000000.0 -1.099 0.07948
4759000000.0 -0.6117 0.9179
4762000000.0 0.2541 1.099
4766000000.0 1.043 0.4722
4769000000.0 1.013 -0.5056
4772000000.0 0.2933 -1.119
4775000000.0 -0.6789 -0.962
4778000000.0 -1.19 -0.1124
4781000000.0 -0.8394 0.8597
4784000000.0 0.1289 1.18
4788000000.0 1.013 0.6884
4791000000.0 1.187 -0.3172
4794000000.0 0.5229 -1.134
4797000000.0 -0.5186 -1.108
4800000000.0 -1.213 -0.338
4803000000.0 -1.029 0.7085
4806000000.0 -0.1308 1.265
4809000000.0 0.8816 0.9321
4812000000.0 1.281 -0.07105
4816000000.0 0.7888 -1.071
4819000000.0 -0.3335 -1.273
4822000000.0 -1.19 -0.5583
4825000000.0 -1.257 0.5808
4828000000.0 -0.3456 1.337
4831000000.0 0.8136 1.121
4834000000.0 1.407 0.09235
4838000000.0 0.9522 -1.053
4841000000.0 -0.2258 -1.394
4844000000.0 -1.203 -0.7133
4847000000.0 -1.324 0.462
4850000000.0 -0.4765 1.327
4853000000.0 0.7472 1.201
4856000000.0 1.352 0.1908
4859000000.0 1.0 -0.9091
4862000000.0 -0.0767 -1.348
4866000000.0 -1.098 -0.7954
4869000000.0 -1.307 0.3393
4872000000.0 -0.5265 1.213
4875000000.0 0.6051 1.133
4878000000.0 1.231 0.2514
4881000000.0 1.011 -0.802
4884000000.0 -0.005201 -1.28
4888000000.0 -0.9791 -0.7693
4891000000.0 -1.181 0.2626
4894000000.0 -0.5257 1.051
4897000000.0 0.5233 1.062
4900000000.0 1.071 0.2909
4903000000.0 0.8714 -0.6652
4906000000.0 0.0383 -1.109
4909000000.0 -0.8101 -0.6955
4912000000.0 -1.032 0.1753
4916000000.0 -0.482 0.8894
4919000000.0 0.382 0.9483
4922000000.0 0.9683 0.295
4925000000.0 0.8152 -0.5204
4928000000.0 0.1028 -0.9701
4931000000.0 -0.6465 -0.6764
4934000000.0 -0.9462 0.06117
4938000000.0 -0.5203 0.797
4941000000.0 0.2974 0.9046
4944000000.0 0.8589 0.3699
4947000000.0 0.8378 -0.4393
4950000000.0 0.2026 -0.9205
4953000000.0 -0.5998 -0.7248
4956000000.0 -0.962 0.008379
4959000000.0 -0.6127 0.7491
4962000000.0 0.195 0.9643
4966000000.0 0.8603 0.4489
4969000000.0 0.9086 -0.3753
4972000000.0 0.2623 -0.9653
4975000000.0 -0.5766 -0.8288
4978000000.0 -1.03 -0.05983
4981000000.0 -0.7366 0.7291
4984000000.0 0.1058 1.027
4988000000.0 0.8626 0.6119
4991000000.0 1.019 -0.2992
4994000000.0 0.4231 -0.9995
4997000000.0 -0.5165 -0.9674
5000000000.0 -1.113 -0.2407
5003000000.0 -0.9234 0.6973
5006000000.0 -0.03733 1.184
5009000000.0 0.8671 0.8121
5012000000.0 1.217 -0.1858
5016000000.0 0.6421 -1.037
5019000000.0 -0.4277 -1.165
5022000000.0 -1.188 -0.4116
5025000000.0 -1.116 0.6885
5028000000.0 -0.1721 1.283
5031000000.0 0.8475 0.9501
5034000000.0 1.276 -0.08531
5038000000.0 0.7499 -1.047
5041000000.0 -0.2945 -1.247
5044000000.0 -1.148 -0.5828
5047000000.0 -1.199 0.5283
5050000000.0 -0.3423 1.292
5053000000.0 0.7028 1.085
5056000000.0 1.281 0.1649
5059000000.0 0.9585 -0.9101
5062000000.0 -0.09608 -1.29
5066000000.0 -1.072 -0.7752
5069000000.0 -1.287 0.3123
5072000000.0 -0.5448 1.168
5075000000.0 0.5483 1.134
5078000000.0 1.245 0.3283
5081000000.0 1.022 -0.7446
5084000000.0 0.08367 -1.237
5088000000.0 -0.8861 -0.8389
5091000000.0 -1.177 0.131
5094000000.0 -0.689 1.007
5097000000.0 0.3143 1.108
5100000000.0 1.053 0.4578
5103000000.0 1.011 -0.4978
5106000000.0 0.2766 -1.061
5109000000.0 -0.6591 -0.8645
5112000000.0 -1.066 -0.07323
5116000000.0 -0.7166 0.7832
5119000000.0 0.09162 1.072
5122000000.0 0.827 0.5537
5125000000.0 0.9723 -0.2845
5128000000.0 0.4204 -0.9205
5131000000.0 -0.4341 -0.8773
5134000000.0 -0.9657 -0.2112
5138000000.0 -0.789 0.6003
5141000000.0 -0.0267 0.9843
5144000000.0 0.7207 0.6145
5147000000.0 0.9355 -0.1826
5150000000.0 0.4595 -0.8222
5153000000.0 -0.3553 -0.8347
5156000000.0 -0.8591 -0.2427
5159000000.0 -0.7888 0.5133
5162000000.0 -0.08571 0.9232
5166000000.0 0.662 0.6035
5169000000.0 0.9282 -0.06013
5172000000.0 0.4972 -0.7548
5175000000.0 -0.2718 -0.8718
5178000000.0 -0.8392 -0.3107
5181000000.0 -0.7825 0.477
5184000000.0 -0.124 0.9155
5188000000.0 0.6371 0.6905
5191000000.0 0.9371 -0.06865
5194000000.0 0.5114 -0.7642
5197000000.0 -0.2799 -0.9064
5200000000.0 -0.8696 -0.3372
5203000000.0 -0.8225 0.463
5206000000.0 -0.1305 0.9498
5209000000.0 0.6563 0.7099
5212000000.0 0.9571 -0.03844
5216000000.0 0.5485 -0.7817
5219000000.0 -0.2678 -0.9488
5222000000.0 -0.9074 -0.3752
5225000000.0 -0.8992 0.4618
5228000000.0 -0.2141 1.003
5231000000.0 0.6272 0.8044
5234000000.0 1.042 0.01525
5238000000.0 0.6815 -0.8024
5241000000.0 -0.1883 -1.036
5244000000.0 -0.9206 -0.5367
5247000000.0 -0.9861 0.4073
5250000000.0 -0.3412 1.01
5253000000.0 0.5491 0.931
5256000000.0 1.07 0.1477
5259000000.0 0.8158 -0.7282
5262000000.0 -0.02299 -1.084
5266000000.0 -0.8581 -0.6615
5269000000.0 -1.105 0.205
5272000000.0 -0.5187 0.9801
5275000000.0 0.3943 1.013
5278000000.0 1.023 0.3384
5281000000.0 0.9433 -0.5453
5284000000.0 0.1825 -1.095
5288000000.0 -0.7389 -0.8468
5291000000.0 -1.098 0.02851
5294000000.0 -0.7415 0.8674
5297000000.0 0.1538 1.095
5300000000.0 0.9733 0.5801
5303000000.0 1.043 -0.3627
5306000000.0 0.4378 -1.036
5309000000.0 -0.5517 -0.9863
5312000000.0 -1.141 -0.2296
5316000000.0 -0.9173 0.7034
5319000000.0 -0.05426 1.151
5322000000.0 0.8262 0.7748
5325000000.0 1.152 -0.1561
5328000000.0 0.5968 -0.9745
5331000000.0 -0.3631 -1.132
5334000000.0 -1.061 -0.4037
5338000000.0 -0.9889 0.5532
5341000000.0 -0.1759 1.113
5344000000.0 0.7391 0.8546
5347000000.0 1.082 -0.01388
5350000000.0 0.6723 -0.8575
5353000000.0 -0.2276 -1.093
5356000000.0 -0.9911 -0.4986
5359000000.0 -1.005 0.4412
5362000000.0 -0.2744 1.043
5366000000.0 0.6196 0.8707
5369000000.0 1.045 0.05369
5372000000.0 0.6775 -0.7836
5375000000.0 -0.1835 -1.012
5378000000.0 -0.8826 -0.5087
5381000000.0 -0.9346 0.3937
5384000000.0 -0.258 0.9782
5388000000.0 0.5749 0.7875
5391000000.0 0.9586 0.04756
5394000000.0 0.623 -0.7366
5397000000.0 -0.1818 -0.9243
5400000000.0 -0.8191 -0.4277
5403000000.0 -0.8125 0.382
5406000000.0 -0.1868 0.8489
5409000000.0 0.5357 0.7162
5412000000.0 0.904 0.01057
5416000000.0 0.5878 -0.6756
5419000000.0 -0.1914 -0.8626
5422000000.0 -0.7749 -0.4019
5425000000.0 -0.7748 0.3779
5428000000.0 -0.18 0.8647
5431000000.0 0.5414 0.6586
5434000000.0 0.8678 -0.00961
5438000000.0 0.5461 -0.6659
5441000000.0 -0.2101 -0.8725
5444000000.0 -0.7711 -0.4137
5447000000.0 -0.7946 0.3845
5450000000.0 -0.2085 0.8796
5453000000.0 0.549 0.7042
5456000000.0 0.8887 0.003997
5459000000.0 0.6144 -0.6748
5462000000.0 -0.1463 -0.89
5466000000.0 -0.7864 -0.4544
5469000000.0 -0.8368 0.3066
5472000000.0 -0.3159 0.8295
5475000000.0 0.4466 0.8307
5478000000.0 0.9287 0.1714
5481000000.0 0.7211 -0.5805
5484000000.0 0.02978 -0.9525
5488000000.0 -0.7686 -0.6601
5491000000.0 -0.9608 0.1805
5494000000.0 -0.4656 0.8665
5497000000.0 0.3427 0.9386
5500000000.0 0.9623 0.3488
5503000000.0 0.9058 -0.5028
5506000000.0 0.1626 -0.9794
5509000000.0 -0.6366 -0.7991
5512000000.0 -1.045 -0.00466
5516000000.0 -0.6852 0.8033
5519000000.0 0.1922 1.014
5522000000.0 0.8984 0.5449
5525000000.0 0.9944 -0.3298
5528000000.0 0.3319 -0.9789
5531000000.0 -0.4961 -0.8996
5534000000.0 -1.025 -0.2052
5538000000.0 -0.8283 0.6676
5541000000.0 0.0007871 1.112
5544000000.0 0.797 0.7159
5547000000.0 1.101 -0.1585
5550000000.0 0.5635 -0.9275
5553000000.0 -0.3567 -0.9749
5556000000.0 -1.003 -0.3648
5559000000.0 -0.9001 0.5329
5562000000.0 -0.1725 1.047
5566000000.0 0.6698 0.814
5569000000.0 1.051 -0.02797
5572000000.0 0.6192 -0.8038
5575000000.0 -0.2223 -0.9919
5578000000.0 -0.8877 -0.4815
5581000000.0 -0.9023 0.3669
5584000000.0 -0.2804 0.9346
5588000000.0 0.5325 0.8123
5591000000.0 0.9668 0.08933
5594000000.0 0.6647 -0.677
5597000000.0 -0.1384 -0.9378
5600000000.0 -0.7726 -0.5204
5603000000.0 -0.8409 0.2769
5606000000.0 -0.3082 0.8307
5609000000.0 0.4689 0.7826
5612000000.0 0.8779 0.1879
5616000000.0 0.6422 -0.5802
5619000000.0 -0.02609 -0.8496
5622000000.0 -0.6705 -0.5137
5625000000.0 -0.8164 0.1994
5628000000.0 -0.3615 0.7592
5631000000.0 0.3762 0.7436
5634000000.0 0.8382 0.1865
5638000000.0 0.6574 -0.509
5641000000.0 -0.007884 -0.8301
5644000000.0 -0.665 -0.5187
5647000000.0 -0.8094 0.2064
5650000000.0 -0.3938 0.7722
5653000000.0 0.3668 0.7711
5656000000.0 0.8513 0.1853
5659000000.0 0.6889 -0.5244
5662000000.0 0.01421 -0.8589
5666000000.0 -0.6694 -0.5336
5669000000.0 -0.8727 0.1794
5672000000.0 -0.3906 0.7859
5675000000.0 0.382 0.8075
5678000000.0 0.8917 0.2059
5681000000.0 0.7256 -0.5611
5684000000.0 0.01576 -0.9347
5688000000.0 -0.7417 -0.6099
5691000000.0 -0.96 0.1896
5694000000.0 -0.4359 0.8501
5697000000.0 0.3694 0.9216
5700000000.0 0.9359 0.2779
5703000000.0 0.8209 -0.5855
5706000000.0 0.07607 -1.03
5709000000.0 -0.7336 -0.7292
5712000000.0 -1.049 0.107
5716000000.0 -0.541 0.8985
5719000000.0 0.3196 1.021
5722000000.0 0.9759 0.4178
5725000000.0 0.9738 -0.5293
5728000000.0 0.1878 -1.079
5731000000.0 -0.6932 -0.8689
5734000000.0 -1.094 -0.008236
5738000000.0 -0.7201 0.807
5741000000.0 0.1877 1.103
5744000000.0 0.9526 0.5768
5747000000.0 1.056 -0.3905
5750000000.0 0.372 -1.038
5753000000.0 -0.5624 -0.9504
5756000000.0 -1.086 -0.1959
5759000000.0 -0.8513 0.7279
5762000000.0 0.05171 1.08
5766000000.0 0.8322 0.7089
5769000000.0 1.08 -0.2408
5772000000.0 0.5201 -0.9793
5775000000.0 -0.385 -1.055
5778000000.0 -1.088 -0.321
5781000000.0 -0.9234 0.5872
5784000000.0 -0.1569 1.088
5788000000.0 0.7032 0.7937
5791000000.0 1.089 -0.02636
5794000000.0 0.6568 -0.8188
5797000000.0 -0.232 -1.011
5800000000.0 -0.9649 -0.4765
5803000000.0 -0.9871 0.4401
5806000000.0 -0.2723 1.018
5809000000.0 0.5932 0.8591
5812000000.0 1.075 0.0768
5816000000.0 0.7287 -0.7599
5819000000.0 -0.07902 -0.994
5822000000.0 -0.8596 -0.5321
5825000000.0 -0.9608 0.293
5828000000.0 -0.346 0.8939
5831000000.0 0.4944 0.8684
5834000000.0 0.9545 0.1664
5838000000.0 0.7208 -0.6188
5841000000.0 -0.03813 -0.976
5844000000.0 -0.7544 -0.5681
5847000000.0 -0.9373 0.2186
5850000000.0 -0.3995 0.8471
5853000000.0 0.4124 0.8382
5856000000.0 0.9039 0.1977
5859000000.0 0.7391 -0.5938
5862000000.0 -0.004915 -0.9433
5866000000.0 -0.7401 -0.5626
5869000000.0 -0.9015 0.2369
5872000000.0 -0.3829 0.7975
5875000000.0 0.3913 0.7753
5878000000.0 0.8412 0.1973
5881000000.0 0.7081 -0.5395
5884000000.0 0.01774 -0.8713
5888000000.0 -0.6546 -0.5339
5891000000.0 -0.8356 0.1603
5894000000.0 -0.3894 0.7548
5897000000.0 0.365 0.8049
5900000000.0 0.807 0.2333
5903000000.0 0.742 -0.4939
5906000000.0 0.04636 -0.8834
5909000000.0 -0.6294 -0.579
5912000000.0 -0.8605 0.09914
5916000000.0 -0.4787 0.7685
5919000000.0 0.2729 0.8437
5922000000.0 0.7823 0.2969
5925000000.0 0.735 -0.4071
5928000000.0 0.1634 -0.8646
5931000000.0 -0.5624 -0.6853
5934000000.0 -0.8824 0.04445
5938000000.0 -0.5557 0.7172
5941000000.0 0.1861 0.8969
5944000000.0 0.8201 0.4207
5947000000.0 0.8443 -0.354
5950000000.0 0.3054 -0.8985
5953000000.0 -0.4949 -0.7683
5956000000.0 -0.8978 -0.1325
5959000000.0 -0.6817 0.6015
5962000000.0 0.06255 0.9132
5966000000.0 0.7641 0.5982
5969000000.0 0.9323 -0.1991
5972000000.0 0.4641 -0.8573
5975000000.0 -0.3684 -0.8766
5978000000.0 -0.9144 -0.2953
5981000000.0 -0.8334 0.5194
5984000000.0 -0.1273 0.9836
5988000000.0 0.6784 0.7344
5991000000.0 0.9838 -0.06791
5994000000.0 0.6052 -0.8377
5997000000.0 -0.2671 -1.006
6000000000.0 -0.8961 -0.4506
6003000000.0 -0.8987 0.4316
6006000000.0 -0.2644 0.9676
6009000000.0 0.5835 0.7885
6012000000.0 0.9882 0.04366
6016000000.0 0.6753 -0.7378
6019000000.0 -0.1751 -0.9887
6022000000.0 -0.8473 -0.5394
6025000000.0 -0.927 0.3447
6028000000.0 -0.3337 0.9463
6031000000.0 0.5305 0.836
6034000000.0 0.9673 0.1511
6038000000.0 0.6879 -0.6795
6041000000.0 -0.04351 -0.9636
6044000000.0 -0.7518 -0.5812
6047000000.0 -0.8842 0.264
6050000000.0 -0.3433 0.8504
6053000000.0 0.4318 0.8476
6056000000.0 0.9118 0.1835
6059000000.0 0.719 -0.5901
6062000000.0 -0.02733 -0.9232
6066000000.0 -0.6991 -0.5465
6069000000.0 -0.8701 0.2104
6072000000.0 -0.3678 0.8158
6075000000.0 0.3662 0.8013
6078000000.0 0.8611 0.2019
6081000000.0 0.7093 -0.5442
6084000000.0 0.04741 -0.8428
6088000000.0 -0.6706 -0.5633
6091000000.0 -0.8124 0.1496
6094000000.0 -0.4457 0.7498
6097000000.0 0.3266 0.7881
6100000000.0 0.8039 0.2769
6103000000.0 0.7253 -0.4922
6106000000.0 0.07015 -0.8474
6109000000.0 -0.6067 -0.599
6112000000.0 -0.8459 0.1264
6116000000.0 -0.4673 0.728
6119000000.0 0.2806 0.8101
6122000000.0 0.8256 0.2769
6125000000.0 0.7575 -0.4811
6128000000.0 0.09691 -0.8652
6131000000.0 -0.617 -0.6273
6134000000.0 -0.8785 0.08335
6138000000.0 -0.4845 0.7334
6141000000.0 0.237 0.8688
6144000000.0 0.8436 0.335
6147000000.0 0.8035 -0.4239
6150000000.0 0.1638 -0.8713
6153000000.0 -0.5746 -0.6956
6156000000.0 -0.9193 0.01987
6159000000.0 -0.5666 0.729
6162000000.0 0.1819 0.907
6166000000.0 0.8424 0.4196
6169000000.0 0.8694 -0.3447
6172000000.0 0.268 -0.9103
6175000000.0 -0.5618 -0.7561
6178000000.0 -0.9234 -0.07021
6181000000.0 -0.6648 0.677
6184000000.0 0.1099 0.9426
6188000000.0 0.8234 0.5103
6191000000.0 0.9101 -0.3024
6194000000.0 0.3594 -0.895
6197000000.0 -0.483 -0.8191
6200000000.0 -0.9307 -0.1367
6203000000.0 -0.6974 0.6356
6206000000.0 0.02762 0.9563
6209000000.0 0.7182 0.5589
6212000000.0 0.9048 -0.2289
6216000000.0 0.4228 -0.7965
6219000000.0 -0.3595 -0.8762
6222000000.0 -0.8504 -0.2788
6225000000.0 -0.7443 0.4907
6228000000.0 -0.1021 0.9006
6231000000.0 0.6451 0.6483
6234000000.0 0.8889 -0.05291
6238000000.0 0.4851 -0.711
6241000000.0 -0.245 -0.8441
6244000000.0 -0.8254 -0.3684
6247000000.0 -0.7979 0.3796
6250000000.0 -0.2167 0.8186
6253000000.0 0.4955 0.6581
6256000000.0 0.8439 0.03199
6259000000.0 0.5754 -0.5903
6262000000.0 -0.08423 -0.8011
