! Created with skrf 1.8.0 (http://scikit-rf.org).
# Hz S RI R 50.0 
!freq ReS11 ImS11
4000000000.0 -0.1407 -1.512
4003000000.0 -1.29 -0.8222
4006000000.0 -1.426 0.4767
4009000000.0 -0.5383 1.417
4012000000.0 0.7947 1.303
4016000000.0 1.556 0.2115
4019000000.0 1.11 -1.052
4022000000.0 -0.1086 -1.548
4025000000.0 -1.316 -0.8707
4028000000.0 -1.544 0.4587
4031000000.0 -0.6038 1.508
4034000000.0 0.8106 1.39
4038000000.0 1.582 0.215
4041000000.0 1.2 -1.142
4044000000.0 -0.1232 -1.635
4047000000.0 -1.309 -0.9252
4050000000.0 -1.588 0.4707
4053000000.0 -0.6754 1.512
4056000000.0 0.7612 1.447
4059000000.0 1.554 0.3261
4062000000.0 1.264 -1.014
4066000000.0 0.01681 -1.579
4069000000.0 -1.218 -1.045
4072000000.0 -1.607 0.2614
4075000000.0 -0.8736 1.424
4078000000.0 0.5696 1.569
4081000000.0 1.553 0.5557
4084000000.0 1.433 -0.8675
4088000000.0 0.2426 -1.691
4091000000.0 -1.129 -1.233
4094000000.0 -1.633 0.05843
4097000000.0 -1.008 1.307
4100000000.0 0.3719 1.609
4103000000.0 1.416 0.6949
4106000000.0 1.449 -0.6254
4109000000.0 0.4527 -1.485
4112000000.0 -0.8333 -1.318
4116000000.0 -1.469 -0.1702
4119000000.0 -1.128 1.008
4122000000.0 0.001909 1.474
4125000000.0 1.133 0.9363
4128000000.0 1.452 -0.229
4131000000.0 0.8086 -1.234
4134000000.0 -0.4211 -1.439
4138000000.0 -1.35 -0.6001
4141000000.0 -1.316 0.6685
4144000000.0 -0.3883 1.456
4147000000.0 0.8678 1.246
4150000000.0 1.497 0.1214
4153000000.0 1.108 -1.048
4156000000.0 -0.1149 -1.523
4159000000.0 -1.217 -0.8746
4162000000.0 -1.464 0.3832
4166000000.0 -0.6505 1.386
4169000000.0 0.6594 1.398
4172000000.0 1.446 0.3989
4175000000.0 1.238 -0.8377
4178000000.0 0.1436 -1.495
4181000000.0 -1.011 -1.103
4184000000.0 -1.529 0.05798
4188000000.0 -0.9302 1.214
4191000000.0 0.3663 1.496
4194000000.0 1.388 0.6508
4197000000.0 1.433 -0.6333
4200000000.0 0.3924 -1.538
4203000000.0 -0.9688 -1.242
4206000000.0 -1.643 -0.05598
4209000000.0 -1.041 1.234
4212000000.0 0.3599 1.627
4216000000.0 1.517 0.7204
4219000000.0 1.491 -0.7438
4222000000.0 0.3426 -1.673
4225000000.0 -1.126 -1.315
4228000000.0 -1.643 0.1327
4231000000.0 -0.9476 1.433
4234000000.0 0.5542 1.557
4238000000.0 1.58 0.4938
4241000000.0 1.355 -0.9082
4244000000.0 0.1397 -1.636
4247000000.0 -1.197 -1.054
4250000000.0 -1.515 0.3316
4253000000.0 -0.7132 1.408
4256000000.0 0.6855 1.381
4259000000.0 1.511 0.3534
4262000000.0 1.195 -0.9975
4266000000.0 -0.05505 -1.507
4269000000.0 -1.233 -0.8609
4272000000.0 -1.448 0.4402
4275000000.0 -0.5405 1.361
4278000000.0 0.7498 1.242
4281000000.0 1.434 0.157
4284000000.0 1.05 -1.019
4288000000.0 -0.1414 -1.407
4291000000.0 -1.162 -0.7625
4294000000.0 -1.338 0.3962
4297000000.0 -0.5037 1.258
4300000000.0 0.6331 1.168
4303000000.0 1.29 0.2347
4306000000.0 1.008 -0.7798
4309000000.0 0.02794 -1.286
4312000000.0 -0.9547 -0.8646
4316000000.0 -1.261 0.2113
4319000000.0 -0.6526 1.116
4322000000.0 0.4049 1.228
4325000000.0 1.216 0.4782
4328000000.0 1.181 -0.5978
4331000000.0 0.3113 -1.347
4334000000.0 -0.8139 -1.085
4338000000.0 -1.407 -0.03784
4341000000.0 -0.9121 1.02
4344000000.0 0.2059 1.392
4347000000.0 1.211 0.7398
4350000000.0 1.346 -0.4783
4353000000.0 0.4959 -1.356
4356000000.0 -0.7396 -1.255
4359000000.0 -1.441 -0.2296
4362000000.0 -1.094 0.9519
4366000000.0 0.00122 1.476
4369000000.0 1.133 0.927
4372000000.0 1.482 -0.2823
4375000000.0 0.7062 -1.281
4378000000.0 -0.5781 -1.387
4381000000.0 -1.43 -0.4844
4384000000.0 -1.281 0.8471
4388000000.0 -0.1753 1.537
4391000000.0 1.088 1.141
4394000000.0 1.559 -0.1534
4397000000.0 0.8664 -1.324
4400000000.0 -0.4983 -1.519
4403000000.0 -1.483 -0.5583
4406000000.0 -1.351 0.8266
4409000000.0 -0.2045 1.567
4412000000.0 1.113 1.08
4416000000.0 1.567 -0.1765
4419000000.0 0.7993 -1.347
4422000000.0 -0.5227 -1.449
4425000000.0 -1.448 -0.4715
4428000000.0 -1.229 0.8448
4431000000.0 -0.09526 1.477
4434000000.0 1.102 0.9764
4438000000.0 1.388 -0.269
4441000000.0 0.6588 -1.251
4444000000.0 -0.6016 -1.283
4447000000.0 -1.341 -0.3318
4450000000.0 -1.034 0.8551
4453000000.0 0.0397 1.316
4456000000.0 1.033 0.7865
4459000000.0 1.236 -0.3488
4462000000.0 0.4715 -1.174
4466000000.0 -0.6329 -1.103
4469000000.0 -1.236 -0.1602
4472000000.0 -0.8518 0.8468
4475000000.0 0.1623 1.194
4478000000.0 1.011 0.6022
4481000000.0 1.078 -0.4567
4484000000.0 0.339 -1.109
4488000000.0 -0.6514 -0.9569
4491000000.0 -1.165 -0.03961
4494000000.0 -0.7775 0.8469
4497000000.0 0.195 1.114
4500000000.0 0.985 0.5592
4503000000.0 1.006 -0.3865
4506000000.0 0.2906 -1.076
4509000000.0 -0.6194 -0.8779
4512000000.0 -1.096 -0.111
4516000000.0 -0.806 0.8022
4519000000.0 0.1445 1.106
4522000000.0 0.9343 0.6378
4525000000.0 1.078 -0.3446
4528000000.0 0.393 -1.085
4531000000.0 -0.5684 -1.014
4534000000.0 -1.162 -0.1933
4538000000.0 -0.8918 0.7655
4541000000.0 0.005547 1.163
4544000000.0 0.9425 0.7437
4547000000.0 1.196 -0.2332
4550000000.0 0.5487 -1.084
4553000000.0 -0.4808 -1.132
4556000000.0 -1.155 -0.3854
4559000000.0 -1.026 0.6657
4562000000.0 -0.1864 1.231
4566000000.0 0.8482 0.9285
4569000000.0 1.265 -0.05685
4572000000.0 0.7694 -0.9896
4575000000.0 -0.2925 -1.247
4578000000.0 -1.165 -0.6054
4581000000.0 -1.224 0.5195
4584000000.0 -0.4057 1.26
4588000000.0 0.7462 1.129
4591000000.0 1.346 0.1425
4594000000.0 0.9617 -0.9689
4597000000.0 -0.09066 -1.397
4600000000.0 -1.13 -0.8006
4603000000.0 -1.368 0.3851
4606000000.0 -0.5576 1.308
4609000000.0 0.6177 1.245
4612000000.0 1.386 0.3226
4616000000.0 1.106 -0.8748
4619000000.0 0.01059 -1.413
4622000000.0 -1.041 -0.9118
4625000000.0 -1.378 0.2581
4628000000.0 -0.6638 1.236
4631000000.0 0.5328 1.282
4634000000.0 1.304 0.3788
4638000000.0 1.141 -0.7683
4641000000.0 0.09566 -1.357
4644000000.0 -1.014 -0.901
4647000000.0 -1.354 0.2172
4650000000.0 -0.6813 1.13
4653000000.0 0.4873 1.226
4656000000.0 1.252 0.386
4659000000.0 1.062 -0.7493
4662000000.0 0.08765 -1.245
4666000000.0 -0.9343 -0.8214
4669000000.0 -1.21 0.2093
4672000000.0 -0.6002 1.041
4675000000.0 0.443 1.089
4678000000.0 1.153 0.3286
4681000000.0 0.9414 -0.6299
4684000000.0 0.05694 -1.131
4688000000.0 -0.853 -0.7319
4691000000.0 -1.108 0.1877
4694000000.0 -0.5206 0.9547
4697000000.0 0.4133 1.028
4700000000.0 1.053 0.2994
4703000000.0 0.8938 -0.6563
4706000000.0 0.02778 -1.113
4709000000.0 -0.8296 -0.6764
4712000000.0 -1.032 0.2269
4716000000.0 -0.5044 0.9849
4719000000.0 0.467 0.9731
4722000000.0 1.048 0.2613
4725000000.0 0.8371 -0.6521
4728000000.0 0.04248 -1.067
4731000000.0 -0.777 -0.6474
4734000000.0 -1.035 0.2001
4738000000.0 -0.523 0.9138
4741000000.0 0.3904 0.9714
4744000000.0 0.9736 0.3238
4747000000.0 0.8876 -0.5532
4750000000.0 0.1434 -1.06
4753000000.0 -0.7301 -0.8321
4756000000.0 -1.106 0.04596
4759000000.0 -0.6747 0.8737
4762000000.0 0.2481 1.105
4766000000.0 1.033 0.5231
4769000000.0 1.04 -0.4436
4772000000.0 0.3544 -1.111
4775000000.0 -0.6368 -0.9716
4778000000.0 -1.167 -0.1457
4781000000.0 -0.8413 0.7811
4784000000.0 0.05683 1.195
4788000000.0 0.9685 0.7025
4791000000.0 1.185 -0.2908
4794000000.0 0.542 -1.085
4797000000.0 -0.4771 -1.15
4800000000.0 -1.204 -0.4005
4803000000.0 -1.043 0.6501
4806000000.0 -0.1776 1.218
4809000000.0 0.8549 0.9597
4812000000.0 1.284 -0.04153
4816000000.0 0.7825 -1.033
4819000000.0 -0.2697 -1.262
4822000000.0 -1.17 -0.6251
4825000000.0 -1.256 0.5247
4828000000.0 -0.396 1.334
4831000000.0 0.7623 1.171
4834000000.0 1.406 0.1291
4838000000.0 0.9852 -0.9708
4841000000.0 -0.1238 -1.393
4844000000.0 -1.171 -0.7676
4847000000.0 -1.341 0.427
4850000000.0 -0.5182 1.285
4853000000.0 0.6579 1.194
4856000000.0 1.336 0.2701
4859000000.0 1.062 -0.909
4862000000.0 -0.001896 -1.372
4866000000.0 -1.063 -0.8261
4869000000.0 -1.328 0.3044
4872000000.0 -0.6079 1.181
4875000000.0 0.5501 1.204
4878000000.0 1.244 0.3223
4881000000.0 1.03 -0.7309
4884000000.0 0.04517 -1.265
4888000000.0 -0.9651 -0.8217
4891000000.0 -1.193 0.2046
4894000000.0 -0.5739 1.032
4897000000.0 0.464 1.071
4900000000.0 1.089 0.3355
4903000000.0 0.9178 -0.6701
4906000000.0 0.08421 -1.097
4909000000.0 -0.7844 -0.74
4912000000.0 -1.036 0.1404
4916000000.0 -0.5377 0.8753
4919000000.0 0.3475 0.9453
4922000000.0 0.9252 0.3403
4925000000.0 0.8649 -0.4831
4928000000.0 0.1634 -0.9674
4931000000.0 -0.6188 -0.7127
4934000000.0 -0.9607 0.02289
4938000000.0 -0.572 0.7428
4941000000.0 0.2098 0.9118
4944000000.0 0.8394 0.4215
4947000000.0 0.8486 -0.4036
4950000000.0 0.2516 -0.9223
4953000000.0 -0.581 -0.775
4956000000.0 -0.9804 -0.02634
4959000000.0 -0.6408 0.7047
4962000000.0 0.1528 0.9631
4966000000.0 0.8694 0.482
4969000000.0 0.9133 -0.3197
4972000000.0 0.3068 -0.9711
4975000000.0 -0.5275 -0.8401
4978000000.0 -1.014 -0.1374
4981000000.0 -0.7563 0.6977
4984000000.0 0.04892 1.039
4988000000.0 0.8325 0.6502
4991000000.0 1.007 -0.2709
4994000000.0 0.4836 -0.9654
4997000000.0 -0.4779 -0.9892
5000000000.0 -1.082 -0.2586
5003000000.0 -0.9238 0.6551
5006000000.0 -0.07901 1.162
5009000000.0 0.8582 0.8152
5012000000.0 1.219 -0.1304
5016000000.0 0.6585 -1.015
5019000000.0 -0.3877 -1.15
5022000000.0 -1.172 -0.4674
5025000000.0 -1.093 0.6116
5028000000.0 -0.2237 1.253
5031000000.0 0.7898 0.9884
5034000000.0 1.31 0.001395
5038000000.0 0.8408 -0.9826
5041000000.0 -0.2081 -1.252
5044000000.0 -1.119 -0.617
5047000000.0 -1.213 0.4644
5050000000.0 -0.4054 1.23
5053000000.0 0.6638 1.108
5056000000.0 1.284 0.2038
5059000000.0 1.011 -0.8849
5062000000.0 -0.06336 -1.306
5066000000.0 -1.02 -0.7876
5069000000.0 -1.266 0.2936
5072000000.0 -0.6305 1.12
5075000000.0 0.5079 1.207
5078000000.0 1.2 0.4259
5081000000.0 1.057 -0.709
5084000000.0 0.1476 -1.231
5088000000.0 -0.8103 -0.8881
5091000000.0 -1.236 0.1292
5094000000.0 -0.7183 1.003
5097000000.0 0.302 1.134
5100000000.0 1.036 0.5056
5103000000.0 1.05 -0.4527
5106000000.0 0.3272 -1.061
5109000000.0 -0.6183 -0.9646
5112000000.0 -1.091 -0.1191
5116000000.0 -0.7961 0.7605
5119000000.0 0.09401 1.056
5122000000.0 0.8507 0.6233
5125000000.0 1.011 -0.2669
5128000000.0 0.4452 -0.9108
5131000000.0 -0.4311 -0.9285
5134000000.0 -0.985 -0.2442
5138000000.0 -0.8247 0.5539
5141000000.0 -0.04781 0.9835
5144000000.0 0.6919 0.6535
5147000000.0 0.9257 -0.1234
5150000000.0 0.4722 -0.7813
5153000000.0 -0.3182 -0.8479
5156000000.0 -0.8432 -0.3046
5159000000.0 -0.7864 0.469
5162000000.0 -0.135 0.8904
5166000000.0 0.6086 0.6656
5169000000.0 0.8877 -0.04249
5172000000.0 0.5197 -0.7395
5175000000.0 -0.2357 -0.8835
5178000000.0 -0.8401 -0.3851
5181000000.0 -0.8051 0.4042
5184000000.0 -0.168 0.8909
5188000000.0 0.5754 0.7049
5191000000.0 0.9328 -0.02838
5194000000.0 0.5434 -0.7544
5197000000.0 -0.2588 -0.9149
5200000000.0 -0.8412 -0.3626
5203000000.0 -0.8576 0.4341
5206000000.0 -0.1923 0.8922
5209000000.0 0.5872 0.7489
5212000000.0 0.9679 -0.004822
5216000000.0 0.5838 -0.7744
5219000000.0 -0.2208 -0.9669
5222000000.0 -0.9158 -0.4461
5225000000.0 -0.917 0.429
5228000000.0 -0.2706 0.9807
5231000000.0 0.5915 0.8377
5234000000.0 1.038 0.05964
5238000000.0 0.684 -0.7675
5241000000.0 -0.1379 -1.026
5244000000.0 -0.8991 -0.5604
5247000000.0 -0.9974 0.3462
5250000000.0 -0.3716 0.9968
5253000000.0 0.5106 0.9289
5256000000.0 1.084 0.2274
5259000000.0 0.8577 -0.6779
5262000000.0 0.001517 -1.079
5266000000.0 -0.8277 -0.7047
5269000000.0 -1.056 0.1754
5272000000.0 -0.5667 0.9328
5275000000.0 0.3791 1.043
5278000000.0 1.012 0.3706
5281000000.0 0.965 -0.5268
5284000000.0 0.2344 -1.086
5288000000.0 -0.6619 -0.8959
5291000000.0 -1.085 -0.06157
5294000000.0 -0.7727 0.8299
5297000000.0 0.1669 1.13
5300000000.0 0.9578 0.5948
5303000000.0 1.123 -0.3295
5306000000.0 0.4751 -1.044
5309000000.0 -0.5001 -1.03
5312000000.0 -1.122 -0.2968
5316000000.0 -0.9341 0.6801
5319000000.0 -0.1117 1.166
5322000000.0 0.8119 0.8341
5325000000.0 1.166 -0.1161
5328000000.0 0.6619 -0.968
5331000000.0 -0.287 -1.084
5334000000.0 -1.062 -0.4617
5338000000.0 -1.03 0.4821
5341000000.0 -0.2465 1.092
5344000000.0 0.7008 0.8766
5347000000.0 1.131 0.05224
5350000000.0 0.7299 -0.8399
5353000000.0 -0.1832 -1.087
5356000000.0 -0.9397 -0.563
5359000000.0 -0.9951 0.3849
5362000000.0 -0.3449 1.025
5366000000.0 0.5913 0.898
5369000000.0 1.044 0.1441
5372000000.0 0.715 -0.7647
5375000000.0 -0.1183 -1.043
5378000000.0 -0.8947 -0.5828
5381000000.0 -0.9567 0.349
5384000000.0 -0.357 0.9573
5388000000.0 0.5071 0.8268
5391000000.0 0.9664 0.09193
5394000000.0 0.6671 -0.7114
5397000000.0 -0.1489 -0.9312
5400000000.0 -0.7878 -0.4894
5403000000.0 -0.8814 0.3355
5406000000.0 -0.2447 0.8625
5409000000.0 0.4953 0.719
5412000000.0 0.8774 0.08747
5416000000.0 0.5912 -0.6548
5419000000.0 -0.1168 -0.8894
5422000000.0 -0.7504 -0.455
5425000000.0 -0.8174 0.2972
5428000000.0 -0.2476 0.8231
5431000000.0 0.4603 0.7132
5434000000.0 0.893 0.06835
5438000000.0 0.6142 -0.6551
5441000000.0 -0.1484 -0.8734
5444000000.0 -0.7871 -0.4604
5447000000.0 -0.8336 0.3244
5450000000.0 -0.2568 0.8261
5453000000.0 0.4643 0.7634
5456000000.0 0.8828 0.1058
5459000000.0 0.6406 -0.6254
5462000000.0 -0.07409 -0.894
5466000000.0 -0.7311 -0.5144
5469000000.0 -0.8826 0.2448
5472000000.0 -0.3517 0.844
5475000000.0 0.4107 0.8352
5478000000.0 0.9104 0.2372
5481000000.0 0.7493 -0.5363
5484000000.0 0.09463 -0.9609
5488000000.0 -0.7022 -0.659
5491000000.0 -0.9744 0.1094
5494000000.0 -0.5278 0.8282
5497000000.0 0.2756 0.9553
5500000000.0 0.9506 0.3888
5503000000.0 0.9012 -0.4482
5506000000.0 0.2743 -0.9804
5509000000.0 -0.6076 -0.817
5512000000.0 -1.028 -0.06629
5516000000.0 -0.6917 0.7485
5519000000.0 0.1392 1.01
5522000000.0 0.855 0.577
5525000000.0 0.9808 -0.2933
5528000000.0 0.4624 -0.9575
5531000000.0 -0.4824 -0.9487
5534000000.0 -1.009 -0.2541
5538000000.0 -0.8443 0.617
5541000000.0 -0.08894 1.048
5544000000.0 0.7527 0.77
5547000000.0 1.053 -0.09858
5550000000.0 0.5799 -0.8849
5553000000.0 -0.27 -1.012
5556000000.0 -0.9524 -0.4403
5559000000.0 -0.9476 0.4883
5562000000.0 -0.2437 1.035
5566000000.0 0.644 0.8487
5569000000.0 1.054 0.05901
5572000000.0 0.6898 -0.7724
5575000000.0 -0.1363 -1.011
5578000000.0 -0.859 -0.5033
5581000000.0 -0.9397 0.3116
5584000000.0 -0.3269 0.9188
5588000000.0 0.4768 0.8375
5591000000.0 0.938 0.1315
5594000000.0 0.7405 -0.6321
5597000000.0 -0.0292 -0.923
5600000000.0 -0.7397 -0.5724
5603000000.0 -0.8974 0.2324
5606000000.0 -0.4018 0.8286
5609000000.0 0.3679 0.8229
5612000000.0 0.8761 0.2347
5616000000.0 0.6976 -0.5067
5619000000.0 0.04272 -0.8775
5622000000.0 -0.6532 -0.5863
5625000000.0 -0.8607 0.1509
5628000000.0 -0.4274 0.7357
5631000000.0 0.2968 0.7802
5634000000.0 0.8067 0.2366
5638000000.0 0.7133 -0.4754
5641000000.0 0.08705 -0.8137
5644000000.0 -0.5894 -0.5712
5647000000.0 -0.833 0.1095
5650000000.0 -0.4175 0.7016
5653000000.0 0.2893 0.8242
5656000000.0 0.7991 0.266
5659000000.0 0.7311 -0.4545
5662000000.0 0.065 -0.8811
5666000000.0 -0.6246 -0.5888
5669000000.0 -0.869 0.1037
5672000000.0 -0.4594 0.7675
5675000000.0 0.3067 0.8469
5678000000.0 0.8485 0.2917
5681000000.0 0.7646 -0.5086
5684000000.0 0.09774 -0.9124
5688000000.0 -0.6463 -0.6748
5691000000.0 -0.9764 0.1004
5694000000.0 -0.5468 0.8316
5697000000.0 0.291 0.9501
5700000000.0 0.9402 0.3613
5703000000.0 0.8402 -0.4528
5706000000.0 0.1582 -0.9776
5709000000.0 -0.6705 -0.7501
5712000000.0 -1.029 0.03225
5716000000.0 -0.6305 0.8148
5719000000.0 0.2318 1.03
5722000000.0 0.934 0.436
5725000000.0 0.959 -0.4192
5728000000.0 0.2575 -1.011
5731000000.0 -0.608 -0.9018
5734000000.0 -1.065 -0.1191
5738000000.0 -0.7555 0.7461
5741000000.0 0.09405 1.06
5744000000.0 0.8912 0.606
5747000000.0 1.067 -0.2726
5750000000.0 0.4273 -0.9996
5753000000.0 -0.5149 -0.9912
5756000000.0 -1.09 -0.2518
5759000000.0 -0.9021 0.6801
5762000000.0 -0.07509 1.138
5766000000.0 0.8219 0.7249
5769000000.0 1.082 -0.147
5772000000.0 0.6169 -0.939
5775000000.0 -0.3312 -1.064
5778000000.0 -1.02 -0.4164
5781000000.0 -0.9989 0.5095
5784000000.0 -0.2266 1.071
5788000000.0 0.674 0.8671
5791000000.0 1.098 0.061
5794000000.0 0.7372 -0.7994
5797000000.0 -0.1607 -1.088
5800000000.0 -0.9257 -0.5508
5803000000.0 -0.9973 0.3635
5806000000.0 -0.361 1.008
5809000000.0 0.5038 0.9079
5812000000.0 1.038 0.1863
5816000000.0 0.7807 -0.7005
5819000000.0 -0.01991 -1.011
5822000000.0 -0.7891 -0.6416
5825000000.0 -0.9931 0.2308
5828000000.0 -0.4584 0.8816
5831000000.0 0.4118 0.8946
5834000000.0 0.9544 0.2544
5838000000.0 0.8115 -0.5518
5841000000.0 0.06152 -0.958
5844000000.0 -0.718 -0.645
5847000000.0 -0.9526 0.1403
5850000000.0 -0.4776 0.8148
5853000000.0 0.3275 0.8645
5856000000.0 0.8856 0.2826
5859000000.0 0.7753 -0.4989
5862000000.0 0.06405 -0.9191
5866000000.0 -0.6268 -0.6467
5869000000.0 -0.9006 0.09608
5872000000.0 -0.4905 0.7897
5875000000.0 0.2639 0.8438
5878000000.0 0.8258 0.3054
5881000000.0 0.7429 -0.4571
5884000000.0 0.1403 -0.887
5888000000.0 -0.6093 -0.63
5891000000.0 -0.847 0.06699
5894000000.0 -0.4566 0.7114
5897000000.0 0.2353 0.7954
5900000000.0 0.8128 0.3466
5903000000.0 0.7605 -0.3998
5906000000.0 0.149 -0.8619
5909000000.0 -0.5475 -0.639
5912000000.0 -0.8415 0.04067
5916000000.0 -0.5375 0.669
5919000000.0 0.213 0.86
5922000000.0 0.7675 0.433
5925000000.0 0.7879 -0.3419
5928000000.0 0.251 -0.8562
5931000000.0 -0.4963 -0.7355
5934000000.0 -0.9101 -0.09177
5938000000.0 -0.5917 0.5965
5941000000.0 0.08068 0.8725
5944000000.0 0.7581 0.4908
5947000000.0 0.8568 -0.2325
5950000000.0 0.3666 -0.8206
5953000000.0 -0.4199 -0.8461
5956000000.0 -0.8806 -0.2328
5959000000.0 -0.7459 0.5283
5962000000.0 -0.0509 0.948
5966000000.0 0.7052 0.6327
5969000000.0 0.9249 -0.1084
5972000000.0 0.5115 -0.8159
5975000000.0 -0.264 -0.8991
5978000000.0 -0.9142 -0.3829
5981000000.0 -0.8962 0.4631
5984000000.0 -0.222 0.9414
5988000000.0 0.6031 0.785
5991000000.0 0.9955 0.04419
5994000000.0 0.6731 -0.7653
5997000000.0 -0.1523 -0.9685
6000000000.0 -0.8693 -0.5204
6003000000.0 -0.9471 0.2953
6006000000.0 -0.3254 0.9637
6009000000.0 0.5051 0.8584
6012000000.0 1.001 0.1643
6016000000.0 0.7382 -0.6574
6019000000.0 -0.04223 -0.989
6022000000.0 -0.7897 -0.596
6025000000.0 -0.9422 0.2482
6028000000.0 -0.4541 0.899
6031000000.0 0.3857 0.9144
6034000000.0 0.956 0.2398
6038000000.0 0.8041 -0.5763
6041000000.0 0.04971 -0.9729
6044000000.0 -0.7282 -0.6478
6047000000.0 -0.9716 0.1614
6050000000.0 -0.4841 0.8305
6053000000.0 0.3216 0.895
6056000000.0 0.9371 0.283
6059000000.0 0.7699 -0.472
6062000000.0 0.1151 -0.9099
6066000000.0 -0.6305 -0.6491
6069000000.0 -0.8826 0.09226
6072000000.0 -0.4873 0.7641
6075000000.0 0.2493 0.8263
6078000000.0 0.8249 0.3202
6081000000.0 0.7733 -0.4337
6084000000.0 0.1406 -0.8589
6088000000.0 -0.5841 -0.6365
6091000000.0 -0.8573 0.01304
6094000000.0 -0.5026 0.6575
6097000000.0 0.2064 0.8031
6100000000.0 0.7752 0.354
6103000000.0 0.7671 -0.3685
6106000000.0 0.1735 -0.8394
6109000000.0 -0.5247 -0.6941
6112000000.0 -0.8515 -0.002524
6116000000.0 -0.5401 0.6683
6119000000.0 0.1699 0.8332
6122000000.0 0.7568 0.363
6125000000.0 0.814 -0.3456
6128000000.0 0.1877 -0.8795
6131000000.0 -0.5174 -0.6852
6134000000.0 -0.8834 -0.02714
6138000000.0 -0.5799 0.6629
6141000000.0 0.1238 0.852
6144000000.0 0.7662 0.432
6147000000.0 0.8196 -0.3296
6150000000.0 0.2759 -0.8422
6153000000.0 -0.4632 -0.7517
6156000000.0 -0.9104 -0.1149
6159000000.0 -0.6361 0.644
6162000000.0 0.0569 0.8891
6166000000.0 0.7596 0.5084
6169000000.0 0.9051 -0.2301
6172000000.0 0.3363 -0.8417
6175000000.0 -0.4417 -0.8541
6178000000.0 -0.8871 -0.1766
6181000000.0 -0.7656 0.6071
6184000000.0 -0.0126 0.9517
6188000000.0 0.7103 0.6061
6191000000.0 0.9399 -0.1833
6194000000.0 0.438 -0.8203
6197000000.0 -0.3802 -0.8582
6200000000.0 -0.9062 -0.2936
6203000000.0 -0.7971 0.4953
6206000000.0 -0.1128 0.8983
6209000000.0 0.6272 0.6845
6212000000.0 0.956 -0.05903
6216000000.0 0.5261 -0.767
6219000000.0 -0.2421 -0.9006
6222000000.0 -0.8439 -0.3746
6225000000.0 -0.8292 0.3854
6228000000.0 -0.1986 0.8901
6231000000.0 0.5256 0.7356
6234000000.0 0.89 0.04742
6238000000.0 0.6013 -0.6209
6241000000.0 -0.1163 -0.8673
6244000000.0 -0.7542 -0.4661
6247000000.0 -0.8306 0.2922
6250000000.0 -0.3062 0.7663
6253000000.0 0.4227 0.7312
6256000000.0 0.834 0.1994
6259000000.0 0.6429 -0.5311
6262000000.0 0.004907 -0.8292
6266000000.0 -0.6 -0.5463
6269000000.0 -0.7757 0.1032
