! Created with skrf 1.8.0 (http://scikit-rf.org).
# Hz S RI R 50.0 
!freq ReS11 ImS11
4000000000.0 -0.1722 -1.516
4003000000.0 -1.243 -0.8227
4006000000.0 -1.407 0.4732
4009000000.0 -0.5479 1.443
4012000000.0 0.7985 1.326
4016000000.0 1.546 0.1963
4019000000.0 1.173 -1.028
4022000000.0 -0.1255 -1.552
4025000000.0 -1.375 -0.9275
4028000000.0 -1.576 0.4754
4031000000.0 -0.6411 1.526
4034000000.0 0.8018 1.384
4038000000.0 1.618 0.2575
4041000000.0 1.195 -1.115
4044000000.0 -0.11 -1.658
4047000000.0 -1.343 -0.9878
4050000000.0 -1.55 0.464
4053000000.0 -0.6574 1.485
4056000000.0 0.7408 1.439
4059000000.0 1.558 0.3081
4062000000.0 1.223 -0.9974
4066000000.0 0.05388 -1.639
4069000000.0 -1.267 -1.078
4072000000.0 -1.607 0.2561
4075000000.0 -0.8165 1.43
4078000000.0 0.5285 1.533
4081000000.0 1.554 0.5342
4084000000.0 1.412 -0.8934
4088000000.0 0.2126 -1.632
4091000000.0 -1.122 -1.261
4094000000.0 -1.627 0.09219
4097000000.0 -1.003 1.313
4100000000.0 0.3566 1.571
4103000000.0 1.467 0.7432
4106000000.0 1.45 -0.6351
4109000000.0 0.4665 -1.525
4112000000.0 -0.796 -1.306
4116000000.0 -1.542 -0.2073
4119000000.0 -1.121 0.9998
4122000000.0 0.04156 1.482
4125000000.0 1.116 0.9559
4128000000.0 1.481 -0.2154
4131000000.0 0.7867 -1.26
4134000000.0 -0.4437 -1.435
4138000000.0 -1.368 -0.5819
4141000000.0 -1.346 0.6343
4144000000.0 -0.414 1.473
4147000000.0 0.8503 1.229
4150000000.0 1.501 0.144
4153000000.0 1.075 -1.051
4156000000.0 -0.08768 -1.534
4159000000.0 -1.252 -0.8887
4162000000.0 -1.503 0.3656
4166000000.0 -0.6542 1.374
4169000000.0 0.5976 1.371
4172000000.0 1.471 0.424
4175000000.0 1.257 -0.8288
4178000000.0 0.1729 -1.544
4181000000.0 -1.072 -1.09
4184000000.0 -1.485 0.09702
4188000000.0 -0.8869 1.251
4191000000.0 0.393 1.462
4194000000.0 1.41 0.6972
4197000000.0 1.422 -0.6728
4200000000.0 0.4186 -1.504
4203000000.0 -0.9697 -1.281
4206000000.0 -1.612 -0.05551
4209000000.0 -1.07 1.252
4212000000.0 0.3543 1.621
4216000000.0 1.531 0.7475
4219000000.0 1.56 -0.7342
4222000000.0 0.3556 -1.684
4225000000.0 -1.104 -1.283
4228000000.0 -1.673 0.0771
4231000000.0 -0.9338 1.422
4234000000.0 0.5389 1.583
4238000000.0 1.549 0.5353
4241000000.0 1.37 -0.919
4244000000.0 0.117 -1.606
4247000000.0 -1.207 -1.086
4250000000.0 -1.552 0.3157
4253000000.0 -0.6811 1.41
4256000000.0 0.683 1.365
4259000000.0 1.509 0.3275
4262000000.0 1.166 -1.018
4266000000.0 -0.06062 -1.535
4269000000.0 -1.226 -0.9124
4272000000.0 -1.42 0.3976
4275000000.0 -0.5355 1.389
4278000000.0 0.71 1.248
4281000000.0 1.444 0.2019
4284000000.0 1.053 -0.9994
4288000000.0 -0.1442 -1.378
4291000000.0 -1.196 -0.7252
4294000000.0 -1.33 0.4094
4297000000.0 -0.5108 1.25
4300000000.0 0.6414 1.163
4303000000.0 1.306 0.2631
4306000000.0 0.9889 -0.8194
4309000000.0 0.065 -1.279
4312000000.0 -0.9967 -0.8519
4316000000.0 -1.261 0.1913
4319000000.0 -0.7044 1.108
4322000000.0 0.3921 1.256
4325000000.0 1.232 0.524
4328000000.0 1.196 -0.6308
4331000000.0 0.309 -1.291
4334000000.0 -0.8054 -1.067
4338000000.0 -1.392 -0.05881
4341000000.0 -0.9145 1.042
4344000000.0 0.2025 1.389
4347000000.0 1.224 0.7089
4350000000.0 1.352 -0.4508
4353000000.0 0.5223 -1.367
4356000000.0 -0.7168 -1.253
4359000000.0 -1.46 -0.248
4362000000.0 -1.116 0.948
4366000000.0 9.227e-05 1.482
4369000000.0 1.137 0.9579
4372000000.0 1.453 -0.2573
4375000000.0 0.7143 -1.297
4378000000.0 -0.5429 -1.435
4381000000.0 -1.463 -0.4724
4384000000.0 -1.279 0.8145
4388000000.0 -0.1661 1.528
4391000000.0 1.101 1.118
4394000000.0 1.571 -0.1247
4397000000.0 0.8969 -1.335
4400000000.0 -0.5146 -1.513
4403000000.0 -1.491 -0.588
4406000000.0 -1.359 0.791
4409000000.0 -0.1996 1.592
4412000000.0 1.138 1.114
4416000000.0 1.559 -0.1441
4419000000.0 0.799 -1.333
4422000000.0 -0.5 -1.429
4425000000.0 -1.467 -0.4801
4428000000.0 -1.216 0.8357
4431000000.0 -0.1028 1.446
4434000000.0 1.059 0.9693
4438000000.0 1.416 -0.22
4441000000.0 0.6586 -1.269
4444000000.0 -0.5652 -1.288
4447000000.0 -1.345 -0.2949
4450000000.0 -1.072 0.8277
4453000000.0 0.04476 1.332
4456000000.0 1.089 0.8062
4459000000.0 1.245 -0.3201
4462000000.0 0.4723 -1.192
4466000000.0 -0.6317 -1.089
4469000000.0 -1.228 -0.1602
4472000000.0 -0.8893 0.869
4475000000.0 0.1341 1.21
4478000000.0 1.04 0.6054
4481000000.0 1.106 -0.4545
4484000000.0 0.3808 -1.08
4488000000.0 -0.6537 -0.9509
4491000000.0 -1.13 -0.09147
4494000000.0 -0.7613 0.8275
4497000000.0 0.1713 1.118
4500000000.0 0.9588 0.5548
4503000000.0 1.019 -0.4033
4506000000.0 0.3436 -1.061
4509000000.0 -0.5988 -0.9304
4512000000.0 -1.102 -0.1312
4516000000.0 -0.7782 0.8032
4519000000.0 0.1122 1.118
4522000000.0 0.9426 0.6119
4525000000.0 1.072 -0.3582
4528000000.0 0.3999 -1.081
4531000000.0 -0.5742 -1.023
4534000000.0 -1.171 -0.1943
4538000000.0 -0.9181 0.7784
4541000000.0 0.05901 1.18
4544000000.0 0.9076 0.7378
4547000000.0 1.187 -0.2446
4550000000.0 0.5963 -1.072
4553000000.0 -0.4519 -1.15
4556000000.0 -1.168 -0.3691
4559000000.0 -1.052 0.6574
4562000000.0 -0.1828 1.212
4566000000.0 0.8434 0.9196
4569000000.0 1.279 -0.03653
4572000000.0 0.7706 -1.002
4575000000.0 -0.2677 -1.276
4578000000.0 -1.177 -0.6269
4581000000.0 -1.207 0.5301
4584000000.0 -0.4136 1.269
4588000000.0 0.7093 1.156
4591000000.0 1.32 0.1525
4594000000.0 1.005 -0.9597
4597000000.0 -0.0908 -1.388
4600000000.0 -1.165 -0.782
4603000000.0 -1.351 0.3731
4606000000.0 -0.5595 1.274
4609000000.0 0.6322 1.252
4612000000.0 1.365 0.3047
4616000000.0 1.12 -0.887
4619000000.0 0.02432 -1.382
4622000000.0 -1.069 -0.887
4625000000.0 -1.37 0.2255
4628000000.0 -0.6736 1.232
4631000000.0 0.5375 1.274
4634000000.0 1.327 0.4268
4638000000.0 1.099 -0.7398
4641000000.0 0.09609 -1.363
4644000000.0 -1.012 -0.9655
4647000000.0 -1.338 0.1949
4650000000.0 -0.677 1.153
4653000000.0 0.5036 1.239
4656000000.0 1.215 0.3916
4659000000.0 1.051 -0.7589
4662000000.0 0.07675 -1.268
4666000000.0 -0.9217 -0.8137
4669000000.0 -1.206 0.2125
4672000000.0 -0.5776 1.034
4675000000.0 0.4838 1.105
4678000000.0 1.126 0.3152
4681000000.0 0.9138 -0.6548
4684000000.0 0.07113 -1.151
4688000000.0 -0.8682 -0.7566
4691000000.0 -1.129 0.1529
4694000000.0 -0.517 0.9669
4697000000.0 0.4501 1.031
4700000000.0 1.041 0.2659
4703000000.0 0.9214 -0.6307
4706000000.0 0.062 -1.09
4709000000.0 -0.8264 -0.6805
4712000000.0 -1.067 0.2463
4716000000.0 -0.5133 0.9641
4719000000.0 0.46 0.9908
4722000000.0 0.9929 0.2632
4725000000.0 0.8705 -0.6349
4728000000.0 0.04809 -1.068
4731000000.0 -0.8019 -0.7014
4734000000.0 -1.016 0.157
4738000000.0 -0.5144 0.924
4741000000.0 0.3622 1.004
4744000000.0 1.004 0.3454
4747000000.0 0.9165 -0.5581
4750000000.0 0.1509 -1.065
4753000000.0 -0.6567 -0.8162
4756000000.0 -1.067 0.05019
4759000000.0 -0.6659 0.8447
4762000000.0 0.2285 1.109
4766000000.0 0.9746 0.515
4769000000.0 1.08 -0.4384
4772000000.0 0.3318 -1.099
4775000000.0 -0.6463 -1.0
4778000000.0 -1.169 -0.1008
4781000000.0 -0.8503 0.7884
4784000000.0 0.05749 1.224
4788000000.0 0.9763 0.7022
4791000000.0 1.202 -0.2551
4794000000.0 0.568 -1.097
4797000000.0 -0.481 -1.163
4800000000.0 -1.183 -0.3674
4803000000.0 -1.06 0.6461
4806000000.0 -0.1931 1.243
4809000000.0 0.8594 0.9502
4812000000.0 1.289 -0.03803
4816000000.0 0.8237 -1.027
4819000000.0 -0.2798 -1.289
4822000000.0 -1.19 -0.6311
4825000000.0 -1.267 0.5345
4828000000.0 -0.4067 1.318
4831000000.0 0.7613 1.167
4834000000.0 1.395 0.1284
4838000000.0 1.025 -0.9672
4841000000.0 -0.1273 -1.403
4844000000.0 -1.139 -0.772
4847000000.0 -1.33 0.409
4850000000.0 -0.5088 1.285
4853000000.0 0.6457 1.216
4856000000.0 1.374 0.2615
4859000000.0 1.066 -0.8933
4862000000.0 -0.03361 -1.341
4866000000.0 -1.064 -0.8238
4869000000.0 -1.325 0.3084
4872000000.0 -0.5958 1.191
4875000000.0 0.5238 1.202
4878000000.0 1.263 0.3263
4881000000.0 1.025 -0.7585
4884000000.0 0.04839 -1.237
4888000000.0 -0.9128 -0.8129
4891000000.0 -1.194 0.1983
4894000000.0 -0.5654 1.02
4897000000.0 0.4444 1.092
4900000000.0 1.103 0.3348
4903000000.0 0.9032 -0.6553
4906000000.0 0.07009 -1.113
4909000000.0 -0.7993 -0.7212
4912000000.0 -1.056 0.158
4916000000.0 -0.5632 0.8764
4919000000.0 0.3418 0.9733
4922000000.0 0.9522 0.3564
4925000000.0 0.8582 -0.5169
4928000000.0 0.1574 -0.974
4931000000.0 -0.6269 -0.7241
4934000000.0 -0.9364 0.06084
4938000000.0 -0.5747 0.7574
4941000000.0 0.2206 0.9205
4944000000.0 0.856 0.435
4947000000.0 0.8519 -0.3944
4950000000.0 0.2163 -0.9001
4953000000.0 -0.5579 -0.7803
4956000000.0 -0.9768 -0.03588
4959000000.0 -0.6552 0.7466
4962000000.0 0.1682 0.9595
4966000000.0 0.8785 0.4867
4969000000.0 0.9096 -0.3534
4972000000.0 0.3259 -0.9583
4975000000.0 -0.5229 -0.8533
4978000000.0 -0.9824 -0.1105
4981000000.0 -0.7537 0.7212
4984000000.0 0.06975 1.025
4988000000.0 0.8587 0.642
4991000000.0 1.048 -0.2931
4994000000.0 0.4732 -0.9756
4997000000.0 -0.4755 -1.011
5000000000.0 -1.096 -0.2852
5003000000.0 -0.9546 0.652
5006000000.0 -0.09103 1.136
5009000000.0 0.8581 0.8068
5012000000.0 1.202 -0.1383
5016000000.0 0.6503 -1.052
5019000000.0 -0.3632 -1.194
5022000000.0 -1.163 -0.4676
5025000000.0 -1.129 0.5934
5028000000.0 -0.2355 1.24
5031000000.0 0.8102 0.9799
5034000000.0 1.293 -0.01531
5038000000.0 0.8483 -0.9814
5041000000.0 -0.2522 -1.279
5044000000.0 -1.128 -0.6397
5047000000.0 -1.214 0.4496
5050000000.0 -0.3982 1.218
5053000000.0 0.667 1.145
5056000000.0 1.296 0.2059
5059000000.0 0.9989 -0.8617
5062000000.0 -0.003045 -1.296
5066000000.0 -1.008 -0.8146
5069000000.0 -1.28 0.2982
5072000000.0 -0.5965 1.161
5075000000.0 0.4694 1.19
5078000000.0 1.217 0.3537
5081000000.0 1.07 -0.68
5084000000.0 0.1803 -1.259
5088000000.0 -0.8378 -0.8832
5091000000.0 -1.218 0.08713
5094000000.0 -0.6774 0.9596
5097000000.0 0.2943 1.148
5100000000.0 1.03 0.505
5103000000.0 1.055 -0.4766
5106000000.0 0.2857 -1.083
5109000000.0 -0.6147 -0.9031
5112000000.0 -1.094 -0.1131
5116000000.0 -0.8139 0.7479
5119000000.0 0.0932 1.095
5122000000.0 0.8359 0.6245
5125000000.0 1.004 -0.2713
5128000000.0 0.4352 -0.9373
5131000000.0 -0.4388 -0.9366
5134000000.0 -0.9491 -0.2752
5138000000.0 -0.8212 0.5817
5141000000.0 -0.04555 0.9527
5144000000.0 0.7064 0.673
5147000000.0 0.9379 -0.1344
5150000000.0 0.5243 -0.7915
5153000000.0 -0.297 -0.8967
5156000000.0 -0.8564 -0.307
5159000000.0 -0.8106 0.4546
5162000000.0 -0.117 0.9133
5166000000.0 0.619 0.6866
5169000000.0 0.9059 -0.06319
5172000000.0 0.5784 -0.7363
5175000000.0 -0.2272 -0.8634
5178000000.0 -0.8267 -0.3701
5181000000.0 -0.8192 0.4066
5184000000.0 -0.1668 0.8776
5188000000.0 0.6021 0.7059
5191000000.0 0.9077 -0.007933
5194000000.0 0.5588 -0.7126
5197000000.0 -0.2553 -0.8942
5200000000.0 -0.8529 -0.4013
5203000000.0 -0.8637 0.4333
5206000000.0 -0.2117 0.9308
5209000000.0 0.5953 0.7432
5212000000.0 0.998 -0.01743
5216000000.0 0.6131 -0.7672
5219000000.0 -0.1908 -0.9964
5222000000.0 -0.8771 -0.4647
5225000000.0 -0.9208 0.3842
5228000000.0 -0.2774 0.9887
5231000000.0 0.6022 0.8369
5234000000.0 1.064 0.07947
5238000000.0 0.7322 -0.7609
5241000000.0 -0.1145 -1.05
5244000000.0 -0.9225 -0.5615
5247000000.0 -1.001 0.3076
5250000000.0 -0.4155 0.9943
5253000000.0 0.5287 0.9529
5256000000.0 1.058 0.2035
5259000000.0 0.8636 -0.6999
5262000000.0 0.001947 -1.082
5266000000.0 -0.8176 -0.7228
5269000000.0 -1.081 0.1867
5272000000.0 -0.5606 0.9326
5275000000.0 0.3419 1.034
5278000000.0 1.035 0.4149
5281000000.0 0.986 -0.5536
5284000000.0 0.2023 -1.098
5288000000.0 -0.6836 -0.9005
5291000000.0 -1.124 -0.0366
5294000000.0 -0.7682 0.8177
5297000000.0 0.1392 1.122
5300000000.0 0.9128 0.6537
5303000000.0 1.08 -0.2944
5306000000.0 0.4778 -1.017
5309000000.0 -0.4732 -1.001
5312000000.0 -1.102 -0.3083
5316000000.0 -0.9528 0.6328
5319000000.0 -0.1018 1.17
5322000000.0 0.8289 0.8286
5325000000.0 1.107 -0.113
5328000000.0 0.6707 -0.9473
5331000000.0 -0.3295 -1.082
5334000000.0 -1.049 -0.4851
5338000000.0 -1.05 0.5293
5341000000.0 -0.2682 1.082
5344000000.0 0.6798 0.908
5347000000.0 1.126 0.03203
5350000000.0 0.7611 -0.8493
5353000000.0 -0.1705 -1.082
5356000000.0 -0.9329 -0.5262
5359000000.0 -1.043 0.3846
5362000000.0 -0.3708 1.001
5366000000.0 0.5454 0.9236
5369000000.0 1.048 0.1257
5372000000.0 0.7753 -0.7277
5375000000.0 -0.08384 -1.057
5378000000.0 -0.8565 -0.558
5381000000.0 -0.9759 0.3307
5384000000.0 -0.326 0.9391
5388000000.0 0.5444 0.8554
5391000000.0 0.983 0.1227
5394000000.0 0.7011 -0.6705
5397000000.0 -0.1235 -0.8979
5400000000.0 -0.7854 -0.4762
5403000000.0 -0.838 0.328
5406000000.0 -0.2767 0.8593
5409000000.0 0.4877 0.7602
5412000000.0 0.8769 0.08733
5416000000.0 0.6393 -0.6228
5419000000.0 -0.1139 -0.868
5422000000.0 -0.7224 -0.4649
5425000000.0 -0.8078 0.2933
5428000000.0 -0.2913 0.8551
5431000000.0 0.5016 0.7115
5434000000.0 0.8746 0.07556
5438000000.0 0.6173 -0.665
5441000000.0 -0.1446 -0.8817
5444000000.0 -0.7588 -0.4562
5447000000.0 -0.8066 0.2978
5450000000.0 -0.2846 0.8261
5453000000.0 0.486 0.7455
5456000000.0 0.8991 0.1175
5459000000.0 0.6598 -0.6144
5462000000.0 -0.05924 -0.8799
5466000000.0 -0.7313 -0.5658
5469000000.0 -0.8961 0.259
5472000000.0 -0.3682 0.8355
5475000000.0 0.416 0.8296
5478000000.0 0.8927 0.241
5481000000.0 0.7546 -0.5649
5484000000.0 0.07607 -0.9251
5488000000.0 -0.6722 -0.6996
5491000000.0 -0.9871 0.1134
5494000000.0 -0.5297 0.8169
5497000000.0 0.2802 0.9733
5500000000.0 0.9146 0.3775
5503000000.0 0.8912 -0.4368
5506000000.0 0.2427 -0.9679
5509000000.0 -0.6028 -0.8108
5512000000.0 -1.028 -0.08063
5516000000.0 -0.7107 0.7286
5519000000.0 0.05479 1.055
5522000000.0 0.8645 0.6109
5525000000.0 1.005 -0.2682
5528000000.0 0.4367 -0.9554
5531000000.0 -0.442 -0.9463
5534000000.0 -1.026 -0.2715
5538000000.0 -0.8756 0.5994
5541000000.0 -0.1178 1.062
5544000000.0 0.7464 0.768
5547000000.0 1.075 -0.0888
5550000000.0 0.6135 -0.9107
5553000000.0 -0.3106 -1.065
5556000000.0 -0.953 -0.4003
5559000000.0 -0.9518 0.4697
5562000000.0 -0.2202 1.027
5566000000.0 0.6332 0.8642
5569000000.0 1.049 0.0301
5572000000.0 0.7163 -0.7447
5575000000.0 -0.1641 -0.9889
5578000000.0 -0.8649 -0.5064
5581000000.0 -0.9719 0.2999
5584000000.0 -0.3791 0.9484
5588000000.0 0.4826 0.862
5591000000.0 0.9426 0.1891
5594000000.0 0.7846 -0.6245
5597000000.0 -0.02591 -0.9657
5600000000.0 -0.7182 -0.5651
5603000000.0 -0.9021 0.1987
5606000000.0 -0.4329 0.8227
5609000000.0 0.3632 0.8361
5612000000.0 0.8636 0.2433
5616000000.0 0.7369 -0.4944
5619000000.0 0.0322 -0.885
5622000000.0 -0.646 -0.5891
5625000000.0 -0.893 0.1271
5628000000.0 -0.388 0.7372
5631000000.0 0.3066 0.7937
5634000000.0 0.8133 0.2747
5638000000.0 0.6946 -0.4892
5641000000.0 0.09115 -0.8383
5644000000.0 -0.6006 -0.5858
5647000000.0 -0.8167 0.09054
5650000000.0 -0.4308 0.7284
5653000000.0 0.3045 0.8074
5656000000.0 0.7922 0.2699
5659000000.0 0.7182 -0.4621
5662000000.0 0.0838 -0.8451
5666000000.0 -0.6158 -0.6165
5669000000.0 -0.878 0.1031
5672000000.0 -0.4702 0.7538
5675000000.0 0.293 0.8726
5678000000.0 0.8526 0.2899
5681000000.0 0.785 -0.4776
5684000000.0 0.104 -0.9244
5688000000.0 -0.644 -0.6791
5691000000.0 -0.9629 0.1012
5694000000.0 -0.5387 0.8153
5697000000.0 0.2879 0.953
5700000000.0 0.9244 0.3703
5703000000.0 0.8878 -0.4766
5706000000.0 0.1784 -1.002
5709000000.0 -0.6457 -0.7595
5712000000.0 -1.035 0.04223
5716000000.0 -0.6605 0.8387
5719000000.0 0.2196 1.016
5722000000.0 0.9326 0.4892
5725000000.0 0.9858 -0.4437
5728000000.0 0.3128 -1.036
5731000000.0 -0.622 -0.8961
5734000000.0 -1.074 -0.1262
5738000000.0 -0.7766 0.7671
5741000000.0 0.0988 1.095
5744000000.0 0.904 0.6294
5747000000.0 1.083 -0.3271
5750000000.0 0.475 -0.9718
5753000000.0 -0.4654 -1.024
5756000000.0 -1.109 -0.2631
5759000000.0 -0.9065 0.6771
5762000000.0 -0.1059 1.116
5766000000.0 0.795 0.7561
5769000000.0 1.087 -0.1109
5772000000.0 0.62 -0.9332
5775000000.0 -0.3203 -1.074
5778000000.0 -1.024 -0.4417
5781000000.0 -0.9729 0.5101
5784000000.0 -0.2427 1.073
5788000000.0 0.6285 0.8757
5791000000.0 1.104 0.07307
5794000000.0 0.7051 -0.7884
5797000000.0 -0.1334 -1.047
5800000000.0 -0.9009 -0.5686
5803000000.0 -1.01 0.3528
5806000000.0 -0.3812 1.007
5809000000.0 0.4999 0.9693
5812000000.0 1.036 0.2014
5816000000.0 0.8334 -0.6547
5819000000.0 0.003369 -1.047
5822000000.0 -0.7735 -0.665
5825000000.0 -0.9901 0.1978
5828000000.0 -0.4588 0.9044
5831000000.0 0.4066 0.9251
5834000000.0 0.9379 0.2844
5838000000.0 0.784 -0.5808
5841000000.0 0.05199 -1.001
5844000000.0 -0.7215 -0.6678
5847000000.0 -0.9803 0.1608
5850000000.0 -0.5025 0.8672
5853000000.0 0.3523 0.8423
5856000000.0 0.9089 0.2733
5859000000.0 0.7873 -0.4975
5862000000.0 0.07654 -0.9149
5866000000.0 -0.6407 -0.6175
5869000000.0 -0.8971 0.07624
5872000000.0 -0.4853 0.7884
5875000000.0 0.2962 0.8327
5878000000.0 0.8433 0.3034
5881000000.0 0.7355 -0.4614
5884000000.0 0.08967 -0.8498
5888000000.0 -0.5685 -0.647
5891000000.0 -0.8332 0.06685
5894000000.0 -0.5205 0.7275
5897000000.0 0.2595 0.8472
5900000000.0 0.798 0.362
5903000000.0 0.7617 -0.395
5906000000.0 0.1564 -0.8412
5909000000.0 -0.555 -0.6696
5912000000.0 -0.8743 0.02556
5916000000.0 -0.535 0.662
5919000000.0 0.1599 0.8477
5922000000.0 0.8003 0.4156
5925000000.0 0.8095 -0.3407
5928000000.0 0.248 -0.8572
5931000000.0 -0.4982 -0.7441
5934000000.0 -0.9075 -0.08135
5938000000.0 -0.6244 0.6405
5941000000.0 0.1011 0.884
5944000000.0 0.7508 0.5167
5947000000.0 0.8838 -0.2448
5950000000.0 0.3674 -0.8584
5953000000.0 -0.3928 -0.831
5956000000.0 -0.8963 -0.2239
5959000000.0 -0.7824 0.5531
5962000000.0 -0.09676 0.9253
5966000000.0 0.6904 0.648
5969000000.0 0.9495 -0.1015
5972000000.0 0.5511 -0.7758
5975000000.0 -0.2724 -0.9146
5978000000.0 -0.9078 -0.4197
5981000000.0 -0.8741 0.434
5984000000.0 -0.2411 0.9353
5988000000.0 0.6025 0.7753
5991000000.0 1.016 0.04397
5994000000.0 0.6794 -0.7095
5997000000.0 -0.113 -1.015
6000000000.0 -0.8478 -0.4968
6003000000.0 -0.9307 0.3282
6006000000.0 -0.3711 0.9503
6009000000.0 0.469 0.8656
6012000000.0 0.9907 0.172
6016000000.0 0.7674 -0.6513
6019000000.0 -0.01944 -1.004
6022000000.0 -0.7693 -0.631
6025000000.0 -0.9783 0.2278
6028000000.0 -0.4385 0.8566
6031000000.0 0.3947 0.8995
6034000000.0 0.9568 0.2728
6038000000.0 0.8032 -0.5696
6041000000.0 0.08458 -0.9614
6044000000.0 -0.6787 -0.6865
6047000000.0 -0.9661 0.1132
6050000000.0 -0.5173 0.8354
6053000000.0 0.3012 0.9052
6056000000.0 0.8924 0.3291
6059000000.0 0.8015 -0.4843
6062000000.0 0.1276 -0.9455
6066000000.0 -0.6238 -0.6757
6069000000.0 -0.9015 0.06346
6072000000.0 -0.4922 0.7545
6075000000.0 0.2521 0.8628
6078000000.0 0.8155 0.2984
6081000000.0 0.7804 -0.4072
6084000000.0 0.1719 -0.8656
6088000000.0 -0.574 -0.639
6091000000.0 -0.8758 0.02577
6094000000.0 -0.5483 0.697
6097000000.0 0.1901 0.8351
6100000000.0 0.7804 0.3856
6103000000.0 0.7958 -0.3885
6106000000.0 0.1898 -0.834
6109000000.0 -0.5065 -0.7121
6112000000.0 -0.876 -0.03044
6116000000.0 -0.5558 0.6672
6119000000.0 0.1678 0.8569
6122000000.0 0.7784 0.427
6125000000.0 0.7885 -0.3408
6128000000.0 0.2219 -0.8573
6131000000.0 -0.5047 -0.722
6134000000.0 -0.879 -0.04392
6138000000.0 -0.6004 0.6458
6141000000.0 0.1508 0.8528
6144000000.0 0.749 0.4662
6147000000.0 0.8279 -0.2963
6150000000.0 0.2978 -0.8433
6153000000.0 -0.476 -0.7871
6156000000.0 -0.8691 -0.1319
6159000000.0 -0.6612 0.5804
6162000000.0 0.05232 0.9195
6166000000.0 0.7733 0.5154
6169000000.0 0.8837 -0.2112
6172000000.0 0.3996 -0.8797
6175000000.0 -0.3786 -0.8285
6178000000.0 -0.9438 -0.1988
6181000000.0 -0.7529 0.5572
6184000000.0 -0.01543 0.9602
6188000000.0 0.7308 0.6062
6191000000.0 0.8998 -0.1536
6194000000.0 0.4456 -0.7889
6197000000.0 -0.3487 -0.894
6200000000.0 -0.8909 -0.2839
6203000000.0 -0.7808 0.4937
6206000000.0 -0.1253 0.9374
6209000000.0 0.6416 0.6692
6212000000.0 0.9288 -0.0364
6216000000.0 0.5385 -0.7478
6219000000.0 -0.2325 -0.8954
6222000000.0 -0.8192 -0.3923
6225000000.0 -0.8381 0.3875
6228000000.0 -0.2269 0.8557
6231000000.0 0.551 0.7611
6234000000.0 0.9107 0.05586
6238000000.0 0.6234 -0.6443
6241000000.0 -0.1305 -0.8788
6244000000.0 -0.7284 -0.4936
6247000000.0 -0.8407 0.2671
6250000000.0 -0.3238 0.8012
6253000000.0 0.397 0.7473
6256000000.0 0.814 0.1737
6259000000.0 0.6748 -0.4933
6262000000.0 0.01775 -0.8279
6266000000.0 -0.5944 -0.5692
6269000000.0 -0.8298 0.1141
