! Created with skrf 1.8.0 (http://scikit-rf.org).
# Hz S RI R 50.0 
!freq ReS11 ImS11
4000000000.0 -0.1859 -1.494
4003000000.0 -1.311 -0.8034
4006000000.0 -1.44 0.5091
4009000000.0 -0.4689 1.41
4012000000.0 0.7967 1.301
4016000000.0 1.498 0.1726
4019000000.0 1.114 -1.028
4022000000.0 -0.1748 -1.562
4025000000.0 -1.295 -0.8549
4028000000.0 -1.564 0.4855
4031000000.0 -0.5786 1.513
4034000000.0 0.7994 1.402
4038000000.0 1.625 0.2053
4041000000.0 1.155 -1.123
4044000000.0 -0.1147 -1.586
4047000000.0 -1.351 -0.9201
4050000000.0 -1.528 0.4811
4053000000.0 -0.5947 1.495
4056000000.0 0.8037 1.416
4059000000.0 1.572 0.3047
4062000000.0 1.238 -1.018
4066000000.0 0.00581 -1.681
4069000000.0 -1.228 -0.9929
4072000000.0 -1.577 0.3049
4075000000.0 -0.7924 1.383
4078000000.0 0.6016 1.535
4081000000.0 1.592 0.5535
4084000000.0 1.42 -0.8785
4088000000.0 0.2498 -1.626
4091000000.0 -1.155 -1.228
4094000000.0 -1.642 0.1091
4097000000.0 -0.9492 1.31
4100000000.0 0.3793 1.575
4103000000.0 1.46 0.6591
4106000000.0 1.444 -0.6655
4109000000.0 0.391 -1.496
4112000000.0 -0.8517 -1.238
4116000000.0 -1.488 -0.1392
4119000000.0 -1.143 1.017
4122000000.0 0.01627 1.473
4125000000.0 1.123 0.9412
4128000000.0 1.463 -0.262
4131000000.0 0.7666 -1.268
4134000000.0 -0.4554 -1.398
4138000000.0 -1.39 -0.5335
4141000000.0 -1.344 0.6676
4144000000.0 -0.3412 1.473
4147000000.0 0.884 1.212
4150000000.0 1.522 0.1212
4153000000.0 1.065 -1.096
4156000000.0 -0.1435 -1.505
4159000000.0 -1.279 -0.8656
4162000000.0 -1.496 0.4306
4166000000.0 -0.6495 1.357
4169000000.0 0.6578 1.357
4172000000.0 1.435 0.3726
4175000000.0 1.234 -0.8897
4178000000.0 0.1615 -1.48
4181000000.0 -1.067 -1.049
4184000000.0 -1.478 0.1305
4188000000.0 -0.8594 1.244
4191000000.0 0.4243 1.459
4194000000.0 1.402 0.6072
4197000000.0 1.365 -0.7267
4200000000.0 0.336 -1.561
4203000000.0 -0.9878 -1.26
4206000000.0 -1.626 -0.01769
4209000000.0 -1.021 1.282
4212000000.0 0.4059 1.605
4216000000.0 1.555 0.6887
4219000000.0 1.486 -0.8058
4222000000.0 0.2251 -1.667
4225000000.0 -1.182 -1.24
4228000000.0 -1.668 0.2205
4231000000.0 -0.869 1.42
4234000000.0 0.6385 1.552
4238000000.0 1.607 0.4297
4241000000.0 1.293 -1.005
4244000000.0 0.01954 -1.612
4247000000.0 -1.302 -0.993
4250000000.0 -1.543 0.3682
4253000000.0 -0.6325 1.421
4256000000.0 0.7486 1.359
4259000000.0 1.52 0.2548
4262000000.0 1.104 -1.021
4266000000.0 -0.1551 -1.506
4269000000.0 -1.26 -0.7972
4272000000.0 -1.384 0.4733
4275000000.0 -0.4678 1.362
4278000000.0 0.8161 1.22
4281000000.0 1.447 0.1351
4284000000.0 0.9806 -1.053
4288000000.0 -0.1865 -1.364
4291000000.0 -1.175 -0.7245
4294000000.0 -1.277 0.4549
4297000000.0 -0.4456 1.268
4300000000.0 0.6833 1.093
4303000000.0 1.281 0.2231
4306000000.0 0.9467 -0.8528
4309000000.0 -0.04063 -1.303
4312000000.0 -1.025 -0.8106
4316000000.0 -1.264 0.2793
4319000000.0 -0.6324 1.132
4322000000.0 0.4717 1.215
4325000000.0 1.239 0.451
4328000000.0 1.13 -0.6726
4331000000.0 0.2567 -1.327
4334000000.0 -0.8976 -1.016
4338000000.0 -1.37 0.03181
4341000000.0 -0.8992 1.105
4344000000.0 0.2837 1.389
4347000000.0 1.244 0.6844
4350000000.0 1.334 -0.5466
4353000000.0 0.45 -1.384
4356000000.0 -0.7855 -1.22
4359000000.0 -1.456 -0.1807
4362000000.0 -1.029 0.9677
4366000000.0 0.06323 1.453
4369000000.0 1.197 0.8547
4372000000.0 1.455 -0.346
4375000000.0 0.6346 -1.36
4378000000.0 -0.6094 -1.361
4381000000.0 -1.472 -0.3848
4384000000.0 -1.246 0.8935
4388000000.0 -0.1046 1.553
4391000000.0 1.141 1.072
4394000000.0 1.564 -0.2126
4397000000.0 0.7948 -1.37
4400000000.0 -0.5598 -1.447
4403000000.0 -1.511 -0.4274
4406000000.0 -1.324 0.8908
4409000000.0 -0.09332 1.594
4412000000.0 1.169 1.024
4416000000.0 1.505 -0.2524
4419000000.0 0.6893 -1.369
4422000000.0 -0.6414 -1.384
4425000000.0 -1.449 -0.3643
4428000000.0 -1.157 0.9464
4431000000.0 0.001364 1.482
4434000000.0 1.156 0.909
4438000000.0 1.366 -0.3779
4441000000.0 0.5166 -1.288
4444000000.0 -0.6528 -1.21
4447000000.0 -1.325 -0.2231
4450000000.0 -1.012 0.8965
4453000000.0 0.1355 1.324
4456000000.0 1.08 0.6909
4459000000.0 1.2 -0.4184
4462000000.0 0.39 -1.199
4466000000.0 -0.6881 -1.019
4469000000.0 -1.247 -0.06711
4472000000.0 -0.7818 0.93
4475000000.0 0.2309 1.166
4478000000.0 1.044 0.5437
4481000000.0 1.062 -0.5069
4484000000.0 0.2665 -1.105
4488000000.0 -0.6961 -0.9089
4491000000.0 -1.132 -0.0108
4494000000.0 -0.7171 0.916
4497000000.0 0.248 1.123
4500000000.0 1.009 0.4844
4503000000.0 1.009 -0.4815
4506000000.0 0.2556 -1.052
4509000000.0 -0.6693 -0.8757
4512000000.0 -1.123 -0.03022
4516000000.0 -0.7542 0.8572
4519000000.0 0.1768 1.118
4522000000.0 1.001 0.5636
4525000000.0 1.069 -0.4047
4528000000.0 0.3498 -1.118
4531000000.0 -0.6469 -0.9714
4534000000.0 -1.154 -0.1423
4538000000.0 -0.871 0.805
4541000000.0 0.09646 1.167
4544000000.0 0.9585 0.6733
4547000000.0 1.172 -0.3206
4550000000.0 0.507 -1.099
4553000000.0 -0.519 -1.098
4556000000.0 -1.202 -0.2942
4559000000.0 -0.9878 0.7059
4562000000.0 -0.1226 1.247
4566000000.0 0.8889 0.8687
4569000000.0 1.285 -0.1008
4572000000.0 0.7168 -1.049
4575000000.0 -0.3597 -1.247
4578000000.0 -1.204 -0.5554
4581000000.0 -1.197 0.5697
4584000000.0 -0.3315 1.289
4588000000.0 0.8059 1.088
4591000000.0 1.361 0.07935
4594000000.0 0.9443 -0.9942
4597000000.0 -0.1888 -1.379
4600000000.0 -1.195 -0.75
4603000000.0 -1.339 0.4551
4606000000.0 -0.5014 1.32
4609000000.0 0.7009 1.214
4612000000.0 1.386 0.2339
4616000000.0 1.039 -0.9664
4619000000.0 -0.06253 -1.398
4622000000.0 -1.133 -0.8215
4625000000.0 -1.34 0.3384
4628000000.0 -0.5999 1.296
4631000000.0 0.6165 1.229
4634000000.0 1.337 0.313
4638000000.0 1.068 -0.8267
4641000000.0 -0.01523 -1.376
4644000000.0 -1.051 -0.8676
4647000000.0 -1.328 0.3009
4650000000.0 -0.5673 1.167
4653000000.0 0.5506 1.185
4656000000.0 1.265 0.2765
4659000000.0 1.007 -0.7871
4662000000.0 0.02615 -1.238
4666000000.0 -0.9631 -0.7368
4669000000.0 -1.18 0.2763
4672000000.0 -0.5012 1.088
4675000000.0 0.537 1.038
4678000000.0 1.118 0.2516
4681000000.0 0.8773 -0.7511
4684000000.0 0.02164 -1.111
4688000000.0 -0.8921 -0.6958
4691000000.0 -1.057 0.2432
4694000000.0 -0.4493 0.9921
4697000000.0 0.5152 0.9934
4700000000.0 1.051 0.2135
4703000000.0 0.837 -0.6812
4706000000.0 -0.01937 -1.076
4709000000.0 -0.891 -0.6721
4712000000.0 -1.049 0.3033
4716000000.0 -0.4544 0.969
4719000000.0 0.5133 0.92
4722000000.0 1.048 0.1811
4725000000.0 0.8059 -0.6931
4728000000.0 -0.03057 -1.054
4731000000.0 -0.829 -0.6295
4734000000.0 -1.018 0.2346
4738000000.0 -0.493 0.9562
4741000000.0 0.4431 0.9794
4744000000.0 1.012 0.3098
4747000000.0 0.8706 -0.5902
4750000000.0 0.1127 -1.087
4753000000.0 -0.7537 -0.7572
4756000000.0 -1.101 0.1082
4759000000.0 -0.6402 0.9126
4762000000.0 0.2956 1.084
4766000000.0 1.049 0.4417
4769000000.0 1.032 -0.4964
4772000000.0 0.3044 -1.14
4775000000.0 -0.6776 -0.9599
4778000000.0 -1.172 -0.06719
4781000000.0 -0.8553 0.8574
4784000000.0 0.1397 1.202
4788000000.0 1.014 0.6841
4791000000.0 1.188 -0.3371
4794000000.0 0.5119 -1.136
4797000000.0 -0.5364 -1.131
4800000000.0 -1.224 -0.3193
4803000000.0 -1.034 0.7252
4806000000.0 -0.1466 1.26
4809000000.0 0.8835 0.9145
4812000000.0 1.294 -0.09299
4816000000.0 0.7514 -1.05
4819000000.0 -0.3524 -1.277
4822000000.0 -1.222 -0.5667
4825000000.0 -1.221 0.597
4828000000.0 -0.3344 1.321
4831000000.0 0.8175 1.099
4834000000.0 1.389 0.05641
4838000000.0 0.9139 -1.046
4841000000.0 -0.2142 -1.39
4844000000.0 -1.189 -0.7085
4847000000.0 -1.324 0.4934
4850000000.0 -0.4334 1.32
4853000000.0 0.7385 1.184
4856000000.0 1.343 0.1776
4859000000.0 0.9642 -0.927
4862000000.0 -0.1007 -1.342
4866000000.0 -1.124 -0.7745
4869000000.0 -1.28 0.3721
4872000000.0 -0.5177 1.212
4875000000.0 0.614 1.183
4878000000.0 1.271 0.2646
4881000000.0 0.9781 -0.7929
4884000000.0 -0.004308 -1.26
4888000000.0 -0.9766 -0.7829
4891000000.0 -1.181 0.2477
4894000000.0 -0.5113 1.101
4897000000.0 0.5039 1.078
4900000000.0 1.109 0.2596
4903000000.0 0.8636 -0.6692
4906000000.0 0.0227 -1.096
4909000000.0 -0.8246 -0.6809
4912000000.0 -1.028 0.1916
4916000000.0 -0.4661 0.883
4919000000.0 0.3916 0.9477
4922000000.0 0.963 0.2703
4925000000.0 0.8119 -0.5563
4928000000.0 0.07617 -0.9237
4931000000.0 -0.6705 -0.6936
4934000000.0 -0.9333 0.08879
4938000000.0 -0.4993 0.7907
4941000000.0 0.2652 0.8641
4944000000.0 0.8621 0.3555
4947000000.0 0.8357 -0.4376
4950000000.0 0.2067 -0.9363
4953000000.0 -0.5951 -0.7459
4956000000.0 -0.9575 -0.0008395
4959000000.0 -0.6258 0.7589
4962000000.0 0.2215 0.9844
4966000000.0 0.8547 0.4377
4969000000.0 0.9354 -0.398
4972000000.0 0.2685 -0.99
4975000000.0 -0.5794 -0.8372
4978000000.0 -1.02 -0.0814
4981000000.0 -0.7272 0.7585
4984000000.0 0.1262 1.022
4988000000.0 0.868 0.5812
4991000000.0 1.018 -0.3094
4994000000.0 0.4206 -1.005
4997000000.0 -0.4909 -0.9918
5000000000.0 -1.111 -0.2388
5003000000.0 -0.8744 0.719
5006000000.0 -0.01636 1.168
5009000000.0 0.9104 0.7869
5012000000.0 1.168 -0.1924
5016000000.0 0.5906 -1.074
5019000000.0 -0.4675 -1.178
5022000000.0 -1.176 -0.3973
5025000000.0 -1.058 0.6543
5028000000.0 -0.1525 1.277
5031000000.0 0.8782 0.9679
5034000000.0 1.295 -0.09347
5038000000.0 0.7747 -0.9968
5041000000.0 -0.3231 -1.256
5044000000.0 -1.154 -0.5889
5047000000.0 -1.196 0.5283
5050000000.0 -0.3708 1.248
5053000000.0 0.7252 1.087
5056000000.0 1.31 0.1234
5059000000.0 0.9176 -0.9311
5062000000.0 -0.1185 -1.309
5066000000.0 -1.053 -0.7443
5069000000.0 -1.252 0.3206
5072000000.0 -0.5247 1.191
5075000000.0 0.5285 1.153
5078000000.0 1.252 0.2965
5081000000.0 1.014 -0.7667
5084000000.0 0.07154 -1.242
5088000000.0 -0.9055 -0.8535
5091000000.0 -1.221 0.1455
5094000000.0 -0.6531 0.9862
5097000000.0 0.3641 1.111
5100000000.0 1.054 0.4562
5103000000.0 0.9869 -0.487
5106000000.0 0.2803 -1.101
5109000000.0 -0.6425 -0.8732
5112000000.0 -1.087 -0.06749
5116000000.0 -0.7369 0.7899
5119000000.0 0.1413 1.02
5122000000.0 0.8823 0.5683
5125000000.0 0.9651 -0.3173
5128000000.0 0.3641 -0.93
5131000000.0 -0.4768 -0.8735
5134000000.0 -0.9577 -0.1992
5138000000.0 -0.7801 0.6149
5141000000.0 0.02469 0.9827
5144000000.0 0.7449 0.6059
5147000000.0 0.9547 -0.1762
5150000000.0 0.4668 -0.8315
5153000000.0 -0.3697 -0.8665
5156000000.0 -0.8655 -0.2404
5159000000.0 -0.7378 0.5133
5162000000.0 -0.06107 0.9025
5166000000.0 0.6704 0.6492
5169000000.0 0.9123 -0.1005
5172000000.0 0.476 -0.783
5175000000.0 -0.2838 -0.8566
5178000000.0 -0.8748 -0.3057
5181000000.0 -0.7957 0.4801
5184000000.0 -0.118 0.8933
5188000000.0 0.6566 0.6783
5191000000.0 0.931 -0.083
5194000000.0 0.4947 -0.7982
5197000000.0 -0.2826 -0.9349
5200000000.0 -0.9058 -0.3206
5203000000.0 -0.8013 0.5111
5206000000.0 -0.122 0.9642
5209000000.0 0.6702 0.7178
5212000000.0 0.9734 -0.09091
5216000000.0 0.5692 -0.8036
5219000000.0 -0.2729 -0.9537
5222000000.0 -0.91 -0.3888
5225000000.0 -0.8688 0.4726
5228000000.0 -0.2365 0.9955
5231000000.0 0.6746 0.7909
5234000000.0 1.031 0.003655
5238000000.0 0.6711 -0.7824
5241000000.0 -0.2072 -1.01
5244000000.0 -0.9297 -0.5126
5247000000.0 -0.9675 0.3958
5250000000.0 -0.3156 1.031
5253000000.0 0.5874 0.9058
5256000000.0 1.044 0.1253
5259000000.0 0.7866 -0.7317
5262000000.0 -0.0619 -1.069
5266000000.0 -0.8458 -0.6391
5269000000.0 -1.068 0.2214
5272000000.0 -0.506 0.9662
5275000000.0 0.4109 1.0
5278000000.0 1.067 0.3318
5281000000.0 0.9426 -0.5695
5284000000.0 0.1771 -1.084
5288000000.0 -0.7132 -0.8265
5291000000.0 -1.115 0.000341
5294000000.0 -0.7279 0.8651
5297000000.0 0.2042 1.099
5300000000.0 0.9725 0.5709
5303000000.0 1.058 -0.3728
5306000000.0 0.4258 -1.039
5309000000.0 -0.5185 -0.9941
5312000000.0 -1.13 -0.2128
5316000000.0 -0.9276 0.6783
5319000000.0 0.01864 1.162
5322000000.0 0.8524 0.7877
5325000000.0 1.138 -0.1819
5328000000.0 0.5735 -0.9771
5331000000.0 -0.3649 -1.091
5334000000.0 -1.059 -0.3874
5338000000.0 -0.9971 0.5788
5341000000.0 -0.1986 1.106
5344000000.0 0.7221 0.8398
5347000000.0 1.102 -0.06015
5350000000.0 0.6652 -0.8356
5353000000.0 -0.2464 -1.086
5356000000.0 -0.9945 -0.4759
5359000000.0 -1.01 0.4586
5362000000.0 -0.2402 1.044
5366000000.0 0.6361 0.8632
5369000000.0 1.053 0.03934
5372000000.0 0.6715 -0.814
5375000000.0 -0.2159 -0.9964
5378000000.0 -0.9176 -0.4642
5381000000.0 -0.9023 0.4331
5384000000.0 -0.2388 0.948
5388000000.0 0.6126 0.801
5391000000.0 0.9869 0.0004989
5394000000.0 0.6059 -0.7054
5397000000.0 -0.1946 -0.9334
5400000000.0 -0.8448 -0.3882
5403000000.0 -0.8197 0.4103
5406000000.0 -0.2027 0.8836
5409000000.0 0.5434 0.6859
5412000000.0 0.9044 0.002296
5416000000.0 0.5357 -0.6888
5419000000.0 -0.1771 -0.8543
5422000000.0 -0.7866 -0.3505
5425000000.0 -0.7624 0.3795
5428000000.0 -0.1835 0.8323
5431000000.0 0.5538 0.6702
5434000000.0 0.8865 0.002201
5438000000.0 0.5688 -0.6752
5441000000.0 -0.2142 -0.8624
5444000000.0 -0.7952 -0.332
5447000000.0 -0.8007 0.3756
5450000000.0 -0.2168 0.8712
5453000000.0 0.546 0.7179
5456000000.0 0.9434 0.006607
5459000000.0 0.5691 -0.6732
5462000000.0 -0.1164 -0.913
5466000000.0 -0.7829 -0.4604
5469000000.0 -0.8923 0.2964
5472000000.0 -0.324 0.8979
5475000000.0 0.477 0.8292
5478000000.0 0.9301 0.1658
5481000000.0 0.7554 -0.6166
5484000000.0 0.00592 -0.947
5488000000.0 -0.7412 -0.6416
5491000000.0 -0.9695 0.1899
5494000000.0 -0.472 0.8979
5497000000.0 0.3683 0.935
5500000000.0 0.9495 0.3126
5503000000.0 0.9246 -0.5725
5506000000.0 0.1805 -1.002
5509000000.0 -0.6911 -0.7559
5512000000.0 -1.046 -0.008439
5516000000.0 -0.6577 0.8144
5519000000.0 0.1734 1.026
5522000000.0 0.8867 0.4976
5525000000.0 1.004 -0.3608
5528000000.0 0.3473 -0.9862
5531000000.0 -0.5356 -0.9087
5534000000.0 -1.036 -0.1802
5538000000.0 -0.8456 0.6714
5541000000.0 -0.01872 1.083
5544000000.0 0.8437 0.686
5547000000.0 1.019 -0.1835
5550000000.0 0.5225 -0.9319
5553000000.0 -0.3982 -0.974
5556000000.0 -0.9872 -0.3444
5559000000.0 -0.9186 0.5167
5562000000.0 -0.115 1.047
5566000000.0 0.717 0.7481
5569000000.0 1.016 -0.05559
5572000000.0 0.6258 -0.8167
5575000000.0 -0.2402 -0.9847
5578000000.0 -0.8792 -0.4639
5581000000.0 -0.9044 0.4075
5584000000.0 -0.2822 0.8964
5588000000.0 0.5815 0.8021
5591000000.0 0.9506 0.05542
5594000000.0 0.6297 -0.6871
5597000000.0 -0.1309 -0.9313
5600000000.0 -0.7941 -0.4793
5603000000.0 -0.8637 0.3181
5606000000.0 -0.3089 0.8448
5609000000.0 0.4479 0.7511
5612000000.0 0.864 0.1261
5616000000.0 0.6475 -0.5862
5619000000.0 -0.03608 -0.8854
5622000000.0 -0.6764 -0.4812
5625000000.0 -0.7928 0.2022
5628000000.0 -0.3207 0.7686
5631000000.0 0.4039 0.7223
5634000000.0 0.8311 0.1643
5638000000.0 0.616 -0.5552
5641000000.0 -0.03169 -0.8107
5644000000.0 -0.6865 -0.4998
5647000000.0 -0.8323 0.2352
5650000000.0 -0.3554 0.7696
5653000000.0 0.3981 0.7598
5656000000.0 0.808 0.1823
5659000000.0 0.6635 -0.5581
5662000000.0 -0.02883 -0.8512
5666000000.0 -0.7044 -0.5406
5669000000.0 -0.8531 0.1881
5672000000.0 -0.384 0.8123
5675000000.0 0.4189 0.8012
5678000000.0 0.882 0.2013
5681000000.0 0.7415 -0.5651
5684000000.0 0.003829 -0.9553
5688000000.0 -0.7392 -0.5981
5691000000.0 -0.9038 0.2141
5694000000.0 -0.4296 0.8739
5697000000.0 0.4146 0.899
5700000000.0 0.969 0.2876
5703000000.0 0.8159 -0.5856
5706000000.0 0.06819 -1.003
5709000000.0 -0.754 -0.6855
5712000000.0 -0.9993 0.1288
5716000000.0 -0.5578 0.8763
5719000000.0 0.329 0.9937
5722000000.0 0.9865 0.3704
5725000000.0 0.9516 -0.5335
5728000000.0 0.203 -1.054
5731000000.0 -0.6968 -0.8083
5734000000.0 -1.098 0.004774
5738000000.0 -0.6945 0.831
5741000000.0 0.1742 1.099
5744000000.0 0.9588 0.5225
5747000000.0 1.034 -0.4072
5750000000.0 0.3533 -1.025
5753000000.0 -0.6064 -0.961
5756000000.0 -1.094 -0.131
5759000000.0 -0.836 0.7596
5762000000.0 0.07041 1.123
5766000000.0 0.8784 0.6708
5769000000.0 1.067 -0.2242
5772000000.0 0.4956 -1.04
5775000000.0 -0.4771 -1.019
5778000000.0 -1.034 -0.3303
5781000000.0 -0.9292 0.585
5784000000.0 -0.146 1.083
5788000000.0 0.7374 0.7749
5791000000.0 1.067 -0.0622
5794000000.0 0.641 -0.8752
5797000000.0 -0.2627 -1.025
5800000000.0 -0.9483 -0.4505
5803000000.0 -0.9685 0.4448
5806000000.0 -0.2711 1.04
5809000000.0 0.6261 0.8595
5812000000.0 1.033 0.0553
5816000000.0 0.6937 -0.7599
5819000000.0 -0.1587 -0.9973
5822000000.0 -0.8914 -0.5274
5825000000.0 -0.9169 0.3238
5828000000.0 -0.3338 0.9505
5831000000.0 0.4924 0.8073
5834000000.0 0.9669 0.1393
5838000000.0 0.691 -0.6742
5841000000.0 -0.08021 -0.9529
5844000000.0 -0.7586 -0.5351
5847000000.0 -0.9325 0.2753
5850000000.0 -0.3499 0.829
5853000000.0 0.442 0.8142
5856000000.0 0.9221 0.1661
5859000000.0 0.6931 -0.5646
5862000000.0 -0.04917 -0.9102
5866000000.0 -0.7484 -0.5106
5869000000.0 -0.8741 0.2605
5872000000.0 -0.3347 0.8218
5875000000.0 0.4165 0.8063
5878000000.0 0.8614 0.1635
5881000000.0 0.6877 -0.567
5884000000.0 -0.03864 -0.8692
5888000000.0 -0.7024 -0.4938
5891000000.0 -0.8379 0.1758
5894000000.0 -0.3763 0.7938
5897000000.0 0.3488 0.763
5900000000.0 0.8368 0.1986
5903000000.0 0.7434 -0.5315
5906000000.0 0.05265 -0.8674
5909000000.0 -0.6464 -0.58
5912000000.0 -0.8636 0.1726
5916000000.0 -0.4465 0.7615
5919000000.0 0.3173 0.8237
5922000000.0 0.8474 0.3004
5925000000.0 0.7628 -0.4574
5928000000.0 0.1628 -0.8892
5931000000.0 -0.6164 -0.6688
5934000000.0 -0.907 0.008647
5938000000.0 -0.5768 0.7473
5941000000.0 0.182 0.8803
5944000000.0 0.8136 0.3992
5947000000.0 0.8664 -0.3604
5950000000.0 0.2458 -0.8574
5953000000.0 -0.5116 -0.7775
5956000000.0 -0.9246 -0.1164
5959000000.0 -0.6804 0.685
5962000000.0 0.05475 0.9118
5966000000.0 0.7624 0.5866
5969000000.0 0.9324 -0.2502
5972000000.0 0.4034 -0.8863
5975000000.0 -0.4043 -0.8544
5978000000.0 -0.9593 -0.2705
5981000000.0 -0.8028 0.5663
5984000000.0 -0.0867 0.9973
5988000000.0 0.7011 0.691
5991000000.0 0.9902 -0.07215
5994000000.0 0.5643 -0.8398
5997000000.0 -0.2712 -0.9564
6000000000.0 -0.9275 -0.4117
6003000000.0 -0.876 0.4703
6006000000.0 -0.2089 0.9559
6009000000.0 0.6119 0.7665
6012000000.0 1.0 0.03292
6016000000.0 0.6339 -0.7603
6019000000.0 -0.187 -0.9833
6022000000.0 -0.883 -0.4649
6025000000.0 -0.9298 0.366
6028000000.0 -0.308 0.9158
6031000000.0 0.5522 0.8372
6034000000.0 0.9889 0.09313
6038000000.0 0.6863 -0.6758
6041000000.0 -0.07383 -0.974
6044000000.0 -0.8203 -0.5159
6047000000.0 -0.9051 0.2763
6050000000.0 -0.3391 0.9092
6053000000.0 0.47 0.7901
6056000000.0 0.9222 0.1497
6059000000.0 0.6858 -0.6508
6062000000.0 -0.03526 -0.9216
6066000000.0 -0.7236 -0.5329
6069000000.0 -0.8363 0.2318
6072000000.0 -0.361 0.8113
6075000000.0 0.3867 0.7857
6078000000.0 0.8415 0.1598
6081000000.0 0.675 -0.5226
6084000000.0 -4.58e-05 -0.8656
6088000000.0 -0.6564 -0.523
6091000000.0 -0.8406 0.1902
6094000000.0 -0.3947 0.7675
6097000000.0 0.3266 0.7824
6100000000.0 0.825 0.2228
6103000000.0 0.6916 -0.4989
6106000000.0 0.02499 -0.8235
6109000000.0 -0.6412 -0.585
6112000000.0 -0.8339 0.1497
6116000000.0 -0.4229 0.7543
6119000000.0 0.3265 0.8046
6122000000.0 0.8362 0.2378
6125000000.0 0.7429 -0.4938
6128000000.0 0.04148 -0.9061
6131000000.0 -0.6348 -0.5893
6134000000.0 -0.87 0.1352
6138000000.0 -0.4765 0.7558
6141000000.0 0.2931 0.8365
6144000000.0 0.8331 0.2578
6147000000.0 0.7819 -0.4281
6150000000.0 0.1092 -0.8986
6153000000.0 -0.6149 -0.6688
6156000000.0 -0.8974 0.04585
6159000000.0 -0.5644 0.7242
6162000000.0 0.217 0.9111
6166000000.0 0.8521 0.4014
6169000000.0 0.8635 -0.438
6172000000.0 0.2161 -0.9312
6175000000.0 -0.5994 -0.7335
6178000000.0 -0.9409 -0.003363
6181000000.0 -0.6423 0.6904
6184000000.0 0.1857 0.9354
6188000000.0 0.8266 0.4829
6191000000.0 0.8689 -0.3658
6194000000.0 0.2959 -0.9345
6197000000.0 -0.4985 -0.7977
6200000000.0 -0.9409 -0.1147
6203000000.0 -0.7023 0.6741
6206000000.0 0.04965 0.9278
6209000000.0 0.7808 0.5177
6212000000.0 0.871 -0.2088
6216000000.0 0.3907 -0.8538
6219000000.0 -0.3911 -0.8354
6222000000.0 -0.8908 -0.2046
6225000000.0 -0.6952 0.5523
6228000000.0 -0.04945 0.9174
6231000000.0 0.6393 0.5811
6234000000.0 0.8927 -0.1304
6238000000.0 0.451 -0.7549
6241000000.0 -0.2613 -0.8425
6244000000.0 -0.8031 -0.2967
6247000000.0 -0.7734 0.4036
6250000000.0 -0.1859 0.8307
6253000000.0 0.5381 0.663
6256000000.0 0.838 0.02782
6259000000.0 0.5199 -0.6449
6262000000.0 -0.1609 -0.8168
6266000000.0 -0.7092 -0.4382
