! Created with skrf 1.8.0 (http://scikit-rf.org).
# Hz S RI R 50.0 
!freq ReS11 ImS11
4000000000.0 -0.2222 -1.483
4003000000.0 -1.303 -0.8274
4006000000.0 -1.432 0.4752
4009000000.0 -0.5245 1.435
4012000000.0 0.7634 1.31
4016000000.0 1.535 0.2412
4019000000.0 1.19 -1.07
4022000000.0 -0.1333 -1.546
4025000000.0 -1.32 -0.8743
4028000000.0 -1.571 0.4922
4031000000.0 -0.5748 1.47
4034000000.0 0.7904 1.381
4038000000.0 1.612 0.2617
4041000000.0 1.214 -1.132
4044000000.0 -0.1083 -1.615
4047000000.0 -1.359 -0.908
4050000000.0 -1.568 0.4318
4053000000.0 -0.6062 1.501
4056000000.0 0.7358 1.451
4059000000.0 1.576 0.3581
4062000000.0 1.258 -1.012
4066000000.0 0.03442 -1.576
4069000000.0 -1.216 -1.087
4072000000.0 -1.603 0.2424
4075000000.0 -0.8043 1.4
4078000000.0 0.5105 1.516
4081000000.0 1.527 0.5239
4084000000.0 1.375 -0.8472
4088000000.0 0.2554 -1.626
4091000000.0 -1.111 -1.198
4094000000.0 -1.632 0.09471
4097000000.0 -0.9692 1.343
4100000000.0 0.3801 1.576
4103000000.0 1.454 0.6945
4106000000.0 1.47 -0.6264
4109000000.0 0.4335 -1.452
4112000000.0 -0.8304 -1.266
4116000000.0 -1.488 -0.2299
4119000000.0 -1.124 1.007
4122000000.0 0.02581 1.455
4125000000.0 1.126 0.9399
4128000000.0 1.46 -0.2381
4131000000.0 0.7515 -1.249
4134000000.0 -0.4521 -1.424
4138000000.0 -1.377 -0.6052
4141000000.0 -1.367 0.6651
4144000000.0 -0.3705 1.458
4147000000.0 0.8883 1.229
4150000000.0 1.516 0.1401
4153000000.0 1.092 -1.055
4156000000.0 -0.1045 -1.506
4159000000.0 -1.226 -0.8761
4162000000.0 -1.467 0.3863
4166000000.0 -0.6262 1.357
4169000000.0 0.5741 1.408
4172000000.0 1.456 0.419
4175000000.0 1.255 -0.8419
4178000000.0 0.1312 -1.498
4181000000.0 -1.025 -1.083
4184000000.0 -1.487 0.1121
4188000000.0 -0.9047 1.252
4191000000.0 0.3592 1.455
4194000000.0 1.39 0.7026
4197000000.0 1.396 -0.6422
4200000000.0 0.379 -1.523
4203000000.0 -0.9773 -1.272
4206000000.0 -1.614 -0.03326
4209000000.0 -1.019 1.277
4212000000.0 0.3648 1.621
4216000000.0 1.471 0.6984
4219000000.0 1.505 -0.7293
4222000000.0 0.2863 -1.642
4225000000.0 -1.126 -1.282
4228000000.0 -1.665 0.1438
4231000000.0 -0.9077 1.406
4234000000.0 0.5556 1.585
4238000000.0 1.546 0.4725
4241000000.0 1.352 -0.9236
4244000000.0 0.1036 -1.586
4247000000.0 -1.226 -1.012
4250000000.0 -1.54 0.3223
4253000000.0 -0.6917 1.396
4256000000.0 0.6821 1.393
4259000000.0 1.541 0.3043
4262000000.0 1.134 -1.019
4266000000.0 -0.1039 -1.527
4269000000.0 -1.295 -0.8728
4272000000.0 -1.43 0.4618
4275000000.0 -0.5165 1.419
4278000000.0 0.744 1.241
4281000000.0 1.446 0.1527
4284000000.0 0.985 -0.9758
4288000000.0 -0.1264 -1.405
4291000000.0 -1.143 -0.7464
4294000000.0 -1.29 0.4142
4297000000.0 -0.4505 1.261
4300000000.0 0.6811 1.13
4303000000.0 1.309 0.2239
4306000000.0 0.9474 -0.8155
4309000000.0 0.007222 -1.28
4312000000.0 -0.9863 -0.843
4316000000.0 -1.255 0.2033
4319000000.0 -0.6873 1.111
4322000000.0 0.4208 1.235
4325000000.0 1.202 0.472
4328000000.0 1.188 -0.6331
4331000000.0 0.2652 -1.349
4334000000.0 -0.8645 -1.077
4338000000.0 -1.364 -0.01388
4341000000.0 -0.9607 1.05
4344000000.0 0.1941 1.423
4347000000.0 1.242 0.7156
4350000000.0 1.364 -0.4809
4353000000.0 0.4698 -1.371
4356000000.0 -0.7382 -1.275
4359000000.0 -1.412 -0.2517
4362000000.0 -1.093 0.9507
4366000000.0 0.0357 1.474
4369000000.0 1.116 0.9146
4372000000.0 1.416 -0.2895
4375000000.0 0.7028 -1.294
4378000000.0 -0.5803 -1.401
4381000000.0 -1.438 -0.4592
4384000000.0 -1.271 0.8543
4388000000.0 -0.1817 1.532
4391000000.0 1.078 1.079
4394000000.0 1.559 -0.1914
4397000000.0 0.8282 -1.297
4400000000.0 -0.5103 -1.485
4403000000.0 -1.471 -0.536
4406000000.0 -1.349 0.8355
4409000000.0 -0.1791 1.55
4412000000.0 1.144 1.106
4416000000.0 1.54 -0.2092
4419000000.0 0.7861 -1.337
4422000000.0 -0.5799 -1.416
4425000000.0 -1.391 -0.4367
4428000000.0 -1.223 0.8607
4431000000.0 -0.04462 1.449
4434000000.0 1.11 0.9351
4438000000.0 1.411 -0.2936
4441000000.0 0.6274 -1.241
4444000000.0 -0.6069 -1.25
4447000000.0 -1.318 -0.286
4450000000.0 -1.038 0.8251
4453000000.0 0.03712 1.333
4456000000.0 1.073 0.7527
4459000000.0 1.237 -0.3204
4462000000.0 0.4821 -1.203
4466000000.0 -0.6719 -1.084
4469000000.0 -1.225 -0.137
4472000000.0 -0.8393 0.8937
4475000000.0 0.1535 1.18
4478000000.0 1.014 0.5849
4481000000.0 1.115 -0.403
4484000000.0 0.3245 -1.111
4488000000.0 -0.6228 -0.9608
4491000000.0 -1.152 -0.08282
4494000000.0 -0.7382 0.842
4497000000.0 0.1739 1.11
4500000000.0 0.9624 0.5452
4503000000.0 0.9994 -0.3964
4506000000.0 0.3089 -1.022
4509000000.0 -0.6099 -0.8933
4512000000.0 -1.095 -0.06152
4516000000.0 -0.7516 0.8034
4519000000.0 0.1213 1.119
4522000000.0 0.9645 0.607
4525000000.0 1.055 -0.3593
4528000000.0 0.4221 -1.074
4531000000.0 -0.591 -0.9947
4534000000.0 -1.16 -0.1712
4538000000.0 -0.8725 0.7938
4541000000.0 0.03599 1.17
4544000000.0 0.9379 0.7328
4547000000.0 1.179 -0.2414
4550000000.0 0.5309 -1.074
4553000000.0 -0.4574 -1.097
4556000000.0 -1.155 -0.3498
4559000000.0 -1.036 0.6559
4562000000.0 -0.1561 1.214
4566000000.0 0.8565 0.9025
4569000000.0 1.258 -0.06153
4572000000.0 0.776 -1.019
4575000000.0 -0.2609 -1.254
4578000000.0 -1.162 -0.6206
4581000000.0 -1.203 0.5199
4584000000.0 -0.3734 1.294
4588000000.0 0.7609 1.139
4591000000.0 1.354 0.1442
4594000000.0 0.9835 -0.9886
4597000000.0 -0.1077 -1.4
4600000000.0 -1.143 -0.7766
4603000000.0 -1.337 0.3581
4606000000.0 -0.5303 1.282
4609000000.0 0.6459 1.249
4612000000.0 1.375 0.3127
4616000000.0 1.08 -0.8545
4619000000.0 -0.0001762 -1.382
4622000000.0 -1.068 -0.9076
4625000000.0 -1.361 0.2834
4628000000.0 -0.6622 1.229
4631000000.0 0.5468 1.276
4634000000.0 1.348 0.4056
4638000000.0 1.115 -0.7968
4641000000.0 0.0966 -1.328
4644000000.0 -0.972 -0.9196
4647000000.0 -1.323 0.2062
4650000000.0 -0.6341 1.183
4653000000.0 0.5184 1.246
4656000000.0 1.256 0.3525
4659000000.0 1.024 -0.7488
4662000000.0 0.0567 -1.248
4666000000.0 -0.9213 -0.8201
4669000000.0 -1.217 0.2274
4672000000.0 -0.5578 1.038
4675000000.0 0.5032 1.08
4678000000.0 1.131 0.3123
4681000000.0 0.9509 -0.6872
4684000000.0 0.02639 -1.152
4688000000.0 -0.8928 -0.727
4691000000.0 -1.105 0.1907
4694000000.0 -0.5101 0.9792
4697000000.0 0.4413 1.017
4700000000.0 1.058 0.2695
4703000000.0 0.8765 -0.6455
4706000000.0 0.004709 -1.11
4709000000.0 -0.8341 -0.7057
4712000000.0 -1.074 0.2189
4716000000.0 -0.4516 0.9474
4719000000.0 0.4656 0.9895
4722000000.0 1.021 0.2247
4725000000.0 0.8145 -0.6623
4728000000.0 0.05005 -1.05
4731000000.0 -0.8085 -0.6818
4734000000.0 -1.028 0.1696
4738000000.0 -0.5134 0.9187
4741000000.0 0.3859 0.9595
4744000000.0 1.001 0.311
4747000000.0 0.884 -0.5726
4750000000.0 0.1327 -1.066
4753000000.0 -0.7432 -0.7846
4756000000.0 -1.08 0.05577
4759000000.0 -0.6438 0.8604
4762000000.0 0.2459 1.1
4766000000.0 1.013 0.4975
4769000000.0 1.03 -0.4493
4772000000.0 0.3223 -1.102
4775000000.0 -0.6376 -0.9599
4778000000.0 -1.153 -0.1187
4781000000.0 -0.8688 0.8214
4784000000.0 0.0991 1.177
4788000000.0 0.9845 0.7101
4791000000.0 1.191 -0.2763
4794000000.0 0.5833 -1.101
4797000000.0 -0.4814 -1.128
4800000000.0 -1.215 -0.3667
4803000000.0 -1.018 0.6824
4806000000.0 -0.1651 1.253
4809000000.0 0.8451 0.9262
4812000000.0 1.278 -0.05122
4816000000.0 0.765 -1.029
4819000000.0 -0.2763 -1.321
4822000000.0 -1.181 -0.5709
4825000000.0 -1.252 0.5409
4828000000.0 -0.382 1.307
4831000000.0 0.7634 1.129
4834000000.0 1.375 0.1382
4838000000.0 0.9522 -0.9907
4841000000.0 -0.15 -1.404
4844000000.0 -1.175 -0.7674
4847000000.0 -1.317 0.4189
4850000000.0 -0.5127 1.279
4853000000.0 0.7064 1.204
4856000000.0 1.377 0.2183
4859000000.0 1.042 -0.8965
4862000000.0 -0.004604 -1.355
4866000000.0 -1.072 -0.8458
4869000000.0 -1.314 0.3044
4872000000.0 -0.5806 1.191
4875000000.0 0.5537 1.159
4878000000.0 1.23 0.3239
4881000000.0 1.007 -0.7831
4884000000.0 0.007553 -1.268
4888000000.0 -0.9335 -0.7805
4891000000.0 -1.188 0.1908
4894000000.0 -0.5481 1.034
4897000000.0 0.466 1.07
4900000000.0 1.11 0.3314
4903000000.0 0.9132 -0.6637
4906000000.0 0.08428 -1.099
4909000000.0 -0.7696 -0.7357
4912000000.0 -1.032 0.1594
4916000000.0 -0.5454 0.862
4919000000.0 0.3138 0.9328
4922000000.0 0.9287 0.3361
4925000000.0 0.8406 -0.5216
4928000000.0 0.1361 -0.9349
4931000000.0 -0.6551 -0.7024
4934000000.0 -0.9566 0.02413
4938000000.0 -0.568 0.7566
4941000000.0 0.2502 0.9091
4944000000.0 0.8641 0.4049
4947000000.0 0.854 -0.396
4950000000.0 0.2416 -0.9179
4953000000.0 -0.5638 -0.7575
4956000000.0 -0.9515 -0.0298
4959000000.0 -0.6419 0.7223
4962000000.0 0.1574 0.9514
4966000000.0 0.8544 0.4732
4969000000.0 0.9256 -0.3481
4972000000.0 0.2959 -0.9553
4975000000.0 -0.5361 -0.8337
4978000000.0 -1.01 -0.1154
4981000000.0 -0.7715 0.7274
4984000000.0 0.08824 1.04
4988000000.0 0.8968 0.623
4991000000.0 1.044 -0.2759
4994000000.0 0.458 -0.9887
4997000000.0 -0.458 -0.9993
5000000000.0 -1.115 -0.2785
5003000000.0 -0.9303 0.6679
5006000000.0 -0.07863 1.159
5009000000.0 0.8901 0.8101
5012000000.0 1.186 -0.134
5016000000.0 0.6433 -1.034
5019000000.0 -0.4024 -1.165
5022000000.0 -1.152 -0.4454
5025000000.0 -1.115 0.6192
5028000000.0 -0.2234 1.264
5031000000.0 0.8423 0.9622
5034000000.0 1.282 -0.0007628
5038000000.0 0.7854 -1.006
5041000000.0 -0.2536 -1.259
5044000000.0 -1.151 -0.6347
5047000000.0 -1.18 0.4686
5050000000.0 -0.4314 1.232
5053000000.0 0.6822 1.095
5056000000.0 1.286 0.1894
5059000000.0 0.9549 -0.8696
5062000000.0 -0.03741 -1.328
5066000000.0 -1.018 -0.8145
5069000000.0 -1.267 0.2763
5072000000.0 -0.6077 1.175
5075000000.0 0.5005 1.177
5078000000.0 1.2 0.3615
5081000000.0 1.055 -0.7031
5084000000.0 0.1287 -1.253
5088000000.0 -0.8209 -0.867
5091000000.0 -1.183 0.1298
5094000000.0 -0.6596 0.9871
5097000000.0 0.2599 1.141
5100000000.0 1.073 0.4988
5103000000.0 1.038 -0.4561
5106000000.0 0.2898 -1.09
5109000000.0 -0.6595 -0.8896
5112000000.0 -1.076 -0.1181
5116000000.0 -0.7694 0.7739
5119000000.0 0.1184 1.048
5122000000.0 0.8429 0.6073
5125000000.0 1.031 -0.2335
5128000000.0 0.4667 -0.9285
5131000000.0 -0.4423 -0.9451
5134000000.0 -0.9826 -0.228
5138000000.0 -0.7804 0.5714
5141000000.0 -0.05201 0.9787
5144000000.0 0.6841 0.6467
5147000000.0 0.9322 -0.1292
5150000000.0 0.4914 -0.776
5153000000.0 -0.3255 -0.8554
5156000000.0 -0.8804 -0.3155
5159000000.0 -0.7703 0.4763
5162000000.0 -0.1354 0.9059
5166000000.0 0.6389 0.6569
5169000000.0 0.8891 -0.06516
5172000000.0 0.5132 -0.7136
5175000000.0 -0.2363 -0.8406
5178000000.0 -0.8393 -0.3408
5181000000.0 -0.8139 0.454
5184000000.0 -0.1959 0.8774
5188000000.0 0.6052 0.7107
5191000000.0 0.9121 -0.03228
5194000000.0 0.5557 -0.7526
5197000000.0 -0.2347 -0.9158
5200000000.0 -0.8827 -0.3702
5203000000.0 -0.8731 0.4441
5206000000.0 -0.1841 0.9249
5209000000.0 0.5976 0.7464
5212000000.0 0.981 -0.004265
5216000000.0 0.5954 -0.7523
5219000000.0 -0.2074 -0.9308
5222000000.0 -0.8762 -0.421
5225000000.0 -0.8935 0.4171
5228000000.0 -0.2439 0.97
5231000000.0 0.6272 0.816
5234000000.0 1.027 0.05214
5238000000.0 0.6758 -0.7621
5241000000.0 -0.1281 -1.033
5244000000.0 -0.8921 -0.5481
5247000000.0 -0.9916 0.3619
5250000000.0 -0.3646 1.001
5253000000.0 0.5156 0.9428
5256000000.0 1.046 0.1996
5259000000.0 0.8206 -0.7222
5262000000.0 -0.0001404 -1.104
5266000000.0 -0.8381 -0.6931
5269000000.0 -1.09 0.1897
5272000000.0 -0.5343 0.9559
5275000000.0 0.3506 1.027
5278000000.0 0.9994 0.4067
5281000000.0 0.9749 -0.5239
5284000000.0 0.2043 -1.078
5288000000.0 -0.6898 -0.8619
5291000000.0 -1.078 -0.04644
5294000000.0 -0.7406 0.8322
5297000000.0 0.1805 1.107
5300000000.0 0.9422 0.6171
5303000000.0 1.066 -0.316
5306000000.0 0.4714 -1.048
5309000000.0 -0.5102 -1.033
5312000000.0 -1.127 -0.2523
5316000000.0 -0.8997 0.6831
5319000000.0 -0.09775 1.161
5322000000.0 0.826 0.7952
5325000000.0 1.157 -0.1103
5328000000.0 0.6843 -0.9519
5331000000.0 -0.3409 -1.099
5334000000.0 -1.049 -0.4564
5338000000.0 -1.008 0.5161
5341000000.0 -0.249 1.111
5344000000.0 0.6966 0.9002
5347000000.0 1.122 0.02753
5350000000.0 0.722 -0.8705
5353000000.0 -0.1516 -1.065
5356000000.0 -0.9341 -0.5154
5359000000.0 -1.042 0.4136
5362000000.0 -0.3242 1.003
5366000000.0 0.5628 0.9041
5369000000.0 1.043 0.08229
5372000000.0 0.7427 -0.7414
5375000000.0 -0.1002 -1.007
5378000000.0 -0.8812 -0.5324
5381000000.0 -0.9728 0.3484
5384000000.0 -0.2953 0.9355
5388000000.0 0.539 0.837
5391000000.0 0.9861 0.09596
5394000000.0 0.6772 -0.7032
5397000000.0 -0.1397 -0.9214
5400000000.0 -0.8075 -0.4575
5403000000.0 -0.8238 0.3255
5406000000.0 -0.2745 0.8705
5409000000.0 0.5076 0.7476
5412000000.0 0.8659 0.06061
5416000000.0 0.5948 -0.6353
5419000000.0 -0.1408 -0.8773
5422000000.0 -0.7644 -0.43
5425000000.0 -0.798 0.3225
5428000000.0 -0.2728 0.8205
5431000000.0 0.489 0.7199
5434000000.0 0.8765 0.05851
5438000000.0 0.6222 -0.642
5441000000.0 -0.1387 -0.861
5444000000.0 -0.752 -0.4424
5447000000.0 -0.7953 0.3107
5450000000.0 -0.2475 0.8741
5453000000.0 0.4912 0.7266
5456000000.0 0.8852 0.07308
5459000000.0 0.6285 -0.6396
5462000000.0 -0.09457 -0.8972
5466000000.0 -0.7454 -0.489
5469000000.0 -0.8586 0.2299
5472000000.0 -0.3595 0.8597
5475000000.0 0.4066 0.7948
5478000000.0 0.9063 0.2028
5481000000.0 0.7601 -0.5758
5484000000.0 0.03786 -0.9596
5488000000.0 -0.686 -0.6694
5491000000.0 -0.982 0.1449
5494000000.0 -0.5221 0.8518
5497000000.0 0.2843 0.9489
5500000000.0 0.9305 0.427
5503000000.0 0.8642 -0.4677
5506000000.0 0.2104 -1.025
5509000000.0 -0.6344 -0.8333
5512000000.0 -1.002 -0.03258
5516000000.0 -0.7077 0.7473
5519000000.0 0.13 1.035
5522000000.0 0.8733 0.5607
5525000000.0 0.9935 -0.3036
5528000000.0 0.4433 -0.9521
5531000000.0 -0.4654 -0.9315
5534000000.0 -1.018 -0.2451
5538000000.0 -0.8543 0.6237
5541000000.0 -0.08951 1.084
5544000000.0 0.8047 0.73
5547000000.0 1.062 -0.1227
5550000000.0 0.5845 -0.8933
5553000000.0 -0.319 -1.046
5556000000.0 -0.9834 -0.3958
5559000000.0 -0.9281 0.5157
5562000000.0 -0.2491 1.027
5566000000.0 0.6682 0.7902
5569000000.0 1.02 0.04697
5572000000.0 0.6537 -0.7578
5575000000.0 -0.1558 -1.008
5578000000.0 -0.8831 -0.4975
5581000000.0 -0.9453 0.3012
5584000000.0 -0.3179 0.9243
5588000000.0 0.4928 0.8645
5591000000.0 0.9422 0.1559
5594000000.0 0.7052 -0.6202
5597000000.0 -0.04989 -0.9416
5600000000.0 -0.7359 -0.5451
5603000000.0 -0.8932 0.2476
5606000000.0 -0.3971 0.8318
5609000000.0 0.3871 0.8226
5612000000.0 0.8696 0.2017
5616000000.0 0.6878 -0.5197
5619000000.0 0.02531 -0.8783
5622000000.0 -0.6553 -0.5664
5625000000.0 -0.8469 0.1736
5628000000.0 -0.4033 0.7688
5631000000.0 0.3252 0.7722
5634000000.0 0.8071 0.2253
5638000000.0 0.6914 -0.4898
5641000000.0 0.04963 -0.8356
5644000000.0 -0.6239 -0.5803
5647000000.0 -0.8475 0.1202
5650000000.0 -0.4506 0.7296
5653000000.0 0.2963 0.7843
5656000000.0 0.8297 0.2616
5659000000.0 0.7274 -0.4674
5662000000.0 0.05379 -0.8635
5666000000.0 -0.6551 -0.597
5669000000.0 -0.8843 0.1123
5672000000.0 -0.4397 0.767
5675000000.0 0.3329 0.8451
5678000000.0 0.854 0.2632
5681000000.0 0.7739 -0.539
5684000000.0 0.08708 -0.939
5688000000.0 -0.6923 -0.6769
5691000000.0 -0.9706 0.09833
5694000000.0 -0.5163 0.8389
5697000000.0 0.3108 0.9423
5700000000.0 0.9333 0.3381
5703000000.0 0.8537 -0.474
5706000000.0 0.1383 -1.028
5709000000.0 -0.6931 -0.7617
5712000000.0 -1.026 0.05918
5716000000.0 -0.625 0.8207
5719000000.0 0.2794 1.003
5722000000.0 0.981 0.4519
5725000000.0 0.9788 -0.4495
5728000000.0 0.2816 -1.048
5731000000.0 -0.6516 -0.8639
5734000000.0 -1.062 -0.06789
5738000000.0 -0.7506 0.7634
5741000000.0 0.1146 1.098
5744000000.0 0.8967 0.6391
5747000000.0 1.044 -0.3466
5750000000.0 0.4158 -1.003
5753000000.0 -0.4979 -0.9531
5756000000.0 -1.081 -0.2419
5759000000.0 -0.8617 0.6669
5762000000.0 -0.01899 1.13
5766000000.0 0.8297 0.7628
5769000000.0 1.108 -0.1175
5772000000.0 0.6011 -0.9298
5775000000.0 -0.3272 -1.038
5778000000.0 -1.017 -0.4648
5781000000.0 -0.9751 0.5111
5784000000.0 -0.2447 1.075
5788000000.0 0.6901 0.8549
5791000000.0 1.067 0.00675
5794000000.0 0.7058 -0.8138
5797000000.0 -0.1699 -1.074
5800000000.0 -0.9346 -0.5677
5803000000.0 -0.979 0.3408
5806000000.0 -0.3513 0.9744
5809000000.0 0.5426 0.8854
5812000000.0 1.042 0.1579
5816000000.0 0.7673 -0.7002
5819000000.0 -0.05037 -1.016
5822000000.0 -0.8436 -0.6225
5825000000.0 -1.003 0.2191
5828000000.0 -0.4371 0.9025
5831000000.0 0.4109 0.882
5834000000.0 0.9541 0.2315
5838000000.0 0.8192 -0.5643
5841000000.0 0.02408 -0.9557
5844000000.0 -0.7007 -0.6336
5847000000.0 -0.9121 0.1381
5850000000.0 -0.4648 0.8441
5853000000.0 0.3463 0.8364
5856000000.0 0.8953 0.2677
5859000000.0 0.7609 -0.4984
5862000000.0 0.07861 -0.9262
5866000000.0 -0.6552 -0.625
5869000000.0 -0.8921 0.1334
5872000000.0 -0.4849 0.7818
5875000000.0 0.3292 0.8391
5878000000.0 0.8507 0.287
5881000000.0 0.7222 -0.4607
5884000000.0 0.1218 -0.9034
5888000000.0 -0.6246 -0.6071
5891000000.0 -0.8909 0.08938
5894000000.0 -0.4568 0.7366
5897000000.0 0.3085 0.8058
5900000000.0 0.7928 0.3079
5903000000.0 0.7349 -0.4318
5906000000.0 0.1449 -0.8834
5909000000.0 -0.5702 -0.6182
5912000000.0 -0.8398 0.04049
5916000000.0 -0.5325 0.6667
5919000000.0 0.2165 0.8726
5922000000.0 0.7911 0.3674
5925000000.0 0.8331 -0.3652
5928000000.0 0.2235 -0.8429
5931000000.0 -0.5339 -0.6924
5934000000.0 -0.88 -0.05303
5938000000.0 -0.6291 0.6463
5941000000.0 0.1383 0.8977
5944000000.0 0.7405 0.477
5947000000.0 0.8416 -0.2554
5950000000.0 0.3479 -0.8374
5953000000.0 -0.3903 -0.8219
5956000000.0 -0.9094 -0.1953
5959000000.0 -0.7375 0.5603
5962000000.0 -0.04021 0.9234
5966000000.0 0.6999 0.643
5969000000.0 0.9385 -0.1258
5972000000.0 0.4991 -0.7896
5975000000.0 -0.3006 -0.9314
5978000000.0 -0.8945 -0.3521
5981000000.0 -0.8631 0.4468
5984000000.0 -0.2227 0.9848
5988000000.0 0.612 0.7895
5991000000.0 0.9683 0.0005427
5994000000.0 0.6534 -0.7405
5997000000.0 -0.1528 -0.9986
6000000000.0 -0.8699 -0.4944
6003000000.0 -0.9383 0.3164
6006000000.0 -0.3127 0.9531
6009000000.0 0.5161 0.852
6012000000.0 0.994 0.1322
6016000000.0 0.7018 -0.6489
6019000000.0 -0.0335 -1.018
6022000000.0 -0.7786 -0.5888
6025000000.0 -0.9582 0.2229
6028000000.0 -0.434 0.8905
6031000000.0 0.4114 0.9015
6034000000.0 0.9518 0.2183
6038000000.0 0.7636 -0.5914
6041000000.0 0.02064 -0.9605
6044000000.0 -0.7397 -0.6446
6047000000.0 -0.9618 0.1769
6050000000.0 -0.4818 0.8544
6053000000.0 0.3408 0.8675
6056000000.0 0.8683 0.2657
6059000000.0 0.7543 -0.5066
6062000000.0 0.08316 -0.9001
6066000000.0 -0.6409 -0.645
6069000000.0 -0.8794 0.09912
6072000000.0 -0.4731 0.7548
6075000000.0 0.2878 0.8455
6078000000.0 0.8388 0.2714
6081000000.0 0.7539 -0.4506
6084000000.0 0.125 -0.8726
6088000000.0 -0.5842 -0.6298
6091000000.0 -0.8691 0.06928
6094000000.0 -0.4895 0.6954
6097000000.0 0.2758 0.8296
6100000000.0 0.8023 0.342
6103000000.0 0.7686 -0.3886
6106000000.0 0.1666 -0.8439
6109000000.0 -0.5728 -0.6398
6112000000.0 -0.8484 -0.03065
6116000000.0 -0.5218 0.6847
6119000000.0 0.2204 0.8219
6122000000.0 0.7658 0.3682
6125000000.0 0.7887 -0.3684
6128000000.0 0.2021 -0.8535
6131000000.0 -0.5419 -0.7024
6134000000.0 -0.8862 -0.0201
6138000000.0 -0.5836 0.6551
6141000000.0 0.153 0.8604
6144000000.0 0.8002 0.4126
6147000000.0 0.8195 -0.328
6150000000.0 0.2972 -0.8381
6153000000.0 -0.4921 -0.7559
6156000000.0 -0.9283 -0.1083
6159000000.0 -0.6432 0.6481
6162000000.0 0.09253 0.9273
6166000000.0 0.7541 0.5339
6169000000.0 0.8805 -0.2702
6172000000.0 0.3394 -0.8547
6175000000.0 -0.4606 -0.854
6178000000.0 -0.9447 -0.163
6181000000.0 -0.724 0.6187
6184000000.0 0.02686 0.9299
6188000000.0 0.7579 0.5875
6191000000.0 0.9396 -0.2105
6194000000.0 0.4047 -0.828
6197000000.0 -0.3766 -0.8339
6200000000.0 -0.9174 -0.2611
6203000000.0 -0.7957 0.5266
6206000000.0 -0.05741 0.9543
6209000000.0 0.6716 0.6245
6212000000.0 0.9021 -0.09984
6216000000.0 0.5013 -0.7486
6219000000.0 -0.2906 -0.8704
6222000000.0 -0.7981 -0.3808
6225000000.0 -0.8039 0.4239
6228000000.0 -0.1751 0.907
6231000000.0 0.578 0.7231
6234000000.0 0.8744 0.02181
6238000000.0 0.5647 -0.6746
6241000000.0 -0.142 -0.8724
6244000000.0 -0.7323 -0.4526
6247000000.0 -0.8286 0.3328
6250000000.0 -0.3197 0.8181
6253000000.0 0.4057 0.7137
6256000000.0 0.8343 0.144
6259000000.0 0.6399 -0.5187
6262000000.0 0.006706 -0.8258
6266000000.0 -0.6443 -0.5434
