! Created with skrf 1.8.0 (http://scikit-rf.org).
# Hz S RI R 50.0 
!freq ReS11 ImS11
4000000000.0 -0.3153 -1.484
4003000000.0 -1.356 -0.7194
4006000000.0 -1.361 0.6933
4009000000.0 -0.3415 1.477
4012000000.0 0.8858 1.218
4016000000.0 1.498 0.05087
4019000000.0 1.0 -1.17
4022000000.0 -0.3606 -1.591
4025000000.0 -1.379 -0.7352
4028000000.0 -1.468 0.6814
4031000000.0 -0.4259 1.552
4034000000.0 0.9714 1.348
4038000000.0 1.685 0.07091
4041000000.0 1.115 -1.257
4044000000.0 -0.347 -1.601
4047000000.0 -1.48 -0.7508
4050000000.0 -1.505 0.6884
4053000000.0 -0.4044 1.621
4056000000.0 0.926 1.386
4059000000.0 1.6 0.1707
4062000000.0 1.128 -1.169
4066000000.0 -0.178 -1.534
4069000000.0 -1.348 -0.8801
4072000000.0 -1.558 0.452
4075000000.0 -0.6659 1.453
4078000000.0 0.7237 1.492
4081000000.0 1.573 0.3816
4084000000.0 1.301 -1.028
4088000000.0 0.05205 -1.622
4091000000.0 -1.233 -1.075
4094000000.0 -1.664 0.284
4097000000.0 -0.8356 1.405
4100000000.0 0.5413 1.496
4103000000.0 1.49 0.5477
4106000000.0 1.389 -0.7496
4109000000.0 0.2626 -1.511
4112000000.0 -0.9733 -1.15
4116000000.0 -1.534 -0.03607
4119000000.0 -0.9774 1.121
4122000000.0 0.1632 1.487
4125000000.0 1.217 0.8134
4128000000.0 1.412 -0.3995
4131000000.0 0.5955 -1.314
4134000000.0 -0.588 -1.35
4138000000.0 -1.425 -0.4644
4141000000.0 -1.255 0.7978
4144000000.0 -0.1916 1.488
4147000000.0 1.014 1.12
4150000000.0 1.484 -0.05911
4153000000.0 0.9078 -1.197
4156000000.0 -0.3169 -1.487
4159000000.0 -1.348 -0.6961
4162000000.0 -1.382 0.5793
4166000000.0 -0.4504 1.441
4169000000.0 0.8006 1.278
4172000000.0 1.472 0.1758
4175000000.0 1.125 -1.036
4178000000.0 -0.0736 -1.505
4181000000.0 -1.209 -0.9253
4184000000.0 -1.447 0.3364
4188000000.0 -0.6681 1.354
4191000000.0 0.6249 1.384
4194000000.0 1.515 0.4105
4197000000.0 1.256 -0.9224
4200000000.0 0.07194 -1.56
4203000000.0 -1.223 -1.022
4206000000.0 -1.587 0.309
4209000000.0 -0.7364 1.434
4212000000.0 0.6893 1.508
4216000000.0 1.601 0.3417
4219000000.0 1.298 -1.086
4222000000.0 -0.1396 -1.681
4225000000.0 -1.422 -0.9374
4228000000.0 -1.557 0.5492
4231000000.0 -0.502 1.596
4234000000.0 0.9157 1.311
4238000000.0 1.594 0.04308
4241000000.0 1.047 -1.239
4244000000.0 -0.3774 -1.518
4247000000.0 -1.43 -0.5972
4250000000.0 -1.32 0.7289
4253000000.0 -0.2357 1.468
4256000000.0 1.03 1.107
4259000000.0 1.492 -0.1326
4262000000.0 0.775 -1.2
4266000000.0 -0.5287 -1.403
4269000000.0 -1.38 -0.4567
4272000000.0 -1.183 0.8113
4275000000.0 -0.1185 1.435
4278000000.0 1.018 0.9822
4281000000.0 1.356 -0.196
4284000000.0 0.7113 -1.191
4288000000.0 -0.5287 -1.272
4291000000.0 -1.29 -0.4229
4294000000.0 -1.128 0.7231
4297000000.0 -0.1673 1.32
4300000000.0 0.8908 0.932
4303000000.0 1.309 -0.05471
4306000000.0 0.7698 -1.053
4309000000.0 -0.3104 -1.239
4312000000.0 -1.2 -0.5858
4316000000.0 -1.21 0.5203
4319000000.0 -0.367 1.255
4322000000.0 0.7262 1.117
4325000000.0 1.308 0.1702
4328000000.0 1.024 -0.9094
4331000000.0 -0.0833 -1.373
4334000000.0 -1.113 -0.8362
4338000000.0 -1.367 0.3238
4341000000.0 -0.637 1.299
4344000000.0 0.577 1.332
4347000000.0 1.377 0.3905
4350000000.0 1.202 -0.8524
4353000000.0 0.143 -1.444
4356000000.0 -1.045 -1.033
4359000000.0 -1.477 0.1548
4362000000.0 -0.8153 1.272
4366000000.0 0.4459 1.41
4369000000.0 1.4 0.5624
4372000000.0 1.322 -0.727
4375000000.0 0.257 -1.507
4378000000.0 -0.9659 -1.181
4381000000.0 -1.519 0.02412
4384000000.0 -0.9667 1.227
4388000000.0 0.3449 1.487
4391000000.0 1.433 0.6796
4394000000.0 1.419 -0.7104
4397000000.0 0.3285 -1.53
4400000000.0 -0.9894 -1.216
4403000000.0 -1.591 0.06921
4406000000.0 -0.9092 1.284
4409000000.0 0.4789 1.469
4412000000.0 1.428 0.5556
4416000000.0 1.297 -0.7712
4419000000.0 0.1624 -1.488
4422000000.0 -1.049 -0.9841
4425000000.0 -1.38 0.2201
4428000000.0 -0.6796 1.259
4431000000.0 0.5196 1.291
4434000000.0 1.318 0.3564
4438000000.0 1.057 -0.8277
4441000000.0 -0.03843 -1.287
4444000000.0 -1.061 -0.7924
4447000000.0 -1.237 0.3535
4450000000.0 -0.5034 1.159
4453000000.0 0.6021 1.088
4456000000.0 1.233 0.1649
4459000000.0 0.9046 -0.8406
4462000000.0 -0.1004 -1.224
4466000000.0 -1.042 -0.6428
4469000000.0 -1.109 0.418
4472000000.0 -0.3712 1.127
4475000000.0 0.6589 0.9741
4478000000.0 1.162 0.09636
4481000000.0 0.8223 -0.8131
4484000000.0 -0.1869 -1.134
4488000000.0 -1.011 -0.5823
4491000000.0 -1.085 0.4266
4494000000.0 -0.3802 1.102
4497000000.0 0.6189 0.9461
4500000000.0 1.133 0.1078
4503000000.0 0.8113 -0.814
4506000000.0 -0.09553 -1.13
4509000000.0 -0.9637 -0.6342
4512000000.0 -1.091 0.3398
4516000000.0 -0.4089 1.097
4519000000.0 0.5615 1.066
4522000000.0 1.175 0.1878
4525000000.0 0.9305 -0.7865
4528000000.0 -0.009252 -1.207
4531000000.0 -0.964 -0.7848
4534000000.0 -1.174 0.2512
4538000000.0 -0.5833 1.071
4541000000.0 0.4646 1.154
4544000000.0 1.231 0.3889
4547000000.0 1.088 -0.6609
4550000000.0 0.1805 -1.241
4553000000.0 -0.8858 -0.9317
4556000000.0 -1.291 0.04244
4559000000.0 -0.7941 1.043
4562000000.0 0.2848 1.261
4566000000.0 1.148 0.6022
4569000000.0 1.231 -0.5313
4572000000.0 0.4018 -1.281
4575000000.0 -0.7427 -1.122
4578000000.0 -1.347 -0.1606
4581000000.0 -0.9807 0.9683
4584000000.0 0.07991 1.378
4588000000.0 1.135 0.8098
4591000000.0 1.348 -0.356
4594000000.0 0.5786 -1.297
4597000000.0 -0.6496 -1.264
4600000000.0 -1.381 -0.2825
4603000000.0 -1.11 0.8715
4606000000.0 -0.02198 1.442
4609000000.0 1.077 0.9085
4612000000.0 1.39 -0.2814
4616000000.0 0.6633 -1.279
4619000000.0 -0.5258 -1.273
4622000000.0 -1.313 -0.3687
4625000000.0 -1.158 0.8135
4628000000.0 -0.06256 1.335
4631000000.0 1.015 0.9037
4634000000.0 1.318 -0.2077
4638000000.0 0.6557 -1.15
4641000000.0 -0.4796 -1.219
4644000000.0 -1.246 -0.3266
4647000000.0 -1.049 0.7662
4650000000.0 -0.08368 1.282
4653000000.0 0.9317 0.8161
4656000000.0 1.241 -0.2313
4659000000.0 0.5864 -1.083
4662000000.0 -0.4812 -1.107
4666000000.0 -1.178 -0.2954
4669000000.0 -0.9167 0.6899
4672000000.0 -0.01891 1.161
4675000000.0 0.8738 0.7515
4678000000.0 1.115 -0.2409
4681000000.0 0.5078 -0.9777
4684000000.0 -0.4604 -0.9653
4688000000.0 -1.03 -0.3068
4691000000.0 -0.8968 0.6725
4694000000.0 -0.01131 1.073
4697000000.0 0.8114 0.7067
4700000000.0 1.04 -0.1757
4703000000.0 0.5271 -0.9908
4706000000.0 -0.4625 -1.012
4709000000.0 -1.052 -0.2371
4712000000.0 -0.9157 0.6388
4716000000.0 -0.03828 1.093
4719000000.0 0.857 0.6995
4722000000.0 1.105 -0.1972
4725000000.0 0.4927 -0.9592
4728000000.0 -0.387 -1.063
4731000000.0 -1.056 -0.3776
4734000000.0 -0.9057 0.5835
4738000000.0 -0.1546 1.089
4741000000.0 0.7273 0.8041
4744000000.0 1.121 -0.07958
4747000000.0 0.7072 -0.8872
4750000000.0 -0.2523 -1.105
4753000000.0 -0.9885 -0.5045
4756000000.0 -1.074 0.4475
4759000000.0 -0.3167 1.116
4762000000.0 0.6341 0.9788
4766000000.0 1.182 0.1465
4769000000.0 0.9023 -0.8442
4772000000.0 -0.0434 -1.23
4775000000.0 -1.003 -0.7635
4778000000.0 -1.249 0.3005
4781000000.0 -0.562 1.144
4784000000.0 0.5071 1.173
4788000000.0 1.245 0.3626
4791000000.0 1.075 -0.6802
4794000000.0 0.1389 -1.291
4797000000.0 -0.9028 -0.9788
4800000000.0 -1.337 0.05662
4803000000.0 -0.8024 1.059
4806000000.0 0.2886 1.3
4809000000.0 1.171 0.5942
4812000000.0 1.276 -0.5315
4816000000.0 0.3808 -1.302
4819000000.0 -0.7734 -1.132
4822000000.0 -1.369 -0.1394
4825000000.0 -0.9718 1.011
4828000000.0 0.1449 1.405
4831000000.0 1.185 0.7593
4834000000.0 1.359 -0.4212
4838000000.0 0.5456 -1.32
4841000000.0 -0.6992 -1.234
4844000000.0 -1.387 -0.2227
4847000000.0 -1.045 0.8974
4850000000.0 0.05402 1.366
4853000000.0 1.088 0.8006
4856000000.0 1.281 -0.3239
4859000000.0 0.5671 -1.217
4862000000.0 -0.5507 -1.177
4866000000.0 -1.231 -0.2886
4869000000.0 -0.9983 0.7628
4872000000.0 -0.04666 1.248
4875000000.0 0.9367 0.7902
4878000000.0 1.191 -0.2418
4881000000.0 0.5555 -1.059
4884000000.0 -0.467 -1.046
4888000000.0 -1.088 -0.3266
4891000000.0 -0.9154 0.6398
4894000000.0 -0.04375 1.099
4897000000.0 0.7994 0.7412
4900000000.0 1.042 -0.1426
4903000000.0 0.5199 -0.8971
4906000000.0 -0.4012 -0.9414
4909000000.0 -0.9767 -0.3018
4912000000.0 -0.8223 0.5545
4916000000.0 -0.08251 0.9831
4919000000.0 0.6777 0.6629
4922000000.0 0.9737 -0.104
4925000000.0 0.5395 -0.8179
4928000000.0 -0.281 -0.9042
4931000000.0 -0.8644 -0.3644
4934000000.0 -0.8058 0.4574
4938000000.0 -0.1657 0.915
4941000000.0 0.5998 0.7407
4944000000.0 0.9605 0.01887
4947000000.0 0.6122 -0.7879
4950000000.0 -0.1727 -0.9471
4953000000.0 -0.8983 -0.4539
4956000000.0 -0.9162 0.3905
4959000000.0 -0.263 0.9716
4962000000.0 0.5836 0.866
4966000000.0 1.053 0.08011
4969000000.0 0.7364 -0.7807
4972000000.0 -0.1481 -1.051
4975000000.0 -0.9047 -0.5856
4978000000.0 -1.035 0.3442
4981000000.0 -0.4089 1.015
4984000000.0 0.5533 0.984
4988000000.0 1.124 0.192
4991000000.0 0.908 -0.7498
4994000000.0 0.01786 -1.175
4997000000.0 -0.9161 -0.7901
5000000000.0 -1.2 0.231
5003000000.0 -0.6037 1.084
5006000000.0 0.4595 1.177
5009000000.0 1.236 0.3839
5012000000.0 1.073 -0.7249
5016000000.0 0.1403 -1.298
5019000000.0 -0.9284 -0.9264
5022000000.0 -1.333 0.1
5025000000.0 -0.7279 1.081
5028000000.0 0.3491 1.287
5031000000.0 1.207 0.5237
5034000000.0 1.164 -0.5815
5038000000.0 0.2836 -1.29
5041000000.0 -0.7888 -1.026
5044000000.0 -1.279 -0.0656
5047000000.0 -0.867 0.9494
5050000000.0 0.1745 1.221
5053000000.0 1.129 0.666
5056000000.0 1.211 -0.3913
5059000000.0 0.4669 -1.179
5062000000.0 -0.5971 -1.11
5066000000.0 -1.255 -0.2554
5069000000.0 -0.9627 0.794
5072000000.0 0.005439 1.239
5075000000.0 0.9577 0.778
5078000000.0 1.19 -0.2247
5081000000.0 0.5431 -1.054
5084000000.0 -0.4474 -1.092
5088000000.0 -1.105 -0.348
5091000000.0 -0.9428 0.624
5094000000.0 -0.1052 1.108
5097000000.0 0.7631 0.7986
5100000000.0 1.08 -0.05961
5103000000.0 0.5819 -0.8076
5106000000.0 -0.2666 -1.004
5109000000.0 -0.9118 -0.4167
5112000000.0 -0.8711 0.4151
5116000000.0 -0.191 0.9585
5119000000.0 0.5518 0.774
5122000000.0 0.9629 0.03226
5125000000.0 0.6241 -0.6939
5128000000.0 -0.1276 -0.9417
5131000000.0 -0.8217 -0.4706
5134000000.0 -0.834 0.3777
5138000000.0 -0.2746 0.8977
5141000000.0 0.5218 0.7643
5144000000.0 0.9492 0.07011
5147000000.0 0.5843 -0.6373
5150000000.0 -0.1399 -0.911
5153000000.0 -0.7559 -0.4304
5156000000.0 -0.8186 0.3254
5159000000.0 -0.253 0.8587
5162000000.0 0.5062 0.7582
5166000000.0 0.9098 0.0384
5169000000.0 0.6103 -0.6994
5172000000.0 -0.1432 -0.901
5175000000.0 -0.7886 -0.4374
5178000000.0 -0.8557 0.3087
5181000000.0 -0.2681 0.8878
5184000000.0 0.5318 0.7854
5188000000.0 0.9515 0.04131
5191000000.0 0.6239 -0.7164
5194000000.0 -0.1706 -0.9793
5197000000.0 -0.8979 -0.4776
5200000000.0 -0.9161 0.3572
5203000000.0 -0.2767 0.9617
5206000000.0 0.5841 0.8336
5209000000.0 1.029 0.07939
5212000000.0 0.7203 -0.7483
5216000000.0 -0.1251 -1.009
5219000000.0 -0.894 -0.5435
5222000000.0 -0.9881 0.3511
5225000000.0 -0.3766 0.9778
5228000000.0 0.515 0.9286
5231000000.0 1.039 0.1864
5234000000.0 0.8274 -0.6802
5238000000.0 0.002865 -1.05
5241000000.0 -0.8402 -0.6768
5244000000.0 -1.059 0.1981
5247000000.0 -0.5176 0.94
5250000000.0 0.3922 1.014
5253000000.0 1.03 0.344
5256000000.0 0.9461 -0.6192
5259000000.0 0.1562 -1.108
5262000000.0 -0.7356 -0.8131
5266000000.0 -1.083 0.05428
5269000000.0 -0.6521 0.8961
5272000000.0 0.2735 1.094
5275000000.0 1.021 0.4971
5278000000.0 1.02 -0.4607
5281000000.0 0.2991 -1.041
5284000000.0 -0.6038 -0.9178
5288000000.0 -1.082 -0.09161
5291000000.0 -0.7815 0.7812
5294000000.0 0.07974 1.079
5297000000.0 0.9303 0.6403
5300000000.0 1.075 -0.3218
5303000000.0 0.4327 -1.045
5306000000.0 -0.5147 -0.9778
5309000000.0 -1.077 -0.1735
5312000000.0 -0.8282 0.7112
5316000000.0 0.03635 1.069
5319000000.0 0.8966 0.632
5322000000.0 1.061 -0.3005
5325000000.0 0.4213 -0.9866
5328000000.0 -0.5157 -0.9139
5331000000.0 -1.02 -0.1547
5334000000.0 -0.7514 0.7066
5338000000.0 0.07026 1.005
5341000000.0 0.8401 0.5246
5344000000.0 0.9273 -0.3528
5347000000.0 0.2844 -0.9108
5350000000.0 -0.5819 -0.8024
5353000000.0 -0.9552 -0.05029
5356000000.0 -0.5596 0.714
5359000000.0 0.2223 0.8959
5362000000.0 0.8096 0.3754
5366000000.0 0.7728 -0.4214
5369000000.0 0.1232 -0.9038
5372000000.0 -0.6553 -0.6352
5375000000.0 -0.8692 0.1212
5378000000.0 -0.4633 0.7662
5381000000.0 0.3458 0.81
5384000000.0 0.8434 0.2449
5388000000.0 0.7072 -0.5382
5391000000.0 -0.02873 -0.8839
5394000000.0 -0.6841 -0.5319
5397000000.0 -0.8668 0.1953
5400000000.0 -0.3488 0.7911
5403000000.0 0.4091 0.8279
5406000000.0 0.8723 0.1918
5409000000.0 0.7195 -0.5655
5412000000.0 0.006436 -0.9057
5416000000.0 -0.7003 -0.5681
5419000000.0 -0.9348 0.2055
5422000000.0 -0.4065 0.8596
5425000000.0 0.397 0.8935
5428000000.0 0.9558 0.245
5431000000.0 0.825 -0.5253
5434000000.0 0.0588 -1.015
5438000000.0 -0.7854 -0.7221
5441000000.0 -1.02 0.1772
5444000000.0 -0.5218 0.8995
5447000000.0 0.3787 1.004
5450000000.0 1.044 0.3348
5453000000.0 0.9346 -0.5608
5456000000.0 0.1153 -1.101
5459000000.0 -0.776 -0.8049
5462000000.0 -1.08 0.08271
5466000000.0 -0.6279 0.9225
5469000000.0 0.3209 1.048
5472000000.0 1.045 0.4195
5475000000.0 0.9678 -0.5197
5478000000.0 0.1733 -1.139
5481000000.0 -0.7428 -0.856
5484000000.0 -1.171 0.03642
5488000000.0 -0.6732 0.9463
5491000000.0 0.2878 1.108
5494000000.0 1.04 0.3889
5497000000.0 0.9547 -0.58
5500000000.0 0.2118 -1.097
5503000000.0 -0.7628 -0.7764
5506000000.0 -1.074 0.08534
5509000000.0 -0.5588 0.9319
5512000000.0 0.3363 0.9757
5516000000.0 0.9559 0.2808
5519000000.0 0.8167 -0.5995
5522000000.0 0.03097 -0.9786
5525000000.0 -0.7163 -0.6034
5528000000.0 -0.9202 0.1996
5531000000.0 -0.3889 0.8479
5534000000.0 0.4511 0.8231
5538000000.0 0.8986 0.1297
5541000000.0 0.6538 -0.6142
5544000000.0 -0.08502 -0.832
5547000000.0 -0.712 -0.4099
5550000000.0 -0.7654 0.3477
5553000000.0 -0.2025 0.7644
5556000000.0 0.5531 0.6237
5559000000.0 0.8133 -0.0277
5562000000.0 0.4675 -0.6854
5566000000.0 -0.2406 -0.7947
5569000000.0 -0.7811 -0.2637
5572000000.0 -0.6651 0.4442
5575000000.0 -0.03276 0.7838
5578000000.0 0.6217 0.5384
5581000000.0 0.8316 -0.1369
5584000000.0 0.3847 -0.7572
5588000000.0 -0.3637 -0.7579
5591000000.0 -0.8663 -0.2012
5594000000.0 -0.6779 0.5255
5597000000.0 0.01967 0.8565
5600000000.0 0.7047 0.5627
5603000000.0 0.8859 -0.2043
5606000000.0 0.3863 -0.8418
5609000000.0 -0.4232 -0.8334
5612000000.0 -0.9483 -0.2263
5616000000.0 -0.7312 0.6354
5619000000.0 0.03198 1.008
5622000000.0 0.7997 0.5671
5625000000.0 0.9825 -0.2582
5628000000.0 0.426 -0.9293
5631000000.0 -0.4592 -0.9521
5634000000.0 -1.034 -0.1859
5638000000.0 -0.8294 0.6667
5641000000.0 -0.003043 1.066
5644000000.0 0.8651 0.6414
5647000000.0 1.048 -0.2511
5650000000.0 0.4756 -0.9992
5653000000.0 -0.4967 -0.9886
5656000000.0 -1.088 -0.2341
5659000000.0 -0.8206 0.7091
5662000000.0 0.02051 1.104
5666000000.0 0.8766 0.6526
5669000000.0 1.055 -0.2961
5672000000.0 0.4394 -0.9995
5675000000.0 -0.5383 -0.9613
5678000000.0 -1.071 -0.1486
5681000000.0 -0.7867 0.7244
5684000000.0 0.1354 1.073
5688000000.0 0.8875 0.5553
5691000000.0 1.001 -0.3342
5694000000.0 0.3286 -1.003
5697000000.0 -0.5955 -0.8406
5700000000.0 -1.064 -0.04164
5703000000.0 -0.6422 0.7645
5706000000.0 0.2371 0.9592
5709000000.0 0.8873 0.3879
5712000000.0 0.8405 -0.4785
5716000000.0 0.1445 -0.9432
5719000000.0 -0.6584 -0.6763
5722000000.0 -0.9296 0.1295
5725000000.0 -0.4395 0.7877
5728000000.0 0.3638 0.8487
5731000000.0 0.8827 0.2172
5734000000.0 0.7275 -0.5818
5738000000.0 -0.02086 -0.9371
5741000000.0 -0.7561 -0.5066
5744000000.0 -0.8879 0.3203
5747000000.0 -0.3013 0.8858
5750000000.0 0.5413 0.766
5753000000.0 0.9313 0.06508
5756000000.0 0.6379 -0.7194
5759000000.0 -0.1859 -0.9255
5762000000.0 -0.8643 -0.4119
5766000000.0 -0.826 0.4437
5769000000.0 -0.1832 0.9098
5772000000.0 0.6337 0.7474
5775000000.0 0.9784 -0.008539
5778000000.0 0.5871 -0.7962
5781000000.0 -0.2739 -0.9101
5784000000.0 -0.9425 -0.3895
5788000000.0 -0.8957 0.464
5791000000.0 -0.1963 0.983
5794000000.0 0.6689 0.7686
5797000000.0 1.016 -0.02217
5800000000.0 0.6296 -0.8193
5803000000.0 -0.2281 -1.03
5806000000.0 -0.9353 -0.454
5809000000.0 -0.9481 0.451
5812000000.0 -0.2454 1.03
5816000000.0 0.6779 0.8381
5819000000.0 1.033 0.01943
5822000000.0 0.7102 -0.7959
5825000000.0 -0.1869 -1.077
5828000000.0 -0.8825 -0.5291
5831000000.0 -0.9805 0.3731
5834000000.0 -0.2963 1.018
5838000000.0 0.6025 0.876
5841000000.0 1.058 0.09904
5844000000.0 0.7768 -0.7412
5847000000.0 -0.1146 -1.059
5850000000.0 -0.8727 -0.6139
5853000000.0 -1.046 0.3349
5856000000.0 -0.38 0.9817
5859000000.0 0.521 0.9063
5862000000.0 1.059 0.1939
5866000000.0 0.8158 -0.6991
5869000000.0 -0.0144 -1.076
5872000000.0 -0.8803 -0.6096
5875000000.0 -0.9666 0.289
5878000000.0 -0.3751 0.9558
5881000000.0 0.5088 0.8686
5884000000.0 0.9963 0.1756
5888000000.0 0.7513 -0.6458
5891000000.0 -0.07812 -0.997
5894000000.0 -0.8073 -0.5477
5897000000.0 -0.9409 0.2719
5900000000.0 -0.3591 0.8814
5903000000.0 0.5077 0.7829
5906000000.0 0.9105 0.1214
5909000000.0 0.6572 -0.644
5912000000.0 -0.08596 -0.9004
5916000000.0 -0.7428 -0.4906
5919000000.0 -0.8314 0.2863
5922000000.0 -0.2853 0.8658
5925000000.0 0.4725 0.7163
5928000000.0 0.8701 0.08245
5931000000.0 0.628 -0.6013
5934000000.0 -0.08814 -0.8316
5938000000.0 -0.6964 -0.4526
5941000000.0 -0.8368 0.2885
5944000000.0 -0.2894 0.8062
5947000000.0 0.4818 0.7109
5950000000.0 0.8425 0.1024
5953000000.0 0.6254 -0.582
5956000000.0 -0.08234 -0.8369
5959000000.0 -0.7092 -0.4665
5962000000.0 -0.8089 0.233
5966000000.0 -0.3121 0.7774
5969000000.0 0.4236 0.729
5972000000.0 0.8531 0.1435
5975000000.0 0.642 -0.5733
5978000000.0 -0.02525 -0.8657
5981000000.0 -0.6903 -0.5541
5984000000.0 -0.8462 0.1984
5988000000.0 -0.4237 0.7842
5991000000.0 0.3736 0.7935
5994000000.0 0.8861 0.2432
5997000000.0 0.7375 -0.5402
6000000000.0 0.05243 -0.9432
6003000000.0 -0.6556 -0.6391
6006000000.0 -0.9088 0.08056
6009000000.0 -0.5117 0.7839
6012000000.0 0.297 0.9141
6016000000.0 0.8656 0.3777
6019000000.0 0.8191 -0.4113
6022000000.0 0.1735 -0.9368
6025000000.0 -0.6025 -0.7602
6028000000.0 -0.9811 -0.001143
6031000000.0 -0.632 0.7412
6034000000.0 0.1742 0.9695
6038000000.0 0.8582 0.492
6041000000.0 0.9318 -0.3586
6044000000.0 0.3227 -0.9542
6047000000.0 -0.5461 -0.8237
6050000000.0 -0.9904 -0.1116
6053000000.0 -0.7113 0.7256
6056000000.0 0.1145 1.04
6059000000.0 0.8562 0.5556
6062000000.0 0.9406 -0.334
6066000000.0 0.3174 -0.9447
6069000000.0 -0.5149 -0.8561
6072000000.0 -0.9993 -0.1412
6075000000.0 -0.7062 0.6658
6078000000.0 0.07952 0.9982
6081000000.0 0.8156 0.5584
6084000000.0 0.9236 -0.274
6088000000.0 0.375 -0.9114
6091000000.0 -0.4566 -0.8243
6094000000.0 -0.951 -0.1655
6097000000.0 -0.7036 0.6295
6100000000.0 0.06071 0.9254
6103000000.0 0.7455 0.5161
6106000000.0 0.9033 -0.2579
6109000000.0 0.3845 -0.8196
6112000000.0 -0.4092 -0.7995
6116000000.0 -0.9142 -0.1716
6119000000.0 -0.6595 0.5841
6122000000.0 0.01968 0.8963
6125000000.0 0.7401 0.5066
6128000000.0 0.8438 -0.2297
6131000000.0 0.3385 -0.777
6134000000.0 -0.4005 -0.7503
6138000000.0 -0.8233 -0.1555
6141000000.0 -0.6426 0.5619
6144000000.0 0.02645 0.8348
6147000000.0 0.671 0.5246
6150000000.0 0.832 -0.2069
6153000000.0 0.3634 -0.7692
6156000000.0 -0.3523 -0.7258
6159000000.0 -0.7822 -0.1848
6162000000.0 -0.6398 0.5411
6166000000.0 -0.002387 0.8547
6169000000.0 0.662 0.5399
6172000000.0 0.8335 -0.1899
6175000000.0 0.3632 -0.786
6178000000.0 -0.3758 -0.8086
6181000000.0 -0.8536 -0.2234
6184000000.0 -0.7028 0.4988
6188000000.0 -0.03639 0.8377
6191000000.0 0.6976 0.5972
6194000000.0 0.8781 -0.1477
6197000000.0 0.4257 -0.8043
6200000000.0 -0.3203 -0.8151
6203000000.0 -0.8336 -0.2752
6206000000.0 -0.7159 0.4798
6209000000.0 -0.08581 0.853
6212000000.0 0.614 0.6683
6216000000.0 0.9109 -0.07901
6219000000.0 0.4704 -0.7451
6222000000.0 -0.2769 -0.8735
6225000000.0 -0.8425 -0.3322
6228000000.0 -0.7856 0.4316
6231000000.0 -0.1569 0.8821
6234000000.0 0.5749 0.6761
6238000000.0 0.8703 -0.06822
6241000000.0 0.5345 -0.6819
6244000000.0 -0.1945 -0.8629
6247000000.0 -0.7728 -0.3932
6250000000.0 -0.7937 0.367
6253000000.0 -0.2366 0.8176
6256000000.0 0.4561 0.6722
6259000000.0 0.8212 0.09539
6262000000.0 0.596 -0.5948
6266000000.0 -0.06532 -0.7837
